CITIFILE A.01.01
#Momentum: B.12.070 (*) built: Feb 13 2020 
#Momentum Date and Time: Mon Aug 15 06:54:28 2022

NAME Momentum.SP

#  mode: MW    reference: S_50

#eesof Port[1] P1
#eesof Port[2] P2

CONSTANT NBR_OF_PORTS 2

CONSTANT NORMALIZATION 1

VAR freq MAG 159

DATA S[1,1] RI
DATA S[1,2] RI
DATA S[2,1] RI
DATA S[2,2] RI
DATA PORTZ[1] RI
DATA PORTZ[2] RI

VAR_LIST_BEGIN
	 0
	 8.254652041
	 82.54652041
	 825.4652041
	 8254.652041
	 10391.99122
	 13082.74183
	 16470.19614
	 20734.74846
	 26103.50174
	 32862.36168
	 41371.26221
	 52083.33331
	 65569.03184
	 82546.52041
	 103919.9122
	 130827.4183
	 164701.9614
	 207347.4846
	 261035.0174
	 328623.6168
	 413712.6221
	 520833.3331
	 655690.3184
	 825465.2041
	 1039199.122
	 1308274.183
	 1647019.614
	 2073474.846
	 2610350.174
	 3286236.168
	 4137126.221
	 5208333.331
	 6556903.184
	 8254652.041
	 10391991.22
	 13082741.83
	 16470196.14
	 20734748.46
	 26103501.74
	 32862361.68
	 41371262.21
	 52083333.31
	 58888017.66
	 65724723.36
	 82742524.42
	 104166666.6
	 127625925.2
	 156249999.9
	 181096072.2
	 208333333.2
	 260416666.6
	 312499999.9
	 364583333.2
	 416666666.5
	 468749999.8
	 520833333.1
	 572916666.4
	 624999999.8
	 677083333.1
	 729166666.4
	 781249999.7
	 833333333
	 885416666.3
	 937499999.6
	 989583332.9
	 1041666666
	 1093750000
	 1145833333
	 1197916666
	 1250000000
	 1302083333
	 1354166666
	 1406249999
	 1458333333
	 1510416666
	 1562499999
	 1614583333
	 1666666666
	 1770833333
	 1874999999
	 1979166666
	 2083333333
	 2187499999
	 2291666666
	 2395833333
	 2500000000
	 2604166666
	 2708333333
	 2812500000
	 2916666666
	 3020833333
	 3125000000
	 3229166666
	 3333333333
	 3437500000
	 3541666666
	 3645833333
	 3750000000
	 3854166666
	 3958333333
	 4062500000
	 4166666666
	 4270833333
	 4375000000
	 4479166667
	 4583333333
	 4687500000
	 4791666667
	 4895833333
	 5000000000
	 5104166667
	 5208333333
	 5312500000
	 5416666667
	 5520833333
	 5625000000
	 5729166667
	 5833333334
	 5937500000
	 6041666667
	 6145833334
	 6250000000
	 6354166667
	 6458333334
	 6562500000
	 6666666667
	 6770833334
	 6875000000
	 6979166667
	 7083333334
	 7187500000
	 7291666667
	 7395833334
	 7500000000
	 7604166667
	 7708333334
	 7812500001
	 7916666667
	 8020833334
	 8125000001
	 8229166667
	 8333333334
	 8437500001
	 8541666667
	 8645833334
	 8750000000
	 8854166667
	 8958333334
	 9062500000
	 9166666667
	 9270833334
	 9375000000
	 9479166667
	 9583333334
	 9687500000
	 9791666667
	 9895833333
	 1e+10
VAR_LIST_END

BEGIN
	 0.999999999999998445687765524781 ,	 -0 
	 1.00000000000000155431223447522 ,	 -2.33874952737522789902868680656e-09 
	 1.00000000000000199840144432528 ,	 -2.33874977162429331656312569976e-08 
	 0.999999999999971356245964670961 ,	 -2.33874978383674658743984764442e-07 
	 0.999999999996941557611762618762 ,	 -2.3387497856131034268400981091e-06 
	 0.999999999995152544229881641513 ,	 -2.94431153713414772710166289471e-06 
	 0.999999999992316146446569291584 ,	 -3.70666861404522762768465327099e-06 
	 0.999999999987821519553676807845 ,	 -4.66641931184952341027383226901e-06 
	 0.999999999980697662493867028388 ,	 -5.87467385360085359025106299669e-06 
	 0.999999999969407138422639036435 ,	 -7.39577620012532577220554230735e-06 
	 0.999999999951512563711730763316 ,	 -9.31073059762255184068635571748e-06 
	 0.999999999923151472458471289428 ,	 -1.17215153522254311724282160867e-05 
	 0.99999999987820253899428735167 ,	 -1.47565135412142112159017415252e-05 
	 0.999999999806962525106257544394 ,	 -1.85773498855290597475686809048e-05 
	 0.99999999969405495292562591203 ,	 -2.33874978515791198674378392752e-05 
	 0.999999999515108983771938255813 ,	 -2.94431153593510686050649383105e-05 
	 0.999999999231498293283948441967 ,	 -3.7066686119691105716356105404e-05 
	 0.999999998782007071262967201619 ,	 -4.66641930680911087847562157549e-05 
	 0.999999998069609818962533154263 ,	 -5.87467384383089097354968544096e-05 
	 0.99999999694053809395910548119 ,	 -7.39577618078524068323531537317e-05 
	 0.999999995151078180377623993991 ,	 -9.31073055950859540530473168474e-05 
	 0.99999999231497715967975636886 ,	 -0.000117215152749428064282710693078 
	 0.999999987820058722221006064501 ,	 -0.000147565133870042330954674980603 
	 0.999999980696092638510208416847 ,	 -0.00018577349577819646242460294161 
	 0.999999969405370281450018410396 ,	 -0.00023387497238780419195336435223 
	 0.999999951510782913999264565064 ,	 -0.00029443114136196157915037474595 
	 0.999999923149777369957291739411 ,	 -0.000370666836784772080193306464935 
	 0.999999878200627745350459463225 ,	 -0.000466641881984419804041408497142 
	 0.999999806961062165377995825111 ,	 -0.000587467287215925892951418063603 
	 0.999999694054046206481700664881 ,	 -0.000739577424202053634871845133603 
	 0.99999951510870732640512414946 ,	 -0.000931072669119070717158592742635 
	 0.999999231500014573725820810068 ,	 -0.00117215075566756699032566757523 
	 0.999998782011923603718628328352 ,	 -0.00147564979871084300810935019399 
	 0.999998069624817187417420427664 ,	 -0.00185773188514692932926664070692 
	 0.999996940576152071322724168567 ,	 -0.0023387435933059919079823885113 
	 0.999995151176737540055228237179 ,	 -0.00294429918197225415354978395044 
	 0.999992315225362249364593481005 ,	 -0.00370664396395525841398921329528 
	 0.999987820684886785649325702252 ,	 -0.00466637013222215291108341261861 
	 0.999980697668660267751761239197 ,	 -0.00587457574197891574385721469298 
	 0.999969409328162250893967666343 ,	 -0.00739558048732491535304234275827 
	 0.999951520720502307071342329436 ,	 -0.00931034024342758392833729885751 
	 0.999923174719463903059590847988 ,	 -0.0117207369456814314290227230231 
	 0.999878263187601756811773157096 ,	 -0.0147549618468721943642663063656 
	 0.999844397568023568467765471723 ,	 -0.016682209897718403013300303428 
	 0.999806201507300484898621562024 ,	 -0.0186183476476557974166325948318 
	 0.999692995452708066395075547916 ,	 -0.0234368326843803487236073124222 
	 0.999513792206024431763466964185 ,	 -0.0295007052464502095290299621411 
	 0.999270862568987228158334801265 ,	 -0.0361370708599930701154789858265 
	 0.9989087185835332505234873679 ,	 -0.0442284531792433988073298678501 
	 0.998536225085848716531700119958 ,	 -0.0512455494611596673593112427625 
	 0.998066325255160480267591083248 ,	 -0.0589302364374076903530408344523 
	 0.996990704572794594895412956248 ,	 -0.0735991312243231554646172298817 
	 0.995686382525011515198798406345 ,	 -0.0882293479774112210378689269419 
	 0.994157971775147419890572564327 ,	 -0.102816184875073157733993411966 
	 0.992409896855531492576574237319 ,	 -0.11735588241536898390648957502 
	 0.990446210552800576643051044812 ,	 -0.131845423909301429077345346741 
	 0.98827,	-0.14628
	 0.98588,	-0.16066
	 0.98329,	-0.17498
	 0.98049,	-0.18925
	 0.9775,	-0.20346
	 0.9743,	-0.2176
	 0.9709,	-0.23168
	 0.96731,	-0.24569
	 0.96352,	-0.25963
	 0.95954,	-0.2735
	 0.95536,	-0.2873
	 0.95099,	-0.30101
	 0.94643,	-0.31465
	 0.94168,	-0.32821
	 0.93674,	-0.34168
	 0.93161,	-0.35506
	 0.9263,	-0.36835
	 0.92081,	-0.38154
	 0.91514,	-0.39464
	 0.90929,	-0.40764
	 0.90326,	-0.42054
	 0.89706,	-0.43333
	 0.89069,	-0.44602
	 0.87742,	-0.47106
	 0.8635,	-0.49564
	 0.84892,	-0.51975
	 0.83372,	-0.54336
	 0.81791,	-0.56645
	 0.80151,	-0.58902
	 0.78454,	-0.61104
	 0.76702,	-0.6325
	 0.74898,	-0.65339
	 0.73043,	-0.67369
	 0.7114,	-0.69339
	 0.6919,	-0.71249
	 0.67197,	-0.73096
	 0.65161,	-0.74881
	 0.63086,	-0.76602
	 0.60974,	-0.78259
	 0.58827,	-0.79852
	 0.56646,	-0.81378
	 0.54435,	-0.82839
	 0.52195,	-0.84233
	 0.49929,	-0.85561
	 0.47638,	-0.86821
	 0.45325,	-0.88015
	 0.42993,	-0.89142
	 0.40642,	-0.90201
	 0.38275,	-0.91193
	 0.35894,	-0.92119
	 0.33501,	-0.92977
	 0.31098,	-0.93769
	 0.28686,	-0.94494
	 0.26269,	-0.95154
	 0.23846,	-0.95748
	 0.21421,	-0.96277
	 0.18995,	-0.96741
	 0.1657,	-0.97141
	 0.14147,	-0.97477
	 0.11727,	-0.97751
	 0.093139,	-0.97962
	 0.069069,	-0.98111
	 0.045082,	-0.982
	 0.021194,	-0.98228
	-0.0025825,	-0.98196
	-0.026234,	-0.98106
	-0.049747,	-0.97958
	-0.07311,	-0.97752
	-0.09631,	-0.9749
	-0.11933,	-0.97172
	-0.14217,	-0.96799
	-0.16482,	-0.96373
	-0.18725,	-0.95893
	-0.20947,	-0.95361
	-0.23146,	-0.94778
	-0.25322,	-0.94144
	-0.27473,	-0.93461
	-0.29598,	-0.92728
	-0.31698,	-0.91948
	-0.3377,	-0.9112
	-0.35814,	-0.90246
	-0.3783,	-0.89327
	-0.39816,	-0.88363
	-0.41772,	-0.87356
	-0.43697,	-0.86306
	-0.45591,	-0.85213
	-0.47453,	-0.8408
	-0.49282,	-0.82906
	-0.51078,	-0.81692
	-0.5284,	-0.8044
	-0.54567,	-0.7915
	-0.56259,	-0.77822
	-0.57916,	-0.76459
	-0.59537,	-0.75059
	-0.61121,	-0.73625
	-0.62669,	-0.72157
	-0.64178,	-0.70655
	-0.6565,	-0.69121
	-0.67083,	-0.67555
	-0.68478,	-0.65957
	-0.69833,	-0.6433
	-0.71148,	-0.62672
	-0.72423,	-0.60986
END
BEGIN
	 -7.57664608000000047278088786308e-21 ,	 0 
	 2.52402265999999975856445242044e-16 ,	 2.35927597000000007683611404893e-13 
	 2.58040117000000016593650273966e-16 ,	 2.35920484999999985569870796559e-12 
	 2.84494650000000014831757222414e-16 ,	 2.35921681000000005510409463437e-11 
	 2.66193317000000006767375653553e-15 ,	 2.35921712999999998133502257137e-10 
	 4.07443175999999990374006918522e-15 ,	 2.97007828000000003552811974372e-10 
	 6.31005663999999964473057645529e-15 ,	 3.73910686999999993825403370339e-10 
	 9.84325467999999990186884082373e-15 ,	 4.70725697999999971648608966399e-10 
	 1.54581208999999986737112901635e-14 ,	 5.92608523000000041842653420858e-10 
	 2.43294968000000011885136518556e-14 ,	 7.46049946000000031764093550069e-10 
	 3.84219566000000030298961667422e-14 ,	 9.3922120799999991071447402605e-10 
	 6.07604244999999942268629693454e-14 ,	 1.18240942999999999824166218708e-09 
	 9.61257983000000051951209492422e-14 ,	 1.48856528000000002519371470992e-09 
	 1.52216780999999999348886243665e-13 ,	 1.87399262999999998876493824591e-09 
	 2.41100108999999976667182660087e-13 ,	 2.35921686999999996049303692793e-09 
	 3.81930598e-13 ,	 2.97007793e-09 
	 6.05169994e-13 ,	 3.73910631e-09 
	 9.58966413e-13 ,	 4.70725543e-09 
	 1.51973529e-12 ,	 5.92608242e-09 
	 2.4084363e-12 ,	 7.46049367e-09 
	 3.81697104e-12 ,	 9.39220083e-09 
	 6.04932163e-12 ,	 1.18240719e-08 
	 9.58730404e-12 ,	 1.48856078e-08 
	 1.51944755e-11 ,	 1.87398365e-08 
	 2.40809425e-11 ,	 2.35919896e-08 
	 3.8164266e-11 ,	 2.9700422e-08 
	 6.04828288e-11 ,	 3.73903503e-08 
	 9.58503277e-11 ,	 4.70711321e-08 
	 1.51891442e-10 ,	 5.9257987e-08 
	 2.40678946e-10 ,	 7.45992767e-08 
	 3.81318236e-10 ,	 9.391072e-08 
	 6.04017237e-10 ,	 1.1821821e-07 
	 9.56471839e-10 ,	 1.48811211e-07 
	 1.51382429e-09 ,	 1.87308982e-07 
	 2.39404404e-09 ,	 2.35741991e-07 
	 3.7813157e-09 ,	 2.96650629e-07 
	 5.96070077e-09 ,	 3.73202301e-07 
	 9.36733194e-09 ,	 4.69325623e-07 
	 1.46510918e-08 ,	 5.89856271e-07 
	 2.27498455e-08 ,	 7.40683628e-07 
	 3.49460404e-08 ,	 9.28885635e-07 
	 5.28514006e-08 ,	 1.16285483e-06 
	 7.82412628e-08 ,	 1.45247505e-06 
	 9.54102114e-08 ,	 1.63364176e-06 
	 1.13115331e-07 ,	 1.81358317e-06 
	 1.57832542e-07 ,	 2.25338818e-06 
	 2.1335638e-07 ,	 2.79345422e-06 
	 2.72281088e-07 ,	 3.37106227e-06 
	 3.42543706e-07 ,	 4.05918761e-06 
	 4.03354678e-07 ,	 4.64190528e-06 
	 4.70722625e-07 ,	 5.26387489e-06 
	 6.01880557e-07 ,	 6.39647824e-06 
	 7.32041855e-07 ,	 7.44015571e-06 
	 8.52031552e-07 ,	 8.37780414e-06 
	 9.49218722e-07 ,	 9.19332656e-06 
	 1.00834462e-06 ,	 9.87196805e-06 
	 1.01194406e-06 ,	 1.04004638e-05 
	 9.40598605e-07 ,	 1.07671556e-05 
	 7.73120631e-07 ,	 1.09621072e-05 
	 4.8671004e-07 ,	 1.09772203e-05 
	 5.71018295e-08 ,	 1.08063504e-05 
	 -5.4128708e-07 ,	 1.04454188e-05 
	 -1.33520798e-06 ,	 9.89251899e-06 
	 -2.35242575e-06 ,	 9.14801636e-06 
	 -3.62155888e-06 ,	 8.21463916e-06 
	 -5.17191397e-06 ,	 7.09756076e-06 
	 -7.03331508e-06 ,	 5.80447199e-06 
	 -9.23592824e-06 ,	 4.34564313e-06 
	 -1.18100817e-05 ,	 2.73397511e-06 
	 -1.47860822e-05 ,	 9.85039597e-07 
	 -1.81940292e-05 ,	 -8.82892398e-07 
	 -2.2063625e-05 ,	 -2.84883353e-06 
	 -2.64239849e-05 ,	 -4.88907503e-06 
	 -3.13034456e-05 ,	 -6.97719351e-06 
	 -3.67293733e-05 ,	 -9.08406985e-06 
	 -4.27279724e-05 ,	 -1.11779201e-05 
	 -4.93240957e-05 ,	 -1.32243383e-05 
	 -5.65410559e-05 ,	 -1.51863517e-05 
	 -6.44004405e-05 ,	 -1.7024487e-05 
	 -8.21231169e-05 ,	 -2.01592101e-05 
	 -0.000102623501 ,	 -2.22659768e-05 
	 -0.000125994186 ,	 -2.29484334e-05 
	 -0.000152283912 ,	 -2.17804821e-05 
	 -0.000181492957 ,	 -1.83109875e-05 
	 -0.00021356907 ,	 -1.2069053e-05 
	 -0.000248403983 ,	 -2.56980476e-06 
	 -0.000285830584 ,	 1.06793909e-05 
	 -0.000325620781 ,	 2.81723496e-05 
	 -0.000367484099 ,	 5.03972135e-05 
	 -0.000411067031 ,	 7.78293985e-05 
	 -0.000455953172 ,	 0.000110924432 
	 -0.000501664121 ,	 0.000150110762 
	 -0.000547661181 ,	 0.000195782627 
	 -0.000593347816 ,	 0.000248293064 
	 -0.000638072858 ,	 0.00030794714 
	 -0.000681134443 ,	 0.000374995475 
	 -0.000721784631 ,	 0.000449628143 
	 -0.000759234668 ,	 0.000531969001 
	 -0.000792660853 ,	 0.000622070526 
	 -0.000821210952 ,	 0.000719909197 
	 -0.00084401109 ,	 0.000825381499 
	 -0.000860173085 ,	 0.00093830056 
	 -0.000868802139 ,	 0.00105839349 
	 -0.000869004824 ,	 0.00118529945 
	 -0.000859897304 ,	 0.00131856843 
	 -0.000840613706 ,	 0.00145766085 
	 -0.000810314587 ,	 0.00160194788 
	 -0.000768195409 ,	 0.00175071261 
	 -0.000713494962 ,	 0.00190315193 
	 -0.000645503653 ,	 0.0020583793 
	 -0.000563571602 ,	 0.00221542813 
	 -0.000467116462 ,	 0.0023732561 
	 -0.000355630904 ,	 0.00253075004 
	 -0.000228689696 ,	 0.00268673163 
	 -8.59563164e-05 ,	 0.00283996366 
	 7.28109663e-05 ,	 0.00298915701 
	 0.000247753597 ,	 0.00313297808 
	 0.000438907879 ,	 0.00327005688 
	 0.000646200803 ,	 0.00339899544 
	 0.00086944661 ,	 0.00351837672 
	 0.00110834412 ,	 0.00362677376 
	 0.00136247484 ,	 0.00372275916 
	 0.00163130193 ,	 0.00380491468 
	 0.00191416995 ,	 0.00387184097 
	 0.00221030547 ,	 0.00392216729 
	 0.00251881851 ,	 0.00395456123 
	 0.00283870482 ,	 0.00396773821 
	 0.00316884891 ,	 0.00396047083 
	 0.00350802789 ,	 0.00393159788 
	 0.00385491604 ,	 0.00388003304 
	 0.00420809006 ,	 0.00380477309 
	 0.00456603492 ,	 0.00370490571 
	 0.00492715034 ,	 0.00357961666 
	 0.00528975773 ,	 0.00342819644 
	 0.00565210759 ,	 0.00325004636 
	 0.00601238726 ,	 0.00304468387 
	 0.00636872898 ,	 0.00281174741 
	 0.00671921815 ,	 0.00255100042 
	 0.0070619018 ,	 0.00226233491 
	 0.00739479702 ,	 0.00194577423 
	 0.00771589957 ,	 0.00160147535 
	 0.00802319238 ,	 0.0012297306 
	 0.00831465392 ,	 0.000830968778 
	 0.00858826661 ,	 0.000405755954 
	 0.00884202495 ,	 -4.52042728e-05 
	 0.00907394363 ,	 -0.000521070788 
	 0.0092821,	-0.0010209
	 0.0094645,	-0.0015435
	 0.0096193,	-0.0020876
	 0.0097447,	-0.002652
	 0.0098389,	-0.003235
	 0.0099002,	-0.003835
	 0.0099269,	-0.0044502
	 0.0099176,	-0.0050788
	 0.0098708,	-0.0057186
	 0.0097851,	-0.0063674
	 0.0096593,	-0.0070231
	 0.0094922,	-0.0076832
	 0.0092829,	-0.008345
END
BEGIN
	 -7.57664608000000047278088786308e-21 ,	 0 
	 2.52402265999999975856445242044e-16 ,	 2.35927597000000007683611404893e-13 
	 2.58040117000000016593650273966e-16 ,	 2.35920484999999985569870796559e-12 
	 2.84494650000000014831757222414e-16 ,	 2.35921681000000005510409463437e-11 
	 2.66193317000000006767375653553e-15 ,	 2.35921712999999998133502257137e-10 
	 4.07443175999999990374006918522e-15 ,	 2.97007828000000003552811974372e-10 
	 6.31005663999999964473057645529e-15 ,	 3.73910686999999993825403370339e-10 
	 9.84325467999999990186884082373e-15 ,	 4.70725697999999971648608966399e-10 
	 1.54581208999999986737112901635e-14 ,	 5.92608523000000041842653420858e-10 
	 2.43294968000000011885136518556e-14 ,	 7.46049946000000031764093550069e-10 
	 3.84219566000000030298961667422e-14 ,	 9.3922120799999991071447402605e-10 
	 6.07604244999999942268629693454e-14 ,	 1.18240942999999999824166218708e-09 
	 9.61257983000000051951209492422e-14 ,	 1.48856528000000002519371470992e-09 
	 1.52216780999999999348886243665e-13 ,	 1.87399262999999998876493824591e-09 
	 2.41100108999999976667182660087e-13 ,	 2.35921686999999996049303692793e-09 
	 3.81930598e-13 ,	 2.97007793e-09 
	 6.05169994e-13 ,	 3.73910631e-09 
	 9.58966413e-13 ,	 4.70725543e-09 
	 1.51973529e-12 ,	 5.92608242e-09 
	 2.4084363e-12 ,	 7.46049367e-09 
	 3.81697104e-12 ,	 9.39220083e-09 
	 6.04932163e-12 ,	 1.18240719e-08 
	 9.58730404e-12 ,	 1.48856078e-08 
	 1.51944755e-11 ,	 1.87398365e-08 
	 2.40809425e-11 ,	 2.35919896e-08 
	 3.8164266e-11 ,	 2.9700422e-08 
	 6.04828288e-11 ,	 3.73903503e-08 
	 9.58503277e-11 ,	 4.70711321e-08 
	 1.51891442e-10 ,	 5.9257987e-08 
	 2.40678946e-10 ,	 7.45992767e-08 
	 3.81318236e-10 ,	 9.391072e-08 
	 6.04017237e-10 ,	 1.1821821e-07 
	 9.56471839e-10 ,	 1.48811211e-07 
	 1.51382429e-09 ,	 1.87308982e-07 
	 2.39404404e-09 ,	 2.35741991e-07 
	 3.7813157e-09 ,	 2.96650629e-07 
	 5.96070077e-09 ,	 3.73202301e-07 
	 9.36733194e-09 ,	 4.69325623e-07 
	 1.46510918e-08 ,	 5.89856271e-07 
	 2.27498455e-08 ,	 7.40683628e-07 
	 3.49460404e-08 ,	 9.28885635e-07 
	 5.28514006e-08 ,	 1.16285483e-06 
	 7.82412628e-08 ,	 1.45247505e-06 
	 9.54102114e-08 ,	 1.63364176e-06 
	 1.13115331e-07 ,	 1.81358317e-06 
	 1.57832542e-07 ,	 2.25338818e-06 
	 2.1335638e-07 ,	 2.79345422e-06 
	 2.72281088e-07 ,	 3.37106227e-06 
	 3.42543706e-07 ,	 4.05918761e-06 
	 4.03354678e-07 ,	 4.64190528e-06 
	 4.70722625e-07 ,	 5.26387489e-06 
	 6.01880557e-07 ,	 6.39647824e-06 
	 7.32041855e-07 ,	 7.44015571e-06 
	 8.52031552e-07 ,	 8.37780414e-06 
	 9.49218722e-07 ,	 9.19332656e-06 
	 1.00834462e-06 ,	 9.87196805e-06 
	 1.01194406e-06 ,	 1.04004638e-05 
	 9.40598605e-07 ,	 1.07671556e-05 
	 7.73120631e-07 ,	 1.09621072e-05 
	 4.8671004e-07 ,	 1.09772203e-05 
	 5.71018295e-08 ,	 1.08063504e-05 
	 -5.4128708e-07 ,	 1.04454188e-05 
	 -1.33520798e-06 ,	 9.89251899e-06 
	 -2.35242575e-06 ,	 9.14801636e-06 
	 -3.62155888e-06 ,	 8.21463916e-06 
	 -5.17191397e-06 ,	 7.09756076e-06 
	 -7.03331508e-06 ,	 5.80447199e-06 
	 -9.23592824e-06 ,	 4.34564313e-06 
	 -1.18100817e-05 ,	 2.73397511e-06 
	 -1.47860822e-05 ,	 9.85039597e-07 
	 -1.81940292e-05 ,	 -8.82892398e-07 
	 -2.2063625e-05 ,	 -2.84883353e-06 
	 -2.64239849e-05 ,	 -4.88907503e-06 
	 -3.13034456e-05 ,	 -6.97719351e-06 
	 -3.67293733e-05 ,	 -9.08406985e-06 
	 -4.27279724e-05 ,	 -1.11779201e-05 
	 -4.93240957e-05 ,	 -1.32243383e-05 
	 -5.65410559e-05 ,	 -1.51863517e-05 
	 -6.44004405e-05 ,	 -1.7024487e-05 
	 -8.21231169e-05 ,	 -2.01592101e-05 
	 -0.000102623501 ,	 -2.22659768e-05 
	 -0.000125994186 ,	 -2.29484334e-05 
	 -0.000152283912 ,	 -2.17804821e-05 
	 -0.000181492957 ,	 -1.83109875e-05 
	 -0.00021356907 ,	 -1.2069053e-05 
	 -0.000248403983 ,	 -2.56980476e-06 
	 -0.000285830584 ,	 1.06793909e-05 
	 -0.000325620781 ,	 2.81723496e-05 
	 -0.000367484099 ,	 5.03972135e-05 
	 -0.000411067031 ,	 7.78293985e-05 
	 -0.000455953172 ,	 0.000110924432 
	 -0.000501664121 ,	 0.000150110762 
	 -0.000547661181 ,	 0.000195782627 
	 -0.000593347816 ,	 0.000248293064 
	 -0.000638072858 ,	 0.00030794714 
	 -0.000681134443 ,	 0.000374995475 
	 -0.000721784631 ,	 0.000449628143 
	 -0.000759234668 ,	 0.000531969001 
	 -0.000792660853 ,	 0.000622070526 
	 -0.000821210952 ,	 0.000719909197 
	 -0.00084401109 ,	 0.000825381499 
	 -0.000860173085 ,	 0.00093830056 
	 -0.000868802139 ,	 0.00105839349 
	 -0.000869004824 ,	 0.00118529945 
	 -0.000859897304 ,	 0.00131856843 
	 -0.000840613706 ,	 0.00145766085 
	 -0.000810314587 ,	 0.00160194788 
	 -0.000768195409 ,	 0.00175071261 
	 -0.000713494962 ,	 0.00190315193 
	 -0.000645503653 ,	 0.0020583793 
	 -0.000563571602 ,	 0.00221542813 
	 -0.000467116462 ,	 0.0023732561 
	 -0.000355630904 ,	 0.00253075004 
	 -0.000228689696 ,	 0.00268673163 
	 -8.59563164e-05 ,	 0.00283996366 
	 7.28109663e-05 ,	 0.00298915701 
	 0.000247753597 ,	 0.00313297808 
	 0.000438907879 ,	 0.00327005688 
	 0.000646200803 ,	 0.00339899544 
	 0.00086944661 ,	 0.00351837672 
	 0.00110834412 ,	 0.00362677376 
	 0.00136247484 ,	 0.00372275916 
	 0.00163130193 ,	 0.00380491468 
	 0.00191416995 ,	 0.00387184097 
	 0.00221030547 ,	 0.00392216729 
