CITIFILE A.01.01
#Momentum: B.12.070 (*) built: Feb 13 2020 
#Momentum Date and Time: Mon Aug 15 05:04:01 2022

NAME Momentum.SP

#  mode: MW    reference: S_50

#eesof Port[1] P1
#eesof Port[2] P2

CONSTANT NBR_OF_PORTS 2

CONSTANT NORMALIZATION 1

VAR freq MAG 362

DATA S[1,1] RI
DATA S[1,2] RI
DATA S[2,1] RI
DATA S[2,2] RI
DATA PORTZ[1] RI
DATA PORTZ[2] RI

VAR_LIST_BEGIN
	 0
	 8.701167245
	 87.01167245
	 870.1167245
	 8701.167245
	 10954.12056
	 13790.42073
	 17361.1111
	 21856.34394
	 27515.5068
	 34639.97072
	 43609.13941
	 54900.65379
	 69115.82818
	 87011.67245
	 109541.2056
	 137904.2073
	 173611.111
	 218563.4394
	 275155.068
	 346399.7072
	 436091.3941
	 549006.5379
	 691158.2818
	 870116.7245
	 1095412.056
	 1379042.073
	 1736111.11
	 2185634.394
	 2751550.68
	 3463997.072
	 4360913.941
	 5490065.379
	 6911582.818
	 8701167.245
	 10954120.56
	 13790420.73
	 17361111.1
	 19629339.22
	 21908241.11
	 27580841.47
	 34722222.2
	 42541975.04
	 52083333.3
	 60365357.38
	 69444444.4
	 86805555.5
	 104166666.6
	 121527777.7
	 138888888.8
	 167824074
	 196759259.2
	 225694444.3
	 254629629.5
	 283564814.7
	 312499999.9
	 341435185
	 370370370.2
	 399305555.4
	 428240740.6
	 457175925.7
	 486111110.9
	 515046296.1
	 543981481.2
	 572916666.4
	 601851851.6
	 630787036.8
	 659722222
	 688657407.1
	 717592592.3
	 746527777.5
	 775462962.6
	 804398147.8
	 833333333
	 859374999.7
	 885416666.3
	 911458333
	 937499999.6
	 963541666.3
	 989583332.9
	 1015625000
	 1041666666
	 1067708333
	 1093750000
	 1119791666
	 1145833333
	 1171875000
	 1197916666
	 1223958333
	 1250000000
	 1276041666
	 1302083333
	 1328124999
	 1354166666
	 1380208333
	 1406249999
	 1432291666
	 1458333333
	 1484374999
	 1510416666
	 1536458333
	 1562499999
	 1588541666
	 1614583333
	 1640624999
	 1666666666
	 1692708333
	 1718749999
	 1744791666
	 1770833333
	 1796874999
	 1822916666
	 1848958333
	 1874999999
	 1901041666
	 1927083333
	 1953124999
	 1979166666
	 2005208333
	 2031249999
	 2057291666
	 2083333333
	 2109374999
	 2135416666
	 2161458333
	 2187499999
	 2213541666
	 2239583333
	 2265624999
	 2291666666
	 2317708333
	 2343749999
	 2369791666
	 2395833333
	 2421874999
	 2447916666
	 2473958333
	 2500000000
	 2526041666
	 2552083333
	 2578125000
	 2604166666
	 2630208333
	 2656250000
	 2682291666
	 2708333333
	 2734375000
	 2760416666
	 2786458333
	 2812500000
	 2838541666
	 2864583333
	 2890625000
	 2916666666
	 2968750000
	 3020833333
	 3072916666
	 3125000000
	 3177083333
	 3229166666
	 3281250000
	 3333333333
	 3368055555
	 3402777777
	 3437500000
	 3472222222
	 3506944444
	 3541666666
	 3576388889
	 3611111111
	 3645833333
	 3680555555
	 3715277777
	 3750000000
	 3784722222
	 3819444444
	 3854166666
	 3888888888
	 3923611111
	 3958333333
	 3993055555
	 4027777777
	 4062500000
	 4097222222
	 4131944444
	 4166666666
	 4201388888
	 4236111111
	 4270833333
	 4305555555
	 4340277777
	 4375000000
	 4409722222
	 4444444444
	 4479166666
	 4513888888
	 4548611111
	 4583333333
	 4618055555
	 4652777778
	 4687500000
	 4722222222
	 4756944444
	 4791666666
	 4826388889
	 4861111111
	 4895833333
	 4930555556
	 4965277778
	 5000000000
	 5026041667
	 5052083333
	 5078125000
	 5104166667
	 5130208333
	 5156250000
	 5182291667
	 5208333333
	 5234375000
	 5260416667
	 5286458333
	 5312500000
	 5338541667
	 5364583333
	 5390625000
	 5416666667
	 5468750000
	 5520833333
	 5572916667
	 5625000000
	 5677083333
	 5729166667
	 5781250000
	 5833333334
	 5885416667
	 5937500000
	 5989583334
	 6041666667
	 6093750000
	 6145833334
	 6197916667
	 6250000000
	 6302083334
	 6354166667
	 6406250000
	 6458333334
	 6484375000
	 6510416667
	 6536458334
	 6562500000
	 6588541667
	 6614583334
	 6640625000
	 6666666667
	 6692708334
	 6718750000
	 6744791667
	 6770833334
	 6796875000
	 6822916667
	 6848958334
	 6875000000
	 6901041667
	 6927083334
	 6953125000
	 6979166667
	 7005208334
	 7031250000
	 7057291667
	 7083333334
	 7109375000
	 7135416667
	 7161458334
	 7187500000
	 7213541667
	 7239583334
	 7265625000
	 7291666667
	 7317708334
	 7343750000
	 7369791667
	 7395833334
	 7421875000
	 7447916667
	 7473958334
	 7500000000
	 7526041667
	 7552083334
	 7578125001
	 7604166667
	 7630208334
	 7656250001
	 7682291667
	 7708333334
	 7734375001
	 7760416667
	 7786458334
	 7812500001
	 7838541667
	 7864583334
	 7890625001
	 7916666667
	 7942708334
	 7968750001
	 7994791667
	 8020833334
	 8046875001
	 8072916667
	 8098958334
	 8125000001
	 8177083334
	 8229166667
	 8281250001
	 8333333334
	 8385416667
	 8437500001
	 8489583334
	 8541666667
	 8593750001
	 8645833334
	 8697916667
	 8750000000
	 8776041667
	 8802083334
	 8828125000
	 8854166667
	 8880208334
	 8906250000
	 8932291667
	 8958333334
	 8984375000
	 9010416667
	 9036458334
	 9062500000
	 9088541667
	 9114583334
	 9140625000
	 9166666667
	 9192708334
	 9218750000
	 9244791667
	 9270833334
	 9296875000
	 9322916667
	 9348958334
	 9375000000
	 9401041667
	 9427083334
	 9453125000
	 9479166667
	 9505208334
	 9531250000
	 9557291667
	 9583333334
	 9635416667
	 9687500000
	 9739583333
	 9791666667
	 9843750000
	 9895833333
	 9947916667
	 1e+10
VAR_LIST_END

BEGIN
	 1.00000000000035438318946034997 ,	 -0 
	 1.00000000000035504932327512506 ,	 -6.8947199061142327991547062993e-09 
	 1.00000000000035171865420124959 ,	 -6.89472008374991673917975276709e-08 
	 1.00000000000005617728504603292 ,	 -6.89472006154545624667662195861e-07 
	 0.999999999970458963716168909741 ,	 -6.8947200588809209875762462616e-06 
	 0.999999999952973173122927619261 ,	 -8.67993828856938876015192363411e-06 
	 0.999999999925259785982234461699 ,	 -1.09273948845078905378613853827e-05 
	 0.999999999881337586771223868709 ,	 -1.37567751039568975102156400681e-05 
	 0.999999999811723716547362528217 ,	 -1.73187537586549922252743272111e-05 
	 0.9999999997013930830291883467 ,	 -2.18030192042917292383208405226e-05 
	 0.999999999526533844829145891708 ,	 -2.74483749200804538759257411584e-05 
	 0.999999999249399085243794615963 ,	 -3.4555456679186136170756071806e-05 
	 0.999999998810170209750936010096 ,	 -4.35027424905420900813624029979e-05 
	 0.999999998114038612939680206182 ,	 -5.47667079282554425390117103234e-05 
	 0.999999997010744268166604342696 ,	 -6.89472001753621555053541669622e-05 
	 0.999999995262143004381982791529 ,	 -8.67993820685697414774040225893e-05 
	 0.999999992490795186483865109039 ,	 -0.000109273947205501542612182674929 
	 0.999999988098506431555279050372 ,	 -0.000137567747767075587717044982128 
	 0.999999981137197790914683537267 ,	 -0.000173187531081531176369026070461 
	 0.999999970104272550841528754972 ,	 -0.00021803017904398203086202556733 
	 0.999999952618275456117657995492 ,	 -0.000274483723273988289292901754379 
	 0.999999924904867443231637480494 ,	 -0.000345554515079005142297319252975 
	 0.999999880982144651042631267046 ,	 -0.000435027321735059757656927104108 
	 0.999999811369497226820612922893 ,	 -0.000547666873424557110183741315268 
	 0.999999701041329069894914027827 ,	 -0.000689471591050150323098932858557 
	 0.999999526184084386315475967422 ,	 -0.000867993001215872084230795735493 
	 0.999999249056827688164617029543 ,	 -0.00109273783702734661460453935433 
	 0.999998809846761371744605639833 ,	 -0.00137567421550244262107298709452 
	 0.999998113763392426633913601108 ,	 -0.0017318688023371109352410712745 
	 0.999997010589980028782974841306 ,	 -0.00218028880561460525200345728081 
	 0.999995262289388620047247968614 ,	 -0.00274481132877602007624773250427 
	 0.999992491699443375452460713859 ,	 -0.00345549347865947709124156972393 
	 0.999988101312359711769772729895 ,	 -0.00435017015921745908713091921527 
	 0.999981144778603558975760279282 ,	 -0.00547646323674122470492875436321 
	 0.999970123828158197198945345008 ,	 -0.0068943063010231675491468195105 
	 0.999952667841028652873092141817 ,	 -0.00867911403246557355828372237738 
	 0.999925029538080600843841239111 ,	 -0.0109257543637069076680745638441 
	 0.99988129439004969079007878463 ,	 -0.0137535146618441572741176059935 
	 0.999848359975660239129524597956 ,	 -0.0155493982052643531233115936629 
	 0.99981125915675184145925413759 ,	 -0.0173533655670534692205819737865 
	 0.999701573496392548179301229538 ,	 -0.0218419244117038502395189425442 
	 0.999528751709316098938984396227 ,	 -0.0274882666639926220852885307977 
	 0.999295966069836838485684893385 ,	 -0.033664269160886384213426936185 
	 0.998951878071612009435398249479 ,	 -0.0411890806005641429976549261482 
	 0.99860126257865400312141446193 ,	 -0.0477100089102657776152227597777 
	 0.998163186101987731646545398689 ,	 -0.0548463567113195438196271425113 
	 0.997175099555414279350884498854 ,	 -0.0684559778519790995687799295411 
	 0.995997878765301436487789032981 ,	 -0.0820178090914112090104026719928 
	 0.994638858180263207842131123471 ,	 -0.0955338293506264868426569591975 
	 0.993102638950254190675082099915 ,	 -0.109006611298287925393424302456 
	 0.990154641297037230174282740336 ,	 -0.131370867038132388415760942735 
	 0.98672,	-0.15362
	 0.98281,	-0.17577
	 0.97841,	-0.1978
	 0.97354,	-0.2197
	 0.96818,	-0.24147
	 0.96234,	-0.2631
	 0.95602,	-0.28457
	 0.94923,	-0.30586
	 0.94197,	-0.32698
	 0.93425,	-0.34791
	 0.92607,	-0.36863
	 0.91745,	-0.38914
	 0.90837,	-0.40942
	 0.89887,	-0.42947
	 0.88893,	-0.44927
	 0.87857,	-0.46881
	 0.86779,	-0.48809
	 0.85661,	-0.5071
	 0.84504,	-0.52582
	 0.83307,	-0.54425
	 0.82072,	-0.56238
	 0.80799,	-0.5802
	 0.79491,	-0.59771
	 0.78283,	-0.61319
	 0.77047,	-0.6284
	 0.75783,	-0.64333
	 0.74493,	-0.65799
	 0.73177,	-0.67237
	 0.71835,	-0.68645
	 0.70469,	-0.70025
	 0.6908,	-0.71375
	 0.67667,	-0.72695
	 0.66231,	-0.73985
	 0.64774,	-0.75244
	 0.63296,	-0.76472
	 0.61798,	-0.77669
	 0.6028,	-0.78834
	 0.58744,	-0.79967
	 0.5719,	-0.81068
	 0.55618,	-0.82137
	 0.5403,	-0.83173
	 0.52426,	-0.84176
	 0.50807,	-0.85147
	 0.49174,	-0.86084
	 0.47528,	-0.86988
	 0.45868,	-0.87858
	 0.44197,	-0.88695
	 0.42514,	-0.89499
	 0.4082,	-0.90269
	 0.39117,	-0.91005
	 0.37404,	-0.91707
	 0.35683,	-0.92376
	 0.33954,	-0.93011
	 0.32218,	-0.93612
	 0.30476,	-0.9418
	 0.28728,	-0.94714
	 0.26974,	-0.95214
	 0.25217,	-0.95681
	 0.23455,	-0.96115
	 0.21691,	-0.96515
	 0.19924,	-0.96882
	 0.18155,	-0.97216
	 0.16385,	-0.97517
	 0.14614,	-0.97785
	 0.12844,	-0.9802
	 0.11074,	-0.98223
	 0.093053,	-0.98393
	 0.075383,	-0.98532
	 0.057737,	-0.98638
	 0.04012,	-0.98713
	 0.022538,	-0.98756
	 0.0049953,	-0.98768
	-0.012502,	-0.98749
	-0.029948,	-0.987
	-0.047338,	-0.98619
	-0.064668,	-0.98508
	-0.081932,	-0.98367
	-0.099125,	-0.98197
	-0.11624,	-0.97997
	-0.13327,	-0.97767
	-0.15023,	-0.97509
	-0.16709,	-0.97222
	-0.18386,	-0.96906
	-0.20053,	-0.96563
	-0.2171,	-0.96191
	-0.23357,	-0.95792
	-0.24992,	-0.95366
	-0.26616,	-0.94913
	-0.28229,	-0.94434
	-0.29829,	-0.93928
	-0.31416,	-0.93397
	-0.32991,	-0.9284
	-0.34552,	-0.92257
	-0.361,	-0.9165
	-0.37633,	-0.91018
	-0.39153,	-0.90361
	-0.40658,	-0.89681
	-0.42148,	-0.88977
	-0.43623,	-0.8825
	-0.45082,	-0.875
	-0.46526,	-0.86728
	-0.47953,	-0.85933
	-0.49365,	-0.85116
	-0.52137,	-0.83418
	-0.54841,	-0.81637
	-0.57474,	-0.79775
	-0.60035,	-0.77835
	-0.62522,	-0.7582
	-0.64934,	-0.73732
	-0.67268,	-0.71574
	-0.69523,	-0.6935
	-0.70982,	-0.67831
	-0.72406,	-0.66285
	-0.73792,	-0.64712
	-0.75142,	-0.63112
	-0.76455,	-0.61488
	-0.77731,	-0.59838
	-0.78969,	-0.58166
	-0.80168,	-0.5647
	-0.8133,	-0.54752
	-0.82453,	-0.53013
	-0.83536,	-0.51254
	-0.84581,	-0.49475
	-0.85587,	-0.47677
	-0.86553,	-0.4586
	-0.87479,	-0.44027
	-0.88365,	-0.42177
	-0.89211,	-0.40312
	-0.90017,	-0.38431
	-0.90782,	-0.36536
	-0.91506,	-0.34628
	-0.92189,	-0.32708
	-0.92832,	-0.30775
	-0.93434,	-0.28832
	-0.93994,	-0.26878
	-0.94513,	-0.24915
	-0.9499,	-0.22943
	-0.95426,	-0.20963
	-0.95821,	-0.18976
	-0.96174,	-0.16982
	-0.96485,	-0.14983
	-0.96754,	-0.12979
	-0.96982,	-0.10971
	-0.97168,	-0.089598
	-0.97312,	-0.069458
	-0.97414,	-0.049299
	-0.97474,	-0.02913
	-0.97493,	-0.0089576
	-0.97469,	 0.01121
	-0.97404,	 0.031364
	-0.97297,	 0.051499
	-0.97149,	 0.071605
	-0.96958,	 0.091676
	-0.96727,	 0.1117
	-0.96453,	 0.13168
	-0.96139,	 0.15159
	-0.95782,	 0.17145
	-0.95385,	 0.19122
	-0.94947,	 0.21092
	-0.94591,	 0.22563
	-0.94213,	 0.24029
	-0.93811,	 0.2549
	-0.93387,	 0.26944
	-0.9294,	 0.28392
	-0.9247,	 0.29833
	-0.91978,	 0.31268
	-0.91463,	 0.32695
	-0.90925,	 0.34114
	-0.90365,	 0.35525
	-0.89783,	 0.36929
	-0.89179,	 0.38323
	-0.88553,	 0.39708
	-0.87905,	 0.41085
	-0.87235,	 0.42451
	-0.86543,	 0.43808
	-0.85095,	 0.46489
	-0.83561,	 0.49128
	-0.81943,	 0.51719
	-0.80242,	 0.54262
	-0.78459,	 0.56753
	-0.76596,	 0.5919
	-0.74653,	 0.61569
	-0.72634,	 0.6389
	-0.70538,	 0.66148
	-0.68368,	 0.68342
	-0.66126,	 0.70468
	-0.63813,	 0.72525
	-0.61432,	 0.7451
	-0.58985,	 0.76421
	-0.56473,	 0.78255
	-0.539,	 0.80009
	-0.51268,	 0.81683
	-0.48578,	 0.83273
	-0.45835,	 0.84777
	-0.4304,	 0.86194
	-0.41624,	 0.86869
	-0.40196,	 0.87521
	-0.38757,	 0.8815
	-0.37306,	 0.88757
	-0.35845,	 0.8934
	-0.34374,	 0.89899
	-0.32893,	 0.90435
	-0.31402,	 0.90946
	-0.29902,	 0.91434
	-0.28393,	 0.91897
	-0.26876,	 0.92336
	-0.25351,	 0.9275
	-0.23819,	 0.93139
	-0.2228,	 0.93504
	-0.20733,	 0.93843
	-0.19181,	 0.94157
	-0.17623,	 0.94445
	-0.1606,	 0.94708
	-0.14492,	 0.94946
	-0.12919,	 0.95157
	-0.11343,	 0.95343
	-0.097631,	 0.95502
	-0.0818,	 0.95636
	-0.065943,	 0.95744
	-0.050065,	 0.95825
	-0.03417,	 0.9588
	-0.018264,	 0.95909
	-0.0023505,	 0.95912
	 0.013565,	 0.95888
	 0.029479,	 0.95838
	 0.045385,	 0.95761
	 0.061279,	 0.95659
	 0.077157,	 0.95529
	 0.093013,	 0.95374
	 0.10884,	 0.95192
	 0.12464,	 0.94984
	 0.1404,	 0.9475
	 0.15612,	 0.9449
	 0.1718,	 0.94204
	 0.18742,	 0.93891
	 0.20299,	 0.93553
	 0.2185,	 0.93189
	 0.23395,	 0.928
	 0.24933,	 0.92385
	 0.26463,	 0.91945
	 0.27986,	 0.91479
	 0.295,	 0.90988
	 0.31005,	 0.90473
	 0.32501,	 0.89932
	 0.33987,	 0.89367
	 0.35464,	 0.88778
	 0.36929,	 0.88165
	 0.38384,	 0.87527
	 0.39827,	 0.86866
	 0.41258,	 0.86182
	 0.42677,	 0.85474
	 0.44083,	 0.84744
	 0.45476,	 0.8399
	 0.46855,	 0.83214
	 0.48221,	 0.82416
	 0.49572,	 0.81596
	 0.50908,	 0.80755
	 0.52229,	 0.79892
	 0.53534,	 0.79009
	 0.56097,	 0.7718
	 0.58593,	 0.75271
	 0.6102,	 0.73285
	 0.63375,	 0.71225
	 0.65655,	 0.69094
	 0.67859,	 0.66895
	 0.69983,	 0.64632
	 0.72027,	 0.62306
	 0.73988,	 0.59923
	 0.75864,	 0.57485
	 0.77654,	 0.54995
	 0.79356,	 0.52458
	 0.80174,	 0.51172
	 0.8097,	 0.49876
	 0.81743,	 0.4857
	 0.82493,	 0.47254
	 0.83221,	 0.45929
	 0.83926,	 0.44595
	 0.84607,	 0.43253
	 0.85266,	 0.41903
	 0.85902,	 0.40546
	 0.86515,	 0.39181
	 0.87105,	 0.3781
	 0.87671,	 0.36433
	 0.88214,	 0.35051
	 0.88734,	 0.33663
	 0.89231,	 0.32271
	 0.89704,	 0.30874
	 0.90155,	 0.29474
	 0.90582,	 0.2807
	 0.90985,	 0.26663
	 0.91366,	 0.25254
	 0.91724,	 0.23843
	 0.92058,	 0.2243
	 0.9237,	 0.21017
	 0.92659,	 0.19602
	 0.92925,	 0.18187
	 0.93168,	 0.16772
	 0.93389,	 0.15358
	 0.93587,	 0.13944
	 0.93763,	 0.12532
	 0.93916,	 0.11122
	 0.94048,	 0.097139
	 0.94157,	 0.083081
	 0.94311,	 0.055056
	 0.94379,	 0.027178
	 0.94363,	-0.00052596
	 0.94264,	-0.028026
	 0.94083,	-0.055296
	 0.93823,	-0.08231
	 0.93485,	-0.10904
	 0.93071,	-0.13546
END
BEGIN
	 1.77400631000000000620622517597e-17 ,	 0 
	 9.68843060999999943236516511766e-16 ,	 5.08618495000000007333247873307e-12 
	 8.63892291000000023245722625505e-16 ,	 5.08619119000000012117573668574e-11 
	 1.2810932900000000750694691024e-15 ,	 5.0861936700000000018298256874e-10 
	 3.12467065999999990959172143181e-14 ,	 5.08619359999999969000262202098e-09 
	 4.89382839999999974223215088289e-14 ,	 6.40313835999999959820838516845e-09 
	 7.70676925000000021030976809575e-14 ,	 8.06107358000000080921329043615e-09 
	 1.21623198000000008135005787753e-13 ,	 1.01482903999999992115061211734e-08 
	 1.92035623999999987747754837815e-13 ,	 1.27759406000000006393501242427e-08 
	 3.0382814299999999113734908224e-13 ,	 1.60839563000000012517896262306e-08 
	 4.81019738000000038723729557221e-13 ,	 2.0248501299999999716230784149e-08 
	 7.61994634000000028981551053736e-13 ,	 2.54913529000000014102843086915e-08 
	 1.20689655999999994986218604837e-12 ,	 3.2091711799999997900166901323e-08 
	 1.91231231999999984201611079349e-12 ,	 4.04010715000000002206171690645e-08 
	 3.03022971000000001805637253349e-12 ,	 5.08619355000000000493630327586e-08 
	 4.80213959e-12 ,	 6.40313829e-08 
	 7.61030388e-12 ,	 8.06107347e-08 
	 1.20610614e-11 ,	 1.01482902e-07 
	 1.91148156e-11 ,	 1.27759402e-07 
	 3.02945689e-11 ,	 1.60839555e-07 
	 4.80129452e-11 ,	 2.02484997e-07 
	 7.60949576e-11 ,	 2.54913497e-07 
	 1.2060159e-10 ,	 3.20917056e-07 
	 1.9114024e-10 ,	 4.0401059e-07 
	 3.02936319e-10 ,	 5.08619105e-07 
	 4.80121037e-10 ,	 6.4031333e-07 
	 7.60939664e-10 ,	 8.06106351e-07 
	 1.20600669e-09 ,	 1.01482703e-06 
	 1.91138929e-09 ,	 1.27759006e-06 
	 3.0293421e-09 ,	 1.60838764e-06 
	 4.80117001e-09 ,	 2.02483418e-06 
	 7.60930822e-09 ,	 2.54910346e-06 
	 1.20598575e-08 ,	 3.20910768e-06 
	 1.91133778e-08 ,	 4.03998045e-06 
	 3.02921402e-08 ,	 5.08594076e-06 
	 4.8008496e-08 ,	 6.40263393e-06 
	 7.60850481e-08 ,	 8.06006721e-06 
	 1.20578414e-07 ,	 1.01462826e-05 
	 1.5413578e-07 ,	 1.14712622e-05 
	 1.91991425e-07 ,	 1.28022428e-05 
	 3.04233385e-07 ,	 1.61141007e-05 
	 4.82045743e-07 ,	 2.0280533e-05 
	 7.23348871e-07 ,	 2.4838053e-05 
	 1.08360411e-06 ,	 3.03907884e-05 
	 1.45479777e-06 ,	 3.52019301e-05 
	 1.92394228e-06 ,	 4.04652215e-05 
	 3.00126015e-06 ,	 5.04921983e-05 
	 4.31329738e-06 ,	 6.04603267e-05 
	 5.85736172e-06 ,	 7.03584946e-05 
	 7.6303534e-06 ,	 8.01758996e-05 
	 1.10844164e-05 ,	 9.63304817e-05 
	 1.51460336e-05 ,	 0.000112185448 
	 1.97937243e-05 ,	 0.000127697245 
	 2.50028767e-05 ,	 0.000142825145 
	 3.07455316e-05 ,	 0.000157531224 
	 3.69901907e-05 ,	 0.000171780282 
	 4.37017242e-05 ,	 0.000185539714 
	 5.08414246e-05 ,	 0.000198779357 
	 5.83672151e-05 ,	 0.000211471373 
	 6.62339895e-05 ,	 0.000223590193 
	 7.43940317e-05 ,	 0.000235112559 
	 8.27974636e-05 ,	 0.000246017656 
	 9.13926752e-05 ,	 0.000256287317 
	 0.000100126711 ,	 0.000265906266 
	 0.000108945599 ,	 0.000274862373 
	 0.000117794638 ,	 0.000283146882 
	 0.000126618637 ,	 0.000290754613 
	 0.00013536214 ,	 0.000297684113 
	 0.000143969627 ,	 0.00030393777 
	 0.000152385727 ,	 0.000309521875 
	 0.000160555412 ,	 0.00031444666 
	 0.000168424217 ,	 0.000318726295 
	 0.000175938446 ,	 0.000322378862 
	 0.00018304539 ,	 0.000325426307 
	 0.000189050819 ,	 0.000327672826 
	 0.000194648053 ,	 0.000329471336 
	 0.000199801594 ,	 0.00033084555 
	 0.000204477139 ,	 0.000331821487 
	 0.000208641698 ,	 0.000332427404 
	 0.000212263723 ,	 0.00033269371 
	 0.000215313218 ,	 0.000332652884 
	 0.000217761856 ,	 0.00033233938 
	 0.000219583087 ,	 0.000331789534 
	 0.000220752237 ,	 0.000331041457 
	 0.000221246607 ,	 0.000330134933 
	 0.000221045564 ,	 0.000329111301 
	 0.000220130621 ,	 0.000328013346 
	 0.000218485521 ,	 0.00032688518 
	 0.000216096301 ,	 0.000325772113 
	 0.000212951359 ,	 0.000324720536 
	 0.00020904151 ,	 0.000323777789 
	 0.000204360038 ,	 0.000322992035 
	 0.000198902733 ,	 0.000322412123 
	 0.00019266793 ,	 0.000322087462 
	 0.000185656537 ,	 0.000322067884 
	 0.000177872054 ,	 0.000322403511 
	 0.000169320588 ,	 0.00032314462 
	 0.000160010858 ,	 0.000324341513 
	 0.000149954197 ,	 0.000326044378 
	 0.000139164543 ,	 0.000328303162 
	 0.000127658425 ,	 0.000331167439 
	 0.000115454944 ,	 0.000334686277 
	 0.000102575746 ,	 0.000338908116 
	 8.9044987e-05 ,	 0.00034388064 
	 7.48892952e-05 ,	 0.000349650657 
	 6.01377268e-05 ,	 0.000356263975 
	 4.48217148e-05 ,	 0.000363765289 
	 2.89750132e-05 ,	 0.000372198069 
	 1.26336362e-05 ,	 0.000381604444 
	 -4.16420788e-06 ,	 0.000392025104 
	 -2.13781865e-05 ,	 0.000403499193 
	 -3.89659184e-05 ,	 0.000416064212 
	 -5.6883052e-05 ,	 0.000429755927 
	 -7.50833484e-05 ,	 0.000444608276 
	 -9.35187678e-05 ,	 0.00046065329 
	 -0.000112139559 ,	 0.000477921008 
	 -0.000130894352 ,	 0.000496439406 
	 -0.000149730255 ,	 0.000516234321 
	 -0.000168592949 ,	 0.000537329393 
