CITIFILE A.01.01
#Momentum: B.12.070 (*) built: Feb 13 2020 
#Momentum Date and Time: Sun Aug 14 08:51:05 2022

NAME Momentum.SP

#  mode: MW    reference: S_50

#eesof Port[1] P1
#eesof Port[2] P2

CONSTANT NBR_OF_PORTS 2

CONSTANT NORMALIZATION 1

VAR freq MAG 398

DATA S[1,1] RI
DATA S[1,2] RI
DATA S[2,1] RI
DATA S[2,2] RI
DATA PORTZ[1] RI
DATA PORTZ[2] RI

VAR_LIST_BEGIN
	 0
	 8.701167245
	 87.01167245
	 870.1167245
	 8701.167245
	 10954.12056
	 13790.42073
	 17361.1111
	 21856.34394
	 27515.5068
	 34639.97072
	 43609.13941
	 54900.65379
	 69115.82818
	 87011.67245
	 109541.2056
	 137904.2073
	 173611.111
	 218563.4394
	 275155.068
	 346399.7072
	 436091.3941
	 549006.5379
	 691158.2818
	 870116.7245
	 1095412.056
	 1379042.073
	 1736111.11
	 2185634.394
	 2751550.68
	 3463997.072
	 4360913.941
	 5490065.379
	 6911582.818
	 8701167.245
	 10954120.56
	 13790420.73
	 17361111.1
	 19629339.22
	 21908241.11
	 27580841.47
	 34722222.2
	 42541975.04
	 52083333.3
	 60365357.38
	 69444444.4
	 86805555.5
	 104166666.6
	 121527777.7
	 138888888.8
	 160590277.7
	 182291666.6
	 203993055.4
	 225694444.3
	 247395833.2
	 269097222.1
	 290798611
	 312499999.9
	 334201388.7
	 355902777.6
	 377604166.5
	 399305555.4
	 421006944.3
	 442708333.1
	 464409722
	 486111110.9
	 507812499.8
	 529513888.7
	 551215277.5
	 572916666.4
	 594618055.3
	 616319444.2
	 638020833.1
	 659722222
	 681423610.8
	 703124999.7
	 724826388.6
	 746527777.5
	 768229166.4
	 789930555.2
	 811631944.1
	 833333333
	 859374999.7
	 885416666.3
	 911458333
	 937499999.6
	 963541666.3
	 989583332.9
	 1015625000
	 1041666666
	 1067708333
	 1093750000
	 1119791666
	 1145833333
	 1171875000
	 1197916666
	 1223958333
	 1250000000
	 1276041666
	 1302083333
	 1328124999
	 1354166666
	 1380208333
	 1406249999
	 1432291666
	 1458333333
	 1484374999
	 1510416666
	 1536458333
	 1562499999
	 1588541666
	 1614583333
	 1640624999
	 1666666666
	 1692708333
	 1718749999
	 1744791666
	 1770833333
	 1796874999
	 1822916666
	 1848958333
	 1874999999
	 1901041666
	 1927083333
	 1953124999
	 1979166666
	 2005208333
	 2031249999
	 2057291666
	 2083333333
	 2109374999
	 2135416666
	 2161458333
	 2187499999
	 2213541666
	 2239583333
	 2265624999
	 2291666666
	 2317708333
	 2343749999
	 2369791666
	 2395833333
	 2421874999
	 2447916666
	 2473958333
	 2500000000
	 2526041666
	 2552083333
	 2578125000
	 2604166666
	 2630208333
	 2656250000
	 2682291666
	 2708333333
	 2734375000
	 2760416666
	 2786458333
	 2812500000
	 2838541666
	 2864583333
	 2890625000
	 2916666666
	 2942708333
	 2968750000
	 2994791666
	 3020833333
	 3046875000
	 3072916666
	 3098958333
	 3125000000
	 3151041666
	 3177083333
	 3203125000
	 3229166666
	 3255208333
	 3281250000
	 3307291666
	 3333333333
	 3359375000
	 3385416666
	 3411458333
	 3437500000
	 3463541666
	 3489583333
	 3515625000
	 3541666666
	 3567708333
	 3593750000
	 3619791666
	 3645833333
	 3671875000
	 3697916666
	 3723958333
	 3750000000
	 3776041666
	 3802083333
	 3828125000
	 3854166666
	 3880208333
	 3906250000
	 3932291666
	 3958333333
	 3984375000
	 4010416666
	 4036458333
	 4062500000
	 4088541666
	 4114583333
	 4140625000
	 4166666666
	 4192708333
	 4218750000
	 4244791667
	 4270833333
	 4296875000
	 4322916667
	 4348958333
	 4375000000
	 4401041667
	 4427083333
	 4453125000
	 4479166667
	 4505208333
	 4531250000
	 4557291667
	 4583333333
	 4635416667
	 4687500000
	 4739583333
	 4791666667
	 4843750000
	 4895833333
	 4947916667
	 5000000000
	 5052083333
	 5104166667
	 5156250000
	 5208333333
	 5260416667
	 5312500000
	 5364583333
	 5416666667
	 5442708333
	 5468750000
	 5494791667
	 5520833333
	 5546875000
	 5572916667
	 5598958333
	 5625000000
	 5651041667
	 5677083333
	 5703125000
	 5729166667
	 5755208333
	 5781250000
	 5807291667
	 5833333334
	 5859375000
	 5885416667
	 5911458334
	 5937500000
	 5963541667
	 5989583334
	 6015625000
	 6041666667
	 6067708334
	 6093750000
	 6119791667
	 6145833334
	 6171875000
	 6197916667
	 6223958334
	 6250000000
	 6276041667
	 6302083334
	 6328125000
	 6354166667
	 6380208334
	 6406250000
	 6432291667
	 6458333334
	 6484375000
	 6510416667
	 6536458334
	 6562500000
	 6588541667
	 6614583334
	 6640625000
	 6666666667
	 6701388889
	 6736111112
	 6770833334
	 6805555556
	 6840277778
	 6875000000
	 6909722223
	 6944444445
	 6987847223
	 7031250001
	 7074652778
	 7118055556
	 7161458334
	 7204861112
	 7248263889
	 7291666667
	 7335069445
	 7378472223
	 7421875001
	 7465277778
	 7508680556
	 7552083334
	 7595486112
	 7638888890
	 7682291667
	 7725694445
	 7769097223
	 7812500001
	 7855902778
	 7899305556
	 7942708334
	 7986111112
	 8029513890
	 8072916667
	 8116319445
	 8159722223
	 8203125001
	 8246527778
	 8289930556
	 8333333334
	 8362268519
	 8391203704
	 8420138890
	 8449074075
	 8478009260
	 8506944445
	 8535879630
	 8564814816
	 8593750001
	 8622685186
	 8651620371
	 8680555556
	 8695023149
	 8709490741
	 8723958334
	 8738425927
	 8745659723
	 8752893519
	 8760127316
	 8767361112
	 8774594908
	 8781828704
	 8789062501
	 8796296297
	 8803530093
	 8810763890
	 8817997686
	 8825231482
	 8832465278
	 8839699075
	 8846932871
	 8854166667
	 8861400464
	 8868634260
	 8875868056
	 8883101852
	 8890335649
	 8897569445
	 8904803241
	 8912037038
	 8926504630
	 8940972223
	 8955439815
	 8969907408
	 8984375000
	 8998842593
	 9013310185
	 9027777778
	 9071180556
	 9114583334
	 9157986111
	 9201388889
	 9244791667
	 9288194444
	 9331597222
	 9375000000
	 9418402778
	 9461805556
	 9505208333
	 9548611111
	 9592013889
	 9635416666
	 9678819444
	 9722222222
	 9791666666
	 9861111111
	 9930555556
	 1e+10
VAR_LIST_END

BEGIN
	 0.99999999999999822364316059975 ,	 -0 
	 1.00000000000000843769498715119 ,	 -2.64489752321850346561404876411e-09 
	 1.00000000000000843769498715119 ,	 -2.64489765089415129750705091283e-08 
	 0.999999999999953037566058355878 ,	 -2.64489766310660456838377285749e-07 
	 0.999999999994397814617741460097 ,	 -2.64489766643727364225924247876e-06 
	 0.999999999991117216602276585036 ,	 -3.32972888444915682271130208392e-06 
	 0.999999999985915377642697876581 ,	 -4.1918803075358113119364134036e-06 
	 0.999999999977673303952485639456 ,	 -5.2772646413901114215150300879e-06 
	 0.999999999964610086777838660055 ,	 -6.64368256120262401509535266086e-06 
	 0.999999999943904982480091803154 ,	 -8.36390080383164757904523867182e-06 
	 0.99999999991109111974196821393 ,	 -1.0529527260438875657655444229e-05 
	 0.999999999859082389086495368247 ,	 -1.3255889437624457372066899552e-05 
	 0.999999999776656323113854796247 ,	 -1.6688176059209691715068402118e-05 
	 0.999999999646017823096144638839 ,	 -2.10091688974678447721089469269e-05 
	 0.999999999438971887144589345553 ,	 -2.64489765670061771629661961924e-05 
	 0.999999999110824711046063839603 ,	 -3.32972886382676414029901934555e-05 
	 0.999999998590747285476254546666 ,	 -4.19188026555827875085924461018e-05 
	 0.999999997766481296679330625921 ,	 -5.27726455851751374837022012798e-05 
	 0.999999996460106510554055603279 ,	 -6.64368239563506435274575778749e-05 
	 0.999999994389644042414033719979 ,	 -8.36390047228574573523474100512e-05 
	 0.999999991108184160815142149659 ,	 -0.000105295266000615672652429566369 
	 0.99999998590742855686386292291 ,	 -0.000132558881196176425731891868054 
	 0.99999997766480264171917724525 ,	 -0.000166881734294244132854601048166 
	 0.999999964601168245259543709835 ,	 -0.000210091636506926082716972814524 
	 0.999999943896813681121216177416 ,	 -0.000264489660977473839409412903478 
	 0.999999911082906423054339484224 ,	 -0.000332972677496212732251024135621 
	 0.999999859077079555902400898049 ,	 -0.000419187609775883984752908872906 
	 0.999999776655181027429364348791 ,	 -0.000527725624294650419443541977671 
	 0.999999646029755995257914946706 ,	 -0.000664366580483077839858196966816 
	 0.999999439013660840203101543011 ,	 -0.000836386737229577459373786041397 
	 0.999999110943515456817465292261 ,	 -0.00105294605661765405812957396847 
	 0.999998591058319785673802471138 ,	 -0.00132557563941471112656245168182 
	 0.999997767273874682558698623325 ,	 -0.00166879106954070932644640379294 
	 0.999996462110275263768244258245 ,	 -0.00210086397210695885462428122992 
	 0.999994394685496446051331531635 ,	 -0.00264479216476415368575203501678 
	 0.999991120843421343877821527713 ,	 -0.00332951867218428398942364765389 
	 0.999985939167553961048895416752 ,	 -0.00419146179941137786428839717701 
	 0.999977744254568645665415260737 ,	 -0.00527643250525977602904958985164 
	 0.999971576891150015775622250658 ,	 -0.00596553932554388932629763075965 
	 0.999964633190187690559014299652 ,	 -0.00665779483883011113931615909678 
	 0.999944128765693163174432811502 ,	 -0.0083804712411688631057415932446 
	 0.999911895258316696377676180418 ,	 -0.0105480545216823373699810417747 
	 0.999868620816433795184252630861 ,	 -0.0129198082155824733874283083424 
	 0.999804958089757778161299484054 ,	 -0.0158108927787638520179314127745 
	 0.999740459365379474654389468924 ,	 -0.0183175927970353202844933093729 
	 0.999660395042660465669825953228 ,	 -0.0210623484284733764049235560378 
	 0.999481888834887532979678326228 ,	 -0.0263013054091415510171714231547 
	 0.999272751574576179045550361479 ,	 -0.0315278862517854308045173183928 
	 0.999035597223425275714703275298 ,	 -0.0367430386906149042403058047057 
	 0.998772260350023088903981260955 ,	 -0.0419481227543341272934185326449 
	 0.998407944399258173717726094765 ,	 -0.048442527503820886902730080692 
	 0.99800550720793135273112284267 ,	 -0.0549260500430617804035193785239 
	 0.997565141518311437884847237001 ,	 -0.0614007630048822861112967075314 
	 0.997086558705223113818760793947 ,	 -0.0678681798317797846387122717715 
	 0.996569248349599479119831357821 ,	 -0.0743293187915848307945054784796 
	 0.996012635423242365106943907449 ,	 -0.0807848025326510232879684281215 
	 0.995416166184969308794450171263 ,	 -0.0872349558907648536809631423239 
	 0.994779349537346813114879751083 ,	 -0.0936798878016817382352598997386 
	 0.994101772687213225410118866421 ,	 -0.100119554648917030714727616214 
	 0.993383103052874250060710892285 ,	 -0.106553807062241712166894558322 
	 0.992623083476736778330007382465 ,	 -0.112982423513570906514758007688 
	 0.991821524684413535766225322732 ,	 -0.119405133966600629502607944232 
	 0.99097829706275142314098047791 ,	 -0.125821636272283043922470824327 
	 0.990093322760054905806725855655 ,	 -0.132231607374224569007026275358 
	 0.98916,	-0.13863
	 0.98819,	-0.14503
	 0.98718,	-0.15141
	 0.98613,	-0.15779
	 0.98504,	-0.16417
	 0.9839,	-0.17053
	 0.98273,	-0.17688
	 0.98151,	-0.18323
	 0.98025,	-0.18957
	 0.97895,	-0.19589
	 0.97761,	-0.20221
	 0.97623,	-0.20851
	 0.97481,	-0.2148
	 0.97335,	-0.22108
	 0.97185,	-0.22735
	 0.9703,	-0.23361
	 0.96872,	-0.23986
	 0.9671,	-0.24609
	 0.96511,	-0.25355
	 0.96305,	-0.26099
	 0.96094,	-0.26841
	 0.95878,	-0.27581
	 0.95656,	-0.28319
	 0.95428,	-0.29055
	 0.95195,	-0.29788
	 0.94957,	-0.30519
	 0.94713,	-0.31248
	 0.94463,	-0.31974
	 0.94208,	-0.32698
	 0.93948,	-0.33419
	 0.93683,	-0.34138
	 0.93412,	-0.34855
	 0.93136,	-0.35568
	 0.92854,	-0.36279
	 0.92568,	-0.36987
	 0.92276,	-0.37693
	 0.91979,	-0.38396
	 0.91676,	-0.39096
	 0.91369,	-0.39793
	 0.91057,	-0.40487
	 0.90739,	-0.41178
	 0.90417,	-0.41866
	 0.90089,	-0.42552
	 0.89757,	-0.43234
	 0.8942,	-0.43913
	 0.89077,	-0.44589
	 0.8873,	-0.45262
	 0.88378,	-0.45931
	 0.88021,	-0.46598
	 0.8766,	-0.47261
	 0.87294,	-0.47921
	 0.86923,	-0.48577
	 0.86547,	-0.4923
	 0.86167,	-0.4988
	 0.85782,	-0.50526
	 0.85393,	-0.51169
	 0.84999,	-0.51809
	 0.84601,	-0.52444
	 0.84198,	-0.53077
	 0.83791,	-0.53705
	 0.83379,	-0.5433
	 0.82963,	-0.54952
	 0.82543,	-0.5557
	 0.82118,	-0.56184
	 0.8169,	-0.56794
	 0.81257,	-0.574
	 0.8082,	-0.58003
	 0.80379,	-0.58602
	 0.79933,	-0.59197
	 0.79484,	-0.59788
	 0.79031,	-0.60375
	 0.78574,	-0.60959
	 0.78113,	-0.61538
	 0.77648,	-0.62113
	 0.77179,	-0.62685
	 0.76706,	-0.63252
	 0.7623,	-0.63815
	 0.7575,	-0.64374
	 0.75266,	-0.64929
	 0.74778,	-0.6548
	 0.74287,	-0.66027
	 0.73793,	-0.6657
	 0.73295,	-0.67108
	 0.72793,	-0.67642
	 0.72288,	-0.68172
	 0.71779,	-0.68698
	 0.71268,	-0.69219
	 0.70752,	-0.69736
	 0.70234,	-0.70249
	 0.69712,	-0.70757
	 0.69188,	-0.71261
	 0.6866,	-0.71761
	 0.68128,	-0.72256
	 0.67594,	-0.72747
	 0.67057,	-0.73233
	 0.66517,	-0.73715
	 0.65974,	-0.74192
	 0.65428,	-0.74665
	 0.64879,	-0.75134
	 0.64327,	-0.75597
	 0.63772,	-0.76057
	 0.63215,	-0.76512
	 0.62655,	-0.76962
	 0.62092,	-0.77408
	 0.61527,	-0.77849
	 0.60959,	-0.78285
	 0.60389,	-0.78717
	 0.59816,	-0.79145
	 0.59241,	-0.79567
	 0.58663,	-0.79985
	 0.58083,	-0.80399
	 0.57501,	-0.80807
	 0.56916,	-0.81211
	 0.56329,	-0.81611
	 0.5574,	-0.82005
	 0.55149,	-0.82395
	 0.54555,	-0.82781
	 0.5396,	-0.83161
	 0.53362,	-0.83537
	 0.52763,	-0.83908
	 0.52161,	-0.84275
	 0.51558,	-0.84636
	 0.50952,	-0.84993
	 0.50345,	-0.85345
	 0.49736,	-0.85693
	 0.49126,	-0.86035
	 0.48513,	-0.86373
	 0.47899,	-0.86706
	 0.47283,	-0.87035
	 0.46666,	-0.87358
	 0.46047,	-0.87677
	 0.45427,	-0.87991
	 0.44805,	-0.883
	 0.44182,	-0.88605
	 0.43557,	-0.88905
	 0.42931,	-0.892
	 0.42303,	-0.8949
	 0.41675,	-0.89775
	 0.41045,	-0.90056
	 0.40414,	-0.90331
	 0.39781,	-0.90602
	 0.39148,	-0.90869
	 0.38513,	-0.9113
	 0.37878,	-0.91387
	 0.37241,	-0.91639
	 0.36604,	-0.91886
	 0.35965,	-0.92128
	 0.35326,	-0.92366
	 0.34686,	-0.92599
	 0.34044,	-0.92827
	 0.33403,	-0.9305
	 0.3276,	-0.93269
	 0.32116,	-0.93483
	 0.31472,	-0.93692
	 0.30828,	-0.93896
	 0.30182,	-0.94096
	 0.29536,	-0.94291
	 0.2889,	-0.94481
	 0.28243,	-0.94666
	 0.27595,	-0.94847
	 0.26947,	-0.95023
	 0.26299,	-0.95195
	 0.25001,	-0.95524
	 0.23702,	-0.95834
	 0.22403,	-0.96125
	 0.21102,	-0.96398
	 0.19801,	-0.96653
	 0.185,	-0.96889
	 0.17199,	-0.97106
	 0.15898,	-0.97306
	 0.14598,	-0.97487
	 0.13298,	-0.97651
	 0.12,	-0.97796
	 0.10703,	-0.97923
	 0.094076,	-0.98033
	 0.081138,	-0.98125
	 0.06822,	-0.98199
	 0.055323,	-0.98256
	 0.048884,	-0.98278
	 0.042451,	-0.98295
	 0.036025,	-0.98308
	 0.029605,	-0.98317
	 0.023193,	-0.98322
	 0.016788,	-0.98322
	 0.010391,	-0.98318
	 0.0040012,	-0.9831
	-0.0023802,	-0.98297
	-0.0087532,	-0.98281
	-0.015117,	-0.9826
	-0.021473,	-0.98235
	-0.027819,	-0.98205
	-0.034156,	-0.98172
	-0.040483,	-0.98134
	-0.046801,	-0.98092
	-0.053108,	-0.98046
	-0.059405,	-0.97996
	-0.065692,	-0.97942
	-0.071967,	-0.97884
	-0.078232,	-0.97822
	-0.084485,	-0.97755
	-0.090727,	-0.97685
	-0.096957,	-0.9761
	-0.10317,	-0.97532
	-0.10938,	-0.97449
	-0.11557,	-0.97363
	-0.12175,	-0.97273
	-0.12792,	-0.97178
	-0.13407,	-0.9708
	-0.14022,	-0.96978
	-0.14635,	-0.96872
	-0.15246,	-0.96762
	-0.15856,	-0.96648
	-0.16465,	-0.9653
	-0.17072,	-0.96408
	-0.17678,	-0.96283
	-0.18282,	-0.96154
	-0.18885,	-0.96021
	-0.19487,	-0.95884
	-0.20087,	-0.95743
	-0.20685,	-0.95599
	-0.21282,	-0.95451
	-0.21877,	-0.95299
	-0.22471,	-0.95144
	-0.23063,	-0.94984
	-0.23653,	-0.94822
	-0.24242,	-0.94655
	-0.25024,	-0.94427
	-0.25804,	-0.94193
	-0.2658,	-0.93953
	-0.27353,	-0.93706
	-0.28123,	-0.93453
	-0.2889,	-0.93193
	-0.29654,	-0.92927
	-0.30415,	-0.92655
	-0.31361,	-0.92307
	-0.32301,	-0.91948
	-0.33237,	-0.91581
	-0.34167,	-0.91203
	-0.35092,	-0.90817
	-0.36011,	-0.90421
	-0.36925,	-0.90016
	-0.37834,	-0.89601
	-0.38736,	-0.89178
	-0.39633,	-0.88746
	-0.40524,	-0.88304
	-0.41409,	-0.87854
	-0.42288,	-0.87395
	-0.43162,	-0.86927
	-0.44029,	-0.86451
	-0.4489,	-0.85965
	-0.45745,	-0.85472
	-0.46594,	-0.8497
	-0.47437,	-0.84459
	-0.48273,	-0.8394
	-0.49103,	-0.83413
	-0.49927,	-0.82877
	-0.50744,	-0.82333
	-0.51554,	-0.81781
	-0.52359,	-0.81221
	-0.53156,	-0.80653
	-0.53947,	-0.80077
	-0.54731,	-0.79493
	-0.55509,	-0.78901
	-0.5628,	-0.78301
	-0.57044,	-0.77693
	-0.57802,	-0.77076
	-0.58303,	-0.76661
	-0.58801,	-0.76242
	-0.59297,	-0.7582
	-0.59789,	-0.75393
	-0.60278,	-0.74963
	-0.60764,	-0.74528
	-0.61247,	-0.7409
	-0.61727,	-0.73646
	-0.62203,	-0.73198
	-0.62676,	-0.72743
	-0.63144,	-0.72282
	-0.63605,	-0.71814
	-0.63832,	-0.71576
	-0.64055,	-0.71336
	-0.64275,	-0.71095
	-0.6449,	-0.70852
	-0.64595,	-0.70731
	-0.64698,	-0.7061
	-0.64799,	-0.70489
	-0.64899,	-0.7037
	-0.64997,	-0.70252
	-0.65094,	-0.70136
	-0.65191,	-0.70023
	-0.65286,	-0.69911
	-0.65382,	-0.69803
	-0.65479,	-0.69696
	-0.65578,	-0.69592
	-0.65679,	-0.69489
	-0.65781,	-0.69388
	-0.65887,	-0.69286
	-0.65994,	-0.69184
	-0.66104,	-0.69082
	-0.66215,	-0.68979
	-0.66327,	-0.68874
	-0.6644,	-0.68768
	-0.66554,	-0.68661
	-0.66669,	-0.68552
	-0.66784,	-0.68442
	-0.66898,	-0.6833
	-0.67013,	-0.68218
	-0.67241,	-0.6799
	-0.67468,	-0.67759
	-0.67693,	-0.67525
	-0.67917,	-0.67289
	-0.68138,	-0.67051
	-0.68359,	-0.66812
	-0.68577,	-0.66571
	-0.68795,	-0.66329
	-0.69438,	-0.65596
	-0.7007,	-0.64856
	-0.70693,	-0.64109
	-0.71305,	-0.63354
	-0.71909,	-0.62593
	-0.72504,	-0.61826
	-0.7309,	-0.61052
	-0.73668,	-0.60271
	-0.74237,	-0.59485
	-0.74797,	-0.58692
	-0.7535,	-0.57893
	-0.75893,	-0.57087
	-0.76429,	-0.56275
	-0.76956,	-0.55457
	-0.77474,	-0.54633
	-0.77985,	-0.53803
	-0.78783,	-0.52461
	-0.7956,	-0.51104
	-0.80315,	-0.49731
	-0.81048,	-0.48343
END
BEGIN
	 3.07384860999999997254624179473e-17 ,	 0 
	 5.95782646000000026254314712613e-16 ,	 4.21962660000000032386087402031e-12 
	 -2.25602143000000006253092412061e-15 ,	 4.21962534000000024274155447308e-11 
	 -2.87433922000000006320424513006e-13 ,	 4.21960889999999992903631162257e-10 
	 -2.87108476999999984577501107721e-11 ,	 4.21797044999999979600192683525e-09 
	 -4.5416080299999999046113169715e-11 ,	 5.30889786999999996158782045283e-09 
	 -7.17602735999999959555356416092e-11 ,	 6.68109959999999988975521870017e-09 
	 -1.13185133000000000508882533185e-10 ,	 8.40624145999999918031311439345e-09 
	 -1.78028176000000011465280934444e-10 ,	 1.05734416999999999620531997732e-08 
	 -2.78809483999999978037382979679e-10 ,	 1.32928025000000002232500973367e-08 
	 -4.33730301999999991262226096625e-10 ,	 1.66990921999999991254812133383e-08 
	 -6.67884696999999989150703699943e-10 ,	 2.09552554999999984335498301197e-08 
	 -1.01290997000000004225837655226e-09 ,	 2.62555925999999994944606427922e-08 
	 -1.50271037000000007069456722249e-09 ,	 3.28294981999999990200524537572e-08 
	 -2.16246797999999997528720867442e-09 ,	 4.09494033000000027669279501711e-08 
	 -2.99095357e-09 ,	 5.09505516e-08 
	 -3.94421206e-09 ,	 6.32708843e-08 
	 -4.93641183e-09 ,	 7.85093842e-08 
	 -5.86639082e-09 ,	 9.74847054e-08 
	 -6.65498852e-09 ,	 1.2127521e-07 
	 -7.26646382e-09 ,	 1.51245683e-07 
	 -7.70417005e-09 ,	 1.8908646e-07 
	 -7.99224044e-09 ,	 2.3688516e-07 
	 -8.15807107e-09 ,	 2.97235301e-07 
	 -8.22145765e-09 ,	 3.73379649e-07 
	 -8.18908187e-09 ,	 4.6938944e-07 
	 -8.05099315e-09 ,	 5.90386293e-07 
	 -7.77615879e-09 ,	 7.42818233e-07 
	 -7.30475565e-09 ,	 9.34804948e-07 
	 -6.53483004e-09 ,	 1.17657113e-06 
	 -5.30011514e-09 ,	 1.48099128e-06 
	 -3.33407314e-09 ,	 1.8642751e-06 
	 -2.12341626e-10 ,	 2.34682984e-06 
	 4.73885723e-09 ,	 2.95434503e-06 
	 1.25881067e-08 ,	 3.71915649e-06 
	 2.50293266e-08 ,	 4.68196006e-06 
	 4.47470926e-08 ,	 5.89396236e-06 
	 7.59953131e-08 ,	 7.41957487e-06 
	 9.95636634e-08 ,	 8.3885481e-06 
	 1.26151364e-07 ,	 9.36194393e-06 
	 2.04986997e-07 ,	 1.17841978e-05 
	 3.29886595e-07 ,	 1.48318863e-05 
	 4.99401024e-07 ,	 1.81662925e-05 
	 7.52515089e-07 ,	 2.22299358e-05 
	 1.01335846e-06 ,	 2.57520345e-05 
	 1.34309483e-06 ,	 2.96065937e-05 
	 2.1005278e-06 ,	 3.69547849e-05 
	 3.0234055e-06 ,	 4.42674886e-05 
	 4.11001136e-06 ,	 5.15377503e-05 
	 5.35832368e-06 ,	 5.87586934e-05 
	 7.14254581e-06 ,	 6.770519e-05 
	 9.17059133e-06 ,	 7.65510077e-05 
	 1.14365566e-05 ,	 8.52834124e-05 
	 1.3933841e-05 ,	 9.3889996e-05 
	 1.66551647e-05 ,	 0.000102358713 
	 1.95925879e-05 ,	 0.000110677914 
	 2.27375328e-05 ,	 0.000118836381 
	 2.6080806e-05 ,	 0.000126823361 
	 2.96126239e-05 ,	 0.000134628596 
	 3.33226386e-05 ,	 0.000142242351 
	 3.71999662e-05 ,	 0.00014965545 
	 4.12332163e-05 ,	 0.000156859296 
	 4.54105224e-05 ,	 0.000163845899 
	 4.97195746e-05 ,	 0.000170607905 
	 5.41476526e-05 ,	 0.000177138608 
