CITIFILE A.01.01
#Momentum: B.12.070 (*) built: Feb 13 2020 
#Momentum Date and Time: Sun Aug 14 10:33:39 2022

NAME Momentum.SP

#  mode: MW    reference: S_50

#eesof Port[1] P1
#eesof Port[2] P2

CONSTANT NBR_OF_PORTS 2

CONSTANT NORMALIZATION 1

VAR freq MAG 438

DATA S[1,1] RI
DATA S[1,2] RI
DATA S[2,1] RI
DATA S[2,2] RI
DATA PORTZ[1] RI
DATA PORTZ[2] RI

VAR_LIST_BEGIN
	 0
	 8.721827882
	 87.21827882
	 872.1827882
	 8721.827882
	 10980.13076
	 13823.16564
	 17402.33449
	 21908.24111
	 27580.84147
	 34722.2222
	 43712.68788
	 55031.01359
	 69279.94145
	 87218.27882
	 109801.3076
	 138231.6564
	 174023.3449
	 219082.4111
	 275808.4147
	 347222.222
	 437126.8788
	 550310.1359
	 692799.4145
	 872182.7882
	 1098013.076
	 1382316.564
	 1740233.449
	 2190824.111
	 2758084.147
	 3472222.22
	 4371268.788
	 5503101.359
	 6927994.145
	 8721827.882
	 10980130.76
	 13823165.64
	 17402334.49
	 21908241.11
	 27580841.47
	 34722222.2
	 39258678.43
	 43816482.23
	 55161682.93
	 69444444.4
	 85083950.08
	 104166666.6
	 120730714.8
	 138888888.8
	 159825084.6
	 182291666.6
	 225694444.3
	 269097222.1
	 312499999.9
	 355902777.6
	 399305555.4
	 442708333.1
	 486111110.9
	 529513888.7
	 572916666.4
	 616319444.2
	 659722222
	 703124999.7
	 746527777.5
	 789930555.2
	 833333333
	 885416666.3
	 937499999.6
	 989583332.9
	 1041666666
	 1093750000
	 1145833333
	 1197916666
	 1250000000
	 1302083333
	 1354166666
	 1406249999
	 1458333333
	 1510416666
	 1562499999
	 1614583333
	 1666666666
	 1718749999
	 1770833333
	 1822916666
	 1874999999
	 1927083333
	 1979166666
	 2031249999
	 2083333333
	 2135416666
	 2187499999
	 2239583333
	 2291666666
	 2343749999
	 2395833333
	 2447916666
	 2500000000
	 2552083333
	 2604166666
	 2656250000
	 2708333333
	 2760416666
	 2812500000
	 2864583333
	 2916666666
	 2968750000
	 3020833333
	 3072916666
	 3125000000
	 3177083333
	 3229166666
	 3281250000
	 3333333333
	 3385416666
	 3437500000
	 3489583333
	 3541666666
	 3593750000
	 3645833333
	 3697916666
	 3750000000
	 3802083333
	 3854166666
	 3906250000
	 3958333333
	 4010416666
	 4062500000
	 4114583333
	 4166666666
	 4218750000
	 4270833333
	 4322916667
	 4375000000
	 4427083333
	 4479166667
	 4531250000
	 4583333333
	 4635416667
	 4687500000
	 4739583333
	 4791666667
	 4843750000
	 4895833333
	 4947916667
	 5000000000
	 5069444444
	 5138888889
	 5208333333
	 5277777778
	 5312500000
	 5347222222
	 5381944444
	 5416666667
	 5451388889
	 5486111111
	 5520833333
	 5555555556
	 5572916667
	 5590277778
	 5607638889
	 5625000000
	 5642361111
	 5659722222
	 5677083333
	 5694444444
	 5711805555
	 5729166667
	 5746527778
	 5763888889
	 5772569444
	 5781250000
	 5789930555
	 5798611111
	 5807291667
	 5815972222
	 5824652778
	 5833333333
	 5842013889
	 5850694444
	 5859375000
	 5868055555
	 5876736111
	 5885416667
	 5894097222
	 5902777778
	 5907118055
	 5911458333
	 5915798611
	 5920138889
	 5924479167
	 5928819444
	 5933159722
	 5937500000
	 5941840278
	 5946180555
	 5950520833
	 5954861111
	 5959201389
	 5963541667
	 5967881944
	 5972222222
	 5976562500
	 5980902778
	 5985243055
	 5989583333
	 5993923611
	 5998263889
	 6002604167
	 6006944444
	 6011284722
	 6015625000
	 6019965278
	 6024305555
	 6026475694
	 6028645833
	 6030815972
	 6032986111
	 6035156250
	 6037326389
	 6039496528
	 6041666667
	 6043836805
	 6046006944
	 6048177083
	 6050347222
	 6052517361
	 6054687500
	 6056857639
	 6059027778
	 6061197917
	 6063368055
	 6065538194
	 6067708333
	 6069878472
	 6072048611
	 6074218750
	 6076388889
	 6078559028
	 6080729167
	 6082899305
	 6085069444
	 6087239583
	 6089409722
	 6091579861
	 6093750000
	 6095920139
	 6098090278
	 6100260417
	 6102430555
	 6104600694
	 6106770833
	 6108940972
	 6111111111
	 6112557870
	 6114004630
	 6115451389
	 6116898148
	 6118344907
	 6119791667
	 6121238426
	 6122685185
	 6124131944
	 6125578704
	 6127025463
	 6128472222
	 6129918981
	 6131365741
	 6132812500
	 6134259259
	 6135706019
	 6137152778
	 6138599537
	 6140046296
	 6141493056
	 6142939815
	 6144386574
	 6145833333
	 6147280093
	 6148726852
	 6150173611
	 6151620370
	 6153067130
	 6154513889
	 6155960648
	 6157407408
	 6158854167
	 6160300926
	 6161747685
	 6163194445
	 6164641204
	 6166087963
	 6167534722
	 6168981482
	 6170428241
	 6171875000
	 6173321759
	 6174768519
	 6176215278
	 6177662037
	 6179108796
	 6180555556
	 6182002315
	 6183449074
	 6184895834
	 6186342593
	 6187789352
	 6189236111
	 6190682871
	 6192129630
	 6193576389
	 6195023148
	 6196469908
	 6197916667
	 6199363426
	 6200810185
	 6202256945
	 6203703704
	 6205512153
	 6207320602
	 6209129051
	 6210937500
	 6212745949
	 6214554398
	 6216362848
	 6218171297
	 6221788195
	 6225405093
	 6229021991
	 6232638889
	 6236255787
	 6239872685
	 6243489584
	 6247106482
	 6250723380
	 6254340278
	 6257957176
	 6261574074
	 6265190973
	 6268807871
	 6272424769
	 6276041667
	 6279658565
	 6283275463
	 6286892361
	 6290509260
	 6297743056
	 6304976852
	 6312210648
	 6319444445
	 6326678241
	 6333912037
	 6341145834
	 6348379630
	 6355613426
	 6362847223
	 6370081019
	 6377314815
	 6391782408
	 6406250000
	 6420717593
	 6435185186
	 6449652778
	 6464120371
	 6478587963
	 6493055556
	 6507523148
	 6521990741
	 6536458334
	 6550925926
	 6579861111
	 6608796297
	 6637731482
	 6666666667
	 6718750000
	 6770833334
	 6822916667
	 6875000000
	 6927083334
	 6979166667
	 7031250000
	 7083333334
	 7135416667
	 7187500000
	 7239583334
	 7291666667
	 7343750000
	 7395833334
	 7447916667
	 7500000000
	 7552083334
	 7604166667
	 7656250001
	 7708333334
	 7760416667
	 7812500001
	 7864583334
	 7916666667
	 7968750001
	 8020833334
	 8072916667
	 8125000001
	 8177083334
	 8229166667
	 8281250001
	 8333333334
	 8402777778
	 8472222223
	 8541666667
	 8611111112
	 8680555556
	 8750000001
	 8819444445
	 8888888890
	 8958333334
	 9027777778
	 9097222223
	 9166666667
	 9236111112
	 9305555556
	 9375000001
	 9444444445
	 9479166667
	 9513888889
	 9548611112
	 9583333334
	 9618055556
	 9652777778
	 9687500000
	 9722222222
	 9756944445
	 9791666667
	 9826388889
	 9861111111
	 9895833333
	 9930555556
	 9965277778
	 1e+10
VAR_LIST_END

BEGIN
	 0.999999999999998445687765524781 ,	 -0 
	 0.999999999999998334665463062265 ,	 -2.50801598933314551231887890026e-09 
	 0.999999999999997335464740899624 ,	 -2.50801611006989944030465267133e-08 
	 0.999999999999949262807774630346 ,	 -2.50801610049422585291267751018e-07 
	 0.999999999995123789453543849959 ,	 -2.50801610005013664306261489401e-06 
	 0.99999999999227306979321383551 ,	 -3.1574052017507847622823646816e-06 
	 0.999999999987754573105291910906 ,	 -3.97493764373035851633630954893e-06 
	 0.99999999998059363459645965122 ,	 -5.00415000960485745196137941093e-06 
	 0.999999999969243713593414213392 ,	 -6.29985161126889181559818098322e-06 
	 0.99999999995125599117073988964 ,	 -7.93104328315752393763204963761e-06 
	 0.999999999922746463099088032322 ,	 -9.98459192984302301709931271034e-06 
	 0.99999999987756260644289341144 ,	 -1.25698565039827903078162307793e-05 
	 0.999999999805950556819311714207 ,	 -1.58245117697769499542914672929e-05 
	 0.999999999692453900301813973783 ,	 -1.99218799845773952839067533205e-05 
	 0.999999999512573234383694398275 ,	 -2.5080160940674223191138025868e-05 
	 0.999999999227481173313947238057 ,	 -3.15740518942314585260078274587e-05 
	 0.999999998775642051640488716657 ,	 -3.97493761915418408747768808098e-05 
	 0.999999998059523997895325919671 ,	 -5.00414996085357666188997427525e-05 
	 0.999999996924554213073577102477 ,	 -6.29985151384959696230225745239e-05 
	 0.999999995125749219226918285131 ,	 -7.93104308884629016773715193267e-05 
	 0.999999992274835824979106746468 ,	 -9.98459154200742604601259699848e-05 
	 0.999999987756447383802083095361 ,	 -0.000125698557301892610560400953545 
	 0.999999980595292936591533816681 ,	 -0.000158245102257231762266087571334 
	 0.999999969245649489302252277412 ,	 -0.000199218769039888332628152056714 
	 0.999999951257733332710131435306 ,	 -0.00025080154793781506139538350908 
	 0.99999992274894822230635327287 ,	 -0.000315740396300057124534532704274 
	 0.999999877565922012934152007801 ,	 -0.000397493517217767378113535414741 
	 0.999999805956538034834579775634 ,	 -0.000500414507859231472153282993531 
	 0.999999692465541656360983324703 ,	 -0.000629984177278067325467247883353 
	 0.999999512600030282527541203308 ,	 -0.000793102365397382880196630594583 
	 0.999999227546461089133345012669 ,	 -0.000998455276781259892793229937524 
	 0.999998775802295236658778776473 ,	 -0.00125697783764516790583343208709 
	 0.999998059924659510322442201868 ,	 -0.00158243559195186955790290994628 
	 0.999996925557506854964628928428 ,	 -0.00199215691323785526467560202946 
	 0.999995128264833721409843292349 ,	 -0.00250795410554353892518264501632 
	 0.999992281147286332654289253696 ,	 -0.00315728161558694042643224975109 
	 0.999987772275135800015277709463 ,	 -0.00397469140241261953416795904559 
	 0.99998063495907196784884263252 ,	 -0.00500365978218224316531603790281 
	 0.999969344934936721358553768368 ,	 -0.00629887690003876066224819396666 
	 0.999951505746227375936996395467 ,	 -0.00792910919677008996231393211929 
	 0.999923366518161604865611025161 ,	 -0.00998076631759656218711995734338 
	 0.999902247539493083117179139663 ,	 -0.011283584608255126102704934965 
	 0.999878528342290295860550486395 ,	 -0.0125921208669203255059443335995 
	 0.999808831670375153244378907402 ,	 -0.0158472761419897051338168125767 
	 0.999700233881821054282568184135 ,	 -0.0199405849379050703618077022838 
	 0.999556086245554586966477472743 ,	 -0.0244160194581789086187839643571 
	 0.999346904280345227356008308561 ,	 -0.0298666970047780783170665586113 
	 0.999137774847884130302588800987 ,	 -0.0345889686702138682283802495476 
	 0.9988811360383375026472663194 ,	 -0.0397565681272750853780806323812 
	 0.99855185005169566636595845921 ,	 -0.0457039043181052401232378201712 
	 0.998160777825458422896076626785 ,	 -0.0520746079049952126371891836243 
	 0.997299530141740109279169246292 ,	 -0.0643549015527393464264349631776 
	 0.996301830581087566329756555206 ,	 -0.0766072936197082776654809777028 
	 0.995167270623841804244591457973 ,	 -0.0888373663442769689879696670687 
	 0.993893733895065745187480388267 ,	 -0.101047215117328254008199905911 
	 0.992478886344000943431353789492 ,	 -0.113236694640404256251287051782 
	 0.990920742257498154970107862027 ,	 -0.12540438607896164935340266311 
	 0.98921,	-0.13754
	 0.98736,	-0.14966
	 0.98537,	-0.16175
	 0.98323,	-0.17381
	 0.98094,	-0.18583
	 0.9785,	-0.19782
	 0.97592,	-0.20977
	 0.9732,	-0.22167
	 0.97033,	-0.23354
	 0.96669,	-0.24771
	 0.96285,	-0.26182
	 0.95881,	-0.27586
	 0.95456,	-0.28981
	 0.95011,	-0.30369
	 0.94547,	-0.31749
	 0.94062,	-0.33119
	 0.93559,	-0.34481
	 0.93036,	-0.35834
	 0.92494,	-0.37177
	 0.91933,	-0.3851
	 0.91354,	-0.39833
	 0.90757,	-0.41146
	 0.90141,	-0.42448
	 0.89508,	-0.43739
	 0.88856,	-0.45019
	 0.88188,	-0.46288
	 0.87502,	-0.47545
	 0.86799,	-0.4879
	 0.8608,	-0.50023
	 0.85344,	-0.51244
	 0.84592,	-0.52452
	 0.83824,	-0.53647
	 0.83041,	-0.54829
	 0.82242,	-0.55999
	 0.81427,	-0.57155
	 0.80598,	-0.58297
	 0.79754,	-0.59425
	 0.78896,	-0.6054
	 0.78023,	-0.61641
	 0.77136,	-0.62727
	 0.76236,	-0.63799
	 0.75322,	-0.64856
	 0.74395,	-0.65898
	 0.73455,	-0.66926
	 0.72503,	-0.67938
	 0.71538,	-0.68936
	 0.70561,	-0.69918
	 0.69572,	-0.70884
	 0.68571,	-0.71835
	 0.6756,	-0.7277
	 0.66537,	-0.73689
	 0.65503,	-0.74592
	 0.64458,	-0.75479
	 0.63404,	-0.7635
	 0.62339,	-0.77205
	 0.61264,	-0.78043
	 0.6018,	-0.78865
	 0.59087,	-0.7967
	 0.57985,	-0.80459
	 0.56874,	-0.81231
	 0.55754,	-0.81986
	 0.54627,	-0.82724
	 0.53491,	-0.83446
	 0.52347,	-0.84151
	 0.51196,	-0.84838
	 0.50038,	-0.85509
	 0.48873,	-0.86162
	 0.47701,	-0.86798
	 0.46522,	-0.87418
	 0.45337,	-0.8802
	 0.44146,	-0.88605
	 0.42949,	-0.89173
	 0.41746,	-0.89723
	 0.40538,	-0.90257
	 0.39324,	-0.90773
	 0.38105,	-0.91272
	 0.3688,	-0.91753
	 0.35651,	-0.92218
	 0.34417,	-0.92665
	 0.33178,	-0.93095
	 0.31934,	-0.93508
	 0.30686,	-0.93904
	 0.29433,	-0.94282
	 0.28175,	-0.94644
	 0.26913,	-0.94988
	 0.25645,	-0.95314
	 0.24372,	-0.95624
	 0.23094,	-0.95916
	 0.2181,	-0.96191
	 0.20088,	-0.9653
	 0.18354,	-0.96837
	 0.16604,	-0.97113
	 0.14837,	-0.97355
	 0.13945,	-0.97464
	 0.13047,	-0.97564
	 0.12142,	-0.97654
	 0.11229,	-0.97736
	 0.10307,	-0.97807
	 0.093746,	-0.97868
	 0.084295,	-0.97918
	 0.074699,	-0.97956
	 0.069839,	-0.9797
	 0.064932,	-0.9798
	 0.059975,	-0.97987
	 0.054961,	-0.9799
	 0.049886,	-0.97988
	 0.044743,	-0.97982
	 0.039526,	-0.9797
	 0.034225,	-0.97953
	 0.028832,	-0.97929
	 0.023336,	-0.97898
	 0.017724,	-0.97859
	 0.011983,	-0.97811
	 0.0090593,	-0.97784
	 0.0060963,	-0.97753
	 0.0030922,	-0.97719
	 4.4051e-05,	-0.97682
	-0.0030509,	-0.97641
	-0.0061958,	-0.97597
	-0.0093941,	-0.97548
	-0.012649,	-0.97494
	-0.015966,	-0.97435
	-0.019347,	-0.97371
	-0.022799,	-0.973
	-0.026325,	-0.97222
	-0.029932,	-0.97136
	-0.033625,	-0.97042
	-0.037411,	-0.96938
	-0.041296,	-0.96822
	-0.043278,	-0.9676
	-0.045287,	-0.96695
	-0.047325,	-0.96626
	-0.049392,	-0.96553
	-0.051489,	-0.96476
	-0.053618,	-0.96395
	-0.05578,	-0.96309
	-0.057974,	-0.96219
	-0.060204,	-0.96123
	-0.062468,	-0.96021
	-0.064769,	-0.95914
	-0.067107,	-0.958
	-0.069483,	-0.95679
	-0.071897,	-0.9555
	-0.074351,	-0.95413
	-0.076845,	-0.95267
	-0.079379,	-0.95112
	-0.081952,	-0.94947
	-0.084565,	-0.94771
	-0.087216,	-0.94582
	-0.089905,	-0.94381
	-0.092629,	-0.94165
	-0.095387,	-0.93934
	-0.098173,	-0.93686
	-0.10098,	-0.9342
	-0.10381,	-0.93135
	-0.10665,	-0.92828
	-0.10949,	-0.92498
	-0.1109,	-0.92323
	-0.11232,	-0.92142
	-0.11372,	-0.91955
	-0.11512,	-0.9176
	-0.1165,	-0.91558
	-0.11787,	-0.91348
	-0.11923,	-0.9113
	-0.12056,	-0.90904
	-0.12188,	-0.90669
	-0.12316,	-0.90426
	-0.12441,	-0.90173
	-0.12562,	-0.89911
	-0.1268,	-0.89639
	-0.12792,	-0.89357
	-0.129,	-0.89064
	-0.13001,	-0.88761
	-0.13095,	-0.88447
	-0.13182,	-0.88122
	-0.13261,	-0.87786
	-0.1333,	-0.87438
	-0.13389,	-0.87079
	-0.13436,	-0.86708
	-0.13472,	-0.86325
	-0.13493,	-0.85931
	-0.135,	-0.85526
	-0.1349,	-0.85109
	-0.13463,	-0.84683
	-0.13417,	-0.84246
	-0.13351,	-0.838
	-0.13262,	-0.83345
	-0.1315,	-0.82883
	-0.13013,	-0.82414
	-0.1285,	-0.81941
	-0.12659,	-0.81465
	-0.12438,	-0.80988
	-0.12187,	-0.80511
	-0.11905,	-0.80038
	-0.1159,	-0.79571
	-0.11242,	-0.79112
	-0.1086,	-0.78665
	-0.10587,	-0.78375
	-0.103,	-0.78092
	-0.099976,	-0.77818
	-0.096806,	-0.77553
	-0.093493,	-0.77299
	-0.090043,	-0.77056
	-0.086459,	-0.76826
	-0.082747,	-0.76609
	-0.078914,	-0.76407
	-0.074967,	-0.7622
	-0.070915,	-0.76049
	-0.066765,	-0.75895
	-0.062529,	-0.75758
	-0.058216,	-0.75641
	-0.053838,	-0.75542
	-0.049406,	-0.75462
	-0.044932,	-0.75403
	-0.040429,	-0.75363
	-0.035909,	-0.75344
	-0.031386,	-0.75345
	-0.026872,	-0.75367
	-0.02238,	-0.75409
	-0.017922,	-0.7547
	-0.013511,	-0.75552
	-0.0091594,	-0.75653
	-0.0048774,	-0.75772
	-0.00067626,	-0.75909
	 0.003434,	-0.76064
	 0.0074439,	-0.76236
	 0.011345,	-0.76423
	 0.015129,	-0.76625
	 0.01879,	-0.76841
	 0.022321,	-0.7707
	 0.025718,	-0.77311
	 0.028975,	-0.77563
	 0.03209,	-0.77825
	 0.03506,	-0.78096
	 0.037883,	-0.78375
	 0.040558,	-0.78662
	 0.043084,	-0.78954
	 0.045463,	-0.79252
	 0.047695,	-0.79554
	 0.049782,	-0.79859
	 0.051725,	-0.80167
	 0.053527,	-0.80477
	 0.055192,	-0.80788
	 0.056721,	-0.811
	 0.05812,	-0.81411
	 0.059391,	-0.81722
	 0.060539,	-0.82031
	 0.061567,	-0.82339
	 0.062481,	-0.82644
	 0.063284,	-0.82947
	 0.06398,	-0.83247
	 0.064575,	-0.83543
	 0.065073,	-0.83836
	 0.065478,	-0.84125
	 0.065794,	-0.84409
	 0.066026,	-0.8469
	 0.066178,	-0.84965
	 0.066254,	-0.85236
	 0.066258,	-0.85503
	 0.066194,	-0.85764
	 0.066065,	-0.8602
	 0.06582,	-0.86334
	 0.065487,	-0.86639
	 0.065073,	-0.86937
	 0.064583,	-0.87227
	 0.064024,	-0.87508
	 0.063401,	-0.87782
	 0.06272,	-0.88049
	 0.061985,	-0.88307
	 0.060372,	-0.88802
	 0.058595,	-0.89268
	 0.056685,	-0.89706
	 0.054666,	-0.90117
	 0.05256,	-0.90504
	 0.050387,	-0.90867
	 0.048161,	-0.91208
	 0.045897,	-0.91528
	 0.043607,	-0.91829
	 0.041301,	-0.92111
	 0.038986,	-0.92376
	 0.036671,	-0.92625
	 0.03436,	-0.92859
	 0.032058,	-0.93078
	 0.02977,	-0.93285
	 0.027499,	-0.9348
	 0.025248,	-0.93663
	 0.023018,	-0.93836
	 0.020811,	-0.93999
	 0.018629,	-0.94152
	 0.014342,	-0.94433
	 0.010162,	-0.94684
	 0.0060896,	-0.94908
	 0.0021247,	-0.95109
	-0.0017349,	-0.95288
	-0.0054924,	-0.95449
	-0.0091517,	-0.95594
	-0.012717,	-0.95725
	-0.016192,	-0.95842
	-0.019582,	-0.95948
	-0.022892,	-0.96043
	-0.026124,	-0.96129
	-0.032376,	-0.96276
	-0.038368,	-0.96396
	-0.044128,	-0.96493
	-0.049681,	-0.9657
	-0.055049,	-0.96631
	-0.06025,	-0.96679
	-0.065302,	-0.96715
	-0.07022,	-0.9674
	-0.075015,	-0.96757
	-0.079701,	-0.96766
	-0.084286,	-0.96768
	-0.088779,	-0.96763
	-0.097523,	-0.96739
	-0.10598,	-0.96697
	-0.1142,	-0.9664
	-0.12222,	-0.9657
	-0.13621,	-0.96417
	-0.14975,	-0.96235
	-0.16291,	-0.96029
	-0.17576,	-0.95801
	-0.18835,	-0.95554
	-0.20072,	-0.95289
	-0.21289,	-0.95007
	-0.22488,	-0.9471
	-0.23671,	-0.94398
	-0.2484,	-0.94071
	-0.25995,	-0.93729
	-0.27137,	-0.93375
	-0.28267,	-0.93006
	-0.29386,	-0.92625
	-0.30493,	-0.9223
	-0.3159,	-0.91823
	-0.32676,	-0.91404
	-0.33753,	-0.90972
	-0.34819,	-0.90528
	-0.35876,	-0.90072
	-0.36923,	-0.89604
	-0.37961,	-0.89125
	-0.38989,	-0.88634
	-0.40008,	-0.88131
	-0.41017,	-0.87618
	-0.42018,	-0.87093
	-0.43009,	-0.86557
	-0.43991,	-0.8601
	-0.44963,	-0.85452
	-0.45927,	-0.84884
	-0.46881,	-0.84305
	-0.47826,	-0.83716
	-0.49072,	-0.82914
	-0.50301,	-0.82094
	-0.51514,	-0.81256
	-0.52711,	-0.804
	-0.5389,	-0.79527
	-0.55054,	-0.78637
	-0.562,	-0.77729
	-0.57329,	-0.76805
	-0.58442,	-0.75863
	-0.59538,	-0.74906
	-0.60616,	-0.73932
	-0.61678,	-0.72941
	-0.62722,	-0.71935
	-0.63748,	-0.70912
	-0.64757,	-0.69873
	-0.65749,	-0.68819
	-0.66238,	-0.68286
	-0.66722,	-0.67749
	-0.67202,	-0.67208
	-0.67678,	-0.66663
	-0.68149,	-0.66114
	-0.68615,	-0.65561
	-0.69077,	-0.65004
	-0.69534,	-0.64444
	-0.69986,	-0.63879
	-0.70434,	-0.63311
	-0.70877,	-0.62738
	-0.71315,	-0.62162
	-0.71749,	-0.61582
	-0.72177,	-0.60998
	-0.72601,	-0.60409
	-0.7302,	-0.59818
END
BEGIN
	 3.95765133999999988430500847794e-17 ,	 0 
	 -4.50334213999999993582846677058e-15 ,	 8.70683537999999927763397875009e-12 
	 -4.50420950999999996790672539896e-15 ,	 8.7068408099999998272446914713e-11 
	 -4.09828421000000003754055800375e-15 ,	 8.70684056999999994719498087425e-10 
	 3.51593753999999974720637458908e-14 ,	 8.70684055999999928226277807856e-09 
	 5.83673733999999947161965657956e-14 ,	 1.09612628000000007374302687696e-08 
	 9.51365722000000039966423764779e-14 ,	 1.37994123000000007499391040458e-08 
	 1.53403331999999988443219246627e-13 ,	 1.7372430799999999995662138398e-08 
	 2.45769550999999983015159326325e-13 ,	 2.18705946999999992796958649122e-08 
	 3.92153323999999982304695999835e-13 ,	 2.75334473999999994604483610425e-08 
	 6.24154373999999953283996835127e-13 ,	 3.46625565999999983818162518912e-08 
	 9.91848964000000019383223478069e-13 ,	 4.36375734000000030398704053969e-08 
	 1.57460937000000009300180908484e-12 ,	 5.49364500000000008893952631664e-08 
	 2.4982247199999998890468170639e-12 ,	 6.91608930999999970651672710764e-08 
	 3.96205638000000035632563534057e-12 ,	 8.7068405900000004498787739126e-08 
	 6.28206775e-12 ,	 1.09612629e-07 
	 9.9590388e-12 ,	 1.37994125e-07 
	 1.5786642e-11 ,	 1.73724311e-07 
	 2.50227634e-11 ,	 2.18705953e-07 
	 3.96610201e-11 ,	 2.75334486e-07 
	 6.28610766e-11 ,	 3.4662559e-07 
	 9.96306154e-11 ,	 4.36375782e-07 
	 1.57906245e-10 ,	 5.49364596e-07 
	 2.50266476e-10 ,	 6.91609121e-07 
	 3.96646532e-10 ,	 8.7068444e-07 
	 6.28640666e-10 ,	 1.09612705e-06 
	 9.96320007e-10 ,	 1.37994276e-06 
	 1.57903596e-09 ,	 1.73724614e-06 
	 2.502537e-09 ,	 2.18706556e-06 
	 3.96608329e-09 ,	 2.75335688e-06 
	 6.28538636e-09 ,	 3.46627988e-06 
	 9.96057813e-09 ,	 4.36380561e-06 
	 1.57837211e-08 ,	 5.49374116e-06 
	 2.50086681e-08 ,	 6.91628068e-06 
	 3.96189558e-08 ,	 8.70722088e-06 
	 6.27491542e-08 ,	 1.09620168e-05 
