CITIFILE A.01.01
#Momentum: B.12.070 (*) built: Feb 13 2020 
#Momentum Date and Time: Sun Aug 14 20:43:18 2022

NAME Momentum.SP

#  mode: MW    reference: S_50

#eesof Port[1] P1
#eesof Port[2] P2

CONSTANT NBR_OF_PORTS 2

CONSTANT NORMALIZATION 1

VAR freq MAG 318

DATA S[1,1] RI
DATA S[1,2] RI
DATA S[2,1] RI
DATA S[2,2] RI
DATA PORTZ[1] RI
DATA PORTZ[2] RI

VAR_LIST_BEGIN
	 0
	 8.701167245
	 87.01167245
	 870.1167245
	 8701.167245
	 10954.12056
	 13790.42073
	 17361.1111
	 21856.34394
	 27515.5068
	 34639.97072
	 43609.13941
	 54900.65379
	 69115.82818
	 87011.67245
	 109541.2056
	 137904.2073
	 173611.111
	 218563.4394
	 275155.068
	 346399.7072
	 436091.3941
	 549006.5379
	 691158.2818
	 870116.7245
	 1095412.056
	 1379042.073
	 1736111.11
	 2185634.394
	 2751550.68
	 3463997.072
	 4360913.941
	 5490065.379
	 6911582.818
	 8701167.245
	 10954120.56
	 13790420.73
	 17361111.1
	 19629339.22
	 21908241.11
	 27580841.47
	 34722222.2
	 42541975.04
	 52083333.3
	 60365357.38
	 69444444.4
	 86805555.5
	 104166666.6
	 121527777.7
	 138888888.8
	 160590277.7
	 182291666.6
	 203993055.4
	 225694444.3
	 247395833.2
	 269097222.1
	 290798611
	 312499999.9
	 334201388.7
	 355902777.6
	 377604166.5
	 399305555.4
	 421006944.3
	 442708333.1
	 464409722
	 486111110.9
	 507812499.8
	 529513888.7
	 551215277.5
	 572916666.4
	 594618055.3
	 616319444.2
	 638020833.1
	 659722222
	 681423610.8
	 703124999.7
	 724826388.6
	 746527777.5
	 768229166.4
	 789930555.2
	 811631944.1
	 833333333
	 859374999.7
	 885416666.3
	 911458333
	 937499999.6
	 963541666.3
	 989583332.9
	 1015625000
	 1041666666
	 1067708333
	 1093750000
	 1119791666
	 1145833333
	 1171875000
	 1197916666
	 1223958333
	 1250000000
	 1276041666
	 1302083333
	 1328124999
	 1354166666
	 1380208333
	 1406249999
	 1432291666
	 1458333333
	 1484374999
	 1510416666
	 1536458333
	 1562499999
	 1588541666
	 1614583333
	 1640624999
	 1666666666
	 1692708333
	 1718749999
	 1744791666
	 1770833333
	 1796874999
	 1822916666
	 1848958333
	 1874999999
	 1901041666
	 1927083333
	 1953124999
	 1979166666
	 2005208333
	 2031249999
	 2057291666
	 2083333333
	 2109374999
	 2135416666
	 2161458333
	 2187499999
	 2213541666
	 2239583333
	 2265624999
	 2291666666
	 2317708333
	 2343749999
	 2369791666
	 2395833333
	 2421874999
	 2447916666
	 2473958333
	 2500000000
	 2526041666
	 2552083333
	 2578125000
	 2604166666
	 2630208333
	 2656250000
	 2682291666
	 2708333333
	 2734375000
	 2760416666
	 2786458333
	 2812500000
	 2838541666
	 2864583333
	 2890625000
	 2916666666
	 2942708333
	 2968750000
	 2994791666
	 3020833333
	 3046875000
	 3072916666
	 3098958333
	 3125000000
	 3177083333
	 3229166666
	 3281250000
	 3333333333
	 3385416666
	 3437500000
	 3489583333
	 3541666666
	 3593750000
	 3645833333
	 3697916666
	 3750000000
	 3802083333
	 3854166666
	 3906250000
	 3958333333
	 4010416666
	 4062500000
	 4114583333
	 4166666666
	 4218750000
	 4270833333
	 4322916667
	 4375000000
	 4427083333
	 4479166667
	 4531250000
	 4583333333
	 4635416667
	 4687500000
	 4739583333
	 4791666667
	 4843750000
	 4895833333
	 4947916667
	 5000000000
	 5034722222
	 5069444444
	 5104166667
	 5138888889
	 5173611111
	 5208333334
	 5243055556
	 5277777778
	 5312500000
	 5347222222
	 5381944445
	 5416666667
	 5451388889
	 5486111112
	 5520833334
	 5555555556
	 5625000000
	 5694444445
	 5763888889
	 5833333334
	 5902777778
	 5972222223
	 6041666667
	 6111111112
	 6145833334
	 6180555556
	 6215277778
	 6250000000
	 6284722223
	 6319444445
	 6354166667
	 6388888889
	 6423611111
	 6458333334
	 6493055556
	 6527777778
	 6562500000
	 6597222223
	 6631944445
	 6666666667
	 6718750000
	 6770833334
	 6822916667
	 6875000000
	 6927083334
	 6979166667
	 7031250000
	 7083333334
	 7135416667
	 7187500000
	 7239583334
	 7291666667
	 7343750000
	 7395833334
	 7447916667
	 7500000000
	 7552083334
	 7604166667
	 7656250001
	 7708333334
	 7760416667
	 7812500001
	 7864583334
	 7916666667
	 7968750001
	 8020833334
	 8072916667
	 8125000001
	 8177083334
	 8229166667
	 8281250001
	 8333333334
	 8376736112
	 8420138890
	 8463541667
	 8506944445
	 8550347223
	 8593750000
	 8637152778
	 8680555556
	 8723958334
	 8767361112
	 8810763889
	 8854166667
	 8897569445
	 8940972222
	 8984375000
	 9027777778
	 9071180556
	 9114583334
	 9157986111
	 9201388889
	 9244791667
	 9288194444
	 9331597222
	 9375000000
	 9418402778
	 9461805556
	 9505208333
	 9548611111
	 9592013889
	 9635416666
	 9678819444
	 9722222222
	 9756944444
	 9791666666
	 9826388889
	 9861111111
	 9895833333
	 9930555556
	 9965277778
	 1e+10
VAR_LIST_END

BEGIN
	 0.99999999999999411581796948667 ,	 -0 
	 0.999999999999995892174808886921 ,	 -8.77868389093094947384088300169e-09 
	 0.999999999999991007193500536232 ,	 -8.77868374660195627257053274661e-08 
	 0.999999999999547473095162786194 ,	 -8.77868371884638065694161923602e-07 
	 0.999999999955245799654335314699 ,	 -8.77868371107481948456552345306e-06 
	 0.999999999929072069804192324227 ,	 -1.10517080054162164515219046734e-05 
	 0.999999999887589696712097975251 ,	 -1.39132760510474184911799966358e-05 
	 0.999999999821845064751357767818 ,	 -1.75157767814404508044390240684e-05 
	 0.999999999717646081975885863358 ,	 -2.205105649510930021506283083e-05 
	 0.999999999552501295241313528095 ,	 -2.7760635374129982722024578834e-05 
	 0.999999999290766661275142723753 ,	 -3.49485693111883932715500122868e-05 
	 0.999999998875942597287291846442 ,	 -4.39976419935872442579238850158e-05 
	 0.999999998218491170653976496396 ,	 -5.53897495289001895457658974919e-05 
	 0.999999997176500454720837751665 ,	 -6.9731563164143750555012957193e-05 
	 0.999999995525057028267212899664 ,	 -8.77868367297196527943015098572e-05 
	 0.999999992907697365929209354363 ,	 -0.000110517079297545173233174864436 
	 0.999999988759460500808984306786 ,	 -0.000139132759001237005236362165306 
	 0.999999982184948454921880056645 ,	 -0.000175157764794153791854114388116 
	 0.999999971765048289995547747822 ,	 -0.000220510558925801625207441247767 
	 0.999999955250624017466520854214 ,	 -0.000277606341718583671251963096438 
	 0.999999929077030724755559276673 ,	 -0.000349485669123406061942205269588 
	 0.999999887594697045578584493342 ,	 -0.000439976372077377497760153346462 
	 0.999999821849665626594116929482 ,	 -0.000553897399799385681262720027007 
	 0.999999717650906005950162125373 ,	 -0.000697315441110069045294039824512 
	 0.999999552507239375387371183024 ,	 -0.000877867987137848082568325480679 
	 0.999999290772759508172384812497 ,	 -0.0011051700344578696544317608641 
	 0.99999887595305569920611787893 ,	 -0.00139132607657854734384272887837 
	 0.999998218511878533831804816145 ,	 -0.00175157462828889887163086314104 
	 0.999997176547248511901955225767 ,	 -0.00220509956441161669715711468598 
	 0.999995525168241972124860694748 ,	 -0.00277605139648906540372763629421 
	 0.999992907968278443853193948598 ,	 -0.00349483270819428426534614118282 
	 0.999988760134994159045618289383 ,	 -0.0043997158727677732059646587004 
	 0.999982186636671599444525782019 ,	 -0.00553887854278412028463662863942 
	 0.999971769283788836091275697981 ,	 -0.00697296399747571182814454004983 
	 0.999955261250452864807414243842 ,	 -0.00877830008706492748160599148832 
	 0.999929103694768062204900616052 ,	 -0.0110509430199325908716900812578 
	 0.999887661578782060978198842349 ,	 -0.0139117511075015354293782365858 
	 0.999822017311718047594126801414 ,	 -0.0175127385395413837088085529103 
	 0.999772531689417931488605972845 ,	 -0.0197998253208185870377633364114 
	 0.999716732172698407943300935585 ,	 -0.0220973248137094069321051392762 
	 0.999551438432408234646686651104 ,	 -0.027814442653818716166824742686 
	 0.999290038794220958351388617302 ,	 -0.0350075294952522098057556831918 
	 0.998936173082434208936319919303 ,	 -0.0428771217765634427010468243679 
	 0.998409658476916650471366665442 ,	 -0.052467762809090823239444034698 
	 0.997869291704678085253021890821 ,	 -0.060780647092490203142745031073 
	 0.997189246239312931940901307826 ,	 -0.0698791971813363943510921671987 
	 0.995638806480240057261710262537 ,	 -0.0872304932552740996953843932715 
	 0.993768827264102538876500148035 ,	 -0.104513224278752980822559948137 
	 0.991589342647037907951812485408 ,	 -0.121721480615744948039491646341 
	 0.9891,	-0.13885
	 0.98559,	-0.16014
	 0.98164,	-0.18131
	 0.97724,	-0.20234
	 0.97242,	-0.22323
	 0.96717,	-0.24398
	 0.9615,	-0.26458
	 0.95541,	-0.28502
	 0.94891,	-0.30529
	 0.942,	-0.32538
	 0.93469,	-0.34529
	 0.92697,	-0.36501
	 0.91887,	-0.38453
	 0.91037,	-0.40383
	 0.90149,	-0.42292
	 0.89223,	-0.44177
	 0.8826,	-0.46039
	 0.87261,	-0.47875
	 0.86227,	-0.49687
	 0.85157,	-0.51471
	 0.84054,	-0.53229
	 0.82917,	-0.54959
	 0.81748,	-0.5666
	 0.80547,	-0.58331
	 0.79316,	-0.59973
	 0.78056,	-0.61584
	 0.76766,	-0.63164
	 0.75448,	-0.64713
	 0.74104,	-0.66229
	 0.72733,	-0.67712
	 0.71338,	-0.69163
	 0.69918,	-0.7058
	 0.68476,	-0.71963
	 0.66715,	-0.73578
	 0.64925,	-0.75143
	 0.63106,	-0.76657
	 0.61259,	-0.78121
	 0.59388,	-0.79535
	 0.57493,	-0.80897
	 0.55576,	-0.82208
	 0.53638,	-0.83467
	 0.51682,	-0.84675
	 0.49709,	-0.85831
	 0.4772,	-0.86936
	 0.45716,	-0.8799
	 0.437,	-0.88992
	 0.41673,	-0.89943
	 0.39636,	-0.90844
	 0.37591,	-0.91693
	 0.35539,	-0.92493
	 0.33481,	-0.93243
	 0.31419,	-0.93943
	 0.29354,	-0.94594
	 0.27287,	-0.95197
	 0.2522,	-0.95752
	 0.23153,	-0.96258
	 0.21088,	-0.96718
	 0.19026,	-0.97132
	 0.16967,	-0.97499
	 0.14914,	-0.97822
	 0.12866,	-0.98099
	 0.10826,	-0.98333
	 0.087937,	-0.98523
	 0.067697,	-0.98671
	 0.047552,	-0.98777
	 0.027512,	-0.98841
	 0.0075826,	-0.98865
	-0.012227,	-0.98849
	-0.031911,	-0.98794
	-0.051461,	-0.987
	-0.070872,	-0.98569
	-0.090136,	-0.98401
	-0.10924,	-0.98197
	-0.1282,	-0.97957
	-0.14699,	-0.97682
	-0.16562,	-0.97374
	-0.18407,	-0.97032
	-0.20234,	-0.96657
	-0.22043,	-0.96251
	-0.23834,	-0.95814
	-0.25606,	-0.95346
	-0.27358,	-0.94849
	-0.29091,	-0.94322
	-0.30804,	-0.93768
	-0.32496,	-0.93186
	-0.34168,	-0.92576
	-0.3582,	-0.91941
	-0.3745,	-0.9128
	-0.39059,	-0.90594
	-0.40647,	-0.89884
	-0.42213,	-0.89151
	-0.43757,	-0.88394
	-0.4528,	-0.87615
	-0.4678,	-0.86815
	-0.48258,	-0.85993
	-0.49714,	-0.85151
	-0.51148,	-0.84289
	-0.52559,	-0.83408
	-0.53948,	-0.82507
	-0.55314,	-0.81589
	-0.56658,	-0.80653
	-0.57978,	-0.797
	-0.59277,	-0.7873
	-0.60552,	-0.77744
	-0.61805,	-0.76743
	-0.63035,	-0.75727
	-0.64243,	-0.74696
	-0.65427,	-0.73651
	-0.66589,	-0.72592
	-0.67729,	-0.71521
	-0.68846,	-0.70436
	-0.6994,	-0.6934
	-0.71012,	-0.68232
	-0.72061,	-0.67112
	-0.73088,	-0.65981
	-0.74093,	-0.6484
	-0.75076,	-0.63689
	-0.76036,	-0.62528
	-0.76974,	-0.61358
	-0.7789,	-0.60179
	-0.78785,	-0.58991
	-0.80507,	-0.56592
	-0.82144,	-0.54162
	-0.83694,	-0.51706
	-0.85159,	-0.49225
	-0.8654,	-0.46721
	-0.87838,	-0.44198
	-0.89053,	-0.41658
	-0.90186,	-0.39103
	-0.91239,	-0.36534
	-0.92212,	-0.33955
	-0.93106,	-0.31366
	-0.93922,	-0.28771
	-0.94661,	-0.2617
	-0.95324,	-0.23565
	-0.95912,	-0.20959
	-0.96426,	-0.18353
	-0.96866,	-0.15747
	-0.97234,	-0.13145
	-0.9753,	-0.10546
	-0.97756,	-0.079542
	-0.97911,	-0.053685
	-0.97998,	-0.027911
	-0.98017,	-0.0022336
	-0.97969,	 0.023336
	-0.97854,	 0.048785
	-0.97673,	 0.074101
	-0.97428,	 0.099274
	-0.97119,	 0.12429
	-0.96746,	 0.14914
	-0.96311,	 0.17381
	-0.95814,	 0.1983
	-0.95256,	 0.22259
	-0.94638,	 0.24667
	-0.9396,	 0.27053
	-0.93223,	 0.29416
	-0.92428,	 0.31756
	-0.91866,	 0.33302
	-0.91278,	 0.34836
	-0.90666,	 0.36359
	-0.90028,	 0.3787
	-0.89366,	 0.39368
	-0.88679,	 0.40854
	-0.87968,	 0.42328
	-0.87233,	 0.43788
	-0.86474,	 0.45235
	-0.85691,	 0.46668
	-0.84884,	 0.48087
	-0.84054,	 0.49492
	-0.83202,	 0.50882
	-0.82326,	 0.52257
	-0.81427,	 0.53618
	-0.80506,	 0.54962
	-0.78597,	 0.57605
	-0.76601,	 0.60181
	-0.74519,	 0.62691
	-0.72353,	 0.6513
	-0.70104,	 0.67497
	-0.67776,	 0.69789
	-0.65369,	 0.72004
	-0.62886,	 0.74139
	-0.61617,	 0.75176
	-0.60329,	 0.76193
	-0.59023,	 0.77188
	-0.57699,	 0.78162
	-0.56358,	 0.79114
	-0.55,	 0.80044
	-0.53625,	 0.80952
	-0.52233,	 0.81838
	-0.50825,	 0.827
	-0.49401,	 0.8354
	-0.47961,	 0.84355
	-0.46506,	 0.85147
	-0.45036,	 0.85916
	-0.43551,	 0.86659
	-0.42052,	 0.87378
	-0.40538,	 0.88072
	-0.38243,	 0.89066
	-0.35918,	 0.90003
	-0.33565,	 0.9088
	-0.31185,	 0.91698
	-0.28779,	 0.92456
	-0.26349,	 0.93152
	-0.23896,	 0.93786
	-0.21422,	 0.94358
	-0.18928,	 0.94865
	-0.16415,	 0.95307
	-0.13885,	 0.95684
	-0.1134,	 0.95994
	-0.087819,	 0.96238
	-0.062112,	 0.96414
	-0.036303,	 0.96521
	-0.010409,	 0.9656
	 0.015553,	 0.96529
	 0.041563,	 0.96428
	 0.067603,	 0.96256
	 0.093654,	 0.96013
	 0.11969,	 0.95699
	 0.14571,	 0.95313
	 0.17167,	 0.94855
	 0.19757,	 0.94324
	 0.22337,	 0.93721
	 0.24907,	 0.93045
	 0.27463,	 0.92296
	 0.30004,	 0.91475
	 0.32527,	 0.90581
	 0.3503,	 0.89614
	 0.3751,	 0.88575
	 0.39967,	 0.87464
	 0.41993,	 0.86484
	 0.44,	 0.85454
	 0.45986,	 0.84375
	 0.47949,	 0.83247
	 0.49888,	 0.82071
	 0.51801,	 0.80847
	 0.53689,	 0.79576
	 0.55548,	 0.78257
	 0.57378,	 0.76892
	 0.59177,	 0.75481
	 0.60944,	 0.74026
	 0.62678,	 0.72525
	 0.64378,	 0.70981
	 0.66041,	 0.69395
	 0.67668,	 0.67766
	 0.69256,	 0.66096
	 0.70805,	 0.64387
	 0.72313,	 0.62638
	 0.73778,	 0.60851
	 0.75201,	 0.59027
	 0.7658,	 0.57167
	 0.77913,	 0.55272
	 0.79199,	 0.53344
	 0.80439,	 0.51384
	 0.81629,	 0.49393
	 0.82771,	 0.47373
	 0.83862,	 0.45324
	 0.84902,	 0.43249
	 0.8589,	 0.41148
	 0.86825,	 0.39024
	 0.87706,	 0.36878
	 0.88534,	 0.34711
	 0.89157,	 0.32963
	 0.89744,	 0.31205
	 0.90296,	 0.29436
	 0.90812,	 0.27657
	 0.91292,	 0.25869
	 0.91736,	 0.24074
	 0.92143,	 0.22271
	 0.92514,	 0.20463
END
BEGIN
	 -3.58932759999999992906278898312e-18 ,	 0 
	 4.25766193000000028867639211947e-15 ,	 2.84133623999999985681693912717e-12 
	 4.25424668999999986125669752713e-15 ,	 2.84133576000000014518513194986e-11 
	 3.58700156999999982527611732473e-15 ,	 2.84133577000000021558126947306e-10 
	 -6.27746282000000001394200678996e-14 ,	 2.84133561999999996097042503581e-09 
	 -1.01984962000000000915927448987e-13 ,	 3.57702951999999993235546172355e-09 
	 -1.6413281299999999552166795306e-13 ,	 4.50321314000000013585266352405e-09 
	 -2.62602765000000012710655914952e-13 ,	 5.66920903999999997229607327461e-09 
	 -4.18685376999999999204724436198e-13 ,	 7.13711047999999963264148019281e-09 
	 -6.66068600000000007940873446964e-13 ,	 8.98508805999999966997138326234e-09 
	 -1.05810433999999990514794523376e-12 ,	 1.13115523000000002028290314133e-08 
	 -1.67941652999999998303509650077e-12 ,	 1.42403939000000002893081869231e-08 
	 -2.66404173000000005553569586981e-12 ,	 1.79275803999999987214016017052e-08 
	 -4.22433978999999995109818991674e-12 ,	 2.25694597999999994619701180251e-08 
	 -6.69669403000000036092481200853e-12 ,	 2.84132131000000011428296666427e-08 
	 -1.06137003e-11 ,	 3.57700096e-08 
	 -1.68182682e-11 ,	 4.50315618e-08 
	 -2.6643016e-11 ,	 5.66909544e-08 
	 -4.21921287e-11 ,	 7.13688397e-08 
	 -6.67805134e-11 ,	 8.98463662e-08 
	 -1.05612034e-10 ,	 1.13106532e-07 
	 -1.66810085e-10 ,	 1.42386049e-07 
	 -2.62941587e-10 ,	 1.79240266e-07 
	 -4.13167538e-10 ,	 2.25624181e-07 
	 -6.46020713e-10 ,	 2.83993158e-07 
	 -1.00235673e-09 ,	 3.57427504e-07 
	 -1.53686025e-09 ,	 4.49785951e-07 
	 -2.31408562e-09 ,	 5.65894805e-07 
	 -3.39127244e-09 ,	 7.11784045e-07 
	 -4.77730239e-09 ,	 8.94991524e-07 
	 -6.36215293e-09 ,	 1.12497207e-06 
	 -7.83218067e-09 ,	 1.41365852e-06 
	 -8.61266774e-09 ,	 1.77620304e-06 
	 -7.86605229e-09 ,	 2.23188037e-06 
	 -4.4999234e-09 ,	 2.80512227e-06 
	 2.92428058e-09 ,	 3.52672573e-06 
	 1.64678321e-08 ,	 4.43536531e-06 
	 3.93096997e-08 ,	 5.57955053e-06 
	 5.69327588e-08 ,	 6.30644811e-06 
	 7.69869384e-08 ,	 7.03675989e-06 
	 1.36896408e-07 ,	 8.85434494e-06 
	 2.3225758e-07 ,	 1.11413521e-05 
	 3.61902648e-07 ,	 1.36432697e-05 
	 5.55576688e-07 ,	 1.66915992e-05 
	 7.55152106e-07 ,	 1.93327333e-05 
	 1.00736159e-06 ,	 2.22218883e-05 
	 1.58628525e-06 ,	 2.77250637e-05 
	 2.2907925e-06 ,	 3.31942703e-05 
	 3.11902042e-06 ,	 3.86228011e-05 
	 4.06878599e-06 ,	 4.40040677e-05 
	 5.42306187e-06 ,	 5.06543409e-05 
	 6.95772374e-06 ,	 5.72083079e-05 
	 8.66643351e-06 ,	 6.36539572e-05 
	 1.05421173e-05 ,	 6.99796599e-05 
	 1.25769879e-05 ,	 7.61742084e-05 
	 1.47625701e-05 ,	 8.22268546e-05 
	 1.70897274e-05 ,	 8.81273471e-05 
	 1.95486914e-05 ,	 9.38659663e-05 
	 2.21290932e-05 ,	 9.94335584e-05 
	 2.48199958e-05 ,	 0.000104821567 
	 2.76099289e-05 ,	 0.000110022064 
	 3.0486925e-05 ,	 0.000115027774 
	 3.34385564e-05 ,	 0.000119832106 
	 3.64519744e-05 ,	 0.000124429171 
	 3.95139486e-05 ,	 0.000128813805 
	 4.26109075e-05 ,	 0.000132981589 
	 4.57289799e-05 ,	 0.000136928863 
	 4.88540373e-05 ,	 0.000140652743 
	 5.19717355e-05 ,	 0.000144151128 
	 5.50675583e-05 ,	 0.000147422715 
	 5.81268597e-05 ,	 0.000150466999 
	 6.11349075e-05 ,	 0.000153284284 
	 6.40769257e-05 ,	 0.00015587568 
	 6.69381374e-05 ,	 0.000158243103 
	 6.97038071e-05 ,	 0.000160389276 
	 7.23592819e-05 ,	 0.00016231772 
	 7.48900333e-05 ,	 0.000164032749 
	 7.7281697e-05 ,	 0.000165539459 
	 7.95201129e-05 ,	 0.00016684372 
	 8.1591363e-05 ,	 0.000167952158 
	 8.34818091e-05 ,	 0.000168872145 
	 8.51781295e-05 ,	 0.000169611778 
	 8.69392319e-05 ,	 0.000170273716 
	 8.83804599e-05 ,	 0.000170705178 
	 8.94810163e-05 ,	 0.000170924052 
	 9.02210572e-05 ,	 0.000170949542 
	 9.0581764e-05 ,	 0.000170802097 
	 9.05454097e-05 ,	 0.000170503354 
	 9.00954207e-05 ,	 0.000170076063 
	 8.92164331e-05 ,	 0.00016954402 
	 8.78943452e-05 ,	 0.000168931987 
	 8.61163638e-05 ,	 0.000168265623 
	 8.3871046e-05 ,	 0.000167571402 
	 8.11483359e-05 ,	 0.000166876537 
	 7.79395967e-05 ,	 0.000166208899 
	 7.42376367e-05 ,	 0.000165596936 
	 7.00367321e-05 ,	 0.000165069596 
	 6.53326437e-05 ,	 0.000164656245 
	 6.01226294e-05 ,	 0.000164386583 
	 5.44054526e-05 ,	 0.000164290574 
	 4.81813858e-05 ,	 0.000164398357 
	 4.14522099e-05 ,	 0.000164740176 
	 3.42212098e-05 ,	 0.0001653463 
	 2.64931662e-05 ,	 0.00016624695 
	 1.82743431e-05 ,	 0.000167472227 
	 9.57247245e-06 ,	 0.000169052036 
	 3.96735474e-07 ,	 0.000171016023 
	 -9.24225968e-06 ,	 0.000173393503 
	 -1.93325027e-05 ,	 0.000176213398 
	 -2.98606085e-05 ,	 0.000179504171 
	 -4.08118479e-05 ,	 0.000183293771 
	 -5.21701797e-05 ,	 0.000187609569 
	 -6.39182852e-05 ,	 0.000192478309 
	 -7.60376054e-05 ,	 0.000197926047 
	 -8.85083787e-05 ,	 0.00020397811 
	 -0.000101309681 ,	 0.000210659042 
	 -0.000114419469 ,	 0.00021799256 
	 -0.000127814618 ,	 0.000226001513 
	 -0.000141470973 ,	 0.000234707841 
	 -0.000155363386 ,	 0.000244132538 
	 -0.000169465766 ,	 0.000254295617 
	 -0.000183751126 ,	 0.000265216075 
	 -0.000198191626 ,	 0.000276911868 
	 -0.000212758625 ,	 0.000289399879 
	 -0.000227422724 ,	 0.000302695896 
	 -0.000242153817 ,	 0.000316814586 
	 -0.000256921138 ,	 0.000331769475 
	 -0.000271693309 ,	 0.00034757293 
	 -0.000286438389 ,	 0.000364236143 
	 -0.000301123917 ,	 0.000381769116 
	 -0.000315716969 ,	 0.000400180647 
	 -0.000330184196 ,	 0.000419478321 
	 -0.000344491875 ,	 0.000439668501 
	 -0.000358605956 ,	 0.00046075632 
	 -0.000372492107 ,	 0.000482745678 
	 -0.000386115762 ,	 0.000505639234 
	 -0.000399442161 ,	 0.000529438408 
	 -0.000412436401 ,	 0.000554143379 
	 -0.000425063476 ,	 0.000579753086 
	 -0.000437288319 ,	 0.00060626523 
	 -0.000449075852 ,	 0.000633676277 
	 -0.000460391018 ,	 0.000661981465 
	 -0.000471198832 ,	 0.000691174807 
	 -0.000481464415 ,	 0.000721249101 
	 -0.000491153037 ,	 0.000752195938 
	 -0.000500230157 ,	 0.00078400571 
	 -0.00050866146 ,	 0.000816667625 
	 -0.000516412895 ,	 0.000850169711 
	 -0.000523450712 ,	 0.000884498835 
	 -0.000529741501 ,	 0.000919640717 
	 -0.000535252224 ,	 0.000955579939 
	 -0.000539950254 ,	 0.000992299965 
	 -0.000543803406 ,	 0.00102978315 
	 -0.00054677997 ,	 0.00106801078 
	 -0.000548848749 ,	 0.00110696305 
	 -0.000549979082 ,	 0.00114661912 
	 -0.000550140887 ,	 0.00118695711 
	 -0.00054930468 ,	 0.00122795413 
	 -0.000547441613 ,	 0.00126958632 
	 -0.000544523499 ,	 0.00131182881 
