CITIFILE A.01.01
#Momentum: B.12.070 (*) built: Feb 13 2020 
#Momentum Date and Time: Mon Aug 15 08:47:45 2022

NAME Momentum.SP

#  mode: MW    reference: S_50

#eesof Port[1] P1
#eesof Port[2] P2

CONSTANT NBR_OF_PORTS 2

CONSTANT NORMALIZATION 1

VAR freq MAG 154

DATA S[1,1] RI
DATA S[1,2] RI
DATA S[2,1] RI
DATA S[2,2] RI
DATA PORTZ[1] RI
DATA PORTZ[2] RI

VAR_LIST_BEGIN
	 0
	 8.274252442
	 82.74252442
	 827.4252442
	 8274.252442
	 10416.66666
	 13113.80637
	 16509.30408
	 20783.98244
	 26165.48365
	 32940.39228
	 41469.49692
	 52207.00348
	 65724.72336
	 82742.52442
	 104166.6666
	 131138.0637
	 165093.0408
	 207839.8244
	 261654.8365
	 329403.9228
	 414694.9692
	 522070.0348
	 657247.2336
	 827425.2442
	 1041666.666
	 1311380.637
	 1650930.408
	 2078398.244
	 2616548.365
	 3294039.228
	 4146949.692
	 5220700.348
	 6572472.336
	 8274252.442
	 10416666.66
	 13113806.37
	 16509304.08
	 20783982.44
	 26165483.65
	 32940392.28
	 41469496.92
	 52207003.48
	 65724723.36
	 82742524.42
	 104166666.6
	 117776035.3
	 131449446.7
	 165485048.8
	 208333333.2
	 255251850.3
	 312499999.9
	 362192144.3
	 416666666.5
	 468749999.8
	 520833333.1
	 572916666.4
	 624999999.8
	 677083333.1
	 729166666.4
	 781249999.7
	 833333333
	 937499999.6
	 1041666666
	 1145833333
	 1250000000
	 1302083333
	 1354166666
	 1406249999
	 1458333333
	 1510416666
	 1562499999
	 1614583333
	 1666666666
	 1770833333
	 1874999999
	 1979166666
	 2083333333
	 2187499999
	 2291666666
	 2395833333
	 2500000000
	 2604166666
	 2708333333
	 2812500000
	 2916666666
	 3020833333
	 3125000000
	 3229166666
	 3333333333
	 3437500000
	 3541666666
	 3645833333
	 3750000000
	 3854166666
	 3958333333
	 4062500000
	 4166666666
	 4270833333
	 4375000000
	 4479166667
	 4583333333
	 4687500000
	 4791666667
	 4895833333
	 5000000000
	 5104166667
	 5208333333
	 5312500000
	 5416666667
	 5520833333
	 5625000000
	 5729166667
	 5833333334
	 5937500000
	 6041666667
	 6145833334
	 6250000000
	 6354166667
	 6458333334
	 6562500000
	 6666666667
	 6770833334
	 6875000000
	 6979166667
	 7083333334
	 7187500000
	 7291666667
	 7395833334
	 7500000000
	 7604166667
	 7708333334
	 7812500001
	 7916666667
	 8020833334
	 8125000001
	 8229166667
	 8333333334
	 8437500001
	 8541666667
	 8645833334
	 8750000000
	 8854166667
	 8958333334
	 9062500000
	 9166666667
	 9270833334
	 9375000000
	 9479166667
	 9583333334
	 9687500000
	 9791666667
	 9895833333
	 1e+10
VAR_LIST_END

BEGIN
	 0.999999999999998445687765524781 ,	 -0 
	 1.00000000000005595524044110789 ,	 -2.20900389646949690813926281407e-09 
	 1.00000000000005617728504603292 ,	 -2.2090038742650364156361320056e-08 
	 1.00000000000002620126338115369 ,	 -2.20900386024847072974353068275e-07 
	 0.999999999997024602294004580472 ,	 -2.20900386031785966878260296653e-06 
	 0.999999999995251687145980667992 ,	 -2.78097109471242553979664080543e-06 
	 0.999999999992440491425327309116 ,	 -3.50103518036160021864588998142e-06 
	 0.999999999987986387672833643592 ,	 -4.40754215592920051136616166332e-06 
	 0.999999999980927034570754585729 ,	 -5.54876682384852770724137371872e-06 
	 0.999999999969738873062397033209 ,	 -6.9854835583332830495351117861e-06 
	 0.999999999952005724779269257851 ,	 -8.79420276474196516147685542819e-06 
	 0.999999999923900539933185882546 ,	 -1.10712453363359664137988147559e-05 
	 0.999999999879356948895292589441 ,	 -1.3937872093153225172557085898e-05 
	 0.999999999808760975383847835474 ,	 -1.7546741361798567915286639618e-05 
	 0.999999999696872254872914709267 ,	 -2.20900385891759087897412427992e-05 
	 0.999999999519543436576896056067 ,	 -2.78097109169678224915855935251e-05 
	 0.999999999238494141629018940876 ,	 -3.50103517472999392623478343012e-05 
	 0.999999998793061450896857422777 ,	 -4.40754214489080808903054276016e-05 
	 0.999999998087097274890311382478 ,	 -5.5487668014705948671405622008e-05 
	 0.999999996968219950765899284306 ,	 -6.98548351395489319770604197402e-05 
	 0.999999995194920221486256650678 ,	 -8.7942026763779268527798649302e-05 
	 0.99999999238442960347583721159 ,	 -0.000110712451599312422523269106023 
	 0.9999999879301026961542220306 ,	 -0.000139378717407032115538356720208 
	 0.999999980870472704452822654275 ,	 -0.000175467406586055085782049900445 
	 0.999999969681717892910910450155 ,	 -0.000220900371863605449185286033753 
	 0.999999951948750243069241605554 ,	 -0.000278097081180220251361845384963 
	 0.999999923843926663558079326322 ,	 -0.000350103461625658751721346106933 
	 0.999999879300868199649698908615 ,	 -0.000440754103061699598065104055422 
	 0.999999808705099080263778432709 ,	 -0.000554876457821984470086817964329 
	 0.999999696818892447325310968154 ,	 -0.00069854790780493614121837708808 
	 0.999999519492584365565335247084 ,	 -0.000879419382579460506832447208581 
	 0.999999238452789152020727669878 ,	 -0.0011071227501287667083218480002 
	 0.999998793043431311033941710775 ,	 -0.00139378365089549982602790123565 
	 0.999998087139017499680448963773 ,	 -0.00175466703680265956322159581759 
	 0.999996968410774678126529124711 ,	 -0.00220898969571384218291143497481 
	 0.999995195483721843743296631146 ,	 -0.00278094283837469757880711540565 
	 0.999992385929368787778059868288 ,	 -0.00350097882083007239106819952212 
	 0.999987933952939167525642005785 ,	 -0.0044074297637946985295442914321 
	 0.999980880219483392323809312074 ,	 -0.00554854276018100500689200771376 
	 0.999969706247623602024532374344 ,	 -0.00698503708724676486419014054263 
	 0.999952010295795723493483819766 ,	 -0.00879331380988176980473269850336 
	 0.999923997986944534943631879287 ,	 -0.0110694775183057536604991355489 
	 0.999879685496556591672856484365 ,	 -0.0139343632330470035274316842333 
	 0.999809661769186286406352337508 ,	 -0.0175397975035724296155592583091 
	 0.999699184953684816257180045795 ,	 -0.0220763601573429057989272905616 
	 0.999525294194651081625124788843 ,	 -0.0277829546434338603422276037236 
	 0.99939505001688599961084946699 ,	 -0.0314049345697104131946986171897 
	 0.999249002025214938527142294333 ,	 -0.0350413392952490382326047324568 
	 0.998820952823425756150754750706 ,	 -0.0440806682710315339557283209615 
	 0.998155840751618450568116713839 ,	 -0.055433790328166532290765644575 
	 0.997273227767970116275364489411 ,	 -0.067830305994482975595616380815 
	 0.995986562401478314754399434605 ,	 -0.0829075852792340306507412606152 
	 0.994687951423018912322504547774 ,	 -0.0959536737703260977916386309516 
	 0.99307329046592474064425459801 ,	 -0.110213218489513084530351250123 
	 0.991343855739843959895551961381 ,	 -0.123806471904810366790883335852 
	 0.98943,	-0.13736
	 0.98734,	-0.15087
	 0.98506,	-0.16434
	 0.98261,	-0.17776
	 0.97998,	-0.19114
	 0.97717,	-0.20447
	 0.97418,	-0.21775
	 0.96766,	-0.24414
	 0.96044,	-0.27028
	 0.95253,	-0.29617
	 0.94395,	-0.32177
	 0.9394,	-0.33446
	 0.93469,	-0.34707
	 0.92981,	-0.3596
	 0.92478,	-0.37204
	 0.91958,	-0.38441
	 0.91422,	-0.39668
	 0.90871,	-0.40887
	 0.90304,	-0.42097
	 0.89125,	-0.44487
	 0.87885,	-0.46839
	 0.86587,	-0.49151
	 0.85232,	-0.5142
	 0.83822,	-0.53645
	 0.82357,	-0.55826
	 0.80841,	-0.5796
	 0.79274,	-0.60047
	 0.77659,	-0.62084
	 0.75996,	-0.64072
	 0.74289,	-0.66008
	 0.72537,	-0.67893
	 0.70744,	-0.69724
	 0.68912,	-0.71502
	 0.67041,	-0.73224
	 0.65134,	-0.74892
	 0.63193,	-0.76503
	 0.61219,	-0.78057
	 0.59215,	-0.79554
	 0.57181,	-0.80994
	 0.55121,	-0.82376
	 0.53036,	-0.83699
	 0.50927,	-0.84963
	 0.48797,	-0.86169
	 0.46647,	-0.87316
	 0.4448,	-0.88404
	 0.42295,	-0.89433
	 0.40097,	-0.90403
	 0.37885,	-0.91314
	 0.35662,	-0.92166
	 0.33429,	-0.9296
	 0.31189,	-0.93696
	 0.28942,	-0.94373
	 0.26689,	-0.94993
	 0.24434,	-0.95555
	 0.22176,	-0.96061
	 0.19918,	-0.9651
	 0.17661,	-0.96902
	 0.15406,	-0.9724
	 0.13154,	-0.97522
	 0.10907,	-0.97749
	 0.086664,	-0.97923
	 0.064326,	-0.98043
	 0.042073,	-0.9811
	 0.019914,	-0.98125
	-0.002137,	-0.98089
	-0.024071,	-0.98002
	-0.045877,	-0.97864
	-0.067545,	-0.97677
	-0.089065,	-0.97441
	-0.11042,	-0.97157
	-0.13162,	-0.96825
	-0.15264,	-0.96447
	-0.17348,	-0.96023
	-0.19412,	-0.95553
	-0.21456,	-0.95039
	-0.2348,	-0.94481
	-0.25482,	-0.9388
	-0.27461,	-0.93237
	-0.29418,	-0.92552
	-0.31351,	-0.91826
	-0.33259,	-0.9106
	-0.35143,	-0.90255
	-0.37001,	-0.89411
	-0.38832,	-0.8853
	-0.40637,	-0.87611
	-0.42415,	-0.86656
	-0.44165,	-0.85666
	-0.45886,	-0.8464
	-0.47578,	-0.8358
	-0.49242,	-0.82487
	-0.50875,	-0.81362
	-0.52478,	-0.80204
	-0.54051,	-0.79015
	-0.55592,	-0.77796
	-0.57103,	-0.76547
	-0.58581,	-0.75269
	-0.60027,	-0.73962
	-0.6144,	-0.72628
	-0.62821,	-0.71267
END
BEGIN
	 1.31206824000000000909628612959e-20 ,	 0 
	 4.33680868999999978293553332607e-18 ,	 2.11689520000000005322661950901e-12 
	 9.54097912000000057843214671034e-17 ,	 2.11689797999999988087807479054e-11 
	 9.58781665000000027161299337956e-15 ,	 2.11689770000000004236124087922e-10 
	 9.58402628000000042455462494904e-13 ,	 2.11689722000000002376787826231e-09 
	 1.51896029999999999355796246349e-12 ,	 2.66501535999999997411248728492e-09 
	 2.40738678999999998875654733047e-12 ,	 3.35505488000000013897599746742e-09 
	 3.81544882000000015096438836277e-12 ,	 4.22376245999999968985299045191e-09 
	 6.04707342999999979983797101493e-12 ,	 5.31739913999999974770864757251e-09 
	 9.5839525599999993083728305269e-12 ,	 6.69420339999999974269945075757e-09 
	 1.51895276000000000306348968288e-11 ,	 8.42749180999999939944755450102e-09 
	 2.40737161000000003082043678893e-11 ,	 1.06095616999999996263912588226e-08 
	 3.81541291999999978354099410532e-11 ,	 1.3356603199999999336854374012e-08 
	 6.04698756000000047483367280204e-11 ,	 1.68148800999999985287382622563e-08 
	 9.58374412999999951178389183309e-11 ,	 2.1168506000000000519020484902e-08 
	 1.51889953e-10 ,	 2.66492234e-08 
	 2.40723967e-10 ,	 3.35486927e-08 
	 3.81508242e-10 ,	 4.22339214e-08 
	 6.04615816e-10 ,	 5.31666029e-08 
	 9.58166108e-10 ,	 6.69272934e-08 
	 1.51837652e-09 ,	 8.42455109e-08 
	 2.40592619e-09 ,	 1.06036955e-07 
	 3.81178438e-09 ,	 1.33449028e-07 
	 6.03787902e-09 ,	 1.6791548e-07 
	 9.56088514e-09 ,	 2.11219941e-07 
	 1.51316592e-08 ,	 2.65565519e-07 
	 2.39286981e-08 ,	 3.33642044e-07 
	 3.77911511e-08 ,	 4.18671256e-07 
	 5.95631797e-08 ,	 5.24388444e-07 
	 9.35797678e-08 ,	 6.54879904e-07 
	 1.4629619e-07 ,	 8.1413198e-07 
	 2.26969983e-07 ,	 1.00506278e-06 
	 3.48079435e-07 ,	 1.227749e-06 
	 5.24749025e-07 ,	 1.47668567e-06 
	 7.71969921e-07 ,	 1.73755732e-06 
	 1.0985148e-06 ,	 1.98545713e-06 
	 1.49845466e-06 ,	 2.18810371e-06 
	 1.94535303e-06 ,	 2.31659428e-06 
	 2.3963447e-06 ,	 2.35999576e-06 
	 2.80707801e-06 ,	 2.33337033e-06 
	 3.1477611e-06 ,	 2.27227026e-06 
	 3.40934365e-06 ,	 2.21887107e-06 
	 3.59895558e-06 ,	 2.2104977e-06 
	 3.73143795e-06 ,	 2.27562479e-06 
	 3.82274299e-06 ,	 2.43545172e-06 
	 3.88669491e-06 ,	 2.70725977e-06 
	 3.91347444e-06 ,	 2.90352559e-06 
	 3.93455585e-06 ,	 3.11186878e-06 
	 3.97330507e-06 ,	 3.65647723e-06 
	 4.00814155e-06 ,	 4.35675315e-06 
	 4.03513049e-06 ,	 5.10555623e-06 
	 4.04990782e-06 ,	 5.9586362e-06 
	 4.03911932e-06 ,	 6.62303302e-06 
	 3.99045456e-06 ,	 7.25108076e-06 
	 3.8946204e-06 ,	 7.73855228e-06 
	 3.73556304e-06 ,	 8.10285732e-06 
	 3.49682486e-06 ,	 8.33326797e-06 
	 3.1604336e-06 ,	 8.42070571e-06 
	 2.70701019e-06 ,	 8.35773733e-06 
	 2.11587296e-06 ,	 8.13861849e-06 
	 1.36514365e-06 ,	 7.75936024e-06 
	 4.31857876e-07 ,	 7.21780603e-06 
	 -2.07897016e-06 ,	 5.64882878e-06 
	 -5.61749773e-06 ,	 3.45411483e-06 
	 -1.03939584e-05 ,	 6.90332037e-07 
	 -1.66233893e-05 ,	 -2.54959925e-06 
	 -2.03502887e-05 ,	 -4.30878043e-06 
	 -2.45207619e-05 ,	 -6.13496715e-06 
	 -2.91608258e-05 ,	 -8.00575312e-06 
	 -3.42958382e-05 ,	 -9.89627933e-06 
	 -3.99503258e-05 ,	 -1.17792372e-05 
	 -4.61478117e-05 ,	 -1.36248822e-05 
	 -5.29106407e-05 ,	 -1.54010583e-05 
	 -6.02598052e-05 ,	 -1.70732337e-05 
	 -7.67933019e-05 ,	 -1.99558654e-05 
	 -9.58825958e-05 ,	 -2.19510569e-05 
	 -0.000117629353 ,	 -2.27032361e-05 
	 -0.000142097381 ,	 -2.18261036e-05 
	 -0.000169307695 ,	 -1.89064669e-05 
	 -0.000199233996 ,	 -1.35087547e-05 
	 -0.000231798637 ,	 -5.18016669e-06 
	 -0.00026686918 ,	 6.54360045e-06 
	 -0.000304255614 ,	 2.21321242e-05 
	 -0.000343708319 ,	 4.20536111e-05 
	 -0.00038491682 ,	 6.67679331e-05 
	 -0.00042750938 ,	 9.67194493e-05 
	 -0.000471053464 ,	 0.000132329728 
	 -0.000515057065 ,	 0.000173990279 
	 -0.000558970908 ,	 0.000222055416 
	 -0.000602191487 ,	 0.000276835359 
	 -0.000644064898 ,	 0.000338589669 
	 -0.000683891421 ,	 0.000407521133 
	 -0.000720930767 ,	 0.000483770162 
	 -0.000754407927 ,	 0.000567409784 
	 -0.000783519525 ,	 0.000658441285 
	 -0.000807440595 ,	 0.000756790531 
	 -0.000825331689 ,	 0.000862305023 
	 -0.000836346225 ,	 0.000974751656 
	 -0.000839637994 ,	 0.00109381523 
	 -0.000834368746 ,	 0.00121909766 
	 -0.000819715791 ,	 0.0013501179 
	 -0.000794879537 ,	 0.00148631249 
	 -0.000759090936 ,	 0.00162703683 
	 -0.000711618772 ,	 0.00177156696 
	 -0.000651776771 ,	 0.00191910197 
	 -0.000578930502 ,	 0.00206876694 
	 -0.000492504045 ,	 0.00221961639 
	 -0.000391986416 ,	 0.00237063821 
	 -0.000276937727 ,	 0.00252075804 
	 -0.000146995082 ,	 0.00266884418 
	 -1.87817755e-06 ,	 0.00281371286 
	 0.000158605389 ,	 0.00295413402 
	 0.000334555144 ,	 0.00308883753 
	 0.0005259731 ,	 0.00321651985 
	 0.000732759516 ,	 0.00333585114 
	 0.000954709072 ,	 0.0034454829 
	 0.00119150753 ,	 0.00354405601 
	 0.00144272892 ,	 0.00363020924 
	 0.00170783335 ,	 0.00370258826 
	 0.00198616544 ,	 0.00375985501 
	 0.00227695359 ,	 0.00380069755 
	 0.00257931001 ,	 0.00382384014 
	 0.00289223166 ,	 0.00382805369 
	 0.00321460225 ,	 0.00381216638 
	 0.0035451952 ,	 0.00377507436 
	 0.00388267784 ,	 0.00371575244 
	 0.00422561661 ,	 0.00363326462 
	 0.00457248364 ,	 0.00352677437 
	 0.00492166435 ,	 0.00339555436 
	 0.00527146637 ,	 0.00323899565 
	 0.00562012953 ,	 0.00305661606 
	 0.00596583691 ,	 0.00284806755 
	 0.0063067269 ,	 0.0026131425 
	 0.00664090601 ,	 0.00235177872 
	 0.00696646247 ,	 0.00206406301 
	 0.00728148022 ,	 0.00175023319 
	 0.0075840532 ,	 0.00141067858 
	 0.0078722998 ,	 0.00104593874 
	 0.00814437698 ,	 0.000656700533 
	 0.00839849415 ,	 0.000243793569 
	 0.00863292628 ,	 -0.000191816012 
	 0.00884602625 ,	 -0.000649033246 
	 0.0090362,	-0.0011266
	 0.0092021,	-0.0016233
	 0.0093423,	-0.0021376
	 0.0094555,	-0.0026681
	 0.0095406,	-0.0032131
	 0.0095968,	-0.0037711
	 0.009623,	-0.0043402
	 0.0096185,	-0.0049189
	 0.0095828,	-0.0055054
	 0.0095153,	-0.0060978
	 0.0094157,	-0.0066945
	 0.0092837,	-0.0072937
END
BEGIN
	 1.31206824000000000909628612959e-20 ,	 0 
	 4.33680868999999978293553332607e-18 ,	 2.11689520000000005322661950901e-12 
	 9.54097912000000057843214671034e-17 ,	 2.11689797999999988087807479054e-11 
	 9.58781665000000027161299337956e-15 ,	 2.11689770000000004236124087922e-10 
	 9.58402628000000042455462494904e-13 ,	 2.11689722000000002376787826231e-09 
	 1.51896029999999999355796246349e-12 ,	 2.66501535999999997411248728492e-09 
	 2.40738678999999998875654733047e-12 ,	 3.35505488000000013897599746742e-09 
	 3.81544882000000015096438836277e-12 ,	 4.22376245999999968985299045191e-09 
	 6.04707342999999979983797101493e-12 ,	 5.31739913999999974770864757251e-09 
	 9.5839525599999993083728305269e-12 ,	 6.69420339999999974269945075757e-09 
	 1.51895276000000000306348968288e-11 ,	 8.42749180999999939944755450102e-09 
	 2.40737161000000003082043678893e-11 ,	 1.06095616999999996263912588226e-08 
	 3.81541291999999978354099410532e-11 ,	 1.3356603199999999336854374012e-08 
	 6.04698756000000047483367280204e-11 ,	 1.68148800999999985287382622563e-08 
	 9.58374412999999951178389183309e-11 ,	 2.1168506000000000519020484902e-08 
	 1.51889953e-10 ,	 2.66492234e-08 
	 2.40723967e-10 ,	 3.35486927e-08 
	 3.81508242e-10 ,	 4.22339214e-08 
	 6.04615816e-10 ,	 5.31666029e-08 
	 9.58166108e-10 ,	 6.69272934e-08 
	 1.51837652e-09 ,	 8.42455109e-08 
	 2.40592619e-09 ,	 1.06036955e-07 
	 3.81178438e-09 ,	 1.33449028e-07 
	 6.03787902e-09 ,	 1.6791548e-07 
	 9.56088514e-09 ,	 2.11219941e-07 
	 1.51316592e-08 ,	 2.65565519e-07 
	 2.39286981e-08 ,	 3.33642044e-07 
	 3.77911511e-08 ,	 4.18671256e-07 
	 5.95631797e-08 ,	 5.24388444e-07 
	 9.35797678e-08 ,	 6.54879904e-07 
	 1.4629619e-07 ,	 8.1413198e-07 
	 2.26969983e-07 ,	 1.00506278e-06 
	 3.48079435e-07 ,	 1.227749e-06 
	 5.24749025e-07 ,	 1.47668567e-06 
	 7.71969921e-07 ,	 1.73755732e-06 
	 1.0985148e-06 ,	 1.98545713e-06 
	 1.49845466e-06 ,	 2.18810371e-06 
	 1.94535303e-06 ,	 2.31659428e-06 
	 2.3963447e-06 ,	 2.35999576e-06 
	 2.80707801e-06 ,	 2.33337033e-06 
	 3.1477611e-06 ,	 2.27227026e-06 
	 3.40934365e-06 ,	 2.21887107e-06 
	 3.59895558e-06 ,	 2.2104977e-06 
	 3.73143795e-06 ,	 2.27562479e-06 
	 3.82274299e-06 ,	 2.43545172e-06 
	 3.88669491e-06 ,	 2.70725977e-06 
	 3.91347444e-06 ,	 2.90352559e-06 
	 3.93455585e-06 ,	 3.11186878e-06 
	 3.97330507e-06 ,	 3.65647723e-06 
	 4.00814155e-06 ,	 4.35675315e-06 
	 4.03513049e-06 ,	 5.10555623e-06 
	 4.04990782e-06 ,	 5.9586362e-06 
	 4.03911932e-06 ,	 6.62303302e-06 
	 3.99045456e-06 ,	 7.25108076e-06 
	 3.8946204e-06 ,	 7.73855228e-06 
	 3.73556304e-06 ,	 8.10285732e-06 
	 3.49682486e-06 ,	 8.33326797e-06 
	 3.1604336e-06 ,	 8.42070571e-06 
	 2.70701019e-06 ,	 8.35773733e-06 
	 2.11587296e-06 ,	 8.13861849e-06 
	 1.36514365e-06 ,	 7.75936024e-06 
	 4.31857876e-07 ,	 7.21780603e-06 
	 -2.07897016e-06 ,	 5.64882878e-06 
	 -5.61749773e-06 ,	 3.45411483e-06 
	 -1.03939584e-05 ,	 6.90332037e-07 
	 -1.66233893e-05 ,	 -2.54959925e-06 
	 -2.03502887e-05 ,	 -4.30878043e-06 
	 -2.45207619e-05 ,	 -6.13496715e-06 
	 -2.91608258e-05 ,	 -8.00575312e-06 
	 -3.42958382e-05 ,	 -9.89627933e-06 
	 -3.99503258e-05 ,	 -1.17792372e-05 
	 -4.61478117e-05 ,	 -1.36248822e-05 
	 -5.29106407e-05 ,	 -1.54010583e-05 
	 -6.02598052e-05 ,	 -1.70732337e-05 
	 -7.67933019e-05 ,	 -1.99558654e-05 
	 -9.58825958e-05 ,	 -2.19510569e-05 
	 -0.000117629353 ,	 -2.27032361e-05 
	 -0.000142097381 ,	 -2.18261036e-05 
	 -0.000169307695 ,	 -1.89064669e-05 
	 -0.000199233996 ,	 -1.35087547e-05 
	 -0.000231798637 ,	 -5.18016669e-06 
	 -0.00026686918 ,	 6.54360045e-06 
	 -0.000304255614 ,	 2.21321242e-05 
	 -0.000343708319 ,	 4.20536111e-05 
	 -0.00038491682 ,	 6.67679331e-05 
	 -0.00042750938 ,	 9.67194493e-05 
	 -0.000471053464 ,	 0.000132329728 
	 -0.000515057065 ,	 0.000173990279 
	 -0.000558970908 ,	 0.000222055416 
	 -0.000602191487 ,	 0.000276835359 
	 -0.000644064898 ,	 0.000338589669 
	 -0.000683891421 ,	 0.000407521133 
	 -0.000720930767 ,	 0.000483770162 
	 -0.000754407927 ,	 0.000567409784 
	 -0.000783519525 ,	 0.000658441285 
	 -0.000807440595 ,	 0.000756790531 
	 -0.000825331689 ,	 0.000862305023 
	 -0.000836346225 ,	 0.000974751656 
	 -0.000839637994 ,	 0.00109381523 
	 -0.000834368746 ,	 0.00121909766 
	 -0.000819715791 ,	 0.0013501179 
	 -0.000794879537 ,	 0.00148631249 
	 -0.000759090936 ,	 0.00162703683 
	 -0.000711618772 ,	 0.00177156696 
	 -0.000651776771 ,	 0.00191910197 
	 -0.000578930502 ,	 0.00206876694 
	 -0.000492504045 ,	 0.00221961639 
	 -0.000391986416 ,	 0.00237063821 
	 -0.000276937727 ,	 0.00252075804 
	 -0.000146995082 ,	 0.00266884418 
	 -1.87817755e-06 ,	 0.00281371286 
	 0.000158605389 ,	 0.00295413402 
	 0.000334555144 ,	 0.00308883753 
	 0.0005259731 ,	 0.00321651985 
	 0.000732759516 ,	 0.00333585114 
	 0.000954709072 ,	 0.0034454829 
	 0.00119150753 ,	 0.00354405601 
	 0.00144272892 ,	 0.00363020924 
	 0.00170783335 ,	 0.00370258826 
	 0.00198616544 ,	 0.00375985501 
	 0.00227695359 ,	 0.00380069755 
	 0.00257931001 ,	 0.00382384014 
	 0.00289223166 ,	 0.00382805369 
	 0.00321460225 ,	 0.00381216638 
	 0.0035451952 ,	 0.00377507436 
	 0.00388267784 ,	 0.00371575244 
	 0.00422561661 ,	 0.00363326462 
	 0.00457248364 ,	 0.00352677437 
	 0.00492166435 ,	 0.00339555436 
	 0.00527146637 ,	 0.00323899565 
	 0.00562012953 ,	 0.00305661606 
	 0.00596583691 ,	 0.00284806755 
	 0.0063067269 ,	 0.0026131425 
	 0.00664090601 ,	 0.00235177872 
	 0.00696646247 ,	 0.00206406301 
	 0.00728148022 ,	 0.00175023319 
