CITIFILE A.01.01
#Momentum: B.12.070 (*) built: Feb 13 2020 
#Momentum Date and Time: Sun Aug 14 15:40:23 2022

NAME Momentum.SP

#  mode: MW    reference: S_50

#eesof Port[1] P1
#eesof Port[2] P2

CONSTANT NBR_OF_PORTS 2

CONSTANT NORMALIZATION 1

VAR freq MAG 290

DATA S[1,1] RI
DATA S[1,2] RI
DATA S[2,1] RI
DATA S[2,2] RI
DATA PORTZ[1] RI
DATA PORTZ[2] RI

VAR_LIST_BEGIN
	 0
	 8.721827882
	 87.21827882
	 872.1827882
	 8721.827882
	 10980.13076
	 13823.16564
	 17402.33449
	 21908.24111
	 27580.84147
	 34722.2222
	 43712.68788
	 55031.01359
	 69279.94145
	 87218.27882
	 109801.3076
	 138231.6564
	 174023.3449
	 219082.4111
	 275808.4147
	 347222.222
	 437126.8788
	 550310.1359
	 692799.4145
	 872182.7882
	 1098013.076
	 1382316.564
	 1740233.449
	 2190824.111
	 2758084.147
	 3472222.22
	 4371268.788
	 5503101.359
	 6927994.145
	 8721827.882
	 10980130.76
	 13823165.64
	 17402334.49
	 21908241.11
	 27580841.47
	 34722222.2
	 39258678.43
	 43816482.23
	 55161682.93
	 69444444.4
	 85083950.08
	 104166666.6
	 120730714.8
	 138888888.8
	 159825084.6
	 182291666.6
	 225694444.3
	 269097222.1
	 312499999.9
	 355902777.6
	 399305555.4
	 442708333.1
	 486111110.9
	 529513888.7
	 572916666.4
	 616319444.2
	 659722222
	 703124999.7
	 746527777.5
	 789930555.2
	 833333333
	 885416666.3
	 937499999.6
	 989583332.9
	 1041666666
	 1093750000
	 1145833333
	 1197916666
	 1250000000
	 1302083333
	 1354166666
	 1406249999
	 1458333333
	 1510416666
	 1562499999
	 1614583333
	 1666666666
	 1718749999
	 1770833333
	 1822916666
	 1874999999
	 1927083333
	 1979166666
	 2031249999
	 2083333333
	 2135416666
	 2187499999
	 2239583333
	 2291666666
	 2343749999
	 2395833333
	 2447916666
	 2500000000
	 2552083333
	 2604166666
	 2656250000
	 2708333333
	 2760416666
	 2812500000
	 2864583333
	 2916666666
	 2968750000
	 3020833333
	 3072916666
	 3125000000
	 3177083333
	 3229166666
	 3281250000
	 3333333333
	 3385416666
	 3437500000
	 3489583333
	 3541666666
	 3593750000
	 3645833333
	 3697916666
	 3750000000
	 3802083333
	 3854166666
	 3906250000
	 3958333333
	 4010416666
	 4062500000
	 4114583333
	 4166666666
	 4218750000
	 4270833333
	 4322916667
	 4375000000
	 4427083333
	 4479166667
	 4531250000
	 4583333333
	 4635416667
	 4687500000
	 4739583333
	 4791666667
	 4843750000
	 4895833333
	 4947916667
	 5000000000
	 5052083333
	 5104166667
	 5156250000
	 5208333333
	 5260416667
	 5312500000
	 5364583333
	 5416666667
	 5468750000
	 5520833333
	 5572916667
	 5625000000
	 5677083333
	 5729166667
	 5781250000
	 5833333334
	 5885416667
	 5937500000
	 5989583334
	 6041666667
	 6093750000
	 6145833334
	 6197916667
	 6250000000
	 6302083334
	 6354166667
	 6406250000
	 6458333334
	 6510416667
	 6562500000
	 6614583334
	 6666666667
	 6718750000
	 6770833334
	 6822916667
	 6875000000
	 6927083334
	 6979166667
	 7031250000
	 7083333334
	 7135416667
	 7187500000
	 7239583334
	 7291666667
	 7343750000
	 7395833334
	 7447916667
	 7500000000
	 7552083334
	 7604166667
	 7656250001
	 7708333334
	 7760416667
	 7812500001
	 7864583334
	 7916666667
	 7968750001
	 8020833334
	 8072916667
	 8125000001
	 8177083334
	 8229166667
	 8281250001
	 8333333334
	 8402777778
	 8472222223
	 8541666667
	 8611111112
	 8680555556
	 8750000001
	 8819444445
	 8888888890
	 8958333334
	 9027777778
	 9097222223
	 9166666667
	 9201388889
	 9236111112
	 9270833334
	 9305555556
	 9322916667
	 9340277778
	 9357638889
	 9375000001
	 9392361112
	 9409722223
	 9427083334
	 9444444445
	 9456018519
	 9467592593
	 9479166667
	 9490740741
	 9496527778
	 9502314815
	 9508101852
	 9513888889
	 9519675926
	 9525462963
	 9531250000
	 9537037038
	 9542824075
	 9548611112
	 9554398149
	 9560185186
	 9565972223
	 9571759260
	 9577546297
	 9583333334
	 9589120371
	 9594907408
	 9600694445
	 9606481482
	 9612268519
	 9618055556
	 9623842593
	 9629629630
	 9635416667
	 9641203704
	 9646990741
	 9652777778
	 9658564815
	 9664351852
	 9670138889
	 9675925926
	 9687500000
	 9699074074
	 9710648148
	 9722222222
	 9733796297
	 9745370371
	 9756944445
	 9768518519
	 9780092593
	 9791666667
	 9803240741
	 9814814815
	 9837962963
	 9861111111
	 9884259259
	 9907407408
	 9930555556
	 9953703704
	 9976851852
	 1e+10
VAR_LIST_END

BEGIN
	 0.999999999999998445687765524781 ,	 -0 
	 0.999999999999992894572642398998 ,	 -2.33733427057458698072878178209e-09 
	 0.999999999999992450483432548936 ,	 -2.3373344260058104282506974414e-08 
	 0.999999999999947264406330305064 ,	 -2.33733440935246505887334933504e-07 
	 0.999999999995462962587566835282 ,	 -2.33733441062922153719227935653e-06 
	 0.999999999992813970450811211776 ,	 -2.94252968580099860673726652749e-06 
	 0.999999999988613663681746857037 ,	 -3.70442539543436311078039580025e-06 
	 0.999999999981957654604514118546 ,	 -4.66359526696269455214860499837e-06 
	 0.999999999971409647692155431287 ,	 -5.87111859073896624749977490865e-06 
	 0.999999999954692131431954749132 ,	 -7.39130038868163197207650227938e-06 
	 0.999999999928195215659343375592 ,	 -9.3050958830387386910842906218e-06 
	 0.999999999886200807708291904419 ,	 -1.1714421663033824927424575435e-05 
	 0.999999999819645379872667945165 ,	 -1.47475831079324493089188763406e-05 
	 0.999999999714159759633957946789 ,	 -1.85661071221421281052244012244e-05 
	 0.99999999954697682547077874915 ,	 -2.33733440231920219787298265146e-05 
	 0.999999999282010776369133964181 ,	 -2.94252966888675082657300663413e-05 
	 0.99999999886206802912624880264 ,	 -3.7044253628049084170470450772e-05 
	 0.999999998196502759562065421051 ,	 -4.66359520109871361626119323773e-05 
	 0.999999997141654661803045200941 ,	 -5.87111846038212981113701971481e-05 
	 0.999999995469833646843937913218 ,	 -7.39130012860078622338733111974e-05 
	 0.999999992820176486496563938999 ,	 -9.30509536481438637167684646556e-05 
	 0.999999988620761004476378275285 ,	 -0.000117144206283004148616555539775 
	 0.999999981965146944595801414835 ,	 -0.000147475810440000909551372387796 
	 0.999999971416745014884952524881 ,	 -0.000185661030036810004162362019997 
	 0.999999954698736037705941726017 ,	 -0.000233733358064092122674537677085 
	 0.999999928202691124035084158095 ,	 -0.000294252802937822188766858744202 
	 0.999999886209820387783508977009 ,	 -0.000370442209177701542444083315786 
	 0.99999981965693951480034229462 ,	 -0.000466358867461047488234271440888 
	 0.999999714181082688391200008482 ,	 -0.000587110543905644544082633728976 
	 0.999999547021529155976793390437 ,	 -0.000739127414966789242356526301592 
	 0.999999282112625120788607091527 ,	 -0.000930504353661043559498011745745 
	 0.999998862313365544096654957684 ,	 -0.00117143172381911631063644563255 
	 0.999998197109569830764996822836 ,	 -0.00147473748191156994735706575739 
	 0.999997143166822533011384166457 ,	 -0.00185656917378385077910252221045 
	 0.999995473618273678084733546712 ,	 -0.00233725158767228435863216873258 
	 0.999992829661958904097218692186 ,	 -0.00294236463815644722075148820295 
	 0.999988644526322301153697935661 ,	 -0.00370409673349847423651226563379 
	 0.999982024641598576941703413468 ,	 -0.00466294154438662289408057404216 
	 0.999971565419393582097029593569 ,	 -0.00586982065745139669488139588793 
	 0.999955069203994351134667795122 ,	 -0.00738873068870377069927712909703 
	 0.999929121642528118130144321185 ,	 -0.00930003066865742189506249815167 
	 0.999909704636385177067836593778 ,	 -0.0105135510337588389262464261265 
	 0.999887953345260149795592496957 ,	 -0.011732252231835715861052449327 
	 0.999824366170885880933383305091 ,	 -0.0147632558450077611134076960298 
	 0.999726171560959886441821709013 ,	 -0.0185732850752002298655440881703 
	 0.999597256890967122977542658191 ,	 -0.0227372920267276956707291901694 
	 0.999412486078239403752832004102 ,	 -0.0278067273938858994242195876723 
	 0.999229814518327819072851525561 ,	 -0.0321975411319679327704079696559 
	 0.999007602794051763339666649699 ,	 -0.0370018416182267828595797709568 
	 0.998724499004238430721613895003 ,	 -0.0425310490572098909289877610718 
	 0.998389823905891593547323736857 ,	 -0.0484545431427322870199247972778 
	 0.997654070882500021433259007608 ,	 -0.0598762395284615500656855147099 
	 0.996799394279984873890043672873 ,	 -0.0712770654249768598198500058061 
	 0.995822632646331529215899536212 ,	 -0.0826617662091237992427750214119 
	 0.994720847665764629219609105348 ,	 -0.094031690018341551606795292173 
	 0.993491946829313521405424580735 ,	 -0.105386323167699191838408978583 
	 0.992134663955470119667268136254 ,	 -0.116724194087720112289474627687 
	 0.990648380428957642251930337807 ,	 -0.12804335810806555251417648833 
	 0.98903,	-0.13934
	 0.98728,	-0.15061
	 0.98541,	-0.16186
	 0.98341,	-0.17308
	 0.98128,	-0.18428
	 0.97903,	-0.19544
	 0.97664,	-0.20656
	 0.97414,	-0.21765
	 0.97097,	-0.23091
	 0.96762,	-0.24411
	 0.96409,	-0.25725
	 0.96039,	-0.27032
	 0.95652,	-0.28333
	 0.95247,	-0.29627
	 0.94825,	-0.30913
	 0.94387,	-0.32192
	 0.93931,	-0.33464
	 0.93459,	-0.34727
	 0.92971,	-0.35983
	 0.92467,	-0.3723
	 0.91946,	-0.38468
	 0.91409,	-0.39697
	 0.90857,	-0.40918
	 0.90289,	-0.42129
	 0.89706,	-0.43331
	 0.89108,	-0.44523
	 0.88494,	-0.45705
	 0.87866,	-0.46877
	 0.87223,	-0.48039
	 0.86565,	-0.4919
	 0.85894,	-0.50331
	 0.85208,	-0.51461
	 0.84508,	-0.52581
	 0.83795,	-0.53689
	 0.83068,	-0.54785
	 0.82328,	-0.55871
	 0.81575,	-0.56944
	 0.80809,	-0.58006
	 0.80031,	-0.59056
	 0.7924,	-0.60094
	 0.78437,	-0.61119
	 0.77621,	-0.62132
	 0.76794,	-0.63133
	 0.75956,	-0.64121
	 0.75106,	-0.65096
	 0.74245,	-0.66058
	 0.73373,	-0.67007
	 0.72491,	-0.67943
	 0.71598,	-0.68866
	 0.70695,	-0.69775
	 0.69781,	-0.70671
	 0.68858,	-0.71553
	 0.67926,	-0.72422
	 0.66984,	-0.73276
	 0.66033,	-0.74117
	 0.65074,	-0.74944
	 0.64105,	-0.75757
	 0.63128,	-0.76556
	 0.62144,	-0.7734
	 0.61151,	-0.7811
	 0.6015,	-0.78866
	 0.59142,	-0.79608
	 0.58127,	-0.80335
	 0.57105,	-0.81048
	 0.56076,	-0.81746
	 0.5504,	-0.82429
	 0.53999,	-0.83098
	 0.52951,	-0.83752
	 0.51897,	-0.84392
	 0.50837,	-0.85017
	 0.49772,	-0.85627
	 0.48702,	-0.86223
	 0.47627,	-0.86803
	 0.46547,	-0.87369
	 0.45463,	-0.8792
	 0.44374,	-0.88457
	 0.43281,	-0.88978
	 0.42184,	-0.89485
	 0.41084,	-0.89977
	 0.3998,	-0.90454
	 0.38873,	-0.90917
	 0.37762,	-0.91364
	 0.36649,	-0.91797
	 0.35533,	-0.92216
	 0.34415,	-0.92619
	 0.33294,	-0.93008
	 0.32172,	-0.93382
	 0.31047,	-0.93742
	 0.29921,	-0.94087
	 0.28793,	-0.94418
	 0.27664,	-0.94734
	 0.26534,	-0.95036
	 0.25403,	-0.95323
	 0.24272,	-0.95596
	 0.23139,	-0.95855
	 0.22007,	-0.96099
	 0.20874,	-0.9633
	 0.19741,	-0.96546
	 0.18608,	-0.96748
	 0.17475,	-0.96936
	 0.16343,	-0.97109
	 0.15212,	-0.9727
	 0.14081,	-0.97416
	 0.12952,	-0.97548
	 0.11823,	-0.97667
	 0.10696,	-0.97772
	 0.095704,	-0.97863
	 0.084461,	-0.97941
	 0.073235,	-0.98006
	 0.062028,	-0.98057
	 0.050841,	-0.98095
	 0.039675,	-0.98119
	 0.028532,	-0.98131
	 0.017413,	-0.98129
	 0.0063199,	-0.98114
	-0.0047466,	-0.98087
	-0.015785,	-0.98046
	-0.026794,	-0.97993
	-0.037773,	-0.97927
	-0.04872,	-0.97849
	-0.059634,	-0.97758
	-0.070514,	-0.97654
	-0.081359,	-0.97538
	-0.092167,	-0.9741
	-0.10293,	-0.9727
	-0.11367,	-0.97117
	-0.12436,	-0.96953
	-0.13501,	-0.96776
	-0.14562,	-0.96588
	-0.15619,	-0.96388
	-0.16672,	-0.96176
	-0.1772,	-0.95952
	-0.18764,	-0.95717
	-0.19803,	-0.9547
	-0.20838,	-0.95211
	-0.21868,	-0.94942
	-0.22893,	-0.94661
	-0.23913,	-0.94368
	-0.24929,	-0.94065
	-0.25939,	-0.9375
	-0.26945,	-0.93424
	-0.27945,	-0.93087
	-0.28941,	-0.9274
	-0.29931,	-0.92381
	-0.30917,	-0.92011
	-0.31897,	-0.9163
	-0.32872,	-0.91238
	-0.33842,	-0.90836
	-0.34807,	-0.90422
	-0.35768,	-0.89997
	-0.36723,	-0.89562
	-0.37673,	-0.89115
	-0.38934,	-0.88501
	-0.40186,	-0.87867
	-0.41431,	-0.87211
	-0.42669,	-0.86533
	-0.43901,	-0.85832
	-0.45129,	-0.85106
	-0.46354,	-0.84352
	-0.47578,	-0.83567
	-0.48803,	-0.82744
	-0.50035,	-0.81876
	-0.51277,	-0.80947
	-0.52534,	-0.79935
	-0.53171,	-0.79385
	-0.53813,	-0.78795
	-0.54459,	-0.78155
	-0.55107,	-0.77446
	-0.55428,	-0.7706
	-0.55746,	-0.76646
	-0.56058,	-0.76201
	-0.56359,	-0.75719
	-0.56643,	-0.75193
	-0.56901,	-0.74616
	-0.5712,	-0.73981
	-0.57278,	-0.73279
	-0.57336,	-0.72773
	-0.57344,	-0.72237
	-0.57288,	-0.71674
	-0.57153,	-0.71092
	-0.5705,	-0.70798
	-0.56921,	-0.70505
	-0.56764,	-0.70216
	-0.56577,	-0.69935
	-0.56359,	-0.69665
	-0.5611,	-0.69412
	-0.55829,	-0.69182
	-0.55518,	-0.68979
	-0.55179,	-0.68811
	-0.54816,	-0.68682
	-0.54435,	-0.68598
	-0.54042,	-0.68564
	-0.53645,	-0.68583
	-0.53253,	-0.68657
	-0.52875,	-0.68784
	-0.5252,	-0.68963
	-0.52196,	-0.69188
	-0.51911,	-0.69454
	-0.5167,	-0.69753
	-0.51476,	-0.70077
	-0.51332,	-0.70416
	-0.51236,	-0.70764
	-0.51188,	-0.71113
	-0.51184,	-0.71455
	-0.5122,	-0.71786
	-0.51292,	-0.72101
	-0.51395,	-0.72397
	-0.51526,	-0.72672
	-0.51678,	-0.72924
	-0.51849,	-0.73155
	-0.52034,	-0.73362
	-0.5223,	-0.73548
	-0.52645,	-0.73856
	-0.53076,	-0.7409
	-0.5351,	-0.74258
	-0.5394,	-0.74371
	-0.54359,	-0.74438
	-0.54766,	-0.74467
	-0.55158,	-0.74464
	-0.55536,	-0.74435
	-0.55899,	-0.74385
	-0.56248,	-0.74317
	-0.56583,	-0.74234
	-0.56906,	-0.74138
	-0.57517,	-0.73919
	-0.58089,	-0.73671
	-0.58626,	-0.73403
	-0.59134,	-0.7312
	-0.59618,	-0.72826
	-0.6008,	-0.72524
	-0.60524,	-0.72216
	-0.60952,	-0.71903
END
BEGIN
	 2.13533919000000005101866790275e-16 ,	 0 
	 3.72965546999999977461691317351e-16 ,	 6.50278441999999997141271713297e-13 
	 3.59087759999999992466700367054e-16 ,	 6.50287809999999996783891516393e-12 
	 3.43475247999999989918379952372e-16 ,	 6.50286699000000050144703281605e-11 
	 -2.63504495999999981529791868849e-15 ,	 6.50286820999999978399391942484e-10 
	 -4.38538095000000010290410958024e-15 ,	 8.1866259599999996712594359672e-10 
	 -7.18869408000000051479382915963e-15 ,	 1.03063514999999997380511244455e-09 
	 -1.15827486000000001730249825968e-14 ,	 1.29749276999999996657170392206e-09 
	 -1.85806231999999995958099509367e-14 ,	 1.63344660999999997367009586791e-09 
	 -2.96863227999999970928251571631e-14 ,	 2.05638741000000001101434762027e-09 
	 -4.72642757999999989129424836453e-14 ,	 2.58883831999999988413737146079e-09 
	 -7.51152611999999943936093029648e-14 ,	 3.25915422999999988036896873985e-09 
	 -1.19260503999999998856060827526e-13 ,	 4.10303185999999964769968565769e-09 
	 -1.89234044999999989876429515036e-13 ,	 5.16541063999999980256712487107e-09 
	 -3.00122774000000005454539035364e-13 ,	 6.5028658300000001420121110941e-09 
	 -4.75867609e-13 ,	 8.18662128e-09 
	 -7.54406954e-13 ,	 1.0306342e-08 
	 -1.19579346e-12 ,	 1.29749089e-08 
	 -1.8952756e-12 ,	 1.63344285e-08 
	 -3.00361819e-12 ,	 2.05637992e-08 
	 -4.75961111e-12 ,	 2.58882336e-08 
	 -7.54118816e-12 ,	 3.2591244e-08 
	 -1.19458957e-11 ,	 4.10297236e-08 
	 -1.89174006e-11 ,	 5.16529197e-08 
	 -2.99426508e-11 ,	 6.50262924e-08 
	 -4.73568216e-11 ,	 8.18614979e-08 
	 -7.48070304e-11 ,	 1.03054031e-07 
	 -1.17939779e-10 ,	 1.29730411e-07 
	 -1.85372957e-10 ,	 1.63307195e-07 
	 -2.8995284e-10 ,	 2.05564542e-07 
	 -4.50075007e-10 ,	 2.58737504e-07 
	 -6.90245786e-10 ,	 3.25628736e-07 
	 -1.03867218e-09 ,	 4.09747085e-07 
	 -1.51699336e-09 ,	 5.15478309e-07 
	 -2.1133982e-09 ,	 6.48298801e-07 
	 -2.72792564e-09 ,	 8.15052977e-07 
	 -3.08471934e-09 ,	 1.02432873e-06 
	 -2.62601479e-09 ,	 1.2869701e-06 
	 -4.20452614e-10 ,	 1.61674068e-06 
	 4.90879343e-09 ,	 2.03110579e-06 
	 1.53085359e-08 ,	 2.55209714e-06 
	 2.38510541e-08 ,	 2.88278897e-06 
	 3.38393483e-08 ,	 3.21484578e-06 
	 6.44384849e-08 ,	 4.04043061e-06 
	 1.13925567e-07 ,	 5.07722181e-06 
	 1.81473104e-07 ,	 6.20811573e-06 
	 2.82131892e-07 ,	 7.57999347e-06 
	 3.85246774e-07 ,	 8.76209605e-06 
	 5.14525599e-07 ,	 1.00469648e-05 
	 6.83839348e-07 ,	 1.15119008e-05 
	 8.884543e-07 ,	 1.30613865e-05 
	 1.34523199e-06 ,	 1.59771706e-05 
	 1.87200601e-06 ,	 1.87720391e-05 
	 2.4535357e-06 ,	 2.14247503e-05 
	 3.07229589e-06 ,	 2.39152718e-05 
	 3.70859847e-06 ,	 2.62249781e-05 
	 4.34071965e-06 ,	 2.83368474e-05 
	 4.9450309e-06 ,	 3.02356476e-05 
	 5.49613474e-06 ,	 3.19081081e-05 
	 5.9670067e-06 ,	 3.33430736e-05 
	 6.32914425e-06 ,	 3.45316417e-05 
	 6.55272306e-06 ,	 3.54672841e-05 
	 6.60676041e-06 ,	 3.61459517e-05 
	 6.45928511e-06 ,	 3.65661657e-05 
	 6.07751304e-06 ,	 3.67290944e-05 
	 5.42802751e-06 ,	 3.66386169e-05 
	 4.24756046e-06 ,	 3.62050955e-05 
	 2.5738265e-06 ,	 3.54331868e-05 
	 3.47774753e-07 ,	 3.43455691e-05 
	 -2.48924249e-06 ,	 3.29708232e-05 
	 -5.99499465e-06 ,	 3.13434299e-05 
	 -1.02258992e-05 ,	 2.95037339e-05 
	 -1.52365513e-05 ,	 2.74978748e-05 
	 -2.10792591e-05 ,	 2.53776865e-05 
	 -2.78035865e-05 ,	 2.32005646e-05 
	 -3.5455905e-05 ,	 2.10293017e-05 
	 -4.40789572e-05 ,	 1.89318931e-05 
	 -5.37114336e-05 ,	 1.69813109e-05 
	 -6.43875641e-05 ,	 1.52552498e-05 
	 -7.61367275e-05 ,	 1.38358432e-05 
	 -8.89830792e-05 ,	 1.28093523e-05 
	 -0.000102945201 ,	 1.22658285e-05 
	 -0.000118035772 ,	 1.2298751e-05 
	 -0.000134261268 ,	 1.30046401e-05 
	 -0.00015162168 ,	 1.44826492e-05 
	 -0.000170110268 ,	 1.68341366e-05 
	 -0.000189713344 ,	 2.01622187e-05 
	 -0.000210410076 ,	 2.45713072e-05 
	 -0.000232172336 ,	 3.0166633e-05 
	 -0.000254964574 ,	 3.7053758e-05 
	 -0.000278743725 ,	 4.53380772e-05 
	 -0.000303459157 ,	 5.51243149e-05 
	 -0.000329052639 ,	 6.65160163e-05 
	 -0.000355458363 ,	 7.96150366e-05 
	 -0.000382602983 ,	 9.45210312e-05 
	 -0.000410405699 ,	 0.000111330949 
	 -0.000438778372 ,	 0.000130138532 
	 -0.000467625668 ,	 0.000151033819 
	 -0.000496845244 ,	 0.000174102665 
	 -0.000526327956 ,	 0.000199426269 
	 -0.000555958101 ,	 0.000227080717 
	 -0.000585613694 ,	 0.000257136542 
	 -0.00061516676 ,	 0.000289658301 
	 -0.000644483666 ,	 0.000324704175 
	 -0.000673425468 ,	 0.000362325584 
	 -0.000701848287 ,	 0.000402566833 
	 -0.000729603702 ,	 0.000445464777 
	 -0.000756539165 ,	 0.000491048512 
	 -0.000782498434 ,	 0.000539339096 
	 -0.000807322019 ,	 0.000590349287 
	 -0.000830847645 ,	 0.000644083325 
	 -0.000852910722 ,	 0.000700536726 
	 -0.000873344834 ,	 0.000759696114 
	 -0.000891982224 ,	 0.00082153908 
	 -0.000908654295 ,	 0.000886034069 
	 -0.000923192112 ,	 0.000953140297 
	 -0.000935426905 ,	 0.00102280769 
	 -0.000945190575 ,	 0.00109497688 
	 -0.000952316198 ,	 0.00116957917 
	 -0.00095663853 ,	 0.00124653659 
	 -0.000957994503 ,	 0.00132576194 
	 -0.000956223719 ,	 0.00140715891 
	 -0.000951168938 ,	 0.00149062212 
	 -0.000942676555 ,	 0.00157603733 
	 -0.000930597074 ,	 0.00166328152 
	 -0.000914785564 ,	 0.00175222316 
	 -0.00089510211 ,	 0.00184272234 
	 -0.000871412248 ,	 0.00193463103 
	 -0.000843587393 ,	 0.00202779335 
	 -0.000811505242 ,	 0.00212204578 
	 -0.000775050178 ,	 0.0022172175 
	 -0.000734113643 ,	 0.00231313068 
	 -0.000688594506 ,	 0.00240960079 
	 -0.00063839941 ,	 0.00250643695 
	 -0.000583443104 ,	 0.00260344229 
	 -0.000523648754 ,	 0.00270041433 
	 -0.000458948242 ,	 0.00279714532 
	 -0.000389282437 ,	 0.0028934227 
	 -0.000314601462 ,	 0.00298902947 
	 -0.000234864927 ,	 0.00308374461 
	 -0.00015004215 ,	 0.00317734353 
	 -6.01123572e-05 ,	 0.00326959851 
	 3.4935135e-05 ,	 0.00336027914 
	 0.000135100763 ,	 0.00344915279 
	 0.000240374574 ,	 0.00353598506 
	 0.000350736113 ,	 0.00362054028 
	 0.000466154318 ,	 0.00370258197 
	 0.000586587451 ,	 0.00378187333 
	 0.00071198304 ,	 0.00385817772 
	 0.000842277847 ,	 0.00393125917 
	 0.000977397857 ,	 0.00400088286 
	 0.00111725829 ,	 0.00406681564 
	 0.00126176364 ,	 0.00412882647 
	 0.00141080771 ,	 0.004186687 
	 0.00156427372 ,	 0.00424017199 
	 0.0017220344 ,	 0.00428905986 
	 0.00188395207 ,	 0.00433313315 
	 0.00204987888 ,	 0.00437217904 
	 0.00221965687 ,	 0.00440598979 
	 0.00239311824 ,	 0.00443436327 
	 0.00257008553 ,	 0.00445710337 
	 0.00275037186 ,	 0.00447402055 
	 0.0029337812 ,	 0.00448493222 
	 0.00312010864 ,	 0.00448966322 
	 0.00330914067 ,	 0.00448804627 
	 0.00350065557 ,	 0.00447992237 
	 0.00369442366 ,	 0.00446514122 
	 0.00389020775 ,	 0.00444356164 
	 0.00408776347 ,	 0.00441505194 
	 0.00428683971 ,	 0.00437949028 
	 0.004487179 ,	 0.00433676507 
	 0.004688518 ,	 0.00428677525 
	 0.00489058793 ,	 0.00422943067 
