CITIFILE A.01.01
#Momentum: B.12.070 (*) built: Feb 13 2020 
#Momentum Date and Time: Sun Aug 14 07:43:00 2022

NAME Momentum.SP

#  mode: MW    reference: S_50

#eesof Port[1] P1
#eesof Port[2] P2

CONSTANT NBR_OF_PORTS 2

CONSTANT NORMALIZATION 1

VAR freq MAG 335

DATA S[1,1] RI
DATA S[1,2] RI
DATA S[2,1] RI
DATA S[2,2] RI
DATA PORTZ[1] RI
DATA PORTZ[2] RI

VAR_LIST_BEGIN
	 0
	 8.254652041
	 82.54652041
	 825.4652041
	 8254.652041
	 10391.99122
	 13082.74183
	 16470.19614
	 20734.74846
	 26103.50174
	 32862.36168
	 41371.26221
	 52083.33331
	 65569.03184
	 82546.52041
	 103919.9122
	 130827.4183
	 164701.9614
	 207347.4846
	 261035.0174
	 328623.6168
	 413712.6221
	 520833.3331
	 655690.3184
	 825465.2041
	 1039199.122
	 1308274.183
	 1647019.614
	 2073474.846
	 2610350.174
	 3286236.168
	 4137126.221
	 5208333.331
	 6556903.184
	 8254652.041
	 10391991.22
	 13082741.83
	 16470196.14
	 20734748.46
	 26103501.74
	 32862361.68
	 41371262.21
	 52083333.31
	 58888017.66
	 65724723.36
	 82742524.42
	 104166666.6
	 127625925.2
	 156249999.9
	 181096072.2
	 208333333.2
	 260416666.6
	 312499999.9
	 364583333.2
	 416666666.5
	 468749999.8
	 520833333.1
	 572916666.4
	 624999999.8
	 677083333.1
	 729166666.4
	 781249999.7
	 833333333
	 885416666.3
	 937499999.6
	 989583332.9
	 1041666666
	 1093750000
	 1145833333
	 1197916666
	 1250000000
	 1302083333
	 1354166666
	 1406249999
	 1458333333
	 1510416666
	 1562499999
	 1614583333
	 1666666666
	 1718749999
	 1770833333
	 1822916666
	 1874999999
	 1927083333
	 1979166666
	 2031249999
	 2083333333
	 2135416666
	 2187499999
	 2239583333
	 2291666666
	 2343749999
	 2395833333
	 2447916666
	 2500000000
	 2552083333
	 2604166666
	 2656250000
	 2708333333
	 2760416666
	 2812500000
	 2864583333
	 2916666666
	 2968750000
	 3020833333
	 3072916666
	 3125000000
	 3177083333
	 3229166666
	 3281250000
	 3333333333
	 3385416666
	 3437500000
	 3489583333
	 3541666666
	 3593750000
	 3645833333
	 3697916666
	 3750000000
	 3802083333
	 3854166666
	 3906250000
	 3958333333
	 4010416666
	 4062500000
	 4114583333
	 4166666666
	 4218750000
	 4270833333
	 4322916667
	 4375000000
	 4427083333
	 4479166667
	 4531250000
	 4583333333
	 4635416667
	 4687500000
	 4739583333
	 4791666667
	 4843750000
	 4895833333
	 4947916667
	 5000000000
	 5034722222
	 5069444444
	 5104166667
	 5138888889
	 5173611111
	 5208333333
	 5243055556
	 5277777778
	 5312500000
	 5347222222
	 5381944444
	 5416666667
	 5451388889
	 5486111111
	 5520833333
	 5555555556
	 5590277778
	 5625000000
	 5659722222
	 5694444444
	 5729166667
	 5763888889
	 5798611111
	 5833333333
	 5868055555
	 5902777778
	 5937500000
	 5972222222
	 6006944444
	 6041666667
	 6076388889
	 6111111111
	 6145833333
	 6180555556
	 6215277778
	 6250000000
	 6284722222
	 6319444444
	 6354166667
	 6388888889
	 6423611111
	 6458333334
	 6493055556
	 6527777778
	 6562500000
	 6597222222
	 6631944445
	 6666666667
	 6684027778
	 6701388889
	 6718750000
	 6736111112
	 6744791667
	 6753472223
	 6762152778
	 6770833334
	 6779513889
	 6788194445
	 6796875000
	 6805555556
	 6809895834
	 6814236112
	 6818576389
	 6822916667
	 6827256945
	 6831597223
	 6835937500
	 6840277778
	 6844618056
	 6848958334
	 6853298612
	 6857638889
	 6861979167
	 6866319445
	 6870659723
	 6875000000
	 6879340278
	 6883680556
	 6888020834
	 6892361112
	 6896701389
	 6901041667
	 6905381945
	 6909722223
	 6918402778
	 6927083334
	 6935763889
	 6944444445
	 6955295139
	 6966145834
	 6976996528
	 6987847223
	 6998697917
	 7009548612
	 7020399306
	 7031250001
	 7052951389
	 7074652778
	 7096354167
	 7118055556
	 7161458334
	 7204861112
	 7248263889
	 7291666667
	 7335069445
	 7378472223
	 7421875001
	 7465277778
	 7508680556
	 7552083334
	 7595486112
	 7638888890
	 7682291667
	 7725694445
	 7769097223
	 7812500001
	 7855902778
	 7899305556
	 7942708334
	 7986111112
	 8029513890
	 8072916667
	 8116319445
	 8159722223
	 8203125001
	 8246527778
	 8289930556
	 8333333334
	 8359375001
	 8385416667
	 8411458334
	 8437500001
	 8463541667
	 8489583334
	 8515625001
	 8541666667
	 8567708334
	 8593750001
	 8619791667
	 8645833334
	 8671875001
	 8697916667
	 8723958334
	 8750000000
	 8776041667
	 8802083334
	 8828125000
	 8854166667
	 8880208334
	 8906250000
	 8932291667
	 8958333334
	 8984375000
	 9010416667
	 9036458334
	 9062500000
	 9088541667
	 9114583334
	 9140625000
	 9166666667
	 9192708334
	 9218750000
	 9244791667
	 9270833334
	 9296875000
	 9322916667
	 9348958334
	 9375000000
	 9401041667
	 9427083334
	 9453125000
	 9479166667
	 9505208334
	 9531250000
	 9557291667
	 9583333334
	 9609375000
	 9635416667
	 9661458333
	 9687500000
	 9713541667
	 9739583333
	 9765625000
	 9791666667
	 9817708333
	 9843750000
	 9869791667
	 9895833333
	 9921875000
	 9947916667
	 9973958333
	 1e+10
VAR_LIST_END

BEGIN
	 0.999999999999998445687765524781 ,	 -0 
	 0.999999999999994004795667024155 ,	 -2.19413909263721507159061729908e-09 
	 0.999999999999994004795667024155 ,	 -2.19413923696620827286096755415e-08 
	 0.999999999999966249220051395241 ,	 -2.19413923252531617436034139246e-07 
	 0.999999999997216226788054882491 ,	 -2.19413923163713775466021616012e-06 
	 0.99999999999559330277065782866 ,	 -2.76225763573556548635679064319e-06 
	 0.999999999993018362509644703096 ,	 -3.47747633133721478770894464105e-06 
	 0.99999999998893929209486941545 ,	 -4.37788332252608825001516379416e-06 
	 0.999999999982473464221754966275 ,	 -5.51142856441977357917494373396e-06 
	 0.999999999972225550592952458828 ,	 -6.93847747512688073356912354939e-06 
	 0.999999999955984653077223356377 ,	 -8.73502561227201823612631415017e-06 
	 0.999999999930243466117474326893 ,	 -1.09967457158077763779147062451e-05 
	 0.999999999889447543921505712206 ,	 -1.38440826279451201230585866142e-05 
	 0.999999999824789487234966145479 ,	 -1.74286674218260273505620716605e-05 
	 0.999999999722312682415292783844 ,	 -2.19413923085998163742260658182e-05 
	 0.999999999559899710455113108765 ,	 -2.76225763421455994262032618281e-05 
	 0.99999999930249161561590653946 ,	 -3.47747632859496391688480798621e-05 
	 0.999999998894527064585702191835 ,	 -4.37788331690835974541187169962e-05 
	 0.999999998247946275675701599539 ,	 -5.51142855336195225390838459134e-05 
	 0.999999997223185110861720659159 ,	 -6.93847745286690908983473491389e-05 
	 0.999999995599049174010986007488 ,	 -8.73502556804073293506007757969e-05 
	 0.999999993024966893351290764258 ,	 -0.000109967456273341035455359815387 
	 0.999999988945321716116154675547 ,	 -0.000138440824515084770496287092101 
	 0.999999982479520266309691578499 ,	 -0.000174286670699963508468499640003 
	 0.999999972231917277909474250919 ,	 -0.000219413916063171399173370446078 
	 0.999999955990563571539553322509 ,	 -0.00027622574940977528967778198421 
	 0.999999930249762414291581080761 ,	 -0.000347747604901971207880251313327 
	 0.999999889453366597180661301536 ,	 -0.000437788275907013968435421702452 
	 0.999999824795495206863904513739 ,	 -0.0005511427440345606498794950312 
	 0.999999722319821371385728525638 ,	 -0.00069384752320766907018878555391 
	 0.999999559907196911012761120219 ,	 -0.00087350211370340602456963097211 
	 0.999999302501464071291081836534 ,	 -0.0010996736786399452512341667898 
	 0.999998894543216998442858312046 ,	 -0.00138440648118720588399810367264 
	 0.999998247978852727868570582359 ,	 -0.00174286318752758795369572908385 
	 0.999997223258175083060450560879 ,	 -0.00219413213868457912525400388404 
	 0.999995599222473496858754060668 ,	 -0.00276224348448517176279892737512 
	 0.99999302539256917921051126541 ,	 -0.00347744809937000631805403827457 
	 0.999988946381110466177233320195 ,	 -0.00437782700231403865132051578257 
	 0.999982482171006603621776775981 ,	 -0.00551131622298894896516685548704 
	 0.999972238561926518585210033052 ,	 -0.00693825342534848399367319871089 
	 0.999956007229193866159278059058 ,	 -0.00873457889349615879126531581278 
	 0.999930291547649341410419765452 ,	 -0.0109958554007191233736762114859 
	 0.999889558045855220136388652463 ,	 -0.0138423093841967270734016892675 
	 0.999858851353110922310918340372 ,	 -0.0156502515980598833067460873281 
	 0.999824226821307227019985930383 ,	 -0.0174664980221563848061805401812 
	 0.999721659313927979439995397115 ,	 -0.021986433350963396904376168095 
	 0.999559455254103279564503736765 ,	 -0.0276741804161224624891701751039 
	 0.99933986765454463352398306597 ,	 -0.0338983035076312333444548130501 
	 0.999013119724662779219670483144 ,	 -0.0414861183972303759759370223037 
	 0.998677728445739654183910261054 ,	 -0.0480656456221192351918602980732 
	 0.998255549970688771388438453869 ,	 -0.0552702572788312807006150251254 
	 0.997292503326537960184339226544 ,	 -0.0690206430457919739573924289289 
	 0.996129740941209651516885514866 ,	 -0.0827331298812072901682768133469 
	 0.994772484870503737042213288078 ,	 -0.0964050168845956845231626175519 
	 0.993225133357130918199118241319 ,	 -0.110034584678636804255802417174 
	 0.991491196585742473601499114011 ,	 -0.123620658082366607910529410219 
	 0.98957,	-0.13716
	 0.98747,	-0.15065
	 0.98519,	-0.1641
	 0.98273,	-0.1775
	 0.98009,	-0.19086
	 0.97728,	-0.20416
	 0.97429,	-0.2174
	 0.97112,	-0.2306
	 0.96778,	-0.24373
	 0.96427,	-0.2568
	 0.96059,	-0.26981
	 0.95673,	-0.28276
	 0.9527,	-0.29564
	 0.94851,	-0.30845
	 0.94415,	-0.32118
	 0.93962,	-0.33385
	 0.93493,	-0.34643
	 0.93007,	-0.35894
	 0.92506,	-0.37136
	 0.91988,	-0.3837
	 0.91454,	-0.39596
	 0.90905,	-0.40813
	 0.90341,	-0.4202
	 0.89761,	-0.43219
	 0.89166,	-0.44408
	 0.88556,	-0.45587
	 0.87931,	-0.46756
	 0.87292,	-0.47915
	 0.86638,	-0.49064
	 0.8597,	-0.50203
	 0.85288,	-0.51331
	 0.84592,	-0.52448
	 0.83882,	-0.53554
	 0.83159,	-0.54649
	 0.82423,	-0.55732
	 0.81674,	-0.56804
	 0.80912,	-0.57865
	 0.80138,	-0.58913
	 0.79351,	-0.59949
	 0.78551,	-0.60974
	 0.7774,	-0.61986
	 0.76918,	-0.62985
	 0.76083,	-0.63972
	 0.75238,	-0.64946
	 0.74381,	-0.65908
	 0.73513,	-0.66856
	 0.72635,	-0.67791
	 0.71747,	-0.68713
	 0.70848,	-0.69622
	 0.69939,	-0.70517
	 0.69021,	-0.71399
	 0.68093,	-0.72267
	 0.67155,	-0.73122
	 0.66209,	-0.73963
	 0.65254,	-0.74789
	 0.6429,	-0.75602
	 0.63318,	-0.76401
	 0.62338,	-0.77186
	 0.6135,	-0.77956
	 0.60355,	-0.78713
	 0.59352,	-0.79455
	 0.58341,	-0.80182
	 0.57324,	-0.80895
	 0.563,	-0.81594
	 0.55269,	-0.82278
	 0.54233,	-0.82948
	 0.5319,	-0.83603
	 0.52141,	-0.84244
	 0.51086,	-0.8487
	 0.50027,	-0.85481
	 0.48962,	-0.86078
	 0.47892,	-0.8666
	 0.46817,	-0.87228
	 0.45738,	-0.8778
	 0.44654,	-0.88318
	 0.43567,	-0.88842
	 0.42475,	-0.8935
	 0.4138,	-0.89844
	 0.40281,	-0.90323
	 0.39179,	-0.90788
	 0.38074,	-0.91238
	 0.36967,	-0.91673
	 0.35856,	-0.92094
	 0.34743,	-0.925
	 0.33628,	-0.92892
	 0.32511,	-0.93269
	 0.31392,	-0.93631
	 0.30645,	-0.93865
	 0.29897,	-0.94092
	 0.29149,	-0.94313
	 0.284,	-0.94527
	 0.2765,	-0.94735
	 0.269,	-0.94937
	 0.2615,	-0.95132
	 0.25399,	-0.95321
	 0.24649,	-0.95504
	 0.23897,	-0.9568
	 0.23146,	-0.9585
	 0.22395,	-0.96014
	 0.21643,	-0.96172
	 0.20891,	-0.96323
	 0.2014,	-0.96468
	 0.19388,	-0.96607
	 0.18637,	-0.96739
	 0.17885,	-0.96866
	 0.17134,	-0.96986
	 0.16383,	-0.971
	 0.15633,	-0.97208
	 0.14883,	-0.9731
	 0.14133,	-0.97406
	 0.13384,	-0.97495
	 0.12635,	-0.97579
	 0.11887,	-0.97657
	 0.11139,	-0.97728
	 0.10392,	-0.97794
	 0.096462,	-0.97853
	 0.089005,	-0.97907
	 0.081556,	-0.97955
	 0.074116,	-0.97997
	 0.066683,	-0.98033
	 0.05926,	-0.98063
	 0.051845,	-0.98087
	 0.04444,	-0.98106
	 0.037045,	-0.98118
	 0.02966,	-0.98125
	 0.022286,	-0.98127
	 0.014923,	-0.98122
	 0.00757,	-0.98112
	 0.00022837,	-0.98096
	-0.0071022,	-0.98074
	-0.014422,	-0.98047
	-0.021731,	-0.98014
	-0.02903,	-0.97976
	-0.036322,	-0.97932
	-0.043607,	-0.97882
	-0.047249,	-0.97855
	-0.050891,	-0.97826
	-0.054535,	-0.97796
	-0.058182,	-0.97763
	-0.060007,	-0.97747
	-0.061834,	-0.97729
	-0.063663,	-0.97711
	-0.065494,	-0.97692
	-0.067327,	-0.97672
	-0.069163,	-0.97651
	-0.071001,	-0.97629
	-0.072839,	-0.97605
	-0.073758,	-0.97592
	-0.074676,	-0.97579
	-0.075592,	-0.97565
	-0.076505,	-0.9755
	-0.077414,	-0.97535
	-0.078316,	-0.97519
	-0.07921,	-0.97502
	-0.080093,	-0.97484
	-0.080963,	-0.97466
	-0.081817,	-0.97448
	-0.082655,	-0.9743
	-0.083475,	-0.97412
	-0.084281,	-0.97396
	-0.085075,	-0.97382
	-0.085863,	-0.97369
	-0.086651,	-0.97358
	-0.087444,	-0.97349
	-0.088246,	-0.97342
	-0.08906,	-0.97336
	-0.089886,	-0.9733
	-0.090725,	-0.97324
	-0.091575,	-0.97319
	-0.092435,	-0.97314
	-0.093303,	-0.97308
	-0.095058,	-0.97295
	-0.09683,	-0.9728
	-0.098612,	-0.97264
	-0.10039,	-0.97246
	-0.10263,	-0.97222
	-0.10487,	-0.97196
	-0.1071,	-0.97168
	-0.10934,	-0.9714
	-0.11157,	-0.9711
	-0.11379,	-0.9708
	-0.11602,	-0.97048
	-0.11824,	-0.97016
	-0.12267,	-0.9695
	-0.12709,	-0.96881
	-0.13151,	-0.96809
	-0.13591,	-0.96735
	-0.14469,	-0.96581
	-0.15343,	-0.96418
	-0.16213,	-0.96247
	-0.1708,	-0.96068
	-0.17943,	-0.9588
	-0.18803,	-0.95685
	-0.1966,	-0.95482
	-0.20512,	-0.95271
	-0.21361,	-0.95053
	-0.22207,	-0.94827
	-0.23049,	-0.94593
	-0.23887,	-0.94352
	-0.24721,	-0.94103
	-0.25552,	-0.93847
	-0.26378,	-0.93584
	-0.27201,	-0.93313
	-0.2802,	-0.93035
	-0.28834,	-0.9275
	-0.29645,	-0.92458
	-0.30451,	-0.92158
	-0.31254,	-0.91852
	-0.32052,	-0.91539
	-0.32845,	-0.91219
	-0.33635,	-0.90892
	-0.3442,	-0.90558
	-0.35201,	-0.90217
	-0.35978,	-0.8987
	-0.3675,	-0.89516
	-0.37211,	-0.89301
	-0.3767,	-0.89083
	-0.38128,	-0.88862
	-0.38584,	-0.8864
	-0.39038,	-0.88415
	-0.39491,	-0.88188
	-0.39942,	-0.87958
	-0.40392,	-0.87727
	-0.4084,	-0.87492
	-0.41286,	-0.87256
	-0.4173,	-0.87018
	-0.42173,	-0.86777
	-0.42614,	-0.86534
	-0.43053,	-0.86288
	-0.43491,	-0.86041
	-0.43926,	-0.85791
	-0.44361,	-0.85539
	-0.44793,	-0.85285
	-0.45223,	-0.85029
	-0.45652,	-0.8477
	-0.46079,	-0.8451
	-0.46504,	-0.84247
	-0.46928,	-0.83982
	-0.47349,	-0.83715
	-0.47769,	-0.83446
	-0.48187,	-0.83175
	-0.48603,	-0.82902
	-0.49018,	-0.82626
	-0.4943,	-0.82349
	-0.49841,	-0.8207
	-0.5025,	-0.81788
	-0.50657,	-0.81505
	-0.51062,	-0.81219
	-0.51465,	-0.80931
	-0.51866,	-0.80642
	-0.52266,	-0.8035
	-0.52664,	-0.80057
	-0.53059,	-0.79762
	-0.53453,	-0.79464
	-0.53845,	-0.79165
	-0.54235,	-0.78863
	-0.54623,	-0.7856
	-0.5501,	-0.78255
	-0.55394,	-0.77948
	-0.55776,	-0.77639
	-0.56157,	-0.77328
	-0.56535,	-0.77016
	-0.56912,	-0.76701
	-0.57286,	-0.76385
	-0.57659,	-0.76066
	-0.5803,	-0.75746
	-0.58399,	-0.75424
	-0.58765,	-0.75101
	-0.5913,	-0.74775
	-0.59493,	-0.74448
	-0.59854,	-0.74119
	-0.60212,	-0.73788
	-0.60569,	-0.73455
	-0.60924,	-0.73121
	-0.61277,	-0.72784
	-0.61628,	-0.72446
	-0.61976,	-0.72107
	-0.62323,	-0.71765
	-0.62668,	-0.71422
END
BEGIN
	 -5.29904633999999978670414340211e-19 ,	 0 
	 -1.56938263999999989299376657627e-16 ,	 -3.09663995999999999753751155605e-11 
	 -1.89816694999999999452583972496e-15 ,	 -3.0966398799999999513562942161e-10 
	 -1.76079935000000010901561987503e-13 ,	 -3.09663988000000005475387078522e-09 
	 -1.75941186000000001593972236981e-11 ,	 -3.09663894000000025141723951003e-08 
	 -2.78847125000000012773372734796e-11 ,	 -3.89843675000000032070063087346e-08 
	 -4.41941959999999969276171256409e-11 ,	 -4.90783969000000002625891913632e-08 
	 -7.00429698999999966841583975848e-11 ,	 -6.17860130999999974026214611018e-08 
	 -1.11010469000000005525388205517e-10 ,	 -7.77839264000000065441253185514e-08 
	 -1.7593946500000000978455722464e-10 ,	 -9.79240504000000000982376372957e-08 
	 -2.78844699999999989385460193945e-10 ,	 -1.23278854000000001412209755386e-07 
	 -4.419377870000000225032138134e-10 ,	 -1.55198438999999988851047284973e-07 
	 -7.00421096999999951365167744256e-10 ,	 -1.95382376000000009501813961511e-07 
	 -1.11008498000000001231579131457e-09 ,	 -2.4597007799999999003780584185e-07 
	 -1.75934703999999997583230241155e-09 ,	 -3.09654466999999974774059486454e-07 
	 -2.78832932e-09 ,	 -3.89824867e-07 
	 -4.41908416e-09 ,	 -4.90746443e-07 
	 -7.00347511e-09 ,	 -6.1778526e-07 
	 -1.10990035e-08 ,	 -7.77689886e-07 
	 -1.75888351e-08 ,	 -9.78942489e-07 
	 -2.78716539e-08 ,	 -1.23219402e-06 
	 -4.41616156e-08 ,	 -1.5507985e-06 
	 -6.99613754e-08 ,	 -1.95145863e-06 
	 -1.10805863e-07 ,	 -2.45498496e-06 
	 -1.75426282e-07 ,	 -3.08714561e-06 
	 -2.77558052e-07 ,	 -3.87952733e-06 
	 -4.38714792e-07 ,	 -4.87021204e-06 
	 -6.92359942e-07 ,	 -6.10384332e-06 
	 -1.08997207e-06 ,	 -7.63022872e-06 
	 -1.70935644e-06 ,	 -9.4998808e-06 
	 -2.66481458e-06 ,	 -1.17537694e-05 
	 -4.11667627e-06 ,	 -1.4403277e-05 
	 -6.27313845e-06 ,	 -1.73961782e-05 
	 -9.37010368e-06 ,	 -2.0568867e-05 
	 -1.36092387e-05 ,	 -2.35997195e-05 
	 -1.90455829e-05 ,	 -2.60044131e-05 
	 -2.54624408e-05 ,	 -2.72287338e-05 
	 -3.2334097e-05 ,	 -2.68470697e-05 
	 -3.8963949e-05 ,	 -2.47593325e-05 
	 -4.47415454e-05 ,	 -2.12254417e-05 
	 -4.93357431e-05 ,	 -1.67042447e-05 
	 -5.27103733e-05 ,	 -1.16339154e-05 
	 -5.50129924e-05 ,	 -6.29542614e-06 
	 -5.58732893e-05 ,	 -3.37899436e-06 
	 -5.64574507e-05 ,	 -7.28180395e-07 
	 -5.71879398e-05 ,	 5.00747869e-06 
	 -5.73226261e-05 ,	 1.11220967e-05 
	 -5.69560452e-05 ,	 1.70019788e-05 
	 -5.60778384e-05 ,	 2.34874587e-05 
	 -5.50424666e-05 ,	 2.87080088e-05 
	 -5.3673912e-05 ,	 3.41066249e-05 
	 -5.04902512e-05 ,	 4.36721235e-05 
	 -4.6685062e-05 ,	 5.23624217e-05 
	 -4.23775754e-05 ,	 6.02109215e-05 
	 -3.76819897e-05 ,	 6.72046652e-05 
	 -3.27150739e-05 ,	 7.33186619e-05 
	 -2.75971534e-05 ,	 7.85300158e-05 
	 -2.24510743e-05 ,	 8.28243269e-05 
	 -1.74005252e-05 ,	 8.61986291e-05 
	 -1.25682206e-05 ,	 8.86625615e-05 
	 -8.07416413e-06 ,	 9.02385405e-05 
	 -4.03409341e-06 ,	 9.09613291e-05 
	 -5.58155978e-07 ,	 9.0877233e-05 
	 2.25016527e-06 ,	 9.00430698e-05 
	 4.29487808e-06 ,	 8.85250172e-05 
	 5.4880716e-06 ,	 8.63974118e-05 
	 5.75029333e-06 ,	 8.37415554e-05 
	 5.01073922e-06 ,	 8.06445689e-05 
	 3.20728576e-06 ,	 7.71983209e-05 
	 2.86393831e-07 ,	 7.34984515e-05 
	 -3.79708705e-06 ,	 6.96434994e-05 
	 -9.08018757e-06 ,	 6.57341383e-05 
	 -1.55921365e-05 ,	 6.18725204e-05 
	 -2.33547068e-05 ,	 5.8161724e-05 
	 -3.23825724e-05 ,	 5.47052958e-05 
	 -4.26836609e-05 ,	 5.16068809e-05 
	 -5.4259491e-05 ,	 4.89699283e-05 
	 -6.71054852e-05 ,	 4.68974635e-05 
	 -8.12112522e-05 ,	 4.54919152e-05 
	 -9.65608338e-05 ,	 4.48549882e-05 
	 -0.000113132914 ,	 4.50875699e-05 
	 -0.000130900989 ,	 4.6289664e-05 
	 -0.0001498335 ,	 4.85603407e-05 
	 -0.000169893926 ,	 5.19976972e-05 
	 -0.000191040841 ,	 5.66988214e-05 
	 -0.000213227938 ,	 6.27597517e-05 
	 -0.000236404026 ,	 7.02754291e-05 
	 -0.00026051299 ,	 7.93396359e-05 
	 -0.000285493739 ,	 9.00449174e-05 
	 -0.000311280125 ,	 0.000102482483 
	 -0.000337800847 ,	 0.000116742082 
	 -0.000364979348 ,	 0.000132911858 
	 -0.000392733698 ,	 0.00015107817 
	 -0.000420976472 ,	 0.000171325387 
	 -0.000449614635 ,	 0.000193735652 
	 -0.000478549425 ,	 0.000218388614 
	 -0.000507676246 ,	 0.000245361131 
	 -0.000536884575 ,	 0.000274726937 
	 -0.000566057884 ,	 0.000306556281 
	 -0.000595073589 ,	 0.000340915543 
	 -0.000623803015 ,	 0.000377866806 
	 -0.000652111398 ,	 0.000417467421 
	 -0.000679857919 ,	 0.000459769532 
	 -0.000706895775 ,	 0.000504819593 
	 -0.00073307229 ,	 0.000552657856 
	 -0.00075822907 ,	 0.000603317853 
	 -0.000782202204 ,	 0.00065682587 
	 -0.000804822523 ,	 0.000713200406 
	 -0.000825915893 ,	 0.000772451643 
	 -0.000845303581 ,	 0.000834580916 
	 -0.000862802662 ,	 0.000899580195 
	 -0.000878226481 ,	 0.000967431586 
	 -0.000891385175 ,	 0.00103810685 
	 -0.000902086242 ,	 0.00111156697 
	 -0.000910135163 ,	 0.00118776171 
	 -0.000915336071 ,	 0.00126662928 
	 -0.000917492465 ,	 0.00134809598 
	 -0.000916407959 ,	 0.00143207596 
	 -0.000911887078 ,	 0.001518471 
	 -0.000903736069 ,	 0.00160717033 
	 -0.00089176374 ,	 0.0016980506 
	 -0.000875782321 ,	 0.00179097582 
	 -0.000855608323 ,	 0.00188579745 
	 -0.000831063402 ,	 0.00198235451 
	 -0.000801975217 ,	 0.00208047378 
	 -0.000768178272 ,	 0.0021799701 
	 -0.000729514726 ,	 0.00228064668 
	 -0.000685835188 ,	 0.00238229554 
	 -0.000636999458 ,	 0.00248469797 
	 -0.000582877226 ,	 0.00258762506 
	 -0.000523348726 ,	 0.00269083829 
