CITIFILE A.01.01
#Momentum: B.12.070 (*) built: Feb 13 2020 
#Momentum Date and Time: Mon Aug 15 16:33:00 2022

NAME Momentum.SP

#  mode: MW    reference: S_50

#eesof Port[1] P1
#eesof Port[2] P2

CONSTANT NBR_OF_PORTS 2

CONSTANT NORMALIZATION 1

VAR freq MAG 515

DATA S[1,1] RI
DATA S[1,2] RI
DATA S[2,1] RI
DATA S[2,2] RI
DATA PORTZ[1] RI
DATA PORTZ[2] RI

VAR_LIST_BEGIN
	 0
	 8.68055555
	 86.8055555
	 868.055555
	 8680.55555
	 10928.17197
	 13757.7534
	 17319.98536
	 21804.5697
	 27450.32689
	 34557.91409
	 43505.83622
	 54770.60278
	 68952.10366
	 86805.5555
	 109281.7197
	 137577.534
	 173199.8536
	 218045.697
	 274503.2689
	 345579.1409
	 435058.3622
	 547706.0278
	 689521.0366
	 868055.555
	 1092817.197
	 1375775.34
	 1731998.536
	 2180456.97
	 2745032.689
	 3455791.409
	 4350583.622
	 5477060.278
	 6895210.366
	 8680555.55
	 9814669.608
	 10954120.56
	 13790420.73
	 17361111.1
	 21270987.52
	 26041666.65
	 30182678.69
	 34722222.2
	 43402777.75
	 52083333.3
	 60763888.85
	 69444444.4
	 86805555.5
	 104166666.6
	 121527777.7
	 138888888.8
	 149739583.2
	 160590277.7
	 171440972.1
	 182291666.6
	 193142361
	 203993055.4
	 214843749.9
	 225694444.3
	 247395833.2
	 269097222.1
	 290798611
	 312499999.9
	 334201388.7
	 355902777.6
	 377604166.5
	 399305555.4
	 421006944.3
	 442708333.1
	 464409722
	 486111110.9
	 507812499.8
	 529513888.7
	 551215277.5
	 572916666.4
	 594618055.3
	 616319444.2
	 638020833.1
	 659722222
	 681423610.8
	 703124999.7
	 724826388.6
	 746527777.5
	 768229166.4
	 789930555.2
	 811631944.1
	 833333333
	 859374999.7
	 885416666.3
	 911458333
	 937499999.6
	 963541666.3
	 989583332.9
	 1015625000
	 1041666666
	 1067708333
	 1093750000
	 1119791666
	 1145833333
	 1171875000
	 1197916666
	 1223958333
	 1250000000
	 1276041666
	 1302083333
	 1328124999
	 1354166666
	 1380208333
	 1406249999
	 1432291666
	 1458333333
	 1510416666
	 1562499999
	 1614583333
	 1666666666
	 1718749999
	 1770833333
	 1822916666
	 1874999999
	 1927083333
	 1979166666
	 2031249999
	 2083333333
	 2135416666
	 2187499999
	 2239583333
	 2291666666
	 2317708333
	 2343749999
	 2369791666
	 2395833333
	 2421874999
	 2447916666
	 2473958333
	 2500000000
	 2526041666
	 2552083333
	 2578125000
	 2604166666
	 2630208333
	 2656250000
	 2682291666
	 2708333333
	 2734375000
	 2760416666
	 2786458333
	 2812500000
	 2838541666
	 2864583333
	 2890625000
	 2916666666
	 2942708333
	 2968750000
	 2994791666
	 3020833333
	 3046875000
	 3072916666
	 3098958333
	 3125000000
	 3151041666
	 3177083333
	 3203125000
	 3229166666
	 3255208333
	 3281250000
	 3307291666
	 3333333333
	 3359375000
	 3385416666
	 3411458333
	 3437500000
	 3463541666
	 3489583333
	 3515625000
	 3541666666
	 3567708333
	 3593750000
	 3619791666
	 3645833333
	 3671875000
	 3697916666
	 3723958333
	 3750000000
	 3776041666
	 3802083333
	 3828124999
	 3854166666
	 3880208333
	 3906249999
	 3932291666
	 3958333333
	 3984374999
	 4010416666
	 4036458333
	 4062499999
	 4088541666
	 4114583333
	 4140624999
	 4166666666
	 4192708333
	 4218749999
	 4244791666
	 4270833333
	 4296874999
	 4322916666
	 4348958333
	 4375000000
	 4401041666
	 4427083333
	 4453125000
	 4479166666
	 4505208333
	 4531250000
	 4557291666
	 4583333333
	 4609375000
	 4635416666
	 4661458333
	 4687500000
	 4713541666
	 4739583333
	 4765625000
	 4791666666
	 4817708333
	 4843750000
	 4869791667
	 4895833333
	 4921875000
	 4947916667
	 4973958333
	 5000000000
	 5026041667
	 5052083333
	 5078125000
	 5104166667
	 5130208333
	 5156250000
	 5182291667
	 5208333334
	 5234375000
	 5260416667
	 5286458334
	 5312500000
	 5338541667
	 5364583334
	 5390625000
	 5416666667
	 5442708334
	 5468750000
	 5494791667
	 5520833334
	 5546875000
	 5572916667
	 5598958334
	 5625000000
	 5651041667
	 5677083334
	 5703125001
	 5729166667
	 5755208334
	 5781250001
	 5807291667
	 5833333334
	 5859375001
	 5885416667
	 5911458334
	 5937500001
	 5963541667
	 5989583334
	 6015625001
	 6041666667
	 6054687501
	 6067708334
	 6080729167
	 6093750001
	 6106770834
	 6119791667
	 6132812501
	 6145833334
	 6158854167
	 6171875001
	 6184895834
	 6197916667
	 6210937501
	 6223958334
	 6236979167
	 6250000000
	 6263020834
	 6276041667
	 6289062500
	 6302083334
	 6315104167
	 6328125000
	 6341145834
	 6354166667
	 6367187500
	 6380208334
	 6393229167
	 6406250000
	 6419270834
	 6432291667
	 6445312500
	 6458333334
	 6471354167
	 6484375000
	 6497395834
	 6510416667
	 6523437500
	 6536458334
	 6549479167
	 6562500000
	 6575520834
	 6588541667
	 6601562500
	 6614583334
	 6627604167
	 6640625000
	 6653645834
	 6666666667
	 6675347223
	 6684027778
	 6692708334
	 6701388889
	 6710069445
	 6718750000
	 6727430556
	 6736111111
	 6744791667
	 6753472223
	 6762152778
	 6770833334
	 6779513889
	 6788194445
	 6796875000
	 6805555556
	 6814236111
	 6822916667
	 6831597223
	 6840277778
	 6848958334
	 6857638889
	 6866319445
	 6875000000
	 6883680556
	 6892361111
	 6901041667
	 6909722223
	 6918402778
	 6927083334
	 6935763889
	 6944444445
	 6961805556
	 6979166667
	 6996527778
	 7013888889
	 7031250000
	 7048611111
	 7065972223
	 7083333334
	 7100694445
	 7118055556
	 7135416667
	 7152777778
	 7170138889
	 7187500000
	 7204861111
	 7222222222
	 7256944445
	 7291666667
	 7326388889
	 7361111111
	 7395833334
	 7430555556
	 7465277778
	 7500000000
	 7534722222
	 7569444445
	 7604166667
	 7638888889
	 7673611111
	 7708333334
	 7743055556
	 7777777778
	 7816358025
	 7854938272
	 7893518519
	 7932098766
	 7970679013
	 8009259259
	 8047839506
	 8086419753
	 8125000000
	 8163580247
	 8202160494
	 8240740741
	 8279320988
	 8317901235
	 8356481482
	 8395061728
	 8433641975
	 8472222222
	 8510802469
	 8549382716
	 8587962963
	 8626543210
	 8665123457
	 8703703704
	 8722993827
	 8742283951
	 8761574074
	 8780864198
	 8800154321
	 8819444444
	 8838734568
	 8858024691
	 8877314815
	 8896604938
	 8915895062
	 8935185185
	 8944830247
	 8954475309
	 8964120370
	 8973765432
	 8983410494
	 8993055556
	 9002700617
	 9012345679
	 9018775720
	 9025205761
	 9031635802
	 9038065844
	 9044495885
	 9050925926
	 9057355967
	 9063786008
	 9070216049
	 9076646091
	 9083076132
	 9089506173
	 9095936214
	 9102366255
	 9108796296
	 9115226338
	 9121656379
	 9128086420
	 9134516461
	 9140946502
	 9147376543
	 9153806584
	 9160236626
	 9166666667
	 9169881687
	 9173096708
	 9176311728
	 9179526749
	 9182741770
	 9185956790
	 9189171811
	 9192386831
	 9195601852
	 9198816873
	 9202031893
	 9205246914
	 9208461934
	 9211676955
	 9214891975
	 9218106996
	 9224537037
	 9230967078
	 9237397119
	 9243827161
	 9250257202
	 9256687243
	 9263117284
	 9269547325
	 9275977366
	 9282407408
	 9288837449
	 9295267490
	 9301697531
	 9308127572
	 9314557613
	 9320987654
	 9333847737
	 9346707819
	 9359567901
	 9372427984
	 9385288066
	 9398148148
	 9411008231
	 9423868313
	 9436728395
	 9449588478
	 9462448560
	 9475308642
	 9488168725
	 9501028807
	 9513888889
	 9526748972
	 9552469136
	 9578189301
	 9603909465
	 9629629630
	 9652777778
	 9675925926
	 9699074074
	 9722222222
	 9745370371
	 9768518519
	 9791666667
	 9814814815
	 9861111111
	 9907407408
	 9953703704
	 1e+10
VAR_LIST_END

BEGIN
	 3.60214555000000022518501230362e-05 ,	 0 
	 3.60214555000000022518501230362e-05 ,	 -4.66812232999999963180919444966e-09 
	 3.60214555000000022518501230362e-05 ,	 -4.66812273000000009018994960152e-08 
	 3.60214549999999974734879448768e-05 ,	 -4.66812265999999996861428682229e-07 
	 3.60214089000000000761331220289e-05 ,	 -4.66812265999999986273516841551e-06 
	 3.60213815999999980308268754392e-05 ,	 -5.87681824000000031040001971516e-06 
	 3.60213382999999989319932225396e-05 ,	 -7.39847583000000017910404923049e-06 
	 3.60212698000000015939418840372e-05 ,	 -9.31412922999999983808636777605e-06 
	 3.60211610999999981910790758377e-05 ,	 -1.17257940000000007138613103419e-05 
	 3.60209890000000028213722469417e-05 ,	 -1.47619000000000000677501457713e-05 
	 3.60207161000000009422675195658e-05 ,	 -1.8584130999999998607721471422e-05 
	 3.602028360000000117976601266e-05 ,	 -2.3396034800000000151770293555e-05 
	 3.60195982000000009372667197916e-05 ,	 -2.94538626999999999741836759215e-05 
	 3.60185117999999970372221325121e-05 ,	 -3.70802160999999998614723439871e-05 
	 3.60167901000000014138761883498e-05 ,	 -4.66812261999999971763541939396e-05 
	 3.60140613e-05 ,	 -5.87681817e-05 
	 3.60097365e-05 ,	 -7.39847567e-05 
	 3.60028821e-05 ,	 -9.31412892e-05 
	 3.59920186e-05 ,	 -0.000117257933 
	 3.59748012e-05 ,	 -0.000147618988 
	 3.59475133e-05 ,	 -0.000185841285 
	 3.59042651e-05 ,	 -0.000233960298 
	 3.58357212e-05 ,	 -0.000294538528 
	 3.57270866e-05 ,	 -0.000370801964 
	 3.55549124e-05 ,	 -0.000466811868 
	 3.5282035e-05 ,	 -0.00058768103 
	 3.48495542e-05 ,	 -0.000739845997 
	 3.416412e-05 ,	 -0.000931409759 
	 3.30777846e-05 ,	 -0.00117257308 
	 3.13560702e-05 ,	 -0.0014761774 
	 2.86273649e-05 ,	 -0.00185838797 
	 2.43027293e-05 ,	 -0.00233955333 
	 1.74488215e-05 ,	 -0.00294528621 
	 6.58655644e-06 ,	 -0.00370782199 
	 -1.06278524e-05 ,	 -0.00466772436 
	 -2.36117908e-05 ,	 -0.00527743695 
	 -3.82594798e-05 ,	 -0.0058899723 
	 -8.16940422e-05 ,	 -0.00741444695 
	 -0.00015051531 ,	 -0.00933306155 
	-0.00024394,	-0.011433
	-0.00038346,	-0.013994
	-0.00052729,	-0.016215
	-0.00070917,	-0.018647
	-0.0011272,	-0.023291
	-0.0016371,	-0.027924
	-0.0022383,	-0.032542
	-0.0029299,	-0.037144
	-0.0045817,	-0.046293
	-0.0065855,	-0.055353
	-0.0089336,	-0.064311
	-0.011618,	-0.073154
	-0.013463,	-0.078615
	-0.015433,	-0.084024
	-0.017528,	-0.089378
	-0.019744,	-0.094673
	-0.02208,	-0.099908
	-0.024533,	-0.10507
	-0.027102,	-0.11018
	-0.029785,	-0.11522
	-0.035481,	-0.12508
	-0.041606,	-0.13465
	-0.048142,	-0.1439
	-0.055071,	-0.15283
	-0.062375,	-0.16141
	-0.070036,	-0.16963
	-0.078035,	-0.17749
	-0.086352,	-0.18496
	-0.094968,	-0.19204
	-0.10386,	-0.19871
	-0.11301,	-0.20497
	-0.1224,	-0.21081
	-0.132,	-0.21623
	-0.1418,	-0.22121
	-0.15177,	-0.22575
	-0.1619,	-0.22986
	-0.17216,	-0.23352
	-0.18253,	-0.23674
	-0.19299,	-0.23951
	-0.20353,	-0.24185
	-0.21411,	-0.24374
	-0.22473,	-0.24519
	-0.23537,	-0.24621
	-0.246,	-0.2468
	-0.25661,	-0.24697
	-0.26719,	-0.24671
	-0.27771,	-0.24605
	-0.28816,	-0.24497
	-0.30058,	-0.24316
	-0.31286,	-0.24079
	-0.32498,	-0.23787
	-0.33689,	-0.23442
	-0.3486,	-0.23046
	-0.36007,	-0.226
	-0.3713,	-0.22106
	-0.38225,	-0.21566
	-0.39292,	-0.20981
	-0.40329,	-0.20354
	-0.41335,	-0.19686
	-0.42309,	-0.18979
	-0.43249,	-0.18235
	-0.44154,	-0.17455
	-0.45024,	-0.16641
	-0.45857,	-0.15796
	-0.46653,	-0.14921
	-0.47411,	-0.14018
	-0.48131,	-0.13088
	-0.48811,	-0.12133
	-0.49452,	-0.11155
	-0.50053,	-0.10155
	-0.50614,	-0.091364
	-0.51134,	-0.080989
	-0.52051,	-0.059757
	-0.52802,	-0.037984
	-0.53388,	-0.01579
	-0.53806,	 0.0067086
	-0.54058,	 0.029399
	-0.54144,	 0.05217
	-0.54065,	 0.074915
	-0.53821,	 0.097528
	-0.53415,	 0.1199
	-0.52848,	 0.14193
	-0.52121,	 0.16353
	-0.51238,	 0.18457
	-0.50201,	 0.20496
	-0.49014,	 0.22459
	-0.47679,	 0.24335
	-0.46201,	 0.26113
	-0.45409,	 0.26961
	-0.44584,	 0.27781
	-0.43726,	 0.28571
	-0.42835,	 0.29329
	-0.41912,	 0.30054
	-0.40959,	 0.30745
	-0.39976,	 0.31399
	-0.38964,	 0.32015
	-0.37925,	 0.32592
	-0.36859,	 0.33129
	-0.35767,	 0.33623
	-0.34652,	 0.34073
	-0.33514,	 0.34478
	-0.32355,	 0.34836
	-0.31177,	 0.35145
	-0.29982,	 0.35404
	-0.2877,	 0.35612
	-0.27545,	 0.35767
	-0.26309,	 0.35868
	-0.25063,	 0.35913
	-0.2381,	 0.35901
	-0.22552,	 0.35831
	-0.21293,	 0.35702
	-0.20035,	 0.35513
	-0.1878,	 0.35262
	-0.17532,	 0.34949
	-0.16294,	 0.34574
	-0.1507,	 0.34135
	-0.13862,	 0.33633
	-0.12674,	 0.33067
	-0.11511,	 0.32437
	-0.10375,	 0.31744
	-0.092713,	 0.30988
	-0.082026,	 0.3017
	-0.071733,	 0.29291
	-0.061876,	 0.28352
	-0.052493,	 0.27355
	-0.043627,	 0.26301
	-0.035316,	 0.25193
	-0.027601,	 0.24033
	-0.02052,	 0.22825
	-0.01411,	 0.21571
	-0.0084083,	 0.20274
	-0.0034483,	 0.1894
	 0.00073763,	 0.17571
	 0.0041199,	 0.16173
	 0.0066718,	 0.1475
	 0.0083694,	 0.13307
	 0.0091927,	 0.1185
	 0.0091252,	 0.10383
	 0.0081544,	 0.089141
	 0.0062721,	 0.074469
	 0.0034746,	 0.059883
	-0.00023721,	 0.045443
	-0.0048577,	 0.031209
	-0.010376,	 0.017244
	-0.016778,	 0.003607
	-0.024042,	-0.0096424
	-0.032145,	-0.022446
	-0.041056,	-0.034749
	-0.050742,	-0.046496
	-0.061164,	-0.057638
	-0.072282,	-0.068127
	-0.08405,	-0.077919
	-0.096419,	-0.086972
	-0.10933,	-0.095253
	-0.12275,	-0.10272
	-0.13661,	-0.10936
	-0.15085,	-0.11515
	-0.16541,	-0.12006
	-0.18025,	-0.12408
	-0.19529,	-0.12721
	-0.21049,	-0.12943
	-0.22577,	-0.13075
	-0.2411,	-0.13117
	-0.2564,	-0.13071
	-0.27163,	-0.12936
	-0.28673,	-0.12715
	-0.30166,	-0.12409
	-0.31636,	-0.12021
	-0.3308,	-0.11552
	-0.34492,	-0.11007
	-0.3587,	-0.10386
	-0.37208,	-0.096947
	-0.38505,	-0.089342
	-0.39757,	-0.081086
	-0.4096,	-0.072211
	-0.42113,	-0.062753
	-0.43212,	-0.052746
	-0.44257,	-0.042226
	-0.45244,	-0.031229
	-0.46173,	-0.01979
	-0.47043,	-0.0079432
	-0.47851,	 0.0042753
	-0.48597,	 0.016831
	-0.49281,	 0.02969
	-0.49901,	 0.04282
	-0.50457,	 0.056187
	-0.50949,	 0.069759
	-0.51377,	 0.083506
	-0.51741,	 0.097396
	-0.52041,	 0.1114
	-0.52276,	 0.12548
	-0.52448,	 0.13963
	-0.52556,	 0.15381
	-0.52601,	 0.16799
	-0.52584,	 0.18214
	-0.52504,	 0.19625
	-0.52363,	 0.21029
	-0.52161,	 0.22422
	-0.51898,	 0.23804
	-0.51576,	 0.25171
	-0.51195,	 0.26521
	-0.50755,	 0.27852
	-0.50258,	 0.29162
	-0.49703,	 0.30449
	-0.49093,	 0.31709
	-0.48426,	 0.32941
	-0.47705,	 0.34143
	-0.46931,	 0.35312
	-0.46102,	 0.36445
	-0.45222,	 0.37541
	-0.44289,	 0.38597
	-0.43306,	 0.3961
	-0.42274,	 0.40577
	-0.41192,	 0.41496
	-0.40062,	 0.42364
	-0.38886,	 0.43177
	-0.37664,	 0.43932
	-0.36399,	 0.44627
	-0.3509,	 0.45256
	-0.33741,	 0.45817
	-0.32353,	 0.46305
	-0.30928,	 0.46715
	-0.29468,	 0.47045
	-0.27978,	 0.47287
	-0.26459,	 0.47438
	-0.24916,	 0.47491
	-0.23353,	 0.47441
	-0.21775,	 0.47282
	-0.20189,	 0.47008
	-0.18602,	 0.46612
	-0.1702,	 0.46088
	-0.15454,	 0.45428
	-0.14681,	 0.45046
	-0.13915,	 0.44627
	-0.13159,	 0.44171
	-0.12414,	 0.43678
	-0.11683,	 0.43145
	-0.10966,	 0.42574
	-0.10267,	 0.41963
	-0.095877,	 0.41311
	-0.089296,	 0.40619
	-0.082958,	 0.39885
	-0.07689,	 0.3911
	-0.071118,	 0.38293
	-0.065672,	 0.37435
	-0.060583,	 0.36535
	-0.055884,	 0.35594
	-0.051609,	 0.34612
	-0.047792,	 0.3359
	-0.04447,	 0.3253
	-0.04168,	 0.31432
	-0.039462,	 0.30299
	-0.037854,	 0.29132
	-0.036895,	 0.27934
	-0.036627,	 0.26707
	-0.037088,	 0.25455
	-0.038318,	 0.24181
	-0.040355,	 0.2289
	-0.043235,	 0.21586
	-0.046992,	 0.20274
	-0.051658,	 0.1896
	-0.057262,	 0.1765
	-0.063826,	 0.16351
	-0.07137,	 0.15069
	-0.079907,	 0.13813
	-0.089443,	 0.1259
	-0.099978,	 0.11407
	-0.1115,	 0.10275
	-0.124,	 0.092012
	-0.13745,	 0.08194
	-0.15181,	 0.072626
	-0.16705,	 0.064153
	-0.1831,	 0.056604
	-0.1999,	 0.050057
	-0.21738,	 0.044585
	-0.23546,	 0.040255
	-0.25406,	 0.037124
	-0.27306,	 0.035242
	-0.29239,	 0.03465
	-0.31192,	 0.035375
	-0.32501,	 0.0366
	-0.3381,	 0.038422
	-0.35118,	 0.04084
	-0.3642,	 0.043853
	-0.37714,	 0.047456
	-0.38997,	 0.051643
	-0.40264,	 0.056404
	-0.41514,	 0.061729
	-0.42743,	 0.067604
	-0.43948,	 0.074017
	-0.45127,	 0.080948
	-0.46278,	 0.088382
	-0.47397,	 0.096298
	-0.48483,	 0.10467
	-0.49534,	 0.11349
	-0.50548,	 0.12272
	-0.51524,	 0.13234
	-0.52458,	 0.14234
	-0.53352,	 0.15268
	-0.54203,	 0.16333
	-0.5501,	 0.17429
	-0.55773,	 0.1855
	-0.56491,	 0.19697
	-0.57164,	 0.20865
	-0.57791,	 0.22052
	-0.58373,	 0.23257
	-0.58909,	 0.24476
	-0.594,	 0.25708
	-0.59846,	 0.26949
	-0.60247,	 0.28199
	-0.60604,	 0.29455
	-0.60917,	 0.30715
	-0.61416,	 0.3324
	-0.6175,	 0.3576
	-0.61927,	 0.38262
	-0.61954,	 0.40737
	-0.61841,	 0.43175
	-0.61597,	 0.45568
	-0.61229,	 0.47909
	-0.60747,	 0.50194
	-0.6016,	 0.52417
	-0.59476,	 0.54575
	-0.58703,	 0.56666
	-0.57849,	 0.58688
	-0.56921,	 0.60639
	-0.55926,	 0.62521
	-0.5487,	 0.64332
	-0.5376,	 0.66072
	-0.51398,	 0.69345
	-0.48878,	 0.72349
	-0.46234,	 0.75094
	-0.43493,	 0.77594
	-0.40679,	 0.79862
	-0.3781,	 0.81912
	-0.34903,	 0.83757
	-0.31968,	 0.8541
	-0.29018,	 0.86883
	-0.2606,	 0.88187
	-0.231,	 0.89332
	-0.20145,	 0.90327
	-0.17197,	 0.91182
	-0.14262,	 0.91904
	-0.11341,	 0.92499
	-0.084362,	 0.92975
	-0.052295,	 0.93369
	-0.020464,	 0.93628
	 0.011118,	 0.93758
	 0.042444,	 0.93764
	 0.073511,	 0.93651
	 0.10431,	 0.9342
	 0.13485,	 0.93077
	 0.16513,	 0.92621
	 0.19515,	 0.92056
	 0.22491,	 0.9138
	 0.25441,	 0.90596
	 0.28367,	 0.89701
	 0.31269,	 0.88694
	 0.34147,	 0.87572
	 0.37001,	 0.86332
	 0.39833,	 0.84969
	 0.42642,	 0.83476
	 0.45429,	 0.81844
	 0.48194,	 0.80063
	 0.50935,	 0.78118
	 0.5365,	 0.75992
	 0.56337,	 0.73661
	 0.58989,	 0.71095
	 0.61595,	 0.68256
	 0.62875,	 0.66718
	 0.64136,	 0.65092
	 0.65373,	 0.63368
	 0.66581,	 0.61536
	 0.67752,	 0.59585
	 0.68877,	 0.575
	 0.69942,	 0.55267
	 0.70932,	 0.52868
	 0.71823,	 0.50284
	 0.72587,	 0.47493
	 0.73184,	 0.44472
	 0.73564,	 0.41199
	 0.73651,	 0.39461
	 0.73656,	 0.37654
	 0.73568,	 0.35774
	 0.73372,	 0.33823
	 0.73053,	 0.31802
	 0.72593,	 0.29712
	 0.71973,	 0.27559
	 0.71171,	 0.25351
	 0.70523,	 0.23855
	 0.69777,	 0.22344
	 0.68924,	 0.20826
	 0.67957,	 0.19306
	 0.66867,	 0.17793
	 0.65648,	 0.16299
	 0.64293,	 0.14834
	 0.62794,	 0.13414
	 0.61147,	 0.12054
	 0.59349,	 0.10772
	 0.57397,	 0.095893
	 0.55294,	 0.085258
	 0.53043,	 0.076057
	 0.50654,	 0.068533
	 0.48138,	 0.062933
	 0.45515,	 0.059498
	 0.42805,	 0.058456
	 0.40036,	 0.060005
	 0.37242,	 0.064306
	 0.34457,	 0.071466
	 0.31722,	 0.081533
	 0.29077,	 0.09448
	 0.26563,	 0.1102
	 0.24219,	 0.12853
	 0.23123,	 0.1386
	 0.22082,	 0.14922
	 0.211,	 0.16035
	 0.20181,	 0.17194
	 0.19327,	 0.18396
	 0.18541,	 0.19635
	 0.17824,	 0.20907
	 0.17179,	 0.22205
	 0.16605,	 0.23526
	 0.16104,	 0.24863
	 0.15675,	 0.26212
	 0.15319,	 0.27568
	 0.15033,	 0.28926
	 0.14817,	 0.30281
	 0.1467,	 0.3163
	 0.14589,	 0.32967
	 0.14617,	 0.35594
	 0.14882,	 0.38134
	 0.1536,	 0.40567
	 0.16029,	 0.42874
	 0.16863,	 0.45043
	 0.17838,	 0.47067
	 0.18932,	 0.48941
	 0.20122,	 0.50663
	 0.2139,	 0.52236
	 0.22716,	 0.53663
	 0.24086,	 0.54948
	 0.25486,	 0.56099
	 0.26904,	 0.57122
	 0.28329,	 0.58024
	 0.29754,	 0.58814
	 0.3117,	 0.59498
	 0.33956,	 0.60582
	 0.36654,	 0.61332
	 0.39241,	 0.618
	 0.41708,	 0.62032
	 0.44048,	 0.62064
	 0.46263,	 0.61931
	 0.48356,	 0.6166
	 0.5033,	 0.61274
	 0.52193,	 0.60791
	 0.53951,	 0.60228
	 0.55609,	 0.59597
	 0.57175,	 0.5891
	 0.58655,	 0.58176
	 0.60055,	 0.57402
	 0.61379,	 0.56594
	 0.62634,	 0.55758
	 0.64954,	 0.54017
	 0.67045,	 0.52205
	 0.68936,	 0.50341
	 0.70651,	 0.4844
	 0.72057,	 0.46703
	 0.73348,	 0.44948
	 0.74531,	 0.43179
	 0.75615,	 0.41398
	 0.76608,	 0.39608
	 0.77514,	 0.3781
	 0.7834,	 0.36006
	 0.79088,	 0.34196
	 0.80368,	 0.30564
	 0.81374,	 0.2692
	 0.82123,	 0.23269
	 0.82625,	 0.19617
END
BEGIN
	 0.999963442002919866702370654821 ,	 0 
	 0.999963442002918756479346029664 ,	 -9.7134849399993505869588261703e-09 
	 0.999963442002891222948335325782 ,	 -9.71348494832602327164750022348e-08 
	 0.999963442000131541576024574169 ,	 -9.71348495290569324822627095273e-07 
	 0.999963441724155743806079499336 ,	 -9.71348484501977083027668413706e-06 
	 0.999963441561108723476536397357 ,	 -1.22285528283208599908959968161e-05 
	 0.99996344130269698702306868654 ,	 -1.53948357447114547724709154863e-05 
	 0.999963440893142152532391264685 ,	 -1.93809496099178746320035315875e-05 
	 0.999963440244041934512608804653 ,	 -2.43991693311199075999695651262e-05 
	 0.9999634392152887407689831889 ,	 -3.0716733025251685695877768012e-05 
	 0.999963437584827197213144245325 ,	 -3.86700732343536746071777088218e-05 
	 0.999963435000727929313768527209 ,	 -4.86827328059699637741175592964e-05 
	 0.999963430905224548439491627505 ,	 -6.12879193396045907071822966827e-05 
	 0.999963424414336277123993568239 ,	 -7.71568989298143659283368833712e-05 
	 0.99996341412708900087125130085 ,	 -9.71347405282624309919015104242e-05 
	 0.999963397823197763791824854707 ,	 -0.000122285312952094549210357854463 
