CITIFILE A.01.01
#Momentum: B.12.070 (*) built: Feb 13 2020 
#Momentum Date and Time: Sun Aug 14 18:34:13 2022

NAME Momentum.SP

#  mode: MW    reference: S_50

#eesof Port[1] P1
#eesof Port[2] P2

CONSTANT NBR_OF_PORTS 2

CONSTANT NORMALIZATION 1

VAR freq MAG 494

DATA S[1,1] RI
DATA S[1,2] RI
DATA S[2,1] RI
DATA S[2,2] RI
DATA PORTZ[1] RI
DATA PORTZ[2] RI

VAR_LIST_BEGIN
	 0
	 8.701167245
	 87.01167245
	 870.1167245
	 8701.167245
	 10954.12056
	 13790.42073
	 17361.1111
	 21856.34394
	 27515.5068
	 34639.97072
	 43609.13941
	 54900.65379
	 69115.82818
	 87011.67245
	 109541.2056
	 137904.2073
	 173611.111
	 218563.4394
	 275155.068
	 346399.7072
	 436091.3941
	 549006.5379
	 691158.2818
	 870116.7245
	 1095412.056
	 1379042.073
	 1736111.11
	 2185634.394
	 2751550.68
	 3463997.072
	 4360913.941
	 5490065.379
	 6911582.818
	 8701167.245
	 10954120.56
	 13790420.73
	 17361111.1
	 19629339.22
	 21908241.11
	 27580841.47
	 34722222.2
	 42541975.04
	 52083333.3
	 60365357.38
	 69444444.4
	 78124999.95
	 86805555.5
	 95486111.05
	 104166666.6
	 112847222.2
	 121527777.7
	 130208333.3
	 138888888.8
	 160590277.7
	 182291666.6
	 203993055.4
	 225694444.3
	 247395833.2
	 269097222.1
	 290798611
	 312499999.9
	 334201388.7
	 355902777.6
	 377604166.5
	 399305555.4
	 410156249.8
	 421006944.3
	 431857638.7
	 442708333.1
	 453559027.6
	 464409722
	 475260416.5
	 486111110.9
	 507812499.8
	 529513888.7
	 551215277.5
	 572916666.4
	 594618055.3
	 616319444.2
	 638020833.1
	 659722222
	 681423610.8
	 703124999.7
	 724826388.6
	 746527777.5
	 768229166.4
	 789930555.2
	 811631944.1
	 833333333
	 859374999.7
	 885416666.3
	 911458333
	 937499999.6
	 963541666.3
	 989583332.9
	 1015625000
	 1041666666
	 1067708333
	 1093750000
	 1119791666
	 1145833333
	 1171875000
	 1197916666
	 1223958333
	 1250000000
	 1276041666
	 1302083333
	 1328124999
	 1354166666
	 1380208333
	 1406249999
	 1432291666
	 1458333333
	 1484374999
	 1510416666
	 1536458333
	 1562499999
	 1588541666
	 1614583333
	 1640624999
	 1666666666
	 1692708333
	 1718749999
	 1744791666
	 1770833333
	 1796874999
	 1822916666
	 1848958333
	 1874999999
	 1901041666
	 1927083333
	 1953124999
	 1979166666
	 2005208333
	 2031249999
	 2057291666
	 2083333333
	 2109374999
	 2135416666
	 2161458333
	 2187499999
	 2213541666
	 2239583333
	 2265624999
	 2291666666
	 2343749999
	 2395833333
	 2447916666
	 2500000000
	 2552083333
	 2604166666
	 2656250000
	 2708333333
	 2760416666
	 2812500000
	 2864583333
	 2916666666
	 2968750000
	 3020833333
	 3072916666
	 3125000000
	 3177083333
	 3229166666
	 3281250000
	 3333333333
	 3385416666
	 3437500000
	 3489583333
	 3541666666
	 3593750000
	 3645833333
	 3697916666
	 3750000000
	 3802083333
	 3854166666
	 3906250000
	 3958333333
	 4010416666
	 4062500000
	 4114583333
	 4166666666
	 4218750000
	 4270833333
	 4322916667
	 4375000000
	 4401041667
	 4427083333
	 4453125000
	 4479166667
	 4505208333
	 4531250000
	 4557291667
	 4583333333
	 4609375000
	 4635416667
	 4661458333
	 4687500000
	 4713541667
	 4739583333
	 4765625000
	 4791666667
	 4817708333
	 4843750000
	 4869791667
	 4895833333
	 4921875000
	 4947916667
	 4973958333
	 5000000000
	 5026041667
	 5052083333
	 5078125000
	 5104166667
	 5130208333
	 5156250000
	 5182291667
	 5208333334
	 5234375000
	 5260416667
	 5286458334
	 5312500000
	 5338541667
	 5364583334
	 5390625000
	 5416666667
	 5442708334
	 5468750000
	 5494791667
	 5520833334
	 5546875000
	 5572916667
	 5598958334
	 5625000000
	 5651041667
	 5677083334
	 5703125001
	 5729166667
	 5755208334
	 5781250001
	 5807291667
	 5833333334
	 5859375001
	 5885416667
	 5911458334
	 5937500001
	 5963541667
	 5989583334
	 6015625001
	 6041666667
	 6067708334
	 6093750001
	 6119791667
	 6145833334
	 6171875001
	 6197916667
	 6223958334
	 6250000000
	 6276041667
	 6302083334
	 6328125000
	 6354166667
	 6380208334
	 6406250000
	 6432291667
	 6458333334
	 6484375000
	 6510416667
	 6536458334
	 6562500000
	 6588541667
	 6614583334
	 6640625000
	 6666666667
	 6692708334
	 6718750000
	 6744791667
	 6770833334
	 6796875000
	 6822916667
	 6848958334
	 6875000000
	 6901041667
	 6927083334
	 6953125000
	 6979166667
	 7005208334
	 7031250000
	 7057291667
	 7083333334
	 7109375000
	 7135416667
	 7161458333
	 7187500000
	 7213541667
	 7239583333
	 7265625000
	 7291666667
	 7317708333
	 7343750000
	 7369791667
	 7395833333
	 7421875000
	 7447916667
	 7473958333
	 7500000000
	 7526041667
	 7552083333
	 7578125000
	 7604166667
	 7630208333
	 7656250000
	 7682291667
	 7708333334
	 7734375000
	 7760416667
	 7786458334
	 7812500000
	 7825520834
	 7838541667
	 7851562500
	 7864583334
	 7877604167
	 7890625000
	 7903645834
	 7916666667
	 7929687500
	 7942708334
	 7955729167
	 7968750000
	 7981770834
	 7994791667
	 8007812500
	 8020833334
	 8033854167
	 8046875000
	 8059895834
	 8072916667
	 8085937500
	 8098958334
	 8111979167
	 8125000000
	 8138020834
	 8151041667
	 8164062501
	 8177083334
	 8190104167
	 8203125001
	 8216145834
	 8229166667
	 8242187501
	 8255208334
	 8268229167
	 8281250001
	 8294270834
	 8307291667
	 8320312501
	 8333333334
	 8346354167
	 8359375001
	 8372395834
	 8385416667
	 8398437501
	 8411458334
	 8424479167
	 8437500001
	 8450520834
	 8463541667
	 8476562501
	 8489583334
	 8502604167
	 8515625001
	 8528645834
	 8541666667
	 8554687501
	 8567708334
	 8580729167
	 8593750001
	 8606770834
	 8619791667
	 8632812501
	 8645833334
	 8658854167
	 8671875001
	 8684895834
	 8697916667
	 8710937501
	 8723958334
	 8736979167
	 8750000000
	 8763020834
	 8776041667
	 8789062500
	 8802083334
	 8815104167
	 8828125000
	 8841145834
	 8854166667
	 8867187500
	 8880208334
	 8893229167
	 8906250000
	 8919270834
	 8932291667
	 8945312500
	 8958333334
	 8971354167
	 8984375000
	 8997395834
	 9010416667
	 9023437500
	 9036458334
	 9049479167
	 9062500000
	 9075520834
	 9088541667
	 9101562500
	 9114583334
	 9127604167
	 9140625000
	 9153645834
	 9166666667
	 9184027778
	 9201388889
	 9218750000
	 9236111111
	 9253472222
	 9270833334
	 9288194445
	 9305555556
	 9322916667
	 9340277778
	 9357638889
	 9375000000
	 9392361111
	 9409722222
	 9427083333
	 9444444444
	 9461805556
	 9479166667
	 9496527778
	 9513888889
	 9531250000
	 9548611111
	 9565972222
	 9583333333
	 9592013889
	 9600694444
	 9609375000
	 9618055555
	 9626736111
	 9635416667
	 9644097222
	 9652777778
	 9661458333
	 9670138889
	 9678819444
	 9687500000
	 9696180555
	 9704861111
	 9713541666
	 9722222222
	 9730902778
	 9739583333
	 9748263889
	 9756944444
	 9765625000
	 9774305555
	 9782986111
	 9791666666
	 9800347222
	 9809027778
	 9817708333
	 9826388889
	 9835069444
	 9843750000
	 9852430555
	 9861111111
	 9869791667
	 9878472222
	 9887152778
	 9895833333
	 9904513889
	 9913194444
	 9921875000
	 9930555556
	 9939236111
	 9947916667
	 9956597222
	 9965277778
	 9973958333
	 9982638889
	 9991319444
	 1e+10
VAR_LIST_END

BEGIN
	 0.999999999999989452881266061013 ,	 -0 
	 0.999999999999997335464740899624 ,	 -1.78199113243238116410793736577e-08 
	 0.999999999999980904163976447308 ,	 -1.78199115019594955811044201255e-07 
	 0.999999999998279598401040857425 ,	 -1.78199114087007615125912707299e-06 
	 0.999999999828390162548430453171 ,	 -1.78199114100330291421414585784e-05 
	 0.999999999728021116141007951228 ,	 -2.24339393080086324516742024571e-05 
	 0.999999999568943476191407171427 ,	 -2.82426562798754332561657065526e-05 
	 0.999999999316826482242959173163 ,	 -3.55553976811862071372161153704e-05 
	 0.999999998917245669360909232637 ,	 -4.47615936565171068650670349598e-05 
	 0.999999998283950031208178188535 ,	 -5.63515077081078175069706048816e-05 
	 0.999999997280245800368447817164 ,	 -7.09423450047097503556869924068e-05 
	 0.999999995689482723548735521035 ,	 -8.9311120817558986573203583248e-05 
	 0.999999993168295908674281236017 ,	 -0.000112436039390040320995467482135 
	 0.999999989172477565801955279312 ,	 -0.00014154858686588056571054039523 
	 0.999999982839536283307779740426 ,	 -0.000178199112362609213278119568713 
	 0.999999972802499748070204077521 ,	 -0.000224339389623295915043854620308 
	 0.999999956894869868051500816364 ,	 -0.000282426555889614405714382883161 
	 0.999999931682976406221996512613 ,	 -0.000355553963041543852341419551522 
	 0.99999989172481962285132794932 ,	 -0.000447615909090259833646996412426 
	 0.999999828395418788318238512147 ,	 -0.000563515022240501650685473578051 
	 0.999999728025096512595837339177 ,	 -0.000709423340643056121734844055027 
	 0.999999568948906958354427843005 ,	 -0.000893110989883094674723906791769 
	 0.999999316830247231280281994259 ,	 -0.00112435995835946656029591395054 
	 0.999998917249386831684887511074 ,	 -0.00141548499963795038070202281233 
	 0.999998283957116651521346284426 ,	 -0.00178198938970419717975346429739 
	 0.99999728025831391420297222794 ,	 -0.00224339043661148096475699276198 
	 0.999995689507443330512614920735 ,	 -0.00282425865607516257682618743274 
	 0.999993168348588312710489844903 ,	 -0.00355552585757434869151438761037 
	 0.999989172609654808354662236525 ,	 -0.00447613161083282307117769960314 
	 0.999982839861977446105356648332 ,	 -0.00563509539345918852859540493228 
	 0.999972803313517566436985362088 ,	 -0.00709412401161113592706897179596 
	 0.999956896908810843882520202897 ,	 -0.00893089163789939632920322765131 
	 0.999931688092869475070756379864 ,	 -0.0112431641287313865973374049645 
	 0.999891737665752788899453662452 ,	 -0.0141539812538580278555855329614 
	 0.999828427668501440450654627057 ,	 -0.0178181608569789595719612407265 
	 0.999728106055562726339758228278 ,	 -0.0224304475361809529943002416985 
	 0.999569152070292510359195148339 ,	 -0.0282356925596927155197590764146 
	 0.999317339822970218676800868707 ,	 -0.0355415135806875781554481363855 
	 0.999127488801486496328152497881 ,	 -0.0401806515631939475952094653621 
	 0.998913390555575375628905021586 ,	 -0.0448400115856140146775032917503 
	 0.998279024547009896650706650689 ,	 -0.0564298139369490137084994785255 
	 0.997275385236712441638928794418 ,	 -0.0710003842235487070411181775853 
	 0.995915909017192735319667917793 ,	 -0.0869233027250646550498913711635 
	 0.993891532811372435674002190353 ,	 -0.106297135544347387536845417344 
	 0.991812053702520568521094901371 ,	 -0.123056422945539534197223474621 
	 0.98919,	-0.14135
	 0.98636,	-0.15877
	 0.98321,	-0.17611
	 0.97975,	-0.19336
	 0.97598,	-0.21051
	 0.97192,	-0.22756
	 0.96756,	-0.24449
	 0.96291,	-0.26132
	 0.95797,	-0.27802
	 0.94441,	-0.31922
	 0.92916,	-0.35957
	 0.91231,	-0.399
	 0.89391,	-0.43746
	 0.87404,	-0.47487
	 0.85276,	-0.51119
	 0.83015,	-0.54637
	 0.80628,	-0.58034
	 0.78121,	-0.61307
	 0.75504,	-0.64452
	 0.72782,	-0.67465
	 0.69964,	-0.70342
	 0.68522,	-0.71729
	 0.67058,	-0.73082
	 0.65575,	-0.74399
	 0.64072,	-0.75681
	 0.62551,	-0.76928
	 0.61014,	-0.78139
	 0.59459,	-0.79315
	 0.5789,	-0.80454
	 0.5471,	-0.82626
	 0.5148,	-0.84654
	 0.48208,	-0.86539
	 0.44902,	-0.88281
	 0.41567,	-0.89882
	 0.38212,	-0.91343
	 0.34842,	-0.92665
	 0.31463,	-0.93852
	 0.28082,	-0.94905
	 0.24704,	-0.95827
	 0.21335,	-0.96621
	 0.17978,	-0.9729
	 0.1464,	-0.97837
	 0.11324,	-0.98265
	 0.080353,	-0.98579
	 0.047761,	-0.9878
	 0.0090997,	-0.9888
	-0.029021,	-0.98831
	-0.066552,	-0.98639
	-0.10344,	-0.9831
	-0.13967,	-0.97851
	-0.17518,	-0.97268
	-0.20996,	-0.96568
	-0.24398,	-0.95756
	-0.27722,	-0.94838
	-0.30965,	-0.93821
	-0.34127,	-0.92709
	-0.37206,	-0.91508
	-0.40201,	-0.90224
	-0.43112,	-0.88861
	-0.45939,	-0.87425
	-0.48681,	-0.85921
	-0.51339,	-0.84352
	-0.53912,	-0.82723
	-0.56402,	-0.81038
	-0.58807,	-0.79302
	-0.6113,	-0.77517
	-0.63371,	-0.75689
	-0.65531,	-0.73819
	-0.6761,	-0.71912
	-0.6961,	-0.6997
	-0.71531,	-0.67996
	-0.73375,	-0.65994
	-0.75143,	-0.63965
	-0.76837,	-0.61913
	-0.78456,	-0.59839
	-0.80003,	-0.57746
	-0.81478,	-0.55636
	-0.82883,	-0.53512
	-0.84219,	-0.51374
	-0.85487,	-0.49225
	-0.86689,	-0.47066
	-0.87826,	-0.449
	-0.88898,	-0.42726
	-0.89907,	-0.40548
	-0.90855,	-0.38366
	-0.91742,	-0.36182
	-0.92569,	-0.33997
	-0.93338,	-0.31811
	-0.94049,	-0.29626
	-0.94704,	-0.27444
	-0.95304,	-0.25264
	-0.9585,	-0.23088
	-0.96342,	-0.20917
	-0.96782,	-0.18752
	-0.97171,	-0.16593
	-0.97509,	-0.14441
	-0.97798,	-0.12297
	-0.98038,	-0.10161
	-0.98231,	-0.080346
	-0.98376,	-0.059176
	-0.98475,	-0.038108
	-0.98538,	 0.0036975
	-0.98426,	 0.04503
	-0.98143,	 0.085851
	-0.97697,	 0.12612
	-0.97091,	 0.16582
	-0.9633,	 0.2049
	-0.95419,	 0.24335
	-0.94362,	 0.28112
	-0.93163,	 0.3182
	-0.91827,	 0.35457
	-0.90356,	 0.39018
	-0.88755,	 0.42502
	-0.87026,	 0.45907
	-0.85173,	 0.49229
	-0.83198,	 0.52467
	-0.81106,	 0.55617
	-0.78898,	 0.58678
	-0.76578,	 0.61646
	-0.74148,	 0.6452
	-0.71612,	 0.67295
	-0.68972,	 0.69971
	-0.6623,	 0.72543
	-0.63389,	 0.75009
	-0.60453,	 0.77366
	-0.57424,	 0.79611
	-0.54305,	 0.81741
	-0.51099,	 0.83753
	-0.47808,	 0.85644
	-0.44437,	 0.8741
	-0.40988,	 0.89049
	-0.37465,	 0.90556
	-0.33871,	 0.91928
	-0.3021,	 0.93163
	-0.26487,	 0.94255
	-0.22704,	 0.95203
	-0.18867,	 0.96001
	-0.14981,	 0.96647
	-0.11051,	 0.97137
	-0.070814,	 0.97465
	-0.03078,	 0.97626
	-0.010648,	 0.97642
	 0.0095588,	 0.97614
	 0.029841,	 0.97542
	 0.050199,	 0.97426
	 0.070629,	 0.97266
	 0.091121,	 0.97063
	 0.11165,	 0.96818
	 0.13222,	 0.96531
	 0.15279,	 0.962
	 0.17337,	 0.95825
	 0.19393,	 0.95405
	 0.21447,	 0.94939
	 0.23497,	 0.94427
	 0.25544,	 0.93868
	 0.27586,	 0.93261
	 0.29622,	 0.92607
	 0.31652,	 0.91905
	 0.33674,	 0.91154
	 0.35687,	 0.90355
	 0.3769,	 0.89506
	 0.39682,	 0.88609
	 0.41662,	 0.87661
	 0.43629,	 0.86665
	 0.45582,	 0.85618
	 0.47519,	 0.84521
	 0.49439,	 0.83374
	 0.5134,	 0.82177
	 0.53222,	 0.8093
	 0.55084,	 0.79632
	 0.56923,	 0.78284
	 0.58738,	 0.76885
	 0.60528,	 0.75436
	 0.62292,	 0.73936
	 0.64027,	 0.72386
	 0.65733,	 0.70786
	 0.67408,	 0.69136
	 0.69051,	 0.67437
	 0.70659,	 0.65688
	 0.72232,	 0.6389
	 0.73767,	 0.62043
	 0.75263,	 0.60147
	 0.76718,	 0.58204
	 0.78131,	 0.56213
	 0.795,	 0.54175
	 0.80824,	 0.52091
	 0.82099,	 0.49961
	 0.83325,	 0.47786
	 0.84501,	 0.45567
	 0.85623,	 0.43305
	 0.86691,	 0.41
	 0.87702,	 0.38654
	 0.88655,	 0.36268
	 0.89548,	 0.33842
	 0.9038,	 0.31378
	 0.91147,	 0.28878
	 0.91849,	 0.26342
	 0.92484,	 0.23772
	 0.9305,	 0.21169
	 0.93544,	 0.18536
	 0.93966,	 0.15873
	 0.94314,	 0.13183
	 0.94585,	 0.10467
	 0.94778,	 0.077275
	 0.94892,	 0.049663
	 0.94925,	 0.021855
	 0.94874,	-0.0061262
	 0.94739,	-0.034257
	 0.94518,	-0.062513
	 0.94209,	-0.09087
	 0.93811,	-0.1193
	 0.93323,	-0.14777
	 0.92743,	-0.17627
	 0.9207,	-0.20475
	 0.91302,	-0.2332
	 0.9044,	-0.26157
	 0.8948,	-0.28984
	 0.88424,	-0.31796
	 0.87269,	-0.34592
	 0.86016,	-0.37367
	 0.84662,	-0.40117
	 0.83209,	-0.42839
	 0.81656,	-0.45529
	 0.80002,	-0.48183
	 0.78247,	-0.50797
	 0.76391,	-0.53367
	 0.74435,	-0.55888
	 0.72379,	-0.58357
	 0.70224,	-0.60769
	 0.67969,	-0.63119
	 0.65617,	-0.65404
	 0.63168,	-0.67618
	 0.60624,	-0.69757
	 0.57986,	-0.71817
	 0.55256,	-0.73792
	 0.52435,	-0.75678
	 0.49527,	-0.77471
	 0.46534,	-0.79165
	 0.43458,	-0.80756
	 0.40302,	-0.82239
	 0.3707,	-0.8361
	 0.33765,	-0.84864
	 0.30391,	-0.85996
	 0.26952,	-0.87003
	 0.23453,	-0.87878
	 0.19897,	-0.8862
	 0.16291,	-0.89222
	 0.12639,	-0.89682
	 0.089471,	-0.89995
	 0.052205,	-0.90158
	 0.014658,	-0.90168
	-0.023108,	-0.9002
	-0.061026,	-0.89714
	-0.099025,	-0.89244
	-0.13703,	-0.8861
	-0.17497,	-0.8781
	-0.21278,	-0.86841
	-0.25036,	-0.85702
	-0.28764,	-0.84392
	-0.32453,	-0.82911
	-0.36095,	-0.81259
	-0.39681,	-0.79436
	-0.43203,	-0.77442
	-0.46651,	-0.75279
	-0.50017,	-0.72949
	-0.53291,	-0.70454
	-0.56464,	-0.67797
	-0.59528,	-0.64982
	-0.62473,	-0.62011
	-0.65291,	-0.5889
	-0.67972,	-0.55624
	-0.70508,	-0.52219
	-0.72892,	-0.4868
	-0.74023,	-0.46862
	-0.75113,	-0.45014
	-0.76161,	-0.43136
	-0.77166,	-0.41229
	-0.78126,	-0.39294
	-0.79042,	-0.37332
	-0.79911,	-0.35345
	-0.80734,	-0.33333
	-0.81508,	-0.31297
	-0.82235,	-0.29239
	-0.82912,	-0.27159
	-0.83539,	-0.2506
	-0.84115,	-0.22942
	-0.8464,	-0.20806
	-0.85113,	-0.18654
	-0.85533,	-0.16488
	-0.859,	-0.14308
	-0.86214,	-0.12115
	-0.86473,	-0.09913
	-0.86677,	-0.077007
	-0.86826,	-0.054806
	-0.8692,	-0.03254
	-0.86958,	-0.010225
	-0.8694,	 0.012125
	-0.86865,	 0.034495
	-0.86734,	 0.056868
	-0.86547,	 0.079231
	-0.86302,	 0.10156
	-0.86,	 0.12386
	-0.85642,	 0.14609
	-0.85226,	 0.16826
	-0.84754,	 0.19034
	-0.84225,	 0.21231
	-0.8364,	 0.23416
	-0.82998,	 0.25588
	-0.823,	 0.27744
	-0.81546,	 0.29884
	-0.80737,	 0.32006
	-0.79872,	 0.34108
	-0.78954,	 0.36188
	-0.77981,	 0.38246
	-0.76954,	 0.40279
	-0.75874,	 0.42287
	-0.74742,	 0.44267
	-0.73559,	 0.46218
	-0.72324,	 0.48139
	-0.71039,	 0.50029
	-0.69705,	 0.51885
	-0.68322,	 0.53707
	-0.66892,	 0.55492
	-0.65414,	 0.57241
	-0.63891,	 0.58951
	-0.62323,	 0.60621
	-0.60712,	 0.6225
	-0.59057,	 0.63837
	-0.57361,	 0.65381
	-0.55625,	 0.66879
	-0.53849,	 0.68332
	-0.52036,	 0.69737
	-0.50185,	 0.71095
	-0.48299,	 0.72403
	-0.46379,	 0.73662
	-0.44425,	 0.74869
	-0.42441,	 0.76024
	-0.40426,	 0.77127
	-0.38382,	 0.78175
	-0.3631,	 0.79169
	-0.34213,	 0.80108
	-0.32092,	 0.8099
	-0.29947,	 0.81816
	-0.27781,	 0.82584
	-0.25595,	 0.83294
	-0.2339,	 0.83945
	-0.21169,	 0.84536
	-0.18932,	 0.85068
	-0.16681,	 0.85539
	-0.14418,	 0.8595
	-0.12145,	 0.86299
	-0.09863,	 0.86587
	-0.075732,	 0.86813
	-0.052777,	 0.86977
	-0.02978,	 0.87078
	-0.0067578,	 0.87116
	 0.016273,	 0.87092
	 0.039295,	 0.87004
	 0.062294,	 0.86853
	 0.085251,	 0.86639
	 0.10815,	 0.86362
	 0.13097,	 0.86021
	 0.1537,	 0.85617
	 0.17633,	 0.8515
	 0.19883,	 0.84619
	 0.22119,	 0.84025
	 0.2434,	 0.83369
	 0.26542,	 0.82649
	 0.28726,	 0.81867
	 0.30888,	 0.81022
	 0.33028,	 0.80116
	 0.35143,	 0.79147
	 0.37233,	 0.78117
	 0.39294,	 0.77026
	 0.41326,	 0.75875
	 0.43327,	 0.74663
	 0.45295,	 0.73391
	 0.47864,	 0.71603
	 0.50367,	 0.6971
	 0.52799,	 0.67715
	 0.55157,	 0.65618
	 0.57435,	 0.63421
	 0.5963,	 0.61126
	 0.61736,	 0.58735
	 0.6375,	 0.56249
	 0.65667,	 0.53671
	 0.67481,	 0.51004
	 0.69188,	 0.48248
	 0.70784,	 0.45408
	 0.72262,	 0.42486
	 0.73619,	 0.39485
	 0.74848,	 0.36409
	 0.75944,	 0.33261
	 0.76902,	 0.30045
	 0.77716,	 0.26766
	 0.78381,	 0.23428
	 0.78891,	 0.20036
	 0.7924,	 0.16596
	 0.79422,	 0.13113
	 0.79431,	 0.095959
	 0.79261,	 0.060494
	 0.79107,	 0.04268
	 0.78906,	 0.024824
	 0.78658,	 0.0069369
	 0.78361,	-0.010969
	 0.78015,	-0.028883
	 0.77619,	-0.046792
	 0.77173,	-0.064683
	 0.76675,	-0.082544
	 0.76126,	-0.10036
	 0.75524,	-0.11811
	 0.74869,	-0.1358
	 0.74161,	-0.15339
	 0.73398,	-0.17088
	 0.7258,	-0.18824
	 0.71707,	-0.20547
	 0.70778,	-0.22253
	 0.69794,	-0.23942
	 0.68753,	-0.25612
	 0.67655,	-0.27259
	 0.665,	-0.28883
	 0.65288,	-0.30482
	 0.64019,	-0.32052
	 0.62692,	-0.33592
	 0.61309,	-0.35099
	 0.59868,	-0.36571
	 0.58371,	-0.38006
	 0.56818,	-0.394
	 0.55209,	-0.40753
	 0.53544,	-0.4206
	 0.51825,	-0.43319
	 0.50052,	-0.44528
	 0.48227,	-0.45683
	 0.4635,	-0.46783
	 0.44423,	-0.47824
	 0.42447,	-0.48804
	 0.40424,	-0.49719
	 0.38356,	-0.50567
	 0.36244,	-0.51345
	 0.34091,	-0.52051
	 0.31899,	-0.52681
	 0.2967,	-0.53234
	 0.27408,	-0.53706
	 0.25115,	-0.54096
	 0.22795,	-0.54399
	 0.2045,	-0.54616
	 0.18084,	-0.54743
	 0.15701,	-0.54777
	 0.13304,	-0.54719
END
BEGIN
	 -3.99220601000000016699093459207e-15 ,	 0 
	 -3.98465982000000037400955656844e-15 ,	 1.77685408000000014071276799054e-11 
	 -3.93825597000000015542617313528e-15 ,	 1.77685415000000005187436245159e-10 
	 3.93348547999999997089389432737e-16 ,	 1.77685416000000004472231754794e-09 
	 4.33048562000000001479691666484e-13 ,	 1.77685412999999995244111803284e-08 
	 6.88668740000000032848413657441e-13 ,	 2.2369267900000001018955526704e-08 
	 1.09378955999999995531722831965e-12 ,	 2.81612392999999983707336731779e-08 
	 1.73586709000000001023269042744e-12 ,	 3.54528988000000007193281907191e-08 
	 2.75348928000000004228137608187e-12 ,	 4.46325533999999999493175440249e-08 
	 4.36629985999999968145564801264e-12 ,	 5.61890518000000010460885245707e-08 
