CITIFILE A.01.01
#Momentum: B.12.070 (*) built: Feb 13 2020 
#Momentum Date and Time: Tue Aug 16 05:58:43 2022

NAME Momentum.SP

#  mode: MW    reference: S_50

#eesof Port[1] P1
#eesof Port[2] P2

CONSTANT NBR_OF_PORTS 2

CONSTANT NORMALIZATION 1

VAR freq MAG 493

DATA S[1,1] RI
DATA S[1,2] RI
DATA S[2,1] RI
DATA S[2,2] RI
DATA PORTZ[1] RI
DATA PORTZ[2] RI

VAR_LIST_BEGIN
	 0
	 9.171835597
	 91.71835597
	 917.1835597
	 9171.835597
	 11546.65691
	 14536.3798
	 18300.21793
	 23038.60939
	 29003.89081
	 36513.73518
	 45968.0691
	 57870.37032
	 72854.47979
	 91718.35597
	 115466.5691
	 145363.798
	 183002.1793
	 230386.0939
	 290038.9081
	 365137.3518
	 459680.691
	 578703.7032
	 728544.7979
	 917183.5597
	 1154665.691
	 1453637.98
	 1830021.793
	 2303860.939
	 2900389.081
	 3651373.518
	 4596806.91
	 5787037.032
	 6543113.071
	 7302747.037
	 9193613.821
	 11574074.06
	 14180658.34
	 17361111.1
	 20121785.79
	 23148148.13
	 26437859.89
	 29879244.92
	 37615740.71
	 44363337.03
	 52083333.3
	 59216155.65
	 66550925.88
	 81018518.47
	 95486111.05
	 109953703.6
	 124421296.2
	 138888888.8
	 153356481.4
	 167824074
	 182291666.6
	 196759259.2
	 211226851.7
	 225694444.3
	 240162036.9
	 254629629.5
	 272714120.2
	 290798611
	 308883101.7
	 326967592.4
	 345052083.2
	 363136573.9
	 381221064.6
	 399305555.4
	 417390046.1
	 435474536.8
	 453559027.6
	 471643518.3
	 489728009
	 507812499.8
	 525896990.5
	 543981481.2
	 562065972
	 580150462.7
	 598234953.5
	 616319444.2
	 634403934.9
	 652488425.7
	 670572916.4
	 688657407.1
	 706741897.9
	 724826388.6
	 742910879.3
	 760995370.1
	 779079860.8
	 797164351.5
	 815248842.3
	 833333333
	 859374999.7
	 885416666.3
	 911458333
	 937499999.6
	 963541666.3
	 989583332.9
	 1015625000
	 1041666666
	 1067708333
	 1093750000
	 1119791666
	 1145833333
	 1171875000
	 1197916666
	 1223958333
	 1250000000
	 1276041666
	 1302083333
	 1328124999
	 1354166666
	 1380208333
	 1406249999
	 1432291666
	 1458333333
	 1484374999
	 1510416666
	 1536458333
	 1562499999
	 1588541666
	 1614583333
	 1640624999
	 1666666666
	 1692708333
	 1718749999
	 1744791666
	 1770833333
	 1796874999
	 1822916666
	 1848958333
	 1875000000
	 1901041666
	 1927083333
	 1953125000
	 1979166666
	 2005208333
	 2031250000
	 2057291666
	 2083333333
	 2109375000
	 2135416666
	 2161458333
	 2187500000
	 2213541666
	 2239583333
	 2265625000
	 2291666666
	 2317708333
	 2343750000
	 2369791667
	 2395833333
	 2421875000
	 2447916667
	 2473958333
	 2500000000
	 2526041667
	 2552083333
	 2578125000
	 2604166667
	 2630208333
	 2656250000
	 2682291667
	 2708333333
	 2734375000
	 2760416667
	 2786458333
	 2812500000
	 2838541667
	 2864583333
	 2890625000
	 2916666666
	 2942708333
	 2968750000
	 2994791666
	 3020833333
	 3046875000
	 3072916666
	 3098958333
	 3125000000
	 3151041666
	 3177083333
	 3203125000
	 3229166666
	 3255208333
	 3281250000
	 3307291666
	 3333333333
	 3359375000
	 3385416666
	 3411458333
	 3437500000
	 3463541666
	 3489583333
	 3515625000
	 3541666666
	 3567708333
	 3593750000
	 3619791667
	 3645833333
	 3671875000
	 3697916667
	 3723958333
	 3750000000
	 3776041667
	 3802083333
	 3828125000
	 3854166667
	 3880208333
	 3906250000
	 3932291667
	 3958333334
	 3984375000
	 4010416667
	 4036458334
	 4062500000
	 4088541667
	 4114583334
	 4140625000
	 4166666667
	 4192708334
	 4218750000
	 4244791667
	 4270833334
	 4296875000
	 4322916667
	 4348958334
	 4375000000
	 4401041667
	 4427083334
	 4453125000
	 4479166667
	 4505208334
	 4531250000
	 4557291667
	 4583333334
	 4609375000
	 4635416667
	 4661458333
	 4687500000
	 4713541667
	 4739583333
	 4765625000
	 4791666667
	 4817708333
	 4843750000
	 4869791667
	 4895833333
	 4921875000
	 4947916667
	 4973958333
	 5000000000
	 5026041667
	 5052083333
	 5078125000
	 5104166667
	 5130208333
	 5156250000
	 5182291667
	 5208333333
	 5234375000
	 5260416667
	 5286458333
	 5312500000
	 5338541667
	 5364583333
	 5390625000
	 5416666667
	 5442708333
	 5468750000
	 5494791667
	 5520833333
	 5546875000
	 5572916667
	 5598958333
	 5625000000
	 5651041667
	 5677083333
	 5703125000
	 5729166667
	 5755208333
	 5781250000
	 5807291667
	 5833333334
	 5859375000
	 5885416667
	 5911458334
	 5937500000
	 5963541667
	 5989583334
	 6015625000
	 6041666667
	 6067708334
	 6093750000
	 6119791667
	 6145833334
	 6171875000
	 6197916667
	 6223958334
	 6250000000
	 6276041667
	 6302083334
	 6328125000
	 6354166667
	 6380208334
	 6406250000
	 6432291667
	 6458333334
	 6484375000
	 6510416667
	 6536458334
	 6562500000
	 6588541667
	 6614583334
	 6640625000
	 6666666667
	 6689814815
	 6712962963
	 6736111111
	 6759259260
	 6782407408
	 6805555556
	 6828703704
	 6851851852
	 6875000000
	 6898148149
	 6921296297
	 6944444445
	 6967592593
	 6990740741
	 7013888889
	 7037037038
	 7060185186
	 7083333334
	 7106481482
	 7129629630
	 7152777778
	 7175925926
	 7199074075
	 7222222223
	 7245370371
	 7268518519
	 7291666667
	 7314814815
	 7337962964
	 7361111112
	 7384259260
	 7407407408
	 7430555556
	 7453703704
	 7476851852
	 7500000000
	 7523148149
	 7546296297
	 7569444445
	 7592592593
	 7615740741
	 7638888889
	 7662037037
	 7685185186
	 7708333334
	 7731481482
	 7754629630
	 7777777778
	 7800925926
	 7824074074
	 7847222222
	 7870370370
	 7893518519
	 7916666667
	 7939814815
	 7962962963
	 7986111111
	 8009259259
	 8032407407
	 8055555556
	 8078703704
	 8101851852
	 8125000000
	 8148148148
	 8171296296
	 8194444444
	 8217592592
	 8240740741
	 8263888889
	 8287037037
	 8310185185
	 8333333333
	 8356481481
	 8379629630
	 8402777778
	 8425925926
	 8449074074
	 8472222222
	 8495370370
	 8518518518
	 8541666667
	 8564814815
	 8587962963
	 8611111111
	 8634259259
	 8657407407
	 8680555556
	 8703703704
	 8726851852
	 8750000000
	 8773148148
	 8796296296
	 8819444445
	 8842592593
	 8865740741
	 8888888889
	 8906250000
	 8923611111
	 8940972222
	 8958333333
	 8975694444
	 8993055556
	 9010416667
	 9027777778
	 9045138889
	 9062500000
	 9079861111
	 9097222222
	 9114583333
	 9131944444
	 9149305555
	 9166666666
	 9184027778
	 9201388889
	 9218750000
	 9236111111
	 9253472222
	 9270833333
	 9288194444
	 9305555555
	 9322916666
	 9340277777
	 9357638889
	 9375000000
	 9392361111
	 9409722222
	 9427083333
	 9444444444
	 9456018518
	 9467592592
	 9479166666
	 9490740740
	 9502314814
	 9513888889
	 9525462963
	 9537037037
	 9548611111
	 9560185185
	 9571759259
	 9583333333
	 9594907407
	 9606481481
	 9618055555
	 9629629630
	 9641203704
	 9652777778
	 9664351852
	 9675925926
	 9687500000
	 9699074074
	 9710648148
	 9722222222
	 9733796296
	 9745370370
	 9756944445
	 9768518519
	 9780092593
	 9791666667
	 9803240741
	 9814814815
	 9826388889
	 9837962963
	 9849537037
	 9861111111
	 9872685185
	 9884259259
	 9895833333
	 9907407408
	 9918981482
	 9930555556
	 9942129630
	 9953703704
	 9965277778
	 9976851852
	 9988425926
	 1e+10
VAR_LIST_END

BEGIN
	 9.50790893000000005225516575003e-05 ,	 -0 
	 9.50790894000000055439822399528e-05 ,	 5.87003466999999975621437196447e-09 
	 9.5079095800000001654887771263e-05 ,	 5.87003469000000025889816500282e-08 
	 9.50797417999999953464387858482e-05 ,	 5.87002864999999965700864211493e-07 
	 9.51443300000000052527027172289e-05 ,	 5.86942057999999977245184079599e-06 
	 9.51824835000000037685610743132e-05 ,	 7.38871052000000013147999397556e-06 
	 9.52429446000000059060000556777e-05 ,	 9.30093328999999959796549098279e-06 
	 9.53387487000000017180537104089e-05 ,	 1.17073817000000000295789961968e-05 
	 9.54905367999999945194042338947e-05 ,	 1.47351308000000005138515821179e-05 
	 9.57309764999999943850886308105e-05 ,	 1.85432723999999989647306797291e-05 
	 9.61117258000000046751915006027e-05 ,	 2.33303264000000001084783596284e-05 
	 9.67143658000000006535676333463e-05 ,	 2.93427055999999994320790591695e-05 
	 9.7667464000000001143192429609e-05 ,	 3.6883662400000003119254071704e-05 
	 9.91729652999999997456392897277e-05 ,	 4.63211956000000022772022933992e-05 
	 0.000101546404000000005038439887528 ,	 5.80914836000000008747225221928e-05 
	 0.000105276678 ,	 7.26907295e-05 
	 0.000111111246 ,	 9.06416397e-05 
	 0.000120168671 ,	 0.000112409706 
	 0.000134066022 ,	 0.000138229047 
	 0.00015501227 ,	 0.000167784338 
	 0.000185748311 ,	 0.000199708886 
	 0.000229122035 ,	 0.000230955129 
	 0.000287072815 ,	 0.00025633757 
	 0.000359093343 ,	 0.000268867178 
	 0.000440965671 ,	 0.000261444392 
	 0.000525126951 ,	 0.000229482583 
	 0.000603170224 ,	 0.000172660284 
	 0.000668963715 ,	 9.42190032e-05 
	 0.000720197199 ,	 -1.62894697e-06 
	 0.000757818855 ,	 -0.000112198104 
	 0.000784504106 ,	 -0.00023753039 
	 0.000803349269 ,	 -0.000380483135 
	 0.000817202973 ,	 -0.000546398987 
	 0.000823409528 ,	 -0.000646792521 
	 0.00082862696 ,	 -0.00074506145 
	 0.000839598345 ,	 -0.000982305938 
	 0.000852450836 ,	 -0.00127228855 
	 0.00086738099 ,	 -0.00158398526 
	 0.000887891255 ,	 -0.00195992525 
	 0.000907988796 ,	 -0.00228403663 
	 0.000932435241 ,	 -0.00263794673 
	 0.000961663222 ,	 -0.00302162933 
	 0.000994844633 ,	 -0.00342229993 
	 0.00107682076 ,	 -0.00432169896 
	 0.00115307411 ,	 -0.00510548231 
	 0.00124057925 ,	 -0.00600192496 
	 0.00131713695 ,	 -0.00682992614 
	 0.00138737125 ,	 -0.00768092913 
	 0.0014875,	-0.0093571
	 0.001521,	-0.011028
	 0.001477,	-0.012691
	 0.0013512,	-0.014344
	 0.0011437,	-0.015985
	 0.00085689,	-0.017613
	 0.00049412,	-0.019227
	 5.9192e-05,	-0.020826
	-0.00044419,	-0.022407
	-0.0010126,	-0.02397
	-0.001643,	-0.025514
	-0.0023325,	-0.027038
	-0.0030789,	-0.028541
	-0.0040885,	-0.030387
	-0.0051799,	-0.032196
	-0.0063498,	-0.033966
	-0.0075953,	-0.035694
	-0.0089138,	-0.037378
	-0.010303,	-0.039016
	-0.01176,	-0.040607
	-0.013284,	-0.042148
	-0.014872,	-0.043637
	-0.016521,	-0.045072
	-0.018231,	-0.046452
	-0.019998,	-0.047775
	-0.021821,	-0.049039
	-0.023699,	-0.050242
	-0.025628,	-0.051383
	-0.027606,	-0.05246
	-0.029632,	-0.053471
	-0.031704,	-0.054416
	-0.033819,	-0.055292
	-0.035976,	-0.056099
	-0.038171,	-0.056835
	-0.040403,	-0.057499
	-0.04267,	-0.058089
	-0.044969,	-0.058606
	-0.047298,	-0.059047
	-0.049655,	-0.059412
	-0.052037,	-0.059699
	-0.054443,	-0.059909
	-0.056869,	-0.060041
	-0.059313,	-0.060093
	-0.061773,	-0.060065
	-0.064247,	-0.059957
	-0.067828,	-0.059659
	-0.071425,	-0.059193
	-0.075031,	-0.058557
	-0.078639,	-0.057752
	-0.082241,	-0.056777
	-0.08583,	-0.055632
	-0.0894,	-0.054318
	-0.092943,	-0.052835
	-0.096452,	-0.051185
	-0.099921,	-0.049369
	-0.10334,	-0.047388
	-0.10671,	-0.045244
	-0.11001,	-0.04294
	-0.11326,	-0.040478
	-0.11643,	-0.037859
	-0.11952,	-0.035088
	-0.12252,	-0.032166
	-0.12544,	-0.029098
	-0.12826,	-0.025887
	-0.13098,	-0.022535
	-0.13359,	-0.019048
	-0.13609,	-0.015428
	-0.13848,	-0.011679
	-0.14074,	-0.0078066
	-0.14288,	-0.0038141
	-0.14489,	 0.00029405
	-0.14677,	 0.0045134
	-0.14851,	 0.0088395
	-0.15011,	 0.013268
	-0.15157,	 0.017793
	-0.15288,	 0.022412
	-0.15404,	 0.027118
	-0.15504,	 0.031908
	-0.1559,	 0.036777
	-0.15659,	 0.041719
	-0.15712,	 0.04673
	-0.15749,	 0.051805
	-0.15769,	 0.056939
	-0.15773,	 0.062128
	-0.15759,	 0.067367
	-0.15729,	 0.07265
	-0.15681,	 0.077974
	-0.15616,	 0.083333
	-0.15534,	 0.088723
	-0.15434,	 0.094138
	-0.15316,	 0.099575
	-0.1518,	 0.10502
	-0.15026,	 0.11049
	-0.14855,	 0.11596
	-0.14664,	 0.12143
	-0.14456,	 0.12691
	-0.1423,	 0.13237
	-0.13985,	 0.13783
	-0.13721,	 0.14326
	-0.13439,	 0.14868
	-0.13138,	 0.15407
	-0.12819,	 0.15943
	-0.12481,	 0.16476
	-0.12124,	 0.17004
	-0.11749,	 0.17528
	-0.11354,	 0.18047
	-0.10941,	 0.18561
	-0.10509,	 0.19068
	-0.10058,	 0.19569
	-0.095881,	 0.20063
	-0.090991,	 0.2055
	-0.085912,	 0.21028
	-0.080644,	 0.21498
	-0.075186,	 0.21959
	-0.069539,	 0.22409
	-0.063704,	 0.2285
	-0.057681,	 0.2328
	-0.051469,	 0.23698
	-0.045071,	 0.24103
	-0.038487,	 0.24497
	-0.031717,	 0.24876
	-0.024764,	 0.25242
	-0.017627,	 0.25593
	-0.01031,	 0.25929
	-0.0028127,	 0.26248
	 0.004862,	 0.26551
	 0.012712,	 0.26836
	 0.020735,	 0.27103
	 0.028929,	 0.27352
	 0.03729,	 0.2758
	 0.045815,	 0.27788
	 0.054502,	 0.27975
	 0.063345,	 0.2814
	 0.072341,	 0.28283
	 0.081485,	 0.28401
	 0.090773,	 0.28496
	 0.10019,	 0.28566
	 0.10975,	 0.2861
	 0.11944,	 0.28627
	 0.12924,	 0.28617
	 0.13916,	 0.28579
	 0.14919,	 0.28512
	 0.15931,	 0.28415
	 0.16952,	 0.28288
	 0.17982,	 0.2813
	 0.19019,	 0.27941
	 0.20062,	 0.27719
	 0.21111,	 0.27464
	 0.22164,	 0.27175
	 0.2322,	 0.26852
	 0.24278,	 0.26495
	 0.25338,	 0.26102
	 0.26397,	 0.25673
	 0.27455,	 0.25208
	 0.2851,	 0.24706
	 0.29561,	 0.24167
	 0.30607,	 0.23591
	 0.31645,	 0.22978
	 0.32676,	 0.22326
	 0.33697,	 0.21637
	 0.34707,	 0.2091
	 0.35705,	 0.20145
	 0.36688,	 0.19342
	 0.37655,	 0.18502
	 0.38606,	 0.17623
	 0.39538,	 0.16708
	 0.40449,	 0.15755
	 0.41339,	 0.14766
	 0.42205,	 0.13741
	 0.43047,	 0.1268
	 0.43862,	 0.11585
	 0.44649,	 0.10455
	 0.45406,	 0.092919
	 0.46133,	 0.080961
	 0.46827,	 0.068687
	 0.47488,	 0.056106
	 0.48113,	 0.04323
	 0.48701,	 0.03007
	 0.49252,	 0.016637
	 0.49764,	 0.0029446
	 0.50235,	-0.010994
	 0.50666,	-0.025165
	 0.51053,	-0.039553
	 0.51397,	-0.054145
	 0.51697,	-0.068924
	 0.51951,	-0.083875
	 0.52159,	-0.098981
	 0.52321,	-0.11422
	 0.52434,	-0.12959
	 0.525,	-0.14505
	 0.52517,	-0.16061
	 0.52484,	-0.17624
	 0.52402,	-0.19191
	 0.52271,	-0.20762
	 0.52089,	-0.22334
	 0.51857,	-0.23906
	 0.51576,	-0.25475
	 0.51244,	-0.27041
	 0.50861,	-0.286
	 0.50429,	-0.30152
	 0.49948,	-0.31694
	 0.49417,	-0.33225
	 0.48837,	-0.34743
	 0.48209,	-0.36247
	 0.47533,	-0.37734
	 0.46809,	-0.39202
	 0.46039,	-0.40651
	 0.45223,	-0.42079
	 0.44362,	-0.43484
	 0.43456,	-0.44864
	 0.42507,	-0.46219
	 0.41516,	-0.47546
	 0.40483,	-0.48844
	 0.39409,	-0.50112
	 0.38296,	-0.51349
	 0.37144,	-0.52553
	 0.35955,	-0.53723
	 0.3473,	-0.54858
	 0.3347,	-0.55957
	 0.32177,	-0.57019
	 0.30851,	-0.58043
	 0.29493,	-0.59027
	 0.28106,	-0.59971
	 0.26691,	-0.60875
	 0.25248,	-0.61736
	 0.23779,	-0.62555
	 0.22285,	-0.63331
	 0.20768,	-0.64062
	 0.1923,	-0.64749
	 0.17671,	-0.65391
	 0.16093,	-0.65987
	 0.14497,	-0.66537
	 0.12885,	-0.67041
	 0.11257,	-0.67497
	 0.096174,	-0.67905
	 0.079646,	-0.68266
	 0.063011,	-0.68578
	 0.046283,	-0.68842
	 0.029474,	-0.69058
	 0.012601,	-0.69224
	-0.004325,	-0.69342
	-0.021289,	-0.6941
	-0.038277,	-0.69429
	-0.055275,	-0.69399
	-0.07227,	-0.69319
	-0.089249,	-0.6919
	-0.10619,	-0.69011
	-0.12309,	-0.68783
	-0.13994,	-0.68506
	-0.15672,	-0.6818
	-0.1734,	-0.67804
	-0.19,	-0.6738
	-0.20648,	-0.66906
	-0.22283,	-0.66385
	-0.23904,	-0.65815
	-0.25511,	-0.65197
	-0.271,	-0.64531
	-0.28672,	-0.63817
	-0.30225,	-0.63057
	-0.31757,	-0.6225
	-0.33267,	-0.61396
	-0.34753,	-0.60496
	-0.36215,	-0.59551
	-0.37651,	-0.58561
	-0.3906,	-0.57526
	-0.40439,	-0.56447
	-0.41789,	-0.55324
	-0.43107,	-0.54159
	-0.44392,	-0.52952
	-0.45506,	-0.51843
	-0.46592,	-0.50702
	-0.47648,	-0.4953
	-0.48675,	-0.48326
	-0.4967,	-0.47091
	-0.50634,	-0.45827
	-0.51565,	-0.44532
	-0.52461,	-0.43209
	-0.53323,	-0.41858
	-0.54149,	-0.40479
	-0.54938,	-0.39074
	-0.55689,	-0.37642
	-0.56401,	-0.36186
	-0.57073,	-0.34705
	-0.57704,	-0.33201
	-0.58293,	-0.31675
	-0.5884,	-0.30128
	-0.59342,	-0.2856
	-0.598,	-0.26973
	-0.60212,	-0.25367
	-0.60578,	-0.23745
	-0.60896,	-0.22107
	-0.61166,	-0.20455
	-0.61386,	-0.18789
	-0.61557,	-0.17112
	-0.61676,	-0.15424
	-0.61744,	-0.13728
	-0.61759,	-0.12024
	-0.61721,	-0.10315
	-0.61629,	-0.086025
	-0.61483,	-0.06887
	-0.61281,	-0.051711
	-0.61025,	-0.034564
	-0.60712,	-0.01745
	-0.60343,	-0.00038673
	-0.59917,	 0.016605
	-0.59434,	 0.033505
	-0.58895,	 0.050293
	-0.58298,	 0.066946
	-0.57644,	 0.083445
	-0.56933,	 0.099766
	-0.56165,	 0.11588
	-0.55341,	 0.13178
	-0.54461,	 0.14744
	-0.53525,	 0.16282
	-0.52535,	 0.17792
	-0.5149,	 0.1927
	-0.50393,	 0.20715
	-0.49243,	 0.22124
	-0.48042,	 0.23495
	-0.46792,	 0.24825
	-0.45494,	 0.26113
	-0.44148,	 0.27356
	-0.42758,	 0.28553
	-0.41325,	 0.29702
	-0.3985,	 0.308
	-0.38336,	 0.31846
	-0.36784,	 0.32838
	-0.35198,	 0.33775
	-0.33579,	 0.34656
	-0.31929,	 0.35478
	-0.30252,	 0.36242
	-0.28549,	 0.36945
	-0.26823,	 0.37588
	-0.25077,	 0.3817
	-0.23313,	 0.38689
	-0.21533,	 0.39147
	-0.19741,	 0.39542
	-0.17939,	 0.39875
	-0.16129,	 0.40145
	-0.14313,	 0.40354
	-0.12494,	 0.40501
	-0.10674,	 0.40588
	-0.088551,	 0.40614
	-0.070389,	 0.40581
	-0.052275,	 0.40489
	-0.034223,	 0.40339
	-0.01625,	 0.40133
	 0.0016316,	 0.39871
	 0.01941,	 0.39555
	 0.037074,	 0.39184
	 0.054617,	 0.38761
	 0.07203,	 0.38286
	 0.089308,	 0.37759
	 0.10644,	 0.37182
	 0.12343,	 0.36554
	 0.14028,	 0.35877
	 0.15698,	 0.35149
	 0.17353,	 0.34372
	 0.18992,	 0.33545
	 0.20616,	 0.32668
	 0.22224,	 0.31739
	 0.23815,	 0.30759
	 0.2539,	 0.29725
	 0.26947,	 0.28637
	 0.28486,	 0.27493
	 0.29627,	 0.26598
	 0.30756,	 0.25669
	 0.31873,	 0.24707
	 0.32976,	 0.2371
	 0.34065,	 0.22678
	 0.35139,	 0.2161
	 0.36197,	 0.20505
	 0.37236,	 0.19362
	 0.38257,	 0.18181
	 0.39256,	 0.16961
	 0.40233,	 0.15701
	 0.41185,	 0.14401
	 0.42111,	 0.1306
	 0.43008,	 0.11678
	 0.43874,	 0.10255
	 0.44707,	 0.087914
	 0.45504,	 0.072861
	 0.46264,	 0.0574
	 0.46982,	 0.041534
	 0.47657,	 0.025272
	 0.48285,	 0.0086205
	 0.48865,	-0.0084086
	 0.49392,	-0.025802
	 0.49865,	-0.043546
	 0.50281,	-0.061621
	 0.50637,	-0.080007
	 0.50931,	-0.098683
	 0.51159,	-0.11762
	 0.5132,	-0.1368
	 0.51411,	-0.15618
	 0.51431,	-0.17575
	 0.51377,	-0.19546
	 0.51299,	-0.20866
	 0.51188,	-0.2219
	 0.51042,	-0.23517
	 0.50862,	-0.24846
	 0.50647,	-0.26175
	 0.50397,	-0.27503
	 0.50111,	-0.2883
	 0.4979,	-0.30153
	 0.49433,	-0.31472
	 0.4904,	-0.32785
	 0.48612,	-0.34092
	 0.48149,	-0.35391
	 0.4765,	-0.3668
	 0.47116,	-0.3796
	 0.46547,	-0.39227
	 0.45943,	-0.40482
	 0.45305,	-0.41722
	 0.44632,	-0.42948
	 0.43927,	-0.44157
	 0.43188,	-0.45348
	 0.42417,	-0.46521
	 0.41614,	-0.47674
	 0.40779,	-0.48806
	 0.39914,	-0.49917
	 0.3902,	-0.51004
	 0.38096,	-0.52068
	 0.37143,	-0.53107
	 0.36163,	-0.54121
	 0.35157,	-0.55108
	 0.34124,	-0.56067
	 0.33067,	-0.56999
	 0.31986,	-0.57901
	 0.30881,	-0.58774
	 0.29755,	-0.59617
	 0.28607,	-0.60428
	 0.2744,	-0.61209
	 0.26253,	-0.61957
	 0.25049,	-0.62673
	 0.23827,	-0.63355
	 0.2259,	-0.64005
	 0.21337,	-0.6462
	 0.20071,	-0.65202
	 0.18792,	-0.65748
	 0.17502,	-0.66261
	 0.16201,	-0.66738
	 0.1489,	-0.6718
	 0.13571,	-0.67587
	 0.12245,	-0.67958
END
BEGIN
	 0.999904920910671068945418937801 ,	 -0 
	 0.999904920910664074540363799315 ,	 -9.96057473306999341389200708363e-09 
	 0.999904920910626993091341319086 ,	 -9.96057474417222366014357248787e-08 
	 0.999904920906926841794870597369 ,	 -9.96057474156146482879847781078e-07 
	 0.999904920536935692965130328957 ,	 -9.96057463581966062715622456381e-06 
	 0.99990492031834499186970788287 ,	 -1.25396204486774576203345077374e-05 
	 0.999904919971901007258452409587 ,	 -1.57864466841092440652083439545e-05 
	 0.999904919422824445263131565298 ,	 -1.9873958589818746522936976362e-05 
	 0.999904918552598109826590189186 ,	 -2.50198308970389290961655603951e-05 
	 0.999904917173383478434800508694 ,	 -3.14980997071240970131000835863e-05 
	 0.999904914987477355658995747945 ,	 -3.96537557362259401871895647673e-05 
	 0.999904911523056605382464567811 ,	 -4.99211159625369618741963506636e-05 
	 0.999904906032336504573265756335 ,	 -6.28469518798692797223459649558e-05 
	 0.99990489733017506868151258459 ,	 -7.91196056410823148064004328717e-05 
	 0.999904883538282773791650015482 ,	 -9.96056439335375742860634318276e-05 
	 0.999904861679874246149779537518 ,	 -0.000125396000132726136155891794033 
	 0.999904827037297772029944553651 ,	 -0.000157864059120763587651392612088 
	 0.999904772134193819965730654076 ,	 -0.000198738772401747983142872300277 
	 0.999904685122855241274919535499 ,	 -0.000250196685895479574435196212789 
	 0.999904547229768181360043399764 ,	 -0.000314977758839893838549439664121 
	 0.999904328710551459913347116526 ,	 -0.000396531096931869095345568609901 
	 0.999903982447720829362936001417 ,	 -0.000499198271592051975864556823126 
	 0.999903433825800380674309053575 ,	 -0.000628443810795169081895306106844 
