CITIFILE A.01.01
#Momentum: B.12.070 (*) built: Feb 13 2020 
#Momentum Date and Time: Tue Aug 16 04:13:00 2022

NAME Momentum.SP

#  mode: MW    reference: S_50

#eesof Port[1] P1
#eesof Port[2] P2

CONSTANT NBR_OF_PORTS 2

CONSTANT NORMALIZATION 1

VAR freq MAG 440

DATA S[1,1] RI
DATA S[1,2] RI
DATA S[2,1] RI
DATA S[2,2] RI
DATA PORTZ[1] RI
DATA PORTZ[2] RI

VAR_LIST_BEGIN
	 0
	 9.760116233
	 97.60116233
	 976.0116233
	 9760.116233
	 12287.25835
	 15468.74178
	 19473.99211
	 24516.30354
	 30864.19752
	 38855.72258
	 48916.45655
	 61582.1702
	 77527.35898
	 97601.16233
	 122872.5835
	 154687.4178
	 194739.9211
	 245163.0354
	 308641.9752
	 388557.2258
	 489164.5655
	 615821.702
	 775273.5898
	 976011.6233
	 1228725.835
	 1546874.178
	 1947399.211
	 2451630.354
	 3086419.752
	 3885572.258
	 4891645.655
	 6158217.02
	 7752735.898
	 9760116.233
	 12287258.35
	 15468741.78
	 19473992.11
	 24516303.54
	 30864197.52
	 34896603.07
	 38947984.22
	 49032607.07
	 61728395.05
	 75630177.88
	 92592592.57
	 107316190.9
	 123456790.1
	 138888888.8
	 154320987.6
	 169753086.3
	 185185185.1
	 216049382.6
	 246913580.1
	 277777777.7
	 308641975.2
	 339506172.7
	 370370370.2
	 401234567.7
	 432098765.2
	 462962962.8
	 493827160.3
	 524691357.8
	 555555555.3
	 590277777.5
	 624999999.7
	 659722221.9
	 694444444.1
	 711805555.2
	 729166666.3
	 746527777.5
	 763888888.6
	 781249999.7
	 798611110.8
	 815972221.9
	 833333333
	 850694444.1
	 868055555.2
	 885416666.3
	 902777777.4
	 920138888.5
	 937499999.6
	 954861110.7
	 972222221.8
	 1006944444
	 1041666666
	 1076388888
	 1111111111
	 1145833333
	 1180555555
	 1215277777
	 1249999999
	 1284722222
	 1319444444
	 1354166666
	 1388888888
	 1423611111
	 1458333333
	 1493055555
	 1527777777
	 1562499999
	 1597222222
	 1631944444
	 1666666666
	 1692708333
	 1718749999
	 1744791666
	 1770833333
	 1796874999
	 1822916666
	 1848958333
	 1875000000
	 1901041666
	 1927083333
	 1953125000
	 1979166666
	 2005208333
	 2031250000
	 2057291666
	 2083333333
	 2109375000
	 2135416666
	 2161458333
	 2187500000
	 2213541666
	 2239583333
	 2265625000
	 2291666666
	 2317708333
	 2343750000
	 2369791667
	 2395833333
	 2421875000
	 2447916667
	 2473958333
	 2500000000
	 2526041667
	 2552083333
	 2578125000
	 2604166667
	 2630208333
	 2656250000
	 2682291667
	 2708333333
	 2734375000
	 2760416667
	 2786458333
	 2812500000
	 2838541667
	 2864583333
	 2890625000
	 2916666666
	 2942708333
	 2968750000
	 2994791666
	 3020833333
	 3046875000
	 3072916666
	 3098958333
	 3125000000
	 3177083333
	 3229166666
	 3281250000
	 3333333333
	 3385416666
	 3437500000
	 3489583333
	 3541666666
	 3593750000
	 3645833333
	 3697916666
	 3750000000
	 3802083333
	 3854166666
	 3906249999
	 3958333333
	 4010416666
	 4062499999
	 4114583333
	 4166666666
	 4218749999
	 4270833333
	 4322916666
	 4375000000
	 4427083333
	 4479166666
	 4531250000
	 4583333333
	 4609375000
	 4635416666
	 4661458333
	 4687500000
	 4713541666
	 4739583333
	 4765625000
	 4791666666
	 4817708333
	 4843750000
	 4869791667
	 4895833333
	 4921875000
	 4947916667
	 4973958333
	 5000000000
	 5026041667
	 5052083333
	 5078125000
	 5104166667
	 5130208333
	 5156250000
	 5182291667
	 5208333334
	 5234375000
	 5260416667
	 5286458334
	 5312500000
	 5338541667
	 5364583334
	 5390625000
	 5416666667
	 5442708334
	 5468750000
	 5494791667
	 5520833334
	 5546875000
	 5572916667
	 5598958334
	 5625000000
	 5651041667
	 5677083334
	 5703125001
	 5729166667
	 5755208334
	 5781250001
	 5807291667
	 5833333334
	 5859375001
	 5885416667
	 5911458334
	 5937500001
	 5963541667
	 5989583334
	 6015625001
	 6041666667
	 6067708334
	 6093750001
	 6119791667
	 6145833334
	 6171875001
	 6197916667
	 6223958334
	 6250000000
	 6276041667
	 6302083334
	 6328125000
	 6354166667
	 6367187500
	 6380208334
	 6393229167
	 6406250000
	 6419270834
	 6432291667
	 6445312500
	 6458333334
	 6471354167
	 6484375000
	 6497395834
	 6510416667
	 6523437500
	 6536458334
	 6549479167
	 6562500000
	 6575520834
	 6588541667
	 6601562500
	 6614583334
	 6627604167
	 6640625000
	 6653645834
	 6666666667
	 6689814815
	 6712962963
	 6736111111
	 6759259260
	 6782407408
	 6805555556
	 6828703704
	 6851851852
	 6875000000
	 6898148149
	 6921296297
	 6944444445
	 6967592593
	 6990740741
	 7013888889
	 7037037038
	 7060185186
	 7083333334
	 7106481482
	 7129629630
	 7152777778
	 7175925926
	 7199074075
	 7222222223
	 7245370371
	 7268518519
	 7291666667
	 7314814815
	 7337962964
	 7361111112
	 7384259260
	 7407407408
	 7430555556
	 7453703704
	 7476851852
	 7500000000
	 7523148149
	 7546296297
	 7569444445
	 7592592593
	 7615740741
	 7638888889
	 7662037037
	 7685185186
	 7708333334
	 7731481482
	 7754629630
	 7777777778
	 7795138889
	 7812500000
	 7829861111
	 7847222222
	 7864583334
	 7881944445
	 7899305556
	 7916666667
	 7951388889
	 7986111111
	 8020833334
	 8055555556
	 8090277778
	 8125000000
	 8159722222
	 8194444445
	 8229166667
	 8263888889
	 8298611111
	 8333333334
	 8368055556
	 8402777778
	 8437500000
	 8472222222
	 8506944445
	 8541666667
	 8576388889
	 8611111111
	 8645833333
	 8680555556
	 8715277778
	 8750000000
	 8784722222
	 8819444445
	 8854166667
	 8888888889
	 8904320988
	 8919753086
	 8935185185
	 8950617284
	 8966049383
	 8981481482
	 8996913580
	 9012345679
	 9020061728
	 9027777778
	 9035493827
	 9043209876
	 9050925926
	 9058641975
	 9066358025
	 9074074074
	 9077932099
	 9081790123
	 9085648148
	 9089506173
	 9093364197
	 9097222222
	 9101080247
	 9104938272
	 9108796296
	 9112654321
	 9116512346
	 9120370370
	 9124228395
	 9128086420
	 9131944444
	 9135802469
	 9139660494
	 9143518518
	 9147376543
	 9151234568
	 9155092592
	 9158950617
	 9162808642
	 9166666666
	 9174382716
	 9182098765
	 9189814815
	 9197530864
	 9205246913
	 9212962963
	 9220679012
	 9228395062
	 9236111111
	 9243827160
	 9251543210
	 9259259259
	 9270833333
	 9282407407
	 9293981481
	 9305555555
	 9317129629
	 9328703703
	 9340277777
	 9351851852
	 9375000000
	 9398148148
	 9421296296
	 9444444444
	 9490740740
	 9537037036
	 9583333333
	 9629629629
	 9675925925
	 9722222222
	 9768518518
	 9814814814
	 9861111111
	 9907407407
	 9953703704
	 1e+10
VAR_LIST_END

BEGIN
	 7.33686704000000055377744834217e-05 ,	 -0 
	 7.33686704000000055377744834217e-05 ,	 -1.60363601999999990611359695648e-09 
	 7.33686704000000055377744834217e-05 ,	 -1.60362477000000000089047539308e-08 
	 7.3368670600000002028108492258e-05 ,	 -1.60362503999999992152259722065e-07 
	 7.33686939999999979730022081625e-05 ,	 -1.6036249799999999685707697053e-06 
	 7.33687077999999997515376271018e-05 ,	 -2.01884421999999994639957839881e-06 
	 7.33687297000000016901355426313e-05 ,	 -2.5415742600000001671911847162e-06 
	 7.33687643000000043816410943975e-05 ,	 -3.19965240000000017043342223633e-06 
	 7.33688191999999964314910227969e-05 ,	 -4.02812362999999997988185423958e-06 
	 7.33689062000000011623535023375e-05 ,	 -5.07110702000000008722677830031e-06 
	 7.33690442000000053951805356611e-05 ,	 -6.38414512999999959430401375027e-06 
	 7.33692628000000046954373611463e-05 ,	 -8.03716186000000002895814199544e-06 
	 7.3369609300000002507537166796e-05 ,	 -1.0118185899999999208189079003e-05 
	 7.33701583999999957901028135865e-05 ,	 -1.2738038599999999258768901278e-05 
	 7.33710287000000039529107320746e-05 ,	 -1.60362351000000014186915031633e-05 
	 7.33724079e-05 ,	 -2.01884129e-05 
	 7.33745939e-05 ,	 -2.54156842e-05 
	 7.33780581e-05 ,	 -3.19964072e-05 
	 7.33835481e-05 ,	 -4.02810033e-05 
	 7.33922479e-05 ,	 -5.07106055e-05 
	 7.34060329e-05 ,	 -6.38405245e-05 
	 7.3427873e-05 ,	 -8.03697693e-05 
	 7.34624673e-05 ,	 -0.00010117817 
	 7.35172462e-05 ,	 -0.000127373028 
	 7.36039404e-05 ,	 -0.000160347677 
	 7.37410299e-05 ,	 -0.000201854877 
	 7.3957521e-05 ,	 -0.000254098555 
	 7.42986832e-05 ,	 -0.000319848021 
	 7.48345159e-05 ,	 -0.000402579259 
	 7.56716448e-05 ,	 -0.000506648039 
	 7.69685016e-05 ,	 -0.000637498989 
	 7.8950748e-05 ,	 -0.000801913024 
	 8.19162156e-05 ,	 -0.00100829283 
	 8.62014442e-05 ,	 -0.0012669853 
	 9.20502964e-05 ,	 -0.00159065031 
	 9.92838616e-05 ,	 -0.00199472878 
	 0.000106657589 ,	 -0.00249816069 
	 0.000110888773 ,	 -0.00312462355 
	 0.000105576417 ,	 -0.00390452903 
	 8.03651466e-05 ,	 -0.00487763319 
	 5.38287609e-05 ,	 -0.0054928608 
	 1.94061702e-05 ,	 -0.00610966309 
	 -9.73278874e-05 ,	 -0.00764182169 
	 -0.000300990855 ,	 -0.00956686893 
	-0.00058965,	-0.01167
	-0.0010288,	-0.014225
	-0.0014845,	-0.016432
	-0.0020615,	-0.018834
	-0.0026875,	-0.021112
	-0.0033849,	-0.023369
	-0.0041528,	-0.025603
	-0.0049901,	-0.027812
	-0.0068687,	-0.032147
	-0.0090124,	-0.036359
	-0.011413,	-0.040434
	-0.01406,	-0.04436
	-0.016946,	-0.048122
	-0.020059,	-0.05171
	-0.023389,	-0.055111
	-0.026924,	-0.058315
	-0.030653,	-0.061309
	-0.034563,	-0.064085
	-0.038641,	-0.066632
	-0.042873,	-0.068941
	-0.047801,	-0.071245
	-0.052886,	-0.073226
	-0.058107,	-0.074876
	-0.063443,	-0.076186
	-0.066146,	-0.076712
	-0.068871,	-0.077151
	-0.071612,	-0.077502
	-0.074369,	-0.077764
	-0.077137,	-0.077938
	-0.079914,	-0.078023
	-0.082698,	-0.078019
	-0.085486,	-0.077925
	-0.088274,	-0.077742
	-0.091059,	-0.077469
	-0.093841,	-0.077107
	-0.096614,	-0.076657
	-0.099377,	-0.076117
	-0.10212,	-0.07549
	-0.10486,	-0.074774
	-0.10757,	-0.073971
	-0.11293,	-0.072107
	-0.11819,	-0.069903
	-0.12332,	-0.067367
	-0.12831,	-0.064507
	-0.13312,	-0.061334
	-0.13776,	-0.057858
	-0.14219,	-0.054093
	-0.1464,	-0.050051
	-0.15038,	-0.045746
	-0.1541,	-0.041194
	-0.15756,	-0.03641
	-0.16075,	-0.031411
	-0.16365,	-0.026215
	-0.16625,	-0.020839
	-0.16854,	-0.015301
	-0.17051,	-0.0096211
	-0.17216,	-0.0038178
	-0.17348,	 0.0020893
	-0.17446,	 0.0080803
	-0.17511,	 0.014135
	-0.17537,	 0.018707
	-0.17544,	 0.023294
	-0.17532,	 0.02789
	-0.175,	 0.032485
	-0.1745,	 0.037072
	-0.1738,	 0.041641
	-0.17292,	 0.046185
	-0.17185,	 0.050695
	-0.17059,	 0.055165
	-0.16915,	 0.059585
	-0.16753,	 0.063948
	-0.16574,	 0.068246
	-0.16377,	 0.072473
	-0.16163,	 0.076621
	-0.15933,	 0.080682
	-0.15686,	 0.084651
	-0.15424,	 0.08852
	-0.15147,	 0.092283
	-0.14855,	 0.095935
	-0.14549,	 0.099469
	-0.1423,	 0.10287
	-0.13897,	 0.10616
	-0.13552,	 0.10931
	-0.13196,	 0.11232
	-0.12828,	 0.11519
	-0.12451,	 0.11791
	-0.12063,	 0.12048
	-0.11667,	 0.1229
	-0.11262,	 0.12516
	-0.1085,	 0.12726
	-0.10431,	 0.1292
	-0.10006,	 0.13098
	-0.095756,	 0.13259
	-0.091405,	 0.13404
	-0.087017,	 0.13532
	-0.082598,	 0.13643
	-0.078155,	 0.13737
	-0.073697,	 0.13815
	-0.069231,	 0.13876
	-0.064764,	 0.1392
	-0.060303,	 0.13948
	-0.055855,	 0.1396
	-0.051429,	 0.13955
	-0.047029,	 0.13935
	-0.042664,	 0.13899
	-0.038339,	 0.13848
	-0.034061,	 0.13781
	-0.029837,	 0.137
	-0.025671,	 0.13605
	-0.021571,	 0.13497
	-0.01754,	 0.13374
	-0.013584,	 0.13239
	-0.0097089,	 0.13092
	-0.0059178,	 0.12933
	-0.0022155,	 0.12762
	 0.0013942,	 0.12581
	 0.0083222,	 0.12188
	 0.014842,	 0.1176
	 0.020936,	 0.113
	 0.026591,	 0.10814
	 0.031802,	 0.10308
	 0.036569,	 0.097854
	 0.040897,	 0.092515
	 0.044798,	 0.087112
	 0.048291,	 0.081687
	 0.051396,	 0.076283
	 0.054142,	 0.070935
	 0.056561,	 0.065675
	 0.058689,	 0.060531
	 0.060562,	 0.055523
	 0.062224,	 0.050668
	 0.063716,	 0.045973
	 0.065081,	 0.041441
	 0.066364,	 0.037068
	 0.067606,	 0.032842
	 0.068849,	 0.028744
	 0.07013,	 0.024749
	 0.071485,	 0.020826
	 0.072942,	 0.016937
	 0.074528,	 0.013037
	 0.07626,	 0.0090792
	 0.07815,	 0.0050083
	 0.080201,	 0.00076692
	 0.082409,	-0.0037056
	 0.083568,	-0.0060482
	 0.08476,	-0.0084723
	 0.085982,	-0.010986
	 0.08723,	-0.013597
	 0.088498,	-0.016314
	 0.089783,	-0.019145
	 0.091078,	-0.022097
	 0.092376,	-0.025178
	 0.093671,	-0.028396
	 0.094953,	-0.031758
	 0.096214,	-0.03527
	 0.097444,	-0.03894
	 0.098634,	-0.042773
	 0.099773,	-0.046775
	 0.10084,	-0.050952
	 0.10184,	-0.055308
	 0.10275,	-0.059847
	 0.10356,	-0.064574
	 0.10426,	-0.069489
	 0.10482,	-0.074597
	 0.10524,	-0.079897
	 0.10549,	-0.08539
	 0.10556,	-0.091076
	 0.10544,	-0.096953
	 0.1051,	-0.10301
	 0.10454,	-0.10926
	 0.10372,	-0.11569
	 0.10264,	-0.12229
	 0.10126,	-0.12906
	 0.099591,	-0.13599
	 0.097589,	-0.14307
	 0.095243,	-0.15028
	 0.092534,	-0.15761
	 0.089444,	-0.16506
	 0.085954,	-0.17259
	 0.082046,	-0.18021
	 0.077701,	-0.18788
	 0.072902,	-0.19559
	 0.067634,	-0.20332
	 0.061878,	-0.21103
	 0.055621,	-0.21872
	 0.048848,	-0.22634
	 0.041546,	-0.23387
	 0.033703,	-0.24129
	 0.025309,	-0.24855
	 0.016354,	-0.25563
	 0.0068308,	-0.26249
	-0.0032663,	-0.2691
	-0.013941,	-0.27541
	-0.025195,	-0.28139
	-0.037028,	-0.28699
	-0.049437,	-0.29218
	-0.062417,	-0.29692
	-0.07596,	-0.30115
	-0.090055,	-0.30484
	-0.10468,	-0.30794
	-0.11984,	-0.3104
	-0.13549,	-0.31218
	-0.15163,	-0.31323
	-0.16821,	-0.3135
	-0.18522,	-0.31296
	-0.20261,	-0.31154
	-0.22035,	-0.30922
	-0.23839,	-0.30594
	-0.2567,	-0.30166
	-0.27521,	-0.29635
	-0.29389,	-0.28995
	-0.31265,	-0.28245
	-0.32206,	-0.27827
	-0.33146,	-0.2738
	-0.34085,	-0.26903
	-0.35023,	-0.26397
	-0.35959,	-0.25861
	-0.36891,	-0.25294
	-0.37818,	-0.24696
	-0.38741,	-0.24068
	-0.39657,	-0.23409
	-0.40566,	-0.22718
	-0.41466,	-0.21995
	-0.42358,	-0.21242
	-0.43239,	-0.20456
	-0.44108,	-0.19639
	-0.44965,	-0.18789
	-0.45809,	-0.17909
	-0.46637,	-0.16996
	-0.4745,	-0.16052
	-0.48246,	-0.15076
	-0.49024,	-0.14069
	-0.49782,	-0.13031
	-0.5052,	-0.11962
	-0.51236,	-0.10863
	-0.5193,	-0.097335
	-0.53103,	-0.076521
	-0.54194,	-0.054793
	-0.55195,	-0.032182
	-0.56102,	-0.0087222
	-0.56907,	 0.015544
	-0.57604,	 0.040572
	-0.58187,	 0.066311
	-0.58651,	 0.092704
	-0.5899,	 0.11969
	-0.59199,	 0.14721
	-0.59273,	 0.17519
	-0.59208,	 0.20356
	-0.59001,	 0.23223
	-0.58647,	 0.26114
	-0.58144,	 0.29019
	-0.57489,	 0.3193
	-0.56682,	 0.34838
	-0.55721,	 0.37733
	-0.54605,	 0.40607
	-0.53335,	 0.43451
	-0.51912,	 0.46253
	-0.50338,	 0.49007
	-0.48614,	 0.51701
	-0.46745,	 0.54327
	-0.44732,	 0.56877
	-0.42582,	 0.59341
	-0.40297,	 0.61711
	-0.37885,	 0.63979
	-0.35351,	 0.66138
	-0.32702,	 0.68181
	-0.29944,	 0.701
	-0.27085,	 0.7189
	-0.24133,	 0.73546
	-0.21096,	 0.75062
	-0.17983,	 0.76434
	-0.14801,	 0.77659
	-0.11561,	 0.78733
	-0.0827,	 0.79655
	-0.049375,	 0.80422
	-0.015725,	 0.81033
	 0.018161,	 0.81488
	 0.052196,	 0.81786
	 0.086293,	 0.81929
	 0.12036,	 0.81918
	 0.15433,	 0.81754
	 0.18812,	 0.8144
	 0.22165,	 0.80978
	 0.25484,	 0.80371
	 0.27948,	 0.79823
	 0.30386,	 0.79197
	 0.32796,	 0.78495
	 0.35175,	 0.77719
	 0.3752,	 0.76871
	 0.39831,	 0.75952
	 0.42103,	 0.74964
	 0.44336,	 0.73911
	 0.48674,	 0.71613
	 0.52831,	 0.69075
	 0.56795,	 0.66316
	 0.60556,	 0.63354
	 0.64106,	 0.60207
	 0.67437,	 0.56893
	 0.70545,	 0.5343
	 0.73426,	 0.49835
	 0.76079,	 0.46124
	 0.78502,	 0.42314
	 0.80695,	 0.3842
	 0.82659,	 0.34456
	 0.84396,	 0.30436
	 0.85909,	 0.26372
	 0.87201,	 0.22276
	 0.88274,	 0.18158
	 0.89131,	 0.14028
	 0.89777,	 0.09895
	 0.90213,	 0.057649
	 0.90442,	 0.016443
	 0.90464,	-0.02462
	 0.90279,	-0.065506
	 0.89884,	-0.10619
	 0.8927,	-0.14668
	 0.88425,	-0.18698
	 0.87327,	-0.2271
	 0.85936,	-0.26706
	 0.84192,	-0.30683
	 0.83278,	-0.32439
	 0.82263,	-0.34185
	 0.81129,	-0.35913
	 0.79858,	-0.37612
	 0.78425,	-0.39266
	 0.768,	-0.40848
	 0.74951,	-0.42313
	 0.72845,	-0.43595
	 0.71686,	-0.44137
	 0.70456,	-0.44591
	 0.69156,	-0.44937
	 0.67792,	-0.45151
	 0.66377,	-0.45207
	 0.6493,	-0.45075
	 0.63485,	-0.44727
	 0.62085,	-0.44139
	 0.61419,	-0.4375
	 0.60787,	-0.43297
	 0.60198,	-0.4278
	 0.59662,	-0.42202
	 0.59188,	-0.41567
	 0.58786,	-0.4088
	 0.58464,	-0.4015
	 0.58231,	-0.39386
	 0.58093,	-0.38599
	 0.58055,	-0.37802
	 0.58118,	-0.37008
	 0.58283,	-0.36232
	 0.58547,	-0.35488
	 0.58905,	-0.34789
	 0.59348,	-0.34148
	 0.59867,	-0.33575
	 0.6045,	-0.33078
	 0.61087,	-0.32664
	 0.61764,	-0.32335
	 0.62468,	-0.32095
	 0.63187,	-0.31941
	 0.63912,	-0.31871
	 0.6463,	-0.31882
	 0.65335,	-0.31968
	 0.66676,	-0.32343
	 0.67892,	-0.32943
	 0.6896,	-0.33719
	 0.69874,	-0.34622
	 0.70634,	-0.35614
	 0.7125,	-0.36663
	 0.71734,	-0.37743
	 0.72099,	-0.38837
	 0.72359,	-0.39929
	 0.72527,	-0.41012
	 0.72614,	-0.42078
	 0.72631,	-0.43123
	 0.72545,	-0.44645
	 0.72347,	-0.46109
	 0.7206,	-0.47515
	 0.71699,	-0.48864
	 0.71278,	-0.50159
	 0.70808,	-0.51402
	 0.70296,	-0.52598
	 0.69749,	-0.53749
	 0.68573,	-0.55931
	 0.67312,	-0.57968
	 0.65985,	-0.59881
	 0.64609,	-0.61682
	 0.61744,	-0.64999
	 0.58771,	-0.67989
	 0.55719,	-0.70701
	 0.52608,	-0.73167
	 0.49452,	-0.7541
	 0.46262,	-0.77448
	 0.43046,	-0.79295
	 0.39813,	-0.80963
	 0.36567,	-0.8246
	 0.33316,	-0.83795
	 0.30065,	-0.84975
	 0.26818,	-0.86005
END
BEGIN
	 0.999926631329412507476206428692 ,	 -0 
	 0.999926631329419834948168954725 ,	 -9.75501127792322009213421551976e-09 
	 0.999926631329412396453903966176 ,	 -9.75501121824873251853205147199e-08 
	 0.999926631328574844204126748082 ,	 -9.75501123117242241455926432536e-07 
	 0.999926631244988817215357812529 ,	 -9.75501122380505181208576459539e-06 
	 0.999926631195606652191543162189 ,	 -1.22808315178354193752952028262e-05 
	 0.999926631117341035981382901809 ,	 -1.54606508666194075729549695097e-05 
	 0.999926630993298926064483111986 ,	 -1.94638062416957469125122770492e-05 
	 0.999926630796703297399119492184 ,	 -2.45034802533738993446377207874e-05 
	 0.999926630485124645630889972381 ,	 -3.08480538994317793344279721168e-05 
	 0.999926629991296556099200643075 ,	 -3.88353988202243260996482376868e-05 
	 0.999926629208639505819178339152 ,	 -4.88908701758387215230428068935e-05 
	 0.99992662796821074611131052734 ,	 -6.15499583188836019154166478984e-05 
	 0.999926626002264451464895955723 ,	 -7.74868055250059473149093491884e-05 
	 0.999926622886452953764546691673 ,	 -9.75501063656576683502663627223e-05 
	 0.999926617948228790844211744115 ,	 -0.000122808303458194628676736215311 
	 0.999926610121682379883623070782 ,	 -0.000154606485287192216282470269562 
	 0.999926597717475051929625351477 ,	 -0.000194638015766274152795745067124 
	 0.999926578058215165256683576445 ,	 -0.000245034709451686510961465614855 
	 0.999926546900590240696260480036 ,	 -0.000308480353271738116927025430414 
	 0.999926497519598944663243855757 ,	 -0.000388353617646009993680245031555 
	 0.999926419257302301346612694033 ,	 -0.00048890796242762567247464033926 
	 0.999926295223179439908278709481 ,	 -0.000615498108091210374692714424327 
	 0.999926098650526506972369134019 ,	 -0.000774865112220617796578991942624 
	 0.999925787124416265427839789481 ,	 -0.00097549519208348436927202840252 
	 0.999925293440415363654949487682 ,	 -0.00122807132101238926369379811376 
	 0.999924511133578719501713294449 ,	 -0.00154604148676056041278314978626 
	 0.9999232715860153497544615675 ,	 -0.00194633355362859236659112127654 
	 0.999921307851417640044644485897 ,	 -0.00245025416249239000321402670579 
	 0.999918197587219004240921549354 ,	 -0.00308461828336529901573026535289 
	 0.999913273272465041863199530781 ,	 -0.00388316710559214080256129619784 
	 0.999905481561536135792778168252 ,	 -0.00488834496399447905601309827262 
	 0.999893164438970694085639934201 ,	 -0.00615352068649395109178890095336 
	 0.999873722280172794185659768118 ,	 -0.00774575430249673825555678519095 
	 0.999843103563784807441550128715 ,	 -0.00974922508683527880291030953686 
	 0.999795051348827290560450364865 ,	 -0.0122694504660028468751020724881 
	 0.999720031830167110697971111222 ,	 -0.0154384412696807749032501533293 
	 0.999603789521700147879812448082 ,	 -0.0194209785336495049934413259507 
	 0.999425516986002016039947193349 ,	 -0.0244223231807209062438346336421 
	 0.999155608932943306577101338917 ,	 -0.0306979978690507665506359558094 
	 0.998960494489172567966761562275 ,	 -0.0346727503229609240742448150741 
	 0.998747560831546365989197511226 ,	 -0.0386575250559302238673176077555 
	 0.998150181737514019530976838723 ,	 -0.0485428956126890270850182673712 
	 0.997271756811801468600719999813 ,	 -0.0609336680910490258167300225978 
	 0.996153587443221910646684591484 ,	 -0.0744516622931356980563677439022 
	 0.994564015838263038027378115657 ,	 -0.090894494523704502664251947408 
