CITIFILE A.01.01
#Momentum: B.12.070 (*) built: Feb 13 2020 
#Momentum Date and Time: Sun Aug 14 22:26:14 2022

NAME Momentum.SP

#  mode: MW    reference: S_50

#eesof Port[1] P1
#eesof Port[2] P2

CONSTANT NBR_OF_PORTS 2

CONSTANT NORMALIZATION 1

VAR freq MAG 432

DATA S[1,1] RI
DATA S[1,2] RI
DATA S[2,1] RI
DATA S[2,2] RI
DATA PORTZ[1] RI
DATA PORTZ[2] RI

VAR_LIST_BEGIN
	 0
	 8.23509807
	 82.3509807
	 823.509807
	 8235.09807
	 10367.37423
	 13051.75087
	 16431.18084
	 20685.6311
	 26041.66666
	 32784.51592
	 41273.2602
	 51959.9561
	 65413.70913
	 82350.9807
	 103673.7423
	 130517.5087
	 164311.8084
	 206856.311
	 260416.6666
	 327845.1592
	 412732.602
	 519599.561
	 654137.0913
	 823509.807
	 1036737.423
	 1305175.087
	 1643118.084
	 2068563.11
	 2604166.666
	 3278451.592
	 4127326.02
	 5195995.61
	 6541370.913
	 8235098.07
	 10367374.23
	 13051750.87
	 16431180.84
	 20685631.1
	 26041666.66
	 29444008.83
	 32862361.68
	 41371262.21
	 52083333.31
	 63812962.58
	 78124999.97
	 90548036.09
	 104166666.6
	 130208333.3
	 156249999.9
	 182291666.6
	 208333333.2
	 260416666.6
	 312499999.9
	 364583333.2
	 416666666.5
	 468749999.8
	 520833333.1
	 572916666.4
	 624999999.8
	 677083333.1
	 729166666.4
	 781249999.7
	 833333333
	 885416666.3
	 937499999.6
	 989583332.9
	 1041666666
	 1093750000
	 1145833333
	 1197916666
	 1250000000
	 1302083333
	 1354166666
	 1406249999
	 1458333333
	 1510416666
	 1562499999
	 1614583333
	 1666666666
	 1718749999
	 1770833333
	 1822916666
	 1874999999
	 1927083333
	 1979166666
	 2031249999
	 2083333333
	 2135416666
	 2187499999
	 2239583333
	 2291666666
	 2343749999
	 2395833333
	 2447916666
	 2500000000
	 2552083333
	 2604166666
	 2656250000
	 2708333333
	 2760416666
	 2812500000
	 2864583333
	 2916666666
	 2968750000
	 3020833333
	 3072916666
	 3125000000
	 3177083333
	 3229166666
	 3281250000
	 3333333333
	 3385416666
	 3437500000
	 3489583333
	 3541666666
	 3593750000
	 3645833333
	 3697916666
	 3750000000
	 3802083333
	 3854166666
	 3906250000
	 3958333333
	 4010416666
	 4062500000
	 4114583333
	 4166666666
	 4218750000
	 4270833333
	 4322916667
	 4375000000
	 4427083333
	 4479166667
	 4531250000
	 4583333333
	 4635416667
	 4687500000
	 4739583333
	 4791666667
	 4843750000
	 4895833333
	 4947916667
	 5000000000
	 5043402778
	 5086805556
	 5130208333
	 5173611111
	 5217013889
	 5260416667
	 5303819444
	 5347222222
	 5390625000
	 5434027778
	 5477430556
	 5520833333
	 5542534722
	 5564236111
	 5585937500
	 5607638889
	 5629340278
	 5651041667
	 5672743056
	 5694444444
	 5716145833
	 5737847222
	 5759548611
	 5781250000
	 5802951389
	 5824652778
	 5846354167
	 5868055556
	 5878906250
	 5889756945
	 5900607639
	 5911458333
	 5922309028
	 5933159722
	 5944010417
	 5954861111
	 5965711806
	 5976562500
	 5987413195
	 5998263889
	 6009114583
	 6019965278
	 6030815972
	 6041666667
	 6052517361
	 6063368056
	 6074218750
	 6085069445
	 6095920139
	 6106770833
	 6117621528
	 6128472222
	 6133897570
	 6139322917
	 6144748264
	 6150173611
	 6155598958
	 6161024306
	 6166449653
	 6171875000
	 6177300347
	 6182725695
	 6188151042
	 6193576389
	 6199001736
	 6204427083
	 6209852431
	 6215277778
	 6220703125
	 6226128472
	 6231553820
	 6236979167
	 6242404514
	 6247829861
	 6253255208
	 6258680556
	 6261393229
	 6264105903
	 6266818576
	 6269531250
	 6272243924
	 6274956597
	 6277669271
	 6280381945
	 6283094618
	 6285807292
	 6288519965
	 6291232639
	 6293945313
	 6296657986
	 6299370660
	 6302083333
	 6304796007
	 6307508681
	 6310221354
	 6312934028
	 6315646701
	 6318359375
	 6321072049
	 6323784722
	 6326497396
	 6329210070
	 6331922743
	 6334635417
	 6337348090
	 6340060764
	 6342773438
	 6345486111
	 6348198785
	 6350911458
	 6353624132
	 6356336806
	 6359049479
	 6361762153
	 6364474826
	 6367187500
	 6369900174
	 6372612847
	 6375325521
	 6378038195
	 6380750868
	 6383463542
	 6386176215
	 6388888889
	 6391059028
	 6393229167
	 6395399306
	 6397569445
	 6399739583
	 6401909722
	 6404079861
	 6406250000
	 6408420139
	 6410590278
	 6412760417
	 6414930556
	 6417100695
	 6419270833
	 6421440972
	 6423611111
	 6425781250
	 6427951389
	 6430121528
	 6432291667
	 6434461806
	 6436631945
	 6438802083
	 6440972222
	 6443142361
	 6445312500
	 6447482639
	 6449652778
	 6451822917
	 6453993056
	 6456163195
	 6458333334
	 6460503472
	 6462673611
	 6464843750
	 6467013889
	 6469184028
	 6471354167
	 6473524306
	 6475694445
	 6477864584
	 6480034722
	 6482204861
	 6484375000
	 6486545139
	 6488715278
	 6490885417
	 6493055556
	 6495225695
	 6497395834
	 6499565972
	 6501736111
	 6503906250
	 6506076389
	 6508246528
	 6510416667
	 6512586806
	 6514756945
	 6516927084
	 6519097222
	 6521267361
	 6523437500
	 6525607639
	 6527777778
	 6532118056
	 6536458334
	 6540798611
	 6545138889
	 6549479167
	 6553819445
	 6558159722
	 6562500000
	 6566840278
	 6571180556
	 6575520834
	 6579861111
	 6584201389
	 6588541667
	 6592881945
	 6597222222
	 6605902778
	 6614583334
	 6623263889
	 6631944445
	 6640625000
	 6649305556
	 6657986111
	 6666666667
	 6679687500
	 6692708334
	 6705729167
	 6718750000
	 6731770834
	 6744791667
	 6757812500
	 6770833334
	 6796875000
	 6822916667
	 6848958334
	 6875000000
	 6901041667
	 6927083334
	 6953125000
	 6979166667
	 7005208334
	 7031250000
	 7057291667
	 7083333334
	 7135416667
	 7187500000
	 7239583334
	 7291666667
	 7343750000
	 7395833334
	 7447916667
	 7500000000
	 7552083334
	 7604166667
	 7656250001
	 7708333334
	 7760416667
	 7812500001
	 7864583334
	 7916666667
	 7968750001
	 8020833334
	 8072916667
	 8125000001
	 8177083334
	 8229166667
	 8281250001
	 8333333334
	 8385416667
	 8437500001
	 8489583334
	 8541666667
	 8593750001
	 8645833334
	 8697916667
	 8750000000
	 8802083334
	 8854166667
	 8906250000
	 8958333334
	 9010416667
	 9062500000
	 9114583334
	 9166666667
	 9218750000
	 9270833334
	 9322916667
	 9375000000
	 9427083334
	 9479166667
	 9531250000
	 9583333334
	 9635416667
	 9687500000
	 9739583333
	 9791666667
	 9843750000
	 9895833333
	 9947916667
	 1e+10
VAR_LIST_END

BEGIN
	 1.00000000000003375077994860476 ,	 -0 
	 1.00000000000003352873534367973 ,	 -2.41315481486203964323067339137e-09 
	 1.00000000000002953193245502916 ,	 -2.41315525617569193173039820977e-08 
	 0.999999999999607203093887619616 ,	 -2.41315547599985080751139321364e-07 
	 0.999999999957380203419177178148 ,	 -2.41315546806175618144152394962e-06 
	 0.999999999932432048765917897981 ,	 -3.03798273498800952552301168907e-06 
	 0.999999999892892343922312647919 ,	 -3.82459365344534063524406519718e-06 
	 0.999999999830226027341950612026 ,	 -4.81487811795910936041309469147e-06 
	 0.999999999730906363737403808045 ,	 -6.06157236757165485130371962441e-06 
	 0.999999999573495834681580163306 ,	 -7.63106739676278067463499610312e-06 
	 0.999999999324017063706548924529 ,	 -9.60694447443843912992633704562e-06 
	 0.999999998928620348337403811456 ,	 -1.20944261526312324406262632692e-05 
	 0.999999998301958736846017927746 ,	 -1.52259796753206888553222597693e-05 
	 0.999999997308768762138697638875 ,	 -1.91683712327250788121091318317e-05 
	 0.999999995734672353364658192731 ,	 -2.4131546658145985873034078395e-05 
	 0.999999993239905737851813682937 ,	 -3.03798113466535735227580516948e-05 
	 0.999999989285991652820939634694 ,	 -3.82459046035510397132384241559e-05 
	 0.999999983019517424409627892601 ,	 -4.81487174484040991728761582635e-05 
	 0.999999973087969395990626253479 ,	 -6.06155965475196900626997376094e-05 
	 0.99999995734788982293395065426 ,	 -7.63104202865516612064311630093e-05 
	 0.999999932402457658575656296307 ,	 -9.60689386145796575533495342825e-05 
	 0.999999892868905781995181314414 ,	 -0.000120943251694122233530492849241 
	 0.999999830218206042786732723471 ,	 -0.000152257781972975347883902941248 
	 0.999999730938001429869643743586 ,	 -0.00019167969271957630006397721445 
	 0.999999573625797388842784130247 ,	 -0.000241307447620575654667618437088 
	 0.999999324393936017685291517409 ,	 -0.000303782117402839890729637772893 
	 0.999998929616910836593035583064 ,	 -0.000382427141894847721914629801176 
	 0.999998304511652502668539455044 ,	 -0.000481423555830806648714315088 
	 0.999997315226041738611684195348 ,	 -0.000606029151031584056852352659917 
	 0.99999575091876058419160244739 ,	 -0.000762851557912114230930455960333 
	 0.999993280669953854555842553964 ,	 -0.000960186500172710566403111442924 
	 0.999989388052473282542109700444 ,	 -0.00120843292083330777764160757215 
	 0.999983274418756007406727803755 ,	 -0.00152059524347866736881940141757 
	 0.999973722366116479776110281819 ,	 -0.00191287816839064150897797844664 
	 0.999958918393558660042685914959 ,	 -0.0024053697702414167380879916891 
	 0.999936258911908626423326040822 ,	 -0.00302279633189780905233590146963 
	 0.999902223230532016806648698548 ,	 -0.00379533200692985794866274318338 
	 0.99985250215911780635735794931 ,	 -0.00475950332074345783262003806158 
	 0.999782678520442003033963374037 ,	 -0.00595943021877115564066684783029 
	 0.999689675404540789571683490067 ,	 -0.00744905356682348807062510331889 
	 0.999630469154601075665311782359 ,	 -0.00838461439430815413942355007748 
	 0.999572285394493276200478248938 ,	 -0.00931756554211052301361917216127 
	 0.999436983018646696308451282675 ,	 -0.0116168064089955669349052413963 
	 0.999288521583449940166588021384 ,	 -0.014482891770225270189342836602 
	 0.999148860812224981486906472128 ,	 -0.0176055949882565898612085675268 
	 0.998997927316579881207303515112 ,	 -0.0214106360382204097270175680023 
	 0.998874414270350063915770988388 ,	 -0.0247150641012250649186654527512 
	 0.998739580201934318282042113424 ,	 -0.0283412528323984946876379353853 
	 0.998467278272803904215493275842 ,	 -0.0352860821735171692470345305992 
	 0.998161757946433247923323506257 ,	 -0.042241543697863870310271749986 
	 0.997814645024157398367492532998 ,	 -0.049203384630016250289585855171 
	 0.99742198449685814942711203912 ,	 -0.0561683675816326555274571319387 
	 0.996492916525483551914987856435 ,	 -0.0700989434878524775296426696514 
	 0.995367209706075062314312162925 ,	 -0.0840204810357376707941057247808 
	 0.994042715466046056249638240843 ,	 -0.0979247394741106780280404109362 
	 0.992519065724571269981879595434 ,	 -0.111805559118345859692666977026 
	 0.990796654605442750352040093276 ,	 -0.125657834430675630077445248389 
	 0.98887,	-0.13947
	 0.98675,	-0.15325
	 0.98444,	-0.167
	 0.98193,	-0.18069
	 0.97923,	-0.19434
	 0.97634,	-0.20794
	 0.97326,	-0.22148
	 0.96999,	-0.23496
	 0.96653,	-0.24838
	 0.96289,	-0.26174
	 0.95906,	-0.27503
	 0.95506,	-0.28825
	 0.95087,	-0.3014
	 0.94651,	-0.31448
	 0.94196,	-0.32747
	 0.93725,	-0.34039
	 0.93236,	-0.35322
	 0.9273,	-0.36597
	 0.92208,	-0.37863
	 0.91668,	-0.3912
	 0.91113,	-0.40368
	 0.90541,	-0.41607
	 0.89952,	-0.42835
	 0.89348,	-0.44054
	 0.88728,	-0.45263
	 0.88093,	-0.46462
	 0.87442,	-0.4765
	 0.86776,	-0.48828
	 0.86096,	-0.49995
	 0.854,	-0.51151
	 0.8469,	-0.52295
	 0.83966,	-0.53428
	 0.83227,	-0.5455
	 0.82475,	-0.5566
	 0.81709,	-0.56757
	 0.80929,	-0.57843
	 0.80137,	-0.58917
	 0.79331,	-0.59978
	 0.78512,	-0.61026
	 0.77681,	-0.62062
	 0.76837,	-0.63085
	 0.75981,	-0.64095
	 0.75113,	-0.65092
	 0.74233,	-0.66075
	 0.73342,	-0.67046
	 0.72439,	-0.68002
	 0.71526,	-0.68945
	 0.70601,	-0.69874
	 0.69666,	-0.70789
	 0.6872,	-0.7169
	 0.67765,	-0.72578
	 0.66799,	-0.7345
	 0.65823,	-0.74309
	 0.64838,	-0.75153
	 0.63844,	-0.75983
	 0.62841,	-0.76798
	 0.61828,	-0.77598
	 0.60807,	-0.78384
	 0.59778,	-0.79155
	 0.5874,	-0.79911
	 0.57695,	-0.80652
	 0.56641,	-0.81378
	 0.5558,	-0.82089
	 0.54512,	-0.82785
	 0.53437,	-0.83466
	 0.52354,	-0.84132
	 0.51265,	-0.84782
	 0.50169,	-0.85417
	 0.49067,	-0.86037
	 0.47959,	-0.86642
	 0.46845,	-0.87231
	 0.45724,	-0.87805
	 0.44599,	-0.88364
	 0.43467,	-0.88907
	 0.4233,	-0.89435
	 0.41188,	-0.89947
	 0.40041,	-0.90444
	 0.38889,	-0.90926
	 0.37732,	-0.91392
	 0.3657,	-0.91842
	 0.35404,	-0.92278
	 0.34232,	-0.92697
	 0.33056,	-0.93102
	 0.31876,	-0.93491
	 0.30691,	-0.93864
	 0.295,	-0.94222
	 0.28306,	-0.94564
	 0.27306,	-0.94838
	 0.26303,	-0.95101
	 0.25296,	-0.95353
	 0.24285,	-0.95594
	 0.2327,	-0.95824
	 0.22251,	-0.96043
	 0.21226,	-0.96251
	 0.20197,	-0.96448
	 0.19162,	-0.96633
	 0.1812,	-0.96807
	 0.17071,	-0.96969
	 0.16015,	-0.9712
	 0.15483,	-0.9719
	 0.14949,	-0.97258
	 0.14413,	-0.97322
	 0.13873,	-0.97383
	 0.13331,	-0.97441
	 0.12786,	-0.97495
	 0.12237,	-0.97546
	 0.11684,	-0.97593
	 0.11127,	-0.97636
	 0.10566,	-0.97675
	 0.099997,	-0.9771
	 0.094281,	-0.97741
	 0.088506,	-0.97767
	 0.082666,	-0.97788
	 0.076754,	-0.97803
	 0.070762,	-0.97813
	 0.067734,	-0.97816
	 0.064682,	-0.97817
	 0.061606,	-0.97816
	 0.058504,	-0.97814
	 0.055374,	-0.97809
	 0.052214,	-0.97802
	 0.049024,	-0.97794
	 0.045801,	-0.97783
	 0.042542,	-0.97769
	 0.039247,	-0.97753
	 0.035911,	-0.97734
	 0.032534,	-0.97712
	 0.029111,	-0.97686
	 0.02564,	-0.97657
	 0.022117,	-0.97624
	 0.018539,	-0.97587
	 0.014902,	-0.97546
	 0.011202,	-0.97499
	 0.0074338,	-0.97446
	 0.0035923,	-0.97388
	-0.00032782,	-0.97322
	-0.0043326,	-0.97249
	-0.0084285,	-0.97167
	-0.012623,	-0.97076
	-0.014759,	-0.97026
	-0.016922,	-0.96974
	-0.019115,	-0.96918
	-0.021336,	-0.96859
	-0.023589,	-0.96797
	-0.025873,	-0.96731
	-0.02819,	-0.96661
	-0.030541,	-0.96587
	-0.032928,	-0.96508
	-0.035351,	-0.96424
	-0.037813,	-0.96336
	-0.040313,	-0.96241
	-0.042854,	-0.9614
	-0.045437,	-0.96033
	-0.048062,	-0.95919
	-0.050731,	-0.95797
	-0.053446,	-0.95667
	-0.056206,	-0.95529
	-0.059012,	-0.9538
	-0.061866,	-0.95221
	-0.064766,	-0.95051
	-0.067714,	-0.94868
	-0.070707,	-0.94672
	-0.073746,	-0.94462
	-0.075281,	-0.9435
	-0.076827,	-0.94235
	-0.078383,	-0.94115
	-0.079949,	-0.93991
	-0.081523,	-0.93862
	-0.083106,	-0.93728
	-0.084696,	-0.93589
	-0.086293,	-0.93445
	-0.087896,	-0.93295
	-0.089504,	-0.93139
	-0.091115,	-0.92977
	-0.092728,	-0.92808
	-0.094341,	-0.92633
	-0.095954,	-0.92451
	-0.097563,	-0.92262
	-0.099166,	-0.92064
	-0.10076,	-0.91859
	-0.10234,	-0.91646
	-0.10391,	-0.91424
	-0.10547,	-0.91193
	-0.107,	-0.90953
	-0.10851,	-0.90703
	-0.10998,	-0.90443
	-0.11143,	-0.90172
	-0.11283,	-0.89891
	-0.11418,	-0.89599
	-0.11549,	-0.89294
	-0.11673,	-0.88979
	-0.1179,	-0.8865
	-0.119,	-0.8831
	-0.12,	-0.87957
	-0.12091,	-0.8759
	-0.12171,	-0.87211
	-0.1224,	-0.86818
	-0.12294,	-0.86412
	-0.12334,	-0.85993
	-0.12358,	-0.85561
	-0.12364,	-0.85117
	-0.12351,	-0.8466
	-0.12316,	-0.84191
	-0.12259,	-0.83712
	-0.12178,	-0.83223
	-0.1207,	-0.82725
	-0.11934,	-0.8222
	-0.11768,	-0.8171
	-0.11571,	-0.81196
	-0.11341,	-0.80681
	-0.11076,	-0.80167
	-0.10838,	-0.79758
	-0.10577,	-0.79354
	-0.10293,	-0.78956
	-0.099844,	-0.78565
	-0.096514,	-0.78184
	-0.092944,	-0.77815
	-0.089135,	-0.77459
	-0.085093,	-0.77118
	-0.080823,	-0.76795
	-0.076336,	-0.76491
	-0.071641,	-0.76209
	-0.066752,	-0.7595
	-0.061684,	-0.75716
	-0.056455,	-0.7551
	-0.051085,	-0.75331
	-0.045595,	-0.75182
	-0.040007,	-0.75064
	-0.034346,	-0.74978
	-0.028636,	-0.74924
	-0.022904,	-0.74902
	-0.017174,	-0.74913
	-0.011473,	-0.74957
	-0.0058253,	-0.75032
	-0.00025632,	-0.75139
	 0.005211,	-0.75276
	 0.010555,	-0.75443
	 0.015754,	-0.75637
	 0.020791,	-0.75857
	 0.025649,	-0.76102
	 0.030314,	-0.76369
	 0.034773,	-0.76658
	 0.039017,	-0.76965
	 0.043037,	-0.77289
	 0.046829,	-0.77627
	 0.050387,	-0.77979
	 0.053711,	-0.78342
	 0.0568,	-0.78714
	 0.059656,	-0.79093
	 0.062281,	-0.79477
	 0.06468,	-0.79866
	 0.066859,	-0.80258
	 0.068822,	-0.8065
	 0.070578,	-0.81042
	 0.072134,	-0.81434
	 0.073497,	-0.81822
	 0.074677,	-0.82208
	 0.075681,	-0.82589
	 0.076518,	-0.82966
	 0.077198,	-0.83337
	 0.077728,	-0.83703
	 0.078118,	-0.84061
	 0.078376,	-0.84413
	 0.07851,	-0.84758
	 0.078528,	-0.85096
	 0.078438,	-0.85425
	 0.078247,	-0.85747
	 0.077962,	-0.86061
	 0.07759,	-0.86368
	 0.077138,	-0.86666
	 0.076611,	-0.86956
	 0.076016,	-0.87239
	 0.075357,	-0.87513
	 0.074641,	-0.8778
	 0.073871,	-0.8804
	 0.072189,	-0.88536
	 0.070344,	-0.89003
	 0.068367,	-0.89443
	 0.06628,	-0.89857
	 0.064107,	-0.90246
	 0.061865,	-0.90611
	 0.05957,	-0.90955
	 0.057236,	-0.91277
	 0.054875,	-0.9158
	 0.052497,	-0.91865
	 0.050108,	-0.92133
	 0.047718,	-0.92384
	 0.045331,	-0.92621
	 0.042952,	-0.92844
	 0.040585,	-0.93054
	 0.038233,	-0.93251
	 0.033588,	-0.93613
	 0.02903,	-0.93934
	 0.024569,	-0.94221
	 0.020211,	-0.94477
	 0.015957,	-0.94706
	 0.011807,	-0.94911
	 0.0077594,	-0.95095
	 0.0038112,	-0.9526
	-0.0019325,	-0.95477
	-0.0074737,	-0.95663
	-0.012827,	-0.95823
	-0.018005,	-0.95959
	-0.023023,	-0.96076
	-0.027893,	-0.96176
	-0.032626,	-0.96261
	-0.037235,	-0.96334
	-0.046113,	-0.96446
	-0.054598,	-0.96523
	-0.062748,	-0.96572
	-0.070608,	-0.96598
	-0.07822,	-0.96606
	-0.085614,	-0.96597
	-0.092819,	-0.96575
	-0.099856,	-0.96541
	-0.10674,	-0.96497
	-0.1135,	-0.96444
	-0.12014,	-0.96383
	-0.12667,	-0.96314
	-0.13945,	-0.96158
	-0.15191,	-0.95978
	-0.1641,	-0.95779
	-0.17605,	-0.9556
	-0.1878,	-0.95326
	-0.19936,	-0.95075
	-0.21076,	-0.9481
	-0.22202,	-0.9453
	-0.23313,	-0.94237
	-0.24412,	-0.93931
	-0.25499,	-0.93612
	-0.26574,	-0.93281
	-0.27639,	-0.92937
	-0.28694,	-0.92582
	-0.29738,	-0.92215
	-0.30774,	-0.91837
	-0.318,	-0.91447
	-0.32816,	-0.91047
	-0.33824,	-0.90635
	-0.34824,	-0.90213
	-0.35814,	-0.8978
	-0.36796,	-0.89336
	-0.3777,	-0.88882
	-0.38735,	-0.88418
	-0.39693,	-0.87943
	-0.40641,	-0.87458
	-0.41582,	-0.86964
	-0.42515,	-0.86459
	-0.43439,	-0.85945
	-0.44355,	-0.8542
	-0.45263,	-0.84887
	-0.46163,	-0.84343
	-0.47054,	-0.83791
	-0.47937,	-0.83228
	-0.48812,	-0.82657
	-0.49679,	-0.82076
	-0.50538,	-0.81487
	-0.51388,	-0.80888
	-0.5223,	-0.8028
	-0.53063,	-0.79663
	-0.53888,	-0.79038
	-0.54705,	-0.78404
	-0.55513,	-0.77761
	-0.56312,	-0.77109
	-0.57103,	-0.76449
	-0.57885,	-0.75781
	-0.58659,	-0.75104
	-0.59424,	-0.74419
	-0.60179,	-0.73726
	-0.60926,	-0.73024
	-0.61664,	-0.72315
	-0.62394,	-0.71597
	-0.63114,	-0.70871
	-0.63824,	-0.70138
	-0.64526,	-0.69397
	-0.65219,	-0.68648
END
BEGIN
	 1.04597741999999996012650035573e-15 ,	 0 
	 1.36479368999999996289578762316e-15 ,	 1.56724659000000010284107543645e-11 
	 5.35595872999999979853364755787e-16 ,	 1.56724652999999993895819172007e-10 
	 -8.28365154000000060491318037463e-14 ,	 1.56724651999999994611023662372e-09 
	 -8.42043969000000056262523348066e-12 ,	 1.56724496000000006921250652898e-08 
	 -1.33462685000000005869367292709e-11 ,	 1.97304334999999995378541192996e-08 
	 -2.11531600000000011181598441786e-11 ,	 2.48391208999999987764394608495e-08 
	 -3.35261337000000003622059171073e-11 ,	 3.12705542999999977814902952372e-08 
	 -5.31357033000000013613645607396e-11 ,	 3.93672032999999980356369184715e-08 
	 -8.42141399999999980422368964846e-11 ,	 4.95601885999999989929072467549e-08 
	 -1.33468506000000008940129762265e-10 ,	 6.23922135999999957374891274356e-08 
	 -2.11527289999999991785654839675e-10 ,	 7.85464107000000042312990301656e-08 
	 -3.35231801999999982382273704934e-10 ,	 9.88826110999999995424162928769e-08 
	 -5.3126427899999997820160575453e-10 ,	 1.24482916000000003369852560192e-07 
	 -8.41889651999999954503056496532e-10 ,	 1.56708891000000005505341849933e-07 
	 -1.33403405e-09 ,	 1.97273204e-07 
	 -2.11361954e-09 ,	 2.48329115e-07 
	 -3.34814853e-09 ,	 3.12581713e-07 
	 -5.30216011e-09 ,	 3.9342516e-07 
	 -8.39258342e-09 ,	 4.95109945e-07 
	 -1.32743729e-08 ,	 6.22942586e-07 
	 -2.09710551e-08 ,	 7.83515938e-07 
	 -3.30689471e-08 ,	 9.8495873e-07 
	 -5.19943491e-08 ,	 1.23717431e-06 
	 -8.13806362e-08 ,	 1.55200628e-06 
	 -1.26486011e-07 ,	 1.94322273e-06 
	 -1.94505209e-07 ,	 2.42617152e-06 
	 -2.94388343e-07 ,	 3.0170053e-06 
	 -4.35472275e-07 ,	 3.73168873e-06 
	 -6.24159268e-07 ,	 4.58580083e-06 
	 -8.58794064e-07 ,	 5.59722876e-06 
	 -1.12526513e-06 ,	 6.7937864e-06 
	 -1.39780464e-06 ,	 8.22463807e-06 
	 -1.64685697e-06 ,	 9.96981358e-06 
	 -1.84917407e-06 ,	 1.21425586e-05 
	 -1.99270943e-06 ,	 1.4886322e-05 
	 -2.07413463e-06 ,	 1.83732188e-05 
	 -2.09246789e-06 ,	 2.28085076e-05 
	 -2.04256639e-06 ,	 2.84410555e-05 
	 -1.90950311e-06 ,	 3.55780372e-05 
