CITIFILE A.01.01
#Momentum: B.12.070 (*) built: Feb 13 2020 
#Momentum Date and Time: Mon Aug 15 03:21:27 2022

NAME Momentum.SP

#  mode: MW    reference: S_50

#eesof Port[1] P1
#eesof Port[2] P2

CONSTANT NBR_OF_PORTS 2

CONSTANT NORMALIZATION 1

VAR freq MAG 163

DATA S[1,1] RI
DATA S[1,2] RI
DATA S[2,1] RI
DATA S[2,2] RI
DATA PORTZ[1] RI
DATA PORTZ[2] RI

VAR_LIST_BEGIN
	 0
	 8.254652041
	 82.54652041
	 825.4652041
	 8254.652041
	 10391.99122
	 13082.74183
	 16470.19614
	 20734.74846
	 26103.50174
	 32862.36168
	 41371.26221
	 52083.33331
	 65569.03184
	 82546.52041
	 103919.9122
	 130827.4183
	 164701.9614
	 207347.4846
	 261035.0174
	 328623.6168
	 413712.6221
	 520833.3331
	 655690.3184
	 825465.2041
	 1039199.122
	 1308274.183
	 1647019.614
	 2073474.846
	 2610350.174
	 3286236.168
	 4137126.221
	 5208333.331
	 6556903.184
	 8254652.041
	 10391991.22
	 13082741.83
	 16470196.14
	 20734748.46
	 26103501.74
	 32862361.68
	 41371262.21
	 52083333.31
	 58888017.66
	 65724723.36
	 82742524.42
	 104166666.6
	 127625925.2
	 156249999.9
	 181096072.2
	 208333333.2
	 260416666.6
	 312499999.9
	 364583333.2
	 416666666.5
	 468749999.8
	 520833333.1
	 572916666.4
	 624999999.8
	 677083333.1
	 729166666.4
	 781249999.7
	 833333333
	 885416666.3
	 937499999.6
	 989583332.9
	 1041666666
	 1093750000
	 1145833333
	 1197916666
	 1250000000
	 1302083333
	 1354166666
	 1406249999
	 1458333333
	 1510416666
	 1562499999
	 1614583333
	 1666666666
	 1770833333
	 1874999999
	 1979166666
	 2083333333
	 2135416666
	 2187499999
	 2239583333
	 2291666666
	 2343749999
	 2395833333
	 2447916666
	 2500000000
	 2604166666
	 2708333333
	 2812500000
	 2916666666
	 3020833333
	 3125000000
	 3229166666
	 3333333333
	 3437500000
	 3541666666
	 3645833333
	 3750000000
	 3854166666
	 3958333333
	 4062500000
	 4166666666
	 4270833333
	 4375000000
	 4479166667
	 4583333333
	 4687500000
	 4791666667
	 4895833333
	 5000000000
	 5104166667
	 5208333333
	 5312500000
	 5416666667
	 5520833333
	 5625000000
	 5729166667
	 5833333334
	 5937500000
	 6041666667
	 6145833334
	 6250000000
	 6354166667
	 6458333334
	 6562500000
	 6666666667
	 6770833334
	 6875000000
	 6979166667
	 7083333334
	 7187500000
	 7291666667
	 7395833334
	 7500000000
	 7604166667
	 7708333334
	 7812500001
	 7916666667
	 8020833334
	 8125000001
	 8229166667
	 8333333334
	 8437500001
	 8541666667
	 8645833334
	 8750000000
	 8854166667
	 8958333334
	 9062500000
	 9166666667
	 9270833334
	 9375000000
	 9479166667
	 9583333334
	 9687500000
	 9791666667
	 9895833333
	 1e+10
VAR_LIST_END

BEGIN
	 0.999999999999998445687765524781 ,	 -0 
	 0.999999999999999555910790149937 ,	 -2.37292052673865327960811555386e-09 
	 0.99999999999999922284388276239 ,	 -2.37292053784088352585968095809e-08 
	 0.999999999999968913755310495617 ,	 -2.37292053534288172045307874214e-07 
	 0.999999999996926014489417866571 ,	 -2.3729205357592153546875124448e-06 
	 0.999999999995128896479457125679 ,	 -2.98732996259487570966939529171e-06 
	 0.999999999992280397265176361543 ,	 -3.76082560329948911714836867759e-06 
	 0.999999999987765231246328312409 ,	 -4.7345989213909422943515892257e-06 
	 0.99999999998060973283031671599 ,	 -5.9605068966350760462091784575e-06 
	 0.99999999996926802747765350432 ,	 -7.50383359929274185162739740917e-06 
	 0.999999999951293405686669757415 ,	 -9.44676680397771306729737261776e-06 
	 0.999999999922805860030905478197 ,	 -1.18927747885799739435697119916e-05 
	 0.999999999877655754154659462074 ,	 -1.49721163976157534136746107833e-05 
	 0.999999999806097106258562234871 ,	 -1.88487778003398886994546046481e-05 
	 0.999999999692685159757843393891 ,	 -2.37292053522908386042900019675e-05 
	 0.999999999512939385937215774902 ,	 -2.98732996159845054506831729668e-05 
	 0.999999999228060820755104032287 ,	 -3.76082560133994547868496738374e-05 
	 0.999999998776558429725014320866 ,	 -4.73459891739136384813946278882e-05 
	 0.999999998060976058589233161911 ,	 -5.96050688883853485577901665238e-05 
	 0.999999996926854706202902889345 ,	 -7.50383358370521058589019958163e-05 
	 0.999999995129393526305250361474 ,	 -9.44676677276379272996109648375e-05 
	 0.999999992280609428796367410541 ,	 -0.000118927747263380956255218734441 
	 0.99999998776558984836526633444 ,	 -0.000149721162734484103395971033024 
	 0.999999980609768246431201532687 ,	 -0.000188487775526297030026512402401 
	 0.999999969268555055634806194576 ,	 -0.000237292048580084458109240586055 
	 0.999999951293943145635978453356 ,	 -0.000298732986297706171185950552172 
	 0.999999922806107610639969607291 ,	 -0.00037608254045604083692921904003 
	 0.999999877655937452480827687396 ,	 -0.00047345985247601585221843834006 
	 0.999999806097758625611504612607 ,	 -0.000596050610543852332767755797249 
	 0.999999692685734409280939871678 ,	 -0.000750383202062387955066924405401 
	 0.99999951293990585465820686295 ,	 -0.000944676365402546958094376350346 
	 0.99999922806225871596552678966 ,	 -0.00118927685036396280082726661931 
	 0.99999877656234770206822304317 ,	 -0.00149721038575867382292017282452 
	 0.999998060985054726401699554117 ,	 -0.00188487527799072185352713404427 
	 0.999996926876103087167280136782 ,	 -0.00237291554304652763107696955558 
	 0.999995129446170971654339609813 ,	 -0.00298732000105714212701002452377 
	 0.999992280740905181701805304328 ,	 -0.00376080572798218049079821412306 
	 0.999987765920650639728251007909 ,	 -0.00473455926653418290861452533136 
	 0.999980610596910790555114090239 ,	 -0.00596042778037314535666268966452 
	 0.999969270635396090263213864091 ,	 -0.00750367575862639912820384324732 
	 0.999951299168266305450458730775 ,	 -0.00944645192425325186391660281515 
	 0.999922819224890679912221003178 ,	 -0.0118921466912715878549988701707 
	 0.999877688860744462395757636841 ,	 -0.0149708637165633928756136583615 
	 0.999843652891946210736762168381 ,	 -0.0169264124742269927992310840636 
	 0.999805259218733866077855054755 ,	 -0.018891018063000114546312602215 
	 0.999691433616803459827337974275 ,	 -0.0237805358155369350736663136558 
	 0.999511147554153489558359524381 ,	 -0.0299342460378382302366162548424 
	 0.999266554741279455775782025739 ,	 -0.0366696144185467420850699227231 
	 0.998901527722063642400485150574 ,	 -0.044882835429861128728745711669 
	 0.998525585160068507306618812436 ,	 -0.0520067187953178189374625617347 
	 0.998050669665675460606735214242 ,	 -0.0598096437654651036375241801579 
	 0.996960994250296606011829680938 ,	 -0.074708129908513526418190053846 
	 0.995635370518856532839890860487 ,	 -0.0895722843808237356721946298421 
	 0.994076973530497953746021266852 ,	 -0.104396671779768079879602282745 
	 0.992289146132927957211222746992 ,	 -0.119176432999045456284648025758 
	 0.990275275710937208373252360616 ,	 -0.133907253511298424131226170175 
	 0.98803,	-0.14858
	 0.98558,	-0.1632
	 0.98291,	-0.17776
	 0.98002,	-0.19227
	 0.97692,	-0.2067
	 0.97362,	-0.22107
	 0.9701,	-0.23537
	 0.96639,	-0.2496
	 0.96247,	-0.26375
	 0.95835,	-0.27782
	 0.95403,	-0.29182
	 0.94951,	-0.30573
	 0.9448,	-0.31956
	 0.93989,	-0.33331
	 0.93479,	-0.34696
	 0.92951,	-0.36052
	 0.92403,	-0.37399
	 0.91836,	-0.38736
	 0.91251,	-0.40062
	 0.90648,	-0.41379
	 0.90027,	-0.42685
	 0.89387,	-0.4398
	 0.8873,	-0.45264
	 0.87363,	-0.47798
	 0.85928,	-0.50284
	 0.84426,	-0.52721
	 0.8286,	-0.55106
	 0.82053,	-0.56279
	 0.81231,	-0.57438
	 0.80393,	-0.58584
	 0.79541,	-0.59715
	 0.78674,	-0.60833
	 0.77793,	-0.61936
	 0.76898,	-0.63025
	 0.75989,	-0.64099
	 0.7413,	-0.66201
	 0.72219,	-0.68243
	 0.70259,	-0.70223
	 0.68252,	-0.7214
	 0.66199,	-0.73992
	 0.64104,	-0.75779
	 0.61968,	-0.775
	 0.59795,	-0.79154
	 0.57585,	-0.80741
	 0.55342,	-0.82259
	 0.53067,	-0.8371
	 0.50764,	-0.85091
	 0.48434,	-0.86403
	 0.46079,	-0.87645
	 0.43702,	-0.88818
	 0.41305,	-0.89922
	 0.38889,	-0.90955
	 0.36458,	-0.91919
	 0.34012,	-0.92814
	 0.31555,	-0.93639
	 0.29087,	-0.94395
	 0.26612,	-0.95082
	 0.2413,	-0.95701
	 0.21644,	-0.96252
	 0.19155,	-0.96735
	 0.16666,	-0.9715
	 0.14178,	-0.97499
	 0.11692,	-0.97782
	 0.092108,	-0.97999
	 0.067351,	-0.98151
	 0.042667,	-0.98238
	 0.018073,	-0.98262
	-0.006419,	-0.98223
	-0.030793,	-0.98121
	-0.055037,	-0.97958
	-0.079136,	-0.97734
	-0.10307,	-0.97449
	-0.12685,	-0.97105
	-0.15044,	-0.96703
	-0.17384,	-0.96242
	-0.19704,	-0.95725
	-0.22002,	-0.95151
	-0.24278,	-0.94521
	-0.2653,	-0.93837
	-0.28758,	-0.93098
	-0.30961,	-0.92307
	-0.33138,	-0.91462
	-0.35289,	-0.90566
	-0.37411,	-0.89618
	-0.39505,	-0.8862
	-0.4157,	-0.87572
	-0.43605,	-0.86475
	-0.45609,	-0.85329
	-0.47582,	-0.84135
	-0.49524,	-0.82893
	-0.51433,	-0.81603
	-0.53308,	-0.80267
	-0.5515,	-0.78884
	-0.56958,	-0.77455
	-0.58731,	-0.75979
	-0.60467,	-0.74458
	-0.62168,	-0.7289
	-0.63831,	-0.71277
	-0.65457,	-0.69618
	-0.67044,	-0.67913
	-0.68591,	-0.66162
	-0.70097,	-0.64364
	-0.71562,	-0.62519
	-0.72985,	-0.60628
	-0.74363,	-0.58688
	-0.75696,	-0.567
	-0.76982,	-0.54664
END
BEGIN
	 1.98416265000000000872094104619e-19 ,	 0 
	 3.3827107800000002263984680645e-17 ,	 2.69126907999999981430610057994e-12 
	 1.44849410000000009544072650285e-16 ,	 2.69127133999999998801449670881e-11 
	 1.12826414999999995922797136647e-14 ,	 2.69127108999999984369819252145e-10 
	 1.12462123000000005188071049577e-12 ,	 2.69127055999999996426263099191e-09 
	 1.7823841400000000114310551676e-12 ,	 3.38810850999999997740450967962e-09 
	 2.82486881000000005852322066029e-12 ,	 4.26537509000000026355712952016e-09 
	 4.4770879699999996561819243907e-12 ,	 5.36978751000000020214736440424e-09 
	 7.09568862000000020277703655236e-12 ,	 6.76015876999999963960748394103e-09 
	 1.12458749000000000238758242882e-11 ,	 8.5105293099999995896207910886e-09 
	 1.78234692999999989753218565129e-11 ,	 1.07141089999999991956644511512e-08 
	 2.8248210200000000167791450743e-11 ,	 1.34882387999999997668311676785e-08 
	 4.47702265999999992128826496213e-11 ,	 1.69806362999999998551981178832e-08 
	 7.09556163999999960306083887789e-11 ,	 2.13772539999999983592836983555e-08 
	 1.12456089000000002752233155178e-10 ,	 2.6912167899999998638517752724e-08 
	 1.7822843e-10 ,	 3.38800121e-08 
	 2.82466907e-10 ,	 4.26516102e-08 
	 4.476645e-10 ,	 5.36936039e-08 
	 7.09461847e-10 ,	 6.75930661e-08 
	 1.1243244e-09 ,	 8.50882919e-08 
	 1.78169089e-09 ,	 1.07107172e-07 
	 2.82317913e-09 ,	 1.34814729e-07 
	 4.47290441e-09 ,	 1.69671411e-07 
	 7.08522857e-09 ,	 2.13503425e-07 
	 1.12196804e-08 ,	 2.68585189e-07 
	 1.77578089e-08 ,	 3.37731155e-07 
	 2.80836908e-08 ,	 4.24387871e-07 
	 4.43584248e-08 ,	 5.3270424e-07 
	 6.9926824e-08 ,	 6.67532814e-07 
	 1.09893709e-07 ,	 8.3426955e-07 
	 1.71876944e-07 ,	 1.03836476e-06 
	 2.66839302e-07 ,	 1.28423655e-06 
	 4.09643348e-07 ,	 1.57324061e-06 
	 6.18488349e-07 ,	 1.90047534e-06 
	 9.11793112e-07 ,	 2.25091645e-06 
	 1.30112279e-06 ,	 2.59707501e-06 
	 1.78097611e-06 ,	 2.90239825e-06 
	 2.32120372e-06 ,	 3.13379449e-06 
	 2.87089663e-06 ,	 3.27952123e-06 
	 3.37584932e-06 ,	 3.36013191e-06 
	 3.79851737e-06 ,	 3.42320522e-06 
	 4.12667714e-06 ,	 3.5271082e-06 
	 4.36872501e-06 ,	 3.72690253e-06 
	 4.46898044e-06 ,	 3.88908327e-06 
	 4.54515838e-06 ,	 4.07371506e-06 
	 4.67409635e-06 ,	 4.60132423e-06 
	 4.77796729e-06 ,	 5.35152038e-06 
	 4.86366056e-06 ,	 6.2312309e-06 
	 4.95634784e-06 ,	 7.34354627e-06 
	 5.03579441e-06 ,	 8.32236533e-06 
	 5.12576197e-06 ,	 9.39578948e-06 
	 5.30941511e-06 ,	 1.14185703e-05 
	 5.50489479e-06 ,	 1.33685318e-05 
	 5.70239608e-06 ,	 1.52170752e-05 
	 5.88837322e-06 ,	 1.69419964e-05 
	 6.04660251e-06 ,	 1.85247129e-05 
	 6.15860201e-06 ,	 1.99492278e-05 
	 6.20385645e-06 ,	 2.12017371e-05 
	 6.15997698e-06 ,	 2.22705049e-05 
	 6.00283966e-06 ,	 2.31458597e-05 
	 5.70671957e-06 ,	 2.38202495e-05 
	 5.24442743e-06 ,	 2.42883242e-05 
	 4.58745173e-06 ,	 2.45470299e-05 
	 3.70610779e-06 ,	 2.45957077e-05 
	 2.56969406e-06 ,	 2.44361905e-05 
	 1.14665585e-06 ,	 2.40728959e-05 
	 -5.95243611e-07 ,	 2.35129121e-05 
	 -2.68874533e-06 ,	 2.27660764e-05 
	 -5.16691005e-06 ,	 2.18450442e-05 
	 -8.06292778e-06 ,	 2.07653482e-05 
	 -1.14099218e-05 ,	 1.95454466e-05 
	 -1.52407477e-05 ,	 1.820676e-05 
	 -1.95877883e-05 ,	 1.67736968e-05 
	 -2.4482745e-05 ,	 1.52736648e-05 
	 -2.99564259e-05 ,	 1.37370718e-05 
	 -3.60385327e-05 ,	 1.21973113e-05 
	 -4.27574453e-05 ,	 1.06907353e-05 
	 -5.01400072e-05 ,	 9.25661357e-06 
	 -5.821131e-05 ,	 7.93707833e-06 
	 -7.65104706e-05 ,	 5.82417923e-06 
	 -9.78125903e-05 ,	 4.74336065e-06 
	 -0.00012223398 ,	 5.12584082e-06 
	 -0.000149843367 ,	 7.43849256e-06 
	 -0.000164850592 ,	 9.47304154e-06 
	 -0.000180656119 ,	 1.2178743e-05 
	 -0.000197252678 ,	 1.562158e-05 
	 -0.000214629051 ,	 1.98686657e-05 
	 -0.000232769952 ,	 2.49880198e-05 
	 -0.000251655914 ,	 3.10483355e-05 
	 -0.000271263193 ,	 3.81187383e-05 
	 -0.000291563691 ,	 4.62685362e-05 
	 -0.000334109772 ,	 6.60829247e-05 
	 -0.000378980104 ,	 9.10397736e-05 
	 -0.000425788345 ,	 0.000121673421 
	 -0.000474076096 ,	 0.000158495569 
	 -0.000523314189 ,	 0.000201986575 
	 -0.000572905042 ,	 0.000252586872 
	 -0.00062218606 ,	 0.00031068867 
	 -0.000670434003 ,	 0.000376628063 
	 -0.000716870285 ,	 0.00045067766 
	 -0.000760667093 ,	 0.000533039855 
	 -0.000800954246 ,	 0.000623840819 
	 -0.000836826681 ,	 0.000723125293 
	 -0.000867352443 ,	 0.000830852231 
	 -0.000891581087 ,	 0.000946891329 
	 -0.00090855236 ,	 0.00107102047 
	 -0.000917305058 ,	 0.00120292404 
	 -0.000916885965 ,	 0.0013421922 
	 -0.000906358771 ,	 0.00148832097 
	 -0.000884812891 ,	 0.00164071315 
	 -0.000851372112 ,	 0.0017986801 
	 -0.000805203014 ,	 0.00196144417 
	 -0.0007455231 ,	 0.00212814192 
	 -0.00067160861 ,	 0.00229782795 
	 -0.000582801977 ,	 0.00246947936 
	 -0.0004785189 ,	 0.0026420008 
	 -0.000358255009 ,	 0.00281423006 
	 -0.000221592108 ,	 0.00298494414 
	 -6.82039626e-05 ,	 0.0031528659 
	 0.000102138377 ,	 0.00331667108 
	 0.000289561754 ,	 0.00347499587 
	 0.00049408661 ,	 0.00362644485 
	 0.000715623256 ,	 0.0037695994 
	 0.000953968748 ,	 0.00390302652 
	 0.00120880442 ,	 0.00402528799 
	 0.00147969415 ,	 0.00413494999 
	 0.00176608331 ,	 0.00423059287 
	 0.00206729871 ,	 0.0043108214 
	 0.00238254922 ,	 0.00437427504 
	 0.00271092753 ,	 0.00441963848 
	 0.00305141281 ,	 0.00444565215 
	 0.00340287444 ,	 0.0044511227 
	 0.00376407684 ,	 0.00443493331 
	 0.00413368541 ,	 0.00439605371 
	 0.00451027356 ,	 0.00433354973 
	 0.00489233084 ,	 0.00424659232 
	 0.00527827215 ,	 0.00413446577 
	 0.00566644791 ,	 0.0039965751 
	 0.00605515515 ,	 0.00383245242 
	 0.0064426,	 0.0036418
	 0.0068272,	 0.0034243
	 0.0072069,	 0.00318
	 0.0075801,	 0.002909
	 0.0079449,	 0.0026114
	 0.0082996,	 0.0022877
	 0.0086425,	 0.0019383
	 0.0089719,	 0.0015638
	 0.0092862,	 0.0011649
	 0.0095838,	 0.00074263
	 0.0098634,	 0.00029781
	 0.010124,	-0.00016848
	 0.010363,	-0.0006551
	 0.010581,	-0.0011608
	 0.010775,	-0.0016844
	 0.010946,	-0.0022245
	 0.011092,	-0.0027799
	 0.011213,	-0.003349
	 0.011308,	-0.0039306
	 0.011377,	-0.0045232
	 0.011419,	-0.0051255
	 0.011434,	-0.0057362
	 0.011421,	-0.006354
	 0.011382,	-0.0069775
END
BEGIN
	 1.98416265000000000872094104619e-19 ,	 0 
	 3.3827107800000002263984680645e-17 ,	 2.69126907999999981430610057994e-12 
	 1.44849410000000009544072650285e-16 ,	 2.69127133999999998801449670881e-11 
	 1.12826414999999995922797136647e-14 ,	 2.69127108999999984369819252145e-10 
	 1.12462123000000005188071049577e-12 ,	 2.69127055999999996426263099191e-09 
	 1.7823841400000000114310551676e-12 ,	 3.38810850999999997740450967962e-09 
	 2.82486881000000005852322066029e-12 ,	 4.26537509000000026355712952016e-09 
	 4.4770879699999996561819243907e-12 ,	 5.36978751000000020214736440424e-09 
	 7.09568862000000020277703655236e-12 ,	 6.76015876999999963960748394103e-09 
	 1.12458749000000000238758242882e-11 ,	 8.5105293099999995896207910886e-09 
	 1.78234692999999989753218565129e-11 ,	 1.07141089999999991956644511512e-08 
	 2.8248210200000000167791450743e-11 ,	 1.34882387999999997668311676785e-08 
	 4.47702265999999992128826496213e-11 ,	 1.69806362999999998551981178832e-08 
	 7.09556163999999960306083887789e-11 ,	 2.13772539999999983592836983555e-08 
	 1.12456089000000002752233155178e-10 ,	 2.6912167899999998638517752724e-08 
	 1.7822843e-10 ,	 3.38800121e-08 
	 2.82466907e-10 ,	 4.26516102e-08 
	 4.476645e-10 ,	 5.36936039e-08 
	 7.09461847e-10 ,	 6.75930661e-08 
	 1.1243244e-09 ,	 8.50882919e-08 
	 1.78169089e-09 ,	 1.07107172e-07 
	 2.82317913e-09 ,	 1.34814729e-07 
	 4.47290441e-09 ,	 1.69671411e-07 
	 7.08522857e-09 ,	 2.13503425e-07 
	 1.12196804e-08 ,	 2.68585189e-07 
	 1.77578089e-08 ,	 3.37731155e-07 
	 2.80836908e-08 ,	 4.24387871e-07 
	 4.43584248e-08 ,	 5.3270424e-07 
	 6.9926824e-08 ,	 6.67532814e-07 
	 1.09893709e-07 ,	 8.3426955e-07 
	 1.71876944e-07 ,	 1.03836476e-06 
	 2.66839302e-07 ,	 1.28423655e-06 
	 4.09643348e-07 ,	 1.57324061e-06 
	 6.18488349e-07 ,	 1.90047534e-06 
	 9.11793112e-07 ,	 2.25091645e-06 
	 1.30112279e-06 ,	 2.59707501e-06 
	 1.78097611e-06 ,	 2.90239825e-06 
	 2.32120372e-06 ,	 3.13379449e-06 
	 2.87089663e-06 ,	 3.27952123e-06 
	 3.37584932e-06 ,	 3.36013191e-06 
	 3.79851737e-06 ,	 3.42320522e-06 
	 4.12667714e-06 ,	 3.5271082e-06 
	 4.36872501e-06 ,	 3.72690253e-06 
	 4.46898044e-06 ,	 3.88908327e-06 
	 4.54515838e-06 ,	 4.07371506e-06 
	 4.67409635e-06 ,	 4.60132423e-06 
	 4.77796729e-06 ,	 5.35152038e-06 
	 4.86366056e-06 ,	 6.2312309e-06 
	 4.95634784e-06 ,	 7.34354627e-06 
	 5.03579441e-06 ,	 8.32236533e-06 
	 5.12576197e-06 ,	 9.39578948e-06 
	 5.30941511e-06 ,	 1.14185703e-05 
	 5.50489479e-06 ,	 1.33685318e-05 
	 5.70239608e-06 ,	 1.52170752e-05 
	 5.88837322e-06 ,	 1.69419964e-05 
	 6.04660251e-06 ,	 1.85247129e-05 
	 6.15860201e-06 ,	 1.99492278e-05 
	 6.20385645e-06 ,	 2.12017371e-05 
	 6.15997698e-06 ,	 2.22705049e-05 
	 6.00283966e-06 ,	 2.31458597e-05 
	 5.70671957e-06 ,	 2.38202495e-05 
	 5.24442743e-06 ,	 2.42883242e-05 
	 4.58745173e-06 ,	 2.45470299e-05 
	 3.70610779e-06 ,	 2.45957077e-05 
	 2.56969406e-06 ,	 2.44361905e-05 
	 1.14665585e-06 ,	 2.40728959e-05 
	 -5.95243611e-07 ,	 2.35129121e-05 
	 -2.68874533e-06 ,	 2.27660764e-05 
	 -5.16691005e-06 ,	 2.18450442e-05 
	 -8.06292778e-06 ,	 2.07653482e-05 
	 -1.14099218e-05 ,	 1.95454466e-05 
	 -1.52407477e-05 ,	 1.820676e-05 
	 -1.95877883e-05 ,	 1.67736968e-05 
	 -2.4482745e-05 ,	 1.52736648e-05 
	 -2.99564259e-05 ,	 1.37370718e-05 
	 -3.60385327e-05 ,	 1.21973113e-05 
	 -4.27574453e-05 ,	 1.06907353e-05 
	 -5.01400072e-05 ,	 9.25661357e-06 
	 -5.821131e-05 ,	 7.93707833e-06 
	 -7.65104706e-05 ,	 5.82417923e-06 
	 -9.78125903e-05 ,	 4.74336065e-06 
	 -0.00012223398 ,	 5.12584082e-06 
	 -0.000149843367 ,	 7.43849256e-06 
	 -0.000164850592 ,	 9.47304154e-06 
	 -0.000180656119 ,	 1.2178743e-05 
	 -0.000197252678 ,	 1.562158e-05 
	 -0.000214629051 ,	 1.98686657e-05 
	 -0.000232769952 ,	 2.49880198e-05 
	 -0.000251655914 ,	 3.10483355e-05 
	 -0.000271263193 ,	 3.81187383e-05 
	 -0.000291563691 ,	 4.62685362e-05 
	 -0.000334109772 ,	 6.60829247e-05 
	 -0.000378980104 ,	 9.10397736e-05 
	 -0.000425788345 ,	 0.000121673421 
	 -0.000474076096 ,	 0.000158495569 
	 -0.000523314189 ,	 0.000201986575 
	 -0.000572905042 ,	 0.000252586872 
	 -0.00062218606 ,	 0.00031068867 
	 -0.000670434003 ,	 0.000376628063 
	 -0.000716870285 ,	 0.00045067766 
	 -0.000760667093 ,	 0.000533039855 
	 -0.000800954246 ,	 0.000623840819 
	 -0.000836826681 ,	 0.000723125293 
	 -0.000867352443 ,	 0.000830852231 
	 -0.000891581087 ,	 0.000946891329 
	 -0.00090855236 ,	 0.00107102047 
	 -0.000917305058 ,	 0.00120292404 
	 -0.000916885965 ,	 0.0013421922 
	 -0.000906358771 ,	 0.00148832097 
	 -0.000884812891 ,	 0.00164071315 
	 -0.000851372112 ,	 0.0017986801 
	 -0.000805203014 ,	 0.00196144417 
	 -0.0007455231 ,	 0.00212814192 
	 -0.00067160861 ,	 0.00229782795 
	 -0.000582801977 ,	 0.00246947936 
	 -0.0004785189 ,	 0.0026420008 
	 -0.000358255009 ,	 0.00281423006 
	 -0.000221592108 ,	 0.00298494414 
	 -6.82039626e-05 ,	 0.0031528659 
	 0.000102138377 ,	 0.00331667108 
	 0.000289561754 ,	 0.00347499587 
	 0.00049408661 ,	 0.00362644485 
