CITIFILE A.01.01
#Momentum: B.12.070 (*) built: Feb 13 2020 
#Momentum Date and Time: Tue Aug 16 10:07:25 2022

NAME Momentum.SP

#  mode: MW    reference: S_50

#eesof Port[1] P1
#eesof Port[2] P2

CONSTANT NBR_OF_PORTS 2

CONSTANT NORMALIZATION 1

VAR freq MAG 478

DATA S[1,1] RI
DATA S[1,2] RI
DATA S[2,1] RI
DATA S[2,2] RI
DATA PORTZ[1] RI
DATA PORTZ[2] RI

VAR_LIST_BEGIN
	 0
	 8.701167245
	 87.01167245
	 870.1167245
	 8701.167245
	 10954.12056
	 13790.42073
	 17361.1111
	 21856.34394
	 27515.5068
	 34639.97072
	 43609.13941
	 54900.65379
	 69115.82818
	 87011.67245
	 109541.2056
	 137904.2073
	 173611.111
	 218563.4394
	 275155.068
	 346399.7072
	 436091.3941
	 549006.5379
	 691158.2818
	 870116.7245
	 1095412.056
	 1379042.073
	 1736111.11
	 2185634.394
	 2751550.68
	 3463997.072
	 4360913.941
	 5490065.379
	 6911582.818
	 8701167.245
	 10954120.56
	 13790420.73
	 17361111.1
	 19629339.22
	 21908241.11
	 27580841.47
	 34722222.2
	 42541975.04
	 52083333.3
	 60365357.38
	 69444444.4
	 86805555.5
	 104166666.6
	 121527777.7
	 138888888.8
	 153356481.4
	 167824074
	 182291666.6
	 196759259.2
	 211226851.7
	 225694444.3
	 240162036.9
	 254629629.5
	 269097222.1
	 283564814.7
	 298032407.3
	 312499999.9
	 326967592.4
	 341435185
	 355902777.6
	 370370370.2
	 399305555.4
	 428240740.6
	 457175925.7
	 486111110.9
	 515046296.1
	 543981481.2
	 572916666.4
	 601851851.6
	 630787036.8
	 659722222
	 688657407.1
	 717592592.3
	 746527777.5
	 775462962.6
	 804398147.8
	 833333333
	 859374999.7
	 885416666.3
	 911458333
	 937499999.6
	 963541666.3
	 989583332.9
	 1015625000
	 1041666666
	 1067708333
	 1093750000
	 1119791666
	 1145833333
	 1171875000
	 1197916666
	 1223958333
	 1250000000
	 1276041666
	 1302083333
	 1328124999
	 1354166666
	 1380208333
	 1406249999
	 1432291666
	 1458333333
	 1484374999
	 1510416666
	 1536458333
	 1562499999
	 1588541666
	 1614583333
	 1640624999
	 1666666666
	 1692708333
	 1718749999
	 1744791666
	 1770833333
	 1796874999
	 1822916666
	 1848958333
	 1875000000
	 1901041666
	 1927083333
	 1953125000
	 1979166666
	 2005208333
	 2031250000
	 2057291666
	 2083333333
	 2109375000
	 2135416666
	 2161458333
	 2187500000
	 2213541666
	 2239583333
	 2265625000
	 2291666666
	 2317708333
	 2343750000
	 2369791667
	 2395833333
	 2421875000
	 2447916667
	 2473958333
	 2500000000
	 2526041667
	 2552083333
	 2578125000
	 2604166667
	 2630208333
	 2656250000
	 2682291667
	 2708333333
	 2734375000
	 2760416667
	 2786458333
	 2812500000
	 2838541667
	 2864583333
	 2890625000
	 2916666666
	 2942708333
	 2968750000
	 2994791666
	 3020833333
	 3046875000
	 3072916666
	 3098958333
	 3125000000
	 3151041666
	 3177083333
	 3203125000
	 3229166666
	 3255208333
	 3281250000
	 3307291666
	 3333333333
	 3356481481
	 3379629629
	 3402777777
	 3425925926
	 3449074074
	 3472222222
	 3495370370
	 3518518518
	 3541666666
	 3564814815
	 3587962963
	 3611111111
	 3634259259
	 3657407407
	 3680555555
	 3703703704
	 3726851852
	 3750000000
	 3773148148
	 3796296296
	 3819444444
	 3842592592
	 3865740741
	 3888888889
	 3912037037
	 3935185185
	 3958333333
	 3981481481
	 4004629630
	 4027777778
	 4050925926
	 4074074074
	 4097222222
	 4120370370
	 4143518518
	 4166666667
	 4189814815
	 4212962963
	 4236111111
	 4259259259
	 4270833333
	 4282407407
	 4293981481
	 4305555556
	 4317129630
	 4328703704
	 4340277778
	 4351851852
	 4363425926
	 4375000000
	 4386574074
	 4398148148
	 4409722222
	 4421296296
	 4432870370
	 4444444444
	 4456018519
	 4467592593
	 4479166667
	 4490740741
	 4502314815
	 4513888889
	 4525462963
	 4537037037
	 4560185185
	 4583333333
	 4606481482
	 4629629630
	 4652777778
	 4675925926
	 4699074074
	 4722222222
	 4745370371
	 4768518519
	 4791666667
	 4814814815
	 4837962963
	 4861111111
	 4884259259
	 4907407408
	 4930555556
	 4953703704
	 4976851852
	 5000000000
	 5023148148
	 5046296297
	 5069444445
	 5092592593
	 5115740741
	 5138888889
	 5162037037
	 5185185186
	 5208333334
	 5231481482
	 5254629630
	 5277777778
	 5300925926
	 5324074074
	 5347222223
	 5370370371
	 5393518519
	 5416666667
	 5439814815
	 5462962963
	 5486111112
	 5509259260
	 5532407408
	 5555555556
	 5590277778
	 5625000000
	 5659722223
	 5694444445
	 5729166667
	 5763888889
	 5798611112
	 5833333334
	 5868055556
	 5902777778
	 5937500000
	 5972222223
	 6006944445
	 6041666667
	 6076388889
	 6111111112
	 6145833334
	 6180555556
	 6215277778
	 6250000000
	 6284722223
	 6319444445
	 6354166667
	 6388888889
	 6423611111
	 6458333334
	 6493055556
	 6527777778
	 6562500000
	 6597222223
	 6631944445
	 6666666667
	 6695601852
	 6724537037
	 6753472223
	 6782407408
	 6811342593
	 6840277778
	 6869212963
	 6898148148
	 6927083334
	 6956018519
	 6984953704
	 7013888889
	 7042824074
	 7071759260
	 7100694445
	 7129629630
	 7158564815
	 7187500000
	 7216435186
	 7245370371
	 7259837963
	 7274305556
	 7288773149
	 7303240741
	 7317708334
	 7332175926
	 7346643519
	 7361111112
	 7375578704
	 7390046297
	 7404513889
	 7418981482
	 7426215278
	 7433449074
	 7440682871
	 7447916667
	 7455150463
	 7462384260
	 7469618056
	 7476851852
	 7484085649
	 7491319445
	 7498553241
	 7505787037
	 7513020834
	 7520254630
	 7527488426
	 7534722223
	 7541956019
	 7549189815
	 7556423612
	 7563657408
	 7570891204
	 7578125000
	 7585358797
	 7592592593
	 7598379630
	 7604166667
	 7609953704
	 7615740741
	 7621527778
	 7627314815
	 7633101852
	 7638888889
	 7644675926
	 7650462963
	 7656250000
	 7662037037
	 7667824074
	 7673611111
	 7679398148
	 7685185186
	 7690972223
	 7696759260
	 7702546297
	 7708333334
	 7714120371
	 7719907408
	 7725694445
	 7731481482
	 7743055556
	 7754629630
	 7766203704
	 7777777778
	 7786458334
	 7795138889
	 7803819445
	 7812500000
	 7821180556
	 7829861111
	 7838541667
	 7847222222
	 7864583334
	 7881944445
	 7899305556
	 7916666667
	 7934027778
	 7951388889
	 7968750000
	 7986111112
	 8003472223
	 8020833334
	 8038194445
	 8055555556
	 8090277778
	 8125000000
	 8159722223
	 8194444445
	 8229166667
	 8263888890
	 8298611112
	 8333333334
	 8359375001
	 8385416667
	 8411458334
	 8437500001
	 8463541667
	 8489583334
	 8515625001
	 8541666667
	 8593750001
	 8645833334
	 8697916667
	 8750000000
	 8802083334
	 8854166667
	 8906250000
	 8958333334
	 9010416667
	 9062500000
	 9114583334
	 9166666667
	 9201388889
	 9236111111
	 9270833334
	 9305555556
	 9340277778
	 9375000000
	 9409722222
	 9444444444
	 9479166667
	 9513888889
	 9548611111
	 9583333333
	 9618055555
	 9652777778
	 9687500000
	 9722222222
	 9756944444
	 9791666666
	 9826388889
	 9861111111
	 9878472222
	 9895833333
	 9913194444
	 9930555556
	 9947916667
	 9965277778
	 9982638889
	 1e+10
VAR_LIST_END

BEGIN
	 6.40512595999999986146056230041e-05 ,	 -0 
	 6.40512595999999986146056230041e-05 ,	 -2.61508148000000000674830048992e-09 
	 6.40512595999999986146056230041e-05 ,	 -2.61508175999999984785007381546e-08 
	 6.40512594000000021242716141678e-05 ,	 -2.61508170999999999734763255974e-07 
	 6.40512441000000063394403948536e-05 ,	 -2.61508171000000010322675096652e-06 
	 6.40512349999999966226535419445e-05 ,	 -3.29219281999999979491694675204e-06 
	 6.40512206999999968420195228802e-05 ,	 -4.14462519000000020348963361561e-06 
	 6.40511979000000039206549895532e-05 ,	 -5.21777396999999964018928169662e-06 
	 6.40511617999999936703264813431e-05 ,	 -6.568788240000000226009868598e-06 
	 6.40511045999999945477904050861e-05 ,	 -8.26961441000000080240109334717e-06 
	 6.4051013999999998780807142218e-05 ,	 -1.04108277000000004489446703282e-05 
	 6.40508703000000064820343426142e-05 ,	 -1.31064554000000006337648544852e-05 
	 6.40506427000000024864212466724e-05 ,	 -1.6500049600000001617751063665e-05 
	 6.4050281799999999872256839506e-05 ,	 -2.07723313999999988608852891092e-05 
	 6.40497099000000001157995033196e-05 ,	 -2.61508150999999997065106893679e-05 
	 6.40488035e-05 ,	 -3.29219242e-05 
	 6.40473669e-05 ,	 -4.14462441e-05 
	 6.40450901e-05 ,	 -5.2177724e-05 
	 6.40414816e-05 ,	 -6.56878511e-05 
	 6.40357623e-05 ,	 -8.26960816e-05 
	 6.40266977e-05 ,	 -0.000104108152 
	 6.40123307e-05 ,	 -0.000131064306 
	 6.39895594e-05 ,	 -0.000165 
	 6.39534659e-05 ,	 -0.000207722324 
	 6.38962534e-05 ,	 -0.000261506176 
	 6.38055572e-05 ,	 -0.000329215302 
	 6.36617618e-05 ,	 -0.000414454581 
	 6.34337319e-05 ,	 -0.000521761567 
	 6.30720044e-05 ,	 -0.000656847265 
	 6.24978922e-05 ,	 -0.000826898562 
	 6.15859546e-05 ,	 -0.00104095759 
	 6.01355685e-05 ,	 -0.00131039664 
	 5.7824302e-05 ,	 -0.00164951106 
	 5.41302537e-05 ,	 -0.00207625617 
	 4.82002148e-05 ,	 -0.00261315838 
	 3.86212747e-05 ,	 -0.00328843501 
	 2.30188002e-05 ,	 -0.00413736511 
	 -2.65305768e-06 ,	 -0.00520397558 
	 -2.2689869e-05 ,	 -0.00588021475 
	 -4.59014211e-05 ,	 -0.00655859505 
	 -0.000117835892 ,	 -0.00824278574 
	-0.00023872,	-0.010355
	-0.00041134,	-0.012659
	-0.00067943,	-0.015459
	-0.00096274,	-0.017882
	-0.0013263,	-0.020529
	-0.0021717,	-0.025565
	-0.0032087,	-0.030563
	-0.0044318,	-0.035516
	-0.0058365,	-0.040419
	-0.0071429,	-0.044461
	-0.0085704,	-0.048461
	-0.010117,	-0.052415
	-0.011781,	-0.056321
	-0.01356,	-0.060174
	-0.015452,	-0.063973
	-0.017456,	-0.067715
	-0.01957,	-0.071397
	-0.021791,	-0.075015
	-0.024118,	-0.078569
	-0.026549,	-0.082054
	-0.029082,	-0.085468
	-0.031715,	-0.088809
	-0.034445,	-0.092074
	-0.03727,	-0.095261
	-0.040189,	-0.098367
	-0.046296,	-0.10432
	-0.052747,	-0.10993
	-0.059521,	-0.11517
	-0.066597,	-0.12002
	-0.073952,	-0.12448
	-0.081564,	-0.12852
	-0.089408,	-0.13214
	-0.097461,	-0.13532
	-0.10569,	-0.13806
	-0.11409,	-0.14034
	-0.12262,	-0.14217
	-0.13126,	-0.14353
	-0.13998,	-0.14442
	-0.14876,	-0.14485
	-0.15758,	-0.1448
	-0.1664,	-0.14429
	-0.17433,	-0.14342
	-0.18223,	-0.14219
	-0.19008,	-0.14057
	-0.19786,	-0.13859
	-0.20556,	-0.13625
	-0.21316,	-0.13355
	-0.22065,	-0.13049
	-0.22801,	-0.12709
	-0.23523,	-0.12335
	-0.24228,	-0.11928
	-0.24917,	-0.11488
	-0.25586,	-0.11018
	-0.26236,	-0.10517
	-0.26864,	-0.099874
	-0.2747,	-0.09429
	-0.28052,	-0.088435
	-0.28609,	-0.082319
	-0.29141,	-0.075955
	-0.29646,	-0.069355
	-0.30123,	-0.06253
	-0.30572,	-0.055493
	-0.30992,	-0.048258
	-0.31381,	-0.040837
	-0.3174,	-0.033244
	-0.32067,	-0.025493
	-0.32362,	-0.017596
	-0.32625,	-0.0095673
	-0.32855,	-0.0014217
	-0.33051,	 0.0068272
	-0.33214,	 0.015165
	-0.33342,	 0.023578
	-0.33436,	 0.032052
	-0.33496,	 0.040571
	-0.3352,	 0.049123
	-0.3351,	 0.057692
	-0.33465,	 0.066264
	-0.33386,	 0.074824
	-0.33271,	 0.083358
	-0.33122,	 0.091852
	-0.32938,	 0.10029
	-0.3272,	 0.10866
	-0.32468,	 0.11694
	-0.32183,	 0.12513
	-0.31864,	 0.13321
	-0.31512,	 0.14117
	-0.31128,	 0.14898
	-0.30712,	 0.15664
	-0.30264,	 0.16413
	-0.29786,	 0.17145
	-0.29278,	 0.17857
	-0.28741,	 0.18548
	-0.28175,	 0.19217
	-0.27582,	 0.19864
	-0.26962,	 0.20485
	-0.26316,	 0.21081
	-0.25645,	 0.2165
	-0.24951,	 0.22191
	-0.24234,	 0.22703
	-0.23496,	 0.23184
	-0.22738,	 0.23634
	-0.21961,	 0.24051
	-0.21166,	 0.24434
	-0.20355,	 0.24784
	-0.19529,	 0.25097
	-0.1869,	 0.25375
	-0.17839,	 0.25615
	-0.16979,	 0.25817
	-0.16109,	 0.25981
	-0.15234,	 0.26105
	-0.14353,	 0.26189
	-0.13469,	 0.26232
	-0.12584,	 0.26235
	-0.11699,	 0.26196
	-0.10818,	 0.26115
	-0.099412,	 0.25992
	-0.090709,	 0.25826
	-0.082095,	 0.25619
	-0.07359,	 0.25368
	-0.065218,	 0.25076
	-0.057001,	 0.24741
	-0.04896,	 0.24365
	-0.041119,	 0.23947
	-0.033501,	 0.23488
	-0.026129,	 0.22988
	-0.019027,	 0.22449
	-0.012219,	 0.21871
	-0.0057283,	 0.21255
	 0.0004213,	 0.20603
	 0.006206,	 0.19915
	 0.011602,	 0.19194
	 0.016586,	 0.18439
	 0.021135,	 0.17654
	 0.025225,	 0.16841
	 0.028835,	 0.16
	 0.031942,	 0.15135
	 0.034524,	 0.14247
	 0.036364,	 0.13442
	 0.037758,	 0.12622
	 0.038695,	 0.11791
	 0.039161,	 0.1095
	 0.039145,	 0.10101
	 0.038634,	 0.092473
	 0.037619,	 0.083903
	 0.03609,	 0.07533
	 0.034038,	 0.066777
	 0.031457,	 0.058273
	 0.028338,	 0.049845
	 0.024679,	 0.041521
	 0.020474,	 0.033332
	 0.015722,	 0.025308
	 0.010421,	 0.01748
	 0.0045725,	 0.0098792
	 -0.00182130546 ,	 0.00253918844 
	-0.0087563,	-0.0045072
	-0.016227,	-0.011226
	-0.024224,	-0.017584
	-0.032739,	-0.023545
	-0.04176,	-0.029076
	-0.051273,	-0.034142
	-0.06126,	-0.038707
	-0.071705,	-0.042737
	-0.082585,	-0.046198
	-0.093879,	-0.049055
	-0.10555,	-0.051276
	-0.11759,	-0.052827
	-0.12996,	-0.053677
	-0.14263,	-0.053796
	-0.15555,	-0.053152
	-0.1687,	-0.05172
	-0.18203,	-0.049471
	-0.1955,	-0.046383
	-0.20906,	-0.042432
	-0.22267,	-0.037598
	-0.23628,	-0.031864
	-0.24983,	-0.025215
	-0.26328,	-0.017638
	-0.26995,	-0.013498
	-0.27656,	-0.0091236
	-0.28313,	-0.0045134
	-0.28963,	 0.00033289
	-0.29607,	 0.0054155
	-0.30242,	 0.010734
	-0.3087,	 0.016289
	-0.31488,	 0.02208
	-0.32096,	 0.028105
	-0.32694,	 0.034364
	-0.3328,	 0.040855
	-0.33854,	 0.047578
	-0.34415,	 0.05453
	-0.34963,	 0.061709
	-0.35496,	 0.069113
	-0.36014,	 0.07674
	-0.36515,	 0.084586
	-0.37001,	 0.09265
	-0.37468,	 0.10092
	-0.37917,	 0.10941
	-0.38348,	 0.1181
	-0.38758,	 0.12699
	-0.39148,	 0.13608
	-0.39517,	 0.14537
	-0.40188,	 0.16449
	-0.40767,	 0.18433
	-0.41247,	 0.20482
	-0.41623,	 0.22592
	-0.41891,	 0.24758
	-0.42047,	 0.26973
	-0.42086,	 0.29232
	-0.42004,	 0.31528
	-0.41799,	 0.33853
	-0.41468,	 0.36201
	-0.41007,	 0.38565
	-0.40416,	 0.40936
	-0.39693,	 0.43307
	-0.38837,	 0.45671
	-0.37847,	 0.48019
	-0.36725,	 0.50343
	-0.35471,	 0.52636
	-0.34085,	 0.54889
	-0.32571,	 0.57094
	-0.30931,	 0.59245
	-0.29166,	 0.61332
	-0.27282,	 0.6335
	-0.25281,	 0.6529
	-0.23169,	 0.67146
	-0.20949,	 0.68913
	-0.18628,	 0.70582
	-0.16211,	 0.72149
	-0.13703,	 0.73609
	-0.11111,	 0.74957
	-0.084429,	 0.76187
	-0.057033,	 0.77297
	-0.029,	 0.78283
	-0.00040021,	 0.79141
	 0.028693,	 0.7987
	 0.058207,	 0.80467
	 0.088069,	 0.80931
	 0.1182,	 0.8126
	 0.14854,	 0.81454
	 0.17901,	 0.81513
	 0.20953,	 0.81437
	 0.24004,	 0.81228
	 0.27048,	 0.80885
	 0.30076,	 0.80411
	 0.33084,	 0.79807
	 0.37541,	 0.78664
	 0.41918,	 0.77243
	 0.46193,	 0.75555
	 0.50352,	 0.73612
	 0.54377,	 0.71425
	 0.58254,	 0.69008
	 0.61971,	 0.66375
	 0.65516,	 0.63541
	 0.68879,	 0.6052
	 0.72053,	 0.57328
	 0.75029,	 0.53979
	 0.77803,	 0.50489
	 0.80369,	 0.46872
	 0.82725,	 0.43143
	 0.84867,	 0.39317
	 0.86796,	 0.35406
	 0.88509,	 0.31424
	 0.90008,	 0.27385
	 0.91294,	 0.23299
	 0.92368,	 0.1918
	 0.93232,	 0.15037
	 0.9389,	 0.10881
	 0.94343,	 0.067232
	 0.94595,	 0.02571
	 0.94651,	-0.015664
	 0.94512,	-0.056809
	 0.94183,	-0.09765
	 0.93668,	-0.13811
	 0.92969,	-0.17814
	 0.92091,	-0.21768
	 0.91036,	-0.25666
	 0.89807,	-0.29504
	 0.88651,	-0.32653
	 0.87377,	-0.35754
	 0.85985,	-0.38804
	 0.84477,	-0.41801
	 0.8285,	-0.44743
	 0.81107,	-0.47627
	 0.79244,	-0.5045
	 0.77261,	-0.53209
	 0.75155,	-0.55901
	 0.72922,	-0.58523
	 0.7056,	-0.6107
	 0.68062,	-0.63537
	 0.65423,	-0.65917
	 0.62634,	-0.68203
	 0.59686,	-0.70385
	 0.56569,	-0.72449
	 0.53269,	-0.74379
	 0.49774,	-0.76154
	 0.46067,	-0.77745
	 0.42134,	-0.79116
	 0.40077,	-0.79704
	 0.37959,	-0.80218
	 0.35777,	-0.80649
	 0.3353,	-0.80988
	 0.3122,	-0.81224
	 0.28847,	-0.81345
	 0.26412,	-0.81336
	 0.23921,	-0.81184
	 0.21379,	-0.8087
	 0.18796,	-0.80376
	 0.16183,	-0.79682
	 0.1356,	-0.78768
	 0.1225,	-0.78222
	 0.10947,	-0.77613
	 0.096539,	-0.76938
	 0.083747,	-0.76196
	 0.071143,	-0.75383
	 0.058781,	-0.74499
	 0.046717,	-0.73542
	 0.035013,	-0.7251
	 0.023738,	-0.71404
	 0.012962,	-0.70222
	 0.0027609,	-0.68966
	-0.0067852,	-0.67637
	-0.015594,	-0.66238
	-0.023583,	-0.64772
	-0.030667,	-0.63244
	-0.036763,	-0.6166
	-0.041792,	-0.60026
	-0.045678,	-0.58351
	-0.048355,	-0.56644
	-0.049764,	-0.54916
	-0.049858,	-0.53179
	-0.048605,	-0.51445
	-0.045987,	-0.49728
	-0.042004,	-0.48041
	-0.037846,	-0.46723
	-0.032845,	-0.45441
	-0.027026,	-0.44201
	-0.020422,	-0.43011
	-0.013075,	-0.41877
	-0.0050315,	-0.40805
	 0.0036534,	-0.398
	 0.012921,	-0.38867
	 0.022706,	-0.3801
	 0.032943,	-0.37233
	 0.04356,	-0.36539
	 0.054487,	-0.35928
	 0.065651,	-0.35403
	 0.07698,	-0.34964
	 0.088405,	-0.3461
	 0.099859,	-0.3434
	 0.11127,	-0.34152
	 0.12259,	-0.34044
	 0.13376,	-0.34014
	 0.14472,	-0.34057
	 0.15543,	-0.34171
	 0.16584,	-0.34352
	 0.17593,	-0.34595
	 0.18565,	-0.34897
	 0.20391,	-0.35658
	 0.22047,	-0.366
	 0.23523,	-0.37691
	 0.24816,	-0.389
	 0.25666,	-0.39866
	 0.26416,	-0.40871
	 0.27068,	-0.41905
	 0.27627,	-0.4296
	 0.28095,	-0.44027
	 0.28478,	-0.45101
	 0.28779,	-0.46174
	 0.29003,	-0.47242
	 0.29241,	-0.49346
	 0.29226,	-0.51385
	 0.28994,	-0.53342
	 0.28573,	-0.55205
	 0.27993,	-0.56967
	 0.27276,	-0.58625
	 0.26443,	-0.60179
	 0.25514,	-0.61629
	 0.24502,	-0.62979
	 0.23421,	-0.64232
	 0.22283,	-0.65391
	 0.21097,	-0.66461
	 0.18613,	-0.6835
	 0.1602,	-0.69929
	 0.13356,	-0.71228
	 0.10651,	-0.72274
	 0.079252,	-0.73088
	 0.051937,	-0.7369
	 0.024694,	-0.74098
	-0.0023822,	-0.74324
	-0.022533,	-0.74383
	-0.042519,	-0.74352
	-0.062316,	-0.74235
	-0.081903,	-0.74035
	-0.10126,	-0.73756
	-0.12037,	-0.73401
	-0.13922,	-0.72972
	-0.15779,	-0.72472
	-0.19403,	-0.71265
	-0.22898,	-0.69798
	-0.26251,	-0.68081
	-0.29452,	-0.66127
	-0.32487,	-0.63944
	-0.35343,	-0.61543
	-0.38005,	-0.58932
	-0.40457,	-0.56121
	-0.42682,	-0.53118
	-0.44662,	-0.49936
	-0.46376,	-0.46586
	-0.47803,	-0.43083
	-0.48584,	-0.40672
	-0.49219,	-0.38206
	-0.49702,	-0.35693
	-0.50026,	-0.3314
	-0.50182,	-0.30556
	-0.50163,	-0.27951
	-0.49963,	-0.25336
	-0.49574,	-0.22724
	-0.4899,	-0.20128
	-0.48206,	-0.17565
	-0.47216,	-0.1505
	-0.46017,	-0.12603
	-0.44609,	-0.10244
	-0.42991,	-0.079945
	-0.41167,	-0.058775
	-0.39142,	-0.039172
	-0.36924,	-0.021384
	-0.34527,	-0.005664
	-0.31967,	 0.0077397
	-0.29265,	 0.018587
	-0.27867,	 0.022982
	-0.26444,	 0.026655
	-0.24998,	 0.029584
	-0.23534,	 0.031746
	-0.22056,	 0.033122
	-0.20568,	 0.033696
	-0.19075,	 0.033453
	-0.17581,	 0.032383
END
BEGIN
	 0.999935948740410918134102757904 ,	 -0 
	 0.999935948740398816703134343697 ,	 -9.09919701391759261355218768585e-09 
	 0.99993594874039082309735704257 ,	 -9.09919824695903933786667039385e-08 
	 0.999935948739580138244775753265 ,	 -9.0991982975435758973503652669e-07 
	 0.999935948658541851052916626941 ,	 -9.09919828707972389025826487341e-06 
	 0.999935948610663705160561676166 ,	 -1.14552119462874024691245722352e-05 
	 0.999935948534782070851179014426 ,	 -1.44212574060900711181432143349e-05 
	 0.999935948414517494775566319731 ,	 -1.81552873986939866668421927898e-05 
	 0.999935948223912074439567732043 ,	 -2.2856152625816417156556781265e-05 
	 0.999935947921822165795902037644 ,	 -2.87741912797651044897406791279e-05 
	 0.999935947443042150162284542603 ,	 -3.62245604530950227051278034196e-05 
	 0.999935946684227916492204712995 ,	 -4.56040193777887403747683947586e-05 
	 0.999935945481588150940410741896 ,	 -5.74120582619574992833122450975e-05 
	 0.99993594357553494678114702765 ,	 -7.22774978695675529571929018857e-05 
	 0.999935940554644187017174772336 ,	 -9.09919763311464735444644702511e-05 
	 0.999935935766862238338603674492 ,	 -0.000114552106412015020087125094506 
	 0.999935928178756316953013083548 ,	 -0.000144212548035697885051575894977 
	 0.999935916152455916972030536272 ,	 -0.0001815528220684148319463702137 
	 0.999935897092151804166348938452 ,	 -0.000228561422667174218847918609754 
	 0.999935866883853496922540671221 ,	 -0.000287741706103107619529879457332 
	 0.999935819007549131498535643914 ,	 -0.0003622451921174718592055796762 
	 0.999935743130280108026397556387 ,	 -0.000456039370940769517304147484538 
	 0.999935622876827245875119842822 ,	 -0.000574118940921693188261798468375 
	 0.999935432297780812938015060354 ,	 -0.000722771703282706901028120682895 
	 0.999935130275040440217537707213 ,	 -0.000909913228731643042301868717914 
	 0.999934651663262896725825612521 ,	 -0.00114550802816375946191485013514 
	 0.999933893270379292594896014634 ,	 -0.00144209947735225024745275845817 
	 0.999932691689317976191375691997 ,	 -0.0018154763604127377440988766466 
	 0.999930788291554240032610323397 ,	 -0.00228551082309448594376277696938 
	 0.999927774065157870531095340993 ,	 -0.00287721096868163994653144754921 
