CITIFILE A.01.01
#Momentum: B.12.070 (*) built: Feb 13 2020 
#Momentum Date and Time: Tue Aug 16 08:44:27 2022

NAME Momentum.SP

#  mode: MW    reference: S_50

#eesof Port[1] P1
#eesof Port[2] P2

CONSTANT NBR_OF_PORTS 2

CONSTANT NORMALIZATION 1

VAR freq MAG 437

DATA S[1,1] RI
DATA S[1,2] RI
DATA S[2,1] RI
DATA S[2,2] RI
DATA PORTZ[1] RI
DATA PORTZ[2] RI

VAR_LIST_BEGIN
	 0
	 9.736996055
	 97.36996055
	 973.6996055
	 9736.996055
	 12258.15177
	 15432.09876
	 19427.86129
	 24458.22827
	 30791.0851
	 38763.67949
	 48800.58117
	 61436.29174
	 77343.70888
	 97369.96055
	 122581.5177
	 154320.9876
	 194278.6129
	 244582.2827
	 307910.851
	 387636.7949
	 488005.8117
	 614362.9174
	 773437.0888
	 973699.6055
	 1225815.177
	 1543209.876
	 1942786.129
	 2445822.827
	 3079108.51
	 3876367.949
	 4880058.117
	 6143629.174
	 7734370.888
	 9736996.055
	 12258151.77
	 15432098.76
	 17448301.53
	 19473992.11
	 24516303.54
	 30864197.52
	 37815088.94
	 46296296.29
	 53658095.47
	 61728395.05
	 74588477.36
	 87448559.67
	 100308642
	 113168724.3
	 129243827.2
	 145318930.1
	 161394032.9
	 177469135.8
	 193544238.7
	 209619341.6
	 225694444.4
	 241769547.3
	 273919753.1
	 306069958.8
	 338220164.6
	 370370370.3
	 393518518.4
	 416666666.6
	 439814814.7
	 462962962.9
	 486111111
	 509259259.2
	 532407407.3
	 555555555.5
	 578703703.6
	 601851851.8
	 624999999.9
	 648148148.1
	 671296296.2
	 694444444.4
	 717592592.5
	 740740740.6
	 763888888.8
	 787037036.9
	 810185185.1
	 833333333.2
	 856481481.4
	 879629629.5
	 902777777.7
	 925925925.8
	 949074074
	 972222222.1
	 995370370.3
	 1018518518
	 1041666667
	 1064814815
	 1087962963
	 1111111111
	 1149691358
	 1188271605
	 1226851852
	 1265432099
	 1304012346
	 1342592593
	 1381172840
	 1419753086
	 1458333333
	 1496913580
	 1535493827
	 1574074074
	 1612654321
	 1651234568
	 1689814815
	 1728395062
	 1759259260
	 1790123457
	 1820987654
	 1851851852
	 1898148148
	 1944444444
	 1990740741
	 2037037037
	 2060185185
	 2083333333
	 2106481481
	 2129629630
	 2152777778
	 2175925926
	 2199074074
	 2222222222
	 2245370370
	 2268518518
	 2291666666
	 2314814814
	 2337962963
	 2361111111
	 2384259259
	 2407407407
	 2430555555
	 2453703703
	 2476851851
	 2500000000
	 2523148148
	 2546296296
	 2569444444
	 2592592592
	 2615740740
	 2638888888
	 2662037036
	 2685185185
	 2708333333
	 2731481481
	 2754629629
	 2777777777
	 2800925925
	 2824074074
	 2847222222
	 2870370370
	 2893518518
	 2916666666
	 2939814814
	 2962962962
	 2986111111
	 3009259259
	 3032407407
	 3055555555
	 3078703703
	 3101851851
	 3125000000
	 3148148148
	 3171296296
	 3194444444
	 3217592592
	 3240740740
	 3263888889
	 3287037037
	 3310185185
	 3333333333
	 3359375000
	 3385416666
	 3411458333
	 3437500000
	 3463541666
	 3489583333
	 3515625000
	 3541666666
	 3567708333
	 3593750000
	 3619791666
	 3645833333
	 3671875000
	 3697916666
	 3723958333
	 3750000000
	 3776041666
	 3802083333
	 3828124999
	 3854166666
	 3880208333
	 3906249999
	 3932291666
	 3958333333
	 4010416666
	 4062499999
	 4114583333
	 4166666666
	 4218749999
	 4270833333
	 4322916666
	 4375000000
	 4427083333
	 4479166666
	 4531250000
	 4583333333
	 4635416666
	 4687500000
	 4739583333
	 4791666666
	 4843750000
	 4895833333
	 4947916667
	 5000000000
	 5034722222
	 5069444444
	 5104166667
	 5138888889
	 5173611111
	 5208333334
	 5243055556
	 5277777778
	 5312500000
	 5347222222
	 5381944445
	 5416666667
	 5451388889
	 5486111112
	 5520833334
	 5555555556
	 5590277778
	 5625000000
	 5659722223
	 5694444445
	 5711805556
	 5729166667
	 5746527778
	 5763888889
	 5781250000
	 5798611111
	 5815972222
	 5833333334
	 5850694445
	 5868055556
	 5885416667
	 5902777778
	 5920138889
	 5937500000
	 5954861111
	 5972222222
	 5989583333
	 6006944444
	 6024305556
	 6041666667
	 6059027778
	 6076388889
	 6093750000
	 6111111111
	 6134259259
	 6157407408
	 6180555556
	 6203703704
	 6219778807
	 6235853910
	 6251929013
	 6268004116
	 6284079218
	 6300154321
	 6316229424
	 6332304527
	 6348379630
	 6364454733
	 6380529836
	 6396604938
	 6404642490
	 6412680041
	 6420717593
	 6428755144
	 6436792696
	 6444830247
	 6452867799
	 6460905350
	 6467335391
	 6473765432
	 6480195473
	 6486625514
	 6493055556
	 6499485597
	 6505915638
	 6512345679
	 6521990741
	 6531635802
	 6541280864
	 6550925926
	 6560570988
	 6570216050
	 6579861111
	 6589506173
	 6608796296
	 6628086420
	 6647376544
	 6666666667
	 6692708334
	 6718750000
	 6744791667
	 6770833334
	 6796875000
	 6822916667
	 6848958334
	 6875000000
	 6901041667
	 6927083334
	 6953125000
	 6979166667
	 7005208334
	 7031250000
	 7057291667
	 7083333334
	 7109375000
	 7135416667
	 7161458333
	 7187500000
	 7213541667
	 7239583333
	 7265625000
	 7291666667
	 7343750000
	 7395833333
	 7447916667
	 7500000000
	 7552083333
	 7604166667
	 7656250000
	 7708333334
	 7734375000
	 7760416667
	 7786458334
	 7812500000
	 7838541667
	 7864583334
	 7890625000
	 7916666667
	 7942708334
	 7968750000
	 7994791667
	 8020833334
	 8046875000
	 8072916667
	 8098958334
	 8125000000
	 8151041667
	 8177083334
	 8203125001
	 8229166667
	 8255208334
	 8281250001
	 8307291667
	 8333333334
	 8368055556
	 8402777778
	 8437500001
	 8472222223
	 8506944445
	 8541666668
	 8576388890
	 8611111112
	 8632812501
	 8654513890
	 8676215279
	 8697916668
	 8719618056
	 8741319445
	 8763020834
	 8784722223
	 8806423612
	 8828125001
	 8849826390
	 8871527778
	 8893229167
	 8914930556
	 8936631945
	 8958333334
	 8980034723
	 9001736112
	 9023437501
	 9045138890
	 9066840278
	 9088541667
	 9110243056
	 9131944445
	 9153645834
	 9175347223
	 9197048612
	 9218750000
	 9240451389
	 9262152778
	 9283854167
	 9305555556
	 9327256945
	 9348958334
	 9370659723
	 9392361112
	 9403211806
	 9414062500
	 9424913195
	 9435763889
	 9446614584
	 9457465278
	 9468315973
	 9479166667
	 9500868056
	 9522569445
	 9544270834
	 9565972222
	 9587673611
	 9609375000
	 9631076389
	 9652777778
	 9674479167
	 9696180556
	 9717881945
	 9739583334
	 9761284722
	 9782986111
	 9804687500
	 9826388889
	 9848090278
	 9869791667
	 9891493056
	 9913194444
	 9934895833
	 9956597222
	 9978298611
	 1e+10
VAR_LIST_END

BEGIN
	 8.97622190999999961013092186768e-05 ,	 -0 
	 8.97622190999999961013092186768e-05 ,	 -2.99542739000000002100379096505e-09 
	 8.97622190999999961013092186768e-05 ,	 -2.9954284899999997926257650372e-08 
	 8.97622190000000046324057922931e-05 ,	 -2.99542858999999989067734157411e-07 
	 8.97622104999999979391481219615e-05 ,	 -2.9954285800000000661606411323e-06 
	 8.97622055000000043656349646426e-05 ,	 -3.7710211499999998318970184652e-06 
	 8.97621976000000006959064768886e-05 ,	 -4.74743434000000012046565495138e-06 
	 8.97621850999999964333328494881e-05 ,	 -5.97666568999999972658420180349e-06 
	 8.97621652000000000556564905274e-05 ,	 -7.52417624000000009865368050255e-06 
	 8.976213359999999892926969558e-05 ,	 -9.47237651999999967326882011065e-06 
	 8.9762083599999995431502342047e-05 ,	 -1.19250151999999994087853921743e-05 
	 8.97620044000000029014649238768e-05 ,	 -1.5012704100000000325006686841e-05 
	 8.97618787999999979097809355011e-05 ,	 -1.88998734999999992527613262849e-05 
	 8.97616797000000020065324513041e-05 ,	 -2.37935286000000013840668944276e-05 
	 8.97613642000000022972902580243e-05 ,	 -2.99542730000000016635317706681e-05 
	 8.97608641e-05 ,	 -3.7710186e-05 
	 8.97600714e-05 ,	 -4.74742924e-05 
	 8.9758815e-05 ,	 -5.97665553e-05 
	 8.97568233e-05 ,	 -7.52415596e-05 
	 8.97536655e-05 ,	 -9.47233607e-05 
	 8.97486582e-05 ,	 -0.000119249345 
	 8.97407154e-05 ,	 -0.000150125431 
	 8.97281102e-05 ,	 -0.000188995523 
	 8.97080902e-05 ,	 -0.00023792888 
	 8.9676255e-05 ,	 -0.000299529955 
	 8.96255347e-05 ,	 -0.000377076391 
	 8.9544485e-05 ,	 -0.000474692175 
	 8.94143703e-05 ,	 -0.000597564504 
	 8.92040121e-05 ,	 -0.000752214638 
	 8.88603284e-05 ,	 -0.000946834712 
	 8.82902173e-05 ,	 -0.00119170401 
	 8.73245065e-05 ,	 -0.00149969916 
	 8.56442325e-05 ,	 -0.00188691344 
	 8.26286843e-05 ,	 -0.00237340325 
	 7.70478886e-05 ,	 -0.00298409276 
	 6.64714091e-05 ,	 -0.00374990908 
	 4.62291375e-05 ,	 -0.00470930757 
	 2.8755031e-05 ,	 -0.00531623586 
	 7.26881284e-06 ,	 -0.00592428003 
	 -6.43000058e-05 ,	 -0.00743159373 
	 -0.000192049253 ,	 -0.00932004201 
	-0.0003794,	-0.01138
	-0.0006726,	-0.013886
	-0.0009824,	-0.016055
	-0.0013792,	-0.018425
	-0.0021319,	-0.022182
	-0.0030293,	-0.025913
	-0.0040689,	-0.029611
	-0.0052486,	-0.033271
	-0.0069171,	-0.037787
	-0.0087978,	-0.042229
	-0.010887,	-0.046589
	-0.013181,	-0.050858
	-0.015675,	-0.055031
	-0.018365,	-0.059099
	-0.021248,	-0.063056
	-0.024317,	-0.066895
	-0.030998,	-0.074194
	-0.038367,	-0.080945
	-0.04638,	-0.087104
	-0.054989,	-0.092624
	-0.061529,	-0.096181
	-0.068333,	-0.099372
	-0.075382,	-0.10218
	-0.082654,	-0.1046
	-0.090128,	-0.10662
	-0.097784,	-0.10823
	-0.10559,	-0.10941
	-0.11354,	-0.11017
	-0.12161,	-0.1105
	-0.12977,	-0.11038
	-0.13799,	-0.10982
	-0.14626,	-0.10882
	-0.15456,	-0.10736
	-0.16285,	-0.10546
	-0.17112,	-0.10311
	-0.17935,	-0.10032
	-0.18751,	-0.097084
	-0.19558,	-0.093407
	-0.20354,	-0.089298
	-0.21137,	-0.084762
	-0.21904,	-0.079807
	-0.22655,	-0.07444
	-0.23386,	-0.068673
	-0.24096,	-0.062514
	-0.24784,	-0.055974
	-0.25447,	-0.049067
	-0.26083,	-0.041804
	-0.26692,	-0.034199
	-0.27272,	-0.026266
	-0.27821,	-0.018019
	-0.28338,	-0.0094741
	-0.28821,	-0.00064691
	-0.29551,	 0.014649
	-0.3018,	 0.030606
	-0.30704,	 0.047146
	-0.31121,	 0.064187
	-0.31429,	 0.081646
	-0.31624,	 0.099443
	-0.31707,	 0.11749
	-0.31676,	 0.13571
	-0.31533,	 0.15403
	-0.31277,	 0.17237
	-0.30912,	 0.19065
	-0.30438,	 0.20881
	-0.29858,	 0.22677
	-0.29176,	 0.24448
	-0.28395,	 0.26188
	-0.27518,	 0.27892
	-0.26752,	 0.29226
	-0.25929,	 0.30532
	-0.25053,	 0.31809
	-0.24126,	 0.33054
	-0.22644,	 0.3486
	-0.2106,	 0.3659
	-0.19381,	 0.38242
	-0.17615,	 0.39815
	-0.16701,	 0.40572
	-0.15768,	 0.4131
	-0.14815,	 0.4203
	-0.13844,	 0.4273
	-0.12854,	 0.43412
	-0.11847,	 0.44077
	-0.10823,	 0.44724
	-0.097814,	 0.45354
	-0.087221,	 0.45967
	-0.076453,	 0.46565
	-0.065508,	 0.47147
	-0.054382,	 0.47715
	-0.043069,	 0.48268
	-0.031563,	 0.48807
	-0.019857,	 0.49332
	-0.0079394,	 0.49844
	 0.0041994,	 0.50343
	 0.016572,	 0.50828
	 0.029192,	 0.513
	 0.042075,	 0.51759
	 0.055236,	 0.52203
	 0.068692,	 0.52633
	 0.082463,	 0.53046
	 0.096565,	 0.53443
	 0.11101,	 0.53822
	 0.12584,	 0.54181
	 0.14105,	 0.54518
	 0.15668,	 0.5483
	 0.17273,	 0.55116
	 0.18922,	 0.55371
	 0.20617,	 0.55593
	 0.2236,	 0.55778
	 0.2415,	 0.55921
	 0.2599,	 0.56019
	 0.27878,	 0.56066
	 0.29816,	 0.56058
	 0.31803,	 0.55989
	 0.33837,	 0.55854
	 0.35917,	 0.55647
	 0.38041,	 0.55363
	 0.40206,	 0.54995
	 0.42408,	 0.54539
	 0.44644,	 0.53989
	 0.46908,	 0.53338
	 0.49196,	 0.52583
	 0.51501,	 0.51719
	 0.53816,	 0.50741
	 0.56134,	 0.49645
	 0.58447,	 0.4843
	 0.60748,	 0.47091
	 0.63028,	 0.45628
	 0.65277,	 0.44041
	 0.67488,	 0.42328
	 0.6965,	 0.40491
	 0.71756,	 0.38531
	 0.73795,	 0.36452
	 0.76,	 0.33973
	 0.78099,	 0.31353
	 0.80081,	 0.28598
	 0.81935,	 0.25717
	 0.83652,	 0.22719
	 0.85225,	 0.19613
	 0.86644,	 0.16411
	 0.87905,	 0.13123
	 0.89002,	 0.097617
	 0.89931,	 0.063368
	 0.9069,	 0.028608
	 0.91276,	-0.0065466
	 0.9169,	-0.041983
	 0.91931,	-0.07759
	 0.92,	-0.11326
	 0.919,	-0.14889
	 0.91633,	-0.18438
	 0.91201,	-0.21964
	 0.9061,	-0.25458
	 0.89862,	-0.28913
	 0.88963,	-0.3232
	 0.87918,	-0.35673
	 0.86731,	-0.38965
	 0.85408,	-0.4219
	 0.82375,	-0.48419
	 0.78862,	-0.54324
	 0.74912,	-0.59876
	 0.70567,	-0.65049
	 0.65867,	-0.69827
	 0.60852,	-0.74194
	 0.55556,	-0.78138
	 0.50013,	-0.81652
	 0.44255,	-0.84727
	 0.38312,	-0.87357
	 0.32211,	-0.89537
	 0.25979,	-0.91262
	 0.19641,	-0.92525
	 0.13223,	-0.93321
	 0.067489,	-0.93643
	 0.0024296,	-0.93483
	-0.062691,	-0.92833
	-0.1276,	-0.91682
	-0.19203,	-0.90018
	-0.25566,	-0.87829
	-0.29746,	-0.86071
	-0.33865,	-0.84069
	-0.3791,	-0.81818
	-0.41867,	-0.79314
	-0.45723,	-0.76552
	-0.4946,	-0.73527
	-0.53062,	-0.70235
	-0.56509,	-0.66672
	-0.59779,	-0.62835
	-0.62849,	-0.58722
	-0.65692,	-0.5433
	-0.68279,	-0.49662
	-0.70578,	-0.44719
	-0.72555,	-0.39508
	-0.74172,	-0.34037
	-0.75387,	-0.28321
	-0.76158,	-0.22378
	-0.76439,	-0.16236
	-0.76181,	-0.099272
	-0.75336,	-0.034943
	-0.74679,	-0.0024755
	-0.73858,	 0.030093
	-0.72867,	 0.062678
	-0.717,	 0.095186
	-0.70354,	 0.12751
	-0.68823,	 0.15956
	-0.67105,	 0.1912
	-0.65195,	 0.22232
	-0.63092,	 0.25277
	-0.60795,	 0.28242
	-0.58303,	 0.31112
	-0.55617,	 0.33871
	-0.52741,	 0.36504
	-0.49677,	 0.38994
	-0.46432,	 0.41324
	-0.43013,	 0.43478
	-0.39428,	 0.45439
	-0.35689,	 0.47191
	-0.31809,	 0.48717
	-0.27802,	 0.50004
	-0.23686,	 0.51036
	-0.19477,	 0.51801
	-0.15198,	 0.52288
	-0.1087,	 0.52489
	-0.050624,	 0.52297
	 0.0073339,	 0.51573
	 0.064564,	 0.50314
	 0.12044,	 0.48527
	 0.15813,	 0.46985
	 0.19467,	 0.45203
	 0.22986,	 0.43194
	 0.26351,	 0.4097
	 0.29545,	 0.38547
	 0.32551,	 0.35943
	 0.35355,	 0.33179
	 0.37945,	 0.3028
	 0.40311,	 0.27274
	 0.4245,	 0.24198
	 0.44368,	 0.21093
	 0.46087,	 0.1801
	 0.46888,	 0.16494
	 0.47664,	 0.15004
	 0.48433,	 0.13543
	 0.49216,	 0.12111
	 0.50041,	 0.10697
	 0.50936,	 0.092765
	 0.51923,	 0.078027
	 0.53002,	 0.062124
	 0.53906,	 0.048092
	 0.54807,	 0.032598
	 0.55653,	 0.015559
	 0.56392,	-0.0028664
	 0.56987,	-0.022318
	 0.57418,	-0.042334
	 0.57686,	-0.062467
	 0.57809,	-0.082368
	 0.5777,	-0.11131
	 0.5753,	-0.13891
	 0.5715,	-0.16516
	 0.56668,	-0.19018
	 0.56111,	-0.21416
	 0.55491,	-0.23723
	 0.54817,	-0.25952
	 0.54094,	-0.28112
	 0.52507,	-0.3225
	 0.50743,	-0.36169
	 0.48809,	-0.39883
	 0.46716,	-0.43401
	 0.43656,	-0.4784
	 0.40353,	-0.51925
	 0.36839,	-0.55655
	 0.33146,	-0.59032
	 0.29304,	-0.6206
	 0.25343,	-0.64745
	 0.21291,	-0.67093
	 0.17173,	-0.69115
	 0.13011,	-0.70819
	 0.088272,	-0.72218
	 0.046394,	-0.73323
	 0.0046451,	-0.74146
	-0.036827,	-0.74699
	-0.077893,	-0.74994
	-0.11843,	-0.75044
	-0.15836,	-0.74859
	-0.19757,	-0.74452
	-0.23599,	-0.73833
	-0.27357,	-0.73012
	-0.31022,	-0.72
	-0.34592,	-0.70806
	-0.3806,	-0.69438
	-0.41424,	-0.67906
	-0.44678,	-0.66218
	-0.50849,	-0.62402
	-0.5655,	-0.58046
	-0.61763,	-0.53201
	-0.66469,	-0.47912
	-0.70651,	-0.42221
	-0.74292,	-0.36167
	-0.77374,	-0.29786
	-0.79877,	-0.23115
	-0.80905,	-0.19681
	-0.8178,	-0.16188
	-0.82499,	-0.1264
	-0.8306,	-0.090436
	-0.83459,	-0.054012
	-0.83692,	-0.017189
	-0.83757,	 0.01998
	-0.83649,	 0.05744
	-0.83366,	 0.095133
	-0.82904,	 0.13299
	-0.82258,	 0.17096
	-0.81426,	 0.20897
	-0.80403,	 0.24694
	-0.79185,	 0.28479
	-0.77769,	 0.32244
	-0.76152,	 0.35981
	-0.74329,	 0.39679
	-0.72297,	 0.43328
	-0.70054,	 0.46918
	-0.67596,	 0.50436
	-0.64922,	 0.53871
	-0.62028,	 0.57209
	-0.58914,	 0.60437
	-0.55579,	 0.63538
	-0.5079,	 0.6745
	-0.4561,	 0.71069
	-0.40046,	 0.74353
	-0.3411,	 0.77256
	-0.27817,	 0.79729
	-0.21187,	 0.81721
	-0.1425,	 0.83179
	-0.07042,	 0.84049
	-0.024184,	 0.8427
	 0.02281,	 0.84227
	 0.070417,	 0.83907
	 0.11847,	 0.83296
	 0.1668,	 0.82384
	 0.2152,	 0.81159
	 0.26346,	 0.7961
	 0.31134,	 0.77729
	 0.35858,	 0.75508
	 0.40491,	 0.72941
	 0.45004,	 0.70025
	 0.49365,	 0.66759
	 0.53542,	 0.63144
	 0.57501,	 0.59186
	 0.61206,	 0.54893
	 0.64622,	 0.50276
	 0.67711,	 0.45353
	 0.70439,	 0.40144
	 0.72768,	 0.34676
	 0.74666,	 0.28978
	 0.76098,	 0.23086
	 0.77037,	 0.17041
	 0.77455,	 0.10889
	 0.77332,	 0.046799
	 0.76651,	-0.01533
	 0.75401,	-0.076911
	 0.7358,	-0.13733
	 0.7119,	-0.19597
	 0.68245,	-0.25218
	 0.64764,	-0.30533
	 0.60777,	-0.3548
	 0.56322,	-0.39999
	 0.51443,	-0.44035
	 0.46195,	-0.47537
	 0.40639,	-0.50464
	 0.34841,	-0.5278
	 0.31873,	-0.537
	 0.28872,	-0.54459
	 0.25847,	-0.55053
	 0.22808,	-0.55484
	 0.19763,	-0.55749
	 0.16724,	-0.55849
	 0.13699,	-0.55784
	 0.10698,	-0.55557
	 0.048061,	-0.54624
	-0.0088058,	-0.53073
	-0.062933,	-0.50936
	-0.11369,	-0.48256
	-0.16053,	-0.45082
	-0.20296,	-0.41467
	-0.2406,	-0.37472
	-0.27313,	-0.3316
	-0.30032,	-0.28594
	-0.32204,	-0.2384
	-0.33825,	-0.18962
	-0.34897,	-0.14024
	-0.3543,	-0.090859
	-0.35441,	-0.042025
	-0.34953,	 0.0057345
	-0.33993,	 0.051947
	-0.32593,	 0.096193
	-0.30786,	 0.1381
	-0.28612,	 0.17736
	-0.26106,	 0.21372
	-0.2331,	 0.24697
	-0.20262,	 0.27695
	-0.17002,	 0.30355
	-0.13567,	 0.32671
END
BEGIN
	 0.999910237780938571106048584625 ,	 -0 
	 0.999910237780946453689523423236 ,	 -1.22558940773842550697736442089e-08 
	 0.999910237780930577500271283498 ,	 -1.22558940204853250577343715122e-07 
	 0.999910237779390920209721116407 ,	 -1.22558940446500230780912943374e-06 
	 0.999910237625473929945485451753 ,	 -1.22558940237743607681863977632e-05 
	 0.999910237534539780845932455122 ,	 -1.54292564171001900241719795304e-05 
	 0.999910237390416845038032533921 ,	 -1.9424282960691860444590872703e-05 
	 0.999910237161999559951652827294 ,	 -2.44537233692974226295646644758e-05 
	 0.999910236799981477773258120578 ,	 -3.0785413651146509295131181716e-05 
	 0.999910236226221549316051095957 ,	 -3.8756539336121803573931288156e-05 
	 0.999910235316877948896774341847 ,	 -4.87915918003789528256675112061e-05 
	 0.999910233875659026914206606307 ,	 -6.14249739164327707152679636238e-05 
	 0.999910231591487397295736627711 ,	 -7.73294588195614501779928673386e-05 
	 0.999910227971322673745646625321 ,	 -9.7352017271741531079243259228e-05 
	 0.999910222233755585641290508647 ,	 -0.00012255892141635991998693810956 
	 0.999910213140354886540706047526 ,	 -0.000154292526613416386416233194723 
	 0.999910198728347854313369680312 ,	 -0.000194242754671123188381365309851 
	 0.999910175887019248008868999023 ,	 -0.000244537084180764321961198959343 
	 0.999910139686361554289817377139 ,	 -0.000307853838203071480950079319427 
	 0.999910082313211545645970090845 ,	 -0.000387564798172614771720745352468 
	 0.999909991385469543168085237994 ,	 -0.000487914730492240364401190788612 
	 0.99990984728117715540918197803 ,	 -0.000614247369896478087603064466293 
	 0.999909618907502295570566275273 ,	 -0.000773289861311489065687219124356 
	 0.999909257000397233561272969382 ,	 -0.000973510742687339059031614851847 
	 0.999908683518667573686400373845 ,	 -0.00122557040303191908114932573426 
	 0.999907774868350252006621303735 ,	 -0.00154288774643290653443283844126 
	 0.999906335399375567618562854477 ,	 -0.00194235272752427481912640416795 
	 0.99990405561125961231283554298 ,	 -0.00244522169197457575617882241659 
	 0.99990044643899667065056746651 ,	 -0.00307824121198041304736658929642 
	 0.999894736408176276754034006444 ,	 -0.00387505638208009324519043303781 
	 0.999885711856713488288050939445 ,	 -0.00487797109739318904275684474214 
	 0.999871471565067171383134336793 ,	 -0.00614013997918145572330050896426 
	 0.999849056748020159623990821274 ,	 -0.00772828311860172638414478996083 
	 0.999813908757305247476665499562 ,	 -0.00972602463946664608229752957413 
	 0.999759108387222816816120030126 ,	 -0.0122379667841091659130636770669 
	 0.999674376319960367176520321664 ,	 -0.015394639038714602596868985529 
	 0.999544870205031021903607779677 ,	 -0.0193585569351000796878281562385 
	 0.999450619036538645545419967675 ,	 -0.021870401475534248514343005354 
	 0.999347402397412598595849431149 ,	 -0.024389192996610221941811147417 
	 0.999057411357050506595101069252 ,	 -0.0306385357937726185428850556036 
	 0.998634262090700719483038483304 ,	 -0.0384694190647083128498096016301 
	 0.99810584228206533641269970758 ,	 -0.0470074855578839281844416575495 
	 0.997374003647397366911775407061 ,	 -0.0573882164809393219284672227332 
	 0.996660451027973404158899484173 ,	 -0.0663752422506813238856082648454 
	 0.995791629053884075339908577007 ,	 -0.0762079079824509592056003270955 
	 0.994212344953650517531684727146 ,	 -0.0918405944961186854191836914652 
	 0.99238574783198241213710844022 ,	 -0.10743027569256657915985897489 
	 0.990306999949061128596383696276 ,	 -0.122973685369921328924824877049 
	 0.98797,	-0.13846
	 0.9847,	-0.15775
	 0.98103,	-0.17694
	 0.97698,	-0.19602
	 0.97254,	-0.215
	 0.96772,	-0.23386
	 0.96252,	-0.25259
	 0.95695,	-0.2712
	 0.951,	-0.28967
	 0.93801,	-0.32617
