CITIFILE A.01.01
#Momentum: B.12.070 (*) built: Feb 13 2020 
#Momentum Date and Time: Mon Aug 15 07:44:46 2022

NAME Momentum.SP

#  mode: MW    reference: S_50

#eesof Port[1] P1
#eesof Port[2] P2

CONSTANT NBR_OF_PORTS 2

CONSTANT NORMALIZATION 1

VAR freq MAG 163

DATA S[1,1] RI
DATA S[1,2] RI
DATA S[2,1] RI
DATA S[2,2] RI
DATA PORTZ[1] RI
DATA PORTZ[2] RI

VAR_LIST_BEGIN
	 0
	 8.254652041
	 82.54652041
	 825.4652041
	 8254.652041
	 10391.99122
	 13082.74183
	 16470.19614
	 20734.74846
	 26103.50174
	 32862.36168
	 41371.26221
	 52083.33331
	 65569.03184
	 82546.52041
	 103919.9122
	 130827.4183
	 164701.9614
	 207347.4846
	 261035.0174
	 328623.6168
	 413712.6221
	 520833.3331
	 655690.3184
	 825465.2041
	 1039199.122
	 1308274.183
	 1647019.614
	 2073474.846
	 2610350.174
	 3286236.168
	 4137126.221
	 5208333.331
	 6556903.184
	 8254652.041
	 10391991.22
	 13082741.83
	 16470196.14
	 20734748.46
	 26103501.74
	 32862361.68
	 41371262.21
	 52083333.31
	 58888017.66
	 65724723.36
	 82742524.42
	 104166666.6
	 127625925.2
	 156249999.9
	 181096072.2
	 208333333.2
	 260416666.6
	 312499999.9
	 364583333.2
	 416666666.5
	 468749999.8
	 520833333.1
	 572916666.4
	 624999999.8
	 677083333.1
	 729166666.4
	 781249999.7
	 833333333
	 885416666.3
	 937499999.6
	 989583332.9
	 1041666666
	 1093750000
	 1145833333
	 1197916666
	 1250000000
	 1302083333
	 1354166666
	 1406249999
	 1458333333
	 1510416666
	 1562499999
	 1614583333
	 1666666666
	 1770833333
	 1874999999
	 1979166666
	 2083333333
	 2135416666
	 2187499999
	 2239583333
	 2291666666
	 2343749999
	 2395833333
	 2447916666
	 2500000000
	 2604166666
	 2708333333
	 2812500000
	 2916666666
	 3020833333
	 3125000000
	 3229166666
	 3333333333
	 3437500000
	 3541666666
	 3645833333
	 3750000000
	 3854166666
	 3958333333
	 4062500000
	 4166666666
	 4270833333
	 4375000000
	 4479166667
	 4583333333
	 4687500000
	 4791666667
	 4895833333
	 5000000000
	 5104166667
	 5208333333
	 5312500000
	 5416666667
	 5520833333
	 5625000000
	 5729166667
	 5833333334
	 5937500000
	 6041666667
	 6145833334
	 6250000000
	 6354166667
	 6458333334
	 6562500000
	 6666666667
	 6770833334
	 6875000000
	 6979166667
	 7083333334
	 7187500000
	 7291666667
	 7395833334
	 7500000000
	 7604166667
	 7708333334
	 7812500001
	 7916666667
	 8020833334
	 8125000001
	 8229166667
	 8333333334
	 8437500001
	 8541666667
	 8645833334
	 8750000000
	 8854166667
	 8958333334
	 9062500000
	 9166666667
	 9270833334
	 9375000000
	 9479166667
	 9583333334
	 9687500000
	 9791666667
	 9895833333
	 1e+10
VAR_LIST_END

BEGIN
	 0.999999999999998445687765524781 ,	 -0 
	 0.999999999999999111821580299875 ,	 -2.18817716723940236533962888643e-09 
	 0.999999999999998889776975374843 ,	 -2.18817712560603894189625862055e-08 
	 0.999999999999972688513594221149 ,	 -2.18817712976937528424059564713e-07 
	 0.999999999997318367306320396892 ,	 -2.18817713049102025024694739841e-06 
	 0.999999999995750288306339825795 ,	 -2.75475179498108069253703433787e-06 
	 0.99999999999326605326643857552 ,	 -3.4680270380726962997641749098e-06 
	 0.999999999989327759131185757724 ,	 -4.36598736697213496427139034495e-06 
	 0.999999999983085863242138202622 ,	 -5.49645244396490539884325698949e-06 
	 0.999999999973193665070425595331 ,	 -6.91962365628739917156053707004e-06 
	 0.999999999957515206538971597183 ,	 -8.71129006091431179470419010613e-06 
	 0.999999999932666416846416268527 ,	 -1.09668644269200754592930024955e-05 
	 0.999999999893283808560795478115 ,	 -1.38064643143143150894047721522e-05 
	 0.999999999830867514205579027475 ,	 -1.73813087712415548224953454337e-05 
	 0.999999999731943312042403704254 ,	 -2.188177130060808828204699239e-05 
	 0.999999999575159170817073572834 ,	 -2.75475179415118898162972982391e-05 
	 0.999999999326673716382174461614 ,	 -3.46802703609649931593139626784e-05 
	 0.999999998932850076016620732844 ,	 -4.36598736305304768734458775725e-05 
	 0.999999998308681581349333100661 ,	 -5.49645243595464627617275255034e-05 
	 0.999999997319441891185931581276 ,	 -6.91962364043341437991330167279e-05 
	 0.999999995751601700177957354754 ,	 -8.71129002921189332653284509433e-05 
	 0.999999993266743492092984979536 ,	 -0.000109668643637539364732447211281 
	 0.999999989328508531727379704535 ,	 -0.000138064641883234306973804450536 
	 0.999999983086826693678972333146 ,	 -0.000173813085200952288644771215331 
	 0.999999973194428237732722664077 ,	 -0.000218817707993979038150200722157 
	 0.999999957516034987392572475073 ,	 -0.000275475169417338516808513304568 
	 0.999999932667460456059416173957 ,	 -0.000346802683661884270094333260204 
	 0.999999893285134056064578089718 ,	 -0.000436598696503781580346981172625 
	 0.999999830868379069315210472269 ,	 -0.000549645164181877809994603012456 
	 0.999999731944553604812142566516 ,	 -0.000691962205593171786333073214337 
	 0.999999575161019338409573720128 ,	 -0.000871128686772193461251845292281 
	 0.999999326676273225800173349853 ,	 -0.00109668580557961692356627736444 
	 0.999998932855518996021260136331 ,	 -0.00138064516023722605453372125339 
	 0.999998308694272308727590825583 ,	 -0.00173812834081155109799965430284 
	 0.999997319471853662875560075918 ,	 -0.00218817206953617060527506055223 
	 0.99999575167628496075167277013 ,	 -0.00275474169740425045560527905764 
	 0.999993266928717261521342152264 ,	 -0.00346800689138912487941013296222 
	 0.999989328972066715550681692548 ,	 -0.00436594717206956195454381486343 
	 0.999983087989636199033327557117 ,	 -0.00549637225388643901879959230428 
	 0.999973197347386655309264824609 ,	 -0.0069194636861334701816161896204 
	 0.999957523362745570594256605546 ,	 -0.00871097097307654832931689270481 
	 0.999932685851601776860775316891 ,	 -0.0109662280620236030070913102463 
	 0.999893331273995933372589206556 ,	 -0.0138051955428054040631025145558 
	 0.999863654344524954709072517289 ,	 -0.0156084452005836038512853747307 
	 0.999830181008634744088681145513 ,	 -0.0174200335452157906157566458205 
	 0.999730962517460963745463686791 ,	 -0.021928657231053139131660145722 
	 0.999573872226674708940663549583 ,	 -0.0276028390984569549360116980097 
	 0.999360863985913949747441620275 ,	 -0.033813121961017100769453236353 
	 0.999043212657122037256840485497 ,	 -0.041385672821430741219472793091 
	 0.998716351438049265709651081124 ,	 -0.047953503334387359569035425011 
	 0.998303839727500585965458412829 ,	 -0.0551469869027225445545781212786 
	 0.997358924648295452897173163365 ,	 -0.0688808022072494863241587381708 
	 0.996212076237788846100329465116 ,	 -0.0825819659861934118882942357232 
	 0.994867096759739277800349555037 ,	 -0.0962461616347417558969823403459 
	 0.993327768643779918100733539177 ,	 -0.109869846932838688413625050089 
	 0.991597689812934390829468611628 ,	 -0.123450142910625476622143992245 
	 0.98968,	-0.13698
	 0.98757,	-0.15047
	 0.98529,	-0.1639
	 0.98283,	-0.17729
	 0.98018,	-0.19062
	 0.97737,	-0.2039
	 0.97437,	-0.21713
	 0.97121,	-0.2303
	 0.96787,	-0.2434
	 0.96436,	-0.25645
	 0.96068,	-0.26943
	 0.95684,	-0.28235
	 0.95282,	-0.29521
	 0.94864,	-0.30799
	 0.94429,	-0.3207
	 0.93978,	-0.33334
	 0.9351,	-0.3459
	 0.93027,	-0.35839
	 0.92527,	-0.37079
	 0.92011,	-0.38311
	 0.9148,	-0.39535
	 0.90933,	-0.4075
	 0.9037,	-0.41956
	 0.892,	-0.4434
	 0.87969,	-0.46686
	 0.8668,	-0.48992
	 0.85334,	-0.51256
	 0.84641,	-0.52372
	 0.83933,	-0.53478
	 0.83212,	-0.54571
	 0.82478,	-0.55654
	 0.81731,	-0.56725
	 0.80972,	-0.57785
	 0.80199,	-0.58832
	 0.79414,	-0.59868
	 0.77809,	-0.61902
	 0.76156,	-0.63887
	 0.74458,	-0.65822
	 0.72717,	-0.67704
	 0.70935,	-0.69534
	 0.69112,	-0.7131
	 0.67252,	-0.73032
	 0.65356,	-0.747
	 0.63426,	-0.76311
	 0.61463,	-0.77866
	 0.5947,	-0.79365
	 0.57447,	-0.80806
	 0.55398,	-0.8219
	 0.53324,	-0.83517
	 0.51226,	-0.84785
	 0.49106,	-0.85994
	 0.46967,	-0.87146
	 0.44809,	-0.88239
	 0.42635,	-0.89273
	 0.40446,	-0.90249
	 0.38244,	-0.91166
	 0.3603,	-0.92025
	 0.33807,	-0.92826
	 0.31575,	-0.93569
	 0.29336,	-0.94254
	 0.27092,	-0.94882
	 0.24844,	-0.95453
	 0.22594,	-0.95967
	 0.20344,	-0.96424
	 0.18093,	-0.96826
	 0.15845,	-0.97172
	 0.136,	-0.97464
	 0.11359,	-0.97701
	 0.091252,	-0.97885
	 0.068975,	-0.98015
	 0.046781,	-0.98093
	 0.024681,	-0.98119
	 0.0026848,	-0.98094
	-0.019195,	-0.98018
	-0.04095,	-0.97892
	-0.062568,	-0.97718
	-0.084041,	-0.97494
	-0.10535,	-0.97223
	-0.12651,	-0.96905
	-0.14749,	-0.96541
	-0.1683,	-0.96131
	-0.18891,	-0.95676
	-0.20933,	-0.95177
	-0.22955,	-0.94635
	-0.24955,	-0.9405
	-0.26934,	-0.93422
	-0.28891,	-0.92754
	-0.30825,	-0.92045
	-0.32735,	-0.91295
	-0.34621,	-0.90507
	-0.36483,	-0.8968
	-0.38319,	-0.88814
	-0.40129,	-0.87911
	-0.41913,	-0.86972
	-0.4367,	-0.85995
	-0.45399,	-0.84984
	-0.47101,	-0.83937
	-0.48774,	-0.82855
	-0.50417,	-0.8174
	-0.52031,	-0.8059
	-0.53615,	-0.79408
	-0.55168,	-0.78194
	-0.56689,	-0.76947
	-0.58178,	-0.75669
	-0.59635,	-0.7436
	-0.61058,	-0.73021
	-0.62447,	-0.71652
END
BEGIN
	 5.99988781999999993563164462084e-20 ,	 0 
	 9.12898228999999908151291622026e-16 ,	 1.64023433999999997831221001331e-10 
	 -1.34738140999999989524551635024e-13 ,	 1.64023433000000008886183148609e-09 
	 -1.37000029000000002474103681957e-11 ,	 1.64023318999999984953966949671e-08 
	 -1.37013130999999994515429258587e-09 ,	 1.64011959999999987082133496956e-07 
	 -2.17142404000000014422526731434e-09 ,	 2.06470376000000009262641239086e-07 
	 -3.44125281000000019474676369365e-09 ,	 2.59913947999999977373414066992e-07 
	 -5.45345767000000006865006367627e-09 ,	 3.27178651000000025439435171262e-07 
	 -8.64173839000000004576593616665e-09 ,	 4.11826448999999985548290228413e-07 
	 -1.3692691199999999758659701061e-08 ,	 5.18325017999999990038343441329e-07 
	 -2.16925620999999988082101906031e-08 ,	 6.52265819999999981276231526828e-07 
	 -3.43580824000000021258551744906e-08 ,	 8.20622410000000006118081596895e-07 
	 -5.43979388000000021255555041327e-08 ,	 1.03204349000000002934871422278e-06 
	 -8.60747478999999988710480547036e-08 ,	 1.29715856000000007345706980189e-06 
	 -1.36068653000000010838736958299e-07 ,	 1.62883905999999999737206084899e-06 
	 -2.14779366e-07 ,	 2.04228837e-06 
	 -3.38227564e-07 ,	 2.55470354e-06 
	 -5.30681047e-07 ,	 3.18402294e-06 
	 -8.27919387e-07 ,	 3.94591981e-06 
	 -1.28042729e-06 ,	 4.84778115e-06 
	 -1.95442193e-06 ,	 5.87828441e-06 
	 -2.92632874e-06 ,	 6.99238607e-06 
	 -4.26433253e-06 ,	 8.09588441e-06 
	 -5.99337488e-06 ,	 9.04191589e-06 
	 -8.05379019e-06 ,	 9.65756823e-06 
	 -1.02846519e-05 ,	 9.80613853e-06 
	 -1.24627991e-05 ,	 9.4541388e-06 
	 -1.43850358e-05 ,	 8.6900287e-06 
	 -1.59358593e-05 ,	 7.67767224e-06 
	 -1.70989395e-05 ,	 6.58525753e-06 
	 -1.79243102e-05 ,	 5.53819686e-06 
	 -1.84872782e-05 ,	 4.60853088e-06 
	 -1.8860898e-05 ,	 3.82613563e-06 
	 -1.91042585e-05 ,	 3.19506208e-06 
	 -1.92606668e-05 ,	 2.70675334e-06 
	 -1.93600383e-05 ,	 2.3484931e-06 
	 -1.94222457e-05 ,	 2.1081016e-06 
	 -1.94600772e-05 ,	 1.97630181e-06 
	 -1.94814417e-05 ,	 1.94784055e-06 
	 -1.94908489e-05 ,	 2.02204174e-06 
	 -1.9490292e-05 ,	 2.20317325e-06 
	 -1.94796442e-05 ,	 2.50082687e-06 
	 -1.94566253e-05 ,	 2.93040106e-06 
	 -1.94377275e-05 ,	 3.22066893e-06 
	 -1.94157955e-05 ,	 3.52059858e-06 
	 -1.93493466e-05 ,	 4.28850463e-06 
	 -1.92430158e-05 ,	 5.27567938e-06 
	 -1.9098859e-05 ,	 6.36308983e-06 
	 -1.88851821e-05 ,	 7.68291125e-06 
	 -1.86673584e-05 ,	 8.81350433e-06 
	 -1.83956404e-05 ,	 1.00299989e-05 
	 -1.77871531e-05 ,	 1.22696978e-05 
	 -1.70754761e-05 ,	 1.4368392e-05 
	 -1.62794865e-05 ,	 1.62975986e-05 
	 -1.542107e-05 ,	 1.80320553e-05 
	 -1.45249462e-05 ,	 1.95492553e-05 
	 -1.3618462e-05 ,	 2.08294033e-05 
	 -1.27313626e-05 ,	 2.18555078e-05 
	 -1.18955436e-05 ,	 2.26135169e-05 
	 -1.11447887e-05 ,	 2.30924588e-05 
	 -1.05144953e-05 ,	 2.32845724e-05 
	 -1.0041391e-05 ,	 2.3185419e-05 
	 -9.76324467e-06 ,	 2.27939714e-05 
	 -9.71857415e-06 ,	 2.21126797e-05 
	 -9.94635342e-06 ,	 2.11475121e-05 
	 -1.04857221e-05 ,	 1.99079714e-05 
	 -1.13756991e-05 ,	 1.8407088e-05 
	 -1.26549034e-05 ,	 1.66613895e-05 
	 -1.43612829e-05 ,	 1.46908497e-05 
	 -1.65318537e-05 ,	 1.25188171e-05 
	 -1.92024508e-05 ,	 1.01719249e-05 
	 -2.24074921e-05 ,	 7.67998478e-06 
	 -2.61797557e-05 ,	 5.07586601e-06 
	 -3.05501722e-05 ,	 2.39536088e-06 
	 -3.55476311e-05 ,	 -3.2296058e-07 
	 -4.11988034e-05 ,	 -3.03790545e-06 
	 -4.75279792e-05 ,	 -5.70582063e-06 
	 -5.45569197e-05 ,	 -8.28076162e-06 
	 -6.23047251e-05 ,	 -1.0714666e-05 
	 -8.00193316e-05 ,	 -1.49575881e-05 
	 -0.000100767234 ,	 -1.80144856e-05 
	 -0.00012459512 ,	 -1.94427938e-05 
	 -0.000151498962 ,	 -1.87831539e-05 
	 -0.000166088904 ,	 -1.75235756e-05 
	 -0.000181422696 ,	 -1.55649392e-05 
	 -0.000197485073 ,	 -1.28475298e-05 
	 -0.000214257443 ,	 -9.31158192e-06 
	 -0.000231717888 ,	 -4.89743396e-06 
	 -0.000249841166 ,	 4.54321307e-07 
	 -0.000268598718 ,	 6.80268896e-06 
	 -0.000287958678 ,	 1.42061273e-05 
	 -0.000328341913 ,	 3.24084661e-05 
	 -0.000370670413 ,	 5.55127268e-05 
	 -0.000414571963 ,	 8.39526654e-05 
	 -0.000459623379 ,	 0.00011814008 
	 -0.000505351413 ,	 0.000158460499 
	 -0.000551233807 ,	 0.000205268834 
	 -0.000596700512 ,	 0.000258884939 
	 -0.00064113512 ,	 0.000319589053 
	 -0.000683876559 ,	 0.000387617071 
	 -0.000724221134 ,	 0.000463155655 
	 -0.000761424969 ,	 0.000546337173 
	 -0.000794706963 ,	 0.000637234469 
	 -0.000823252318 ,	 0.000735855535 
	 -0.000846216752 ,	 0.000842138118 
	 -0.000862731467 ,	 0.000955944351 
	 -0.00087190895 ,	 0.00107705553 
	 -0.000872849664 ,	 0.00120516714 
	 -0.000864649678 ,	 0.0013398843 
	 -0.000846409245 ,	 0.00148071784 
	 -0.000817242302 ,	 0.00162708107 
	 -0.000776286856 ,	 0.00177828758 
	 -0.000722716145 ,	 0.00193355025 
	 -0.000655750439 ,	 0.00209198152 
	 -0.000574669293 ,	 0.00225259534 
	 -0.000478824011 ,	 0.00241431074 
	 -0.000367650056 ,	 0.00257595725 
	 -0.000240679085 ,	 0.00273628218 
	 -9.75502636e-05 ,	 0.00289395981 
	 6.19794744e-05 ,	 0.0030476024 
	 0.000238026597 ,	 0.00319577288 
	 0.000430573893 ,	 0.00333699895 
	 0.000639465435 ,	 0.00346978845 
	 0.00086440384 ,	 0.0035926454 
	 0.00110494998 ,	 0.00370408657 
	 0.00136052521 ,	 0.00380265784 
	 0.00163041618 ,	 0.00388695013 
	 0.00191378197 ,	 0.00395561422 
	 0.00220966348 ,	 0.00400737415 
	 0.00251699464 ,	 0.00404103868 
	 0.00283461521 ,	 0.00405551058 
	 0.00316128446 ,	 0.00404979344 
	 0.00349569553 ,	 0.00402299586 
	 0.00383648973 ,	 0.00397433294 
	 0.00418227034 ,	 0.00390312522 
	 0.00453161542 ,	 0.00380879502 
	 0.00488308914 ,	 0.00369086071 
	 0.00523525127 ,	 0.00354892892 
	 0.00558666439 ,	 0.00338268526 
	 0.00593589871 ,	 0.00319188398 
	 0.00628153413 ,	 0.00297633685 
	 0.00662215953 ,	 0.00273590198 
	 0.00695636913 ,	 0.00247047284 
	 0.00728275603 ,	 0.00217996815 
	 0.00759990283 ,	 0.00186432302 
	 0.00790636947 ,	 0.00152348188 
	 0.00820067855 ,	 0.00115739375 
	 0.00848129803 ,	 0.0007660103 
	 0.00874662179 ,	 0.000349287341 
	 0.00899494826 ,	 -9.28096873e-05 
	 0.00922445733 ,	 -0.000560295549 
	 0.0094332,	-0.0010531
	 0.009619,	-0.0015713
	 0.0097796,	-0.0021146
	 0.0099124,	-0.0026827
	 0.010015,	-0.0032752
	 0.010083,	-0.0038914
	 0.010115,	-0.0045303
	 0.010107,	-0.0051907
	 0.010054,	-0.0058707
	 0.0099538,	-0.006568
	 0.0098011,	-0.0072796
	 0.009592,	-0.0080018
END
BEGIN
	 5.99988781999999993563164462084e-20 ,	 0 
	 9.12898228999999908151291622026e-16 ,	 1.64023433999999997831221001331e-10 
	 -1.34738140999999989524551635024e-13 ,	 1.64023433000000008886183148609e-09 
	 -1.37000029000000002474103681957e-11 ,	 1.64023318999999984953966949671e-08 
	 -1.37013130999999994515429258587e-09 ,	 1.64011959999999987082133496956e-07 
	 -2.17142404000000014422526731434e-09 ,	 2.06470376000000009262641239086e-07 
	 -3.44125281000000019474676369365e-09 ,	 2.59913947999999977373414066992e-07 
	 -5.45345767000000006865006367627e-09 ,	 3.27178651000000025439435171262e-07 
	 -8.64173839000000004576593616665e-09 ,	 4.11826448999999985548290228413e-07 
	 -1.3692691199999999758659701061e-08 ,	 5.18325017999999990038343441329e-07 
	 -2.16925620999999988082101906031e-08 ,	 6.52265819999999981276231526828e-07 
	 -3.43580824000000021258551744906e-08 ,	 8.20622410000000006118081596895e-07 
	 -5.43979388000000021255555041327e-08 ,	 1.03204349000000002934871422278e-06 
	 -8.60747478999999988710480547036e-08 ,	 1.29715856000000007345706980189e-06 
	 -1.36068653000000010838736958299e-07 ,	 1.62883905999999999737206084899e-06 
	 -2.14779366e-07 ,	 2.04228837e-06 
	 -3.38227564e-07 ,	 2.55470354e-06 
	 -5.30681047e-07 ,	 3.18402294e-06 
	 -8.27919387e-07 ,	 3.94591981e-06 
	 -1.28042729e-06 ,	 4.84778115e-06 
	 -1.95442193e-06 ,	 5.87828441e-06 
	 -2.92632874e-06 ,	 6.99238607e-06 
	 -4.26433253e-06 ,	 8.09588441e-06 
	 -5.99337488e-06 ,	 9.04191589e-06 
	 -8.05379019e-06 ,	 9.65756823e-06 
	 -1.02846519e-05 ,	 9.80613853e-06 
	 -1.24627991e-05 ,	 9.4541388e-06 
	 -1.43850358e-05 ,	 8.6900287e-06 
	 -1.59358593e-05 ,	 7.67767224e-06 
	 -1.70989395e-05 ,	 6.58525753e-06 
	 -1.79243102e-05 ,	 5.53819686e-06 
	 -1.84872782e-05 ,	 4.60853088e-06 
	 -1.8860898e-05 ,	 3.82613563e-06 
	 -1.91042585e-05 ,	 3.19506208e-06 
	 -1.92606668e-05 ,	 2.70675334e-06 
	 -1.93600383e-05 ,	 2.3484931e-06 
	 -1.94222457e-05 ,	 2.1081016e-06 
	 -1.94600772e-05 ,	 1.97630181e-06 
	 -1.94814417e-05 ,	 1.94784055e-06 
	 -1.94908489e-05 ,	 2.02204174e-06 
	 -1.9490292e-05 ,	 2.20317325e-06 
	 -1.94796442e-05 ,	 2.50082687e-06 
	 -1.94566253e-05 ,	 2.93040106e-06 
	 -1.94377275e-05 ,	 3.22066893e-06 
	 -1.94157955e-05 ,	 3.52059858e-06 
	 -1.93493466e-05 ,	 4.28850463e-06 
	 -1.92430158e-05 ,	 5.27567938e-06 
	 -1.9098859e-05 ,	 6.36308983e-06 
	 -1.88851821e-05 ,	 7.68291125e-06 
	 -1.86673584e-05 ,	 8.81350433e-06 
	 -1.83956404e-05 ,	 1.00299989e-05 
	 -1.77871531e-05 ,	 1.22696978e-05 
	 -1.70754761e-05 ,	 1.4368392e-05 
	 -1.62794865e-05 ,	 1.62975986e-05 
	 -1.542107e-05 ,	 1.80320553e-05 
	 -1.45249462e-05 ,	 1.95492553e-05 
	 -1.3618462e-05 ,	 2.08294033e-05 
	 -1.27313626e-05 ,	 2.18555078e-05 
	 -1.18955436e-05 ,	 2.26135169e-05 
	 -1.11447887e-05 ,	 2.30924588e-05 
	 -1.05144953e-05 ,	 2.32845724e-05 
	 -1.0041391e-05 ,	 2.3185419e-05 
	 -9.76324467e-06 ,	 2.27939714e-05 
	 -9.71857415e-06 ,	 2.21126797e-05 
	 -9.94635342e-06 ,	 2.11475121e-05 
	 -1.04857221e-05 ,	 1.99079714e-05 
	 -1.13756991e-05 ,	 1.8407088e-05 
	 -1.26549034e-05 ,	 1.66613895e-05 
	 -1.43612829e-05 ,	 1.46908497e-05 
	 -1.65318537e-05 ,	 1.25188171e-05 
	 -1.92024508e-05 ,	 1.01719249e-05 
	 -2.24074921e-05 ,	 7.67998478e-06 
	 -2.61797557e-05 ,	 5.07586601e-06 
	 -3.05501722e-05 ,	 2.39536088e-06 
	 -3.55476311e-05 ,	 -3.2296058e-07 
	 -4.11988034e-05 ,	 -3.03790545e-06 
	 -4.75279792e-05 ,	 -5.70582063e-06 
	 -5.45569197e-05 ,	 -8.28076162e-06 
	 -6.23047251e-05 ,	 -1.0714666e-05 
	 -8.00193316e-05 ,	 -1.49575881e-05 
	 -0.000100767234 ,	 -1.80144856e-05 
	 -0.00012459512 ,	 -1.94427938e-05 
	 -0.000151498962 ,	 -1.87831539e-05 
	 -0.000166088904 ,	 -1.75235756e-05 
	 -0.000181422696 ,	 -1.55649392e-05 
	 -0.000197485073 ,	 -1.28475298e-05 
	 -0.000214257443 ,	 -9.31158192e-06 
	 -0.000231717888 ,	 -4.89743396e-06 
	 -0.000249841166 ,	 4.54321307e-07 
	 -0.000268598718 ,	 6.80268896e-06 
	 -0.000287958678 ,	 1.42061273e-05 
	 -0.000328341913 ,	 3.24084661e-05 
	 -0.000370670413 ,	 5.55127268e-05 
	 -0.000414571963 ,	 8.39526654e-05 
	 -0.000459623379 ,	 0.00011814008 
	 -0.000505351413 ,	 0.000158460499 
	 -0.000551233807 ,	 0.000205268834 
	 -0.000596700512 ,	 0.000258884939 
	 -0.00064113512 ,	 0.000319589053 
	 -0.000683876559 ,	 0.000387617071 
	 -0.000724221134 ,	 0.000463155655 
	 -0.000761424969 ,	 0.000546337173 
	 -0.000794706963 ,	 0.000637234469 
	 -0.000823252318 ,	 0.000735855535 
	 -0.000846216752 ,	 0.000842138118 
	 -0.000862731467 ,	 0.000955944351 
	 -0.00087190895 ,	 0.00107705553 
	 -0.000872849664 ,	 0.00120516714 
	 -0.000864649678 ,	 0.0013398843 
	 -0.000846409245 ,	 0.00148071784 
	 -0.000817242302 ,	 0.00162708107 
	 -0.000776286856 ,	 0.00177828758 
	 -0.000722716145 ,	 0.00193355025 
