CITIFILE A.01.01
#Momentum: B.12.070 (*) built: Feb 13 2020 
#Momentum Date and Time: Mon Aug 15 11:55:45 2022

NAME Momentum.SP

#  mode: MW    reference: S_50

#eesof Port[1] P1
#eesof Port[2] P2

CONSTANT NBR_OF_PORTS 2

CONSTANT NORMALIZATION 1

VAR freq MAG 245

DATA S[1,1] RI
DATA S[1,2] RI
DATA S[2,1] RI
DATA S[2,2] RI
DATA PORTZ[1] RI
DATA PORTZ[2] RI

VAR_LIST_BEGIN
	 0
	 8.21559042
	 82.1559042
	 821.559042
	 8215.59042
	 10342.81555
	 13020.83333
	 16392.25796
	 20636.6301
	 25979.97805
	 32706.85456
	 41175.49035
	 51836.87115
	 65258.75435
	 82155.9042
	 103428.1555
	 130208.3333
	 163922.5796
	 206366.301
	 259799.7805
	 327068.5456
	 411754.9035
	 518368.7115
	 652587.5435
	 821559.042
	 1034281.555
	 1302083.333
	 1639225.796
	 2063663.01
	 2597997.805
	 3270685.456
	 4117549.035
	 5183687.115
	 6525875.435
	 8215590.42
	 10342815.55
	 13020833.33
	 14722004.42
	 16431180.84
	 20685631.1
	 26041666.66
	 31906481.29
	 39062499.98
	 45274018.04
	 52083333.31
	 65104166.64
	 78124999.97
	 91145833.3
	 104166666.6
	 130208333.3
	 156249999.9
	 182291666.6
	 208333333.2
	 260416666.6
	 312499999.9
	 364583333.2
	 416666666.5
	 468749999.8
	 520833333.1
	 572916666.4
	 624999999.8
	 651041666.4
	 677083333.1
	 703124999.7
	 729166666.4
	 755208333
	 781249999.7
	 807291666.3
	 833333333
	 885416666.3
	 937499999.6
	 989583332.9
	 1041666666
	 1093750000
	 1145833333
	 1197916666
	 1250000000
	 1302083333
	 1354166666
	 1406249999
	 1458333333
	 1510416666
	 1562499999
	 1614583333
	 1666666666
	 1718749999
	 1770833333
	 1822916666
	 1874999999
	 1927083333
	 1979166666
	 2031249999
	 2083333333
	 2135416666
	 2187499999
	 2239583333
	 2291666666
	 2343749999
	 2395833333
	 2447916666
	 2500000000
	 2552083333
	 2604166666
	 2656250000
	 2708333333
	 2760416666
	 2812500000
	 2864583333
	 2916666666
	 2968750000
	 3020833333
	 3072916666
	 3125000000
	 3177083333
	 3229166666
	 3281250000
	 3333333333
	 3385416666
	 3437500000
	 3489583333
	 3541666666
	 3593750000
	 3645833333
	 3697916666
	 3750000000
	 3802083333
	 3854166666
	 3906250000
	 3958333333
	 4010416666
	 4062500000
	 4114583333
	 4166666666
	 4218750000
	 4270833333
	 4322916667
	 4375000000
	 4427083333
	 4479166667
	 4531250000
	 4583333333
	 4635416667
	 4687500000
	 4739583333
	 4791666667
	 4843750000
	 4895833333
	 4947916667
	 5000000000
	 5052083333
	 5104166667
	 5156250000
	 5208333333
	 5260416667
	 5312500000
	 5364583333
	 5416666667
	 5468750000
	 5520833333
	 5572916667
	 5625000000
	 5677083333
	 5729166667
	 5781250000
	 5833333334
	 5885416667
	 5937500000
	 5989583334
	 6041666667
	 6093750000
	 6145833334
	 6197916667
	 6250000000
	 6302083334
	 6354166667
	 6406250000
	 6458333334
	 6510416667
	 6562500000
	 6614583334
	 6666666667
	 6718750000
	 6770833334
	 6822916667
	 6875000000
	 6927083334
	 6979166667
	 7031250000
	 7083333334
	 7135416667
	 7187500000
	 7239583334
	 7291666667
	 7343750000
	 7395833334
	 7447916667
	 7500000000
	 7552083334
	 7604166667
	 7656250001
	 7708333334
	 7760416667
	 7812500001
	 7864583334
	 7916666667
	 7968750001
	 8020833334
	 8072916667
	 8125000001
	 8177083334
	 8229166667
	 8281250001
	 8333333334
	 8385416667
	 8437500001
	 8489583334
	 8541666667
	 8593750001
	 8645833334
	 8697916667
	 8750000000
	 8802083334
	 8854166667
	 8906250000
	 8958333334
	 9010416667
	 9062500000
	 9114583334
	 9166666667
	 9218750000
	 9270833334
	 9322916667
	 9375000000
	 9427083334
	 9479166667
	 9531250000
	 9583333334
	 9635416667
	 9687500000
	 9739583333
	 9791666667
	 9843750000
	 9895833333
	 9947916667
	 1e+10
VAR_LIST_END

BEGIN
	 1.00000000001306155184011004167 ,	 0 
	 1.00000000001306754704444301751 ,	 -2.52675325107531989488052204251e-09 
	 1.00000000001306754704444301751 ,	 -2.52675322887085940237739123404e-08 
	 1.00000000001299893526152118284 ,	 -2.52675323997308964862895663828e-07 
	 1.00000000000616440232192871918 ,	 -2.52675324641238319145486457273e-06 
	 1.00000000000212607709215717477 ,	 -3.18099387208725659093033755198e-06 
	 0.999999999995726973622822697507 ,	 -4.00463402017159353363240370527e-06 
	 0.999999999985584198114452192385 ,	 -5.04153553371189389054052298889e-06 
	 0.999999999969508612807089775742 ,	 -6.34691719936242293442774098366e-06 
	 0.999999999944031436882596608484 ,	 -7.99029534936934737743285950273e-06 
	 0.999999999903652625476979665109 ,	 -1.00591858682719248463399708271e-05 
	 0.999999999839655595579301916587 ,	 -1.26637647201999214985335129313e-05 
	 0.999999999738226508227967315179 ,	 -1.59427352330876459518549381755e-05 
	 0.999999999577474429912626874284 ,	 -2.00707145532330599735360010527e-05 
	 0.999999999322698895909411476168 ,	 -2.52675326541940137303754454479e-05 
	 0.999999998918906563005748466821 ,	 -3.1809939090798877714405534789e-05 
	 0.999999998278940038787254707131 ,	 -4.00463409473417186745791696012e-05 
	 0.9999999972646622659055992699 ,	 -5.04153568225973458538646809757e-05 
	 0.999999995657139040261540685606 ,	 -6.3469174955921303649120090995e-05 
	 0.999999993109390583612139380421 ,	 -7.9902959426281228161315084435e-05 
	 0.999999989071487238589952539769 ,	 -0.000100591870506816505326241895091 
	 0.999999982671856191274173397687 ,	 -0.000126637670795570755899461801164 
	 0.9999999725291630614520954623 ,	 -0.000159427399403000435995636507869 
	 0.999999956454175720210741928895 ,	 -0.000200707239455866215394053142518 
	 0.99999993097727957191978021001 ,	 -0.000252675513937150597598702006508 
	 0.99999989059973071192644056282 ,	 -0.000318099764809121055009200063068 
	 0.999999826607161468317030994513 ,	 -0.000400464155480895200867053063121 
	 0.999999725189622434839975539944 ,	 -0.000504155056640032128711936820764 
	 0.999999564463323720175935704901 ,	 -0.000634694719107375959765704465099 
	 0.999999309753586862470342566667 ,	 -0.000799035518577850822907748806756 
	 0.999998906126820852335868039518 ,	 -0.00100593052335651300666086171987 
	 0.999998266574545491280900932907 ,	 -0.00126640028134583637609011930181 
	 0.99999725333655020698131465906 ,	 -0.00159432100638889906463191437069 
	 0.999995648425796579417124121392 ,	 -0.00200716612476115052743352862308 
	 0.999993107227477917575697574648 ,	 -0.00252694192913960335999945527874 
	 0.999989085739965588572886190377 ,	 -0.00318136962835136039018379960908 
	 0.999982727194361542544243093289 ,	 -0.00400538150492657507584226550534 
	 0.999977943088180776243234504363 ,	 -0.00452891717995274056818288954673 
	 0.999972558055298499368745979154 ,	 -0.00505500137442194130699135712348 
	 0.999956664448892196261908793531 ,	 -0.00636494811527232862147229752736 
	 0.999931704793811881870624347357 ,	 -0.00801510553266182590448352129897 
	 0.999898247497516656778770993697 ,	 -0.00982359439905544640225798502797 
	 0.999849142668503887421138642821 ,	 -0.0120328505275932862161880620988 
	 0.999799543530562440096787213406 ,	 -0.0139531105951686829058644434554 
	 0.99973820044431627174219556764 ,	 -0.0160611648144408647453929006588 
	 0.999602407866621911480820017459 ,	 -0.0201013014746793672316016454715 
	 0.999445146051258337394074260374 ,	 -0.0241533317846076567292357140104 
	 0.99926929779676632037421768473 ,	 -0.0282164312993282706543141102884 
	 0.999077088328909068692951223056 ,	 -0.0322892173655318082126086665085 
	 0.99864924510967045812037667929 ,	 -0.0404572545372483549641628997051 
	 0.998167861170574211016059962276 ,	 -0.0486446810209690827520034872578 
	 0.997633713197672022943152114749 ,	 -0.0568411936931942918249660579022 
	 0.99704513386500059901607073698 ,	 -0.0650395269626675709417895632214 
	 0.995695287912908622018903770368 ,	 -0.081423993225141932938981881307 
	 0.994101845944041162539406286669 ,	 -0.0977759123705941313176026596921 
	 0.992254129099529702529025598778 ,	 -0.114084552326755073181629995815 
	 0.990146338600030206933411136561 ,	 -0.130343245266393292780549018062 
	 0.98777,	-0.14654
	 0.98514,	-0.16268
	 0.98224,	-0.17876
	 0.97908,	-0.19477
	 0.9774,	-0.20275
	 0.97566,	-0.21071
	 0.97385,	-0.21864
	 0.97198,	-0.22656
	 0.97005,	-0.23446
	 0.96805,	-0.24233
	 0.96599,	-0.25019
	 0.96386,	-0.25802
	 0.95942,	-0.27361
	 0.95473,	-0.28911
	 0.9498,	-0.3045
	 0.94462,	-0.31979
	 0.9392,	-0.33497
	 0.93355,	-0.35004
	 0.92766,	-0.365
	 0.92154,	-0.37983
	 0.91519,	-0.39454
	 0.90861,	-0.40912
	 0.90181,	-0.42358
	 0.89479,	-0.43789
	 0.88756,	-0.45207
	 0.88011,	-0.46611
	 0.87245,	-0.48001
	 0.86458,	-0.49376
	 0.85651,	-0.50736
	 0.84824,	-0.52081
	 0.83978,	-0.5341
	 0.83112,	-0.54723
	 0.82226,	-0.5602
	 0.81323,	-0.573
	 0.804,	-0.58564
	 0.7946,	-0.59811
	 0.78502,	-0.61041
	 0.77527,	-0.62253
	 0.76535,	-0.63448
	 0.75526,	-0.64624
	 0.74501,	-0.65783
	 0.7346,	-0.66923
	 0.72404,	-0.68044
	 0.71332,	-0.69147
	 0.70246,	-0.70231
	 0.69146,	-0.71295
	 0.68031,	-0.7234
	 0.66903,	-0.73366
	 0.65761,	-0.74372
	 0.64607,	-0.75359
	 0.6344,	-0.76325
	 0.62261,	-0.77271
	 0.61071,	-0.78198
	 0.59869,	-0.79103
	 0.58656,	-0.79989
	 0.57433,	-0.80854
	 0.56199,	-0.81698
	 0.54956,	-0.82522
	 0.53703,	-0.83324
	 0.52441,	-0.84106
	 0.5117,	-0.84867
	 0.49891,	-0.85608
	 0.48604,	-0.86327
	 0.4731,	-0.87025
	 0.46008,	-0.87702
	 0.447,	-0.88358
	 0.43385,	-0.88992
	 0.42064,	-0.89606
	 0.40737,	-0.90198
	 0.39405,	-0.9077
	 0.38068,	-0.9132
	 0.36726,	-0.91849
	 0.3538,	-0.92357
	 0.3403,	-0.92844
	 0.32676,	-0.9331
	 0.31319,	-0.93755
	 0.29959,	-0.94179
	 0.28596,	-0.94582
	 0.27231,	-0.94964
	 0.25864,	-0.95325
	 0.24496,	-0.95666
	 0.23125,	-0.95986
	 0.21754,	-0.96285
	 0.20382,	-0.96564
	 0.1901,	-0.96822
	 0.17637,	-0.97061
	 0.16265,	-0.97278
	 0.14893,	-0.97476
	 0.13522,	-0.97653
	 0.12152,	-0.97811
	 0.10783,	-0.97949
	 0.094158,	-0.98067
	 0.080502,	-0.98165
	 0.066867,	-0.98244
	 0.053255,	-0.98303
	 0.03967,	-0.98343
	 0.026113,	-0.98364
	 0.012587,	-0.98365
	-0.00090572,	-0.98348
	-0.014362,	-0.98312
	-0.027781,	-0.98257
	-0.041159,	-0.98184
	-0.054494,	-0.98092
	-0.067784,	-0.97982
	-0.081026,	-0.97854
	-0.09422,	-0.97708
	-0.10736,	-0.97543
	-0.12044,	-0.97361
	-0.13348,	-0.97162
	-0.14645,	-0.96945
	-0.15937,	-0.96711
	-0.17222,	-0.96459
	-0.18501,	-0.96191
	-0.19774,	-0.95905
	-0.21039,	-0.95603
	-0.22298,	-0.95284
	-0.2355,	-0.94949
	-0.24794,	-0.94597
	-0.26032,	-0.9423
	-0.27261,	-0.93846
	-0.28483,	-0.93446
	-0.29697,	-0.93031
	-0.30902,	-0.926
	-0.321,	-0.92154
	-0.33289,	-0.91692
	-0.3447,	-0.91215
	-0.35642,	-0.90724
	-0.36805,	-0.90217
	-0.37959,	-0.89696
	-0.39105,	-0.8916
	-0.4024,	-0.8861
	-0.41367,	-0.88045
	-0.42484,	-0.87467
	-0.43592,	-0.86874
	-0.44689,	-0.86268
	-0.45777,	-0.85648
	-0.46855,	-0.85014
	-0.47923,	-0.84367
	-0.4898,	-0.83707
	-0.50027,	-0.83034
	-0.51064,	-0.82347
	-0.5209,	-0.81648
	-0.53105,	-0.80936
	-0.5411,	-0.80212
	-0.55104,	-0.79475
	-0.56086,	-0.78726
	-0.57058,	-0.77965
	-0.58018,	-0.77192
	-0.58967,	-0.76407
	-0.59904,	-0.7561
	-0.6083,	-0.74802
	-0.61745,	-0.73982
	-0.62647,	-0.73151
	-0.63538,	-0.72309
	-0.64417,	-0.71456
	-0.65284,	-0.70592
	-0.66139,	-0.69717
	-0.66981,	-0.68831
	-0.67811,	-0.67935
	-0.68629,	-0.67028
	-0.69434,	-0.66112
	-0.70227,	-0.65185
	-0.71007,	-0.64248
	-0.71774,	-0.63301
	-0.72529,	-0.62344
	-0.7327,	-0.61378
	-0.73999,	-0.60402
	-0.74714,	-0.59417
	-0.75416,	-0.58423
	-0.76105,	-0.57419
	-0.76781,	-0.56406
	-0.77443,	-0.55385
	-0.78091,	-0.54355
	-0.78726,	-0.53316
	-0.79347,	-0.52268
	-0.79954,	-0.51212
	-0.80547,	-0.50148
	-0.81127,	-0.49076
	-0.81692,	-0.47996
	-0.82243,	-0.46908
	-0.82779,	-0.45811
	-0.83302,	-0.44708
	-0.8381,	-0.43597
	-0.84303,	-0.42478
	-0.84781,	-0.41352
	-0.85245,	-0.40219
	-0.85694,	-0.39078
	-0.86129,	-0.37931
END
BEGIN
	 -4.41100704999999960634323188044e-15 ,	 -0 
	 -4.37269578000000020447546048041e-15 ,	 6.95431126000000008149597059898e-13 
	 -4.36619056999999995218583937049e-15 ,	 6.95426095000000003907196930779e-12 
	 -4.0536150799999998867145168726e-15 ,	 6.95426418000000061116891229435e-11 
	 2.67252582999999986536875386208e-14 ,	 6.95426386000000016795010151171e-10 
	 4.49068949999999986045639915514e-14 ,	 8.75489952000000016823770350227e-10 
	 7.37347466000000022987177443781e-14 ,	 1.10217654999999994763367669031e-09 
	 1.19424761000000004948590073858e-13 ,	 1.38755808000000004337132437291e-09 
	 1.91839490999999990364567193122e-13 ,	 1.74683214999999991504465090083e-09 
	 3.06599256000000008917114470457e-13 ,	 2.19913145999999992197189739238e-09 
	 4.88487288999999973488580303452e-13 ,	 2.76854263999999980316239932472e-09 
	 7.76751600999999980272295846746e-13 ,	 3.4853889399999999274378690927e-09 
	 1.23362822000000000763613939609e-12 ,	 4.38784523999999978609140563923e-09 
	 1.95773486000000003834886991022e-12 ,	 5.52397094000000036399826490409e-09 
	 3.10534616999999985972540104156e-12 ,	 6.95426952000000015239817224367e-09 
	 4.92419148e-12 ,	 8.75491086e-09 
	 7.80683981e-12 ,	 1.10217882e-08 
	 1.23754895e-11 ,	 1.38756261e-08 
	 1.96162321e-11 ,	 1.7468412e-08 
	 3.10917439e-11 ,	 2.19914949e-08 
	 4.92785471e-11 ,	 2.76857858e-08 
	 7.8101047e-11 ,	 3.48546066e-08 
	 1.23777434e-10 ,	 4.38798834e-08 
	 1.96159148e-10 ,	 5.52425644e-08 
	 3.10850067e-10 ,	 6.95483907e-08 
	 4.92556801e-10 ,	 8.75604697e-08 
	 7.80376565e-10 ,	 1.10240542e-07 
	 1.2361237e-09 ,	 1.38801445e-07 
	 1.95739021e-09 ,	 1.74774183e-07 
	 3.09790636e-09 ,	 2.20094367e-07 
	 4.89896843e-09 ,	 2.77214957e-07 
	 7.73717453e-09 ,	 3.49255783e-07 
	 1.21950255e-08 ,	 4.40206172e-07 
	 1.91607165e-08 ,	 5.55206467e-07 
	 2.9958133e-08 ,	 7.00948496e-07 
	 4.64902925e-08 ,	 8.86252686e-07 
	 7.133775e-08 ,	 1.12288997e-06 
	 8.90712903e-08 ,	 1.27533493e-06 
	 1.08127249e-07 ,	 1.43023457e-06 
	 1.59462917e-07 ,	 1.82341633e-06 
	 2.28160696e-07 ,	 2.33293136e-06 
	 3.03665406e-07 ,	 2.90638817e-06 
	 3.91689322e-07 ,	 3.62201657e-06 
	 4.63014336e-07 ,	 4.25226543e-06 
	 5.36033491e-07 ,	 4.94850965e-06 
	 6.64801403e-07 ,	 6.28518482e-06 
	 7.86746611e-07 ,	 7.61972103e-06 
	 9.08747706e-07 ,	 8.94714732e-06 
	 1.03527358e-06 ,	 1.0265458e-05 
	 1.31175147e-06 ,	 1.28714182e-05 
	 1.62714624e-06 ,	 1.5433063e-05 
	 1.98455388e-06 ,	 1.79462485e-05 
	 2.38364041e-06 ,	 2.04062217e-05 
	 3.29746919e-06 ,	 2.51454609e-05 
	 4.34100773e-06 ,	 2.96072973e-05 
	 5.47654791e-06 ,	 3.37488123e-05 
	 6.65894163e-06 ,	 3.75300223e-05 
	 7.83669752e-06 ,	 4.09152118e-05 
	 8.95269804e-06 ,	 4.38738333e-05 
	 9.94482498e-06 ,	 4.63812004e-05 
	 1.07465775e-05 ,	 4.84190564e-05 
	 1.10542396e-05 ,	 4.92580901e-05 
	 1.12877087e-05 ,	 4.99760536e-05 
	 1.14377273e-05 ,	 5.05726744e-05 
	 1.14948878e-05 ,	 5.10481585e-05 
	 1.14496548e-05 ,	 5.14031994e-05 
	 1.12923873e-05 ,	 5.16389859e-05 
	 1.10133614e-05 ,	 5.17572088e-05 
	 1.0602793e-05 ,	 5.17600667e-05 
	 9.34773097e-06 ,	 5.14310491e-05 
	 7.44860748e-06 ,	 5.06798335e-05 
	 4.827356e-06 ,	 4.9542642e-05 
	 1.40718594e-06 ,	 4.80640224e-05 
	 -2.88667224e-06 ,	 4.62967883e-05 
	 -8.12623103e-06 ,	 4.43018963e-05 
	 -1.43800238e-05 ,	 4.21482617e-05 
	 -2.17124019e-05 ,	 3.99125152e-05 
	 -3.0182855e-05 ,	 3.76787029e-05 
	 -3.98453598e-05 ,	 3.55379323e-05 
	 -5.07477603e-05 ,	 3.3587967e-05 
	 -6.29311836e-05 ,	 3.19327742e-05 
	 -7.64294947e-05 ,	 3.06820278e-05 
	 -9.12687929e-05 ,	 2.99505711e-05 
	 -0.000107466953 ,	 2.98578427e-05 
	 -0.000125033211 ,	 3.05272704e-05 
	 -0.000143967803 ,	 3.20856355e-05 
	 -0.000164261646 ,	 3.46624135e-05 
	 -0.000185896078 ,	 3.8389094e-05 
	 -0.000208842646 ,	 4.3398484e-05 
	 -0.000233062944 ,	 4.98239994e-05 
	 -0.000258508505 ,	 5.77989476e-05 
	 -0.000285120749 ,	 6.74558061e-05 
	 -0.000312830979 ,	 7.89254997e-05 
	 -0.000341560425 ,	 9.23366816e-05 
	 -0.000371220346 ,	 0.00010781502 
	 -0.000401712174 ,	 0.000125482497 
	 -0.000432927713 ,	 0.000145456714 
	 -0.000464749374 ,	 0.000167850223 
	 -0.000497050467 ,	 0.000192769869 
	 -0.000529695525 ,	 0.00022031616 
	 -0.000562540674 ,	 0.000250582654 
	 -0.000595434044 ,	 0.00028365538 
	 -0.00062821621 ,	 0.000319612285 
	 -0.000660720672 ,	 0.000358522715 
	 -0.000692774368 ,	 0.000400446919 
	 -0.00072419821 ,	 0.000445435601 
	 -0.000754807653 ,	 0.0004935295 
	 -0.000784413287 ,	 0.000544759008 
	 -0.000812821449 ,	 0.000599143826 
	 -0.000839834857 ,	 0.000656692666 
	 -0.000865253256 ,	 0.000717402981 
	 -0.000888874082 ,	 0.00078126075 
	 -0.000910493135 ,	 0.000848240291 
	 -0.000929905265 ,	 0.000918304126 
	 -0.000946905052 ,	 0.000991402881 
	 -0.000961287508 ,	 0.00106747523 
	 -0.000972848759 ,	 0.00114644789 
	 -0.000981386743 ,	 0.00122823563 
	 -0.000986701894 ,	 0.00131274134 
	 -0.000988597818 ,	 0.00139985616 
	 -0.000986881971 ,	 0.00148945962 
	 -0.000981366309 ,	 0.00158141979 
	 -0.000971867944 ,	 0.00167559355 
	 -0.000958209767 ,	 0.00177182682 
	 -0.000940221065 ,	 0.00186995486 
	 -0.000917738114 ,	 0.00196980258 
	 -0.000890604751 ,	 0.00207118495 
	 -0.000858672926 ,	 0.0021739073 
	 -0.000821803224 ,	 0.00227776584 
	 -0.000779865373 ,	 0.00238254801 
	 -0.000732738708 ,	 0.00248803302 
	 -0.000680312624 ,	 0.0025939923 
	 -0.000622486992 ,	 0.00270019002 
	 -0.000559172539 ,	 0.00280638364 
	 -0.000490291215 ,	 0.00291232446 
	 -0.00041577651 ,	 0.00301775814 
	 -0.000335573752 ,	 0.00312242537 
	 -0.000249640367 ,	 0.00322606238 
	 -0.000157946111 ,	 0.00332840156 
	 -6.04732661e-05 ,	 0.00342917211 
	 4.27831923e-05 ,	 0.00352810063 
	 0.000151815463 ,	 0.00362491171 
	 0.000266602815 ,	 0.00371932863 
	 0.000387111519 ,	 0.0038110739 
	 0.000513294805 ,	 0.00389986995 
	 0.000645092856 ,	 0.00398543972 
	 0.000782432822 ,	 0.00406750731 
	 0.000925228876 ,	 0.00414579854 
	 0.00107338229 ,	 0.00422004162 
	 0.00122678154 ,	 0.00428996772 
	 0.00138530243 ,	 0.00435531158 
	 0.00154880827 ,	 0.00441581206 
	 0.00171715004 ,	 0.00447121276 
	 0.00189016662 ,	 0.00452126257 
	 0.00206768499 ,	 0.0045657162 
	 0.00224952051 ,	 0.00460433473 
	 0.00243547721 ,	 0.00463688617 
	 0.00262534805 ,	 0.0046631459 
	 0.00281891526 ,	 0.00468289725 
	 0.00301595067 ,	 0.00469593193 
	 0.0032162161 ,	 0.00470205049 
	 0.00341946368 ,	 0.00470106281 
	 0.00362543628 ,	 0.00469278854 
	 0.00383386793 ,	 0.00467705745 
	 0.0040444842 ,	 0.00465370992 
	 0.00425700271 ,	 0.00462259726 
	 0.00447113351 ,	 0.00458358213 
	 0.00468657962 ,	 0.00453653883 
	 0.00490303749 ,	 0.0044813537 
	 0.0051201975 ,	 0.00441792536 
	 0.00533774446 ,	 0.00434616508 
	 0.00555535818 ,	 0.00426599699 
	 0.00577271399 ,	 0.00417735838 
	 0.0059895,	 0.0040802
	 0.0062053,	 0.0039745
	 0.0064199,	 0.0038602
	 0.0066329,	 0.0037373
	 0.006844,	 0.0036059
	 0.0070528,	 0.0034658
	 0.007259,	 0.0033173
	 0.0074623,	 0.0031603
	 0.0076623,	 0.0029949
	 0.0078586,	 0.0028211
	 0.008051,	 0.0026391
	 0.0082391,	 0.0024489
	 0.0084225,	 0.0022508
	 0.0086011,	 0.0020448
	 0.0087743,	 0.001831
	 0.008942,	 0.0016097
	 0.0091038,	 0.0013809
	 0.0092594,	 0.001145
	 0.0094086,	 0.00090212
	 0.0095509,	 0.00065243
	 0.0096863,	 0.0003962
	 0.0098142594 ,	 0.000133655605 
	 0.0099347,	-0.00013494
	 0.010047,	-0.00040932
	 0.010152,	-0.00068921
	 0.010248,	-0.00097432
	 0.010336,	-0.0012644
	 0.010415,	-0.001559
	 0.010485,	-0.001858
	 0.010547,	-0.0021609
	 0.010599,	-0.0024675
	 0.010641,	-0.0027774
	 0.010674,	-0.0030903
	 0.010698,	-0.0034058
	 0.010712,	-0.0037236
	 0.010716,	-0.0040433
	 0.01071,	-0.0043645
	 0.010695,	-0.004687
	 0.010669,	-0.0050102
	 0.010634,	-0.0053339
	 0.010588,	-0.0056577
	 0.010533,	-0.0059812
	 0.010468,	-0.0063041
	 0.010393,	-0.006626
	 0.010308,	-0.0069466
	 0.010214,	-0.0072655
	 0.01011,	-0.0075823
	 0.0099962,	-0.0078968
	 0.0098733,	-0.0082085
	 0.0097412,	-0.0085172
	 0.0096001,	-0.0088226
	 0.00945,	-0.0091243
	 0.0092912,	-0.009422
	 0.0091239,	-0.0097155
	 0.0089482,	-0.010004
	 0.0087645,	-0.010289
	 0.0085729,	-0.010568
	 0.0083736,	-0.010842
	 0.0081669,	-0.01111
	 0.007953,	-0.011372
	 0.0077323,	-0.011629
	 0.0075049,	-0.011879
	 0.0072712,	-0.012124
	 0.0070314,	-0.012361
	 0.0067858,	-0.012592
	 0.0065347,	-0.012817
	 0.0062784,	-0.013034
	 0.0060171,	-0.013244
	 0.0057513,	-0.013448
