CITIFILE A.01.01
#Momentum: B.12.070 (*) built: Feb 13 2020 
#Momentum Date and Time: Sun Aug 14 07:20:52 2022

NAME Momentum.SP

#  mode: MW    reference: S_50

#eesof Port[1] P1
#eesof Port[2] P2

CONSTANT NBR_OF_PORTS 2

CONSTANT NORMALIZATION 1

VAR freq MAG 526

DATA S[1,1] RI
DATA S[1,2] RI
DATA S[2,1] RI
DATA S[2,2] RI
DATA PORTZ[1] RI
DATA PORTZ[2] RI

VAR_LIST_BEGIN
	 0
	 8.701167248
	 87.01167248
	 870.1167248
	 8701.167248
	 10954.12056
	 13790.42074
	 17361.11111
	 21856.34395
	 27515.50681
	 34639.97074
	 43609.13942
	 54900.65381
	 69115.8282
	 87011.67248
	 109541.2056
	 137904.2074
	 173611.1111
	 218563.4395
	 275155.0681
	 346399.7074
	 436091.3942
	 549006.5381
	 691158.282
	 870116.7248
	 1095412.056
	 1379042.074
	 1736111.111
	 2185634.395
	 2751550.681
	 3463997.074
	 4360913.942
	 5490065.381
	 6911582.82
	 8701167.248
	 10954120.56
	 13790420.74
	 17361111.11
	 19629339.22
	 21908241.12
	 27580841.48
	 34722222.21
	 42541975.06
	 52083333.32
	 60365357.4
	 69444444.42
	 86805555.53
	 104166666.6
	 121527777.7
	 138888888.8
	 156250000
	 173611111.1
	 190972222.2
	 208333333.3
	 225694444.4
	 243055555.5
	 260416666.6
	 277777777.7
	 295138888.8
	 312499999.9
	 329861111
	 347222222.1
	 364583333.2
	 381944444.3
	 399305555.4
	 416666666.5
	 434027777.6
	 451388888.7
	 468749999.8
	 486111110.9
	 503472222
	 520833333.1
	 538194444.2
	 555555555.4
	 572916666.5
	 590277777.6
	 607638888.7
	 624999999.8
	 642361110.9
	 659722222
	 677083333.1
	 694444444.2
	 711805555.3
	 729166666.4
	 746527777.5
	 763888888.6
	 781249999.7
	 798611110.8
	 815972221.9
	 833333333
	 846354166.3
	 859374999.7
	 872395833
	 885416666.3
	 898437499.6
	 911458333
	 924479166.3
	 937499999.6
	 950520833
	 963541666.3
	 976562499.6
	 989583332.9
	 1002604166
	 1015625000
	 1028645833
	 1041666666
	 1067708333
	 1093750000
	 1119791666
	 1145833333
	 1171875000
	 1197916666
	 1223958333
	 1250000000
	 1276041666
	 1302083333
	 1328124999
	 1354166666
	 1380208333
	 1406249999
	 1432291666
	 1458333333
	 1484374999
	 1510416666
	 1536458333
	 1562499999
	 1588541666
	 1614583333
	 1640624999
	 1666666666
	 1692708333
	 1718749999
	 1744791666
	 1770833333
	 1796874999
	 1822916666
	 1848958333
	 1874999999
	 1901041666
	 1927083333
	 1953124999
	 1979166666
	 2005208333
	 2031249999
	 2057291666
	 2083333333
	 2109374999
	 2135416666
	 2161458333
	 2187499999
	 2213541666
	 2239583333
	 2265624999
	 2291666666
	 2317708333
	 2343749999
	 2369791666
	 2395833333
	 2421874999
	 2447916666
	 2473958333
	 2500000000
	 2526041666
	 2552083333
	 2578125000
	 2604166666
	 2630208333
	 2656250000
	 2682291666
	 2708333333
	 2734375000
	 2760416666
	 2786458333
	 2812500000
	 2838541666
	 2864583333
	 2890625000
	 2916666666
	 2942708333
	 2968750000
	 2994791666
	 3020833333
	 3046875000
	 3072916666
	 3098958333
	 3125000000
	 3151041666
	 3177083333
	 3203125000
	 3229166666
	 3255208333
	 3281250000
	 3307291666
	 3333333333
	 3359375000
	 3385416666
	 3411458333
	 3437500000
	 3463541666
	 3489583333
	 3515625000
	 3541666666
	 3593750000
	 3645833333
	 3697916666
	 3750000000
	 3802083333
	 3854166666
	 3906250000
	 3958333333
	 4010416666
	 4062500000
	 4114583333
	 4166666666
	 4218750000
	 4270833333
	 4322916667
	 4375000000
	 4427083333
	 4479166667
	 4531250000
	 4583333333
	 4635416667
	 4687500000
	 4739583333
	 4791666667
	 4843750000
	 4895833333
	 4947916667
	 5000000000
	 5026041667
	 5052083333
	 5078125000
	 5104166667
	 5130208333
	 5156250000
	 5182291667
	 5208333334
	 5234375000
	 5260416667
	 5286458334
	 5312500000
	 5338541667
	 5364583334
	 5390625000
	 5416666667
	 5442708334
	 5468750000
	 5494791667
	 5520833334
	 5546875000
	 5572916667
	 5598958334
	 5625000000
	 5651041667
	 5677083334
	 5703125001
	 5729166667
	 5755208334
	 5781250001
	 5807291667
	 5833333334
	 5859375001
	 5885416667
	 5911458334
	 5937500001
	 5963541667
	 5989583334
	 6015625001
	 6041666667
	 6067708334
	 6093750001
	 6119791667
	 6145833334
	 6171875001
	 6197916667
	 6223958334
	 6250000000
	 6263020834
	 6276041667
	 6289062500
	 6302083334
	 6315104167
	 6328125000
	 6341145834
	 6354166667
	 6367187500
	 6380208334
	 6393229167
	 6406250000
	 6419270834
	 6432291667
	 6445312500
	 6458333334
	 6471354167
	 6484375000
	 6497395834
	 6510416667
	 6523437500
	 6536458334
	 6549479167
	 6562500000
	 6575520834
	 6588541667
	 6601562500
	 6614583334
	 6627604167
	 6640625000
	 6653645834
	 6666666667
	 6679687500
	 6692708334
	 6705729167
	 6718750000
	 6731770834
	 6744791667
	 6757812500
	 6770833334
	 6783854167
	 6796875000
	 6809895834
	 6822916667
	 6835937500
	 6848958334
	 6861979167
	 6875000000
	 6888020834
	 6901041667
	 6914062500
	 6927083334
	 6940104167
	 6953125000
	 6966145834
	 6979166667
	 6992187500
	 7005208334
	 7018229167
	 7031250000
	 7044270834
	 7057291667
	 7070312500
	 7083333334
	 7096354167
	 7109375000
	 7122395833
	 7135416667
	 7148437500
	 7161458333
	 7174479167
	 7187500000
	 7200520833
	 7213541667
	 7226562500
	 7239583333
	 7252604167
	 7265625000
	 7278645833
	 7291666667
	 7304687500
	 7317708333
	 7330729167
	 7343750000
	 7356770833
	 7369791667
	 7382812500
	 7395833333
	 7408854167
	 7421875000
	 7434895833
	 7447916667
	 7460937500
	 7473958333
	 7486979167
	 7500000000
	 7513020833
	 7526041667
	 7539062500
	 7552083333
	 7565104167
	 7578125000
	 7591145833
	 7604166667
	 7617187500
	 7630208333
	 7643229167
	 7656250000
	 7669270833
	 7682291667
	 7695312500
	 7708333334
	 7721354167
	 7734375000
	 7747395834
	 7760416667
	 7773437500
	 7786458334
	 7799479167
	 7812500000
	 7825520834
	 7838541667
	 7851562500
	 7864583334
	 7877604167
	 7890625000
	 7903645834
	 7916666667
	 7929687500
	 7942708334
	 7955729167
	 7968750000
	 7981770834
	 7994791667
	 8007812500
	 8020833334
	 8033854167
	 8046875000
	 8059895834
	 8072916667
	 8085937500
	 8098958334
	 8111979167
	 8125000000
	 8138020834
	 8151041667
	 8164062501
	 8177083334
	 8190104167
	 8203125001
	 8216145834
	 8229166667
	 8242187501
	 8255208334
	 8268229167
	 8281250001
	 8294270834
	 8307291667
	 8320312501
	 8333333334
	 8350694445
	 8368055556
	 8385416667
	 8402777778
	 8420138890
	 8437500001
	 8454861112
	 8472222223
	 8489583334
	 8506944445
	 8524305556
	 8541666667
	 8559027778
	 8576388890
	 8593750001
	 8611111112
	 8628472223
	 8645833334
	 8663194445
	 8680555556
	 8697916667
	 8715277778
	 8732638890
	 8750000001
	 8767361112
	 8784722223
	 8802083334
	 8819444445
	 8836805556
	 8854166667
	 8871527778
	 8888888890
	 8906250001
	 8923611112
	 8940972223
	 8958333334
	 8975694445
	 8993055556
	 9010416667
	 9027777778
	 9045138889
	 9062500001
	 9079861112
	 9097222223
	 9114583334
	 9131944445
	 9149305556
	 9166666667
	 9184027778
	 9201388889
	 9218750001
	 9236111112
	 9253472223
	 9270833334
	 9288194445
	 9305555556
	 9322916667
	 9340277778
	 9357638889
	 9375000001
	 9392361112
	 9409722223
	 9427083334
	 9444444445
	 9461805556
	 9479166667
	 9496527778
	 9513888889
	 9531250000
	 9548611112
	 9565972223
	 9583333334
	 9600694445
	 9618055556
	 9635416667
	 9652777778
	 9670138889
	 9687500000
	 9704861111
	 9722222222
	 9756944445
	 9791666667
	 9826388889
	 9861111111
	 9895833333
	 9930555556
	 9965277778
	 1e+10
VAR_LIST_END

BEGIN
	 0.999999999999997890576253212203 ,	 -0 
	 1.00000000000002575717417130363 ,	 -2.68243000034473766390874516219e-09 
	 1.00000000000002398081733190338 ,	 -2.68243011691815524955018190667e-08 
	 0.999999999999782840376383319381 ,	 -2.68243017687019857930863508955e-07 
	 0.999999999975716757916188726085 ,	 -2.68243018475278205414724652655e-06 
	 0.999999999961497576528302033694 ,	 -3.37697952762505693158345820848e-06 
	 0.999999999938961825485250756174 ,	 -4.25136534931702669837250141427e-06 
	 0.999999999903246283849966857815 ,	 -5.3521518860732975042537873378e-06 
	 0.999999999846641451917150789086 ,	 -6.7379600421912932972645648988e-06 
	 0.999999999756928215077778077102 ,	 -8.48258917029998116277056396939e-06 
	 0.999999999614741397202521966392 ,	 -1.06789471649437750500055699376e-05 
	 0.999999999389391880377786492318 ,	 -1.34439981568368338571417552885e-05 
	 0.999999999032237019136459821311 ,	 -1.69249913138380669863636285299e-05 
	 0.999999998466184369938503095909 ,	 -2.13073024552534739939346764004e-05 
	 0.999999997569054333013127688901 ,	 -2.68243061055106757351040869253e-05 
	 0.999999996147204583962775359396 ,	 -3.37698037773948023243519855896e-05 
	 0.999999993893736727201826397504 ,	 -4.25136704466644310684841912007e-05 
	 0.999999990322262832798116960475 ,	 -5.3521552683732931399163135211e-05 
	 0.999999984661941287988895510352 ,	 -6.73796679120930441797554522054e-05 
	 0.999999975691141296252339998318 ,	 -8.48260263712763418197937426157e-05 
	 0.999999961473893139718427391927 ,	 -0.000106789740335011540395271367743 
	 0.999999938942364496874404267146 ,	 -0.000134440517647604895756785481353 
	 0.999999903235541887092097113054 ,	 -0.000169250982694602036815467727138 
	 0.999999846652180779393859211268 ,	 -0.000213075158361275551754943080596 
	 0.999999756994044419755596209143 ,	 -0.000268247317833592013869292713935 
	 0.999999614946803672133057716565 ,	 -0.00033770652886644381140968107502 
	 0.999999389945916639099721123785 ,	 -0.000425153639166842012286906538066 
	 0.999999033666684744581232280325 ,	 -0.000535249293087125543877391464775 
	 0.999998469812096280051605390327 ,	 -0.000673863979288868986117222448229 
	 0.999997578190352065519164170837 ,	 -0.000848394317032374889464563239017 
	 0.99999617013066410819988050207 ,	 -0.00106816415648108842262331563688 
	 0.999993951122342128456921273028 ,	 -0.00134493516267225610150148895627 
	 0.999990465496635727582486197207 ,	 -0.00169356023022859680793317238567 
	 0.99998501803856820746574385339 ,	 -0.00213282547050391846354955305287 
	 0.999976571206195208318945333303 ,	 -0.00268654356247677306157584098401 
	 0.999963629375452356384812446777 ,	 -0.00338498180615592891840037736984 
	 0.999944150670639908540238138812 ,	 -0.00426672395349736444103427857044 
	 0.999915573945982627535045139666 ,	 -0.0053810517581276418042079967563 
	 0.999895638462983460392763390701 ,	 -0.00609146154965317654372825018072 
	 0.99987459256030275511761828966 ,	 -0.00680716946064169325936177301628 
	 0.999819476755143710100526277529 ,	 -0.00859654093410511244144345255336 
	 0.999748077282319846936786689184 ,	 -0.0108623095721582241246494504594 
	 0.999670423701892518764111628116 ,	 -0.013354813756299765969970394508 
	 0.999577305878540767203332961799 ,	 -0.0164052619874445748671121236839 
	 0.99949679332051488689359075579 ,	 -0.0190569113801277723041494027711 
	 0.999407010048866339957385207526 ,	 -0.0219650242559827901800417748746 
	 0.999224795180300162655839812942 ,	 -0.0275247921184654242843237170746 
	 0.999021729712127770639540358388 ,	 -0.0330801017246618034306493427721 
	 0.998792778466939923376344268036 ,	 -0.038630160677897151799697894603 
	 0.99853518224900839062030399873 ,	 -0.0441750791080581795000625788816 
	 0.998247398790695683601370546967 ,	 -0.0497150928691169058382115508721 
	 0.99792854240666073462051599563 ,	 -0.0552503696466206117854369495035 
	 0.997578094405246362796901848924 ,	 -0.0607809784124597740628814790398 
	 0.997195750073504250110545399366 ,	 -0.0663069006809748895392431222717 
	 0.99678133497786935990347956249 ,	 -0.071828048878425310164175243699 
	 0.996334757493800737826461499935 ,	 -0.0773442826751091216941347283864 
	 0.995855980975273724631335880986 ,	 -0.0828554215832162932464655114018 
	 0.99534500699298211756627097202 ,	 -0.0883612541436197829192167318979 
	 0.994801865071572755105933083541 ,	 -0.0938615444226629236368353303988 
	 0.994226606420436365141313217464 ,	 -0.0993560364965302422746162847034 
	 0.993619300258239301903984141973 ,	 -0.104844457446435279646124172359 
	 0.992980031942384933074663422303 ,	 -0.110326519280837642700277001495 
	 0.99230890246954284172886673332 ,	 -0.115801920095449040193358314355 
	 0.9916060291248600666591528352 ,	 -0.121270344734343393788833509461 
	 0.990871547188549306461879950803 ,	 -0.126731465194819370445600270614 
	 0.990105612689142322579982646857 ,	 -0.132184941029749647434243797761 
	 0.9893,	-0.13763
	 0.98848,	-0.14306
	 0.98762,	-0.14849
	 0.98673,	-0.15391
	 0.98581,	-0.15932
	 0.98486,	-0.16472
	 0.98388,	-0.17011
	 0.98287,	-0.17549
	 0.98183,	-0.18086
	 0.98077,	-0.18622
	 0.97968,	-0.19156
	 0.97856,	-0.1969
	 0.97742,	-0.20223
	 0.97626,	-0.20754
	 0.97507,	-0.21285
	 0.97385,	-0.21815
	 0.97261,	-0.22344
	 0.97135,	-0.22873
	 0.97006,	-0.23401
	 0.96875,	-0.23928
	 0.96741,	-0.24455
	 0.96604,	-0.24982
	 0.96465,	-0.25508
	 0.96322,	-0.26034
	 0.96213,	-0.26427
	 0.96103,	-0.26821
	 0.9599,	-0.27214
	 0.95876,	-0.27606
	 0.9576,	-0.27998
	 0.95643,	-0.2839
	 0.95523,	-0.2878
	 0.95402,	-0.29171
	 0.9528,	-0.2956
	 0.95155,	-0.29949
	 0.95029,	-0.30338
	 0.94901,	-0.30725
	 0.94772,	-0.31112
	 0.94641,	-0.31498
	 0.94508,	-0.31884
	 0.94374,	-0.32269
	 0.94101,	-0.33036
	 0.93822,	-0.33801
	 0.93536,	-0.34562
	 0.93245,	-0.35321
	 0.92947,	-0.36076
	 0.92644,	-0.36829
	 0.92334,	-0.37578
	 0.92019,	-0.38324
	 0.91698,	-0.39066
	 0.91371,	-0.39806
	 0.91038,	-0.40542
	 0.907,	-0.41275
	 0.90356,	-0.42004
	 0.90007,	-0.4273
	 0.89652,	-0.43453
	 0.89291,	-0.44172
	 0.88925,	-0.44888
	 0.88554,	-0.456
	 0.88177,	-0.46309
	 0.87795,	-0.47014
	 0.87407,	-0.47716
	 0.87014,	-0.48413
	 0.86616,	-0.49107
	 0.86213,	-0.49797
	 0.85804,	-0.50484
	 0.85391,	-0.51166
	 0.84972,	-0.51845
	 0.84548,	-0.5252
	 0.8412,	-0.53191
	 0.83686,	-0.53857
	 0.83247,	-0.5452
	 0.82804,	-0.55179
	 0.82355,	-0.55834
	 0.81902,	-0.56484
	 0.81444,	-0.5713
	 0.80981,	-0.57773
	 0.80514,	-0.5841
	 0.80042,	-0.59044
	 0.79565,	-0.59673
	 0.79084,	-0.60298
	 0.78598,	-0.60919
	 0.78108,	-0.61535
	 0.77613,	-0.62147
	 0.77114,	-0.62754
	 0.76611,	-0.63357
	 0.76104,	-0.63955
	 0.75592,	-0.64548
	 0.75076,	-0.65137
	 0.74556,	-0.65722
	 0.74031,	-0.66302
	 0.73503,	-0.66877
	 0.72971,	-0.67447
	 0.72434,	-0.68013
	 0.71894,	-0.68574
	 0.7135,	-0.6913
	 0.70802,	-0.69681
	 0.7025,	-0.70227
	 0.69695,	-0.70769
	 0.69136,	-0.71305
	 0.68573,	-0.71837
	 0.68007,	-0.72364
	 0.67437,	-0.72886
	 0.66864,	-0.73403
	 0.66287,	-0.73914
	 0.65707,	-0.74421
	 0.65123,	-0.74923
	 0.64536,	-0.7542
	 0.63946,	-0.75911
	 0.63353,	-0.76398
	 0.62757,	-0.76879
	 0.62157,	-0.77356
	 0.61555,	-0.77827
	 0.60949,	-0.78293
	 0.60341,	-0.78753
	 0.59729,	-0.79209
	 0.59115,	-0.79659
	 0.58498,	-0.80105
	 0.57878,	-0.80544
	 0.57256,	-0.80979
	 0.5663,	-0.81408
	 0.56003,	-0.81832
	 0.55372,	-0.82251
	 0.54739,	-0.82665
	 0.54104,	-0.83073
	 0.53466,	-0.83476
	 0.52826,	-0.83873
	 0.52184,	-0.84265
	 0.51539,	-0.84652
	 0.50892,	-0.85034
	 0.50243,	-0.8541
	 0.49592,	-0.8578
	 0.48938,	-0.86146
	 0.48283,	-0.86506
	 0.47626,	-0.8686
	 0.46966,	-0.87209
	 0.46305,	-0.87553
	 0.44977,	-0.88224
	 0.43642,	-0.88874
	 0.42301,	-0.89502
	 0.40953,	-0.90108
	 0.39599,	-0.90692
	 0.3824,	-0.91255
	 0.36875,	-0.91796
	 0.35506,	-0.92315
	 0.34132,	-0.92812
	 0.32754,	-0.93288
	 0.31373,	-0.93743
	 0.29987,	-0.94175
	 0.28599,	-0.94586
	 0.27208,	-0.94976
	 0.25815,	-0.95344
	 0.2442,	-0.9569
	 0.23022,	-0.96015
	 0.21624,	-0.96319
	 0.20224,	-0.96602
	 0.18823,	-0.96863
	 0.17422,	-0.97103
	 0.16021,	-0.97323
	 0.1462,	-0.97521
	 0.13219,	-0.97698
	 0.11819,	-0.97855
	 0.1042,	-0.97991
	 0.090224,	-0.98107
	 0.076261,	-0.98202
	 0.069287,	-0.98241
	 0.062317,	-0.98276
	 0.055353,	-0.98306
	 0.048394,	-0.9833
	 0.041441,	-0.9835
	 0.034494,	-0.98364
	 0.027554,	-0.98374
	 0.020621,	-0.98379
	 0.013695,	-0.98378
	 0.0067773,	-0.98373
	-0.000133,	-0.98362
	-0.0070351,	-0.98347
	-0.013929,	-0.98327
	-0.020813,	-0.98302
	-0.027689,	-0.98271
	-0.034555,	-0.98237
	-0.041411,	-0.98197
	-0.048257,	-0.98152
	-0.055093,	-0.98103
	-0.061918,	-0.98048
	-0.068732,	-0.97989
	-0.075535,	-0.97925
	-0.082326,	-0.97857
	-0.089105,	-0.97783
	-0.095872,	-0.97705
	-0.10262,	-0.97622
	-0.10936,	-0.97534
	-0.11609,	-0.97442
	-0.12281,	-0.97345
	-0.12951,	-0.97243
	-0.1362,	-0.97137
	-0.14287,	-0.97026
	-0.14953,	-0.96911
	-0.15618,	-0.96791
	-0.16281,	-0.96666
	-0.16942,	-0.96537
	-0.17602,	-0.96403
	-0.18261,	-0.96264
	-0.18918,	-0.96122
	-0.19573,	-0.95974
	-0.20226,	-0.95823
	-0.20878,	-0.95666
	-0.21528,	-0.95506
	-0.22177,	-0.9534
	-0.22823,	-0.95171
	-0.23468,	-0.94997
	-0.24112,	-0.94819
	-0.24753,	-0.94636
	-0.25073,	-0.94543
	-0.25392,	-0.94449
	-0.25711,	-0.94354
	-0.2603,	-0.94258
	-0.26348,	-0.94161
	-0.26666,	-0.94062
	-0.26983,	-0.93963
	-0.273,	-0.93862
	-0.27616,	-0.93761
	-0.27931,	-0.93658
	-0.28247,	-0.93555
	-0.28561,	-0.9345
	-0.28876,	-0.93344
	-0.29189,	-0.93237
	-0.29503,	-0.93129
	-0.29815,	-0.93021
	-0.30128,	-0.92911
	-0.30439,	-0.928
	-0.3075,	-0.92687
	-0.31061,	-0.92574
	-0.31371,	-0.9246
	-0.31681,	-0.92345
	-0.3199,	-0.92229
	-0.32299,	-0.92112
	-0.32607,	-0.91993
	-0.32914,	-0.91874
	-0.33221,	-0.91754
	-0.33528,	-0.91632
	-0.33834,	-0.9151
	-0.34139,	-0.91386
	-0.34444,	-0.91262
	-0.34748,	-0.91137
	-0.35052,	-0.9101
	-0.35355,	-0.90883
	-0.35658,	-0.90754
	-0.3596,	-0.90625
	-0.36262,	-0.90494
	-0.36563,	-0.90363
	-0.36863,	-0.9023
	-0.37163,	-0.90097
	-0.37462,	-0.89962
	-0.37761,	-0.89827
	-0.38059,	-0.8969
	-0.38357,	-0.89553
	-0.38654,	-0.89414
	-0.3895,	-0.89275
	-0.39246,	-0.89134
	-0.39541,	-0.88993
	-0.39836,	-0.88851
	-0.4013,	-0.88707
	-0.40423,	-0.88563
	-0.40716,	-0.88418
	-0.41008,	-0.88271
	-0.413,	-0.88124
	-0.41591,	-0.87976
	-0.41881,	-0.87827
	-0.42171,	-0.87677
	-0.4246,	-0.87526
	-0.42749,	-0.87374
	-0.43037,	-0.87221
	-0.43325,	-0.87067
	-0.43611,	-0.86912
	-0.43897,	-0.86756
	-0.44183,	-0.86599
	-0.44468,	-0.86442
	-0.44752,	-0.86283
	-0.45036,	-0.86123
	-0.45319,	-0.85963
	-0.45601,	-0.85801
	-0.45883,	-0.85639
	-0.46164,	-0.85476
	-0.46444,	-0.85311
	-0.46724,	-0.85146
	-0.47003,	-0.8498
	-0.47282,	-0.84813
	-0.4756,	-0.84645
	-0.47837,	-0.84476
	-0.48114,	-0.84307
	-0.48389,	-0.84136
	-0.48665,	-0.83964
	-0.48939,	-0.83792
	-0.49213,	-0.83618
	-0.49486,	-0.83444
	-0.49759,	-0.83269
	-0.50031,	-0.83093
	-0.50302,	-0.82916
	-0.50573,	-0.82738
	-0.50842,	-0.82559
	-0.51112,	-0.82379
	-0.5138,	-0.82199
	-0.51648,	-0.82017
	-0.51915,	-0.81835
	-0.52182,	-0.81652
	-0.52447,	-0.81468
	-0.52712,	-0.81283
	-0.52977,	-0.81097
	-0.5324,	-0.8091
	-0.53503,	-0.80723
	-0.53766,	-0.80534
	-0.54027,	-0.80345
	-0.54288,	-0.80155
	-0.54548,	-0.79963
	-0.54808,	-0.79772
	-0.55066,	-0.79579
	-0.55324,	-0.79385
	-0.55582,	-0.79191
	-0.55838,	-0.78995
	-0.56094,	-0.78799
	-0.56349,	-0.78602
	-0.56604,	-0.78404
	-0.56857,	-0.78205
	-0.5711,	-0.78006
	-0.57363,	-0.77805
	-0.57614,	-0.77604
	-0.57865,	-0.77402
	-0.58115,	-0.77199
	-0.58364,	-0.76995
	-0.58613,	-0.76791
	-0.58861,	-0.76585
	-0.59108,	-0.76379
	-0.59354,	-0.76172
	-0.596,	-0.75964
	-0.59844,	-0.75756
	-0.60089,	-0.75546
	-0.60332,	-0.75336
	-0.60574,	-0.75125
	-0.60816,	-0.74913
	-0.61057,	-0.747
	-0.61298,	-0.74486
	-0.61537,	-0.74272
	-0.61776,	-0.74057
	-0.62014,	-0.73841
	-0.62251,	-0.73624
	-0.62487,	-0.73406
	-0.62723,	-0.73188
	-0.62958,	-0.72969
	-0.63192,	-0.72749
	-0.63426,	-0.72528
	-0.63658,	-0.72307
	-0.6389,	-0.72084
	-0.64121,	-0.71861
	-0.64351,	-0.71637
	-0.6458,	-0.71413
	-0.64809,	-0.71187
	-0.65037,	-0.70961
	-0.65264,	-0.70734
	-0.6549,	-0.70506
	-0.65716,	-0.70278
	-0.6594,	-0.70049
	-0.66164,	-0.69819
	-0.66387,	-0.69588
	-0.66609,	-0.69356
	-0.66831,	-0.69124
	-0.67051,	-0.68891
	-0.67271,	-0.68657
	-0.6749,	-0.68422
	-0.67708,	-0.68187
	-0.67926,	-0.67951
	-0.68142,	-0.67714
	-0.68358,	-0.67476
	-0.68644,	-0.67158
	-0.68929,	-0.66839
	-0.69212,	-0.66519
	-0.69494,	-0.66197
	-0.69775,	-0.65873
	-0.70054,	-0.65549
	-0.70331,	-0.65223
	-0.70607,	-0.64896
	-0.70882,	-0.64568
	-0.71154,	-0.64238
	-0.71426,	-0.63907
	-0.71696,	-0.63575
	-0.71964,	-0.63242
	-0.72231,	-0.62907
	-0.72496,	-0.62571
	-0.7276,	-0.62234
	-0.73023,	-0.61895
	-0.73283,	-0.61555
	-0.73543,	-0.61214
	-0.738,	-0.60872
