CITIFILE A.01.01
#Momentum: B.12.070 (*) built: Feb 13 2020 
#Momentum Date and Time: Sun Aug 14 17:35:25 2022

NAME Momentum.SP

#  mode: MW    reference: S_50

#eesof Port[1] P1
#eesof Port[2] P2

CONSTANT NBR_OF_PORTS 2

CONSTANT NORMALIZATION 1

VAR freq MAG 300

DATA S[1,1] RI
DATA S[1,2] RI
DATA S[2,1] RI
DATA S[2,2] RI
DATA PORTZ[1] RI
DATA PORTZ[2] RI

VAR_LIST_BEGIN
	 0
	 8.23509807
	 82.3509807
	 823.509807
	 8235.09807
	 10367.37423
	 13051.75087
	 16431.18084
	 20685.6311
	 26041.66666
	 32784.51592
	 41273.2602
	 51959.9561
	 65413.70913
	 82350.9807
	 103673.7423
	 130517.5087
	 164311.8084
	 206856.311
	 260416.6666
	 327845.1592
	 412732.602
	 519599.561
	 654137.0913
	 823509.807
	 1036737.423
	 1305175.087
	 1643118.084
	 2068563.11
	 2604166.666
	 3278451.592
	 4127326.02
	 5195995.61
	 6541370.913
	 8235098.07
	 10367374.23
	 13051750.87
	 16431180.84
	 20685631.1
	 26041666.66
	 29444008.83
	 32862361.68
	 41371262.21
	 52083333.31
	 63812962.58
	 78124999.97
	 90548036.09
	 104166666.6
	 130208333.3
	 156249999.9
	 182291666.6
	 208333333.2
	 234374999.9
	 260416666.6
	 286458333.2
	 312499999.9
	 338541666.5
	 364583333.2
	 390624999.8
	 416666666.5
	 468749999.8
	 520833333.1
	 572916666.4
	 624999999.8
	 651041666.4
	 677083333.1
	 703124999.7
	 729166666.4
	 755208333
	 781249999.7
	 807291666.3
	 833333333
	 885416666.3
	 937499999.6
	 989583332.9
	 1041666666
	 1067708333
	 1093750000
	 1119791666
	 1145833333
	 1171875000
	 1197916666
	 1223958333
	 1250000000
	 1302083333
	 1354166666
	 1406249999
	 1458333333
	 1484374999
	 1510416666
	 1536458333
	 1562499999
	 1588541666
	 1614583333
	 1640624999
	 1666666666
	 1718749999
	 1770833333
	 1822916666
	 1874999999
	 1927083333
	 1979166666
	 2031249999
	 2083333333
	 2135416666
	 2187499999
	 2239583333
	 2291666666
	 2343749999
	 2395833333
	 2447916666
	 2500000000
	 2552083333
	 2604166666
	 2656250000
	 2708333333
	 2760416666
	 2812500000
	 2864583333
	 2916666666
	 2968750000
	 3020833333
	 3072916666
	 3125000000
	 3177083333
	 3229166666
	 3281250000
	 3333333333
	 3385416666
	 3437500000
	 3489583333
	 3541666666
	 3593750000
	 3645833333
	 3697916666
	 3750000000
	 3802083333
	 3854166666
	 3906250000
	 3958333333
	 4010416666
	 4062500000
	 4114583333
	 4166666666
	 4218750000
	 4270833333
	 4322916667
	 4375000000
	 4427083333
	 4479166667
	 4531250000
	 4583333333
	 4635416667
	 4687500000
	 4739583333
	 4791666667
	 4843750000
	 4895833333
	 4947916667
	 5000000000
	 5052083333
	 5104166667
	 5156250000
	 5208333333
	 5260416667
	 5312500000
	 5364583333
	 5416666667
	 5468750000
	 5520833333
	 5572916667
	 5625000000
	 5677083333
	 5729166667
	 5781250000
	 5833333334
	 5885416667
	 5937500000
	 5989583334
	 6041666667
	 6093750000
	 6145833334
	 6197916667
	 6250000000
	 6302083334
	 6354166667
	 6406250000
	 6458333334
	 6510416667
	 6562500000
	 6614583334
	 6666666667
	 6718750000
	 6770833334
	 6822916667
	 6875000000
	 6927083334
	 6979166667
	 7031250000
	 7083333334
	 7135416667
	 7187500000
	 7239583334
	 7291666667
	 7343750000
	 7395833334
	 7447916667
	 7500000000
	 7552083334
	 7604166667
	 7656250001
	 7708333334
	 7734375001
	 7760416667
	 7786458334
	 7812500001
	 7838541667
	 7864583334
	 7890625001
	 7916666667
	 7942708334
	 7968750001
	 7994791667
	 8020833334
	 8046875001
	 8072916667
	 8098958334
	 8125000001
	 8151041667
	 8177083334
	 8203125001
	 8229166667
	 8255208334
	 8281250001
	 8307291667
	 8333333334
	 8359375001
	 8385416667
	 8411458334
	 8437500001
	 8463541667
	 8489583334
	 8515625001
	 8541666667
	 8567708334
	 8593750001
	 8619791667
	 8645833334
	 8671875001
	 8697916667
	 8723958334
	 8750000000
	 8776041667
	 8802083334
	 8828125000
	 8854166667
	 8880208334
	 8906250000
	 8932291667
	 8958333334
	 8984375000
	 9010416667
	 9036458334
	 9062500000
	 9088541667
	 9114583334
	 9140625000
	 9166666667
	 9192708334
	 9218750000
	 9244791667
	 9270833334
	 9296875000
	 9322916667
	 9348958334
	 9375000000
	 9401041667
	 9427083334
	 9453125000
	 9479166667
	 9505208334
	 9531250000
	 9557291667
	 9583333334
	 9609375000
	 9635416667
	 9661458333
	 9687500000
	 9713541667
	 9739583333
	 9765625000
	 9791666667
	 9817708333
	 9843750000
	 9869791667
	 9895833333
	 9921875000
	 9947916667
	 9973958333
	 1e+10
VAR_LIST_END

BEGIN
	 0.999999999999998445687765524781 ,	 -0 
	 0.999999999999999555910790149937 ,	 -2.20963303210197636872180737555e-09 
	 0.999999999999999333866185224906 ,	 -2.20963289054854072901434847154e-08 
	 0.999999999999972466468989296118 ,	 -2.20963291913678361311212938745e-07 
	 0.999999999997356892045274889824 ,	 -2.20963291780451598356194153894e-06 
	 0.999999999995811239550391746889 ,	 -2.78176303081245634984952630475e-06 
	 0.999999999993361532446556338982 ,	 -3.5020321690060196573313078261e-06 
	 0.999999999989479748663256941654 ,	 -4.40879729060594804934680723818e-06 
	 0.999999999983326781638481861592 ,	 -5.55034694424416663594001875026e-06 
	 0.999999999973574915657081874087 ,	 -6.98747281313583101791664375924e-06 
	 0.999999999958119056842065219826 ,	 -8.79670708800461831344819074729e-06 
	 0.99999999993362354011594561598 ,	 -1.10743980928085239412439477746e-05 
	 0.999999999894800817301643292012 ,	 -1.39418411795877439374180539744e-05 
	 0.999999999833271480120799878932 ,	 -1.75517381473255795754084829241e-05 
	 0.999999999735753153373707391438 ,	 -2.20963291735210010102719024871e-05 
	 0.999999999581196896691892561648 ,	 -2.78176303016852699556693551131e-05 
	 0.999999999336242506586813760805 ,	 -3.50203216769873204583518599975e-05 
	 0.999999998948015500488395446155 ,	 -4.40879728783871716046860456117e-05 
	 0.999999998332717798810165277246 ,	 -5.55034693907885401387147794594e-05 
	 0.999999997357535752584567489976 ,	 -6.98747280179212726380910680746e-05 
	 0.99999999581197696052470291761 ,	 -8.79670706623869591567199677229e-05 
	 0.99999999336243017289405088377 ,	 -0.000110743980495375815564784716116 
	 0.999999989480162221333614525065 ,	 -0.000139418410924740943102051460301 
	 0.999999983327181762859936497989 ,	 -0.000175517379737644141357577609597 
	 0.999999973575363854116915263148 ,	 -0.00022096328827186928478454319702 
	 0.999999958119775600451362151944 ,	 -0.000278176296102883302552299937815 
	 0.999999933624320602731927465356 ,	 -0.0003502032029819024394612370088 
	 0.999999894801645083930452528875 ,	 -0.000440879701268520607371215191961 
	 0.999999833271860705252720435965 ,	 -0.000555034639005219654350753444305 
	 0.999999735753749674493917609652 ,	 -0.000698747170635255487880499458697 
	 0.99999958119802490053018573235 ,	 -0.000879670488056122357178878701234 
	 0.999999336243869163531883259566 ,	 -0.00110743936885529525859794830467 
	 0.999998948018102185031352746591 ,	 -0.00139418323911566499617720182869 
	 0.999998332722747518275241418451 ,	 -0.00175517206124570224190506451123 
	 0.999997357547891430051834049664 ,	 -0.00220962941870286866397066205536 
	 0.999995812006338913313641114655 ,	 -0.00278175604946898080704897893156 
	 0.99999336250422399263726447316 ,	 -0.00350201823964893521612395943521 
	 0.999989480345612191669601998001 ,	 -0.00440876949832394449124706170551 
	 0.999983327640857178053579445987 ,	 -0.00555029149372687768959622189868 
	 0.999973576517128925900124158943 ,	 -0.0069873621802322705143240000325 
	 0.999966221441413338766324159224 ,	 -0.00790022581322963324268471296818 
	 0.999957923575703233609601738863 ,	 -0.0088173722847840474425851198248 
	 0.999933316070424016430706615211 ,	 -0.0111002504146684721764160030943 
	 0.999894319892654870329806726659 ,	 -0.0139740609835914408876078596222 
	 0.999841373543534639445340417296 ,	 -0.0171206009797816027795391846666 
	 0.999762271456284490334098791209 ,	 -0.0209594351202614381790567676944 
	 0.999680698370457698764823817328 ,	 -0.0242911119790849283628375587796 
	 0.999577499618409470727442567295 ,	 -0.0279428274414540434023024317867 
	 0.999340099172615126121854700614 ,	 -0.0349235869281389055274189558986 
	 0.99905019034115638554283123085 ,	 -0.0419010705841466046805976475298 
	 0.998707917584421678292017077183 ,	 -0.0488746452058522740102830539399 
	 0.998313448200067066196083942486 ,	 -0.0558436890039479827407831180608 
	 0.997866970741356107410524600709 ,	 -0.0628075930566303342050815672337 
	 0.997368693287031593541769325384 ,	 -0.0697657625778390078075119618006 
	 0.996818841596845861552367296099 ,	 -0.0767176179886584208578170773762 
	 0.996217657187618899072845124465 ,	 -0.0836625957846557077868254737041 
	 0.995565395364436889202863767423 ,	 -0.090600149196438245491336260784 
	 0.994862323240409684999008277373 ,	 -0.0975297486451083828207231363194 
	 0.994108717776426287215940647002 ,	 -0.104450881998263800376491872157 
	 0.993304863869647003404850238439 ,	 -0.111363054635816693949124100982 
	 0.99154757907058932442367904514 ,	 -0.125158626010004936368602557195 
	 0.98959,	-0.13891
	 0.98744,	-0.15262
	 0.9851,	-0.16628
	 0.98385,	-0.17309
	 0.98256,	-0.17989
	 0.98123,	-0.18668
	 0.97984,	-0.19345
	 0.97841,	-0.20021
	 0.97693,	-0.20695
	 0.97541,	-0.21368
	 0.97384,	-0.22039
	 0.97057,	-0.23377
	 0.96712,	-0.24709
	 0.96349,	-0.26035
	 0.95968,	-0.27353
	 0.95771,	-0.2801
	 0.9557,	-0.28665
	 0.95364,	-0.29318
	 0.95154,	-0.29969
	 0.9494,	-0.30619
	 0.94721,	-0.31266
	 0.94499,	-0.31912
	 0.94272,	-0.32555
	 0.93805,	-0.33837
	 0.93322,	-0.3511
	 0.92822,	-0.36376
	 0.92305,	-0.37632
	 0.92041,	-0.38257
	 0.91773,	-0.3888
	 0.91501,	-0.39501
	 0.91224,	-0.40119
	 0.90944,	-0.40735
	 0.9066,	-0.41349
	 0.90372,	-0.4196
	 0.9008,	-0.42569
	 0.89484,	-0.4378
	 0.88872,	-0.44981
	 0.88246,	-0.46173
	 0.87604,	-0.47354
	 0.86948,	-0.48524
	 0.86277,	-0.49684
	 0.85591,	-0.50833
	 0.84891,	-0.51971
	 0.84177,	-0.53098
	 0.8345,	-0.54214
	 0.82708,	-0.55317
	 0.81953,	-0.5641
	 0.81185,	-0.5749
	 0.80403,	-0.58558
	 0.79609,	-0.59614
	 0.78802,	-0.60658
	 0.77983,	-0.61688
	 0.77151,	-0.62707
	 0.76308,	-0.63712
	 0.75453,	-0.64704
	 0.74586,	-0.65683
	 0.73708,	-0.66649
	 0.72819,	-0.67602
	 0.71919,	-0.6854
	 0.71009,	-0.69466
	 0.70088,	-0.70377
	 0.69158,	-0.71274
	 0.68217,	-0.72158
	 0.67267,	-0.73027
	 0.66307,	-0.73883
	 0.65339,	-0.74724
	 0.64361,	-0.7555
	 0.63375,	-0.76362
	 0.6238,	-0.7716
	 0.61377,	-0.77943
	 0.60367,	-0.78711
	 0.59348,	-0.79465
	 0.58322,	-0.80204
	 0.57289,	-0.80928
	 0.56249,	-0.81637
	 0.55202,	-0.82331
	 0.54149,	-0.83011
	 0.53089,	-0.83675
	 0.52023,	-0.84324
	 0.50952,	-0.84959
	 0.49875,	-0.85578
	 0.48792,	-0.86182
	 0.47704,	-0.86771
	 0.46612,	-0.87345
	 0.45515,	-0.87903
	 0.44413,	-0.88447
	 0.43307,	-0.88975
	 0.42197,	-0.89489
	 0.41084,	-0.89987
	 0.39967,	-0.9047
	 0.38846,	-0.90938
	 0.37722,	-0.91391
	 0.36596,	-0.91829
	 0.35466,	-0.92251
	 0.34335,	-0.92659
	 0.33201,	-0.93052
	 0.32064,	-0.9343
	 0.30926,	-0.93792
	 0.29786,	-0.9414
	 0.28645,	-0.94473
	 0.27502,	-0.94792
	 0.26359,	-0.95095
	 0.25214,	-0.95384
	 0.24069,	-0.95658
	 0.22923,	-0.95917
	 0.21777,	-0.96162
	 0.2063,	-0.96393
	 0.19484,	-0.96609
	 0.18338,	-0.9681
	 0.17192,	-0.96997
	 0.16047,	-0.9717
	 0.14902,	-0.97328
	 0.13758,	-0.97473
	 0.12616,	-0.97603
	 0.11474,	-0.9772
	 0.10334,	-0.97822
	 0.091962,	-0.97911
	 0.080594,	-0.97985
	 0.069244,	-0.98046
	 0.057915,	-0.98094
	 0.046607,	-0.98127
	 0.035323,	-0.98147
	 0.024063,	-0.98154
	 0.012829,	-0.98148
	 0.0016226,	-0.98128
	-0.0095548,	-0.98095
	-0.020702,	-0.98049
	-0.031818,	-0.9799
	-0.0429,	-0.97918
	-0.053948,	-0.97833
	-0.064961,	-0.97736
	-0.075936,	-0.97626
	-0.086874,	-0.97503
	-0.097772,	-0.97368
	-0.10862,	-0.9722
	-0.11944,	-0.9706
	-0.13021,	-0.96888
	-0.14094,	-0.96704
	-0.15162,	-0.96508
	-0.16226,	-0.963
	-0.17285,	-0.9608
	-0.18339,	-0.95848
	-0.19388,	-0.95605
	-0.20432,	-0.9535
	-0.21471,	-0.95084
	-0.22504,	-0.94806
	-0.23532,	-0.94517
	-0.24555,	-0.94217
	-0.25572,	-0.93906
	-0.26583,	-0.93584
	-0.27589,	-0.9325
	-0.28089,	-0.9308
	-0.28589,	-0.92907
	-0.29086,	-0.92731
	-0.29582,	-0.92552
	-0.30077,	-0.92371
	-0.3057,	-0.92187
	-0.31062,	-0.92
	-0.31552,	-0.91811
	-0.32041,	-0.91619
	-0.32528,	-0.91425
	-0.33013,	-0.91228
	-0.33497,	-0.91029
	-0.33979,	-0.90827
	-0.3446,	-0.90622
	-0.34939,	-0.90415
	-0.35416,	-0.90205
	-0.35892,	-0.89993
	-0.36366,	-0.89778
	-0.36838,	-0.89561
	-0.37309,	-0.89342
	-0.37778,	-0.8912
	-0.38246,	-0.88895
	-0.38712,	-0.88668
	-0.39176,	-0.88439
	-0.39638,	-0.88207
	-0.40099,	-0.87973
	-0.40558,	-0.87736
	-0.41015,	-0.87497
	-0.41471,	-0.87256
	-0.41925,	-0.87012
	-0.42377,	-0.86766
	-0.42827,	-0.86517
	-0.43275,	-0.86267
	-0.43722,	-0.86014
	-0.44167,	-0.85758
	-0.4461,	-0.85501
	-0.45051,	-0.85241
	-0.45491,	-0.84979
	-0.45929,	-0.84714
	-0.46365,	-0.84447
	-0.46799,	-0.84178
	-0.47231,	-0.83907
	-0.47661,	-0.83634
	-0.4809,	-0.83358
	-0.48516,	-0.83081
	-0.48941,	-0.82801
	-0.49364,	-0.82519
	-0.49785,	-0.82234
	-0.50204,	-0.81948
	-0.50621,	-0.81659
	-0.51037,	-0.81369
	-0.5145,	-0.81076
	-0.51862,	-0.80781
	-0.52271,	-0.80484
	-0.52679,	-0.80185
	-0.53085,	-0.79884
	-0.53488,	-0.7958
	-0.5389,	-0.79275
	-0.5429,	-0.78968
	-0.54688,	-0.78658
	-0.55084,	-0.78347
	-0.55478,	-0.78033
	-0.5587,	-0.77718
	-0.5626,	-0.77401
	-0.56648,	-0.77081
	-0.57034,	-0.7676
	-0.57418,	-0.76437
	-0.578,	-0.76111
	-0.5818,	-0.75784
	-0.58558,	-0.75455
	-0.58933,	-0.75124
	-0.59307,	-0.74791
	-0.59679,	-0.74456
	-0.60049,	-0.74119
	-0.60417,	-0.7378
	-0.60782,	-0.7344
	-0.61146,	-0.73097
	-0.61507,	-0.72753
	-0.61867,	-0.72407
	-0.62224,	-0.72059
	-0.6258,	-0.71709
	-0.62933,	-0.71357
	-0.63284,	-0.71004
	-0.63633,	-0.70648
	-0.6398,	-0.70291
	-0.64325,	-0.69932
	-0.64667,	-0.69571
	-0.65008,	-0.69209
END
BEGIN
	 4.19144769999999978169572462796e-19 ,	 0 
	 5.41016883999999975143047067723e-17 ,	 -1.90917147999999999855245990228e-11 
	 -1.99547410000000006149551580242e-16 ,	 -1.9091713000000000885151769545e-10 
	 -2.55548348999999994678548937805e-14 ,	 -1.90917129000000009566722185815e-09 
	 -2.56110701000000015141292789532e-12 ,	 -1.90917126000000008610408359835e-08 
	 -4.05911407000000014609471484264e-12 ,	 -2.40350419000000015989191464762e-08 
	 -6.43329547000000003252508857054e-12 ,	 -3.02583245999999996055261825868e-08 
	 -1.01961191999999999190588918819e-11 ,	 -3.80929729000000019888468201761e-08 
	 -1.61597920999999985364309753017e-11 ,	 -4.79562099000000018091489299276e-08 
	 -2.56115772999999986506017119136e-11 ,	 -6.03732878999999981667399888419e-08 
	 -4.05916443000000013660262027667e-11 ,	 -7.60054596000000055362275249403e-08 
	 -6.43334458000000043236246679262e-11 ,	 -9.5685191099999999224604420138e-08 
	 -1.01961656000000002085359532164e-10 ,	 -1.20460491999999992735153990508e-07 
	 -1.61598319000000008320712881034e-10 ,	 -1.51650720000000002583121785048e-07 
	 -2.56115990000000014837341120205e-10 ,	 -1.90916839000000013076003397249e-07 
	 -4.05916221e-10 ,	 -2.40349846e-07 
	 -6.43333135e-10 ,	 -3.02582103e-07 
	 -1.01961245e-09 ,	 -3.80927448e-07 
	 -1.6159721e-09 ,	 -4.79557548e-07 
	 -2.56113127e-09 ,	 -6.03723798e-07 
	 -4.05908954e-09 ,	 -7.60036476e-07 
	 -6.43314804e-09 ,	 -9.56815756e-07 
	 -1.01956633e-08 ,	 -1.20453278e-06 
	 -1.61585618e-08 ,	 -1.51636328e-06 
	 -2.56084002e-08 ,	 -1.90888123e-06 
	 -4.05835793e-08 ,	 -2.40292555e-06 
	 -6.43131047e-08 ,	 -3.02467804e-06 
	 -1.01910483e-07 ,	 -3.80699435e-06 
	 -1.61469732e-07 ,	 -4.79102735e-06 
	 -2.55793055e-07 ,	 -6.02816747e-06 
	 -4.0510555e-07 ,	 -7.58227998e-06 
	 -6.41299074e-07 ,	 -9.53211556e-06 
	 -1.01451231e-06 ,	 -1.19735466e-05 
	 -1.60319784e-06 ,	 -1.5020826e-05 
	 -2.52918903e-06 ,	 -1.88051798e-05 
	 -3.9794261e-06 ,	 -2.34674114e-05 
	 -6.23527786e-06 ,	 -2.91384127e-05 
	 -9.70728285e-06 ,	 -3.58973543e-05 
	 -1.49647256e-05 ,	 -4.36930083e-05 
	 -2.27319659e-05 ,	 -5.22143496e-05 
	 -2.81754484e-05 ,	 -5.68205711e-05 
	 -3.39307738e-05 ,	 -6.07990889e-05 
	 -4.89389302e-05 ,	 -6.79198498e-05 
	 -6.78383125e-05 ,	 -7.17480686e-05 
	 -8.69198362e-05 ,	 -7.07019593e-05 
	 -0.000106671445 ,	 -6.43521797e-05 
	 -0.000120465757 ,	 -5.61060856e-05 
	 -0.000132329179 ,	 -4.55410481e-05 
	 -0.000147409868 ,	 -2.38734365e-05 
	 -0.000155310105 ,	 -2.62715611e-06 
	 -0.000158427657 ,	 1.71625701e-05 
	 -0.000158278993 ,	 3.52647874e-05 
	 -0.000155819918 ,	 5.17096458e-05 
	 -0.000151673083 ,	 6.65977017e-05 
	 -0.000146263649 ,	 8.00369205e-05 
	 -0.000139897186 ,	 9.21247143e-05 
	 -0.00013280446 ,	 0.000102945288 
	 -0.000125167589 ,	 0.000112571641 
	 -0.00011713561 ,	 0.000121068491 
	 -0.000108833946 ,	 0.000128494879 
	 -9.18383849e-05 ,	 0.000140355491 
	 -7.48888941e-05 ,	 0.000148574327 
	 -5.85325854e-05 ,	 0.000153556852 
	 -4.31922568e-05 ,	 0.000155699762 
	 -3.60069398e-05 ,	 0.000155827527 
	 -2.91891211e-05 ,	 0.000155389037 
	 -2.27659037e-05 ,	 0.000154430066 
	 -1.67600481e-05 ,	 0.000152995097 
	 -1.11903884e-05 ,	 0.000151127198 
	 -6.07222483e-06 ,	 0.000148867919 
	 -1.41769173e-06 ,	 0.000146257214 
	 2.76389751e-06 ,	 0.000143333389 
	 9.68319764e-06 ,	 0.000136691227 
	 1.4656016e-05 ,	 0.000129214381 
	 1.76798118e-05 ,	 0.000121149616 
	 1.87722725e-05 ,	 0.000112718942 
	 1.86039171e-05 ,	 0.000108429481 
	 1.79657515e-05 ,	 0.000104121604 
	 1.68633913e-05 ,	 9.98170323e-05 
	 1.5302876e-05 ,	 9.55363584e-05 
	 1.32905831e-05 ,	 9.12991168e-05 
	 1.08331557e-05 ,	 8.71238595e-05 
	 7.9374392e-06 ,	 8.30282265e-05 
	 4.61042803e-06 ,	 7.90290152e-05 
	 -3.3090148e-06 ,	 7.13832286e-05 
	 -1.28677485e-05 ,	 6.430647e-05 
	 -2.4008105e-05 ,	 5.79091523e-05 
	 -3.66727214e-05 ,	 5.22938018e-05 
	 -4.35588591e-05 ,	 4.98096125e-05 
	 -5.08048251e-05 ,	 4.75565261e-05 
	 -5.8403629e-05 ,	 4.55457626e-05 
	 -6.63483192e-05 ,	 4.37882901e-05 
	 -7.46319781e-05 ,	 4.22948556e-05 
	 -8.32477155e-05 ,	 4.10760125e-05 
	 -9.21886607e-05 ,	 4.01421466e-05 
	 -0.000101447954 ,	 3.95034993e-05 
	 -0.000120894139 ,	 3.91522294e-05 
	 -0.000141531212 ,	 4.01020073e-05 
	 -0.000163303584 ,	 4.24314967e-05 
	 -0.000186154737 ,	 4.62186471e-05 
	 -0.000210026799 ,	 5.15410241e-05 
	 -0.000234860116 ,	 5.84760521e-05 
	 -0.000260592813 ,	 6.71011777e-05 
	 -0.000287160352 ,	 7.74939597e-05 
	 -0.000314495093 ,	 8.9732091e-05 
	 -0.000342525867 ,	 0.000103893357 
	 -0.000371177549 ,	 0.000120055532 
	 -0.000400370652 ,	 0.000138296221 
	 -0.00043002093 ,	 0.000158692642 
	 -0.000460039007 ,	 0.00018132136 
	 -0.000490330018 ,	 0.000206257965 
	 -0.000520793289 ,	 0.0002335767 
	 -0.000551322036 ,	 0.000263350045 
	 -0.000581803105 ,	 0.000295648248 
	 -0.000612116743 ,	 0.000330538819 
	 -0.000642136425 ,	 0.000368085973 
	 -0.000671728712 ,	 0.000408350046 
	 -0.000700753175 ,	 0.000451386859 
	 -0.00072906237 ,	 0.000497247067 
	 -0.000756501875 ,	 0.000545975472 
	 -0.000782910395 ,	 0.000597610311 
	 -0.000808119938 ,	 0.000652182541 
	 -0.000831956059 ,	 0.0007097151 
	 -0.000854238189 ,	 0.000770222181 
	 -0.000874780038 ,	 0.0008337085 
	 -0.000893390077 ,	 0.000900168587 
	 -0.00090987211 ,	 0.000969586102 
	 -0.000924025914 ,	 0.00104193318 
	 -0.000935647966 ,	 0.00111716982 
	 -0.000944532244 ,	 0.00119524335 
	 -0.000950471095 ,	 0.00127608789 
	 -0.000953256171 ,	 0.00135962398 
	 -0.000952679427 ,	 0.00144575821 
	 -0.000948534157 ,	 0.00153438299 
	 -0.000940616083 ,	 0.00162537638 
	 -0.000928724466 ,	 0.00171860204 
	 -0.000912663232 ,	 0.00181390929 
	 -0.000892242114 ,	 0.00191113327 
	 -0.000867277772 ,	 0.00201009519 
	 -0.000837594909 ,	 0.00211060274 
	 -0.000803027338 ,	 0.00221245056 
	 -0.000763419015 ,	 0.00231542083 
	 -0.000718625006 ,	 0.00241928397 
	 -0.000668512392 ,	 0.00252379937 
	 -0.000612961092 ,	 0.0026287163 
	 -0.000551864597 ,	 0.0027337748 
	 -0.000485130613 ,	 0.00283870665 
	 -0.000412681605 ,	 0.00294323642 
	 -0.00033445524 ,	 0.00304708253 
	 -0.000250404722 ,	 0.00314995828 
	 -0.000160499028 ,	 0.00325157301 
	 -6.47230442e-05 ,	 0.0033516331 
	 3.69223966e-05 ,	 0.00344984306 
	 0.000144420565 ,	 0.00354590658 
	 0.000257738968 ,	 0.0036395275 
	 0.00037682956 ,	 0.00373041075 
	 0.000501629016 ,	 0.00381826325 
