CITIFILE A.01.01
#Momentum: B.12.070 (*) built: Feb 13 2020 
#Momentum Date and Time: Tue Aug 16 06:57:38 2022

NAME Momentum.SP

#  mode: MW    reference: S_50

#eesof Port[1] P1
#eesof Port[2] P2

CONSTANT NBR_OF_PORTS 2

CONSTANT NORMALIZATION 1

VAR freq MAG 542

DATA S[1,1] RI
DATA S[1,2] RI
DATA S[2,1] RI
DATA S[2,2] RI
DATA PORTZ[1] RI
DATA PORTZ[2] RI

VAR_LIST_BEGIN
	 0
	 8.701167245
	 87.01167245
	 870.1167245
	 8701.167245
	 10954.12056
	 13790.42073
	 17361.1111
	 21856.34394
	 27515.5068
	 34639.97072
	 43609.13941
	 54900.65379
	 69115.82818
	 87011.67245
	 109541.2056
	 137904.2073
	 173611.111
	 218563.4394
	 275155.068
	 346399.7072
	 436091.3941
	 549006.5379
	 691158.2818
	 870116.7245
	 1095412.056
	 1379042.073
	 1736111.11
	 2185634.394
	 2751550.68
	 3463997.072
	 4360913.941
	 5490065.379
	 6911582.818
	 8701167.245
	 10954120.56
	 13790420.73
	 17361111.1
	 19629339.22
	 21908241.11
	 27580841.47
	 34722222.2
	 42541975.04
	 52083333.3
	 60365357.38
	 69444444.4
	 86805555.5
	 104166666.6
	 121527777.7
	 138888888.8
	 153356481.4
	 167824074
	 182291666.6
	 196759259.2
	 211226851.7
	 225694444.3
	 240162036.9
	 254629629.5
	 266685956.7
	 278742283.8
	 290798611
	 302854938.1
	 314911265.3
	 326967592.4
	 339023919.6
	 351080246.8
	 375192901.1
	 399305555.4
	 423418209.7
	 447530864
	 471643518.3
	 495756172.6
	 519868826.9
	 543981481.2
	 568094135.6
	 592206789.9
	 616319444.2
	 640432098.5
	 664544752.8
	 688657407.1
	 712770061.4
	 736882715.8
	 760995370.1
	 785108024.4
	 809220678.7
	 833333333
	 859374999.7
	 885416666.3
	 911458333
	 937499999.6
	 963541666.3
	 989583332.9
	 1015625000
	 1041666666
	 1067708333
	 1093750000
	 1119791666
	 1145833333
	 1171875000
	 1197916666
	 1223958333
	 1250000000
	 1276041666
	 1302083333
	 1328124999
	 1354166666
	 1380208333
	 1406249999
	 1432291666
	 1458333333
	 1484374999
	 1510416666
	 1536458333
	 1562499999
	 1588541666
	 1614583333
	 1640624999
	 1666666666
	 1692708333
	 1718749999
	 1744791666
	 1770833333
	 1796874999
	 1822916666
	 1848958333
	 1875000000
	 1901041666
	 1927083333
	 1953125000
	 1979166666
	 2005208333
	 2031250000
	 2057291666
	 2083333333
	 2109375000
	 2135416666
	 2161458333
	 2187500000
	 2213541666
	 2239583333
	 2265625000
	 2291666666
	 2317708333
	 2343750000
	 2369791667
	 2395833333
	 2421875000
	 2447916667
	 2473958333
	 2500000000
	 2526041667
	 2552083333
	 2578125000
	 2604166667
	 2630208333
	 2656250000
	 2682291667
	 2708333333
	 2734375000
	 2760416667
	 2786458333
	 2812500000
	 2838541667
	 2864583333
	 2890625000
	 2916666666
	 2942708333
	 2968750000
	 2994791666
	 3020833333
	 3046875000
	 3072916666
	 3098958333
	 3125000000
	 3151041666
	 3177083333
	 3203125000
	 3229166666
	 3255208333
	 3281250000
	 3307291666
	 3333333333
	 3368055555
	 3402777777
	 3437499999
	 3472222222
	 3506944444
	 3541666666
	 3576388888
	 3611111110
	 3645833332
	 3680555554
	 3715277777
	 3749999999
	 3767361110
	 3784722221
	 3802083332
	 3819444444
	 3836805555
	 3854166666
	 3871527777
	 3888888888
	 3906249999
	 3923611110
	 3940972221
	 3958333332
	 3975694444
	 3993055555
	 4010416666
	 4027777777
	 4062499999
	 4097222222
	 4131944444
	 4166666666
	 4184027777
	 4201388888
	 4218749999
	 4236111110
	 4253472222
	 4270833333
	 4288194444
	 4305555555
	 4322916666
	 4340277777
	 4357638888
	 4375000000
	 4392361111
	 4409722222
	 4427083333
	 4444444444
	 4461805555
	 4479166666
	 4496527777
	 4513888888
	 4531250000
	 4548611111
	 4565972222
	 4583333333
	 4592013889
	 4600694444
	 4609375000
	 4618055555
	 4626736111
	 4635416666
	 4644097222
	 4652777778
	 4661458333
	 4670138889
	 4678819444
	 4687500000
	 4696180555
	 4704861111
	 4713541666
	 4722222222
	 4730902778
	 4739583333
	 4748263889
	 4756944444
	 4765625000
	 4774305555
	 4782986111
	 4791666666
	 4800347222
	 4809027778
	 4817708333
	 4826388889
	 4835069444
	 4843750000
	 4852430555
	 4861111111
	 4869791667
	 4878472222
	 4887152778
	 4895833333
	 4904513889
	 4913194444
	 4921875000
	 4930555556
	 4939236111
	 4947916667
	 4956597222
	 4965277778
	 4973958333
	 4982638889
	 4991319444
	 5000000000
	 5011574074
	 5023148148
	 5034722222
	 5046296296
	 5057870371
	 5069444445
	 5081018519
	 5092592593
	 5104166667
	 5115740741
	 5127314815
	 5138888889
	 5150462963
	 5162037037
	 5173611111
	 5185185186
	 5196759260
	 5208333334
	 5219907408
	 5231481482
	 5243055556
	 5254629630
	 5266203704
	 5277777778
	 5292245371
	 5306712963
	 5321180556
	 5335648148
	 5350115741
	 5364583334
	 5379050926
	 5393518519
	 5407986112
	 5422453704
	 5436921297
	 5451388890
	 5465856482
	 5480324075
	 5494791667
	 5509259260
	 5527343751
	 5545428241
	 5563512732
	 5581597223
	 5599681714
	 5617766204
	 5635850695
	 5653935186
	 5672019677
	 5690104167
	 5708188658
	 5726273149
	 5744357640
	 5762442130
	 5780526621
	 5798611112
	 5834780093
	 5870949075
	 5907118056
	 5943287038
	 5979456019
	 6015625001
	 6051793982
	 6087962964
	 6124131945
	 6160300926
	 6196469908
	 6232638889
	 6268807871
	 6304976852
	 6341145834
	 6377314815
	 6413483797
	 6449652778
	 6485821760
	 6521990741
	 6558159723
	 6594328704
	 6630497686
	 6666666667
	 6724537037
	 6782407408
	 6840277778
	 6898148148
	 6927083334
	 6956018519
	 6984953704
	 7013888889
	 7042824074
	 7071759260
	 7100694445
	 7129629630
	 7148919754
	 7168209877
	 7187500000
	 7206790124
	 7216435186
	 7226080248
	 7235725309
	 7245370371
	 7250192902
	 7255015433
	 7259837964
	 7264660494
	 7269483025
	 7274305556
	 7279128087
	 7283950618
	 7289978782
	 7296006945
	 7302035109
	 7308063272
	 7314091436
	 7320119599
	 7326147763
	 7332175927
	 7338204090
	 7344232254
	 7350260417
	 7356288581
	 7362316745
	 7368344908
	 7374373072
	 7380401235
	 7392457562
	 7404513890
	 7416570217
	 7428626544
	 7440682871
	 7452739198
	 7464795525
	 7476851852
	 7500964507
	 7525077161
	 7549189815
	 7573302470
	 7597415124
	 7621527778
	 7645640433
	 7669753087
	 7693865741
	 7717978396
	 7742091050
	 7766203704
	 7790316359
	 7814429013
	 7838541667
	 7862654322
	 7886766976
	 7910879630
	 7934992284
	 7959104939
	 7983217593
	 8007330247
	 8031442902
	 8055555556
	 8072916667
	 8090277778
	 8107638889
	 8125000000
	 8142361112
	 8159722223
	 8177083334
	 8194444445
	 8211805556
	 8229166667
	 8246527778
	 8263888890
	 8281250001
	 8298611112
	 8315972223
	 8333333334
	 8346354167
	 8359375001
	 8372395834
	 8385416667
	 8398437501
	 8411458334
	 8424479167
	 8437500000
	 8450520834
	 8463541667
	 8476562500
	 8489583334
	 8502604167
	 8515625000
	 8528645834
	 8541666667
	 8554687500
	 8567708334
	 8580729167
	 8593750000
	 8606770834
	 8619791667
	 8632812500
	 8645833334
	 8658854167
	 8671875000
	 8684895833
	 8697916667
	 8710937500
	 8723958333
	 8736979167
	 8750000000
	 8763020833
	 8776041667
	 8789062500
	 8802083333
	 8815104167
	 8828125000
	 8841145833
	 8854166667
	 8867187500
	 8880208333
	 8893229167
	 8906250000
	 8919270833
	 8932291667
	 8945312500
	 8958333334
	 8971354167
	 8984375000
	 8997395834
	 9010416667
	 9023437500
	 9036458334
	 9049479167
	 9062500000
	 9088541667
	 9114583334
	 9140625000
	 9166666667
	 9189814815
	 9212962963
	 9236111111
	 9259259260
	 9282407408
	 9305555556
	 9328703704
	 9351851852
	 9398148148
	 9444444444
	 9490740741
	 9537037037
	 9583333333
	 9629629630
	 9675925926
	 9722222222
	 9756944444
	 9791666666
	 9826388889
	 9861111111
	 9895833333
	 9930555556
	 9965277778
	 1e+10
VAR_LIST_END

BEGIN
	 5.12778470999999990472678623732e-05 ,	 -0 
	 5.12778470999999990472678623732e-05 ,	 -4.07158450999999973767807349501e-09 
	 5.12778470999999990472678623732e-05 ,	 -4.07158475000000014505542459461e-08 
	 5.12778466999999992903362666663e-05 ,	 -4.0715847400000002411293853477e-07 
	 5.12778057000000004879251835899e-05 ,	 -4.0715847400000002411293853477e-06 
	 5.12777814999999982529046982371e-05 ,	 -5.12582148999999993540556408878e-06 
	 5.12777431999999995038477806908e-05 ,	 -6.45302693999999977294808675699e-06 
	 5.12776824000000025689273430718e-05 ,	 -8.12387958999999928381540587052e-06 
	 5.12775860000000001620405754021e-05 ,	 -1.02273584999999994984976048329e-05 
	 5.12774333000000031679115053418e-05 ,	 -1.28754814000000000903060209945e-05 
	 5.12771913000000011464973859177e-05 ,	 -1.62092708000000016159859034248e-05 
	 5.12768076999999970798718718079e-05 ,	 -2.04062628999999985896039028654e-05 
	 5.12761997000000006256131834803e-05 ,	 -2.56899627999999985623631043596e-05 
	 5.12752362000000016638984190465e-05 ,	 -3.23417468999999993236119100182e-05 
	 5.12737090999999995961228238528e-05 ,	 -4.07158468999999976329316753176e-05 
	 5.12712888e-05 ,	 -5.1258214e-05 
	 5.12674529e-05 ,	 -6.45302674e-05 
	 5.12613733e-05 ,	 -8.1238792e-05 
	 5.12517379e-05 ,	 -0.000102273577 
	 5.12364669e-05 ,	 -0.000128754799 
	 5.12122638e-05 ,	 -0.000162092676 
	 5.11739047e-05 ,	 -0.000204062566 
	 5.11131095e-05 ,	 -0.000256899503 
	 5.10167556e-05 ,	 -0.00032341722 
	 5.08640451e-05 ,	 -0.000407157972 
	 5.06220154e-05 ,	 -0.000512581147 
	 5.02384248e-05 ,	 -0.000645300694 
	 4.9630476e-05 ,	 -0.00081238397 
	 4.86669453e-05 ,	 -0.00102272789 
	 4.71398605e-05 ,	 -0.00128753227 
	 4.47196152e-05 ,	 -0.0016208954 
	 4.08838376e-05 ,	 -0.00204056308 
	 3.48046725e-05 ,	 -0.00256887021 
	 2.51701783e-05 ,	 -0.00323392323 
	 9.9013728e-06 ,	 -0.00407108325 
	 -1.42959408e-05 ,	 -0.00512482181 
	 -5.26407715e-05 ,	 -0.00645103521 
	 -0.000113399771 ,	 -0.00811991471 
	 -0.000159219355 ,	 -0.00917954303 
	-0.0002109,	-0.010244
	-0.0003641,	-0.01289
	-0.00060669,	-0.016217
	-0.00093566,	-0.01985
	-0.0014263,	-0.024269
	-0.0019311,	-0.02809
	-0.0025681,	-0.032261
	-0.0040269,	-0.040179
	-0.0057963,	-0.048012
	-0.0078699,	-0.05575
	-0.010241,	-0.063387
	-0.012441,	-0.069666
	-0.014839,	-0.075863
	-0.017433,	-0.081973
	-0.020219,	-0.087991
	-0.023193,	-0.093911
	-0.026353,	-0.099729
	-0.029694,	-0.10543
	-0.033212,	-0.11103
	-0.036276,	-0.11561
	-0.039457,	-0.1201
	-0.042754,	-0.1245
	-0.046163,	-0.12881
	-0.049683,	-0.13303
	-0.053309,	-0.13715
	-0.057039,	-0.14118
	-0.060871,	-0.14511
	-0.068827,	-0.15265
	-0.077152,	-0.15976
	-0.085821,	-0.16643
	-0.094809,	-0.17264
	-0.10408,	-0.17837
	-0.11363,	-0.18363
	-0.12342,	-0.1884
	-0.13342,	-0.19267
	-0.14361,	-0.19643
	-0.15395,	-0.19968
	-0.16443,	-0.20242
	-0.17502,	-0.20465
	-0.18569,	-0.20636
	-0.19642,	-0.20755
	-0.20718,	-0.20824
	-0.21794,	-0.20841
	-0.22869,	-0.20808
	-0.23939,	-0.20725
	-0.25004,	-0.20592
	-0.2606,	-0.20412
	-0.27189,	-0.20163
	-0.28302,	-0.19859
	-0.29399,	-0.19503
	-0.30476,	-0.19094
	-0.31531,	-0.18635
	-0.32562,	-0.18127
	-0.33567,	-0.17572
	-0.34544,	-0.1697
	-0.35491,	-0.16325
	-0.36407,	-0.15637
	-0.3729,	-0.14909
	-0.38139,	-0.14142
	-0.38951,	-0.13338
	-0.39727,	-0.12499
	-0.40464,	-0.11626
	-0.41161,	-0.10722
	-0.41818,	-0.09789
	-0.42434,	-0.088278
	-0.43007,	-0.078408
	-0.43538,	-0.068299
	-0.44024,	-0.05797
	-0.44466,	-0.04744
	-0.44864,	-0.036728
	-0.45215,	-0.025852
	-0.45521,	-0.014832
	-0.45781,	-0.0036846
	-0.45994,	 0.0075702
	-0.4616,	 0.018914
	-0.46279,	 0.030329
	-0.4635,	 0.041797
	-0.46375,	 0.053299
	-0.46352,	 0.064817
	-0.46282,	 0.076333
	-0.46164,	 0.087829
	-0.46,	 0.099287
	-0.45788,	 0.11068
	-0.45529,	 0.12201
	-0.45224,	 0.13325
	-0.44872,	 0.14437
	-0.44474,	 0.15537
	-0.44031,	 0.16623
	-0.43542,	 0.17692
	-0.43008,	 0.18742
	-0.42431,	 0.19773
	-0.4181,	 0.20782
	-0.41145,	 0.21768
	-0.40439,	 0.22728
	-0.39691,	 0.23661
	-0.38902,	 0.24565
	-0.38074,	 0.25438
	-0.37207,	 0.26279
	-0.36303,	 0.27086
	-0.35362,	 0.27856
	-0.34385,	 0.28588
	-0.33375,	 0.29281
	-0.32332,	 0.29932
	-0.31257,	 0.30541
	-0.30154,	 0.31104
	-0.29022,	 0.3162
	-0.27864,	 0.32089
	-0.26683,	 0.32508
	-0.25478,	 0.32875
	-0.24254,	 0.33189
	-0.23012,	 0.33449
	-0.21755,	 0.33653
	-0.20484,	 0.33801
	-0.19203,	 0.3389
	-0.17914,	 0.33919
	-0.16621,	 0.33889
	-0.15325,	 0.33797
	-0.1403,	 0.33643
	-0.12739,	 0.33426
	-0.11456,	 0.33147
	-0.10183,	 0.32804
	-0.089254,	 0.32398
	-0.076847,	 0.31929
	-0.064652,	 0.31397
	-0.052706,	 0.30802
	-0.041046,	 0.30146
	-0.029708,	 0.2943
	-0.018731,	 0.28654
	-0.0081496,	 0.2782
	 0.0019982,	 0.26931
	 0.011677,	 0.25988
	 0.02085,	 0.24994
	 0.029485,	 0.23951
	 0.037547,	 0.22862
	 0.045006,	 0.2173
	 0.051832,	 0.2056
	 0.057996,	 0.19354
	 0.063475,	 0.18118
	 0.068246,	 0.16854
	 0.072288,	 0.15568
	 0.075585,	 0.14264
	 0.078124,	 0.12947
	 0.079896,	 0.11622
	 0.081055,	 0.098529
	 0.080837,	 0.080907
	 0.079252,	 0.063487
	 0.076324,	 0.046394
	 0.07209,	 0.029753
	 0.066602,	 0.013685
	 0.059924,	-0.0016942
	 0.052132,	-0.016274
	 0.043318,	-0.029954
	 0.033582,	-0.042639
	 0.023035,	-0.05425
	 0.0118,	-0.064715
	 0.0059644,	-0.0695
	 5.5964e-06,	-0.073978
	-0.0060591,	-0.078145
	-0.012212,	-0.081996
	-0.018435,	-0.085528
	-0.024711,	-0.08874
	-0.03102,	-0.09163
	-0.037344,	-0.094198
	-0.043666,	-0.096445
	-0.049965,	-0.098373
	-0.056223,	-0.099984
	-0.062421,	-0.10128
	-0.068541,	-0.10227
	-0.074564,	-0.10296
	-0.080471,	-0.10335
	-0.086244,	-0.10346
	-0.097315,	-0.10286
	-0.10763,	-0.10124
	-0.11707,	-0.098707
	-0.12548,	-0.095378
	-0.12927,	-0.09346
	-0.13276,	-0.091398
	-0.13594,	-0.089215
	-0.13879,	-0.086931
	-0.14131,	-0.08457
	-0.14347,	-0.082156
	-0.14528,	-0.079717
	-0.14672,	-0.077278
	-0.14779,	-0.07487
	-0.14847,	-0.072523
	-0.14877,	-0.070269
	-0.14867,	-0.06814
	-0.14819,	-0.066173
	-0.14731,	-0.064404
	-0.14605,	-0.062872
	-0.14441,	-0.061616
	-0.14239,	-0.060677
	-0.14001,	-0.060099
	-0.13728,	-0.059927
	-0.13422,	-0.060205
	-0.13085,	-0.060981
	-0.12721,	-0.062302
	-0.12332,	-0.064217
	-0.11922,	-0.066776
	-0.11711,	-0.068311
	-0.11496,	-0.070026
	-0.11278,	-0.071925
	-0.11058,	-0.074016
	-0.10836,	-0.076302
	-0.10614,	-0.078792
	-0.10392,	-0.081489
	-0.10171,	-0.084399
	-0.09953,	-0.087527
	-0.097371,	-0.090879
	-0.095253,	-0.094458
	-0.093186,	-0.098269
	-0.091181,	-0.10231
	-0.089251,	-0.1066
	-0.087407,	-0.11113
	-0.085664,	-0.1159
	-0.084035,	-0.12092
	-0.082533,	-0.12619
	-0.081173,	-0.1317
	-0.07997,	-0.13747
	-0.07894,	-0.14348
	-0.078099,	-0.14974
	-0.077462,	-0.15624
	-0.077047,	-0.16298
	-0.07687,	-0.16996
	-0.076948,	-0.17717
	-0.0773,	-0.1846
	-0.077941,	-0.19225
	-0.07889,	-0.2001
	-0.080164,	-0.20815
	-0.081779,	-0.21638
	-0.083754,	-0.22478
	-0.086104,	-0.23334
	-0.088846,	-0.24204
	-0.091995,	-0.25087
	-0.095566,	-0.25979
	-0.099573,	-0.26881
	-0.10402,	-0.27789
	-0.10894,	-0.28701
	-0.11433,	-0.29615
	-0.12019,	-0.30528
	-0.12655,	-0.31438
	-0.1334,	-0.32342
	-0.14075,	-0.33237
	-0.1486,	-0.34121
	-0.15695,	-0.3499
	-0.16581,	-0.35842
	-0.17516,	-0.36673
	-0.18837,	-0.37744
	-0.20244,	-0.38767
	-0.21733,	-0.39734
	-0.23301,	-0.40639
	-0.24944,	-0.41476
	-0.26659,	-0.42238
	-0.28438,	-0.42919
	-0.30278,	-0.43516
	-0.32171,	-0.44022
	-0.34111,	-0.44434
	-0.36091,	-0.44749
	-0.38104,	-0.44964
	-0.40143,	-0.45077
	-0.422,	-0.45088
	-0.44268,	-0.44994
	-0.4634,	-0.44797
	-0.48408,	-0.44497
	-0.50465,	-0.44095
	-0.52505,	-0.43594
	-0.54522,	-0.42997
	-0.56509,	-0.42306
	-0.5846,	-0.41524
	-0.60372,	-0.40656
	-0.62238,	-0.39705
	-0.64502,	-0.38407
	-0.66682,	-0.36996
	-0.68773,	-0.35481
	-0.70769,	-0.33871
	-0.72667,	-0.32176
	-0.74465,	-0.30404
	-0.7616,	-0.28566
	-0.77752,	-0.26668
	-0.7924,	-0.2472
	-0.80625,	-0.2273
	-0.81908,	-0.20704
	-0.83091,	-0.1865
	-0.84176,	-0.16574
	-0.85164,	-0.14483
	-0.86059,	-0.1238
	-0.86864,	-0.10272
	-0.87746,	-0.076366
	-0.88498,	-0.050065
	-0.89125,	-0.023892
	-0.89634,	 0.0020947
	-0.90031,	 0.027845
	-0.90321,	 0.053316
	-0.90511,	 0.078473
	-0.90607,	 0.10328
	-0.90614,	 0.12772
	-0.90537,	 0.15178
	-0.90381,	 0.17543
	-0.90151,	 0.19866
	-0.89852,	 0.22148
	-0.89487,	 0.24386
	-0.8906,	 0.26581
	-0.88576,	 0.28732
	-0.87447,	 0.32904
	-0.86126,	 0.36903
	-0.84633,	 0.40733
	-0.82987,	 0.44397
	-0.81205,	 0.47899
	-0.793,	 0.51246
	-0.77285,	 0.5444
	-0.7517,	 0.57487
	-0.72964,	 0.60392
	-0.70675,	 0.6316
	-0.6831,	 0.65793
	-0.65875,	 0.68296
	-0.63374,	 0.70673
	-0.60813,	 0.72927
	-0.58195,	 0.7506
	-0.55524,	 0.77075
	-0.52803,	 0.78974
	-0.50035,	 0.80759
	-0.47221,	 0.82431
	-0.44364,	 0.83992
	-0.41465,	 0.85443
	-0.38525,	 0.86783
	-0.35546,	 0.88014
	-0.32527,	 0.89134
	-0.27616,	 0.90695
	-0.22604,	 0.91963
	-0.17483,	 0.92925
	-0.12244,	 0.93557
	-0.095747,	 0.93737
	-0.06867,	 0.93816
	-0.041173,	 0.93784
	-0.013208,	 0.93624
	 0.015278,	 0.93315
	 0.04433,	 0.92824
	 0.073962,	 0.92101
	 0.10408,	 0.91072
	 0.12427,	 0.9016
	 0.14426,	 0.89013
	 0.16354,	 0.87567
	 0.18116,	 0.8575
	 0.18883,	 0.84681
	 0.19534,	 0.83498
	 0.2003,	 0.82206
	 0.2032,	 0.80819
	 0.20371,	 0.80101
	 0.2035,	 0.79374
	 0.20251,	 0.78647
	 0.20068,	 0.7793
	 0.19796,	 0.77237
	 0.19434,	 0.76582
	 0.18982,	 0.75981
	 0.18444,	 0.75451
	 0.17665,	 0.74916
	 0.1679,	 0.7455
	 0.15855,	 0.7438
	 0.14903,	 0.7442
	 0.13981,	 0.74672
	 0.13136,	 0.75124
	 0.12408,	 0.75752
	 0.11828,	 0.76522
	 0.11415,	 0.77396
	 0.11178,	 0.78333
	 0.11112,	 0.79296
	 0.11206,	 0.80253
	 0.11446,	 0.81178
	 0.1181,	 0.82054
	 0.12279,	 0.82867
	 0.12835,	 0.83611
	 0.14138,	 0.8488
	 0.15603,	 0.85867
	 0.17152,	 0.86603
	 0.18732,	 0.87124
	 0.20311,	 0.87466
	 0.2187,	 0.87661
	 0.23399,	 0.87734
	 0.24895,	 0.87707
	 0.27779,	 0.87415
	 0.30528,	 0.86881
	 0.33158,	 0.86166
	 0.35684,	 0.85307
	 0.38121,	 0.84328
	 0.4048,	 0.83243
	 0.4277,	 0.82064
	 0.44996,	 0.80796
	 0.47164,	 0.79442
	 0.49277,	 0.78005
	 0.51337,	 0.76486
	 0.53344,	 0.74884
	 0.55299,	 0.732
	 0.57199,	 0.71433
	 0.59044,	 0.6958
	 0.60831,	 0.6764
	 0.62556,	 0.65613
	 0.64216,	 0.63495
	 0.65804,	 0.61285
	 0.67316,	 0.58981
	 0.68744,	 0.56582
	 0.70082,	 0.54085
	 0.71319,	 0.5149
	 0.72448,	 0.48796
	 0.73186,	 0.46795
	 0.73857,	 0.44742
	 0.74457,	 0.42639
	 0.7498,	 0.40485
	 0.7542,	 0.38282
	 0.75772,	 0.36032
	 0.76029,	 0.33737
	 0.76185,	 0.31399
	 0.76232,	 0.29022
	 0.76163,	 0.26609
	 0.75971,	 0.24167
	 0.75648,	 0.217
	 0.75186,	 0.19216
	 0.74578,	 0.16724
	 0.73814,	 0.14233
	 0.72889,	 0.11755
	 0.72085,	 0.099123
	 0.71183,	 0.080894
	 0.70181,	 0.062931
	 0.69078,	 0.045306
	 0.67871,	 0.028094
	 0.66561,	 0.011378
	 0.65146,	-0.0047581
	 0.63628,	-0.020222
	 0.62009,	-0.034921
	 0.60289,	-0.048756
	 0.58474,	-0.061629
	 0.56567,	-0.073439
	 0.54574,	-0.084085
	 0.52502,	-0.09347
	 0.5036,	-0.1015
	 0.48158,	-0.10808
	 0.45905,	-0.11314
	 0.43615,	-0.11661
	 0.413,	-0.11842
	 0.38975,	-0.11853
	 0.36654,	-0.1169
	 0.34354,	-0.11353
	 0.3209,	-0.10842
	 0.29878,	-0.10159
	 0.27735,	-0.093086
	 0.25676,	-0.082965
	 0.23715,	-0.071308
	 0.21867,	-0.058214
	 0.20143,	-0.043796
	 0.18556,	-0.028179
	 0.17115,	-0.011502
	 0.15827,	 0.0060892
	 0.14697,	 0.024442
	 0.13731,	 0.0434
	 0.1293,	 0.062807
	 0.12295,	 0.082511
	 0.11823,	 0.10236
	 0.11513,	 0.12221
	 0.1136,	 0.14193
	 0.11358,	 0.1614
	 0.115,	 0.1805
	 0.1178,	 0.19913
	 0.12188,	 0.21719
	 0.12718,	 0.23462
	 0.13358,	 0.25134
	 0.14101,	 0.26729
	 0.14938,	 0.28244
	 0.15858,	 0.29675
	 0.16854,	 0.3102
	 0.17918,	 0.32276
	 0.19039,	 0.33443
	 0.20212,	 0.34521
	 0.21428,	 0.35511
	 0.22681,	 0.36412
	 0.23964,	 0.37227
	 0.25271,	 0.37958
	 0.27936,	 0.39172
	 0.30637,	 0.40076
	 0.3334,	 0.40689
	 0.36021,	 0.41034
	 0.38367,	 0.41133
	 0.40666,	 0.41054
	 0.42909,	 0.40811
	 0.45089,	 0.40419
	 0.472,	 0.3989
	 0.49238,	 0.39237
	 0.51201,	 0.38472
	 0.53085,	 0.37605
	 0.56617,	 0.35603
	 0.59833,	 0.33301
	 0.62737,	 0.30756
	 0.6534,	 0.28016
	 0.67651,	 0.2512
	 0.69683,	 0.22102
	 0.7145,	 0.1899
	 0.72963,	 0.15806
	 0.73939,	 0.13383
	 0.74784,	 0.10939
	 0.75504,	 0.084792
	 0.76103,	 0.060094
	 0.76585,	 0.03535
	 0.76956,	 0.010606
	 0.7722,	-0.014094
	 0.7738,	-0.03871
END
BEGIN
	 0.999948722152930624673672355129 ,	 -0 
	 0.999948722152933400231233918021 ,	 -9.69471373665764524218957376434e-09 
	 0.999948722152926294803876317019 ,	 -9.69471374151487097492463362869e-08 
