CITIFILE A.01.01
#Momentum: B.12.070 (*) built: Feb 13 2020 
#Momentum Date and Time: Mon Aug 15 22:37:04 2022

NAME Momentum.SP

#  mode: MW    reference: S_50

#eesof Port[1] P1
#eesof Port[2] P2

CONSTANT NBR_OF_PORTS 2

CONSTANT NORMALIZATION 1

VAR freq MAG 454

DATA S[1,1] RI
DATA S[1,2] RI
DATA S[2,1] RI
DATA S[2,2] RI
DATA PORTZ[1] RI
DATA PORTZ[2] RI

VAR_LIST_BEGIN
	 0
	 8.701167245
	 87.01167245
	 870.1167245
	 8701.167245
	 10954.12056
	 13790.42073
	 17361.1111
	 21856.34394
	 27515.5068
	 34639.97072
	 43609.13941
	 54900.65379
	 69115.82818
	 87011.67245
	 109541.2056
	 137904.2073
	 173611.111
	 218563.4394
	 275155.068
	 346399.7072
	 436091.3941
	 549006.5379
	 691158.2818
	 870116.7245
	 1095412.056
	 1379042.073
	 1736111.11
	 2185634.394
	 2751550.68
	 3463997.072
	 4360913.941
	 5490065.379
	 6911582.818
	 8701167.245
	 10954120.56
	 13790420.73
	 17361111.1
	 19629339.22
	 21908241.11
	 27580841.47
	 34722222.2
	 42541975.04
	 52083333.3
	 60365357.38
	 69444444.4
	 86805555.5
	 104166666.6
	 121527777.7
	 138888888.8
	 149739583.2
	 160590277.7
	 171440972.1
	 182291666.6
	 193142361
	 203993055.4
	 214843749.9
	 225694444.3
	 247395833.2
	 269097222.1
	 290798611
	 312499999.9
	 334201388.7
	 355902777.6
	 377604166.5
	 399305555.4
	 421006944.3
	 442708333.1
	 464409722
	 486111110.9
	 507812499.8
	 529513888.7
	 551215277.5
	 572916666.4
	 594618055.3
	 616319444.2
	 638020833.1
	 659722222
	 681423610.8
	 703124999.7
	 724826388.6
	 746527777.5
	 768229166.4
	 789930555.2
	 811631944.1
	 833333333
	 850694444.1
	 868055555.2
	 885416666.3
	 902777777.4
	 920138888.5
	 937499999.6
	 954861110.7
	 972222221.8
	 989583332.8
	 1006944444
	 1024305555
	 1041666666
	 1059027777
	 1076388888
	 1093749999
	 1111111110
	 1145833333
	 1180555555
	 1215277777
	 1249999999
	 1284722221
	 1319444444
	 1354166666
	 1388888888
	 1423611110
	 1458333332
	 1493055555
	 1527777777
	 1562499999
	 1597222222
	 1631944444
	 1666666666
	 1718749999
	 1770833333
	 1822916666
	 1875000000
	 1927083333
	 1979166666
	 2031250000
	 2083333333
	 2135416666
	 2187500000
	 2239583333
	 2291666666
	 2343750000
	 2395833333
	 2447916667
	 2500000000
	 2552083333
	 2604166667
	 2656250000
	 2708333333
	 2760416667
	 2812500000
	 2864583333
	 2916666666
	 2968750000
	 3020833333
	 3072916666
	 3125000000
	 3177083333
	 3229166666
	 3281250000
	 3333333333
	 3379629629
	 3425925926
	 3472222222
	 3518518518
	 3564814815
	 3611111111
	 3657407407
	 3703703704
	 3750000000
	 3796296296
	 3842592592
	 3888888889
	 3935185185
	 3981481481
	 4027777778
	 4074074074
	 4120370370
	 4166666667
	 4212962963
	 4259259259
	 4305555556
	 4351851852
	 4398148148
	 4444444444
	 4490740741
	 4537037037
	 4583333333
	 4629629630
	 4652777778
	 4675925926
	 4699074074
	 4722222222
	 4745370371
	 4768518519
	 4791666667
	 4814814815
	 4837962963
	 4861111111
	 4884259259
	 4907407408
	 4930555556
	 4953703704
	 4976851852
	 5000000000
	 5023148148
	 5046296297
	 5069444445
	 5092592593
	 5115740741
	 5138888889
	 5162037037
	 5185185186
	 5208333334
	 5231481482
	 5254629630
	 5277777778
	 5300925926
	 5324074074
	 5347222223
	 5370370371
	 5393518519
	 5416666667
	 5439814815
	 5462962963
	 5474537037
	 5486111112
	 5497685186
	 5509259260
	 5520833334
	 5532407408
	 5543981482
	 5555555556
	 5570987655
	 5586419754
	 5601851852
	 5617283951
	 5632716050
	 5648148148
	 5663580247
	 5679012346
	 5686728395
	 5694444445
	 5702160494
	 5709876544
	 5717592593
	 5725308642
	 5733024692
	 5740740741
	 5748456790
	 5756172840
	 5763888889
	 5771604938
	 5779320988
	 5787037037
	 5794753087
	 5802469136
	 5810185185
	 5817901235
	 5825617284
	 5833333334
	 5841049383
	 5848765432
	 5856481482
	 5864197531
	 5871913581
	 5879629630
	 5887345679
	 5895061729
	 5902777778
	 5910493827
	 5918209877
	 5925925926
	 5933641976
	 5941358025
	 5949074074
	 5956790124
	 5964506173
	 5972222223
	 5979938272
	 5987654321
	 5995370371
	 6003086420
	 6010802470
	 6018518519
	 6026234568
	 6033950618
	 6041666667
	 6049382716
	 6057098766
	 6064814815
	 6072530865
	 6080246914
	 6087962963
	 6095679013
	 6103395062
	 6111111112
	 6118827161
	 6126543210
	 6134259260
	 6141975309
	 6149691359
	 6157407408
	 6165123457
	 6172839507
	 6180555556
	 6188271606
	 6195987655
	 6203703704
	 6211419754
	 6219135803
	 6226851852
	 6234567902
	 6242283951
	 6250000001
	 6257716050
	 6265432099
	 6273148149
	 6280864198
	 6288580248
	 6296296297
	 6307870371
	 6319444445
	 6331018519
	 6342592593
	 6354166667
	 6365740741
	 6377314815
	 6388888890
	 6400462964
	 6412037038
	 6423611112
	 6435185186
	 6446759260
	 6458333334
	 6469907408
	 6481481482
	 6493055556
	 6504629630
	 6516203704
	 6527777778
	 6539351852
	 6550925926
	 6562500000
	 6574074074
	 6585648149
	 6597222223
	 6608796297
	 6620370371
	 6631944445
	 6643518519
	 6655092593
	 6666666667
	 6679687500
	 6692708334
	 6705729167
	 6718750000
	 6731770834
	 6744791667
	 6757812500
	 6770833334
	 6783854167
	 6796875000
	 6809895834
	 6822916667
	 6835937500
	 6848958334
	 6861979167
	 6875000000
	 6901041667
	 6927083334
	 6953125000
	 6979166667
	 7005208334
	 7031250000
	 7057291667
	 7083333334
	 7109375000
	 7135416667
	 7161458333
	 7187500000
	 7213541667
	 7239583333
	 7265625000
	 7291666667
	 7317708333
	 7343750000
	 7369791667
	 7395833333
	 7421875000
	 7447916667
	 7473958333
	 7500000000
	 7526041667
	 7552083333
	 7578125000
	 7604166667
	 7630208333
	 7656250000
	 7682291667
	 7708333334
	 7734375000
	 7760416667
	 7786458334
	 7812500000
	 7838541667
	 7864583334
	 7890625000
	 7916666667
	 7968750000
	 8020833334
	 8072916667
	 8125000000
	 8177083334
	 8229166667
	 8281250001
	 8333333334
	 8368055556
	 8402777778
	 8437500001
	 8472222223
	 8506944445
	 8541666667
	 8576388890
	 8611111112
	 8645833334
	 8680555556
	 8715277778
	 8750000001
	 8784722223
	 8819444445
	 8854166667
	 8888888890
	 8923611112
	 8958333334
	 8993055556
	 9027777778
	 9062500001
	 9097222223
	 9131944445
	 9166666667
	 9201388889
	 9236111112
	 9270833334
	 9305555556
	 9340277778
	 9375000001
	 9409722223
	 9444444445
	 9479166667
	 9513888889
	 9548611112
	 9583333334
	 9618055556
	 9652777778
	 9687500000
	 9722222222
	 9756944445
	 9791666667
	 9826388889
	 9861111111
	 9895833333
	 9930555556
	 9965277778
	 1e+10
VAR_LIST_END

BEGIN
	 7.62640911999999973249206136584e-10 ,	 0 
	 7.62645946000000022844254531052e-10 ,	 -3.63906533000000000787495959393e-09 
	 7.62643725999999956236998034572e-10 ,	 -3.63906523999999997918554481453e-08 
	 7.6229450499999996898800377486e-10 ,	 -3.63906525999999978703762330834e-07 
	 7.27481074999999985324482745124e-10 ,	 -3.6390652700000000350707973773e-06 
	 7.0691200099999995139112713967e-10 ,	 -4.58131174000000031612533923919e-06 
	 6.74314492999999998076802186134e-10 ,	 -5.76752976999999961897711703296e-06 
	 6.22650237000000017124363440956e-10 ,	 -7.26088977999999999907859704606e-06 
	 5.40766986999999983515816204369e-10 ,	 -9.14091866000000036391638646993e-06 
	 4.10991518999999998648215112618e-10 ,	 -1.15077348000000008281223234929e-05 
	 2.05311350999999997747636804157e-10 ,	 -1.44873797000000000391537607891e-05 
	 -1.20670806999999989438939893042e-10 ,	 -1.82385304999999983579898887864e-05 
	 -6.37315922000000039567385845654e-10 ,	 -2.2960949500000001093817994513e-05 
	 -1.4561452300000000322871465997e-09 ,	 -2.89061228000000006480799813469e-05 
	 -2.75390146999999990261749480873e-09 ,	 -3.63906523999999988389433824842e-05 
	 -4.81070586e-09 ,	 -4.58131169e-05 
	 -8.07052197e-09 ,	 -5.76752967e-05 
	 -1.32369821e-08 ,	 -7.26088959e-05 
	 -2.14252681e-08 ,	 -9.14091826e-05 
	 -3.44028283e-08 ,	 -0.00011507734 
	 -5.49708722e-08 ,	 -0.000144873782 
	 -8.75690216e-08 ,	 -0.000182385274 
	 -1.39233598e-07 ,	 -0.000229609432 
	 -2.21116414e-07 ,	 -0.000289061102 
	 -3.50891876e-07 ,	 -0.000363906274 
	 -5.5657199e-07 ,	 -0.00045813067 
	 -8.82552662e-07 ,	 -0.000576751971 
	 -1.39919636e-06 ,	 -0.000726086973 
	 -2.21801932e-06 ,	 -0.000914087864 
	 -3.51576091e-06 ,	 -0.00115076549 
	 -5.57252928e-06 ,	 -0.00144872204 
	 -8.83225373e-06 ,	 -0.00182382126 
	 -1.39984841e-05 ,	 -0.00229603153 
	 -2.21861946e-05 ,	 -0.00289048574 
	 -3.51623069e-05 ,	 -0.00363881277 
	 -5.57267172e-05 ,	 -0.004580808 
	 -8.83157431e-05 ,	 -0.00576652482 
	 -0.000139957418 ,	 -0.00725888513 
	 -0.000178903944 ,	 -0.0082066276 
	 -0.000222836798 ,	 -0.0091585966 
	-0.00035308,	-0.011527
	-0.00055938,	-0.014506
	-0.00083925,	-0.017763
	-0.0012569,	-0.021729
	-0.0016871,	-0.025163
	-0.0022304,	-0.028916
	-0.0034769,	-0.036057
	-0.0049929,	-0.043141
	-0.0067742,	-0.050158
	-0.0088164,	-0.057097
	-0.010223,	-0.061391
	-0.011729,	-0.065649
	-0.013332,	-0.069869
	-0.015031,	-0.074049
	-0.016826,	-0.078188
	-0.018714,	-0.082283
	-0.020695,	-0.086333
	-0.022767,	-0.090335
	-0.027178,	-0.098192
	-0.031938,	-0.10584
	-0.037036,	-0.11326
	-0.042461,	-0.12046
	-0.0482,	-0.1274
	-0.054243,	-0.13409
	-0.060579,	-0.14052
	-0.067194,	-0.14667
	-0.074076,	-0.15253
	-0.081213,	-0.15809
	-0.088591,	-0.16335
	-0.096197,	-0.16829
	-0.10401,	-0.17291
	-0.11203,	-0.17721
	-0.12024,	-0.18117
	-0.12862,	-0.18479
	-0.13716,	-0.18806
	-0.14585,	-0.19099
	-0.15466,	-0.19356
	-0.16358,	-0.19578
	-0.17261,	-0.19764
	-0.18172,	-0.19914
	-0.19091,	-0.20028
	-0.20015,	-0.20105
	-0.20943,	-0.20147
	-0.21874,	-0.20152
	-0.22807,	-0.20122
	-0.2374,	-0.20056
	-0.24485,	-0.19977
	-0.25229,	-0.19876
	-0.25971,	-0.19753
	-0.2671,	-0.19607
	-0.27446,	-0.19439
	-0.28177,	-0.1925
	-0.28904,	-0.19039
	-0.29626,	-0.18806
	-0.30341,	-0.18552
	-0.31051,	-0.18278
	-0.31753,	-0.17983
	-0.32448,	-0.17668
	-0.33134,	-0.17333
	-0.33813,	-0.16978
	-0.34482,	-0.16604
	-0.35141,	-0.16212
	-0.3643,	-0.15371
	-0.37675,	-0.14459
	-0.38873,	-0.13479
	-0.40021,	-0.12434
	-0.41116,	-0.11328
	-0.42156,	-0.10163
	-0.43138,	-0.089444
	-0.4406,	-0.076736
	-0.4492,	-0.063549
	-0.45717,	-0.049918
	-0.46449,	-0.035877
	-0.47115,	-0.021462
	-0.47713,	-0.0067075
	-0.48243,	 0.0083528
	-0.48704,	 0.023684
	-0.49095,	 0.039254
	-0.49549,	 0.06298
	-0.49844,	 0.087054
	-0.4998,	 0.11136
	-0.49957,	 0.13581
	-0.49776,	 0.16029
	-0.49437,	 0.18471
	-0.48944,	 0.20896
	-0.48298,	 0.23295
	-0.47502,	 0.25658
	-0.4656,	 0.27978
	-0.45474,	 0.30246
	-0.4425,	 0.32453
	-0.4289,	 0.34592
	-0.41401,	 0.36654
	-0.39787,	 0.38633
	-0.38053,	 0.40521
	-0.36204,	 0.42312
	-0.34248,	 0.43999
	-0.3219,	 0.45576
	-0.30036,	 0.47037
	-0.27794,	 0.48377
	-0.25471,	 0.4959
	-0.23073,	 0.50672
	-0.2061,	 0.51618
	-0.18088,	 0.52424
	-0.15516,	 0.53087
	-0.12903,	 0.53603
	-0.10257,	 0.5397
	-0.075882,	 0.54185
	-0.049039,	 0.54247
	-0.022142,	 0.54154
	 0.0047141,	 0.53906
	 0.028475,	 0.53556
	 0.052062,	 0.53083
	 0.075407,	 0.52488
	 0.098441,	 0.51773
	 0.12109,	 0.50938
	 0.14331,	 0.49987
	 0.16501,	 0.4892
	 0.18614,	 0.47741
	 0.20663,	 0.46453
	 0.22642,	 0.45059
	 0.24544,	 0.43562
	 0.26365,	 0.41968
	 0.28099,	 0.4028
	 0.2974,	 0.38504
	 0.31283,	 0.36644
	 0.32724,	 0.34706
	 0.34058,	 0.32696
	 0.35283,	 0.30619
	 0.36393,	 0.28482
	 0.37386,	 0.2629
	 0.3826,	 0.24049
	 0.39012,	 0.21767
	 0.39641,	 0.19449
	 0.40144,	 0.17101
	 0.40522,	 0.1473
	 0.40773,	 0.1234
	 0.40897,	 0.099378
	 0.40895,	 0.075272
	 0.40846,	 0.063202
	 0.40766,	 0.051129
	 0.40654,	 0.039055
	 0.40511,	 0.026985
	 0.40337,	 0.014921
	 0.40131,	 0.0028671
	 0.39894,	-0.0091758
	 0.39626,	-0.021206
	 0.39327,	-0.033224
	 0.38996,	-0.045229
	 0.38633,	-0.057224
	 0.38239,	-0.06921
	 0.37813,	-0.081192
	 0.37354,	-0.093173
	 0.36862,	-0.10515
	 0.36336,	-0.11715
	 0.35776,	-0.12917
	 0.3518,	-0.14122
	 0.34548,	-0.15331
	 0.33876,	-0.16545
	 0.33164,	-0.17766
	 0.32409,	-0.18995
	 0.31607,	-0.20234
	 0.30757,	-0.21484
	 0.29852,	-0.22746
	 0.28889,	-0.24023
	 0.27862,	-0.25317
	 0.26764,	-0.26627
	 0.25587,	-0.27957
	 0.24322,	-0.29305
	 0.22959,	-0.30672
	 0.21485,	-0.32057
	 0.19887,	-0.33458
	 0.18149,	-0.3487
	 0.16253,	-0.36287
	 0.1418,	-0.377
	 0.13071,	-0.38402
	 0.11909,	-0.39097
	 0.10692,	-0.39784
	 0.094173,	-0.4046
	 0.080807,	-0.41122
	 0.066796,	-0.41766
	 0.052111,	-0.42389
	 0.036721,	-0.42986
	 0.015053,	-0.43733
	-0.0079845,	-0.44413
	-0.032451,	-0.45009
	-0.058392,	-0.45505
	-0.085842,	-0.45882
	-0.11481,	-0.46118
	-0.14529,	-0.46189
	-0.17724,	-0.46071
	-0.19375,	-0.45933
	-0.21059,	-0.45737
	-0.22776,	-0.4548
	-0.24522,	-0.45159
	-0.26296,	-0.44769
	-0.28096,	-0.44308
	-0.29918,	-0.43771
	-0.3176,	-0.43156
	-0.33618,	-0.42459
	-0.35487,	-0.41676
	-0.37364,	-0.40805
	-0.39244,	-0.39843
	-0.41122,	-0.38788
	-0.42993,	-0.37636
	-0.4485,	-0.36387
	-0.46689,	-0.35039
	-0.48503,	-0.3359
	-0.50285,	-0.3204
	-0.52029,	-0.3039
	-0.53728,	-0.28638
	-0.55376,	-0.26787
	-0.56965,	-0.24837
	-0.58489,	-0.22791
	-0.59941,	-0.20652
	-0.61313,	-0.18422
	-0.62601,	-0.16106
	-0.63796,	-0.13707
	-0.64895,	-0.11232
	-0.6589,	-0.086846
	-0.66778,	-0.060711
	-0.67552,	-0.033979
	-0.6821,	-0.0067176
	-0.68748,	 0.021004
	-0.69162,	 0.049113
	-0.69451,	 0.077534
	-0.69612,	 0.10619
	-0.69645,	 0.13501
	-0.69548,	 0.16391
	-0.69322,	 0.19282
	-0.68967,	 0.22166
	-0.68485,	 0.25036
	-0.67877,	 0.27884
	-0.67145,	 0.30704
	-0.66292,	 0.3349
	-0.65322,	 0.36233
	-0.64237,	 0.3893
	-0.63042,	 0.41574
	-0.6174,	 0.44159
	-0.60336,	 0.46682
	-0.58834,	 0.49137
	-0.57239,	 0.51521
	-0.55557,	 0.5383
	-0.53791,	 0.5606
	-0.51947,	 0.5821
	-0.5003,	 0.60275
	-0.48045,	 0.62256
	-0.45996,	 0.64148
	-0.4389,	 0.65952
	-0.4173,	 0.67666
	-0.39522,	 0.69289
	-0.37271,	 0.70821
	-0.3498,	 0.72261
	-0.32654,	 0.73609
	-0.30298,	 0.74866
	-0.27916,	 0.76031
	-0.25511,	 0.77106
	-0.23089,	 0.78091
	-0.20652,	 0.78986
	-0.18204,	 0.79793
	-0.15748,	 0.80513
	-0.13289,	 0.81147
	-0.10828,	 0.81696
	-0.083707,	 0.82162
	-0.059176,	 0.82546
	-0.034722,	 0.82849
	-0.010374,	 0.83074
	 0.013845,	 0.83222
	 0.037911,	 0.83295
	 0.0618,	 0.83294
	 0.085492,	 0.83221
	 0.12061,	 0.82981
	 0.15518,	 0.82589
	 0.18914,	 0.82052
	 0.22243,	 0.81376
	 0.255,	 0.80567
	 0.28682,	 0.79632
	 0.31783,	 0.78577
	 0.34802,	 0.77409
	 0.37733,	 0.76133
	 0.40576,	 0.74756
	 0.43326,	 0.73285
	 0.45983,	 0.71725
	 0.48545,	 0.70082
	 0.51009,	 0.68363
	 0.53376,	 0.66573
	 0.55645,	 0.64717
	 0.57814,	 0.62802
	 0.59884,	 0.60833
	 0.61856,	 0.58815
	 0.63728,	 0.56753
	 0.65502,	 0.54653
	 0.67178,	 0.52518
	 0.68758,	 0.50354
	 0.70241,	 0.48165
	 0.71631,	 0.45955
	 0.72928,	 0.43729
	 0.74133,	 0.41489
	 0.75248,	 0.39241
	 0.76276,	 0.36987
	 0.77217,	 0.34731
	 0.78075,	 0.32476
	 0.7885,	 0.30225
	 0.79626,	 0.27701
	 0.80305,	 0.25189
	 0.80888,	 0.22692
	 0.81379,	 0.20215
	 0.81782,	 0.17759
	 0.82099,	 0.15327
	 0.82333,	 0.12923
	 0.82488,	 0.10547
	 0.82568,	 0.082035
	 0.82574,	 0.05892
	 0.8251,	 0.036149
	 0.8238,	 0.013737
	 0.82186,	-0.0083047
	 0.81931,	-0.029965
	 0.81618,	-0.051234
	 0.8125,	-0.072105
	 0.80358,	-0.11262
	 0.79276,	-0.15149
	 0.78024,	-0.18869
	 0.76619,	-0.2242
	 0.75079,	-0.25805
	 0.73418,	-0.29024
	 0.7165,	-0.3208
	 0.69789,	-0.34975
	 0.67846,	-0.37715
	 0.65832,	-0.40302
	 0.63756,	-0.4274
	 0.61628,	-0.45034
	 0.59456,	-0.47189
	 0.57245,	-0.49208
	 0.55004,	-0.51096
	 0.52738,	-0.52858
	 0.50452,	-0.54498
	 0.48151,	-0.5602
	 0.45839,	-0.57428
	 0.4352,	-0.58726
	 0.41197,	-0.59917
	 0.38874,	-0.61006
	 0.36554,	-0.61996
	 0.34239,	-0.6289
	 0.31931,	-0.63691
	 0.29632,	-0.64402
	 0.27346,	-0.65026
	 0.25072,	-0.65566
	 0.22813,	-0.66025
	 0.20571,	-0.66404
	 0.18347,	-0.66706
	 0.16142,	-0.66934
	 0.13957,	-0.67089
	 0.11794,	-0.67173
	 0.096541,	-0.67189
	 0.075374,	-0.67138
	 0.054456,	-0.67022
	 0.033795,	-0.66842
	 0.013402,	-0.66601
	-0.0067158,	-0.66299
	-0.046086,	-0.6552
	-0.084247,	-0.64517
	-0.12113,	-0.63302
	-0.15667,	-0.61883
	-0.1908,	-0.60271
	-0.22346,	-0.58475
	-0.25459,	-0.56506
	-0.28412,	-0.54372
	-0.30289,	-0.52863
	-0.32091,	-0.51288
	-0.33815,	-0.4965
	-0.35461,	-0.47952
	-0.37026,	-0.46196
	-0.38509,	-0.44386
	-0.39908,	-0.42525
	-0.41221,	-0.40616
	-0.42448,	-0.38662
	-0.43586,	-0.36666
	-0.44635,	-0.34631
	-0.45593,	-0.32562
	-0.46458,	-0.30461
	-0.47231,	-0.28331
	-0.47908,	-0.26177
	-0.48491,	-0.24003
	-0.48977,	-0.2181
	-0.49366,	-0.19604
	-0.49658,	-0.17389
	-0.49852,	-0.15168
	-0.49947,	-0.12945
	-0.49943,	-0.10724
	-0.49841,	-0.085107
	-0.4964,	-0.06307
	-0.4934,	-0.041182
	-0.48943,	-0.019485
	-0.48448,	 0.0019788
	-0.47857,	 0.023165
	-0.4717,	 0.04403
	-0.46388,	 0.064529
	-0.45514,	 0.08462
	-0.44549,	 0.10425
	-0.43494,	 0.12339
	-0.42351,	 0.142
	-0.41124,	 0.16001
	-0.39815,	 0.17741
	-0.38426,	 0.19414
	-0.36961,	 0.21016
	-0.35424,	 0.22544
	-0.33817,	 0.23993
	-0.32145,	 0.25361
	-0.30412,	 0.26643
	-0.28622,	 0.27837
	-0.2678,	 0.28939
	-0.24891,	 0.29947
	-0.22959,	 0.30859
	-0.20991,	 0.31672
	-0.18991,	 0.32385
END
BEGIN
	 0.999999999236875769526022850187 ,	 -0 
	 0.99999999923687132863392434956 ,	 -9.11231456957040109045919962227e-09 
	 0.999999999236865111384986448684 ,	 -9.11231460287709182921389583498e-08 
	 0.999999999236281800207848391437 ,	 -9.11231459954642275533842621371e-07 
	 0.9999999991780315067302353782 ,	 -9.11231459765904361347566009499e-06 
	 0.999999999143617701591324475885 ,	 -1.14717244071860235976600961294e-05 
	 0.999999999089074664837539785367 ,	 -1.444204537193183313092958997e-05 
	 0.999999999002627371069706896378 ,	 -1.81814579149341959407593094511e-05 
	 0.999999998865621297916561616148 ,	 -2.28890993865249470218259375542e-05 
	 0.999999998648478438667552836705 ,	 -2.88156688599827681684928393224e-05 
	 0.999999998304331949583456662367 ,	 -3.62767777642991617881307320204e-05 
	 0.999999997758897585242721106624 ,	 -4.56697573423259228775350493379e-05 
	 0.999999996894440301709039431444 ,	 -5.74948179831724637267598154722e-05 
	 0.999999995524370133281877315312 ,	 -7.2381687234834846123021634412e-05 
	 0.999999993352952754044338234962 ,	 -9.11231450672067566642908786889e-05 
	 0.999999989911488640359493729193 ,	 -0.000114717242247042161551462413627 
	 0.999999984457136226190243633027 ,	 -0.000144420450077009654421544837533 
	 0.999999975812571495481506644865 ,	 -0.000181814571874217012492636058596 
	 0.999999962111866702585416533111 ,	 -0.000228890979359408497373351565329 
	 0.999999940397717890228079795634 ,	 -0.000288156659656535474312022415688 
	 0.99999990598314059120355068444 ,	 -0.000362767719890300099905289243907 
	 0.999999851439771880734497244703 ,	 -0.000456697458193933147896359514561 
	 0.999999764994516593397122505849 ,	 -0.000574947949916748690668555354932 
	 0.999999627988415906720831571874 ,	 -0.000723816413605360420291390255443 
	 0.999999410849373715493015879474 ,	 -0.000911230535371454486437414743705 
	 0.999999066709679529374454887147 ,	 -0.00114717059623742345664254571602 
	 0.999998521291295849877656110039 ,	 -0.00144420085705992962132881984871 
	 0.999997656877168572542302626971 ,	 -0.00181813844889960884998458823247 
	 0.999996286912672616153940907679 ,	 -0.00228889528933690078460472250299 
	 0.999994115764635038701158009644 ,	 -0.00288153765989052068619002966443 
	 0.999990674976381055394369923306 ,	 -0.00362761947253675831603914048173 
	 0.999985222320765587689095355017 ,	 -0.0045668594339264290127289314114 
	 0.999976582015383641532935143914 ,	 -0.0057492498473539210834815094131 
	 0.999962891994547131702120168484 ,	 -0.00723770623206038132835260512365 
	 0.999941204644426928638267781935 ,	 -0.00911139269831245934838648281584 
	 0.999906857198036624900794322457 ,	 -0.0114698880735293884391978735948 
	 0.999852481753130462038825498894 ,	 -0.0144383911477724558025670376082 
	 0.99976645552481480105910804923 ,	 -0.0181741973178307647529550195031 
	 0.999701688456823722717103919422 ,	 -0.0205464028903226125777337074396 
	 0.999628742368672495999248894805 ,	 -0.0229289557102729801840723666828 
	 0.99941316919751876923783129314 ,	 -0.0288554712758160580854394083872 
	 0.999073755653770878559782886441 ,	 -0.0363067232647771853670803920977 
