CITIFILE A.01.01
#Momentum: B.12.070 (*) built: Feb 13 2020 
#Momentum Date and Time: Tue Aug 16 09:21:37 2022

NAME Momentum.SP

#  mode: MW    reference: S_50

#eesof Port[1] P1
#eesof Port[2] P2

CONSTANT NBR_OF_PORTS 2

CONSTANT NORMALIZATION 1

VAR freq MAG 465

DATA S[1,1] RI
DATA S[1,2] RI
DATA S[2,1] RI
DATA S[2,2] RI
DATA PORTZ[1] RI
DATA PORTZ[2] RI

VAR_LIST_BEGIN
	 0
	 8.721827882
	 87.21827882
	 872.1827882
	 8721.827882
	 10980.13076
	 13823.16564
	 17402.33449
	 21908.24111
	 27580.84147
	 34722.2222
	 43712.68788
	 55031.01359
	 69279.94145
	 87218.27882
	 109801.3076
	 138231.6564
	 174023.3449
	 219082.4111
	 275808.4147
	 347222.222
	 437126.8788
	 550310.1359
	 692799.4145
	 872182.7882
	 1098013.076
	 1382316.564
	 1740233.449
	 2190824.111
	 2758084.147
	 3472222.22
	 4371268.788
	 5503101.359
	 6927994.145
	 8721827.882
	 10980130.76
	 13823165.64
	 17402334.49
	 21908241.11
	 27580841.47
	 34722222.2
	 39258678.43
	 43816482.23
	 55161682.93
	 69444444.4
	 85083950.08
	 104166666.6
	 120730714.8
	 138888888.8
	 167824074
	 196759259.2
	 225694444.3
	 254629629.5
	 283564814.7
	 312499999.9
	 341435185
	 370370370.2
	 399305555.4
	 428240740.5
	 457175925.7
	 486111110.9
	 515046296.1
	 543981481.2
	 572916666.4
	 601851851.6
	 630787036.8
	 659722222
	 688657407.1
	 717592592.3
	 746527777.5
	 775462962.6
	 804398147.8
	 833333333
	 859374999.7
	 885416666.3
	 911458333
	 937499999.6
	 963541666.3
	 989583332.9
	 1015625000
	 1041666666
	 1067708333
	 1093750000
	 1119791666
	 1145833333
	 1171875000
	 1197916666
	 1223958333
	 1250000000
	 1276041666
	 1302083333
	 1328124999
	 1354166666
	 1380208333
	 1406249999
	 1432291666
	 1458333333
	 1484374999
	 1510416666
	 1536458333
	 1562499999
	 1588541666
	 1614583333
	 1640624999
	 1666666666
	 1692708333
	 1718749999
	 1744791666
	 1770833333
	 1796874999
	 1822916666
	 1848958333
	 1874999999
	 1901041666
	 1927083333
	 1953124999
	 1979166666
	 2005208333
	 2031249999
	 2057291666
	 2083333333
	 2109374999
	 2135416666
	 2161458333
	 2187499999
	 2213541666
	 2239583333
	 2265624999
	 2291666666
	 2317708333
	 2343749999
	 2369791666
	 2395833333
	 2421874999
	 2447916666
	 2473958333
	 2500000000
	 2526041666
	 2552083333
	 2578125000
	 2604166666
	 2630208333
	 2656250000
	 2682291666
	 2708333333
	 2734375000
	 2760416666
	 2786458333
	 2812500000
	 2838541666
	 2864583333
	 2890625000
	 2916666666
	 2942708333
	 2968750000
	 2994791666
	 3020833333
	 3046875000
	 3072916666
	 3098958333
	 3125000000
	 3151041666
	 3177083333
	 3203125000
	 3229166666
	 3255208333
	 3281250000
	 3307291666
	 3333333333
	 3359375000
	 3385416666
	 3411458333
	 3437500000
	 3463541666
	 3489583333
	 3515625000
	 3541666666
	 3567708333
	 3593750000
	 3619791666
	 3645833333
	 3671875000
	 3697916666
	 3723958333
	 3750000000
	 3776041666
	 3802083333
	 3828124999
	 3854166666
	 3880208333
	 3906249999
	 3932291666
	 3958333333
	 3984374999
	 4010416666
	 4036458333
	 4062499999
	 4088541666
	 4114583333
	 4140624999
	 4166666666
	 4192708333
	 4218749999
	 4244791666
	 4270833333
	 4296874999
	 4322916666
	 4348958333
	 4375000000
	 4401041666
	 4427083333
	 4453125000
	 4479166666
	 4505208333
	 4531250000
	 4557291666
	 4583333333
	 4609375000
	 4635416666
	 4661458333
	 4687500000
	 4713541666
	 4739583333
	 4765625000
	 4791666666
	 4817708333
	 4843750000
	 4869791667
	 4895833333
	 4921875000
	 4947916667
	 4973958333
	 5000000000
	 5026041667
	 5052083333
	 5078125000
	 5104166666
	 5117187500
	 5130208333
	 5143229166
	 5156250000
	 5169270833
	 5182291666
	 5195312500
	 5208333333
	 5221354166
	 5234375000
	 5247395833
	 5260416666
	 5273437500
	 5286458333
	 5299479166
	 5312500000
	 5325520833
	 5338541666
	 5351562499
	 5364583333
	 5377604166
	 5390624999
	 5403645833
	 5416666666
	 5429687499
	 5442708333
	 5455729166
	 5468749999
	 5481770833
	 5494791666
	 5507812499
	 5520833333
	 5533854166
	 5546874999
	 5559895833
	 5572916666
	 5585937499
	 5598958333
	 5611979166
	 5625000000
	 5638020833
	 5651041666
	 5664062500
	 5677083333
	 5690104166
	 5703125000
	 5716145833
	 5729166666
	 5742187500
	 5755208333
	 5768229166
	 5781250000
	 5794270833
	 5807291666
	 5820312500
	 5833333333
	 5846354166
	 5859375000
	 5872395833
	 5885416666
	 5898437500
	 5911458333
	 5924479166
	 5937500000
	 5950520833
	 5963541666
	 5976562500
	 5989583333
	 6002604166
	 6015625000
	 6028645833
	 6041666666
	 6054687500
	 6067708333
	 6080729167
	 6093750000
	 6106770833
	 6119791667
	 6132812500
	 6145833333
	 6158854167
	 6171875000
	 6184895833
	 6197916667
	 6210937500
	 6223958333
	 6236979167
	 6250000000
	 6263020833
	 6276041667
	 6289062500
	 6302083333
	 6315104167
	 6328125000
	 6341145833
	 6354166667
	 6367187500
	 6380208333
	 6393229167
	 6406250000
	 6419270833
	 6432291667
	 6445312500
	 6458333334
	 6484375000
	 6510416667
	 6536458334
	 6562500000
	 6588541667
	 6614583334
	 6640625000
	 6666666667
	 6692708334
	 6718750000
	 6744791667
	 6770833334
	 6796875000
	 6822916667
	 6848958334
	 6875000000
	 6901041667
	 6927083334
	 6953125000
	 6979166667
	 7005208334
	 7031250000
	 7057291667
	 7083333334
	 7109375000
	 7135416667
	 7161458334
	 7187500000
	 7213541667
	 7239583334
	 7265625000
	 7291666667
	 7343750000
	 7395833334
	 7447916667
	 7500000000
	 7552083334
	 7604166667
	 7656250001
	 7708333334
	 7760416667
	 7812500001
	 7864583334
	 7916666667
	 7968750001
	 8020833334
	 8072916667
	 8125000001
	 8177083334
	 8229166667
	 8281250001
	 8333333334
	 8385416667
	 8437500001
	 8489583334
	 8541666667
	 8593750001
	 8645833334
	 8697916667
	 8750000000
	 8776041667
	 8802083334
	 8828125000
	 8854166667
	 8880208334
	 8906250000
	 8932291667
	 8958333334
	 8984375000
	 9010416667
	 9036458334
	 9062500000
	 9088541667
	 9114583334
	 9140625000
	 9166666667
	 9184027778
	 9201388889
	 9218750000
	 9236111111
	 9253472222
	 9270833334
	 9288194445
	 9305555556
	 9322916667
	 9340277778
	 9357638889
	 9375000000
	 9392361111
	 9409722222
	 9427083333
	 9444444444
	 9461805556
	 9479166667
	 9496527778
	 9513888889
	 9531250000
	 9548611111
	 9565972222
	 9583333333
	 9600694444
	 9618055555
	 9635416667
	 9652777778
	 9670138889
	 9687500000
	 9704861111
	 9722222222
	 9739583333
	 9756944444
	 9774305555
	 9791666666
	 9809027778
	 9826388889
	 9843750000
	 9861111111
	 9878472222
	 9895833333
	 9913194444
	 9930555556
	 9947916667
	 9965277778
	 9982638889
	 1e+10
VAR_LIST_END

BEGIN
	 6.91667950999999943872617591545e-05 ,	 -0 
	 6.91667950999999943872617591545e-05 ,	 -1.25843513000000007000168192339e-09 
	 6.91667950999999943872617591545e-05 ,	 -1.25843571000000000673483784692e-08 
	 6.91667950000000029183583327708e-05 ,	 -1.25843570000000000354712509365e-07 
	 6.91667859000000067540986359305e-05 ,	 -1.25843571000000003982206234904e-06 
	 6.9166780599999998116293731254e-05 ,	 -1.58427668999999995328006787559e-06 
	 6.91667721000000049755632169912e-05 ,	 -1.99448618999999979905916359935e-06 
	 6.91667586000000047087923893407e-05 ,	 -2.51090933999999996409520884588e-06 
	 6.91667373000000057937236563887e-05 ,	 -3.16104758000000011472800307e-06 
	 6.91667033999999975946507135838e-05 ,	 -3.97952311999999977255035657486e-06 
	 6.91666498000000030607625767232e-05 ,	 -5.00992278000000014259512556847e-06 
	 6.91665648999999953597250801351e-05 ,	 -6.30711908999999972284464244687e-06 
	 6.91664301999999942037813949192e-05 ,	 -7.94019248000000047729100144389e-06 
	 6.91662167999999985198988916579e-05 ,	 -9.99611006000000038343965280685e-06 
	 6.91658785000000058892921650511e-05 ,	 -1.25843569000000000962383520098e-05 
	 6.91653424e-05 ,	 -1.58427666e-05 
	 6.91644927e-05 ,	 -1.99448612e-05 
	 6.91631461e-05 ,	 -2.51090922e-05 
	 6.91610118e-05 ,	 -3.16104733e-05 
	 6.91576292e-05 ,	 -3.97952262e-05 
	 6.91522681e-05 ,	 -5.00992179e-05 
	 6.91437713e-05 ,	 -6.30711711e-05 
	 6.91303048e-05 ,	 -7.94018853e-05 
	 6.91089618e-05 ,	 -9.99610216e-05 
	 6.90751353e-05 ,	 -0.000125843412 
	 6.90215236e-05 ,	 -0.000158427352 
	 6.89365542e-05 ,	 -0.000199447985 
	 6.8801885e-05 ,	 -0.00025108967 
	 6.85884446e-05 ,	 -0.000316102235 
	 6.82501539e-05 ,	 -0.000397947279 
	 6.77139726e-05 ,	 -0.000500982236 
	 6.6864116e-05 ,	 -0.000630691875 
	 6.55170172e-05 ,	 -0.000793979285 
	 6.33815905e-05 ,	 -0.000999531299 
	 5.99961172e-05 ,	 -0.00125827675 
	 5.46278748e-05 ,	 -0.00158395984 
	 4.61132149e-05 ,	 -0.00199385495 
	 3.26020234e-05 ,	 -0.0025096529 
	 1.11476539e-05 ,	 -0.00315855015 
	 -2.29550678e-05 ,	 -0.00397456973 
	 -7.72469982e-05 ,	 -0.00500013103 
	 -0.000118389061 ,	 -0.00565041342 
	 -0.000164993806 ,	 -0.0063027034 
	 -0.00030430638 ,	 -0.00792119932 
	-0.0005281,	-0.0099468
	-0.00083693,	-0.012147
	-0.0013066,	-0.014806
	-0.0017984,	-0.017088
	-0.0024281,	-0.019562
	-0.0036257,	-0.02344
	-0.0050566,	-0.027234
	-0.0067122,	-0.030935
	-0.0085825,	-0.034533
	-0.010657,	-0.038016
	-0.012926,	-0.041373
	-0.015379,	-0.044591
	-0.018005,	-0.04766
	-0.020793,	-0.050569
	-0.023733,	-0.053308
	-0.026812,	-0.055869
	-0.03002,	-0.058243
	-0.033345,	-0.060423
	-0.036775,	-0.062403
	-0.040297,	-0.064177
	-0.043899,	-0.065741
	-0.047569,	-0.06709
	-0.051294,	-0.068222
	-0.055062,	-0.069134
	-0.05886,	-0.069825
	-0.062676,	-0.070293
	-0.066497,	-0.070537
	-0.070311,	-0.070559
	-0.074105,	-0.070358
	-0.077492,	-0.069989
	-0.080845,	-0.069442
	-0.084153,	-0.068719
	-0.087409,	-0.067823
	-0.090603,	-0.066757
	-0.093726,	-0.065523
	-0.096771,	-0.064125
	-0.099729,	-0.062568
	-0.10259,	-0.060855
	-0.10534,	-0.058991
	-0.10799,	-0.056983
	-0.11052,	-0.054834
	-0.11292,	-0.052553
	-0.11519,	-0.050145
	-0.11732,	-0.047617
	-0.1193,	-0.044976
	-0.12113,	-0.042231
	-0.12281,	-0.039388
	-0.12432,	-0.036456
	-0.12567,	-0.033444
	-0.12684,	-0.03036
	-0.12784,	-0.027213
	-0.12866,	-0.024012
	-0.1293,	-0.020766
	-0.12975,	-0.017485
	-0.13002,	-0.014178
	-0.13011,	-0.010854
	-0.13001,	-0.0075246
	-0.12971,	-0.0041977
	-0.12924,	-0.00088356
	-0.12857,	 0.0024081
	-0.12772,	 0.0056678
	-0.12668,	 0.0088857
	-0.12546,	 0.012052
	-0.12406,	 0.015158
	-0.12248,	 0.018194
	-0.12073,	 0.021151
	-0.11881,	 0.02402
	-0.11672,	 0.026791
	-0.11448,	 0.029457
	-0.11207,	 0.032009
	-0.10952,	 0.034439
	-0.10683,	 0.036739
	-0.104,	 0.038902
	-0.10103,	 0.040919
	-0.097954,	 0.042785
	-0.094755,	 0.044493
	-0.091448,	 0.046037
	-0.088043,	 0.047411
	-0.084548,	 0.048609
	-0.080972,	 0.049627
	-0.077325,	 0.05046
	-0.073615,	 0.051105
	-0.069853,	 0.051557
	-0.066048,	 0.051814
	-0.062211,	 0.051874
	-0.058352,	 0.051734
	-0.054481,	 0.051393
	-0.050609,	 0.05085
	-0.046746,	 0.050105
	-0.042903,	 0.049158
	-0.039091,	 0.04801
	-0.03532,	 0.046662
	-0.031602,	 0.045117
	-0.027945,	 0.043376
	-0.024361,	 0.041443
	-0.020861,	 0.039322
	-0.017453,	 0.037017
	-0.014148,	 0.034532
	-0.010956,	 0.031874
	-0.0078861,	 0.029047
	-0.0049468,	 0.026059
	-0.0021473,	 0.022916
	 0.00050431,	 0.019626
	 0.0029999,	 0.016196
	 0.005332,	 0.012636
	 0.0074936,	 0.0089533
	 0.009478,	 0.0051576
	 0.011279,	 0.0012586
	 0.012891,	-0.002734
	 0.01431,	-0.0068097
	 0.01553,	-0.010958
	 0.016548,	-0.015168
	 0.01736,	-0.01943
	 0.017964,	-0.02373
	 0.018359,	-0.028059
	 0.018541,	-0.032405
	 0.018511,	-0.036755
	 0.018269,	-0.041099
	 0.017814,	-0.045425
	 0.017149,	-0.04972
	 0.016275,	-0.053975
	 0.015195,	-0.058176
	 0.013911,	-0.062312
	 0.012428,	-0.066373
	 0.01075,	-0.070348
	 0.008882,	-0.074225
	 0.0068293,	-0.077994
	 0.0045983,	-0.081646
	 0.0021958,	-0.085169
	-0.00037094,	-0.088555
	-0.0030941,	-0.091795
	-0.0059652,	-0.09488
	-0.0089757,	-0.097802
	-0.012116,	-0.10055
	-0.015377,	-0.10312
	-0.018748,	-0.10551
	-0.022218,	-0.1077
	-0.025778,	-0.10971
	-0.029415,	-0.1115
	-0.033119,	-0.1131
	-0.036877,	-0.11448
	-0.040678,	-0.11565
	-0.04451,	-0.1166
	-0.04836,	-0.11734
	-0.052217,	-0.11786
	-0.056067,	-0.11816
	-0.059898,	-0.11824
	-0.063697,	-0.1181
	-0.067453,	-0.11774
	-0.071152,	-0.11717
	-0.074781,	-0.11638
	-0.078329,	-0.11539
	-0.081783,	-0.11419
	-0.085131,	-0.11279
	-0.088361,	-0.11119
	-0.091461,	-0.10941
	-0.094419,	-0.10744
	-0.097225,	-0.10529
	-0.099867,	-0.10298
	-0.10233,	-0.10051
	-0.10461,	-0.097894
	-0.1067,	-0.095131
	-0.10859,	-0.092237
	-0.11026,	-0.089224
	-0.11171,	-0.086103
	-0.11293,	-0.082884
	-0.11391,	-0.079582
	-0.11465,	-0.076209
	-0.11513,	-0.072778
	-0.11536,	-0.069304
	-0.11533,	-0.0658
	-0.11503,	-0.062281
	-0.11446,	-0.058764
	-0.11362,	-0.055262
	-0.1125,	-0.051794
	-0.1111,	-0.048373
	-0.10943,	-0.045018
	-0.10747,	-0.041746
	-0.10525,	-0.038572
	-0.10274,	-0.035515
	-0.099972,	-0.032593
	-0.096929,	-0.029822
	-0.093622,	-0.02722
	-0.090059,	-0.024806
	-0.086246,	-0.022596
	-0.08219,	-0.020608
	-0.077902,	-0.018859
	-0.073391,	-0.017368
	-0.068669,	-0.016149
	-0.063748,	-0.015221
	-0.058643,	-0.014599
	-0.053367,	-0.014298
	-0.047937,	-0.014334
	-0.045169,	-0.014483
	-0.04237,	-0.014721
	-0.03954,	-0.01505
	-0.036684,	-0.015472
	-0.033802,	-0.015988
	-0.030898,	-0.0166
	-0.027974,	-0.01731
	-0.025033,	-0.018117
	-0.022077,	-0.019025
	-0.01911,	-0.020034
	-0.016134,	-0.021145
	-0.013152,	-0.02236
	-0.010167,	-0.023679
	-0.0071813,	-0.025104
	-0.0041989,	-0.026635
	-0.0012227,	-0.028273
	 0.0017442,	-0.030018
	 0.0046988,	-0.031872
	 0.0076376,	-0.033835
	 0.010557,	-0.035907
	 0.013455,	-0.038088
	 0.016327,	-0.040379
	 0.01917,	-0.04278
	 0.02198,	-0.045291
	 0.024755,	-0.047911
	 0.02749,	-0.050641
	 0.030182,	-0.05348
	 0.032828,	-0.056428
	 0.035424,	-0.059484
	 0.037967,	-0.062647
	 0.040453,	-0.065918
	 0.042878,	-0.069294
	 0.045239,	-0.072775
	 0.047533,	-0.076359
	 0.049756,	-0.080046
	 0.051905,	-0.083834
	 0.053976,	-0.087722
	 0.055965,	-0.091707
	 0.05787,	-0.095789
	 0.059687,	-0.099965
	 0.061412,	-0.10423
	 0.063043,	-0.10859
	 0.064577,	-0.11303
	 0.066009,	-0.11757
	 0.067337,	-0.12218
	 0.068558,	-0.12688
	 0.069669,	-0.13165
	 0.070667,	-0.1365
	 0.071549,	-0.14142
	 0.072313,	-0.14641
	 0.072956,	-0.15147
	 0.073476,	-0.15659
	 0.073869,	-0.16177
	 0.074133,	-0.16701
	 0.074268,	-0.1723
	 0.074269,	-0.17764
	 0.074135,	-0.18302
	 0.073865,	-0.18845
	 0.073456,	-0.19391
	 0.072908,	-0.19941
	 0.072217,	-0.20494
	 0.071383,	-0.2105
	 0.070405,	-0.21608
	 0.069282,	-0.22168
	 0.068012,	-0.22729
	 0.066594,	-0.23291
	 0.065028,	-0.23854
	 0.063313,	-0.24417
	 0.06145,	-0.24979
	 0.059436,	-0.25541
	 0.057273,	-0.26102
	 0.05496,	-0.26662
	 0.052497,	-0.27219
	 0.049885,	-0.27774
	 0.047123,	-0.28326
	 0.044213,	-0.28875
	 0.041155,	-0.29421
	 0.03795,	-0.29962
	 0.034599,	-0.30499
	 0.031103,	-0.3103
	 0.027462,	-0.31557
	 0.02368,	-0.32078
	 0.019755,	-0.32592
	 0.015692,	-0.331
	 0.01149,	-0.33601
	 0.007153,	-0.34095
	 0.0026814,	-0.34582
	-0.0019221,	-0.3506
	-0.0066555,	-0.3553
	-0.011517,	-0.35991
	-0.016503,	-0.36443
	-0.021612,	-0.36885
	-0.026841,	-0.37318
	-0.032187,	-0.37741
	-0.037648,	-0.38153
	-0.043222,	-0.38555
	-0.048904,	-0.38946
	-0.054692,	-0.39325
	-0.060583,	-0.39694
	-0.066574,	-0.4005
	-0.072662,	-0.40394
	-0.078843,	-0.40727
	-0.085114,	-0.41047
	-0.091472,	-0.41354
	-0.10443,	-0.41929
	-0.1177,	-0.42452
	-0.13125,	-0.42921
	-0.14504,	-0.43335
	-0.15906,	-0.43693
	-0.17328,	-0.43994
	-0.18765,	-0.44238
	-0.20217,	-0.44424
	-0.21679,	-0.44552
	-0.2315,	-0.44622
	-0.24625,	-0.44634
	-0.26104,	-0.44589
	-0.27583,	-0.44486
	-0.29059,	-0.44326
	-0.3053,	-0.4411
	-0.31994,	-0.43838
	-0.33449,	-0.43512
	-0.34892,	-0.43131
	-0.3632,	-0.42698
	-0.37733,	-0.42213
	-0.39128,	-0.41677
	-0.40504,	-0.41091
	-0.41857,	-0.40457
	-0.43188,	-0.39776
	-0.44494,	-0.39049
	-0.45773,	-0.38278
	-0.47025,	-0.37464
	-0.48248,	-0.36608
	-0.4944,	-0.35712
	-0.50602,	-0.34778
	-0.5173,	-0.33806
	-0.52825,	-0.32799
	-0.54912,	-0.30683
	-0.56854,	-0.28443
	-0.58646,	-0.26088
	-0.60284,	-0.23632
	-0.61763,	-0.21086
	-0.63081,	-0.18459
	-0.64235,	-0.15764
	-0.65224,	-0.13011
	-0.66045,	-0.1021
	-0.66698,	-0.073704
	-0.67183,	-0.045024
	-0.67498,	-0.016154
	-0.67644,	 0.012813
	-0.6762,	 0.041786
	-0.67428,	 0.070674
	-0.67068,	 0.099387
	-0.6654,	 0.12783
	-0.65844,	 0.15592
	-0.64982,	 0.18356
	-0.63955,	 0.21066
	-0.62763,	 0.23711
	-0.61408,	 0.26283
	-0.59891,	 0.28769
	-0.58215,	 0.31159
	-0.56382,	 0.33442
	-0.54393,	 0.35604
	-0.52254,	 0.37633
	-0.49967,	 0.39513
	-0.48771,	 0.40393
	-0.4754,	 0.4123
	-0.46275,	 0.42023
	-0.44977,	 0.42768
	-0.43648,	 0.43464
	-0.42289,	 0.44109
	-0.40901,	 0.44699
	-0.39485,	 0.45234
	-0.38043,	 0.45709
	-0.36578,	 0.46124
	-0.35091,	 0.46474
	-0.33585,	 0.46758
	-0.32063,	 0.46973
	-0.30526,	 0.47116
	-0.28979,	 0.47185
	-0.27425,	 0.47176
	-0.26386,	 0.47127
	-0.25348,	 0.47041
	-0.2431,	 0.46919
	-0.23275,	 0.46759
	-0.22244,	 0.4656
	-0.21218,	 0.46323
	-0.20199,	 0.46047
	-0.19188,	 0.4573
	-0.18188,	 0.45374
	-0.17201,	 0.44976
	-0.16228,	 0.44537
	-0.15271,	 0.44057
	-0.14332,	 0.43535
	-0.13414,	 0.42972
	-0.12519,	 0.42367
	-0.1165,	 0.41721
	-0.10808,	 0.41033
	-0.099973,	 0.40306
	-0.092189,	 0.39538
	-0.08476,	 0.3873
	-0.077713,	 0.37885
	-0.071076,	 0.37003
	-0.064876,	 0.36084
	-0.059139,	 0.35132
	-0.053893,	 0.34148
	-0.049166,	 0.33133
	-0.044982,	 0.3209
	-0.041369,	 0.31021
	-0.038349,	 0.2993
	-0.035948,	 0.28819
	-0.034187,	 0.27692
	-0.033085,	 0.26552
	-0.032662,	 0.25402
	-0.032932,	 0.24247
	-0.03391,	 0.23091
	-0.035607,	 0.21937
	-0.038029,	 0.20792
	-0.041181,	 0.19659
	-0.045063,	 0.18542
	-0.049673,	 0.17448
	-0.055004,	 0.16381
	-0.061045,	 0.15345
	-0.067782,	 0.14345
	-0.075194,	 0.13388
	-0.08326,	 0.12476
	-0.091953,	 0.11615
	-0.10124,	 0.10809
	-0.11109,	 0.10062
END
BEGIN
	 0.999930833204914160106113740767 ,	 -0 
	 0.999930833204923485979520592082 ,	 -8.39469477763830906891229233224e-09 
	 0.999930833204918378953607316362 ,	 -8.39469462756304435346876857693e-08 
	 0.999930833204413449522007795167 ,	 -8.39469462902238047763425754511e-07 
	 0.999930833153890419318088333966 ,	 -8.39469462797460749814426606008e-06 
	 0.999930833124040518988806525158 ,	 -1.05682943903869300261710861832e-05 
	 0.999930833076733027731108904845 ,	 -1.33046943653096147452963293745e-05 
	 0.999930833001755003941468658013 ,	 -1.67496178282500792627862651329e-05 
	 0.999930832882923059656832265318 ,	 -2.1086519513236487780027950123e-05 
	 0.999930832694587712339284735208 ,	 -2.65463552443451298451515540933e-05 
	 0.999930832396095592429219323094 ,	 -3.34198811743060750223399679726e-05 
	 0.999930831923017460205471707013 ,	 -4.20731376017697156904917576981e-05 
	 0.999930831173239442755118489004 ,	 -5.29669419466556514602961769356e-05 
	 0.999930829984920443997964412119 ,	 -6.66814289334875451298323412175e-05 
	 0.999930828101563085041902922967 ,	 -8.39469448444814074494768618706e-05 
	 0.999930825116643773320390664594 ,	 -0.000105682941039612508446476901725 
	 0.999930820385866114818895766803 ,	 -0.000133046937938958434108349671021 
	 0.999930812888092823698116262676 ,	 -0.000167496166884524479850915312795 
	 0.999930801004934366460474848282 ,	 -0.000210865172392720075233984999841 
	 0.999930782171422949389238965523 ,	 -0.000265463507074190216070141978832 
	 0.999930752322382598862304803333 ,	 -0.000334198721214519923333741147076 
	 0.999930705015003362667869168945 ,	 -0.000420731195396453717602613942006 
	 0.999930630038265766401650580519 ,	 -0.000529669059080599326921889868913 
	 0.999930511209164762931322911754 ,	 -0.000666813570283943807259774416707 
	 0.99993032288029248810801163927 ,	 -0.000839468013784037828464712482912 
	 0.999930024405577877466555491992 ,	 -0.00105682654799325978674240378297 
	 0.999929551371190439290614904166 ,	 -0.00133046366850555304248149290913 
	 0.999928801702780978288842561597 ,	 -0.00167495027528675099678934223846 
	 0.999927613660298142406190891052 ,	 -0.00210862899443543024696756660319 
	 0.999925730995615991147928980354 ,	 -0.00265458973097878157820783684429 
	 0.999922747815056855991144857398 ,	 -0.00334189678384944413580548427944 
	 0.999918021402591117308134016639 ,	 -0.00420713164085056295915521218376 
