CITIFILE A.01.01
#Momentum: B.12.070 (*) built: Feb 13 2020 
#Momentum Date and Time: Mon Aug 15 06:16:20 2022

NAME Momentum.SP

#  mode: MW    reference: S_50

#eesof Port[1] P1
#eesof Port[2] P2

CONSTANT NBR_OF_PORTS 2

CONSTANT NORMALIZATION 1

VAR freq MAG 431

DATA S[1,1] RI
DATA S[1,2] RI
DATA S[2,1] RI
DATA S[2,2] RI
DATA PORTZ[1] RI
DATA PORTZ[2] RI

VAR_LIST_BEGIN
	 0
	 8.701167245
	 87.01167245
	 870.1167245
	 8701.167245
	 10954.12056
	 13790.42073
	 17361.1111
	 21856.34394
	 27515.5068
	 34639.97072
	 43609.13941
	 54900.65379
	 69115.82818
	 87011.67245
	 109541.2056
	 137904.2073
	 173611.111
	 218563.4394
	 275155.068
	 346399.7072
	 436091.3941
	 549006.5379
	 691158.2818
	 870116.7245
	 1095412.056
	 1379042.073
	 1736111.11
	 2185634.394
	 2751550.68
	 3463997.072
	 4360913.941
	 5490065.379
	 6911582.818
	 8701167.245
	 10954120.56
	 13790420.73
	 17361111.1
	 19629339.22
	 21908241.11
	 27580841.47
	 34722222.2
	 42541975.04
	 52083333.3
	 60365357.38
	 69444444.4
	 86805555.5
	 104166666.6
	 121527777.7
	 138888888.8
	 159825084.6
	 182291666.6
	 225694444.3
	 269097222.1
	 312499999.9
	 355902777.6
	 399305555.4
	 442708333.1
	 486111110.9
	 529513888.7
	 572916666.4
	 616319444.2
	 659722222
	 703124999.7
	 746527777.5
	 789930555.2
	 833333333
	 859374999.7
	 885416666.3
	 911458333
	 937499999.6
	 963541666.3
	 989583332.9
	 1015625000
	 1041666666
	 1067708333
	 1093750000
	 1119791666
	 1145833333
	 1171875000
	 1197916666
	 1223958333
	 1250000000
	 1276041666
	 1302083333
	 1328124999
	 1354166666
	 1380208333
	 1406249999
	 1432291666
	 1458333333
	 1484374999
	 1510416666
	 1536458333
	 1562499999
	 1588541666
	 1614583333
	 1640624999
	 1666666666
	 1718749999
	 1770833333
	 1822916666
	 1874999999
	 1927083333
	 1979166666
	 2031249999
	 2083333333
	 2135416666
	 2187499999
	 2239583333
	 2291666666
	 2343749999
	 2395833333
	 2447916666
	 2500000000
	 2552083333
	 2604166666
	 2656250000
	 2708333333
	 2760416666
	 2812500000
	 2864583333
	 2916666666
	 2968750000
	 3020833333
	 3072916666
	 3125000000
	 3177083333
	 3229166666
	 3281250000
	 3333333333
	 3385416666
	 3437500000
	 3489583333
	 3541666666
	 3593750000
	 3645833333
	 3697916666
	 3750000000
	 3802083333
	 3854166666
	 3906250000
	 3958333333
	 4010416666
	 4062500000
	 4114583333
	 4166666666
	 4218750000
	 4270833333
	 4322916667
	 4375000000
	 4427083333
	 4479166667
	 4531250000
	 4583333333
	 4635416667
	 4687500000
	 4739583333
	 4791666667
	 4843750000
	 4895833333
	 4947916667
	 5000000000
	 5052083333
	 5104166667
	 5156250000
	 5208333333
	 5260416667
	 5312500000
	 5364583333
	 5416666667
	 5468750000
	 5520833333
	 5572916667
	 5625000000
	 5677083333
	 5729166667
	 5781250000
	 5833333334
	 5885416667
	 5937500000
	 5989583334
	 6041666667
	 6093750000
	 6145833334
	 6197916667
	 6250000000
	 6302083334
	 6354166667
	 6406250000
	 6458333334
	 6510416667
	 6562500000
	 6614583334
	 6666666667
	 6718750000
	 6770833334
	 6822916667
	 6875000000
	 6927083334
	 6979166667
	 7031250000
	 7083333334
	 7135416667
	 7187500000
	 7239583334
	 7291666667
	 7343750000
	 7395833334
	 7447916667
	 7500000000
	 7552083334
	 7604166667
	 7656250001
	 7708333334
	 7760416667
	 7812500001
	 7864583334
	 7916666667
	 7942708334
	 7968750001
	 7994791667
	 8020833334
	 8046875001
	 8072916667
	 8098958334
	 8125000001
	 8151041667
	 8177083334
	 8203125001
	 8229166667
	 8255208334
	 8281250001
	 8307291667
	 8333333334
	 8350694445
	 8368055556
	 8385416667
	 8402777778
	 8420138890
	 8437500001
	 8454861112
	 8472222223
	 8489583334
	 8506944445
	 8524305556
	 8541666668
	 8559027779
	 8576388890
	 8593750001
	 8611111112
	 8625578705
	 8640046297
	 8654513890
	 8668981482
	 8676215279
	 8683449075
	 8690682871
	 8697916668
	 8705150464
	 8712384260
	 8719618056
	 8726851853
	 8734085649
	 8741319445
	 8748553242
	 8755787038
	 8759403936
	 8763020834
	 8766637732
	 8770254631
	 8773871529
	 8777488427
	 8781105325
	 8784722223
	 8788339121
	 8791956019
	 8795572918
	 8799189816
	 8802806714
	 8806423612
	 8810040510
	 8813657408
	 8817274306
	 8820891205
	 8824508103
	 8828125001
	 8831741899
	 8835358797
	 8838975695
	 8842592594
	 8846209492
	 8849826390
	 8853443288
	 8857060186
	 8860677084
	 8864293982
	 8867910881
	 8871527779
	 8875144677
	 8878761575
	 8882378473
	 8885995371
	 8889612269
	 8893229168
	 8896846066
	 8900462964
	 8904079862
	 8907696760
	 8911313658
	 8914930556
	 8918547455
	 8922164353
	 8925781251
	 8929398149
	 8931206598
	 8933015047
	 8934823496
	 8936631945
	 8938440394
	 8940248844
	 8942057293
	 8943865742
	 8945674191
	 8947482640
	 8949291089
	 8951099538
	 8952907987
	 8954716436
	 8956524885
	 8958333334
	 8960141783
	 8961950232
	 8963758681
	 8965567131
	 8967375580
	 8969184029
	 8970992478
	 8972800927
	 8976417825
	 8980034723
	 8983651621
	 8987268519
	 8990885418
	 8994502316
	 8998119214
	 9001736112
	 9005353010
	 9008969908
	 9012586806
	 9016203705
	 9019820603
	 9023437501
	 9027054399
	 9030671297
	 9034288195
	 9037905094
	 9041521992
	 9045138890
	 9048755788
	 9052372686
	 9055989584
	 9059606482
	 9063223381
	 9066840279
	 9070457177
	 9074074075
	 9077690973
	 9081307871
	 9084924769
	 9088541668
	 9092158566
	 9095775464
	 9099392362
	 9103009260
	 9110243056
	 9117476853
	 9124710649
	 9131944445
	 9139178242
	 9146412038
	 9153645834
	 9160879630
	 9168113427
	 9175347223
	 9182581019
	 9189814816
	 9197048612
	 9204282408
	 9211516204
	 9218750001
	 9225983797
	 9233217593
	 9240451390
	 9247685186
	 9262152779
	 9276620371
	 9291087964
	 9305555556
	 9320023149
	 9334490741
	 9348958334
	 9363425927
	 9377893519
	 9392361112
	 9406828704
	 9421296297
	 9435763889
	 9450231482
	 9464699075
	 9479166667
	 9493634260
	 9508101852
	 9522569445
	 9537037038
	 9565972223
	 9594907408
	 9623842593
	 9652777778
	 9681712963
	 9710648148
	 9739583334
	 9768518519
	 9797453704
	 9826388889
	 9855324074
	 9884259259
	 9913194445
	 9942129630
	 9971064815
	 1e+10
VAR_LIST_END

BEGIN
	 0.999999999999998778754672912328 ,	 -0 
	 0.999999999999998334665463062265 ,	 -2.32833034796708915337148937397e-09 
	 0.999999999999997890576253212203 ,	 -2.32833053115388821652231854387e-08 
	 0.999999999999953592677570668457 ,	 -2.32833057153825073726238770178e-07 
	 0.999999999995512256489860192232 ,	 -2.32833056489079037731926291599e-06 
	 0.999999999992888577438066022296 ,	 -2.93119451490186921915892526158e-06 
	 0.999999999988730015054727573443 ,	 -3.69015526173466223980312861386e-06 
	 0.999999999982139398113645256672 ,	 -4.64563023215569526058743576868e-06 
	 0.999999999971694419897971783939 ,	 -5.84850195274599915506996694603e-06 
	 0.99999999995513899619936637464 ,	 -7.36282772764718096425440307939e-06 
	 0.999999999928900984436097587604 ,	 -9.26925092684105500495661544846e-06 
	 0.999999999887317359004157424351 ,	 -1.16692955364761097314385551726e-05 
	 0.99999999982141074550412440658 ,	 -1.46907726814998751407870258845e-05 
	 0.999999999716956966544501028693 ,	 -1.84945870326108652292873557599e-05 
	 0.999999999551407503517452823871 ,	 -2.3283305565252598867687083839e-05 
	 0.999999999289029828375419128861 ,	 -2.9311944988286153801482214476e-05 
	 0.999999998873190243386943620862 ,	 -3.69015522968529907643642218318e-05 
	 0.999999998214127661100292243646 ,	 -4.64563016845803700149986070755e-05 
	 0.999999997169584542433540264028 ,	 -5.84850182580726185577191245102e-05 
	 0.999999995514096795545810891781 ,	 -7.36282747543365312381524745433e-05 
	 0.999999992890327149552831542678 ,	 -9.26925042425003065105215682706e-05 
	 0.999999988731937183850106976024 ,	 -0.00011669294533517282630441513902 
	 0.999999982141346333008868896286 ,	 -0.000146907706800841753036479531147 
	 0.999999971695995304443727036414 ,	 -0.000184945830396868182710079508979 
	 0.999999955141311236417323016212 ,	 -0.000232832975997410152046995790442 
	 0.999999928904107271421253244625 ,	 -0.000293119290939392040939992511994 
	 0.999999887321450064980865590769 ,	 -0.000369015205839678950283655467501 
	 0.999999821418658951799329770438 ,	 -0.000464562384121444682527624081558 
	 0.999999716972984842300320451614 ,	 -0.000584848920189381948908646791097 
	 0.999999551445813317229749372927 ,	 -0.000736280228947186476951003442082 
	 0.999999289123179591065593285748 ,	 -0.000926920017761706516168374037079 
	 0.999998873420681166912515891454 ,	 -0.00116691942979020579773674626267 
	 0.9999982147042859592644958866 ,	 -0.00146905707455809164674320754784 
	 0.999997171029510245610083529755 ,	 -0.00184941843135258410235621795437 
	 0.999995517719868276529382455919 ,	 -0.00232825026540871282687561460989 
	 0.999992899413611358028219910921 ,	 -0.00293103449179625552556416323569 
	 0.999988754713816430097494958318 ,	 -0.00368983658811483650197260431014 
	 0.999982198376849984455816411355 ,	 -0.00464499632812190310637845414021 
	 0.99997726304693523857736181526 ,	 -0.00525166739956266226396763840967 
	 0.999971705317117987021902081324 ,	 -0.00586112137848024405961666616349 
	 0.999955286653765984539177225088 ,	 -0.00737780038065077858888685113925 
	 0.999929455905380293323503337888 ,	 -0.00928631143297600769592747838033 
	 0.999894741049684343536796404806 ,	 -0.0113747766037786829373956720701 
	 0.999843602142015286382559224876 ,	 -0.0139208313208921685699692716298 
	 0.999791718577847987603490764741 ,	 -0.0161286405520928849410822181198 
	 0.999727227434906717817852950247 ,	 -0.0185463967875282298436445671541 
	 0.999583185182059907880613991438 ,	 -0.0231619229704449341999961120564 
	 0.999414160591959421786611983407 ,	 -0.02776727940428587448895569878 
	 0.999222395581554900800824725593 ,	 -0.0323630318006505462991029276054 
	 0.999009579278253401213305551209 ,	 -0.036950153784468489637227150979 
	 0.998726540464011103281904979667 ,	 -0.0424720146732169706593751357104 
	 0.998391902831360700254492712702 ,	 -0.0483876049678037406520658691989 
	 0.997656346465656374000730011176 ,	 -0.0597939355987594928221184886752 
	 0.996802306506729518531528810854 ,	 -0.0711793078791300576346756656676 
	 0.995826822506643116739155630057 ,	 -0.0825485410436739563966312971388 
	 0.994727050309802574012962850247 ,	 -0.0939030260879089445635869992657 
	 0.993500924333042267910798273078 ,	 -0.105242251725861074573842302016 
	 0.992147162153902084646972525661 ,	 -0.116564722014816435358142143741 
	 0.990665099905121748768976885913 ,	 -0.127868457905291332821207106463 
	 0.98905,	-0.13915
	 0.98731,	-0.15041
	 0.98544,	-0.16164
	 0.98345,	-0.17285
	 0.98133,	-0.18402
	 0.97908,	-0.19517
	 0.9767,	-0.20628
	 0.97421,	-0.21735
	 0.97265,	-0.22398
	 0.97104,	-0.23059
	 0.9694,	-0.23719
	 0.9677,	-0.24377
	 0.96597,	-0.25034
	 0.96419,	-0.25689
	 0.96236,	-0.26343
	 0.9605,	-0.26995
	 0.95859,	-0.27645
	 0.95663,	-0.28294
	 0.95464,	-0.28941
	 0.9526,	-0.29586
	 0.95051,	-0.3023
	 0.94839,	-0.30871
	 0.94622,	-0.31511
	 0.94402,	-0.32149
	 0.94177,	-0.32785
	 0.93947,	-0.33419
	 0.93714,	-0.34051
	 0.93477,	-0.34681
	 0.93235,	-0.35309
	 0.9299,	-0.35934
	 0.9274,	-0.36558
	 0.92487,	-0.3718
	 0.92229,	-0.37799
	 0.91967,	-0.38417
	 0.91702,	-0.39032
	 0.91432,	-0.39645
	 0.91159,	-0.40256
	 0.90881,	-0.40864
	 0.906,	-0.4147
	 0.90315,	-0.42074
	 0.89733,	-0.43275
	 0.89136,	-0.44465
	 0.88524,	-0.45646
	 0.87898,	-0.46818
	 0.87256,	-0.47978
	 0.86601,	-0.49129
	 0.85931,	-0.50269
	 0.85247,	-0.51398
	 0.84549,	-0.52516
	 0.83837,	-0.53623
	 0.83113,	-0.54719
	 0.82374,	-0.55803
	 0.81623,	-0.56876
	 0.80859,	-0.57937
	 0.80083,	-0.58986
	 0.79294,	-0.60023
	 0.78492,	-0.61048
	 0.77679,	-0.62061
	 0.76854,	-0.63061
	 0.76018,	-0.64048
	 0.7517,	-0.65023
	 0.74311,	-0.65984
	 0.73442,	-0.66933
	 0.72561,	-0.67869
	 0.7167,	-0.68791
	 0.70769,	-0.697
	 0.69858,	-0.70596
	 0.68937,	-0.71478
	 0.68007,	-0.72346
	 0.67068,	-0.732
	 0.66119,	-0.74041
	 0.65162,	-0.74868
	 0.64195,	-0.75681
	 0.63221,	-0.7648
	 0.62238,	-0.77264
	 0.61248,	-0.78035
	 0.6025,	-0.78791
	 0.59244,	-0.79532
	 0.58231,	-0.8026
	 0.57211,	-0.80973
	 0.56185,	-0.81671
	 0.55151,	-0.82355
	 0.54112,	-0.83025
	 0.53066,	-0.83679
	 0.52015,	-0.8432
	 0.50958,	-0.84945
	 0.49895,	-0.85556
	 0.48827,	-0.86152
	 0.47754,	-0.86734
	 0.46677,	-0.873
	 0.45595,	-0.87852
	 0.44508,	-0.8839
	 0.43418,	-0.88912
	 0.42323,	-0.8942
	 0.41225,	-0.89913
	 0.40123,	-0.90391
	 0.39018,	-0.90855
	 0.3791,	-0.91304
	 0.36799,	-0.91738
	 0.35686,	-0.92158
	 0.3457,	-0.92562
	 0.33452,	-0.92953
	 0.32331,	-0.93329
	 0.31209,	-0.9369
	 0.30085,	-0.94036
	 0.2896,	-0.94369
	 0.27833,	-0.94686
	 0.26705,	-0.9499
	 0.25576,	-0.95279
	 0.24447,	-0.95553
	 0.23317,	-0.95814
	 0.22187,	-0.9606
	 0.21056,	-0.96292
	 0.19925,	-0.9651
	 0.18795,	-0.96713
	 0.17665,	-0.96903
	 0.16535,	-0.97079
	 0.15406,	-0.97241
	 0.14278,	-0.97389
	 0.13151,	-0.97524
	 0.12024,	-0.97645
	 0.109,	-0.97752
	 0.097767,	-0.97846
	 0.086549,	-0.97926
	 0.075349,	-0.97992
	 0.064168,	-0.98046
	 0.053007,	-0.98086
	 0.041869,	-0.98113
	 0.030753,	-0.98127
	 0.019662,	-0.98128
	 0.0085974,	-0.98116
	-0.0024399,	-0.98091
	-0.013449,	-0.98053
	-0.024427,	-0.98003
	-0.035374,	-0.9794
	-0.046289,	-0.97864
	-0.05717,	-0.97776
	-0.068016,	-0.97676
	-0.078825,	-0.97563
	-0.089598,	-0.97438
	-0.10033,	-0.97301
	-0.11102,	-0.97152
	-0.12167,	-0.96992
	-0.13228,	-0.96819
	-0.14285,	-0.96634
	-0.15338,	-0.96438
	-0.16386,	-0.9623
	-0.17429,	-0.96011
	-0.18468,	-0.9578
	-0.19502,	-0.95538
	-0.20531,	-0.95285
	-0.21554,	-0.9502
	-0.22573,	-0.94745
	-0.23587,	-0.94458
	-0.24596,	-0.94161
	-0.25599,	-0.93852
	-0.26596,	-0.93533
	-0.27589,	-0.93204
	-0.28575,	-0.92863
	-0.29556,	-0.92513
	-0.30044,	-0.92333
	-0.30531,	-0.92152
	-0.31017,	-0.91967
	-0.31501,	-0.9178
	-0.31983,	-0.91591
	-0.32464,	-0.91399
	-0.32943,	-0.91204
	-0.33421,	-0.91007
	-0.33898,	-0.90807
	-0.34372,	-0.90605
	-0.34846,	-0.904
	-0.35318,	-0.90193
	-0.35788,	-0.89984
	-0.36256,	-0.89772
	-0.36723,	-0.89557
	-0.37189,	-0.8934
	-0.37498,	-0.89194
	-0.37807,	-0.89047
	-0.38114,	-0.88899
	-0.38422,	-0.8875
	-0.38728,	-0.886
	-0.39034,	-0.88449
	-0.39339,	-0.88296
	-0.39643,	-0.88143
	-0.39946,	-0.87989
	-0.40249,	-0.87833
	-0.40551,	-0.87677
	-0.40852,	-0.8752
	-0.41152,	-0.87362
	-0.41451,	-0.87202
	-0.4175,	-0.87042
	-0.42048,	-0.86881
	-0.42296,	-0.86747
	-0.42543,	-0.86611
	-0.42789,	-0.86475
	-0.43036,	-0.86339
	-0.43158,	-0.8627
	-0.43281,	-0.86202
	-0.43404,	-0.86133
	-0.43526,	-0.86064
	-0.43649,	-0.85995
	-0.43771,	-0.85926
	-0.43893,	-0.85857
	-0.44016,	-0.85788
	-0.44138,	-0.85718
	-0.4426,	-0.85649
	-0.44381,	-0.85579
	-0.44503,	-0.85509
	-0.44564,	-0.85474
	-0.44625,	-0.85439
	-0.44686,	-0.85404
	-0.44747,	-0.85369
	-0.44808,	-0.85334
	-0.44868,	-0.85299
	-0.44929,	-0.85264
	-0.4499,	-0.85229
	-0.45051,	-0.85194
	-0.45112,	-0.85158
	-0.45173,	-0.85123
	-0.45233,	-0.85088
	-0.45294,	-0.85053
	-0.45355,	-0.85017
	-0.45416,	-0.84982
	-0.45477,	-0.84946
	-0.45537,	-0.84911
	-0.45598,	-0.84875
	-0.45659,	-0.84839
	-0.4572,	-0.84804
	-0.45781,	-0.84768
	-0.45841,	-0.84732
	-0.45902,	-0.84696
	-0.45963,	-0.8466
	-0.46024,	-0.84624
	-0.46085,	-0.84588
	-0.46145,	-0.84552
	-0.46206,	-0.84516
	-0.46267,	-0.8448
	-0.46328,	-0.84444
	-0.46389,	-0.84407
	-0.46449,	-0.84371
	-0.4651,	-0.84334
	-0.46571,	-0.84298
	-0.46631,	-0.84261
	-0.46692,	-0.84224
	-0.46753,	-0.84187
	-0.46813,	-0.8415
	-0.46874,	-0.84113
	-0.46935,	-0.84076
	-0.46995,	-0.84039
	-0.47056,	-0.84002
	-0.47116,	-0.83965
	-0.47177,	-0.83927
	-0.47237,	-0.8389
	-0.47298,	-0.83852
	-0.47358,	-0.83815
	-0.47418,	-0.83777
	-0.47448,	-0.83758
	-0.47478,	-0.83739
	-0.47509,	-0.83721
	-0.47539,	-0.83702
	-0.47569,	-0.83683
	-0.47599,	-0.83664
	-0.47629,	-0.83645
	-0.47659,	-0.83626
	-0.47689,	-0.83607
	-0.47719,	-0.83588
	-0.47749,	-0.83569
	-0.47779,	-0.8355
	-0.47809,	-0.83531
	-0.47839,	-0.83511
	-0.47869,	-0.83492
	-0.47899,	-0.83473
	-0.47929,	-0.83454
	-0.47959,	-0.83435
	-0.47989,	-0.83416
	-0.48019,	-0.83397
	-0.48049,	-0.83377
	-0.48079,	-0.83358
	-0.48109,	-0.83339
	-0.48138,	-0.8332
	-0.48198,	-0.83281
	-0.48258,	-0.83243
	-0.48317,	-0.83204
	-0.48377,	-0.83165
	-0.48436,	-0.83126
	-0.48496,	-0.83088
	-0.48555,	-0.83049
	-0.48615,	-0.8301
	-0.48674,	-0.82971
	-0.48733,	-0.82932
	-0.48792,	-0.82893
	-0.48851,	-0.82854
	-0.48911,	-0.82815
	-0.4897,	-0.82775
	-0.49029,	-0.82736
	-0.49088,	-0.82697
	-0.49146,	-0.82657
	-0.49205,	-0.82618
	-0.49264,	-0.82579
	-0.49323,	-0.82539
	-0.49381,	-0.825
	-0.4944,	-0.8246
	-0.49499,	-0.8242
	-0.49557,	-0.82381
	-0.49616,	-0.82341
	-0.49674,	-0.82301
	-0.49733,	-0.82262
	-0.49791,	-0.82222
	-0.49849,	-0.82182
	-0.49908,	-0.82142
	-0.49966,	-0.82102
	-0.50024,	-0.82062
	-0.50082,	-0.82022
	-0.5014,	-0.81982
	-0.50198,	-0.81942
	-0.50256,	-0.81902
	-0.50372,	-0.81822
	-0.50488,	-0.81741
	-0.50604,	-0.8166
	-0.50719,	-0.8158
	-0.50834,	-0.81499
	-0.50949,	-0.81417
	-0.51064,	-0.81336
	-0.51179,	-0.81255
	-0.51294,	-0.81173
	-0.51408,	-0.81091
	-0.51523,	-0.81009
	-0.51637,	-0.80927
	-0.51751,	-0.80845
	-0.51865,	-0.80763
	-0.51978,	-0.8068
	-0.52092,	-0.80598
	-0.52205,	-0.80515
	-0.52319,	-0.80432
	-0.52432,	-0.80349
	-0.52545,	-0.80265
	-0.5277,	-0.80098
	-0.52995,	-0.79931
	-0.5322,	-0.79763
	-0.53444,	-0.79594
	-0.53667,	-0.79424
	-0.5389,	-0.79254
	-0.54112,	-0.79083
	-0.54334,	-0.78912
	-0.54555,	-0.7874
	-0.54775,	-0.78567
	-0.54995,	-0.78394
	-0.55215,	-0.7822
	-0.55433,	-0.78045
	-0.55652,	-0.7787
	-0.55869,	-0.77694
	-0.56086,	-0.77517
	-0.56303,	-0.7734
	-0.56519,	-0.77163
	-0.56735,	-0.76984
	-0.56949,	-0.76805
	-0.57377,	-0.76445
	-0.57803,	-0.76082
	-0.58227,	-0.75717
	-0.58648,	-0.75349
	-0.59067,	-0.74979
	-0.59484,	-0.74606
	-0.59898,	-0.74231
	-0.6031,	-0.73853
	-0.6072,	-0.73472
	-0.61127,	-0.73089
	-0.61533,	-0.72704
	-0.61935,	-0.72316
	-0.62336,	-0.71925
	-0.62734,	-0.71532
	-0.6313,	-0.71136
	-0.63523,	-0.70737
END
BEGIN
	 7.59660876999999982409844900803e-18 ,	 0 
	 4.35220436000000000293918354416e-15 ,	 9.84671275000000012807751870699e-13 
	 4.34537388999999993516028705787e-15 ,	 9.84669918999999989362070888006e-12 
	 3.90627200999999990302878110395e-15 ,	 9.84670547000000061078942905976e-11 
	 -3.96589228000000029861162393186e-14 ,	 9.84670486000000006478719077549e-10 
	 -6.54030865999999973882747748002e-14 ,	 1.23962665999999999918971584496e-09 
	 -1.06193266000000005094337349129e-13 ,	 1.5605973899999999207028994442e-09 
	 -1.7084814499999999851680584073e-13 ,	 1.96467550000000009832659240581e-09 
	 -2.73316200000000018344681699509e-13 ,	 2.4733795199999999229789320195e-09 
	 -4.35716892000000014607208269986e-13 ,	 3.11379952999999991287771589619e-09 
	 -6.93101933999999962471498473077e-13 ,	 3.92003974000000012390204992422e-09 
	 -1.10101521999999991425132367754e-12 ,	 4.93503446000000008495447727133e-09 
	 -1.7474829100000000862422048375e-12 ,	 6.21283391999999961549656004992e-09 
	 -2.77197080000000000895330496936e-12 ,	 7.82148177999999941152651312861e-09 
	 -4.39545535000000007586003420127e-12 ,	 9.84663679000000061718495696951e-09 
	 -6.96794825e-12 ,	 1.23961307e-08 
	 -1.10436989e-11 ,	 1.5605703e-08 
	 -1.74998318e-11 ,	 1.96462147e-08 
	 -2.77233515e-11 ,	 2.47327176e-08 
	 -4.39046043e-11 ,	 3.11358468e-08 
	 -6.94951725e-11 ,	 3.9196116e-08 
	 -1.09915897e-10 ,	 4.93418186e-08 
	 -1.7363494e-10 ,	 6.21113797e-08 
	 -2.73768409e-10 ,	 7.81811429e-08 
	 -4.30355904e-10 ,	 9.83996889e-08 
	 -6.73348924e-10 ,	 1.23829849e-07 
	 -1.04593663e-09 ,	 1.557996e-07 
	 -1.60677947e-09 ,	 1.95963174e-07 
	 -2.42761657e-09 ,	 2.46374729e-07 
	 -3.57972288e-09 ,	 3.09580328e-07 
	 -5.10135015e-09 ,	 3.88742084e-07 
	 -6.94521539e-09 ,	 4.878199e-07 
	 -8.92569322e-09 ,	 6.1183952e-07 
	 -1.07050574e-08 ,	 7.67251507e-07 
	 -1.18383382e-08 ,	 9.62344393e-07 
	 -1.18329484e-08 ,	 1.20767519e-06 
	 -1.01445097e-08 ,	 1.51654653e-06 
	 -6.06929912e-09 ,	 1.9056172e-06 
	 -2.57491882e-09 ,	 2.15288581e-06 
	 1.55750267e-09 ,	 2.40138133e-06 
	 1.43123947e-08 ,	 3.02006184e-06 
	 3.50379409e-08 ,	 3.79887077e-06 
	 6.34427554e-08 ,	 4.65118137e-06 
