CITIFILE A.01.01
#Momentum: B.12.070 (*) built: Feb 13 2020 
#Momentum Date and Time: Tue Aug 16 12:43:21 2022

NAME Momentum.SP

#  mode: MW    reference: S_50

#eesof Port[1] P1
#eesof Port[2] P2

CONSTANT NBR_OF_PORTS 2

CONSTANT NORMALIZATION 1

VAR freq MAG 444

DATA S[1,1] RI
DATA S[1,2] RI
DATA S[2,1] RI
DATA S[2,2] RI
DATA PORTZ[1] RI
DATA PORTZ[2] RI

VAR_LIST_BEGIN
	 0
	 9.193613824
	 91.93613824
	 919.3613824
	 9193.613824
	 11574.07407
	 14570.89596
	 18343.6712
	 23093.31382
	 29072.75961
	 36600.43586
	 46077.21879
	 58007.78164
	 73027.47039
	 91936.13824
	 115740.7407
	 145708.9596
	 183436.712
	 230933.1382
	 290727.5961
	 366004.3586
	 460772.1879
	 580077.8164
	 730274.7039
	 919361.3824
	 1157407.407
	 1457089.596
	 1834367.12
	 2309331.382
	 2907275.961
	 3660043.586
	 4607721.879
	 5800778.164
	 7302747.039
	 9193613.824
	 11574074.07
	 13086226.15
	 14605494.08
	 18387227.65
	 23148148.14
	 28361316.7
	 34722222.21
	 40243571.59
	 46296296.27
	 57870370.34
	 69444444.41
	 81018518.48
	 92592592.55
	 111882716
	 131172839.4
	 150462962.9
	 169753086.3
	 189043209.8
	 208333333.2
	 227623456.7
	 246913580.1
	 266203703.6
	 285493827
	 304783950.4
	 324074073.9
	 343364197.3
	 362654320.8
	 381944444.2
	 401234567.7
	 420524691.1
	 439814814.6
	 459104938.1
	 478395061.5
	 497685184.9
	 516975308.4
	 536265431.8
	 555555555.3
	 572916666.4
	 590277777.5
	 607638888.6
	 624999999.8
	 642361110.9
	 659722222
	 677083333.1
	 694444444.2
	 711805555.3
	 729166666.5
	 746527777.6
	 763888888.7
	 781249999.8
	 798611110.9
	 815972222
	 833333333.1
	 850694444.3
	 868055555.4
	 885416666.5
	 902777777.6
	 920138888.7
	 937499999.8
	 954861111
	 972222222.1
	 989583333.2
	 1006944444
	 1024305555
	 1041666667
	 1059027778
	 1076388889
	 1093750000
	 1111111111
	 1128472222
	 1145833333
	 1163194444
	 1180555555
	 1197916666
	 1215277778
	 1232638889
	 1250000000
	 1267361111
	 1284722222
	 1302083333
	 1319444444
	 1336805555
	 1354166666
	 1371527777
	 1388888888
	 1406250000
	 1423611111
	 1440972222
	 1458333333
	 1475694444
	 1493055555
	 1510416666
	 1527777777
	 1545138888
	 1562499999
	 1579861111
	 1597222222
	 1614583333
	 1631944444
	 1649305555
	 1666666666
	 1701388888
	 1736111110
	 1770833333
	 1805555555
	 1840277777
	 1874999999
	 1909722222
	 1944444444
	 1979166666
	 2013888888
	 2048611110
	 2083333333
	 2118055555
	 2152777777
	 2187499999
	 2222222222
	 2256944444
	 2291666666
	 2326388888
	 2361111110
	 2395833333
	 2430555555
	 2465277777
	 2499999999
	 2534722221
	 2569444444
	 2604166666
	 2638888888
	 2656249999
	 2673611110
	 2690972221
	 2708333333
	 2725694444
	 2743055555
	 2760416666
	 2777777777
	 2812499999
	 2847222222
	 2881944444
	 2916666666
	 2951388888
	 2986111110
	 3020833333
	 3055555555
	 3090277777
	 3125000000
	 3159722222
	 3194444444
	 3229166666
	 3263888888
	 3298611111
	 3333333333
	 3359375000
	 3385416666
	 3411458333
	 3437500000
	 3463541666
	 3489583333
	 3515625000
	 3541666666
	 3567708333
	 3593750000
	 3619791666
	 3645833333
	 3671875000
	 3697916666
	 3723958333
	 3750000000
	 3776041666
	 3802083333
	 3828125000
	 3854166666
	 3880208333
	 3906250000
	 3932291666
	 3958333333
	 3984375000
	 4010416666
	 4036458333
	 4062500000
	 4088541666
	 4114583333
	 4140625000
	 4166666666
	 4192708333
	 4218750000
	 4244791667
	 4270833333
	 4296875000
	 4322916667
	 4348958333
	 4375000000
	 4427083333
	 4479166667
	 4531250000
	 4583333333
	 4635416667
	 4687500000
	 4739583333
	 4791666667
	 4843750000
	 4895833333
	 4947916667
	 5000000000
	 5026041667
	 5052083333
	 5078125000
	 5104166667
	 5130208333
	 5156250000
	 5182291667
	 5208333334
	 5234375000
	 5260416667
	 5286458334
	 5312500000
	 5338541667
	 5364583334
	 5390625000
	 5416666667
	 5442708334
	 5468750000
	 5494791667
	 5520833334
	 5546875000
	 5572916667
	 5598958334
	 5625000000
	 5651041667
	 5677083334
	 5703125001
	 5729166667
	 5755208334
	 5781250001
	 5807291667
	 5833333334
	 5859375001
	 5885416667
	 5911458334
	 5937500001
	 5963541667
	 5989583334
	 6015625001
	 6041666667
	 6067708334
	 6093750001
	 6119791667
	 6145833334
	 6171875001
	 6197916667
	 6223958334
	 6250000000
	 6276041667
	 6302083334
	 6328125000
	 6354166667
	 6380208334
	 6406250000
	 6432291667
	 6458333334
	 6484375000
	 6510416667
	 6536458334
	 6562500000
	 6588541667
	 6614583334
	 6640625000
	 6666666667
	 6692708334
	 6718750000
	 6744791667
	 6770833334
	 6796875000
	 6822916667
	 6848958334
	 6875000000
	 6901041667
	 6927083334
	 6953125000
	 6979166667
	 7005208334
	 7031250000
	 7057291667
	 7083333334
	 7109375000
	 7135416667
	 7161458333
	 7187500000
	 7213541667
	 7239583333
	 7265625000
	 7291666667
	 7317708333
	 7343750000
	 7369791667
	 7395833333
	 7421875000
	 7447916667
	 7473958333
	 7500000000
	 7526041667
	 7552083333
	 7578125000
	 7604166667
	 7630208333
	 7656250000
	 7682291667
	 7708333334
	 7734375000
	 7760416667
	 7786458334
	 7812500000
	 7838541667
	 7864583334
	 7890625000
	 7916666667
	 7942708334
	 7968750000
	 7994791667
	 8020833334
	 8046875000
	 8072916667
	 8098958334
	 8125000000
	 8151041667
	 8177083334
	 8203125001
	 8229166667
	 8255208334
	 8281250001
	 8307291667
	 8333333334
	 8379629630
	 8425925927
	 8472222223
	 8518518519
	 8564814816
	 8611111112
	 8657407408
	 8703703704
	 8750000001
	 8796296297
	 8842592593
	 8888888890
	 8912037038
	 8935185186
	 8958333334
	 8981481482
	 9004629631
	 9027777779
	 9050925927
	 9074074075
	 9081790124
	 9089506174
	 9097222223
	 9104938272
	 9112654322
	 9120370371
	 9128086421
	 9135802470
	 9139660495
	 9143518519
	 9147376544
	 9151234569
	 9155092593
	 9158950618
	 9162808643
	 9166666668
	 9174382717
	 9182098766
	 9189814816
	 9197530865
	 9202674898
	 9207818931
	 9212962964
	 9218106997
	 9223251030
	 9228395063
	 9233539096
	 9238683128
	 9248971194
	 9259259260
	 9269547326
	 9279835392
	 9300411524
	 9320987655
	 9341563787
	 9362139918
	 9382716050
	 9403292182
	 9423868313
	 9444444445
	 9479166667
	 9513888889
	 9548611112
	 9583333334
	 9618055556
	 9652777778
	 9687500000
	 9722222222
	 9756944445
	 9791666667
	 9826388889
	 9861111111
	 9895833333
	 9930555556
	 9965277778
	 1e+10
VAR_LIST_END

BEGIN
	 4.17791671000000027738803531907e-05 ,	 -0 
	 4.17791671000000027738803531907e-05 ,	 -1.77029868999999993149445303922e-09 
	 4.17791671000000027738803531907e-05 ,	 -1.77029844000000014131484860113e-08 
	 4.17791669999999977524497707382e-05 ,	 -1.77029842000000000259052508611e-07 
	 4.17791556000000012917675040747e-05 ,	 -1.77029842000000000259052508611e-06 
	 4.17791488999999968928338034413e-05 ,	 -2.22867366000000010560185351172e-06 
	 4.17791382999999999460147281916e-05 ,	 -2.80573391000000006654797705952e-06 
	 4.17791213999999983571935480153e-05 ,	 -3.53220971000000010840496299236e-06 
	 4.1779094600000001090249479585e-05 ,	 -4.44678856000000035839612999577e-06 
	 4.17790521999999997504460225173e-05 ,	 -5.59817512000000041535530473369e-06 
	 4.17789850999999981735234799718e-05 ,	 -7.04768490000000016074089767559e-06 
	 4.17788785999999968219162371774e-05 ,	 -8.87250958999999960223007550164e-06 
	 4.17787097999999977528291783546e-05 ,	 -1.11698276999999994500397185182e-05 
	 4.17784423000000027566963600734e-05 ,	 -1.40619799000000005685445322867e-05 
	 4.17780184000000011563559498828e-05 ,	 -1.77029835999999995434749100465e-05 
	 4.17773465e-05 ,	 -2.22867355e-05 
	 4.17762817e-05 ,	 -2.80573368e-05 
	 4.1774594e-05 ,	 -3.53220926e-05 
	 4.17719193e-05 ,	 -4.44678767e-05 
	 4.176768e-05 ,	 -5.59817333e-05 
	 4.17609612e-05 ,	 -7.04768134e-05 
	 4.17503126e-05 ,	 -8.87250249e-05 
	 4.17334354e-05 ,	 -0.000111698136 
	 4.17066864e-05 ,	 -0.000140619516 
	 4.16642908e-05 ,	 -0.000177029272 
	 4.15970951e-05 ,	 -0.00022286623 
	 4.14905888e-05 ,	 -0.000280571124 
	 4.13217674e-05 ,	 -0.00035321645 
	 4.10541521e-05 ,	 -0.000444669837 
	 4.06298818e-05 ,	 -0.000559799526 
	 3.9957136e-05 ,	 -0.000704732633 
	 3.88900981e-05 ,	 -0.000887179509 
	 3.71969393e-05 ,	 -0.00111684051 
	 3.45084383e-05 ,	 -0.00140591505 
	 3.02349987e-05 ,	 -0.00176973673 
	 2.3431433e-05 ,	 -0.00222756196 
	 1.82752638e-05 ,	 -0.00251825256 
	 1.24336658e-05 ,	 -0.00281019039 
	 -5.03620526e-06 ,	 -0.00353628134 
	 -3.31382746e-05 ,	 -0.00444899047 
	 -7.20228169e-05 ,	 -0.00544639271 
	 -0.000131447575 ,	 -0.00666030021 
	 -0.000194105501 ,	 -0.00771114175 
	 -0.000274973056 ,	 -0.00886007572 
	-0.0004659,	-0.011048
	-0.000705,	-0.013226
	-0.0009921,	-0.015394
	-0.0013265,	-0.017551
	-0.0019865,	-0.021123
	-0.0027713,	-0.024665
	-0.0036772,	-0.028174
	-0.0047011,	-0.031647
	-0.0058403,	-0.035081
	-0.0070927,	-0.038473
	-0.0084562,	-0.041821
	-0.0099289,	-0.045121
	-0.011509,	-0.04837
	-0.013195,	-0.051566
	-0.014984,	-0.054705
	-0.016875,	-0.057785
	-0.018866,	-0.060802
	-0.020955,	-0.063753
	-0.023139,	-0.066636
	-0.025416,	-0.069447
	-0.027784,	-0.072184
	-0.030241,	-0.074844
	-0.032783,	-0.077425
	-0.035408,	-0.079923
	-0.038114,	-0.082337
	-0.040898,	-0.084664
	-0.043756,	-0.086901
	-0.046686,	-0.089047
	-0.049382,	-0.090899
	-0.052132,	-0.092673
	-0.054932,	-0.094368
	-0.057782,	-0.095983
	-0.060678,	-0.097517
	-0.063618,	-0.098968
	-0.0666,	-0.10033
	-0.069622,	-0.10161
	-0.07268,	-0.10281
	-0.075773,	-0.10392
	-0.078898,	-0.10495
	-0.082052,	-0.10588
	-0.085234,	-0.10673
	-0.088439,	-0.10749
	-0.091667,	-0.10815
	-0.094915,	-0.10873
	-0.098179,	-0.10922
	-0.10145,	-0.10961
	-0.10474,	-0.10992
	-0.10804,	-0.11013
	-0.11135,	-0.11025
	-0.11466,	-0.11028
	-0.11797,	-0.11022
	-0.12129,	-0.11007
	-0.12459,	-0.10982
	-0.1279,	-0.10949
	-0.13119,	-0.10906
	-0.13448,	-0.10854
	-0.13775,	-0.10793
	-0.141,	-0.10724
	-0.14424,	-0.10645
	-0.14746,	-0.10558
	-0.15066,	-0.10462
	-0.15383,	-0.10357
	-0.15697,	-0.10244
	-0.16009,	-0.10122
	-0.16317,	-0.099921
	-0.16622,	-0.098535
	-0.16923,	-0.097067
	-0.17221,	-0.095518
	-0.17515,	-0.093888
	-0.17804,	-0.09218
	-0.18089,	-0.090395
	-0.1837,	-0.088533
	-0.18646,	-0.086597
	-0.18917,	-0.084587
	-0.19182,	-0.082505
	-0.19443,	-0.080352
	-0.19697,	-0.07813
	-0.19947,	-0.07584
	-0.2019,	-0.073485
	-0.20428,	-0.071065
	-0.20659,	-0.068582
	-0.20884,	-0.066039
	-0.21103,	-0.063436
	-0.21315,	-0.060775
	-0.2152,	-0.058059
	-0.21718,	-0.055288
	-0.2191,	-0.052466
	-0.22095,	-0.049593
	-0.22272,	-0.046671
	-0.22442,	-0.043703
	-0.22605,	-0.040691
	-0.2276,	-0.037635
	-0.23047,	-0.031405
	-0.23304,	-0.025027
	-0.23528,	-0.018519
	-0.23721,	-0.011895
	-0.23881,	-0.0051743
	-0.24008,	 0.0016284
	-0.24102,	 0.008496
	-0.24163,	 0.015412
	-0.2419,	 0.022359
	-0.24184,	 0.029321
	-0.24144,	 0.036282
	-0.24071,	 0.043225
	-0.23964,	 0.050134
	-0.23826,	 0.056992
	-0.23654,	 0.063784
	-0.23451,	 0.070495
	-0.23217,	 0.077109
	-0.22951,	 0.083611
	-0.22656,	 0.089986
	-0.22331,	 0.096222
	-0.21978,	 0.1023
	-0.21597,	 0.10821
	-0.2119,	 0.11394
	-0.20757,	 0.11949
	-0.20299,	 0.12482
	-0.19818,	 0.12994
	-0.19314,	 0.13484
	-0.18789,	 0.1395
	-0.1852,	 0.14174
	-0.18245,	 0.14392
	-0.17966,	 0.14603
	-0.17682,	 0.14808
	-0.17394,	 0.15007
	-0.17102,	 0.15198
	-0.16806,	 0.15384
	-0.16506,	 0.15562
	-0.15896,	 0.15898
	-0.15273,	 0.16206
	-0.14639,	 0.16486
	-0.13995,	 0.16737
	-0.13342,	 0.16959
	-0.12683,	 0.17152
	-0.12018,	 0.17315
	-0.1135,	 0.17449
	-0.10679,	 0.17554
	-0.10007,	 0.17629
	-0.093371,	 0.17676
	-0.086686,	 0.17693
	-0.080037,	 0.17682
	-0.07344,	 0.17644
	-0.066907,	 0.17578
	-0.060453,	 0.17486
	-0.055672,	 0.17399
	-0.050948,	 0.17299
	-0.046285,	 0.17184
	-0.04169,	 0.17056
	-0.037166,	 0.16915
	-0.032718,	 0.16761
	-0.028351,	 0.16595
	-0.024069,	 0.16417
	-0.019875,	 0.16228
	-0.015773,	 0.16028
	-0.011767,	 0.15817
	-0.0078591,	 0.15597
	-0.0040528,	 0.15368
	-0.00035057,	 0.15129
	 0.0032454,	 0.14883
	 0.0067331,	 0.14628
	 0.010111,	 0.14367
	 0.013377,	 0.141
	 0.016531,	 0.13826
	 0.019572,	 0.13547
	 0.022499,	 0.13263
	 0.025312,	 0.12975
	 0.028011,	 0.12684
	 0.030596,	 0.12389
	 0.033069,	 0.12092
	 0.03543,	 0.11793
	 0.037681,	 0.11492
	 0.039823,	 0.11191
	 0.041858,	 0.1089
	 0.043788,	 0.10589
	 0.045616,	 0.10288
	 0.047344,	 0.099893
	 0.048975,	 0.096916
	 0.050513,	 0.093961
	 0.051961,	 0.091032
	 0.053322,	 0.088132
	 0.054601,	 0.085266
	 0.055801,	 0.082437
	 0.056927,	 0.079648
	 0.057983,	 0.076903
	 0.059904,	 0.071554
	 0.061604,	 0.066409
	 0.063122,	 0.061483
	 0.064501,	 0.056785
	 0.065783,	 0.05232
	 0.067013,	 0.048086
	 0.068232,	 0.044079
	 0.069484,	 0.040285
	 0.070809,	 0.03669
	 0.072248,	 0.03327
	 0.073837,	 0.03
	 0.07561,	 0.026848
	 0.076575,	 0.025305
	 0.077598,	 0.023777
	 0.078681,	 0.02226
	 0.079828,	 0.020748
	 0.081041,	 0.019235
	 0.082322,	 0.017715
	 0.083674,	 0.016183
	 0.085097,	 0.014632
	 0.086595,	 0.013056
	 0.088166,	 0.011448
	 0.089813,	 0.0098006
	 0.091535,	 0.008108
	 0.093333,	 0.0063629
	 0.095204,	 0.0045581
	 0.09715,	 0.0026866
	 0.099167,	 0.00074112
	 0.10125,	-0.0012855
	 0.10341,	-0.0034005
	 0.10563,	-0.005611
	 0.10791,	-0.0079242
	 0.11025,	-0.010347
	 0.11265,	-0.012887
	 0.11509,	-0.015551
	 0.11759,	-0.018345
	 0.12012,	-0.021276
	 0.12268,	-0.02435
	 0.12527,	-0.027574
	 0.12789,	-0.030953
	 0.13051,	-0.034493
	 0.13314,	-0.0382
	 0.13577,	-0.042079
	 0.13839,	-0.046133
	 0.14099,	-0.050368
	 0.14356,	-0.054787
	 0.1461,	-0.059394
	 0.14858,	-0.064192
	 0.15101,	-0.069183
	 0.15337,	-0.074369
	 0.15565,	-0.079752
	 0.15784,	-0.085332
	 0.15993,	-0.09111
	 0.1619,	-0.097087
	 0.16375,	-0.10325
	 0.16547,	-0.10962
	 0.16704,	-0.11618
	 0.16845,	-0.12294
	 0.16969,	-0.12988
	 0.17074,	-0.137
	 0.1716,	-0.1443
	 0.17226,	-0.15177
	 0.1727,	-0.15941
	 0.17291,	-0.16721
	 0.17288,	-0.17516
	 0.1726,	-0.18326
	 0.17206,	-0.19149
	 0.17125,	-0.19985
	 0.17016,	-0.20832
	 0.16878,	-0.2169
	 0.1671,	-0.22557
	 0.16512,	-0.23433
	 0.16282,	-0.24315
	 0.1602,	-0.25204
	 0.15726,	-0.26096
	 0.15398,	-0.26992
	 0.15036,	-0.27889
	 0.14641,	-0.28787
	 0.1421,	-0.29683
	 0.13745,	-0.30577
	 0.13245,	-0.31466
	 0.12709,	-0.3235
	 0.12138,	-0.33226
	 0.11532,	-0.34093
	 0.10891,	-0.3495
	 0.10214,	-0.35794
	 0.095038,	-0.36625
	 0.087582,	-0.37441
	 0.079786,	-0.3824
	 0.071655,	-0.39022
	 0.063195,	-0.39783
	 0.054411,	-0.40523
	 0.045311,	-0.41241
	 0.035902,	-0.41935
	 0.026194,	-0.42604
	 0.016195,	-0.43246
	 0.005914,	-0.4386
	-0.0046377,	-0.44446
	-0.01545,	-0.45001
	-0.026511,	-0.45525
	-0.037809,	-0.46017
	-0.049333,	-0.46475
	-0.06107,	-0.46899
	-0.073006,	-0.47289
	-0.085129,	-0.47642
	-0.097425,	-0.47959
	-0.10988,	-0.48239
	-0.12248,	-0.48481
	-0.13521,	-0.48685
	-0.14806,	-0.4885
	-0.16101,	-0.48976
	-0.17406,	-0.49062
	-0.18718,	-0.49109
	-0.20035,	-0.49115
	-0.21358,	-0.49082
	-0.22683,	-0.49008
	-0.24011,	-0.48894
	-0.25339,	-0.4874
	-0.26666,	-0.48546
	-0.2799,	-0.48312
	-0.29312,	-0.48038
	-0.30628,	-0.47724
	-0.31937,	-0.47371
	-0.3324,	-0.46979
	-0.34533,	-0.46549
	-0.35817,	-0.4608
	-0.3709,	-0.45574
	-0.3835,	-0.4503
	-0.39597,	-0.4445
	-0.40829,	-0.43834
	-0.42047,	-0.43181
	-0.43247,	-0.42494
	-0.4443,	-0.41773
	-0.45595,	-0.41017
	-0.4674,	-0.40229
	-0.47865,	-0.39408
	-0.48969,	-0.38555
	-0.50051,	-0.37671
	-0.51111,	-0.36757
	-0.52147,	-0.35813
	-0.53929,	-0.34065
	-0.55631,	-0.32229
	-0.5725,	-0.30309
	-0.58782,	-0.2831
	-0.60225,	-0.26236
	-0.61575,	-0.24089
	-0.6283,	-0.21873
	-0.63988,	-0.1959
	-0.65045,	-0.17242
	-0.65998,	-0.14828
	-0.66842,	-0.12347
	-0.67571,	-0.097921
	-0.67888,	-0.084834
	-0.68169,	-0.071511
	-0.68412,	-0.057921
	-0.6861,	-0.044024
	-0.68752,	-0.029771
	-0.68824,	-0.015108
	-0.688,	 9.5458e-06
	-0.68638,	 0.015556
	-0.68542,	 0.020802
	-0.6842,	 0.026053
	-0.68268,	 0.031278
	-0.68083,	 0.036434
	-0.6786,	 0.041461
	-0.67597,	 0.046277
	-0.67291,	 0.050774
	-0.66944,	 0.054815
	-0.66757,	 0.056617
	-0.66562,	 0.058245
	-0.6636,	 0.059678
	-0.66155,	 0.060898
	-0.65949,	 0.061888
	-0.65745,	 0.062634
	-0.65546,	 0.06313
	-0.65358,	 0.063375
	-0.65028,	 0.063156
	-0.64786,	 0.062152
	-0.64657,	 0.060674
	-0.64648,	 0.059107
	-0.64707,	 0.058204
	-0.64811,	 0.057527
	-0.64952,	 0.057146
	-0.65122,	 0.057107
	-0.65312,	 0.05743
	-0.65516,	 0.058116
	-0.65725,	 0.059149
	-0.65934,	 0.060504
	-0.66338,	 0.064047
	-0.66705,	 0.068476
	-0.67026,	 0.073543
	-0.67298,	 0.07905
	-0.67712,	 0.090832
	-0.6798,	 0.10308
	-0.68135,	 0.11544
	-0.68203,	 0.12776
	-0.68203,	 0.13997
	-0.68146,	 0.15204
	-0.6804,	 0.16396
	-0.67886,	 0.17575
	-0.67526,	 0.19561
	-0.67113,	 0.21571
	-0.66676,	 0.23523
	-0.66162,	 0.25419
	-0.65574,	 0.27281
	-0.64919,	 0.29116
	-0.64202,	 0.30925
	-0.63426,	 0.32708
	-0.62594,	 0.34463
	-0.61708,	 0.36191
	-0.60769,	 0.37889
	-0.59778,	 0.39558
	-0.58737,	 0.41195
	-0.57647,	 0.428
	-0.56509,	 0.44372
	-0.55325,	 0.4591
END
BEGIN
	 0.999958220832864230764869262202 ,	 -0 
	 0.999958220832870114946899775532 ,	 -7.87578530170307544722163584083e-09 
	 0.999958220832865229965591424843 ,	 -7.87578523786525153127513476647e-08 
	 0.999958220832328770200092549203 ,	 -7.87578522315479645499181060586e-07 
	 0.999958220778666362349440532853 ,	 -7.87578522330745212087776963017e-06 
	 0.999958220746961612412917475012 ,	 -9.9150261533426098381482916011e-06 
	 0.999958220696714139563709977665 ,	 -1.24822783783007373870077572064e-05 
	 0.99995822061707684280662533638 ,	 -1.57142574390284339713730332733e-05 
	 0.999958220490860583140602102503 ,	 -1.97830779996299721545938155032e-05 
	 0.999958220290822152875875872269 ,	 -2.49054195825687552101612709521e-05 
	 0.999958219973781203826490582287 ,	 -3.13540655337285478765352308983e-05 
	 0.999958219471306142267508221266 ,	 -3.94724297231863197055190539686e-05 
	 0.999958218674936727410340608913 ,	 -4.96928445655464567920489571407e-05 
	 0.999958217412776240173855057947 ,	 -6.25595842515536126882125245174e-05 
	 0.999958215412386941522981942398 ,	 -7.875784925667761449119552708e-05 
	 0.999958212241986332813326043834 ,	 -9.91502555937051610612797958311e-05 
	 0.999958207217246819453748685191 ,	 -0.000124822771936233811729266562907 
	 0.999958199253582757926039903396 ,	 -0.000157142550748515241743064052571 
	 0.999958186632061263310333742993 ,	 -0.000197830732828266353529045318282 
	 0.999958166628383771090682330396 ,	 -0.00024905410170895925237033452504 
	 0.999958134924909258778313869698 ,	 -0.000313540467555981083869198755565 
	 0.999958084678830183555930943839 ,	 -0.000394723922572004504161213844782 
	 0.999958005045528786070008209208 ,	 -0.000496927698122581751327686561126 
	 0.999957878838682256983361185121 ,	 -0.000625594351054900577047135357134 
	 0.999957678822925966066748060257 ,	 -0.000787575516895330784983286775969 
	 0.999957361840957958953879369801 ,	 -0.000991496619302506543291997331835 
	 0.999956859512733164940812002897 ,	 -0.00124821587614083739925519012104 
	 0.999956063512569715001632175699 ,	 -0.0015714018832349158083516726947 
	 0.999954802279711008061724442086 ,	 -0.00197826021092750714558405888965 
	 0.999952804219195412471776762686 ,	 -0.00249044706631763868021067764857 
	 0.999949639659407862879447748128 ,	 -0.00313521741078051641160584495083 
	 0.99994462955918639313068752017 ,	 -0.00394686618780126785566153557738 
	 0.999936702549493405811631419056 ,	 -0.00496853457585229307813534660454 
	 0.999924172619596318689616509801 ,	 -0.00625446819422893762752124757753 
	 0.99990439712928746995856954527 ,	 -0.00787283022417784028590403977432 
	 0.999873259488277432716074599739 ,	 -0.00990918829346237872712777061679 
	 0.999849934125321526678931149945 ,	 -0.0112020479912018355861391682993 
	 0.999823780810828899312525663845 ,	 -0.0125003684891596134054481126441 
	 0.999747190929273776838215326279 ,	 -0.0157290771457578998360204991513 
	 0.999628575029628874126785831322 ,	 -0.019786801305447104804002833589 
	 0.999472354582207289652728832152 ,	 -0.0242201295073558725556850390603 
	 0.999247789258858820637954067934 ,	 -0.0296149702791455443628976240689 
	 0.999025377699742311854436138674 ,	 -0.034285045314427303742021990729 
