CITIFILE A.01.01
#Momentum: B.12.070 (*) built: Feb 13 2020 
#Momentum Date and Time: Tue Aug 16 13:14:55 2022

NAME Momentum.SP

#  mode: MW    reference: S_50

#eesof Port[1] P1
#eesof Port[2] P2

CONSTANT NBR_OF_PORTS 2

CONSTANT NORMALIZATION 1

VAR freq MAG 434

DATA S[1,1] RI
DATA S[1,2] RI
DATA S[2,1] RI
DATA S[2,2] RI
DATA PORTZ[1] RI
DATA PORTZ[2] RI

VAR_LIST_BEGIN
	 0
	 9.193613823
	 91.93613823
	 919.3613823
	 9193.613823
	 11574.07407
	 14570.89596
	 18343.6712
	 23093.31382
	 29072.75961
	 36600.43586
	 46077.21879
	 58007.78164
	 73027.47038
	 91936.13823
	 115740.7407
	 145708.9596
	 183436.712
	 230933.1382
	 290727.5961
	 366004.3586
	 460772.1879
	 580077.8164
	 730274.7038
	 919361.3823
	 1157407.407
	 1457089.596
	 1834367.12
	 2309331.382
	 2907275.961
	 3660043.586
	 4607721.879
	 5800778.164
	 7302747.038
	 9193613.823
	 11574074.07
	 13086226.14
	 14605494.08
	 18387227.65
	 23148148.14
	 28361316.7
	 34722222.2
	 40243571.59
	 46296296.27
	 56722633.39
	 69444444.4
	 80487143.17
	 92592592.54
	 115740740.7
	 138888888.8
	 167824074
	 196759259.2
	 225694444.3
	 254629629.5
	 283564814.7
	 312499999.9
	 341435185
	 370370370.2
	 399305555.4
	 428240740.5
	 457175925.7
	 486111110.9
	 515046296.1
	 543981481.2
	 572916666.4
	 601851851.6
	 630787036.8
	 659722222
	 688657407.1
	 717592592.3
	 746527777.5
	 775462962.6
	 804398147.8
	 833333333
	 859374999.7
	 885416666.3
	 911458333
	 937499999.6
	 963541666.3
	 989583332.9
	 1015625000
	 1041666666
	 1067708333
	 1093750000
	 1119791666
	 1145833333
	 1171875000
	 1197916666
	 1223958333
	 1250000000
	 1276041666
	 1302083333
	 1328124999
	 1354166666
	 1380208333
	 1406249999
	 1432291666
	 1458333333
	 1484374999
	 1510416666
	 1536458333
	 1562499999
	 1588541666
	 1614583333
	 1640624999
	 1666666666
	 1684027777
	 1701388888
	 1718749999
	 1736111110
	 1753472222
	 1770833333
	 1788194444
	 1805555555
	 1822916666
	 1840277777
	 1857638888
	 1875000000
	 1892361111
	 1909722222
	 1927083333
	 1944444444
	 1961805555
	 1979166666
	 1996527777
	 2013888888
	 2031250000
	 2048611111
	 2065972222
	 2083333333
	 2100694444
	 2118055555
	 2135416666
	 2152777778
	 2170138889
	 2187500000
	 2204861111
	 2222222222
	 2256944444
	 2291666666
	 2326388889
	 2361111111
	 2395833333
	 2430555555
	 2465277778
	 2500000000
	 2534722222
	 2569444444
	 2604166666
	 2638888889
	 2673611111
	 2708333333
	 2743055555
	 2777777778
	 2812500000
	 2847222222
	 2881944444
	 2916666666
	 2951388889
	 2986111111
	 3020833333
	 3055555555
	 3090277777
	 3125000000
	 3159722222
	 3194444444
	 3229166666
	 3263888889
	 3298611111
	 3333333333
	 3368055555
	 3402777778
	 3437500000
	 3472222222
	 3506944444
	 3541666666
	 3576388889
	 3611111111
	 3654513889
	 3697916667
	 3741319444
	 3784722222
	 3828125000
	 3871527778
	 3914930556
	 3958333334
	 4001736111
	 4045138889
	 4088541667
	 4131944445
	 4175347223
	 4218750000
	 4262152778
	 4305555556
	 4327256945
	 4348958334
	 4370659723
	 4392361112
	 4414062500
	 4435763889
	 4457465278
	 4479166667
	 4500868056
	 4522569445
	 4544270834
	 4565972222
	 4587673611
	 4609375000
	 4631076389
	 4652777778
	 4674479167
	 4696180556
	 4717881945
	 4739583334
	 4761284722
	 4782986111
	 4804687500
	 4826388889
	 4848090278
	 4869791667
	 4891493056
	 4913194444
	 4934895833
	 4956597222
	 4978298611
	 5000000000
	 5014467593
	 5028935185
	 5043402778
	 5057870370
	 5072337963
	 5086805556
	 5101273148
	 5115740741
	 5130208333
	 5144675926
	 5159143519
	 5173611111
	 5188078704
	 5202546296
	 5217013889
	 5231481482
	 5245949074
	 5260416667
	 5274884259
	 5289351852
	 5303819444
	 5318287037
	 5332754630
	 5347222222
	 5361689815
	 5376157407
	 5390625000
	 5405092593
	 5419560185
	 5434027778
	 5448495370
	 5462962963
	 5477430556
	 5491898148
	 5506365741
	 5520833333
	 5528067130
	 5535300926
	 5542534722
	 5549768519
	 5557002315
	 5564236111
	 5571469907
	 5578703704
	 5585937500
	 5593171296
	 5600405093
	 5607638889
	 5614872685
	 5622106482
	 5629340278
	 5636574074
	 5651041667
	 5665509259
	 5679976852
	 5694444444
	 5708912037
	 5723379630
	 5737847222
	 5752314815
	 5766782407
	 5781250000
	 5795717593
	 5810185185
	 5824652778
	 5839120370
	 5853587963
	 5868055556
	 5882523148
	 5896990741
	 5911458333
	 5925925926
	 5940393519
	 5954861111
	 5969328704
	 5983796296
	 5998263889
	 6012731482
	 6027199074
	 6041666667
	 6056134259
	 6070601852
	 6085069445
	 6099537037
	 6114004630
	 6128472222
	 6142939815
	 6157407408
	 6186342593
	 6215277778
	 6244212963
	 6273148148
	 6302083333
	 6331018519
	 6359953704
	 6388888889
	 6423611111
	 6458333334
	 6493055556
	 6527777778
	 6562500000
	 6597222222
	 6631944445
	 6666666667
	 6701388889
	 6736111111
	 6770833334
	 6805555556
	 6840277778
	 6875000000
	 6909722223
	 6944444445
	 6979166667
	 7013888889
	 7048611111
	 7083333334
	 7118055556
	 7152777778
	 7187500000
	 7222222222
	 7256944445
	 7291666667
	 7326388889
	 7361111111
	 7395833334
	 7430555556
	 7465277778
	 7500000000
	 7569444445
	 7638888889
	 7708333334
	 7777777778
	 7847222222
	 7916666667
	 7986111112
	 8055555556
	 8090277778
	 8125000000
	 8159722223
	 8194444445
	 8229166667
	 8263888890
	 8298611112
	 8333333334
	 8368055556
	 8402777778
	 8437500001
	 8472222223
	 8489583334
	 8506944445
	 8524305556
	 8541666667
	 8559027778
	 8576388889
	 8593750000
	 8611111112
	 8628472223
	 8645833334
	 8663194445
	 8680555556
	 8697916667
	 8715277778
	 8732638889
	 8750000000
	 8767361111
	 8784722222
	 8802083334
	 8819444445
	 8836805556
	 8854166667
	 8871527778
	 8888888889
	 8900462963
	 8912037037
	 8923611111
	 8935185185
	 8946759259
	 8958333333
	 8969907407
	 8981481482
	 9004629630
	 9027777778
	 9050925926
	 9074074074
	 9097222222
	 9120370370
	 9143518518
	 9166666666
	 9189814815
	 9212962963
	 9236111111
	 9259259259
	 9305555555
	 9351851852
	 9398148148
	 9444444444
	 9490740741
	 9537037037
	 9583333333
	 9629629630
	 9675925926
	 9722222222
	 9768518518
	 9814814815
	 9861111111
	 9907407407
	 9953703704
	 1e+10
VAR_LIST_END

BEGIN
	 0.000100013099000000003631176415109 ,	 -0 
	 0.000100013099000000003631176415109 ,	 -5.64942399000000011205073620449e-10 
	 0.000100013099000000003631176415109 ,	 -5.64942756000000029880648468451e-09 
	 0.000100013099999999999635373615359 ,	 -5.64942857999999979677257296463e-08 
	 0.000100013190000000005931354851718 ,	 -5.64942916000000018018325966679e-07 
	 0.000100013242999999997441713806001 ,	 -7.11221032000000023217442090412e-07 
	 0.000100013327999999996611654728973 ,	 -8.95374318000000049527070927063e-07 
	 0.000100013462000000003275165805228 ,	 -1.12720965000000004723173380183e-06 
	 0.000100013673999999996421655934498 ,	 -1.41907320000000008125920231833e-06 
	 0.000100014009999999995532103669316 ,	 -1.78650797000000007510212181316e-06 
	 0.000100014542999999993515974905378 ,	 -2.24908159999999994734594561951e-06 
	 0.000100015386999999995637673777527 ,	 -2.83142862000000017209488771541e-06 
	 0.00010001672500000000250175435923 ,	 -3.56456269000000011386709679317e-06 
	 0.000100018845999999997733488632523 ,	 -4.48752904000000012049937173075e-06 
	 0.000100022206999999998394690337022 ,	 -5.64948527000000000743238498524e-06 
	 0.000100027534 ,	 -7.1123223e-06 
	 0.000100035977 ,	 -8.95396655e-06 
	 0.000100049356 ,	 -1.12725422e-05 
	 0.000100070558 ,	 -1.41916212e-05 
	 0.000100104154 ,	 -1.78668538e-05 
	 0.000100157383 ,	 -2.24943552e-05 
	 0.000100241703 ,	 -2.83213457e-05 
	 0.000100375232 ,	 -3.56597065e-05 
	 0.00010058659 ,	 -4.49033633e-05 
	 0.000100920889 ,	 -5.65508042e-05 
	 0.000101449016 ,	 -7.1234668e-05 
	 0.000102281787 ,	 -8.97614197e-05 
	 0.00010359105 ,	 -0.000113165971 
	 0.000105639852 ,	 -0.000142789253 
	 0.000108822474 ,	 -0.000180391926 
	 0.000113709936 ,	 -0.000228325052 
	 0.00012108274 ,	 -0.000289787285 
	 0.000131903502 ,	 -0.000369200455 
	 0.000147135764 ,	 -0.000472710489 
	 0.00016727798 ,	 -0.0006087346 
	 0.000191540656 ,	 -0.000788322418 
	 0.000205220622 ,	 -0.000906495004 
	 0.000217107741 ,	 -0.00102779979 
	 0.000237449896 ,	 -0.00133776543 
	 0.000244201515 ,	 -0.00173692375 
	 0.000230368918 ,	 -0.00217758551 
	 0.000188939994 ,	 -0.00271431073 
	 0.000134886167 ,	 -0.00317720373 
	 5.89991491e-05 ,	 -0.00368068498 
	 -0.000107998323 ,	 -0.00453780393 
	 -0.000368710567 ,	 -0.00556613754 
	 -0.000643137026 ,	 -0.0064429969 
	 -0.000993947004 ,	 -0.00738686536 
	-0.0018073,	-0.0091377
	-0.0028036,	-0.01081
	-0.004298,	-0.012776
	-0.0060572,	-0.014583
	-0.0080666,	-0.016209
	-0.01031,	-0.017633
	-0.012769,	-0.018834
	-0.015424,	-0.019791
	-0.018254,	-0.020485
	-0.021238,	-0.020898
	-0.024351,	-0.021014
	-0.02757,	-0.020818
	-0.030867,	-0.020299
	-0.034217,	-0.019444
	-0.037593,	-0.018244
	-0.040965,	-0.016693
	-0.044304,	-0.014785
	-0.047582,	-0.012517
	-0.050769,	-0.0098872
	-0.053833,	-0.0068973
	-0.056746,	-0.0035503
	-0.059476,	 0.0001485
	-0.061993,	 0.0041915
	-0.064266,	 0.008569
	-0.066267,	 0.013269
	-0.067966,	 0.018277
	-0.069212,	 0.023035
	-0.070171,	 0.028015
	-0.070821,	 0.033204
	-0.071144,	 0.038584
	-0.071122,	 0.044139
	-0.070737,	 0.049848
	-0.069973,	 0.055692
	-0.068815,	 0.061648
	-0.067247,	 0.067695
	-0.065258,	 0.073808
	-0.062836,	 0.079961
	-0.05997,	 0.086129
	-0.056651,	 0.092285
	-0.052872,	 0.098399
	-0.048627,	 0.10444
	-0.043913,	 0.11038
	-0.038727,	 0.1162
	-0.033069,	 0.12185
	-0.026941,	 0.12731
	-0.020345,	 0.13255
	-0.013287,	 0.13753
	-0.0057743,	 0.14222
	 0.0021829,	 0.1466
	 0.010573,	 0.15062
	 0.019384,	 0.15425
	 0.028597,	 0.15747
	 0.038197,	 0.16025
	 0.048162,	 0.16254
	 0.058471,	 0.16433
	 0.069099,	 0.16559
	 0.08002,	 0.16629
	 0.091205,	 0.1664
	 0.098794,	 0.16613
	 0.10647,	 0.16558
	 0.11424,	 0.16475
	 0.12208,	 0.16363
	 0.12999,	 0.16221
	 0.13795,	 0.16048
	 0.14595,	 0.15845
	 0.15399,	 0.15611
	 0.16204,	 0.15344
	 0.17009,	 0.15046
	 0.17815,	 0.14715
	 0.18618,	 0.14351
	 0.19419,	 0.13954
	 0.20215,	 0.13524
	 0.21005,	 0.13061
	 0.21788,	 0.12564
	 0.22563,	 0.12034
	 0.23328,	 0.11471
	 0.24082,	 0.10874
	 0.24823,	 0.10243
	 0.25551,	 0.095803
	 0.26264,	 0.08884
	 0.26959,	 0.081552
	 0.27637,	 0.073943
	 0.28296,	 0.066016
	 0.28933,	 0.057776
	 0.29549,	 0.049229
	 0.30141,	 0.04038
	 0.30708,	 0.031236
	 0.3125,	 0.021804
	 0.31764,	 0.012092
	 0.32249,	 0.0021074
	 0.33129,	-0.018642
	 0.3388,	-0.040367
	 0.34494,	-0.062983
	 0.34961,	-0.086396
	 0.35274,	-0.1105
	 0.35427,	-0.1352
	 0.35412,	-0.16038
	 0.35226,	-0.18592
	 0.34863,	-0.21169
	 0.3432,	-0.23757
	 0.33595,	-0.26342
	 0.32687,	-0.28912
	 0.31594,	-0.31452
	 0.30319,	-0.3395
	 0.28862,	-0.36393
	 0.27227,	-0.38765
	 0.25417,	-0.41056
	 0.23436,	-0.43251
	 0.21291,	-0.45339
	 0.18988,	-0.47307
	 0.16534,	-0.49144
	 0.13939,	-0.50838
	 0.11209,	-0.5238
	 0.083569,	-0.5376
	 0.053907,	-0.54968
	 0.02322,	-0.55997
	-0.0083753,	-0.56838
	-0.040762,	-0.57485
	-0.073815,	-0.57932
	-0.1074,	-0.58174
	-0.14141,	-0.58206
	-0.17569,	-0.58026
	-0.21012,	-0.57629
	-0.24456,	-0.57015
	-0.27888,	-0.56181
	-0.31293,	-0.55128
	-0.34658,	-0.53857
	-0.3797,	-0.52368
	-0.41215,	-0.50663
	-0.44379,	-0.48746
	-0.48201,	-0.46054
	-0.5185,	-0.43044
	-0.55301,	-0.39725
	-0.58529,	-0.36107
	-0.61511,	-0.32205
	-0.64221,	-0.28034
	-0.66637,	-0.23608
	-0.68736,	-0.18947
	-0.70495,	-0.14069
	-0.71894,	-0.089967
	-0.7291,	-0.037504
	-0.73524,	 0.016447
	-0.73716,	 0.071626
	-0.73467,	 0.12775
	-0.72758,	 0.18453
	-0.7157,	 0.24163
	-0.70792,	 0.2702
	-0.69887,	 0.29872
	-0.68855,	 0.32714
	-0.67692,	 0.35542
	-0.66397,	 0.38349
	-0.64969,	 0.41132
	-0.63404,	 0.43884
	-0.61702,	 0.46599
	-0.59861,	 0.49272
	-0.57879,	 0.51895
	-0.55754,	 0.54462
	-0.53485,	 0.56967
	-0.51071,	 0.59401
	-0.4851,	 0.61757
	-0.45802,	 0.64027
	-0.42945,	 0.66201
	-0.3994,	 0.68271
	-0.36785,	 0.70226
	-0.3348,	 0.72057
	-0.30026,	 0.73752
	-0.26424,	 0.753
	-0.22675,	 0.76687
	-0.1878,	 0.77902
	-0.14741,	 0.78928
	-0.10563,	 0.79751
	-0.062502,	 0.80356
	-0.018063,	 0.80724
	 0.02761,	 0.80837
	 0.074435,	 0.80675
	 0.1223,	 0.80218
	 0.1711,	 0.79444
	 0.22068,	 0.7833
	 0.25407,	 0.77385
	 0.28766,	 0.76272
	 0.32139,	 0.74981
	 0.35517,	 0.73506
	 0.38892,	 0.71838
	 0.42254,	 0.69969
	 0.45592,	 0.67893
	 0.48894,	 0.65601
	 0.52147,	 0.63085
	 0.55336,	 0.6034
	 0.58444,	 0.57359
	 0.61455,	 0.54136
	 0.64348,	 0.50667
	 0.67102,	 0.46947
	 0.69695,	 0.42975
	 0.72101,	 0.38751
	 0.74296,	 0.34276
	 0.76249,	 0.29556
	 0.77934,	 0.24596
	 0.79318,	 0.19408
	 0.8037,	 0.14007
	 0.8106,	 0.084105
	 0.81353,	 0.026413
	 0.8122,	-0.03272
	 0.80631,	-0.092965
	 0.79558,	-0.15393
	 0.77977,	-0.21518
	 0.75867,	-0.27623
	 0.73215,	-0.33654
	 0.70012,	-0.39552
	 0.66257,	-0.45256
	 0.61958,	-0.50701
	 0.57132,	-0.55824
	 0.51804,	-0.60561
	 0.46012,	-0.64849
	 0.398,	-0.68631
	 0.36554,	-0.70316
	 0.33224,	-0.71855
	 0.29817,	-0.73245
	 0.26344,	-0.74479
	 0.22812,	-0.75554
	 0.19231,	-0.76466
	 0.15609,	-0.77213
	 0.11958,	-0.77793
	 0.082853,	-0.78203
	 0.046014,	-0.78445
	 0.0091602,	-0.78517
	-0.027611,	-0.7842
	-0.064206,	-0.78156
	-0.10053,	-0.77728
	-0.13649,	-0.77137
	-0.172,	-0.76387
	-0.24136,	-0.74428
	-0.30797,	-0.71889
	-0.37128,	-0.68813
	-0.43084,	-0.65253
	-0.48626,	-0.61262
	-0.53726,	-0.56896
	-0.58362,	-0.52214
	-0.62524,	-0.47271
	-0.66206,	-0.42123
	-0.69408,	-0.36821
	-0.7214,	-0.31415
	-0.74413,	-0.2595
	-0.76242,	-0.20466
	-0.77647,	-0.14999
	-0.7865,	-0.095835
	-0.79273,	-0.04245
	-0.7954,	 0.0099154
	-0.79476,	 0.06106
	-0.79105,	 0.11081
	-0.7845,	 0.15904
	-0.77536,	 0.20564
	-0.76385,	 0.25053
	-0.75019,	 0.29364
	-0.73457,	 0.33494
	-0.7172,	 0.37439
	-0.69826,	 0.412
	-0.67791,	 0.44777
	-0.65632,	 0.4817
	-0.63363,	 0.51383
	-0.60998,	 0.54417
	-0.58549,	 0.57276
	-0.56028,	 0.59963
	-0.53445,	 0.62484
	-0.50811,	 0.64843
	-0.48133,	 0.67043
	-0.45421,	 0.6909
	-0.3992,	 0.72743
	-0.3436,	 0.75839
	-0.28785,	 0.78417
	-0.23228,	 0.80513
	-0.17721,	 0.82161
	-0.12286,	 0.83395
	-0.069428,	 0.84244
	-0.017074,	 0.84739
	 0.044148,	 0.84901
	 0.10345,	 0.84633
	 0.16071,	 0.83975
	 0.21583,	 0.82962
	 0.26872,	 0.81628
	 0.31935,	 0.80002
	 0.36767,	 0.78113
	 0.41367,	 0.75986
	 0.45735,	 0.73645
	 0.4987,	 0.71111
	 0.53774,	 0.68404
	 0.57448,	 0.65542
	 0.60896,	 0.62544
	 0.64119,	 0.59424
	 0.6712,	 0.56197
	 0.69904,	 0.52878
	 0.72474,	 0.49478
	 0.74834,	 0.4601
	 0.76986,	 0.42484
	 0.78937,	 0.38911
	 0.80689,	 0.353
	 0.82247,	 0.3166
	 0.83615,	 0.28
	 0.84797,	 0.24327
	 0.85797,	 0.20649
	 0.86619,	 0.16972
	 0.87267,	 0.13302
	 0.87744,	 0.096454
	 0.88055,	 0.060075
	 0.88202,	 0.023937
	 0.88189,	-0.011914
	 0.88019,	-0.04743
	 0.87218,	-0.11728
	 0.85819,	-0.18529
	 0.83834,	-0.25116
	 0.81273,	-0.31455
	 0.78135,	-0.37515
	 0.74414,	-0.43256
	 0.70091,	-0.48631
	 0.65138,	-0.53575
	 0.62413,	-0.5586
	 0.59514,	-0.58002
	 0.56434,	-0.59984
	 0.53167,	-0.61784
	 0.49705,	-0.63378
	 0.46042,	-0.64733
	 0.42173,	-0.65814
	 0.38096,	-0.66571
	 0.33815,	-0.66951
	 0.29342,	-0.66883
	 0.24703,	-0.66288
	 0.19944,	-0.65071
	 0.17541,	-0.64196
	 0.1514,	-0.63125
	 0.12755,	-0.61844
	 0.10406,	-0.60339
	 0.081177,	-0.58595
	 0.059151,	-0.56603
	 0.038307,	-0.54352
	 0.019012,	-0.51837
	 0.0016765,	-0.49056
	-0.013248,	-0.46016
	-0.025274,	-0.4273
	-0.033897,	-0.39221
	-0.038613,	-0.35525
	-0.038945,	-0.31687
	-0.034476,	-0.27768
	-0.024887,	-0.23839
	-0.0099928,	-0.19981
	 0.010225,	-0.16283
	 0.035592,	-0.12836
	 0.06573,	-0.09729
	 0.10006,	-0.070421
	 0.13784,	-0.048427
	 0.17819,	-0.0318
	 0.22015,	-0.020823
	 0.24854,	-0.016689
	 0.27694,	-0.01507
	 0.30507,	-0.015899
	 0.33269,	-0.019074
	 0.35959,	-0.024466
	 0.38556,	-0.031921
	 0.41044,	-0.041271
	 0.4341,	-0.052336
	 0.47735,	-0.078871
	 0.51479,	-0.11005
	 0.54627,	-0.1445
	 0.57193,	-0.18101
	 0.59209,	-0.21856
	 0.6072,	-0.25635
	 0.61777,	-0.29375
	 0.62432,	-0.33029
	 0.62735,	-0.36567
	 0.62733,	-0.39966
	 0.6247,	-0.43213
	 0.61984,	-0.46301
	 0.60471,	-0.51999
	 0.58414,	-0.57078
	 0.55974,	-0.61583
	 0.53268,	-0.6557
	 0.50379,	-0.69093
	 0.4737,	-0.72204
	 0.44282,	-0.74948
	 0.41147,	-0.77367
	 0.37987,	-0.79495
	 0.34819,	-0.81361
	 0.31654,	-0.82991
	 0.28499,	-0.84406
	 0.25361,	-0.85626
	 0.22245,	-0.86665
	 0.19153,	-0.87536
	 0.16087,	-0.88252
END
BEGIN
	 0.999899986901193527089048984635 ,	 -0 
	 0.999899986901196080602005622495 ,	 -1.03246170159339289984501419895e-08 
	 0.999899986901179760323543632694 ,	 -1.03246168431717338237474379525e-07 
	 0.999899986899573489651515956211 ,	 -1.03246168359211317952506270501e-06 
	 0.999899986738993162838085027033 ,	 -1.03246167973649509777556154688e-05 
	 0.999899986644121163692489062669 ,	 -1.29979224266237427046211116988e-05 
	 0.99989998649376132799915239957 ,	 -1.63634147895181411395959525379e-05 
	 0.99989998625545473132092411106 ,	 -2.06003185946346820470176375295e-05 
	 0.999899985877764851949223157135 ,	 -2.59342643555736992316829159222e-05 
	 0.999899985279167902163521830516 ,	 -3.26493040058411089325562937091e-05 
	 0.999899984330455904313339487999 ,	 -4.11030376385325521733371534339e-05 
	 0.999899982826850441952615256014 ,	 -5.17456568828418626664056301223e-05 
	 0.999899980443800462381886973162 ,	 -6.51439190060641563385923635821e-05 
	 0.999899976666932865931869400811 ,	 -8.20113282879059721577896802103e-05 
	 0.999899970681027983054889318737 ,	 -0.000103246131723997358262123746897 
	 0.999899961194077313564321229933 ,	 -0.000129979151936161633259375625116 
	 0.999899946158446795152485719882 ,	 -0.000163634003582306013831887403498 
	 0.999899922329015811151009529567 ,	 -0.000206002898014832035167298585066 
	 0.999899884563010710181174545141 ,	 -0.000259342069074140692437613342491 
	 0.999899824710681839334824871912 ,	 -0.000326491893869516750306680741289 
	 0.999899729858054531206335013849 ,	 -0.000411028089585195512828397212957 
	 0.999899579544152539156698367151 ,	 -0.000517452006573643707131038294023 
	 0.999899341356319082407821952074 ,	 -0.000651430088726601846417507690745 
	 0.999898963963619102912616654066 ,	 -0.000820095128293033600458405985023 
	 0.999898366111492742369648567546 ,	 -0.00103242510975034705762720665945 
	 0.999897419269523579643532684713 ,	 -0.00129971932542353963910275460591 
	 0.999895920354990530576344553992 ,	 -0.00163619614626031063819855404518 
	 0.99989354906308403059256306733 ,	 -0.00205974237552865530390122650317 
	 0.999889801628936147892545704963 ,	 -0.00259285039081169491406719807003 
	 0.999883889263618264031663329661 ,	 -0.003263785912494958883767193214 
	 0.999874585482613098541548879439 ,	 -0.00410803544715885628202389767694 
	 0.999860003890171933349506616651 ,	 -0.00517008715236483371718856361099 
	 0.99983729153878997397697503402 ,	 -0.00650560174326279046924659255069 
	 0.999802242667966023503822725615 ,	 -0.00818403569648896468680110416472 
	 0.999748886975584505343306318537 ,	 -0.0102918075620663015262712391973 
	 0.999669184305372549026458273147 ,	 -0.0129362028107201810361859273257 
	 0.99961248548283365700228841888 ,	 -0.0146105742554936465088522012934 
	 0.999551561194411797295344968006 ,	 -0.0162886473774631335142970556262 
	 0.999386195360138285259665735794 ,	 -0.0204488525159558752475330578591 
	 0.999157422243883708290468348423 ,	 -0.0256578545911328899375991596798 
	 0.998886872869381048367642961239 ,	 -0.0313358095979333062253147090814 
	 0.998530115003238738502489013626 ,	 -0.0382410364162782123731432193381 
	 0.998194463613092164422369023669 ,	 -0.0442227193738658277966102616574 
	 0.997795240644241188121554841928 ,	 -0.0507720080588022967815753361265 
	 0.99702196935847497982763343316 ,	 -0.0620397802316784222065315645978 
	 0.995918930276330605089185610268 ,	 -0.0757669435484228104282777849221 
	 0.994812533706000645672418158938 ,	 -0.0876614273269375604558106829245 
	 0.993437915323395870359490800183 ,	 -0.100675116042640566682564440271 
	 0.990338199456801682174500456313 ,	 -0.12547561355686670525599879511 
	 0.98662,	-0.15015
	 0.98113,	-0.18081
	 0.9747,	-0.21125
