CITIFILE A.01.01
#Momentum: B.12.070 (*) built: Feb 13 2020 
#Momentum Date and Time: Tue Aug 16 05:30:10 2022

NAME Momentum.SP

#  mode: MW    reference: S_50

#eesof Port[1] P1
#eesof Port[2] P2

CONSTANT NBR_OF_PORTS 2

CONSTANT NORMALIZATION 1

VAR freq MAG 548

DATA S[1,1] RI
DATA S[1,2] RI
DATA S[2,1] RI
DATA S[2,2] RI
DATA PORTZ[1] RI
DATA PORTZ[2] RI

VAR_LIST_BEGIN
	 0
	 9.193613824
	 91.93613824
	 919.3613824
	 9193.613824
	 11574.07407
	 14570.89596
	 18343.6712
	 23093.31382
	 29072.75961
	 36600.43586
	 46077.21879
	 58007.78164
	 73027.47039
	 91936.13824
	 115740.7407
	 145708.9596
	 183436.712
	 230933.1382
	 290727.5961
	 366004.3586
	 460772.1879
	 580077.8164
	 730274.7039
	 919361.3824
	 1157407.407
	 1457089.596
	 1834367.12
	 2309331.382
	 2907275.961
	 3660043.586
	 4607721.879
	 5800778.164
	 7302747.039
	 9193613.824
	 11574074.07
	 13086226.15
	 14605494.08
	 18387227.65
	 23148148.14
	 28361316.7
	 34722222.21
	 40243571.59
	 46296296.27
	 57870370.34
	 69444444.41
	 81018518.48
	 92592592.55
	 111882716
	 131172839.4
	 150462962.9
	 169753086.3
	 189043209.8
	 208333333.2
	 227623456.7
	 246913580.1
	 266203703.6
	 285493827
	 304783950.4
	 324074073.9
	 343364197.3
	 362654320.8
	 381944444.2
	 401234567.7
	 420524691.1
	 439814814.6
	 459104938.1
	 478395061.5
	 497685184.9
	 516975308.4
	 536265431.8
	 555555555.3
	 567129629.4
	 578703703.4
	 590277777.5
	 601851851.6
	 613425925.6
	 624999999.7
	 636574073.8
	 648148147.8
	 659722221.9
	 671296296
	 682870370.1
	 694444444.1
	 706018518.2
	 717592592.3
	 729166666.3
	 740740740.4
	 755208333
	 769675925.6
	 784143518.2
	 798611110.8
	 813078703.3
	 827546295.9
	 842013888.5
	 856481481.1
	 870949073.7
	 885416666.3
	 899884258.9
	 914351851.4
	 928819444
	 943287036.6
	 957754629.2
	 972222221.8
	 986689814.4
	 1001157407
	 1015625000
	 1030092592
	 1044560185
	 1059027777
	 1073495370
	 1087962962
	 1102430555
	 1116898148
	 1131365740
	 1145833333
	 1160300925
	 1174768518
	 1189236111
	 1203703703
	 1218171296
	 1232638888
	 1247106481
	 1261574074
	 1276041666
	 1290509259
	 1304976851
	 1319444444
	 1333912036
	 1348379629
	 1362847222
	 1377314814
	 1391782407
	 1406249999
	 1420717592
	 1435185185
	 1464120370
	 1493055555
	 1521990740
	 1550925925
	 1579861110
	 1608796296
	 1637731481
	 1666666666
	 1692708333
	 1718749999
	 1744791666
	 1770833333
	 1796874999
	 1822916666
	 1848958333
	 1875000000
	 1901041666
	 1927083333
	 1953125000
	 1979166666
	 2005208333
	 2031250000
	 2057291666
	 2083333333
	 2109375000
	 2135416666
	 2161458333
	 2187500000
	 2213541666
	 2239583333
	 2265625000
	 2291666666
	 2317708333
	 2343750000
	 2369791667
	 2395833333
	 2421875000
	 2447916667
	 2473958333
	 2500000000
	 2526041667
	 2552083333
	 2578125000
	 2604166667
	 2630208333
	 2656250000
	 2682291667
	 2708333333
	 2734375000
	 2760416667
	 2786458333
	 2812500000
	 2838541667
	 2864583333
	 2890625000
	 2916666666
	 2942708333
	 2968750000
	 2994791666
	 3020833333
	 3046875000
	 3072916666
	 3098958333
	 3125000000
	 3151041666
	 3177083333
	 3203125000
	 3229166666
	 3255208333
	 3281250000
	 3307291666
	 3333333333
	 3359375000
	 3385416666
	 3411458333
	 3437500000
	 3463541666
	 3489583333
	 3515625000
	 3541666666
	 3567708333
	 3593750000
	 3619791666
	 3645833333
	 3671875000
	 3697916666
	 3723958333
	 3750000000
	 3776041666
	 3802083333
	 3828124999
	 3854166666
	 3880208333
	 3906249999
	 3932291666
	 3958333333
	 3984374999
	 4010416666
	 4036458333
	 4062499999
	 4088541666
	 4114583333
	 4140624999
	 4166666666
	 4192708333
	 4218749999
	 4244791666
	 4270833333
	 4296874999
	 4322916666
	 4348958333
	 4375000000
	 4401041666
	 4427083333
	 4453125000
	 4479166666
	 4505208333
	 4531250000
	 4557291666
	 4583333333
	 4609375000
	 4635416666
	 4661458333
	 4687500000
	 4713541666
	 4739583333
	 4765625000
	 4791666666
	 4817708333
	 4843750000
	 4869791667
	 4895833333
	 4921875000
	 4947916667
	 4973958333
	 5000000000
	 5026041667
	 5052083333
	 5078125000
	 5104166667
	 5130208333
	 5156250000
	 5182291667
	 5208333334
	 5234375000
	 5260416667
	 5286458334
	 5312500000
	 5338541667
	 5364583334
	 5390625000
	 5416666667
	 5442708334
	 5468750000
	 5494791667
	 5520833334
	 5546875000
	 5572916667
	 5598958334
	 5625000000
	 5651041667
	 5677083334
	 5703125001
	 5729166667
	 5755208334
	 5781250001
	 5807291667
	 5833333334
	 5859375001
	 5885416667
	 5911458334
	 5937500001
	 5963541667
	 5989583334
	 6015625001
	 6041666667
	 6067708334
	 6093750001
	 6119791667
	 6145833334
	 6171875001
	 6197916667
	 6223958334
	 6250000000
	 6276041667
	 6302083334
	 6328125000
	 6354166667
	 6380208334
	 6406250000
	 6432291667
	 6458333334
	 6484375000
	 6510416667
	 6536458334
	 6562500000
	 6588541667
	 6614583334
	 6640625000
	 6666666667
	 6685956790
	 6705246914
	 6724537037
	 6743827161
	 6763117284
	 6782407408
	 6801697531
	 6820987655
	 6840277778
	 6859567902
	 6878858025
	 6898148148
	 6917438272
	 6936728395
	 6956018519
	 6975308642
	 6994598766
	 7013888889
	 7033179013
	 7052469136
	 7071759260
	 7091049383
	 7110339506
	 7129629630
	 7148919753
	 7168209877
	 7187500000
	 7206790124
	 7226080247
	 7245370371
	 7264660494
	 7283950618
	 7303240741
	 7322530864
	 7341820988
	 7361111111
	 7380401235
	 7399691358
	 7418981482
	 7438271605
	 7457561729
	 7476851852
	 7496141975
	 7515432099
	 7525077161
	 7534722222
	 7544367284
	 7554012346
	 7563657408
	 7573302469
	 7582947531
	 7592592593
	 7602237654
	 7611882716
	 7621527778
	 7631172840
	 7640817901
	 7650462963
	 7660108025
	 7669753087
	 7679398148
	 7689043210
	 7698688272
	 7708333333
	 7717978395
	 7727623457
	 7737268519
	 7746913580
	 7756558642
	 7766203704
	 7775848766
	 7785493827
	 7795138889
	 7804783951
	 7814429012
	 7824074074
	 7833719136
	 7843364198
	 7853009259
	 7862654321
	 7872299383
	 7881944445
	 7891589506
	 7901234568
	 7910879630
	 7920524691
	 7930169753
	 7939814815
	 7949459877
	 7959104938
	 7968750000
	 7978395062
	 7988040123
	 7997685185
	 8007330247
	 8016975309
	 8026620370
	 8036265432
	 8045910494
	 8055555556
	 8065200617
	 8074845679
	 8084490741
	 8094135802
	 8103780864
	 8113425926
	 8123070988
	 8132716049
	 8152006173
	 8171296296
	 8190586420
	 8209876543
	 8219521605
	 8229166666
	 8238811728
	 8248456790
	 8258101852
	 8267746913
	 8277391975
	 8287037037
	 8296682098
	 8306327160
	 8315972222
	 8325617284
	 8335262345
	 8344907407
	 8354552469
	 8364197530
	 8373842592
	 8383487654
	 8393132716
	 8402777777
	 8412422839
	 8422067901
	 8431712963
	 8441358024
	 8460648148
	 8479938271
	 8499228395
	 8518518518
	 8532986111
	 8547453703
	 8561921296
	 8576388888
	 8590856481
	 8605324074
	 8619791666
	 8634259259
	 8648726851
	 8663194444
	 8677662037
	 8692129629
	 8706597222
	 8721064814
	 8735532407
	 8750000000
	 8764467592
	 8778935185
	 8793402777
	 8807870370
	 8822337962
	 8836805555
	 8851273148
	 8865740740
	 8880208333
	 8894675925
	 8909143518
	 8923611111
	 8938078703
	 8952546296
	 8967013888
	 8981481481
	 8995949074
	 9010416666
	 9024884259
	 9039351851
	 9053819444
	 9068287037
	 9082754629
	 9097222222
	 9126157407
	 9155092592
	 9184027777
	 9212962962
	 9241898148
	 9270833333
	 9299768518
	 9328703703
	 9357638888
	 9386574074
	 9415509259
	 9444444444
	 9461805555
	 9479166666
	 9496527777
	 9513888888
	 9531250000
	 9548611111
	 9565972222
	 9583333333
	 9618055555
	 9652777778
	 9687500000
	 9722222222
	 9756944444
	 9791666666
	 9826388889
	 9861111111
	 9895833333
	 9930555556
	 9965277778
	 1e+10
VAR_LIST_END

BEGIN
	 5.87806396000000006170360666857e-05 ,	 -0 
	 5.87806396000000006170360666857e-05 ,	 -2.20088122000000001002962963224e-09 
	 5.87806396000000006170360666857e-05 ,	 -2.20088118000000016271490112978e-08 
	 5.87806393999999973504384798151e-05 ,	 -2.20088107999999999848887558863e-07 
	 5.87806237000000018086756647939e-05 ,	 -2.2008810900000001935824904542e-06 
	 5.8780614400000002377818381083e-05 ,	 -2.77074513000000002103267483788e-06 
	 5.87805997000000028402527663118e-05 ,	 -3.48816145999999986483729001729e-06 
	 5.8780576399999998364262476791e-05 ,	 -4.39133509999999962911598413995e-06 
	 5.87805393999999971311673507834e-05 ,	 -5.52836333999999987332549591934e-06 
	 5.87804808000000022475024785695e-05 ,	 -6.95979709000000008309099949755e-06 
	 5.87803879999999976530000722619e-05 ,	 -8.76186540000000061237123843982e-06 
	 5.87802407999999990107463376798e-05 ,	 -1.10305349999999995834172941689e-05 
	 5.87800075000000001729238974235e-05 ,	 -1.38866206999999994438875494662e-05 
	 5.87796378000000029062643847055e-05 ,	 -1.74822195999999983483021853692e-05 
	 5.87790518999999981046740427093e-05 ,	 -2.20088101999999989730628230378e-05 
	 5.87781233e-05 ,	 -2.77074499e-05 
	 5.87766516e-05 ,	 -3.48816118e-05 
	 5.8774319e-05 ,	 -4.39133454e-05 
	 5.87706221e-05 ,	 -5.52836223e-05 
	 5.87647629e-05 ,	 -6.95979487e-05 
	 5.87554766e-05 ,	 -8.76186098e-05 
	 5.87407588e-05 ,	 -0.000110305262 
	 5.87174323e-05 ,	 -0.000138866031 
	 5.86804617e-05 ,	 -0.000174821845 
	 5.86218656e-05 ,	 -0.000220087403 
	 5.8528993e-05 ,	 -0.000277073104 
	 5.83817896e-05 ,	 -0.000348813334 
	 5.81484621e-05 ,	 -0.0004391279 
	 5.77785983e-05 ,	 -0.000552825146 
	 5.71922414e-05 ,	 -0.000695957396 
	 5.62625215e-05 ,	 -0.000876142057 
	 5.47879966e-05 ,	 -0.00110296486 
	 5.24484878e-05 ,	 -0.00138848558 
	 4.87342784e-05 ,	 -0.00174787094 
	 4.28319425e-05 ,	 -0.00220018421 
	 3.34387197e-05 ,	 -0.00276936577 
	 2.63227962e-05 ,	 -0.00313076097 
	 1.82637571e-05 ,	 -0.00349370698 
	 -5.82092583e-06 ,	 -0.00439640618 
	 -4.45175155e-05 ,	 -0.00553111594 
	 -9.79849668e-05 ,	 -0.00677111835 
	 -0.00017956619 ,	 -0.00828028172 
	 -0.000265465019 ,	 -0.00958670698 
	-0.00037621,	-0.011015
	-0.00063737,	-0.013736
	-0.00096425,	-0.016443
	-0.0013568,	-0.019137
	-0.0018144,	-0.021817
	-0.0027189,	-0.026255
	-0.0037966,	-0.030651
	-0.0050428,	-0.035001
	-0.0064536,	-0.0393
	-0.0080251,	-0.043543
	-0.0097539,	-0.047725
	-0.011637,	-0.05184
	-0.01367,	-0.055886
	-0.015851,	-0.059855
	-0.018177,	-0.063745
	-0.020644,	-0.067551
	-0.02325,	-0.071268
	-0.02599,	-0.074891
	-0.028862,	-0.078418
	-0.031862,	-0.081842
	-0.034986,	-0.085161
	-0.03823,	-0.08837
	-0.041591,	-0.091465
	-0.045065,	-0.094444
	-0.048648,	-0.097301
	-0.052335,	-0.10003
	-0.056121,	-0.10263
	-0.060003,	-0.10511
	-0.063976,	-0.10745
	-0.066402,	-0.10879
	-0.068857,	-0.11008
	-0.071342,	-0.11131
	-0.073854,	-0.1125
	-0.076394,	-0.11364
	-0.078959,	-0.11472
	-0.081549,	-0.11576
	-0.084162,	-0.11673
	-0.086798,	-0.11766
	-0.089456,	-0.11853
	-0.092134,	-0.11935
	-0.094831,	-0.12012
	-0.097547,	-0.12083
	-0.10027,	-0.12148
	-0.10302,	-0.12208
	-0.10579,	-0.12263
	-0.10926,	-0.12323
	-0.11275,	-0.12374
	-0.11626,	-0.12417
	-0.11979,	-0.12451
	-0.12333,	-0.12476
	-0.12687,	-0.12492
	-0.13043,	-0.125
	-0.13399,	-0.12498
	-0.13756,	-0.12488
	-0.14113,	-0.12469
	-0.14469,	-0.12441
	-0.14826,	-0.12404
	-0.15182,	-0.12359
	-0.15537,	-0.12305
	-0.15892,	-0.12242
	-0.16245,	-0.1217
	-0.16597,	-0.12089
	-0.16948,	-0.12
	-0.17296,	-0.11903
	-0.17643,	-0.11797
	-0.17988,	-0.11683
	-0.1833,	-0.1156
	-0.1867,	-0.11429
	-0.19008,	-0.11289
	-0.19342,	-0.11142
	-0.19673,	-0.10986
	-0.20001,	-0.10823
	-0.20325,	-0.10651
	-0.20646,	-0.10472
	-0.20963,	-0.10285
	-0.21276,	-0.10091
	-0.21585,	-0.098892
	-0.2189,	-0.096798
	-0.2219,	-0.094632
	-0.22485,	-0.092394
	-0.22776,	-0.090085
	-0.23061,	-0.087708
	-0.23342,	-0.085262
	-0.23617,	-0.08275
	-0.23887,	-0.080172
	-0.24151,	-0.077531
	-0.2441,	-0.074827
	-0.24663,	-0.072061
	-0.2491,	-0.069236
	-0.25151,	-0.066352
	-0.25385,	-0.063412
	-0.25614,	-0.060415
	-0.25836,	-0.057365
	-0.2626,	-0.051109
	-0.26657,	-0.044654
	-0.27027,	-0.038015
	-0.27368,	-0.031204
	-0.2768,	-0.024234
	-0.27963,	-0.017118
	-0.28215,	-0.0098693
	-0.28437,	-0.0025025
	-0.2861,	 0.0042178
	-0.28757,	 0.011013
	-0.28879,	 0.017873
	-0.28975,	 0.024787
	-0.29045,	 0.031745
	-0.29088,	 0.038738
	-0.29106,	 0.045755
	-0.29097,	 0.052785
	-0.29063,	 0.059819
	-0.29002,	 0.066846
	-0.28915,	 0.073856
	-0.28802,	 0.08084
	-0.28663,	 0.087788
	-0.28499,	 0.094688
	-0.2831,	 0.10153
	-0.28095,	 0.10831
	-0.27855,	 0.11501
	-0.27592,	 0.12163
	-0.27304,	 0.12815
	-0.26992,	 0.13457
	-0.26657,	 0.14088
	-0.26299,	 0.14707
	-0.25919,	 0.15313
	-0.25518,	 0.15905
	-0.25095,	 0.16483
	-0.24651,	 0.17045
	-0.24188,	 0.17591
	-0.23705,	 0.1812
	-0.23203,	 0.18631
	-0.22684,	 0.19125
	-0.22148,	 0.19599
	-0.21595,	 0.20053
	-0.21026,	 0.20487
	-0.20442,	 0.209
	-0.19845,	 0.21292
	-0.19234,	 0.21662
	-0.18611,	 0.2201
	-0.17977,	 0.22334
	-0.17332,	 0.22635
	-0.16678,	 0.22913
	-0.16015,	 0.23167
	-0.15345,	 0.23396
	-0.14668,	 0.236
	-0.13985,	 0.2378
	-0.13298,	 0.23935
	-0.12607,	 0.24064
	-0.11914,	 0.24169
	-0.11219,	 0.24247
	-0.10523,	 0.24301
	-0.098285,	 0.24329
	-0.09135,	 0.24332
	-0.084441,	 0.24309
	-0.077568,	 0.24262
	-0.070741,	 0.2419
	-0.063971,	 0.24093
	-0.057267,	 0.23971
	-0.050641,	 0.23826
	-0.044101,	 0.23657
	-0.037657,	 0.23465
	-0.031319,	 0.2325
	-0.025096,	 0.23013
	-0.018998,	 0.22755
	-0.013033,	 0.22475
	-0.0072102,	 0.22174
	-0.0015377,	 0.21854
	 0.0039762,	 0.21515
	 0.009324,	 0.21157
	 0.014498,	 0.20782
	 0.019491,	 0.2039
	 0.024297,	 0.19982
	 0.028909,	 0.19559
	 0.033321,	 0.19122
	 0.037527,	 0.18671
	 0.041524,	 0.18209
	 0.045305,	 0.17735
	 0.048868,	 0.17251
	 0.052207,	 0.16758
	 0.055321,	 0.16256
	 0.058206,	 0.15748
	 0.060861,	 0.15233
	 0.063283,	 0.14714
	 0.065472,	 0.1419
	 0.067427,	 0.13664
	 0.069148,	 0.13136
	 0.070635,	 0.12608
	 0.07189,	 0.1208
	 0.072914,	 0.11554
	 0.073708,	 0.1103
	 0.074277,	 0.1051
	 0.074622,	 0.099954
	 0.074748,	 0.094859
	 0.074659,	 0.089833
	 0.074359,	 0.084884
	 0.073853,	 0.080022
	 0.073147,	 0.075257
	 0.072247,	 0.070598
	 0.07116,	 0.066053
	 0.069892,	 0.06163
	 0.068451,	 0.057338
	 0.066844,	 0.053184
	 0.065079,	 0.049175
	 0.063165,	 0.045318
	 0.061111,	 0.04162
	 0.058925,	 0.038085
	 0.056617,	 0.034719
	 0.054196,	 0.031528
	 0.051672,	 0.028515
	 0.049054,	 0.025684
	 0.046354,	 0.023039
	 0.04358,	 0.020582
	 0.040744,	 0.018315
	 0.037856,	 0.01624
	 0.034926,	 0.014359
	 0.031964,	 0.012672
	 0.028982,	 0.011178
	 0.025989,	 0.0098782
	 0.022996,	 0.0087704
	 0.020013,	 0.0078534
	 0.01705,	 0.0071249
	 0.014118,	 0.0065824
	 0.011226,	 0.0062227
	 0.0083844,	 0.0060422
	 0.0056018,	 0.0060365
	 0.0028878105 ,	 0.00620113596 
	 0.000251312736 ,	 0.00653088594 
	 -0.00229901596 ,	 0.00702015791 
	-0.0047548,	 0.0076629
	-0.0071081,	 0.0084526
	-0.0093513,	 0.0093825
	-0.011477,	 0.010445
	-0.013478,	 0.011633
	-0.015349,	 0.012938
	-0.017083,	 0.014351
	-0.018674,	 0.015865
	-0.020118,	 0.01747
	-0.02141,	 0.019156
	-0.022546,	 0.020915
	-0.023521,	 0.022737
	-0.024334,	 0.024611
	-0.024981,	 0.026528
	-0.02546,	 0.028476
	-0.02577,	 0.030447
	-0.02591,	 0.032429
	-0.025879,	 0.034412
	-0.025678,	 0.036385
	-0.025307,	 0.038338
	-0.024767,	 0.040259
	-0.024061,	 0.042139
	-0.023192,	 0.043966
	-0.022161,	 0.045731
	-0.020972,	 0.047422
	-0.019631,	 0.049029
	-0.018141,	 0.050544
	-0.016507,	 0.051954
	-0.014737,	 0.053251
	-0.012836,	 0.054426
	-0.010811,	 0.055469
	-0.0086695,	 0.056372
	-0.00642,	 0.057125
	-0.004071,	 0.057721
	-0.0016315,	 0.058152
	 0.00088885,	 0.05841
	 0.00348,	 0.058489
	 0.0061314,	 0.058382
	 0.0088319,	 0.058084
	 0.01157,	 0.057587
	 0.014334,	 0.056889
	 0.017112,	 0.055984
	 0.019891,	 0.054868
	 0.022658,	 0.053538
	 0.025399,	 0.051992
	 0.028101,	 0.050229
	 0.03075,	 0.048245
	 0.033333,	 0.046043
	 0.035833,	 0.04362
	 0.038237,	 0.040979
	 0.04053,	 0.038121
	 0.042697,	 0.03505
	 0.044723,	 0.031767
	 0.046593,	 0.028277
	 0.048292,	 0.024587
	 0.049804,	 0.0207
	 0.051114,	 0.016625
	 0.052208,	 0.012368
	 0.053071,	 0.0079395
	 0.053687,	 0.0033476
	 0.054043,	-0.0013968
	 0.054123,	-0.0062824
	 0.053915,	-0.011297
	 0.053405,	-0.016426
	 0.052578,	-0.021657
	 0.051424,	-0.026974
	 0.05035,	-0.030959
	 0.049084,	-0.034975
	 0.047622,	-0.039014
	 0.04596,	-0.043071
	 0.044093,	-0.047137
	 0.042018,	-0.051203
	 0.03973,	-0.055262
	 0.037227,	-0.059305
	 0.034505,	-0.063323
	 0.031562,	-0.067306
	 0.028394,	-0.071247
	 0.025001,	-0.075134
	 0.021379,	-0.078957
	 0.017527,	-0.082708
	 0.013444,	-0.086375
	 0.0091301,	-0.089947
	 0.0045838,	-0.093414
	-0.00019462,	-0.096766
	-0.0052046,	-0.099989
	-0.010445,	-0.10307
	-0.015915,	-0.106
	-0.021613,	-0.10878
	-0.027535,	-0.11137
	-0.03368,	-0.11379
	-0.040043,	-0.116
	-0.046621,	-0.118
	-0.05341,	-0.11979
	-0.060404,	-0.12133
	-0.067597,	-0.12263
	-0.074984,	-0.12367
	-0.082557,	-0.12444
	-0.090309,	-0.12493
	-0.098232,	-0.12511
	-0.10631,	-0.12499
	-0.11455,	-0.12456
	-0.12293,	-0.12379
	-0.13144,	-0.12267
	-0.14007,	-0.12121
	-0.1488,	-0.11937
	-0.15763,	-0.11717
	-0.16655,	-0.11457
	-0.17552,	-0.11159
	-0.18455,	-0.10819
	-0.19362,	-0.10439
	-0.19816,	-0.10233
	-0.20271,	-0.10016
	-0.20725,	-0.097889
	-0.21179,	-0.095506
	-0.21633,	-0.093014
	-0.22087,	-0.090412
	-0.22539,	-0.087699
	-0.2299,	-0.084875
	-0.2344,	-0.081939
	-0.23889,	-0.07889
	-0.24336,	-0.075727
	-0.2478,	-0.072451
	-0.25223,	-0.06906
	-0.25663,	-0.065554
	-0.261,	-0.061933
	-0.26534,	-0.058197
	-0.26964,	-0.054344
	-0.27391,	-0.050376
	-0.27814,	-0.046292
	-0.28233,	-0.042091
	-0.28648,	-0.037775
	-0.29057,	-0.033342
	-0.29462,	-0.028793
	-0.29862,	-0.024129
	-0.30256,	-0.019348
	-0.30644,	-0.014453
	-0.31026,	-0.0094426
	-0.31401,	-0.004318
	-0.3177,	 0.0009205
	-0.32132,	 0.0062722
	-0.32487,	 0.011736
	-0.32834,	 0.017312
	-0.33173,	 0.022999
	-0.33504,	 0.028796
	-0.33826,	 0.034701
	-0.3414,	 0.040715
	-0.34444,	 0.046835
	-0.3474,	 0.053061
	-0.35025,	 0.05939
	-0.35301,	 0.065823
	-0.35567,	 0.072356
	-0.35822,	 0.078989
	-0.36066,	 0.085721
	-0.363,	 0.092548
	-0.36521,	 0.09947
	-0.36732,	 0.10648
	-0.3693,	 0.11358
	-0.37117,	 0.12078
	-0.3729,	 0.12806
	-0.37452,	 0.13542
	-0.376,	 0.14286
	-0.37735,	 0.15039
	-0.37857,	 0.15799
	-0.37965,	 0.16567
	-0.38059,	 0.17341
	-0.38139,	 0.18123
	-0.38204,	 0.18911
	-0.38255,	 0.19706
	-0.38291,	 0.20506
	-0.38313,	 0.21312
	-0.38319,	 0.22124
	-0.38309,	 0.22941
	-0.38284,	 0.23763
	-0.38243,	 0.24589
	-0.38114,	 0.26253
	-0.37919,	 0.27931
	-0.37658,	 0.2962
	-0.3733,	 0.31317
	-0.3714,	 0.32168
	-0.36934,	 0.33019
	-0.3671,	 0.33871
	-0.36469,	 0.34723
	-0.36211,	 0.35575
	-0.35935,	 0.36426
	-0.35642,	 0.37276
	-0.35332,	 0.38125
	-0.35004,	 0.38972
	-0.34659,	 0.39816
	-0.34296,	 0.40658
	-0.33916,	 0.41497
	-0.33519,	 0.42332
	-0.33104,	 0.43164
	-0.32672,	 0.43991
	-0.32222,	 0.44814
	-0.31756,	 0.45631
	-0.31272,	 0.46443
	-0.30771,	 0.4725
	-0.30254,	 0.4805
	-0.29719,	 0.48843
	-0.29168,	 0.4963
	-0.286,	 0.50409
	-0.28016,	 0.5118
	-0.268,	 0.52697
	-0.2552,	 0.54179
	-0.24178,	 0.55622
	-0.22775,	 0.57025
	-0.21685,	 0.58047
	-0.20562,	 0.59044
	-0.19409,	 0.60014
	-0.18225,	 0.60956
	-0.17011,	 0.61869
	-0.1577,	 0.62752
	-0.145,	 0.63604
	-0.13205,	 0.64425
	-0.11884,	 0.65213
	-0.1054,	 0.65968
	-0.091723,	 0.66689
	-0.077827,	 0.67375
	-0.063725,	 0.68026
	-0.049428,	 0.68641
	-0.034948,	 0.6922
	-0.020298,	 0.69762
	-0.0054902,	 0.70266
	 0.009463,	 0.70733
	 0.024549,	 0.71163
	 0.039756,	 0.71553
	 0.055071,	 0.71906
	 0.070481,	 0.7222
	 0.085974,	 0.72495
	 0.10153,	 0.72731
	 0.11716,	 0.72929
	 0.13282,	 0.73088
	 0.14853,	 0.73208
	 0.16425,	 0.73289
	 0.17999,	 0.73332
	 0.19572,	 0.73337
	 0.21144,	 0.73304
	 0.22714,	 0.73233
	 0.2428,	 0.73124
	 0.25842,	 0.72979
	 0.27398,	 0.72797
	 0.28947,	 0.72578
	 0.30489,	 0.72324
	 0.32022,	 0.72035
	 0.33546,	 0.7171
	 0.35059,	 0.71352
	 0.38051,	 0.70534
	 0.40991,	 0.69586
	 0.43872,	 0.68513
	 0.4669,	 0.6732
	 0.49438,	 0.66012
	 0.52113,	 0.64597
	 0.5471,	 0.63078
	 0.57225,	 0.61463
	 0.59655,	 0.59756
	 0.61997,	 0.57965
	 0.6425,	 0.56095
	 0.66411,	 0.54152
	 0.67662,	 0.52954
	 0.6888,	 0.51732
	 0.70063,	 0.50489
	 0.71212,	 0.49226
