CITIFILE A.01.01
#Momentum: B.12.070 (*) built: Feb 13 2020 
#Momentum Date and Time: Mon Aug 15 03:43:25 2022

NAME Momentum.SP

#  mode: MW    reference: S_50

#eesof Port[1] P1
#eesof Port[2] P2

CONSTANT NBR_OF_PORTS 2

CONSTANT NORMALIZATION 1

VAR freq MAG 410

DATA S[1,1] RI
DATA S[1,2] RI
DATA S[2,1] RI
DATA S[2,2] RI
DATA PORTZ[1] RI
DATA PORTZ[2] RI

VAR_LIST_BEGIN
	 0
	 8.701167245
	 87.01167245
	 870.1167245
	 8701.167245
	 10954.12056
	 13790.42073
	 17361.1111
	 21856.34394
	 27515.5068
	 34639.97072
	 43609.13941
	 54900.65379
	 69115.82818
	 87011.67245
	 109541.2056
	 137904.2073
	 173611.111
	 218563.4394
	 275155.068
	 346399.7072
	 436091.3941
	 549006.5379
	 691158.2818
	 870116.7245
	 1095412.056
	 1379042.073
	 1736111.11
	 2185634.394
	 2751550.68
	 3463997.072
	 4360913.941
	 5490065.379
	 6911582.818
	 8701167.245
	 10954120.56
	 13790420.73
	 17361111.1
	 19629339.22
	 21908241.11
	 27580841.47
	 34722222.2
	 42541975.04
	 52083333.3
	 60365357.38
	 69444444.4
	 86805555.5
	 104166666.6
	 121527777.7
	 138888888.8
	 160590277.7
	 182291666.6
	 203993055.4
	 225694444.3
	 247395833.2
	 269097222.1
	 290798611
	 312499999.9
	 334201388.7
	 355902777.6
	 377604166.5
	 399305555.4
	 421006944.3
	 442708333.1
	 464409722
	 486111110.9
	 507812499.8
	 529513888.7
	 551215277.5
	 572916666.4
	 594618055.3
	 616319444.2
	 638020833.1
	 659722222
	 681423610.8
	 703124999.7
	 724826388.6
	 746527777.5
	 768229166.4
	 789930555.2
	 811631944.1
	 833333333
	 859374999.7
	 885416666.3
	 911458333
	 937499999.6
	 963541666.3
	 989583332.9
	 1015625000
	 1041666666
	 1067708333
	 1093750000
	 1119791666
	 1145833333
	 1171875000
	 1197916666
	 1223958333
	 1250000000
	 1276041666
	 1302083333
	 1328124999
	 1354166666
	 1380208333
	 1406249999
	 1432291666
	 1458333333
	 1484374999
	 1510416666
	 1536458333
	 1562499999
	 1588541666
	 1614583333
	 1640624999
	 1666666666
	 1692708333
	 1718749999
	 1744791666
	 1770833333
	 1796874999
	 1822916666
	 1848958333
	 1875000000
	 1901041666
	 1927083333
	 1953125000
	 1979166666
	 2005208333
	 2031250000
	 2057291666
	 2083333333
	 2135416666
	 2187500000
	 2239583333
	 2291666666
	 2343750000
	 2395833333
	 2447916667
	 2500000000
	 2552083333
	 2604166667
	 2656250000
	 2708333333
	 2760416667
	 2812500000
	 2864583333
	 2916666666
	 2968750000
	 3020833333
	 3072916666
	 3125000000
	 3177083333
	 3229166666
	 3281250000
	 3333333333
	 3385416666
	 3437500000
	 3489583333
	 3541666666
	 3593750000
	 3645833333
	 3697916666
	 3750000000
	 3802083333
	 3854166666
	 3906250000
	 3958333333
	 4010416666
	 4062500000
	 4114583333
	 4166666666
	 4218750000
	 4270833333
	 4322916667
	 4375000000
	 4427083333
	 4479166667
	 4531250000
	 4583333333
	 4635416667
	 4687500000
	 4739583333
	 4791666667
	 4843750000
	 4895833333
	 4947916667
	 5000000000
	 5052083333
	 5104166667
	 5156250000
	 5208333333
	 5260416667
	 5312500000
	 5364583333
	 5416666667
	 5468750000
	 5520833333
	 5572916667
	 5625000000
	 5677083333
	 5729166667
	 5781250000
	 5833333334
	 5885416667
	 5937500000
	 5989583334
	 6041666667
	 6093750000
	 6145833334
	 6197916667
	 6250000000
	 6276041667
	 6302083334
	 6328125000
	 6354166667
	 6380208334
	 6406250000
	 6432291667
	 6458333334
	 6484375000
	 6510416667
	 6536458334
	 6562500000
	 6588541667
	 6614583334
	 6640625000
	 6666666667
	 6712962963
	 6759259260
	 6805555556
	 6851851852
	 6875000000
	 6898148148
	 6921296297
	 6944444445
	 6967592593
	 6990740741
	 7013888889
	 7037037037
	 7060185185
	 7083333334
	 7106481482
	 7129629630
	 7152777778
	 7175925926
	 7199074074
	 7222222222
	 7245370371
	 7268518519
	 7291666667
	 7314814815
	 7337962963
	 7361111111
	 7384259259
	 7407407408
	 7430555556
	 7453703704
	 7476851852
	 7500000000
	 7523148148
	 7546296296
	 7569444444
	 7592592593
	 7615740741
	 7638888889
	 7662037037
	 7685185185
	 7708333333
	 7731481481
	 7754629630
	 7777777778
	 7800925926
	 7824074074
	 7847222222
	 7870370370
	 7893518518
	 7916666667
	 7939814815
	 7962962963
	 7986111111
	 8009259259
	 8032407407
	 8055555555
	 8067129630
	 8078703704
	 8090277778
	 8101851852
	 8113425926
	 8125000000
	 8136574074
	 8148148148
	 8159722222
	 8171296296
	 8182870370
	 8194444444
	 8206018518
	 8217592592
	 8229166667
	 8240740741
	 8252314815
	 8263888889
	 8275462963
	 8287037037
	 8298611111
	 8310185185
	 8321759259
	 8333333333
	 8344907407
	 8356481481
	 8368055555
	 8379629630
	 8391203704
	 8402777778
	 8414351852
	 8425925926
	 8437500000
	 8449074074
	 8460648148
	 8472222222
	 8483796296
	 8495370370
	 8506944444
	 8518518518
	 8530092593
	 8541666667
	 8553240741
	 8564814815
	 8576388889
	 8587962963
	 8599537037
	 8611111111
	 8622685185
	 8634259259
	 8645833333
	 8657407407
	 8668981482
	 8680555556
	 8692129630
	 8703703704
	 8715277778
	 8726851852
	 8738425926
	 8750000000
	 8761574074
	 8773148148
	 8784722222
	 8796296296
	 8807870370
	 8819444445
	 8831018519
	 8842592593
	 8854166667
	 8865740741
	 8877314815
	 8888888889
	 8906250000
	 8923611111
	 8940972222
	 8958333333
	 8975694445
	 8993055556
	 9010416667
	 9027777778
	 9045138889
	 9062500000
	 9079861111
	 9097222222
	 9114583333
	 9131944445
	 9149305556
	 9166666667
	 9184027778
	 9201388889
	 9218750000
	 9236111111
	 9253472222
	 9270833333
	 9288194445
	 9305555556
	 9322916667
	 9340277778
	 9357638889
	 9375000000
	 9392361111
	 9409722222
	 9427083333
	 9444444444
	 9461805556
	 9479166667
	 9496527778
	 9513888889
	 9531250000
	 9548611111
	 9565972222
	 9583333333
	 9600694444
	 9618055556
	 9635416667
	 9652777778
	 9670138889
	 9687500000
	 9704861111
	 9722222222
	 9756944444
	 9791666667
	 9826388889
	 9861111111
	 9895833333
	 9930555556
	 9965277778
	 1e+10
VAR_LIST_END

BEGIN
	 0.999999999999998445687765524781 ,	 -0 
	 1.00000000000000799360577730113 ,	 -2.33558002105116457869371515699e-09 
	 1.00000000000000799360577730113 ,	 -2.33557975459763866865614545532e-08 
	 0.999999999999952371432243580784 ,	 -2.33557979456566755516178091057e-07 
	 0.999999999994440336159584603593 ,	 -2.33557979287257744260841718642e-06 
	 0.999999999991184163050661481975 ,	 -2.94032075207062426613902061945e-06 
	 0.999999999986022292119969279156 ,	 -3.70164451357624102456611581147e-06 
	 0.999999999977842946030648363376 ,	 -4.66009434278713552401995912078e-06 
	 0.999999999964877761549075785297 ,	 -5.86671118808779201714287410141e-06 
	 0.999999999944330086876220775594 ,	 -7.38575179574929574499719819869e-06 
	 0.999999999911764136939495983825 ,	 -9.29811061568808217003834215575e-06 
	 0.999999999860151755903814319026 ,	 -1.17056277255389584723843654501e-05 
	 0.999999999778349635271013085003 ,	 -1.47365121846154689677632632083e-05 
	 0.999999999648704340771132592636 ,	 -1.85521696295376514740382845048e-05 
	 0.999999999443228593243304658245 ,	 -2.33557977092346824576907238225e-05 
	 0.999999999117572202500525690994 ,	 -2.94032070865535288817227410618e-05 
	 0.999999998601441841827863754588 ,	 -3.7016444265833281512811936409e-05 
	 0.999999997783430516484770578245 ,	 -4.66009416944246357417114268173e-05 
	 0.999999996486971909348540066276 ,	 -5.86671084229634098861083657539e-05 
	 0.999999994432227312657346374181 ,	 -7.38575110581229932193991771783e-05 
	 0.999999991175686164801561517379 ,	 -9.29810923895879604117453709478e-05 
	 0.999999986014440622739130049013 ,	 -0.000117056249784766586152784384467 
	 0.999999977834477471461127606744 ,	 -0.000147365067030308383166925523255 
	 0.999999964870261548455232514243 ,	 -0.000185521586925821435620775901043 
	 0.999999944323744505147999461769 ,	 -0.000233557758875790888453138904879 
	 0.999999911760666382321005585254 ,	 -0.00029403163548148703032580897343 
	 0.999999860154068609396915690013 ,	 -0.000370163573999576778206233029778 
	 0.999999778369156100410464205197 ,	 -0.000466007683899677394023797205591 
	 0.999999648763959858577266004431 ,	 -0.000586667626856204882379586251773 
	 0.999999443391609066367209379678 ,	 -0.000738568213789439487193533295795 
	 0.999999117993860764386226946954 ,	 -0.000929797167993143269804079409369 
	 0.999998602512766510130859387573 ,	 -0.00117053506699787979172810992168 
	 0.999997786130971455520466406597 ,	 -0.00147359598841538541602602663261 
	 0.99999649375742194479244062677 ,	 -0.00185510692184259751158492690593 
	 0.999994449244653416108974397503 ,	 -0.00233536070560841357846015853283 
	 0.999991218288653671564247815695 ,	 -0.00293988517376818359050361095797 
	 0.999986120852725313135067608528 ,	 -0.00370078030072762409474762534956 
	 0.999978099383403096211964111717 ,	 -0.00465838521915427905550899367881 
	 0.999972094378725251395678697008 ,	 -0.00526648135982911436148157235948 
	 0.9999653654546577508099858278 ,	 -0.00587725492823315542878503947577 
	 0.999945686089863117196330222214 ,	 -0.00739667688194045602756432344904 
	 0.999915291241867287830302757357 ,	 -0.00930742910202365936189750073027 
	 0.999875428145277744818031351315 ,	 -0.0113967110960536271990761747475 
	 0.999818489537922738819020196388 ,	 -0.0139415200642719339096942121614 
	 0.999762547110977783937357799005 ,	 -0.0161465011264432523052647638906 
	 0.999695091423261406049505239935 ,	 -0.0185597132071621956361795469093 
	 0.999550523743727992176388852386 ,	 -0.0231641710766359171236317138209 
	 0.999387728968405220086879126029 ,	 -0.0277581173188520963224235060807 
	 0.999207766125124186018524596875 ,	 -0.03234453600220335567350105066 
	 0.999010609338535360279820451979 ,	 -0.0369256901956412086907022285232 
	 0.998739179281145861288848664117 ,	 -0.0426469962178660233487192954271 
	 0.998438778567874662961401099892 ,	 -0.048364160127376293329959366929 
	 0.998108205409943161079411311221 ,	 -0.0540779970542404481159692863912 
	 0.997746489442550954507282767736 ,	 -0.0597887719444100407262254748275 
	 0.997352899858452657255725171126 ,	 -0.0654964395544429534012920157693 
	 0.996926909297244812080407427857 ,	 -0.0712007864574026316795141156035 
	 0.996468150616343750769487996877 ,	 -0.0769015121658176842300846942635 
	 0.995976378862956646109694247571 ,	 -0.0825982745841106341666559842452 
	 0.995451441103813006172629229695 ,	 -0.0882907150783533711813078070918 
	 0.994893253482073469662338993658 ,	 -0.0939784720029040454569724261091 
	 0.9943017840441579213717204766 ,	 -0.0996611876923686051954476283754 
	 0.993677039905367265326674441894 ,	 -0.105338511732884027027878914851 
	 0.993019057583211073314544137247 ,	 -0.111010102085804515659184232845 
	 0.992327895602398535324084605236 ,	 -0.116675624934944904831368717169 
	 0.991603628699993855377670115558 ,	 -0.122334753727363104713887764774 
	 0.990846343122386952195768117235 ,	 -0.127987167642759247510042541762 
	 0.990056132612373462897892295587 ,	 -0.13363254958225989632580876787 
	 0.98923,	-0.13927
	 0.98837,	-0.1449
	 0.98748,	-0.15052
	 0.98656,	-0.15613
	 0.98561,	-0.16174
	 0.98462,	-0.16733
	 0.98361,	-0.17292
	 0.98255,	-0.1785
	 0.98147,	-0.18406
	 0.98035,	-0.18962
	 0.97921,	-0.19516
	 0.97802,	-0.2007
	 0.9768,	-0.20621
	 0.97554,	-0.21172
	 0.97424,	-0.21721
	 0.97261,	-0.22379
	 0.97089,	-0.23038
	 0.96912,	-0.23703
	 0.96736,	-0.24375
	 0.96566,	-0.25043
	 0.96396,	-0.25704
	 0.9622,	-0.26359
	 0.96038,	-0.2701
	 0.95851,	-0.27658
	 0.95658,	-0.28304
	 0.95461,	-0.28948
	 0.95258,	-0.29591
	 0.95051,	-0.30232
	 0.9484,	-0.30872
	 0.94624,	-0.31509
	 0.94404,	-0.32145
	 0.9418,	-0.32779
	 0.93952,	-0.33411
	 0.93719,	-0.34041
	 0.93482,	-0.3467
	 0.93241,	-0.35296
	 0.92996,	-0.3592
	 0.92747,	-0.36543
	 0.92494,	-0.37163
	 0.92237,	-0.37781
	 0.91976,	-0.38397
	 0.91711,	-0.39011
	 0.91442,	-0.39623
	 0.91169,	-0.40232
	 0.90893,	-0.4084
	 0.90612,	-0.41445
	 0.90327,	-0.42047
	 0.90039,	-0.42648
	 0.89747,	-0.43246
	 0.89451,	-0.43842
	 0.89151,	-0.44435
	 0.88848,	-0.45026
	 0.88541,	-0.45615
	 0.8823,	-0.46201
	 0.87915,	-0.46785
	 0.87597,	-0.47366
	 0.87275,	-0.47944
	 0.8695,	-0.4852
	 0.86621,	-0.49094
	 0.86288,	-0.49665
	 0.85952,	-0.50233
	 0.85612,	-0.50798
	 0.85269,	-0.51361
	 0.84573,	-0.52479
	 0.83862,	-0.53585
	 0.83139,	-0.54681
	 0.82402,	-0.55764
	 0.81652,	-0.56837
	 0.80889,	-0.57898
	 0.80113,	-0.58946
	 0.79325,	-0.59983
	 0.78525,	-0.61008
	 0.77713,	-0.6202
	 0.76889,	-0.6302
	 0.76054,	-0.64007
	 0.75207,	-0.64982
	 0.74349,	-0.65943
	 0.7348,	-0.66892
	 0.72601,	-0.67827
	 0.71711,	-0.6875
	 0.70811,	-0.69658
	 0.69901,	-0.70554
	 0.68982,	-0.71436
	 0.68053,	-0.72304
	 0.67114,	-0.73158
	 0.66167,	-0.73999
	 0.65211,	-0.74826
	 0.64246,	-0.75639
	 0.63273,	-0.76437
	 0.62291,	-0.77222
	 0.61302,	-0.77992
	 0.60305,	-0.78748
	 0.59301,	-0.7949
	 0.5829,	-0.80217
	 0.57271,	-0.8093
	 0.56246,	-0.81629
	 0.55215,	-0.82313
	 0.54177,	-0.82982
	 0.53133,	-0.83637
	 0.52083,	-0.84277
	 0.51028,	-0.84903
	 0.49967,	-0.85514
	 0.48901,	-0.8611
	 0.4783,	-0.86691
	 0.46754,	-0.87258
	 0.45674,	-0.87811
	 0.4459,	-0.88348
	 0.43501,	-0.88871
	 0.42409,	-0.89379
	 0.41313,	-0.89872
	 0.40213,	-0.90351
	 0.39111,	-0.90815
	 0.38005,	-0.91264
	 0.36896,	-0.91699
	 0.35785,	-0.92119
	 0.34671,	-0.92525
	 0.33555,	-0.92916
	 0.32437,	-0.93292
	 0.31317,	-0.93654
	 0.30196,	-0.94001
	 0.29073,	-0.94334
	 0.27949,	-0.94653
	 0.26823,	-0.94957
	 0.25697,	-0.95247
	 0.2457,	-0.95523
	 0.23443,	-0.95784
	 0.22315,	-0.96031
	 0.21187,	-0.96264
	 0.20059,	-0.96483
	 0.18931,	-0.96688
	 0.17803,	-0.96879
	 0.16676,	-0.97056
	 0.1555,	-0.9722
	 0.14424,	-0.97369
	 0.133,	-0.97505
	 0.12176,	-0.97627
	 0.11054,	-0.97736
	 0.099343,	-0.97831
	 0.088153,	-0.97913
	 0.076981,	-0.97981
	 0.065828,	-0.98036
	 0.054696,	-0.98078
	 0.043586,	-0.98106
	 0.03804,	-0.98116
	 0.0325,	-0.98122
	 0.026966,	-0.98125
	 0.021439,	-0.98124
	 0.015919,	-0.98121
	 0.010405,	-0.98114
	 0.0048978,	-0.98104
	-0.00060201,	-0.98091
	-0.0060945,	-0.98074
	-0.011579,	-0.98055
	-0.017057,	-0.98032
	-0.022526,	-0.98006
	-0.027988,	-0.97977
	-0.033441,	-0.97945
	-0.038887,	-0.9791
	-0.044323,	-0.97871
	-0.053967,	-0.97796
	-0.063583,	-0.9771
	-0.07317,	-0.97615
	-0.082727,	-0.9751
	-0.087494,	-0.97454
	-0.092254,	-0.97395
	-0.097005,	-0.97334
	-0.10174,	-0.97271
	-0.10648,	-0.97206
	-0.11121,	-0.97138
	-0.11593,	-0.97068
	-0.12064,	-0.96995
	-0.12534,	-0.9692
	-0.13003,	-0.96843
	-0.13472,	-0.96763
	-0.13939,	-0.96682
	-0.14406,	-0.96597
	-0.14872,	-0.96511
	-0.15337,	-0.96422
	-0.15801,	-0.96331
	-0.16264,	-0.96238
	-0.16726,	-0.96143
	-0.17187,	-0.96045
	-0.17648,	-0.95945
	-0.18107,	-0.95843
	-0.18565,	-0.95739
	-0.19023,	-0.95632
	-0.19479,	-0.95523
	-0.19934,	-0.95412
	-0.20389,	-0.95299
	-0.20842,	-0.95184
	-0.21294,	-0.95066
	-0.21746,	-0.94946
	-0.22196,	-0.94825
	-0.22645,	-0.94701
	-0.23094,	-0.94574
	-0.23541,	-0.94446
	-0.23987,	-0.94316
	-0.24432,	-0.94183
	-0.24876,	-0.94049
	-0.25319,	-0.93912
	-0.2576,	-0.93773
	-0.26201,	-0.93632
	-0.26641,	-0.9349
	-0.27079,	-0.93345
	-0.27517,	-0.93198
	-0.27953,	-0.93049
	-0.28388,	-0.92898
	-0.28822,	-0.92744
	-0.29255,	-0.92589
	-0.29686,	-0.92432
	-0.30117,	-0.92273
	-0.30546,	-0.92112
	-0.30975,	-0.91949
	-0.31402,	-0.91785
	-0.31828,	-0.91618
	-0.3204,	-0.91534
	-0.32253,	-0.9145
	-0.32465,	-0.91365
	-0.32676,	-0.9128
	-0.32888,	-0.91194
	-0.33098,	-0.91108
	-0.33309,	-0.91022
	-0.33519,	-0.90935
	-0.33728,	-0.90848
	-0.33937,	-0.9076
	-0.34145,	-0.90672
	-0.34353,	-0.90583
	-0.34561,	-0.90493
	-0.34768,	-0.90402
	-0.34975,	-0.90311
	-0.35182,	-0.90219
	-0.35389,	-0.90126
	-0.35595,	-0.90033
	-0.35802,	-0.8994
	-0.36008,	-0.89846
	-0.36214,	-0.89751
	-0.3642,	-0.89657
	-0.36625,	-0.89561
	-0.3683,	-0.89466
	-0.37035,	-0.8937
	-0.3724,	-0.89273
	-0.37444,	-0.89177
	-0.37648,	-0.89079
	-0.37852,	-0.88981
	-0.38055,	-0.88883
	-0.38258,	-0.88785
	-0.38461,	-0.88686
	-0.38663,	-0.88586
	-0.38865,	-0.88486
	-0.39067,	-0.88386
	-0.39268,	-0.88285
	-0.39469,	-0.88184
	-0.3967,	-0.88082
	-0.3987,	-0.8798
	-0.4007,	-0.87877
	-0.4027,	-0.87774
	-0.4047,	-0.87671
	-0.40669,	-0.87567
	-0.40867,	-0.87462
	-0.41066,	-0.87358
	-0.41264,	-0.87252
	-0.41462,	-0.87147
	-0.41659,	-0.87041
	-0.41856,	-0.86934
	-0.42053,	-0.86827
	-0.42249,	-0.8672
	-0.42445,	-0.86612
	-0.42641,	-0.86503
	-0.42836,	-0.86395
	-0.43031,	-0.86286
	-0.43226,	-0.86176
	-0.4342,	-0.86066
	-0.43614,	-0.85955
	-0.43808,	-0.85845
	-0.44001,	-0.85733
	-0.44194,	-0.85622
	-0.44387,	-0.85509
	-0.44579,	-0.85397
	-0.44771,	-0.85284
	-0.44963,	-0.8517
	-0.45154,	-0.85057
	-0.45345,	-0.84942
	-0.45536,	-0.84828
	-0.45726,	-0.84713
	-0.45916,	-0.84597
	-0.46105,	-0.84481
	-0.46295,	-0.84365
	-0.46578,	-0.84189
	-0.4686,	-0.84013
	-0.47142,	-0.83836
	-0.47423,	-0.83658
	-0.47703,	-0.83479
	-0.47982,	-0.83299
	-0.4826,	-0.83118
	-0.48538,	-0.82937
	-0.48815,	-0.82754
	-0.49091,	-0.8257
	-0.49366,	-0.82386
	-0.49641,	-0.82201
	-0.49914,	-0.82014
	-0.50187,	-0.81827
	-0.50459,	-0.81639
	-0.50731,	-0.8145
	-0.51001,	-0.81261
	-0.51271,	-0.8107
	-0.5154,	-0.80879
	-0.51808,	-0.80686
	-0.52075,	-0.80493
	-0.52342,	-0.80299
	-0.52607,	-0.80104
	-0.52872,	-0.79908
	-0.53136,	-0.79711
	-0.53399,	-0.79514
	-0.53662,	-0.79315
	-0.53924,	-0.79116
	-0.54184,	-0.78916
	-0.54444,	-0.78715
	-0.54704,	-0.78513
	-0.54962,	-0.78311
	-0.55219,	-0.78107
	-0.55476,	-0.77903
	-0.55732,	-0.77698
	-0.55987,	-0.77492
	-0.56241,	-0.77285
	-0.56495,	-0.77078
	-0.56748,	-0.7687
	-0.56999,	-0.7666
	-0.5725,	-0.7645
	-0.575,	-0.7624
	-0.5775,	-0.76028
	-0.57998,	-0.75816
	-0.58246,	-0.75603
	-0.58493,	-0.75389
	-0.58739,	-0.75174
	-0.58984,	-0.74958
	-0.59472,	-0.74525
	-0.59957,	-0.74088
	-0.60438,	-0.73649
	-0.60916,	-0.73206
	-0.61391,	-0.7276
	-0.61862,	-0.72311
	-0.6233,	-0.71859
	-0.62795,	-0.71405
END
BEGIN
	 1.04885960000000002069807600767e-16 ,	 0 
	 1.1446464399999999728422548062e-16 ,	 6.09844011000000015748125792993e-12 
	 1.33112921999999989137750311833e-16 ,	 6.09844007000000029594936264921e-11 
	 2.00127457999999984252445741533e-15 ,	 6.09844004999999989666314617999e-10 
	 1.88857501999999997909816452479e-13 ,	 6.09843973000000012552858309669e-09 
	 2.99251373000000011235858925364e-13 ,	 7.67748052000000049975742699325e-09 
	 4.74213116999999993787881226241e-13 ,	 9.6653748600000002370471156735e-09 
	 7.51506442000000017766270213056e-13 ,	 1.21679851000000003806271204471e-08 
	 1.19098028000000004062730218257e-12 ,	 1.53185837999999994055372250527e-08 
	 1.88748330999999992255254223641e-12 ,	 1.92849506999999994764027032301e-08 
	 2.99132601999999982075020103998e-12 ,	 2.42783071999999994064160107905e-08 
	 4.74070340999999981230026637731e-12 ,	 3.05645631000000007499154579867e-08 
	 7.51303280999999922561359248985e-12 ,	 3.84784759000000000112757267499e-08 
	 1.19062579000000006038080252549e-11 ,	 4.84414724999999968863044702908e-08 
	 1.88675006000000000744079727944e-11 ,	 6.09840839000000039227641001824e-08 
	 2.98964259e-11 ,	 7.67741801e-08 
	 4.73663102e-11 ,	 9.66525019e-08 
	 7.50296691e-11 ,	 1.21677365e-07 
	 1.18811631e-10 ,	 1.53180884e-07 
	 1.88047435e-10 ,	 1.92839641e-07 
	 2.9739436e-10 ,	 2.42763442e-07 
	 4.69740694e-10 ,	 3.05606641e-07 
	 7.40522096e-10 ,	 3.84707517e-07 
	 1.16386419e-09 ,	 4.84262328e-07 
	 1.82071383e-09 ,	 6.0954205e-07 
	 2.82823619e-09 ,	 7.67161622e-07 
	 4.34776895e-09 ,	 9.65414627e-07 
	 6.5856449e-09 ,	 1.21469279e-06 
	 9.77999132e-09 ,	 1.52802231e-06 
	 1.41752145e-08 ,	 1.92176806e-06 
	 2.00129803e-08 ,	 2.41656915e-06 
	 2.76014931e-08 ,	 3.0385512e-06 
	 3.7517328e-08 ,	 3.82081549e-06 
	 5.09293556e-08 ,	 4.80520291e-06 
	 6.99971787e-08 ,	 6.04441893e-06 
	 9.83656437e-08 ,	 7.60470452e-06 
	 1.41893959e-07 ,	 9.56925486e-06 
	 2.09840758e-07 ,	 1.20425589e-05 
	 2.60803562e-07 ,	 1.36135638e-05 
	 3.18172572e-07 ,	 1.51917654e-05 
	 4.87962067e-07 ,	 1.91189232e-05 
	 7.56627762e-07 ,	 2.40593221e-05 
	 1.12105443e-06 ,	 2.94628944e-05 
	 1.66501399e-06 ,	 3.60451399e-05 
	 2.2254281e-06 ,	 4.17467728e-05 
	 2.9336677e-06 ,	 4.79822391e-05 
	 4.55981618e-06 ,	 5.98540809e-05 
	 6.53980744e-06 ,	 7.16444965e-05 
	 8.86917276e-06 ,	 8.33375831e-05 
	 1.1542647e-05 ,	 9.49177075e-05 
