CITIFILE A.01.01
#Momentum: B.12.070 (*) built: Feb 13 2020 
#Momentum Date and Time: Mon Aug 15 17:03:14 2022

NAME Momentum.SP

#  mode: MW    reference: S_50

#eesof Port[1] P1
#eesof Port[2] P2

CONSTANT NBR_OF_PORTS 2

CONSTANT NORMALIZATION 1

VAR freq MAG 462

DATA S[1,1] RI
DATA S[1,2] RI
DATA S[2,1] RI
DATA S[2,2] RI
DATA PORTZ[1] RI
DATA PORTZ[2] RI

VAR_LIST_BEGIN
	 0
	 8.701167245
	 87.01167245
	 870.1167245
	 8701.167245
	 10954.12056
	 13790.42073
	 17361.1111
	 21856.34394
	 27515.5068
	 34639.97072
	 43609.13941
	 54900.65379
	 69115.82818
	 87011.67245
	 109541.2056
	 137904.2073
	 173611.111
	 218563.4394
	 275155.068
	 346399.7072
	 436091.3941
	 549006.5379
	 691158.2818
	 870116.7245
	 1095412.056
	 1379042.073
	 1736111.11
	 2185634.394
	 2751550.68
	 3463997.072
	 4360913.941
	 5490065.379
	 6911582.818
	 8701167.245
	 10954120.56
	 13790420.73
	 17361111.1
	 19629339.22
	 21908241.11
	 27580841.47
	 34722222.2
	 42541975.04
	 52083333.3
	 60365357.38
	 69444444.4
	 86805555.5
	 104166666.6
	 121527777.7
	 138888888.8
	 167824074
	 196759259.2
	 225694444.3
	 254629629.5
	 290798611
	 326967592.4
	 363136573.9
	 399305555.4
	 435474536.8
	 471643518.3
	 507812499.8
	 543981481.2
	 562065972
	 580150462.7
	 598234953.5
	 616319444.2
	 634403934.9
	 652488425.7
	 670572916.4
	 688657407.1
	 706741897.9
	 724826388.6
	 742910879.3
	 760995370.1
	 779079860.8
	 797164351.5
	 815248842.3
	 833333333
	 859374999.7
	 885416666.3
	 911458333
	 937499999.6
	 963541666.3
	 989583332.9
	 1015625000
	 1041666666
	 1067708333
	 1093750000
	 1119791666
	 1145833333
	 1171875000
	 1197916666
	 1223958333
	 1250000000
	 1276041666
	 1302083333
	 1328124999
	 1354166666
	 1380208333
	 1406249999
	 1432291666
	 1458333333
	 1484374999
	 1510416666
	 1536458333
	 1562499999
	 1588541666
	 1614583333
	 1640624999
	 1666666666
	 1692708333
	 1718749999
	 1744791666
	 1770833333
	 1796874999
	 1822916666
	 1848958333
	 1874999999
	 1901041666
	 1927083333
	 1953124999
	 1979166666
	 2005208333
	 2031249999
	 2057291666
	 2083333333
	 2109374999
	 2135416666
	 2161458333
	 2187499999
	 2213541666
	 2239583333
	 2265624999
	 2291666666
	 2317708333
	 2343749999
	 2369791666
	 2395833333
	 2421874999
	 2447916666
	 2473958333
	 2500000000
	 2526041666
	 2552083333
	 2578125000
	 2604166666
	 2630208333
	 2656250000
	 2682291666
	 2708333333
	 2734375000
	 2760416666
	 2786458333
	 2812500000
	 2838541666
	 2864583333
	 2890625000
	 2916666666
	 2942708333
	 2968750000
	 2994791666
	 3020833333
	 3046875000
	 3072916666
	 3098958333
	 3125000000
	 3151041666
	 3177083333
	 3203125000
	 3229166666
	 3255208333
	 3281250000
	 3307291666
	 3333333333
	 3359375000
	 3385416666
	 3411458333
	 3437500000
	 3463541666
	 3489583333
	 3515625000
	 3541666666
	 3567708333
	 3593750000
	 3619791666
	 3645833333
	 3671875000
	 3697916666
	 3723958333
	 3750000000
	 3776041666
	 3802083333
	 3828124999
	 3854166666
	 3880208333
	 3906249999
	 3932291666
	 3958333333
	 3984374999
	 4010416666
	 4036458333
	 4062499999
	 4088541666
	 4114583333
	 4140624999
	 4166666666
	 4192708333
	 4218749999
	 4244791666
	 4270833333
	 4296874999
	 4322916666
	 4348958333
	 4375000000
	 4401041666
	 4427083333
	 4453125000
	 4479166666
	 4505208333
	 4531250000
	 4557291666
	 4583333333
	 4609375000
	 4635416666
	 4661458333
	 4687500000
	 4713541666
	 4739583333
	 4765625000
	 4791666666
	 4817708333
	 4843750000
	 4869791667
	 4895833333
	 4921875000
	 4947916667
	 4973958333
	 5000000000
	 5026041667
	 5052083333
	 5078125000
	 5104166667
	 5130208333
	 5156250000
	 5182291667
	 5208333333
	 5234375000
	 5260416667
	 5286458333
	 5312500000
	 5338541667
	 5364583333
	 5390625000
	 5416666667
	 5442708333
	 5468750000
	 5494791667
	 5520833333
	 5546875000
	 5572916667
	 5598958333
	 5625000000
	 5651041667
	 5677083333
	 5703125000
	 5729166667
	 5755208333
	 5781250000
	 5807291667
	 5833333334
	 5859375000
	 5885416667
	 5911458334
	 5937500000
	 5963541667
	 5989583334
	 6015625000
	 6041666667
	 6093750000
	 6145833334
	 6197916667
	 6250000000
	 6302083334
	 6354166667
	 6406250000
	 6458333334
	 6510416667
	 6562500000
	 6614583334
	 6666666667
	 6710069445
	 6753472223
	 6796875000
	 6840277778
	 6883680556
	 6927083334
	 6970486111
	 7013888889
	 7057291667
	 7100694445
	 7144097223
	 7187500000
	 7230902778
	 7274305556
	 7317708334
	 7361111112
	 7382812500
	 7404513889
	 7426215278
	 7447916667
	 7469618056
	 7491319445
	 7513020834
	 7534722223
	 7556423612
	 7578125000
	 7599826389
	 7621527778
	 7643229167
	 7664930556
	 7686631945
	 7708333334
	 7730034723
	 7751736112
	 7773437500
	 7795138889
	 7805989584
	 7816840278
	 7827690973
	 7838541667
	 7849392362
	 7860243056
	 7871093750
	 7881944445
	 7892795139
	 7903645834
	 7914496528
	 7925347223
	 7936197917
	 7947048612
	 7957899306
	 7968750000
	 7979600695
	 7990451389
	 8001302084
	 8012152778
	 8023003473
	 8033854167
	 8044704862
	 8055555556
	 8064236112
	 8072916667
	 8081597223
	 8090277778
	 8098958334
	 8107638889
	 8116319445
	 8125000000
	 8133680556
	 8142361112
	 8151041667
	 8159722223
	 8168402778
	 8177083334
	 8185763889
	 8194444445
	 8198784723
	 8203125001
	 8207465278
	 8211805556
	 8216145834
	 8220486112
	 8224826389
	 8229166667
	 8233506945
	 8237847223
	 8242187501
	 8246527778
	 8250868056
	 8255208334
	 8259548612
	 8263888890
	 8272569445
	 8281250001
	 8289930556
	 8298611112
	 8307291667
	 8315972223
	 8324652778
	 8333333334
	 8339120371
	 8344907408
	 8350694445
	 8356481482
	 8362268519
	 8368055556
	 8373842593
	 8379629630
	 8391203704
	 8402777778
	 8414351852
	 8425925926
	 8437500001
	 8449074075
	 8460648149
	 8472222223
	 8483796297
	 8495370371
	 8506944445
	 8518518519
	 8532986112
	 8547453704
	 8561921297
	 8576388889
	 8590856482
	 8605324075
	 8619791667
	 8634259260
	 8648726852
	 8663194445
	 8677662038
	 8692129630
	 8706597223
	 8721064815
	 8735532408
	 8750000000
	 8778935186
	 8807870371
	 8836805556
	 8865740741
	 8894675926
	 8923611112
	 8952546297
	 8981481482
	 9010416667
	 9039351852
	 9068287038
	 9097222223
	 9126157408
	 9155092593
	 9184027778
	 9212962964
	 9241898149
	 9270833334
	 9299768519
	 9328703704
	 9357638889
	 9386574075
	 9415509260
	 9444444445
	 9490740741
	 9537037038
	 9583333334
	 9629629630
	 9675925926
	 9722222222
	 9768518519
	 9814814815
	 9861111111
	 9907407408
	 9953703704
	 1e+10
VAR_LIST_END

BEGIN
	 6.56431200000000031509472808722e-05 ,	 -0 
	 6.56431200000000031509472808722e-05 ,	 -1.44924793000000001723800231219e-09 
	 6.56431200000000031509472808722e-05 ,	 -1.44924757999999994702708657553e-08 
	 6.56431200000000031509472808722e-05 ,	 -1.44924748999999998451212080038e-07 
	 6.56431192000000036370840894584e-05 ,	 -1.44924748999999993157256159698e-06 
	 6.56431187000000056349854893334e-05 ,	 -1.8244944899999999829231329615e-06 
	 6.56431179000000061211222979196e-05 ,	 -2.29690246999999983496367275682e-06 
	 6.56431167000000000740639327645e-05 ,	 -2.89162888999999995680691491917e-06 
	 6.56431146999999945131423761957e-05 ,	 -3.64034506999999991395684101336e-06 
	 6.56431116000000014791201929931e-05 ,	 -4.58292288999999959003047583783e-06 
	 6.56431068000000043959410445105e-05 ,	 -5.76955802000000039022080053353e-06 
	 6.56430990000000057476431392089e-05 ,	 -7.2634430800000001970462629175e-06 
	 6.56430866999999979754035206447e-05 ,	 -9.14413282999999927811406175149e-06 
	 6.56430672999999995998257618091e-05 ,	 -1.15117807000000003415929317185e-05 
	 6.56430364999999979873021582755e-05 ,	 -1.44924723000000004721537702479e-05 
	 6.56429876e-05 ,	 -1.82449397e-05 
	 6.56429102e-05 ,	 -2.29690143e-05 
	 6.56427874e-05 ,	 -2.8916268e-05 
	 6.56425928e-05 ,	 -3.64034091e-05 
	 6.56422843e-05 ,	 -4.58291458e-05 
	 6.56417949e-05 ,	 -5.76954145e-05 
	 6.56410186e-05 ,	 -7.26341002e-05 
	 6.56397863e-05 ,	 -9.14406687e-05 
	 6.56378283e-05 ,	 -0.000115116491 
	 6.56347126e-05 ,	 -0.000144922098 
	 6.56297437e-05 ,	 -0.000182444161 
	 6.56217908e-05 ,	 -0.0002296797 
	 6.56089911e-05 ,	 -0.000289141858 
	 6.55882162e-05 ,	 -0.000363992589 
	 6.55540662e-05 ,	 -0.00045820879 
	 6.54968852e-05 ,	 -0.000576789641 
	 6.53986475e-05 ,	 -0.000726014154 
	 6.52240937e-05 ,	 -0.000913758857 
	 6.49010974e-05 ,	 -0.00114988574 
	 6.42766735e-05 ,	 -0.00144670998 
	 6.30190776e-05 ,	 -0.00181955662 
	 6.04060456e-05 ,	 -0.00228742075 
	 5.48913071e-05 ,	 -0.00287377138 
	 4.97653411e-05 ,	 -0.00324465289 
	 4.31229537e-05 ,	 -0.00361605326 
	 1.91048977e-05 ,	 -0.00453555184 
	 -2.83337914e-05 ,	 -0.00568455373 
	 -0.000103980822 ,	 -0.00693452497 
	 -0.000230187675 ,	 -0.00845174731 
	-0.00036915,	-0.0097637
	-0.00055169,	-0.011198
	-0.00098471,	-0.013928
	-0.0015231,	-0.016641
	-0.0021629,	-0.019334
	-0.0029013,	-0.022002
	-0.0043453,	-0.026388
	-0.0060485,	-0.030682
	-0.008003,	-0.03487
	-0.010201,	-0.038938
	-0.013278,	-0.043836
	-0.016706,	-0.048503
	-0.020468,	-0.052917
	-0.024544,	-0.057055
	-0.028915,	-0.060899
	-0.03356,	-0.064427
	-0.038456,	-0.067623
	-0.043579,	-0.070471
	-0.046218,	-0.071759
	-0.048905,	-0.072955
	-0.051636,	-0.074056
	-0.054408,	-0.075062
	-0.057218,	-0.075972
	-0.060062,	-0.076783
	-0.062937,	-0.077495
	-0.065839,	-0.078106
	-0.068765,	-0.078617
	-0.071712,	-0.079026
	-0.074676,	-0.079333
	-0.077653,	-0.079536
	-0.08064,	-0.079637
	-0.083634,	-0.079633
	-0.08663,	-0.079526
	-0.089626,	-0.079315
	-0.093931,	-0.07883
	-0.098217,	-0.07813
	-0.10247,	-0.077217
	-0.10668,	-0.076093
	-0.11085,	-0.074759
	-0.11496,	-0.073219
	-0.11899,	-0.071476
	-0.12294,	-0.069533
	-0.12681,	-0.067395
	-0.13057,	-0.065065
	-0.13423,	-0.062549
	-0.13777,	-0.059853
	-0.14118,	-0.056981
	-0.14446,	-0.05394
	-0.14759,	-0.050737
	-0.15058,	-0.047378
	-0.15341,	-0.043871
	-0.15607,	-0.040223
	-0.15856,	-0.036443
	-0.16087,	-0.032537
	-0.163,	-0.028515
	-0.16495,	-0.024386
	-0.16669,	-0.020158
	-0.16824,	-0.015841
	-0.16958,	-0.011443
	-0.17071,	-0.0069756
	-0.17164,	-0.0024472
	-0.17235,	 0.0021318
	-0.17284,	 0.0067514
	-0.17311,	 0.011401
	-0.17316,	 0.016071
	-0.17299,	 0.02075
	-0.17259,	 0.025429
	-0.17198,	 0.030095
	-0.17113,	 0.03474
	-0.17007,	 0.039351
	-0.16878,	 0.043919
	-0.16727,	 0.048433
	-0.16554,	 0.052882
	-0.1636,	 0.057255
	-0.16144,	 0.061543
	-0.15907,	 0.065733
	-0.1565,	 0.069818
	-0.15372,	 0.073785
	-0.15075,	 0.077625
	-0.14758,	 0.081328
	-0.14423,	 0.084884
	-0.1407,	 0.088283
	-0.137,	 0.091518
	-0.13312,	 0.094577
	-0.12909,	 0.097453
	-0.12491,	 0.10013
	-0.12059,	 0.10261
	-0.11613,	 0.10489
	-0.11155,	 0.10695
	-0.10685,	 0.10878
	-0.10205,	 0.11039
	-0.097165,	 0.11176
	-0.092188,	 0.11288
	-0.087139,	 0.11376
	-0.08203,	 0.11438
	-0.076872,	 0.11475
	-0.071678,	 0.11485
	-0.066461,	 0.11469
	-0.061233,	 0.11426
	-0.056007,	 0.11356
	-0.050797,	 0.11258
	-0.045615,	 0.11133
	-0.040477,	 0.1098
	-0.035395,	 0.108
	-0.030384,	 0.10592
	-0.025457,	 0.10357
	-0.02063,	 0.10095
	-0.015915,	 0.098065
	-0.011328,	 0.094909
	-0.0068822,	 0.09149
	-0.0025922,	 0.087815
	 0.0015281,	 0.083888
	 0.0054648,	 0.079716
	 0.0092041,	 0.075305
	 0.012732,	 0.070664
	 0.016037,	 0.065801
	 0.019104,	 0.060725
	 0.021921,	 0.055446
	 0.024476,	 0.049974
	 0.026756,	 0.04432
	 0.028752,	 0.038498
	 0.030451,	 0.032519
	 0.031842,	 0.026396
	 0.032918,	 0.020144
	 0.033667,	 0.013777
	 0.034081,	 0.0073105
	 0.034153,	 0.00075973
	 0.033876,	-0.0058589
	 0.033242,	-0.012529
	 0.032247,	-0.019233
	 0.030884,	-0.025953
	 0.029152,	-0.032672
	 0.027045,	-0.039372
	 0.024563,	-0.046033
	 0.021703,	-0.052637
	 0.018466,	-0.059165
	 0.014851,	-0.065599
	 0.010861,	-0.071918
	 0.0064983,	-0.078104
	 0.0017657,	-0.084137
	-0.0033321,	-0.089998
	-0.0087896,	-0.095669
	-0.0146,	-0.10112
	-0.020757,	-0.10636
	-0.027252,	-0.11134
	-0.034074,	-0.11606
	-0.041215,	-0.1205
	-0.048663,	-0.12464
	-0.056406,	-0.12847
	-0.064431,	-0.13196
	-0.072725,	-0.1351
	-0.081272,	-0.13788
	-0.090058,	-0.14028
	-0.099067,	-0.14229
	-0.10828,	-0.14389
	-0.11768,	-0.14508
	-0.12725,	-0.14584
	-0.13698,	-0.14616
	-0.14683,	-0.14603
	-0.1568,	-0.14545
	-0.16686,	-0.1444
	-0.17699,	-0.14288
	-0.18717,	-0.14088
	-0.19739,	-0.13839
	-0.2076,	-0.13542
	-0.21781,	-0.13196
	-0.22797,	-0.128
	-0.23808,	-0.12355
	-0.2481,	-0.11861
	-0.25802,	-0.11318
	-0.26781,	-0.10725
	-0.27746,	-0.10084
	-0.28693,	-0.093955
	-0.2962,	-0.086585
	-0.30526,	-0.078744
	-0.31409,	-0.07044
	-0.32265,	-0.061683
	-0.33093,	-0.05248
	-0.33892,	-0.042844
	-0.34658,	-0.032785
	-0.3539,	-0.022315
	-0.36087,	-0.01145
	-0.36746,	-0.00020157
	-0.37365,	 0.011414
	-0.37943,	 0.02338
	-0.38479,	 0.035682
	-0.38971,	 0.048301
	-0.39416,	 0.061219
	-0.39815,	 0.074417
	-0.40166,	 0.087878
	-0.40467,	 0.10157
	-0.40718,	 0.1155
	-0.40917,	 0.12962
	-0.41064,	 0.14393
	-0.41158,	 0.15839
	-0.41198,	 0.173
	-0.41184,	 0.18771
	-0.41114,	 0.20253
	-0.4099,	 0.21741
	-0.40809,	 0.23235
	-0.40573,	 0.24731
	-0.40281,	 0.26228
	-0.39933,	 0.27723
	-0.39529,	 0.29215
	-0.3907,	 0.307
	-0.38554,	 0.32178
	-0.37984,	 0.33646
	-0.37359,	 0.35101
	-0.36679,	 0.36541
	-0.35946,	 0.37966
	-0.35159,	 0.39372
	-0.3432,	 0.40757
	-0.3343,	 0.4212
	-0.32489,	 0.43459
	-0.31498,	 0.44771
	-0.30458,	 0.46056
	-0.29371,	 0.47311
	-0.28237,	 0.48535
	-0.27057,	 0.49725
	-0.25833,	 0.50881
	-0.24567,	 0.52
	-0.23259,	 0.53082
	-0.2191,	 0.54125
	-0.20523,	 0.55127
	-0.19099,	 0.56086
	-0.17639,	 0.57003
	-0.16145,	 0.57875
	-0.14618,	 0.58702
	-0.1306,	 0.59482
	-0.11473,	 0.60214
	-0.098594,	 0.60898
	-0.082189,	 0.61531
	-0.065543,	 0.62115
	-0.048673,	 0.62647
	-0.014333,	 0.63555
	 0.020687,	 0.64251
	 0.05624,	 0.64729
	 0.09218,	 0.64988
	 0.12835,	 0.65026
	 0.16462,	 0.64841
	 0.20083,	 0.64433
	 0.23684,	 0.63803
	 0.2725,	 0.62952
	 0.30766,	 0.61884
	 0.34219,	 0.606
	 0.37595,	 0.59106
	 0.40339,	 0.57702
	 0.43012,	 0.56158
	 0.45606,	 0.54477
	 0.48114,	 0.52661
	 0.50528,	 0.50716
	 0.5284,	 0.48644
	 0.55042,	 0.4645
	 0.57127,	 0.44137
	 0.59088,	 0.41712
	 0.60915,	 0.39177
	 0.626,	 0.36539
	 0.64135,	 0.33802
	 0.65509,	 0.30971
	 0.66713,	 0.28052
	 0.67734,	 0.25052
	 0.6856,	 0.21977
	 0.68895,	 0.20414
	 0.69175,	 0.18835
	 0.69399,	 0.17242
	 0.69564,	 0.15636
	 0.69667,	 0.14019
	 0.69705,	 0.12391
	 0.69677,	 0.10756
	 0.69577,	 0.091151
	 0.69403,	 0.074703
	 0.69151,	 0.05825
	 0.68816,	 0.041823
	 0.68395,	 0.025461
	 0.67882,	 0.0092098
	 0.67271,	-0.0068783
	 0.66558,	-0.02274
	 0.65735,	-0.038302
	 0.64797,	-0.053473
	 0.63737,	-0.068149
	 0.62548,	-0.082203
	 0.61224,	-0.095482
	 0.60509,	-0.10177
	 0.59758,	-0.1078
	 0.5897,	-0.11354
	 0.58144,	-0.11895
	 0.57281,	-0.12401
	 0.5638,	-0.12868
	 0.55441,	-0.13292
	 0.54465,	-0.13668
	 0.53451,	-0.13992
	 0.52401,	-0.1426
	 0.51316,	-0.14465
	 0.50197,	-0.14603
	 0.49048,	-0.14667
	 0.47872,	-0.14652
	 0.46671,	-0.1455
	 0.45451,	-0.14356
	 0.44219,	-0.14062
	 0.4298,	-0.13662
	 0.41743,	-0.13149
	 0.40517,	-0.12517
	 0.39315,	-0.11761
	 0.38147,	-0.10875
	 0.37028,	-0.098573
	 0.35974,	-0.08704
	 0.35188,	-0.076839
	 0.34464,	-0.065782
	 0.33811,	-0.053887
	 0.33238,	-0.041186
	 0.32756,	-0.027722
	 0.32374,	-0.013554
	 0.32103,	 0.0012481
	 0.31951,	 0.016597
	 0.31926,	 0.032392
	 0.32036,	 0.048518
	 0.32287,	 0.06485
	 0.32683,	 0.081248
	 0.33228,	 0.097566
	 0.33921,	 0.11365
	 0.34763,	 0.12934
	 0.35749,	 0.1445
	 0.36295,	 0.15182
	 0.36875,	 0.15896
	 0.37488,	 0.16588
	 0.38133,	 0.17258
	 0.38809,	 0.17904
	 0.39513,	 0.18523
	 0.40246,	 0.19116
	 0.41006,	 0.1968
	 0.4179,	 0.20214
	 0.42598,	 0.20717
	 0.43427,	 0.21189
	 0.44276,	 0.21627
	 0.45142,	 0.22033
	 0.46025,	 0.22404
	 0.46923,	 0.2274
	 0.47833,	 0.23042
	 0.49682,	 0.23539
	 0.5156,	 0.23895
	 0.53452,	 0.24112
	 0.55345,	 0.24191
	 0.57227,	 0.24138
	 0.59086,	 0.23957
	 0.60913,	 0.23656
	 0.62698,	 0.23242
	 0.63861,	 0.22907
	 0.65001,	 0.22527
	 0.66115,	 0.22105
	 0.67203,	 0.21643
	 0.68263,	 0.21144
	 0.69293,	 0.2061
	 0.70294,	 0.20044
	 0.71263,	 0.19447
	 0.7311,	 0.18174
	 0.7483,	 0.16807
	 0.76424,	 0.15362
	 0.77894,	 0.13855
	 0.79243,	 0.12298
	 0.80474,	 0.10704
	 0.81593,	 0.090824
	 0.82604,	 0.074424
	 0.83513,	 0.05792
	 0.84326,	 0.041378
	 0.85049,	 0.024855
	 0.85686,	 0.0083973
	 0.86372,	-0.012022
	 0.86943,	-0.032215
	 0.87409,	-0.052135
	 0.87779,	-0.071744
	 0.88061,	-0.091017
	 0.88263,	-0.10993
	 0.88391,	-0.12849
	 0.88452,	-0.14667
	 0.88452,	-0.16448
	 0.88395,	-0.18191
	 0.88286,	-0.19898
	 0.8813,	-0.21568
	 0.8793,	-0.23202
	 0.8769,	-0.24801
	 0.87412,	-0.26366
	 0.87101,	-0.27897
	 0.86384,	-0.30865
	 0.85556,	-0.3371
	 0.84633,	-0.3644
	 0.83625,	-0.39062
	 0.82543,	-0.41583
	 0.81393,	-0.44009
	 0.80183,	-0.46344
	 0.78918,	-0.48595
	 0.77603,	-0.50764
	 0.7624,	-0.52857
	 0.74835,	-0.54877
	 0.73389,	-0.56826
	 0.71904,	-0.58708
	 0.70383,	-0.60525
	 0.68827,	-0.6228
	 0.67238,	-0.63974
	 0.65616,	-0.65609
	 0.63964,	-0.67186
	 0.62282,	-0.68707
	 0.6057,	-0.70172
	 0.58829,	-0.71583
	 0.57061,	-0.72941
	 0.55265,	-0.74245
	 0.53442,	-0.75497
	 0.5047,	-0.77391
	 0.47432,	-0.79152
	 0.44328,	-0.80779
	 0.4116,	-0.82272
	 0.37929,	-0.83629
	 0.34636,	-0.84847
	 0.31281,	-0.85923
	 0.27866,	-0.86854
	 0.24392,	-0.87635
	 0.20861,	-0.8826
	 0.17275,	-0.88723
	 0.13636,	-0.89017
END
BEGIN
	 0.999934356880003205603202331986 ,	 -0 
	 0.999934356879999874934128456516 ,	 -8.23705101349325730097916675732e-09 
	 0.999934356879994323819005330733 ,	 -8.23705061936408355904859490693e-08 
	 0.999934356879442987064976477996 ,	 -8.23705061769874902211086009629e-07 
	 0.999934356824278447462006624846 ,	 -8.23705061539503624601366027491e-06 
	 0.999934356791688294663345004665 ,	 -1.0369832335488382568655651994e-05 
	 0.999934356740035057420357134106 ,	 -1.30548454395362778512890145066e-05 
	 0.9999343566581706532758744288 ,	 -1.64350766632959111035461319261e-05 
	 0.999934356528424994614567822282 ,	 -2.06905356409659013650070846779e-05 
	 0.999934356322790929283428340568 ,	 -2.60478410721576292274903607904e-05 
	 0.999934355996882517914059462782 ,	 -3.27922889881149259849735244643e-05 
	 0.99993435548035458637627925782 ,	 -4.12830457991730792599582855473e-05 
	 0.99993435466170987879763742967 ,	 -5.1972275194656081254152013571e-05 
	 0.999934353364247296980238388642 ,	 -6.54292174768200673895535146585e-05 
	 0.999934351307908309003380509239 ,	 -8.23705036085420339020402025199e-05 
	 0.999934348048831189714746869868 ,	 -0.000103698318285883051004248045501 
	 0.999934342883547211400241394585 ,	 -0.000130548444279621200792007584823 
	 0.999934334697133997416074180364 ,	 -0.000164350746451991103214140821365 
	 0.999934321722570240709160316328 ,	 -0.000206905316146838158530840701133 
	 0.999934301159334126829492106481 ,	 -0.000260478330386365586335273292207 
	 0.999934268568962059120508456544 ,	 -0.000327922729594976036793241291889 
	 0.999934216917106599709086367511 ,	 -0.000412830138177333605398189320113 
	 0.999934135055446482454044598853 ,	 -0.000519722113849763189818986575119 
	 0.999934005315999074881005981297 ,	 -0.000654290901634324573166168192984 
	 0.999933799699221470547172430088 ,	 -0.000823702495971578851907679563737 
	 0.999933473834632269294786510727 ,	 -0.00103697811505645831609001561446 
	 0.999932957414349732339076126664 ,	 -0.00130547433246050448296671220305 
	 0.999932139044509171732499908103 ,	 -0.00164348729569141482897975947708 
	 0.999930842269635022923068845557 ,	 -0.0020690129318521044421430588045 
	 0.999928787657100914820773596148 ,	 -0.00260470307467938755330294497981 
	 0.999925532913455206163177990675 ,	 -0.00327906734228361473881818710652 
	 0.999920378495366857229953438946 ,	 -0.00412798262543917493516687500232 
	 0.999912219306693939024910378066 ,	 -0.00519658637521736022080176553573 
	 0.999899312852774446724879453541 ,	 -0.00654164639525178781553904627799 
	 0.999878919625103446122693640064 ,	 -0.00823451792422574824215075750544 
	 0.999846752061487653584492818482 ,	 -0.0103648171110325149069097960819 
