CITIFILE A.01.01
#Momentum: B.12.070 (*) built: Feb 13 2020 
#Momentum Date and Time: Tue Aug 16 13:22:17 2022

NAME Momentum.SP

#  mode: MW    reference: S_50

#eesof Port[1] P1
#eesof Port[2] P2

CONSTANT NBR_OF_PORTS 2

CONSTANT NORMALIZATION 1

VAR freq MAG 506

DATA S[1,1] RI
DATA S[1,2] RI
DATA S[2,1] RI
DATA S[2,2] RI
DATA PORTZ[1] RI
DATA PORTZ[2] RI

VAR_LIST_BEGIN
	 0
	 8.701167245
	 87.01167245
	 870.1167245
	 8701.167245
	 10954.12056
	 13790.42073
	 17361.1111
	 21856.34394
	 27515.5068
	 34639.97072
	 43609.13941
	 54900.65379
	 69115.82818
	 87011.67245
	 109541.2056
	 137904.2073
	 173611.111
	 218563.4394
	 275155.068
	 346399.7072
	 436091.3941
	 549006.5379
	 691158.2818
	 870116.7245
	 1095412.056
	 1379042.073
	 1736111.11
	 2185634.394
	 2751550.68
	 3463997.072
	 4360913.941
	 5490065.379
	 6911582.818
	 8701167.245
	 10954120.56
	 13790420.73
	 17361111.1
	 19629339.22
	 21908241.11
	 27580841.47
	 34722222.2
	 42541975.04
	 52083333.3
	 60365357.38
	 69444444.4
	 86805555.5
	 104166666.6
	 121527777.7
	 138888888.8
	 160590277.7
	 182291666.6
	 203993055.4
	 225694444.3
	 247395833.2
	 269097222.1
	 290798611
	 312499999.9
	 334201388.7
	 355902777.6
	 377604166.5
	 399305555.4
	 421006944.3
	 442708333.1
	 464409722
	 486111110.9
	 507812499.8
	 529513888.7
	 551215277.5
	 572916666.4
	 594618055.3
	 616319444.2
	 638020833.1
	 659722222
	 681423610.8
	 703124999.7
	 724826388.6
	 746527777.5
	 768229166.4
	 789930555.2
	 811631944.1
	 833333333
	 859374999.7
	 885416666.3
	 911458333
	 937499999.6
	 963541666.3
	 989583332.9
	 1015625000
	 1041666666
	 1067708333
	 1093750000
	 1119791666
	 1145833333
	 1171875000
	 1197916666
	 1223958333
	 1250000000
	 1276041666
	 1302083333
	 1328124999
	 1354166666
	 1380208333
	 1406249999
	 1432291666
	 1458333333
	 1484374999
	 1510416666
	 1536458333
	 1562499999
	 1588541666
	 1614583333
	 1640624999
	 1666666666
	 1692708333
	 1718749999
	 1744791666
	 1770833333
	 1796874999
	 1822916666
	 1848958333
	 1875000000
	 1901041666
	 1927083333
	 1953125000
	 1979166666
	 1992187500
	 2005208333
	 2018229166
	 2031250000
	 2044270833
	 2057291666
	 2070312500
	 2083333333
	 2096354166
	 2109375000
	 2122395833
	 2135416666
	 2148437500
	 2161458333
	 2174479166
	 2187500000
	 2200520833
	 2213541666
	 2226562500
	 2239583333
	 2252604166
	 2265625000
	 2278645833
	 2291666666
	 2304687500
	 2317708333
	 2330729167
	 2343750000
	 2356770833
	 2369791667
	 2382812500
	 2395833333
	 2408854167
	 2421875000
	 2434895833
	 2447916667
	 2460937500
	 2473958333
	 2486979167
	 2500000000
	 2526041667
	 2552083333
	 2578125000
	 2604166667
	 2617187500
	 2630208333
	 2643229167
	 2656250000
	 2669270833
	 2682291667
	 2695312500
	 2708333333
	 2721354167
	 2734375000
	 2747395833
	 2760416667
	 2773437500
	 2786458333
	 2799479167
	 2812500000
	 2825520833
	 2838541667
	 2851562500
	 2864583333
	 2877604167
	 2890625000
	 2903645833
	 2916666666
	 2929687500
	 2942708333
	 2955729166
	 2968750000
	 2981770833
	 2994791666
	 3007812500
	 3020833333
	 3033854166
	 3046875000
	 3059895833
	 3072916666
	 3085937500
	 3098958333
	 3111979166
	 3125000000
	 3138020833
	 3151041666
	 3164062500
	 3177083333
	 3190104166
	 3203125000
	 3216145833
	 3229166666
	 3255208333
	 3281250000
	 3307291666
	 3333333333
	 3359375000
	 3385416666
	 3411458333
	 3437500000
	 3463541666
	 3489583333
	 3515625000
	 3541666666
	 3567708333
	 3593750000
	 3619791667
	 3645833333
	 3671875000
	 3697916667
	 3723958333
	 3750000000
	 3776041667
	 3802083333
	 3828125000
	 3854166667
	 3880208333
	 3906250000
	 3932291667
	 3958333334
	 3984375000
	 4010416667
	 4036458334
	 4062500000
	 4088541667
	 4114583334
	 4140625000
	 4166666667
	 4192708334
	 4218750000
	 4244791667
	 4270833334
	 4296875000
	 4322916667
	 4348958334
	 4375000000
	 4401041667
	 4427083334
	 4453125000
	 4479166667
	 4505208334
	 4531250000
	 4557291667
	 4583333334
	 4609375000
	 4635416667
	 4661458333
	 4687500000
	 4713541667
	 4739583333
	 4765625000
	 4791666667
	 4843750000
	 4895833333
	 4947916667
	 5000000000
	 5052083333
	 5104166667
	 5156250000
	 5208333333
	 5260416667
	 5312500000
	 5364583333
	 5416666667
	 5468750000
	 5520833333
	 5572916667
	 5625000000
	 5677083333
	 5729166667
	 5781250000
	 5833333334
	 5885416667
	 5937500000
	 5989583334
	 6041666667
	 6093750000
	 6145833334
	 6197916667
	 6250000000
	 6302083334
	 6354166667
	 6406250000
	 6458333334
	 6484375000
	 6510416667
	 6536458334
	 6562500000
	 6588541667
	 6614583334
	 6640625000
	 6666666667
	 6692708334
	 6718750000
	 6744791667
	 6770833334
	 6796875000
	 6822916667
	 6848958334
	 6875000000
	 6901041667
	 6927083334
	 6953125001
	 6979166667
	 6992187501
	 7005208334
	 7018229167
	 7031250001
	 7044270834
	 7057291667
	 7070312501
	 7083333334
	 7096354167
	 7109375001
	 7122395834
	 7135416667
	 7148437501
	 7161458334
	 7174479167
	 7187500000
	 7200520834
	 7213541667
	 7226562500
	 7239583334
	 7252604167
	 7265625000
	 7278645834
	 7291666667
	 7304687500
	 7317708334
	 7330729167
	 7343750000
	 7356770834
	 7369791667
	 7382812500
	 7395833334
	 7408854167
	 7421875000
	 7434895833
	 7447916667
	 7460937500
	 7473958333
	 7486979167
	 7500000000
	 7513020833
	 7526041667
	 7539062500
	 7552083333
	 7565104167
	 7578125000
	 7591145833
	 7604166667
	 7610677083
	 7617187500
	 7623697917
	 7630208333
	 7636718750
	 7643229167
	 7649739583
	 7656250000
	 7662760417
	 7669270833
	 7675781250
	 7682291667
	 7688802083
	 7695312500
	 7701822917
	 7708333334
	 7721354167
	 7734375000
	 7747395834
	 7760416667
	 7773437500
	 7786458334
	 7799479167
	 7812500000
	 7825520834
	 7838541667
	 7851562500
	 7864583334
	 7877604167
	 7890625000
	 7903645834
	 7916666667
	 7929687500
	 7942708334
	 7955729167
	 7968750000
	 7981770834
	 7994791667
	 8007812500
	 8020833334
	 8033854167
	 8046875000
	 8059895834
	 8072916667
	 8085937500
	 8098958334
	 8111979167
	 8125000000
	 8151041667
	 8177083334
	 8203125001
	 8229166667
	 8255208334
	 8281250001
	 8307291667
	 8333333334
	 8359375001
	 8385416667
	 8411458334
	 8437500001
	 8463541667
	 8489583334
	 8515625001
	 8541666667
	 8567708334
	 8593750001
	 8619791667
	 8645833334
	 8671875001
	 8697916667
	 8723958334
	 8750000000
	 8776041667
	 8802083334
	 8828125000
	 8854166667
	 8880208334
	 8906250000
	 8932291667
	 8958333334
	 8984375000
	 9010416667
	 9036458334
	 9062500000
	 9088541667
	 9114583334
	 9140625000
	 9166666667
	 9192708334
	 9218750000
	 9244791667
	 9270833334
	 9296875000
	 9322916667
	 9348958334
	 9375000000
	 9401041667
	 9427083334
	 9453125001
	 9479166667
	 9505208334
	 9531250001
	 9557291667
	 9583333334
	 9609375001
	 9635416667
	 9661458334
	 9687500000
	 9713541667
	 9739583334
	 9765625000
	 9791666667
	 9804687500
	 9817708334
	 9830729167
	 9843750000
	 9856770834
	 9869791667
	 9882812500
	 9895833334
	 9908854167
	 9921875000
	 9934895833
	 9947916667
	 9960937500
	 9973958333
	 9986979167
	 1e+10
VAR_LIST_END

BEGIN
	 7.56558650999999976341850449479e-05 ,	 -0 
	 7.56558650999999976341850449479e-05 ,	 -1.6023274899999999728786349455e-09 
	 7.56558650999999976341850449479e-05 ,	 -1.60232694999999988346020752443e-08 
	 7.56558653999999991459496362367e-05 ,	 -1.60232696999999988983563303097e-07 
	 7.56558922000000031891572827014e-05 ,	 -1.60232695000000002904399533377e-06 
	 7.56559079999999969760871021407e-05 ,	 -2.0172101099999999709508607254e-06 
	 7.56559330999999969701377833253e-05 ,	 -2.53951704999999979933114277464e-06 
	 7.56559729000000032780176573155e-05 ,	 -3.19706248999999994233494650386e-06 
	 7.56560358999999954879300823052e-05 ,	 -4.02486312000000025663202021797e-06 
	 7.56561357999999974620342069187e-05 ,	 -5.0670022799999997372951202057e-06 
	 7.56562941000000046057327729443e-05 ,	 -6.37897755000000033994995290998e-06 
	 7.56565451000000045462395847906e-05 ,	 -8.03065620000000039658757944316e-06 
	 7.56569427999999983506379530596e-05 ,	 -1.01099957000000006837690108563e-05 
	 7.5657573100000003276689730658e-05 ,	 -1.27277275000000003596497752389e-05 
	 7.56585720999999959126766646555e-05 ,	 -1.60232536000000006350466041916e-05 
	 7.56601554e-05 ,	 -2.01720693e-05 
	 7.56626646e-05 ,	 -2.53951071e-05 
	 7.56666412e-05 ,	 -3.19704985e-05 
	 7.56729433e-05 ,	 -4.02483789e-05 
	 7.56829299e-05 ,	 -5.06695193e-05 
	 7.56987543e-05 ,	 -6.37887711e-05 
	 7.57238257e-05 ,	 -8.03045581e-05 
	 7.57635398e-05 ,	 -0.000101095959 
	 7.58264286e-05 ,	 -0.000127269302 
	 7.59259659e-05 ,	 -0.000160216636 
	 7.60833836e-05 ,	 -0.000201688996 
	 7.63320266e-05 ,	 -0.000253887911 
	 7.67239802e-05 ,	 -0.000319579233 
	 7.73398986e-05 ,	 -0.000402233726 
	 7.83029276e-05 ,	 -0.0005061989 
	 7.97967865e-05 ,	 -0.000636905734 
	 8.20850608e-05 ,	 -0.000801111842 
	 8.55206263e-05 ,	 -0.00100717945 
	 9.05158181e-05 ,	 -0.00126538533 
	 9.74102426e-05 ,	 -0.00158827104 
	 0.000106129316 ,	 -0.00199108822 
	 0.000115513786 ,	 -0.00249249959 
	 0.000122308208 ,	 -0.00311582464 
	 0.000122799167 ,	 -0.00350809423 
	 0.000119955482 ,	 -0.00389998591 
	 9.79391857e-05 ,	 -0.00486878774 
	 4.12342618e-05 ,	 -0.0060809107 
	 -5.40903758e-05 ,	 -0.00740401982 
	 -0.000211984846 ,	 -0.0090155878 
	-0.00038273,	-0.010412
	-0.00060357,	-0.01194
	-0.001119,	-0.01485
	-0.001752,	-0.017737
	-0.0024989,	-0.020597
	-0.0033568,	-0.023424
	-0.0045817,	-0.026903
	-0.0059718,	-0.030314
	-0.0075222,	-0.033649
	-0.0092285,	-0.0369
	-0.011086,	-0.040061
	-0.013089,	-0.043124
	-0.015233,	-0.046083
	-0.017512,	-0.048931
	-0.019921,	-0.051662
	-0.022454,	-0.054271
	-0.025105,	-0.056751
	-0.027867,	-0.059098
	-0.030735,	-0.061305
	-0.0337,	-0.063368
	-0.036757,	-0.065283
	-0.039898,	-0.067045
	-0.043115,	-0.068651
	-0.046401,	-0.070097
	-0.049747,	-0.071379
	-0.053147,	-0.072494
	-0.056591,	-0.073441
	-0.060071,	-0.074218
	-0.06358,	-0.074821
	-0.067108,	-0.075251
	-0.070647,	-0.075506
	-0.074188,	-0.075585
	-0.077723,	-0.075489
	-0.081243,	-0.075218
	-0.084739,	-0.074772
	-0.088204,	-0.074153
	-0.091627,	-0.073361
	-0.095002,	-0.072399
	-0.098974,	-0.071023
	-0.10284,	-0.069409
	-0.10661,	-0.067563
	-0.11025,	-0.06549
	-0.11375,	-0.063198
	-0.11709,	-0.060694
	-0.12028,	-0.057986
	-0.12328,	-0.055083
	-0.1261,	-0.051995
	-0.12871,	-0.048732
	-0.13112,	-0.045305
	-0.1333,	-0.041726
	-0.13525,	-0.038006
	-0.13697,	-0.034159
	-0.13843,	-0.030197
	-0.13963,	-0.026135
	-0.14057,	-0.021986
	-0.14125,	-0.017765
	-0.14164,	-0.013488
	-0.14175,	-0.0091697
	-0.14158,	-0.0048259
	-0.14112,	-0.00047305
	-0.14036,	 0.0038724
	-0.13932,	 0.0081936
	-0.13797,	 0.012474
	-0.13634,	 0.016695
	-0.1344,	 0.020841
	-0.13218,	 0.024894
	-0.12967,	 0.028835
	-0.12687,	 0.032648
	-0.12378,	 0.036315
	-0.12042,	 0.039818
	-0.11679,	 0.04314
	-0.1129,	 0.046263
	-0.10875,	 0.04917
	-0.10435,	 0.051844
	-0.099729,	 0.054268
	-0.094875,	 0.056426
	-0.08981,	 0.058302
	-0.084545,	 0.05988
	-0.079096,	 0.061145
	-0.073479,	 0.062083
	-0.067708,	 0.062679
	-0.061803,	 0.06292
	-0.058805,	 0.062904
	-0.05578,	 0.062794
	-0.05273,	 0.06259
	-0.049659,	 0.062289
	-0.046568,	 0.061891
	-0.04346,	 0.061394
	-0.040338,	 0.060797
	-0.037204,	 0.0601
	-0.034062,	 0.0593
	-0.030914,	 0.058396
	-0.027762,	 0.057389
	-0.02461,	 0.056277
	-0.021461,	 0.055058
	-0.018318,	 0.053734
	-0.015183,	 0.052302
	-0.012061,	 0.050762
	-0.008953,	 0.049114
	-0.0058633,	 0.047358
	-0.002795,	 0.045492
	 0.00024878,	 0.043517
	 0.0032648,	 0.041433
	 0.0062497,	 0.03924
	 0.0092002,	 0.036937
	 0.012113,	 0.034526
	 0.014985,	 0.032005
	 0.017812,	 0.029375
	 0.020591,	 0.026638
	 0.023319,	 0.023792
	 0.025992,	 0.02084
	 0.028607,	 0.017782
	 0.031161,	 0.014618
	 0.03365,	 0.01135
	 0.03607,	 0.0079778
	 0.038418,	 0.0045039
	 0.040691,	 0.00092909
	 0.042885,	-0.0027453
	 0.044998,	-0.0065177
	 0.047025,	-0.010387
	 0.048963,	-0.01435
	 0.050809,	-0.018407
	 0.054212,	-0.02679
	 0.057208,	-0.035521
	 0.059772,	-0.044579
	 0.06188,	-0.053945
	 0.062755,	-0.058737
	 0.063508,	-0.063597
	 0.064135,	-0.068522
	 0.064635,	-0.07351
	 0.065003,	-0.078557
	 0.065238,	-0.08366
	 0.065338,	-0.088815
	 0.0653,	-0.094019
	 0.065121,	-0.099268
	 0.064801,	-0.10455
	 0.064336,	-0.10988
	 0.063725,	-0.11525
	 0.062966,	-0.12064
	 0.062057,	-0.12606
	 0.060997,	-0.1315
	 0.059785,	-0.13695
	 0.058418,	-0.14243
	 0.056896,	-0.14791
	 0.055218,	-0.15339
	 0.053383,	-0.15888
	 0.05139,	-0.16436
	 0.049238,	-0.16984
	 0.046926,	-0.1753
	 0.044455,	-0.18074
	 0.041824,	-0.18617
	 0.039034,	-0.19156
	 0.036083,	-0.19693
	 0.032972,	-0.20226
	 0.029702,	-0.20755
	 0.026273,	-0.21279
	 0.022685,	-0.21799
	 0.01894,	-0.22313
	 0.015038,	-0.22821
	 0.01098,	-0.23323
	 0.0067674,	-0.23818
	 0.0024017,	-0.24306
	-0.0021157,	-0.24786
	-0.0067833,	-0.25258
	-0.011599,	-0.25722
	-0.016562,	-0.26177
	-0.021669,	-0.26622
	-0.026918,	-0.27057
	-0.032307,	-0.27482
	-0.037834,	-0.27896
	-0.043495,	-0.283
	-0.04929,	-0.28691
	-0.055213,	-0.29071
	-0.061263,	-0.29439
	-0.073731,	-0.30136
	-0.086668,	-0.3078
	-0.10004,	-0.31368
	-0.11383,	-0.31898
	-0.128,	-0.32367
	-0.14253,	-0.32774
	-0.15737,	-0.33115
	-0.1725,	-0.33391
	-0.18787,	-0.33598
	-0.20347,	-0.33736
	-0.21924,	-0.33804
	-0.23516,	-0.33801
	-0.25118,	-0.33726
	-0.26728,	-0.33579
	-0.28341,	-0.3336
	-0.29955,	-0.33068
	-0.31565,	-0.32703
	-0.33168,	-0.32267
	-0.3476,	-0.3176
	-0.36339,	-0.31182
	-0.37901,	-0.30534
	-0.39443,	-0.29818
	-0.40961,	-0.29034
	-0.42453,	-0.28184
	-0.43916,	-0.2727
	-0.45347,	-0.26293
	-0.46743,	-0.25255
	-0.48102,	-0.24157
	-0.49422,	-0.23002
	-0.507,	-0.21792
	-0.51934,	-0.20529
	-0.53122,	-0.19214
	-0.54262,	-0.17851
	-0.55353,	-0.16441
	-0.56393,	-0.14988
	-0.5738,	-0.13492
	-0.58313,	-0.11957
	-0.59192,	-0.10385
	-0.60013,	-0.087789
	-0.60778,	-0.071403
	-0.61485,	-0.05472
	-0.62132,	-0.037765
	-0.62721,	-0.020562
	-0.63249,	-0.0031344
	-0.63717,	 0.014493
	-0.64124,	 0.032296
	-0.6447,	 0.050253
	-0.64755,	 0.068339
	-0.64979,	 0.086531
	-0.65142,	 0.1048
	-0.65243,	 0.12314
	-0.65284,	 0.14152
	-0.65265,	 0.15992
	-0.65185,	 0.17832
	-0.65046,	 0.19669
	-0.64847,	 0.21502
	-0.64589,	 0.23329
	-0.64274,	 0.25148
	-0.639,	 0.26957
	-0.6347,	 0.28754
	-0.62442,	 0.32306
	-0.61196,	 0.35789
	-0.59739,	 0.39192
	-0.58079,	 0.42502
	-0.56224,	 0.45707
	-0.54182,	 0.48797
	-0.51963,	 0.51762
	-0.49576,	 0.54593
	-0.47031,	 0.5728
	-0.44337,	 0.59817
	-0.41505,	 0.62195
	-0.38546,	 0.64408
	-0.3547,	 0.6645
	-0.32288,	 0.68315
	-0.29011,	 0.69999
	-0.2565,	 0.71497
	-0.22217,	 0.72805
	-0.18724,	 0.73922
	-0.15181,	 0.74842
	-0.11601,	 0.75566
	-0.079968,	 0.76092
	-0.043783,	 0.76418
	-0.0075874,	 0.76545
	 0.028496,	 0.76472
	 0.064342,	 0.76202
	 0.099824,	 0.75735
	 0.13481,	 0.75075
	 0.16918,	 0.74223
	 0.20279,	 0.73186
	 0.23551,	 0.71966
	 0.2672,	 0.7057
	 0.29772,	 0.69005
	 0.31249,	 0.68162
	 0.32692,	 0.6728
	 0.34098,	 0.6636
	 0.35466,	 0.65403
	 0.36793,	 0.64412
	 0.38078,	 0.63388
	 0.39318,	 0.62333
	 0.40512,	 0.61248
	 0.41658,	 0.60136
	 0.42753,	 0.58999
	 0.43796,	 0.5784
	 0.44785,	 0.56662
	 0.45717,	 0.55468
	 0.46592,	 0.54262
	 0.47406,	 0.53046
	 0.48159,	 0.51826
	 0.48849,	 0.50606
	 0.49474,	 0.49392
	 0.50035,	 0.48188
	 0.50529,	 0.47
	 0.50751,	 0.46415
	 0.50957,	 0.45837
	 0.51147,	 0.45266
	 0.5132,	 0.44704
	 0.51478,	 0.44152
	 0.51619,	 0.4361
	 0.51745,	 0.4308
	 0.51855,	 0.42563
	 0.51951,	 0.4206
	 0.52033,	 0.41572
	 0.52101,	 0.41101
	 0.52156,	 0.40647
	 0.522,	 0.40212
	 0.52232,	 0.39798
	 0.52254,	 0.39404
	 0.52267,	 0.39033
	 0.52273,	 0.38686
	 0.52273,	 0.38364
	 0.52268,	 0.38067
	 0.52261,	 0.37798
	 0.52254,	 0.37557
	 0.52247,	 0.37346
	 0.52245,	 0.37163
	 0.52249,	 0.37012
	 0.52262,	 0.36891
	 0.52287,	 0.36801
	 0.52326,	 0.36742
	 0.52384,	 0.36714
	 0.52462,	 0.36716
	 0.52564,	 0.36748
	 0.52694,	 0.36808
	 0.52855,	 0.36895
	 0.5305,	 0.37006
	 0.53282,	 0.3714
	 0.53555,	 0.37294
	 0.53871,	 0.37465
	 0.54233,	 0.37649
	 0.54644,	 0.37842
	 0.55105,	 0.3804
	 0.55618,	 0.38238
	 0.56185,	 0.38433
	 0.56805,	 0.38618
	 0.5748,	 0.38788
	 0.58209,	 0.38939
	 0.58991,	 0.39065
	 0.59823,	 0.3916
	 0.60705,	 0.39221
	 0.61633,	 0.39241
	 0.62114,	 0.39235
	 0.62604,	 0.39217
	 0.63105,	 0.39187
	 0.63614,	 0.39144
	 0.64133,	 0.39088
	 0.6466,	 0.39019
	 0.65194,	 0.38936
	 0.65736,	 0.38839
	 0.66284,	 0.38727
	 0.66838,	 0.386
	 0.67397,	 0.38458
	 0.6796,	 0.38301
	 0.68528,	 0.38129
	 0.69098,	 0.37941
	 0.69672,	 0.37737
	 0.70247,	 0.37518
	 0.71401,	 0.37032
	 0.72555,	 0.36483
	 0.73704,	 0.35871
	 0.74844,	 0.35199
	 0.7597,	 0.34467
	 0.77077,	 0.33677
	 0.78163,	 0.32832
	 0.79224,	 0.31934
	 0.80256,	 0.30986
	 0.81256,	 0.29991
	 0.82223,	 0.28951
	 0.83155,	 0.2787
	 0.84048,	 0.2675
	 0.84903,	 0.25595
	 0.85719,	 0.24409
	 0.86493,	 0.23193
	 0.87226,	 0.2195
	 0.87917,	 0.20685
	 0.88567,	 0.19398
	 0.89175,	 0.18093
	 0.89741,	 0.16773
	 0.90267,	 0.15438
	 0.90751,	 0.14093
	 0.91196,	 0.12738
	 0.91601,	 0.11375
	 0.91967,	 0.10006
	 0.92295,	 0.086338
	 0.92587,	 0.072581
	 0.92842,	 0.05881
	 0.93061,	 0.045037
	 0.93246,	 0.031273
	 0.93397,	 0.017529
	 0.93602,	-0.0098615
	 0.93683,	-0.037069
	 0.93645,	-0.06404
	 0.93497,	-0.09073
	 0.93242,	-0.1171
	 0.92887,	-0.14312
	 0.92437,	-0.16878
	 0.91896,	-0.19404
	 0.91269,	-0.21891
	 0.90559,	-0.24335
	 0.8977,	-0.26737
	 0.88905,	-0.29095
	 0.87967,	-0.31408
	 0.86958,	-0.33677
	 0.8588,	-0.35899
	 0.84735,	-0.38075
	 0.83526,	-0.40205
	 0.82253,	-0.42286
	 0.80918,	-0.44319
	 0.79523,	-0.46303
	 0.78067,	-0.48236
	 0.76554,	-0.50119
	 0.74982,	-0.51949
	 0.73353,	-0.53727
	 0.71667,	-0.5545
	 0.69926,	-0.57117
	 0.68129,	-0.58726
	 0.66277,	-0.60277
	 0.6437,	-0.61767
	 0.62409,	-0.63193
	 0.60393,	-0.64555
	 0.58324,	-0.65849
	 0.56202,	-0.67072
	 0.54028,	-0.68222
	 0.518,	-0.69296
	 0.49521,	-0.70289
	 0.47192,	-0.71199
	 0.44812,	-0.72021
	 0.42382,	-0.72751
	 0.39906,	-0.73384
	 0.37383,	-0.73914
	 0.34816,	-0.74337
	 0.32208,	-0.74646
	 0.29561,	-0.74835
	 0.26878,	-0.74896
	 0.24165,	-0.74824
	 0.21426,	-0.7461
	 0.18667,	-0.74245
	 0.15895,	-0.73723
	 0.13118,	-0.73033
	 0.10347,	-0.72168
	 0.075938,	-0.71119
	 0.048696,	-0.69876
	 0.021906,	-0.68433
	-0.0042593,	-0.6678
	-0.029603,	-0.64913
	-0.053903,	-0.62826
	-0.076913,	-0.60515
	-0.098361,	-0.57982
	-0.11795,	-0.55228
	-0.13537,	-0.52261
	-0.15028,	-0.49092
	-0.16234,	-0.45739
	-0.17121,	-0.42226
	-0.17435,	-0.40418
	-0.17657,	-0.38583
	-0.17782,	-0.36724
	-0.17809,	-0.34847
	-0.17733,	-0.32958
	-0.17552,	-0.31063
	-0.17264,	-0.29169
	-0.16867,	-0.27283
	-0.16359,	-0.25413
	-0.15739,	-0.23565
	-0.15009,	-0.21749
	-0.14168,	-0.19971
	-0.13218,	-0.1824
	-0.1216,	-0.16565
	-0.10999,	-0.14953
	-0.097377,	-0.13413
END
BEGIN
	 0.999924344134896725400096784142 ,	 -0 
	 0.999924344134916154303027724382 ,	 -8.71832564702888085372833870679e-09 
	 0.999924344134908826831065198348 ,	 -8.71832574828252174214959779874e-08 
	 0.999924344134192844002484434895 ,	 -8.71832575457956795994540755146e-07 
	 0.999924344062595227278222864697 ,	 -8.71832575064770878142672572153e-06 
	 0.999924344020295507995399475476 ,	 -1.09757218319216911725511032216e-05 
	 0.999924343953254357586502010236 ,	 -1.38176151185649773861507938477e-05 
	 0.999924343847001573237776028691 ,	 -1.73953467874775509482976332265e-05 
	 0.999924343678602056684212584514 ,	 -2.18994440859935930038249196627e-05 
	 0.999924343411707328144188977603 ,	 -2.75697666005033118971634387151e-05 
	 0.999924342988707359758393522497 ,	 -3.4708279643718385754080912875e-05 
	 0.999924342318298187137770582922 ,	 -4.36951349906237757753091344171e-05 
	 0.999924341255770676717418155022 ,	 -5.50089153075448717561402034448e-05 
	 0.999924339571779396962369901303 ,	 -6.92521203496776049240990502653e-05 
	 0.999924336902834665075090470054 ,	 -8.71832521214784342267201111554e-05 
	 0.999924332672847526737314183265 ,	 -0.000109757207574224559254449928858 
	 0.999924325968781446682953628624 ,	 -0.000138176129751886806254490558388 
