CITIFILE A.01.01
#Momentum: B.12.070 (*) built: Feb 13 2020 
#Momentum Date and Time: Tue Aug 16 06:23:53 2022

NAME Momentum.SP

#  mode: MW    reference: S_50

#eesof Port[1] P1
#eesof Port[2] P2

CONSTANT NBR_OF_PORTS 2

CONSTANT NORMALIZATION 1

VAR freq MAG 422

DATA S[1,1] RI
DATA S[1,2] RI
DATA S[2,1] RI
DATA S[2,2] RI
DATA PORTZ[1] RI
DATA PORTZ[2] RI

VAR_LIST_BEGIN
	 0
	 8.701167245
	 87.01167245
	 870.1167245
	 8701.167245
	 10954.12056
	 13790.42073
	 17361.1111
	 21856.34394
	 27515.5068
	 34639.97072
	 43609.13941
	 54900.65379
	 69115.82818
	 87011.67245
	 109541.2056
	 137904.2073
	 173611.111
	 218563.4394
	 275155.068
	 346399.7072
	 436091.3941
	 549006.5379
	 691158.2818
	 870116.7245
	 1095412.056
	 1379042.073
	 1736111.11
	 2185634.394
	 2751550.68
	 3463997.072
	 4360913.941
	 5490065.379
	 6911582.818
	 8701167.245
	 10954120.56
	 13790420.73
	 17361111.1
	 19629339.22
	 21908241.11
	 27580841.47
	 34722222.2
	 42541975.04
	 52083333.3
	 60365357.38
	 69444444.4
	 86805555.5
	 104166666.6
	 121527777.7
	 138888888.8
	 160590277.7
	 182291666.6
	 203993055.4
	 225694444.3
	 247395833.2
	 269097222.1
	 290798611
	 312499999.9
	 334201388.7
	 355902777.6
	 377604166.5
	 399305555.4
	 421006944.3
	 442708333.1
	 464409722
	 486111110.9
	 507812499.8
	 529513888.7
	 551215277.5
	 572916666.4
	 594618055.3
	 616319444.2
	 638020833.1
	 659722222
	 681423610.8
	 703124999.7
	 724826388.6
	 746527777.5
	 768229166.4
	 789930555.2
	 811631944.1
	 833333333
	 859374999.7
	 885416666.3
	 911458333
	 937499999.6
	 963541666.3
	 989583332.9
	 1015625000
	 1041666666
	 1067708333
	 1093750000
	 1119791666
	 1145833333
	 1171875000
	 1197916666
	 1223958333
	 1250000000
	 1302083333
	 1354166666
	 1406249999
	 1458333333
	 1510416666
	 1562499999
	 1614583333
	 1666666666
	 1718749999
	 1770833333
	 1822916666
	 1874999999
	 1927083333
	 1979166666
	 2031249999
	 2083333333
	 2135416666
	 2187499999
	 2239583333
	 2291666666
	 2343749999
	 2395833333
	 2447916666
	 2500000000
	 2552083333
	 2604166666
	 2656250000
	 2708333333
	 2760416666
	 2812500000
	 2864583333
	 2916666666
	 2968750000
	 3020833333
	 3072916666
	 3125000000
	 3177083333
	 3229166666
	 3281250000
	 3333333333
	 3368055555
	 3402777777
	 3437500000
	 3472222222
	 3506944444
	 3541666666
	 3576388889
	 3611111111
	 3645833333
	 3680555555
	 3715277777
	 3750000000
	 3784722222
	 3819444444
	 3854166666
	 3888888888
	 3923611111
	 3958333333
	 3993055555
	 4027777777
	 4062500000
	 4097222222
	 4131944444
	 4166666666
	 4201388888
	 4236111111
	 4270833333
	 4305555555
	 4340277777
	 4375000000
	 4409722222
	 4444444444
	 4479166666
	 4513888888
	 4548611111
	 4583333333
	 4600694444
	 4618055555
	 4635416666
	 4652777778
	 4670138889
	 4687500000
	 4704861111
	 4722222222
	 4730902778
	 4739583333
	 4748263889
	 4756944444
	 4765625000
	 4774305555
	 4782986111
	 4791666666
	 4800347222
	 4809027778
	 4817708333
	 4826388889
	 4835069444
	 4843750000
	 4852430555
	 4861111111
	 4869791667
	 4878472222
	 4887152778
	 4895833333
	 4904513889
	 4913194444
	 4921875000
	 4930555556
	 4939236111
	 4947916667
	 4956597222
	 4965277778
	 4973958333
	 4982638889
	 4991319444
	 5000000000
	 5008680556
	 5017361111
	 5026041667
	 5034722222
	 5043402778
	 5052083333
	 5060763889
	 5069444444
	 5078125000
	 5086805556
	 5095486111
	 5104166667
	 5112847222
	 5121527778
	 5130208333
	 5138888889
	 5149739583
	 5160590278
	 5171440972
	 5182291667
	 5193142361
	 5203993056
	 5214843750
	 5225694445
	 5247395834
	 5269097222
	 5290798611
	 5312500000
	 5334201389
	 5355902778
	 5377604167
	 5399305556
	 5421006945
	 5442708334
	 5464409723
	 5486111112
	 5507812500
	 5529513889
	 5551215278
	 5572916667
	 5594618056
	 5616319445
	 5638020834
	 5659722223
	 5703125001
	 5746527778
	 5789930556
	 5833333334
	 5885416667
	 5937500001
	 5989583334
	 6041666667
	 6093750001
	 6145833334
	 6197916667
	 6250000000
	 6302083334
	 6354166667
	 6406250000
	 6458333334
	 6510416667
	 6562500000
	 6614583334
	 6666666667
	 6736111111
	 6805555556
	 6875000000
	 6944444445
	 7013888889
	 7083333334
	 7152777778
	 7222222222
	 7256944445
	 7291666667
	 7326388889
	 7361111111
	 7395833334
	 7430555556
	 7465277778
	 7500000000
	 7534722222
	 7569444445
	 7604166667
	 7638888889
	 7673611111
	 7708333334
	 7743055556
	 7777777778
	 7812500000
	 7847222222
	 7881944445
	 7916666667
	 7951388889
	 7986111112
	 8020833334
	 8055555556
	 8090277778
	 8125000000
	 8159722223
	 8194444445
	 8211805556
	 8229166667
	 8246527778
	 8263888890
	 8281250001
	 8298611112
	 8315972223
	 8333333334
	 8356481482
	 8379629630
	 8402777778
	 8425925926
	 8449074075
	 8472222223
	 8495370371
	 8518518519
	 8530092593
	 8541666667
	 8553240741
	 8564814815
	 8576388889
	 8587962963
	 8599537037
	 8611111112
	 8622685186
	 8634259260
	 8645833334
	 8657407408
	 8668981482
	 8680555556
	 8692129630
	 8703703704
	 8715277778
	 8726851852
	 8738425926
	 8750000000
	 8761574074
	 8773148148
	 8784722222
	 8796296296
	 8807870371
	 8819444445
	 8831018519
	 8842592593
	 8854166667
	 8865740741
	 8877314815
	 8888888889
	 8897569445
	 8906250000
	 8914930556
	 8923611111
	 8932291667
	 8940972222
	 8949652778
	 8958333334
	 8967013889
	 8975694445
	 8984375000
	 8993055556
	 9001736111
	 9010416667
	 9019097222
	 9027777778
	 9036458334
	 9045138889
	 9053819445
	 9062500000
	 9071180556
	 9079861111
	 9088541667
	 9097222222
	 9114583334
	 9131944445
	 9149305556
	 9166666667
	 9179687500
	 9192708334
	 9205729167
	 9218750000
	 9231770834
	 9244791667
	 9257812500
	 9270833334
	 9296875000
	 9322916667
	 9348958334
	 9375000000
	 9401041667
	 9427083334
	 9453125001
	 9479166667
	 9505208334
	 9531250001
	 9557291667
	 9583333334
	 9609375001
	 9635416667
	 9661458334
	 9687500000
	 9713541667
	 9739583334
	 9765625000
	 9791666667
	 9843750000
	 9895833334
	 9947916667
	 1e+10
VAR_LIST_END

BEGIN
	 5.85721073000000018275723601135e-05 ,	 -0 
	 5.85721073000000018275723601135e-05 ,	 -3.55704927000000009329827551426e-09 
	 5.85721073000000018275723601135e-05 ,	 -3.55704813999999981580479565049e-08 
	 5.85721069000000020706407644067e-05 ,	 -3.55704813999999981580479565049e-07 
	 5.85720714000000016201050168085e-05 ,	 -3.55704814999999995795885131267e-06 
	 5.85720503999999974405372971109e-05 ,	 -4.47805830000000030339732393081e-06 
	 5.85720170999999990412571149179e-05 ,	 -5.63754139000000023995880227279e-06 
	 5.85719642999999972449685914366e-05 ,	 -7.09724410999999970550916952861e-06 
	 5.85718807000000006124200424562e-05 ,	 -8.93490096999999970281674394057e-06 
	 5.85717481000000032625649182272e-05 ,	 -1.12483738999999995078742792698e-05 
	 5.85715381000000021244691894573e-05 ,	 -1.41608637000000002671316542968e-05 
	 5.85712050999999978028766334237e-05 ,	 -1.78274711999999988562125990965e-05 
	 5.85706774000000016805467240033e-05 ,	 -2.24434565000000005243092904283e-05 
	 5.85698410999999999619787527383e-05 ,	 -2.82546375999999996710219246632e-05 
	 5.8568515700000002381902380888e-05 ,	 -3.55704811999999989148568690922e-05 
	 5.8566415e-05 ,	 -4.47805825e-05 
	 5.85630855e-05 ,	 -5.63754129e-05 
	 5.85578088e-05 ,	 -7.09724392e-05 
	 5.85494457e-05 ,	 -8.93490058e-05 
	 5.8536191e-05 ,	 -0.000112483731 
	 5.85151839e-05 ,	 -0.000141608622 
	 5.84818897e-05 ,	 -0.000178274681 
	 5.84291221e-05 ,	 -0.000224434504 
	 5.8345491e-05 ,	 -0.000282546255 
	 5.82129448e-05 ,	 -0.000355704571 
	 5.80028732e-05 ,	 -0.000447805344 
	 5.76699324e-05 ,	 -0.000563753168 
	 5.71422574e-05 ,	 -0.000709722475 
	 5.63059504e-05 ,	 -0.000893486233 
	 5.49804966e-05 ,	 -0.00112482968 
	 5.2879803e-05 ,	 -0.00141607099 
	 4.95504507e-05 ,	 -0.00178271643 
	 4.427384e-05 ,	 -0.00224428442 
	 3.59111191e-05 ,	 -0.0028253416 
	 2.26574597e-05 ,	 -0.00355680438 
	 1.65272955e-06 ,	 -0.00447757194 
	 -3.16352527e-05 ,	 -0.00563657103 
	 -8.43874451e-05 ,	 -0.00709530816 
	 -0.000124173856 ,	 -0.00802170059 
	 -0.000169056564 ,	 -0.00895222679 
	-0.00030213,	-0.011267
	-0.00051296,	-0.014179
	-0.00079907,	-0.017363
	-0.0012262,	-0.02124
	-0.0016664,	-0.024596
	-0.0022227,	-0.028265
	-0.0035002,	-0.035246
	-0.0050561,	-0.042169
	-0.0068872,	-0.049024
	-0.0089898,	-0.0558
	-0.011993,	-0.064145
	-0.015406,	-0.072332
	-0.019217,	-0.080342
	-0.023415,	-0.088157
	-0.02799,	-0.095762
	-0.032929,	-0.10313
	-0.038219,	-0.11027
	-0.043847,	-0.11715
	-0.049799,	-0.12376
	-0.056061,	-0.13008
	-0.062619,	-0.13611
	-0.069458,	-0.14184
	-0.076562,	-0.14725
	-0.083918,	-0.15234
	-0.091508,	-0.15709
	-0.099319,	-0.1615
	-0.10733,	-0.16556
	-0.11553,	-0.16927
	-0.1239,	-0.17261
	-0.13243,	-0.17559
	-0.1411,	-0.1782
	-0.1499,	-0.18044
	-0.1588,	-0.1823
	-0.16779,	-0.18377
	-0.17686,	-0.18487
	-0.18598,	-0.18559
	-0.19515,	-0.18593
	-0.20435,	-0.18588
	-0.21356,	-0.18546
	-0.22277,	-0.18465
	-0.23196,	-0.18347
	-0.24112,	-0.18192
	-0.25205,	-0.17957
	-0.26289,	-0.17669
	-0.27361,	-0.1733
	-0.28419,	-0.1694
	-0.29462,	-0.165
	-0.30486,	-0.16012
	-0.3149,	-0.15475
	-0.32471,	-0.14893
	-0.33428,	-0.14266
	-0.3436,	-0.13595
	-0.35264,	-0.12882
	-0.36138,	-0.12128
	-0.36982,	-0.11335
	-0.37793,	-0.10505
	-0.3857,	-0.096392
	-0.39312,	-0.087389
	-0.40687,	-0.068425
	-0.41909,	-0.048299
	-0.4297,	-0.027154
	-0.43864,	-0.0051317
	-0.44587,	 0.017625
	-0.45134,	 0.040972
	-0.45504,	 0.064768
	-0.45695,	 0.088872
	-0.45707,	 0.11314
	-0.45539,	 0.13745
	-0.45193,	 0.16166
	-0.44672,	 0.18563
	-0.43978,	 0.20925
	-0.43115,	 0.23239
	-0.42087,	 0.25493
	-0.409,	 0.27676
	-0.3956,	 0.29775
	-0.38072,	 0.31781
	-0.36444,	 0.33683
	-0.34684,	 0.35471
	-0.32799,	 0.37136
	-0.308,	 0.38668
	-0.28695,	 0.40059
	-0.26495,	 0.41301
	-0.24211,	 0.42387
	-0.21854,	 0.4331
	-0.19437,	 0.44064
	-0.16971,	 0.44644
	-0.1447,	 0.45046
	-0.11949,	 0.45265
	-0.094215,	 0.453
	-0.069018,	 0.45149
	-0.044057,	 0.44812
	-0.019488,	 0.4429
	 0.0045285,	 0.43584
	 0.027833,	 0.427
	 0.050263,	 0.41642
	 0.071659,	 0.40418
	 0.091864,	 0.39037
	 0.11072,	 0.37509
	 0.12248,	 0.36416
	 0.13354,	 0.35267
	 0.14385,	 0.34067
	 0.1534,	 0.32822
	 0.16214,	 0.31537
	 0.17004,	 0.30217
	 0.1771,	 0.28869
	 0.18327,	 0.275
	 0.18856,	 0.26115
	 0.19296,	 0.24722
	 0.19647,	 0.23329
	 0.19908,	 0.21942
	 0.20083,	 0.2057
	 0.20173,	 0.19219
	 0.20182,	 0.17898
	 0.20113,	 0.16614
	 0.19972,	 0.15375
	 0.19766,	 0.14186
	 0.19502,	 0.13055
	 0.19188,	 0.11988
	 0.18835,	 0.10988
	 0.18453,	 0.10062
	 0.18057,	 0.092104
	 0.17659,	 0.084351
	 0.17275,	 0.077355
	 0.16922,	 0.071088
	 0.16618,	 0.065495
	 0.16383,	 0.060489
	 0.16239,	 0.055942
	 0.16208,	 0.05168
	 0.16312,	 0.047466
	 0.16577,	 0.042994
	 0.17025,	 0.037864
	 0.1768,	 0.031559
	 0.1856,	 0.023421
	 0.19676,	 0.01261
	 0.20323,	 0.0058792
	 0.21028,	-0.0019396
	 0.21787,	-0.011022
	 0.22593,	-0.021564
	 0.2344,	-0.033782
	 0.24314,	-0.047914
	 0.25199,	-0.064216
	 0.26073,	-0.082962
	 0.26498,	-0.093341
	 0.26908,	-0.10443
	 0.27298,	-0.11629
	 0.27665,	-0.12893
	 0.28,	-0.1424
	 0.28297,	-0.15672
	 0.28549,	-0.17192
	 0.28747,	-0.18804
	 0.2888,	-0.20509
	 0.2894,	-0.22307
	 0.28915,	-0.24201
	 0.28792,	-0.26188
	 0.28559,	-0.28268
	 0.28201,	-0.30437
	 0.27705,	-0.3269
	 0.27056,	-0.3502
	 0.26238,	-0.37419
	 0.25235,	-0.39875
	 0.24034,	-0.42375
	 0.22619,	-0.44902
	 0.20979,	-0.47436
	 0.191,	-0.49955
	 0.16976,	-0.52435
	 0.14599,	-0.54848
	 0.11968,	-0.57165
	 0.090848,	-0.59355
	 0.059546,	-0.61385
	 0.025894,	-0.63225
	-0.0099441,	-0.64842
	-0.047753,	-0.66208
	-0.08727,	-0.67297
	-0.12818,	-0.68084
	-0.17016,	-0.68554
	-0.21283,	-0.68692
	-0.2558,	-0.68493
	-0.29868,	-0.67955
	-0.34109,	-0.67084
	-0.38266,	-0.6589
	-0.42305,	-0.6439
	-0.46195,	-0.62604
	-0.49912,	-0.60554
	-0.53431,	-0.58269
	-0.56737,	-0.55775
	-0.59818,	-0.53103
	-0.62663,	-0.50279
	-0.65271,	-0.47333
	-0.6764,	-0.44291
	-0.69774,	-0.41179
	-0.72117,	-0.37224
	-0.74116,	-0.33234
	-0.75789,	-0.29245
	-0.77158,	-0.25285
	-0.78246,	-0.21379
	-0.79076,	-0.17545
	-0.7967,	-0.13797
	-0.80052,	-0.10148
	-0.80262,	-0.03174
	-0.79857,	 0.033464
	-0.78968,	 0.094082
	-0.77699,	 0.15025
	-0.76137,	 0.20222
	-0.74347,	 0.25028
	-0.72382,	 0.29475
	-0.70282,	 0.33593
	-0.6808,	 0.37411
	-0.65798,	 0.40955
	-0.63457,	 0.44249
	-0.61069,	 0.47315
	-0.58646,	 0.50172
	-0.56196,	 0.52836
	-0.53726,	 0.55323
	-0.51242,	 0.57644
	-0.48746,	 0.59812
	-0.46242,	 0.61836
	-0.43732,	 0.63725
	-0.41219,	 0.65487
	-0.3619,	 0.68654
	-0.31165,	 0.71384
	-0.26154,	 0.73711
	-0.21164,	 0.75665
	-0.15215,	 0.7755
	-0.093218,	 0.78965
	-0.03496,	 0.79938
	 0.022484,	 0.80495
	 0.078983,	 0.80657
	 0.1344,	 0.80443
	 0.18862,	 0.79874
	 0.24152,	 0.78965
	 0.29297,	 0.77736
	 0.34287,	 0.76201
	 0.39111,	 0.74378
	 0.43759,	 0.72282
	 0.48223,	 0.69928
	 0.52493,	 0.67333
	 0.56564,	 0.6451
	 0.60427,	 0.61475
	 0.65246,	 0.57121
	 0.69673,	 0.52447
	 0.73699,	 0.47482
	 0.77313,	 0.42257
	 0.80508,	 0.368
	 0.83276,	 0.31136
	 0.85611,	 0.25289
	 0.87506,	 0.19283
	 0.88286,	 0.16226
	 0.88953,	 0.13137
	 0.89506,	 0.10018
	 0.89944,	 0.068717
	 0.90265,	 0.036988
	 0.90467,	 0.0050194
	 0.90549,	-0.027169
	 0.90509,	-0.05956
	 0.90345,	-0.092137
	 0.90053,	-0.12488
	 0.8963,	-0.15778
	 0.89073,	-0.19081
	 0.88377,	-0.22397
	 0.87538,	-0.25723
	 0.86551,	-0.29058
	 0.85408,	-0.324
	 0.84103,	-0.35746
	 0.82626,	-0.39094
	 0.8097,	-0.4244
	 0.79121,	-0.45782
	 0.77069,	-0.49113
	 0.74797,	-0.52428
	 0.72291,	-0.5572
	 0.6953,	-0.58977
	 0.66494,	-0.62188
	 0.63159,	-0.65335
	 0.59498,	-0.68398
	 0.55483,	-0.7135
	 0.53332,	-0.72773
	 0.51081,	-0.74155
	 0.48724,	-0.75489
	 0.46259,	-0.76769
	 0.4368,	-0.77988
	 0.40983,	-0.79137
	 0.38164,	-0.80207
	 0.3522,	-0.81187
	 0.31093,	-0.82335
	 0.2673,	-0.83272
	 0.22127,	-0.83963
	 0.17283,	-0.84368
	 0.12201,	-0.84443
	 0.068922,	-0.84137
	 0.013716,	-0.83398
	-0.043343,	-0.82167
	-0.072457,	-0.81348
	-0.10188,	-0.80383
	-0.13156,	-0.79265
	-0.16141,	-0.77986
	-0.19135,	-0.76537
	-0.22128,	-0.74913
	-0.2511,	-0.73105
	-0.28068,	-0.71108
	-0.30991,	-0.68915
	-0.33863,	-0.66521
	-0.3667,	-0.63923
	-0.39396,	-0.61117
	-0.42023,	-0.58102
	-0.44532,	-0.54876
	-0.46906,	-0.51442
	-0.49124,	-0.47802
	-0.51165,	-0.43962
	-0.53009,	-0.39929
	-0.54636,	-0.35713
	-0.56023,	-0.31326
	-0.57152,	-0.26783
	-0.58003,	-0.22101
	-0.58557,	-0.17299
	-0.58798,	-0.12402
	-0.58712,	-0.074344
	-0.58287,	-0.024224
	-0.57512,	 0.026041
	-0.56383,	 0.076138
	-0.54896,	 0.12574
	-0.53053,	 0.17452
	-0.50858,	 0.22215
	-0.48321,	 0.2683
	-0.46201,	 0.30173
	-0.43904,	 0.33402
	-0.41436,	 0.36504
	-0.38807,	 0.39467
	-0.36028,	 0.42281
	-0.3311,	 0.44934
	-0.30064,	 0.4742
	-0.26905,	 0.4973
	-0.23644,	 0.51858
	-0.20296,	 0.53799
	-0.16874,	 0.5555
	-0.13393,	 0.57107
	-0.098674,	 0.5847
	-0.063095,	 0.59639
	-0.027335,	 0.60616
	 0.0084746,	 0.61401
	 0.04421,	 0.62001
	 0.079751,	 0.62417
	 0.11498,	 0.62657
	 0.14981,	 0.62726
	 0.18413,	 0.6263
	 0.21786,	 0.62377
	 0.25092,	 0.61976
	 0.28323,	 0.61432
	 0.34541,	 0.59956
	 0.40399,	 0.58015
	 0.45873,	 0.55677
	 0.50946,	 0.53006
	 0.54484,	 0.50823
	 0.57794,	 0.48511
	 0.60879,	 0.46093
	 0.63744,	 0.4359
	 0.66395,	 0.4102
	 0.68838,	 0.384
	 0.71082,	 0.35746
	 0.73135,	 0.33071
	 0.76704,	 0.27704
	 0.7962,	 0.22376
	 0.81954,	 0.17146
	 0.83775,	 0.12054
	 0.85148,	 0.071299
	 0.86131,	 0.02389
	 0.86774,	-0.021579
	 0.87125,	-0.065067
	 0.87222,	-0.10657
	 0.871,	-0.14614
	 0.86791,	-0.18382
	 0.86319,	-0.21969
	 0.85709,	-0.25381
	 0.84978,	-0.28627
	 0.84144,	-0.31715
	 0.83221,	-0.34653
	 0.82221,	-0.3745
	 0.81156,	-0.40114
	 0.80034,	-0.42651
	 0.78864,	-0.45068
	 0.76402,	-0.49572
	 0.73817,	-0.53672
	 0.71141,	-0.57411
	 0.684,	-0.60825
END
BEGIN
	 0.999941427892730105853047462006 ,	 -0 
	 0.999941427892732659366004099866 ,	 -9.18788439774331777698535006493e-09 
	 0.999941427892726775183973586536 ,	 -9.18788433945660898416463169269e-08 
	 0.999941427892147571832026642369 ,	 -9.18788433640349566644545120653e-07 
	 0.999941427834308504962734787114 ,	 -9.18788433657002912013922468759e-06 
	 0.999941427800135507197865081253 ,	 -1.15668610714547703821608592989e-05 
	 0.999941427745976718632903157413 ,	 -1.45618153372939485024062378216e-05 
	 0.999941427660140380595521492069 ,	 -1.8332239369256431160692955018e-05 
	 0.999941427524100312496102560544 ,	 -2.3078921995350887286235774809e-05 
	 0.999941427308489338976471572096 ,	 -2.90546413737879927197127472027e-05 
	 0.999941426966770352535718302533 ,	 -3.65776263497319398254603584064e-05 
	 0.999941426425181911774586751562 ,	 -4.60485033026980516979165258817e-05 
	 0.999941425566820418779911960883 ,	 -5.79716309583311328879062784836e-05 
	 0.999941424206412299291457657091 ,	 -7.29819593278668854452462255722e-05 
	 0.999941422050308448277178285934 ,	 -9.18788431026884566676926624496e-05 
	 0.999941418633112921732220002013 ,	 -0.000115668610194297194482260238146 
	 0.999941413217225072429528154316 ,	 -0.000145618152332993577857678246801 
	 0.999941404633622799025260974304 ,	 -0.000183322391617141144948277542426 
	 0.999941391029533610534940635262 ,	 -0.000230789215814652948211005423218 
	 0.999941369468509089202257200668 ,	 -0.000290546405478181446468965987151 
	 0.999941335296604449922597268596 ,	 -0.000365776247019000688709411406307 
	 0.999941281137822879365728567791 ,	 -0.000460485000145671730109597774572 
	 0.999941195302033292158228050539 ,	 -0.000579716243977373979490153033112 
	 0.999941059261711506778169678 ,	 -0.00072981946237565820112536130182 
	 0.999940843652930455576210988511 ,	 -0.000918788169842060797876115429972 
	 0.999940501937546022404035284126 ,	 -0.00115668558079617955769435866387 
	 0.999939960358930735040416948323 ,	 -0.00145618048347734285741239546041 
	 0.999939102024153148029483872961 ,	 -0.00183322184130718657257830273011 
	 0.999937741679016611762165211985 ,	 -0.00230788801797748854838232546172 
	 0.999935585737063536981850120355 ,	 -0.00290545579320278246626685358933 
	 0.999932168949472899299735217937 ,	 -0.0036577459834634673541131633101 
	 0.999926754082963720193788503821 ,	 -0.00460481709756171975200800261518 
	 0.999918173043634395114054314035 ,	 -0.00579709676086626046753735863604 
	 0.999904575384674476623558803112 ,	 -0.00729806349193565240263126270293 
	 0.999883030490534729928242541064 ,	 -0.00918761978776710952487860595284 
	 0.999848899003801028229077019205 ,	 -0.0115663323845167365089281474866 
	 0.999794841361010933056263638719 ,	 -0.0145607578284834837667460760713 
	 0.99970925809768318437420475675 ,	 -0.0183301211460572821554393385668 
	 0.999644776602967133349864070624 ,	 -0.0207242748726362280287105477328 
	 0.999572103359209762629689066671 ,	 -0.0231294397076853008865526817317 
	 0.999357039311679073989580501802 ,	 -0.029115008179377954711242182384 
	 0.999017553485919251876623548014 ,	 -0.0366470430679936010065489426779 
	 0.998559099285191265060745990922 ,	 -0.0448890481656442352775826520883 
	 0.997879093165812358634525480738 ,	 -0.054935622691671598394336228921 
	 0.997183499185541166731638895726 ,	 -0.0636451274152010915141630675862 
	 0.996310920407026845424525163253 ,	 -0.0731785863629351995829352972578 
	 0.9943307986513937324346557034 ,	 -0.091358051304828546967939928436 
	 0.99195507998718557285400265755 ,	 -0.109457424309537060258534779678 
	 0.98919,	-0.12746
	 0.98607,	-0.14536
	 0.98165,	-0.16757
	 0.97669,	-0.18959
	 0.9712,	-0.21141
	 0.96518,	-0.23301
	 0.95865,	-0.25439
	 0.95161,	-0.27554
	 0.94407,	-0.29644
	 0.93604,	-0.31708
	 0.92752,	-0.33746
	 0.91854,	-0.35756
	 0.90909,	-0.37737
	 0.89918,	-0.39687
	 0.88883,	-0.41607
	 0.87806,	-0.43494
	 0.86686,	-0.45347
	 0.85525,	-0.47166
	 0.84325,	-0.48949
	 0.83087,	-0.50696
	 0.81811,	-0.52406
	 0.80501,	-0.54079
	 0.79156,	-0.55712
	 0.77778,	-0.57306
	 0.7637,	-0.58861
	 0.74931,	-0.60375
	 0.73464,	-0.61848
	 0.71969,	-0.6328
	 0.70449,	-0.6467
	 0.68905,	-0.66019
	 0.67338,	-0.67326
	 0.65749,	-0.6859
	 0.6414,	-0.69813
	 0.62512,	-0.70993
	 0.60535,	-0.72353
	 0.58535,	-0.73653
	 0.56514,	-0.74891
