CITIFILE A.01.01
#Momentum: B.12.070 (*) built: Feb 13 2020 
#Momentum Date and Time: Tue Aug 16 06:20:42 2022

NAME Momentum.SP

#  mode: MW    reference: S_50

#eesof Port[1] P1
#eesof Port[2] P2

CONSTANT NBR_OF_PORTS 2

CONSTANT NORMALIZATION 1

VAR freq MAG 381

DATA S[1,1] RI
DATA S[1,2] RI
DATA S[2,1] RI
DATA S[2,2] RI
DATA PORTZ[1] RI
DATA PORTZ[2] RI

VAR_LIST_BEGIN
	 0
	 8.721827885
	 87.21827885
	 872.1827885
	 8721.827885
	 10980.13076
	 13823.16564
	 17402.3345
	 21908.24112
	 27580.84148
	 34722.22221
	 43712.6879
	 55031.01361
	 69279.94147
	 87218.27885
	 109801.3076
	 138231.6564
	 174023.345
	 219082.4112
	 275808.4148
	 347222.2221
	 437126.879
	 550310.1361
	 692799.4147
	 872182.7885
	 1098013.076
	 1382316.564
	 1740233.45
	 2190824.112
	 2758084.148
	 3472222.221
	 4371268.79
	 5503101.361
	 6927994.147
	 8721827.885
	 10980130.76
	 13823165.64
	 17402334.5
	 21908241.12
	 27580841.48
	 34722222.21
	 39258678.44
	 43816482.24
	 55161682.95
	 69444444.42
	 85083950.11
	 104166666.6
	 120730714.8
	 138888888.8
	 173611111.1
	 208333333.3
	 243055555.5
	 277777777.7
	 321180555.5
	 364583333.2
	 407986111
	 451388888.7
	 494791666.5
	 538194444.3
	 581597222
	 624999999.8
	 668402777.5
	 711805555.3
	 755208333.1
	 798611110.8
	 842013888.6
	 885416666.3
	 928819444.1
	 972222221.9
	 1015625000
	 1059027777
	 1102430555
	 1145833333
	 1189236111
	 1232638888
	 1276041666
	 1319444444
	 1362847222
	 1406249999
	 1449652777
	 1493055555
	 1536458333
	 1579861110
	 1623263888
	 1666666666
	 1718749999
	 1770833333
	 1822916666
	 1874999999
	 1927083333
	 1979166666
	 2031249999
	 2083333333
	 2135416666
	 2187499999
	 2239583333
	 2291666666
	 2343749999
	 2395833333
	 2447916666
	 2500000000
	 2552083333
	 2604166666
	 2656250000
	 2708333333
	 2760416666
	 2812500000
	 2864583333
	 2916666666
	 2968750000
	 3020833333
	 3072916666
	 3125000000
	 3177083333
	 3229166666
	 3281250000
	 3333333333
	 3385416666
	 3437500000
	 3489583333
	 3541666666
	 3593750000
	 3645833333
	 3697916666
	 3750000000
	 3802083333
	 3854166666
	 3906249999
	 3958333333
	 4010416666
	 4062499999
	 4114583333
	 4166666666
	 4218749999
	 4270833333
	 4322916666
	 4375000000
	 4427083333
	 4479166666
	 4531250000
	 4583333333
	 4635416666
	 4687500000
	 4739583333
	 4791666666
	 4843750000
	 4895833333
	 4947916667
	 5000000000
	 5052083333
	 5104166667
	 5156250000
	 5208333334
	 5260416667
	 5312500000
	 5364583334
	 5416666667
	 5468750000
	 5520833334
	 5572916667
	 5625000000
	 5677083334
	 5729166667
	 5781250001
	 5833333334
	 5859375001
	 5885416667
	 5911458334
	 5937500001
	 5963541667
	 5989583334
	 6015625001
	 6041666667
	 6067708334
	 6093750001
	 6119791667
	 6145833334
	 6171875001
	 6197916667
	 6223958334
	 6250000000
	 6276041667
	 6302083334
	 6328125000
	 6354166667
	 6380208334
	 6406250000
	 6432291667
	 6458333334
	 6471354167
	 6484375000
	 6497395834
	 6510416667
	 6523437500
	 6536458334
	 6549479167
	 6562500000
	 6575520834
	 6588541667
	 6601562500
	 6614583334
	 6627604167
	 6640625000
	 6653645834
	 6666666667
	 6684027778
	 6701388889
	 6718750000
	 6736111112
	 6753472223
	 6770833334
	 6788194445
	 6805555556
	 6822916667
	 6840277778
	 6857638889
	 6875000000
	 6892361112
	 6909722223
	 6927083334
	 6944444445
	 6961805556
	 6979166667
	 6996527778
	 7013888890
	 7022569445
	 7031250001
	 7039930556
	 7048611112
	 7057291667
	 7065972223
	 7074652778
	 7083333334
	 7100694445
	 7118055556
	 7135416667
	 7152777778
	 7161458334
	 7170138890
	 7178819445
	 7187500001
	 7196180556
	 7204861112
	 7213541667
	 7222222223
	 7228009260
	 7233796297
	 7239583334
	 7245370371
	 7251157408
	 7256944445
	 7262731482
	 7268518519
	 7274305556
	 7280092593
	 7285879630
	 7291666667
	 7297453704
	 7303240741
	 7309027778
	 7314814816
	 7320601853
	 7326388890
	 7332175927
	 7337962964
	 7340856482
	 7343750001
	 7346643519
	 7349537038
	 7352430556
	 7355324075
	 7358217593
	 7361111112
	 7364004630
	 7366898149
	 7369791667
	 7372685186
	 7375578704
	 7378472223
	 7381365741
	 7384259260
	 7387152778
	 7390046297
	 7392939815
	 7395833334
	 7398726852
	 7401620371
	 7404513889
	 7407407408
	 7413194445
	 7418981482
	 7424768519
	 7430555556
	 7436342593
	 7442129630
	 7447916667
	 7453703704
	 7459490741
	 7465277778
	 7471064815
	 7476851852
	 7482638889
	 7488425926
	 7494212963
	 7500000000
	 7511574075
	 7523148149
	 7534722223
	 7546296297
	 7557870371
	 7569444445
	 7581018519
	 7592592593
	 7604166667
	 7615740741
	 7627314815
	 7638888889
	 7650462963
	 7662037037
	 7673611111
	 7685185186
	 7708333334
	 7731481482
	 7754629630
	 7777777778
	 7800925926
	 7824074074
	 7847222222
	 7870370370
	 7893518519
	 7916666667
	 7939814815
	 7962962963
	 7986111111
	 8009259259
	 8032407407
	 8055555556
	 8078703704
	 8101851852
	 8125000000
	 8148148148
	 8171296296
	 8194444444
	 8217592592
	 8240740741
	 8263888889
	 8287037037
	 8310185185
	 8333333333
	 8379629630
	 8425925926
	 8472222222
	 8518518518
	 8564814815
	 8611111111
	 8657407407
	 8703703704
	 8750000000
	 8796296296
	 8842592593
	 8888888889
	 8923611111
	 8958333333
	 8993055556
	 9027777778
	 9062500000
	 9097222222
	 9131944445
	 9166666667
	 9236111111
	 9305555556
	 9375000000
	 9444444444
	 9513888889
	 9583333333
	 9652777778
	 9722222222
	 9791666667
	 9861111111
	 9930555556
	 1e+10
VAR_LIST_END

BEGIN
	 8.06587614000000007212151653668e-05 ,	 0 
	 8.06587614000000007212151653668e-05 ,	 6.88129518999999941597799706424e-11 
	 8.06587614000000007212151653668e-05 ,	 6.88128532999999979875058335113e-10 
	 8.06587614000000007212151653668e-05 ,	 6.8812838300000003545694360525e-09 
	 8.06587628000000032586075393581e-05 ,	 6.88128412000000044701310589722e-08 
	 8.06587636000000027724707307719e-05 ,	 8.6630234300000002388557091438e-08 
	 8.06587650000000053098631047632e-05 ,	 1.09061002999999997297999817809e-07 
	 8.06587669999999973182575052633e-05 ,	 1.3729966800000000526891553998e-07 
	 8.06587703000000003951408533709e-05 ,	 1.72850042000000009378252955466e-07 
	 8.06587755999999954804186019786e-05 ,	 2.17605309000000004564091111124e-07 
	 8.06587839000000056833422634739e-05 ,	 2.73948853000000009569575142726e-07 
	 8.06587969999999994169179173831e-05 ,	 3.44881171000000014472823854292e-07 
	 8.06588178000000003298880502101e-05 ,	 4.34179665999999993558096768667e-07 
	 8.06588508000000039936672191487e-05 ,	 5.4659980900000003267344937663e-07 
	 8.06589032000000060330241469231e-05 ,	 6.88128377000000050087928204351e-07 
	 8.06589861e-05 ,	 8.66302274e-07 
	 8.06591175e-05 ,	 1.0906099e-06 
	 8.06593257e-05 ,	 1.37299641e-06 
	 8.06596558e-05 ,	 1.72849987e-06 
	 8.0660179e-05 ,	 2.176052e-06 
	 8.06610081e-05 ,	 2.73948635e-06 
	 8.06623222e-05 ,	 3.44880736e-06 
	 8.06644049e-05 ,	 4.34178799e-06 
	 8.06677058e-05 ,	 5.46598077e-06 
	 8.06729373e-05 ,	 6.88124922e-06 
	 8.06812285e-05 ,	 8.6629538e-06 
	 8.06943691e-05 ,	 1.09059614e-05 
	 8.07151952e-05 ,	 1.37296897e-05 
	 8.07482013e-05 ,	 1.72844511e-05 
	 8.08005098e-05 ,	 2.17594275e-05 
	 8.08834068e-05 ,	 2.73926838e-05 
	 8.10147737e-05 ,	 3.44837249e-05 
	 8.12229357e-05 ,	 4.34092045e-05 
	 8.15527489e-05 ,	 5.46425024e-05 
	 8.20752131e-05 ,	 6.87779767e-05 
	 8.29026245e-05 ,	 8.65607124e-05 
	 8.42123819e-05 ,	 0.000108922421 
	 8.6284197e-05 ,	 0.000137023576 
	 8.95577737e-05 ,	 0.000172300476 
	 9.47210303e-05 ,	 0.000216512906 
	 0.000102842115 ,	 0.000271782148 
	 0.000108918112 ,	 0.000306622485 
	 0.000115722497 ,	 0.000341387187 
	 0.000135593556 ,	 0.000426731447 
	 0.000166178538 ,	 0.000531365161 
	 0.000206037375 ,	 0.000641799944 
	 0.000262320137 ,	 0.000770084765 
	 0.000316691756 ,	 0.000875431458 
	 0.000380801392 ,	 0.000984568253 
	 0.000512026484 ,	 0.00117631113 
	 0.00064902807 ,	 0.00134996919 
	 0.000787876929 ,	 0.00151150936 
	 0.000927251683 ,	 0.00166686886 
	 0.00110319696 ,	 0.00186018043 
	 0.0012845632 ,	 0.00205975896 
	 0.00147647823 ,	 0.00227109543 
	 0.00168467872 ,	 0.00249764371 
	 0.00191503486 ,	 0.00274122726 
	 0.00217331551 ,	 0.00300237165 
	 0.00246507533 ,	 0.00328054702 
	 0.00279559721 ,	 0.00357433725 
	 0.00316985613 ,	 0.00388155783 
	 0.00359248856 ,	 0.00419934073 
	 0.00406776156 ,	 0.00452419979 
	 0.00459953972 ,	 0.00485208552 
	 0.0051913,	 0.0051784
	 0.0058458,	 0.0054982
	 0.0065658,	 0.005806
	 0.007353,	 0.006096
	 0.0082087,	 0.006362
	 0.0091338,	 0.0065977
	 0.010128,	 0.0067965
	 0.011192,	 0.0069517
	 0.012323,	 0.0070565
	 0.01352,	 0.0071041
	 0.01478,	 0.0070876
	 0.016101,	 0.0070005
	 0.017478,	 0.0068361
	 0.018907,	 0.0065882
	 0.020383,	 0.0062507
	 0.021901,	 0.0058179
	 0.023453,	 0.0052846
	 0.025034,	 0.0046458
	 0.026635,	 0.0038972
	 0.028249,	 0.0030348
	 0.030192,	 0.0018453
	 0.032127,	 0.00048291
	 0.034037,	-0.0010555
	 0.035908,	-0.0027717
	 0.037722,	-0.0046657
	 0.039463,	-0.0067362
	 0.041113,	-0.0089801
	 0.042655,	-0.011393
	 0.044072,	-0.013968
	 0.045347,	-0.016697
	 0.046466,	-0.019571
	 0.047411,	-0.022578
	 0.048169,	-0.025706
	 0.048725,	-0.028939
	 0.049068,	-0.032263
	 0.049186,	-0.035659
	 0.049069,	-0.03911
	 0.048709,	-0.042596
	 0.0481,	-0.046095
	 0.047237,	-0.049587
	 0.046116,	-0.05305
	 0.044738,	-0.05646
	 0.043104,	-0.059795
	 0.041217,	-0.063031
	 0.039082,	-0.066146
	 0.036707,	-0.069118
	 0.034103,	-0.071923
	 0.031282,	-0.07454
	 0.028256,	-0.07695
	 0.025043,	-0.079132
	 0.021661,	-0.08107
	 0.018129,	-0.082746
	 0.014468,	-0.084146
	 0.010702,	-0.085257
	 0.0068537,	-0.08607
	 0.0029491,	-0.086575
	-0.0009861,	-0.086768
	-0.0049255,	-0.086644
	-0.0088423,	-0.086203
	-0.01271,	-0.085447
	-0.016501,	-0.084379
	-0.02019,	-0.083007
	-0.023751,	-0.08134
	-0.02716,	-0.079391
	-0.030395,	-0.077173
	-0.033432,	-0.074704
	-0.036254,	-0.072001
	-0.038843,	-0.069085
	-0.041182,	-0.065979
	-0.043261,	-0.062707
	-0.045068,	-0.059292
	-0.046597,	-0.055761
	-0.047843,	-0.05214
	-0.048806,	-0.048455
	-0.049487,	-0.044733
	-0.049892,	-0.040997
	-0.050029,	-0.037275
	-0.049909,	-0.033587
	-0.049547,	-0.029957
	-0.048959,	-0.026402
	-0.048166,	-0.022941
	-0.047189,	-0.019586
	-0.046052,	-0.016349
	-0.044781,	-0.013236
	-0.043401,	-0.01025
	-0.041942,	-0.0073901
	-0.040429,	-0.0046507
	-0.038891,	-0.0020216
	-0.037354,	 0.00051231
	-0.035843,	 0.0029706
	-0.03438,	 0.0053779
	-0.032985,	 0.0077634
	-0.031674,	 0.010161
	-0.030458,	 0.012608
	-0.029345,	 0.015148
	-0.028335,	 0.017826
	-0.027422,	 0.020691
	-0.026593,	 0.023793
	-0.025827,	 0.027185
	-0.025093,	 0.030922
	-0.024727,	 0.032937
	-0.024353,	 0.035057
	-0.023966,	 0.03729
	-0.023558,	 0.039641
	-0.023122,	 0.042117
	-0.022649,	 0.044724
	-0.02213,	 0.047468
	-0.021556,	 0.050353
	-0.020915,	 0.053384
	-0.020198,	 0.056567
	-0.019391,	 0.059904
	-0.018483,	 0.063399
	-0.017461,	 0.067055
	-0.01631,	 0.070875
	-0.015017,	 0.074858
	-0.013566,	 0.079007
	-0.011941,	 0.083321
	-0.010127,	 0.087798
	-0.0081058,	 0.092437
	-0.0058608,	 0.097234
	-0.0033739,	 0.10218
	-0.00062701,	 0.10728
	 0.0023987,	 0.11252
	 0.0057221,	 0.1179
	 0.0075015,	 0.12063
	 0.0093625,	 0.1234
	 0.011308,	 0.12619
	 0.013339,	 0.12901
	 0.01546,	 0.13185
	 0.017672,	 0.13472
	 0.019979,	 0.13761
	 0.022381,	 0.14052
	 0.024883,	 0.14345
	 0.027486,	 0.14639
	 0.030192,	 0.14935
	 0.033005,	 0.15232
	 0.035927,	 0.1553
	 0.038959,	 0.15828
	 0.042105,	 0.16127
	 0.045367,	 0.16425
	 0.049901,	 0.16823
	 0.05465,	 0.1722
	 0.05962,	 0.17615
	 0.064817,	 0.18007
	 0.070246,	 0.18396
	 0.075912,	 0.18781
	 0.08182,	 0.1916
	 0.087976,	 0.19533
	 0.094384,	 0.19899
	 0.10104,	 0.20256
	 0.10797,	 0.20604
	 0.11517,	 0.20942
	 0.12264,	 0.21268
	 0.13038,	 0.21581
	 0.13841,	 0.2188
	 0.14673,	 0.22164
	 0.15535,	 0.2243
	 0.16427,	 0.22678
	 0.1735,	 0.22905
	 0.18305,	 0.23111
	 0.18794,	 0.23204
	 0.19293,	 0.23292
	 0.19799,	 0.23373
	 0.20315,	 0.23447
	 0.20839,	 0.23513
	 0.21373,	 0.23573
	 0.21916,	 0.23624
	 0.22469,	 0.23667
	 0.23604,	 0.23725
	 0.24783,	 0.23744
	 0.26007,	 0.23717
	 0.27281,	 0.23637
	 0.27938,	 0.23575
	 0.2861,	 0.23496
	 0.29296,	 0.23398
	 0.29999,	 0.23279
	 0.30719,	 0.23137
	 0.31456,	 0.22969
	 0.32212,	 0.2277
	 0.32986,	 0.22538
	 0.33514,	 0.22361
	 0.3405,	 0.22165
	 0.34594,	 0.21948
	 0.35147,	 0.21706
	 0.35708,	 0.21438
	 0.36276,	 0.21139
	 0.3685,	 0.20807
	 0.37427,	 0.20438
	 0.38006,	 0.20026
	 0.38584,	 0.19568
	 0.39154,	 0.19057
	 0.39711,	 0.18487
	 0.40246,	 0.17854
	 0.40748,	 0.17152
	 0.41204,	 0.16378
	 0.41595,	 0.15528
	 0.41901,	 0.14606
	 0.42099,	 0.13618
	 0.42163,	 0.1258
	 0.42069,	 0.11516
	 0.41956,	 0.10986
	 0.41796,	 0.10462
	 0.41589,	 0.099532
	 0.41334,	 0.094637
	 0.41033,	 0.09001
	 0.40688,	 0.085721
	 0.40303,	 0.081834
	 0.39882,	 0.07841
	 0.39432,	 0.075504
	 0.38959,	 0.073156
	 0.38472,	 0.071399
	 0.37977,	 0.070245
	 0.37485,	 0.069697
	 0.37003,	 0.06974
	 0.36538,	 0.070345
	 0.36098,	 0.071473
	 0.35688,	 0.073073
	 0.35313,	 0.075089
	 0.34976,	 0.07746
	 0.3468,	 0.080125
	 0.34427,	 0.08302
	 0.34216,	 0.086089
	 0.34047,	 0.089275
	 0.33918,	 0.09253
	 0.33775,	 0.099075
	 0.33769,	 0.10544
	 0.3388,	 0.11143
	 0.34087,	 0.11693
	 0.3437,	 0.12188
	 0.34714,	 0.12625
	 0.35105,	 0.13005
	 0.3553,	 0.13329
	 0.35982,	 0.13602
	 0.36452,	 0.13827
	 0.36934,	 0.14008
	 0.37425,	 0.14149
	 0.37921,	 0.14252
	 0.38419,	 0.14323
	 0.38918,	 0.14363
	 0.39414,	 0.14375
	 0.40399,	 0.14325
	 0.41368,	 0.14191
	 0.42317,	 0.13986
	 0.43245,	 0.1372
	 0.44152,	 0.134
	 0.45037,	 0.13035
	 0.45902,	 0.12628
	 0.46746,	 0.12184
	 0.4757,	 0.11707
	 0.48374,	 0.11199
	 0.4916,	 0.10663
	 0.49926,	 0.101
	 0.50675,	 0.095135
	 0.51405,	 0.089033
	 0.52117,	 0.082713
	 0.52811,	 0.076186
	 0.54148,	 0.062551
	 0.55414,	 0.048201
	 0.5661,	 0.033196
	 0.57737,	 0.01759
	 0.58792,	 0.0014323
	 0.59777,	-0.01523
	 0.6069,	-0.032352
	 0.6153,	-0.049893
	 0.62296,	-0.067809
	 0.6299,	-0.086061
	 0.63609,	-0.1046
	 0.64154,	-0.12341
	 0.64625,	-0.14243
	 0.65022,	-0.16163
	 0.65344,	-0.18097
	 0.65593,	-0.20042
	 0.65769,	-0.21994
	 0.65873,	-0.23949
	 0.65905,	-0.25905
	 0.65866,	-0.27858
	 0.65758,	-0.29805
	 0.65582,	-0.31744
	 0.6534,	-0.3367
	 0.65032,	-0.35583
	 0.6466,	-0.37478
	 0.64226,	-0.39355
	 0.63732,	-0.41209
	 0.6318,	-0.4304
	 0.61907,	-0.46624
	 0.60422,	-0.50092
	 0.58743,	-0.53432
	 0.56883,	-0.56635
	 0.5486,	-0.59692
	 0.52688,	-0.62597
	 0.50383,	-0.65347
	 0.47959,	-0.67937
	 0.45429,	-0.70367
	 0.42807,	-0.72635
	 0.40105,	-0.74743
	 0.37335,	-0.7669
	 0.35219,	-0.78047
	 0.33075,	-0.79316
	 0.30907,	-0.80498
	 0.28718,	-0.81594
	 0.26512,	-0.82606
	 0.24293,	-0.83535
	 0.22064,	-0.84383
	 0.19826,	-0.85151
	 0.1534,	-0.86453
	 0.10854,	-0.87456
	 0.063852,	-0.88171
	 0.019475,	-0.88611
	-0.024458,	-0.88788
	-0.067836,	-0.88715
	-0.11056,	-0.88401
	-0.15255,	-0.87859
	-0.19374,	-0.87096
	-0.23404,	-0.86123
	-0.27341,	-0.84947
	-0.31178,	-0.83577
END
BEGIN
	 0.999919341238595382748144402285 ,	 -0 
	 0.999919341238595937859656714863 ,	 -7.85529387587260985448267547326e-09 
	 0.999919341238591830034465601784 ,	 -7.85529369797671739306110794132e-08 
	 0.999919341238127645787869823835 ,	 -7.85529366810477913674048977555e-07 
	 0.999919341191773947130627675506 ,	 -7.85529366409886894984104799278e-06 
	 0.999919341164388075782198939123 ,	 -9.88922880934724191082096922401e-06 
	 0.999919341120984350723688294238 ,	 -1.24498014495593757600122586382e-05 
	 0.99991934105219348882798158229 ,	 -1.56733714114509758985605003545e-05 
	 0.999919340943168255542161659832 ,	 -1.97316055496510496525264244383e-05 
	 0.999919340770374809324039233616 ,	 -2.48406196256918329612339846335e-05 
	 0.999919340496515540728239557211 ,	 -3.12724872568240219727897510893e-05 
	 0.999919340062477624009318333265 ,	 -3.93697288294217635773453167758e-05 
	 0.999919339374573890033559564472 ,	 -4.95635519444015057444197225323e-05 
	 0.999919338284319669796218477131 ,	 -6.23968147700818508150089058972e-05 
	 0.999919336556383431258154814714 ,	 -7.85529351896548447276025228803e-05 
	 0.999919333817790412233250663121 ,	 -9.88922852041261048194886740248e-05 
	 0.99991932947741424264620491158 ,	 -0.000124498008723601064767771973152 
	 0.999919322598386339784326537483 ,	 -0.000156733702610942562949425393981 
	 0.999919311695870338674296817771 ,	 -0.000197316032544803121595577977132 
	 0.999919294416573012362903227768 ,	 -0.000248406150450225255560399162391 
	 0.999919267030793923467513195646 ,	 -0.000312724781180477411079987604126 
	 0.999919223627415365562853821757 ,	 -0.00039369710595446192821778019777 
	 0.999919154838091350789852640446 ,	 -0.000495635155614919300365306398248 
	 0.999919045815348295214164409117 ,	 -0.000623967421790847485973952046834 
	 0.999918873028429744387324262789 ,	 -0.000785527903543645125011840590901 
	 0.999918599185858014699590512464 ,	 -0.000988919962304238460426564216732 
	 0.999918165190301189149124638789 ,	 -0.001244974321795615582186833592 
	 0.999917477393055142975697435759 ,	 -0.0015673255235970815456292282164 
	 0.999916387406713624841358978301 ,	 -0.0019731373782328372190608689607 
	 0.999914660142910971529772723443 ,	 -0.00248401572929909768283618376472 
	 0.999911923237066235792269708327 ,	 -0.00312715651145257936618926386529 
	 0.999907587096111161173439541017 ,	 -0.00393678899621840300282471503124 
	 0.999900718693039092244134735665 ,	 -0.0049559886230660359779376378242 
	 0.999889842817286544907062761922 ,	 -0.00623895111534357275917539453758 
	 0.999872630237182979939802862646 ,	 -0.00785383954516187011984929000619 
	 0.999845411261072958275519795279 ,	 -0.00988633779929457695567762698374 
	 0.999802423784584615162884801975 ,	 -0.0124440655009243408835040156646 
	 0.99973466707182789825480995205 ,	 -0.0156620275152158511255962025643 
	 0.999628191301135671231747892307 ,	 -0.0197092827716520598013705267704 
	 0.999461623344287120040974059521 ,	 -0.0247970279714680892635403353097 
	 0.999202735427325294814693279477 ,	 -0.0311883401302148061118302280192 
	 0.999011266052753588162715914223 ,	 -0.0352395136840468886640920231912 
	 0.998798847390450106331627466716 ,	 -0.0393024675952772309384108950781 
	 0.998188530127893880461442677188 ,	 -0.0493834449281501594586352155147 
	 0.997269512811919223160828096297 ,	 -0.0620105694549798330816869906812 
	 0.996089768697389854601453862415 ,	 -0.0757639781354931679535624766686 
	 0.994422789375997262517614672106 ,	 -0.0924605296493940798097099786901 
	 0.992779305189349314808566759893 ,	 -0.10689342639145071878203907545 
	 0.990767556103008706358536983316 ,	 -0.122663803543060168088629779959 
	 0.98629,	-0.15269
	 0.98097,	-0.18256
	 0.97478,	-0.21226
	 0.96772,	-0.24177
	 0.95764,	-0.27834
	 0.94618,	-0.31451
	 0.93335,	-0.35022
	 0.91917,	-0.3854
	 0.90365,	-0.42002
	 0.88682,	-0.45402
	 0.8687,	-0.48734
	 0.84932,	-0.51994
	 0.82872,	-0.55177
	 0.80691,	-0.58277
	 0.78394,	-0.61292
	 0.75983,	-0.64216
	 0.73463,	-0.67044
	 0.70837,	-0.69774
	 0.68109,	-0.72401
	 0.65283,	-0.74922
	 0.62364,	-0.77332
	 0.59354,	-0.79629
	 0.5626,	-0.81809
	 0.53085,	-0.83869
	 0.49833,	-0.85806
	 0.46511,	-0.87617
	 0.43121,	-0.893
	 0.3967,	-0.90852
	 0.36161,	-0.92271
	 0.32601,	-0.93555
	 0.28994,	-0.94702
	 0.25345,	-0.95711
	 0.2166,	-0.96579
	 0.17944,	-0.97305
	 0.14202,	-0.97888
	 0.10439,	-0.98327
	 0.059059,	-0.98663
	 0.013602,	-0.9879
	-0.031878,	-0.98707
	-0.077285,	-0.98414
	-0.12252,	-0.9791
	-0.16749,	-0.97198
	-0.21209,	-0.96278
	-0.25623,	-0.95152
	-0.29982,	-0.93821
	-0.34276,	-0.92289
	-0.38495,	-0.90559
	-0.42631,	-0.88633
	-0.46673,	-0.86516
	-0.50614,	-0.84212
	-0.54444,	-0.81726
	-0.58155,	-0.79064
	-0.61739,	-0.7623
	-0.65187,	-0.73231
	-0.68492,	-0.70073
	-0.71648,	-0.66762
	-0.74645,	-0.63307
	-0.77479,	-0.59714
	-0.80142,	-0.55991
	-0.82629,	-0.52146
	-0.84934,	-0.48188
	-0.87051,	-0.44124
	-0.88976,	-0.39963
	-0.90705,	-0.35715
	-0.92233,	-0.31388
	-0.93557,	-0.26991
	-0.94674,	-0.22535
	-0.9558,	-0.18028
	-0.96274,	-0.13481
	-0.96753,	-0.089027
	-0.97016,	-0.04303
	-0.97062,	 0.0030811
