CITIFILE A.01.01
#Momentum: B.12.070 (*) built: Feb 13 2020 
#Momentum Date and Time: Tue Aug 16 01:57:06 2022

NAME Momentum.SP

#  mode: MW    reference: S_50

#eesof Port[1] P1
#eesof Port[2] P2

CONSTANT NBR_OF_PORTS 2

CONSTANT NORMALIZATION 1

VAR freq MAG 536

DATA S[1,1] RI
DATA S[1,2] RI
DATA S[2,1] RI
DATA S[2,2] RI
DATA PORTZ[1] RI
DATA PORTZ[2] RI

VAR_LIST_BEGIN
	 0
	 8.23509807
	 82.3509807
	 823.509807
	 8235.09807
	 10367.37423
	 13051.75087
	 16431.18084
	 20685.6311
	 26041.66666
	 32784.51592
	 41273.2602
	 51959.9561
	 65413.70913
	 82350.9807
	 103673.7423
	 130517.5087
	 164311.8084
	 206856.311
	 260416.6666
	 327845.1592
	 412732.602
	 519599.561
	 654137.0913
	 823509.807
	 1036737.423
	 1305175.087
	 1643118.084
	 2068563.11
	 2604166.666
	 3278451.592
	 4127326.02
	 5195995.61
	 6541370.913
	 8235098.07
	 10367374.23
	 13051750.87
	 16431180.84
	 20685631.1
	 26041666.66
	 29444008.83
	 32862361.68
	 41371262.21
	 52083333.31
	 63812962.58
	 78124999.97
	 90548036.09
	 104166666.6
	 130208333.3
	 156249999.9
	 182291666.6
	 208333333.2
	 234374999.9
	 260416666.6
	 286458333.2
	 312499999.9
	 338541666.5
	 364583333.2
	 390624999.8
	 416666666.5
	 442708333.2
	 468749999.8
	 494791666.5
	 520833333.1
	 546874999.8
	 572916666.4
	 598958333.1
	 624999999.8
	 651041666.4
	 677083333.1
	 703124999.7
	 729166666.4
	 755208333
	 781249999.7
	 807291666.3
	 833333333
	 859374999.7
	 885416666.3
	 911458333
	 937499999.6
	 963541666.3
	 989583332.9
	 1015625000
	 1041666666
	 1067708333
	 1093750000
	 1119791666
	 1145833333
	 1171875000
	 1197916666
	 1223958333
	 1250000000
	 1276041666
	 1302083333
	 1328124999
	 1354166666
	 1380208333
	 1406249999
	 1432291666
	 1458333333
	 1484374999
	 1510416666
	 1536458333
	 1562499999
	 1588541666
	 1614583333
	 1640624999
	 1666666666
	 1692708333
	 1718749999
	 1744791666
	 1770833333
	 1796874999
	 1822916666
	 1848958333
	 1875000000
	 1901041666
	 1927083333
	 1953125000
	 1979166666
	 2005208333
	 2031250000
	 2057291666
	 2083333333
	 2109375000
	 2135416666
	 2161458333
	 2187500000
	 2213541666
	 2239583333
	 2265625000
	 2291666666
	 2317708333
	 2343750000
	 2369791667
	 2395833333
	 2421875000
	 2447916667
	 2473958333
	 2500000000
	 2526041667
	 2552083333
	 2578125000
	 2604166667
	 2630208333
	 2656250000
	 2682291667
	 2708333333
	 2734375000
	 2760416667
	 2786458333
	 2812500000
	 2838541667
	 2864583333
	 2890625000
	 2916666666
	 2942708333
	 2968750000
	 2994791666
	 3020833333
	 3046875000
	 3072916666
	 3098958333
	 3125000000
	 3151041666
	 3177083333
	 3203125000
	 3229166666
	 3255208333
	 3281250000
	 3307291666
	 3333333333
	 3359375000
	 3385416666
	 3411458333
	 3437500000
	 3463541666
	 3489583333
	 3515625000
	 3541666666
	 3567708333
	 3593750000
	 3619791666
	 3645833333
	 3671875000
	 3697916666
	 3723958333
	 3750000000
	 3776041666
	 3802083333
	 3828124999
	 3854166666
	 3880208333
	 3906249999
	 3932291666
	 3958333333
	 3984374999
	 4010416666
	 4036458333
	 4062499999
	 4088541666
	 4114583333
	 4140624999
	 4166666666
	 4192708333
	 4218749999
	 4244791666
	 4270833333
	 4296874999
	 4322916666
	 4348958333
	 4375000000
	 4401041666
	 4427083333
	 4453125000
	 4479166666
	 4505208333
	 4531250000
	 4557291666
	 4583333333
	 4609375000
	 4635416666
	 4661458333
	 4687500000
	 4713541666
	 4739583333
	 4765625000
	 4791666666
	 4817708333
	 4843750000
	 4869791667
	 4895833333
	 4921875000
	 4947916667
	 4973958333
	 5000000000
	 5026041667
	 5052083333
	 5078125000
	 5104166667
	 5130208333
	 5156250000
	 5182291667
	 5208333334
	 5234375000
	 5260416667
	 5286458334
	 5312500000
	 5338541667
	 5364583334
	 5390625000
	 5416666667
	 5442708334
	 5468750000
	 5494791667
	 5520833334
	 5546875000
	 5572916667
	 5598958334
	 5625000000
	 5651041667
	 5677083334
	 5703125001
	 5729166667
	 5755208334
	 5781250001
	 5807291667
	 5833333334
	 5846354167
	 5859375001
	 5872395834
	 5885416667
	 5898437501
	 5911458334
	 5924479167
	 5937500001
	 5950520834
	 5963541667
	 5976562501
	 5989583334
	 6002604167
	 6015625001
	 6028645834
	 6041666667
	 6054687501
	 6067708334
	 6080729167
	 6093750001
	 6106770834
	 6119791667
	 6132812501
	 6145833334
	 6158854167
	 6171875001
	 6184895834
	 6197916667
	 6210937501
	 6223958334
	 6236979167
	 6250000000
	 6263020834
	 6276041667
	 6289062500
	 6302083334
	 6315104167
	 6328125000
	 6341145834
	 6354166667
	 6367187500
	 6380208334
	 6393229167
	 6406250000
	 6419270834
	 6432291667
	 6445312500
	 6458333334
	 6484375000
	 6510416667
	 6536458334
	 6562500000
	 6575520834
	 6588541667
	 6601562500
	 6614583334
	 6627604167
	 6640625000
	 6653645834
	 6666666667
	 6681134260
	 6695601852
	 6710069445
	 6724537037
	 6739004630
	 6753472223
	 6767939815
	 6782407408
	 6796875000
	 6811342593
	 6825810185
	 6840277778
	 6854745371
	 6869212963
	 6883680556
	 6898148148
	 6912615741
	 6927083334
	 6941550926
	 6956018519
	 6970486111
	 6984953704
	 6999421296
	 7013888889
	 7028356482
	 7042824074
	 7057291667
	 7071759259
	 7086226852
	 7100694445
	 7115162037
	 7129629630
	 7144097222
	 7158564815
	 7173032408
	 7187500000
	 7201967593
	 7216435185
	 7230902778
	 7245370370
	 7259837963
	 7274305556
	 7288773148
	 7303240741
	 7317708333
	 7332175926
	 7346643519
	 7361111111
	 7375578704
	 7390046296
	 7404513889
	 7418981481
	 7433449074
	 7447916667
	 7462384259
	 7476851852
	 7491319444
	 7505787037
	 7520254630
	 7534722222
	 7549189815
	 7563657407
	 7578125000
	 7592592592
	 7607060185
	 7621527778
	 7635995370
	 7650462963
	 7664930555
	 7679398148
	 7693865741
	 7708333333
	 7722800926
	 7737268518
	 7751736111
	 7766203704
	 7780671296
	 7795138889
	 7809606481
	 7824074074
	 7838541666
	 7853009259
	 7867476852
	 7881944444
	 7896412037
	 7910879629
	 7925347222
	 7939814815
	 7954282407
	 7968750000
	 7983217592
	 7997685185
	 8012152777
	 8026620370
	 8041087963
	 8055555555
	 8070023148
	 8084490740
	 8098958333
	 8113425926
	 8127893518
	 8142361111
	 8156828703
	 8171296296
	 8185763889
	 8200231481
	 8214699074
	 8229166666
	 8243634259
	 8258101851
	 8272569444
	 8287037037
	 8301504629
	 8315972222
	 8330439814
	 8344907407
	 8359375000
	 8373842592
	 8388310185
	 8402777777
	 8417245370
	 8431712962
	 8446180555
	 8460648148
	 8475115740
	 8489583333
	 8504050925
	 8518518518
	 8532986111
	 8547453703
	 8561921296
	 8576388888
	 8590856481
	 8605324074
	 8619791666
	 8634259259
	 8648726851
	 8663194444
	 8677662037
	 8692129629
	 8706597222
	 8721064814
	 8735532407
	 8750000000
	 8764467592
	 8778935185
	 8793402777
	 8807870370
	 8822337962
	 8836805555
	 8851273148
	 8865740740
	 8880208333
	 8894675925
	 8909143518
	 8923611111
	 8938078703
	 8952546296
	 8967013888
	 8981481481
	 8995949074
	 9010416666
	 9024884259
	 9039351851
	 9053819444
	 9068287037
	 9082754629
	 9097222222
	 9111689814
	 9126157407
	 9140625000
	 9155092592
	 9169560185
	 9184027777
	 9198495370
	 9212962962
	 9241898148
	 9270833333
	 9299768518
	 9328703703
	 9357638888
	 9386574074
	 9415509259
	 9444444444
	 9461805555
	 9479166666
	 9496527777
	 9513888888
	 9531250000
	 9548611111
	 9565972222
	 9583333333
	 9600694444
	 9618055555
	 9635416666
	 9652777778
	 9670138889
	 9687500000
	 9704861111
	 9722222222
	 9756944444
	 9791666666
	 9826388889
	 9861111111
	 9895833333
	 9930555556
	 9965277778
	 1e+10
VAR_LIST_END

BEGIN
	 6.45097952999999980265924404144e-05 ,	 -0 
	 6.45097952999999980265924404144e-05 ,	 -1.06243414000000005902110203213e-09 
	 6.45097952999999980265924404144e-05 ,	 -1.06243418999999995088257391551e-08 
	 6.45097952000000065576890140306e-05 ,	 -1.06243420999999999034522392416e-07 
	 6.45097873999999943568639526603e-05 ,	 -1.06243419999999995407028666877e-06 
	 6.45097827999999937640188130139e-05 ,	 -1.33752541999999999582841945373e-06 
	 6.45097755000000066703466639062e-05 ,	 -1.68384473999999995791343465612e-06 
	 6.45097638999999933905396543032e-05 ,	 -2.11983492999999988126713645897e-06 
	 6.45097455000000045716862517864e-05 ,	 -2.66871406000000014208930684823e-06 
	 6.45097163999999934557924574641e-05 ,	 -3.35971193999999989665810468109e-06 
	 6.45096702999999960584376346162e-05 ,	 -4.22962674000000014184379518167e-06 
	 6.45095971000000066586377300837e-05 ,	 -5.32478458999999961615522126035e-06 
	 6.45094812000000008547426211258e-05 ,	 -6.70350662000000015097039840484e-06 
	 6.45092975000000057577559386957e-05 ,	 -8.43921482999999939770413570628e-06 
	 6.45090063000000065287012351867e-05 ,	 -1.06243420000000008112522875692e-05 
	 6.45085449e-05 ,	 -1.33752541e-05 
	 6.45078135e-05 ,	 -1.68384472e-05 
	 6.45066544e-05 ,	 -2.1198349e-05 
	 6.45048173e-05 ,	 -2.668714e-05 
	 6.45019057e-05 ,	 -3.35971182e-05 
	 6.44972911e-05 ,	 -4.2296265e-05 
	 6.44899775e-05 ,	 -5.3247841e-05 
	 6.44783862e-05 ,	 -6.70350565e-05 
	 6.44600153e-05 ,	 -8.43921289e-05 
	 6.44308993e-05 ,	 -0.000106243381 
	 6.43847536e-05 ,	 -0.000133752464 
	 6.43116175e-05 ,	 -0.000168384318 
	 6.41957048e-05 ,	 -0.000211983183 
	 6.40119956e-05 ,	 -0.000266870787 
	 6.37208365e-05 ,	 -0.00033596996 
	 6.32593812e-05 ,	 -0.000422960212 
	 6.25280259e-05 ,	 -0.000532473546 
	 6.13689112e-05 ,	 -0.00067034086 
	 5.95318513e-05 ,	 -0.000843901925 
	 5.66203407e-05 ,	 -0.00106239518 
	 5.20059903e-05 ,	 -0.00133744755 
	 4.46929462e-05 ,	 -0.00168368937 
	 3.3103076e-05 ,	 -0.00211952494 
	 1.47356848e-05 ,	 -0.00266809558 
	 -1.4371365e-05 ,	 -0.00335847797 
	 -3.63241651e-05 ,	 -0.00379687459 
	 -6.10887975e-05 ,	 -0.00423719035 
	 -0.000134515607 ,	 -0.00533248142 
	 -0.000250836435 ,	 -0.00670955572 
	 -0.000408689171 ,	 -0.00821455272 
	-0.00064435,	-0.010046
	-0.00088716,	-0.01163
	-0.001194,	-0.01336
	-0.0018986,	-0.016645
	-0.0027565,	-0.019893
	-0.0037658,	-0.023097
	-0.0049243,	-0.026251
	-0.0062292,	-0.029347
	-0.0076778,	-0.032378
	-0.0092666,	-0.035338
	-0.010992,	-0.038221
	-0.012851,	-0.041021
	-0.014838,	-0.04373
	-0.01695,	-0.046344
	-0.019182,	-0.048857
	-0.021528,	-0.051263
	-0.023984,	-0.053557
	-0.026544,	-0.055735
	-0.029202,	-0.057792
	-0.031954,	-0.059724
	-0.034792,	-0.061526
	-0.037712,	-0.063195
	-0.040705,	-0.064728
	-0.043767,	-0.066121
	-0.04689,	-0.067371
	-0.050067,	-0.068477
	-0.053293,	-0.069436
	-0.05656,	-0.070245
	-0.059862,	-0.070905
	-0.063191,	-0.071412
	-0.066541,	-0.071767
	-0.069904,	-0.071969
	-0.073274,	-0.072018
	-0.076643,	-0.071913
	-0.080006,	-0.071655
	-0.083354,	-0.071245
	-0.086682,	-0.070684
	-0.089982,	-0.069973
	-0.093249,	-0.069114
	-0.096474,	-0.068108
	-0.099653,	-0.066957
	-0.10277,	-0.065665
	-0.10584,	-0.064233
	-0.10884,	-0.062665
	-0.11177,	-0.060964
	-0.11462,	-0.059134
	-0.11739,	-0.057177
	-0.12007,	-0.055099
	-0.12266,	-0.052902
	-0.12515,	-0.050592
	-0.12754,	-0.048172
	-0.12982,	-0.045648
	-0.13198,	-0.043025
	-0.13404,	-0.040308
	-0.13597,	-0.037501
	-0.13778,	-0.03461
	-0.13946,	-0.031641
	-0.14101,	-0.028599
	-0.14243,	-0.025491
	-0.14372,	-0.022321
	-0.14487,	-0.019096
	-0.14587,	-0.015823
	-0.14674,	-0.012506
	-0.14746,	-0.0091527
	-0.14804,	-0.0057688
	-0.14847,	-0.0023608
	-0.14875,	 0.0010651
	-0.14889,	 0.0045026
	-0.14888,	 0.0079451
	-0.14872,	 0.011386
	-0.14842,	 0.01482
	-0.14796,	 0.01824
	-0.14737,	 0.02164
	-0.14662,	 0.025013
	-0.14574,	 0.028354
	-0.14471,	 0.031655
	-0.14354,	 0.034912
	-0.14224,	 0.038118
	-0.14079,	 0.041267
	-0.13922,	 0.044353
	-0.13751,	 0.047372
	-0.13568,	 0.050316
	-0.13373,	 0.053181
	-0.13165,	 0.055961
	-0.12946,	 0.058652
	-0.12716,	 0.061248
	-0.12474,	 0.063744
	-0.12223,	 0.066136
	-0.11961,	 0.06842
	-0.11691,	 0.070591
	-0.11411,	 0.072645
	-0.11123,	 0.074579
	-0.10827,	 0.076388
	-0.10524,	 0.07807
	-0.10214,	 0.079622
	-0.098979,	 0.08104
	-0.095763,	 0.082322
	-0.092497,	 0.083466
	-0.089188,	 0.084469
	-0.085843,	 0.08533
	-0.082467,	 0.086048
	-0.079067,	 0.086621
	-0.07565,	 0.087048
	-0.072222,	 0.087328
	-0.068789,	 0.087462
	-0.065359,	 0.08745
	-0.061938,	 0.08729
	-0.058533,	 0.086985
	-0.05515,	 0.086535
	-0.051795,	 0.085941
	-0.048476,	 0.085204
	-0.045198,	 0.084328
	-0.041968,	 0.083312
	-0.038793,	 0.082161
	-0.035679,	 0.080876
	-0.03263,	 0.079461
	-0.029655,	 0.077918
	-0.026757,	 0.076252
	-0.023944,	 0.074466
	-0.021219,	 0.072564
	-0.01859,	 0.070551
	-0.016059,	 0.068431
	-0.013633,	 0.066209
	-0.011316,	 0.06389
	-0.0091121,	 0.061479
	-0.0070256,	 0.058981
	-0.0050602,	 0.056404
	-0.0032196,	 0.053751
	-0.0015071,	 0.05103
	 7.4433e-05,	 0.048246
	 0.0015222,	 0.045405
	 0.0028339,	 0.042515
	 0.0040074,	 0.039582
	 0.0050408,	 0.036612
	 0.0059329,	 0.033612
	 0.0066824,	 0.030589
	 0.0072886,	 0.02755
	 0.0077509,	 0.024501
	 0.0080694,	 0.02145
	 0.0082441,	 0.018403
	 0.0082756,	 0.015367
	 0.0081648,	 0.01235
	 0.0079129,	 0.0093578
	 0.0075215,	 0.0063972
	 0.0069923,	 0.0034749
	 0.0063275674 ,	 0.000597509041 
	 0.00552980601 ,	 -0.00222850797 
	 0.00460181066 ,	 -0.00499683942 
	 0.0035467,	-0.0077013
	 0.0023679,	-0.010336
	 0.001069,	-0.012895
	-0.00034589,	-0.015372
	-0.0018726,	-0.017763
	-0.0035065,	-0.020061
	-0.005243,	-0.022263
	-0.0070771,	-0.024362
	-0.0090034,	-0.026355
	-0.011017,	-0.028237
	-0.013111,	-0.030005
	-0.015281,	-0.031654
	-0.01752,	-0.033181
	-0.019822,	-0.034583
	-0.022181,	-0.035857
	-0.024591,	-0.037
	-0.027045,	-0.038011
	-0.029535,	-0.038887
	-0.032056,	-0.039627
	-0.034601,	-0.04023
	-0.037162,	-0.040694
	-0.039733,	-0.041019
	-0.042307,	-0.041205
	-0.044876,	-0.041252
	-0.047434,	-0.04116
	-0.049974,	-0.04093
	-0.052489,	-0.040564
	-0.054972,	-0.040061
	-0.057416,	-0.039426
	-0.059814,	-0.038658
	-0.06216,	-0.037762
	-0.064448,	-0.036739
	-0.06667,	-0.035593
	-0.068821,	-0.034327
	-0.070894,	-0.032945
	-0.072884,	-0.031451
	-0.074784,	-0.029848
	-0.07659,	-0.028143
	-0.078295,	-0.026339
	-0.079895,	-0.024441
	-0.081385,	-0.022456
	-0.08276,	-0.020388
	-0.084015,	-0.018245
	-0.085147,	-0.01603
	-0.086152,	-0.013752
	-0.087025,	-0.011417
	-0.087765,	-0.0090308
	-0.088367,	-0.0066013
	-0.088829,	-0.0041352
	-0.089149,	-0.00164
	-0.089325,	 0.00087691
	-0.089355,	 0.003408
	-0.089239,	 0.0059455
	-0.088974,	 0.0084816
	-0.08856,	 0.011008
	-0.087998,	 0.013518
	-0.087288,	 0.016002
	-0.08643,	 0.018453
	-0.085425,	 0.020862
	-0.084274,	 0.023222
	-0.08298,	 0.025524
	-0.081545,	 0.02776
	-0.079971,	 0.029921
	-0.078261,	 0.032001
	-0.076418,	 0.033991
	-0.074448,	 0.035883
	-0.072353,	 0.037669
	-0.070138,	 0.039343
	-0.067809,	 0.040895
	-0.065371,	 0.042319
	-0.06283,	 0.043609
	-0.060193,	 0.044756
	-0.057465,	 0.045754
	-0.054655,	 0.046598
	-0.05177,	 0.04728
	-0.050301,	 0.047558
	-0.048816,	 0.047795
	-0.047317,	 0.047987
	-0.045804,	 0.048136
	-0.044279,	 0.048241
	-0.042741,	 0.0483
	-0.041194,	 0.048314
	-0.039637,	 0.048281
	-0.038072,	 0.048201
	-0.036501,	 0.048074
	-0.034923,	 0.047899
	-0.033342,	 0.047676
	-0.031757,	 0.047403
	-0.03017,	 0.047082
	-0.028583,	 0.04671
	-0.026997,	 0.046289
	-0.025412,	 0.045817
	-0.023831,	 0.045294
	-0.022256,	 0.04472
	-0.020686,	 0.044096
	-0.019124,	 0.043419
	-0.017571,	 0.042691
	-0.016028,	 0.041911
	-0.014498,	 0.041078
	-0.012981,	 0.040194
	-0.011479,	 0.039258
	-0.0099928,	 0.038269
	-0.008525,	 0.037228
	-0.0070766,	 0.036135
	-0.0056491,	 0.03499
	-0.0042442,	 0.033793
	-0.0028633,	 0.032545
	-0.001508,	 0.031244
	-0.00017996,	 0.029892
	 0.0011194,	 0.028489
	 0.0023884,	 0.027036
	 0.0036254,	 0.025531
	 0.004829,	 0.023977
	 0.0059974,	 0.022373
	 0.0071292,	 0.02072
	 0.0082226,	 0.019018
	 0.0092761,	 0.017268
	 0.010288,	 0.01547
	 0.011257,	 0.013626
	 0.012181,	 0.011735
	 0.013059,	 0.0097991
	 0.013889,	 0.0078182
	 0.014669,	 0.0057933
	 0.016075,	 0.0016154
	 0.017263,	-0.0027274
	 0.018222,	-0.0072269
	 0.018939,	-0.011874
	 0.019203,	-0.01425
	 0.019402,	-0.01666
	 0.019534,	-0.019101
	 0.019599,	-0.021573
	 0.019594,	-0.024074
	 0.019518,	-0.026603
	 0.019369,	-0.029159
	 0.019148,	-0.031738
	 0.018813,	-0.034632
	 0.018384,	-0.037552
	 0.017859,	-0.040495
	 0.017236,	-0.04346
	 0.016513,	-0.046444
	 0.015689,	-0.049445
	 0.014762,	-0.052459
	 0.013731,	-0.055484
	 0.012593,	-0.058518
	 0.011348,	-0.061557
	 0.0099946,	-0.064599
	 0.0085307,	-0.06764
	 0.0069555,	-0.070678
	 0.0052677,	-0.073709
	 0.0034662,	-0.076731
	 0.0015499,	-0.079739
	-0.00048212,	-0.082732
	-0.0026308,	-0.085704
	-0.0048969,	-0.088654
	-0.0072811,	-0.091576
	-0.0097843,	-0.094469
	-0.012407,	-0.097328
	-0.015149,	-0.10014
	-0.018012,	-0.10292
	-0.020995,	-0.10566
	-0.024099,	-0.10835
	-0.027324,	-0.11098
	-0.030669,	-0.11356
	-0.034135,	-0.11607
	-0.037722,	-0.11852
	-0.041428,	-0.12091
	-0.045255,	-0.12322
	-0.0492,	-0.12545
	-0.053263,	-0.1276
	-0.057444,	-0.12967
	-0.061742,	-0.13165
	-0.066155,	-0.13353
	-0.070682,	-0.13531
	-0.075322,	-0.137
	-0.080073,	-0.13857
	-0.084935,	-0.14004
	-0.089904,	-0.14139
	-0.094979,	-0.14262
	-0.10015,	-0.14372
	-0.10543,	-0.1447
	-0.11082,	-0.14555
	-0.11629,	-0.14625
	-0.12187,	-0.14682
	-0.12753,	-0.14724
	-0.13328,	-0.14751
	-0.13912,	-0.14763
	-0.14504,	-0.14759
	-0.15104,	-0.14739
	-0.15711,	-0.14702
	-0.16326,	-0.14648
	-0.16947,	-0.14577
	-0.17575,	-0.14488
	-0.18208,	-0.1438
	-0.18847,	-0.14254
	-0.19491,	-0.1411
	-0.2014,	-0.13946
	-0.20793,	-0.13762
	-0.21449,	-0.13558
	-0.22108,	-0.13334
	-0.2277,	-0.1309
	-0.23433,	-0.12824
	-0.24099,	-0.12538
	-0.24764,	-0.1223
	-0.2543,	-0.119
	-0.26096,	-0.11549
	-0.2676,	-0.11175
	-0.27423,	-0.10779
	-0.28083,	-0.1036
	-0.28741,	-0.099189
	-0.29394,	-0.094546
	-0.30044,	-0.089672
	-0.30688,	-0.084568
	-0.31326,	-0.079231
	-0.31958,	-0.073661
	-0.32582,	-0.067858
	-0.33198,	-0.061821
	-0.33806,	-0.055551
	-0.34403,	-0.049048
	-0.34991,	-0.042311
	-0.35567,	-0.035343
	-0.36132,	-0.028145
	-0.36683,	-0.020716
	-0.37221,	-0.013059
	-0.37745,	-0.0051768
	-0.38254,	 0.0029298
	-0.38746,	 0.011258
	-0.39222,	 0.019805
	-0.39681,	 0.028568
	-0.40121,	 0.037543
	-0.40542,	 0.046727
	-0.40943,	 0.056116
	-0.41323,	 0.065705
	-0.41682,	 0.075491
	-0.42019,	 0.085467
	-0.42332,	 0.09563
	-0.42622,	 0.10597
	-0.42888,	 0.11649
	-0.43128,	 0.12717
	-0.43342,	 0.13802
	-0.4353,	 0.14903
	-0.43691,	 0.16018
	-0.43824,	 0.17148
	-0.43928,	 0.18291
	-0.44004,	 0.19447
	-0.44049,	 0.20614
	-0.44065,	 0.21792
	-0.44049,	 0.22981
	-0.44003,	 0.24179
	-0.43925,	 0.25385
	-0.43814,	 0.26598
	-0.43671,	 0.27818
	-0.43495,	 0.29044
	-0.43286,	 0.30274
	-0.43043,	 0.31508
	-0.42767,	 0.32744
	-0.42456,	 0.33981
	-0.42111,	 0.35219
	-0.41731,	 0.36457
	-0.41317,	 0.37692
	-0.40868,	 0.38925
	-0.40385,	 0.40154
	-0.39867,	 0.41378
	-0.39314,	 0.42596
	-0.38726,	 0.43807
	-0.38104,	 0.45009
	-0.37447,	 0.46202
	-0.36757,	 0.47385
	-0.36032,	 0.48557
	-0.35274,	 0.49715
	-0.34482,	 0.5086
	-0.33658,	 0.51991
	-0.32801,	 0.53105
	-0.31911,	 0.54203
	-0.3099,	 0.55283
	-0.30038,	 0.56345
	-0.29055,	 0.57386
	-0.28042,	 0.58407
	-0.27,	 0.59407
	-0.25929,	 0.60383
	-0.2483,	 0.61337
	-0.23703,	 0.62266
	-0.2255,	 0.6317
	-0.2137,	 0.64048
	-0.20166,	 0.64899
	-0.18938,	 0.65723
	-0.17686,	 0.66518
	-0.16411,	 0.67285
	-0.15115,	 0.68023
	-0.13798,	 0.6873
	-0.12461,	 0.69407
	-0.11106,	 0.70053
	-0.097326,	 0.70667
	-0.083421,	 0.71249
	-0.069357,	 0.71799
	-0.055144,	 0.72315
	-0.040791,	 0.72799
	-0.026308,	 0.73248
	-0.011707,	 0.73664
	 0.0030034,	 0.74046
	 0.017812,	 0.74394
	 0.03271,	 0.74707
	 0.047686,	 0.74986
	 0.06273,	 0.7523
	 0.077833,	 0.75439
	 0.092983,	 0.75613
	 0.10817,	 0.75753
	 0.12338,	 0.75859
	 0.13862,	 0.75929
	 0.15386,	 0.75966
	 0.1691,	 0.75968
	 0.18433,	 0.75936
	 0.21473,	 0.7577
	 0.24497,	 0.75471
	 0.27499,	 0.75041
	 0.30473,	 0.74483
	 0.33411,	 0.738
	 0.36308,	 0.72995
	 0.39159,	 0.72073
	 0.41957,	 0.71037
	 0.43609,	 0.70363
	 0.4524,	 0.69651
	 0.46848,	 0.68901
	 0.48432,	 0.68115
	 0.49993,	 0.67294
	 0.51528,	 0.66438
	 0.53038,	 0.65549
	 0.54521,	 0.64628
	 0.55978,	 0.63676
	 0.57406,	 0.62694
	 0.58806,	 0.61683
	 0.60178,	 0.60645
	 0.6152,	 0.59579
	 0.62833,	 0.58488
	 0.64115,	 0.57372
	 0.65367,	 0.56233
	 0.67779,	 0.53888
