CITIFILE A.01.01
#Momentum: B.12.070 (*) built: Feb 13 2020 
#Momentum Date and Time: Tue Aug 16 04:54:05 2022

NAME Momentum.SP

#  mode: MW    reference: S_50

#eesof Port[1] P1
#eesof Port[2] P2

CONSTANT NBR_OF_PORTS 2

CONSTANT NORMALIZATION 1

VAR freq MAG 451

DATA S[1,1] RI
DATA S[1,2] RI
DATA S[2,1] RI
DATA S[2,2] RI
DATA PORTZ[1] RI
DATA PORTZ[2] RI

VAR_LIST_BEGIN
	 0
	 8.721827882
	 87.21827882
	 872.1827882
	 8721.827882
	 10980.13076
	 13823.16564
	 17402.33449
	 21908.24111
	 27580.84147
	 34722.2222
	 43712.68788
	 55031.01359
	 69279.94145
	 87218.27882
	 109801.3076
	 138231.6564
	 174023.3449
	 219082.4111
	 275808.4147
	 347222.222
	 437126.8788
	 550310.1359
	 692799.4145
	 872182.7882
	 1098013.076
	 1382316.564
	 1740233.449
	 2190824.111
	 2758084.147
	 3472222.22
	 4371268.788
	 5503101.359
	 6927994.145
	 8721827.882
	 10980130.76
	 13823165.64
	 17402334.49
	 21908241.11
	 27580841.47
	 34722222.2
	 39258678.43
	 43816482.23
	 55161682.93
	 69444444.4
	 85083950.08
	 104166666.6
	 120730714.8
	 138888888.8
	 165571093.3
	 196759259.2
	 224982367.7
	 254629629.5
	 312499999.9
	 370370370.2
	 399305555.4
	 428240740.5
	 457175925.7
	 486111110.9
	 515046296.1
	 543981481.2
	 572916666.4
	 601851851.6
	 630787036.8
	 659722222
	 688657407.1
	 717592592.3
	 746527777.5
	 775462962.6
	 804398147.8
	 833333333
	 868055555.2
	 902777777.4
	 937499999.6
	 972222221.8
	 1006944444
	 1041666666
	 1076388888
	 1111111110
	 1145833333
	 1180555555
	 1215277777
	 1249999999
	 1284722221
	 1319444444
	 1354166666
	 1388888888
	 1423611110
	 1458333332
	 1493055555
	 1527777777
	 1562499999
	 1597222222
	 1631944444
	 1666666666
	 1692708333
	 1718749999
	 1744791666
	 1770833333
	 1796874999
	 1822916666
	 1848958333
	 1875000000
	 1901041666
	 1927083333
	 1953125000
	 1979166666
	 2005208333
	 2031250000
	 2057291666
	 2083333333
	 2109375000
	 2135416666
	 2161458333
	 2187500000
	 2213541666
	 2239583333
	 2265625000
	 2291666666
	 2317708333
	 2343750000
	 2369791667
	 2395833333
	 2421875000
	 2447916667
	 2473958333
	 2500000000
	 2526041667
	 2552083333
	 2578125000
	 2604166667
	 2630208333
	 2656250000
	 2682291667
	 2708333333
	 2734375000
	 2760416667
	 2786458333
	 2812500000
	 2838541667
	 2864583333
	 2890625000
	 2916666666
	 2942708333
	 2968750000
	 2994791666
	 3020833333
	 3046875000
	 3072916666
	 3098958333
	 3125000000
	 3151041666
	 3177083333
	 3203125000
	 3229166666
	 3255208333
	 3281250000
	 3307291666
	 3333333333
	 3385416666
	 3437500000
	 3489583333
	 3541666666
	 3567708333
	 3593750000
	 3619791666
	 3645833333
	 3671875000
	 3697916666
	 3723958333
	 3750000000
	 3776041666
	 3802083333
	 3828124999
	 3854166666
	 3880208333
	 3906249999
	 3932291666
	 3958333333
	 4010416666
	 4062499999
	 4114583333
	 4166666666
	 4218749999
	 4270833333
	 4322916666
	 4375000000
	 4427083333
	 4479166666
	 4531250000
	 4583333333
	 4635416666
	 4687500000
	 4739583333
	 4791666666
	 4843750000
	 4895833333
	 4947916667
	 5000000000
	 5052083333
	 5104166667
	 5156250000
	 5208333334
	 5260416667
	 5312500000
	 5364583334
	 5416666667
	 5442708334
	 5468750000
	 5494791667
	 5520833334
	 5546875000
	 5572916667
	 5598958334
	 5625000000
	 5651041667
	 5677083334
	 5703125001
	 5729166667
	 5755208334
	 5781250001
	 5807291667
	 5833333334
	 5885416667
	 5937500000
	 5989583334
	 6041666667
	 6067708334
	 6093750000
	 6119791667
	 6145833334
	 6171875000
	 6197916667
	 6223958333
	 6250000000
	 6276041667
	 6302083333
	 6328125000
	 6354166667
	 6380208333
	 6406250000
	 6432291667
	 6458333334
	 6484375000
	 6510416667
	 6536458334
	 6562500000
	 6588541667
	 6614583334
	 6640625000
	 6666666667
	 6695601852
	 6724537037
	 6753472222
	 6782407408
	 6796875000
	 6811342593
	 6825810185
	 6840277778
	 6854745370
	 6869212963
	 6883680555
	 6898148148
	 6910204475
	 6922260802
	 6934317129
	 6946373456
	 6952401620
	 6958429784
	 6964457947
	 6970486111
	 6976514274
	 6982542438
	 6988570601
	 6994598765
	 7000626929
	 7006655092
	 7012683256
	 7018711420
	 7024739583
	 7030767747
	 7036795910
	 7042824074
	 7048852238
	 7054880401
	 7060908565
	 7066936728
	 7072964892
	 7078993056
	 7085021219
	 7091049383
	 7106119792
	 7121190201
	 7136260610
	 7151331019
	 7166401428
	 7181471837
	 7196542246
	 7211612655
	 7226683064
	 7241753473
	 7256823881
	 7271894290
	 7286964699
	 7302035108
	 7317105517
	 7332175926
	 7362316744
	 7392457562
	 7422598380
	 7452739198
	 7482880016
	 7513020834
	 7543161652
	 7573302470
	 7603443287
	 7633584105
	 7663724923
	 7693865741
	 7724006559
	 7754147377
	 7784288195
	 7814429013
	 7844569831
	 7874710649
	 7904851466
	 7934992284
	 7965133102
	 7995273920
	 8025414738
	 8055555556
	 8072916667
	 8090277778
	 8107638889
	 8125000000
	 8142361112
	 8159722223
	 8177083334
	 8194444445
	 8211805556
	 8229166667
	 8246527778
	 8263888890
	 8281250001
	 8298611112
	 8315972223
	 8333333334
	 8356481482
	 8379629630
	 8402777779
	 8425925927
	 8437500001
	 8449074075
	 8460648149
	 8472222223
	 8483796297
	 8495370371
	 8506944445
	 8518518520
	 8530092594
	 8541666668
	 8553240742
	 8564814816
	 8576388890
	 8587962964
	 8599537038
	 8611111112
	 8622685186
	 8634259260
	 8645833335
	 8657407409
	 8668981483
	 8680555557
	 8692129631
	 8703703705
	 8709490742
	 8715277779
	 8721064816
	 8726851853
	 8732638890
	 8738425927
	 8744212964
	 8750000002
	 8761574076
	 8773148150
	 8784722224
	 8796296298
	 8802083335
	 8807870372
	 8813657409
	 8819444446
	 8825231483
	 8831018520
	 8836805557
	 8842592594
	 8848379631
	 8854166668
	 8859953705
	 8865740742
	 8871527779
	 8877314816
	 8883101853
	 8888888890
	 8897569446
	 8906250001
	 8914930557
	 8923611112
	 8932291668
	 8940972223
	 8949652779
	 8958333334
	 8975694445
	 8993055557
	 9010416668
	 9027777779
	 9045138890
	 9062500001
	 9079861112
	 9097222223
	 9114583334
	 9131944445
	 9149305556
	 9166666668
	 9184027779
	 9201388890
	 9218750001
	 9236111112
	 9253472223
	 9270833334
	 9288194445
	 9305555556
	 9322916667
	 9340277778
	 9357638890
	 9375000001
	 9392361112
	 9409722223
	 9427083334
	 9444444445
	 9479166667
	 9513888889
	 9548611112
	 9583333334
	 9618055556
	 9652777778
	 9687500000
	 9722222222
	 9791666667
	 9861111111
	 9930555556
	 1e+10
VAR_LIST_END

BEGIN
	 8.33524711999999957587337284792e-05 ,	 -0 
	 8.33524711999999957587337284792e-05 ,	 -7.80626102000000008415438456792e-10 
	 8.33524711999999957587337284792e-05 ,	 -7.80625871999999997136591073149e-09 
	 8.33524716000000022919289022205e-05 ,	 -7.80625850000000056298072020206e-08 
	 8.33525132000000041178691678745e-05 ,	 -7.8062583099999998737569123497e-07 
	 8.33525377000000010883906664816e-05 ,	 -9.82749681999999940450922844559e-07 
	 8.33525766000000028609767666055e-05 ,	 -1.23720851999999997718052754253e-06 
	 8.33526382000000060860239736726e-05 ,	 -1.55755318999999994562886268534e-06 
	 8.33527359000000060088725328811e-05 ,	 -1.96084317999999986314161627698e-06 
	 8.3352890700000000032826585894e-05 ,	 -2.468555080000000069866041702e-06 
	 8.33531359999999983548604753913e-05 ,	 -3.10772627000000012362809602429e-06 
	 8.33535248999999975067637381088e-05 ,	 -3.91239468000000019745360929635e-06 
	 8.33541412000000041639460879317e-05 ,	 -4.92541129000000039517628835917e-06 
	 8.33551179000000018806670887273e-05 ,	 -6.20072186999999969597751128814e-06 
	 8.33566658999999963303162431316e-05 ,	 -7.80623922999999927084535666921e-06 
	 8.33591193e-05 ,	 -9.82745874e-06 
	 8.33630076e-05 ,	 -1.23720092e-05 
	 8.33691699e-05 ,	 -1.55753803e-05 
	 8.33789358e-05 ,	 -1.96081293e-05 
	 8.33944121e-05 ,	 -2.46849473e-05 
	 8.34189363e-05 ,	 -3.10760588e-05 
	 8.34577943e-05 ,	 -3.91215449e-05 
	 8.35193546e-05 ,	 -4.92493216e-05 
	 8.36168571e-05 ,	 -6.19976621e-05 
	 8.37712271e-05 ,	 -7.80433343e-05 
	 8.40154838e-05 ,	 -9.82365937e-05 
	 8.4401594e-05 ,	 -0.000123644386 
	 8.50110096e-05 ,	 -0.000155603066 
	 8.59705616e-05 ,	 -0.000195781532 
	 8.74756742e-05 ,	 -0.000246254504 
	 8.98223976e-05 ,	 -0.000309583239 
	 9.34469704e-05 ,	 -0.000388896588 
	 9.89631723e-05 ,	 -0.00048795906 
	 0.000107167707 ,	 -0.000611207966 
	 0.000118946123 ,	 -0.000763750991 
	 0.000134962634 ,	 -0.000951366385 
	 0.000155006072 ,	 -0.00118067074 
	 0.00017700194 ,	 -0.00145977391 
	 0.000196038918 ,	 -0.00179970345 
	 0.00020398296 ,	 -0.00221638072 
	 0.000189763243 ,	 -0.00273227022 
	 0.000168430492 ,	 -0.00305787608 
	 0.000138599119 ,	 -0.00338438018 
	 3.27274433e-05 ,	 -0.00419618434 
	 -0.000155473579 ,	 -0.00521662003 
	 -0.000423163497 ,	 -0.00632909653 
	 -0.00083025716 ,	 -0.00767386021 
	-0.001252,	-0.0088252
	-0.0017851,	-0.010066
	-0.0026987,	-0.011839
	-0.0039561,	-0.013822
	-0.0052626,	-0.015519
	-0.0067992,	-0.017189
	-0.010247,	-0.020062
	-0.014222,	-0.022353
	-0.01638,	-0.023254
	-0.018636,	-0.02398
	-0.020977,	-0.024524
	-0.023391,	-0.024877
	-0.025864,	-0.025035
	-0.028382,	-0.02499
	-0.03093,	-0.024738
	-0.033494,	-0.024275
	-0.036059,	-0.0236
	-0.038609,	-0.022708
	-0.04113,	-0.021601
	-0.043605,	-0.020276
	-0.046018,	-0.018737
	-0.048355,	-0.016984
	-0.050599,	-0.015022
	-0.052734,	-0.012853
	-0.055133,	-0.0099857
	-0.057327,	-0.0068398
	-0.059293,	-0.0034283
	-0.061004,	 0.00023401
	-0.062438,	 0.0041304
	-0.063572,	 0.0082419
	-0.064385,	 0.012548
	-0.064856,	 0.017027
	-0.064968,	 0.021653
	-0.064704,	 0.026402
	-0.064049,	 0.031246
	-0.062989,	 0.036158
	-0.061514,	 0.041106
	-0.059616,	 0.04606
	-0.057286,	 0.050989
	-0.054521,	 0.055859
	-0.051318,	 0.060638
	-0.047679,	 0.065292
	-0.043605,	 0.069785
	-0.039101,	 0.074085
	-0.034177,	 0.078157
	-0.028841,	 0.081966
	-0.023108,	 0.085479
	-0.016992,	 0.088663
	-0.012165,	 0.090816
	-0.0071412,	 0.092751
	-0.0019307,	 0.094456
	 0.0034567,	 0.095919
	 0.00901,	 0.097127
	 0.014718,	 0.098069
	 0.020567,	 0.098733
	 0.026545,	 0.099109
	 0.032639,	 0.099187
	 0.038833,	 0.098956
	 0.045112,	 0.09841
	 0.051461,	 0.097539
	 0.057863,	 0.096336
	 0.064303,	 0.094796
	 0.070762,	 0.092912
	 0.077222,	 0.09068
	 0.083667,	 0.088095
	 0.090077,	 0.085156
	 0.096433,	 0.08186
	 0.10271,	 0.078206
	 0.1089,	 0.074195
	 0.11499,	 0.069827
	 0.12094,	 0.065104
	 0.12674,	 0.060031
	 0.13237,	 0.05461
	 0.13781,	 0.048847
	 0.14305,	 0.042749
	 0.14805,	 0.036323
	 0.15281,	 0.029578
	 0.15731,	 0.022523
	 0.16152,	 0.015168
	 0.16544,	 0.007526
	 0.16903,	-0.00039134
	 0.1723,	-0.0085701
	 0.17521,	-0.016996
	 0.17775,	-0.025653
	 0.17992,	-0.034525
	 0.18169,	-0.043594
	 0.18305,	-0.052843
	 0.184,	-0.062253
	 0.18451,	-0.071803
	 0.18458,	-0.081475
	 0.1842,	-0.091245
	 0.18336,	-0.10109
	 0.18206,	-0.11099
	 0.18028,	-0.12093
	 0.17803,	-0.13088
	 0.1753,	-0.14082
	 0.17208,	-0.15072
	 0.16838,	-0.16056
	 0.16419,	-0.17031
	 0.15952,	-0.17996
	 0.15437,	-0.18947
	 0.14874,	-0.19883
	 0.14263,	-0.208
	 0.13606,	-0.21697
	 0.12903,	-0.22572
	 0.12154,	-0.23421
	 0.11362,	-0.24242
	 0.10526,	-0.25034
	 0.096482,	-0.25794
	 0.087296,	-0.2652
	 0.077716,	-0.27209
	 0.067759,	-0.27861
	 0.046777,	-0.29041
	 0.024491,	-0.30046
	 0.0010555,	-0.30862
	-0.02336,	-0.31476
	-0.03588,	-0.31705
	-0.048576,	-0.3188
	-0.061425,	-0.32
	-0.074402,	-0.32064
	-0.087481,	-0.32071
	-0.10063,	-0.3202
	-0.11384,	-0.31912
	-0.12708,	-0.31745
	-0.14031,	-0.3152
	-0.15352,	-0.31235
	-0.16667,	-0.30892
	-0.17974,	-0.30489
	-0.1927,	-0.30028
	-0.20553,	-0.29508
	-0.2182,	-0.2893
	-0.23068,	-0.28294
	-0.25497,	-0.26851
	-0.2782,	-0.25188
	-0.30016,	-0.23311
	-0.32066,	-0.21232
	-0.33951,	-0.18962
	-0.35654,	-0.16515
	-0.37158,	-0.13906
	-0.38447,	-0.11153
	-0.39509,	-0.082743
	-0.4033,	-0.05288
	-0.409,	-0.022159
	-0.4121,	 0.0092022
	-0.41254,	 0.040975
	-0.41027,	 0.072922
	-0.40525,	 0.1048
	-0.39748,	 0.13636
	-0.38698,	 0.16736
	-0.37378,	 0.19755
	-0.35794,	 0.22667
	-0.33955,	 0.25448
	-0.31872,	 0.28073
	-0.29558,	 0.30519
	-0.27029,	 0.32765
	-0.24302,	 0.34787
	-0.21398,	 0.36568
	-0.18338,	 0.38087
	-0.15148,	 0.3933
	-0.11853,	 0.40281
	-0.10174,	 0.40644
	-0.084812,	 0.40929
	-0.067756,	 0.41136
	-0.05062,	 0.41264
	-0.033443,	 0.41313
	-0.016266,	 0.4128
	 0.00087276,	 0.41167
	 0.01793,	 0.40973
	 0.034866,	 0.40698
	 0.051637,	 0.40343
	 0.068202,	 0.39906
	 0.084517,	 0.39391
	 0.10054,	 0.38796
	 0.11622,	 0.38124
	 0.13153,	 0.37375
	 0.14642,	 0.36551
	 0.17477,	 0.34687
	 0.20093,	 0.32548
	 0.22458,	 0.30155
	 0.24539,	 0.27533
	 0.25465,	 0.26145
	 0.26309,	 0.24711
	 0.27067,	 0.23235
	 0.27738,	 0.21723
	 0.28317,	 0.20177
	 0.28802,	 0.18605
	 0.29191,	 0.1701
	 0.2948,	 0.15399
	 0.29668,	 0.13777
	 0.29753,	 0.12151
	 0.29733,	 0.10526
	 0.29608,	 0.089104
	 0.29375,	 0.07309
	 0.29036,	 0.057297
	 0.28588,	 0.041797
	 0.28033,	 0.026665
	 0.27372,	 0.011979
	 0.26605,	-0.0021832
	 0.25734,	-0.015739
	 0.24761,	-0.028607
	 0.23689,	-0.040699
	 0.2252,	-0.051927
	 0.21259,	-0.062201
	 0.19911,	-0.071425
	 0.18315,	-0.080323
	 0.16625,	-0.087655
	 0.14849,	-0.09326
	 0.12998,	-0.096952
	 0.12049,	-0.098011
	 0.11086,	-0.098502
	 0.10112,	-0.098385
	 0.091291,	-0.097613
	 0.081409,	-0.096127
	 0.071519,	-0.093858
	 0.061682,	-0.090716
	 0.051987,	-0.086588
	 0.044112,	-0.082292
	 0.036546,	-0.077107
	 0.029469,	-0.07091
	 0.023156,	-0.063568
	 0.020412,	-0.059428
	 0.018037,	-0.054961
	 0.016123,	-0.050168
	 0.014785,	-0.045064
	 0.014159,	-0.039694
	 0.014406,	-0.03414
	 0.015707,	-0.02855
	 0.01824,	-0.023155
	 0.022153,	-0.018303
	 0.027495,	-0.014465
	 0.034134,	-0.012226
	 0.041662,	-0.012199
	 0.049338,	-0.014868
	 0.056148,	-0.020377
	 0.06102,	-0.028368
	 0.063133,	-0.037988
	 0.062159,	-0.048114
	 0.058308,	-0.057672
	 0.052165,	-0.065884
	 0.044456,	-0.072354
	 0.035859,	-0.077002
	 0.026906,	-0.079959
	 0.017969,	-0.08145
	 0.0092798,	-0.081725
	-0.010683,	-0.078554
	-0.027898,	-0.071883
	-0.042682,	-0.063253
	-0.055489,	-0.053466
	-0.066697,	-0.042937
	-0.076585,	-0.031881
	-0.085351,	-0.020416
	-0.093131,	-0.0086121
	-0.10001,	 0.0034875
	-0.10607,	 0.015851
	-0.11135,	 0.028454
	-0.11588,	 0.041272
	-0.11967,	 0.054282
	-0.12275,	 0.067462
	-0.12512,	 0.080787
	-0.12679,	 0.094231
	-0.12802,	 0.12137
	-0.1265,	 0.14866
	-0.12223,	 0.17587
	-0.11527,	 0.20275
	-0.10566,	 0.22906
	-0.093508,	 0.25455
	-0.078901,	 0.27898
	-0.061975,	 0.30212
	-0.042885,	 0.32377
	-0.021806,	 0.34373
	 0.0010686,	 0.36182
	 0.02553,	 0.37789
	 0.051355,	 0.39183
	 0.078314,	 0.40352
	 0.10616,	 0.4129
	 0.13467,	 0.41991
	 0.1636,	 0.42453
	 0.1927,	 0.42677
	 0.22175,	 0.42665
	 0.25051,	 0.42421
	 0.27878,	 0.41951
	 0.30634,	 0.41265
	 0.33299,	 0.40372
	 0.35855,	 0.39283
	 0.37271,	 0.38573
	 0.38641,	 0.37804
	 0.39962,	 0.36981
	 0.41231,	 0.36105
	 0.42446,	 0.35181
	 0.43603,	 0.34211
	 0.44699,	 0.33199
	 0.45732,	 0.32148
	 0.46699,	 0.31063
	 0.47597,	 0.29947
	 0.48424,	 0.28805
	 0.49177,	 0.27641
	 0.49854,	 0.2646
	 0.50453,	 0.25268
	 0.50971,	 0.24069
	 0.51407,	 0.22871
	 0.51856,	 0.21286
	 0.52152,	 0.1973
	 0.52292,	 0.18223
	 0.52275,	 0.16786
	 0.52208,	 0.16102
	 0.52103,	 0.15445
	 0.5196,	 0.14819
	 0.51781,	 0.14227
	 0.51567,	 0.13673
	 0.51319,	 0.13162
	 0.5104,	 0.12697
	 0.50733,	 0.12282
	 0.504,	 0.11923
	 0.50045,	 0.11624
	 0.49673,	 0.11389
	 0.49289,	 0.11221
	 0.48899,	 0.11126
	 0.4851,	 0.11107
	 0.4813,	 0.11167
	 0.47767,	 0.11308
	 0.4743,	 0.11532
	 0.4713,	 0.1184
	 0.46877,	 0.12231
	 0.46683,	 0.12703
	 0.46561,	 0.13251
	 0.4652,	 0.13871
	 0.46574,	 0.14554
	 0.46732,	 0.15291
	 0.46854,	 0.15676
	 0.47006,	 0.1607
	 0.47188,	 0.16471
	 0.47402,	 0.16877
	 0.47648,	 0.17287
	 0.47927,	 0.17697
	 0.4824,	 0.18107
	 0.48586,	 0.18514
	 0.4938,	 0.1931
	 0.50308,	 0.20067
	 0.51365,	 0.20767
	 0.52544,	 0.21393
	 0.53176,	 0.21674
	 0.53835,	 0.2193
	 0.54519,	 0.2216
	 0.55227,	 0.22363
	 0.55955,	 0.22537
	 0.56704,	 0.2268
	 0.5747,	 0.22793
	 0.58251,	 0.22874
	 0.59046,	 0.22922
	 0.59852,	 0.22936
	 0.60667,	 0.22918
	 0.6149,	 0.22865
	 0.62317,	 0.22778
	 0.63147,	 0.22658
	 0.63978,	 0.22504
	 0.64808,	 0.22318
	 0.66047,	 0.21977
	 0.67274,	 0.21565
	 0.68483,	 0.21086
	 0.6967,	 0.20542
	 0.7083,	 0.19937
	 0.7196,	 0.19275
	 0.73056,	 0.1856
	 0.74115,	 0.17796
	 0.76117,	 0.16136
	 0.77953,	 0.14328
	 0.79618,	 0.12403
	 0.81111,	 0.10389
	 0.82436,	 0.083099
	 0.83599,	 0.061866
	 0.84608,	 0.040378
	 0.85473,	 0.018784
	 0.86202,	-0.0027917
	 0.86806,	-0.02425
	 0.87295,	-0.045512
	 0.87678,	-0.066515
	 0.87964,	-0.087214
	 0.8816,	-0.10757
	 0.88275,	-0.12756
	 0.88316,	-0.14717
	 0.88289,	-0.16639
	 0.882,	-0.1852
	 0.88053,	-0.20362
	 0.87855,	-0.22163
	 0.87609,	-0.23924
	 0.8732,	-0.25647
	 0.8699,	-0.2733
	 0.86623,	-0.28976
	 0.86222,	-0.30584
	 0.85789,	-0.32156
	 0.85328,	-0.33693
	 0.84839,	-0.35195
	 0.8379,	-0.38099
	 0.82654,	-0.40875
	 0.81444,	-0.43529
	 0.80169,	-0.46068
	 0.78837,	-0.48497
	 0.77457,	-0.50822
	 0.76033,	-0.53047
	 0.74571,	-0.55178
	 0.71552,	-0.5917
	 0.68431,	-0.62828
	 0.65233,	-0.66179
	 0.61978,	-0.69245
END
BEGIN
	 0.999916647528799273914046352729 ,	 -0 
	 0.999916647528790170085244426446 ,	 -8.69897412089648547350861917948e-09 
	 0.999916647528783952836306525569 ,	 -8.69897425473040164511928651336e-08 
	 0.999916647528195423610952730087 ,	 -8.69897426890309244384980047471e-07 
	 0.999916647469213937249321588752 ,	 -8.69897426455674277478991029966e-06 
	 0.999916647434368921487646275637 ,	 -1.0951359756135835288315405478e-05 
	 0.99991664737914198735069248869 ,	 -1.37869450864535475487215876456e-05 
	 0.999916647291613447379177159746 ,	 -1.73567355130927608586333121821e-05 
	 0.999916647152890414318449074926 ,	 -2.18508353882164094161844047903e-05 
	 0.999916646933029840127460374788 ,	 -2.75085719095265537892380791618e-05 
	 0.999916646584572244016442255088 ,	 -3.46312401601914579551966255622e-05 
	 0.999916646032304901048348710901 ,	 -4.35981481604619247605114651378e-05 
	 0.99991664515702094462312743417 ,	 -5.48868163900853925363243490665e-05 
	 0.999916643769788837659007185721 ,	 -6.90984074542622464520924552289e-05 
	 0.999916641571176101344065045851 ,	 -8.69897401174542922452914694986e-05 
	 0.999916638086610687352617787838 ,	 -0.000109513592520941484276253419239 
	 0.999916632563950247281070460303 ,	 -0.000137869440814968394204420576443 
	 0.999916623811133442600862508698 ,	 -0.000173567335074957702911735424323 
	 0.999916609938876543850483358256 ,	 -0.000218508313865341773085670951104 
	 0.999916587952891511292818904622 ,	 -0.00027508563924856597321388917976 
	 0.99991655310760396702107755118 ,	 -0.000346312242282560862893792119621 
	 0.999916497881923160839789943566 ,	 -0.00043598116373437436482651818892 
	 0.99991641035606704246418985349 ,	 -0.000548867529674724845267785866554 
	 0.999916271639321285746859757637 ,	 -0.000690982809129025640770827010329 
	 0.999916051794089488780059582496 ,	 -0.000869894876452784009124297170956 
	 0.999915703377934339535215713113 ,	 -0.00109513088808043008992587630246 
	 0.999915151213345954062106102356 ,	 -0.00137868435885449801270308256562 
	 0.999914276186380845956591656432 ,	 -0.0017356533032747032893605698689 
	 0.999912889600419130253783350781 ,	 -0.00218504314974909269464475869427 
	 0.999910692607836493195350158203 ,	 -0.00275077663909505630568386180812 
	 0.999907212109329091020981650217 ,	 -0.00346296340430747411065492968874 
	 0.999901699650205699754224042408 ,	 -0.00435949470220664807990074152144 
	 0.999892972399382795600786266732 ,	 -0.00548804402688005468768928096779 
	 0.999879164133699260830212551809 ,	 -0.00690857200095556719943168388909 
	 0.999857337982249960717240355734 ,	 -0.00869645339111595888637040729918 
	 0.99982289062575346871852843833 ,	 -0.0109463638873968510667467057829 
	 0.999768650647751444537902898446 ,	 -0.0137770823724315885638880274655 
	 0.999683547368191760540412360569 ,	 -0.0173373805090622570834746341006 
	 0.999550713733626472468074553035 ,	 -0.0218131958709962200937404475098 
	 0.999344901666376128623880958912 ,	 -0.0274363603505285158501436626466 
