CITIFILE A.01.01
#Momentum: B.12.070 (*) built: Feb 13 2020 
#Momentum Date and Time: Sun Aug 14 19:53:24 2022

NAME Momentum.SP

#  mode: MW    reference: S_50

#eesof Port[1] P1
#eesof Port[2] P2

CONSTANT NBR_OF_PORTS 2

CONSTANT NORMALIZATION 1

VAR freq MAG 218

DATA S[1,1] RI
DATA S[1,2] RI
DATA S[2,1] RI
DATA S[2,2] RI
DATA PORTZ[1] RI
DATA PORTZ[2] RI

VAR_LIST_BEGIN
	 0
	 8.701167248
	 87.01167248
	 870.1167248
	 8701.167248
	 10954.12056
	 13790.42074
	 17361.11111
	 21856.34395
	 27515.50681
	 34639.97074
	 43609.13942
	 54900.65381
	 69115.8282
	 87011.67248
	 109541.2056
	 137904.2074
	 173611.1111
	 218563.4395
	 275155.0681
	 346399.7074
	 436091.3942
	 549006.5381
	 691158.282
	 870116.7248
	 1095412.056
	 1379042.074
	 1736111.111
	 2185634.395
	 2751550.681
	 3463997.074
	 4360913.942
	 5490065.381
	 6911582.82
	 8701167.248
	 10954120.56
	 13790420.74
	 17361111.11
	 19629339.22
	 21908241.12
	 27580841.48
	 34722222.21
	 42541975.06
	 52083333.32
	 60365357.4
	 69444444.42
	 86805555.53
	 104166666.6
	 121527777.7
	 138888888.8
	 173611111.1
	 208333333.3
	 243055555.5
	 277777777.7
	 321180555.5
	 364583333.2
	 407986111
	 451388888.7
	 494791666.5
	 538194444.3
	 581597222
	 624999999.8
	 668402777.5
	 711805555.3
	 755208333.1
	 798611110.8
	 842013888.6
	 885416666.3
	 928819444.1
	 972222221.9
	 1015625000
	 1059027777
	 1102430555
	 1145833333
	 1189236111
	 1232638888
	 1276041666
	 1319444444
	 1362847222
	 1406249999
	 1449652777
	 1493055555
	 1536458333
	 1579861110
	 1623263888
	 1666666666
	 1718749999
	 1770833333
	 1822916666
	 1874999999
	 1927083333
	 1979166666
	 2031249999
	 2083333333
	 2135416666
	 2187499999
	 2239583333
	 2291666666
	 2343749999
	 2395833333
	 2447916666
	 2500000000
	 2552083333
	 2604166666
	 2656250000
	 2708333333
	 2760416666
	 2812500000
	 2864583333
	 2916666666
	 2968750000
	 3020833333
	 3072916666
	 3125000000
	 3177083333
	 3229166666
	 3281250000
	 3333333333
	 3385416666
	 3437500000
	 3489583333
	 3541666666
	 3593750000
	 3645833333
	 3697916666
	 3750000000
	 3802083333
	 3854166666
	 3906250000
	 3958333333
	 4010416666
	 4062500000
	 4114583333
	 4166666666
	 4218750000
	 4270833333
	 4322916667
	 4375000000
	 4427083333
	 4479166667
	 4531250000
	 4583333333
	 4635416667
	 4687500000
	 4739583333
	 4791666667
	 4843750000
	 4895833333
	 4947916667
	 5000000000
	 5052083333
	 5104166667
	 5156250000
	 5208333333
	 5260416667
	 5312500000
	 5364583333
	 5416666667
	 5468750000
	 5520833333
	 5572916667
	 5625000000
	 5677083333
	 5729166667
	 5781250000
	 5833333334
	 5937500000
	 6041666667
	 6145833334
	 6250000000
	 6354166667
	 6458333334
	 6562500000
	 6666666667
	 6770833334
	 6875000000
	 6979166667
	 7083333334
	 7187500000
	 7291666667
	 7395833334
	 7500000000
	 7604166667
	 7708333334
	 7812500001
	 7916666667
	 8020833334
	 8125000001
	 8229166667
	 8333333334
	 8437500001
	 8541666667
	 8645833334
	 8750000000
	 8802083334
	 8854166667
	 8906250000
	 8958333334
	 9010416667
	 9062500000
	 9114583334
	 9166666667
	 9218750000
	 9270833334
	 9322916667
	 9375000000
	 9427083334
	 9479166667
	 9531250000
	 9583333334
	 9635416667
	 9687500000
	 9739583333
	 9791666667
	 9843750000
	 9895833333
	 9947916667
	 1e+10
VAR_LIST_END

BEGIN
	 0.999999999999998445687765524781 ,	 -0 
	 1.00000000000000222044604925031 ,	 -2.40141338758714795176274492405e-09 
	 1.00000000000000088817841970013 ,	 -2.40141347987443687372888234677e-08 
	 0.999999999999877542400383845234 ,	 -2.4014134299144007655968380277e-07 
	 0.999999999987482679486561210069 ,	 -2.40141342836008853112161887111e-06 
	 0.999999999980160203527645990107 ,	 -3.02320038885611763745941971138e-06 
	 0.999999999968554709184331841243 ,	 -3.80598379213364923501217162993e-06 
	 0.999999999950161200246157022775 ,	 -4.79144970883665921590477410064e-06 
	 0.999999999921009630199364437431 ,	 -6.03207778976377895219229685608e-06 
	 0.999999999874807254940378697938 ,	 -7.59393599923663398243434130563e-06 
	 0.999999999801581940239714185736 ,	 -9.56019897316306987988809851231e-06 
	 0.999999999685527107828875159612 ,	 -1.2035577364857830140465466684e-05 
	 0.999999999501592684580941750028 ,	 -1.51518940622805131646089193964e-05 
	 0.999999999210076651046108509036 ,	 -1.90751042167952578054723744572e-05 
	 0.99999999874805500787999790191 ,	 -2.40141329225437849537172496639e-05 
	 0.999999998015801194739538004796 ,	 -3.02320011630677343283934987994e-05 
	 0.99999999685526008708080780707 ,	 -3.8059832488161748909050174916e-05 
	 0.999999995015933285102960326185 ,	 -4.79144862466016063784479683818e-05 
	 0.999999992100814472095748897118 ,	 -6.03207562640123429176242098038e-05 
	 0.999999987480706176157241316105 ,	 -7.59393168302813226233638488338e-05 
	 0.99999998015843716281381148292 ,	 -9.56019036101179997544363686757e-05 
	 0.999999968553698659334827425482 ,	 -0.000120355601819888136105873854831 
	 0.999999950162119177754505017219 ,	 -0.000151518597791430731369644036022 
	 0.999999921015168657945082486549 ,	 -0.000190750358161156929881485666556 
	 0.999999874824729961808600364748 ,	 -0.000240139964553361118237972959832 
	 0.999999801628781104234633403394 ,	 -0.000302317289081137363648821292372 
	 0.999999685648544911487078934442 ,	 -0.000380592893714670754690132525866 
	 0.999999501901356335764603500138 ,	 -0.0004791340291375803528417520738 
	 0.999999210855088471738838507008 ,	 -0.000603185957671746597608120055156 
	 0.999998750012735082570713984751 ,	 -0.000759350093409154325296839260773 
	 0.999998020716594160361978538276 ,	 -0.000955933193570353278989415457545 
	 0.999996867587000459742796465434 ,	 -0.00120338506514177517869867983791 
	 0.999995046807998666515970853652 ,	 -0.00151484590542777519672767994052 
	 0.999992178006179122107255352603 ,	 -0.00190682826021538326388693462832 
	 0.999987673170734225891465030145 ,	 -0.0024000622382235881069334482163 
	 0.999980636284151680470699830039 ,	 -0.00302053554942850049913616317099 
	 0.999969732338204853050456222263 ,	 -0.00380076231763245425687713918705 
	 0.999953040404187309952988016448 ,	 -0.00478132004966595747230684310125 
	 0.999940897026460162599903469527 ,	 -0.00540311061005689652336769768226 
	 0.999927626590550455709660582215 ,	 -0.00602691146200776822761113749038 
	 0.999890674985014715758779857424 ,	 -0.00757551926656187951669707558722 
	 0.999838245757410981617852030467 ,	 -0.00951674521073344464872079129236 
	 0.999776189360501610359222013358 ,	 -0.011632667619022964144992471347 
	 0.999697106424122683421273904969 ,	 -0.0142033301191175215238970963583 
	 0.999626981246934276370552652224 ,	 -0.0164274080889590667897692810584 
	 0.999549017548501672614236213121 ,	 -0.0188602523783097317244816792936 
	 0.999395699093120981615356868133 ,	 -0.0235035918834727922122063148436 
	 0.999233304878388461922611440968 ,	 -0.0281418394861021464725681084929 
	 0.999057774147173338619154492335 ,	 -0.0327786390349337417027264507396 
	 0.998866059887573709552555101254 ,	 -0.037415279486847301260166176462 
	 0.998426469488279733077717992273 ,	 -0.0466887065837043591098876049728 
	 0.997904989342885295755536390061 ,	 -0.0559606171572188462737251768431 
	 0.99729743211903432165144067767 ,	 -0.065228258174172853989247755635 
	 0.996601968487077494174286584894 ,	 -0.07448908941039636411041158226 
	 0.995607965381275827887463947263 ,	 -0.0860522657862872325518210914197 
	 0.994475227330810174208863827516 ,	 -0.0975978090908431877847917235158 
	 0.99320413806328111672172553881 ,	 -0.109122621025470850630867403197 
	 0.99179542409360432753118175242 ,	 -0.120623968325519359545694442204 
	 0.990250001633899867847787845676 ,	 -0.132099388936150530238222700063 
	 0.98856,	-0.14354
	 0.98675,	-0.15496
	 0.9848,	-0.16634
	 0.98272,	-0.17769
	 0.9805,	-0.18901
	 0.97816,	-0.20029
	 0.97569,	-0.21153
	 0.97309,	-0.22272
	 0.97036,	-0.23388
	 0.96751,	-0.24499
	 0.96453,	-0.25606
	 0.96143,	-0.26708
	 0.95821,	-0.27806
	 0.95486,	-0.28899
	 0.95139,	-0.29986
	 0.9478,	-0.31069
	 0.94409,	-0.32146
	 0.94027,	-0.33218
	 0.93632,	-0.34284
	 0.93226,	-0.35344
	 0.92809,	-0.36399
	 0.9238,	-0.37448
	 0.91939,	-0.38491
	 0.91488,	-0.39528
	 0.91025,	-0.40558
	 0.90551,	-0.41582
	 0.90066,	-0.42599
	 0.89469,	-0.43811
	 0.88858,	-0.45014
	 0.8823,	-0.46206
	 0.87588,	-0.47388
	 0.86931,	-0.48559
	 0.86259,	-0.4972
	 0.85573,	-0.5087
	 0.84872,	-0.52009
	 0.84157,	-0.53136
	 0.83428,	-0.54253
	 0.82685,	-0.55357
	 0.81929,	-0.5645
	 0.81159,	-0.57531
	 0.80377,	-0.58599
	 0.79581,	-0.59656
	 0.78773,	-0.607
	 0.77952,	-0.61731
	 0.7712,	-0.6275
	 0.76275,	-0.63755
	 0.75418,	-0.64748
	 0.7455,	-0.65727
	 0.73671,	-0.66693
	 0.72781,	-0.67646
	 0.7188,	-0.68585
	 0.70968,	-0.6951
	 0.70046,	-0.70421
	 0.69114,	-0.71319
	 0.68172,	-0.72202
	 0.6722,	-0.73072
	 0.66259,	-0.73927
	 0.65289,	-0.74768
	 0.6431,	-0.75594
	 0.63323,	-0.76407
	 0.62326,	-0.77204
	 0.61322,	-0.77987
	 0.6031,	-0.78755
	 0.5929,	-0.79509
	 0.58262,	-0.80248
	 0.57228,	-0.80971
	 0.56186,	-0.8168
	 0.55138,	-0.82375
	 0.54083,	-0.83054
	 0.53022,	-0.83718
	 0.51954,	-0.84367
	 0.50881,	-0.85001
	 0.49802,	-0.8562
	 0.48718,	-0.86224
	 0.47629,	-0.86812
	 0.46535,	-0.87386
	 0.45436,	-0.87944
	 0.44333,	-0.88487
	 0.43225,	-0.89016
	 0.42114,	-0.89528
	 0.40998,	-0.90026
	 0.39879,	-0.90509
	 0.38757,	-0.90976
	 0.37632,	-0.91429
	 0.36503,	-0.91866
	 0.35372,	-0.92288
	 0.34238,	-0.92696
	 0.33102,	-0.93088
	 0.31964,	-0.93465
	 0.30824,	-0.93827
	 0.29682,	-0.94175
	 0.28539,	-0.94507
	 0.27394,	-0.94825
	 0.26249,	-0.95127
	 0.25102,	-0.95415
	 0.23955,	-0.95689
	 0.22807,	-0.95947
	 0.21658,	-0.96191
	 0.2051,	-0.96421
	 0.19361,	-0.96636
	 0.18213,	-0.96836
	 0.17065,	-0.97022
	 0.15917,	-0.97194
	 0.1477,	-0.97351
	 0.13624,	-0.97495
	 0.12479,	-0.97624
	 0.11336,	-0.97739
	 0.090528,	-0.97927
	 0.067762,	-0.9806
	 0.045075,	-0.98138
	 0.022479,	-0.98162
	-1.4051e-05,	-0.98132
	-0.022393,	-0.9805
	-0.044647,	-0.97915
	-0.066766,	-0.97729
	-0.08874,	-0.97492
	-0.11055,	-0.97204
	-0.13221,	-0.96867
	-0.15369,	-0.96482
	-0.17499,	-0.96048
	-0.1961,	-0.95567
	-0.21701,	-0.9504
	-0.23771,	-0.94467
	-0.25821,	-0.93848
	-0.27848,	-0.93185
	-0.29853,	-0.92478
	-0.31835,	-0.91728
	-0.33793,	-0.90936
	-0.35727,	-0.90101
	-0.37636,	-0.89225
	-0.39519,	-0.88309
	-0.41377,	-0.87352
	-0.43209,	-0.86356
	-0.45014,	-0.85321
	-0.46792,	-0.84247
	-0.47671,	-0.83695
	-0.48543,	-0.83134
	-0.49408,	-0.82564
	-0.50267,	-0.81984
	-0.51118,	-0.81395
	-0.51962,	-0.80796
	-0.52799,	-0.80188
	-0.53629,	-0.79571
	-0.54452,	-0.78944
	-0.55267,	-0.78308
	-0.56076,	-0.77663
	-0.56877,	-0.77009
	-0.5767,	-0.76345
	-0.58457,	-0.75672
	-0.59236,	-0.7499
	-0.60007,	-0.74299
	-0.60771,	-0.73598
	-0.61528,	-0.72888
	-0.62277,	-0.72169
	-0.63018,	-0.71441
	-0.63752,	-0.70703
	-0.64478,	-0.69955
	-0.65196,	-0.69198
	-0.65906,	-0.68432
END
BEGIN
	 -9.90645537000000029029921448982e-20 ,	 0 
	 -3.29597460000000010033810911969e-17 ,	 3.42467373999999984380421850597e-13 
	 -3.81639165000000027045582144066e-17 ,	 3.42465465999999989635575009133e-12 
	 -2.42861286999999989948942504803e-17 ,	 3.42465421999999988469712480548e-11 
	 8.86443696000000008520797826204e-16 ,	 3.42465471999999978558882104596e-10 
	 1.4172690800000000205985914576e-15 ,	 4.31138480000000024280666651743e-10 
	 2.265548860000000110141281623e-15 ,	 5.42771182999999994820538428965e-10 
	 3.61342900000000020666512459043e-15 ,	 6.83308441000000014755583804186e-10 
	 5.74540414999999988126761839549e-15 ,	 8.60234358999999975080302003721e-10 
	 9.12638020999999976873780798825e-15 ,	 1.082970899999999908598358257e-09 
	 1.44832062999999988122892214761e-14 ,	 1.3633795800000000942434558789e-09 
	 2.29746776999999992576419294192e-14 ,	 1.71639319000000004976235786066e-09 
	 3.64326624000000025760383474891e-14 ,	 2.16081100999999985295018459241e-09 
	 5.77506791999999976729833077504e-14 ,	 2.72029988000000009082632582613e-09 
	 9.15500313999999993109880709311e-14 ,	 3.42465464000000015299790998252e-09 
	 1.45118292e-13 ,	 4.31138474e-09 
	 2.30015659e-13 ,	 5.42771178e-09 
	 3.64572955e-13 ,	 6.83308424e-09 
	 5.77831186e-13 ,	 8.60234327e-09 
	 9.15816034e-13 ,	 1.08297083e-08 
	 1.45147783e-12 ,	 1.36337945e-08 
	 2.30046364e-12 ,	 1.71639295e-08 
	 3.64601058e-12 ,	 2.16081051e-08 
	 5.77854951e-12 ,	 2.72029889e-08 
	 9.1584032e-12 ,	 3.42465267e-08 
	 1.45151044e-11 ,	 4.3113808e-08 
	 2.30048775e-11 ,	 5.42770392e-08 
	 3.64602341e-11 ,	 6.83306854e-08 
	 5.77854379e-11 ,	 8.60231195e-08 
	 9.15833728e-11 ,	 1.08296458e-07 
	 1.45148884e-10 ,	 1.36336698e-07 
	 2.30043012e-10 ,	 1.71636806e-07 
	 3.64587376e-10 ,	 2.16076086e-07 
	 5.77816359e-10 ,	 2.72019983e-07 
	 9.15737789e-10 ,	 3.42445501e-07 
	 1.45124752e-09 ,	 4.31098643e-07 
	 2.29982345e-09 ,	 5.42691705e-07 
	 3.64434939e-09 ,	 6.83149855e-07 
	 4.65822153e-09 ,	 7.72353433e-07 
	 5.80176845e-09 ,	 8.61958289e-07 
	 9.1912016e-09 ,	 1.08490658e-06 
	 1.45570721e-08 ,	 1.36534839e-06 
	 2.18317731e-08 ,	 1.67205836e-06 
	 3.26772131e-08 ,	 2.04564525e-06 
	 4.38325687e-08 ,	 2.3692312e-06 
	 5.79032537e-08 ,	 2.72309197e-06 
	 9.00932197e-08 ,	 3.39674297e-06 
	 1.29064832e-07 ,	 4.06565653e-06 
	 1.745957e-07 ,	 4.72889568e-06 
	 2.2642355e-07 ,	 5.38552927e-06 
	 3.47723355e-07 ,	 6.67528994e-06 
	 4.90079583e-07 ,	 7.92764234e-06 
	 6.4999034e-07 ,	 9.13544639e-06 
	 8.23349823e-07 ,	 1.02917506e-05 
	 1.05175462e-06 ,	 1.16544801e-05 
	 1.28337339e-06 ,	 1.29136675e-05 
	 1.50644114e-06 ,	 1.4057458e-05 
	 1.70790877e-06 ,	 1.50748186e-05 
	 1.87350534e-06 ,	 1.59556354e-05 
	 1.98780382e-06 ,	 1.66908079e-05 
	 2.03429015e-06 ,	 1.72723399e-05 
	 1.99543577e-06 ,	 1.7693425e-05 
	 1.85277354e-06 ,	 1.79485272e-05 
	 1.58697715e-06 ,	 1.80334563e-05 
	 1.17794406e-06 ,	 1.79454363e-05 
	 6.04881883e-07 ,	 1.76831691e-05 
	 -1.53602002e-07 ,	 1.7246891e-05 
	 -1.11940762e-06 ,	 1.66384239e-05 
	 -2.31484673e-06 ,	 1.58612196e-05 
	 -3.76254462e-06 ,	 1.49203981e-05 
	 -5.48533949e-06 ,	 1.38227798e-05 
	 -7.50617999e-06 ,	 1.25769121e-05 
	 -9.84802116e-06 ,	 1.11930883e-05 
	 -1.2533719e-05 ,	 9.68336225e-06 
	 -1.55859245e-05 ,	 8.06155578e-06 
	 -1.90269764e-05 ,	 6.3432604e-06 
	 -2.28787947e-05 ,	 4.54583321e-06 
	 -2.71627737e-05 ,	 2.68838675e-06 
	 -3.18996755e-05 ,	 7.91773096e-07 
	 -3.71095246e-05 ,	 -1.1214377e-06 
	 -4.28115032e-05 ,	 -3.02698494e-06 
	 -4.90238484e-05 ,	 -4.89894998e-06 
	 -5.57637503e-05 ,	 -6.7097945e-06 
	 -6.30472524e-05 ,	 -8.43040393e-06 
	 -7.08891547e-05 ,	 -1.00301361e-05 
	 -7.93029178e-05 ,	 -1.1476875e-05 
	 -9.0171121e-05 ,	 -1.29637023e-05 
	 -0.000101897925 ,	 -1.41213632e-05 
	 -0.000114497839 ,	 -1.48867253e-05 
	 -0.000127981802 ,	 -1.51942062e-05 
	 -0.000142356982 ,	 -1.49759693e-05 
	 -0.000157626599 ,	 -1.41621312e-05 
	 -0.000173789748 ,	 -1.26809805e-05 
	 -0.000190841241 ,	 -1.0459207e-05 
	 -0.000208771462 ,	 -7.42214134e-06 
	 -0.000227566231 ,	 -3.49400346e-06 
	 -0.000247206685 ,	 1.40183983e-06 
	 -0.000267669169 ,	 7.34260975e-06 
	 -0.000288925151 ,	 1.4405843e-05 
	 -0.000310941139 ,	 2.26691127e-05 
	 -0.000333678623 ,	 3.22097439e-05 
	 -0.000357094026 ,	 4.31045234e-05 
	 -0.000381138681 ,	 5.54294064e-05 
	 -0.000405758808 ,	 6.92592187e-05 
	 -0.000430895526 ,	 8.4667357e-05 
	 -0.000456484864 ,	 0.000101725487 
	 -0.000482457804 ,	 0.000120503243 
	 -0.00050874033 ,	 0.000141067921 
	 -0.000535253502 ,	 0.000163484181 
	 -0.000561913539 ,	 0.000187813747 
	 -0.000588631926 ,	 0.00021411511 
	 -0.000615315536 ,	 0.000242443233 
	 -0.000641866769 ,	 0.000272849266 
	 -0.000668183703 ,	 0.000305380259 
	 -0.000694160274 ,	 0.000340078892 
	 -0.000719686455 ,	 0.000376983202 
	 -0.000744648469 ,	 0.000416126328 
	 -0.000768929002 ,	 0.000457536254 
	 -0.000792407443 ,	 0.000501235579 
	 -0.00081496013 ,	 0.000547241282 
	 -0.000836460615 ,	 0.000595564511 
	 -0.000856779943 ,	 0.000646210378 
	 -0.000875786935 ,	 0.000699177775 
	 -0.000893348496 ,	 0.000754459197 
	 -0.000909329923 ,	 0.000812040587 
	 -0.000923595227 ,	 0.000871901197 
	 -0.000936007466 ,	 0.000934013461 
	 -0.00094642908 ,	 0.000998342889 
	 -0.000954722242 ,	 0.00106484798 
	 -0.000960749204 ,	 0.00113348016 
	 -0.000964372657 ,	 0.0012041837 
	 -0.00096545609 ,	 0.00127689574 
	 -0.000963864153 ,	 0.00135154622 
	 -0.000959463018 ,	 0.00142805791 
	 -0.000952120747 ,	 0.00150634644 
	 -0.00094170765 ,	 0.00158632036 
	 -0.000928096651 ,	 0.00166788115 
	 -0.000911163641 ,	 0.00175092336 
	 -0.000890787833 ,	 0.00183533468 
	 -0.000866852108 ,	 0.00192099607 
	 -0.000839243362 ,	 0.0020077819 
	 -0.000807852832 ,	 0.0020955601 
	 -0.000772576428 ,	 0.00218419232 
	 -0.000733315047 ,	 0.00227353414 
	 -0.000689974882 ,	 0.00236343525 
	 -0.000642467716 ,	 0.00245373968 
	 -0.00059071121 ,	 0.00254428603 
	 -0.000534629175 ,	 0.0026349077 
	 -0.000474151834 ,	 0.00272543317 
	 -0.00040921607 ,	 0.00281568622 
	 -0.000339765663 ,	 0.00290548628 
	 -0.000265751511 ,	 0.00299464864 
	 -0.00018713184 ,	 0.00308298481 
	 -0.000103872397 ,	 0.00317030279 
	 -1.59466322e-05 ,	 0.00325640737 
	 7.66641333e-05 ,	 0.00334110049 
	 0.000173970556 ,	 0.00342418154 
	 0.000275975131 ,	 0.00350544767 
	 0.000382672064 ,	 0.00358469418 
	 0.000494047166 ,	 0.00366171479 
	 0.000610077749 ,	 0.00373630205 
	 0.000730732548 ,	 0.00380824763 
	 0.000855971647 ,	 0.00387734269 
	 0.000985746422 ,	 0.00394337826 
	 0.0011199995 ,	 0.00400614553 
	 0.00125866473 ,	 0.00406543624 
	 0.00154892302 ,	 0.00417275985 
	 0.00185581606 ,	 0.00426370745 
	 0.00217849832 ,	 0.00433666885 
	 0.00251598518 ,	 0.00439007668 
	 0.00286715501 ,	 0.00442241778 
	 0.00323075203 ,	 0.00443224445 
	 0.00360538998 ,	 0.00441818574 
	 0.00398955669 ,	 0.00437895855 
	 0.00438161947 ,	 0.00431337861 
	 0.00477983144 ,	 0.00422037125 
	 0.00518233881 ,	 0.00409898194 
	 0.00558718911 ,	 0.00394838646 
	 0.00599234044 ,	 0.00376790062 
	 0.0063956718 ,	 0.00355698946 
	 0.006795,	 0.0033153
	 0.0071881,	 0.0030425
	 0.0075726,	 0.0027388
	 0.0079463,	 0.0024041
	 0.0083068,	 0.0020388
	 0.0086518,	 0.0016434
	 0.0089789,	 0.0012186
	 0.009286,	 0.00076535
	 0.00957083661 ,	 0.00028461878 
	 0.0098312,	-0.00022231
	 0.010065,	-0.00075402
	 0.010271,	-0.0013089
	 0.010446,	-0.0018853
	 0.010589,	-0.0024811
	 0.010648,	-0.0027858
	 0.010698,	-0.0030945
	 0.01074,	-0.0034071
	 0.010773,	-0.0037233
	 0.010797,	-0.0040428
	 0.010812,	-0.0043652
	 0.010817,	-0.0046903
	 0.010813,	-0.0050178
	 0.0108,	-0.0053474
	 0.010777,	-0.0056788
	 0.010744,	-0.0060117
	 0.010701,	-0.0063457
	 0.010649,	-0.0066806
	 0.010587,	-0.007016
	 0.010515,	-0.0073517
	 0.010433,	-0.0076872
	 0.010341,	-0.0080224
	 0.01024,	-0.0083568
	 0.010128,	-0.0086902
	 0.010007,	-0.0090223
	 0.0098757,	-0.0093527
	 0.0097349,	-0.0096812
	 0.0095843,	-0.010007
	 0.0094242,	-0.010331
END
BEGIN
	 -9.90645537000000029029921448982e-20 ,	 0 
	 -3.29597460000000010033810911969e-17 ,	 3.42467373999999984380421850597e-13 
	 -3.81639165000000027045582144066e-17 ,	 3.42465465999999989635575009133e-12 
	 -2.42861286999999989948942504803e-17 ,	 3.42465421999999988469712480548e-11 
	 8.86443696000000008520797826204e-16 ,	 3.42465471999999978558882104596e-10 
	 1.4172690800000000205985914576e-15 ,	 4.31138480000000024280666651743e-10 
	 2.265548860000000110141281623e-15 ,	 5.42771182999999994820538428965e-10 
	 3.61342900000000020666512459043e-15 ,	 6.83308441000000014755583804186e-10 
	 5.74540414999999988126761839549e-15 ,	 8.60234358999999975080302003721e-10 
	 9.12638020999999976873780798825e-15 ,	 1.082970899999999908598358257e-09 
	 1.44832062999999988122892214761e-14 ,	 1.3633795800000000942434558789e-09 
	 2.29746776999999992576419294192e-14 ,	 1.71639319000000004976235786066e-09 
	 3.64326624000000025760383474891e-14 ,	 2.16081100999999985295018459241e-09 
	 5.77506791999999976729833077504e-14 ,	 2.72029988000000009082632582613e-09 
	 9.15500313999999993109880709311e-14 ,	 3.42465464000000015299790998252e-09 
	 1.45118292e-13 ,	 4.31138474e-09 
