CITIFILE A.01.01
#Momentum: B.12.070 (*) built: Feb 13 2020 
#Momentum Date and Time: Mon Aug 15 06:31:53 2022

NAME Momentum.SP

#  mode: MW    reference: S_50

#eesof Port[1] P1
#eesof Port[2] P2

CONSTANT NBR_OF_PORTS 2

CONSTANT NORMALIZATION 1

VAR freq MAG 462

DATA S[1,1] RI
DATA S[1,2] RI
DATA S[2,1] RI
DATA S[2,2] RI
DATA PORTZ[1] RI
DATA PORTZ[2] RI

VAR_LIST_BEGIN
	 0
	 8.701167245
	 87.01167245
	 870.1167245
	 8701.167245
	 10954.12056
	 13790.42073
	 17361.1111
	 21856.34394
	 27515.5068
	 34639.97072
	 43609.13941
	 54900.65379
	 69115.82818
	 87011.67245
	 109541.2056
	 137904.2073
	 173611.111
	 218563.4394
	 275155.068
	 346399.7072
	 436091.3941
	 549006.5379
	 691158.2818
	 870116.7245
	 1095412.056
	 1379042.073
	 1736111.11
	 2185634.394
	 2751550.68
	 3463997.072
	 4360913.941
	 5490065.379
	 6911582.818
	 8701167.245
	 10954120.56
	 13790420.73
	 17361111.1
	 19629339.22
	 21908241.11
	 27580841.47
	 34722222.2
	 42541975.04
	 52083333.3
	 60365357.38
	 69444444.4
	 78124999.95
	 86805555.5
	 95486111.05
	 104166666.6
	 112847222.2
	 121527777.7
	 130208333.3
	 138888888.8
	 149739583.2
	 160590277.7
	 171440972.1
	 182291666.6
	 193142361
	 203993055.4
	 214843749.9
	 225694444.3
	 247395833.2
	 269097222.1
	 290798611
	 312499999.9
	 323350694.3
	 334201388.7
	 345052083.2
	 355902777.6
	 366753472.1
	 377604166.5
	 388454860.9
	 399305555.4
	 410156249.8
	 421006944.3
	 431857638.7
	 442708333.1
	 453559027.6
	 464409722
	 475260416.5
	 486111110.9
	 507812499.8
	 529513888.7
	 551215277.5
	 572916666.4
	 594618055.3
	 616319444.2
	 638020833.1
	 659722222
	 681423610.8
	 703124999.7
	 724826388.6
	 746527777.5
	 768229166.4
	 789930555.2
	 811631944.1
	 833333333
	 859374999.7
	 885416666.3
	 911458333
	 937499999.6
	 963541666.3
	 989583332.9
	 1015625000
	 1041666666
	 1067708333
	 1093750000
	 1119791666
	 1145833333
	 1171875000
	 1197916666
	 1223958333
	 1250000000
	 1276041666
	 1302083333
	 1328124999
	 1354166666
	 1380208333
	 1406249999
	 1432291666
	 1458333333
	 1484374999
	 1510416666
	 1536458333
	 1562499999
	 1588541666
	 1614583333
	 1640624999
	 1666666666
	 1692708333
	 1718749999
	 1744791666
	 1770833333
	 1796874999
	 1822916666
	 1848958333
	 1874999999
	 1901041666
	 1927083333
	 1953124999
	 1979166666
	 2005208333
	 2031249999
	 2057291666
	 2083333333
	 2109374999
	 2135416666
	 2161458333
	 2187499999
	 2213541666
	 2239583333
	 2265624999
	 2291666666
	 2343749999
	 2395833333
	 2447916666
	 2500000000
	 2552083333
	 2604166666
	 2656250000
	 2708333333
	 2760416666
	 2812500000
	 2864583333
	 2916666666
	 2968750000
	 3020833333
	 3072916666
	 3125000000
	 3177083333
	 3229166666
	 3281250000
	 3333333333
	 3385416666
	 3437500000
	 3489583333
	 3541666666
	 3593750000
	 3645833333
	 3697916666
	 3750000000
	 3776041666
	 3802083333
	 3828125000
	 3854166666
	 3880208333
	 3906250000
	 3932291666
	 3958333333
	 3984375000
	 4010416666
	 4036458333
	 4062500000
	 4088541666
	 4114583333
	 4140625000
	 4166666666
	 4192708333
	 4218750000
	 4244791667
	 4270833333
	 4296875000
	 4322916667
	 4348958333
	 4375000000
	 4401041667
	 4427083333
	 4453125000
	 4479166667
	 4505208333
	 4531250000
	 4557291667
	 4583333333
	 4609375000
	 4635416667
	 4661458333
	 4687500000
	 4713541667
	 4739583333
	 4765625000
	 4791666667
	 4817708333
	 4843750000
	 4869791667
	 4895833333
	 4921875000
	 4947916667
	 4973958333
	 5000000000
	 5026041667
	 5052083333
	 5078125000
	 5104166667
	 5130208333
	 5156250000
	 5182291667
	 5208333334
	 5234375000
	 5260416667
	 5286458334
	 5312500000
	 5338541667
	 5364583334
	 5390625000
	 5416666667
	 5442708334
	 5468750000
	 5494791667
	 5520833334
	 5546875000
	 5572916667
	 5598958334
	 5625000000
	 5651041667
	 5677083334
	 5703125001
	 5729166667
	 5755208334
	 5781250001
	 5807291667
	 5833333334
	 5859375001
	 5885416667
	 5911458334
	 5937500001
	 5963541667
	 5989583334
	 6015625001
	 6041666667
	 6054687501
	 6067708334
	 6080729167
	 6093750001
	 6106770834
	 6119791667
	 6132812501
	 6145833334
	 6158854167
	 6171875001
	 6184895834
	 6197916667
	 6210937501
	 6223958334
	 6236979167
	 6250000000
	 6263020834
	 6276041667
	 6289062500
	 6302083334
	 6315104167
	 6328125000
	 6341145834
	 6354166667
	 6380208334
	 6406250000
	 6432291667
	 6458333334
	 6484375000
	 6510416667
	 6536458334
	 6562500000
	 6588541667
	 6614583334
	 6640625000
	 6666666667
	 6684027778
	 6701388889
	 6718750000
	 6736111111
	 6753472223
	 6770833334
	 6788194445
	 6805555556
	 6822916667
	 6840277778
	 6857638889
	 6875000000
	 6892361111
	 6909722223
	 6927083334
	 6944444445
	 6961805556
	 6979166667
	 6996527778
	 7013888889
	 7031250000
	 7048611111
	 7065972223
	 7083333334
	 7100694445
	 7118055556
	 7135416667
	 7152777778
	 7170138889
	 7187500000
	 7204861111
	 7222222222
	 7239583334
	 7256944445
	 7274305556
	 7291666667
	 7309027778
	 7326388889
	 7343750000
	 7361111111
	 7378472222
	 7395833334
	 7413194445
	 7430555556
	 7447916667
	 7465277778
	 7482638889
	 7500000000
	 7534722222
	 7569444445
	 7604166667
	 7638888889
	 7673611111
	 7708333334
	 7743055556
	 7777777778
	 7812500000
	 7847222222
	 7881944445
	 7916666667
	 7951388889
	 7986111111
	 8020833334
	 8055555556
	 8090277778
	 8125000000
	 8159722222
	 8194444445
	 8211805556
	 8229166667
	 8246527778
	 8263888889
	 8281250000
	 8298611111
	 8315972222
	 8333333334
	 8350694445
	 8368055556
	 8385416667
	 8402777778
	 8420138889
	 8437500000
	 8454861111
	 8472222222
	 8489583333
	 8506944445
	 8524305556
	 8541666667
	 8559027778
	 8576388889
	 8593750000
	 8611111111
	 8628472222
	 8645833333
	 8663194445
	 8680555556
	 8697916667
	 8715277778
	 8732638889
	 8750000000
	 8767361111
	 8784722222
	 8802083333
	 8819444445
	 8836805556
	 8854166667
	 8871527778
	 8888888889
	 8912037037
	 8935185185
	 8958333333
	 8981481482
	 9004629630
	 9027777778
	 9050925926
	 9074074074
	 9097222222
	 9120370371
	 9143518519
	 9166666667
	 9189814815
	 9212962963
	 9236111111
	 9259259260
	 9282407408
	 9305555556
	 9328703704
	 9351851852
	 9375000000
	 9398148148
	 9421296297
	 9444444445
	 9467592593
	 9490740741
	 9513888889
	 9537037037
	 9560185186
	 9583333334
	 9606481482
	 9629629630
	 9652777778
	 9675925926
	 9699074074
	 9722222222
	 9745370371
	 9768518519
	 9791666667
	 9814814815
	 9837962963
	 9861111111
	 9884259259
	 9907407408
	 9930555556
	 9953703704
	 9976851852
	 1e+10
VAR_LIST_END

BEGIN
	 0.999999999999991673327315311326 ,	 -0 
	 1 ,	 -1.92057492132136076179449446499e-08 
	 0.999999999999979349851741972088 ,	 -1.92057489023511607229011133313e-07 
	 0.999999999998006483536983068916 ,	 -1.9205748906792052821401739493e-06 
	 0.999999999800427641361011410481 ,	 -1.92057489096786326854271464981e-05 
	 0.999999999683699680730342151946 ,	 -2.41786053523096455819541006349e-05 
	 0.999999999498696334754299641645 ,	 -3.04390606973292676684650359675e-05 
	 0.9999999992054848796385613241 ,	 -3.8320507015132676542634726502e-05 
	 0.999999998740776607775160300662 ,	 -4.82426600605379007902229204774e-05 
	 0.999999998004270196361176203936 ,	 -6.07339106548643314908986212686e-05 
	 0.999999996836976601244373341615 ,	 -7.6459463425271323444576410111e-05 
	 0.999999994986944029662367938727 ,	 -9.62567613669307320378720760345e-05 
	 0.99999999205484191300286056503 ,	 -0.000121180082721217274865921353921 
	 0.999999987407774515446590157808 ,	 -0.000152556685098614863704824529123 
	 0.999999980042668878965628209698 ,	 -0.000192057486728236526118962501641 
	 0.999999968369761571551634915522 ,	 -0.000241786048808645404051276273094 
	 0.999999949869448956363271463488 ,	 -0.000304390597554382580369747302029 
	 0.999999920548433118838715927268 ,	 -0.00038320505137123817007704928983 
	 0.999999874077757588963777379831 ,	 -0.00048242656313024490088992024539 
	 0.999999800426718099544132201117 ,	 -0.000607339031775788740219468309078 
	 0.999999683697714081276330944092 ,	 -0.000764594485064939988205878762528 
	 0.999999498694783772734240301361 ,	 -0.000962567316004303563659050269052 
	 0.999999205485086140043904379127 ,	 -0.00121180023328415487071652023587 
	 0.999998740779507011566806795599 ,	 -0.00152556566595651865725358220516 
	 0.99999800427198914931636863912 ,	 -0.00192057250284394243067254137713 
	 0.999996836989228476966218295274 ,	 -0.00241785577043418520304385310737 
	 0.999994986978238964425713675155 ,	 -0.00304389656265069419305291376077 
	 0.999992054927284046428326291789 ,	 -0.00383203173275048492030236957362 
	 0.999987407987069198966878502688 ,	 -0.00482422815907890267794755345676 
	 0.999980043202173485283879017516 ,	 -0.0060733155531498272949875172344 
	 0.999968371103626241236383975775 ,	 -0.00764579568288481503657294524601 
	 0.999949872824672958415703760693 ,	 -0.00962537555414155754363036976429 
	 0.999920556912768043744677015638 ,	 -0.0121174086034359085317646531621 
	 0.999874099053645215562369230611 ,	 -0.015254472242578254181921693089 
	 0.999800480176493255868308551726 ,	 -0.019203362528961154254147913889 
	 0.999683831873694028757881824276 ,	 -0.0241738461806857429792216862552 
	 0.999499031292920614433228365669 ,	 -0.0304295720983114303948013912304 
	 0.999206328428607015723628137494 ,	 -0.0383015974324936170347655206569 
	 0.998985692679294823292934779602 ,	 -0.0432997718324914515619639132638 
	 0.99873692321530094240245034598 ,	 -0.0483192842734303518170690949773 
	 0.998000104859219083763832713885 ,	 -0.0608026733158810728241405740846 
	 0.996835198634668850914408722019 ,	 -0.076491174658611216230497120705 
	 0.995258820914239006327761671855 ,	 -0.0936273685485662365834969023126 
	 0.992914545642303858485888667929 ,	 -0.114463444045768802936891006539 
	 0.990510014082297995940962209716 ,	 -0.13247357917893998191516402585 
	 0.98748,	-0.15212
	 0.98422,	-0.17081
	 0.98059,	-0.18939
	 0.97662,	-0.20786
	 0.9723,	-0.2262
	 0.96764,	-0.24442
	 0.96265,	-0.2625
	 0.95733,	-0.28044
	 0.9517,	-0.29823
	 0.94421,	-0.32025
	 0.93623,	-0.34203
	 0.92779,	-0.36355
	 0.91889,	-0.3848
	 0.90953,	-0.40577
	 0.89974,	-0.42646
	 0.88951,	-0.44685
	 0.87887,	-0.46693
	 0.85636,	-0.50615
	 0.8323,	-0.54404
	 0.80679,	-0.58054
	 0.7799,	-0.6156
	 0.76597,	-0.63257
	 0.75174,	-0.64916
	 0.73722,	-0.66537
	 0.72242,	-0.68118
	 0.70734,	-0.6966
	 0.69201,	-0.71162
	 0.67644,	-0.72624
	 0.66064,	-0.74045
	 0.64462,	-0.75426
	 0.6284,	-0.76766
	 0.61198,	-0.78064
	 0.59539,	-0.79321
	 0.57862,	-0.80537
	 0.5617,	-0.81712
	 0.54463,	-0.82845
	 0.52744,	-0.83936
	 0.49269,	-0.85996
	 0.45755,	-0.87892
	 0.42211,	-0.89626
	 0.38645,	-0.91199
	 0.35065,	-0.92615
	 0.31479,	-0.93876
	 0.27893,	-0.94986
	 0.24315,	-0.95948
	 0.20751,	-0.96766
	 0.17206,	-0.97444
	 0.13687,	-0.97986
	 0.10197,	-0.98397
	 0.067429,	-0.98681
	 0.033272,	-0.98843
	-0.00045851,	-0.98888
	-0.033727,	-0.98819
	-0.072996,	-0.98594
	-0.1115,	-0.98222
	-0.14922,	-0.97708
	-0.1861,	-0.97063
	-0.22213,	-0.96292
	-0.25727,	-0.95404
	-0.2915,	-0.94404
	-0.32483,	-0.93302
	-0.35722,	-0.92101
	-0.38868,	-0.9081
	-0.4192,	-0.89435
	-0.44878,	-0.8798
	-0.47742,	-0.86452
	-0.50513,	-0.84855
	-0.53192,	-0.83196
	-0.55778,	-0.81478
	-0.58273,	-0.79706
	-0.60678,	-0.77885
	-0.62994,	-0.76018
	-0.65222,	-0.74109
	-0.67363,	-0.72161
	-0.6942,	-0.70179
	-0.71393,	-0.68165
	-0.73283,	-0.66123
	-0.75092,	-0.64054
	-0.76823,	-0.61962
	-0.78475,	-0.5985
	-0.80051,	-0.57718
	-0.81552,	-0.55571
	-0.82979,	-0.53409
	-0.84335,	-0.51234
	-0.8562,	-0.49049
	-0.86836,	-0.46855
	-0.87984,	-0.44654
	-0.89065,	-0.42446
	-0.90082,	-0.40235
	-0.91035,	-0.38019
	-0.91925,	-0.35802
	-0.92754,	-0.33584
	-0.93523,	-0.31366
	-0.94233,	-0.29149
	-0.94886,	-0.26934
	-0.95481,	-0.24721
	-0.96021,	-0.22513
	-0.96506,	-0.20309
	-0.96938,	-0.1811
	-0.97317,	-0.15918
	-0.97644,	-0.13732
	-0.97921,	-0.11553
	-0.98147,	-0.093818
	-0.98324,	-0.072188
	-0.98452,	-0.050647
	-0.98533,	-0.029199
	-0.98567,	-0.0078495
	-0.98555,	 0.013397
	-0.98497,	 0.034537
	-0.98246,	 0.076478
	-0.9782,	 0.11794
	-0.97222,	 0.15889
	-0.96458,	 0.19931
	-0.95529,	 0.23915
	-0.9444,	 0.27841
	-0.93194,	 0.31703
	-0.91791,	 0.35501
	-0.90236,	 0.3923
	-0.8853,	 0.42888
	-0.86674,	 0.46471
	-0.84671,	 0.49976
	-0.82521,	 0.534
	-0.80227,	 0.56739
	-0.77788,	 0.59989
	-0.75206,	 0.63145
	-0.72482,	 0.66204
	-0.69617,	 0.69159
	-0.66611,	 0.72008
	-0.63466,	 0.74742
	-0.60183,	 0.77358
	-0.56762,	 0.79849
	-0.53204,	 0.82207
	-0.49512,	 0.84426
	-0.45687,	 0.86499
	-0.4173,	 0.88417
	-0.37645,	 0.90172
	-0.33433,	 0.91755
	-0.31281,	 0.92478
	-0.29098,	 0.93156
	-0.26886,	 0.93785
	-0.24644,	 0.94365
	-0.22373,	 0.94894
	-0.20075,	 0.95372
	-0.17749,	 0.95796
	-0.15396,	 0.96166
	-0.13018,	 0.96479
	-0.10614,	 0.96735
	-0.081872,	 0.96931
	-0.057364,	 0.97067
	-0.032636,	 0.97141
	-0.0076978,	 0.9715
	 0.017437,	 0.97095
	 0.042757,	 0.96972
	 0.068247,	 0.96781
	 0.093893,	 0.96519
	 0.11967,	 0.96185
	 0.14558,	 0.95778
	 0.1716,	 0.95295
	 0.1977,	 0.94736
	 0.22387,	 0.94098
	 0.25008,	 0.9338
	 0.27631,	 0.9258
	 0.30255,	 0.91696
	 0.32876,	 0.90728
	 0.35491,	 0.89673
	 0.38099,	 0.8853
	 0.40695,	 0.87298
	 0.43278,	 0.85976
	 0.45843,	 0.84561
	 0.48388,	 0.83054
	 0.50908,	 0.81452
	 0.53401,	 0.79756
	 0.55862,	 0.77963
	 0.58288,	 0.76074
	 0.60674,	 0.74088
	 0.63016,	 0.72004
	 0.6531,	 0.69823
	 0.67551,	 0.67544
	 0.69734,	 0.65167
	 0.71855,	 0.62693
	 0.73909,	 0.60123
	 0.75891,	 0.57458
	 0.77795,	 0.54697
	 0.79616,	 0.51844
	 0.8135,	 0.489
	 0.82991,	 0.45867
	 0.84533,	 0.42747
	 0.85971,	 0.39543
	 0.873,	 0.36259
	 0.88515,	 0.32897
	 0.89609,	 0.29461
	 0.90579,	 0.25956
	 0.91419,	 0.22387
	 0.92124,	 0.18757
	 0.92689,	 0.15073
	 0.9311,	 0.11341
	 0.93382,	 0.075665
	 0.93502,	 0.037555
	 0.93466,	-0.00084567
	 0.9327,	-0.039466
	 0.92912,	-0.07823
	 0.92388,	-0.11706
	 0.91697,	-0.15587
	 0.90838,	-0.19458
	 0.89808,	-0.23311
	 0.88607,	-0.27136
	 0.87235,	-0.30925
	 0.85693,	-0.34669
	 0.83981,	-0.38358
	 0.82101,	-0.41983
	 0.80056,	-0.45535
	 0.77848,	-0.49005
	 0.7548,	-0.52384
	 0.72958,	-0.55664
	 0.70284,	-0.58835
	 0.67465,	-0.61889
	 0.64507,	-0.64818
	 0.61414,	-0.67615
	 0.58196,	-0.70273
	 0.54858,	-0.72784
	 0.51408,	-0.75142
	 0.47855,	-0.77341
	 0.44207,	-0.79376
	 0.40473,	-0.81243
	 0.36662,	-0.82937
	 0.3473,	-0.83718
	 0.32783,	-0.84454
	 0.30821,	-0.85145
	 0.28845,	-0.85792
	 0.26858,	-0.86393
	 0.24859,	-0.86948
	 0.22851,	-0.87457
	 0.20834,	-0.87921
	 0.18809,	-0.88338
	 0.16779,	-0.88709
	 0.14743,	-0.89034
	 0.12704,	-0.89313
	 0.10662,	-0.89545
	 0.08619,	-0.89731
	 0.065755,	-0.89871
	 0.045329,	-0.89965
	 0.024925,	-0.90014
	 0.0045525,	-0.90017
	-0.015776,	-0.89975
	-0.036049,	-0.89888
	-0.056257,	-0.89756
	-0.076388,	-0.8958
	-0.096431,	-0.89359
	-0.11637,	-0.89096
	-0.15593,	-0.88439
	-0.19497,	-0.87614
	-0.23343,	-0.86624
	-0.27123,	-0.85474
	-0.30829,	-0.84168
	-0.34457,	-0.82712
	-0.37998,	-0.81111
	-0.41449,	-0.7937
	-0.44803,	-0.77496
	-0.48055,	-0.75494
	-0.51202,	-0.7337
	-0.54239,	-0.71131
	-0.56201,	-0.69577
	-0.58111,	-0.67976
	-0.59969,	-0.6633
	-0.61774,	-0.64642
	-0.63525,	-0.62912
	-0.65221,	-0.61142
	-0.66861,	-0.59335
	-0.68446,	-0.57493
	-0.69975,	-0.55617
	-0.71446,	-0.53708
	-0.7286,	-0.51769
	-0.74217,	-0.49802
	-0.75516,	-0.47809
	-0.76757,	-0.4579
	-0.7794,	-0.43748
	-0.79065,	-0.41684
	-0.80131,	-0.39601
	-0.81139,	-0.37499
	-0.82088,	-0.35381
	-0.8298,	-0.33248
	-0.83813,	-0.31101
	-0.84588,	-0.28943
	-0.85305,	-0.26774
	-0.85965,	-0.24596
	-0.86568,	-0.22411
	-0.87113,	-0.2022
	-0.87602,	-0.18024
	-0.88034,	-0.15824
	-0.8841,	-0.13623
	-0.8873,	-0.11421
	-0.88995,	-0.092206
	-0.89206,	-0.070213
	-0.89361,	-0.048251
	-0.89463,	-0.026332
	-0.89512,	-0.004468
	-0.89507,	 0.01733
	-0.8945,	 0.039051
	-0.89341,	 0.060683
	-0.89181,	 0.082217
	-0.8897,	 0.10364
	-0.88708,	 0.12494
	-0.88397,	 0.14612
	-0.88037,	 0.16715
	-0.87628,	 0.18804
	-0.87171,	 0.20877
	-0.86667,	 0.22934
	-0.86116,	 0.24973
	-0.85519,	 0.26993
	-0.84188,	 0.30976
	-0.82681,	 0.34875
	-0.81002,	 0.38684
	-0.79155,	 0.42398
	-0.77147,	 0.4601
	-0.74982,	 0.49516
	-0.72666,	 0.52909
	-0.70204,	 0.56185
	-0.67602,	 0.59339
	-0.64864,	 0.62366
	-0.61996,	 0.65261
	-0.59004,	 0.68021
	-0.55894,	 0.7064
	-0.5267,	 0.73114
	-0.49339,	 0.7544
	-0.45906,	 0.77614
	-0.42377,	 0.79631
	-0.38759,	 0.81488
	-0.35057,	 0.83182
	-0.31278,	 0.84708
	-0.29361,	 0.85407
	-0.27427,	 0.86064
	-0.25477,	 0.86677
	-0.23512,	 0.87246
	-0.21533,	 0.8777
	-0.1954,	 0.8825
	-0.17534,	 0.88685
	-0.15516,	 0.89075
	-0.13487,	 0.89419
	-0.11448,	 0.89717
	-0.094006,	 0.89969
	-0.073442,	 0.90174
	-0.052805,	 0.90331
	-0.032105,	 0.90442
	-0.01135,	 0.90505
	 0.0094501,	 0.9052
	 0.030285,	 0.90487
	 0.051144,	 0.90405
	 0.072017,	 0.90275
	 0.092895,	 0.90096
	 0.11376,	 0.89868
	 0.13462,	 0.89591
	 0.15545,	 0.89264
	 0.17624,	 0.88888
	 0.19698,	 0.88462
	 0.21766,	 0.87986
	 0.23826,	 0.8746
	 0.25879,	 0.86885
	 0.27922,	 0.86259
	 0.29955,	 0.85584
	 0.31975,	 0.84858
	 0.33983,	 0.84082
	 0.35976,	 0.83257
	 0.37955,	 0.82381
	 0.39916,	 0.81456
	 0.41859,	 0.80481
	 0.43784,	 0.79457
	 0.45687,	 0.78383
	 0.4757,	 0.7726
	 0.49429,	 0.76089
	 0.51869,	 0.74451
	 0.54264,	 0.72728
	 0.56609,	 0.70921
	 0.58902,	 0.6903
	 0.61138,	 0.67056
	 0.63316,	 0.65001
	 0.65432,	 0.62867
	 0.67483,	 0.60654
	 0.69466,	 0.58365
	 0.71376,	 0.56
	 0.73213,	 0.53563
	 0.74972,	 0.51055
	 0.76649,	 0.48479
	 0.78244,	 0.45836
	 0.79751,	 0.43129
	 0.81169,	 0.40362
	 0.82494,	 0.37536
	 0.83724,	 0.34655
	 0.84856,	 0.31721
	 0.85888,	 0.28739
	 0.86816,	 0.25711
	 0.87639,	 0.22642
	 0.88354,	 0.19534
	 0.88959,	 0.16392
	 0.89453,	 0.1322
	 0.89833,	 0.10021
	 0.90097,	 0.068014
	 0.90244,	 0.035633
	 0.90273,	 0.0031211
	 0.90183,	-0.029477
	 0.89972,	-0.062113
	 0.89639,	-0.09474
	 0.89185,	-0.1273
	 0.88609,	-0.15977
	 0.87911,	-0.19207
	 0.8709,	-0.22417
	 0.86148,	-0.25601
	 0.85084,	-0.28755
	 0.839,	-0.31872
	 0.82596,	-0.34949
	 0.81175,	-0.37979
	 0.79637,	-0.40959
	 0.77984,	-0.43882
	 0.76218,	-0.46744
	 0.74343,	-0.49541
	 0.72359,	-0.52267
	 0.7027,	-0.54918
	 0.68079,	-0.57489
END
BEGIN
	 -2.3052287299999999316513909955e-18 ,	 0 
	 4.28259858000000029226189685965e-17 ,	 1.97326691999999989007630107292e-11 
	 6.36968776000000017734723106816e-17 ,	 1.97326667999999994540310512017e-10 
	 2.2409374700000001439121818526e-15 ,	 1.97326667000000000425393830838e-09 
	 2.20220000999999988146707477061e-13 ,	 1.97326665999999983563010304451e-08 
	 3.49013135999999984898230256884e-13 ,	 2.48419554999999990842675937552e-08 
	 5.53115061999999962482507500352e-13 ,	 3.1274168999999996954245319418e-08 
	 8.76606134000000039986445145266e-13 ,	 3.93718461000000023367012102603e-08 
	 1.38930057000000003345548953001e-12 ,	 4.95662174999999968109442650185e-08 
	 2.20186992999999998714354903542e-12 ,	 6.2400170799999997782884293869e-08 
	 3.4897022899999999928620910197e-12 ,	 7.855716060000000149981201885e-08 
	 5.5307876900000003058460795635e-12 ,	 9.88976055000000015312089439272e-08 
	 8.7656808900000007011113402657e-12 ,	 1.24504707999999988481449231421e-07 
	 1.38926369000000002927478484638e-11 ,	 1.56742139999999993258577354188e-07 
	 2.20183307000000011567718372872e-11 ,	 1.97326661999999995522815003993e-07 
	 3.48966656e-11 ,	 2.48419546e-07 
	 5.53074503e-11 ,	 3.12741672e-07 
	 8.76563447e-11 ,	 3.93718425e-07 
	 1.38925815e-10 ,	 4.95662105e-07 
	 2.20182333e-10 ,	 6.24001567e-07 
	 3.48964889e-10 ,	 7.85571324e-07 
	 5.53070619e-10 ,	 9.88975494e-07 
	 8.76554206e-10 ,	 1.24504596e-06 
	 1.38923569e-09 ,	 1.56741917e-06 
	 2.20176734e-09 ,	 1.97326217e-06 
	 3.48950877e-09 ,	 2.48418657e-06 
	 5.53035488e-09 ,	 3.127399e-06 
	 8.76466107e-09 ,	 3.93714891e-06 
	 1.38901473e-08 ,	 4.95655057e-06 
	 2.2012135e-08 ,	 6.23987522e-06 
	 3.4881221e-08 ,	 7.85543351e-06 
	 5.52688944e-08 ,	 9.88919836e-06 
	 8.75602571e-08 ,	 1.2449354e-05 
	 1.38687273e-07 ,	 1.56720009e-05 
	 2.19593776e-07 ,	 1.9728297e-05 
	 3.47526767e-07 ,	 2.48333777e-05 
