CITIFILE A.01.01
#Momentum: B.12.070 (*) built: Feb 13 2020 
#Momentum Date and Time: Tue Aug 16 06:45:39 2022

NAME Momentum.SP

#  mode: MW    reference: S_50

#eesof Port[1] P1
#eesof Port[2] P2

CONSTANT NBR_OF_PORTS 2

CONSTANT NORMALIZATION 1

VAR freq MAG 480

DATA S[1,1] RI
DATA S[1,2] RI
DATA S[2,1] RI
DATA S[2,2] RI
DATA PORTZ[1] RI
DATA PORTZ[2] RI

VAR_LIST_BEGIN
	 0
	 9.215443759
	 92.15443759
	 921.5443759
	 9215.443759
	 11601.55633
	 14605.49408
	 18387.22765
	 23148.14814
	 29141.79193
	 36687.3424
	 46186.62764
	 58145.51922
	 73200.87173
	 92154.43759
	 116015.5633
	 146054.9408
	 183872.2765
	 231481.4814
	 291417.9193
	 366873.424
	 461866.2764
	 581455.1922
	 732008.7173
	 921544.3759
	 1160155.633
	 1460549.408
	 1838722.765
	 2314814.814
	 2914179.193
	 3668734.24
	 4618662.764
	 5814551.922
	 7320087.173
	 9215443.759
	 11601556.33
	 14605494.08
	 18387227.65
	 23148148.14
	 26172452.29
	 29210988.16
	 36774455.29
	 46296296.27
	 56722633.4
	 69444444.41
	 80487143.18
	 92592592.55
	 106550056.4
	 121527777.7
	 150462962.9
	 179398148.1
	 208333333.2
	 237268518.4
	 266203703.6
	 295138888.8
	 324074073.9
	 353009259.1
	 381944444.3
	 410879629.4
	 439814814.6
	 468749999.8
	 497685185
	 526620370.1
	 555555555.3
	 590277777.5
	 624999999.7
	 659722221.9
	 694444444.1
	 729166666.3
	 763888888.6
	 798611110.8
	 833333333
	 868055555.2
	 902777777.4
	 937499999.6
	 972222221.8
	 1006944444
	 1041666666
	 1076388888
	 1111111111
	 1145833333
	 1180555555
	 1215277777
	 1249999999
	 1284722222
	 1319444444
	 1354166666
	 1388888888
	 1406249999
	 1423611111
	 1440972222
	 1458333333
	 1475694444
	 1493055555
	 1510416666
	 1527777777
	 1562499999
	 1597222222
	 1631944444
	 1666666666
	 1692708333
	 1718749999
	 1744791666
	 1770833333
	 1796874999
	 1822916666
	 1848958333
	 1874999999
	 1901041666
	 1927083333
	 1953124999
	 1979166666
	 2005208333
	 2031249999
	 2057291666
	 2083333333
	 2109374999
	 2135416666
	 2161458333
	 2187499999
	 2213541666
	 2239583333
	 2265624999
	 2291666666
	 2317708333
	 2343749999
	 2369791666
	 2395833333
	 2421874999
	 2447916666
	 2473958333
	 2500000000
	 2526041666
	 2552083333
	 2578125000
	 2604166666
	 2630208333
	 2656250000
	 2682291666
	 2708333333
	 2721354166
	 2734375000
	 2747395833
	 2760416666
	 2773437500
	 2786458333
	 2799479166
	 2812500000
	 2825520833
	 2838541666
	 2851562500
	 2864583333
	 2877604166
	 2890625000
	 2903645833
	 2916666666
	 2929687500
	 2942708333
	 2955729166
	 2968750000
	 2981770833
	 2994791666
	 3007812500
	 3020833333
	 3033854166
	 3046875000
	 3059895833
	 3072916666
	 3085937500
	 3098958333
	 3111979166
	 3125000000
	 3138020833
	 3151041666
	 3164062500
	 3177083333
	 3190104166
	 3203125000
	 3216145833
	 3229166666
	 3242187500
	 3255208333
	 3268229166
	 3281250000
	 3294270833
	 3307291666
	 3320312500
	 3333333333
	 3346354166
	 3359375000
	 3372395833
	 3385416666
	 3398437500
	 3411458333
	 3424479166
	 3437500000
	 3463541666
	 3489583333
	 3515625000
	 3541666666
	 3567708333
	 3593750000
	 3619791667
	 3645833333
	 3671875000
	 3697916667
	 3723958333
	 3750000000
	 3776041667
	 3802083333
	 3828125000
	 3854166667
	 3880208333
	 3906250000
	 3932291667
	 3958333334
	 3984375000
	 4010416667
	 4036458334
	 4062500000
	 4088541667
	 4114583334
	 4140625000
	 4166666667
	 4192708334
	 4218750000
	 4244791667
	 4270833334
	 4296875000
	 4322916667
	 4348958334
	 4375000000
	 4401041667
	 4427083334
	 4453125000
	 4479166667
	 4505208334
	 4531250000
	 4557291667
	 4583333334
	 4609375000
	 4635416667
	 4661458333
	 4687500000
	 4713541667
	 4739583333
	 4765625000
	 4791666667
	 4817708333
	 4843750000
	 4869791667
	 4895833333
	 4921875000
	 4947916667
	 4973958333
	 5000000000
	 5034722222
	 5069444444
	 5104166667
	 5138888889
	 5173611111
	 5208333334
	 5243055556
	 5277777778
	 5312500000
	 5347222222
	 5381944445
	 5416666667
	 5451388889
	 5486111112
	 5520833334
	 5555555556
	 5590277778
	 5625000000
	 5659722223
	 5694444445
	 5711805556
	 5729166667
	 5746527778
	 5763888889
	 5781250000
	 5798611112
	 5815972223
	 5833333334
	 5850694445
	 5868055556
	 5885416667
	 5902777778
	 5920138889
	 5937500000
	 5954861112
	 5972222223
	 5989583334
	 6006944445
	 6024305556
	 6041666667
	 6059027778
	 6076388889
	 6093750000
	 6111111112
	 6128472223
	 6145833334
	 6163194445
	 6180555556
	 6197916667
	 6215277778
	 6232638889
	 6250000000
	 6284722223
	 6319444445
	 6354166667
	 6388888889
	 6423611111
	 6458333334
	 6493055556
	 6527777778
	 6562500000
	 6597222223
	 6631944445
	 6666666667
	 6692708334
	 6718750000
	 6744791667
	 6770833334
	 6796875000
	 6822916667
	 6848958334
	 6875000000
	 6901041667
	 6927083334
	 6953125000
	 6979166667
	 7005208334
	 7031250000
	 7057291667
	 7083333334
	 7109375000
	 7135416667
	 7161458333
	 7187500000
	 7213541667
	 7239583333
	 7265625000
	 7291666667
	 7317708333
	 7343750000
	 7369791667
	 7395833333
	 7421875000
	 7447916667
	 7473958333
	 7500000000
	 7526041667
	 7552083333
	 7578125000
	 7604166667
	 7630208333
	 7656250000
	 7682291667
	 7708333334
	 7734375000
	 7760416667
	 7786458334
	 7812500000
	 7838541667
	 7864583334
	 7890625000
	 7916666667
	 7942708334
	 7968750000
	 7994791667
	 8020833334
	 8046875000
	 8072916667
	 8098958334
	 8125000000
	 8151041667
	 8177083334
	 8203125001
	 8229166667
	 8255208334
	 8281250001
	 8307291667
	 8333333334
	 8350694445
	 8368055556
	 8385416667
	 8402777778
	 8420138890
	 8437500001
	 8454861112
	 8472222223
	 8489583334
	 8506944445
	 8524305556
	 8541666667
	 8559027778
	 8576388890
	 8593750001
	 8611111112
	 8628472223
	 8645833334
	 8663194445
	 8680555556
	 8697916667
	 8715277778
	 8732638890
	 8750000001
	 8767361112
	 8784722223
	 8802083334
	 8819444445
	 8836805556
	 8854166667
	 8871527778
	 8888888890
	 8906250001
	 8923611112
	 8940972223
	 8958333334
	 8975694445
	 8993055556
	 9010416667
	 9027777778
	 9045138889
	 9062500001
	 9079861112
	 9097222223
	 9114583334
	 9131944445
	 9149305556
	 9166666667
	 9184027778
	 9201388889
	 9218750001
	 9236111112
	 9253472223
	 9270833334
	 9288194445
	 9305555556
	 9322916667
	 9340277778
	 9357638889
	 9375000001
	 9392361112
	 9409722223
	 9427083334
	 9444444445
	 9461805556
	 9479166667
	 9496527778
	 9513888889
	 9531250000
	 9548611112
	 9565972223
	 9583333334
	 9600694445
	 9618055556
	 9635416667
	 9652777778
	 9670138889
	 9687500000
	 9704861111
	 9722222222
	 9739583334
	 9756944445
	 9774305556
	 9791666667
	 9809027778
	 9826388889
	 9843750000
	 9861111111
	 9878472222
	 9895833333
	 9913194445
	 9930555556
	 9947916667
	 9965277778
	 9982638889
	 1e+10
VAR_LIST_END

BEGIN
	 2.57350813000000018773564268413e-10 ,	 0 
	 2.57352473000000020606240808032e-10 ,	 -5.54096990999999954268901752516e-10 
	 2.57351583999999979168906214435e-10 ,	 -5.54096377000000031512940844476e-09 
	 2.57324938999999984789069119241e-10 ,	 -5.54096349999999973275279657476e-08 
	 2.54694710000000019100155521396e-10 ,	 -5.54096344999999994842480432328e-07 
	 2.53140731000000006138467536007e-10 ,	 -6.9756596800000000395809663864e-07 
	 2.50676701999999977278733258036e-10 ,	 -8.7818352299999996113735734049e-07 
	 2.46773935000000020672860215397e-10 ,	 -1.10556755000000007871580661595e-06 
	 2.40586107000000001330783263291e-10 ,	 -1.39182707999999993257311120542e-06 
	 2.30780284000000012206392523629e-10 ,	 -1.75220647000000010375250162481e-06 
	 2.15238493999999994679392142696e-10 ,	 -2.20589722999999982466952375137e-06 
	 1.90606753000000007618487349811e-10 ,	 -2.77706005000000019468440852488e-06 
	 1.5156775800000001095054335025e-10 ,	 -3.49611138999999989055030534535e-06 
	 8.96948071000000019328707407757e-11 ,	 -4.40134332000000012873400234703e-06 
	 -8.36608559999999983169006736118e-12 ,	 -5.54096265999999962380360291059e-06 
	 -1.63784764e-10 ,	 -6.97565811e-06 
	 -4.10106615e-10 ,	 -8.78183208e-06 
	 -8.00503552e-10 ,	 -1.10556692e-05 
	 -1.41925116e-09 ,	 -1.39182583e-05 
	 -2.39992126e-09 ,	 -1.75220397e-05 
	 -3.95423549e-09 ,	 -2.20589224e-05 
	 -6.41779607e-09 ,	 -2.77705009e-05 
	 -1.03226262e-08 ,	 -3.49609152e-05 
	 -1.6512242e-08 ,	 -4.40130369e-05 
	 -2.63243324e-08 ,	 -5.54088358e-05 
	 -4.18809897e-08 ,	 -6.97550035e-05 
	 -6.6550549e-08 ,	 -8.78151738e-05 
	 -1.05684096e-07 ,	 -0.000110550415 
	 -1.67794219e-07 ,	 -0.000139170064 
	 -2.66451804e-07 ,	 -0.00017519544 
	 -4.23363554e-07 ,	 -0.000220539491 
	 -6.73426468e-07 ,	 -0.000277605976 
	 -1.07317446e-06 ,	 -0.000349412179 
	 -1.71522658e-06 ,	 -0.000439739304 
	 -2.75372282e-06 ,	 -0.000553314152 
	 -4.45052441e-06 ,	 -0.000696024041 
	 -7.26145236e-06 ,	 -0.000875164124 
	 -1.19995067e-05 ,	 -0.00109971377 
	 -2.01404425e-05 ,	 -0.00138064219 
	 -2.67285286e-05 ,	 -0.00155799587 
	 -3.45611715e-05 ,	 -0.0017352918 
	 -5.98061658e-05 ,	 -0.00217271871 
	 -0.000104161712 ,	 -0.00271582085 
	 -0.000169393951 ,	 -0.00330166529 
	 -0.000272027161 ,	 -0.00400526547 
	 -0.000380352686 ,	 -0.00460679727 
	 -0.000517933894 ,	 -0.00525687636 
	 -0.000698815485 ,	 -0.00599459957 
	 -0.000916944123 ,	 -0.00677242392 
	 -0.00140097289 ,	 -0.00823538334 
	-0.0019588,	-0.0096472
	-0.0025842,	-0.011009
	-0.0032735,	-0.012319
	-0.0040242,	-0.013578
	-0.0048341,	-0.014781
	-0.005701,	-0.015925
	-0.0066219,	-0.017008
	-0.0075936,	-0.018024
	-0.0086124,	-0.018971
	-0.0096742,	-0.019845
	-0.010774,	-0.020642
	-0.011908,	-0.021359
	-0.01307,	-0.021994
	-0.014255,	-0.022543
	-0.015699,	-0.023087
	-0.017158,	-0.023502
	-0.01862,	-0.023786
	-0.020075,	-0.023938
	-0.021513,	-0.023957
	-0.022921,	-0.023844
	-0.024289,	-0.023601
	-0.025606,	-0.023228
	-0.02686,	-0.02273
	-0.028041,	-0.022111
	-0.029138,	-0.021374
	-0.030141,	-0.020526
	-0.03104,	-0.019574
	-0.031825,	-0.018523
	-0.032487,	-0.017384
	-0.033017,	-0.016163
	-0.033409,	-0.014871
	-0.033653,	-0.013518
	-0.033744,	-0.012114
	-0.033676,	-0.010671
	-0.033443,	-0.0092004
	-0.033042,	-0.007715
	-0.032468,	-0.0062272
	-0.031719,	-0.0047502
	-0.031278,	-0.0040199
	-0.030794,	-0.0032973
	-0.030264,	-0.0025842
	-0.029691,	-0.0018823
	-0.029073,	-0.0011932
	-0.028411,	-0.0005188
	-0.027705,	 0.00013922
	-0.026955,	 0.0007791
	-0.025326,	 0.0019975
	-0.023526,	 0.0031223
	-0.021559,	 0.0041398
	-0.019432,	 0.0050361
	-0.017734,	 0.0056208
	-0.015953,	 0.0061242
	-0.01409,	 0.0065408
	-0.012151,	 0.0068653
	-0.010138,	 0.0070924
	-0.0080559,	 0.0072172
	-0.0059095,	 0.0072348
	-0.0037035,	 0.0071404
	 -0.00144289434 ,	 0.00692976226 
	 0.000866931995 ,	 0.00659848525 
	 0.00322035573 ,	 0.00614262179 
	 0.0056115,	 0.0055584
	 0.0080343,	 0.0048424
	 0.010482,	 0.0039915
	 0.012949,	 0.0030026
	 0.015428,	 0.0018733
	 0.017912,	 0.00060127
	 0.020394,	-0.00081541
	 0.022866,	-0.0023783
	 0.025322,	-0.0040887
	 0.027754,	-0.0059474
	 0.030154,	-0.007955
	 0.032514,	-0.010111
	 0.034827,	-0.012417
	 0.037086,	-0.01487
	 0.039281,	-0.01747
	 0.041406,	-0.020216
	 0.043452,	-0.023105
	 0.045412,	-0.026136
	 0.047278,	-0.029305
	 0.049043,	-0.032611
	 0.050699,	-0.036048
	 0.052238,	-0.039614
	 0.053653,	-0.043304
	 0.054937,	-0.047114
	 0.056084,	-0.051038
	 0.057086,	-0.055071
	 0.057938,	-0.059208
	 0.058632,	-0.063442
	 0.059163,	-0.067767
	 0.059365,	-0.069961
	 0.059525,	-0.072176
	 0.059641,	-0.074409
	 0.059713,	-0.076662
	 0.059739,	-0.078931
	 0.059721,	-0.081218
	 0.059657,	-0.083519
	 0.059546,	-0.085836
	 0.059387,	-0.088165
	 0.059182,	-0.090508
	 0.058928,	-0.092861
	 0.058625,	-0.095226
	 0.058274,	-0.097599
	 0.057873,	-0.099981
	 0.057422,	-0.10237
	 0.056921,	-0.10476
	 0.056369,	-0.10716
	 0.055766,	-0.10957
	 0.055113,	-0.11197
	 0.054407,	-0.11438
	 0.053651,	-0.11679
	 0.052842,	-0.1192
	 0.051981,	-0.12161
	 0.051068,	-0.12401
	 0.050102,	-0.12641
	 0.049084,	-0.1288
	 0.048014,	-0.13119
	 0.046891,	-0.13357
	 0.045715,	-0.13594
	 0.044486,	-0.13831
	 0.043205,	-0.14066
	 0.041872,	-0.14299
	 0.040486,	-0.14532
	 0.039048,	-0.14763
	 0.037557,	-0.14992
	 0.036015,	-0.1522
	 0.03442,	-0.15445
	 0.032775,	-0.15669
	 0.031078,	-0.15891
	 0.02933,	-0.1611
	 0.027531,	-0.16327
	 0.025682,	-0.16542
	 0.023783,	-0.16754
	 0.021834,	-0.16964
	 0.019836,	-0.17171
	 0.01779,	-0.17374
	 0.015695,	-0.17575
	 0.013553,	-0.17773
	 0.011363,	-0.17967
	 0.0091273,	-0.18159
	 0.0068451,	-0.18346
	 0.0045176,	-0.1853
	 0.0021452,	-0.18711
	-0.00027129,	-0.18888
	-0.0027312,	-0.19061
	-0.0052339,	-0.19229
	-0.010364,	-0.19555
	-0.015657,	-0.19863
	-0.021105,	-0.20154
	-0.026701,	-0.20426
	-0.032439,	-0.20678
	-0.038311,	-0.20911
	-0.044309,	-0.21123
	-0.050425,	-0.21314
	-0.056651,	-0.21484
	-0.062979,	-0.21631
	-0.069399,	-0.21755
	-0.075902,	-0.21856
	-0.08248,	-0.21934
	-0.089123,	-0.21987
	-0.095822,	-0.22016
	-0.10256,	-0.22021
	-0.10934,	-0.22001
	-0.11615,	-0.21955
	-0.12297,	-0.21885
	-0.1298,	-0.21789
	-0.13663,	-0.21668
	-0.14344,	-0.21521
	-0.15023,	-0.21349
	-0.15699,	-0.21151
	-0.1637,	-0.20928
	-0.17035,	-0.20679
	-0.17695,	-0.20406
	-0.18347,	-0.20107
	-0.18991,	-0.19784
	-0.19625,	-0.19437
	-0.20249,	-0.19066
	-0.20862,	-0.1867
	-0.21463,	-0.18252
	-0.22051,	-0.17811
	-0.22625,	-0.17347
	-0.23184,	-0.16862
	-0.23728,	-0.16355
	-0.24255,	-0.15827
	-0.24765,	-0.15279
	-0.25257,	-0.14712
	-0.2573,	-0.14126
	-0.26183,	-0.13521
	-0.26617,	-0.12899
	-0.27029,	-0.12261
	-0.2742,	-0.11606
	-0.27789,	-0.10936
	-0.28136,	-0.10252
	-0.28459,	-0.095541
	-0.28758,	-0.088436
	-0.29033,	-0.081212
	-0.29283,	-0.073879
	-0.29509,	-0.066446
	-0.29708,	-0.058922
	-0.29882,	-0.051317
	-0.3003,	-0.04364
	-0.30152,	-0.035901
	-0.30246,	-0.02811
	-0.30314,	-0.020276
	-0.30355,	-0.012409
	-0.30369,	-0.0045194
	-0.30346,	 0.0060177
	-0.30274,	 0.016553
	-0.30153,	 0.027064
	-0.29985,	 0.037525
	-0.29769,	 0.047914
	-0.29505,	 0.058206
	-0.29195,	 0.068378
	-0.28838,	 0.078408
	-0.28436,	 0.088272
	-0.2799,	 0.097949
	-0.275,	 0.10741
	-0.26968,	 0.11665
	-0.26395,	 0.12563
	-0.25783,	 0.13435
	-0.25132,	 0.14278
	-0.24446,	 0.1509
	-0.23724,	 0.15869
	-0.2297,	 0.16615
	-0.22184,	 0.17325
	-0.2137,	 0.17998
	-0.20952,	 0.1832
	-0.20528,	 0.18633
	-0.20098,	 0.18936
	-0.19662,	 0.19228
	-0.1922,	 0.19511
	-0.18773,	 0.19784
	-0.1832,	 0.20046
	-0.17863,	 0.20298
	-0.17401,	 0.20539
	-0.16935,	 0.2077
	-0.16465,	 0.2099
	-0.15992,	 0.212
	-0.15515,	 0.21398
	-0.15035,	 0.21586
	-0.14552,	 0.21764
	-0.14066,	 0.2193
	-0.13579,	 0.22085
	-0.13089,	 0.2223
	-0.12598,	 0.22364
	-0.12105,	 0.22487
	-0.11612,	 0.22599
	-0.11117,	 0.227
	-0.10623,	 0.22791
	-0.10128,	 0.22871
	-0.096333,	 0.22941
	-0.091388,	 0.22999
	-0.086449,	 0.23048
	-0.08152,	 0.23086
	-0.076602,	 0.23114
	-0.071699,	 0.23131
	-0.066813,	 0.23139
	-0.061947,	 0.23137
	-0.052283,	 0.23103
	-0.042726,	 0.23031
	-0.033294,	 0.22922
	-0.024003,	 0.22778
	-0.01487,	 0.226
	-0.0059082,	 0.2239
	 0.0028692,	 0.22149
	 0.011451,	 0.2188
	 0.019827,	 0.21583
	 0.02799,	 0.21261
	 0.035932,	 0.20915
	 0.043648,	 0.20548
	 0.049285,	 0.2026
	 0.054793,	 0.19962
	 0.060171,	 0.19654
	 0.065419,	 0.19337
	 0.070538,	 0.19012
	 0.075529,	 0.18681
	 0.080395,	 0.18343
	 0.085136,	 0.17999
	 0.089757,	 0.1765
	 0.09426,	 0.17297
	 0.098648,	 0.1694
	 0.10292,	 0.16579
	 0.10709,	 0.16216
	 0.11116,	 0.15851
	 0.11514,	 0.15485
	 0.11902,	 0.15117
	 0.12282,	 0.14748
	 0.12654,	 0.14378
	 0.13019,	 0.14008
	 0.13377,	 0.13638
	 0.13729,	 0.13268
	 0.14075,	 0.12898
	 0.14417,	 0.12528
	 0.14755,	 0.12158
	 0.15089,	 0.11788
	 0.15421,	 0.11418
	 0.15751,	 0.11048
	 0.16079,	 0.10677
	 0.16406,	 0.10305
	 0.16733,	 0.099318
	 0.1706,	 0.095565
	 0.17388,	 0.091789
	 0.17717,	 0.087983
	 0.18048,	 0.084142
	 0.18381,	 0.08026
	 0.18716,	 0.076327
	 0.19054,	 0.072339
	 0.19395,	 0.068285
	 0.1974,	 0.064157
	 0.20087,	 0.059948
	 0.20438,	 0.055646
	 0.20792,	 0.051244
	 0.2115,	 0.046732
	 0.2151,	 0.042098
	 0.21873,	 0.037335
	 0.22238,	 0.03243
	 0.22606,	 0.027375
	 0.22974,	 0.02216
	 0.23344,	 0.016774
	 0.23713,	 0.011207
	 0.24082,	 0.0054501
	 0.24449,	-0.0005061
	 0.24814,	-0.0066706
	 0.25175,	-0.013052
	 0.25531,	-0.019658
	 0.25881,	-0.026496
	 0.26224,	-0.033574
	 0.26559,	-0.040897
	 0.26883,	-0.04847
	 0.27195,	-0.056298
	 0.27495,	-0.064386
	 0.27779,	-0.072735
	 0.28047,	-0.081347
	 0.28296,	-0.090223
	 0.28451,	-0.096287
	 0.28596,	-0.10246
	 0.28732,	-0.10876
	 0.28857,	-0.11517
	 0.2897,	-0.1217
	 0.29072,	-0.12833
	 0.29161,	-0.13508
	 0.29238,	-0.14194
	 0.29301,	-0.14891
	 0.2935,	-0.15597
	 0.29384,	-0.16315
	 0.29403,	-0.17041
	 0.29407,	-0.17778
	 0.29394,	-0.18524
	 0.29364,	-0.19278
	 0.29317,	-0.20041
	 0.29252,	-0.20812
	 0.29169,	-0.21591
	 0.29067,	-0.22376
	 0.28945,	-0.23168
	 0.28804,	-0.23966
	 0.28643,	-0.2477
	 0.28461,	-0.25579
	 0.28257,	-0.26391
	 0.28032,	-0.27208
	 0.27786,	-0.28028
	 0.27517,	-0.28849
	 0.27226,	-0.29673
	 0.26911,	-0.30498
	 0.26574,	-0.31323
	 0.26213,	-0.32148
	 0.25829,	-0.32971
	 0.25421,	-0.33793
	 0.24989,	-0.34611
	 0.24533,	-0.35427
	 0.24053,	-0.36238
	 0.23548,	-0.37044
	 0.23019,	-0.37844
	 0.22466,	-0.38638
	 0.21889,	-0.39424
	 0.21287,	-0.40201
	 0.20661,	-0.4097
	 0.20011,	-0.41728
	 0.19337,	-0.42476
	 0.18639,	-0.43212
	 0.17917,	-0.43936
	 0.17173,	-0.44646
	 0.16405,	-0.45343
	 0.15614,	-0.46024
	 0.14801,	-0.4669
	 0.13966,	-0.4734
	 0.13109,	-0.47972
	 0.12231,	-0.48587
	 0.11332,	-0.49183
	 0.10412,	-0.49759
	 0.094734,	-0.50316
	 0.085145,	-0.50851
	 0.075368,	-0.51365
	 0.065408,	-0.51857
	 0.055271,	-0.52327
	 0.044963,	-0.52773
	 0.034491,	-0.53195
	 0.02386,	-0.53592
	 0.013078,	-0.53965
	 0.0021515,	-0.54311
	-0.0089123,	-0.54632
	-0.020106,	-0.54926
	-0.031423,	-0.55193
	-0.042855,	-0.55433
	-0.054394,	-0.55645
	-0.066033,	-0.55829
	-0.077765,	-0.55984
	-0.08958,	-0.5611
	-0.10147,	-0.56207
	-0.11342,	-0.56274
	-0.12544,	-0.56312
	-0.13751,	-0.5632
	-0.14962,	-0.56298
	-0.16177,	-0.56246
	-0.17394,	-0.56163
	-0.18613,	-0.5605
	-0.19833,	-0.55906
	-0.21053,	-0.55731
	-0.22273,	-0.55526
	-0.23491,	-0.55291
	-0.24706,	-0.55024
	-0.25918,	-0.54727
	-0.27126,	-0.54399
	-0.28329,	-0.54041
	-0.29527,	-0.53653
	-0.30718,	-0.53235
	-0.31901,	-0.52786
	-0.33077,	-0.52308
	-0.34243,	-0.518
	-0.354,	-0.51262
	-0.36546,	-0.50696
END
BEGIN
	 0.999999999742645750977487750788 ,	 -0 
	 0.999999999742643641553740962991 ,	 -8.46761135514517704336867609527e-09 
	 0.999999999742639089639339999849 ,	 -8.46761153659725263054269817076e-08 
	 0.999999999742182010820101822901 ,	 -8.46761147567376415423723301501e-07 
	 0.999999999696494445977634768497 ,	 -8.46761148021527021434451398818e-06 
	 0.999999999669501593579923337529 ,	 -1.06600912692378368973322722013e-05 
	 0.999999999626722035905856955651 ,	 -1.34202597894261810296256953734e-05 
	 0.999999999558920049658183870633 ,	 -1.68951060798144814256716017553e-05 
	 0.999999999451461341060110044054 ,	 -2.12696783733305749830577724424e-05 
	 0.999999999281150020458142080315 ,	 -2.67769385966024064948953764542e-05 
	 0.999999999011225715328521346237 ,	 -3.37101684310149585233062907719e-05 
	 0.999999998583423477249709776515 ,	 -4.24385876376734416659530779725e-05 
	 0.99999999790540461397370108898 ,	 -5.34270163461275648941750660015e-05 
	 0.999999996830816195725333273003 ,	 -6.72606284107223062473934760419e-05 
	 0.999999995127709206954591536487 ,	 -8.46761140337604079064703910262e-05 
	 0.999999992428465156457662033063 ,	 -0.000106600911158181987925530620487 
	 0.999999988150453433810582737351 ,	 -0.00013420259483864008243081400451 
	 0.999999981370262802649051536719 ,	 -0.000168951054699155445160130284421 
	 0.999999970624389167284107315936 ,	 -0.00021269677157722058358224614949 
	 0.999999953593338375412713503465 ,	 -0.000267769361698581842556876608796 
	 0.999999926600970590051531416975 ,	 -0.000337101635894333090393004681573 
	 0.999999883821018342722197758121 ,	 -0.00042438577977353328374299223924 
	 0.999999816019539244926761512033 ,	 -0.000534269970711025860010678911749 
	 0.999999708561875144674502280395 ,	 -0.000672605899528350842375701290621 
