CITIFILE A.01.01
#Momentum: B.12.070 (*) built: Feb 13 2020 
#Momentum Date and Time: Mon Aug 15 08:00:20 2022

NAME Momentum.SP

#  mode: MW    reference: S_50

#eesof Port[1] P1
#eesof Port[2] P2

CONSTANT NBR_OF_PORTS 2

CONSTANT NORMALIZATION 1

VAR freq MAG 378

DATA S[1,1] RI
DATA S[1,2] RI
DATA S[2,1] RI
DATA S[2,2] RI
DATA PORTZ[1] RI
DATA PORTZ[2] RI

VAR_LIST_BEGIN
	 0
	 8.701167245
	 87.01167245
	 870.1167245
	 8701.167245
	 10954.12056
	 13790.42073
	 17361.1111
	 21856.34394
	 27515.5068
	 34639.97072
	 43609.13941
	 54900.65379
	 69115.82818
	 87011.67245
	 109541.2056
	 137904.2073
	 173611.111
	 218563.4394
	 275155.068
	 346399.7072
	 436091.3941
	 549006.5379
	 691158.2818
	 870116.7245
	 1095412.056
	 1379042.073
	 1736111.11
	 2185634.394
	 2751550.68
	 3463997.072
	 4360913.941
	 5490065.379
	 6911582.818
	 8701167.245
	 10954120.56
	 13790420.73
	 17361111.1
	 19629339.22
	 21908241.11
	 27580841.47
	 34722222.2
	 42541975.04
	 52083333.3
	 60365357.38
	 69444444.4
	 86805555.5
	 104166666.6
	 121527777.7
	 138888888.8
	 160590277.7
	 182291666.6
	 203993055.4
	 225694444.3
	 247395833.2
	 269097222.1
	 290798611
	 312499999.9
	 334201388.7
	 355902777.6
	 377604166.5
	 399305555.4
	 421006944.3
	 442708333.1
	 464409722
	 486111110.9
	 507812499.8
	 529513888.7
	 551215277.5
	 572916666.4
	 594618055.3
	 616319444.2
	 638020833.1
	 659722222
	 681423610.8
	 703124999.7
	 724826388.6
	 746527777.5
	 768229166.4
	 789930555.2
	 811631944.1
	 833333333
	 859374999.7
	 885416666.3
	 911458333
	 937499999.6
	 963541666.3
	 989583332.9
	 1015625000
	 1041666666
	 1067708333
	 1093750000
	 1119791666
	 1145833333
	 1171875000
	 1197916666
	 1223958333
	 1250000000
	 1276041666
	 1302083333
	 1328124999
	 1354166666
	 1380208333
	 1406249999
	 1432291666
	 1458333333
	 1484374999
	 1510416666
	 1536458333
	 1562499999
	 1588541666
	 1614583333
	 1640624999
	 1666666666
	 1692708333
	 1718749999
	 1744791666
	 1770833333
	 1796874999
	 1822916666
	 1848958333
	 1874999999
	 1901041666
	 1927083333
	 1953124999
	 1979166666
	 2005208333
	 2031249999
	 2057291666
	 2083333333
	 2109374999
	 2135416666
	 2161458333
	 2187499999
	 2213541666
	 2239583333
	 2265624999
	 2291666666
	 2317708333
	 2343749999
	 2369791666
	 2395833333
	 2421874999
	 2447916666
	 2473958333
	 2500000000
	 2552083333
	 2604166666
	 2656250000
	 2708333333
	 2760416666
	 2812500000
	 2864583333
	 2916666666
	 2968750000
	 3020833333
	 3072916666
	 3125000000
	 3177083333
	 3229166666
	 3281250000
	 3333333333
	 3385416666
	 3437500000
	 3489583333
	 3541666666
	 3593750000
	 3645833333
	 3697916666
	 3750000000
	 3802083333
	 3854166666
	 3906250000
	 3958333333
	 4010416666
	 4062500000
	 4114583333
	 4166666666
	 4218750000
	 4270833333
	 4322916667
	 4375000000
	 4427083333
	 4479166667
	 4531250000
	 4583333333
	 4635416667
	 4687500000
	 4739583333
	 4791666667
	 4843750000
	 4895833333
	 4947916667
	 5000000000
	 5052083333
	 5104166667
	 5156250000
	 5208333333
	 5260416667
	 5312500000
	 5364583333
	 5416666667
	 5468750000
	 5520833333
	 5572916667
	 5625000000
	 5677083333
	 5729166667
	 5781250000
	 5833333334
	 5885416667
	 5937500000
	 5989583334
	 6041666667
	 6093750000
	 6145833334
	 6197916667
	 6250000000
	 6302083334
	 6354166667
	 6406250000
	 6458333334
	 6510416667
	 6562500000
	 6614583334
	 6666666667
	 6718750000
	 6770833334
	 6822916667
	 6875000000
	 6927083334
	 6979166667
	 7031250000
	 7083333334
	 7135416667
	 7187500000
	 7239583334
	 7291666667
	 7343750000
	 7395833334
	 7447916667
	 7500000000
	 7552083334
	 7604166667
	 7656250001
	 7708333334
	 7760416667
	 7812500001
	 7864583334
	 7916666667
	 7968750001
	 8020833334
	 8072916667
	 8125000001
	 8177083334
	 8229166667
	 8281250001
	 8333333334
	 8376736112
	 8420138890
	 8463541667
	 8506944445
	 8550347223
	 8593750000
	 8637152778
	 8680555556
	 8723958334
	 8767361112
	 8810763889
	 8854166667
	 8897569445
	 8940972222
	 8984375000
	 9027777778
	 9071180556
	 9114583334
	 9157986111
	 9201388889
	 9223090278
	 9244791667
	 9266493056
	 9288194444
	 9309895833
	 9331597222
	 9353298611
	 9375000000
	 9396701389
	 9418402778
	 9440104167
	 9461805556
	 9483506944
	 9505208333
	 9526909722
	 9548611111
	 9559461805
	 9570312500
	 9581163194
	 9592013889
	 9602864583
	 9613715278
	 9624565972
	 9635416666
	 9646267361
	 9657118055
	 9667968750
	 9678819444
	 9689670139
	 9700520833
	 9711371528
	 9722222222
	 9728009259
	 9733796296
	 9739583333
	 9745370370
	 9751157407
	 9756944444
	 9762731481
	 9768518518
	 9774305555
	 9780092592
	 9785879629
	 9791666666
	 9797453703
	 9803240740
	 9809027777
	 9814814814
	 9820601852
	 9826388889
	 9832175926
	 9837962963
	 9843750000
	 9849537037
	 9855324074
	 9861111111
	 9866898148
	 9872685185
	 9878472222
	 9884259259
	 9887152777
	 9890046296
	 9892939814
	 9895833333
	 9898726851
	 9901620370
	 9904513888
	 9907407407
	 9910300926
	 9913194444
	 9916087963
	 9918981481
	 9921875000
	 9924768518
	 9927662037
	 9930555555
	 9933449074
	 9936342592
	 9939236111
	 9942129629
	 9945023148
	 9947916666
	 9950810185
	 9953703704
	 9956597222
	 9959490741
	 9962384259
	 9965277778
	 9968171296
	 9971064815
	 9973958333
	 9976851852
	 9979745370
	 9982638889
	 9985532407
	 9988425926
	 9991319444
	 9994212963
	 9997106481
	 1e+10
VAR_LIST_END

BEGIN
	 0.999999999999996003197111349436 ,	 -0 
	 0.999999999999994226840271949186 ,	 -6.79412925919109511596616357565e-09 
	 0.999999999999990674126593148685 ,	 -6.79412959225800250351312570274e-08 
	 0.999999999999714783704973797285 ,	 -6.7941295811557722572615602985e-07 
	 0.999999999971941999632463193848 ,	 -6.79412958315417370158684207126e-06 
	 0.999999999955531793105478755024 ,	 -8.55330238280771482095587998629e-06 
	 0.999999999929526373065868938284 ,	 -1.07679697241014338260356453247e-05 
	 0.999999999888308899187450151658 ,	 -1.35560707179571693359321216121e-05 
	 0.99999999982298515277534534107 ,	 -1.70660819098777949420764343813e-05 
	 0.999999999719453303015370693174 ,	 -2.14849241930714640602673171088e-05 
	 0.999999999555366336778661207063 ,	 -2.70479170307869054568072897382e-05 
	 0.999999999295306141178230063815 ,	 -3.40513100729467055316490586847e-05 
	 0.999999998883138063732189948496 ,	 -4.28680595299102407125246827491e-05 
	 0.999999998229894049295296554192 ,	 -5.39676894457663536286418093368e-05 
	 0.999999997194575440673247612722 ,	 -6.79412955570946053285297239199e-05 
	 0.999999995553705112172337976517 ,	 -8.55330232842899107481571263634e-05 
	 0.999999992953099159365137893474 ,	 -0.000107679696154994175572028325405 
	 0.999999988831418717971644127829 ,	 -0.000135560705015524973759966087528 
	 0.999999982298995782059591874713 ,	 -0.000170660814772238822456529305782 
	 0.999999971945805032902399034356 ,	 -0.000214849233296288133487905724905 
	 0.999999955537109075365265198343 ,	 -0.000270479153080982470669368922245 
	 0.999999929531092957013527211529 ,	 -0.00034051306636406764027924509719 
	 0.999999888314365592556498540944 ,	 -0.000428680526734614986139604297932 
	 0.99999982299033873811566763834 ,	 -0.000539676757650431326851503399666 
	 0.999999719458938285399085543759 ,	 -0.000679412682609070728290134866256 
	 0.999999555373247916989498662588 ,	 -0.000855329688212780325784478918649 
	 0.99999929531626063905491719197 ,	 -0.0010767958748856276685046395869 
	 0.99999888315699092533606062716 ,	 -0.00135560488201980078315500577446 
	 0.999998229936808202822362545703 ,	 -0.00170660382186182957298115070444 
	 0.999997194673283185117895754956 ,	 -0.00214848370218434503442495042691 
	 0.999995553943132109431246590248 ,	 -0.00270477431154736436269558907952 
	 0.999992953691578367880765654263 ,	 -0.00340509631113716793038292962592 
	 0.999988832898203283683358222333 ,	 -0.00428673673912749464420812728349 
	 0.999982302703082415185065201513 ,	 -0.00539663088909736465836886054603 
	 0.999971955104031140493248130952 ,	 -0.006793854239008245698983046168 
	 0.999955560435549672959609779355 ,	 -0.00855275344184391883572970982641 
	 0.999929589583709810263201234193 ,	 -0.0107668758383581142368257133057 
	 0.999888460912169430017115701048 ,	 -0.0135538925238520846505707595497 
	 0.999857463603435414611908527149 ,	 -0.015324026970307658146452922665 
	 0.999822518850725705519266739429 ,	 -0.0171022417424067096902717821649 
	 0.99971904893646423850839255465 ,	 -0.0215272777802908432676076699863 
	 0.99955555698635845107702380119 ,	 -0.0270949950783374582385931716999 
	 0.999334492248458827745594135195 ,	 -0.0331868323513853091810688056285 
	 0.99900609711823107339512262115 ,	 -0.0406118306666605199950481619453 
	 0.998669675576772664093994080758 ,	 -0.0470486368165163870713740834617 
	 0.998247109329809423350354791182 ,	 -0.0540951996983620730929942510556 
	 0.997286706940074152427655462816 ,	 -0.067538597314248161040950435563 
	 0.996133014211802114701299615263 ,	 -0.0809380924975908744301023034495 
	 0.994793371349322996799457996531 ,	 -0.0942918332500646272364974720404 
	 0.993273894681799940364896883693 ,	 -0.107599392784232472664029955922 
	 0.99112879814159993152600236499 ,	 -0.124169486004109375087978150987 
	 0.98871,	-0.14066
	 0.98604,	-0.15709
	 0.9831,	-0.17346
	 0.97991,	-0.18975
	 0.97646,	-0.20596
	 0.97275,	-0.22211
	 0.96878,	-0.23817
	 0.96456,	-0.25415
	 0.96009,	-0.27005
	 0.95536,	-0.28585
	 0.95038,	-0.30156
	 0.94515,	-0.31717
	 0.93967,	-0.33267
	 0.93395,	-0.34807
	 0.92798,	-0.36334
	 0.92177,	-0.3785
	 0.91533,	-0.39353
	 0.90865,	-0.40844
	 0.90173,	-0.42321
	 0.89459,	-0.43784
	 0.88723,	-0.45233
	 0.87964,	-0.46667
	 0.87183,	-0.48086
	 0.86381,	-0.4949
	 0.85557,	-0.50878
	 0.84713,	-0.5225
	 0.83849,	-0.53605
	 0.82964,	-0.54944
	 0.8206,	-0.56265
	 0.81137,	-0.57569
	 0.80195,	-0.58854
	 0.79041,	-0.60374
	 0.77861,	-0.61866
	 0.76656,	-0.63332
	 0.75426,	-0.6477
	 0.74174,	-0.6618
	 0.72898,	-0.67563
	 0.71601,	-0.68916
	 0.70283,	-0.70241
	 0.68944,	-0.71537
	 0.67586,	-0.72803
	 0.66208,	-0.7404
	 0.64813,	-0.75246
	 0.63401,	-0.76423
	 0.61971,	-0.77569
	 0.60526,	-0.78685
	 0.59066,	-0.79771
	 0.57592,	-0.80825
	 0.56104,	-0.81849
	 0.54603,	-0.82842
	 0.5309,	-0.83804
	 0.51566,	-0.84736
	 0.50031,	-0.85636
	 0.48487,	-0.86506
	 0.46933,	-0.87344
	 0.4537,	-0.88152
	 0.43799,	-0.88929
	 0.42222,	-0.89675
	 0.40638,	-0.9039
	 0.39048,	-0.91075
	 0.37452,	-0.9173
	 0.35852,	-0.92354
	 0.34248,	-0.92948
	 0.32641,	-0.93512
	 0.31031,	-0.94047
	 0.29419,	-0.94551
	 0.27805,	-0.95027
	 0.2619,	-0.95473
	 0.24574,	-0.9589
	 0.22959,	-0.96278
	 0.21344,	-0.96637
	 0.19731,	-0.96969
	 0.18118,	-0.97272
	 0.16508,	-0.97547
	 0.14901,	-0.97795
	 0.13296,	-0.98015
	 0.11695,	-0.98209
	 0.10098,	-0.98376
	 0.085062,	-0.98516
	 0.069183,	-0.9863
	 0.053356,	-0.98718
	 0.037585,	-0.98781
	 0.021874,	-0.98818
	 0.0062263,	-0.98831
	-0.0093541,	-0.98819
	-0.024864,	-0.98782
	-0.040299,	-0.98722
	-0.055657,	-0.98638
	-0.070934,	-0.9853
	-0.086128,	-0.984
	-0.10123,	-0.98247
	-0.11625,	-0.98071
	-0.13117,	-0.97873
	-0.146,	-0.97654
	-0.16073,	-0.97413
	-0.18989,	-0.96868
	-0.21863,	-0.96242
	-0.24693,	-0.95537
	-0.27478,	-0.94755
	-0.30216,	-0.939
	-0.32905,	-0.92973
	-0.35545,	-0.91977
	-0.38135,	-0.90915
	-0.40673,	-0.89789
	-0.43158,	-0.88602
	-0.45591,	-0.87355
	-0.47969,	-0.86052
	-0.50292,	-0.84694
	-0.5256,	-0.83285
	-0.54773,	-0.81825
	-0.56929,	-0.80318
	-0.59029,	-0.78764
	-0.61072,	-0.77167
	-0.63058,	-0.75529
	-0.64987,	-0.7385
	-0.66859,	-0.72134
	-0.68673,	-0.70382
	-0.7043,	-0.68596
	-0.7213,	-0.66777
	-0.73772,	-0.64927
	-0.75358,	-0.63049
	-0.76886,	-0.61143
	-0.78357,	-0.59211
	-0.79772,	-0.57254
	-0.8113,	-0.55275
	-0.82432,	-0.53274
	-0.83677,	-0.51254
	-0.84867,	-0.49214
	-0.86001,	-0.47157
	-0.8708,	-0.45085
	-0.88104,	-0.42997
	-0.89073,	-0.40895
	-0.89988,	-0.38781
	-0.90848,	-0.36656
	-0.91655,	-0.34521
	-0.92408,	-0.32376
	-0.93108,	-0.30224
	-0.93755,	-0.28064
	-0.9435,	-0.25898
	-0.94893,	-0.23728
	-0.95384,	-0.21553
	-0.95823,	-0.19375
	-0.96211,	-0.17195
	-0.96548,	-0.15013
	-0.96835,	-0.12832
	-0.97072,	-0.1065
	-0.97259,	-0.084703
	-0.97396,	-0.062921
	-0.97484,	-0.041169
	-0.97523,	-0.019453
	-0.97514,	 0.0022169
	-0.97456,	 0.023834
	-0.97351,	 0.045391
	-0.97198,	 0.06688
	-0.96997,	 0.088293
	-0.9675,	 0.10962
	-0.96455,	 0.13086
	-0.96115,	 0.152
	-0.95728,	 0.17303
	-0.95295,	 0.19396
	-0.94817,	 0.21476
	-0.94293,	 0.23544
	-0.93725,	 0.25598
	-0.93111,	 0.27638
	-0.92453,	 0.29663
	-0.91752,	 0.31673
	-0.91006,	 0.33666
	-0.90216,	 0.35642
	-0.89384,	 0.37601
	-0.88508,	 0.39541
	-0.8759,	 0.41462
	-0.86629,	 0.43363
	-0.85626,	 0.45243
	-0.84581,	 0.47102
	-0.83494,	 0.48939
	-0.82367,	 0.50752
	-0.81198,	 0.52542
	-0.79989,	 0.54308
	-0.78739,	 0.56048
	-0.77449,	 0.57763
	-0.7612,	 0.5945
	-0.74752,	 0.6111
	-0.73344,	 0.62742
	-0.71898,	 0.64344
	-0.70414,	 0.65917
	-0.68891,	 0.67458
	-0.67332,	 0.68968
	-0.65735,	 0.70446
	-0.64101,	 0.7189
	-0.62432,	 0.73299
	-0.60726,	 0.74674
	-0.58985,	 0.76013
	-0.5721,	 0.77314
	-0.55399,	 0.78578
	-0.53555,	 0.79803
	-0.51678,	 0.80989
	-0.49767,	 0.82134
	-0.47824,	 0.83237
	-0.4585,	 0.84298
	-0.43844,	 0.85316
	-0.41807,	 0.86289
	-0.3974,	 0.87216
	-0.37643,	 0.88097
	-0.35517,	 0.8893
	-0.33363,	 0.89715
	-0.3118,	 0.9045
	-0.2897,	 0.91134
	-0.27108,	 0.91664
	-0.25228,	 0.92158
	-0.23329,	 0.92614
	-0.21413,	 0.93031
	-0.19479,	 0.93409
	-0.17527,	 0.93747
	-0.15559,	 0.94044
	-0.13573,	 0.94298
	-0.1157,	 0.9451
	-0.095512,	 0.94677
	-0.075146,	 0.94799
	-0.054609,	 0.94874
	-0.033898,	 0.949
	-0.01301,	 0.94875
	 0.0080608,	 0.94798
	 0.02932,	 0.94665
	 0.050778,	 0.94474
	 0.072445,	 0.94221
	 0.094335,	 0.93901
	 0.11646,	 0.9351
	 0.12763,	 0.93285
	 0.13886,	 0.93039
	 0.15016,	 0.92772
	 0.16154,	 0.92482
	 0.173,	 0.92167
	 0.18454,	 0.91825
	 0.19617,	 0.91456
	 0.2079,	 0.91055
	 0.21972,	 0.90622
	 0.23164,	 0.90152
	 0.24367,	 0.89642
	 0.2558,	 0.89088
	 0.26804,	 0.88485
	 0.28039,	 0.87827
	 0.29285,	 0.87106
	 0.30539,	 0.86315
	 0.3117,	 0.85889
	 0.31801,	 0.85442
	 0.32434,	 0.84972
	 0.33068,	 0.84476
	 0.33701,	 0.83954
	 0.34333,	 0.83402
	 0.34963,	 0.82818
	 0.3559,	 0.82201
	 0.36211,	 0.81546
	 0.36825,	 0.80851
	 0.3743,	 0.80113
	 0.38021,	 0.79327
	 0.38596,	 0.7849
	 0.3915,	 0.77598
	 0.39677,	 0.76646
	 0.40169,	 0.7563
	 0.40415,	 0.7506
	 0.40648,	 0.7447
	 0.40865,	 0.73859
	 0.41066,	 0.73226
	 0.41247,	 0.72571
	 0.41407,	 0.71894
	 0.41544,	 0.71194
	 0.41654,	 0.70471
	 0.41735,	 0.69725
	 0.41784,	 0.68956
	 0.41796,	 0.68165
	 0.4177,	 0.67352
	 0.417,	 0.66518
	 0.41582,	 0.65666
	 0.41412,	 0.64796
	 0.41186,	 0.63913
	 0.40898,	 0.63019
	 0.40545,	 0.62119
	 0.4012,	 0.61217
	 0.39621,	 0.60321
	 0.39042,	 0.59437
	 0.3838,	 0.58574
	 0.37634,	 0.5774
	 0.368,	 0.56946
	 0.3588,	 0.56205
	 0.34873,	 0.55526
	 0.33785,	 0.54924
	 0.3262,	 0.54412
	 0.32011,	 0.54193
	 0.31386,	 0.54001
	 0.30747,	 0.53837
	 0.30094,	 0.53703
	 0.2943,	 0.53601
	 0.28756,	 0.5353
	 0.28074,	 0.53493
	 0.27386,	 0.5349
	 0.26695,	 0.53522
	 0.26003,	 0.53589
	 0.25311,	 0.53692
	 0.24623,	 0.53831
	 0.23941,	 0.54006
	 0.23266,	 0.54217
	 0.22602,	 0.54463
	 0.21951,	 0.54743
	 0.21315,	 0.55057
	 0.20697,	 0.55404
	 0.20097,	 0.55782
	 0.1952,	 0.5619
	 0.18965,	 0.56626
	 0.18435,	 0.57088
	 0.17931,	 0.57575
	 0.17455,	 0.58085
	 0.17008,	 0.58616
	 0.16591,	 0.59165
	 0.16204,	 0.59731
	 0.15848,	 0.60311
	 0.15523,	 0.60903
	 0.1523,	 0.61505
	 0.14968,	 0.62115
	 0.14738,	 0.62731
	 0.14539,	 0.63351
	 0.1437,	 0.63972
	 0.14232,	 0.64594
	 0.14122,	 0.65215
	 0.14042,	 0.65833
	 0.13988,	 0.66446
	 0.13962,	 0.67053
	 0.13961,	 0.67653
END
BEGIN
	 -4.12577125999999999251871014948e-19 ,	 0 
	 5.89805982000000036468222937667e-17 ,	 1.21728668999999998366379277771e-12 
	 5.03069808000000027656752262434e-17 ,	 1.21728572999999999494468156068e-11 
	 -1.41900380000000008835593375961e-15 ,	 1.21728572000000005379551474889e-10 
	 -1.47712571000000006568947878864e-13 ,	 1.2172851099999999730823710257e-09 
	 -2.34141264999999993076458938878e-13 ,	 1.53247072000000008776801599841e-09 
	 -3.71115465000000015411880285035e-13 ,	 1.92926543999999984682571543522e-09 
	 -5.88205699000000048404726060824e-13 ,	 2.42879954000000015154201947183e-09 
	 -9.32239529000000077501451497029e-13 ,	 3.05767396000000011369153736615e-09 
	 -1.47745531000000004643280560994e-12 ,	 3.84937646000000015158648753767e-09 
	 -2.34142870000000010819369007111e-12 ,	 4.84606392000000020867866315044e-09 
	 -3.71040437999999996611199795823e-12 ,	 6.1008052100000001147585393488e-09 
	 -5.87926061999999984495275261195e-12 ,	 7.68040326000000011820045034113e-09 
	 -9.31460680999999948138436904382e-12 ,	 9.66894426999999969646598375591e-09 
	 -1.47540789999999999023350146252e-11 ,	 1.21722591999999996472855065262e-08 
	 -2.3362064e-11 ,	 1.53235273e-08 
	 -3.69722668e-11 ,	 1.92903038e-08 
	 -5.84616049e-11 ,	 2.42833158e-08 
	 -9.23169692e-11 ,	 3.05674359e-08 
	 -1.45470079e-10 ,	 3.84753054e-08 
	 -2.28468447e-10 ,	 4.84241327e-08 
	 -3.56974591e-10 ,	 6.09362158e-08 
	 -5.53341083e-10 ,	 7.66637646e-08 
	 -8.47426872e-10 ,	 9.64187484e-08 
	 -1.27475413e-09 ,	 1.21209192e-07 
	 -1.86885908e-09 ,	 1.52285443e-07 
	 -2.64494112e-09 ,	 1.91204233e-07 
	 -3.57695092e-09 ,	 2.39923151e-07 
	 -4.58068364e-09 ,	 3.0093648e-07 
	 -5.52056322e-09 ,	 3.77448718e-07 
	 -6.24164317e-09 ,	 4.73566694e-07 
	 -6.60078907e-09 ,	 5.94501957e-07 
	 -6.46741912e-09 ,	 7.46808073e-07 
	 -5.68857874e-09 ,	 9.38694337e-07 
	 -4.03065356e-09 ,	 1.18044649e-06 
	 -1.10434644e-09 ,	 1.48497179e-06 
	 3.73584677e-09 ,	 1.86848626e-06 
	 1.15398093e-08 ,	 2.35137101e-06 
	 1.74600654e-08 ,	 2.65810549e-06 
	 2.41526739e-08 ,	 2.966251e-06 
	 4.40296537e-08 ,	 3.73304946e-06 
	 7.55458648e-08 ,	 4.69771494e-06 
	 1.18317744e-07 ,	 5.752853e-06 
	 1.82150161e-07 ,	 7.03820013e-06 
	 2.47880488e-07 ,	 8.15164106e-06 
	 3.3089223e-07 ,	 9.36939946e-06 
	 5.21234691e-07 ,	 1.16881466e-05 
	 7.524988e-07 ,	 1.39913404e-05 
	 1.02385924e-06 ,	 1.6275921e-05 
	 1.33434413e-06 ,	 1.85388682e-05 
	 1.77575297e-06 ,	 2.13325979e-05 
	 2.27403889e-06 ,	 2.4082165e-05 
	 2.82635747e-06 ,	 2.67819896e-05 
	 3.4295245e-06 ,	 2.94266388e-05 
	 4.08002316e-06 ,	 3.20108429e-05 
	 4.77401186e-06 ,	 3.45295114e-05 
	 5.5073328e-06 ,	 3.69777479e-05 
	 6.27552132e-06 ,	 3.93508663e-05 
	 7.07381585e-06 ,	 4.16444046e-05 
	 7.89716859e-06 ,	 4.38541396e-05 
	 8.74025672e-06 ,	 4.59761004e-05 
	 9.59749438e-06 ,	 4.8006582e-05 
	 1.04630451e-05 ,	 4.99421575e-05 
	 1.13308347e-05 ,	 5.17796904e-05 
	 1.21945651e-05 ,	 5.3516346e-05 
	 1.30477283e-05 ,	 5.51496019e-05 
	 1.38836206e-05 ,	 5.66772586e-05 
	 1.46953579e-05 ,	 5.80974486e-05 
	 1.54758907e-05 ,	 5.94086453e-05 
	 1.62180202e-05 ,	 6.06096707e-05 
	 1.6914414e-05 ,	 6.16997034e-05 
	 1.75576224e-05 ,	 6.26782843e-05 
	 1.81400951e-05 ,	 6.35453228e-05 
	 1.8654198e-05 ,	 6.43011021e-05 
	 1.909223e-05 ,	 6.4946283e-05 
	 1.94464402e-05 ,	 6.54819075e-05 
	 1.97090451e-05 ,	 6.59094018e-05 
	 1.9872246e-05 ,	 6.62305779e-05 
	 1.99282462e-05 ,	 6.64476348e-05 
	 1.9869268e-05 ,	 6.65631591e-05 
	 1.96875708e-05 ,	 6.65801245e-05 
	 1.93754675e-05 ,	 6.65018904e-05 
	 1.88180899e-05 ,	 6.6287644e-05 
	 1.80489745e-05 ,	 6.59489143e-05 
	 1.70553545e-05 ,	 6.54936762e-05 
	 1.58247282e-05 ,	 6.49306761e-05 
	 1.43448989e-05 ,	 6.42694183e-05 
	 1.26040144e-05 ,	 6.35201508e-05 
	 1.05906056e-05 ,	 6.26938479e-05 
	 8.2936236e-06 ,	 6.18021913e-05 
	 5.70247598e-06 ,	 6.08575499e-05 
	 2.80706171e-06 ,	 5.98729571e-05 
	 -4.02195335e-07 ,	 5.88620867e-05 
	 -3.9343142e-06 ,	 5.78392271e-05 
	 -7.79772623e-06 ,	 5.68192546e-05 
	 -1.2000246e-05 ,	 5.58176046e-05 
	 -1.65490439e-05 ,	 5.48502417e-05 
	 -2.14506203e-05 ,	 5.39336289e-05 
	 -2.67107815e-05 ,	 5.30846954e-05 
	 -3.23346175e-05 ,	 5.23208035e-05 
	 -3.83264814e-05 ,	 5.16597149e-05 
	 -4.46899708e-05 ,	 5.11195557e-05 
	 -5.14279108e-05 ,	 5.07187813e-05 
