CITIFILE A.01.01
#Momentum: B.12.070 (*) built: Feb 13 2020 
#Momentum Date and Time: Tue Aug 16 04:07:06 2022

NAME Momentum.SP

#  mode: MW    reference: S_50

#eesof Port[1] P1
#eesof Port[2] P2

CONSTANT NBR_OF_PORTS 2

CONSTANT NORMALIZATION 1

VAR freq MAG 478

DATA S[1,1] RI
DATA S[1,2] RI
DATA S[2,1] RI
DATA S[2,2] RI
DATA PORTZ[1] RI
DATA PORTZ[2] RI

VAR_LIST_BEGIN
	 0
	 8.721827882
	 87.21827882
	 872.1827882
	 8721.827882
	 10980.13076
	 13823.16564
	 17402.33449
	 21908.24111
	 27580.84147
	 34722.2222
	 43712.68788
	 55031.01359
	 69279.94145
	 87218.27882
	 109801.3076
	 138231.6564
	 174023.3449
	 219082.4111
	 275808.4147
	 347222.222
	 437126.8788
	 550310.1359
	 692799.4145
	 872182.7882
	 1098013.076
	 1382316.564
	 1740233.449
	 2190824.111
	 2758084.147
	 3472222.22
	 4371268.788
	 5503101.359
	 6927994.145
	 8721827.882
	 10980130.76
	 13823165.64
	 17402334.49
	 21908241.11
	 27580841.47
	 34722222.2
	 39258678.43
	 43816482.23
	 55161682.93
	 69444444.4
	 85083950.08
	 104166666.6
	 120730714.8
	 138888888.8
	 159825084.6
	 182291666.6
	 225694444.3
	 269097222.1
	 312499999.9
	 355902777.6
	 399305555.4
	 442708333.1
	 486111110.9
	 529513888.7
	 572916666.4
	 616319444.2
	 659722222
	 703124999.7
	 746527777.5
	 789930555.2
	 833333333
	 885416666.3
	 937499999.6
	 989583332.9
	 1041666666
	 1093750000
	 1145833333
	 1197916666
	 1250000000
	 1302083333
	 1354166666
	 1406249999
	 1458333333
	 1484374999
	 1510416666
	 1536458333
	 1562499999
	 1588541666
	 1614583333
	 1640624999
	 1666666666
	 1692708333
	 1718749999
	 1744791666
	 1770833333
	 1796874999
	 1822916666
	 1848958333
	 1875000000
	 1901041666
	 1927083333
	 1953125000
	 1979166666
	 2005208333
	 2031250000
	 2057291666
	 2083333333
	 2109375000
	 2135416666
	 2161458333
	 2187500000
	 2213541666
	 2239583333
	 2265625000
	 2291666666
	 2317708333
	 2343750000
	 2369791667
	 2395833333
	 2421875000
	 2447916667
	 2473958333
	 2500000000
	 2526041667
	 2552083333
	 2578125000
	 2604166667
	 2630208333
	 2656250000
	 2682291667
	 2708333333
	 2721354167
	 2734375000
	 2747395833
	 2760416667
	 2773437500
	 2786458333
	 2799479167
	 2812500000
	 2825520833
	 2838541667
	 2851562500
	 2864583333
	 2877604167
	 2890625000
	 2903645833
	 2916666666
	 2929687500
	 2942708333
	 2955729166
	 2968750000
	 2981770833
	 2994791666
	 3007812500
	 3020833333
	 3033854166
	 3046875000
	 3059895833
	 3072916666
	 3085937500
	 3098958333
	 3111979166
	 3125000000
	 3138020833
	 3151041666
	 3164062500
	 3177083333
	 3190104166
	 3203125000
	 3216145833
	 3229166666
	 3242187500
	 3255208333
	 3268229166
	 3281250000
	 3294270833
	 3307291666
	 3320312500
	 3333333333
	 3359375000
	 3385416666
	 3411458333
	 3437500000
	 3463541666
	 3489583333
	 3515625000
	 3541666666
	 3567708333
	 3593750000
	 3619791667
	 3645833333
	 3671875000
	 3697916667
	 3723958333
	 3750000000
	 3776041667
	 3802083333
	 3828125000
	 3854166667
	 3880208333
	 3906250000
	 3932291667
	 3958333334
	 3984375000
	 4010416667
	 4036458334
	 4062500000
	 4088541667
	 4114583334
	 4140625000
	 4166666667
	 4192708334
	 4218750000
	 4244791667
	 4270833334
	 4296875000
	 4322916667
	 4348958334
	 4375000000
	 4401041667
	 4427083334
	 4453125000
	 4479166667
	 4505208334
	 4531250000
	 4557291667
	 4583333334
	 4609375000
	 4635416667
	 4661458333
	 4687500000
	 4713541667
	 4739583333
	 4765625000
	 4791666667
	 4843750000
	 4895833333
	 4947916667
	 5000000000
	 5052083333
	 5104166667
	 5156250000
	 5208333333
	 5260416667
	 5312500000
	 5364583333
	 5416666667
	 5468750000
	 5520833333
	 5572916667
	 5625000000
	 5677083333
	 5729166667
	 5781250000
	 5833333334
	 5885416667
	 5937500000
	 5989583334
	 6041666667
	 6093750000
	 6145833334
	 6197916667
	 6250000000
	 6302083334
	 6354166667
	 6406250000
	 6458333334
	 6484375000
	 6510416667
	 6536458334
	 6562500000
	 6588541667
	 6614583334
	 6640625000
	 6666666667
	 6707818930
	 6748971194
	 6790123457
	 6831275720
	 6851851852
	 6872427984
	 6893004116
	 6913580247
	 6934156379
	 6954732511
	 6975308642
	 6995884774
	 7016460906
	 7037037037
	 7057613169
	 7078189301
	 7088477367
	 7098765432
	 7109053498
	 7119341564
	 7129629630
	 7139917696
	 7150205762
	 7160493828
	 7170781893
	 7181069959
	 7191358025
	 7201646091
	 7211934157
	 7222222223
	 7232510288
	 7242798354
	 7253086420
	 7263374486
	 7273662552
	 7283950618
	 7294238683
	 7304526749
	 7314814815
	 7325102881
	 7335390947
	 7345679013
	 7355967079
	 7366255144
	 7376543210
	 7386831276
	 7397119342
	 7407407408
	 7417695474
	 7427983539
	 7438271605
	 7448559671
	 7453703704
	 7458847737
	 7463991770
	 7469135803
	 7474279836
	 7479423869
	 7484567902
	 7489711934
	 7494855967
	 7500000000
	 7505144033
	 7510288066
	 7515432099
	 7520576132
	 7525720165
	 7530864198
	 7536008231
	 7541152264
	 7546296297
	 7551440330
	 7556584362
	 7561728395
	 7566872428
	 7572016461
	 7582304527
	 7592592593
	 7602880659
	 7613168725
	 7623456790
	 7633744856
	 7644032922
	 7654320988
	 7662037037
	 7669753087
	 7677469136
	 7685185186
	 7692901235
	 7700617284
	 7708333334
	 7716049383
	 7731481482
	 7746913580
	 7762345679
	 7777777778
	 7793209877
	 7808641976
	 7824074074
	 7839506173
	 7854938272
	 7870370370
	 7885802469
	 7901234568
	 7916666667
	 7932098766
	 7947530864
	 7962962963
	 7978395062
	 7993827160
	 8009259259
	 8024691358
	 8040123457
	 8055555556
	 8070987654
	 8086419753
	 8101851852
	 8117283950
	 8132716049
	 8148148148
	 8171296296
	 8194444444
	 8217592592
	 8240740741
	 8263888889
	 8287037037
	 8310185185
	 8333333333
	 8356481481
	 8379629630
	 8402777778
	 8425925926
	 8449074074
	 8472222222
	 8495370370
	 8518518518
	 8541666667
	 8564814815
	 8587962963
	 8611111111
	 8634259259
	 8657407407
	 8680555556
	 8703703704
	 8726851852
	 8750000000
	 8773148148
	 8796296296
	 8819444445
	 8842592593
	 8865740741
	 8888888889
	 8906250000
	 8923611111
	 8940972222
	 8958333333
	 8975694444
	 8993055556
	 9010416667
	 9027777778
	 9045138889
	 9062500000
	 9079861111
	 9097222222
	 9114583333
	 9131944444
	 9149305555
	 9166666666
	 9184027778
	 9201388889
	 9218750000
	 9236111111
	 9253472222
	 9270833333
	 9288194444
	 9305555555
	 9322916666
	 9340277777
	 9357638889
	 9375000000
	 9392361111
	 9409722222
	 9427083333
	 9444444444
	 9467592592
	 9490740740
	 9513888889
	 9537037037
	 9560185185
	 9583333333
	 9606481481
	 9629629630
	 9652777778
	 9675925926
	 9699074074
	 9722222222
	 9745370370
	 9768518519
	 9791666667
	 9814814815
	 9837962963
	 9861111111
	 9884259259
	 9907407408
	 9930555556
	 9953703704
	 9976851852
	 1e+10
VAR_LIST_END

BEGIN
	 0.000103799111999999999801647110331 ,	 0 
	 0.000103799111999999999801647110331 ,	 3.76435274999999987672078662768e-10 
	 0.000103799111999999999801647110331 ,	 3.76435166000000008760700999496e-09 
	 0.0001037991140000000053625686669 ,	 3.76435178999999996361115327682e-08 
	 0.000103799267000000003868462328249 ,	 3.76435099000000010564082704098e-07 
	 0.000103799358000000006168640764859 ,	 4.73903653999999995245149793724e-07 
	 0.000103799501999999999979178155751 ,	 5.96609236999999978526894751224e-07 
	 0.000103799729999999996955459269365 ,	 7.51086297999999949150844516521e-07 
	 0.000103800091000000004591054258984 ,	 9.45561165000000048408131201466e-07 
	 0.000103800664000000005373139377873 ,	 1.19039006000000001310565496404e-06 
	 0.000103801571999999995708947875261 ,	 1.4986104599999999716807745978e-06 
	 0.000103803009999999996016036007962 ,	 1.88663511999999999108523687091e-06 
	 0.000103805290000000006436428612311 ,	 2.37512557999999996769121234086e-06 
	 0.000103808903999999999046531529157 ,	 2.99009135000000014165751245632e-06 
	 0.000103814629999999995745539604908 ,	 3.76427285999999991619778885732e-06 
	 0.000103823707 ,	 4.73888065e-06 
	 0.000103838091 ,	 5.96578133e-06 
	 0.000103860887 ,	 7.5102424e-06 
	 0.000103897013 ,	 9.45437352e-06 
	 0.00010395426 ,	 1.19014304e-05 
	 0.000104044968 ,	 1.49811767e-05 
	 0.000104188675 ,	 1.88565212e-05 
	 0.000104416293 ,	 2.37316498e-05 
	 0.000104776689 ,	 2.98618182e-05 
	 0.000105346991 ,	 3.75647984e-05 
	 0.000106248636 ,	 4.72335523e-05 
	 0.000107672091 ,	 5.93487871e-05 
	 0.000109914264 ,	 7.4488182e-05 
	 0.000113433498 ,	 9.33255094e-05 
	 0.000118926405 ,	 0.000116606508 
	 0.000127425596 ,	 0.000145078228 
	 0.000140400982 ,	 0.000179335745 
	 0.000159809436 ,	 0.000219543467 
	 0.000187971212 ,	 0.000265015297 
	 0.00022708315 ,	 0.000313751797 
	 0.000278225351 ,	 0.000362269227 
	 0.000340079065 ,	 0.000406273538 
	 0.000408217304 ,	 0.000442471468 
	 0.000476007472 ,	 0.000470773541 
	 0.000537024444 ,	 0.000495271576 
	 0.000587337846 ,	 0.000523183408 
	 0.000609419368 ,	 0.000542331005 
	 0.000626527238 ,	 0.000563287524 
	 0.000655391959 ,	 0.000622681012 
	 0.000677086166 ,	 0.000708758739 
	 0.000692623791 ,	 0.00081215624 
	 0.000706797531 ,	 0.000945596778 
	 0.000717396249 ,	 0.00106484019 
	 0.0007284002 ,	 0.00119716759 
	 0.000740957492 ,	 0.00135012993 
	 0.000754595839 ,	 0.0015132483 
	 0.000781366059 ,	 0.0018213026 
	 0.000807292652 ,	 0.00211544035 
	 0.000829726133 ,	 0.00239175079 
	 0.000845282394 ,	 0.00264738558 
	 0.000850003793 ,	 0.0028802595 
	 0.00083943488 ,	 0.00308895267 
	 0.000808674132 ,	 0.00327268896 
	 0.000752420183 ,	 0.00343134617 
	 0.000665018951 ,	 0.00356548048 
	 0.000540514051 ,	 0.00367635699 
	 0.000372701367 ,	 0.00376598298 
	 0.000155188073 ,	 0.00383714145 
	 -0.000118543873 ,	 0.00389342412 
	 -0.000455069823 ,	 0.00393926264 
	 -0.000860950205 ,	 0.00397995761 
	 -0.00144865176 ,	 0.00403079006 
	 -0.00215636555 ,	 0.00409564054 
	 -0.00299435791 ,	 0.0041889115 
	 -0.0039721021 ,	 0.00432698517 
	 -0.00509804257 ,	 0.00452823938 
	-0.0063793,	 0.004813
	-0.0078217,	 0.0052037
	-0.0094288,	 0.0057246
	-0.011202,	 0.0064018
	-0.013142,	 0.0072631
	-0.015244,	 0.0083382
	-0.017503,	 0.009658
	-0.018688,	 0.01042
	-0.019909,	 0.011255
	-0.021163,	 0.012167
	-0.022448,	 0.013162
	-0.023763,	 0.014242
	-0.025104,	 0.015413
	-0.02647,	 0.016679
	-0.027856,	 0.018044
	-0.02926,	 0.019512
	-0.030678,	 0.021087
	-0.032106,	 0.022775
	-0.03354,	 0.024579
	-0.034975,	 0.026503
	-0.036406,	 0.028552
	-0.037828,	 0.030728
	-0.039236,	 0.033037
	-0.040623,	 0.035482
	-0.041984,	 0.038066
	-0.043312,	 0.040793
	-0.0446,	 0.043666
	-0.04584,	 0.046687
	-0.047026,	 0.04986
	-0.048148,	 0.053186
	-0.0492,	 0.056669
	-0.050172,	 0.060309
	-0.051055,	 0.064108
	-0.05184,	 0.068067
	-0.052518,	 0.072186
	-0.053078,	 0.076466
	-0.053511,	 0.080907
	-0.053807,	 0.085507
	-0.053954,	 0.090265
	-0.053942,	 0.09518
	-0.053759,	 0.10024
	-0.053395,	 0.10546
	-0.052839,	 0.11083
	-0.052078,	 0.11634
	-0.051101,	 0.12199
	-0.049897,	 0.12777
	-0.048454,	 0.13367
	-0.046761,	 0.13969
	-0.044806,	 0.14583
	-0.042578,	 0.15206
	-0.040065,	 0.15839
	-0.037258,	 0.1648
	-0.034144,	 0.17128
	-0.030714,	 0.17781
	-0.026958,	 0.1844
	-0.024955,	 0.1877
	-0.022867,	 0.19101
	-0.020693,	 0.19433
	-0.018431,	 0.19765
	-0.016081,	 0.20097
	-0.013642,	 0.20428
	-0.011113,	 0.2076
	-0.0084929,	 0.21091
	-0.0057807,	 0.21421
	-0.0029758,	 0.2175
	-7.7272e-05,	 0.22078
	 0.0029155,	 0.22405
	 0.0060031,	 0.2273
	 0.0091863,	 0.23053
	 0.012465,	 0.23374
	 0.015841,	 0.23693
	 0.019314,	 0.24009
	 0.022884,	 0.24322
	 0.026552,	 0.24632
	 0.030318,	 0.24939
	 0.034182,	 0.25243
	 0.038144,	 0.25542
	 0.042204,	 0.25838
	 0.046363,	 0.26129
	 0.05062,	 0.26415
	 0.054974,	 0.26696
	 0.059427,	 0.26973
	 0.063977,	 0.27244
	 0.068623,	 0.27509
	 0.073367,	 0.27768
	 0.078206,	 0.28021
	 0.08314,	 0.28267
	 0.08817,	 0.28506
	 0.093292,	 0.28739
	 0.098508,	 0.28964
	 0.10381,	 0.29181
	 0.10921,	 0.2939
	 0.1147,	 0.29592
	 0.12027,	 0.29784
	 0.12594,	 0.29968
	 0.13169,	 0.30143
	 0.13752,	 0.30309
	 0.14344,	 0.30465
	 0.14943,	 0.30611
	 0.15551,	 0.30747
	 0.16167,	 0.30873
	 0.1679,	 0.30988
	 0.1742,	 0.31093
	 0.18702,	 0.31268
	 0.20011,	 0.31398
	 0.21344,	 0.31479
	 0.22701,	 0.3151
	 0.24079,	 0.3149
	 0.25475,	 0.31417
	 0.26888,	 0.3129
	 0.28315,	 0.31107
	 0.29753,	 0.30867
	 0.312,	 0.3057
	 0.32653,	 0.30214
	 0.34109,	 0.29798
	 0.35566,	 0.29322
	 0.37022,	 0.28786
	 0.38472,	 0.28189
	 0.39914,	 0.27532
	 0.41346,	 0.26813
	 0.42764,	 0.26034
	 0.44166,	 0.25194
	 0.45549,	 0.24295
	 0.46909,	 0.23337
	 0.48245,	 0.2232
	 0.49553,	 0.21246
	 0.50831,	 0.20116
	 0.52076,	 0.18931
	 0.53286,	 0.17692
	 0.54458,	 0.16401
	 0.5559,	 0.1506
	 0.5668,	 0.13671
	 0.57725,	 0.12234
	 0.58724,	 0.10753
	 0.59675,	 0.092292
	 0.60575,	 0.076644
	 0.61424,	 0.060611
	 0.62219,	 0.044217
	 0.6296,	 0.027483
	 0.63644,	 0.010434
	 0.64271,	-0.0069057
	 0.6484,	-0.024512
	 0.6535,	-0.042361
	 0.65801,	-0.060427
	 0.6619,	-0.078686
	 0.66519,	-0.097112
	 0.66786,	-0.11568
	 0.66991,	-0.13436
	 0.67135,	-0.15315
	 0.67216,	-0.172
	 0.67236,	-0.19089
	 0.67194,	-0.20981
	 0.6709,	-0.22873
	 0.66925,	-0.24763
	 0.667,	-0.26648
	 0.66414,	-0.28526
	 0.66068,	-0.30396
	 0.65664,	-0.32254
	 0.65202,	-0.341
	 0.64105,	-0.37746
	 0.62787,	-0.41318
	 0.61253,	-0.44802
	 0.59514,	-0.48187
	 0.57578,	-0.51461
	 0.55454,	-0.54612
	 0.53153,	-0.57633
	 0.50683,	-0.60513
	 0.48056,	-0.63246
	 0.4528,	-0.65824
	 0.42366,	-0.6824
	 0.39324,	-0.7049
	 0.36162,	-0.72568
	 0.32891,	-0.7447
	 0.29519,	-0.76191
	 0.26056,	-0.77727
	 0.22509,	-0.79074
	 0.18888,	-0.8023
	 0.15201,	-0.81191
	 0.11456,	-0.81952
	 0.07662,	-0.82511
	 0.038252,	-0.82864
	-0.00045359,	-0.83006
	-0.039416,	-0.82933
	-0.078553,	-0.82641
	-0.11777,	-0.82123
	-0.15699,	-0.81375
	-0.19612,	-0.80388
	-0.23503,	-0.79156
	-0.27363,	-0.77669
	-0.31178,	-0.75918
	-0.34932,	-0.73891
	-0.36782,	-0.72771
	-0.38609,	-0.71576
	-0.40413,	-0.70305
	-0.42189,	-0.68956
	-0.43935,	-0.67528
	-0.45646,	-0.66017
	-0.4732,	-0.64421
	-0.48951,	-0.62738
	-0.5143,	-0.59894
	-0.53768,	-0.56814
	-0.55938,	-0.53486
	-0.57906,	-0.49897
	-0.58802,	-0.48001
	-0.59631,	-0.46036
	-0.60386,	-0.44
	-0.61061,	-0.41892
	-0.61646,	-0.39712
	-0.62132,	-0.37459
	-0.62509,	-0.35133
	-0.62764,	-0.32735
	-0.62885,	-0.30267
	-0.62857,	-0.27732
	-0.62663,	-0.25134
	-0.62286,	-0.22481
	-0.62022,	-0.21137
	-0.61704,	-0.19782
	-0.6133,	-0.18419
	-0.60897,	-0.17049
	-0.60401,	-0.15675
	-0.5984,	-0.14299
	-0.5921,	-0.12924
	-0.58509,	-0.11554
	-0.57732,	-0.10192
	-0.56877,	-0.088424
	-0.55941,	-0.075101
	-0.54919,	-0.062003
	-0.5381,	-0.049192
	-0.5261,	-0.036732
	-0.51317,	-0.024698
	-0.49929,	-0.013171
	-0.48445,	-0.0022386
	-0.46863,	 0.0080011
	-0.45182,	 0.017444
	-0.43405,	 0.025976
	-0.41533,	 0.033478
	-0.3957,	 0.039824
	-0.37519,	 0.044879
	-0.35388,	 0.048509
	-0.33186,	 0.050574
	-0.30923,	 0.050937
	-0.28612,	 0.049464
	-0.26268,	 0.046028
	-0.2391,	 0.040516
	-0.21558,	 0.03283
	-0.19235,	 0.022896
	-0.16966,	 0.010665
	-0.14777,	-0.0038768
	-0.12696,	-0.020707
	-0.10752,	-0.039763
	-0.089742,	-0.060937
	-0.081556,	-0.072273
	-0.073886,	-0.084076
	-0.066764,	-0.096323
	-0.060219,	-0.10898
	-0.054279,	-0.12202
	-0.04897,	-0.13541
	-0.044317,	-0.14912
	-0.040339,	-0.1631
	-0.037055,	-0.17732
	-0.03448,	-0.19174
	-0.032626,	-0.20631
	-0.031502,	-0.22099
	-0.031112,	-0.23574
	-0.03146,	-0.25051
	-0.032544,	-0.26526
	-0.034359,	-0.27996
	-0.036899,	-0.29455
	-0.040151,	-0.30899
	-0.044104,	-0.32325
	-0.048739,	-0.33728
	-0.054039,	-0.35106
	-0.059982,	-0.36454
	-0.066544,	-0.37769
	-0.0737,	-0.39049
	-0.089683,	-0.4149
	-0.10769,	-0.43757
	-0.1275,	-0.45835
	-0.14883,	-0.47713
	-0.17144,	-0.49384
	-0.19509,	-0.50843
	-0.21952,	-0.52091
	-0.24452,	-0.53128
	-0.26352,	-0.5377
	-0.28265,	-0.543
	-0.30182,	-0.54719
	-0.32098,	-0.55032
	-0.34006,	-0.55243
	-0.359,	-0.55355
	-0.37776,	-0.55372
	-0.39629,	-0.553
	-0.43253,	-0.54904
	-0.46747,	-0.542
	-0.50092,	-0.53224
	-0.53277,	-0.52006
	-0.56295,	-0.50578
	-0.5914,	-0.48965
	-0.61813,	-0.47192
	-0.64315,	-0.45281
	-0.66647,	-0.43251
	-0.68815,	-0.41119
	-0.70823,	-0.389
	-0.72675,	-0.36606
	-0.74377,	-0.34249
	-0.75934,	-0.31839
	-0.77352,	-0.29384
	-0.78635,	-0.26891
	-0.79788,	-0.24368
	-0.80816,	-0.21819
	-0.81723,	-0.1925
	-0.82513,	-0.16665
	-0.8319,	-0.14067
	-0.83757,	-0.11462
	-0.84217,	-0.088512
	-0.84573,	-0.062374
	-0.84828,	-0.036237
	-0.84984,	-0.010123
	-0.85043,	 0.015943
	-0.85007,	 0.04194
	-0.84779,	 0.080763
	-0.84348,	 0.11931
	-0.83717,	 0.15754
	-0.82892,	 0.19536
	-0.81875,	 0.23272
	-0.8067,	 0.26955
	-0.79281,	 0.30578
	-0.77711,	 0.34134
	-0.75962,	 0.37616
	-0.74038,	 0.41017
	-0.71943,	 0.44329
	-0.6968,	 0.47544
	-0.67253,	 0.50655
	-0.64667,	 0.53652
	-0.61926,	 0.56529
	-0.59036,	 0.59276
	-0.56003,	 0.61887
	-0.52833,	 0.64352
	-0.49534,	 0.66663
	-0.46114,	 0.68814
	-0.4258,	 0.70797
	-0.38942,	 0.72605
	-0.35209,	 0.74232
	-0.31392,	 0.75671
	-0.27502,	 0.76918
	-0.23549,	 0.77969
	-0.19546,	 0.78818
	-0.15504,	 0.79465
	-0.11436,	 0.79906
	-0.073545,	 0.80141
	-0.032712,	 0.80169
	 0.0080078,	 0.79992
	 0.038398,	 0.79725
	 0.068603,	 0.79344
	 0.098571,	 0.78851
	 0.12825,	 0.78248
	 0.15759,	 0.77536
	 0.18656,	 0.76717
	 0.21509,	 0.75795
	 0.24315,	 0.74772
	 0.2707,	 0.73651
	 0.2977,	 0.72435
	 0.3241,	 0.71127
	 0.34988,	 0.69731
	 0.375,	 0.6825
	 0.39943,	 0.66689
	 0.42314,	 0.65051
	 0.44612,	 0.6334
	 0.46832,	 0.61561
	 0.48975,	 0.59717
	 0.51038,	 0.57812
	 0.53019,	 0.55851
	 0.54917,	 0.53838
	 0.56732,	 0.51777
	 0.58462,	 0.49672
	 0.60107,	 0.47527
	 0.61667,	 0.45346
	 0.63141,	 0.43133
	 0.6453,	 0.40892
	 0.65834,	 0.38626
	 0.67053,	 0.36339
	 0.68189,	 0.34035
	 0.6924,	 0.31717
	 0.7021,	 0.29388
	 0.71376,	 0.26272
	 0.724,	 0.23149
	 0.73284,	 0.20026
	 0.74033,	 0.1691
	 0.74649,	 0.13806
	 0.75136,	 0.1072
	 0.75497,	 0.076583
	 0.75737,	 0.046234
	 0.75859,	 0.016208
	 0.75868,	-0.013456
	 0.75767,	-0.04272
	 0.7556,	-0.07155
	 0.75252,	-0.099914
	 0.74846,	-0.12778
	 0.74347,	-0.15513
	 0.73758,	-0.18194
	 0.73083,	-0.20818
	 0.72325,	-0.23384
	 0.7149,	-0.25889
	 0.70579,	-0.28333
	 0.69598,	-0.30714
	 0.68549,	-0.3303
	 0.67436,	-0.35281
	 0.66263,	-0.37465
END
BEGIN
	 0.999896208091248350768864838756 ,	 0 
	 0.999896208091255789263129827305 ,	 -8.89839544757076161829445481999e-09 
	 0.999896208091249460991889463912 ,	 -8.89839508475334661774525102373e-08 
	 0.999896208090688798364453759859 ,	 -8.89839510247354692484833549315e-07 
	 0.999896208034546818410603918892 ,	 -8.89839510099035835288816542743e-06 
	 0.999896208001378683505322442215 ,	 -1.12024157170017082951751774544e-05 
	 0.999896207948810622490043442667 ,	 -1.41030058210941597329757257739e-05 
	 0.999896207865494490718560882669 ,	 -1.7754632413395990409021862888e-05 
	 0.999896207733448783017138339346 ,	 -2.23517579285466283511851770527e-05 
	 0.999896207524170077540759393742 ,	 -2.81391960646288838421291700342e-05 
	 0.999896207192484731685055976413 ,	 -3.54251490143307756763846327885e-05 
	 0.999896206666800568818587180431 ,	 -4.45976203538780285873244224604e-05 
	 0.999896205833646023464211793907 ,	 -5.61450776531604439645306570128e-05 
	 0.999896204513185726803214947722 ,	 -7.06824651744526397112444726645e-05 
	 0.999896202420397228749493478972 ,	 -8.89839519138940077125354832788e-05 
	 0.99989619910355143073132921927 ,	 -0.000112024158981246201027826003838 
	 0.999896193846708025709801859193 ,	 -0.000141030061822583832609190324092 
	 0.999896185515178892444509983761 ,	 -0.000177546331340627458472702926429 
	 0.999896172310606901056928563776 ,	 -0.000223517593652917956337233817976 
	 0.999896151382805409291165688046 ,	 -0.000281391989322703379994283778842 
	 0.999896118214557594328084633162 ,	 -0.000354251547362248279948726548128 
	 0.999896065646642351332218368043 ,	 -0.000445976317697886932844841822998 
	 0.999895982332642652146148520842 ,	 -0.000561451004315044986670013571484 
	 0.999895850290190457698713544232 ,	 -0.000706825106208649849015568378263 
	 0.999895641020367320628281504469 ,	 -0.000889840425859068744063318234794 
	 0.999895309358489248197088272718 ,	 -0.00112024339875831015905793819343 
