CITIFILE A.01.01
#Momentum: B.12.070 (*) built: Feb 13 2020 
#Momentum Date and Time: Tue Aug 16 09:46:11 2022

NAME Momentum.SP

#  mode: MW    reference: S_50

#eesof Port[1] P1
#eesof Port[2] P2

CONSTANT NBR_OF_PORTS 2

CONSTANT NORMALIZATION 1

VAR freq MAG 450

DATA S[1,1] RI
DATA S[1,2] RI
DATA S[2,1] RI
DATA S[2,2] RI
DATA PORTZ[1] RI
DATA PORTZ[2] RI

VAR_LIST_BEGIN
	 0
	 8.701167248
	 87.01167248
	 870.1167248
	 8701.167248
	 10954.12056
	 13790.42074
	 17361.11111
	 21856.34395
	 27515.50681
	 34639.97074
	 43609.13942
	 54900.65381
	 69115.8282
	 87011.67248
	 109541.2056
	 137904.2074
	 173611.1111
	 218563.4395
	 275155.0681
	 346399.7074
	 436091.3942
	 549006.5381
	 691158.282
	 870116.7248
	 1095412.056
	 1379042.074
	 1736111.111
	 2185634.395
	 2751550.681
	 3463997.074
	 4360913.942
	 5490065.381
	 6911582.82
	 8701167.248
	 10954120.56
	 13790420.74
	 17361111.11
	 19629339.22
	 21908241.12
	 27580841.48
	 34722222.21
	 42541975.06
	 52083333.32
	 60365357.4
	 69444444.42
	 86805555.53
	 104166666.6
	 121527777.7
	 138888888.8
	 173611111.1
	 208333333.3
	 243055555.5
	 277777777.7
	 321180555.5
	 364583333.2
	 407986111
	 451388888.7
	 473090277.6
	 494791666.5
	 516493055.4
	 538194444.3
	 559895833.1
	 581597222
	 603298610.9
	 624999999.8
	 646701388.7
	 668402777.5
	 690104166.4
	 711805555.3
	 733506944.2
	 755208333.1
	 776909721.9
	 798611110.8
	 820312499.7
	 842013888.6
	 863715277.5
	 885416666.3
	 907118055.2
	 928819444.1
	 950520833
	 972222221.9
	 993923610.7
	 1015625000
	 1037326388
	 1059027777
	 1080729166
	 1102430555
	 1124131944
	 1145833333
	 1167534722
	 1189236111
	 1210937500
	 1232638888
	 1254340277
	 1276041666
	 1297743055
	 1319444444
	 1341145833
	 1362847222
	 1384548611
	 1406249999
	 1427951388
	 1449652777
	 1471354166
	 1493055555
	 1514756944
	 1536458333
	 1558159722
	 1579861110
	 1601562499
	 1623263888
	 1644965277
	 1666666666
	 1692708333
	 1718749999
	 1744791666
	 1770833333
	 1796874999
	 1822916666
	 1848958333
	 1875000000
	 1901041666
	 1927083333
	 1953125000
	 1979166666
	 2005208333
	 2031250000
	 2057291666
	 2083333333
	 2109375000
	 2135416666
	 2161458333
	 2187500000
	 2213541666
	 2239583333
	 2265625000
	 2291666666
	 2317708333
	 2343750000
	 2369791667
	 2395833333
	 2421875000
	 2447916667
	 2473958333
	 2500000000
	 2526041667
	 2552083333
	 2578125000
	 2604166667
	 2630208333
	 2656250000
	 2682291667
	 2708333333
	 2734375000
	 2760416667
	 2786458333
	 2812500000
	 2838541667
	 2864583333
	 2890625000
	 2916666666
	 2942708333
	 2968750000
	 2994791666
	 3020833333
	 3046875000
	 3072916666
	 3098958333
	 3125000000
	 3151041666
	 3177083333
	 3203125000
	 3229166666
	 3255208333
	 3281250000
	 3307291666
	 3333333333
	 3359375000
	 3385416666
	 3411458333
	 3437500000
	 3463541666
	 3489583333
	 3515625000
	 3541666666
	 3567708333
	 3593750000
	 3619791666
	 3645833333
	 3671875000
	 3697916666
	 3723958333
	 3750000000
	 3776041666
	 3802083333
	 3828125000
	 3854166666
	 3880208333
	 3906250000
	 3932291666
	 3958333333
	 3984375000
	 4010416666
	 4036458333
	 4062500000
	 4088541666
	 4114583333
	 4140625000
	 4166666666
	 4192708333
	 4218750000
	 4244791667
	 4270833333
	 4296875000
	 4322916667
	 4348958333
	 4375000000
	 4401041667
	 4427083333
	 4453125000
	 4479166667
	 4505208333
	 4531250000
	 4557291667
	 4583333333
	 4609375000
	 4635416667
	 4661458333
	 4687500000
	 4713541667
	 4739583333
	 4765625000
	 4791666667
	 4817708333
	 4843750000
	 4869791667
	 4895833333
	 4921875000
	 4947916667
	 4973958333
	 5000000000
	 5026041667
	 5052083333
	 5078125000
	 5104166667
	 5130208333
	 5156250000
	 5182291667
	 5208333333
	 5234375000
	 5260416667
	 5286458333
	 5312500000
	 5338541667
	 5364583333
	 5390625000
	 5416666666
	 5442708333
	 5468750000
	 5494791666
	 5520833333
	 5546875000
	 5572916666
	 5598958333
	 5625000000
	 5651041666
	 5677083333
	 5703125000
	 5729166666
	 5755208333
	 5781250000
	 5807291666
	 5833333333
	 5859375000
	 5885416666
	 5911458333
	 5937500000
	 5963541666
	 5989583333
	 6015625000
	 6041666666
	 6067708333
	 6093750000
	 6119791667
	 6145833333
	 6171875000
	 6197916667
	 6223958333
	 6250000000
	 6276041667
	 6302083333
	 6328125000
	 6354166667
	 6380208333
	 6406250000
	 6432291667
	 6458333334
	 6484375000
	 6510416667
	 6536458334
	 6562500000
	 6588541667
	 6614583334
	 6640625000
	 6666666667
	 6692708334
	 6718750000
	 6744791667
	 6770833334
	 6796875000
	 6822916667
	 6848958334
	 6875000000
	 6901041667
	 6927083334
	 6953125000
	 6979166667
	 7005208334
	 7031250000
	 7057291667
	 7083333334
	 7109375000
	 7135416667
	 7161458334
	 7187500000
	 7213541667
	 7239583334
	 7265625000
	 7291666667
	 7317708334
	 7343750000
	 7369791667
	 7395833334
	 7421875000
	 7447916667
	 7473958334
	 7500000000
	 7526041667
	 7552083334
	 7578125001
	 7604166667
	 7630208334
	 7656250001
	 7682291667
	 7708333334
	 7734375001
	 7760416667
	 7786458334
	 7812500001
	 7838541667
	 7864583334
	 7890625001
	 7916666667
	 7942708334
	 7968750001
	 7994791667
	 8020833334
	 8046875001
	 8072916667
	 8098958334
	 8125000001
	 8151041667
	 8177083334
	 8203125001
	 8229166667
	 8255208334
	 8281250001
	 8307291667
	 8333333334
	 8359375001
	 8385416667
	 8411458334
	 8437500001
	 8463541667
	 8489583334
	 8515625001
	 8541666667
	 8567708334
	 8593750001
	 8619791667
	 8645833334
	 8671875001
	 8697916667
	 8723958334
	 8750000000
	 8776041667
	 8802083334
	 8828125000
	 8854166667
	 8880208334
	 8906250000
	 8932291667
	 8958333334
	 8984375000
	 9010416667
	 9036458334
	 9062500000
	 9088541667
	 9114583334
	 9140625000
	 9166666667
	 9184027778
	 9201388889
	 9218750000
	 9236111111
	 9253472222
	 9270833334
	 9288194445
	 9305555556
	 9322916667
	 9340277778
	 9357638889
	 9375000000
	 9392361111
	 9409722222
	 9427083333
	 9444444444
	 9461805556
	 9479166667
	 9496527778
	 9513888889
	 9531250000
	 9548611111
	 9565972222
	 9583333333
	 9600694444
	 9618055555
	 9635416667
	 9652777778
	 9670138889
	 9687500000
	 9704861111
	 9722222222
	 9739583333
	 9756944444
	 9774305555
	 9791666666
	 9809027778
	 9826388889
	 9843750000
	 9861111111
	 9878472222
	 9895833333
	 9913194444
	 9930555556
	 9947916667
	 9965277778
	 9982638889
	 1e+10
VAR_LIST_END

BEGIN
	 4.28147649000000027166878188017e-09 ,	 0 
	 4.28147691000000007468047249614e-09 ,	 -4.98789412999999981583346460735e-10 
	 4.28147657999999963861370661715e-09 ,	 -4.98789398000000018160807958487e-09 
	 4.28144118999999977239072604016e-09 ,	 -4.98789379999999995879312751548e-08 
	 4.277908059999999801156783533e-09 ,	 -4.98789380000000009114202552396e-07 
	 4.27582063999999977570597891382e-09 ,	 -6.27938625999999988862418278529e-07 
	 4.27251239999999969366697500544e-09 ,	 -7.90527892999999952472847154772e-07 
	 4.26726890999999978625435983147e-09 ,	 -9.95215652999999941718460398643e-07 
	 4.25895919999999968715758284278e-09 ,	 -1.25290227999999990872567658812e-06 
	 4.24578817000000040622480448785e-09 ,	 -1.57731050999999992471276889783e-06 
	 4.2249140399999998431585025477e-09 ,	 -1.98571628999999990526853857475e-06 
	 4.19183091999999995130600280295e-09 ,	 -2.49986869999999994709782846769e-06 
	 4.13939761999999973285266647986e-09 ,	 -3.14714823000000015775748547775e-06 
	 4.05629631000000004683578763752e-09 ,	 -3.9620248799999999717437286495e-06 
	 3.92458950000000024364975195843e-09 ,	 -4.98789379999999966762555189681e-06 
	 3.71584847e-09 ,	 -6.27938625e-06 
	 3.38501659e-09 ,	 -7.90527891e-06 
	 2.86068243e-09 ,	 -9.9521565e-06 
	 2.02966978e-09 ,	 -1.25290227e-05 
	 7.12602876e-10 ,	 -1.5773105e-05 
	 -1.37480805e-09 ,	 -1.98571627e-05 
	 -4.68313164e-09 ,	 -2.49986865e-05 
	 -9.92647288e-09 ,	 -3.14714814e-05 
	 -1.82366133e-08 ,	 -3.9620247e-05 
	 -3.14073091e-08 ,	 -4.98789345e-05 
	 -5.22814832e-08 ,	 -6.27938556e-05 
	 -8.53648889e-08 ,	 -7.90527754e-05 
	 -1.37798728e-07 ,	 -9.95215376e-05 
	 -2.209012e-07 ,	 -0.000125290172 
	 -3.52610845e-07 ,	 -0.000157730941 
	 -5.61359328e-07 ,	 -0.000198571409 
	 -8.92210322e-07 ,	 -0.00024998643 
	 -1.41659125e-06 ,	 -0.000314713946 
	 -2.2477228e-06 ,	 -0.000396200737 
	 -3.56508745e-06 ,	 -0.000498785881 
	 -5.65324558e-06 ,	 -0.000627931626 
	 -8.96344507e-06 ,	 -0.00079051387 
	 -1.42114915e-05 ,	 -0.000995187497 
	 -1.81715016e-05 ,	 -0.00112519963 
	 -2.26406739e-05 ,	 -0.0012558201 
	 -3.59037821e-05 ,	 -0.00158093997 
	 -5.69516043e-05 ,	 -0.00199019463 
	 -8.55859127e-05 ,	 -0.00243824497 
	 -0.000128485793 ,	 -0.00298478526 
	 -0.000172873049 ,	 -0.0034590083 
	 -0.000229235979 ,	 -0.00397861752 
	 -0.000359738678 ,	 -0.00497120461 
	 -0.000520599297 ,	 -0.00596188945 
	 -0.000712443526 ,	 -0.00694983418 
	 -0.000935870722 ,	 -0.00793402359 
	-0.0014795,	-0.0098863
	-0.0021544,	-0.011808
	-0.0029614,	-0.013686
	-0.0038991,	-0.015509
	-0.0052494,	-0.017691
	-0.0067877,	-0.019743
	-0.0085004,	-0.021646
	-0.010372,	-0.023382
	-0.011361,	-0.024182
	-0.012384,	-0.024934
	-0.013437,	-0.025637
	-0.014519,	-0.02629
	-0.015626,	-0.026891
	-0.016756,	-0.027439
	-0.017907,	-0.027932
	-0.019077,	-0.028371
	-0.020261,	-0.028754
	-0.021458,	-0.02908
	-0.022666,	-0.029349
	-0.023881,	-0.02956
	-0.025101,	-0.029713
	-0.026323,	-0.029809
	-0.027545,	-0.029846
	-0.028764,	-0.029825
	-0.029977,	-0.029745
	-0.031182,	-0.029609
	-0.032375,	-0.029414
	-0.033556,	-0.029163
	-0.03472,	-0.028855
	-0.035865,	-0.028492
	-0.03699,	-0.028074
	-0.03809,	-0.027602
	-0.039165,	-0.027077
	-0.040212,	-0.0265
	-0.041228,	-0.025873
	-0.042211,	-0.025196
	-0.043159,	-0.024472
	-0.044069,	-0.023701
	-0.044941,	-0.022885
	-0.045771,	-0.022026
	-0.046558,	-0.021126
	-0.047299,	-0.020185
	-0.047994,	-0.019207
	-0.04864,	-0.018194
	-0.049236,	-0.017146
	-0.04978,	-0.016067
	-0.050271,	-0.014958
	-0.050707,	-0.013822
	-0.051087,	-0.012661
	-0.05141,	-0.011478
	-0.051675,	-0.010274
	-0.05188,	-0.0090517
	-0.052025,	-0.0078145
	-0.05211,	-0.0065643
	-0.052132,	-0.0053038
	-0.052092,	-0.0040356
	-0.05199,	-0.0027621
	-0.051824,	-0.0014861
	-0.051594,	-0.00021017
	-0.051301,	 0.001063
	-0.050944,	 0.0023307
	-0.050523,	 0.0035904
	-0.050038,	 0.0048392
	-0.049489,	 0.0060745
	-0.048748,	 0.0075353
	-0.047916,	 0.0089682
	-0.046995,	 0.010368
	-0.045986,	 0.011732
	-0.04489,	 0.013053
	-0.043709,	 0.014329
	-0.042444,	 0.015553
	-0.041099,	 0.016723
	-0.039675,	 0.017834
	-0.038174,	 0.018881
	-0.036599,	 0.019861
	-0.034954,	 0.02077
	-0.033241,	 0.021603
	-0.031463,	 0.022357
	-0.029625,	 0.023028
	-0.027729,	 0.023614
	-0.025779,	 0.02411
	-0.02378,	 0.024513
	-0.021736,	 0.024821
	-0.01965,	 0.025031
	-0.017528,	 0.02514
	-0.015374,	 0.025146
	-0.013193,	 0.025046
	-0.01099,	 0.024839
	-0.0087687,	 0.024522
	-0.0065356,	 0.024095
	-0.0042955,	 0.023556
	-0.0020538,	 0.022904
	 0.00018437,	 0.022138
	 0.0024134,	 0.021258
	 0.0046278,	 0.020262
	 0.0068221,	 0.019152
	 0.0089907,	 0.017927
	 0.011128,	 0.016587
	 0.013228,	 0.015134
	 0.015286,	 0.013568
	 0.017296,	 0.011891
	 0.019252,	 0.010104
	 0.021149,	 0.0082094
	 0.022981,	 0.0062084
	 0.024744,	 0.0041036
	 0.026431,	 0.0018976
	 0.028037,	-0.00040674
	 0.029558,	-0.0028063
	 0.030989,	-0.0052978
	 0.032324,	-0.0078776
	 0.033558,	-0.010542
	 0.034688,	-0.013287
	 0.03571,	-0.016107
	 0.036617,	-0.019
	 0.037408,	-0.021959
	 0.038078,	-0.02498
	 0.038623,	-0.028058
	 0.03904,	-0.031188
	 0.039326,	-0.034363
	 0.039478,	-0.037579
	 0.039494,	-0.040829
	 0.039371,	-0.044108
	 0.039107,	-0.04741
	 0.038699,	-0.050728
	 0.038148,	-0.054056
	 0.037451,	-0.057387
	 0.036607,	-0.060716
	 0.035616,	-0.064036
	 0.034478,	-0.06734
	 0.033191,	-0.070621
	 0.031757,	-0.073873
	 0.030176,	-0.07709
	 0.028449,	-0.080265
	 0.026576,	-0.083391
	 0.02456,	-0.086462
	 0.022401,	-0.08947
	 0.020102,	-0.092411
	 0.017666,	-0.095277
	 0.015094,	-0.098063
	 0.012389,	-0.10076
	 0.0095548,	-0.10336
	 0.0065945,	-0.10587
	 0.0035118,	-0.10827
	 0.00031027,	-0.11056
	-0.0030058,	-0.11274
	-0.0064321,	-0.1148
	-0.0099642,	-0.11672
	-0.013597,	-0.11852
	-0.017326,	-0.12019
	-0.021146,	-0.12171
	-0.025051,	-0.12309
	-0.029035,	-0.12432
	-0.033094,	-0.1254
	-0.037221,	-0.12632
	-0.041411,	-0.12709
	-0.045656,	-0.12769
	-0.049951,	-0.12813
	-0.054289,	-0.1284
	-0.058665,	-0.1285
	-0.06307,	-0.12842
	-0.067499,	-0.12818
	-0.071945,	-0.12776
	-0.076401,	-0.12716
	-0.08086,	-0.12639
	-0.085315,	-0.12544
	-0.08976,	-0.12431
	-0.094187,	-0.123
	-0.098589,	-0.12152
	-0.10296,	-0.11985
	-0.10729,	-0.11801
	-0.11158,	-0.116
	-0.11581,	-0.1138
	-0.11999,	-0.11144
	-0.1241,	-0.1089
	-0.12814,	-0.1062
	-0.1321,	-0.10332
	-0.13598,	-0.10029
	-0.13976,	-0.097091
	-0.14345,	-0.093732
	-0.14703,	-0.090218
	-0.1505,	-0.086552
	-0.15386,	-0.082737
	-0.1571,	-0.078778
	-0.16021,	-0.074679
	-0.16319,	-0.070444
	-0.16602,	-0.066078
	-0.16872,	-0.061585
	-0.17127,	-0.056971
	-0.17367,	-0.052241
	-0.17591,	-0.0474
	-0.17799,	-0.042453
	-0.17991,	-0.037407
	-0.18165,	-0.032266
	-0.18323,	-0.027038
	-0.18463,	-0.021727
	-0.18585,	-0.016341
	-0.18689,	-0.010886
	-0.18775,	-0.0053668
	-0.18842,	 0.00020863
	-0.1889,	 0.0058341
	-0.18919,	 0.011503
	-0.18929,	 0.017209
	-0.1892,	 0.022944
	-0.18891,	 0.028703
	-0.18843,	 0.034478
	-0.18775,	 0.040263
	-0.18688,	 0.046051
	-0.18581,	 0.051835
	-0.18455,	 0.057609
	-0.18309,	 0.063365
	-0.18143,	 0.069097
	-0.17959,	 0.074798
	-0.17755,	 0.080462
	-0.17532,	 0.086082
	-0.1729,	 0.091653
	-0.1703,	 0.097167
	-0.16751,	 0.10261
	-0.16454,	 0.108
	-0.16139,	 0.1133
	-0.15807,	 0.11853
	-0.15457,	 0.12367
	-0.1509,	 0.12873
	-0.14706,	 0.13368
	-0.14307,	 0.13853
	-0.13891,	 0.14328
	-0.1346,	 0.14791
	-0.13013,	 0.15243
	-0.12552,	 0.15682
	-0.12077,	 0.1611
	-0.11588,	 0.16524
	-0.11086,	 0.16925
	-0.1057,	 0.17312
	-0.10043,	 0.17685
	-0.095037,	 0.18045
	-0.089528,	 0.18389
	-0.083909,	 0.18719
	-0.078186,	 0.19033
	-0.072364,	 0.19332
	-0.066447,	 0.19615
	-0.060442,	 0.19883
	-0.054353,	 0.20135
	-0.048185,	 0.2037
	-0.041943,	 0.20589
	-0.035632,	 0.20792
	-0.029258,	 0.20979
	-0.022824,	 0.21148
	-0.016337,	 0.21302
	-0.0098008,	 0.21438
	-0.0032201,	 0.21558
	 0.0034,	 0.21661
	 0.010055,	 0.21747
	 0.01674,	 0.21816
	 0.023452,	 0.21869
	 0.030184,	 0.21905
	 0.036934,	 0.21925
	 0.043696,	 0.21928
	 0.050467,	 0.21914
	 0.057242,	 0.21884
	 0.064019,	 0.21837
	 0.070792,	 0.21774
	 0.077558,	 0.21696
	 0.084313,	 0.21601
	 0.091054,	 0.2149
	 0.097777,	 0.21363
	 0.10447,	 0.2122
	 0.11115,	 0.21062
	 0.1178,	 0.20889
	 0.12442,	 0.207
	 0.13101,	 0.20496
	 0.13756,	 0.20277
	 0.14406,	 0.20043
	 0.15053,	 0.19794
	 0.15695,	 0.19531
	 0.16333,	 0.19253
	 0.16965,	 0.18961
	 0.17592,	 0.18654
	 0.18213,	 0.18333
	 0.18829,	 0.17999
	 0.19438,	 0.1765
	 0.20041,	 0.17288
	 0.20638,	 0.16912
	 0.21228,	 0.16523
	 0.2181,	 0.1612
	 0.22386,	 0.15704
	 0.22954,	 0.15275
	 0.23514,	 0.14833
	 0.24066,	 0.14378
	 0.2461,	 0.1391
	 0.25145,	 0.1343
	 0.25672,	 0.12937
	 0.26189,	 0.12431
	 0.26697,	 0.11913
	 0.27196,	 0.11383
	 0.27685,	 0.10841
	 0.28163,	 0.10286
	 0.28631,	 0.097207
	 0.29089,	 0.091428
	 0.29535,	 0.085532
	 0.2997,	 0.07952
	 0.30394,	 0.073396
	 0.30805,	 0.067158
	 0.31205,	 0.060811
	 0.31591,	 0.054353
	 0.31965,	 0.047789
	 0.32325,	 0.041119
	 0.32671,	 0.034345
	 0.33003,	 0.02747
	 0.33321,	 0.020496
	 0.33624,	 0.013424
	 0.33911,	 0.0062587
	 0.34183,	-0.0009983
	 0.34438,	-0.0083438
	 0.34677,	-0.015775
	 0.34899,	-0.023287
	 0.35104,	-0.030878
	 0.35291,	-0.038544
	 0.35459,	-0.046279
	 0.35609,	-0.05408
	 0.3574,	-0.061943
	 0.35851,	-0.069861
	 0.35942,	-0.077831
	 0.36012,	-0.085846
	 0.36062,	-0.0939
	 0.36091,	-0.10198
	 0.36098,	-0.1101
	 0.36083,	-0.11823
	 0.36046,	-0.12637
	 0.35987,	-0.13453
	 0.35904,	-0.14267
	 0.35798,	-0.15081
	 0.35669,	-0.15893
	 0.35517,	-0.16702
	 0.3534,	-0.17507
	 0.35139,	-0.18307
	 0.34915,	-0.19102
	 0.34666,	-0.1989
	 0.34392,	-0.2067
	 0.34095,	-0.21441
	 0.33773,	-0.22203
	 0.33428,	-0.22954
	 0.33058,	-0.23692
	 0.32665,	-0.24417
	 0.32248,	-0.25128
	 0.31809,	-0.25824
	 0.31346,	-0.26502
	 0.30861,	-0.27163
	 0.30355,	-0.27804
	 0.29827,	-0.28425
	 0.29279,	-0.29024
	 0.28711,	-0.29601
	 0.28123,	-0.30154
	 0.27518,	-0.30681
	 0.27105,	-0.31018
	 0.26684,	-0.31343
	 0.26256,	-0.31656
	 0.25821,	-0.31956
	 0.2538,	-0.32243
	 0.24933,	-0.32516
	 0.2448,	-0.32776
	 0.24021,	-0.33021
	 0.23558,	-0.33252
	 0.2309,	-0.33468
	 0.22618,	-0.3367
	 0.22142,	-0.33855
	 0.21663,	-0.34026
	 0.21181,	-0.3418
	 0.20697,	-0.34318
	 0.20212,	-0.34439
	 0.19725,	-0.34544
	 0.19237,	-0.34631
	 0.18749,	-0.34701
	 0.18262,	-0.34754
	 0.17776,	-0.34788
	 0.17292,	-0.34805
	 0.1681,	-0.34803
	 0.16331,	-0.34783
	 0.15856,	-0.34744
	 0.15386,	-0.34686
	 0.14921,	-0.34609
	 0.14462,	-0.34513
	 0.1401,	-0.34397
	 0.13566,	-0.34262
	 0.13131,	-0.34107
	 0.12706,	-0.33933
	 0.12291,	-0.33739
	 0.11888,	-0.33526
	 0.11497,	-0.33293
	 0.11121,	-0.3304
	 0.10759,	-0.32768
	 0.10413,	-0.32477
	 0.10085,	-0.32166
	 0.097756,	-0.31837
	 0.094857,	-0.31489
	 0.092171,	-0.31123
	 0.089712,	-0.30739
	 0.087494,	-0.30338
	 0.085532,	-0.29921
	 0.083841,	-0.29488
	 0.082437,	-0.29041
	 0.081337,	-0.28579
END
BEGIN
	 0.999999995718516165865707989724 ,	 -0 
	 0.999999995718514944620380902052 ,	 -7.7881376694954873585174937034e-09 
	 0.999999995718509948616770088847 ,	 -7.78813737355166235687420339673e-08 
	 0.999999995718009793144176455826 ,	 -7.78813735821670682923922868213e-07 
	 0.999999995668048313746112398803 ,	 -7.78813735458419587054379462643e-06 
	 0.99999999563853192441342798702 ,	 -9.80468402448156362005704522744e-06 
	 0.999999995591751345003217466001 ,	 -1.23433658701897763787513895295e-05 
	 0.999999995517606210526651011605 ,	 -1.55393769547609861270132114441e-05 
	 0.999999995400097541065065342991 ,	 -1.95629165195415621880670187238e-05 
	 0.999999995213857295617287945788 ,	 -2.46282527126065464706528018723e-05 
	 0.999999994918686296863086226949 ,	 -3.10051331410335362370744860527e-05 
	 0.999999994450872398132901253121 ,	 -3.90331499138217574706999357659e-05 
	 0.999999993709435819333464223746 ,	 -4.91398241446797112708111399115e-05 
	 0.999999992534342130312552399118 ,	 -6.18633729756942751798476365366e-05 
	 0.999999990671941563213920289854 ,	 -7.78813715584560084526088985513e-05 
	 0.999999987720236349630908989639 ,	 -9.80468362845668406357901858428e-05 
	 0.99999998304210147015425036443 ,	 -0.00012343365079952109408800708934 
	 0.99999997562776365978010062463 ,	 -0.000155393753786314814391289473861 
	 0.999999963876844977228586230922 ,	 -0.000195629133751602790614043669848 
	 0.999999945252933231110148426524 ,	 -0.000246282464375965209901764296774 
	 0.999999915736118905051910132897 ,	 -0.000310051206212351437851992841388 
	 0.999999868955366855161059902457 ,	 -0.000390331249339428282274511161631 
	 0.999999794813481557298473489936 ,	 -0.00049139774301405411693899338843 
	 0.999999677308051171387148770009 ,	 -0.000618632735281673257210499627945 
	 0.999999491078359170614930917509 ,	 -0.000778811731409922991531402658438 
	 0.999999195933895079768660707487 ,	 -0.000980464404079468138109021424498 
	 0.999998728185818808178453309665 ,	 -0.00123432860980657657656855974437 
	 0.999997986916295489301376164804 ,	 -0.0015539217807383938485532581808 
	 0.999996812236984666810712951701 ,	 -0.00195625990371354335772835497664 
	 0.99999495088161527434067465947 ,	 -0.00246276194335757689368726630619 
	 0.999992001800493524044100013271 ,	 -0.00310038701612305039878592083369 
	 0.999987330250527772790292146965 ,	 -0.00390306317624907958552249453987 
	 0.999979932428482265471814116609 ,	 -0.00491348055284681131671398190974 
	 0.999968222898804603993028194964 ,	 -0.00618533776743245694573758441948 
	 0.999949702565134712628491797659 ,	 -0.00778614854382023852119587559173 
	 0.999920444406619868260577277397 ,	 -0.00980073375254297135539260921178 
	 0.999874307392928818316590877657 ,	 -0.0123355400468063529373363707009 
	 0.999801759234867470915730791603 ,	 -0.0155239361424094578223442653098 
