CITIFILE A.01.01
#Momentum: B.12.070 (*) built: Feb 13 2020 
#Momentum Date and Time: Mon Aug 15 09:22:57 2022

NAME Momentum.SP

#  mode: MW    reference: S_50

#eesof Port[1] P1
#eesof Port[2] P2

CONSTANT NBR_OF_PORTS 2

CONSTANT NORMALIZATION 1

VAR freq MAG 159

DATA S[1,1] RI
DATA S[1,2] RI
DATA S[2,1] RI
DATA S[2,2] RI
DATA PORTZ[1] RI
DATA PORTZ[2] RI

VAR_LIST_BEGIN
	 0
	 8.254652041
	 82.54652041
	 825.4652041
	 8254.652041
	 10391.99122
	 13082.74183
	 16470.19614
	 20734.74846
	 26103.50174
	 32862.36168
	 41371.26221
	 52083.33331
	 65569.03184
	 82546.52041
	 103919.9122
	 130827.4183
	 164701.9614
	 207347.4846
	 261035.0174
	 328623.6168
	 413712.6221
	 520833.3331
	 655690.3184
	 825465.2041
	 1039199.122
	 1308274.183
	 1647019.614
	 2073474.846
	 2610350.174
	 3286236.168
	 4137126.221
	 5208333.331
	 6556903.184
	 8254652.041
	 10391991.22
	 13082741.83
	 16470196.14
	 20734748.46
	 26103501.74
	 32862361.68
	 41371262.21
	 52083333.31
	 58888017.66
	 65724723.36
	 82742524.42
	 104166666.6
	 127625925.2
	 156249999.9
	 181096072.2
	 208333333.2
	 260416666.6
	 312499999.9
	 364583333.2
	 416666666.5
	 468749999.8
	 520833333.1
	 572916666.4
	 624999999.8
	 677083333.1
	 729166666.4
	 781249999.7
	 833333333
	 885416666.3
	 937499999.6
	 989583332.9
	 1041666666
	 1093750000
	 1145833333
	 1197916666
	 1250000000
	 1302083333
	 1354166666
	 1406249999
	 1458333333
	 1510416666
	 1562499999
	 1614583333
	 1666666666
	 1770833333
	 1874999999
	 1979166666
	 2083333333
	 2187499999
	 2291666666
	 2395833333
	 2500000000
	 2604166666
	 2708333333
	 2812500000
	 2916666666
	 3020833333
	 3125000000
	 3229166666
	 3333333333
	 3437500000
	 3541666666
	 3645833333
	 3750000000
	 3854166666
	 3958333333
	 4062500000
	 4166666666
	 4270833333
	 4375000000
	 4479166667
	 4583333333
	 4687500000
	 4791666667
	 4895833333
	 5000000000
	 5104166667
	 5208333333
	 5312500000
	 5416666667
	 5520833333
	 5625000000
	 5729166667
	 5833333334
	 5937500000
	 6041666667
	 6145833334
	 6250000000
	 6354166667
	 6458333334
	 6562500000
	 6666666667
	 6770833334
	 6875000000
	 6979166667
	 7083333334
	 7187500000
	 7291666667
	 7395833334
	 7500000000
	 7604166667
	 7708333334
	 7812500001
	 7916666667
	 8020833334
	 8125000001
	 8229166667
	 8333333334
	 8437500001
	 8541666667
	 8645833334
	 8750000000
	 8854166667
	 8958333334
	 9062500000
	 9166666667
	 9270833334
	 9375000000
	 9479166667
	 9583333334
	 9687500000
	 9791666667
	 9895833333
	 1e+10
VAR_LIST_END

BEGIN
	 1 ,	 -0 
	 0.999999999999999555910790149937 ,	 -2.22839557917353658922365866601e-09 
	 0.999999999999999555910790149937 ,	 -2.22839553476461560421739704907e-08 
	 0.999999999999972244424384371086 ,	 -2.22839552449505262643469905015e-07 
	 0.999999999997293942399778643448 ,	 -2.2283955243562747483565544826e-06 
	 0.99999999999571209663429272041 ,	 -2.80538375299621556280271761352e-06 
	 0.99999999999320499100008419191 ,	 -3.53176889658635140278875041986e-06 
	 0.999999999989231058705740906589 ,	 -4.44623361234297576061180734541e-06 
	 0.999999999982932985531647318567 ,	 -5.59747648129493846624882280594e-06 
	 0.999999999972950526228032686049 ,	 -7.04680538435309422595764772268e-06 
	 0.999999999957129848127124205348 ,	 -8.87140237015859867142353323288e-06 
	 0.999999999932056571338989670039 ,	 -1.11684338817419348544035528903e-05 
	 0.999999999892317248395556816831 ,	 -1.40602252233779090317966620205e-05 
	 0.99999999982933540643159631145 ,	 -1.77007748285717969594088572194e-05 
	 0.999999999729515476332153411931 ,	 -2.22839552386222550239835982211e-05 
	 0.999999999571310915769117855234 ,	 -2.80538375221905944556510803523e-05 
	 0.999999999320573484951069076487 ,	 -3.53176889490991463560476404382e-05 
	 0.999999998923182920051999644784 ,	 -4.44623360920659571604574011872e-05 
	 0.999999998293359837475691165309 ,	 -5.59747647502772949223981413525e-05 
	 0.999999997295158093990607994783 ,	 -7.04680537158830500032991039916e-05 
	 0.999999995713115374940116453217 ,	 -8.87140234478722700117714339285e-05 
	 0.999999993205745507651727166376 ,	 -0.000111684338312073583310279900616 
	 0.999999989231833197322885098401 ,	 -0.000140602251223448382333458539506 
	 0.999999982933607700630318504409 ,	 -0.000177007746268165178094022849109 
	 0.999999972951590487824091724178 ,	 -0.000222839548360442840646555850981 
	 0.999999957131161298917731983238 ,	 -0.000280538367188609694125034366152 
	 0.999999932057474394397900141485 ,	 -0.000353176873461119589237000582216 
	 0.999999892318362837428935563366 ,	 -0.000444623328934773409670810906391 
	 0.999999829336129408829947351478 ,	 -0.000559747583681963201129860863148 
	 0.999999729516050095412538212258 ,	 -0.000704680409819552489025795694033 
	 0.999999571311970036902039282722 ,	 -0.000887139980404266781377486950078 
	 0.999999320575614136785702612542 ,	 -0.00111684287617663802194556410541 
	 0.999998923185808408220509591047 ,	 -0.00140602150075178067289982664079 
	 0.999998293366756829669839135022 ,	 -0.00177007544452201237561439484125 
	 0.999997295174211098256478180701 ,	 -0.00222839145688055739746857852879 
	 0.999995713154137710887425782857 ,	 -0.00280537563762911501541452707897 
	 0.999993205842636623259522821172 ,	 -0.00353175270451683287475930228538 
	 0.999989232075306544444970313634 ,	 -0.00444620130623152309823353789398 
	 0.999982934213128782374724323745 ,	 -0.00559741202567776152676515266648 
	 0.999972953112251206064797770523 ,	 -0.0070466767894926396476051877471 
	 0.999957134982029538505798882397 ,	 -0.00887114582538986451432094781921 
	 0.999932067064965179881141921214 ,	 -0.0111679221202397038759102088079 
	 0.999892342436729641974579863017 ,	 -0.0140592044801311488733119858807 
	 0.9998623824336470011786559553 ,	 -0.0158957178149353728358050830138 
	 0.999828585678037340400692301046 ,	 -0.0177407546900368306985740218806 
	 0.999728382943554150230625054974 ,	 -0.022332780954426562081138740723 
	 0.999569656888812829720336594619 ,	 -0.028112307454312979171362485431 
	 0.99935428161951400660711897217 ,	 -0.0344384769502378285110921751766 
	 0.999032789865533121798080173903 ,	 -0.0421533202203490386938966594244 
	 0.998701600912943465715443380759 ,	 -0.0488455601250719351202889129127 
	 0.998283104110198049596647251747 ,	 -0.0561764706496773735810990046957 
	 0.997322411820206311539038779301 ,	 -0.0701762901283611573166609787222 
	 0.996152890982609062753283524216 ,	 -0.0841476780975821680996773466177 
	 0.994776992712307461808052266861 ,	 -0.0980859413936883695050994447229 
	 0.993197347472346447894153698144 ,	 -0.111986808407038701540514580302 
	 0.991416677072604168863279028301 ,	 -0.125846420502294442655966122402 
	 0.98943,	-0.13966
	 0.98726,	-0.15342
	 0.98489,	-0.16714
	 0.98233,	-0.1808
	 0.97959,	-0.19441
	 0.97665,	-0.20796
	 0.97354,	-0.22145
	 0.97024,	-0.23488
	 0.96676,	-0.24824
	 0.9631,	-0.26154
	 0.95927,	-0.27476
	 0.95526,	-0.28792
	 0.95107,	-0.30101
	 0.94672,	-0.31402
	 0.94219,	-0.32695
	 0.93749,	-0.33981
	 0.93262,	-0.35259
	 0.92759,	-0.36528
	 0.92239,	-0.37788
	 0.91703,	-0.3904
	 0.91151,	-0.40283
	 0.90582,	-0.41517
	 0.89998,	-0.42741
	 0.88782,	-0.45161
	 0.87504,	-0.4754
	 0.86167,	-0.49877
	 0.84771,	-0.5217
	 0.83318,	-0.54419
	 0.8181,	-0.5662
	 0.80248,	-0.58774
	 0.78634,	-0.60877
	 0.76971,	-0.6293
	 0.75259,	-0.64931
	 0.73501,	-0.66878
	 0.71699,	-0.68772
	 0.69854,	-0.7061
	 0.67969,	-0.72391
	 0.66046,	-0.74116
	 0.64085,	-0.75783
	 0.6209,	-0.77392
	 0.60063,	-0.78941
	 0.58005,	-0.80431
	 0.55917,	-0.81862
	 0.53804,	-0.83232
	 0.51665,	-0.84541
	 0.49503,	-0.8579
	 0.47319,	-0.86978
	 0.45117,	-0.88105
	 0.42897,	-0.89171
	 0.40661,	-0.90176
	 0.38411,	-0.9112
	 0.36149,	-0.92003
	 0.33877,	-0.92825
	 0.31595,	-0.93587
	 0.29306,	-0.94289
	 0.27012,	-0.94931
	 0.24713,	-0.95514
	 0.22412,	-0.96037
	 0.2011,	-0.96502
	 0.17808,	-0.96909
	 0.15508,	-0.97258
	 0.13211,	-0.9755
	 0.10918,	-0.97785
	 0.08632,	-0.97963
	 0.063523,	-0.98087
	 0.040808,	-0.98155
	 0.018189,	-0.98169
	-0.0043238,	-0.98129
	-0.026719,	-0.98036
	-0.048985,	-0.97891
	-0.071113,	-0.97694
	-0.09309,	-0.97446
	-0.1149,	-0.97148
	-0.13655,	-0.968
	-0.15802,	-0.96403
	-0.1793,	-0.95958
	-0.20039,	-0.95466
	-0.22127,	-0.94927
	-0.24194,	-0.94342
	-0.26238,	-0.93712
	-0.2826,	-0.93038
	-0.30258,	-0.9232
	-0.32232,	-0.9156
	-0.3418,	-0.90757
	-0.36103,	-0.89913
	-0.38,	-0.89029
	-0.39869,	-0.88105
	-0.41711,	-0.87142
	-0.43525,	-0.86142
	-0.45309,	-0.85104
	-0.47065,	-0.84031
	-0.4879,	-0.82922
	-0.50485,	-0.81778
	-0.5215,	-0.80601
	-0.53782,	-0.79391
	-0.55384,	-0.78149
	-0.56952,	-0.76876
	-0.58489,	-0.75573
	-0.59992,	-0.74241
	-0.61461,	-0.72881
	-0.62897,	-0.71493
	-0.64298,	-0.7008
	-0.65665,	-0.68641
END
BEGIN
	 -2.04494405999999998804241616208e-17 ,	 0 
	 8.23993650999999982996250437794e-17 ,	 4.23809888999999988991561068307e-11 
	 7.71995314999999977359132826247e-15 ,	 4.23809913000000002845926270293e-10 
	 7.71524337000000023923271322813e-13 ,	 4.23809899999999975954432845839e-09 
	 7.71515017999999943514515602687e-11 ,	 4.2380850600000002789564257236e-08 
	 1.2227664699999999989126842248e-10 ,	 5.3354226099999996811276876691e-08 
	 1.93794821999999989033082042662e-10 ,	 6.71687841999999981811429630545e-08 
	 3.0714258900000000041839770552e-10 ,	 8.45600766000000053818446668803e-08 
	 4.86784416999999956589117232033e-10 ,	 1.06454006000000003431189593735e-07 
	 7.7149182499999995145085777081e-10 ,	 1.34016010000000010237423313589e-07 
	 1.22270831999999997052922985635e-09 ,	 1.68712882000000005437918056822e-07 
	 1.93780227000000004966900746923e-09 ,	 2.12390394000000011100979255621e-07 
	 3.07105935999999998353043939375e-09 ,	 2.67370614999999998810404494565e-07 
	 4.86692366999999999284484363785e-09 ,	 3.3657362799999998080485740827e-07 
	 7.71260641999999925656467911509e-09 ,	 4.23669160000000004831347856504e-07 
	 1.22212775e-08 ,	 5.33264283e-07 
	 1.93634443e-08 ,	 6.71133376e-07 
	 3.06739942e-08 ,	 8.44495006e-07 
	 4.85773815e-08 ,	 1.0623355e-06 
	 7.68956454e-08 ,	 1.33576687e-06 
	 1.21635223e-07 ,	 1.67838034e-06 
	 1.92188587e-07 ,	 2.1065024e-06 
	 3.0312742e-07 ,	 2.63915486e-06 
	 4.76775464e-07 ,	 3.29732633e-06 
	 7.46649837e-07 ,	 4.10183599e-06 
	 1.16146388e-06 ,	 5.06860067e-06 
	 1.78835074e-06 ,	 6.19966793e-06 
	 2.71189043e-06 ,	 7.46862644e-06 
	 4.02261418e-06 ,	 8.80158243e-06 
	 5.78757738e-06 ,	 1.0061945e-05 
	 8.00316247e-06 ,	 1.10575032e-05 
	 1.05518689e-05 ,	 1.15893195e-05 
	 1.32052668e-05 ,	 1.1534616e-05 
	 1.5695504e-05 ,	 1.09110314e-05 
	 1.78151546e-05 ,	 9.86732761e-06 
	 1.94743792e-05 ,	 8.60907458e-06 
	 2.06898772e-05 ,	 7.32034342e-06 
	 2.15374668e-05 ,	 6.12515536e-06 
	 2.21079221e-05 ,	 5.08753048e-06 
	 2.24819993e-05 ,	 4.22894454e-06 
	 2.27219058e-05 ,	 3.54688853e-06 
	 2.28715799e-05 ,	 3.02832179e-06 
	 2.29600737e-05 ,	 2.65773138e-06 
	 2.29887528e-05 ,	 2.51571379e-06 
	 2.30054172e-05 ,	 2.41958164e-06 
	 2.30158603e-05 ,	 2.30857152e-06 
	 2.29939601e-05 ,	 2.31582309e-06 
	 2.29438495e-05 ,	 2.41889308e-06 
	 2.28560854e-05 ,	 2.61235494e-06 
	 2.2759506e-05 ,	 2.81126455e-06 
	 2.26330379e-05 ,	 3.04525646e-06 
	 2.23313656e-05 ,	 3.5050294e-06 
	 2.19479079e-05 ,	 3.94891035e-06 
	 2.14763956e-05 ,	 4.35360364e-06 
	 2.09087272e-05 ,	 4.70347037e-06 
	 2.02353294e-05 ,	 4.98663981e-06 
	 1.94452932e-05 ,	 5.19350451e-06 
	 1.85264427e-05 ,	 5.31608399e-06 
	 1.74653821e-05 ,	 5.34775171e-06 
	 1.62475354e-05 ,	 5.28313026e-06 
	 1.48571858e-05 ,	 5.11807149e-06 
	 1.32775183e-05 ,	 4.84968253e-06 
	 1.14906645e-05 ,	 4.47637799e-06 
	 9.4777541e-06 ,	 3.99794799e-06 
	 7.21897026e-06 ,	 3.41563606e-06 
	 4.69361237e-06 ,	 2.73222339e-06 
	 1.88016484e-06 ,	 1.95211708e-06 
	 -1.24362669e-06 ,	 1.08144079e-06 
	 -4.70067154e-06 ,	 1.28126644e-07 
	 -8.51444196e-06 ,	 -8.97992647e-07 
	 -1.27088726e-05 ,	 -1.98509242e-06 
	 -1.73082509e-05 ,	 -3.11926626e-06 
	 -2.23370982e-05 ,	 -4.28443869e-06 
	 -2.78200411e-05 ,	 -5.46228121e-06 
	 -3.37816731e-05 ,	 -6.63213279e-06 
	 -4.02464058e-05 ,	 -7.77092566e-06 
	 -4.72383099e-05 ,	 -8.85311757e-06 
	 -5.47809463e-05 ,	 -9.85063162e-06 
	 -6.28971863e-05 ,	 -1.07328049e-05 
	 -8.09373707e-05 ,	 -1.20153105e-05 
	 -0.000101520615 ,	 -1.24023307e-05 
	 -0.000124784565 ,	 -1.15528259e-05 
	 -0.000150835486 ,	 -9.08367752e-06 
	 -0.000179740628 ,	 -4.5714806e-06 
	 -0.000211520418 ,	 2.44438103e-06 
	 -0.000246140709 ,	 1.2457261e-05 
	 -0.00028350534 ,	 2.59873027e-05 
	 -0.000323449321 ,	 4.35739991e-05 
	 -0.000365732961 ,	 6.57673108e-05 
	 -0.00041003726 ,	 9.31174683e-05 
	 -0.000455960881 ,	 0.000126163669 
	 -0.000503018972 ,	 0.00016542196 
	 -0.00055064403 ,	 0.000211372668 
	 -0.000598188953 ,	 0.000264447794 
	 -0.000644932282 ,	 0.000325018837 
	 -0.000690085543 ,	 0.000393385492 
	 -0.0007328025 ,	 0.000469765667 
	 -0.000772189991 ,	 0.0005542872 
	 -0.000807319966 ,	 0.000646981559 
	 -0.000837242255 ,	 0.000747779738 
	 -0.00086099759 ,	 0.000856510384 
	 -0.000877630387 ,	 0.000972900137 
	 -0.000886200834 ,	 0.00109657598 
	 -0.000885795916 ,	 0.00122706938 
	 -0.000875539063 ,	 0.00136382174 
	 -0.000854598243 ,	 0.00150619101 
	 -0.000822192405 ,	 0.00165345874 
	 -0.000777596299 ,	 0.0018048374 
	 -0.000720143785 ,	 0.00195947748 
	 -0.000649229821 ,	 0.00211647409 
	 -0.000564311396 ,	 0.00227487273 
	 -0.000464907695 ,	 0.0024336742 
	 -0.000350599812 ,	 0.0025918384 
	 -0.000221030345 ,	 0.00274828705 
	 -7.59031562e-05 ,	 0.00290190542 
	 8.50163821e-05 ,	 0.00305154309 
	 0.000261900435 ,	 0.00319601399 
	 0.000454856811 ,	 0.00333409586 
	 0.000663925961 ,	 0.00346452941 
	 0.000889076753 ,	 0.00358601752 
	 0.00113020094 ,	 0.00369722462 
	 0.0013871063 ,	 0.00379677676 
	 0.00165950852 ,	 0.00388326263 
	 0.00194702186 ,	 0.0039552358 
	 0.00224914885 ,	 0.00401121873 
	 0.00256526911 ,	 0.00404970861 
	 0.00289462785 ,	 0.00406918565 
	 0.00323632417 ,	 0.00406812385 
	 0.00358929982 ,	 0.00404500463 
	 0.00395232892 ,	 0.00399833343 
	 0.0043240093 ,	 0.00392665938 
	 0.00470275609 ,	 0.0038285979 
	 0.00508679836 ,	 0.00370285616 
	 0.00547417958 ,	 0.00354826087 
	 0.00586276262 ,	 0.00336378804 
	 0.00625023983 ,	 0.00314859372 
	 0.00663414903 ,	 0.00290204503 
	 0.00701189546 ,	 0.00262375005 
	 0.00738078004 ,	 0.00231358564 
	 0.00773803368 ,	 0.00197172143 
	 0.00808085719 ,	 0.00159863897 
	 0.00840646596 ,	 0.00119514429 
	 0.00871213823 ,	 0.000762373084 
	 0.00899526537 ,	 0.000301787225 
	 0.0092534026 ,	 -0.000184837748 
	 0.0094843,	-0.00069543
	 0.009686,	-0.0012277
	 0.0098569,	-0.001779
	 0.0099955,	-0.0023467
	 0.010101,	-0.0029279
	 0.010173,	-0.0035197
	 0.01021,	-0.0041192
	 0.010214,	-0.0047235
	 0.010184,	-0.0053297
	 0.010121,	-0.0059353
	 0.010027,	-0.0065378
	 0.0099033,	-0.0071349
	 0.0097506,	-0.0077246
	 0.0095712,	-0.0083053
END
BEGIN
	 -2.04494405999999998804241616208e-17 ,	 0 
	 8.23993650999999982996250437794e-17 ,	 4.23809888999999988991561068307e-11 
	 7.71995314999999977359132826247e-15 ,	 4.23809913000000002845926270293e-10 
	 7.71524337000000023923271322813e-13 ,	 4.23809899999999975954432845839e-09 
	 7.71515017999999943514515602687e-11 ,	 4.2380850600000002789564257236e-08 
	 1.2227664699999999989126842248e-10 ,	 5.3354226099999996811276876691e-08 
	 1.93794821999999989033082042662e-10 ,	 6.71687841999999981811429630545e-08 
	 3.0714258900000000041839770552e-10 ,	 8.45600766000000053818446668803e-08 
	 4.86784416999999956589117232033e-10 ,	 1.06454006000000003431189593735e-07 
	 7.7149182499999995145085777081e-10 ,	 1.34016010000000010237423313589e-07 
	 1.22270831999999997052922985635e-09 ,	 1.68712882000000005437918056822e-07 
	 1.93780227000000004966900746923e-09 ,	 2.12390394000000011100979255621e-07 
	 3.07105935999999998353043939375e-09 ,	 2.67370614999999998810404494565e-07 
	 4.86692366999999999284484363785e-09 ,	 3.3657362799999998080485740827e-07 
	 7.71260641999999925656467911509e-09 ,	 4.23669160000000004831347856504e-07 
	 1.22212775e-08 ,	 5.33264283e-07 
	 1.93634443e-08 ,	 6.71133376e-07 
	 3.06739942e-08 ,	 8.44495006e-07 
	 4.85773815e-08 ,	 1.0623355e-06 
	 7.68956454e-08 ,	 1.33576687e-06 
	 1.21635223e-07 ,	 1.67838034e-06 
	 1.92188587e-07 ,	 2.1065024e-06 
	 3.0312742e-07 ,	 2.63915486e-06 
	 4.76775464e-07 ,	 3.29732633e-06 
	 7.46649837e-07 ,	 4.10183599e-06 
	 1.16146388e-06 ,	 5.06860067e-06 
	 1.78835074e-06 ,	 6.19966793e-06 
	 2.71189043e-06 ,	 7.46862644e-06 
	 4.02261418e-06 ,	 8.80158243e-06 
	 5.78757738e-06 ,	 1.0061945e-05 
	 8.00316247e-06 ,	 1.10575032e-05 
	 1.05518689e-05 ,	 1.15893195e-05 
	 1.32052668e-05 ,	 1.1534616e-05 
	 1.5695504e-05 ,	 1.09110314e-05 
	 1.78151546e-05 ,	 9.86732761e-06 
	 1.94743792e-05 ,	 8.60907458e-06 
	 2.06898772e-05 ,	 7.32034342e-06 
	 2.15374668e-05 ,	 6.12515536e-06 
	 2.21079221e-05 ,	 5.08753048e-06 
	 2.24819993e-05 ,	 4.22894454e-06 
	 2.27219058e-05 ,	 3.54688853e-06 
	 2.28715799e-05 ,	 3.02832179e-06 
	 2.29600737e-05 ,	 2.65773138e-06 
	 2.29887528e-05 ,	 2.51571379e-06 
	 2.30054172e-05 ,	 2.41958164e-06 
	 2.30158603e-05 ,	 2.30857152e-06 
	 2.29939601e-05 ,	 2.31582309e-06 
	 2.29438495e-05 ,	 2.41889308e-06 
	 2.28560854e-05 ,	 2.61235494e-06 
	 2.2759506e-05 ,	 2.81126455e-06 
	 2.26330379e-05 ,	 3.04525646e-06 
	 2.23313656e-05 ,	 3.5050294e-06 
	 2.19479079e-05 ,	 3.94891035e-06 
	 2.14763956e-05 ,	 4.35360364e-06 
	 2.09087272e-05 ,	 4.70347037e-06 
	 2.02353294e-05 ,	 4.98663981e-06 
	 1.94452932e-05 ,	 5.19350451e-06 
	 1.85264427e-05 ,	 5.31608399e-06 
	 1.74653821e-05 ,	 5.34775171e-06 
	 1.62475354e-05 ,	 5.28313026e-06 
	 1.48571858e-05 ,	 5.11807149e-06 
	 1.32775183e-05 ,	 4.84968253e-06 
	 1.14906645e-05 ,	 4.47637799e-06 
	 9.4777541e-06 ,	 3.99794799e-06 
	 7.21897026e-06 ,	 3.41563606e-06 
	 4.69361237e-06 ,	 2.73222339e-06 
	 1.88016484e-06 ,	 1.95211708e-06 
	 -1.24362669e-06 ,	 1.08144079e-06 
	 -4.70067154e-06 ,	 1.28126644e-07 
	 -8.51444196e-06 ,	 -8.97992647e-07 
	 -1.27088726e-05 ,	 -1.98509242e-06 
	 -1.73082509e-05 ,	 -3.11926626e-06 
	 -2.23370982e-05 ,	 -4.28443869e-06 
	 -2.78200411e-05 ,	 -5.46228121e-06 
	 -3.37816731e-05 ,	 -6.63213279e-06 
	 -4.02464058e-05 ,	 -7.77092566e-06 
	 -4.72383099e-05 ,	 -8.85311757e-06 
	 -5.47809463e-05 ,	 -9.85063162e-06 
	 -6.28971863e-05 ,	 -1.07328049e-05 
	 -8.09373707e-05 ,	 -1.20153105e-05 
	 -0.000101520615 ,	 -1.24023307e-05 
	 -0.000124784565 ,	 -1.15528259e-05 
	 -0.000150835486 ,	 -9.08367752e-06 
	 -0.000179740628 ,	 -4.5714806e-06 
	 -0.000211520418 ,	 2.44438103e-06 
	 -0.000246140709 ,	 1.2457261e-05 
	 -0.00028350534 ,	 2.59873027e-05 
	 -0.000323449321 ,	 4.35739991e-05 
	 -0.000365732961 ,	 6.57673108e-05 
	 -0.00041003726 ,	 9.31174683e-05 
	 -0.000455960881 ,	 0.000126163669 
	 -0.000503018972 ,	 0.00016542196 
	 -0.00055064403 ,	 0.000211372668 
	 -0.000598188953 ,	 0.000264447794 
	 -0.000644932282 ,	 0.000325018837 
	 -0.000690085543 ,	 0.000393385492 
	 -0.0007328025 ,	 0.000469765667 
	 -0.000772189991 ,	 0.0005542872 
	 -0.000807319966 ,	 0.000646981559 
	 -0.000837242255 ,	 0.000747779738 
	 -0.00086099759 ,	 0.000856510384 
	 -0.000877630387 ,	 0.000972900137 
	 -0.000886200834 ,	 0.00109657598 
	 -0.000885795916 ,	 0.00122706938 
	 -0.000875539063 ,	 0.00136382174 
	 -0.000854598243 ,	 0.00150619101 
	 -0.000822192405 ,	 0.00165345874 
	 -0.000777596299 ,	 0.0018048374 
	 -0.000720143785 ,	 0.00195947748 
	 -0.000649229821 ,	 0.00211647409 
	 -0.000564311396 ,	 0.00227487273 
	 -0.000464907695 ,	 0.0024336742 
	 -0.000350599812 ,	 0.0025918384 
	 -0.000221030345 ,	 0.00274828705 
	 -7.59031562e-05 ,	 0.00290190542 
	 8.50163821e-05 ,	 0.00305154309 
	 0.000261900435 ,	 0.00319601399 
	 0.000454856811 ,	 0.00333409586 
	 0.000663925961 ,	 0.00346452941 
	 0.000889076753 ,	 0.00358601752 
	 0.00113020094 ,	 0.00369722462 
	 0.0013871063 ,	 0.00379677676 
	 0.00165950852 ,	 0.00388326263 
	 0.00194702186 ,	 0.0039552358 
	 0.00224914885 ,	 0.00401121873 
	 0.00256526911 ,	 0.00404970861 
	 0.00289462785 ,	 0.00406918565 
