CITIFILE A.01.01
#Momentum: B.12.070 (*) built: Feb 13 2020 
#Momentum Date and Time: Tue Aug 16 14:10:05 2022

NAME Momentum.SP

#  mode: MW    reference: S_50

#eesof Port[1] P1
#eesof Port[2] P2

CONSTANT NBR_OF_PORTS 2

CONSTANT NORMALIZATION 1

VAR freq MAG 442

DATA S[1,1] RI
DATA S[1,2] RI
DATA S[2,1] RI
DATA S[2,2] RI
DATA PORTZ[1] RI
DATA PORTZ[2] RI

VAR_LIST_BEGIN
	 0
	 8.701167245
	 87.01167245
	 870.1167245
	 8701.167245
	 10954.12056
	 13790.42073
	 17361.1111
	 21856.34394
	 27515.5068
	 34639.97072
	 43609.13941
	 54900.65379
	 69115.82818
	 87011.67245
	 109541.2056
	 137904.2073
	 173611.111
	 218563.4394
	 275155.068
	 346399.7072
	 436091.3941
	 549006.5379
	 691158.2818
	 870116.7245
	 1095412.056
	 1379042.073
	 1736111.11
	 2185634.394
	 2751550.68
	 3463997.072
	 4360913.941
	 5490065.379
	 6911582.818
	 8701167.245
	 10954120.56
	 13790420.73
	 17361111.1
	 19629339.22
	 21908241.11
	 27580841.47
	 34722222.2
	 42541975.04
	 52083333.3
	 60365357.38
	 69444444.4
	 86805555.5
	 104166666.6
	 121527777.7
	 138888888.8
	 153356481.4
	 167824074
	 182291666.6
	 196759259.2
	 211226851.7
	 225694444.3
	 240162036.9
	 254629629.5
	 283564814.7
	 312499999.9
	 341435185
	 370370370.2
	 399305555.4
	 428240740.5
	 457175925.7
	 486111110.9
	 500578703.5
	 515046296.1
	 529513888.7
	 543981481.2
	 558449073.8
	 572916666.4
	 587384259
	 601851851.6
	 616319444.2
	 630787036.8
	 645254629.4
	 659722222
	 674189814.5
	 688657407.1
	 703124999.7
	 717592592.3
	 732060184.9
	 746527777.5
	 760995370.1
	 775462962.6
	 789930555.2
	 804398147.8
	 818865740.4
	 833333333
	 859374999.7
	 885416666.3
	 911458333
	 937499999.6
	 963541666.3
	 989583332.9
	 1015625000
	 1041666666
	 1067708333
	 1093750000
	 1119791666
	 1145833333
	 1171875000
	 1197916666
	 1223958333
	 1250000000
	 1276041666
	 1302083333
	 1328124999
	 1354166666
	 1380208333
	 1406249999
	 1432291666
	 1458333333
	 1484374999
	 1510416666
	 1536458333
	 1562499999
	 1588541666
	 1614583333
	 1640624999
	 1666666666
	 1689814814
	 1712962962
	 1736111110
	 1759259259
	 1782407407
	 1805555555
	 1828703703
	 1851851851
	 1874999999
	 1898148148
	 1921296296
	 1944444444
	 1967592592
	 1990740740
	 2013888888
	 2037037036
	 2048611111
	 2060185185
	 2071759259
	 2083333333
	 2094907407
	 2106481481
	 2118055555
	 2129629629
	 2141203703
	 2152777777
	 2164351851
	 2175925925
	 2187500000
	 2199074074
	 2210648148
	 2222222222
	 2233796296
	 2245370370
	 2256944444
	 2268518518
	 2280092592
	 2291666666
	 2303240740
	 2314814814
	 2326388888
	 2337962963
	 2349537037
	 2361111111
	 2372685185
	 2384259259
	 2395833333
	 2407407407
	 2418981481
	 2430555555
	 2442129629
	 2453703703
	 2465277777
	 2476851851
	 2488425925
	 2500000000
	 2523148148
	 2546296296
	 2569444444
	 2592592592
	 2604166666
	 2615740740
	 2627314814
	 2638888888
	 2650462962
	 2662037036
	 2673611110
	 2685185184
	 2708333333
	 2731481481
	 2754629629
	 2777777777
	 2795138888
	 2812499999
	 2829861110
	 2847222222
	 2864583333
	 2881944444
	 2899305555
	 2916666666
	 2934027777
	 2951388888
	 2968749999
	 2986111110
	 3003472222
	 3020833333
	 3038194444
	 3055555555
	 3072916666
	 3090277777
	 3107638888
	 3125000000
	 3142361111
	 3159722222
	 3177083333
	 3194444444
	 3229166666
	 3263888888
	 3298611111
	 3333333333
	 3356481481
	 3379629629
	 3402777778
	 3425925926
	 3449074074
	 3472222222
	 3495370370
	 3518518518
	 3541666667
	 3564814815
	 3587962963
	 3611111111
	 3634259259
	 3657407408
	 3680555556
	 3703703704
	 3726851852
	 3750000000
	 3773148148
	 3796296296
	 3819444445
	 3842592593
	 3865740741
	 3888888889
	 3935185185
	 3981481482
	 4027777778
	 4074074074
	 4097222222
	 4120370370
	 4143518518
	 4166666667
	 4189814815
	 4212962963
	 4236111111
	 4259259259
	 4305555556
	 4351851852
	 4398148148
	 4444444444
	 4490740741
	 4537037037
	 4583333333
	 4629629630
	 4675925926
	 4722222222
	 4768518519
	 4814814815
	 4861111111
	 4907407408
	 4953703704
	 5000000000
	 5046296297
	 5092592593
	 5138888889
	 5185185186
	 5231481482
	 5277777778
	 5324074074
	 5370370371
	 5416666667
	 5462962963
	 5509259260
	 5555555556
	 5625000000
	 5694444445
	 5763888889
	 5833333334
	 5902777778
	 5972222223
	 6041666667
	 6111111112
	 6145833334
	 6180555556
	 6215277778
	 6250000000
	 6284722223
	 6319444445
	 6354166667
	 6388888889
	 6423611111
	 6458333334
	 6493055556
	 6527777778
	 6545138889
	 6562500000
	 6579861111
	 6597222223
	 6614583334
	 6631944445
	 6649305556
	 6666666667
	 6689814815
	 6712962963
	 6736111112
	 6759259260
	 6770833334
	 6782407408
	 6793981482
	 6805555556
	 6817129630
	 6828703704
	 6840277778
	 6851851852
	 6863425927
	 6875000001
	 6886574075
	 6898148149
	 6909722223
	 6921296297
	 6932870371
	 6944444445
	 6956018519
	 6967592593
	 6979166668
	 6990740742
	 7002314816
	 7013888890
	 7025462964
	 7037037038
	 7042824075
	 7048611112
	 7054398149
	 7060185186
	 7065972223
	 7071759260
	 7077546297
	 7083333334
	 7089120371
	 7094907408
	 7100694445
	 7106481482
	 7112268519
	 7118055556
	 7123842593
	 7129629630
	 7141203705
	 7152777779
	 7164351853
	 7175925927
	 7187500001
	 7199074075
	 7210648149
	 7222222223
	 7230902779
	 7239583334
	 7248263890
	 7256944445
	 7265625001
	 7274305556
	 7282986112
	 7291666667
	 7309027779
	 7326388890
	 7343750001
	 7361111112
	 7378472223
	 7395833334
	 7413194445
	 7430555556
	 7447916667
	 7465277779
	 7482638890
	 7500000001
	 7517361112
	 7534722223
	 7552083334
	 7569444445
	 7586805556
	 7604166667
	 7621527779
	 7638888890
	 7673611112
	 7708333334
	 7743055556
	 7777777778
	 7812500001
	 7847222223
	 7881944445
	 7916666667
	 7951388890
	 7986111112
	 8020833334
	 8055555556
	 8125000001
	 8194444445
	 8263888890
	 8333333334
	 8402777778
	 8472222223
	 8541666668
	 8611111112
	 8680555556
	 8750000001
	 8819444445
	 8888888890
	 8958333334
	 9027777778
	 9097222223
	 9166666667
	 9236111111
	 9305555556
	 9375000000
	 9444444444
	 9479166667
	 9513888889
	 9548611111
	 9583333333
	 9618055555
	 9652777778
	 9687500000
	 9722222222
	 9756944444
	 9791666666
	 9826388889
	 9861111111
	 9895833333
	 9930555556
	 9965277778
	 1e+10
VAR_LIST_END

BEGIN
	 5.89199728000000012839709739865e-05 ,	 -0 
	 5.89199728000000012839709739865e-05 ,	 -2.97684378999999995708842986182e-09 
	 5.89199728000000012839709739865e-05 ,	 -2.97684373999999994114986609549e-08 
	 5.89199724000000015270393782796e-05 ,	 -2.97684371999999980242554258048e-07 
	 5.89199326000000019954230823238e-05 ,	 -2.97684370999999997790884213866e-06 
	 5.89199091000000010290987839667e-05 ,	 -3.74762420000000003213191934748e-06 
	 5.89198717999999982842390666704e-05 ,	 -4.71797932999999974532871066524e-06 
	 5.89198127999999968673790207152e-05 ,	 -5.93958407999999969792328385898e-06 
	 5.89197191999999995352770010282e-05 ,	 -7.47749333000000013872742357646e-06 
	 5.89195708999999998673954837436e-05 ,	 -9.41360635999999931504845368524e-06 
	 5.89193357999999987352490737891e-05 ,	 -1.18510283000000002883150135302e-05 
	 5.89189633000000031700683911229e-05 ,	 -1.49195606000000004941934486635e-05 
	 5.89183727999999977756329094802e-05 ,	 -1.87826140000000003460554204304e-05 
	 5.8917437000000000616155987343e-05 ,	 -2.36459100000000007506858329398e-05 
	 5.89159538999999989159102320446e-05 ,	 -2.97684367999999991143567773522e-05 
	 5.89136032e-05 ,	 -3.74762413e-05 
	 5.89098777e-05 ,	 -4.71797921e-05 
	 5.89039731e-05 ,	 -5.93958382e-05 
	 5.8894615e-05 ,	 -7.47749282e-05 
	 5.88797834e-05 ,	 -9.41360536e-05 
	 5.88562769e-05 ,	 -0.000118510263 
	 5.88190215e-05 ,	 -0.000149195566 
	 5.87599758e-05 ,	 -0.00018782606 
	 5.86663948e-05 ,	 -0.00023645894 
	 5.85180788e-05 ,	 -0.00029768405 
	 5.82830139e-05 ,	 -0.000374761779 
	 5.79104615e-05 ,	 -0.000471796655 
	 5.73200065e-05 ,	 -0.000593955857 
	 5.63842003e-05 ,	 -0.000747744245 
	 5.49010524e-05 ,	 -0.000941350484 
	 5.25504336e-05 ,	 -0.00118508257 
	 4.88249848e-05 ,	 -0.00149191565 
	 4.2920624e-05 ,	 -0.00187818076 
	 3.35630376e-05 ,	 -0.0023644301 
	 1.87327522e-05 ,	 -0.00297652266 
	 -4.77043676e-06 ,	 -0.00374698364 
	 -4.20173933e-05 ,	 -0.00471670133 
	 -0.000101042088 ,	 -0.00593703435 
	 -0.000145558193 ,	 -0.00671190527 
	 -0.000195775281 ,	 -0.00749012541 
	 -0.00034466283 ,	 -0.00942573924 
	-0.00058051,	-0.011859
	-0.00090053,	-0.014517
	-0.0013782,	-0.01775
	-0.0018703,	-0.020545
	-0.0024922,	-0.023596
	-0.0039194,	-0.029381
	-0.0056564,	-0.035091
	-0.0076988,	-0.040712
	-0.010042,	-0.04623
	-0.012219,	-0.050739
	-0.014598,	-0.055159
	-0.017174,	-0.059482
	-0.019944,	-0.063702
	-0.022902,	-0.06781
	-0.026044,	-0.0718
	-0.029366,	-0.075664
	-0.032862,	-0.079394
	-0.040358,	-0.086423
	-0.048501,	-0.092822
	-0.057282,	-0.098535
	-0.066697,	-0.10355
	-0.076677,	-0.1079
	-0.087116,	-0.11154
	-0.097947,	-0.1144
	-0.10912,	-0.11644
	-0.11482,	-0.11714
	-0.12059,	-0.11761
	-0.12643,	-0.11787
	-0.13232,	-0.1179
	-0.13826,	-0.1177
	-0.14424,	-0.11726
	-0.15026,	-0.1166
	-0.1563,	-0.1157
	-0.16236,	-0.11456
	-0.16844,	-0.11318
	-0.17452,	-0.11156
	-0.1806,	-0.10969
	-0.18666,	-0.10758
	-0.19271,	-0.10523
	-0.19873,	-0.10263
	-0.20471,	-0.099785
	-0.21066,	-0.09669
	-0.21655,	-0.093347
	-0.22238,	-0.089757
	-0.22814,	-0.085918
	-0.23383,	-0.081832
	-0.23943,	-0.077499
	-0.24494,	-0.07292
	-0.25035,	-0.068095
	-0.25981,	-0.058797
	-0.26886,	-0.048716
	-0.27746,	-0.037863
	-0.28555,	-0.026251
	-0.29309,	-0.013895
	-0.30002,	-0.00081246
	-0.3063,	 0.012977
	-0.31188,	 0.02745
	-0.31669,	 0.042584
	-0.32071,	 0.05835
	-0.32386,	 0.074719
	-0.3261,	 0.091659
	-0.32739,	 0.10913
	-0.32766,	 0.1271
	-0.32687,	 0.14553
	-0.32496,	 0.16436
	-0.32189,	 0.18356
	-0.3176,	 0.20307
	-0.31204,	 0.22283
	-0.30517,	 0.24279
	-0.29692,	 0.26287
	-0.28725,	 0.28302
	-0.27611,	 0.30314
	-0.26346,	 0.32317
	-0.24923,	 0.34301
	-0.2334,	 0.36257
	-0.21591,	 0.38174
	-0.19672,	 0.40043
	-0.1758,	 0.41851
	-0.15312,	 0.43584
	-0.12863,	 0.45231
	-0.10233,	 0.46775
	-0.077412,	 0.48049
	-0.051037,	 0.49219
	-0.023209,	 0.5027
	 0.0060629,	 0.51191
	 0.036761,	 0.51966
	 0.068856,	 0.52582
	 0.1023,	 0.53021
	 0.13706,	 0.53268
	 0.17305,	 0.53306
	 0.21019,	 0.53116
	 0.24837,	 0.52681
	 0.28747,	 0.51981
	 0.32733,	 0.50998
	 0.36777,	 0.49713
	 0.40859,	 0.48106
	 0.44955,	 0.46162
	 0.46999,	 0.45057
	 0.49036,	 0.43862
	 0.51063,	 0.42573
	 0.53074,	 0.41191
	 0.55065,	 0.39713
	 0.57032,	 0.38137
	 0.58969,	 0.36463
	 0.60873,	 0.3469
	 0.62736,	 0.32817
	 0.64555,	 0.30843
	 0.66323,	 0.28769
	 0.68034,	 0.26594
	 0.69682,	 0.2432
	 0.71262,	 0.21948
	 0.72766,	 0.19477
	 0.74188,	 0.16912
	 0.75522,	 0.14253
	 0.76761,	 0.11503
	 0.77899,	 0.086668
	 0.78929,	 0.057462
	 0.79845,	 0.027463
	 0.80641,	-0.003282
	 0.81309,	-0.03472
	 0.81845,	-0.066791
	 0.82243,	-0.099432
	 0.82498,	-0.13257
	 0.82603,	-0.16613
	 0.82556,	-0.20005
	 0.82353,	-0.23422
	 0.81989,	-0.26856
	 0.81461,	-0.30299
	 0.80769,	-0.3374
	 0.7991,	-0.3717
	 0.78883,	-0.40578
	 0.77688,	-0.43954
	 0.76327,	-0.47288
	 0.748,	-0.50569
	 0.73111,	-0.53786
	 0.71262,	-0.56931
	 0.69257,	-0.59992
	 0.648,	-0.65824
	 0.59787,	-0.7121
	 0.54277,	-0.76083
	 0.48337,	-0.80387
	 0.45229,	-0.82311
	 0.42042,	-0.84077
	 0.38787,	-0.85681
	 0.35473,	-0.8712
	 0.32111,	-0.88392
	 0.28711,	-0.89496
	 0.25285,	-0.90431
	 0.21842,	-0.91198
	 0.14944,	-0.9223
	 0.080972,	-0.92608
	 0.013714,	-0.92359
	-0.051676,	-0.91517
	-0.099146,	-0.90521
	-0.14502,	-0.89233
	-0.18913,	-0.87674
	-0.23131,	-0.85865
	-0.27143,	-0.83829
	-0.30937,	-0.81588
	-0.34505,	-0.79164
	-0.37841,	-0.76578
	-0.4094,	-0.73853
	-0.43801,	-0.71008
	-0.46422,	-0.68065
	-0.48805,	-0.65042
	-0.50951,	-0.61959
	-0.52865,	-0.58831
	-0.5455,	-0.55676
	-0.56013,	-0.52508
	-0.57258,	-0.49343
	-0.58294,	-0.46193
	-0.59127,	-0.4307
	-0.59766,	-0.39987
	-0.60218,	-0.36953
	-0.60491,	-0.33978
	-0.60595,	-0.3107
	-0.60538,	-0.28238
	-0.59977,	-0.22828
	-0.58878,	-0.17795
	-0.57314,	-0.13179
	-0.55355,	-0.090075
	-0.53862,	-0.064834
	-0.52244,	-0.041702
	-0.5052,	-0.020705
	-0.48709,	-0.0018579
	-0.4683,	 0.014838
	-0.449,	 0.029394
	-0.42938,	 0.041831
	-0.40959,	 0.052181
	-0.3898,	 0.060488
	-0.37018,	 0.066804
	-0.35086,	 0.071191
	-0.33199,	 0.073721
	-0.3137,	 0.074473
	-0.29613,	 0.073534
	-0.27938,	 0.070999
	-0.26357,	 0.066969
	-0.24879,	 0.061553
	-0.23514,	 0.054864
	-0.22269,	 0.047019
	-0.21152,	 0.038141
	-0.20168,	 0.028353
	-0.19322,	 0.017784
	-0.18618,	 0.0065625
	-0.18058,	-0.0051826
	-0.17378,	-0.029728
	-0.17281,	-0.054841
	-0.17752,	-0.079553
	-0.18761,	-0.10296
	-0.19455,	-0.11393
	-0.20267,	-0.12428
	-0.2119,	-0.13392
	-0.22216,	-0.14279
	-0.23338,	-0.15081
	-0.24549,	-0.15792
	-0.25838,	-0.16407
	-0.27198,	-0.16921
	-0.30097,	-0.17633
	-0.33174,	-0.17907
	-0.36361,	-0.17732
	-0.39593,	-0.1711
	-0.42808,	-0.16049
	-0.45949,	-0.14566
	-0.48965,	-0.12685
	-0.51813,	-0.10434
	-0.54454,	-0.078454
	-0.56856,	-0.049522
	-0.58992,	-0.017909
	-0.60843,	 0.016021
	-0.62393,	 0.051903
	-0.63632,	 0.089382
	-0.64553,	 0.12811
	-0.65154,	 0.16775
	-0.65434,	 0.20801
	-0.65399,	 0.24857
	-0.65053,	 0.28916
	-0.64404,	 0.32954
	-0.63461,	 0.36945
	-0.62236,	 0.40869
	-0.60739,	 0.44705
	-0.58985,	 0.48436
	-0.56985,	 0.52045
	-0.54755,	 0.55519
	-0.52308,	 0.58843
	-0.49658,	 0.62006
	-0.45336,	 0.66428
	-0.40642,	 0.70436
	-0.35624,	 0.74007
	-0.30333,	 0.77124
	-0.24815,	 0.79773
	-0.19119,	 0.81945
	-0.13291,	 0.83636
	-0.073776,	 0.84845
	-0.044021,	 0.85268
	-0.014218,	 0.85572
	 0.015579,	 0.85758
	 0.045315,	 0.85825
	 0.074934,	 0.85775
	 0.10438,	 0.85611
	 0.1336,	 0.85332
	 0.16253,	 0.84941
	 0.19113,	 0.84441
	 0.21933,	 0.83833
	 0.24706,	 0.8312
	 0.27426,	 0.82305
	 0.28765,	 0.81861
	 0.30088,	 0.81393
	 0.31394,	 0.80902
	 0.32683,	 0.80388
	 0.33953,	 0.79853
	 0.35203,	 0.79297
	 0.36433,	 0.7872
	 0.37642,	 0.78125
	 0.39218,	 0.77305
	 0.40752,	 0.76457
	 0.4224,	 0.75586
	 0.43682,	 0.74696
	 0.44384,	 0.74246
	 0.45075,	 0.73794
	 0.45752,	 0.7334
	 0.46418,	 0.72886
	 0.4707,	 0.72433
	 0.47711,	 0.71982
	 0.48339,	 0.71534
	 0.48956,	 0.7109
	 0.49561,	 0.70652
	 0.50157,	 0.70222
	 0.50743,	 0.698
	 0.51321,	 0.69388
	 0.51892,	 0.68987
	 0.52459,	 0.686
	 0.53023,	 0.68226
	 0.53587,	 0.67867
	 0.54154,	 0.67523
	 0.54726,	 0.67195
	 0.55308,	 0.66883
	 0.55902,	 0.66584
	 0.56512,	 0.66299
	 0.57141,	 0.66025
	 0.57792,	 0.65759
	 0.58469,	 0.65498
	 0.58818,	 0.65368
	 0.59174,	 0.65237
	 0.59537,	 0.65105
	 0.59907,	 0.64972
	 0.60285,	 0.64836
	 0.6067,	 0.64698
	 0.61062,	 0.64556
	 0.61462,	 0.6441
	 0.61869,	 0.64259
	 0.62282,	 0.64102
	 0.62702,	 0.6394
	 0.63128,	 0.63771
	 0.63559,	 0.63595
	 0.63996,	 0.63411
	 0.64438,	 0.6322
	 0.64884,	 0.6302
	 0.65786,	 0.62594
	 0.66699,	 0.62132
	 0.67617,	 0.61632
	 0.68537,	 0.61094
	 0.69452,	 0.60519
	 0.70361,	 0.59908
	 0.71258,	 0.59263
	 0.72142,	 0.58584
	 0.72794,	 0.58056
	 0.73435,	 0.57512
	 0.74066,	 0.56953
	 0.74685,	 0.5638
	 0.75292,	 0.55794
	 0.75887,	 0.55197
	 0.76469,	 0.54589
	 0.77038,	 0.53972
	 0.78139,	 0.52711
	 0.79188,	 0.51421
	 0.80188,	 0.50109
	 0.8114,	 0.48777
	 0.82046,	 0.47431
	 0.82909,	 0.46074
	 0.83729,	 0.44708
	 0.84509,	 0.43336
	 0.85252,	 0.41958
	 0.85958,	 0.40577
	 0.8663,	 0.39194
	 0.87269,	 0.37809
	 0.87876,	 0.36423
	 0.88453,	 0.35037
	 0.89001,	 0.33651
	 0.89521,	 0.32266
	 0.90014,	 0.30881
	 0.9048,	 0.29497
	 0.9092,	 0.28115
	 0.91336,	 0.26734
	 0.92094,	 0.23978
	 0.92759,	 0.2123
	 0.93334,	 0.18492
	 0.93821,	 0.15764
	 0.94224,	 0.13047
	 0.94545,	 0.10344
	 0.94786,	 0.07656
	 0.94948,	 0.049828
	 0.95034,	 0.023266
	 0.95044,	-0.0031144
	 0.94982,	-0.029299
	 0.94847,	-0.055274
	 0.94367,	-0.10654
	 0.93615,	-0.15682
	 0.92603,	-0.206
	 0.91337,	-0.254
	 0.89825,	-0.30071
	 0.88065,	-0.346
	 0.86036,	-0.38951
	 0.83753,	-0.42921
	 0.81881,	-0.46692
	 0.79588,	-0.50849
	 0.76932,	-0.54709
	 0.74108,	-0.58331
	 0.71141,	-0.61749
	 0.68044,	-0.64975
	 0.64824,	-0.68011
	 0.61491,	-0.70856
	 0.58054,	-0.73509
	 0.54522,	-0.7597
	 0.50904,	-0.78237
	 0.47208,	-0.80308
	 0.45334,	-0.81271
	 0.43443,	-0.82184
	 0.41538,	-0.83048
	 0.39618,	-0.83863
	 0.37686,	-0.84628
	 0.35742,	-0.85344
	 0.33786,	-0.8601
	 0.31821,	-0.86626
	 0.29847,	-0.87193
	 0.27865,	-0.87709
	 0.25876,	-0.88176
	 0.23881,	-0.88593
	 0.21881,	-0.88959
	 0.19877,	-0.89276
	 0.1787,	-0.89542
	 0.15861,	-0.89758
END
BEGIN
	 0.999941080027135997809750733722 ,	 -0 
	 0.999941080027136663943565508816 ,	 -9.81241699005153122925548814237e-09 
	 0.99994108002712966953851037033 ,	 -9.81241710662494881489692488685e-08 
	 0.999941080026435225036607334914 ,	 -9.81241711384139847496044239961e-07 
	 0.999941079957052170179565564467 ,	 -9.81241711242586411856336781057e-06 
	 0.99994107991605929441902844701 ,	 -1.23531012523742100839285740221e-05 
	 0.999941079851091929597828311671 ,	 -1.55516330786614753733942961844e-05 
	 0.999941079748124184156665705814 ,	 -1.95783460721632440737494107452e-05 
	 0.99994107958493139154398932078 ,	 -2.46476773802656312639669522468e-05 
	 0.999941079326288728701399577403 ,	 -3.1029587374123424048377728468e-05 
	 0.999941078916367631634898316406 ,	 -3.90639360194899865064144250937e-05 
	 0.999941078266686989017841824534 ,	 -4.91785816532919195509521159693e-05 
	 0.999941077237010644829240391118 ,	 -6.1912165987415557211193117837e-05 
	 0.999941075605085827326945491222 ,	 -7.79427987176867231866594920575e-05 
	 0.999941073018658976856443132419 ,	 -9.81241692875750581848137699126e-05 
	 0.999941068919450115615177310247 ,	 -0.000123531008861102464813086498907 
	 0.999941062422642912288495153916 ,	 -0.000155516323474630402401430728787 
	 0.999941052125903895309022573201 ,	 -0.000195783446133218630436090279545 
	 0.999941035806683586883991665673 ,	 -0.000246476744695384164529627923912 
	 0.999941009942497793794302651804 ,	 -0.000310295815664288210378174426296 
	 0.999940968950607356191540020518 ,	 -0.000390639244318369271979918266879 
	 0.999940903983048912095910054632 ,	 -0.000491785585331860897184697023476 
	 0.999940801016932279132731764548 ,	 -0.000619121198571090380902148808673 
	 0.999940637827954614813563694042 ,	 -0.000779427066771351539919976403326 
	 0.999940379194166228948859043157 ,	 -0.000981239856472859717229084708379 
	 0.999939969295554953454541191604 ,	 -0.0012353064246648087776137003857 
	 0.999939319670929638306233755429 ,	 -0.00155515592470345520581531673088 
	 0.99993829013775126224317091328 ,	 -0.00195781987744386709593413797847 
	 0.999936658569370306892665212217 ,	 -0.0024647383532268724026792483528 
	 0.999934073038474258154906237905 ,	 -0.00310290012268117643134957006623 
	 0.999929976078095972269466074067 ,	 -0.00390627669966642221410779711732 
	 0.999923484914998716988066007616 ,	 -0.0049176250708612700979216469932 
	 0.999913202330638517523198061099 ,	 -0.00619075200720171914259282175408 
	 0.999896918584015192976721664309 ,	 -0.00779335444418485789874750935269 
	 0.999871143169504206227315989963 ,	 -0.00981057534932056052312532301585 
	 0.999830372956655444305340552091 ,	 -0.0123494418001633965431551587244 
	 0.999765957089394308177077164146 ,	 -0.0155443794547895780544521926458 
	 0.999664356747683613413357761601 ,	 -0.0195640219083714761438841378549 
	 0.999588107664996727841355550481 ,	 -0.0221157106643046774685501532076 
	 0.999502471430217864778455805208 ,	 -0.0246778833424656368622507329746 
	 0.999250815046247908846055452159 ,	 -0.0310481546388908652422955469774 
	 0.99885850104647300184979030746 ,	 -0.0390508272560345648383162142636 
	 0.998337057836268915167465820559 ,	 -0.047789677940161784386319254736 
	 0.997578167424697515031084549264 ,	 -0.0584169125124392452086397042876 
	 0.996816094061918067659178177564 ,	 -0.0676100236537216375820591451884 
	 0.99587549795799046314925817569 ,	 -0.0776557994909495008517552605554 
	 0.993783056768386519053137817536 ,	 -0.0967799694221671280569552209272 
	 0.991315007228247058179704254144 ,	 -0.115804095492350905827194651465 
	 0.98847,	-0.13473
	 0.98526,	-0.15358
