CITIFILE A.01.01
#Momentum: B.12.070 (*) built: Feb 13 2020 
#Momentum Date and Time: Sun Aug 14 17:56:04 2022

NAME Momentum.SP

#  mode: MW    reference: S_50

#eesof Port[1] P1
#eesof Port[2] P2

CONSTANT NBR_OF_PORTS 2

CONSTANT NORMALIZATION 1

VAR freq MAG 322

DATA S[1,1] RI
DATA S[1,2] RI
DATA S[2,1] RI
DATA S[2,2] RI
DATA PORTZ[1] RI
DATA PORTZ[2] RI

VAR_LIST_BEGIN
	 0
	 8.701167248
	 87.01167248
	 870.1167248
	 8701.167248
	 10954.12056
	 13790.42074
	 17361.11111
	 21856.34395
	 27515.50681
	 34639.97074
	 43609.13942
	 54900.65381
	 69115.8282
	 87011.67248
	 109541.2056
	 137904.2074
	 173611.1111
	 218563.4395
	 275155.0681
	 346399.7074
	 436091.3942
	 549006.5381
	 691158.282
	 870116.7248
	 1095412.056
	 1379042.074
	 1736111.111
	 2185634.395
	 2751550.681
	 3463997.074
	 4360913.942
	 5490065.381
	 6911582.82
	 8701167.248
	 10954120.56
	 13790420.74
	 17361111.11
	 19629339.22
	 21908241.12
	 27580841.48
	 34722222.21
	 42541975.06
	 52083333.32
	 60365357.4
	 69444444.42
	 86805555.53
	 104166666.6
	 121527777.7
	 138888888.8
	 156250000
	 173611111.1
	 190972222.2
	 208333333.3
	 225694444.4
	 243055555.5
	 260416666.6
	 277777777.7
	 295138888.8
	 312499999.9
	 329861111
	 347222222.1
	 364583333.2
	 381944444.3
	 399305555.4
	 416666666.5
	 434027777.6
	 451388888.7
	 468749999.8
	 486111110.9
	 503472222
	 520833333.1
	 538194444.2
	 555555555.4
	 572916666.5
	 590277777.6
	 607638888.7
	 624999999.8
	 642361110.9
	 659722222
	 677083333.1
	 694444444.2
	 711805555.3
	 729166666.4
	 746527777.5
	 763888888.6
	 781249999.7
	 798611110.8
	 815972221.9
	 833333333
	 859374999.7
	 885416666.3
	 911458333
	 937499999.6
	 963541666.3
	 989583332.9
	 1015625000
	 1041666666
	 1067708333
	 1093750000
	 1119791666
	 1145833333
	 1171875000
	 1197916666
	 1223958333
	 1250000000
	 1276041666
	 1302083333
	 1328124999
	 1354166666
	 1380208333
	 1406249999
	 1432291666
	 1458333333
	 1484374999
	 1510416666
	 1536458333
	 1562499999
	 1588541666
	 1614583333
	 1640624999
	 1666666666
	 1692708333
	 1718749999
	 1744791666
	 1770833333
	 1796874999
	 1822916666
	 1848958333
	 1874999999
	 1901041666
	 1927083333
	 1953124999
	 1979166666
	 2005208333
	 2031249999
	 2057291666
	 2083333333
	 2109374999
	 2135416666
	 2161458333
	 2187499999
	 2213541666
	 2239583333
	 2265624999
	 2291666666
	 2317708333
	 2343749999
	 2369791666
	 2395833333
	 2421874999
	 2447916666
	 2473958333
	 2500000000
	 2526041666
	 2552083333
	 2578125000
	 2604166666
	 2630208333
	 2656250000
	 2682291666
	 2708333333
	 2734375000
	 2760416666
	 2786458333
	 2812500000
	 2838541666
	 2864583333
	 2890625000
	 2916666666
	 2968750000
	 3020833333
	 3072916666
	 3125000000
	 3177083333
	 3229166666
	 3281250000
	 3333333333
	 3385416666
	 3437500000
	 3489583333
	 3541666666
	 3593750000
	 3645833333
	 3697916666
	 3750000000
	 3802083333
	 3854166666
	 3906250000
	 3958333333
	 4010416666
	 4062500000
	 4114583333
	 4166666666
	 4218750000
	 4270833333
	 4322916667
	 4375000000
	 4427083333
	 4479166667
	 4531250000
	 4583333333
	 4635416667
	 4687500000
	 4739583333
	 4791666667
	 4843750000
	 4895833333
	 4947916667
	 5000000000
	 5052083333
	 5104166667
	 5156250000
	 5208333333
	 5260416667
	 5312500000
	 5364583333
	 5416666667
	 5468750000
	 5520833333
	 5572916667
	 5625000000
	 5677083333
	 5729166667
	 5781250000
	 5833333334
	 5885416667
	 5937500000
	 5989583334
	 6041666667
	 6093750000
	 6145833334
	 6197916667
	 6250000000
	 6302083334
	 6354166667
	 6406250000
	 6458333334
	 6510416667
	 6562500000
	 6614583334
	 6666666667
	 6718750000
	 6770833334
	 6822916667
	 6875000000
	 6927083334
	 6979166667
	 7031250000
	 7083333334
	 7135416667
	 7187500000
	 7239583334
	 7291666667
	 7343750000
	 7395833334
	 7447916667
	 7500000000
	 7552083334
	 7604166667
	 7656250001
	 7708333334
	 7760416667
	 7812500001
	 7864583334
	 7916666667
	 7968750001
	 8020833334
	 8072916667
	 8125000001
	 8177083334
	 8229166667
	 8281250001
	 8333333334
	 8368055556
	 8402777778
	 8437500001
	 8472222223
	 8506944445
	 8541666667
	 8576388890
	 8611111112
	 8645833334
	 8680555556
	 8715277778
	 8750000001
	 8784722223
	 8819444445
	 8854166667
	 8888888890
	 8923611112
	 8958333334
	 8993055556
	 9027777778
	 9062500001
	 9097222223
	 9131944445
	 9166666667
	 9201388889
	 9236111112
	 9270833334
	 9305555556
	 9340277778
	 9375000001
	 9409722223
	 9444444445
	 9479166667
	 9513888889
	 9548611112
	 9583333334
	 9618055556
	 9652777778
	 9687500000
	 9722222222
	 9756944445
	 9791666667
	 9826388889
	 9861111111
	 9895833333
	 9930555556
	 9965277778
	 1e+10
VAR_LIST_END

BEGIN
	 0.999999999999997890576253212203 ,	 -0 
	 1.00000000000000932587340685131 ,	 -2.65212396488578860953566618264e-09 
	 1.00000000000000865973959207622 ,	 -2.65212379280121979263640241697e-08 
	 0.999999999999907296377443799429 ,	 -2.6521237750376513986338977702e-07 
	 0.99999999998983035709443356609 ,	 -2.65212377831280932127810956445e-06 
	 0.999999999983877008169486089173 ,	 -3.33882601927237843142393103335e-06 
	 0.999999999974441000638591958705 ,	 -4.20333292083796550286933779716e-06 
	 0.999999999959486074452286175074 ,	 -5.29168262602963679341883107554e-06 
	 0.99999999993578525536719325828 ,	 -6.66183372510786853126774076372e-06 
	 0.999999999898222857730445412017 ,	 -8.38675175646175219412725709844e-06 
	 0.999999999838689146436365717818 ,	 -1.05582948927707143127463496057e-05 
	 0.999999999744334844287152463949 ,	 -1.32921057126034192208408057922e-05 
	 0.999999999594793020918359616189 ,	 -1.67337695927693985709083790425e-05 
	 0.999999999357784163933615673159 ,	 -2.10665676446675220745419210289e-05 
	 0.999999998982152082938057446881 ,	 -2.65212370867962121678829134908e-05 
	 0.999999998386815081019562967413 ,	 -3.33882588012257564002993603935e-05 
	 0.999999997443270616237498416012 ,	 -4.20333264243843984786508372054e-05 
	 0.999999995947856157307853663951 ,	 -5.29168207091812448084056086373e-05 
	 0.999999993577790013965511661809 ,	 -6.6618326175382769349653244717e-05 
	 0.99999998982150561932513710417 ,	 -8.38674954803941830050462158397e-05 
	 0.999999983868235853279315961117 ,	 -0.000105582904855794357246168146958 
	 0.999999974433043448129865282681 ,	 -0.000132920969197092286862016408122 
	 0.999999959479531241868244251236 ,	 -0.000167337520487476076880284381332 
	 0.999999935780460535994507154101 ,	 -0.000210665326410897080222639488056 
	 0.999999898221600846959233876987 ,	 -0.000265211672484222393819663921022 
	 0.999999838698926724056548209774 ,	 -0.000333881194645557766165211432963 
	 0.999999744372158883010115459911 ,	 -0.000420330484392883452215983197675 
	 0.999999594900204402669885439536 ,	 -0.000529162661470572448507709850674 
	 0.999999358068138444188832636428 ,	 -0.000666172199637882211931128040305 
	 0.999998982877794873047605506144 ,	 -0.000838652891982483161825712159043 
	 0.999998388650534253407897722354 ,	 -0.00105578505589409843423709389754 
	 0.999997447889941715182260395522 ,	 -0.00132912200487900200585045240587 
	 0.999995959454008209732478462684 ,	 -0.00167320052936592578163299549487 
	 0.999993606861996120471758331405 ,	 -0.00210630563266811510203524449025 
	 0.999989894249447952567777520017 ,	 -0.00265142591119810200339657058066 
	 0.999984049814748421347587736818 ,	 -0.00333744236195110399734176098718 
	 0.999974884619970971755265054526 ,	 -0.00420059944652301231471369646897 
	 0.99996059622948318956758839704 ,	 -0.00528631272911761485033821372781 
	 0.999950004096931244212953515671 ,	 -0.00597536827784589386070024374931 
	 0.999938238002042956154014063941 ,	 -0.00666712176994366245708079077303 
	 0.999904422006565485325779718551 ,	 -0.00838642341712469985282041307073 
	 0.999853795733862349415232984029 ,	 -0.0105451872092086618160067246208 
	 0.999789982957495104720635481499 ,	 -0.0129014697860474480961556764669 
	 0.999703059770093882541175389633 ,	 -0.0157663200257995295139323843614 
	 0.999621529856003054881341540749 ,	 -0.0182450042277045865191098528157 
	 0.999527142372679699988680113165 ,	 -0.0209551178367464729923597133165 
	 0.999334709503251872320106485859 ,	 -0.0261221236814527801861629541236 
	 0.999127405351031394609151448094 ,	 -0.0312762983447084641497326629178 
	 0.998903804783148441259754690691 ,	 -0.036423456550781385665516154404 
	 0.998661695590201348160519501107 ,	 -0.0415668724916070653208066687512 
	 0.998399006149936596443694725167 ,	 -0.0467082000664730823125125880324 
	 0.998114065199132594052855438349 ,	 -0.0518481598223158313132330476947 
	 0.997805605629549452473270321207 ,	 -0.0569869623483996168289422712405 
	 0.997472694043474161773588093638 ,	 -0.0621245495855602958279462200153 
	 0.997114653037236786659036624769 ,	 -0.0672607275126987369517905790417 
	 0.996730996083911247040987291257 ,	 -0.0723952377494669896407231135527 
	 0.996321377945899810946173147386 ,	 -0.0775277956499487719277396990947 
	 0.995885558436719775521339670377 ,	 -0.0826581101993340561229217655637 
	 0.995423376441221807731096760108 ,	 -0.0877858940741464977008945425041 
	 0.994934731483583689737315580714 ,	 -0.0929108684139983154182118596509 
	 0.994419570778315664583146826772 ,	 -0.098032764761832036359834319228 
	 0.993877880287727943908748784452 ,	 -0.103151325516719460928527496435 
	 0.993309678776839510838669866644 ,	 -0.108266303607428393540601518907 
	 0.992715014209932689048798692966 ,	 -0.113377461751438812775916176179 
	 0.992093962105424664876807128167 ,	 -0.11848457145738500173592910869 
	 0.991446625689605509634816371545 ,	 -0.123587411792509593855271532448 
	 0.990773137896340472252632025629 ,	 -0.128685767822373176016981233261 
	 0.990073665480802778127156216215 ,	 -0.13377942849905066768911865438 
	 0.98934,	-0.13886
	 0.98859,	-0.14395
	 0.98782,	-0.14903
	 0.98702,	-0.1541
	 0.98619,	-0.15916
	 0.98534,	-0.16423
	 0.98447,	-0.16928
	 0.98358,	-0.17432
	 0.98267,	-0.17936
	 0.98174,	-0.18439
	 0.98079,	-0.18939
	 0.97984,	-0.19437
	 0.97887,	-0.19931
	 0.97785,	-0.20417
	 0.97671,	-0.20896
	 0.97541,	-0.21379
	 0.97405,	-0.21876
	 0.97273,	-0.22381
	 0.97146,	-0.22887
	 0.97021,	-0.2339
	 0.96895,	-0.23891
	 0.96767,	-0.24389
	 0.96572,	-0.25133
	 0.96371,	-0.25874
	 0.96164,	-0.26611
	 0.95952,	-0.27346
	 0.95734,	-0.28079
	 0.95511,	-0.28808
	 0.95282,	-0.29536
	 0.95048,	-0.30261
	 0.94808,	-0.30984
	 0.94563,	-0.31704
	 0.94313,	-0.32422
	 0.94057,	-0.33137
	 0.93796,	-0.3385
	 0.93529,	-0.3456
	 0.93258,	-0.35267
	 0.92981,	-0.35972
	 0.92699,	-0.36675
	 0.92412,	-0.37374
	 0.9212,	-0.38071
	 0.91823,	-0.38765
	 0.91521,	-0.39457
	 0.91213,	-0.40145
	 0.90901,	-0.40831
	 0.90584,	-0.41514
	 0.90262,	-0.42194
	 0.89935,	-0.42871
	 0.89603,	-0.43544
	 0.89267,	-0.44215
	 0.88926,	-0.44883
	 0.88579,	-0.45548
	 0.88229,	-0.46209
	 0.87873,	-0.46868
	 0.87513,	-0.47523
	 0.87148,	-0.48175
	 0.86779,	-0.48824
	 0.86405,	-0.49469
	 0.86027,	-0.50111
	 0.85644,	-0.5075
	 0.85257,	-0.51385
	 0.84865,	-0.52017
	 0.84469,	-0.52645
	 0.84069,	-0.5327
	 0.83665,	-0.53891
	 0.83256,	-0.54509
	 0.82842,	-0.55123
	 0.82425,	-0.55734
	 0.82004,	-0.56341
	 0.81578,	-0.56944
	 0.81148,	-0.57544
	 0.80715,	-0.5814
	 0.80277,	-0.58732
	 0.79835,	-0.5932
	 0.79389,	-0.59904
	 0.7894,	-0.60485
	 0.78486,	-0.61062
	 0.78029,	-0.61635
	 0.77568,	-0.62204
	 0.77103,	-0.62769
	 0.76635,	-0.6333
	 0.76163,	-0.63887
	 0.75687,	-0.6444
	 0.75207,	-0.64989
	 0.74724,	-0.65534
	 0.74238,	-0.66075
	 0.73748,	-0.66612
	 0.73255,	-0.67144
	 0.72758,	-0.67673
	 0.72258,	-0.68197
	 0.71754,	-0.68717
	 0.71247,	-0.69233
	 0.70737,	-0.69745
	 0.70224,	-0.70252
	 0.69708,	-0.70755
	 0.69188,	-0.71254
	 0.68666,	-0.71749
	 0.6814,	-0.72239
	 0.67611,	-0.72725
	 0.6708,	-0.73207
	 0.66545,	-0.73684
	 0.66008,	-0.74157
	 0.64925,	-0.75089
	 0.6383,	-0.76004
	 0.62725,	-0.769
	 0.6161,	-0.77779
	 0.60484,	-0.7864
	 0.59349,	-0.79483
	 0.58205,	-0.80307
	 0.57051,	-0.81113
	 0.55888,	-0.81901
	 0.54717,	-0.8267
	 0.53538,	-0.83421
	 0.52352,	-0.84154
	 0.51157,	-0.84867
	 0.49956,	-0.85562
	 0.48747,	-0.86239
	 0.47532,	-0.86897
	 0.46311,	-0.87536
	 0.45084,	-0.88156
	 0.43851,	-0.88757
	 0.42613,	-0.8934
	 0.4137,	-0.89904
	 0.40123,	-0.9045
	 0.38871,	-0.90976
	 0.37614,	-0.91484
	 0.36354,	-0.91973
	 0.35091,	-0.92444
	 0.33824,	-0.92896
	 0.32554,	-0.93329
	 0.31281,	-0.93744
	 0.30007,	-0.9414
	 0.2873,	-0.94518
	 0.27451,	-0.94877
	 0.2617,	-0.95218
	 0.24888,	-0.95541
	 0.23606,	-0.95845
	 0.22322,	-0.96132
	 0.21038,	-0.964
	 0.19753,	-0.9665
	 0.18469,	-0.96882
	 0.17184,	-0.97096
	 0.15901,	-0.97292
	 0.14617,	-0.97471
	 0.13335,	-0.97632
	 0.12054,	-0.97776
	 0.10774,	-0.97902
	 0.094967,	-0.98011
	 0.082204,	-0.98102
	 0.069462,	-0.98176
	 0.056742,	-0.98234
	 0.044047,	-0.98274
	 0.031379,	-0.98297
	 0.01874,	-0.98304
	 0.0061312,	-0.98294
	-0.0064443,	-0.98268
	-0.018985,	-0.98225
	-0.031489,	-0.98166
	-0.043954,	-0.9809
	-0.056379,	-0.97999
	-0.068761,	-0.97892
	-0.081099,	-0.97769
	-0.093392,	-0.9763
	-0.10563,	-0.97475
	-0.11783,	-0.97305
	-0.12997,	-0.9712
	-0.14206,	-0.9692
	-0.1541,	-0.96704
	-0.16608,	-0.96473
	-0.17801,	-0.96228
	-0.18987,	-0.95968
	-0.20168,	-0.95693
	-0.21342,	-0.95404
	-0.2251,	-0.951
	-0.23672,	-0.94783
	-0.24827,	-0.94451
	-0.25975,	-0.94105
	-0.27116,	-0.93745
	-0.28251,	-0.93372
	-0.29378,	-0.92985
	-0.30498,	-0.92584
	-0.3161,	-0.92171
	-0.32715,	-0.91744
	-0.33813,	-0.91304
	-0.34902,	-0.90851
	-0.35984,	-0.90385
	-0.37058,	-0.89907
	-0.38124,	-0.89416
	-0.39181,	-0.88912
	-0.40231,	-0.88397
	-0.41272,	-0.87869
	-0.42304,	-0.87329
	-0.43328,	-0.86777
	-0.44343,	-0.86213
	-0.45349,	-0.85638
	-0.46347,	-0.85051
	-0.47335,	-0.84453
	-0.48315,	-0.83843
	-0.49285,	-0.83222
	-0.50246,	-0.82591
	-0.51197,	-0.81948
	-0.5214,	-0.81294
	-0.53072,	-0.8063
	-0.53996,	-0.79955
	-0.54909,	-0.79269
	-0.55813,	-0.78574
	-0.5641,	-0.78104
	-0.57003,	-0.7763
	-0.57591,	-0.77152
	-0.58175,	-0.76669
	-0.58754,	-0.76181
	-0.59329,	-0.7569
	-0.599,	-0.75194
	-0.60466,	-0.74693
	-0.61027,	-0.74189
	-0.61584,	-0.7368
	-0.62136,	-0.73167
	-0.62684,	-0.72649
	-0.63227,	-0.72128
	-0.63765,	-0.71602
	-0.64299,	-0.71073
	-0.64828,	-0.70539
	-0.65352,	-0.70002
	-0.65872,	-0.6946
	-0.66387,	-0.68914
	-0.66897,	-0.68365
	-0.67402,	-0.67812
	-0.67903,	-0.67254
	-0.68398,	-0.66693
	-0.68889,	-0.66129
	-0.69375,	-0.6556
	-0.69857,	-0.64988
	-0.70333,	-0.64412
	-0.70804,	-0.63832
	-0.71271,	-0.63249
	-0.71732,	-0.62662
	-0.72189,	-0.62072
	-0.7264,	-0.61477
	-0.73087,	-0.6088
	-0.73529,	-0.60279
	-0.73965,	-0.59675
	-0.74397,	-0.59067
	-0.74823,	-0.58455
	-0.75244,	-0.57841
	-0.75661,	-0.57223
	-0.76072,	-0.56601
	-0.76478,	-0.55977
	-0.76879,	-0.55349
	-0.77274,	-0.54718
	-0.77665,	-0.54084
	-0.7805,	-0.53446
	-0.7843,	-0.52806
	-0.78805,	-0.52162
	-0.79174,	-0.51515
END
BEGIN
	 -1.20936808000000002845621590183e-19 ,	 0 
	 -9.54097911999999996213456450643e-18 ,	 1.52192320999999995634266939425e-12 
	 5.20417043000000017919903118036e-18 ,	 1.52191869999999993781595608252e-11 
	 1.00613962000000001021991359714e-16 ,	 1.52191852999999996892783994653e-10 
	 8.62591247999999933524794394734e-15 ,	 1.52191852999999991722905166196e-09 
	 1.36999787000000000479480843974e-14 ,	 1.91598192000000011064239285939e-09 
	 2.16398079999999996620965036263e-14 ,	 2.41207832000000017606683309001e-09 
	 3.43327796999999986095149869301e-14 ,	 3.03662668000000019007025995265e-09 
	 5.44052649999999991565345101226e-14 ,	 3.82288650999999977613459068121e-09 
	 8.61992769000000020697062782839e-14 ,	 4.81272896000000010855148028502e-09 
	 1.36576513999999993650674637922e-13 ,	 6.05886681000000025056546383313e-09 
	 2.16493490000000009741933224621e-13 ,	 7.62766138000000046410823507448e-09 
	 3.43137845000000018147572748643e-13 ,	 9.60265672999999929611346458774e-09 
	 5.43806318999999969458859362524e-13 ,	 1.20890285000000007362284308674e-08 
	 8.61847051999999958301082304733e-13 ,	 1.52191852000000016219552267461e-08 
	 1.36595422e-12 ,	 1.91598189e-08 
	 2.16488199e-12 ,	 2.41207828e-08 
	 3.43108267e-12 ,	 3.03662661e-08 
	 5.43787671e-12 ,	 3.82288635e-08 
	 8.61843149e-12 ,	 4.81272866e-08 
	 1.36593055e-11 ,	 6.05886618e-08 
	 2.16485206e-11 ,	 7.62766014e-08 
	 3.43105483e-11 ,	 9.60265427e-08 
	 5.43785546e-11 ,	 1.20890237e-07 
	 8.61841657e-11 ,	 1.52191754e-07 
	 1.36592645e-10 ,	 1.91597994e-07 
	 2.16484578e-10 ,	 2.41207439e-07 
	 3.43104509e-10 ,	 3.03661885e-07 
	 5.43782944e-10 ,	 3.82287086e-07 
	 8.61835363e-10 ,	 4.81269776e-07 
	 1.36591058e-09 ,	 6.05880453e-07 
	 2.16480637e-09 ,	 7.62753713e-07 
	 3.43094667e-09 ,	 9.60240884e-07 
	 5.43758296e-09 ,	 1.2088534e-06 
	 8.61773434e-09 ,	 1.52181984e-06 
	 1.36575509e-08 ,	 1.915785e-06 
	 2.16441581e-08 ,	 2.41168545e-06 
	 3.42996566e-08 ,	 3.03584285e-06 
	 4.38437495e-08 ,	 3.43222887e-06 
	 5.46094766e-08 ,	 3.83038882e-06 
	 8.65245777e-08 ,	 4.82101449e-06 
	 1.37067909e-07 ,	 6.06698525e-06 
	 2.05626671e-07 ,	 7.42947879e-06 
	 3.0791321e-07 ,	 9.08873972e-06 
	 4.13218655e-07 ,	 1.05255865e-05 
	 5.46184955e-07 ,	 1.20964445e-05 
	 8.50976312e-07 ,	 1.50854761e-05 
	 1.22112793e-06 ,	 1.80512605e-05 
	 1.65523237e-06 ,	 2.09892851e-05 
	 2.15163899e-06 ,	 2.38951089e-05 
	 2.70845924e-06 ,	 2.67643725e-05 
	 3.32357222e-06 ,	 2.95928079e-05 
	 3.99463035e-06 ,	 3.23762475e-05 
	 4.71906525e-06 ,	 3.51106332e-05 
	 5.49409378e-06 ,	 3.7792025e-05 
	 6.31672428e-06 ,	 4.04166099e-05 
	 7.18376302e-06 ,	 4.29807098e-05 
	 8.09182091e-06 ,	 4.54807905e-05 
	 9.03732053e-06 ,	 4.79134693e-05 
	 1.00165034e-05 ,	 5.02755234e-05 
	 1.10254378e-05 ,	 5.25638975e-05 
	 1.20600263e-05 ,	 5.47757115e-05 
	 1.31160146e-05 ,	 5.69082674e-05 
	 1.41889995e-05 ,	 5.89590567e-05 
	 1.52744381e-05 ,	 6.09257667e-05 
	 1.63676569e-05 ,	 6.28062868e-05 
	 1.74638608e-05 ,	 6.45987142e-05 
	 1.85581429e-05 ,	 6.63013592e-05 
	 1.96454939e-05 ,	 6.79127504e-05 
	 2.07208124e-05 ,	 6.94316388e-05 
	 2.17789142e-05 ,	 7.08570021e-05 
	 2.2814543e-05 ,	 7.21880479e-05 
	 2.382238e-05 ,	 7.34242169e-05 
	 2.47970543e-05 ,	 7.45651857e-05 
	 2.57331534e-05 ,	 7.56108683e-05 
	 2.66252328e-05 ,	 7.65614182e-05 
	 2.74678266e-05 ,	 7.74172293e-05 
	 2.82554577e-05 ,	 7.81789364e-05 
	 2.89826474e-05 ,	 7.88474159e-05 
	 2.96439263e-05 ,	 7.94237848e-05 
	 3.02338433e-05 ,	 7.99094008e-05 
	 3.07469758e-05 ,	 8.03058603e-05 
	 3.11779398e-05 ,	 8.06149975e-05 
	 3.15213985e-05 ,	 8.08388822e-05 
	 3.17720725e-05 ,	 8.0979817e-05 
	 3.19247487e-05 ,	 8.10403352e-05 
	 3.19742892e-05 ,	 8.10231972e-05 
	 3.19156399e-05 ,	 8.09313871e-05 
	 3.17438398e-05 ,	 8.07681088e-05 
	 3.14540286e-05 ,	 8.05367817e-05 
	 3.07876794e-05 ,	 8.00701984e-05 
	 2.98296082e-05 ,	 7.94718412e-05 
	 2.85649295e-05 ,	 7.87558336e-05 
	 2.69794602e-05 ,	 7.79372621e-05 
	 2.50597708e-05 ,	 7.70321312e-05 
	 2.27932319e-05 ,	 7.60573166e-05 
	 2.01680591e-05 ,	 7.50305158e-05 
	 1.71733528e-05 ,	 7.39701971e-05 
	 1.37991356e-05 ,	 7.28955466e-05 
	 1.00363858e-05 ,	 7.18264148e-05 
	 5.87706715e-06 ,	 7.07832611e-05 
	 1.31415559e-06 ,	 6.9787098e-05 
	 -3.65833776e-06 ,	 6.8859435e-05 
	 -9.04534694e-06 ,	 6.80222212e-05 
	 -1.48507348e-05 ,	 6.72977889e-05 
	 -2.10772801e-05 ,	 6.67087963e-05 
	 -2.77266673e-05 ,	 6.6278171e-05 
	 -3.47994801e-05 ,	 6.60290538e-05 
	 -4.22951975e-05 ,	 6.59847427e-05 
	 -5.02121928e-05 ,	 6.61686383e-05 
	 -5.85477356e-05 ,	 6.66041895e-05 
	 -6.72979961e-05 ,	 6.73148404e-05 
	 -7.64580522e-05 ,	 6.83239785e-05 
	 -8.60218988e-05 ,	 6.96548835e-05 
	 -9.59824595e-05 ,	 7.13306783e-05 
	 -0.0001063316 ,	 7.33742807e-05 
	 -0.000117060145 ,	 7.58083567e-05 
	 -0.000128157895 ,	 7.86552754e-05 
	 -0.000139613645 ,	 8.19370655e-05 
	 -0.000151415206 ,	 8.56753734e-05 
	 -0.00016354943 ,	 8.98914226e-05 
	 -0.00017600223 ,	 9.46059755e-05 
	 -0.000188758608 ,	 9.9839296e-05 
	 -0.000201802679 ,	 0.000105611115 
	 -0.000215117703 ,	 0.000111940594 
	 -0.000228686106 ,	 0.000118846299 
	 -0.000242489517 ,	 0.000126346164 
	 -0.000256508792 ,	 0.000134457467 
