CITIFILE A.01.01
#Momentum: B.12.070 (*) built: Feb 13 2020 
#Momentum Date and Time: Mon Aug 15 18:29:22 2022

NAME Momentum.SP

#  mode: MW    reference: S_50

#eesof Port[1] P1
#eesof Port[2] P2

CONSTANT NBR_OF_PORTS 2

CONSTANT NORMALIZATION 1

VAR freq MAG 562

DATA S[1,1] RI
DATA S[1,2] RI
DATA S[2,1] RI
DATA S[2,2] RI
DATA PORTZ[1] RI
DATA PORTZ[2] RI

VAR_LIST_BEGIN
	 0
	 8.701167245
	 87.01167245
	 870.1167245
	 8701.167245
	 10954.12056
	 13790.42073
	 17361.1111
	 21856.34394
	 27515.5068
	 34639.97072
	 43609.13941
	 54900.65379
	 69115.82818
	 87011.67245
	 109541.2056
	 137904.2073
	 173611.111
	 218563.4394
	 275155.068
	 346399.7072
	 436091.3941
	 549006.5379
	 691158.2818
	 870116.7245
	 1095412.056
	 1379042.073
	 1736111.11
	 2185634.394
	 2751550.68
	 3463997.072
	 4360913.941
	 5490065.379
	 6911582.818
	 8701167.245
	 10954120.56
	 13790420.73
	 17361111.1
	 19629339.22
	 21908241.11
	 27580841.47
	 34722222.2
	 42541975.04
	 52083333.3
	 60365357.38
	 69444444.4
	 86805555.5
	 104166666.6
	 121527777.7
	 138888888.8
	 160590277.7
	 182291666.6
	 203993055.4
	 225694444.3
	 247395833.2
	 269097222.1
	 290798611
	 312499999.9
	 334201388.7
	 355902777.6
	 377604166.5
	 399305555.4
	 421006944.3
	 442708333.1
	 464409722
	 486111110.9
	 507812499.8
	 529513888.7
	 551215277.5
	 572916666.4
	 594618055.3
	 616319444.2
	 638020833.1
	 659722222
	 681423610.8
	 703124999.7
	 724826388.6
	 746527777.5
	 768229166.4
	 789930555.2
	 811631944.1
	 833333333
	 850694444.1
	 868055555.2
	 885416666.3
	 902777777.4
	 920138888.5
	 937499999.6
	 954861110.7
	 972222221.8
	 989583332.8
	 1006944444
	 1024305555
	 1041666666
	 1059027777
	 1076388888
	 1093749999
	 1111111110
	 1145833333
	 1180555555
	 1215277777
	 1249999999
	 1284722221
	 1319444444
	 1354166666
	 1388888888
	 1423611110
	 1458333332
	 1493055555
	 1527777777
	 1562499999
	 1597222222
	 1631944444
	 1666666666
	 1692708333
	 1718749999
	 1744791666
	 1770833333
	 1796874999
	 1822916666
	 1848958333
	 1875000000
	 1901041666
	 1927083333
	 1953125000
	 1979166666
	 2005208333
	 2031250000
	 2057291666
	 2083333333
	 2109375000
	 2135416666
	 2161458333
	 2187500000
	 2213541666
	 2239583333
	 2265625000
	 2291666666
	 2317708333
	 2343750000
	 2369791667
	 2395833333
	 2421875000
	 2447916667
	 2473958333
	 2500000000
	 2526041667
	 2552083333
	 2578125000
	 2604166667
	 2630208333
	 2656250000
	 2682291667
	 2708333333
	 2734375000
	 2760416667
	 2786458333
	 2812500000
	 2838541667
	 2864583333
	 2890625000
	 2916666666
	 2942708333
	 2968750000
	 2994791666
	 3020833333
	 3046875000
	 3072916666
	 3098958333
	 3125000000
	 3151041666
	 3177083333
	 3203125000
	 3229166666
	 3255208333
	 3281250000
	 3307291666
	 3333333333
	 3346354166
	 3359375000
	 3372395833
	 3385416666
	 3398437500
	 3411458333
	 3424479166
	 3437500000
	 3450520833
	 3463541666
	 3476562500
	 3489583333
	 3502604166
	 3515625000
	 3528645833
	 3541666666
	 3554687500
	 3567708333
	 3580729166
	 3593750000
	 3606770833
	 3619791666
	 3632812500
	 3645833333
	 3658854166
	 3671875000
	 3684895833
	 3697916666
	 3710937500
	 3723958333
	 3736979166
	 3750000000
	 3763020833
	 3776041666
	 3789062500
	 3802083333
	 3815104166
	 3828125000
	 3841145833
	 3854166666
	 3867187500
	 3880208333
	 3893229166
	 3906250000
	 3919270833
	 3932291666
	 3945312500
	 3958333333
	 3984375000
	 4010416666
	 4036458333
	 4062500000
	 4088541666
	 4114583333
	 4140625000
	 4166666666
	 4192708333
	 4218750000
	 4244791667
	 4270833333
	 4296875000
	 4322916667
	 4348958333
	 4375000000
	 4401041667
	 4427083333
	 4453125000
	 4479166667
	 4505208333
	 4531250000
	 4557291667
	 4583333333
	 4609375000
	 4635416667
	 4661458333
	 4687500000
	 4713541667
	 4739583333
	 4765625000
	 4791666667
	 4817708333
	 4843750000
	 4869791667
	 4895833333
	 4921875000
	 4947916667
	 4973958333
	 5000000000
	 5034722222
	 5069444444
	 5104166667
	 5138888889
	 5173611111
	 5208333334
	 5243055556
	 5277777778
	 5295138889
	 5312500000
	 5329861111
	 5347222222
	 5364583334
	 5381944445
	 5399305556
	 5416666667
	 5434027778
	 5451388889
	 5468750000
	 5486111112
	 5503472223
	 5520833334
	 5538194445
	 5555555556
	 5564236112
	 5572916667
	 5581597223
	 5590277778
	 5598958334
	 5607638889
	 5616319445
	 5625000000
	 5633680556
	 5642361112
	 5651041667
	 5659722223
	 5668402778
	 5677083334
	 5685763889
	 5694444445
	 5703125001
	 5711805556
	 5720486112
	 5729166667
	 5737847223
	 5746527778
	 5755208334
	 5763888890
	 5772569445
	 5781250001
	 5789930556
	 5798611112
	 5807291667
	 5815972223
	 5824652778
	 5833333334
	 5837673612
	 5842013890
	 5846354167
	 5850694445
	 5855034723
	 5859375001
	 5863715278
	 5868055556
	 5872395834
	 5876736112
	 5881076390
	 5885416667
	 5889756945
	 5894097223
	 5898437501
	 5902777778
	 5907118056
	 5911458334
	 5915798612
	 5920138890
	 5924479167
	 5928819445
	 5933159723
	 5937500001
	 5941840279
	 5946180556
	 5950520834
	 5954861112
	 5959201390
	 5963541667
	 5967881945
	 5972222223
	 5980902779
	 5989583334
	 5998263890
	 6006944445
	 6015625001
	 6024305556
	 6032986112
	 6041666668
	 6050347223
	 6059027779
	 6067708334
	 6076388890
	 6085069445
	 6093750001
	 6102430556
	 6111111112
	 6119791668
	 6128472223
	 6137152779
	 6145833334
	 6154513890
	 6163194445
	 6171875001
	 6180555556
	 6197916667
	 6215277779
	 6232638890
	 6250000001
	 6267361112
	 6284722223
	 6302083334
	 6319444445
	 6336805556
	 6354166667
	 6371527778
	 6388888890
	 6406250001
	 6423611112
	 6440972223
	 6458333334
	 6475694445
	 6493055556
	 6510416667
	 6527777778
	 6562500000
	 6597222223
	 6631944445
	 6666666667
	 6701388889
	 6736111111
	 6770833334
	 6805555556
	 6840277778
	 6875000000
	 6909722223
	 6944444445
	 6979166667
	 7013888889
	 7048611111
	 7083333334
	 7118055556
	 7152777778
	 7187500000
	 7222222222
	 7256944445
	 7291666667
	 7326388889
	 7361111111
	 7395833334
	 7430555556
	 7465277778
	 7500000000
	 7534722222
	 7569444445
	 7604166667
	 7638888889
	 7673611111
	 7708333334
	 7743055556
	 7777777778
	 7800925926
	 7824074074
	 7847222222
	 7870370371
	 7893518519
	 7916666667
	 7939814815
	 7962962963
	 7986111111
	 8009259260
	 8032407408
	 8055555556
	 8078703704
	 8101851852
	 8125000000
	 8148148148
	 8171296297
	 8194444445
	 8217592593
	 8240740741
	 8263888889
	 8287037037
	 8310185186
	 8333333334
	 8356481482
	 8379629630
	 8402777778
	 8425925926
	 8449074075
	 8472222223
	 8495370371
	 8518518519
	 8541666667
	 8564814815
	 8587962963
	 8611111112
	 8634259260
	 8657407408
	 8680555556
	 8703703704
	 8726851852
	 8750000000
	 8773148148
	 8796296296
	 8819444445
	 8842592593
	 8865740741
	 8888888889
	 8912037037
	 8935185185
	 8958333333
	 8981481482
	 9004629630
	 9027777778
	 9050925926
	 9074074074
	 9097222222
	 9120370370
	 9143518518
	 9166666666
	 9189814815
	 9212962963
	 9236111111
	 9259259259
	 9274691358
	 9290123456
	 9305555555
	 9320987654
	 9336419753
	 9351851852
	 9367283950
	 9382716049
	 9398148148
	 9413580246
	 9429012345
	 9444444444
	 9459876543
	 9475308642
	 9490740740
	 9506172839
	 9521604938
	 9537037036
	 9552469135
	 9567901234
	 9583333333
	 9598765432
	 9614197530
	 9629629629
	 9642489711
	 9655349794
	 9668209876
	 9681069958
	 9693930041
	 9706790123
	 9719650205
	 9732510288
	 9745370370
	 9758230452
	 9771090534
	 9783950617
	 9796810699
	 9809670781
	 9822530864
	 9835390946
	 9846107681
	 9856824416
	 9867541152
	 9878257887
	 9888974622
	 9899691358
	 9910408093
	 9921124828
	 9925411522
	 9929698216
	 9933984911
	 9938271605
	 9944701646
	 9951131687
	 9957561728
	 9963991770
	 9970421811
	 9976851852
	 9983281893
	 9989711934
	 9992283950
	 9994855967
	 9997427984
	 1e+10
VAR_LIST_END

BEGIN
	 6.01165075000000033856976944246e-05 ,	 -0 
	 6.01165091000000024134240772522e-05 ,	 -3.04141783999999991981655212271e-09 
	 6.01165091000000024134240772522e-05 ,	 -3.04141755999999999599671754186e-08 
	 6.01165088000000009016594859634e-05 ,	 -3.04141752000000024794366254577e-07 
	 6.01164791999999985599306695505e-05 ,	 -3.04141753000000007246036298758e-06 
	 6.01164617999999989690108892493e-05 ,	 -3.82891780999999990108733152749e-06 
	 6.01164340999999971667730469527e-05 ,	 -4.82032193999999979171569575165e-06 
	 6.0116390300000000065840793928e-05 ,	 -6.06842578000000012827331100085e-06 
	 6.01163207999999999473286771412e-05 ,	 -7.63969541999999978906799036338e-06 
	 6.01162106000000025381700685667e-05 ,	 -9.61780670000000064312917907872e-06 
	 6.0116036100000001850610087395e-05 ,	 -1.21081012999999993769032272106e-05 
	 6.01157594999999971376904162046e-05 ,	 -1.52431963000000005709587413971e-05 
	 6.01153210999999992663819781136e-05 ,	 -1.91900471999999993439559725639e-05 
	 6.01146262000000031026913926979e-05 ,	 -2.41588380999999987035903314947e-05 
	 6.01135249000000031747471818111e-05 ,	 -3.04141751000000008461378320224e-05 
	 6.01117795e-05 ,	 -3.82891777e-05 
	 6.01090133e-05 ,	 -4.82032185e-05 
	 6.01046291e-05 ,	 -6.06842561e-05 
	 6.00976805e-05 ,	 -7.63969509e-05 
	 6.00866678e-05 ,	 -9.61780604e-05 
	 6.00692139e-05 ,	 -0.000121080999 
	 6.00415513e-05 ,	 -0.000152431937 
	 5.99977091e-05 ,	 -0.00019190042 
	 5.99282238e-05 ,	 -0.000241588276 
	 5.9818097e-05 ,	 -0.000304141543 
	 5.9643558e-05 ,	 -0.000382891362 
	 5.93669325e-05 ,	 -0.000482031357 
	 5.89285111e-05 ,	 -0.000606840908 
	 5.82336613e-05 ,	 -0.00076396621 
	 5.71324018e-05 ,	 -0.000961774023 
	 5.53870312e-05 ,	 -0.00121079686 
	 5.26208255e-05 ,	 -0.00152429317 
	 4.82367358e-05 ,	 -0.00191895192 
	 4.12885497e-05 ,	 -0.00241577846 
	 3.02767379e-05 ,	 -0.00304120731 
	 1.28249987e-05 ,	 -0.00382849839 
	 -1.4832119e-05 ,	 -0.00481948513 
	 -5.86606118e-05 ,	 -0.00606675628 
	 -9.1716369e-05 ,	 -0.00685885233 
	 -0.000129005995 ,	 -0.00765448124 
	 -0.000239568705 ,	 -0.00963395255 
	-0.00041472,	-0.012124
	-0.0006524,	-0.014846
	-0.0010072,	-0.01816
	-0.0013728,	-0.02103
	-0.0018349,	-0.024167
	-0.0028957,	-0.030135
	-0.0041875,	-0.036053
	-0.0057073,	-0.041913
	-0.007452,	-0.047705
	-0.0099434,	-0.054838
	-0.012773,	-0.061834
	-0.015931,	-0.068679
	-0.019409,	-0.075357
	-0.023196,	-0.081854
	-0.027283,	-0.088156
	-0.031658,	-0.09425
	-0.03631,	-0.10012
	-0.041228,	-0.10576
	-0.046398,	-0.11116
	-0.051809,	-0.1163
	-0.057448,	-0.12119
	-0.063302,	-0.1258
	-0.069358,	-0.13013
	-0.075602,	-0.13417
	-0.082022,	-0.13792
	-0.088602,	-0.14137
	-0.09533,	-0.14451
	-0.10219,	-0.14734
	-0.10917,	-0.14985
	-0.11625,	-0.15204
	-0.12342,	-0.15392
	-0.13067,	-0.15547
	-0.13799,	-0.15669
	-0.14534,	-0.15759
	-0.15273,	-0.15817
	-0.16014,	-0.15842
	-0.16755,	-0.15835
	-0.17495,	-0.15796
	-0.18232,	-0.15724
	-0.18966,	-0.15621
	-0.19694,	-0.15487
	-0.20272,	-0.15357
	-0.20844,	-0.15208
	-0.21411,	-0.15039
	-0.21972,	-0.14851
	-0.22526,	-0.14644
	-0.23073,	-0.14418
	-0.23611,	-0.14174
	-0.24141,	-0.13913
	-0.24661,	-0.13633
	-0.25172,	-0.13336
	-0.25672,	-0.13023
	-0.26161,	-0.12693
	-0.26639,	-0.12346
	-0.27105,	-0.11984
	-0.27558,	-0.11607
	-0.27999,	-0.11215
	-0.2884,	-0.10388
	-0.29624,	-0.095075
	-0.30348,	-0.085767
	-0.3101,	-0.076001
	-0.31606,	-0.065819
	-0.32134,	-0.055263
	-0.32592,	-0.044377
	-0.32978,	-0.033207
	-0.33291,	-0.021799
	-0.33528,	-0.0102
	-0.33689,	 0.0015443
	-0.33773,	 0.013384
	-0.3378,	 0.025272
	-0.33708,	 0.037159
	-0.33557,	 0.048995
	-0.33328,	 0.06073
	-0.33105,	 0.069436
	-0.32839,	 0.078035
	-0.32528,	 0.086507
	-0.32175,	 0.094831
	-0.3178,	 0.10298
	-0.31342,	 0.11094
	-0.30863,	 0.11869
	-0.30344,	 0.1262
	-0.29785,	 0.13346
	-0.29187,	 0.14044
	-0.28551,	 0.14712
	-0.27879,	 0.15349
	-0.27172,	 0.15951
	-0.26431,	 0.16517
	-0.25657,	 0.17045
	-0.24853,	 0.17532
	-0.24019,	 0.17977
	-0.23159,	 0.18378
	-0.22272,	 0.18733
	-0.21363,	 0.1904
	-0.20433,	 0.19297
	-0.19484,	 0.19503
	-0.18519,	 0.19656
	-0.17541,	 0.19753
	-0.16552,	 0.19795
	-0.15555,	 0.19779
	-0.14553,	 0.19704
	-0.1355,	 0.19569
	-0.12549,	 0.19374
	-0.11553,	 0.19117
	-0.10566,	 0.18797
	-0.095912,	 0.18415
	-0.086326,	 0.1797
	-0.076942,	 0.17462
	-0.0678,	 0.16891
	-0.05894,	 0.16259
	-0.050404,	 0.15564
	-0.042235,	 0.14809
	-0.034473,	 0.13995
	-0.027163,	 0.13123
	-0.020345,	 0.12195
	-0.014062,	 0.11214
	-0.0083548,	 0.10181
	-0.0032649,	 0.091013
	 0.0011689,	 0.079757
	 0.0049083,	 0.068088
	 0.0079173,	 0.056042
	 0.010161,	 0.043662
	 0.011609,	 0.030993
	 0.01223,	 0.018084
	 0.012,	 0.0049841
	 0.010894,	-0.0082517
	 0.0088947,	-0.021568
	 0.0059851,	-0.034905
	 0.0021546,	-0.048204
	-0.002604,	-0.061403
	-0.0082929,	-0.074439
	-0.01491,	-0.087247
	-0.022447,	-0.099765
	-0.030894,	-0.11192
	-0.040232,	-0.12366
	-0.050439,	-0.13492
	-0.061489,	-0.14564
	-0.073349,	-0.15576
	-0.079572,	-0.16057
	-0.085983,	-0.16521
	-0.092578,	-0.16967
	-0.099351,	-0.17395
	-0.10629,	-0.17803
	-0.1134,	-0.18192
	-0.12067,	-0.1856
	-0.1281,	-0.18908
	-0.13567,	-0.19234
	-0.14338,	-0.19538
	-0.15122,	-0.19819
	-0.15919,	-0.20078
	-0.16728,	-0.20313
	-0.17548,	-0.20524
	-0.18378,	-0.20712
	-0.19218,	-0.20874
	-0.20066,	-0.21012
	-0.20922,	-0.21125
	-0.21786,	-0.21213
	-0.22655,	-0.21274
	-0.23531,	-0.21311
	-0.2441,	-0.21321
	-0.25294,	-0.21305
	-0.2618,	-0.21263
	-0.27069,	-0.21194
	-0.27959,	-0.21099
	-0.2885,	-0.20979
	-0.2974,	-0.20831
	-0.30629,	-0.20658
	-0.31516,	-0.20458
	-0.32401,	-0.20232
	-0.33281,	-0.19981
	-0.34158,	-0.19703
	-0.35029,	-0.194
	-0.35895,	-0.19072
	-0.36754,	-0.18718
	-0.37605,	-0.1834
	-0.38448,	-0.17937
	-0.39283,	-0.17509
	-0.40108,	-0.17058
	-0.40923,	-0.16583
	-0.41727,	-0.16085
	-0.4252,	-0.15563
	-0.43301,	-0.1502
	-0.44068,	-0.14454
	-0.44823,	-0.13867
	-0.45564,	-0.13258
	-0.4629,	-0.12629
	-0.47697,	-0.1131
	-0.49041,	-0.099144
	-0.50317,	-0.084452
	-0.51522,	-0.069073
	-0.52653,	-0.053048
	-0.53707,	-0.036422
	-0.54682,	-0.01924
	-0.55575,	-0.0015468
	-0.56386,	 0.016613
	-0.57111,	 0.035194
	-0.57749,	 0.05415
	-0.58301,	 0.073438
	-0.58763,	 0.093013
	-0.59137,	 0.11283
	-0.59421,	 0.13284
	-0.59615,	 0.15302
	-0.59718,	 0.17331
	-0.59732,	 0.19368
	-0.59656,	 0.21408
	-0.5949,	 0.23448
	-0.59235,	 0.25484
	-0.58892,	 0.27511
	-0.5846,	 0.29527
	-0.57941,	 0.31528
	-0.57336,	 0.33509
	-0.56645,	 0.35469
	-0.5587,	 0.37402
	-0.55011,	 0.39307
	-0.54069,	 0.41179
	-0.53045,	 0.43015
	-0.51941,	 0.44812
	-0.50757,	 0.46567
	-0.49495,	 0.48276
	-0.48155,	 0.49936
	-0.46739,	 0.51543
	-0.45248,	 0.53094
	-0.43683,	 0.54585
	-0.42045,	 0.56013
	-0.40335,	 0.57373
	-0.38555,	 0.58662
	-0.36074,	 0.60261
	-0.33473,	 0.61714
	-0.30755,	 0.63008
	-0.27924,	 0.6413
	-0.24984,	 0.65063
	-0.2194,	 0.6579
	-0.18799,	 0.6629
	-0.15569,	 0.66539
	-0.13924,	 0.66561
	-0.12262,	 0.66509
	-0.10583,	 0.66379
	-0.088924,	 0.66166
	-0.071906,	 0.65865
	-0.054817,	 0.65472
	-0.037699,	 0.64979
	-0.020599,	 0.6438
	-0.0035738,	 0.63669
	 0.013307,	 0.62838
	 0.029963,	 0.61879
	 0.046295,	 0.60783
	 0.062187,	 0.59543
	 0.077497,	 0.58148
	 0.092059,	 0.56591
	 0.10567,	 0.54863
	 0.11205,	 0.53932
	 0.1181,	 0.52956
	 0.12378,	 0.51933
	 0.12906,	 0.50864
	 0.13388,	 0.49747
	 0.13822,	 0.48584
	 0.14201,	 0.47373
	 0.1452,	 0.46116
	 0.14774,	 0.44813
	 0.14956,	 0.43467
	 0.1506,	 0.42078
	 0.1508,	 0.4065
	 0.15007,	 0.39186
	 0.14836,	 0.3769
	 0.14558,	 0.36168
	 0.14166,	 0.34626
	 0.13653,	 0.33071
	 0.1301,	 0.31513
	 0.12232,	 0.29961
	 0.11312,	 0.28427
	 0.10244,	 0.26924
	 0.090255,	 0.25467
	 0.076513,	 0.24072
	 0.061213,	 0.22757
	 0.044366,	 0.21539
	 0.026006,	 0.2044
	 0.0061956,	 0.19478
	-0.01497,	 0.18674
	-0.037367,	 0.18048
	-0.060833,	 0.17618
	-0.085178,	 0.17403
	-0.11017,	 0.17416
	-0.12284,	 0.17513
	-0.13557,	 0.1767
	-0.14834,	 0.1789
	-0.1611,	 0.18173
	-0.17383,	 0.18519
	-0.18647,	 0.18929
	-0.199,	 0.19402
	-0.21137,	 0.19938
	-0.22355,	 0.20536
	-0.23551,	 0.21195
	-0.2472,	 0.21913
	-0.25859,	 0.2269
	-0.26965,	 0.23523
	-0.28035,	 0.2441
	-0.29064,	 0.25349
	-0.30052,	 0.26337
	-0.30994,	 0.27371
	-0.3189,	 0.28449
	-0.32735,	 0.29567
	-0.3353,	 0.30723
	-0.34271,	 0.31912
	-0.34959,	 0.33133
	-0.35591,	 0.3438
	-0.36167,	 0.35651
	-0.36686,	 0.36943
	-0.37148,	 0.38251
	-0.37554,	 0.39574
	-0.37902,	 0.40907
	-0.38194,	 0.42247
	-0.38431,	 0.43592
	-0.38612,	 0.44938
	-0.38739,	 0.46282
	-0.38837,	 0.48957
	-0.38733,	 0.51597
	-0.3844,	 0.54184
	-0.37972,	 0.56705
	-0.37342,	 0.59147
	-0.36566,	 0.61502
	-0.35656,	 0.63761
	-0.34629,	 0.65919
	-0.33496,	 0.67973
	-0.32271,	 0.6992
	-0.30966,	 0.71761
	-0.29593,	 0.73495
	-0.28161,	 0.75124
	-0.2668,	 0.76649
	-0.25159,	 0.78074
	-0.23606,	 0.79402
	-0.22026,	 0.80635
	-0.20427,	 0.81778
	-0.18814,	 0.82833
	-0.17192,	 0.83806
	-0.15565,	 0.847
	-0.13936,	 0.85518
	-0.12309,	 0.86264
	-0.10686,	 0.86942
	-0.074643,	 0.88108
	-0.042839,	 0.89041
	-0.011562,	 0.89765
	 0.019117,	 0.90302
	 0.04915,	 0.9067
	 0.078511,	 0.90887
	 0.10718,	 0.90968
	 0.13517,	 0.90925
	 0.16247,	 0.9077
	 0.1891,	 0.90514
	 0.21507,	 0.90165
	 0.2404,	 0.8973
	 0.26511,	 0.89218
	 0.2892,	 0.88633
	 0.31271,	 0.87982
	 0.33565,	 0.87268
	 0.35803,	 0.86496
	 0.37988,	 0.8567
	 0.4012,	 0.84793
	 0.42202,	 0.83867
	 0.46218,	 0.81882
	 0.50047,	 0.79731
	 0.53696,	 0.77431
	 0.57173,	 0.74991
	 0.60483,	 0.72424
	 0.6363,	 0.69738
	 0.66619,	 0.66939
	 0.69451,	 0.64036
	 0.72129,	 0.61033
	 0.74654,	 0.57938
	 0.77027,	 0.54754
	 0.79248,	 0.51488
	 0.81317,	 0.48143
	 0.83234,	 0.44726
	 0.84998,	 0.41241
	 0.86608,	 0.37692
	 0.88063,	 0.34085
	 0.89361,	 0.30423
	 0.90502,	 0.26714
	 0.91484,	 0.2296
	 0.92305,	 0.19169
	 0.92963,	 0.15344
	 0.93457,	 0.11492
	 0.93786,	 0.076186
	 0.93948,	 0.037288
	 0.93941,	-0.0017077
	 0.93763,	-0.040739
	 0.93414,	-0.079741
	 0.92892,	-0.11864
	 0.92196,	-0.15738
	 0.91326,	-0.19588
	 0.90279,	-0.23407
	 0.89057,	-0.27187
	 0.87657,	-0.3092
	 0.86082,	-0.34597
	 0.84329,	-0.38212
	 0.83064,	-0.40582
	 0.8172,	-0.42917
	 0.80299,	-0.45214
	 0.788,	-0.47472
	 0.77225,	-0.49686
	 0.75574,	-0.51854
	 0.73848,	-0.53974
	 0.72047,	-0.56041
	 0.70173,	-0.58054
	 0.68226,	-0.60009
	 0.66207,	-0.61904
	 0.64119,	-0.63734
	 0.61961,	-0.65497
	 0.59737,	-0.6719
	 0.57447,	-0.68809
	 0.55093,	-0.70351
	 0.52678,	-0.71814
	 0.50204,	-0.73193
	 0.47672,	-0.74486
	 0.45086,	-0.75689
	 0.42448,	-0.768
	 0.39761,	-0.77814
	 0.37029,	-0.78729
	 0.34253,	-0.79542
	 0.3144,	-0.8025
	 0.2859,	-0.80849
	 0.2571,	-0.81338
	 0.22803,	-0.81712
	 0.19873,	-0.8197
	 0.16926,	-0.82109
	 0.13965,	-0.82126
	 0.10996,	-0.82019
	 0.08026,	-0.81787
	 0.050582,	-0.81426
	 0.020993,	-0.80937
	-0.0084439,	-0.80316
	-0.037667,	-0.79564
	-0.066611,	-0.78678
	-0.095207,	-0.77659
	-0.12338,	-0.76506
	-0.15107,	-0.7522
	-0.17819,	-0.738
	-0.20468,	-0.72248
	-0.23045,	-0.70565
	-0.25542,	-0.68753
	-0.27952,	-0.66814
	-0.30265,	-0.64751
	-0.32475,	-0.62567
	-0.34572,	-0.60266
	-0.36549,	-0.57853
	-0.38397,	-0.55334
	-0.40109,	-0.52713
	-0.41675,	-0.49997
	-0.43089,	-0.47194
	-0.44343,	-0.44312
	-0.4543,	-0.4136
	-0.46343,	-0.38347
	-0.47076,	-0.35283
	-0.47622,	-0.32179
	-0.47978,	-0.29048
	-0.4814,	-0.259
	-0.48102,	-0.2275
	-0.47865,	-0.19611
	-0.47425,	-0.16497
	-0.4702,	-0.14441
	-0.46525,	-0.12407
	-0.45941,	-0.104
	-0.45269,	-0.084227
	-0.4451,	-0.064801
	-0.43665,	-0.045766
	-0.42735,	-0.027163
	-0.41724,	-0.0090356
	-0.40631,	 0.0085767
	-0.39461,	 0.025634
	-0.38216,	 0.0421
	-0.36899,	 0.057939
	-0.35512,	 0.073117
	-0.34059,	 0.087603
	-0.32543,	 0.10137
	-0.30969,	 0.11439
	-0.29339,	 0.12665
	-0.27657,	 0.13812
	-0.25928,	 0.1488
	-0.24154,	 0.15867
	-0.22339,	 0.16773
	-0.20487,	 0.17597
	-0.186,	 0.1834
	-0.1668,	 0.19001
	-0.15058,	 0.1949
	-0.13415,	 0.19924
	-0.11753,	 0.20303
	-0.10071,	 0.20627
	-0.083701,	 0.20897
	-0.066482,	 0.21114
	-0.049048,	 0.21277
	-0.03138,	 0.21386
	-0.013455,	 0.21441
	 0.0047557,	 0.21441
	 0.023285,	 0.21382
	 0.042171,	 0.21263
	 0.061458,	 0.21078
	 0.081188,	 0.20823
	 0.1014,	 0.2049
	 0.12216,	 0.2007
	 0.13988,	 0.19644
	 0.15802,	 0.19142
	 0.17657,	 0.18554
	 0.19553,	 0.1787
	 0.21488,	 0.17078
