CITIFILE A.01.01
#Momentum: B.12.070 (*) built: Feb 13 2020 
#Momentum Date and Time: Mon Aug 15 21:17:59 2022

NAME Momentum.SP

#  mode: MW    reference: S_50

#eesof Port[1] P1
#eesof Port[2] P2

CONSTANT NBR_OF_PORTS 2

CONSTANT NORMALIZATION 1

VAR freq MAG 499

DATA S[1,1] RI
DATA S[1,2] RI
DATA S[2,1] RI
DATA S[2,2] RI
DATA PORTZ[1] RI
DATA PORTZ[2] RI

VAR_LIST_BEGIN
	 0
	 9.215443759
	 92.15443759
	 921.5443759
	 9215.443759
	 11601.55633
	 14605.49408
	 18387.22765
	 23148.14814
	 29141.79193
	 36687.3424
	 46186.62764
	 58145.51922
	 73200.87173
	 92154.43759
	 116015.5633
	 146054.9408
	 183872.2765
	 231481.4814
	 291417.9193
	 366873.424
	 461866.2764
	 581455.1922
	 732008.7173
	 921544.3759
	 1160155.633
	 1460549.408
	 1838722.765
	 2314814.814
	 2914179.193
	 3668734.24
	 4618662.764
	 5814551.922
	 7320087.173
	 9215443.759
	 11601556.33
	 14605494.08
	 18387227.65
	 23148148.14
	 26172452.29
	 29210988.16
	 36774455.29
	 46296296.27
	 56722633.4
	 69444444.41
	 80487143.18
	 92592592.55
	 111882716
	 131172839.4
	 150462962.9
	 169753086.3
	 193865740.6
	 217978394.9
	 242091049.2
	 266203703.5
	 290316357.9
	 314429012.2
	 338541666.5
	 362654320.8
	 386766975.1
	 410879629.4
	 434992283.7
	 459104938
	 483217592.4
	 507330246.7
	 531442901
	 555555555.3
	 578703703.4
	 601851851.6
	 624999999.7
	 648148147.8
	 671296296
	 694444444.1
	 717592592.3
	 740740740.4
	 763888888.5
	 787037036.7
	 810185184.8
	 833333333
	 856481481.1
	 879629629.2
	 902777777.4
	 925925925.5
	 949074073.6
	 972222221.8
	 995370369.9
	 1018518518
	 1041666666
	 1064814814
	 1087962962
	 1111111111
	 1157407407
	 1203703703
	 1249999999
	 1296296296
	 1319444444
	 1342592592
	 1365740740
	 1388888888
	 1412037036
	 1435185185
	 1458333333
	 1481481481
	 1504629629
	 1527777777
	 1550925925
	 1574074073
	 1597222222
	 1620370370
	 1643518518
	 1666666666
	 1692708333
	 1718749999
	 1744791666
	 1770833333
	 1796874999
	 1822916666
	 1848958333
	 1875000000
	 1901041666
	 1927083333
	 1953125000
	 1979166666
	 2005208333
	 2031250000
	 2057291666
	 2083333333
	 2109375000
	 2135416666
	 2161458333
	 2187500000
	 2213541666
	 2239583333
	 2265625000
	 2291666666
	 2317708333
	 2343750000
	 2369791667
	 2395833333
	 2421875000
	 2447916667
	 2473958333
	 2500000000
	 2526041667
	 2552083333
	 2578125000
	 2604166666
	 2630208333
	 2656250000
	 2682291666
	 2708333333
	 2734375000
	 2760416666
	 2786458333
	 2812500000
	 2838541666
	 2864583333
	 2890624999
	 2916666666
	 2942708333
	 2968749999
	 2994791666
	 3020833333
	 3046874999
	 3072916666
	 3098958333
	 3125000000
	 3151041666
	 3177083333
	 3203125000
	 3229166666
	 3255208333
	 3281250000
	 3307291666
	 3333333333
	 3359375000
	 3385416666
	 3411458333
	 3437500000
	 3463541666
	 3489583333
	 3515625000
	 3541666666
	 3567708333
	 3593750000
	 3619791666
	 3645833333
	 3671875000
	 3697916666
	 3723958333
	 3750000000
	 3776041666
	 3802083333
	 3828124999
	 3854166666
	 3880208333
	 3906249999
	 3932291666
	 3958333333
	 3984374999
	 4010416666
	 4036458333
	 4062499999
	 4088541666
	 4114583333
	 4140624999
	 4166666666
	 4192708333
	 4218749999
	 4244791666
	 4270833333
	 4296874999
	 4322916666
	 4348958333
	 4375000000
	 4401041666
	 4427083333
	 4453125000
	 4479166666
	 4505208333
	 4531250000
	 4557291666
	 4583333333
	 4609375000
	 4635416666
	 4661458333
	 4687500000
	 4713541666
	 4739583333
	 4765625000
	 4791666666
	 4817708333
	 4843750000
	 4869791667
	 4895833333
	 4921875000
	 4947916667
	 4973958333
	 5000000000
	 5026041667
	 5052083333
	 5078125000
	 5104166667
	 5130208333
	 5156250000
	 5182291667
	 5208333333
	 5234375000
	 5260416667
	 5286458333
	 5312500000
	 5338541667
	 5364583333
	 5390625000
	 5416666667
	 5442708333
	 5468750000
	 5494791667
	 5520833333
	 5546875000
	 5572916667
	 5598958333
	 5625000000
	 5651041667
	 5677083333
	 5703125000
	 5729166667
	 5755208333
	 5781250000
	 5807291667
	 5833333334
	 5859375000
	 5885416667
	 5911458334
	 5937500000
	 5963541667
	 5989583334
	 6015625000
	 6041666667
	 6067708334
	 6093750000
	 6119791667
	 6145833334
	 6171875000
	 6197916667
	 6223958334
	 6250000000
	 6276041667
	 6302083334
	 6328125000
	 6354166667
	 6380208334
	 6406250000
	 6432291667
	 6458333334
	 6484375000
	 6510416667
	 6536458334
	 6562500000
	 6588541667
	 6614583334
	 6640625000
	 6666666667
	 6712962963
	 6759259260
	 6805555556
	 6851851852
	 6875000000
	 6898148149
	 6921296297
	 6944444445
	 6967592593
	 6990740741
	 7013888889
	 7037037038
	 7060185186
	 7083333334
	 7106481482
	 7129629630
	 7152777778
	 7175925926
	 7199074075
	 7222222223
	 7245370371
	 7268518519
	 7291666667
	 7314814815
	 7337962964
	 7361111112
	 7384259260
	 7407407408
	 7430555556
	 7453703704
	 7476851852
	 7500000000
	 7511574075
	 7523148149
	 7534722223
	 7546296297
	 7557870371
	 7569444445
	 7581018519
	 7592592593
	 7604166667
	 7615740741
	 7627314815
	 7638888889
	 7650462963
	 7662037037
	 7673611111
	 7685185186
	 7696759260
	 7708333334
	 7719907408
	 7731481482
	 7743055556
	 7754629630
	 7766203704
	 7777777778
	 7786458334
	 7795138889
	 7803819445
	 7812500000
	 7821180556
	 7829861111
	 7838541667
	 7847222222
	 7855902778
	 7864583334
	 7873263889
	 7881944445
	 7890625000
	 7899305556
	 7907986111
	 7916666667
	 7925347223
	 7934027778
	 7942708334
	 7951388889
	 7960069445
	 7968750000
	 7977430556
	 7986111112
	 7994791667
	 8003472223
	 8012152778
	 8020833334
	 8029513889
	 8038194445
	 8046875000
	 8055555556
	 8064236112
	 8072916667
	 8081597223
	 8090277778
	 8098958334
	 8107638889
	 8116319445
	 8125000000
	 8133680556
	 8142361112
	 8151041667
	 8159722223
	 8168402778
	 8177083334
	 8185763889
	 8194444445
	 8211805556
	 8229166667
	 8246527778
	 8263888890
	 8281250001
	 8298611112
	 8315972223
	 8333333334
	 8355034723
	 8376736112
	 8398437501
	 8420138890
	 8441840278
	 8463541667
	 8485243056
	 8506944445
	 8528645834
	 8550347223
	 8572048612
	 8593750000
	 8615451389
	 8637152778
	 8658854167
	 8680555556
	 8723958334
	 8767361112
	 8810763889
	 8854166667
	 8875868056
	 8897569445
	 8919270834
	 8940972222
	 8962673611
	 8984375000
	 9006076389
	 9027777778
	 9045138889
	 9062500000
	 9079861111
	 9097222222
	 9105902778
	 9114583334
	 9123263889
	 9131944445
	 9136284723
	 9140625000
	 9144965278
	 9149305556
	 9153645834
	 9157986111
	 9162326389
	 9166666667
	 9171006945
	 9175347223
	 9179687500
	 9184027778
	 9188368056
	 9192708334
	 9197048611
	 9201388889
	 9210069445
	 9218750000
	 9227430556
	 9236111112
	 9244791667
	 9253472223
	 9262152778
	 9270833334
	 9279513889
	 9288194445
	 9296875000
	 9305555556
	 9322916667
	 9340277778
	 9357638889
	 9375000000
	 9392361112
	 9409722223
	 9427083334
	 9444444445
	 9479166667
	 9513888889
	 9548611112
	 9583333334
	 9618055556
	 9652777778
	 9687500000
	 9722222222
	 9791666667
	 9861111111
	 9930555556
	 1e+10
VAR_LIST_END

BEGIN
	 1.52807580000000006795910800387e-09 ,	 0 
	 1.52807029999999996907831881357e-09 ,	 -1.13310221000000006932597063769e-09 
	 1.52807130000000008105444100192e-09 ,	 -1.13310197000000003417989518696e-08 
	 1.5281098700000000510714033092e-09 ,	 -1.13310191000000004814084316948e-07 
	 1.5321059800000000793681476983e-09 ,	 -1.13310190999999994226172476269e-06 
	 1.53446566000000008088108530038e-09 ,	 -1.42649079000000007032386735439e-06 
	 1.53820742999999993115557080531e-09 ,	 -1.79584549999999990606139917831e-06 
	 1.54413766999999996546949625366e-09 ,	 -2.26083552999999994544719043865e-06 
	 1.55353493999999999334168522238e-09 ,	 -2.84622328999999994891150802145e-06 
	 1.56842842999999996565827062225e-09 ,	 -3.58318278999999988498957430305e-06 
	 1.59203460999999999301200401573e-09 ,	 -4.51095980000000038132468987984e-06 
	 1.62944622999999994906801654667e-09 ,	 -5.67896178000000002313680733113e-06 
	 1.68873989000000002904719296229e-09 ,	 -7.14938902999999991301179405601e-06 
	 1.7827158700000000298498856359e-09 ,	 -9.00054698000000021984676884523e-06 
	 1.93165326999999992955846853636e-09 ,	 -1.13310162000000007613467051248e-05 
	 2.16770263e-09 ,	 -1.42649021e-05 
	 2.54180462e-09 ,	 -1.79584434e-05 
	 3.13469623e-09 ,	 -2.2608332e-05 
	 4.0743126e-09 ,	 -2.84621864e-05 
	 5.56337355e-09 ,	 -3.58317351e-05 
	 7.92304521e-09 ,	 -4.51094129e-05 
	 1.16620379e-08 ,	 -5.67892486e-05 
	 1.75858485e-08 ,	 -7.14931536e-05 
	 2.69692021e-08 ,	 -9.00040001e-05 
	 4.18276161e-08 ,	 -0.00011330723 
	 6.53434834e-08 ,	 -0.000142643172 
	 1.02530456e-07 ,	 -0.000179572769 
	 1.61259207e-07 ,	 -0.00022606006 
	 2.53814987e-07 ,	 -0.000284575498 
	 3.99196408e-07 ,	 -0.000358224982 
	 6.26337245e-07 ,	 -0.000450910274 
	 9.78174072e-07 ,	 -0.00056752705 
	 1.51556215e-06 ,	 -0.00071420679 
	 2.31742451e-06 ,	 -0.000898607618 
	 3.46690208e-06 ,	 -0.00113025651 
	 4.99813339e-06 ,	 -0.00142094187 
	 6.74759947e-06 ,	 -0.00178515652 
	 8.00251379e-06 ,	 -0.00224061312 
	 6.78055612e-06 ,	 -0.00280892559 
	 3.7103462e-06 ,	 -0.00316707093 
	 -1.57178415e-06 ,	 -0.00352481265 
	 -2.58148431e-05 ,	 -0.00440740172 
	 -8.12664561e-05 ,	 -0.00550624026 
	 -0.000174820517 ,	 -0.00669909861 
	 -0.000333769561 ,	 -0.00814532951 
	 -0.000509323534 ,	 -0.00939474849 
	-0.00073959,	-0.010759
	-0.0011839,	-0.01292
	-0.0017189,	-0.015062
	-0.0023411,	-0.017182
	-0.0030479,	-0.019277
	-0.0040472,	-0.021853
	-0.0051717,	-0.024377
	-0.0064178,	-0.026842
	-0.0077822,	-0.029244
	-0.0092612,	-0.031575
	-0.010851,	-0.033831
	-0.012548,	-0.036008
	-0.014348,	-0.038099
	-0.016248,	-0.040102
	-0.018242,	-0.04201
	-0.020327,	-0.043821
	-0.022498,	-0.045531
	-0.024749,	-0.047136
	-0.027076,	-0.048632
	-0.029474,	-0.050018
	-0.031937,	-0.051288
	-0.034357,	-0.052398
	-0.036826,	-0.053399
	-0.03934,	-0.054287
	-0.041892,	-0.055061
	-0.044478,	-0.055719
	-0.047091,	-0.056261
	-0.049727,	-0.056684
	-0.052379,	-0.056988
	-0.055042,	-0.057172
	-0.057711,	-0.057235
	-0.06038,	-0.057177
	-0.063043,	-0.056997
	-0.065696,	-0.056697
	-0.068332,	-0.056276
	-0.070947,	-0.055736
	-0.073534,	-0.055076
	-0.076089,	-0.054299
	-0.078606,	-0.053406
	-0.08108,	-0.052398
	-0.083505,	-0.051278
	-0.085878,	-0.050047
	-0.088193,	-0.048709
	-0.090445,	-0.047265
	-0.092629,	-0.04572
	-0.096777,	-0.042333
	-0.1006,	-0.038577
	-0.10406,	-0.03448
	-0.10714,	-0.030077
	-0.10853,	-0.027771
	-0.10981,	-0.025401
	-0.11098,	-0.022973
	-0.11204,	-0.020492
	-0.11298,	-0.017962
	-0.11381,	-0.015388
	-0.11452,	-0.012776
	-0.1151,	-0.010132
	-0.11557,	-0.0074597
	-0.11591,	-0.0047656
	-0.11612,	-0.0020549
	-0.11621,	 0.00066664
	-0.11618,	 0.0033936
	-0.11602,	 0.00612
	-0.11575,	 0.0088395
	-0.11536,	 0.011542
	-0.11479,	 0.014534
	-0.11404,	 0.017404
	-0.11299,	 0.02025
	-0.1118,	 0.023168
	-0.1105,	 0.026041
	-0.10908,	 0.028837
	-0.10751,	 0.031551
	-0.10579,	 0.034178
	-0.10393,	 0.036712
	-0.10193,	 0.039148
	-0.099805,	 0.041476
	-0.097542,	 0.043692
	-0.095152,	 0.045787
	-0.092643,	 0.047755
	-0.090019,	 0.049588
	-0.087288,	 0.051281
	-0.084455,	 0.052828
	-0.081528,	 0.054221
	-0.078514,	 0.055455
	-0.075421,	 0.056525
	-0.072256,	 0.057426
	-0.069028,	 0.058153
	-0.065745,	 0.058701
	-0.062416,	 0.059066
	-0.059051,	 0.059245
	-0.055658,	 0.059234
	-0.052246,	 0.059031
	-0.048827,	 0.058633
	-0.045409,	 0.058037
	-0.042003,	 0.057243
	-0.038619,	 0.056249
	-0.035268,	 0.055055
	-0.031959,	 0.053661
	-0.028704,	 0.052066
	-0.025513,	 0.050272
	-0.022397,	 0.048281
	-0.019367,	 0.046094
	-0.016433,	 0.043714
	-0.013607,	 0.041143
	-0.010898,	 0.038386
	-0.0083178,	 0.035446
	-0.0058766,	 0.032328
	-0.0035848,	 0.029037
	-0.0014525,	 0.02558
	 0.00051011,	 0.021961
	 0.0022933,	 0.018189
	 0.0038875,	 0.01427
	 0.0052834,	 0.010212
	 0.0064719,	 0.0060234
	 0.00744429076 ,	 0.00171356695 
	 0.0081923,	-0.0027084
	 0.0087079,	-0.0072327
	 0.0089834,	-0.011849
	 0.0090119,	-0.016546
	 0.0087865,	-0.021314
	 0.008301,	-0.026139
	 0.0075497,	-0.031011
	 0.0065274,	-0.035916
	 0.0052295,	-0.040843
	 0.0036519,	-0.045777
	 0.0017911,	-0.050706
	-0.00035573,	-0.055615
	-0.0027909,	-0.060492
	-0.0055159,	-0.065321
	-0.0085317,	-0.070088
	-0.011839,	-0.074778
	-0.015436,	-0.079378
	-0.019323,	-0.083872
	-0.023498,	-0.088245
	-0.027957,	-0.092483
	-0.032699,	-0.09657
	-0.037718,	-0.10049
	-0.04301,	-0.10423
	-0.04857,	-0.10778
	-0.054391,	-0.11112
	-0.060466,	-0.11423
	-0.066788,	-0.11711
	-0.073349,	-0.11974
	-0.080138,	-0.1221
	-0.087147,	-0.12418
	-0.094365,	-0.12597
	-0.10178,	-0.12746
	-0.10938,	-0.12864
	-0.11715,	-0.12949
	-0.12509,	-0.13
	-0.13317,	-0.13016
	-0.14139,	-0.12996
	-0.14972,	-0.1294
	-0.15815,	-0.12846
	-0.16668,	-0.12713
	-0.17527,	-0.12542
	-0.18392,	-0.1233
	-0.1926,	-0.12078
	-0.2013,	-0.11785
	-0.21001,	-0.11451
	-0.21869,	-0.11075
	-0.22735,	-0.10657
	-0.23595,	-0.10197
	-0.24447,	-0.096947
	-0.25291,	-0.091496
	-0.26123,	-0.085622
	-0.26943,	-0.079326
	-0.27748,	-0.07261
	-0.28536,	-0.065477
	-0.29305,	-0.057931
	-0.30054,	-0.049977
	-0.3078,	-0.041621
	-0.31482,	-0.032868
	-0.32157,	-0.023728
	-0.32805,	-0.014207
	-0.33423,	-0.0043152
	-0.34009,	 0.0059376
	-0.34562,	 0.016541
	-0.3508,	 0.027483
	-0.35562,	 0.038751
	-0.36005,	 0.050332
	-0.36408,	 0.062212
	-0.36771,	 0.074378
	-0.3709,	 0.086812
	-0.37365,	 0.0995
	-0.37596,	 0.11242
	-0.37779,	 0.12556
	-0.37915,	 0.13891
	-0.38001,	 0.15244
	-0.38038,	 0.16613
	-0.38025,	 0.17997
	-0.37959,	 0.19393
	-0.37841,	 0.208
	-0.3767,	 0.22214
	-0.37445,	 0.23636
	-0.37166,	 0.25061
	-0.36833,	 0.26488
	-0.36444,	 0.27915
	-0.36,	 0.2934
	-0.35501,	 0.30759
	-0.34947,	 0.32172
	-0.34337,	 0.33576
	-0.33672,	 0.34968
	-0.32952,	 0.36346
	-0.32178,	 0.37708
	-0.31349,	 0.39053
	-0.30467,	 0.40376
	-0.29532,	 0.41678
	-0.28544,	 0.42954
	-0.27505,	 0.44204
	-0.26415,	 0.45424
	-0.25276,	 0.46613
	-0.24089,	 0.47769
	-0.22854,	 0.4889
	-0.21573,	 0.49974
	-0.20247,	 0.51018
	-0.18878,	 0.52022
	-0.17467,	 0.52983
	-0.16015,	 0.53899
	-0.14526,	 0.54769
	-0.12999,	 0.55592
	-0.11437,	 0.56365
	-0.098421,	 0.57087
	-0.082154,	 0.57757
	-0.065593,	 0.58374
	-0.048757,	 0.58935
	-0.031668,	 0.59441
	-0.014346,	 0.5989
	 0.0031873,	 0.6028
	 0.02091,	 0.60612
	 0.0388,	 0.60883
	 0.056834,	 0.61094
	 0.07499,	 0.61244
	 0.093245,	 0.61331
	 0.11157,	 0.61356
	 0.12995,	 0.61318
	 0.14836,	 0.61217
	 0.16677,	 0.61053
	 0.18516,	 0.60824
	 0.20351,	 0.60532
	 0.22178,	 0.60176
	 0.23997,	 0.59755
	 0.25803,	 0.59272
	 0.27596,	 0.58724
	 0.29371,	 0.58114
	 0.31128,	 0.5744
	 0.32862,	 0.56704
	 0.34573,	 0.55906
	 0.36257,	 0.55047
	 0.37913,	 0.54127
	 0.39536,	 0.53147
	 0.41126,	 0.52107
	 0.42679,	 0.51009
	 0.44193,	 0.49853
	 0.45666,	 0.48641
	 0.47095,	 0.47373
	 0.48477,	 0.4605
	 0.5081,	 0.43568
	 0.52973,	 0.40924
	 0.54949,	 0.38126
	 0.56723,	 0.35183
	 0.57529,	 0.3366
	 0.58277,	 0.32105
	 0.58966,	 0.30518
	 0.59592,	 0.28902
	 0.60154,	 0.27258
	 0.60649,	 0.25588
	 0.61074,	 0.23893
	 0.61426,	 0.22177
	 0.61702,	 0.20441
	 0.61898,	 0.18687
	 0.62013,	 0.16919
	 0.6204,	 0.1514
	 0.61978,	 0.13353
	 0.61823,	 0.11562
	 0.61569,	 0.097717
	 0.61213,	 0.079865
	 0.60751,	 0.062123
	 0.60177,	 0.044554
	 0.59488,	 0.027229
	 0.58678,	 0.01023
	 0.57742,	-0.0063486
	 0.56678,	-0.022403
	 0.55479,	-0.037811
	 0.54142,	-0.052437
	 0.52665,	-0.066126
	 0.51045,	-0.078703
	 0.49282,	-0.089971
	 0.47378,	-0.099711
	 0.46374,	-0.10393
	 0.45337,	-0.10768
	 0.44267,	-0.11091
	 0.43166,	-0.11361
	 0.42036,	-0.11572
	 0.40878,	-0.11722
	 0.39695,	-0.11806
	 0.3849,	-0.1182
	 0.37266,	-0.11761
	 0.36025,	-0.11625
	 0.34774,	-0.11407
	 0.33515,	-0.11104
	 0.32255,	-0.10713
	 0.30998,	-0.1023
	 0.29752,	-0.096523
	 0.28524,	-0.089764
	 0.2732,	-0.082006
	 0.2615,	-0.073235
	 0.25021,	-0.063439
	 0.23943,	-0.052619
	 0.22925,	-0.040782
	 0.21978,	-0.027946
	 0.21112,	-0.01414
	 0.20335,	 0.00059632
	 0.19819,	 0.012227
	 0.19363,	 0.024325
	 0.18973,	 0.036858
	 0.18651,	 0.049792
	 0.18402,	 0.063086
	 0.18228,	 0.076698
	 0.18134,	 0.09058
	 0.18122,	 0.10468
	 0.18194,	 0.11895
	 0.18352,	 0.13333
	 0.18598,	 0.14776
	 0.18933,	 0.16218
	 0.19356,	 0.17653
	 0.19868,	 0.19075
	 0.20468,	 0.20478
	 0.21155,	 0.21854
	 0.21928,	 0.23199
	 0.22782,	 0.24507
	 0.23717,	 0.2577
	 0.24728,	 0.26986
	 0.25811,	 0.28147
	 0.26963,	 0.2925
	 0.28178,	 0.30291
	 0.29452,	 0.31266
	 0.3078,	 0.32171
	 0.32157,	 0.33005
	 0.33576,	 0.33763
	 0.35033,	 0.34446
	 0.36522,	 0.35052
	 0.38037,	 0.3558
	 0.39573,	 0.36029
	 0.41126,	 0.364
	 0.42688,	 0.36694
	 0.44257,	 0.36912
	 0.45827,	 0.37054
	 0.47393,	 0.37123
	 0.48952,	 0.3712
	 0.505,	 0.37048
	 0.52032,	 0.36909
	 0.53547,	 0.36705
	 0.5504,	 0.36439
	 0.56509,	 0.36114
	 0.57952,	 0.35733
	 0.59367,	 0.35298
	 0.60751,	 0.34813
	 0.62104,	 0.3428
	 0.63423,	 0.33702
	 0.64708,	 0.33082
	 0.67172,	 0.31728
	 0.69489,	 0.30237
	 0.71659,	 0.28632
	 0.73681,	 0.26929
	 0.75556,	 0.25146
	 0.77288,	 0.23298
	 0.78881,	 0.21399
	 0.8034,	 0.19461
	 0.81983,	 0.16998
	 0.83437,	 0.14508
	 0.84713,	 0.12005
	 0.85823,	 0.095024
	 0.86778,	 0.070087
	 0.8759,	 0.045325
	 0.88268,	 0.020803
	 0.88823,	-0.00343
	 0.89264,	-0.027334
	 0.89599,	-0.050881
	 0.89835,	-0.074049
	 0.8998,	-0.096825
	 0.90041,	-0.11919
	 0.90022,	-0.14116
	 0.8993,	-0.16272
	 0.89768,	-0.18387
	 0.89253,	-0.22499
	 0.88503,	-0.26457
	 0.87534,	-0.30271
	 0.86353,	-0.33951
	 0.85681,	-0.35745
	 0.8495,	-0.37509
	 0.84157,	-0.39245
	 0.83293,	-0.40953
	 0.82348,	-0.42634
	 0.81304,	-0.44282
	 0.80139,	-0.45892
	 0.78818,	-0.47443
	 0.77616,	-0.48618
	 0.76251,	-0.49695
	 0.74688,	-0.50605
	 0.72902,	-0.51228
	 0.71933,	-0.51374
	 0.70929,	-0.51367
	 0.69924,	-0.51171
	 0.68967,	-0.50754
	 0.6853,	-0.50455
	 0.68137,	-0.50096
	 0.67799,	-0.4968
	 0.67532,	-0.49212
	 0.67347,	-0.48703
	 0.67256,	-0.48167
	 0.67268,	-0.4762
	 0.67386,	-0.47084
	 0.67609,	-0.46579
	 0.6793,	-0.46125
	 0.68338,	-0.45743
	 0.68814,	-0.45446
	 0.69342,	-0.45244
	 0.69899,	-0.45141
	 0.70466,	-0.45136
	 0.71026,	-0.45224
	 0.7207,	-0.45645
	 0.72952,	-0.46317
	 0.73643,	-0.47153
	 0.74146,	-0.48079
	 0.7448,	-0.49043
	 0.74671,	-0.50011
	 0.74745,	-0.50959
	 0.74724,	-0.51878
	 0.74629,	-0.52761
	 0.74475,	-0.53607
	 0.74275,	-0.54416
	 0.74038,	-0.55189
	 0.73482,	-0.5664
	 0.72851,	-0.57979
	 0.72171,	-0.59225
	 0.71458,	-0.60392
	 0.70724,	-0.61493
	 0.69974,	-0.62538
	 0.69213,	-0.63534
	 0.68445,	-0.64488
	 0.6689,	-0.66286
	 0.6532,	-0.67962
	 0.6374,	-0.69536
	 0.62152,	-0.71021
	 0.60558,	-0.72427
	 0.58959,	-0.73762
	 0.57356,	-0.75031
	 0.55749,	-0.76239
	 0.52528,	-0.78486
	 0.49301,	-0.80524
	 0.46072,	-0.82372
	 0.42845,	-0.84041
END
BEGIN
	 0.999999998471909457009587640641 ,	 -0 
	 0.999999998471911677455636890954 ,	 -9.14226526600725453164386635763e-09 
	 0.999999998471903572827557127312 ,	 -9.14226515498495206912821231526e-08 
	 0.999999998470935569372386453324 ,	 -9.14226514464600015230644203257e-07 
	 0.999999998374314191806888629799 ,	 -9.14226513212129665575389481091e-06 
	 0.999999998317230409661249268538 ,	 -1.1509429886820410349201893041e-05 
	 0.999999998226758224362242799543 ,	 -1.44895137406484547648588545599e-05 
	 0.999999998083371699486576744675 ,	 -1.82412170150730162943020218336e-05 
	 0.99999999785611570768395495179 ,	 -2.29643315672566072915827817269e-05 
	 0.999999997495939818570320767321 ,	 -2.89103804248357770800836874514e-05 
	 0.999999996925102330180834542261 ,	 -3.63960122823463183561187861415e-05 
	 0.999999996020384585015960965393 ,	 -4.58198641529947159334312800638e-05 
	 0.999999994586504237226165514585 ,	 -5.76837901553241966245977323524e-05 
	 0.999999992313959973344594800437 ,	 -7.26195868977867753368826697624e-05 
	 0.999999988712225951204004559258 ,	 -9.14226385954654274801356450553e-05 
	 0.99999998300388015515238748776 ,	 -0.000115094273476225653074500598905 
	 0.999999973956802512553565520648 ,	 -0.000144895086747226509160668683762 
	 0.999999959618258160709558524104 ,	 -0.000182412069069911100815950533161 
