CITIFILE A.01.01
#Momentum: B.12.070 (*) built: Feb 13 2020 
#Momentum Date and Time: Sun Aug 14 12:48:18 2022

NAME Momentum.SP

#  mode: MW    reference: S_50

#eesof Port[1] P1
#eesof Port[2] P2

CONSTANT NBR_OF_PORTS 2

CONSTANT NORMALIZATION 1

VAR freq MAG 494

DATA S[1,1] RI
DATA S[1,2] RI
DATA S[2,1] RI
DATA S[2,2] RI
DATA PORTZ[1] RI
DATA PORTZ[2] RI

VAR_LIST_BEGIN
	 0
	 8.19612898
	 81.9612898
	 819.612898
	 8196.12898
	 10318.31505
	 12989.98902
	 16353.42728
	 20587.74518
	 25918.43557
	 32629.37718
	 41077.9521
	 51714.07776
	 65104.16664
	 81961.2898
	 103183.1505
	 129899.8902
	 163534.2728
	 205877.4518
	 259184.3557
	 326293.7718
	 410779.521
	 517140.7776
	 651041.6664
	 819612.898
	 1031831.505
	 1298998.902
	 1635342.728
	 2058774.518
	 2591843.557
	 3262937.718
	 4107795.21
	 5171407.776
	 6510416.664
	 7361002.208
	 8215590.42
	 10342815.55
	 13020833.33
	 15953240.64
	 19531249.99
	 22637009.02
	 26041666.66
	 32552083.32
	 39062499.98
	 45572916.65
	 52083333.31
	 65104166.64
	 78124999.97
	 91145833.3
	 104166666.6
	 117187500
	 130208333.3
	 143229166.6
	 156249999.9
	 169270833.3
	 182291666.6
	 195312499.9
	 208333333.2
	 221354166.6
	 234374999.9
	 247395833.2
	 260416666.6
	 273437499.9
	 286458333.2
	 299479166.5
	 312499999.9
	 325520833.2
	 338541666.5
	 351562499.9
	 364583333.2
	 377604166.5
	 390624999.8
	 403645833.2
	 416666666.5
	 429687499.8
	 442708333.2
	 455729166.5
	 468749999.8
	 481770833.1
	 494791666.5
	 507812499.8
	 520833333.1
	 533854166.5
	 546874999.8
	 559895833.1
	 572916666.4
	 585937499.8
	 598958333.1
	 611979166.4
	 624999999.8
	 638020833.1
	 651041666.4
	 664062499.7
	 677083333.1
	 690104166.4
	 703124999.7
	 716145833
	 729166666.4
	 742187499.7
	 755208333
	 768229166.4
	 781249999.7
	 794270833
	 807291666.3
	 820312499.7
	 833333333
	 859374999.7
	 885416666.3
	 911458333
	 937499999.6
	 963541666.3
	 989583332.9
	 1015625000
	 1041666666
	 1067708333
	 1093750000
	 1119791666
	 1145833333
	 1171875000
	 1197916666
	 1223958333
	 1250000000
	 1276041666
	 1302083333
	 1328124999
	 1354166666
	 1380208333
	 1406249999
	 1432291666
	 1458333333
	 1484374999
	 1510416666
	 1536458333
	 1562499999
	 1588541666
	 1614583333
	 1640624999
	 1666666666
	 1692708333
	 1718749999
	 1744791666
	 1770833333
	 1796874999
	 1822916666
	 1848958333
	 1874999999
	 1901041666
	 1927083333
	 1953124999
	 1979166666
	 2005208333
	 2031249999
	 2057291666
	 2083333333
	 2109374999
	 2135416666
	 2161458333
	 2187499999
	 2213541666
	 2239583333
	 2265624999
	 2291666666
	 2317708333
	 2343749999
	 2369791666
	 2395833333
	 2421874999
	 2447916666
	 2473958333
	 2500000000
	 2526041666
	 2552083333
	 2578125000
	 2604166666
	 2630208333
	 2656250000
	 2682291666
	 2708333333
	 2734375000
	 2760416666
	 2786458333
	 2812500000
	 2838541666
	 2864583333
	 2890625000
	 2916666666
	 2942708333
	 2968750000
	 2994791666
	 3020833333
	 3046875000
	 3072916666
	 3098958333
	 3125000000
	 3151041666
	 3177083333
	 3203125000
	 3229166666
	 3255208333
	 3281250000
	 3307291666
	 3333333333
	 3359375000
	 3385416666
	 3411458333
	 3437500000
	 3463541666
	 3489583333
	 3515625000
	 3541666666
	 3593750000
	 3645833333
	 3697916666
	 3750000000
	 3802083333
	 3854166666
	 3906250000
	 3958333333
	 4010416666
	 4062500000
	 4114583333
	 4166666666
	 4218750000
	 4270833333
	 4322916667
	 4375000000
	 4427083333
	 4479166667
	 4531250000
	 4583333333
	 4635416667
	 4687500000
	 4739583333
	 4791666667
	 4843750000
	 4895833333
	 4947916667
	 5000000000
	 5052083333
	 5104166667
	 5156250000
	 5208333333
	 5260416667
	 5312500000
	 5364583333
	 5416666667
	 5468750000
	 5520833333
	 5572916667
	 5625000000
	 5677083333
	 5729166667
	 5781250000
	 5833333334
	 5885416667
	 5937500000
	 5989583334
	 6041666667
	 6093750000
	 6145833334
	 6197916667
	 6250000000
	 6302083334
	 6354166667
	 6406250000
	 6458333334
	 6510416667
	 6562500000
	 6614583334
	 6666666667
	 6695601852
	 6724537037
	 6753472223
	 6782407408
	 6811342593
	 6840277778
	 6869212963
	 6898148148
	 6927083334
	 6956018519
	 6984953704
	 7013888889
	 7042824074
	 7071759260
	 7100694445
	 7129629630
	 7158564815
	 7187500000
	 7216435186
	 7245370371
	 7259837963
	 7274305556
	 7288773149
	 7303240741
	 7317708334
	 7332175926
	 7346643519
	 7361111112
	 7368344908
	 7375578704
	 7382812500
	 7390046297
	 7397280093
	 7404513889
	 7411747686
	 7418981482
	 7426215278
	 7433449074
	 7440682871
	 7447916667
	 7455150463
	 7462384260
	 7469618056
	 7476851852
	 7480468750
	 7484085649
	 7487702547
	 7491319445
	 7494936343
	 7498553241
	 7502170139
	 7505787037
	 7509403936
	 7513020834
	 7516637732
	 7520254630
	 7523871528
	 7527488426
	 7531105324
	 7534722223
	 7538339121
	 7541956019
	 7545572917
	 7549189815
	 7552806713
	 7556423612
	 7560040510
	 7563657408
	 7567274306
	 7570891204
	 7574508102
	 7578125000
	 7579933449
	 7581741899
	 7583550348
	 7585358797
	 7587167246
	 7588975695
	 7590784144
	 7592592593
	 7594039352
	 7595486112
	 7596932871
	 7598379630
	 7599826389
	 7601273149
	 7602719908
	 7604166667
	 7605613426
	 7607060186
	 7608506945
	 7609953704
	 7611400463
	 7612847223
	 7614293982
	 7615740741
	 7618634260
	 7621527778
	 7624421297
	 7627314815
	 7628761574
	 7630208334
	 7631655093
	 7633101852
	 7634548611
	 7635995371
	 7637442130
	 7638888889
	 7640335649
	 7641782408
	 7643229167
	 7644675926
	 7646122686
	 7647569445
	 7649016204
	 7650462963
	 7653356482
	 7656250000
	 7659143519
	 7662037037
	 7664930556
	 7667824074
	 7670717593
	 7673611111
	 7676504630
	 7679398148
	 7682291667
	 7685185186
	 7688078704
	 7690972223
	 7693865741
	 7696759260
	 7699652778
	 7702546297
	 7705439815
	 7708333334
	 7711226852
	 7714120371
	 7717013889
	 7719907408
	 7722800926
	 7725694445
	 7728587963
	 7731481482
	 7737268519
	 7743055556
	 7748842593
	 7754629630
	 7760416667
	 7766203704
	 7771990741
	 7777777778
	 7786458334
	 7795138889
	 7803819445
	 7812500000
	 7821180556
	 7829861111
	 7838541667
	 7847222222
	 7855902778
	 7864583334
	 7873263889
	 7881944445
	 7890625000
	 7899305556
	 7907986111
	 7916666667
	 7934027778
	 7951388889
	 7968750000
	 7986111112
	 8003472223
	 8020833334
	 8038194445
	 8055555556
	 8090277778
	 8125000000
	 8159722223
	 8194444445
	 8229166667
	 8263888890
	 8298611112
	 8333333334
	 8376736112
	 8420138890
	 8463541667
	 8506944445
	 8550347223
	 8593750000
	 8637152778
	 8680555556
	 8723958334
	 8767361112
	 8810763889
	 8854166667
	 8897569445
	 8940972222
	 8984375000
	 9027777778
	 9071180556
	 9114583334
	 9157986111
	 9201388889
	 9244791667
	 9288194444
	 9331597222
	 9375000000
	 9418402778
	 9461805556
	 9505208333
	 9548611111
	 9592013889
	 9635416666
	 9678819444
	 9722222222
	 9756944444
	 9791666666
	 9826388889
	 9861111111
	 9895833333
	 9930555556
	 9965277778
	 1e+10
VAR_LIST_END

BEGIN
	 0.999999999994353849785966303898 ,	 -0 
	 0.999999999994356625343527866789 ,	 -9.82646911062978745121654355898e-09 
	 0.999999999994348076626238253084 ,	 -9.82646890732019606673475209391e-08 
	 0.999999999993434363076971749251 ,	 -9.82646894534533466014636360342e-07 
	 0.999999999902165925824704117986 ,	 -9.82646894649719104819496351411e-06 
	 0.999999999848242726585567652364 ,	 -1.23707914685827757850233865611e-05 
	 0.999999999762782976198138840118 ,	 -1.55739037478938580072451713932e-05 
	 0.999999999627338098662221455015 ,	 -1.96063831994219839316428988241e-05 
	 0.999999999412670592668916924595 ,	 -2.46829740646326012409872419084e-05 
	 0.999999999072447076642333740892 ,	 -3.10740233298370527315057643136e-05 
	 0.999999998533227962838054736494 ,	 -3.91198776998336050780835648766e-05 
	 0.999999997678623464558711475547 ,	 -4.92490083075919349298033012019e-05 
	 0.999999996324167805816784948547 ,	 -6.20008283920420177892651736329e-05 
	 0.9999999941775009615341218705 ,	 -7.80544190702031626116763618484e-05 
	 0.99999999077526291468842600807 ,	 -9.82646929770028543238424845185e-05 
	 0.999999985383080880474437890371 ,	 -0.000123707921679490351341001996843 
	 0.999999976837053661249399283406 ,	 -0.000155739051446217302565599993613 
	 0.999999963292524829405749642319 ,	 -0.00019606385985950630646001968671 
	 0.999999941825928106986509646958 ,	 -0.000246829796229967868281818255127 
	 0.999999907803743481871094900271 ,	 -0.000310740344201691776060414440508 
	 0.999999853882419409423221168254 ,	 -0.000391198998267984487942072746591 
	 0.999999768423391444116532511543 ,	 -0.000492490524561781106704927424289 
	 0.999999632981239616746904630418 ,	 -0.000620009164796410383591052095653 
	 0.999999418323117006401901107893 ,	 -0.000780545948243754894591006632254 
	 0.999999078121013740272360337258 ,	 -0.000982650436405677063511632240989 
	 0.999998538957337923527290968195 ,	 -0.00123708621304295662834960012333 
	 0.99999768449153658700367941492 ,	 -0.00155740447253228941892899683808 
	 0.999996330382670106651232799777 ,	 -0.00196066644451244054270233618809 
	 0.999994184586546874804469098308 ,	 -0.00246835350931725455714271788565 
	 0.999990784536642807189821269276 ,	 -0.00310751423211195337836798557873 
	 0.999985397847482748723280110426 ,	 -0.00391221090915620101080563131291 
	 0.999976865602726694426394260518 ,	 -0.0049253456450661578513994243167 
	 0.999963355636979356333426949277 ,	 -0.00620096907679849873584743136234 
	 0.999941975623788947835635099182 ,	 -0.00780720613826181575323204242522 
	 0.999925874357187605134811292373 ,	 -0.00882776808117366473815934568847 
	 0.999907735111123407989452971378 ,	 -0.00985333419106083907568205404459 
	 0.999854102921535869974434262986 ,	 -0.0124071736525602355216690853013 
	 0.999769593471268702700172070763 ,	 -0.0156247407229930038163878691648 
	 0.999655776503252546660860389238 ,	 -0.0191517713373661122022717506752 
	 0.999487645102834276755743303511 ,	 -0.0234617067354862401939996630063 
	 0.999316554305480164721586788801 ,	 -0.02720924928073246984450150876 
	 0.999103263072489089502425940736 ,	 -0.0313250317384186835467652088028 
	 0.99862489719444280655835655125 ,	 -0.0392189676537475634399143586961 
	 0.998061279271127976819855120993 ,	 -0.0471450657759837840621308657774 
	 0.997420576635877131899121650349 ,	 -0.0551025258980680152087749945622 
	 0.996709835239729335931713194441 ,	 -0.0630887567739589760762441983388 
	 0.995099470847765732450795894692 ,	 -0.0791318332570358218269745975704 
	 0.993259386848209024911682263337 ,	 -0.0952391511762476911107100363552 
	 0.991201762683722509272854495066 ,	 -0.111376510967014591413359880789 
	 0.98892,	-0.12751
	 0.98643,	-0.14363
	 0.98372,	-0.15971
	 0.98077,	-0.17575
	 0.9776,	-0.19172
	 0.97418,	-0.20763
	 0.97053,	-0.22346
	 0.96665,	-0.23922
	 0.96252,	-0.25489
	 0.95815,	-0.27047
	 0.95354,	-0.28596
	 0.9487,	-0.30135
	 0.94362,	-0.31663
	 0.93831,	-0.33181
	 0.93276,	-0.34688
	 0.92698,	-0.36182
	 0.92098,	-0.37665
	 0.91475,	-0.39136
	 0.90829,	-0.40593
	 0.90162,	-0.42037
	 0.89473,	-0.43468
	 0.88763,	-0.44885
	 0.88032,	-0.46287
	 0.8728,	-0.47674
	 0.86508,	-0.49047
	 0.85716,	-0.50404
	 0.84905,	-0.51745
	 0.84074,	-0.53071
	 0.83225,	-0.5438
	 0.82357,	-0.55672
	 0.81471,	-0.56948
	 0.80568,	-0.58206
	 0.79647,	-0.59447
	 0.7871,	-0.6067
	 0.77756,	-0.61876
	 0.76786,	-0.63063
	 0.75801,	-0.64232
	 0.74801,	-0.65383
	 0.73786,	-0.66514
	 0.72757,	-0.67627
	 0.71713,	-0.68721
	 0.70657,	-0.69796
	 0.69587,	-0.70851
	 0.68505,	-0.71887
	 0.67411,	-0.72903
	 0.66305,	-0.73899
	 0.65188,	-0.74876
	 0.6406,	-0.75833
	 0.62921,	-0.7677
	 0.61773,	-0.77687
	 0.60615,	-0.78583
	 0.59448,	-0.7946
	 0.58271,	-0.80316
	 0.57087,	-0.81153
	 0.55895,	-0.81969
	 0.54695,	-0.82765
	 0.53488,	-0.8354
	 0.51054,	-0.85031
	 0.48596,	-0.86441
	 0.46117,	-0.8777
	 0.4362,	-0.8902
	 0.41109,	-0.9019
	 0.38585,	-0.91282
	 0.36052,	-0.92295
	 0.33512,	-0.93231
	 0.30967,	-0.94091
	 0.28421,	-0.94876
	 0.25875,	-0.95587
	 0.23332,	-0.96225
	 0.20794,	-0.96791
	 0.18263,	-0.97286
	 0.1574,	-0.97712
	 0.13229,	-0.98071
	 0.1073,	-0.98363
	 0.082461,	-0.98589
	 0.057775,	-0.98752
	 0.033262,	-0.98853
	 0.0089379,	-0.98893
	-0.015185,	-0.98874
	-0.039093,	-0.98797
	-0.062776,	-0.98664
	-0.086221,	-0.98476
	-0.10941,	-0.98235
	-0.13236,	-0.97942
	-0.15503,	-0.97599
	-0.17743,	-0.97206
	-0.19955,	-0.96767
	-0.22139,	-0.96281
	-0.24292,	-0.95751
	-0.26416,	-0.95178
	-0.28509,	-0.94564
	-0.30572,	-0.93908
	-0.32602,	-0.93214
	-0.34601,	-0.92482
	-0.36568,	-0.91714
	-0.38503,	-0.90911
	-0.40404,	-0.90073
	-0.42273,	-0.89203
	-0.44109,	-0.88302
	-0.45912,	-0.87371
	-0.47682,	-0.8641
	-0.49418,	-0.85421
	-0.5112,	-0.84405
	-0.5279,	-0.83364
	-0.54426,	-0.82298
	-0.56028,	-0.81207
	-0.57598,	-0.80094
	-0.59134,	-0.7896
	-0.60637,	-0.77804
	-0.62107,	-0.76628
	-0.63544,	-0.75433
	-0.64948,	-0.7422
	-0.66319,	-0.72989
	-0.67658,	-0.71742
	-0.68965,	-0.70479
	-0.7024,	-0.69201
	-0.71482,	-0.67908
	-0.72693,	-0.66602
	-0.73873,	-0.65283
	-0.75021,	-0.63952
	-0.76138,	-0.62609
	-0.77224,	-0.61255
	-0.7828,	-0.59891
	-0.79306,	-0.58517
	-0.80301,	-0.57134
	-0.81266,	-0.55743
	-0.82202,	-0.54343
	-0.83109,	-0.52936
	-0.83986,	-0.51522
	-0.84835,	-0.50101
	-0.85655,	-0.48675
	-0.86446,	-0.47243
	-0.8721,	-0.45806
	-0.87946,	-0.44364
	-0.88654,	-0.42918
	-0.89335,	-0.41468
	-0.89989,	-0.40015
	-0.90616,	-0.38558
	-0.91216,	-0.37099
	-0.91791,	-0.35638
	-0.92339,	-0.34175
	-0.92861,	-0.32711
	-0.93358,	-0.31245
	-0.9383,	-0.29778
	-0.94276,	-0.2831
	-0.94698,	-0.26843
	-0.95095,	-0.25375
	-0.95468,	-0.23908
	-0.95816,	-0.22441
	-0.96141,	-0.20975
	-0.96442,	-0.1951
	-0.9672,	-0.18046
	-0.96974,	-0.16584
	-0.97205,	-0.15124
	-0.97414,	-0.13666
	-0.976,	-0.1221
	-0.97763,	-0.10757
	-0.97905,	-0.093075
	-0.98024,	-0.078602
	-0.98122,	-0.06416
	-0.98198,	-0.049753
	-0.98286,	-0.021049
	-0.9829,	 0.0074948
	-0.98212,	 0.035864
	-0.98052,	 0.064043
	-0.97813,	 0.092019
	-0.97495,	 0.11977
	-0.97099,	 0.1473
	-0.96628,	 0.17459
	-0.96083,	 0.20162
	-0.95463,	 0.22839
	-0.94771,	 0.25487
	-0.94008,	 0.28107
	-0.93175,	 0.30696
	-0.92273,	 0.33254
	-0.91302,	 0.3578
	-0.90265,	 0.38272
	-0.89161,	 0.40729
	-0.87992,	 0.4315
	-0.86759,	 0.45535
	-0.85463,	 0.47881
	-0.84104,	 0.50188
	-0.82684,	 0.52455
	-0.81204,	 0.54681
	-0.79664,	 0.56864
	-0.78065,	 0.59003
	-0.76409,	 0.61098
	-0.74696,	 0.63146
	-0.72927,	 0.65148
	-0.71103,	 0.67101
	-0.69225,	 0.69004
	-0.67295,	 0.70857
	-0.65312,	 0.72658
	-0.63278,	 0.74406
	-0.61194,	 0.76099
	-0.59061,	 0.77737
	-0.56881,	 0.79317
	-0.54653,	 0.8084
	-0.5238,	 0.82302
	-0.50063,	 0.83705
	-0.47702,	 0.85045
	-0.453,	 0.86321
	-0.42857,	 0.87533
	-0.40374,	 0.88679
	-0.37853,	 0.89757
	-0.35296,	 0.90767
	-0.32704,	 0.91707
	-0.30079,	 0.92576
	-0.27421,	 0.93371
	-0.24734,	 0.94094
	-0.22018,	 0.9474
	-0.19275,	 0.95311
	-0.16507,	 0.95804
	-0.13717,	 0.96217
	-0.10905,	 0.96551
	-0.080751,	 0.96803
	-0.052278,	 0.96973
	-0.023659,	 0.97059
	 0.0050848,	 0.97061
	 0.033929,	 0.96976
	 0.062849,	 0.96805
	 0.07894,	 0.96672
	 0.095042,	 0.96512
	 0.11115,	 0.96325
	 0.12726,	 0.9611
	 0.14337,	 0.95867
	 0.15948,	 0.95597
	 0.17557,	 0.95298
	 0.19165,	 0.94972
	 0.2077,	 0.94617
	 0.22374,	 0.94234
	 0.23974,	 0.93822
	 0.2557,	 0.93382
	 0.27163,	 0.92913
	 0.28751,	 0.92415
	 0.30334,	 0.91889
	 0.31911,	 0.91333
	 0.33482,	 0.90748
	 0.35046,	 0.90133
	 0.36603,	 0.89489
	 0.38152,	 0.88815
	 0.38924,	 0.88467
	 0.39693,	 0.88111
	 0.40459,	 0.87748
	 0.41223,	 0.87377
	 0.41985,	 0.86998
	 0.42744,	 0.86611
	 0.435,	 0.86217
	 0.44253,	 0.85814
	 0.44629,	 0.8561
	 0.45003,	 0.85403
	 0.45377,	 0.85195
	 0.4575,	 0.84984
	 0.46122,	 0.84772
	 0.46493,	 0.84557
	 0.46863,	 0.8434
	 0.47232,	 0.84121
	 0.476,	 0.839
	 0.47967,	 0.83677
	 0.48332,	 0.83451
	 0.48697,	 0.83223
	 0.4906,	 0.82993
	 0.49421,	 0.82761
	 0.49781,	 0.82526
	 0.50139,	 0.82289
	 0.50317,	 0.82169
	 0.50495,	 0.82049
	 0.50672,	 0.81929
	 0.50849,	 0.81808
	 0.51025,	 0.81686
	 0.51201,	 0.81564
	 0.51376,	 0.81441
	 0.5155,	 0.81318
	 0.51724,	 0.81194
	 0.51897,	 0.81069
	 0.52069,	 0.80944
	 0.5224,	 0.80819
	 0.52411,	 0.80693
	 0.5258,	 0.80567
	 0.52749,	 0.80441
	 0.52917,	 0.80314
	 0.53083,	 0.80187
	 0.53249,	 0.80059
	 0.53413,	 0.79932
	 0.53577,	 0.79804
	 0.53739,	 0.79677
	 0.539,	 0.7955
	 0.5406,	 0.79423
	 0.54218,	 0.79296
	 0.54376,	 0.7917
	 0.54532,	 0.79045
	 0.54687,	 0.78921
	 0.54842,	 0.78797
	 0.54918,	 0.78736
	 0.54995,	 0.78675
	 0.55071,	 0.78614
	 0.55147,	 0.78554
	 0.55223,	 0.78494
	 0.55299,	 0.78435
	 0.55375,	 0.78376
	 0.55451,	 0.78317
	 0.55511,	 0.7827
	 0.55572,	 0.78224
	 0.55632,	 0.78178
	 0.55693,	 0.78132
	 0.55753,	 0.78086
	 0.55814,	 0.78041
	 0.55875,	 0.77996
	 0.55935,	 0.77952
	 0.55996,	 0.77907
	 0.56057,	 0.77863
	 0.56118,	 0.77819
	 0.5618,	 0.77776
	 0.56241,	 0.77732
	 0.56303,	 0.77689
	 0.56365,	 0.77647
	 0.56427,	 0.77604
	 0.56553,	 0.77519
	 0.56679,	 0.77436
	 0.56807,	 0.77353
	 0.56936,	 0.7727
	 0.57001,	 0.77229
	 0.57066,	 0.77187
	 0.57132,	 0.77146
	 0.57198,	 0.77105
	 0.57265,	 0.77064
	 0.57332,	 0.77023
	 0.57399,	 0.76981
	 0.57467,	 0.7694
	 0.57535,	 0.76899
	 0.57603,	 0.76857
	 0.57672,	 0.76815
	 0.57741,	 0.76773
	 0.5781,	 0.76731
	 0.5788,	 0.76689
	 0.5795,	 0.76647
	 0.5802,	 0.76604
	 0.58162,	 0.76518
	 0.58304,	 0.76431
	 0.58447,	 0.76343
	 0.58592,	 0.76253
	 0.58736,	 0.76163
	 0.58882,	 0.76071
	 0.59028,	 0.75978
	 0.59174,	 0.75884
	 0.5932,	 0.75788
	 0.59467,	 0.75691
	 0.59614,	 0.75593
	 0.5976,	 0.75494
	 0.59907,	 0.75394
	 0.60053,	 0.75292
	 0.602,	 0.7519
	 0.60346,	 0.75086
	 0.60492,	 0.74982
	 0.60637,	 0.74876
	 0.60782,	 0.7477
	 0.60927,	 0.74663
	 0.61071,	 0.74555
	 0.61215,	 0.74446
	 0.61359,	 0.74337
	 0.61502,	 0.74226
	 0.61645,	 0.74116
	 0.61787,	 0.74004
	 0.61929,	 0.73892
	 0.6207,	 0.73779
	 0.62352,	 0.73552
	 0.62632,	 0.73323
	 0.6291,	 0.73092
	 0.63186,	 0.7286
	 0.63461,	 0.72625
	 0.63734,	 0.7239
	 0.64006,	 0.72152
	 0.64276,	 0.71914
	 0.64679,	 0.71554
	 0.65078,	 0.71191
	 0.65475,	 0.70825
	 0.65869,	 0.70457
	 0.6626,	 0.70086
	 0.66648,	 0.69713
	 0.67034,	 0.69338
	 0.67417,	 0.6896
	 0.67797,	 0.6858
	 0.68176,	 0.68198
	 0.68552,	 0.67814
	 0.68925,	 0.67427
	 0.69296,	 0.67039
	 0.69665,	 0.66648
	 0.70032,	 0.66255
	 0.70396,	 0.65859
	 0.71118,	 0.65063
	 0.71831,	 0.64257
	 0.72535,	 0.63444
	 0.7323,	 0.62621
	 0.73916,	 0.61791
	 0.74593,	 0.60952
	 0.7526,	 0.60105
	 0.75919,	 0.5925
	 0.77209,	 0.57515
	 0.78461,	 0.55748
	 0.79675,	 0.5395
	 0.80849,	 0.52122
	 0.81984,	 0.50264
	 0.83078,	 0.48377
	 0.84131,	 0.46461
	 0.85141,	 0.44518
	 0.86342,	 0.42052
	 0.87475,	 0.39547
	 0.88537,	 0.37004
	 0.89527,	 0.34425
	 0.90443,	 0.31812
	 0.91284,	 0.29168
	 0.92049,	 0.26495
	 0.92735,	 0.23794
	 0.93344,	 0.21068
	 0.93872,	 0.1832
	 0.94319,	 0.15552
	 0.94683,	 0.12767
	 0.94965,	 0.099668
	 0.95163,	 0.07154
	 0.95276,	 0.043316
	 0.95305,	 0.015022
	 0.95247,	-0.013316
	 0.95103,	-0.041668
	 0.94872,	-0.070007
	 0.94555,	-0.098306
	 0.9415,	-0.12653
	 0.93658,	-0.15466
	 0.93079,	-0.18266
	 0.92414,	-0.21051
	 0.91661,	-0.23818
	 0.90822,	-0.26563
	 0.89897,	-0.29284
	 0.88886,	-0.31977
	 0.8779,	-0.34641
	 0.86611,	-0.37272
	 0.85348,	-0.39867
	 0.84002,	-0.42423
	 0.82868,	-0.44438
	 0.81681,	-0.46426
	 0.80444,	-0.48384
	 0.79157,	-0.50312
	 0.7782,	-0.52207
	 0.76435,	-0.54069
	 0.75002,	-0.55897
	 0.73521,	-0.57688
END
BEGIN
	 -1.21483820999999996246313752831e-15 ,	 0 
	 -1.36392632999999992901711647215e-15 ,	 6.5480936600000003968237329272e-12 
	 -1.25507243000000005558794123424e-15 ,	 6.54809592000000008585598888829e-11 
	 1.01533365000000000689546225904e-14 ,	 6.54809575000000005234438739659e-10 
	 1.1506819800000000728840885458e-12 ,	 6.54809518000000020151700548163e-09 
	 1.82450191999999980654670472469e-12 ,	 8.24356296999999939211365893553e-09 
	 2.89245233999999991605262627611e-12 ,	 1.03780299999999999884393769357e-08 
	 4.58502159999999989932757772334e-12 ,	 1.30651639999999992003472623647e-08 
