CITIFILE A.01.01
#Momentum: B.12.070 (*) built: Feb 13 2020 
#Momentum Date and Time: Tue Aug 16 12:55:39 2022

NAME Momentum.SP

#  mode: MW    reference: S_50

#eesof Port[1] P1
#eesof Port[2] P2

CONSTANT NBR_OF_PORTS 2

CONSTANT NORMALIZATION 1

VAR freq MAG 530

DATA S[1,1] RI
DATA S[1,2] RI
DATA S[2,1] RI
DATA S[2,2] RI
DATA PORTZ[1] RI
DATA PORTZ[2] RI

VAR_LIST_BEGIN
	 0
	 8.701167246
	 87.01167246
	 870.1167246
	 8701.167246
	 10954.12056
	 13790.42074
	 17361.1111
	 21856.34394
	 27515.5068
	 34639.97073
	 43609.13942
	 54900.6538
	 69115.82819
	 87011.67246
	 109541.2056
	 137904.2074
	 173611.111
	 218563.4394
	 275155.068
	 346399.7073
	 436091.3942
	 549006.538
	 691158.2819
	 870116.7246
	 1095412.056
	 1379042.074
	 1736111.11
	 2185634.394
	 2751550.68
	 3463997.073
	 4360913.942
	 5490065.38
	 6911582.819
	 8701167.246
	 10954120.56
	 13790420.74
	 17361111.1
	 19629339.22
	 21908241.12
	 27580841.47
	 34722222.21
	 42541975.05
	 52083333.31
	 60365357.39
	 69444444.41
	 86805555.52
	 104166666.6
	 121527777.7
	 138888888.8
	 156249999.9
	 173611111
	 190972222.1
	 208333333.2
	 225694444.3
	 243055555.4
	 260416666.5
	 277777777.6
	 295138888.8
	 312499999.9
	 329861111
	 347222222.1
	 364583333.2
	 381944444.3
	 399305555.4
	 416666666.5
	 434027777.6
	 451388888.7
	 468749999.8
	 486111110.9
	 503472222
	 520833333.1
	 538194444.2
	 555555555.3
	 572916666.4
	 590277777.5
	 607638888.6
	 624999999.7
	 642361110.8
	 659722221.9
	 677083333
	 694444444.1
	 711805555.2
	 729166666.3
	 746527777.5
	 763888888.6
	 781249999.7
	 798611110.8
	 815972221.9
	 833333333
	 850694444.1
	 868055555.2
	 885416666.3
	 902777777.4
	 920138888.5
	 937499999.6
	 954861110.7
	 972222221.8
	 989583332.9
	 1006944444
	 1024305555
	 1041666666
	 1059027777
	 1076388888
	 1093750000
	 1111111111
	 1128472222
	 1145833333
	 1163194444
	 1180555555
	 1197916666
	 1215277777
	 1232638888
	 1249999999
	 1267361111
	 1284722222
	 1302083333
	 1319444444
	 1336805555
	 1354166666
	 1371527777
	 1388888888
	 1406249999
	 1423611111
	 1440972222
	 1458333333
	 1475694444
	 1493055555
	 1510416666
	 1527777777
	 1545138888
	 1562499999
	 1579861110
	 1597222222
	 1614583333
	 1631944444
	 1649305555
	 1666666666
	 1692708333
	 1718749999
	 1744791666
	 1770833333
	 1796874999
	 1822916666
	 1848958333
	 1874999999
	 1901041666
	 1927083333
	 1953124999
	 1979166666
	 2005208333
	 2031249999
	 2057291666
	 2083333333
	 2109374999
	 2135416666
	 2161458333
	 2187499999
	 2213541666
	 2239583333
	 2265624999
	 2291666666
	 2317708333
	 2343749999
	 2369791666
	 2395833333
	 2421874999
	 2447916666
	 2473958333
	 2500000000
	 2526041666
	 2552083333
	 2578125000
	 2604166666
	 2630208333
	 2656250000
	 2682291666
	 2708333333
	 2721354166
	 2734375000
	 2747395833
	 2760416666
	 2773437500
	 2786458333
	 2799479166
	 2812500000
	 2838541666
	 2864583333
	 2890625000
	 2916666666
	 2942708333
	 2968750000
	 2994791666
	 3020833333
	 3046875000
	 3072916666
	 3098958333
	 3125000000
	 3151041666
	 3177083333
	 3203125000
	 3229166666
	 3255208333
	 3281250000
	 3307291666
	 3333333333
	 3359375000
	 3385416666
	 3411458333
	 3437500000
	 3463541666
	 3489583333
	 3515625000
	 3541666666
	 3567708333
	 3593750000
	 3619791666
	 3645833333
	 3671875000
	 3697916666
	 3723958333
	 3750000000
	 3776041666
	 3802083333
	 3828124999
	 3854166666
	 3880208333
	 3906249999
	 3932291666
	 3958333333
	 3984374999
	 4010416666
	 4036458333
	 4062499999
	 4075520833
	 4088541666
	 4101562499
	 4114583333
	 4127604166
	 4140624999
	 4153645833
	 4166666666
	 4179687499
	 4192708333
	 4205729166
	 4218749999
	 4231770833
	 4244791666
	 4257812499
	 4270833333
	 4283854166
	 4296874999
	 4309895833
	 4322916666
	 4335937499
	 4348958333
	 4361979166
	 4375000000
	 4388020833
	 4401041666
	 4414062500
	 4427083333
	 4440104166
	 4453125000
	 4466145833
	 4479166666
	 4492187500
	 4505208333
	 4518229166
	 4531250000
	 4544270833
	 4557291666
	 4570312500
	 4583333333
	 4596354166
	 4609375000
	 4622395833
	 4635416666
	 4648437500
	 4661458333
	 4674479166
	 4687500000
	 4700520833
	 4713541666
	 4726562500
	 4739583333
	 4752604166
	 4765625000
	 4778645833
	 4791666666
	 4804687500
	 4817708333
	 4830729167
	 4843750000
	 4856770833
	 4869791667
	 4882812500
	 4895833333
	 4908854167
	 4921875000
	 4934895833
	 4947916667
	 4960937500
	 4973958333
	 4986979167
	 5000000000
	 5026041667
	 5052083333
	 5078125000
	 5104166667
	 5130208333
	 5156250000
	 5182291667
	 5208333333
	 5234375000
	 5260416667
	 5286458333
	 5312500000
	 5338541667
	 5364583333
	 5390625000
	 5416666667
	 5442708333
	 5468750000
	 5494791667
	 5520833333
	 5546875000
	 5572916667
	 5598958333
	 5625000000
	 5651041667
	 5677083333
	 5703125000
	 5729166667
	 5755208333
	 5781250000
	 5807291667
	 5833333334
	 5859375000
	 5885416667
	 5911458334
	 5937500000
	 5963541667
	 5989583334
	 6015625000
	 6041666667
	 6067708334
	 6093750000
	 6119791667
	 6145833334
	 6171875000
	 6197916667
	 6223958334
	 6250000000
	 6276041667
	 6302083334
	 6328125000
	 6354166667
	 6380208334
	 6406250000
	 6432291667
	 6458333334
	 6484375000
	 6510416667
	 6536458334
	 6562500000
	 6588541667
	 6614583334
	 6640625000
	 6666666667
	 6692708334
	 6718750000
	 6744791667
	 6770833334
	 6796875000
	 6822916667
	 6848958334
	 6875000000
	 6901041667
	 6927083334
	 6953125000
	 6979166667
	 7005208334
	 7031250000
	 7057291667
	 7083333334
	 7109375000
	 7135416667
	 7161458333
	 7187500000
	 7213541667
	 7239583333
	 7265625000
	 7291666667
	 7317708333
	 7343750000
	 7369791667
	 7395833333
	 7421875000
	 7447916667
	 7473958333
	 7500000000
	 7526041667
	 7552083333
	 7578125000
	 7604166667
	 7630208333
	 7656250000
	 7682291667
	 7708333334
	 7734375000
	 7760416667
	 7786458334
	 7812500000
	 7838541667
	 7864583334
	 7890625000
	 7916666667
	 7942708334
	 7968750000
	 7994791667
	 8020833334
	 8046875000
	 8072916667
	 8098958334
	 8125000000
	 8151041667
	 8177083334
	 8203125001
	 8229166667
	 8255208334
	 8281250001
	 8307291667
	 8333333334
	 8350694445
	 8368055556
	 8385416667
	 8402777778
	 8420138890
	 8437500001
	 8454861112
	 8472222223
	 8489583334
	 8506944445
	 8524305556
	 8541666668
	 8559027779
	 8576388890
	 8593750001
	 8611111112
	 8628472223
	 8645833334
	 8663194445
	 8680555556
	 8697916668
	 8715277779
	 8732638890
	 8750000001
	 8767361112
	 8784722223
	 8802083334
	 8819444446
	 8836805557
	 8854166668
	 8871527779
	 8888888890
	 8906250001
	 8923611112
	 8940972223
	 8958333334
	 8975694445
	 8993055557
	 9010416668
	 9027777779
	 9045138890
	 9062500001
	 9079861112
	 9097222223
	 9114583334
	 9131944445
	 9149305556
	 9166666668
	 9184027779
	 9201388890
	 9218750001
	 9236111112
	 9253472223
	 9270833334
	 9288194445
	 9305555556
	 9322916667
	 9340277778
	 9357638890
	 9375000001
	 9392361112
	 9409722223
	 9427083334
	 9444444445
	 9461805556
	 9479166667
	 9496527778
	 9513888889
	 9531250000
	 9548611112
	 9565972223
	 9583333334
	 9600694445
	 9618055556
	 9635416667
	 9652777778
	 9670138889
	 9687500000
	 9704861111
	 9722222222
	 9739583334
	 9756944445
	 9774305556
	 9791666667
	 9809027778
	 9826388889
	 9843750000
	 9861111111
	 9878472222
	 9895833333
	 9913194445
	 9930555556
	 9947916667
	 9965277778
	 9982638889
	 1e+10
VAR_LIST_END

BEGIN
	 5.00032623000000003539791681995e-05 ,	 -0 
	 5.00032623000000003539791681995e-05 ,	 -1.29218867999999997356904581335e-09 
	 5.00032623000000003539791681995e-05 ,	 -1.29218890999999992280934725552e-08 
	 5.00032620999999970873815813288e-05 ,	 -1.29218889000000008187004425959e-07 
	 5.00032453000000005199909836051e-05 ,	 -1.29218890000000006520542231159e-06 
	 5.00032352999999998204375128985e-05 ,	 -1.62676943999999992857756307696e-06 
	 5.00032194999999992572441154248e-05 ,	 -2.04798139000000017077201056037e-06 
	 5.00031944999999975083604386583e-05 ,	 -2.57825580999999994815091025613e-06 
	 5.00031548000000029981747251551e-05 ,	 -3.24583175999999992068670122414e-06 
	 5.00030920000000005023327309672e-05 ,	 -4.08626009000000001923072132093e-06 
	 5.00029924000000000399931976425e-05 ,	 -5.1442966799999998421142818894e-06 
	 5.00028344999999994294898053582e-05 ,	 -6.47628583999999960543443935923e-06 
	 5.00025842999999990028461849256e-05 ,	 -8.15316085999999918718875863144e-06 
	 5.00021876999999994478120213248e-05 ,	 -1.02642214999999995553520495961e-05 
	 5.00015591999999968160842134246e-05 ,	 -1.29218894000000004089858188228e-05 
	 5.00005631e-05 ,	 -1.62676953e-05 
	 4.99989844e-05 ,	 -2.04798158e-05 
	 4.99964823e-05 ,	 -2.57825619e-05 
	 4.99925167e-05 ,	 -3.24583252e-05 
	 4.99862317e-05 ,	 -4.0862616e-05 
	 4.99762706e-05 ,	 -5.1442997e-05 
	 4.99604835e-05 ,	 -6.47629186e-05 
	 4.99354628e-05 ,	 -8.15317287e-05 
	 4.98958081e-05 ,	 -0.000102642455 
	 4.9832961e-05 ,	 -0.000129219373 
	 4.97333581e-05 ,	 -0.000162677907 
	 4.95755061e-05 ,	 -0.000204800061 
	 4.93253473e-05 ,	 -0.000257829416 
	 4.89289221e-05 ,	 -0.000324590826 
	 4.83007551e-05 ,	 -0.000408641267 
	 4.73054905e-05 ,	 -0.00051446009 
	 4.57288869e-05 ,	 -0.000647689218 
	 4.32321029e-05 ,	 -0.000815436856 
	 3.92798773e-05 ,	 -0.00102666245 
	 3.30282605e-05 ,	 -0.00129266634 
	 2.31504832e-05 ,	 -0.00162771554 
	 7.57008221e-06 ,	 -0.00204984883 
	 -1.69408584e-05 ,	 -0.00258191927 
	 -3.5286689e-05 ,	 -0.0029203334 
	 -5.58427576e-05 ,	 -0.00326070632 
	 -0.000115971434 ,	 -0.00410968924 
	 -0.000208960822 ,	 -0.0051822394 
	 -0.000331366233 ,	 -0.00636145811 
	 -0.000507595985 ,	 -0.00780635079 
	 -0.00068285313 ,	 -0.00906478296 
	-0.00089749,	-0.010447
	-0.0013709,	-0.013094
	-0.0019258,	-0.015735
	-0.0025624,	-0.018364
	-0.0032819,	-0.020973
	-0.0040853,	-0.023559
	-0.0049731,	-0.026118
	-0.0059455,	-0.028646
	-0.0070022,	-0.03114
	-0.0081429,	-0.033598
	-0.0093667,	-0.036017
	-0.010673,	-0.038393
	-0.01206,	-0.040726
	-0.013527,	-0.043011
	-0.015072,	-0.045246
	-0.016694,	-0.047429
	-0.018392,	-0.049558
	-0.020163,	-0.05163
	-0.022006,	-0.053642
	-0.023919,	-0.055593
	-0.0259,	-0.05748
	-0.027947,	-0.059302
	-0.030057,	-0.061055
	-0.032229,	-0.062738
	-0.03446,	-0.064349
	-0.036749,	-0.065887
	-0.039092,	-0.067349
	-0.041487,	-0.068734
	-0.043931,	-0.070039
	-0.046423,	-0.071264
	-0.04896,	-0.072408
	-0.051538,	-0.073467
	-0.054156,	-0.074443
	-0.05681,	-0.075332
	-0.059498,	-0.076134
	-0.062217,	-0.076849
	-0.064964,	-0.077474
	-0.067737,	-0.078009
	-0.070532,	-0.078454
	-0.073347,	-0.078808
	-0.076178,	-0.079069
	-0.079024,	-0.079238
	-0.08188,	-0.079315
	-0.084745,	-0.079298
	-0.087614,	-0.079188
	-0.090486,	-0.078984
	-0.093357,	-0.078687
	-0.096225,	-0.078296
	-0.099085,	-0.077811
	-0.10193,	-0.077234
	-0.10477,	-0.076564
	-0.10759,	-0.075801
	-0.1104,	-0.074946
	-0.11318,	-0.074
	-0.11594,	-0.072963
	-0.11868,	-0.071836
	-0.12138,	-0.07062
	-0.12406,	-0.069315
	-0.12669,	-0.067923
	-0.12929,	-0.066445
	-0.13185,	-0.064882
	-0.13437,	-0.063235
	-0.13684,	-0.061505
	-0.13926,	-0.059694
	-0.14164,	-0.057804
	-0.14396,	-0.055835
	-0.14622,	-0.053789
	-0.14843,	-0.051669
	-0.15058,	-0.049475
	-0.15266,	-0.04721
	-0.15468,	-0.044875
	-0.15664,	-0.042472
	-0.15852,	-0.040004
	-0.16034,	-0.037472
	-0.16208,	-0.034879
	-0.16375,	-0.032226
	-0.16534,	-0.029515
	-0.16686,	-0.02675
	-0.16829,	-0.023932
	-0.16965,	-0.021064
	-0.17092,	-0.018147
	-0.1721,	-0.015186
	-0.17321,	-0.012181
	-0.17422,	-0.0091354
	-0.17515,	-0.006052
	-0.17598,	-0.0029333
	-0.17673,	 0.00021816
	-0.17738,	 0.0033997
	-0.17794,	 0.0066087
	-0.17841,	 0.0098423
	-0.17878,	 0.013098
	-0.17906,	 0.016373
	-0.17924,	 0.019664
	-0.17934,	 0.024625
	-0.17921,	 0.029608
	-0.17886,	 0.034602
	-0.1783,	 0.039597
	-0.17751,	 0.044585
	-0.1765,	 0.049555
	-0.17527,	 0.054498
	-0.17383,	 0.059403
	-0.17216,	 0.064262
	-0.17028,	 0.069064
	-0.16818,	 0.073799
	-0.16587,	 0.078459
	-0.16335,	 0.083034
	-0.16062,	 0.087514
	-0.15769,	 0.09189
	-0.15456,	 0.096152
	-0.15124,	 0.10029
	-0.14772,	 0.1043
	-0.14403,	 0.10817
	-0.14015,	 0.11189
	-0.13611,	 0.11546
	-0.13189,	 0.11886
	-0.12752,	 0.12209
	-0.12299,	 0.12514
	-0.11832,	 0.128
	-0.11352,	 0.13067
	-0.10858,	 0.13313
	-0.10352,	 0.1354
	-0.098358,	 0.13744
	-0.093086,	 0.13927
	-0.087719,	 0.14088
	-0.082269,	 0.14225
	-0.076744,	 0.1434
	-0.071155,	 0.1443
	-0.065512,	 0.14496
	-0.059826,	 0.14538
	-0.054107,	 0.14555
	-0.048366,	 0.14547
	-0.042614,	 0.14514
	-0.036862,	 0.14456
	-0.03399,	 0.14417
	-0.031122,	 0.14372
	-0.02826,	 0.1432
	-0.025406,	 0.14262
	-0.022559,	 0.14198
	-0.019723,	 0.14127
	-0.016899,	 0.1405
	-0.014087,	 0.13967
	-0.0085093,	 0.13781
	-0.0030005,	 0.1357
	 0.0024272,	 0.13334
	 0.0077622,	 0.13073
	 0.012993,	 0.12787
	 0.018108,	 0.12478
	 0.023097,	 0.12145
	 0.027947,	 0.11789
	 0.032647,	 0.1141
	 0.037187,	 0.11009
	 0.041557,	 0.10586
	 0.045745,	 0.10143
	 0.049741,	 0.096804
	 0.053536,	 0.091978
	 0.057119,	 0.086968
	 0.060482,	 0.081782
	 0.063616,	 0.07643
	 0.066511,	 0.070922
	 0.06916,	 0.065266
	 0.071555,	 0.059475
	 0.073689,	 0.053559
	 0.075555,	 0.04753
	 0.077147,	 0.041399
	 0.078458,	 0.035178
	 0.079484,	 0.02888
	 0.08022,	 0.022517
	 0.080662,	 0.016102
	 0.080806,	 0.0096496
	 0.080649,	 0.0031717
	 0.080189,	-0.0033175
	 0.079424,	-0.0098044
	 0.078353,	-0.016275
	 0.076976,	-0.022716
	 0.075293,	-0.029112
	 0.073305,	-0.035449
	 0.071013,	-0.041715
	 0.068419,	-0.047894
	 0.065527,	-0.053972
	 0.062339,	-0.059936
	 0.058861,	-0.065772
	 0.055096,	-0.071466
	 0.05105,	-0.077005
	 0.046729,	-0.082376
	 0.042141,	-0.087566
	 0.037291,	-0.092562
	 0.032189,	-0.097352
	 0.026842,	-0.10192
	 0.02126,	-0.10626
	 0.018383,	-0.10834
	 0.015451,	-0.11036
	 0.012466,	-0.11232
	 0.0094274,	-0.11421
	 0.0063377,	-0.11604
	 0.0031982,	-0.1178
	 1.008e-05,	-0.11949
	-0.0032251,	-0.12111
	-0.006506,	-0.12267
	-0.0098311,	-0.12415
	-0.013199,	-0.12556
	-0.016608,	-0.12689
	-0.020056,	-0.12816
	-0.023542,	-0.12934
	-0.027065,	-0.13045
	-0.030623,	-0.13148
	-0.034214,	-0.13244
	-0.037836,	-0.13331
	-0.041488,	-0.13411
	-0.045168,	-0.13482
	-0.048874,	-0.13545
	-0.052605,	-0.136
	-0.056359,	-0.13647
	-0.060134,	-0.13686
	-0.063928,	-0.13716
	-0.067739,	-0.13737
	-0.071567,	-0.1375
	-0.075408,	-0.13755
	-0.079261,	-0.13751
	-0.083125,	-0.13739
	-0.086997,	-0.13717
	-0.090875,	-0.13687
	-0.094758,	-0.13649
	-0.098644,	-0.13602
	-0.10253,	-0.13546
	-0.10641,	-0.13481
	-0.1103,	-0.13407
	-0.11417,	-0.13325
	-0.11805,	-0.13234
	-0.12191,	-0.13135
	-0.12576,	-0.13026
	-0.1296,	-0.12909
	-0.13343,	-0.12783
	-0.13724,	-0.12648
	-0.14104,	-0.12505
	-0.14481,	-0.12353
	-0.14856,	-0.12193
	-0.15229,	-0.12024
	-0.156,	-0.11846
	-0.15967,	-0.1166
	-0.16332,	-0.11466
	-0.16694,	-0.11263
	-0.17053,	-0.11052
	-0.17408,	-0.10833
	-0.17759,	-0.10605
	-0.18107,	-0.1037
	-0.18451,	-0.10126
	-0.18791,	-0.098748
	-0.19127,	-0.096153
	-0.19458,	-0.093479
	-0.19785,	-0.090729
	-0.20106,	-0.087902
	-0.20423,	-0.084999
	-0.20735,	-0.082022
	-0.21042,	-0.078972
	-0.21343,	-0.075849
	-0.21639,	-0.072655
	-0.21929,	-0.069391
	-0.22213,	-0.066058
	-0.22491,	-0.062657
	-0.22763,	-0.059189
	-0.23029,	-0.055655
	-0.23542,	-0.048397
	-0.24027,	-0.040891
	-0.24486,	-0.03315
	-0.24915,	-0.025183
	-0.25315,	-0.017003
	-0.25685,	-0.0086219
	-0.26023,	-5.0976e-05
	-0.26329,	 0.0086969
	-0.26603,	 0.017609
	-0.26843,	 0.026672
	-0.2705,	 0.035873
	-0.27222,	 0.045197
	-0.27359,	 0.054633
	-0.2746,	 0.064165
	-0.27526,	 0.073779
	-0.27556,	 0.083462
	-0.2755,	 0.093199
	-0.27507,	 0.10297
	-0.27427,	 0.11277
	-0.27311,	 0.12259
	-0.27158,	 0.1324
	-0.26968,	 0.14219
	-0.26742,	 0.15195
	-0.26479,	 0.16167
	-0.2618,	 0.17132
	-0.25846,	 0.1809
	-0.25475,	 0.1904
	-0.2507,	 0.19979
	-0.2463,	 0.20906
	-0.24156,	 0.21821
	-0.23648,	 0.22722
	-0.23107,	 0.23608
	-0.22534,	 0.24476
	-0.2193,	 0.25328
	-0.21294,	 0.2616
	-0.20628,	 0.26972
	-0.19933,	 0.27762
	-0.1921,	 0.28531
	-0.18459,	 0.29276
	-0.17682,	 0.29997
	-0.1688,	 0.30693
	-0.16053,	 0.31363
	-0.15202,	 0.32006
	-0.1433,	 0.32621
	-0.13437,	 0.33207
	-0.12523,	 0.33765
	-0.11591,	 0.34293
	-0.10641,	 0.3479
	-0.096761,	 0.35257
	-0.086953,	 0.35692
	-0.077007,	 0.36095
	-0.066935,	 0.36466
	-0.056752,	 0.36805
	-0.04647,	 0.37111
	-0.036102,	 0.37384
	-0.02566,	 0.37624
	-0.015159,	 0.37831
	-0.00461,	 0.38004
	 0.0059732,	 0.38145
	 0.016578,	 0.38252
	 0.027192,	 0.38327
	 0.037801,	 0.38368
	 0.048395,	 0.38377
	 0.05896,	 0.38354
	 0.069485,	 0.38299
	 0.079958,	 0.38213
	 0.090366,	 0.38096
	 0.10069,	 0.37948
	 0.11094,	 0.3777
	 0.12109,	 0.37563
	 0.13114,	 0.37327
	 0.14106,	 0.37063
	 0.15086,	 0.36771
	 0.16052,	 0.36454
	 0.17004,	 0.3611
	 0.17941,	 0.35741
	 0.18861,	 0.35349
	 0.19764,	 0.34933
	 0.2065,	 0.34494
	 0.21518,	 0.34035
	 0.22366,	 0.33555
	 0.23196,	 0.33056
	 0.24005,	 0.32538
	 0.24794,	 0.32004
	 0.25562,	 0.31452
	 0.26309,	 0.30886
	 0.27035,	 0.30306
	 0.27738,	 0.29712
	 0.2842,	 0.29107
	 0.2908,	 0.28491
	 0.29718,	 0.27865
	 0.30334,	 0.2723
	 0.30928,	 0.26588
	 0.31499,	 0.25939
	 0.32049,	 0.25284
	 0.32577,	 0.24625
	 0.33084,	 0.23963
	 0.3357,	 0.23298
	 0.34035,	 0.22631
	 0.3448,	 0.21964
	 0.34905,	 0.21297
	 0.35311,	 0.20632
	 0.35698,	 0.19969
	 0.36067,	 0.19308
	 0.36419,	 0.18652
	 0.36753,	 0.17999
	 0.37072,	 0.17352
	 0.37376,	 0.16711
	 0.37665,	 0.16076
	 0.3794,	 0.15448
	 0.38203,	 0.14827
	 0.38454,	 0.14214
	 0.38694,	 0.13609
	 0.38924,	 0.13012
	 0.39145,	 0.12424
	 0.39358,	 0.11845
	 0.39565,	 0.11274
	 0.39765,	 0.10713
	 0.3996,	 0.1016
	 0.40152,	 0.096167
	 0.4034,	 0.090811
	 0.40527,	 0.085538
	 0.40712,	 0.080343
	 0.40898,	 0.075223
	 0.41084,	 0.070172
	 0.41272,	 0.065184
	 0.41462,	 0.060254
	 0.41656,	 0.055374
	 0.41788,	 0.052144
	 0.41921,	 0.048931
	 0.42057,	 0.045732
	 0.42195,	 0.042543
	 0.42335,	 0.039363
	 0.42478,	 0.036188
	 0.42624,	 0.033016
	 0.42773,	 0.029842
	 0.42925,	 0.026665
	 0.4308,	 0.02348
	 0.43239,	 0.020284
	 0.43401,	 0.017075
	 0.43566,	 0.013847
	 0.43734,	 0.010599
	 0.43906,	 0.0073258
	 0.44081,	 0.0040242
	 0.44259,	 0.00069064
	 0.4444,	-0.0026786
	 0.44625,	-0.006087
	 0.44813,	-0.0095384
	 0.45003,	-0.013036
	 0.45197,	-0.016584
	 0.45393,	-0.020186
	 0.45591,	-0.023845
	 0.45792,	-0.027565
	 0.45995,	-0.031348
	 0.462,	-0.035199
	 0.46406,	-0.039121
	 0.46613,	-0.043116
	 0.46822,	-0.047187
	 0.47031,	-0.051338
	 0.4724,	-0.055572
	 0.4745,	-0.05989
	 0.47659,	-0.064295
	 0.47867,	-0.06879
	 0.48075,	-0.073377
	 0.4828,	-0.078057
	 0.48484,	-0.082833
	 0.48686,	-0.087706
	 0.48884,	-0.092677
	 0.4908,	-0.097748
	 0.49271,	-0.10291
	 0.49459,	-0.10819
	 0.49641,	-0.11356
	 0.49819,	-0.11904
	 0.49991,	-0.12462
	 0.50157,	-0.1303
	 0.50316,	-0.13609
	 0.50468,	-0.14198
	 0.50613,	-0.14797
	 0.50749,	-0.15406
	 0.50877,	-0.16024
	 0.50996,	-0.16653
	 0.51105,	-0.17291
	 0.51204,	-0.17939
	 0.51293,	-0.18596
	 0.5137,	-0.19262
	 0.51436,	-0.19936
	 0.5149,	-0.2062
	 0.51531,	-0.21311
	 0.5156,	-0.2201
	 0.51575,	-0.22717
	 0.51577,	-0.23432
	 0.51564,	-0.24153
	 0.51536,	-0.24881
	 0.51494,	-0.25615
	 0.51436,	-0.26354
	 0.51362,	-0.27099
	 0.51272,	-0.27849
	 0.51165,	-0.28603
	 0.51042,	-0.29362
	 0.50901,	-0.30123
	 0.50743,	-0.30888
	 0.50566,	-0.31655
	 0.50372,	-0.32424
	 0.50159,	-0.33194
	 0.49928,	-0.33965
	 0.49677,	-0.34736
	 0.49408,	-0.35507
	 0.49119,	-0.36277
	 0.4881,	-0.37045
	 0.48482,	-0.37811
	 0.48133,	-0.38574
	 0.47765,	-0.39333
	 0.47376,	-0.40088
	 0.46967,	-0.40838
	 0.46538,	-0.41583
	 0.46087,	-0.42321
	 0.45617,	-0.43052
	 0.45125,	-0.43776
	 0.44614,	-0.4449
	 0.44081,	-0.45196
	 0.43528,	-0.45891
	 0.42954,	-0.46575
	 0.4236,	-0.47247
	 0.41745,	-0.47907
END
BEGIN
	 0.999949996737739654761867313937 ,	 -0 
	 0.99994999673774620507771260236 ,	 -7.78015612351579122218936390709e-09 
	 0.999949996737740653962589476578 ,	 -7.78015608431104066511352357338e-08 
	 0.999949996737172219773981396429 ,	 -7.78015605926163367200842913007e-07 
	 0.999949996680379094016188901151 ,	 -7.78015605542789479009968545142e-06 
