CITIFILE A.01.01
#Momentum: B.12.070 (*) built: Feb 13 2020 
#Momentum Date and Time: Mon Aug 15 03:41:03 2022

NAME Momentum.SP

#  mode: MW    reference: S_50

#eesof Port[1] P1
#eesof Port[2] P2

CONSTANT NBR_OF_PORTS 2

CONSTANT NORMALIZATION 1

VAR freq MAG 242

DATA S[1,1] RI
DATA S[1,2] RI
DATA S[2,1] RI
DATA S[2,2] RI
DATA PORTZ[1] RI
DATA PORTZ[2] RI

VAR_LIST_BEGIN
	 0
	 8.721827882
	 87.21827882
	 872.1827882
	 8721.827882
	 10980.13076
	 13823.16564
	 17402.33449
	 21908.24111
	 27580.84147
	 34722.2222
	 43712.68788
	 55031.01359
	 69279.94145
	 87218.27882
	 109801.3076
	 138231.6564
	 174023.3449
	 219082.4111
	 275808.4147
	 347222.222
	 437126.8788
	 550310.1359
	 692799.4145
	 872182.7882
	 1098013.076
	 1382316.564
	 1740233.449
	 2190824.111
	 2758084.147
	 3472222.22
	 4371268.788
	 5503101.359
	 6927994.145
	 8721827.882
	 10980130.76
	 13823165.64
	 17402334.49
	 21908241.11
	 27580841.47
	 34722222.2
	 39258678.43
	 43816482.23
	 55161682.93
	 69444444.4
	 85083950.08
	 104166666.6
	 120730714.8
	 138888888.8
	 159825084.6
	 182291666.6
	 225694444.3
	 269097222.1
	 312499999.9
	 355902777.6
	 399305555.4
	 442708333.1
	 486111110.9
	 529513888.7
	 572916666.4
	 616319444.2
	 659722222
	 703124999.7
	 746527777.5
	 789930555.2
	 833333333
	 885416666.3
	 937499999.6
	 989583332.9
	 1041666666
	 1093750000
	 1145833333
	 1197916666
	 1250000000
	 1302083333
	 1354166666
	 1406249999
	 1458333333
	 1510416666
	 1562499999
	 1614583333
	 1666666666
	 1718749999
	 1770833333
	 1822916666
	 1874999999
	 1927083333
	 1979166666
	 2031249999
	 2083333333
	 2135416666
	 2187499999
	 2239583333
	 2291666666
	 2343749999
	 2395833333
	 2447916666
	 2500000000
	 2552083333
	 2604166666
	 2656250000
	 2708333333
	 2760416666
	 2812500000
	 2864583333
	 2916666666
	 2968750000
	 3020833333
	 3072916666
	 3125000000
	 3177083333
	 3229166666
	 3281250000
	 3333333333
	 3385416666
	 3437500000
	 3489583333
	 3541666666
	 3593750000
	 3645833333
	 3697916666
	 3750000000
	 3802083333
	 3854166666
	 3906250000
	 3958333333
	 4010416666
	 4062500000
	 4114583333
	 4166666666
	 4218750000
	 4270833333
	 4322916667
	 4375000000
	 4427083333
	 4479166667
	 4531250000
	 4583333333
	 4635416667
	 4687500000
	 4739583333
	 4791666667
	 4843750000
	 4895833333
	 4947916667
	 5000000000
	 5052083333
	 5104166667
	 5156250000
	 5208333333
	 5260416667
	 5312500000
	 5364583333
	 5416666667
	 5468750000
	 5520833333
	 5572916667
	 5625000000
	 5677083333
	 5729166667
	 5781250000
	 5833333334
	 5885416667
	 5937500000
	 5989583334
	 6041666667
	 6093750000
	 6145833334
	 6197916667
	 6250000000
	 6302083334
	 6354166667
	 6406250000
	 6458333334
	 6510416667
	 6562500000
	 6614583334
	 6666666667
	 6718750000
	 6770833334
	 6822916667
	 6875000000
	 6927083334
	 6979166667
	 7031250000
	 7083333334
	 7135416667
	 7187500000
	 7239583334
	 7291666667
	 7343750000
	 7395833334
	 7447916667
	 7500000000
	 7552083334
	 7604166667
	 7656250001
	 7708333334
	 7760416667
	 7812500001
	 7864583334
	 7916666667
	 7968750001
	 8020833334
	 8072916667
	 8125000001
	 8177083334
	 8229166667
	 8281250001
	 8333333334
	 8385416667
	 8437500001
	 8489583334
	 8541666667
	 8593750001
	 8645833334
	 8697916667
	 8750000000
	 8802083334
	 8854166667
	 8906250000
	 8958333334
	 9010416667
	 9062500000
	 9114583334
	 9166666667
	 9218750000
	 9270833334
	 9322916667
	 9375000000
	 9427083334
	 9479166667
	 9531250000
	 9583333334
	 9635416667
	 9687500000
	 9739583333
	 9791666667
	 9843750000
	 9895833333
	 9947916667
	 1e+10
VAR_LIST_END

BEGIN
	 0.999999999999998445687765524781 ,	 -0 
	 0.99999999999999822364316059975 ,	 -2.34052732750456016219686716795e-09 
	 0.99999999999999822364316059975 ,	 -2.34052723868671819218434393406e-08 
	 0.999999999999951594276126343175 ,	 -2.34052723424582609368371777236e-07 
	 0.999999999995337507385784192593 ,	 -2.34052723402378148875868646428e-06 
	 0.999999999992611909860329433286 ,	 -2.94654921190184992951799358707e-06 
	 0.999999999988291587982303099125 ,	 -3.70948568073625750685096136294e-06 
	 0.999999999981445952812464383896 ,	 -4.6699657867410593325985246338e-06 
	 0.999999999970593300702148553682 ,	 -5.87913860089495088345756812487e-06 
	 0.999999999953395279916890103777 ,	 -7.40139698324204786672453337815e-06 
	 0.999999999926136529104780947819 ,	 -9.31780674323645641266011807602e-06 
	 0.999999999882935197703659468971 ,	 -1.17304236864068656132076284848e-05 
	 0.999999999814465967418186664872 ,	 -1.47677284603187075617825030349e-05 
	 0.999999999705949882411459839204 ,	 -1.85914686154364794390403403668e-05 
	 0.99999999953396234708691281412 ,	 -2.34052722460909023993735900149e-05 
	 0.999999999261382277460086243082 ,	 -2.94654919291148509330469096312e-05 
	 0.999999998829370628783408392337 ,	 -3.70948564160644700393731909571e-05 
	 0.999999998144679214107100051478 ,	 -4.66996571013567063346272334456e-05 
	 0.999999997059516254616085007001 ,	 -5.87913844738441326853717328049e-05 
	 0.999999995339650560310928995023 ,	 -7.40139667647632393254752969369e-05 
	 0.999999992613850086087268209667 ,	 -9.31780613049326689178997185081e-05 
	 0.999999988293753361290328030009 ,	 -0.000117304224643455246024359439616 
	 0.999999981446878849489223739511 ,	 -0.000147677260227352391552813060116 
	 0.999999970595356613145554547373 ,	 -0.000185914637513162617210582538974 
	 0.999999953396961682727805964532 ,	 -0.000234052625414538084669402451254 
	 0.999999926139613082298751578492 ,	 -0.000294654725652931936963341286173 
	 0.999999882940310280687867816596 ,	 -0.000370948177820185076569714510697 
	 0.999999814475738713070995800081 ,	 -0.000466995800197322896707419204176 
	 0.999999705971005181659450045117 ,	 -0.000587912306847682142318944897852 
	 0.99999953401338659286778920432 ,	 -0.000740136599443441678403132755193 
	 0.999999261506038128466400394245 ,	 -0.000931774492101022921985986613436 
	 0.999998829679056733255038125208 ,	 -0.00117303003644725345466781618597 
	 0.999998145450244235732384368021 ,	 -0.00147674824931398607219534824253 
	 0.999997061449234836416621874378 ,	 -0.00185909781355997338891938852612 
	 0.999995344497837335140388859145 ,	 -0.00234042945253332135280288639478 
	 0.999992626003727291816858269158 ,	 -0.00294635440045892815774664086348 
	 0.999988324205965728452838447993 ,	 -0.00370909788858952982337768844445 
	 0.999981523077865586124346464203 ,	 -0.00466919489761247197279203646758 
	 0.999970785607124712512927544594 ,	 -0.00587760941840254069745697051985 
	 0.999953870335812622371918223507 ,	 -0.00739837371148382993979453203792 
	 0.999927311148625430625713761401 ,	 -0.00931186047241927550288664861 
	 0.999907473090028586781841113407 ,	 -0.0105266742720133144040062234126 
	 0.999885285902834430871166659927 ,	 -0.0117465949776677236471300602716 
	 0.999820627943706075058116766741 ,	 -0.0147802740039190139142988300591 
	 0.999721312140361417775125119078 ,	 -0.0185929615557158811611770943273 
	 0.999591741665846189590638459777 ,	 -0.0227591112827165154008923764195 
	 0.999407260815892262151294289652 ,	 -0.0278304392644699860603907382028 
	 0.999225876723319084149466107192 ,	 -0.0322226174482138638666128827026 
	 0.999006076248262098182806312252 ,	 -0.0370284574654993203779440591461 
	 0.998726766300731316761130074156 ,	 -0.0425597940992412659966248611454 
	 0.998396941986073094277287509613 ,	 -0.0484861722832959363138627395529 
	 0.997671305579395539808729154174 ,	 -0.0599151253256574034544712503703 
	 0.996825994178757057717632505955 ,	 -0.0713245914880256681733783352684 
	 0.99585672049818607654003699281 ,	 -0.082718224484799096618559133276 
	 0.994760040664552369626960626192 ,	 -0.09409661661950841082813212779 
	 0.99353364382327646886494676437 ,	 -0.105458903933842773614770749191 
	 0.992176190617526376769319540472 ,	 -0.116803596066663295527376931204 
	 0.990687099915094737667686786153 ,	 -0.128128965499050673226832941509 
	 0.98906,	-0.13943
	 0.98731,	-0.15071
	 0.98543,	-0.16197
	 0.98342,	-0.1732
	 0.98128,	-0.1844
	 0.97901,	-0.19557
	 0.97662,	-0.2067
	 0.9741,	-0.2178
	 0.97092,	-0.23107
	 0.96756,	-0.24429
	 0.96403,	-0.25744
	 0.96032,	-0.27052
	 0.95644,	-0.28354
	 0.95239,	-0.29649
	 0.94817,	-0.30936
	 0.94378,	-0.32216
	 0.93922,	-0.33488
	 0.93449,	-0.34752
	 0.92961,	-0.36008
	 0.92456,	-0.37255
	 0.91934,	-0.38494
	 0.91397,	-0.39724
	 0.90844,	-0.40945
	 0.90276,	-0.42156
	 0.89692,	-0.43358
	 0.89093,	-0.44551
	 0.88479,	-0.45733
	 0.8785,	-0.46906
	 0.87206,	-0.48068
	 0.86548,	-0.4922
	 0.85875,	-0.50361
	 0.85189,	-0.51491
	 0.84488,	-0.52611
	 0.83774,	-0.53719
	 0.83047,	-0.54816
	 0.82306,	-0.55902
	 0.81552,	-0.56976
	 0.80785,	-0.58038
	 0.80006,	-0.59088
	 0.79214,	-0.60126
	 0.7841,	-0.61152
	 0.77594,	-0.62165
	 0.76766,	-0.63166
	 0.75926,	-0.64154
	 0.75076,	-0.65129
	 0.74214,	-0.66092
	 0.73341,	-0.67041
	 0.72457,	-0.67977
	 0.71564,	-0.689
	 0.70659,	-0.69809
	 0.69745,	-0.70705
	 0.68822,	-0.71587
	 0.67888,	-0.72456
	 0.66945,	-0.7331
	 0.65994,	-0.74151
	 0.65033,	-0.74978
	 0.64064,	-0.7579
	 0.63087,	-0.76589
	 0.62101,	-0.77373
	 0.61107,	-0.78143
	 0.60106,	-0.78899
	 0.59097,	-0.7964
	 0.58081,	-0.80367
	 0.57058,	-0.81079
	 0.56029,	-0.81776
	 0.54993,	-0.8246
	 0.5395,	-0.83128
	 0.52902,	-0.83782
	 0.51847,	-0.84421
	 0.50787,	-0.85045
	 0.49722,	-0.85655
	 0.48651,	-0.8625
	 0.47576,	-0.8683
	 0.46495,	-0.87395
	 0.45411,	-0.87945
	 0.44322,	-0.88481
	 0.43228,	-0.89002
	 0.42131,	-0.89508
	 0.41031,	-0.89999
	 0.39927,	-0.90476
	 0.38819,	-0.90938
	 0.37709,	-0.91384
	 0.36596,	-0.91817
	 0.3548,	-0.92234
	 0.34362,	-0.92637
	 0.33241,	-0.93025
	 0.32119,	-0.93399
	 0.30994,	-0.93758
	 0.29869,	-0.94102
	 0.28741,	-0.94432
	 0.27613,	-0.94747
	 0.26483,	-0.95048
	 0.25353,	-0.95335
	 0.24221,	-0.95607
	 0.2309,	-0.95865
	 0.21958,	-0.96108
	 0.20826,	-0.96338
	 0.19694,	-0.96553
	 0.18562,	-0.96754
	 0.1743,	-0.96941
	 0.16299,	-0.97114
	 0.15169,	-0.97274
	 0.1404,	-0.97419
	 0.12911,	-0.97551
	 0.11784,	-0.97669
	 0.10659,	-0.97773
	 0.095348,	-0.97864
	 0.084123,	-0.97941
	 0.072915,	-0.98005
	 0.061728,	-0.98056
	 0.050561,	-0.98093
	 0.039418,	-0.98117
	 0.028298,	-0.98128
	 0.017203,	-0.98126
	 0.0061359,	-0.98111
	-0.0049033,	-0.98083
	-0.015913,	-0.98043
	-0.026892,	-0.97989
	-0.037838,	-0.97924
	-0.048752,	-0.97845
	-0.05963,	-0.97754
	-0.070472,	-0.97651
	-0.081278,	-0.97535
	-0.092044,	-0.97407
	-0.10277,	-0.97268
	-0.11345,	-0.97116
	-0.1241,	-0.96952
	-0.1347,	-0.96776
	-0.14526,	-0.96589
	-0.15577,	-0.9639
	-0.16624,	-0.96179
	-0.17665,	-0.95957
	-0.18702,	-0.95724
	-0.19735,	-0.95479
	-0.20762,	-0.95223
	-0.21784,	-0.94956
	-0.228,	-0.94678
	-0.23812,	-0.94389
	-0.24818,	-0.94089
	-0.25818,	-0.93779
	-0.26813,	-0.93458
	-0.27802,	-0.93126
	-0.28785,	-0.92784
	-0.29763,	-0.92431
	-0.30735,	-0.92068
	-0.317,	-0.91695
	-0.3266,	-0.91312
	-0.33613,	-0.90919
	-0.3456,	-0.90516
	-0.35501,	-0.90103
	-0.36435,	-0.89681
	-0.37363,	-0.89248
	-0.38284,	-0.88807
	-0.39199,	-0.88356
	-0.40107,	-0.87895
	-0.41008,	-0.87425
	-0.41903,	-0.86946
	-0.4279,	-0.86458
	-0.43671,	-0.85961
	-0.44544,	-0.85455
	-0.45411,	-0.8494
	-0.4627,	-0.84417
	-0.47122,	-0.83885
	-0.47967,	-0.83344
	-0.48805,	-0.82795
	-0.49635,	-0.82237
	-0.50458,	-0.81671
	-0.51273,	-0.81097
	-0.52081,	-0.80515
	-0.52881,	-0.79925
	-0.53674,	-0.79327
	-0.54459,	-0.78721
	-0.55236,	-0.78107
	-0.56006,	-0.77486
	-0.56767,	-0.76857
	-0.57521,	-0.7622
	-0.58267,	-0.75576
	-0.59005,	-0.74925
	-0.59735,	-0.74266
	-0.60457,	-0.736
	-0.61171,	-0.72927
	-0.61877,	-0.72247
	-0.62574,	-0.7156
	-0.63264,	-0.70866
END
BEGIN
	 -5.07639335000000005452914690283e-19 ,	 0 
	 6.93889390000000031408802645336e-18 ,	 4.30284279999999997082918699811e-13 
	 2.77555756000000012563521058135e-17 ,	 4.30255830999999970654692488063e-12 
	 2.90566181999999981116214411397e-17 ,	 4.30256213000000013455420558156e-11 
	 1.86482773999999986175634703728e-17 ,	 4.30256251000000009542104652353e-10 
	 3.3827107800000002263984680645e-17 ,	 5.41660543000000029352513005056e-10 
	 3.68628738999999996863130570412e-17 ,	 6.81910191999999982188576279552e-10 
	 2.68882138999999988684087431721e-17 ,	 8.58474069999999967615257007798e-10 
	 5.98479598999999967903019233494e-17 ,	 1.08075483000000002545845738242e-09 
	 3.59955120999999984257094675931e-17 ,	 1.36058971999999994481273705662e-09 
	 7.71951946999999985525960583959e-17 ,	 1.71288094000000003430968249362e-09 
	 1.07119175000000003787265502463e-16 ,	 2.15638934000000019820124655607e-09 
	 1.56125113000000011952350939766e-16 ,	 2.71473332000000009924599248055e-09 
	 2.45463372000000022892015654077e-16 ,	 3.417646710000000110176671071e-09 
	 3.31332183999999983393755709935e-16 ,	 4.30256216999999961480753726361e-09 
	 5.40800044e-16 ,	 5.41660461e-09 
	 8.79071121e-16 ,	 6.81910071e-09 
	 1.33573708e-15 ,	 8.58473821e-09 
	 2.13067411e-15 ,	 1.08075431e-08 
	 3.35668993e-15 ,	 1.36058869e-08 
	 5.39585737e-15 ,	 1.71287892e-08 
	 8.70874553e-15 ,	 2.15638528e-08 
	 1.41562109e-14 ,	 2.7147252e-08 
	 2.33745315e-14 ,	 3.41763049e-08 
	 3.94263615e-14 ,	 4.30252983e-08 
	 6.8460862e-14 ,	 5.41654009e-08 
	 1.23608155e-13 ,	 6.81897203e-08 
	 2.33659012e-13 ,	 8.58448162e-08 
	 4.65166534e-13 ,	 1.08070317e-07 
	 9.74793163e-13 ,	 1.36048681e-07 
	 2.13897173e-12 ,	 1.71267615e-07 
	 4.87184555e-12 ,	 2.15598231e-07 
	 1.14025915e-11 ,	 2.7139262e-07 
	 2.71592761e-11 ,	 3.41605191e-07 
	 6.5257745e-11 ,	 4.29942822e-07 
	 1.56907478e-10 ,	 5.41049735e-07 
	 3.74522249e-10 ,	 6.80734707e-07 
	 8.79809271e-10 ,	 8.56252393e-07 
	 2.01471039e-09 ,	 1.07665976e-06 
	 4.45189008e-09 ,	 1.35328281e-06 
	 9.40498467e-09 ,	 1.70033513e-06 
	 1.37272111e-08 ,	 1.9202069e-06 
	 1.90084298e-08 ,	 2.14071793e-06 
	 3.6181912e-08 ,	 2.68811025e-06 
	 6.55924491e-08 ,	 3.37442647e-06 
	 1.07060357e-07 ,	 4.12213377e-06 
	 1.69828007e-07 ,	 5.02808889e-06 
	 2.34460715e-07 ,	 5.80766106e-06 
	 3.15476905e-07 ,	 6.65365241e-06 
	 4.21213088e-07 ,	 7.61609559e-06 
	 5.48187912e-07 ,	 8.63107714e-06 
	 8.27850186e-07 ,	 1.05301155e-05 
	 1.14310155e-06 ,	 1.23323033e-05 
	 1.48094368e-06 ,	 1.40199864e-05 
	 1.82675252e-06 ,	 1.55765246e-05 
	 2.16432506e-06 ,	 1.69864915e-05 
	 2.47593292e-06 ,	 1.82358466e-05 
	 2.74238359e-06 ,	 1.93120771e-05 
	 2.94309297e-06 ,	 2.02043139e-05 
	 3.05617015e-06 ,	 2.0903429e-05 
	 3.05851367e-06 ,	 2.14021196e-05 
	 2.92591764e-06 ,	 2.16949832e-05 
	 2.63318599e-06 ,	 2.17785856e-05 
	 2.15425332e-06 ,	 2.16515245e-05 
	 1.46231151e-06 ,	 2.13144865e-05 
	 5.29941048e-07 ,	 2.07703005e-05 
	 -9.45571071e-07 ,	 1.98510644e-05 
	 -2.85630234e-06 ,	 1.86537981e-05 
	 -5.25140824e-06 ,	 1.71961301e-05 
	 -8.18001983e-06 ,	 1.55004628e-05 
	 -1.16908717e-05 ,	 1.35940127e-05 
	 -1.58319246e-05 ,	 1.15088268e-05 
	 -2.06499847e-05 ,	 9.2817729e-06 
	 -2.61903213e-05 ,	 6.9545026e-06 
	 -3.24962856e-05 ,	 4.57338802e-06 
	 -3.96089324e-05 ,	 2.18943012e-06 
	 -4.75666464e-05 ,	 -1.4186013e-07 
	 -5.64047766e-05 ,	 -2.36060801e-06 
	 -6.61552792e-05 ,	 -4.40274806e-06 
	 -7.68463733e-05 ,	 -6.2002232e-06 
	 -8.85022081e-05 ,	 -7.68120903e-06 
	 -0.000101142547 ,	 -8.77036228e-06 
	 -0.000114782468 ,	 -9.3890922e-06 
	 -0.000129432081 ,	 -9.45585357e-06 
	 -0.000145096271 ,	 -8.88645989e-06 
	 -0.000161774452 ,	 -7.59441526e-06 
	 -0.000179460355 ,	 -5.49126316e-06 
	 -0.000198141832 ,	 -2.48695078e-06 
	 -0.000217800689 ,	 1.50979325e-06 
	 -0.00023841254 ,	 6.59106914e-06 
	 -0.00025994669 ,	 1.28494063e-05 
	 -0.000282366045 ,	 2.03773556e-05 
	 -0.000305627046 ,	 2.92670751e-05 
	 -0.000329679634 ,	 3.96099113e-05 
	 -0.000354467237 ,	 5.14959784e-05 
	 -0.000379926793 ,	 6.50137357e-05 
	 -0.000405988785 ,	 8.02495665e-05 
	 -0.000432577321 ,	 9.72873603e-05 
	 -0.000459610229 ,	 0.000116208098 
	 -0.000486999176 ,	 0.000137089445 
	 -0.000514649823 ,	 0.00016000535 
	 -0.000542461995 ,	 0.000185025656 
	 -0.000570329879 ,	 0.000212215717 
	 -0.000598142246 ,	 0.000241636032 
	 -0.000625782689 ,	 0.000273341892 
	 -0.000653129891 ,	 0.000307383036 
	 -0.000680057908 ,	 0.000343803329 
	 -0.000706436468 ,	 0.000382640457 
	 -0.000732131295 ,	 0.000423925631 
	 -0.000757004444 ,	 0.000467683324 
	 -0.000780914653 ,	 0.000513931015 
	 -0.000803717709 ,	 0.00056267896 
	 -0.000825266826 ,	 0.000613929982 
	 -0.000845413038 ,	 0.000667679282 
	 -0.000864005596 ,	 0.000723914274 
	 -0.000880892378 ,	 0.000782614438 
	 -0.000895920306 ,	 0.000843751204 
	 -0.000908935769 ,	 0.000907287845 
	 -0.000919785051 ,	 0.000973179411 
	 -0.000928314759 ,	 0.00104137267 
	 -0.00093437226 ,	 0.00111180607 
	 -0.000937806115 ,	 0.00118440977 
	 -0.000938466512 ,	 0.00125910559 
	 -0.000936205701 ,	 0.00133580712 
	 -0.000930878421 ,	 0.00141441974 
	 -0.000922342333 ,	 0.0014948407 
	 -0.000910458437 ,	 0.00157695926 
	 -0.000895091489 ,	 0.00166065678 
	 -0.000876110416 ,	 0.00174580689 
	 -0.00085338871 ,	 0.00183227565 
	 -0.000826804827 ,	 0.00191992173 
	 -0.000796242569 ,	 0.00200859662 
	 -0.000761591456 ,	 0.00209814488 
	 -0.000722747087 ,	 0.00218840435 
	 -0.000679611492 ,	 0.00227920643 
	 -0.000632093467 ,	 0.00237037636 
	 -0.000580108898 ,	 0.00246173348 
	 -0.000523581067 ,	 0.00255309159 
	 -0.000462440949 ,	 0.00264425924 
	 -0.000396627486 ,	 0.0027350401 
	 -0.000326087856 ,	 0.00282523324 
	 -0.00025077771 ,	 0.00291463359 
	 -0.000170661407 ,	 0.00300303223 
	 -8.57122226e-05 ,	 0.00309021682 
	 4.08745974e-06 ,	 0.00317597198 
	 9.87459709e-05 ,	 0.0032600797 
	 0.000198262202 ,	 0.00334231974 
	 0.000302625466 ,	 0.00342247004 
	 0.000411815381 ,	 0.00350030719 
	 0.000525801769 ,	 0.0035756068 
	 0.00064454458 ,	 0.00364814395 
	 0.00076799383 ,	 0.00371769366 
	 0.00089608956 ,	 0.0037840313 
	 0.00102876182 ,	 0.00384693302 
	 0.00116593066 ,	 0.00390617624 
	 0.00130750617 ,	 0.00396154002 
	 0.00145338848 ,	 0.00401280558 
	 0.00160346787 ,	 0.00405975668 
	 0.0017576248 ,	 0.00410218007 
	 0.00191573004 ,	 0.00413986596 
	 0.00207764477 ,	 0.0041726084 
	 0.00224322072 ,	 0.0042002057 
	 0.00241230032 ,	 0.00422246091 
	 0.00258471689 ,	 0.00423918217 
	 0.0027602948 ,	 0.00425018312 
	 0.00293884969 ,	 0.00425528333 
	 0.0031201887 ,	 0.00425430863 
	 0.00330411072 ,	 0.00424709155 
	 0.0034904066 ,	 0.00423347161 
	 0.0036788595 ,	 0.00421329575 
	 0.00386924508 ,	 0.00418641861 
	 0.00406133189 ,	 0.00415270288 
	 0.00425488162 ,	 0.00411201964 
	 0.00444964947 ,	 0.00406424861 
	 0.00464538448 ,	 0.00400927847 
	 0.00484182984 ,	 0.00394700716 
	 0.00503872333 ,	 0.00387734206 
	 0.00523579762 ,	 0.00380020031 
	 0.00543278069 ,	 0.003715509 
	 0.00562939622 ,	 0.00362320537 
	 0.00582536398 ,	 0.00352323704 
	 0.00602040022 ,	 0.00341556214 
	 0.00621421812 ,	 0.00330014952 
	 0.00640652817 ,	 0.00317697885 
	 0.00659703863 ,	 0.00304604078 
	 0.00678545593 ,	 0.00290733702 
	 0.0069714851 ,	 0.00276088045 
	 0.00715483022 ,	 0.00260669519 
	 0.00733519484 ,	 0.00244481666 
	 0.00751228243 ,	 0.0022752916 
	 0.0076857968 ,	 0.00209817814 
	 0.00785544255 ,	 0.00191354573 
	 0.00802092551 ,	 0.00172147522 
	 0.00818195314 ,	 0.00152205876 
	 0.00833823501 ,	 0.0013153998 
	 0.0084894832 ,	 0.00110161299 
	 0.00863541274 ,	 0.000880824156 
	 0.008775742 ,	 0.000653170173 
	 0.00891019316 ,	 0.000418798868 
	 0.00903849259 ,	 0.000177868903 
	 0.00916037124 ,	 -6.94503624e-05 
	 0.00927556511 ,	 -0.000322979018 
	 0.00938381557 ,	 -0.000582526769 
	 0.0094849,	-0.00084789
	 0.0095785,	-0.0011189
	 0.0096644,	-0.0013952
	 0.0097424,	-0.0016767
	 0.0098123,	-0.0019632
	 0.0098738,	-0.0022543
	 0.0099267,	-0.0025498
	 0.0099709,	-0.0028495
	 0.010006,	-0.003153
	 0.010032,	-0.0034602
	 0.010049,	-0.0037706
	 0.010056,	-0.004084
	 0.010054,	-0.0044001
	 0.010042,	-0.0047187
	 0.010019,	-0.0050392
	 0.0099872,	-0.0053616
	 0.0099449,	-0.0056853
	 0.0098922,	-0.0060101
	 0.0098293,	-0.0063357
	 0.0097559,	-0.0066616
	 0.009672,	-0.0069876
	 0.0095775,	-0.0073133
	 0.0094724,	-0.0076383
	 0.0093567,	-0.0079622
	 0.0092304,	-0.0082848
