CITIFILE A.01.01
#Momentum: B.12.070 (*) built: Feb 13 2020 
#Momentum Date and Time: Sun Aug 14 11:17:29 2022

NAME Momentum.SP

#  mode: MW    reference: S_50

#eesof Port[1] P1
#eesof Port[2] P2

CONSTANT NBR_OF_PORTS 2

CONSTANT NORMALIZATION 1

VAR freq MAG 287

DATA S[1,1] RI
DATA S[1,2] RI
DATA S[2,1] RI
DATA S[2,2] RI
DATA PORTZ[1] RI
DATA PORTZ[2] RI

VAR_LIST_BEGIN
	 0
	 8.254652041
	 82.54652041
	 825.4652041
	 8254.652041
	 10391.99122
	 13082.74183
	 16470.19614
	 20734.74846
	 26103.50174
	 32862.36168
	 41371.26221
	 52083.33331
	 65569.03184
	 82546.52041
	 103919.9122
	 130827.4183
	 164701.9614
	 207347.4846
	 261035.0174
	 328623.6168
	 413712.6221
	 520833.3331
	 655690.3184
	 825465.2041
	 1039199.122
	 1308274.183
	 1647019.614
	 2073474.846
	 2610350.174
	 3286236.168
	 4137126.221
	 5208333.331
	 6556903.184
	 8254652.041
	 10391991.22
	 13082741.83
	 16470196.14
	 20734748.46
	 26103501.74
	 32862361.68
	 41371262.21
	 52083333.31
	 58888017.66
	 65724723.36
	 82742524.42
	 104166666.6
	 127625925.2
	 156249999.9
	 181096072.2
	 208333333.2
	 260416666.6
	 312499999.9
	 364583333.2
	 416666666.5
	 468749999.8
	 520833333.1
	 572916666.4
	 624999999.8
	 677083333.1
	 729166666.4
	 781249999.7
	 833333333
	 885416666.3
	 937499999.6
	 989583332.9
	 1041666666
	 1093750000
	 1145833333
	 1197916666
	 1250000000
	 1302083333
	 1354166666
	 1406249999
	 1458333333
	 1510416666
	 1562499999
	 1614583333
	 1666666666
	 1718749999
	 1770833333
	 1822916666
	 1874999999
	 1927083333
	 1979166666
	 2031249999
	 2083333333
	 2135416666
	 2187499999
	 2239583333
	 2291666666
	 2343749999
	 2395833333
	 2447916666
	 2500000000
	 2552083333
	 2604166666
	 2656250000
	 2708333333
	 2760416666
	 2812500000
	 2864583333
	 2916666666
	 2968750000
	 3020833333
	 3072916666
	 3125000000
	 3177083333
	 3229166666
	 3281250000
	 3333333333
	 3385416666
	 3437500000
	 3489583333
	 3541666666
	 3593750000
	 3645833333
	 3697916666
	 3750000000
	 3802083333
	 3854166666
	 3906250000
	 3958333333
	 4010416666
	 4062500000
	 4114583333
	 4166666666
	 4218750000
	 4270833333
	 4322916667
	 4375000000
	 4427083333
	 4479166667
	 4531250000
	 4583333333
	 4687500000
	 4791666667
	 4895833333
	 5000000000
	 5104166667
	 5208333333
	 5312500000
	 5416666667
	 5520833333
	 5625000000
	 5729166667
	 5833333334
	 5937500000
	 6041666667
	 6145833334
	 6250000000
	 6354166667
	 6458333334
	 6562500000
	 6666666667
	 6753472223
	 6840277778
	 6927083334
	 7013888889
	 7100694445
	 7187500000
	 7274305556
	 7361111112
	 7447916667
	 7534722223
	 7621527778
	 7708333334
	 7751736112
	 7795138889
	 7838541667
	 7881944445
	 7903645834
	 7925347223
	 7947048612
	 7968750000
	 7990451389
	 8012152778
	 8033854167
	 8055555556
	 8064236112
	 8072916667
	 8081597223
	 8090277778
	 8098958334
	 8107638889
	 8116319445
	 8125000000
	 8133680556
	 8142361112
	 8151041667
	 8159722223
	 8168402778
	 8177083334
	 8185763889
	 8194444445
	 8198784723
	 8203125001
	 8207465278
	 8211805556
	 8216145834
	 8220486112
	 8224826389
	 8229166667
	 8233506945
	 8237847223
	 8242187501
	 8246527778
	 8250868056
	 8255208334
	 8259548612
	 8263888890
	 8266059028
	 8268229167
	 8270399306
	 8272569445
	 8274739584
	 8276909723
	 8279079862
	 8281250001
	 8283420140
	 8285590278
	 8287760417
	 8289930556
	 8292100695
	 8294270834
	 8296440973
	 8298611112
	 8302951390
	 8307291667
	 8311631945
	 8315972223
	 8320312501
	 8324652778
	 8328993056
	 8333333334
	 8336588542
	 8339843751
	 8343098959
	 8346354167
	 8349609376
	 8352864584
	 8356119792
	 8359375001
	 8365885417
	 8372395834
	 8378906251
	 8385416667
	 8391927084
	 8398437501
	 8404947917
	 8411458334
	 8417968751
	 8424479167
	 8430989584
	 8437500001
	 8450520834
	 8463541667
	 8476562501
	 8489583334
	 8502604167
	 8515625001
	 8528645834
	 8541666667
	 8567708334
	 8593750001
	 8619791667
	 8645833334
	 8671875001
	 8697916667
	 8723958334
	 8750000000
	 8802083334
	 8854166667
	 8906250000
	 8958333334
	 9010416667
	 9062500000
	 9114583334
	 9166666667
	 9270833334
	 9375000000
	 9479166667
	 9583333334
	 9687500000
	 9791666667
	 9895833333
	 1e+10
VAR_LIST_END

BEGIN
	 0.999999999999997224442438437109 ,	 -0 
	 0.999999999999998445687765524781 ,	 -2.66845101570822862413479015231e-09 
	 0.99999999999999822364316059975 ,	 -2.66845145424632335107162361965e-08 
	 0.999999999999959698904206106818 ,	 -2.66845147145478023276154999621e-07 
	 0.999999999996122990175706490845 ,	 -2.66845147203764732068975717993e-06 
	 0.999999999993857580093958858924 ,	 -3.35938136789004637705602362985e-06 
	 0.999999999990264787363969389844 ,	 -4.2292105717767203287849042681e-06 
	 0.999999999984571563693691587105 ,	 -5.32426066046642887386042275466e-06 
	 0.999999999975548337083353089838 ,	 -6.70284704409884746212355821626e-06 
	 0.999999999961247443280853985925 ,	 -8.43838447625588905509630421875e-06 
	 0.999999999938582795344643727731 ,	 -1.06232966497754599544123266242e-05 
	 0.999999999902660530182174625224 ,	 -1.33739381096842357976584025891e-05 
	 0.9999999998457280714347916728 ,	 -1.68367905405697459997327314341e-05 
	 0.999999999755496360442919012712 ,	 -2.11962634640017189013860843261e-05 
	 0.999999999612488754685557523771 ,	 -2.66845147080807532091739631142e-05 
	 0.999999999385837168297541666107 ,	 -3.35938136617475180401015677489e-05 
	 0.999999999026618069386529441545 ,	 -4.22921056874581147155822691275e-05 
	 0.999999998457294148046514692396 ,	 -5.32426065485702704194181933417e-05 
	 0.999999997554977038127788091515 ,	 -6.70284703336854192912142025307e-05 
	 0.999999996124900869531870739593 ,	 -8.4383844537266883278903151222e-05 
	 0.999999993858382008049545675021 ,	 -0.000106232966072788981293228971481 
	 0.999999990266192684273960367136 ,	 -0.000133739380241637562107825942803 
	 0.999999984572956024386769513512 ,	 -0.000168367903708666055706544284476 
	 0.999999975549783925998781342059 ,	 -0.000211962631244039245714816388499 
	 0.999999961249021240838885660196 ,	 -0.000266845140297983229871192634164 
	 0.999999938583840952688319703157 ,	 -0.000335938123094153828773755776638 
	 0.9999999026619554864936390004 ,	 -0.00042292102989663349354998445051 
	 0.999999845729614533773599305277 ,	 -0.000532426011651959685266888300248 
	 0.999999755497961939632034500391 ,	 -0.000670284595931769366927710507298 
	 0.999999612490497180594672954612 ,	 -0.000843838231068455568717467940587 
	 0.999999385839109189433315805218 ,	 -0.00106232923314480975918172589445 
	 0.999999026621293474192952999147 ,	 -0.00133739294927257001965870131244 
	 0.999998457300492304966610390693 ,	 -0.00168367733485741410959235508926 
	 0.999997554990518233708485240641 ,	 -0.00211962291606287989154111528478 
	 0.999996124932333030344011604029 ,	 -0.00266844462639739821163686883665 
	 0.999993858459804596527931153105 ,	 -0.00335936771015710178289737086743 
	 0.999990266385505366386610148766 ,	 -0.00422918332230515225944600388175 
	 0.999984573438345236695568019059 ,	 -0.0053242062936925127480947139702 
	 0.999975550993691841838995060243 ,	 -0.00670273857712383458462568341929 
	 0.999961252056825511402848860598 ,	 -0.00843816808180283817186762007623 
	 0.99993859146148755812077979499 ,	 -0.0106228649732338087385841163268 
	 0.999902681084204880690435857105 ,	 -0.0133730770682405630811473429276 
	 0.999845777617295428107979660126 ,	 -0.0168350733818007913811243270175 
	 0.999802863887204518178464240918 ,	 -0.0190340351630965132212480739327 
	 0.999754457004729091273986796296 ,	 -0.0212431453648144197288161194592 
	 0.999610952655514806153291829105 ,	 -0.0267410051633925616165754490794 
	 0.999383681363703146871557692066 ,	 -0.0336598981619979364943162636337 
	 0.999075387003210635405991979496 ,	 -0.0412320708108539213387899735608 
	 0.998615382226534342713364367228 ,	 -0.0504644909237129679624445088848 
	 0.998141730173241592538602162676 ,	 -0.0584711202860479506426827356336 
	 0.997543532500160368137187560933 ,	 -0.0672393689778343073282229624965 
	 0.996171587321812435078527414589 ,	 -0.0839757322570236497405460340815 
	 0.994503591061435487929998089385 ,	 -0.100665577231448949424574834666 
	 0.992543955037524683326921604021 ,	 -0.117301739674171984217920794435 
	 0.990297250114819060939908013097 ,	 -0.133877873123692925361183370114 
	 0.98776,	-0.15038
	 0.98496,	-0.16682
	 0.98187,	-0.18319
	 0.97852,	-0.19947
	 0.97491,	-0.21568
	 0.97102,	-0.23179
	 0.96688,	-0.24782
	 0.96248,	-0.26375
	 0.95783,	-0.27959
	 0.95293,	-0.29533
	 0.94777,	-0.31096
	 0.94237,	-0.32648
	 0.93672,	-0.3419
	 0.93083,	-0.3572
	 0.9247,	-0.37238
	 0.91833,	-0.38744
	 0.91173,	-0.40237
	 0.90489,	-0.41717
	 0.89783,	-0.43184
	 0.89053,	-0.44638
	 0.88302,	-0.46077
	 0.87528,	-0.47502
	 0.86732,	-0.48912
	 0.85915,	-0.50306
	 0.85076,	-0.51686
	 0.84217,	-0.53049
	 0.83337,	-0.54396
	 0.82437,	-0.55727
	 0.81517,	-0.57041
	 0.80577,	-0.58337
	 0.79618,	-0.59617
	 0.78641,	-0.60878
	 0.77645,	-0.62122
	 0.76631,	-0.63347
	 0.756,	-0.64553
	 0.74551,	-0.65741
	 0.73485,	-0.6691
	 0.72403,	-0.68059
	 0.71305,	-0.69189
	 0.70191,	-0.70299
	 0.69061,	-0.71389
	 0.67917,	-0.72459
	 0.66758,	-0.73509
	 0.65586,	-0.74538
	 0.64399,	-0.75546
	 0.632,	-0.76534
	 0.61987,	-0.77501
	 0.60762,	-0.78446
	 0.59525,	-0.7937
	 0.58276,	-0.80273
	 0.57016,	-0.81154
	 0.55745,	-0.82014
	 0.54463,	-0.82852
	 0.53172,	-0.83668
	 0.51871,	-0.84463
	 0.5056,	-0.85235
	 0.49241,	-0.85986
	 0.47914,	-0.86714
	 0.46578,	-0.8742
	 0.45234,	-0.88105
	 0.43883,	-0.88767
	 0.42526,	-0.89406
	 0.41161,	-0.90024
	 0.39791,	-0.90619
	 0.38415,	-0.91192
	 0.37033,	-0.91743
	 0.35647,	-0.92272
	 0.34255,	-0.92778
	 0.32859,	-0.93262
	 0.3146,	-0.93724
	 0.30056,	-0.94164
	 0.2865,	-0.94582
	 0.2724,	-0.94978
	 0.25828,	-0.95351
	 0.24414,	-0.95703
	 0.22998,	-0.96033
	 0.2158,	-0.96341
	 0.20161,	-0.96627
	 0.18741,	-0.96891
	 0.17321,	-0.97134
	 0.14479,	-0.97555
	 0.11639,	-0.9789
	 0.088035,	-0.9814
	 0.059733,	-0.98306
	 0.031515,	-0.98389
	 0.0034042,	-0.9839
	-0.024579,	-0.98309
	-0.052413,	-0.98147
	-0.080078,	-0.97906
	-0.10755,	-0.97587
	-0.13482,	-0.9719
	-0.16186,	-0.96716
	-0.18865,	-0.96167
	-0.21519,	-0.95544
	-0.24145,	-0.94848
	-0.26741,	-0.9408
	-0.29306,	-0.93241
	-0.31839,	-0.92332
	-0.34338,	-0.91354
	-0.36801,	-0.9031
	-0.38826,	-0.89388
	-0.40824,	-0.88421
	-0.42796,	-0.8741
	-0.4474,	-0.86354
	-0.46655,	-0.85255
	-0.48541,	-0.84113
	-0.50398,	-0.82929
	-0.52223,	-0.81703
	-0.54018,	-0.80436
	-0.55781,	-0.79129
	-0.57512,	-0.77782
	-0.59209,	-0.76395
	-0.60046,	-0.75687
	-0.60873,	-0.7497
	-0.61693,	-0.74243
	-0.62503,	-0.73506
	-0.62905,	-0.73134
	-0.63305,	-0.7276
	-0.63702,	-0.72384
	-0.64097,	-0.72005
	-0.6449,	-0.71624
	-0.64881,	-0.7124
	-0.6527,	-0.70854
	-0.65656,	-0.70466
	-0.6581,	-0.7031
	-0.65963,	-0.70154
	-0.66116,	-0.69997
	-0.66269,	-0.6984
	-0.66421,	-0.69683
	-0.66573,	-0.69525
	-0.66725,	-0.69367
	-0.66876,	-0.69209
	-0.67026,	-0.6905
	-0.67177,	-0.68891
	-0.67326,	-0.68731
	-0.67476,	-0.68572
	-0.67625,	-0.68411
	-0.67773,	-0.68251
	-0.67922,	-0.6809
	-0.68069,	-0.67929
	-0.68143,	-0.67848
	-0.68216,	-0.67767
	-0.6829,	-0.67687
	-0.68363,	-0.67606
	-0.68436,	-0.67525
	-0.68509,	-0.67444
	-0.68581,	-0.67363
	-0.68654,	-0.67281
	-0.68726,	-0.672
	-0.68798,	-0.67119
	-0.6887,	-0.67038
	-0.68942,	-0.66957
	-0.69013,	-0.66876
	-0.69084,	-0.66795
	-0.69155,	-0.66714
	-0.69226,	-0.66633
	-0.69261,	-0.66593
	-0.69296,	-0.66552
	-0.69331,	-0.66512
	-0.69366,	-0.66472
	-0.694,	-0.66433
	-0.69435,	-0.66393
	-0.69469,	-0.66354
	-0.69504,	-0.66315
	-0.69538,	-0.66276
	-0.69572,	-0.66237
	-0.69606,	-0.662
	-0.69641,	-0.66162
	-0.69675,	-0.66125
	-0.6971,	-0.6609
	-0.69745,	-0.66054
	-0.69781,	-0.6602
	-0.69857,	-0.65954
	-0.6994,	-0.65889
	-0.70033,	-0.65818
	-0.70131,	-0.65737
	-0.70225,	-0.65644
	-0.7031,	-0.65545
	-0.70388,	-0.65446
	-0.70461,	-0.65349
	-0.70513,	-0.65278
	-0.70565,	-0.65209
	-0.70616,	-0.65141
	-0.70667,	-0.65074
	-0.70718,	-0.65007
	-0.70769,	-0.64941
	-0.70821,	-0.64876
	-0.70872,	-0.64811
	-0.70974,	-0.64681
	-0.71077,	-0.64552
	-0.7118,	-0.64424
	-0.71284,	-0.64296
	-0.71387,	-0.64167
	-0.7149,	-0.64039
	-0.71593,	-0.63911
	-0.71697,	-0.63783
	-0.718,	-0.63654
	-0.71903,	-0.63526
	-0.72006,	-0.63397
	-0.72108,	-0.63268
	-0.72313,	-0.6301
	-0.72518,	-0.62751
	-0.72721,	-0.62492
	-0.72924,	-0.62231
	-0.73127,	-0.6197
	-0.73328,	-0.61709
	-0.73529,	-0.61446
	-0.73728,	-0.61183
	-0.74125,	-0.60654
	-0.74519,	-0.60122
	-0.74909,	-0.59588
	-0.75296,	-0.5905
	-0.75679,	-0.58509
	-0.76058,	-0.57965
	-0.76434,	-0.57417
	-0.76807,	-0.56867
	-0.7754,	-0.55758
	-0.78259,	-0.54636
	-0.78963,	-0.53503
	-0.79652,	-0.52357
	-0.80325,	-0.512
	-0.80983,	-0.50031
	-0.81625,	-0.48849
	-0.82252,	-0.47656
	-0.83456,	-0.45235
	-0.84595,	-0.42767
	-0.85666,	-0.40252
	-0.86668,	-0.37691
	-0.876,	-0.35084
	-0.88458,	-0.32431
	-0.8924,	-0.29732
	-0.89945,	-0.26987
END
BEGIN
	 4.47026588999999991432510877454e-16 ,	 0 
	 7.0277984800000004015855468349e-16 ,	 2.60068008999999995233300704786e-13 
	 7.15356593000000033860189303379e-16 ,	 2.60070090000000013104641184001e-12 
	 6.34691952000000047852512127627e-16 ,	 2.60069535000000015839872666593e-11 
	 -6.23459616999999987973599504121e-15 ,	 2.60069475000000000591005268338e-10 
	 -1.02804049999999994633428840774e-14 ,	 3.27408070999999988443566305499e-10 
	 -1.67155786000000011836470551582e-14 ,	 4.12182337000000016445365600947e-10 
	 -2.68801907999999985339799567823e-14 ,	 5.1890682399999999670407988919e-10 
	 -4.29912181999999968450295583318e-14 ,	 6.5326498200000002088539649862e-10 
	 -6.85361055999999981367082944541e-14 ,	 8.22411897000000009494668069777e-10 
	 -1.09049922000000001237468614707e-13 ,	 1.03535524999999996456754762449e-09 
	 -1.73231221000000011131321890841e-13 ,	 1.30343505000000007521999718653e-09 
	 -2.74965597000000017642484692214e-13 ,	 1.64092755999999992393626010079e-09 
	 -4.36204675000000022162799480921e-13 ,	 2.06580550000000014097764972011e-09 
	 -6.91784302999999970466227857275e-13 ,	 2.60069522000000013505303677306e-09 
	 -1.09681123e-12 ,	 3.27408166e-09 
	 -1.73873546e-12 ,	 4.12182534e-09 
	 -2.75615533e-12 ,	 5.18907212e-09 
	 -4.36856085e-12 ,	 6.53265765e-09 
	 -6.92405356e-12 ,	 8.22413452e-09 
	 -1.09743002e-11 ,	 1.03535835e-08 
	 -1.73934233e-11 ,	 1.30344124e-08 
	 -2.75669296e-11 ,	 1.6409399e-08 
	 -4.36905215e-11 ,	 2.06583011e-08 
	 -6.92440172e-11 ,	 2.60074433e-08 
	 -1.09741694e-10 ,	 3.27417966e-08 
	 -1.73921593e-10 ,	 4.12202085e-08 
	 -2.75627989e-10 ,	 5.18946218e-08 
	 -4.36792493e-10 ,	 6.53343586e-08 
	 -6.92147008e-10 ,	 8.22568699e-08 
	 -1.0966711e-09 ,	 1.03566803e-07 
	 -1.73733285e-09 ,	 1.30405888e-07 
	 -2.75154488e-09 ,	 1.64217144e-07 
	 -4.35603354e-09 ,	 2.06828484e-07 
	 -6.89164249e-09 ,	 2.6056342e-07 
	 -1.08919816e-08 ,	 3.28391114e-07 
	 -1.71864124e-08 ,	 4.14135888e-07 
	 -2.70491011e-08 ,	 5.22779984e-07 
	 -4.24013499e-08 ,	 6.60916138e-07 
	 -6.60534629e-08 ,	 8.37440965e-07 
	 -1.0191325e-07 ,	 1.06462117e-06 
	 -1.54957364e-07 ,	 1.35968032e-06 
	 -2.30539501e-07 ,	 1.74694985e-06 
	 -2.81509498e-07 ,	 2.00240441e-06 
	 -3.3357779e-07 ,	 2.26631677e-06 
	 -4.60239523e-07 ,	 2.95230132e-06 
	 -5.99386796e-07 ,	 3.86365649e-06 
	 -7.12450984e-07 ,	 4.90102296e-06 
	 -7.89976471e-07 ,	 6.19135625e-06 
	 -8.07723578e-07 ,	 7.31238593e-06 
	 -7.8239367e-07 ,	 8.52720784e-06 
	 -6.3334985e-07 ,	 1.07761562e-05 
	 -3.92224718e-07 ,	 1.28959616e-05 
	 -9.59259928e-08 ,	 1.48621288e-05 
	 2.25418709e-07 ,	 1.66560021e-05 
	 5.44341394e-07 ,	 1.82613571e-05 
	 8.33823583e-07 ,	 1.96636176e-05 
	 1.06619958e-06 ,	 2.08498459e-05 
	 1.21264546e-06 ,	 2.18089407e-05 
	 1.24297673e-06 ,	 2.25318749e-05 
	 1.12561447e-06 ,	 2.30119207e-05 
	 8.27647901e-07 ,	 2.32448513e-05 
	 3.14955478e-07 ,	 2.3229118e-05 
	 -4.47636811e-07 ,	 2.29660028e-05 
	 -1.49617193e-06 ,	 2.24597492e-05 
	 -2.86736061e-06 ,	 2.17176726e-05 
	 -4.59836736e-06 ,	 2.07502515e-05 
	 -6.726587e-06 ,	 1.95711996e-05 
	 -9.28941422e-06 ,	 1.81975204e-05 
	 -1.23240082e-05 ,	 1.66495439e-05 
	 -1.5867054e-05 ,	 1.49509455e-05 
	 -1.99545219e-05 ,	 1.3128749e-05 
	 -2.46214267e-05 ,	 1.12133114e-05 
	 -2.99015869e-05 ,	 9.23829237e-06 
	 -3.58273868e-05 ,	 7.24060682e-06 
	 -4.24295406e-05 ,	 5.26036182e-06 
	 -4.97368612e-05 ,	 3.3407781e-06 
	 -5.77760332e-05 ,	 1.52809644e-06 
	 -6.65713924e-05 ,	 -1.28530525e-07 
	 -7.61447117e-05 ,	 -1.5771606e-06 
	 -8.65149948e-05 ,	 -2.76319781e-06 
	 -9.76982777e-05 ,	 -3.62954121e-06 
	 -0.00010970744 ,	 -4.11674597e-06 
	 -0.000122552026 ,	 -4.16319619e-06 
	 -0.000136238073 ,	 -3.7052887e-06 
	 -0.000150767959 ,	 -2.67762723e-06 
	 -0.000166140249 ,	 -1.01322615e-06 
	 -0.000182349567 ,	 1.35627694e-06 
	 -0.000199386467 ,	 4.50040047e-06 
	 -0.000217237332 ,	 8.4895908e-06 
	 -0.000235884268 ,	 1.33949876e-05 
	 -0.000255305028 ,	 1.92881833e-05 
	 -0.00027547294 ,	 2.62409777e-05 
	 -0.000296356848 ,	 3.43251277e-05 
	 -0.000317921077 ,	 4.36120949e-05 
	 -0.000340125399 ,	 5.41727885e-05 
	 -0.000362925023 ,	 6.6077308e-05 
	 -0.00038627059 ,	 7.93946838e-05 
	 -0.000410108195 ,	 9.41926172e-05 
	 -0.000434379409 ,	 0.000110537221 
	 -0.000459021325 ,	 0.000128492762 
	 -0.000483966613 ,	 0.000148121401 
	 -0.000509143588 ,	 0.000169482943 
	 -0.000534476298 ,	 0.000192634581 
	 -0.000559884618 ,	 0.000217630651 
	 -0.000585284361 ,	 0.000244522389 
	 -0.000610587399 ,	 0.000273357688 
	 -0.000635701803 ,	 0.000304180871 
	 -0.000660531988 ,	 0.000337032461 
	 -0.000684978873 ,	 0.00037194896 
	 -0.000708940055 ,	 0.00040896264 
	 -0.000732309992 ,	 0.000448101334 
	 -0.000754980196 ,	 0.000489388242 
	 -0.000776839439 ,	 0.000532841744 
	 -0.000797773971 ,	 0.000578475222 
	 -0.00081766774 ,	 0.000626296891 
	 -0.000836402632 ,	 0.000676309642 
	 -0.000853858711 ,	 0.000728510898 
	 -0.000869914473 ,	 0.000782892475 
	 -0.000884447107 ,	 0.000839440462 
	 -0.00089733276 ,	 0.000898135111 
	 -0.000908446814 ,	 0.000958950735 
	 -0.000917664167 ,	 0.00102185563 
	 -0.000924859518 ,	 0.00108681199 
	 -0.000929907661 ,	 0.00115377587 
	 -0.00093268378 ,	 0.00122269713 
	 -0.000933063752 ,	 0.00129351941 
	 -0.000930924449 ,	 0.0013661801 
	 -0.000926144045 ,	 0.00144061037 
	 -0.000918602326 ,	 0.00151673518 
	 -0.000908180999 ,	 0.0015944733 
	 -0.000894764003 ,	 0.00167373736 
	 -0.000878237818 ,	 0.00175443393 
	 -0.000858491775 ,	 0.00183646357 
	 -0.000835418365 ,	 0.001919721 
	 -0.000778877025 ,	 0.00208946918 
	 -0.000707828388 ,	 0.00226272298 
	 -0.000621556668 ,	 0.0024384418 
	 -0.000519424738 ,	 0.002615506 
	 -0.000400882673 ,	 0.00279272418 
	 -0.000265475678 ,	 0.00296884141 
	 -0.000112851296 ,	 0.00314254863 
	 5.72342287e-05 ,	 0.00331249308 
	 0.000244910549 ,	 0.00347728985 
	 0.000450188898 ,	 0.0036355344 
	 0.000672958978 ,	 0.00378581631 
	 0.000912987197 ,	 0.00392673412 
	 0.00116991638 ,	 0.00405691139 
	 0.00144326715 ,	 0.00417501429 
	 0.00173244119 ,	 0.0042797708 
	 0.00203672661 ,	 0.00436999218 
	 0.00235530591 ,	 0.0044445972 
	 0.00268726707 ,	 0.00450264031 
	 0.00303161855 ,	 0.00454334536 
	 0.00338730979 ,	 0.00456614725 
	 0.0036916013 ,	 0.00457124655 
	 0.00400239278 ,	 0.00456369904 
	 0.0043190862 ,	 0.00454370521 
	 0.00464113982 ,	 0.00451171757 
	 0.00496811251 ,	 0.004468513 
	 0.0052997296 ,	 0.00441529601 
	 0.00563598474 ,	 0.00435385062 
	 0.0059773,	 0.0042868
	 0.0063248,	 0.0042178
	 0.0066809,	 0.0041525
	 0.0070499,	 0.0040991
	 0.0074403,	 0.0040703
	 0.0076481,	 0.0040711
	 0.0078685,	 0.0040866
	 0.0081062,	 0.0041215
	 0.0083686,	 0.0041821
	 0.0085124,	 0.0042245
	 0.008667,	 0.0042767
	 0.0088351,	 0.00434
	 0.0090198,	 0.0044163
	 0.0092254,	 0.0045072
	 0.0094576,	 0.004615
	 0.009724,	 0.0047416
	 0.010035,	 0.0048889
	 0.010175,	 0.0049539
	 0.010325,	 0.0050225
	 0.010488,	 0.0050945
	 0.010663,	 0.0051698
	 0.010854,	 0.0052481
	 0.011062,	 0.0053289
	 0.011288,	 0.0054117
	 0.011537,	 0.0054954
	 0.011811,	 0.0055785
	 0.012112,	 0.0056592
	 0.012446,	 0.0057348
