CITIFILE A.01.01
#Momentum: B.12.070 (*) built: Feb 13 2020 
#Momentum Date and Time: Mon Aug 15 18:31:39 2022

NAME Momentum.SP

#  mode: MW    reference: S_50

#eesof Port[1] P1
#eesof Port[2] P2

CONSTANT NBR_OF_PORTS 2

CONSTANT NORMALIZATION 1

VAR freq MAG 514

DATA S[1,1] RI
DATA S[1,2] RI
DATA S[2,1] RI
DATA S[2,2] RI
DATA PORTZ[1] RI
DATA PORTZ[2] RI

VAR_LIST_BEGIN
	 0
	 8.701167245
	 87.01167245
	 870.1167245
	 8701.167245
	 10954.12056
	 13790.42073
	 17361.1111
	 21856.34394
	 27515.5068
	 34639.97072
	 43609.13941
	 54900.65379
	 69115.82818
	 87011.67245
	 109541.2056
	 137904.2073
	 173611.111
	 218563.4394
	 275155.068
	 346399.7072
	 436091.3941
	 549006.5379
	 691158.2818
	 870116.7245
	 1095412.056
	 1379042.073
	 1736111.11
	 2185634.394
	 2751550.68
	 3463997.072
	 4360913.941
	 5490065.379
	 6911582.818
	 8701167.245
	 10954120.56
	 13790420.73
	 17361111.1
	 19629339.22
	 21908241.11
	 27580841.47
	 34722222.2
	 42541975.04
	 52083333.3
	 60365357.38
	 69444444.4
	 86805555.5
	 104166666.6
	 121527777.7
	 138888888.8
	 160590277.7
	 182291666.6
	 203993055.4
	 225694444.3
	 247395833.2
	 269097222.1
	 290798611
	 312499999.9
	 334201388.7
	 355902777.6
	 377604166.5
	 399305555.4
	 421006944.3
	 442708333.1
	 464409722
	 486111110.9
	 507812499.8
	 529513888.7
	 551215277.5
	 572916666.4
	 594618055.3
	 616319444.2
	 638020833.1
	 659722222
	 681423610.8
	 703124999.7
	 724826388.6
	 746527777.5
	 768229166.4
	 789930555.2
	 811631944.1
	 833333333
	 850694444.1
	 868055555.2
	 885416666.3
	 902777777.4
	 920138888.5
	 937499999.6
	 954861110.7
	 972222221.8
	 993923610.7
	 1015625000
	 1037326388
	 1059027777
	 1080729166
	 1102430555
	 1124131944
	 1145833333
	 1167534722
	 1189236111
	 1210937499
	 1232638888
	 1254340277
	 1276041666
	 1297743055
	 1319444444
	 1341145833
	 1362847222
	 1384548611
	 1406249999
	 1427951388
	 1449652777
	 1471354166
	 1493055555
	 1514756944
	 1536458333
	 1558159722
	 1579861110
	 1601562499
	 1623263888
	 1644965277
	 1666666666
	 1692708333
	 1718749999
	 1744791666
	 1770833333
	 1796874999
	 1822916666
	 1848958333
	 1875000000
	 1901041666
	 1927083333
	 1953125000
	 1979166666
	 2005208333
	 2031250000
	 2057291666
	 2083333333
	 2096354166
	 2109375000
	 2122395833
	 2135416666
	 2148437500
	 2161458333
	 2174479166
	 2187500000
	 2200520833
	 2213541666
	 2226562500
	 2239583333
	 2252604166
	 2265625000
	 2278645833
	 2291666666
	 2304687500
	 2317708333
	 2330729167
	 2343750000
	 2356770833
	 2369791667
	 2382812500
	 2395833333
	 2408854167
	 2421875000
	 2434895833
	 2447916667
	 2460937500
	 2473958333
	 2486979167
	 2500000000
	 2513020833
	 2526041667
	 2539062500
	 2552083333
	 2565104167
	 2578125000
	 2591145833
	 2604166667
	 2617187500
	 2630208333
	 2643229167
	 2656250000
	 2669270833
	 2682291667
	 2695312500
	 2708333333
	 2721354167
	 2734375000
	 2747395833
	 2760416667
	 2773437500
	 2786458333
	 2799479167
	 2812500000
	 2825520833
	 2838541667
	 2851562500
	 2864583333
	 2877604167
	 2890625000
	 2903645833
	 2916666666
	 2929687500
	 2942708333
	 2955729166
	 2968750000
	 2981770833
	 2994791666
	 3007812500
	 3020833333
	 3033854166
	 3046875000
	 3059895833
	 3072916666
	 3085937500
	 3098958333
	 3111979166
	 3125000000
	 3138020833
	 3151041666
	 3164062500
	 3177083333
	 3190104166
	 3203125000
	 3216145833
	 3229166666
	 3242187500
	 3255208333
	 3268229166
	 3281250000
	 3294270833
	 3307291666
	 3320312500
	 3333333333
	 3346354166
	 3359375000
	 3372395833
	 3385416666
	 3398437500
	 3411458333
	 3424479166
	 3437500000
	 3450520833
	 3463541666
	 3476562500
	 3489583333
	 3502604166
	 3515625000
	 3528645833
	 3541666666
	 3554687500
	 3567708333
	 3580729167
	 3593750000
	 3606770833
	 3619791667
	 3632812500
	 3645833333
	 3658854167
	 3671875000
	 3684895833
	 3697916667
	 3710937500
	 3723958333
	 3736979167
	 3750000000
	 3763020833
	 3776041667
	 3789062500
	 3802083333
	 3815104167
	 3828125000
	 3841145833
	 3854166667
	 3880208333
	 3906250000
	 3932291667
	 3958333334
	 3984375000
	 4010416667
	 4036458334
	 4062500000
	 4088541667
	 4114583334
	 4140625000
	 4166666667
	 4192708334
	 4218750000
	 4244791667
	 4270833334
	 4296875000
	 4322916667
	 4348958334
	 4375000000
	 4401041667
	 4427083334
	 4453125000
	 4479166667
	 4505208334
	 4531250000
	 4557291667
	 4583333334
	 4609375000
	 4635416667
	 4661458333
	 4687500000
	 4713541667
	 4739583333
	 4765625000
	 4791666667
	 4817708333
	 4843750000
	 4869791667
	 4895833333
	 4921875000
	 4947916667
	 4973958333
	 5000000000
	 5026041667
	 5052083333
	 5078125000
	 5104166667
	 5130208333
	 5156250000
	 5182291667
	 5208333333
	 5234375000
	 5260416667
	 5286458333
	 5312500000
	 5338541667
	 5364583333
	 5390625000
	 5416666667
	 5468750000
	 5520833333
	 5572916667
	 5625000000
	 5677083333
	 5729166667
	 5781250000
	 5833333334
	 5885416667
	 5937500000
	 5989583334
	 6041666667
	 6093750000
	 6145833334
	 6197916667
	 6250000000
	 6302083334
	 6354166667
	 6406250000
	 6458333334
	 6510416667
	 6562500000
	 6614583334
	 6666666667
	 6724537037
	 6782407408
	 6840277778
	 6898148148
	 6956018519
	 7013888889
	 7071759259
	 7129629630
	 7187500000
	 7245370370
	 7303240741
	 7361111111
	 7418981481
	 7476851852
	 7534722222
	 7592592592
	 7621527778
	 7650462963
	 7679398148
	 7708333333
	 7737268518
	 7766203704
	 7795138889
	 7824074074
	 7853009259
	 7881944444
	 7910879629
	 7939814815
	 7968750000
	 7997685185
	 8026620370
	 8055555555
	 8084490740
	 8113425926
	 8142361111
	 8171296296
	 8200231481
	 8229166666
	 8258101851
	 8287037037
	 8315972222
	 8344907407
	 8373842592
	 8402777777
	 8431712962
	 8460648148
	 8489583333
	 8518518518
	 8547453703
	 8576388888
	 8605324074
	 8634259259
	 8663194444
	 8692129629
	 8721064814
	 8750000000
	 8778935185
	 8807870370
	 8836805555
	 8865740740
	 8894675925
	 8923611111
	 8952546296
	 8981481481
	 9010416666
	 9039351851
	 9068287037
	 9097222222
	 9111689814
	 9126157407
	 9140625000
	 9155092592
	 9169560185
	 9184027777
	 9198495370
	 9212962962
	 9227430555
	 9241898148
	 9256365740
	 9270833333
	 9285300925
	 9299768518
	 9314236111
	 9328703703
	 9343171296
	 9357638888
	 9372106481
	 9386574074
	 9401041666
	 9415509259
	 9429976851
	 9444444444
	 9453125000
	 9461805555
	 9470486111
	 9479166666
	 9487847222
	 9496527777
	 9505208333
	 9513888888
	 9522569444
	 9531250000
	 9539930555
	 9548611111
	 9557291666
	 9565972222
	 9574652777
	 9583333333
	 9592013889
	 9600694444
	 9609375000
	 9618055555
	 9626736111
	 9635416666
	 9644097222
	 9652777778
	 9661458333
	 9670138889
	 9678819444
	 9687500000
	 9696180555
	 9704861111
	 9713541666
	 9722222222
	 9730902778
	 9739583333
	 9748263889
	 9756944444
	 9765625000
	 9774305555
	 9782986111
	 9791666666
	 9800347222
	 9809027778
	 9817708333
	 9826388889
	 9835069444
	 9843750000
	 9852430555
	 9861111111
	 9869791667
	 9878472222
	 9887152778
	 9895833333
	 9904513889
	 9913194444
	 9921875000
	 9930555556
	 9939236111
	 9947916667
	 9956597222
	 9965277778
	 9973958333
	 9982638889
	 9991319444
	 1e+10
VAR_LIST_END

BEGIN
	 5.0870788599999997665803558311e-05 ,	 -0 
	 5.0870788599999997665803558311e-05 ,	 -1.93062826999999992534321720586e-09 
	 5.0870788599999997665803558311e-05 ,	 -1.93062839999999988406542174302e-08 
	 5.08707884999999994206365538929e-05 ,	 -1.93062839999999988406542174302e-07 
	 5.08707731999999968595417565442e-05 ,	 -1.93062839999999988406542174302e-06 
	 5.0870764199999998940449064122e-05 ,	 -2.43051715000000001984099655405e-06 
	 5.08707498999999991598150450578e-05 ,	 -3.05983981000000011319685244704e-06 
	 5.0870727300000002728784520567e-05 ,	 -3.85211008999999989784812984284e-06 
	 5.0870691400000002521317177262e-05 ,	 -4.84951928000000038315991240934e-06 
	 5.08706344999999981342821142594e-05 ,	 -6.10518304999999972086655031234e-06 
	 5.08705444000000003693974515162e-05 ,	 -7.68597009000000032158048113295e-06 
	 5.08704015000000008082242652918e-05 ,	 -9.67606304999999999600767547348e-06 
	 5.08701751000000028596695345051e-05 ,	 -1.21814417000000000274604131101e-05 
	 5.08698161999999990301631058731e-05 ,	 -1.53355264000000000141309131063e-05 
	 5.08692474999999973291585353419e-05 ,	 -1.93062838999999997484542657578e-05 
	 5.08683461e-05 ,	 -2.43051713e-05 
	 5.08669174e-05 ,	 -3.05983977e-05 
	 5.08646532e-05 ,	 -3.85211001e-05 
	 5.08610646e-05 ,	 -4.84951912e-05 
	 5.08553772e-05 ,	 -6.10518274e-05 
	 5.08463631e-05 ,	 -7.68596946e-05 
	 5.08320768e-05 ,	 -9.67606181e-05 
	 5.08094345e-05 ,	 -0.000121814392 
	 5.0773549e-05 ,	 -0.000153355215 
	 5.07166742e-05 ,	 -0.00019306274 
	 5.06265338e-05 ,	 -0.000243051516 
	 5.04836709e-05 ,	 -0.000305983582 
	 5.02572488e-05 ,	 -0.000385210214 
	 4.98983944e-05 ,	 -0.000484950342 
	 4.93296499e-05 ,	 -0.000610515141 
	 4.8428254e-05 ,	 -0.000768590695 
	 4.69996461e-05 ,	 -0.000967593708 
	 4.47354765e-05 ,	 -0.00121811903 
	 4.11470629e-05 ,	 -0.00153350249 
	 3.54599446e-05 ,	 -0.00193052833 
	 2.64468061e-05 ,	 -0.00243031749 
	 1.21627893e-05 ,	 -0.00305944146 
	 -1.04737298e-05 ,	 -0.00385131534 
	 -2.75467605e-05 ,	 -0.0043542394 
	 -4.68069727e-05 ,	 -0.00485943747 
	 -0.000103915602 ,	 -0.00611649418 
	 -0.000194392848 ,	 -0.00769786652 
	 -0.000317189034 ,	 -0.00942759858 
	-0.00050055,	-0.011535
	-0.0006895,	-0.013361
	-0.00092837,	-0.015358
	-0.0014771,	-0.019162
	-0.0021457,	-0.022942
	-0.0029331,	-0.026695
	-0.003838,	-0.030415
	-0.0051319,	-0.035014
	-0.0066039,	-0.039548
	-0.0082504,	-0.044009
	-0.010068,	-0.04839
	-0.012052,	-0.052684
	-0.014199,	-0.056884
	-0.016505,	-0.060984
	-0.018965,	-0.064978
	-0.021574,	-0.06886
	-0.024328,	-0.072625
	-0.027222,	-0.076268
	-0.03025,	-0.079783
	-0.033408,	-0.083167
	-0.036689,	-0.086416
	-0.040087,	-0.089525
	-0.043597,	-0.09249
	-0.047212,	-0.095308
	-0.050926,	-0.097975
	-0.054731,	-0.10048
	-0.058621,	-0.10284
	-0.06259,	-0.10504
	-0.06663,	-0.10707
	-0.070733,	-0.10894
	-0.074894,	-0.11064
	-0.079105,	-0.11217
	-0.083358,	-0.11354
	-0.087647,	-0.11472
	-0.091964,	-0.11574
	-0.096302,	-0.11658
	-0.10065,	-0.11724
	-0.10501,	-0.11773
	-0.10937,	-0.11805
	-0.11285,	-0.11817
	-0.11632,	-0.11818
	-0.11978,	-0.11808
	-0.12323,	-0.11787
	-0.12665,	-0.11755
	-0.13006,	-0.11711
	-0.13344,	-0.11657
	-0.13678,	-0.11592
	-0.14092,	-0.11496
	-0.145,	-0.11383
	-0.14901,	-0.11254
	-0.15295,	-0.11108
	-0.15681,	-0.10947
	-0.16059,	-0.1077
	-0.16428,	-0.10579
	-0.16787,	-0.10372
	-0.17136,	-0.10151
	-0.17474,	-0.099171
	-0.178,	-0.096688
	-0.18115,	-0.094073
	-0.18417,	-0.091332
	-0.18706,	-0.08847
	-0.18982,	-0.085491
	-0.19244,	-0.082401
	-0.19491,	-0.079205
	-0.19723,	-0.075908
	-0.1994,	-0.072517
	-0.20142,	-0.069036
	-0.20327,	-0.065473
	-0.20496,	-0.061834
	-0.20648,	-0.058124
	-0.20782,	-0.05435
	-0.20899,	-0.050518
	-0.20999,	-0.046636
	-0.2108,	-0.042711
	-0.21143,	-0.038749
	-0.21188,	-0.034757
	-0.21214,	-0.030742
	-0.2122,	-0.026712
	-0.21208,	-0.022675
	-0.21168,	-0.017831
	-0.211,	-0.012999
	-0.21004,	-0.0081945
	-0.2088,	-0.0034294
	-0.20728,	 0.001282
	-0.20548,	 0.0059258
	-0.20339,	 0.010488
	-0.20103,	 0.014954
	-0.19839,	 0.019311
	-0.19548,	 0.023543
	-0.1923,	 0.027636
	-0.18885,	 0.031575
	-0.18513,	 0.035347
	-0.18116,	 0.038936
	-0.17694,	 0.042328
	-0.17247,	 0.045509
	-0.17015,	 0.047015
	-0.16777,	 0.048463
	-0.16533,	 0.049851
	-0.16283,	 0.051177
	-0.16028,	 0.052439
	-0.15767,	 0.053636
	-0.15502,	 0.054766
	-0.15231,	 0.055826
	-0.14955,	 0.056816
	-0.14674,	 0.057734
	-0.14388,	 0.058577
	-0.14098,	 0.059344
	-0.13803,	 0.060034
	-0.13505,	 0.060645
	-0.13202,	 0.061176
	-0.12895,	 0.061623
	-0.12584,	 0.061987
	-0.12269,	 0.062266
	-0.11952,	 0.062457
	-0.11631,	 0.06256
	-0.11307,	 0.062573
	-0.1098,	 0.062494
	-0.1065,	 0.062323
	-0.10318,	 0.062057
	-0.099849,	 0.061696
	-0.096488,	 0.061238
	-0.09311,	 0.060682
	-0.089717,	 0.060027
	-0.086312,	 0.059272
	-0.082896,	 0.058415
	-0.079472,	 0.057455
	-0.076043,	 0.056392
	-0.072611,	 0.055225
	-0.069179,	 0.053952
	-0.065749,	 0.052573
	-0.062325,	 0.051087
	-0.058909,	 0.049493
	-0.055504,	 0.047791
	-0.052113,	 0.04598
	-0.048738,	 0.04406
	-0.045383,	 0.04203
	-0.042051,	 0.039889
	-0.038744,	 0.037638
	-0.035466,	 0.035277
	-0.03222,	 0.032805
	-0.029008,	 0.030221
	-0.025835,	 0.027528
	-0.022702,	 0.024723
	-0.019615,	 0.021808
	-0.016574,	 0.018783
	-0.013585,	 0.015648
	-0.01065,	 0.012404
	-0.0077724,	 0.0090519
	-0.0049555,	 0.0055914
	 -0.00220266138 ,	 0.00202391967 
	 0.000482831472 ,	 -0.00164980949 
	 0.00309765929 ,	 -0.00542874158 
	 0.0056385,	-0.0093118
	 0.0081021,	-0.013298
	 0.010485,	-0.017385
	 0.012784,	-0.021573
	 0.014996,	-0.025859
	 0.017118,	-0.030242
	 0.019146,	-0.034721
	 0.021077,	-0.039293
	 0.022908,	-0.043956
	 0.024636,	-0.048708
	 0.026258,	-0.053548
	 0.027771,	-0.058473
	 0.029171,	-0.06348
	 0.030456,	-0.068567
	 0.031623,	-0.073731
	 0.032669,	-0.07897
	 0.033591,	-0.084281
	 0.034387,	-0.08966
	 0.035054,	-0.095105
	 0.035589,	-0.10061
	 0.035991,	-0.10618
	 0.036255,	-0.1118
	 0.036382,	-0.11747
	 0.036367,	-0.1232
	 0.036209,	-0.12897
	 0.035906,	-0.13478
	 0.035456,	-0.14063
	 0.034858,	-0.14652
	 0.034109,	-0.15244
	 0.033208,	-0.15838
	 0.032155,	-0.16434
	 0.030946,	-0.17032
	 0.029582,	-0.17632
	 0.028061,	-0.18233
	 0.026382,	-0.18834
	 0.024545,	-0.19435
	 0.022548,	-0.20036
	 0.020392,	-0.20637
	 0.018076,	-0.21236
	 0.0156,	-0.21833
	 0.012964,	-0.22428
	 0.010167,	-0.23021
	 0.0072099,	-0.23611
	 0.0040933,	-0.24198
	 0.00081751,	-0.2478
	-0.0026168,	-0.25359
	-0.006209,	-0.25932
	-0.009958,	-0.26501
	-0.013863,	-0.27063
	-0.017922,	-0.2762
	-0.022135,	-0.2817
	-0.026499,	-0.28714
	-0.031013,	-0.29249
	-0.035676,	-0.29778
	-0.040485,	-0.30298
	-0.045439,	-0.30809
	-0.050535,	-0.31312
	-0.05577,	-0.31805
	-0.061144,	-0.32288
	-0.066652,	-0.32761
	-0.072293,	-0.33224
	-0.078064,	-0.33676
	-0.083961,	-0.34117
	-0.089982,	-0.34546
	-0.096125,	-0.34963
	-0.10238,	-0.35369
	-0.10875,	-0.35761
	-0.11524,	-0.36142
	-0.12183,	-0.36508
	-0.12853,	-0.36862
	-0.13533,	-0.37202
	-0.14222,	-0.37529
	-0.14921,	-0.37841
	-0.15629,	-0.38139
	-0.16345,	-0.38422
	-0.1707,	-0.38691
	-0.17803,	-0.38945
	-0.18542,	-0.39184
	-0.19289,	-0.39408
	-0.20803,	-0.3981
	-0.2234,	-0.40149
	-0.23897,	-0.40425
	-0.25471,	-0.40638
	-0.27059,	-0.40786
	-0.28657,	-0.40871
	-0.30264,	-0.4089
	-0.31874,	-0.40846
	-0.33486,	-0.40738
	-0.35097,	-0.40566
	-0.36703,	-0.40332
	-0.38302,	-0.40036
	-0.39892,	-0.39679
	-0.41469,	-0.39261
	-0.43031,	-0.38785
	-0.44576,	-0.38252
	-0.46102,	-0.37661
	-0.47606,	-0.37017
	-0.49087,	-0.36318
	-0.50542,	-0.35568
	-0.5197,	-0.34768
	-0.53369,	-0.33919
	-0.54738,	-0.33023
	-0.56075,	-0.32083
	-0.57379,	-0.31099
	-0.58648,	-0.30073
	-0.59882,	-0.29007
	-0.6108,	-0.27904
	-0.6224,	-0.26764
	-0.63363,	-0.2559
	-0.64446,	-0.24383
	-0.6549,	-0.23145
	-0.66494,	-0.21878
	-0.67458,	-0.20583
	-0.68381,	-0.19263
	-0.69262,	-0.17918
	-0.70103,	-0.1655
	-0.70902,	-0.15161
	-0.71659,	-0.13753
	-0.72375,	-0.12327
	-0.73049,	-0.10884
	-0.73681,	-0.094268
	-0.74272,	-0.079551
	-0.74822,	-0.06471
	-0.7533,	-0.049758
	-0.75797,	-0.034708
	-0.76223,	-0.019572
	-0.76609,	-0.0043622
	-0.76955,	 0.01091
	-0.7726,	 0.026234
	-0.77526,	 0.041598
	-0.77753,	 0.056991
	-0.77941,	 0.072405
	-0.7809,	 0.087829
	-0.78202,	 0.10325
	-0.78275,	 0.11866
	-0.78312,	 0.13406
	-0.78311,	 0.14944
	-0.78275,	 0.16478
	-0.78202,	 0.18007
	-0.77951,	 0.21051
	-0.77562,	 0.2407
	-0.77038,	 0.27058
	-0.76384,	 0.3001
	-0.75604,	 0.32921
	-0.747,	 0.35788
	-0.73677,	 0.38606
	-0.72539,	 0.41372
	-0.71288,	 0.44081
	-0.6993,	 0.46731
	-0.68466,	 0.49318
	-0.66902,	 0.5184
	-0.6524,	 0.54293
	-0.63483,	 0.56676
	-0.61636,	 0.58984
	-0.59701,	 0.61217
	-0.57682,	 0.63371
	-0.55582,	 0.65445
	-0.53404,	 0.67436
	-0.51152,	 0.69342
	-0.48828,	 0.71161
	-0.46435,	 0.72892
	-0.43978,	 0.74532
	-0.41459,	 0.76079
	-0.38591,	 0.77688
	-0.35655,	 0.79178
	-0.32655,	 0.80547
	-0.29596,	 0.81793
	-0.26481,	 0.82913
	-0.23315,	 0.83905
	-0.20104,	 0.84767
	-0.16851,	 0.85498
	-0.13561,	 0.86094
	-0.10238,	 0.86554
	-0.06889,	 0.86876
	-0.035167,	 0.87058
	-0.0012683,	 0.87098
	 0.032754,	 0.86994
	 0.066846,	 0.86744
	 0.10095,	 0.86346
	 0.11799,	 0.86091
	 0.13502,	 0.85799
	 0.15202,	 0.85468
	 0.16899,	 0.85099
	 0.18591,	 0.84692
	 0.20279,	 0.84247
	 0.21962,	 0.83762
	 0.23638,	 0.83238
	 0.25307,	 0.82675
	 0.26968,	 0.82073
	 0.2862,	 0.8143
	 0.30262,	 0.80748
	 0.31893,	 0.80025
	 0.33513,	 0.79262
	 0.3512,	 0.78457
	 0.36713,	 0.77612
	 0.38291,	 0.76726
	 0.39854,	 0.75797
	 0.414,	 0.74827
	 0.42927,	 0.73815
	 0.44436,	 0.7276
	 0.45924,	 0.71662
	 0.4739,	 0.70522
	 0.48833,	 0.69338
	 0.50251,	 0.6811
	 0.51643,	 0.66838
	 0.53008,	 0.65522
	 0.54343,	 0.64162
	 0.55647,	 0.62756
	 0.56918,	 0.61306
	 0.58154,	 0.59809
	 0.59353,	 0.58267
	 0.60512,	 0.56678
	 0.6163,	 0.55043
	 0.62704,	 0.53361
	 0.63731,	 0.51631
	 0.64708,	 0.49854
	 0.65631,	 0.4803
	 0.66498,	 0.46157
	 0.67305,	 0.44237
	 0.68046,	 0.42268
	 0.68719,	 0.40252
	 0.69317,	 0.38188
	 0.69836,	 0.36077
	 0.7027,	 0.3392
	 0.70612,	 0.31718
	 0.70854,	 0.29472
	 0.7099,	 0.27184
	 0.71011,	 0.24857
	 0.70906,	 0.22494
	 0.70667,	 0.201
	 0.70281,	 0.17681
	 0.70029,	 0.16464
	 0.69735,	 0.15244
	 0.69399,	 0.14022
	 0.69018,	 0.12798
	 0.6859,	 0.11575
	 0.68114,	 0.10355
	 0.67588,	 0.091395
	 0.67009,	 0.079298
	 0.66376,	 0.067288
	 0.65686,	 0.055393
	 0.64939,	 0.043641
	 0.64131,	 0.032065
	 0.63261,	 0.020701
	 0.62327,	 0.0095874
	 0.61327,	-0.0012314
	 0.6026,	-0.011708
	 0.59125,	-0.02179
	 0.57919,	-0.031421
	 0.56644,	-0.040538
	 0.55297,	-0.049076
	 0.5388,	-0.056961
	 0.52393,	-0.064117
	 0.50838,	-0.070462
	 0.49216,	-0.07591
	 0.48213,	-0.07871
	 0.47188,	-0.081135
	 0.46143,	-0.083163
	 0.45077,	-0.084775
	 0.43994,	-0.085948
	 0.42894,	-0.086663
	 0.41779,	-0.086898
	 0.40651,	-0.086633
	 0.39513,	-0.085847
	 0.38366,	-0.084522
	 0.37213,	-0.082638
	 0.36057,	-0.080178
	 0.34902,	-0.077126
	 0.33749,	-0.073466
	 0.32604,	-0.069187
	 0.31468,	-0.064277
	 0.30347,	-0.058727
	 0.29245,	-0.052532
	 0.28165,	-0.04569
	 0.27112,	-0.0382
	 0.26091,	-0.030067
	 0.25105,	-0.021297
	 0.24161,	-0.011903
	 0.23262,	-0.0019006
	 0.22413,	 0.0086911
	 0.21618,	 0.019848
	 0.20883,	 0.031541
	 0.20211,	 0.043737
	 0.19606,	 0.056401
	 0.19073,	 0.06949
	 0.18614,	 0.082961
	 0.18233,	 0.096764
	 0.17932,	 0.11084
	 0.17715,	 0.12516
	 0.17581,	 0.13964
	 0.17534,	 0.15424
	 0.17573,	 0.16889
	 0.17699,	 0.18353
	 0.17911,	 0.19811
	 0.1821,	 0.21256
	 0.18593,	 0.22683
	 0.19058,	 0.24087
	 0.19604,	 0.2546
	 0.20227,	 0.268
	 0.20925,	 0.281
	 0.21694,	 0.29356
	 0.2253,	 0.30564
	 0.23429,	 0.31721
	 0.24387,	 0.32823
	 0.254,	 0.33868
	 0.26461,	 0.34852
	 0.27568,	 0.35774
	 0.28716,	 0.36633
	 0.29899,	 0.37427
	 0.31113,	 0.38156
	 0.32353,	 0.38819
	 0.33616,	 0.39416
	 0.34896,	 0.39947
	 0.3619,	 0.40414
	 0.37494,	 0.40816
	 0.38805,	 0.41156
	 0.40118,	 0.41433
	 0.4143,	 0.41651
	 0.42738,	 0.41811
END
BEGIN
	 0.999949129211389675653265385336 ,	 -0 
	 0.999949129211386789073401359929 ,	 -7.75056960278242002004844835028e-09 
	 0.999949129211382903292815171881 ,	 -7.75056955212849452152568119345e-08 
	 0.999949129210984555271579665714 ,	 -7.75056956642261596357457165141e-07 
	 0.999949129171160189244460525515 ,	 -7.75056956469483138150167178537e-06 
	 0.999949129147631787795091895532 ,	 -9.75738898044420377431151791825e-06 
	 0.999949129110341616843982137652 ,	 -1.22838249395559873100580716709e-05 
	 0.99994912905124100355180871702 ,	 -1.5464419368553528055798551577e-05 
	 0.999949128957571931053394109767 ,	 -1.94685505184102880527063916816e-05 
	 0.999949128809117571137221602839 ,	 -2.45094529717077014296933157311e-05 
	 0.999949128573833112554325452948 ,	 -3.08555731621806828002263500821e-05 
	 0.999949128200931292020925411634 ,	 -3.88448651230735575445862650668e-05 
