CITIFILE A.01.01
#Momentum: B.12.070 (*) built: Feb 13 2020 
#Momentum Date and Time: Tue Aug 16 06:28:46 2022

NAME Momentum.SP

#  mode: MW    reference: S_50

#eesof Port[1] P1
#eesof Port[2] P2

CONSTANT NBR_OF_PORTS 2

CONSTANT NORMALIZATION 1

VAR freq MAG 545

DATA S[1,1] RI
DATA S[1,2] RI
DATA S[2,1] RI
DATA S[2,2] RI
DATA PORTZ[1] RI
DATA PORTZ[2] RI

VAR_LIST_BEGIN
	 0
	 9.193613825
	 91.93613825
	 919.3613825
	 9193.613825
	 11574.07407
	 14570.89596
	 18343.6712
	 23093.31382
	 29072.75961
	 36600.43587
	 46077.2188
	 58007.78165
	 73027.4704
	 91936.13825
	 115740.7407
	 145708.9596
	 183436.712
	 230933.1382
	 290727.5961
	 366004.3587
	 460772.188
	 580077.8165
	 730274.704
	 919361.3825
	 1157407.407
	 1457089.596
	 1834367.12
	 2309331.382
	 2907275.961
	 3660043.587
	 4607721.88
	 5800778.165
	 7302747.04
	 9193613.825
	 11574074.07
	 13086226.15
	 14605494.08
	 18387227.65
	 23148148.14
	 28361316.7
	 34722222.21
	 40243571.6
	 46296296.28
	 53275028.22
	 60763888.87
	 75231481.46
	 89699074.05
	 104166666.6
	 118634259.2
	 133101851.8
	 147569444.4
	 162037037
	 176504629.6
	 190972222.2
	 205439814.8
	 219907407.3
	 234374999.9
	 248842592.5
	 263310185.1
	 277777777.7
	 299479166.6
	 321180555.5
	 342881944.3
	 364583333.2
	 386284722.1
	 407986111
	 429687499.9
	 451388888.7
	 473090277.6
	 494791666.5
	 516493055.4
	 538194444.3
	 559895833.1
	 581597222
	 603298610.9
	 624999999.8
	 646701388.7
	 668402777.5
	 690104166.4
	 711805555.3
	 733506944.2
	 755208333.1
	 776909721.9
	 798611110.8
	 820312499.7
	 842013888.6
	 863715277.5
	 885416666.3
	 907118055.2
	 928819444.1
	 950520833
	 972222221.9
	 993923610.7
	 1015625000
	 1037326388
	 1059027777
	 1080729166
	 1102430555
	 1124131944
	 1145833333
	 1167534722
	 1189236111
	 1210937500
	 1232638888
	 1254340277
	 1276041666
	 1297743055
	 1319444444
	 1341145833
	 1362847222
	 1384548611
	 1406249999
	 1427951388
	 1449652777
	 1471354166
	 1493055555
	 1514756944
	 1536458333
	 1558159722
	 1579861110
	 1601562499
	 1623263888
	 1644965277
	 1666666666
	 1692708333
	 1718749999
	 1744791666
	 1770833333
	 1796874999
	 1822916666
	 1848958333
	 1874999999
	 1901041666
	 1927083333
	 1953124999
	 1979166666
	 2005208333
	 2031249999
	 2057291666
	 2083333333
	 2109374999
	 2135416666
	 2161458333
	 2187499999
	 2213541666
	 2239583333
	 2265624999
	 2291666666
	 2317708333
	 2343749999
	 2369791666
	 2395833333
	 2421874999
	 2447916666
	 2473958333
	 2500000000
	 2526041666
	 2552083333
	 2578125000
	 2604166666
	 2630208333
	 2656250000
	 2682291666
	 2708333333
	 2734375000
	 2760416666
	 2786458333
	 2812500000
	 2838541666
	 2864583333
	 2890625000
	 2916666666
	 2942708333
	 2968750000
	 2994791666
	 3020833333
	 3046875000
	 3072916666
	 3098958333
	 3125000000
	 3151041666
	 3177083333
	 3203125000
	 3229166666
	 3255208333
	 3281250000
	 3307291666
	 3333333333
	 3359375000
	 3385416666
	 3411458333
	 3437500000
	 3463541666
	 3489583333
	 3515625000
	 3541666666
	 3567708333
	 3593750000
	 3619791666
	 3645833333
	 3671875000
	 3697916666
	 3723958333
	 3750000000
	 3776041666
	 3802083333
	 3828124999
	 3854166666
	 3880208333
	 3906249999
	 3932291666
	 3958333333
	 3984374999
	 4010416666
	 4036458333
	 4062499999
	 4075520833
	 4088541666
	 4101562499
	 4114583333
	 4127604166
	 4140624999
	 4153645833
	 4166666666
	 4179687499
	 4192708333
	 4205729166
	 4218749999
	 4231770833
	 4244791666
	 4257812499
	 4270833333
	 4283854166
	 4296874999
	 4309895833
	 4322916666
	 4335937499
	 4348958333
	 4361979166
	 4375000000
	 4388020833
	 4401041666
	 4414062500
	 4427083333
	 4440104166
	 4453125000
	 4466145833
	 4479166666
	 4492187500
	 4505208333
	 4518229166
	 4531250000
	 4544270833
	 4557291666
	 4570312500
	 4583333333
	 4596354166
	 4609375000
	 4622395833
	 4635416666
	 4648437500
	 4661458333
	 4674479166
	 4687500000
	 4700520833
	 4713541666
	 4726562500
	 4739583333
	 4752604166
	 4765625000
	 4778645833
	 4791666666
	 4804687500
	 4817708333
	 4830729167
	 4843750000
	 4856770833
	 4869791667
	 4882812500
	 4895833333
	 4908854167
	 4921875000
	 4934895833
	 4947916667
	 4960937500
	 4973958333
	 4986979167
	 5000000000
	 5013020833
	 5026041667
	 5039062500
	 5052083333
	 5065104167
	 5078125000
	 5091145833
	 5104166667
	 5117187500
	 5130208333
	 5143229167
	 5156250000
	 5169270833
	 5182291667
	 5195312500
	 5208333333
	 5221354167
	 5234375000
	 5247395833
	 5260416667
	 5273437500
	 5286458333
	 5299479167
	 5312500000
	 5325520833
	 5338541667
	 5351562500
	 5364583333
	 5377604167
	 5390625000
	 5403645833
	 5416666666
	 5429687500
	 5442708333
	 5455729166
	 5468750000
	 5481770833
	 5494791666
	 5507812500
	 5520833333
	 5533854166
	 5546875000
	 5559895833
	 5572916666
	 5585937500
	 5598958333
	 5611979166
	 5625000000
	 5638020833
	 5651041666
	 5664062500
	 5677083333
	 5690104166
	 5703125000
	 5716145833
	 5729166666
	 5742187500
	 5755208333
	 5768229166
	 5781250000
	 5794270833
	 5807291666
	 5820312500
	 5833333333
	 5859375000
	 5885416666
	 5911458333
	 5937500000
	 5963541666
	 5989583333
	 6015625000
	 6041666666
	 6067708333
	 6093750000
	 6119791667
	 6145833333
	 6171875000
	 6197916667
	 6223958333
	 6250000000
	 6276041667
	 6302083333
	 6328125000
	 6354166667
	 6380208333
	 6406250000
	 6432291667
	 6458333334
	 6484375000
	 6510416667
	 6536458334
	 6562500000
	 6588541667
	 6614583334
	 6640625000
	 6666666667
	 6692708334
	 6718750000
	 6744791667
	 6770833334
	 6796875000
	 6822916667
	 6848958334
	 6875000000
	 6901041667
	 6927083334
	 6953125000
	 6979166667
	 7005208334
	 7031250000
	 7057291667
	 7083333334
	 7109375000
	 7135416667
	 7161458334
	 7187500000
	 7213541667
	 7239583334
	 7265625000
	 7291666667
	 7317708334
	 7343750000
	 7369791667
	 7395833334
	 7421875000
	 7447916667
	 7473958334
	 7500000000
	 7526041667
	 7552083334
	 7578125001
	 7604166667
	 7630208334
	 7656250001
	 7682291667
	 7708333334
	 7734375001
	 7760416667
	 7786458334
	 7812500001
	 7838541667
	 7864583334
	 7890625001
	 7916666667
	 7942708334
	 7968750001
	 7994791667
	 8020833334
	 8046875001
	 8072916667
	 8098958334
	 8125000001
	 8151041667
	 8177083334
	 8203125001
	 8229166667
	 8255208334
	 8281250001
	 8307291667
	 8333333334
	 8369502315
	 8405671297
	 8441840278
	 8478009260
	 8496093751
	 8514178241
	 8532262732
	 8550347223
	 8568431714
	 8586516204
	 8604600695
	 8622685186
	 8640769676
	 8658854167
	 8676938658
	 8695023149
	 8713107639
	 8731192130
	 8749276621
	 8767361112
	 8785445602
	 8803530093
	 8821614584
	 8839699075
	 8857783565
	 8875868056
	 8893952547
	 8912037038
	 8930121528
	 8948206019
	 8966290510
	 8984375000
	 9002459491
	 9020543982
	 9038628473
	 9056712963
	 9074797454
	 9092881945
	 9110966436
	 9129050926
	 9147135417
	 9165219908
	 9183304399
	 9201388889
	 9219473380
	 9237557871
	 9255642361
	 9273726852
	 9291811343
	 9309895834
	 9327980324
	 9346064815
	 9364149306
	 9382233797
	 9400318287
	 9418402778
	 9436487269
	 9454571760
	 9472656250
	 9490740741
	 9505208334
	 9519675926
	 9534143519
	 9548611111
	 9563078704
	 9577546296
	 9592013889
	 9606481482
	 9620949074
	 9635416667
	 9649884259
	 9664351852
	 9678819444
	 9693287037
	 9707754629
	 9722222222
	 9745370370
	 9768518518
	 9791666666
	 9814814814
	 9826388889
	 9837962963
	 9849537037
	 9861111111
	 9872685185
	 9884259259
	 9895833333
	 9907407407
	 9918981481
	 9930555555
	 9942129629
	 9953703704
	 9965277778
	 9976851852
	 9988425926
	 1e+10
VAR_LIST_END

BEGIN
	 6.19494524000000022084799766731e-05 ,	 -0 
	 6.19494524000000022084799766731e-05 ,	 8.78052353000000041298476109546e-11 
	 6.19494525999999986988139855093e-05 ,	 8.78058514999999966566864728911e-10 
	 6.19494735999999961021181271725e-05 ,	 8.78057642999999949160205598309e-09 
	 6.19515700999999943633309018587e-05 ,	 8.7799126100000006357076173108e-08 
	 6.1952808800000002276836541526e-05 ,	 1.10527616000000005455817684782e-07 
	 6.1954771899999996898067422535e-05 ,	 1.39136177999999993170869984176e-07 
	 6.1957883100000003665820680343e-05 ,	 1.75142423999999997089019776637e-07 
	 6.196281380000000422493544594e-05 ,	 2.20452049999999990442933338504e-07 
	 6.19706280000000025347597909509e-05 ,	 2.77454481999999992315335305484e-07 
	 6.19830115000000007874358942672e-05 ,	 3.49138472999999981373410885138e-07 
	 6.2002635099999995542223441003e-05 ,	 4.39228028999999993405641430383e-07 
	 6.20337289000000031286008450593e-05 ,	 5.52334419000000012315242624295e-07 
	 6.20829905999999972837297135264e-05 ,	 6.94109430999999960517591202774e-07 
	 6.21610181999999956894281671893e-05 ,	 8.71362537999999983786582596207e-07 
	 6.22845659e-05 ,	 1.09205789e-06 
	 6.24800807e-05 ,	 1.36501243e-06 
	 6.27892116e-05 ,	 1.69892785e-06 
	 6.32773032e-05 ,	 2.10002054e-06 
	 6.4046269e-05 ,	 2.56680732e-06 
	 6.52535594e-05 ,	 3.07929769e-06 
	 6.71387798e-05 ,	 3.57754816e-06 
	 7.00578282e-05 ,	 3.92087973e-06 
	 7.45189912e-05 ,	 3.81432478e-06 
	 8.12026288e-05 ,	 2.68587404e-06 
	 9.09231021e-05 ,	 -4.94013052e-07 
	 0.000104466363 ,	 -7.42203095e-06 
	 0.000122247774 ,	 -2.059118e-05 
	 0.000143852998 ,	 -4.31479677e-05 
	 0.000167751723 ,	 -7.83605499e-05 
	 0.000191562788 ,	 -0.000128934811 
	 0.00021287674 ,	 -0.000196752456 
	 0.000230077917 ,	 -0.000283367751 
	 0.000242602353 ,	 -0.000390946232 
	 0.000250626816 ,	 -0.000523083384 
	 0.000254559711 ,	 -0.0006852754 
	 0.000255075152 ,	 -0.000786605028 
	 0.00025459565 ,	 -0.000887460886 
	 0.000250454969 ,	 -0.00113567024 
	 0.000241142857 ,	 -0.00144461508 
	 0.000227025945 ,	 -0.00178037719 
	 0.000205031624 ,	 -0.00218798174 
	 0.000181970109 ,	 -0.00254058805 
	 0.000152584583 ,	 -0.00292620498 
	 0.000113460209 ,	 -0.00336985266 
	 6.52891481e-05 ,	 -0.00384492933 
	 -4.57780956e-05 ,	 -0.00475998423 
	 -0.000180440387 ,	 -0.00567136757 
	 -0.000338574489 ,	 -0.00657875851 
	 -0.000520064347 ,	 -0.00748171229 
	 -0.000724787784 ,	 -0.00837972902 
	-0.00095261,	-0.0092723
	-0.0012034,	-0.010159
	-0.001477,	-0.011039
	-0.0017732,	-0.011912
	-0.0020918,	-0.012777
	-0.0024327,	-0.013634
	-0.0027956,	-0.014482
	-0.0031803,	-0.015322
	-0.0035865,	-0.016151
	-0.0040141,	-0.01697
	-0.0046948,	-0.018178
	-0.0054219,	-0.01936
	-0.0061943,	-0.020514
	-0.0070111,	-0.021639
	-0.007871,	-0.022733
	-0.0087729,	-0.023794
	-0.0097154,	-0.024821
	-0.010697,	-0.025812
	-0.011718,	-0.026767
	-0.012774,	-0.027683
	-0.013866,	-0.02856
	-0.014992,	-0.029396
	-0.01615,	-0.03019
	-0.017339,	-0.03094
	-0.018556,	-0.031647
	-0.019801,	-0.032308
	-0.021072,	-0.032923
	-0.022367,	-0.033491
	-0.023684,	-0.034011
	-0.025022,	-0.034482
	-0.026378,	-0.034904
	-0.027752,	-0.035277
	-0.029141,	-0.035598
	-0.030543,	-0.035869
	-0.031957,	-0.036088
	-0.033381,	-0.036256
	-0.034813,	-0.036372
	-0.03625,	-0.036435
	-0.037692,	-0.036446
	-0.039137,	-0.036405
	-0.040582,	-0.036311
	-0.042026,	-0.036164
	-0.043467,	-0.035966
	-0.044904,	-0.035715
	-0.046333,	-0.035412
	-0.047755,	-0.035057
	-0.049166,	-0.034652
	-0.050566,	-0.034195
	-0.051952,	-0.033688
	-0.053323,	-0.033131
	-0.054677,	-0.032525
	-0.056013,	-0.03187
	-0.057329,	-0.031167
	-0.058624,	-0.030417
	-0.059895,	-0.02962
	-0.061142,	-0.028778
	-0.062363,	-0.027892
	-0.063556,	-0.026961
	-0.064721,	-0.025988
	-0.065856,	-0.024973
	-0.066959,	-0.023918
	-0.06803,	-0.022823
	-0.069068,	-0.021689
	-0.07007,	-0.020518
	-0.071036,	-0.019312
	-0.071966,	-0.01807
	-0.072857,	-0.016795
	-0.07371,	-0.015487
	-0.074522,	-0.014149
	-0.075295,	-0.012781
	-0.076025,	-0.011385
	-0.076714,	-0.0099621
	-0.077359,	-0.0085137
	-0.077962,	-0.0070412
	-0.078626,	-0.0052445
	-0.079226,	-0.0034176
	-0.079762,	-0.0015632
	-0.080231,	 0.00031637
	-0.080634,	 0.0022186
	-0.080971,	 0.0041408
	-0.081241,	 0.0060808
	-0.081443,	 0.0080358
	-0.081578,	 0.010003
	-0.081646,	 0.011981
	-0.081647,	 0.013967
	-0.081581,	 0.015958
	-0.081448,	 0.017952
	-0.081249,	 0.019947
	-0.080984,	 0.021941
	-0.080654,	 0.02393
	-0.08026,	 0.025914
	-0.079802,	 0.027889
	-0.079281,	 0.029855
	-0.078699,	 0.031809
	-0.078056,	 0.033748
	-0.077353,	 0.035672
	-0.076592,	 0.037579
	-0.075774,	 0.039466
	-0.0749,	 0.041332
	-0.073971,	 0.043177
	-0.072989,	 0.044997
	-0.071956,	 0.046793
	-0.070872,	 0.048563
	-0.069739,	 0.050305
	-0.06856,	 0.052019
	-0.067334,	 0.053704
	-0.066065,	 0.055358
	-0.064753,	 0.056982
	-0.063401,	 0.058574
	-0.062009,	 0.060135
	-0.060579,	 0.061663
	-0.059114,	 0.063158
	-0.057613,	 0.06462
	-0.05608,	 0.066049
	-0.054516,	 0.067445
	-0.052921,	 0.068808
	-0.051298,	 0.070137
	-0.049648,	 0.071434
	-0.047972,	 0.072699
	-0.046271,	 0.073931
	-0.044547,	 0.075132
	-0.042801,	 0.076301
	-0.041034,	 0.07744
	-0.039247,	 0.07855
	-0.037441,	 0.07963
	-0.035616,	 0.080682
	-0.033774,	 0.081706
	-0.031915,	 0.082704
	-0.03004,	 0.083676
	-0.02815,	 0.084624
	-0.026243,	 0.085547
	-0.024322,	 0.086448
	-0.022386,	 0.087328
	-0.020435,	 0.088187
	-0.01847,	 0.089026
	-0.016489,	 0.089847
	-0.014493,	 0.09065
	-0.012482,	 0.091437
	-0.010455,	 0.092208
	-0.0084111,	 0.092965
	-0.0063502,	 0.093708
	-0.0042714,	 0.094439
	-0.0021739,	 0.095158
	-5.6582e-05,	 0.095866
	 0.0020816,	 0.096563
	 0.0042417,	 0.097251
	 0.006425,	 0.097929
	 0.008633,	 0.098599
	 0.010867,	 0.099261
	 0.013129,	 0.099915
	 0.015419,	 0.10056
	 0.017741,	 0.10119
	 0.020095,	 0.10183
	 0.022483,	 0.10245
	 0.024908,	 0.10306
	 0.027371,	 0.10367
	 0.029873,	 0.10427
	 0.032418,	 0.10486
	 0.035007,	 0.10544
	 0.037642,	 0.106
	 0.040326,	 0.10656
	 0.043059,	 0.1071
	 0.045845,	 0.10762
	 0.048686,	 0.10813
	 0.051582,	 0.10862
	 0.054537,	 0.10909
	 0.056038,	 0.10932
	 0.057553,	 0.10954
	 0.059084,	 0.10976
	 0.060631,	 0.10996
	 0.062194,	 0.11017
	 0.063773,	 0.11036
	 0.065369,	 0.11055
	 0.066981,	 0.11073
	 0.068611,	 0.1109
	 0.070257,	 0.11106
	 0.071921,	 0.11121
	 0.073602,	 0.11136
	 0.075301,	 0.11149
	 0.077019,	 0.11162
	 0.078754,	 0.11173
	 0.080507,	 0.11184
	 0.082279,	 0.11193
	 0.084069,	 0.11201
	 0.085878,	 0.11208
	 0.087706,	 0.11214
	 0.089553,	 0.11218
	 0.09142,	 0.11221
	 0.093305,	 0.11223
	 0.09521,	 0.11223
	 0.097134,	 0.11221
	 0.099077,	 0.11218
	 0.10104,	 0.11214
	 0.10302,	 0.11208
	 0.10502,	 0.112
	 0.10704,	 0.1119
	 0.10908,	 0.11179
	 0.11115,	 0.11165
	 0.11323,	 0.1115
	 0.11533,	 0.11133
	 0.11745,	 0.11113
	 0.11959,	 0.11092
	 0.12175,	 0.11068
	 0.12393,	 0.11043
	 0.12612,	 0.11014
	 0.12834,	 0.10984
	 0.13058,	 0.10951
	 0.13284,	 0.10916
	 0.13511,	 0.10878
	 0.1374,	 0.10837
	 0.13972,	 0.10794
	 0.14205,	 0.10748
	 0.14439,	 0.107
	 0.14676,	 0.10648
	 0.14915,	 0.10594
	 0.15155,	 0.10536
	 0.15397,	 0.10476
	 0.1564,	 0.10412
	 0.15885,	 0.10346
	 0.16132,	 0.10276
	 0.1638,	 0.10203
	 0.1663,	 0.10126
	 0.16882,	 0.10046
	 0.17135,	 0.099629
	 0.17389,	 0.098758
	 0.17645,	 0.097852
	 0.17902,	 0.096908
	 0.1816,	 0.095927
	 0.1842,	 0.094909
	 0.1868,	 0.093851
	 0.18942,	 0.092755
	 0.19205,	 0.091618
	 0.19469,	 0.090441
	 0.19734,	 0.089224
	 0.2,	 0.087964
	 0.20267,	 0.086663
	 0.20534,	 0.085319
	 0.20802,	 0.083932
	 0.21071,	 0.082501
	 0.2134,	 0.081025
	 0.2161,	 0.079505
	 0.21881,	 0.07794
	 0.22151,	 0.076329
	 0.22422,	 0.074671
	 0.22693,	 0.072967
	 0.22964,	 0.071216
	 0.23236,	 0.069417
	 0.23507,	 0.06757
	 0.23778,	 0.065675
	 0.24049,	 0.06373
	 0.24319,	 0.061737
	 0.24589,	 0.059694
	 0.24859,	 0.057601
	 0.25128,	 0.055458
	 0.25396,	 0.053264
	 0.25664,	 0.05102
	 0.25931,	 0.048724
	 0.26196,	 0.046377
	 0.26461,	 0.043979
	 0.26725,	 0.041528
	 0.26987,	 0.039026
	 0.27248,	 0.036472
	 0.27507,	 0.033865
	 0.27765,	 0.031206
	 0.28021,	 0.028495
	 0.28275,	 0.025731
	 0.28528,	 0.022914
	 0.28778,	 0.020045
	 0.29027,	 0.017123
	 0.29273,	 0.014149
	 0.29517,	 0.011122
	 0.29758,	 0.0080429
	 0.29997,	 0.0049111
	 0.30233,	 0.0017271
	 0.30467,	-0.0015091
	 0.30697,	-0.0047972
	 0.30925,	-0.008137
	 0.31149,	-0.011528
	 0.3137,	-0.014971
	 0.31588,	-0.018465
	 0.31803,	-0.022009
	 0.32013,	-0.025604
	 0.32221,	-0.029249
	 0.32424,	-0.032943
	 0.32624,	-0.036687
	 0.32819,	-0.040479
	 0.33011,	-0.04432
	 0.33198,	-0.048208
	 0.33381,	-0.052144
	 0.33559,	-0.056127
	 0.33733,	-0.060156
	 0.33903,	-0.064231
	 0.34067,	-0.068351
	 0.34227,	-0.072515
	 0.34382,	-0.076723
	 0.34531,	-0.080974
	 0.34676,	-0.085267
	 0.34815,	-0.089602
	 0.34949,	-0.093978
	 0.35078,	-0.098394
	 0.35201,	-0.10284
	 0.35318,	-0.10734
	 0.35535,	-0.11644
	 0.35729,	-0.12568
	 0.35898,	-0.13506
	 0.36043,	-0.14456
	 0.36161,	-0.15419
	 0.36254,	-0.16392
	 0.36319,	-0.17376
	 0.36358,	-0.1837
	 0.36368,	-0.19372
	 0.3635,	-0.20381
	 0.36304,	-0.21397
	 0.36228,	-0.22418
	 0.36123,	-0.23444
	 0.35989,	-0.24474
	 0.35824,	-0.25506
	 0.35629,	-0.2654
	 0.35404,	-0.27574
	 0.35148,	-0.28608
	 0.34862,	-0.2964
	 0.34546,	-0.30669
	 0.34199,	-0.31695
	 0.33821,	-0.32715
	 0.33413,	-0.3373
	 0.32974,	-0.34738
	 0.32506,	-0.35739
	 0.32007,	-0.3673
	 0.31479,	-0.37711
	 0.30922,	-0.38682
	 0.30335,	-0.3964
	 0.2972,	-0.40586
	 0.29076,	-0.41517
	 0.28404,	-0.42434
	 0.27706,	-0.43335
	 0.2698,	-0.4422
	 0.26227,	-0.45087
	 0.25449,	-0.45936
	 0.24646,	-0.46766
	 0.23818,	-0.47575
	 0.22966,	-0.48364
	 0.2209,	-0.49132
	 0.21192,	-0.49878
	 0.20271,	-0.506
	 0.1933,	-0.51299
	 0.18367,	-0.51974
	 0.17385,	-0.52624
	 0.16384,	-0.53249
	 0.15364,	-0.53848
	 0.14327,	-0.5442
	 0.13273,	-0.54966
	 0.12203,	-0.55484
	 0.11118,	-0.55974
	 0.10019,	-0.56436
	 0.08907,	-0.5687
	 0.077817,	-0.57274
	 0.066446,	-0.57649
	 0.054965,	-0.57995
	 0.043383,	-0.58311
	 0.031709,	-0.58596
	 0.01995,	-0.58851
	 0.0081159,	-0.59076
	-0.0037855,	-0.5927
	-0.015746,	-0.59432
	-0.027756,	-0.59564
	-0.039808,	-0.59665
	-0.051894,	-0.59735
	-0.064004,	-0.59773
	-0.076132,	-0.5978
	-0.088267,	-0.59755
	-0.1004,	-0.597
	-0.11253,	-0.59613
	-0.12464,	-0.59494
	-0.13673,	-0.59344
	-0.14878,	-0.59164
	-0.1608,	-0.58952
	-0.17277,	-0.58709
	-0.18468,	-0.58435
	-0.19653,	-0.58131
	-0.2083,	-0.57796
	-0.22,	-0.5743
	-0.23161,	-0.57034
	-0.24313,	-0.56609
	-0.25455,	-0.56153
	-0.26585,	-0.55668
	-0.27704,	-0.55153
	-0.28811,	-0.5461
	-0.29905,	-0.54037
	-0.30984,	-0.53436
	-0.3205,	-0.52807
	-0.33099,	-0.52149
	-0.34133,	-0.51464
	-0.35151,	-0.50752
	-0.36151,	-0.50012
	-0.37133,	-0.49246
	-0.38096,	-0.48453
	-0.39039,	-0.47635
	-0.39963,	-0.46791
	-0.41211,	-0.45576
	-0.42417,	-0.44315
	-0.43579,	-0.43007
	-0.44695,	-0.41653
	-0.45236,	-0.4096
	-0.45765,	-0.40256
	-0.46281,	-0.39541
	-0.46784,	-0.38816
	-0.47275,	-0.3808
	-0.47753,	-0.37335
	-0.48218,	-0.36579
	-0.48669,	-0.35814
	-0.49106,	-0.35039
	-0.4953,	-0.34254
	-0.49939,	-0.3346
	-0.50335,	-0.32658
	-0.50715,	-0.31846
	-0.51081,	-0.31026
	-0.51432,	-0.30198
	-0.51767,	-0.29361
	-0.52087,	-0.28517
	-0.52392,	-0.27664
	-0.5268,	-0.26805
	-0.52952,	-0.25938
	-0.53208,	-0.25064
	-0.53448,	-0.24183
	-0.5367,	-0.23296
	-0.53876,	-0.22402
	-0.54064,	-0.21503
	-0.54235,	-0.20598
	-0.54388,	-0.19688
	-0.54523,	-0.18773
	-0.54641,	-0.17853
	-0.5474,	-0.16928
	-0.5482,	-0.15999
	-0.54881,	-0.15067
	-0.54924,	-0.1413
	-0.54948,	-0.13191
	-0.54952,	-0.12249
	-0.54936,	-0.11304
	-0.54901,	-0.10358
	-0.54846,	-0.094099
	-0.5477,	-0.084602
	-0.54675,	-0.075094
	-0.54558,	-0.065581
	-0.54421,	-0.056067
	-0.54263,	-0.046555
	-0.54084,	-0.03705
	-0.53884,	-0.027555
	-0.53662,	-0.018077
	-0.53419,	-0.0086184
	-0.53154,	 0.00081529
	-0.52867,	 0.010219
	-0.52557,	 0.019589
	-0.52226,	 0.02892
	-0.51872,	 0.038206
	-0.51495,	 0.047442
	-0.51096,	 0.056624
	-0.50674,	 0.065745
	-0.50229,	 0.074801
	-0.49856,	 0.081994
	-0.49468,	 0.089139
	-0.49065,	 0.096232
	-0.48647,	 0.10327
	-0.48213,	 0.11025
	-0.47765,	 0.11717
	-0.47301,	 0.12402
	-0.46821,	 0.13081
	-0.46326,	 0.13752
	-0.45816,	 0.14417
	-0.45289,	 0.15073
	-0.44746,	 0.15721
	-0.44187,	 0.16361
	-0.43612,	 0.16991
	-0.4302,	 0.17612
	-0.42411,	 0.18223
	-0.41401,	 0.1918
	-0.40346,	 0.20107
	-0.39244,	 0.21003
	-0.38094,	 0.21865
	-0.37499,	 0.22283
	-0.36892,	 0.2269
	-0.3627,	 0.23087
