CITIFILE A.01.01
#Momentum: B.12.070 (*) built: Feb 13 2020 
#Momentum Date and Time: Tue Aug 16 03:06:19 2022

NAME Momentum.SP

#  mode: MW    reference: S_50

#eesof Port[1] P1
#eesof Port[2] P2

CONSTANT NBR_OF_PORTS 2

CONSTANT NORMALIZATION 1

VAR freq MAG 526

DATA S[1,1] RI
DATA S[1,2] RI
DATA S[2,1] RI
DATA S[2,2] RI
DATA PORTZ[1] RI
DATA PORTZ[2] RI

VAR_LIST_BEGIN
	 0
	 8.701167245
	 87.01167245
	 870.1167245
	 8701.167245
	 10954.12056
	 13790.42073
	 17361.1111
	 21856.34394
	 27515.5068
	 34639.97072
	 43609.13941
	 54900.65379
	 69115.82818
	 87011.67245
	 109541.2056
	 137904.2073
	 173611.111
	 218563.4394
	 275155.068
	 346399.7072
	 436091.3941
	 549006.5379
	 691158.2818
	 870116.7245
	 1095412.056
	 1379042.073
	 1736111.11
	 2185634.394
	 2751550.68
	 3463997.072
	 4360913.941
	 5490065.379
	 6911582.818
	 8701167.245
	 10954120.56
	 13790420.73
	 17361111.1
	 19629339.22
	 21908241.11
	 27580841.47
	 34722222.2
	 42541975.04
	 52083333.3
	 60365357.38
	 69444444.4
	 86805555.5
	 104166666.6
	 121527777.7
	 138888888.8
	 167824074
	 196759259.2
	 225694444.3
	 254629629.5
	 283564814.7
	 312499999.9
	 341435185
	 370370370.2
	 399305555.4
	 428240740.5
	 457175925.7
	 486111110.9
	 515046296.1
	 543981481.2
	 572916666.4
	 601851851.6
	 630787036.8
	 659722222
	 688657407.1
	 717592592.3
	 746527777.5
	 775462962.6
	 804398147.8
	 833333333
	 859374999.7
	 885416666.3
	 911458333
	 937499999.6
	 963541666.3
	 989583332.9
	 1015625000
	 1041666666
	 1093750000
	 1145833333
	 1197916666
	 1250000000
	 1276041666
	 1302083333
	 1328124999
	 1354166666
	 1380208333
	 1406249999
	 1432291666
	 1458333333
	 1510416666
	 1562499999
	 1614583333
	 1666666666
	 1692708333
	 1718749999
	 1744791666
	 1770833333
	 1796874999
	 1822916666
	 1848958333
	 1875000000
	 1901041666
	 1927083333
	 1953125000
	 1979166666
	 2005208333
	 2031250000
	 2057291666
	 2083333333
	 2109375000
	 2135416666
	 2161458333
	 2187500000
	 2213541666
	 2239583333
	 2265625000
	 2291666666
	 2317708333
	 2343750000
	 2369791667
	 2395833333
	 2421875000
	 2447916667
	 2473958333
	 2500000000
	 2526041667
	 2552083333
	 2578125000
	 2604166667
	 2630208333
	 2656250000
	 2682291667
	 2708333333
	 2734375000
	 2760416667
	 2786458333
	 2812500000
	 2838541667
	 2864583333
	 2890625000
	 2916666666
	 2942708333
	 2968750000
	 2994791666
	 3020833333
	 3046875000
	 3072916666
	 3098958333
	 3125000000
	 3151041666
	 3177083333
	 3203125000
	 3229166666
	 3255208333
	 3281250000
	 3307291666
	 3333333333
	 3352623456
	 3371913580
	 3391203703
	 3410493827
	 3429783950
	 3449074074
	 3468364197
	 3487654321
	 3506944444
	 3526234568
	 3545524691
	 3564814815
	 3584104938
	 3603395062
	 3622685185
	 3641975308
	 3661265432
	 3680555555
	 3699845679
	 3719135802
	 3728780864
	 3738425926
	 3748070988
	 3757716049
	 3767361111
	 3777006173
	 3786651235
	 3796296296
	 3805941358
	 3815586420
	 3825231481
	 3834876543
	 3844521605
	 3854166667
	 3863811728
	 3873456790
	 3883101852
	 3892746914
	 3902391975
	 3912037037
	 3921682099
	 3931327161
	 3940972222
	 3950617284
	 3960262346
	 3969907407
	 3979552469
	 3989197531
	 3998842593
	 4008487654
	 4018132716
	 4027777778
	 4037422839
	 4047067901
	 4056712963
	 4066358025
	 4076003086
	 4085648148
	 4095293210
	 4104938272
	 4114583333
	 4124228395
	 4133873457
	 4143518518
	 4153163580
	 4162808642
	 4172453704
	 4182098765
	 4191743827
	 4201388889
	 4211033950
	 4220679012
	 4230324074
	 4239969136
	 4249614197
	 4259259259
	 4278549382
	 4297839506
	 4317129629
	 4336419753
	 4355709876
	 4375000000
	 4394290123
	 4413580246
	 4432870370
	 4452160493
	 4471450617
	 4490740740
	 4510030864
	 4529320987
	 4548611111
	 4567901234
	 4589334704
	 4610768175
	 4632201646
	 4653635116
	 4675068586
	 4696502057
	 4717935528
	 4739368998
	 4750085733
	 4760802468
	 4771519204
	 4782235939
	 4792952674
	 4803669410
	 4814386145
	 4825102880
	 4830461248
	 4835819615
	 4841177983
	 4846536350
	 4851894718
	 4857253086
	 4862611453
	 4867969821
	 4873328189
	 4878686556
	 4884044924
	 4889403292
	 4892082475
	 4894761659
	 4897440843
	 4900120027
	 4902799211
	 4905478394
	 4908157578
	 4910836762
	 4915123456
	 4919410150
	 4923696844
	 4927983538
	 4932270233
	 4936556927
	 4940843621
	 4945130315
	 4949417009
	 4953703703
	 4957990397
	 4962277092
	 4966563786
	 4970850480
	 4975137174
	 4979423868
	 4985853909
	 4992283950
	 4998713991
	 5005144033
	 5011574074
	 5018004115
	 5024434156
	 5030864197
	 5043724280
	 5056584362
	 5069444444
	 5082304526
	 5095164609
	 5108024691
	 5120884773
	 5133744856
	 5146604938
	 5159465020
	 5172325103
	 5185185185
	 5223765432
	 5262345679
	 5300925926
	 5339506173
	 5378086420
	 5416666667
	 5455246914
	 5493827160
	 5532407407
	 5570987654
	 5609567901
	 5648148148
	 5667438272
	 5686728395
	 5706018519
	 5725308642
	 5744598766
	 5763888889
	 5783179013
	 5802469136
	 5821759259
	 5841049383
	 5860339506
	 5879629630
	 5898919753
	 5918209877
	 5937500000
	 5956790124
	 5966435185
	 5976080247
	 5985725309
	 5995370370
	 6005015432
	 6014660494
	 6024305556
	 6033950617
	 6043595679
	 6053240741
	 6062885802
	 6072530864
	 6082175926
	 6091820988
	 6101466049
	 6111111111
	 6122685185
	 6134259259
	 6145833333
	 6157407407
	 6168981481
	 6180555555
	 6192129629
	 6203703704
	 6215277778
	 6226851852
	 6238425926
	 6250000000
	 6261574074
	 6273148148
	 6284722222
	 6296296296
	 6307870370
	 6319444444
	 6331018518
	 6342592592
	 6354166666
	 6365740741
	 6377314815
	 6388888889
	 6400462963
	 6412037037
	 6423611111
	 6435185185
	 6446759259
	 6458333333
	 6469907407
	 6481481482
	 6493055556
	 6504629630
	 6516203704
	 6527777778
	 6539351852
	 6550925926
	 6562500000
	 6574074074
	 6585648148
	 6597222222
	 6608796297
	 6620370371
	 6631944445
	 6643518519
	 6655092593
	 6666666667
	 6684027778
	 6701388889
	 6718750000
	 6736111112
	 6753472223
	 6770833334
	 6788194445
	 6805555556
	 6840277778
	 6875000000
	 6909722223
	 6944444445
	 6973379630
	 7002314815
	 7031250001
	 7060185186
	 7089120371
	 7118055556
	 7146990741
	 7175925926
	 7233796297
	 7291666667
	 7349537038
	 7407407408
	 7465277778
	 7523148149
	 7581018519
	 7638888890
	 7696759260
	 7754629630
	 7812500001
	 7870370371
	 7928240741
	 7986111112
	 8043981482
	 8101851852
	 8159722223
	 8217592593
	 8275462964
	 8333333334
	 8381558643
	 8429783951
	 8478009260
	 8526234568
	 8574459877
	 8622685186
	 8670910494
	 8719135803
	 8743248457
	 8767361112
	 8791473766
	 8815586420
	 8839699075
	 8863811729
	 8887924383
	 8912037038
	 8936149692
	 8960262346
	 8984375000
	 9008487655
	 9020543982
	 9032600309
	 9044656636
	 9056712963
	 9062741127
	 9068769291
	 9074797454
	 9080825618
	 9086853781
	 9092881945
	 9098910108
	 9104938272
	 9110966436
	 9116994599
	 9123022763
	 9129050926
	 9135079090
	 9141107253
	 9147135417
	 9153163581
	 9165219908
	 9177276235
	 9189332562
	 9201388889
	 9213445216
	 9225501544
	 9237557871
	 9249614198
	 9261670525
	 9273726852
	 9285783179
	 9297839506
	 9321952161
	 9346064815
	 9370177469
	 9394290124
	 9418402778
	 9442515432
	 9466628087
	 9490740741
	 9548611111
	 9606481482
	 9664351852
	 9722222222
	 9791666666
	 9861111111
	 9930555556
	 1e+10
VAR_LIST_END

BEGIN
	 7.29601284000000026991328283543e-05 ,	 -0 
	 7.29601282999999976777022459018e-05 ,	 -3.41718071000000004168232213867e-09 
	 7.29601282999999976777022459018e-05 ,	 -3.41718076000000014033894716031e-08 
	 7.2960127999999996165937654613e-05 ,	 -3.41718075999999974329225313485e-07 
	 7.29600915000000064874682847993e-05 ,	 -3.417180760000000166808726762e-06 
	 7.29600699999999975295383869422e-05 ,	 -4.30197569000000018036612703387e-06 
	 7.29600359000000063926585913698e-05 ,	 -5.41586651999999978037824560628e-06 
	 7.29599818000000003041446983154e-05 ,	 -6.81817198999999961518030458518e-06 
	 7.29598961000000066417711663824e-05 ,	 -8.58356998000000023091565076738e-06 
	 7.29597601999999994387691160114e-05 ,	 -1.08060744000000000675926203897e-05 
	 7.29595449000000032153956386338e-05 ,	 -1.36040416000000006639973279543e-05 
	 7.29592037000000004885735815918e-05 ,	 -1.71264737000000001523186687891e-05 
	 7.29586629000000038564044402278e-05 ,	 -2.15609528999999988793309646518e-05 
	 7.29578057000000029796993317177e-05 ,	 -2.71436314000000000149631640411e-05 
	 7.29564471999999967144132084762e-05 ,	 -3.41718071999999993700568301502e-05 
	 7.29542941e-05 ,	 -4.30197562e-05 
	 7.29508818e-05 ,	 -5.41586638e-05 
	 7.29454735e-05 ,	 -6.81817171e-05 
	 7.29369019e-05 ,	 -8.58356941e-05 
	 7.2923317e-05 ,	 -0.000108060732 
	 7.29017863e-05 ,	 -0.000136040394 
	 7.28676624e-05 ,	 -0.000171264692 
	 7.28135797e-05 ,	 -0.000215609439 
	 7.27278643e-05 ,	 -0.000271436135 
	 7.25920148e-05 ,	 -0.000341717714 
	 7.23767077e-05 ,	 -0.000430196848 
	 7.20354692e-05 ,	 -0.000541585212 
	 7.14946429e-05 ,	 -0.000681814326 
	 7.06374918e-05 ,	 -0.000858351266 
	 6.9279001e-05 ,	 -0.001080596 
	 6.71259437e-05 ,	 -0.00136038134 
	 6.37135913e-05 ,	 -0.00171260184 
	 5.83054112e-05 ,	 -0.00215600446 
	 4.9734109e-05 ,	 -0.00271418193 
	 3.61497263e-05 ,	 -0.00341681922 
	 1.46204748e-05 ,	 -0.0043012545 
	 -1.94997136e-05 ,	 -0.0054144281 
	 -7.35730762e-05 ,	 -0.0068153037 
	 -0.000114357807 ,	 -0.00770482183 
	 -0.000160368607 ,	 -0.00859819306 
	-0.0002968,	-0.01082
	-0.00051298,	-0.013614
	-0.0008064,	-0.016665
	-0.0012446,	-0.020378
	-0.0016962,	-0.023589
	-0.0022671,	-0.027093
	-0.0035785,	-0.033744
	-0.0051757,	-0.040318
	-0.0070546,	-0.046803
	-0.0092104,	-0.053185
	-0.013403,	-0.063569
	-0.018319,	-0.073593
	-0.023924,	-0.083215
	-0.030183,	-0.092392
	-0.037057,	-0.10108
	-0.044506,	-0.10925
	-0.052489,	-0.11686
	-0.060961,	-0.12389
	-0.069877,	-0.1303
	-0.079192,	-0.13606
	-0.088856,	-0.14116
	-0.09882,	-0.14557
	-0.10903,	-0.14929
	-0.11945,	-0.15229
	-0.13001,	-0.15457
	-0.14068,	-0.15612
	-0.1514,	-0.15695
	-0.16212,	-0.15706
	-0.17279,	-0.15644
	-0.18337,	-0.15512
	-0.19381,	-0.1531
	-0.20406,	-0.15039
	-0.21409,	-0.14702
	-0.22384,	-0.14299
	-0.23236,	-0.13884
	-0.24059,	-0.13419
	-0.24852,	-0.12907
	-0.25612,	-0.1235
	-0.26337,	-0.1175
	-0.27024,	-0.11109
	-0.27671,	-0.10429
	-0.28276,	-0.097138
	-0.29352,	-0.081834
	-0.3024,	-0.065388
	-0.30928,	-0.048017
	-0.31407,	-0.029947
	-0.31565,	-0.020722
	-0.31669,	-0.011411
	-0.31717,	-0.0020444
	-0.3171,	 0.0073483
	-0.31647,	 0.016736
	-0.31528,	 0.026086
	-0.31352,	 0.035369
	-0.31121,	 0.044551
	-0.30492,	 0.062489
	-0.29646,	 0.079642
	-0.2859,	 0.095754
	-0.27334,	 0.11056
	-0.26635,	 0.1174
	-0.25891,	 0.12383
	-0.25105,	 0.1298
	-0.24278,	 0.1353
	-0.23414,	 0.14028
	-0.22515,	 0.14474
	-0.21584,	 0.14863
	-0.20624,	 0.15193
	-0.19639,	 0.15462
	-0.18633,	 0.15668
	-0.17609,	 0.15808
	-0.16572,	 0.15881
	-0.15526,	 0.15885
	-0.14475,	 0.15819
	-0.13424,	 0.15683
	-0.12379,	 0.15474
	-0.11343,	 0.15193
	-0.10323,	 0.1484
	-0.093234,	 0.14415
	-0.083493,	 0.13919
	-0.074065,	 0.13354
	-0.065002,	 0.1272
	-0.056358,	 0.12021
	-0.048186,	 0.11257
	-0.040538,	 0.10434
	-0.033463,	 0.095542
	-0.02701,	 0.08621
	-0.021223,	 0.076395
	-0.016144,	 0.066144
	-0.011812,	 0.055512
	-0.0082623,	 0.044556
	-0.0055235,	 0.033337
	-0.0036211,	 0.021919
	-0.0025745,	 0.010369
	 -0.00239751078 ,	 -0.00124132281 
	-0.003098,	-0.012842
	-0.0046774,	-0.024358
	-0.0071308,	-0.035718
	-0.010446,	-0.046846
	-0.014606,	-0.057669
	-0.019584,	-0.068114
	-0.02535,	-0.078112
	-0.031864,	-0.087592
	-0.039083,	-0.09649
	-0.046957,	-0.10474
	-0.055428,	-0.11229
	-0.064435,	-0.11909
	-0.073912,	-0.12508
	-0.083787,	-0.13022
	-0.093985,	-0.13448
	-0.10442,	-0.13783
	-0.11502,	-0.14024
	-0.1257,	-0.14168
	-0.13637,	-0.14216
	-0.14694,	-0.14166
	-0.15731,	-0.14019
	-0.1674,	-0.13775
	-0.17711,	-0.13437
	-0.18635,	-0.13007
	-0.19503,	-0.12488
	-0.20304,	-0.11883
	-0.21029,	-0.11199
	-0.2167,	-0.10439
	-0.22217,	-0.096127
	-0.22556,	-0.089605
	-0.22834,	-0.082784
	-0.23049,	-0.075701
	-0.23196,	-0.068399
	-0.23272,	-0.060919
	-0.23274,	-0.053311
	-0.23199,	-0.045627
	-0.23043,	-0.037923
	-0.22803,	-0.03026
	-0.22478,	-0.022705
	-0.22065,	-0.015327
	-0.21561,	-0.0082042
	-0.20966,	-0.0014186
	-0.20277,	 0.0049413
	-0.19496,	 0.010781
	-0.18621,	 0.015999
	-0.17655,	 0.020489
	-0.16598,	 0.024136
	-0.15455,	 0.026822
	-0.14229,	 0.028422
	-0.13586,	 0.028773
	-0.12926,	 0.028805
	-0.12248,	 0.028499
	-0.11554,	 0.027839
	-0.10845,	 0.026809
	-0.10122,	 0.025391
	-0.093876,	 0.023568
	-0.086422,	 0.021325
	-0.078881,	 0.018644
	-0.071272,	 0.01551
	-0.063616,	 0.011908
	-0.055935,	 0.0078231
	-0.048254,	 0.0032408
	-0.040598,	-0.0018515
	-0.032994,	-0.0074659
	-0.025473,	-0.013613
	-0.018063,	-0.020302
	-0.010799,	-0.02754
	-0.0037125,	-0.035333
	 0.0031599,	-0.043685
	 0.0097821,	-0.052598
	 0.016116,	-0.06207
	 0.022123,	-0.072099
	 0.027763,	-0.082677
	 0.032996,	-0.093797
	 0.037781,	-0.10544
	 0.042076,	-0.1176
	 0.04584,	-0.13025
	 0.049034,	-0.14338
	 0.051616,	-0.15695
	 0.053549,	-0.17093
	 0.054794,	-0.1853
	 0.055317,	-0.20001
	 0.055083,	-0.21503
	 0.054062,	-0.23031
	 0.052227,	-0.24581
	 0.049551,	-0.26146
	 0.046016,	-0.27724
	 0.041603,	-0.29307
	 0.0363,	-0.3089
	 0.030099,	-0.32467
	 0.022997,	-0.34033
	 0.014993,	-0.35581
	 0.0060961,	-0.37106
	-0.0036844,	-0.38602
	-0.014332,	-0.40062
	-0.025827,	-0.41481
	-0.038142,	-0.42853
	-0.051249,	-0.44173
	-0.065114,	-0.45436
	-0.079698,	-0.46638
	-0.094961,	-0.47773
	-0.11085,	-0.48838
	-0.12734,	-0.4983
	-0.14436,	-0.50744
	-0.16187,	-0.51578
	-0.19814,	-0.52998
	-0.23573,	-0.54075
	-0.2742,	-0.54804
	-0.31314,	-0.55182
	-0.35216,	-0.55216
	-0.3909,	-0.54914
	-0.42902,	-0.54292
	-0.46624,	-0.53364
	-0.50231,	-0.52151
	-0.53701,	-0.50672
	-0.57017,	-0.48947
	-0.60164,	-0.46996
	-0.63132,	-0.4484
	-0.6591,	-0.42495
	-0.68492,	-0.39979
	-0.70872,	-0.37307
	-0.73272,	-0.34169
	-0.75408,	-0.30869
	-0.77272,	-0.27418
	-0.7885,	-0.23821
	-0.80126,	-0.20083
	-0.81073,	-0.16204
	-0.81652,	-0.1218
	-0.81805,	-0.080065
	-0.81694,	-0.058628
	-0.8144,	-0.036819
	-0.81023,	-0.01466
	-0.80421,	 0.0078074
	-0.79603,	 0.030503
	-0.78534,	 0.053292
	-0.77171,	 0.075948
	-0.75461,	 0.098107
	-0.74456,	 0.10883
	-0.73342,	 0.11919
	-0.72108,	 0.12907
	-0.70747,	 0.13831
	-0.6925,	 0.14674
	-0.67611,	 0.15412
	-0.65825,	 0.16018
	-0.63891,	 0.16461
	-0.61813,	 0.16703
	-0.59604,	 0.16701
	-0.57284,	 0.16409
	-0.54891,	 0.15777
	-0.53682,	 0.15319
	-0.52475,	 0.14759
	-0.5128,	 0.14091
	-0.50107,	 0.13313
	-0.48969,	 0.1242
	-0.47877,	 0.11411
	-0.46847,	 0.10288
	-0.45892,	 0.090509
	-0.44559,	 0.068472
	-0.43518,	 0.043955
	-0.42826,	 0.017428
	-0.42526,	-0.01049
	-0.42651,	-0.039051
	-0.43211,	-0.067436
	-0.44196,	-0.094811
	-0.45576,	-0.12039
	-0.47302,	-0.14352
	-0.49315,	-0.16369
	-0.51547,	-0.18055
	-0.53927,	-0.19397
	-0.56391,	-0.20395
	-0.58879,	-0.21062
	-0.61342,	-0.21423
	-0.6374,	-0.21508
	-0.67154,	-0.21187
	-0.70294,	-0.20429
	-0.7313,	-0.19337
	-0.75659,	-0.18001
	-0.77891,	-0.16494
	-0.79847,	-0.14873
	-0.81552,	-0.13182
	-0.83032,	-0.11454
	-0.85416,	-0.079783
	-0.87177,	-0.045655
	-0.88457,	-0.012721
	-0.89367,	 0.018806
	-0.89985,	 0.048901
	-0.90374,	 0.077625
	-0.90579,	 0.10507
	-0.90633,	 0.13137
	-0.90562,	 0.15661
	-0.90386,	 0.18092
	-0.90119,	 0.20437
	-0.89774,	 0.22706
	-0.88346,	 0.29121
	-0.86441,	 0.35063
	-0.84137,	 0.40632
	-0.81475,	 0.45898
	-0.7847,	 0.50904
	-0.75125,	 0.55678
	-0.71431,	 0.60236
	-0.67373,	 0.64584
	-0.62928,	 0.68718
	-0.58067,	 0.72624
	-0.52756,	 0.76277
	-0.46952,	 0.7964
	-0.43851,	 0.81197
	-0.40609,	 0.8266
	-0.37219,	 0.84019
	-0.33674,	 0.85264
	-0.29968,	 0.8638
	-0.26094,	 0.87352
	-0.22045,	 0.88164
	-0.17814,	 0.88793
	-0.13396,	 0.89218
	-0.087885,	 0.89411
	-0.039867,	 0.89341
	 0.010086,	 0.88975
	 0.06194,	 0.88273
	 0.11561,	 0.87191
	 0.17098,	 0.85681
	 0.22782,	 0.83688
	 0.2567,	 0.82493
	 0.28583,	 0.81156
	 0.31515,	 0.79668
	 0.34459,	 0.78021
	 0.37408,	 0.76208
	 0.40353,	 0.74221
	 0.43284,	 0.72052
	 0.4619,	 0.69692
	 0.4906,	 0.67135
	 0.51879,	 0.64374
	 0.54632,	 0.61403
	 0.57302,	 0.58217
	 0.59872,	 0.54812
	 0.62322,	 0.51185
	 0.64631,	 0.47335
	 0.66776,	 0.43264
	 0.69102,	 0.38092
	 0.71117,	 0.32617
	 0.72779,	 0.26856
	 0.74043,	 0.20834
	 0.74867,	 0.14581
	 0.75212,	 0.081359
	 0.7504,	 0.015442
	 0.74321,	-0.051406
	 0.7303,	-0.11858
	 0.71152,	-0.18545
	 0.6868,	-0.2513
	 0.65619,	-0.31544
	 0.61986,	-0.37713
	 0.57806,	-0.4357
	 0.53118,	-0.49048
	 0.47971,	-0.5409
	 0.42421,	-0.58646
	 0.36531,	-0.62674
	 0.3037,	-0.66147
	 0.24008,	-0.69044
	 0.17515,	-0.71361
	 0.1096,	-0.73099
	 0.044087,	-0.74273
	-0.020807,	-0.74903
	-0.08454,	-0.75019
	-0.14664,	-0.74655
	-0.20672,	-0.73848
	-0.26446,	-0.72639
	-0.31961,	-0.7107
	-0.37199,	-0.69181
	-0.42146,	-0.67014
	-0.46796,	-0.64607
	-0.51146,	-0.61997
	-0.55197,	-0.59219
	-0.58955,	-0.56304
	-0.62425,	-0.5328
	-0.65618,	-0.50173
	-0.68544,	-0.47006
	-0.71213,	-0.438
	-0.7364,	-0.40571
	-0.75836,	-0.37336
	-0.77815,	-0.34107
	-0.79588,	-0.30897
	-0.81169,	-0.27713
	-0.8257,	-0.24566
	-0.83802,	-0.2146
	-0.84877,	-0.18401
	-0.85805,	-0.15395
	-0.86944,	-0.10989
	-0.87808,	-0.067153
	-0.88425,	-0.025786
	-0.88822,	 0.014186
	-0.89021,	 0.052756
	-0.89045,	 0.089936
	-0.88911,	 0.12574
	-0.88638,	 0.16021
	-0.87728,	 0.22529
	-0.86417,	 0.28548
	-0.84785,	 0.34115
	-0.82896,	 0.39265
	-0.81162,	 0.43262
	-0.79308,	 0.47011
	-0.77353,	 0.5053
	-0.75315,	 0.53833
	-0.73205,	 0.56935
	-0.71036,	 0.59849
	-0.68817,	 0.62588
	-0.66555,	 0.65162
	-0.6193,	 0.69856
	-0.57203,	 0.73998
	-0.52403,	 0.77646
	-0.47553,	 0.80846
	-0.42669,	 0.83636
	-0.37765,	 0.86049
	-0.3285,	 0.88111
	-0.27932,	 0.89844
	-0.23019,	 0.91265
	-0.18117,	 0.92391
	-0.1323,	 0.93233
	-0.083653,	 0.93802
	-0.035256,	 0.94106
	 0.012836,	 0.94153
	 0.060579,	 0.93948
	 0.10792,	 0.93494
	 0.15483,	 0.92796
	 0.20126,	 0.91854
	 0.24715,	 0.90669
	 0.29248,	 0.89238
	 0.32979,	 0.87855
	 0.36665,	 0.86296
	 0.40304,	 0.84555
	 0.43894,	 0.82623
	 0.47432,	 0.8049
	 0.50915,	 0.78137
	 0.54338,	 0.75539
	 0.57696,	 0.72658
	 0.59345,	 0.71094
	 0.60971,	 0.69434
	 0.62569,	 0.67667
	 0.64132,	 0.65774
	 0.65647,	 0.63735
	 0.67096,	 0.61523
	 0.68449,	 0.59102
	 0.69657,	 0.56428
	 0.70638,	 0.53452
	 0.71256,	 0.50124
	 0.71285,	 0.46425
	 0.70375,	 0.42441
	 0.69422,	 0.4044
	 0.68058,	 0.38541
	 0.66245,	 0.36879
	 0.63994,	 0.35631
	 0.6273,	 0.35225
	 0.614,	 0.34996
	 0.60034,	 0.34966
	 0.58667,	 0.35149
	 0.5734,	 0.3555
	 0.56096,	 0.36166
	 0.54977,	 0.3698
	 0.54022,	 0.37965
	 0.53259,	 0.39088
	 0.52709,	 0.40306
	 0.5238,	 0.41575
	 0.5227,	 0.42854
	 0.52367,	 0.44104
	 0.5265,	 0.45292
	 0.53097,	 0.46394
	 0.53681,	 0.47392
	 0.55156,	 0.49041
	 0.56887,	 0.50219
	 0.58726,	 0.50962
	 0.60575,	 0.51332
	 0.62372,	 0.51395
	 0.64083,	 0.51214
	 0.65692,	 0.50841
	 0.67196,	 0.50318
	 0.68597,	 0.49678
	 0.69899,	 0.48949
	 0.71111,	 0.4815
	 0.72239,	 0.47295
	 0.74275,	 0.45467
	 0.76059,	 0.43529
	 0.77633,	 0.41519
	 0.79031,	 0.39461
	 0.80278,	 0.37369
	 0.81393,	 0.35251
	 0.82391,	 0.33112
	 0.83284,	 0.30957
	 0.85044,	 0.25729
	 0.86321,	 0.20435
	 0.87157,	 0.15089
	 0.87572,	 0.097026
	 0.87524,	 0.032058
	 0.86878,	-0.032966
	 0.85625,	-0.097653
	 0.83751,	-0.16152
END
BEGIN
	 0.999927039869291989226951500314 ,	 -0 
	 0.999927039869289990825507175032 ,	 -1.04583184543094453999856341397e-08 
	 0.9999270398692770012161190607 ,	 -1.04583184480644408864691285999e-07 
	 0.999927039867997025091028717725 ,	 -1.04583184484807745207035623025e-06 
	 0.999927039740021283975579535763 ,	 -1.0458318467691102293670724066e-05 
	 0.999927039664413208619464512594 ,	 -1.31662428979120726957319220674e-05 
	 0.999927039544581730545758091466 ,	 -1.65753177895841541378274541785e-05 
	 0.999927039354662205994372925488 ,	 -2.08670888288513267649904037171e-05 
	 0.999927039053660648981747272046 ,	 -2.62701085071530282544216561291e-05 
	 0.999927038576604143571557870018 ,	 -3.3072107389550686740165019728e-05 
