CITIFILE A.01.01
#Momentum: B.12.070 (*) built: Feb 13 2020 
#Momentum Date and Time: Mon Aug 15 23:18:07 2022

NAME Momentum.SP

#  mode: MW    reference: S_50

#eesof Port[1] P1
#eesof Port[2] P2

CONSTANT NBR_OF_PORTS 2

CONSTANT NORMALIZATION 1

VAR freq MAG 512

DATA S[1,1] RI
DATA S[1,2] RI
DATA S[2,1] RI
DATA S[2,2] RI
DATA PORTZ[1] RI
DATA PORTZ[2] RI

VAR_LIST_BEGIN
	 0
	 9.193613826
	 91.93613826
	 919.3613826
	 9193.613826
	 11574.07407
	 14570.89597
	 18343.6712
	 23093.31383
	 29072.75962
	 36600.43587
	 46077.2188
	 58007.78166
	 73027.47041
	 91936.13826
	 115740.7407
	 145708.9597
	 183436.712
	 230933.1383
	 290727.5962
	 366004.3587
	 460772.188
	 580077.8166
	 730274.7041
	 919361.3826
	 1157407.407
	 1457089.597
	 1834367.12
	 2309331.383
	 2907275.962
	 3660043.587
	 4607721.88
	 5800778.166
	 7302747.041
	 9193613.826
	 11574074.07
	 13086226.15
	 14605494.08
	 18387227.65
	 23148148.14
	 28361316.7
	 34722222.21
	 40243571.6
	 46296296.28
	 57870370.36
	 69444444.43
	 81018518.5
	 92592592.57
	 115740740.7
	 138888888.9
	 162037037
	 185185185.1
	 208333333.3
	 231481481.4
	 254629629.6
	 277777777.7
	 295138888.8
	 312499999.9
	 329861111
	 347222222.1
	 364583333.2
	 381944444.3
	 399305555.4
	 416666666.5
	 434027777.7
	 451388888.8
	 468749999.9
	 486111111
	 503472222.1
	 520833333.2
	 538194444.3
	 555555555.4
	 572916666.5
	 590277777.6
	 607638888.7
	 624999999.8
	 642361110.9
	 659722222
	 677083333.1
	 694444444.2
	 711805555.3
	 729166666.4
	 746527777.5
	 763888888.6
	 781249999.7
	 798611110.8
	 815972221.9
	 833333333
	 859374999.7
	 885416666.3
	 911458333
	 937499999.6
	 963541666.3
	 989583332.9
	 1015625000
	 1041666666
	 1067708333
	 1093750000
	 1119791666
	 1145833333
	 1171875000
	 1197916666
	 1223958333
	 1250000000
	 1276041666
	 1302083333
	 1328124999
	 1354166666
	 1380208333
	 1406249999
	 1432291666
	 1458333333
	 1484374999
	 1510416666
	 1536458333
	 1562499999
	 1588541666
	 1614583333
	 1640624999
	 1666666666
	 1684027777
	 1701388888
	 1718749999
	 1736111110
	 1753472222
	 1770833333
	 1788194444
	 1805555555
	 1822916666
	 1840277777
	 1857638888
	 1874999999
	 1892361110
	 1909722222
	 1927083333
	 1944444444
	 1979166666
	 2013888888
	 2048611110
	 2083333333
	 2118055555
	 2152777777
	 2187499999
	 2222222222
	 2239583333
	 2256944444
	 2274305555
	 2291666666
	 2309027777
	 2326388888
	 2343749999
	 2361111110
	 2378472221
	 2395833333
	 2413194444
	 2430555555
	 2447916666
	 2465277777
	 2482638888
	 2499999999
	 2517361110
	 2534722221
	 2552083333
	 2569444444
	 2586805555
	 2604166666
	 2621527777
	 2638888888
	 2673611110
	 2708333333
	 2743055555
	 2777777777
	 2812499999
	 2847222222
	 2881944444
	 2916666666
	 2951388888
	 2986111110
	 3020833333
	 3055555555
	 3090277777
	 3125000000
	 3159722222
	 3194444444
	 3229166666
	 3263888888
	 3298611111
	 3333333333
	 3359375000
	 3385416666
	 3411458333
	 3437500000
	 3463541666
	 3489583333
	 3515625000
	 3541666666
	 3567708333
	 3593750000
	 3619791666
	 3645833333
	 3671875000
	 3697916666
	 3723958333
	 3750000000
	 3776041666
	 3802083333
	 3828124999
	 3854166666
	 3880208333
	 3906249999
	 3932291666
	 3958333333
	 3984374999
	 4010416666
	 4036458333
	 4062499999
	 4088541666
	 4114583333
	 4140624999
	 4166666666
	 4192708333
	 4218749999
	 4244791666
	 4270833333
	 4296874999
	 4322916666
	 4348958333
	 4375000000
	 4401041666
	 4427083333
	 4453125000
	 4479166666
	 4492187500
	 4505208333
	 4518229166
	 4531250000
	 4544270833
	 4557291666
	 4570312500
	 4583333333
	 4596354166
	 4609375000
	 4622395833
	 4635416666
	 4648437500
	 4661458333
	 4674479166
	 4687500000
	 4700520833
	 4713541666
	 4726562500
	 4739583333
	 4752604166
	 4765625000
	 4778645833
	 4791666666
	 4804687500
	 4817708333
	 4830729167
	 4843750000
	 4856770833
	 4869791667
	 4882812500
	 4895833333
	 4908854167
	 4921875000
	 4934895833
	 4947916667
	 4960937500
	 4973958333
	 4986979167
	 5000000000
	 5026041667
	 5052083333
	 5078125000
	 5104166667
	 5130208333
	 5156250000
	 5182291667
	 5208333333
	 5234375000
	 5260416667
	 5286458333
	 5312500000
	 5338541667
	 5364583333
	 5390625000
	 5416666667
	 5442708333
	 5468750000
	 5494791667
	 5520833333
	 5546875000
	 5572916667
	 5598958333
	 5625000000
	 5651041667
	 5677083333
	 5703125000
	 5729166667
	 5755208333
	 5781250000
	 5807291667
	 5833333334
	 5859375000
	 5885416667
	 5911458334
	 5937500000
	 5963541667
	 5989583334
	 6015625000
	 6041666667
	 6067708334
	 6093750000
	 6119791667
	 6145833334
	 6171875000
	 6197916667
	 6223958334
	 6250000000
	 6276041667
	 6302083334
	 6328125000
	 6354166667
	 6380208334
	 6406250000
	 6432291667
	 6458333334
	 6484375000
	 6510416667
	 6536458334
	 6562500000
	 6588541667
	 6614583334
	 6640625000
	 6666666667
	 6690779321
	 6714891976
	 6739004630
	 6763117284
	 6787229939
	 6811342593
	 6835455247
	 6859567902
	 6883680556
	 6907793210
	 6931905864
	 6956018519
	 6980131173
	 7004243827
	 7028356482
	 7052469136
	 7079260974
	 7106052812
	 7132844650
	 7159636488
	 7186428327
	 7213220165
	 7240012003
	 7266803841
	 7293595679
	 7320387517
	 7347179355
	 7373971194
	 7400763032
	 7427554870
	 7454346708
	 7481138546
	 7507930384
	 7534722222
	 7561514060
	 7588305898
	 7615097737
	 7641889575
	 7668681413
	 7695473251
	 7722265089
	 7749056927
	 7775848765
	 7802640604
	 7829432442
	 7856224280
	 7883016118
	 7909807956
	 7936599794
	 7963391632
	 7990183470
	 8016975308
	 8043767147
	 8070558985
	 8097350823
	 8124142661
	 8137538580
	 8150934499
	 8164330418
	 8177726337
	 8191122256
	 8204518175
	 8217914094
	 8231310014
	 8244705933
	 8258101852
	 8271497771
	 8284893690
	 8298289609
	 8311685528
	 8325081447
	 8338477366
	 8358571245
	 8378665123
	 8398759002
	 8418852880
	 8438946759
	 8459040638
	 8479134516
	 8499228395
	 8519322274
	 8539416152
	 8559510031
	 8579603910
	 8599697788
	 8619791667
	 8639885545
	 8659979424
	 8680073303
	 8700167181
	 8720261060
	 8740354938
	 8760448817
	 8780542695
	 8800636574
	 8820730452
	 8840824331
	 8860918210
	 8881012088
	 8901105967
	 8921199845
	 8941293724
	 8961387602
	 8981481481
	 8995949074
	 9010416666
	 9024884259
	 9039351851
	 9053819444
	 9068287037
	 9082754629
	 9097222222
	 9111689814
	 9126157407
	 9140625000
	 9155092592
	 9169560185
	 9184027777
	 9198495370
	 9212962962
	 9227430555
	 9241898148
	 9256365740
	 9270833333
	 9285300925
	 9299768518
	 9314236111
	 9328703703
	 9343171296
	 9357638888
	 9372106481
	 9386574074
	 9401041666
	 9415509259
	 9429976851
	 9444444444
	 9461805555
	 9479166666
	 9496527777
	 9513888888
	 9531250000
	 9548611111
	 9565972222
	 9583333333
	 9600694444
	 9618055555
	 9635416666
	 9652777778
	 9670138889
	 9687500000
	 9704861111
	 9722222222
	 9733796296
	 9745370370
	 9756944444
	 9768518518
	 9780092592
	 9791666666
	 9803240740
	 9814814814
	 9826388889
	 9837962963
	 9849537037
	 9861111111
	 9872685185
	 9884259259
	 9895833333
	 9907407407
	 9918981481
	 9930555555
	 9942129629
	 9953703704
	 9965277778
	 9976851852
	 9988425926
	 1e+10
VAR_LIST_END

BEGIN
	 7.68581008999999997074667468233e-05 ,	 -0 
	 7.68581008999999997074667468233e-05 ,	 -1.04987457999999994486808696612e-09 
	 7.68581008999999997074667468233e-05 ,	 -1.04987480999999993546741903594e-08 
	 7.68581015000000027309959294008e-05 ,	 -1.04987482000000000482958079345e-07 
	 7.68581574000000043375702141191e-05 ,	 -1.04987478000000009795784818717e-06 
	 7.68581903999999944488222269889e-05 ,	 -1.3217140200000000187685773867e-06 
	 7.68582427999999964881791547633e-05 ,	 -1.66393931999999997765557219892e-06 
	 7.68583256999999986282950947825e-05 ,	 -2.09477541000000020560145586046e-06 
	 7.68584572000000017287860143433e-05 ,	 -2.63716582000000002687515113231e-06 
	 7.68586656000000038391553602857e-05 ,	 -3.31999471999999988189311572739e-06 
	 7.68589960000000063525607552073e-05 ,	 -4.17962503000000013502054571624e-06 
	 7.68595195000000016389771206882e-05 ,	 -5.26183477999999970529899570582e-06 
	 7.68603492000000039800419737723e-05 ,	 -6.62425475999999962596360286726e-06 
	 7.68616641999999943273697011747e-05 ,	 -8.33943716000000026869736630131e-06 
	 7.68637482000000018785360045293e-05 ,	 -1.0498718400000000633897831448e-05 
	 7.68670512e-05 ,	 -1.32170815e-05 
	 7.68722859e-05 ,	 -1.66392761e-05 
	 7.68805818e-05 ,	 -2.09475205e-05 
	 7.68937288e-05 ,	 -2.63711921e-05 
	 7.69145623e-05 ,	 -3.31990173e-05 
	 7.69475736e-05 ,	 -4.17943952e-05 
	 7.69998742e-05 ,	 -5.2614647e-05 
	 7.70827175e-05 ,	 -6.62351659e-05 
	 7.72138961e-05 ,	 -8.33796503e-05 
	 7.74215013e-05 ,	 -0.000104957834 
	 7.77497846e-05 ,	 -0.000132112325 
	 7.82682048e-05 ,	 -0.000166276284 
	 7.90851676e-05 ,	 -0.00020924351 
	 8.03683301e-05 ,	 -0.000263251852 
	 8.23732213e-05 ,	 -0.000331079158 
	 8.54801807e-05 ,	 -0.000416147778 
	 9.02336687e-05 ,	 -0.000522628719 
	 9.73631326e-05 ,	 -0.000655532204 
	 0.00010773503 ,	 -0.000820776467 
	 0.000122143286 ,	 -0.00102526297 
	 0.000140824395 ,	 -0.00127708323 
	 0.000152231815 ,	 -0.0014340358 
	 0.000162906035 ,	 -0.00158964775 
	 0.00018462113 ,	 -0.00196970214 
	 0.00020035286 ,	 -0.00243819444 
	 0.000202925831 ,	 -0.00294463082 
	 0.00018812968 ,	 -0.00355906407 
	 0.00016197673 ,	 -0.00409173444 
	 0.00012134827 ,	 -0.00467597097 
	 1.41006359e-05 ,	 -0.0057946311 
	 -0.000127062559 ,	 -0.00691436708 
	 -0.000299127171 ,	 -0.00803366235 
	 -0.000500608893 ,	 -0.00915111227 
	-0.00098898,	-0.011376
	-0.0015889,	-0.01358
	-0.0022985,	-0.015758
	-0.0031162,	-0.017902
	-0.00404,	-0.020006
	-0.0050673,	-0.022064
	-0.006195,	-0.024071
	-0.0074198,	-0.026022
	-0.0084001,	-0.027446
	-0.0094314,	-0.028834
	-0.010512,	-0.030186
	-0.011642,	-0.031498
	-0.012818,	-0.032771
	-0.014039,	-0.034003
	-0.015305,	-0.035192
	-0.016612,	-0.036337
	-0.017961,	-0.037436
	-0.01935,	-0.038489
	-0.020776,	-0.039495
	-0.022239,	-0.040451
	-0.023736,	-0.041358
	-0.025267,	-0.042213
	-0.026829,	-0.043016
	-0.028421,	-0.043766
	-0.030041,	-0.044461
	-0.031687,	-0.045101
	-0.033358,	-0.045686
	-0.03505,	-0.046213
	-0.036764,	-0.046683
	-0.038495,	-0.047095
	-0.040244,	-0.047448
	-0.042007,	-0.047741
	-0.043783,	-0.047975
	-0.045569,	-0.048149
	-0.047364,	-0.048262
	-0.049166,	-0.048314
	-0.050972,	-0.048306
	-0.052781,	-0.048236
	-0.05459,	-0.048105
	-0.056398,	-0.047913
	-0.059102,	-0.04751
	-0.061792,	-0.04697
	-0.06446,	-0.046294
	-0.067101,	-0.045483
	-0.069706,	-0.044539
	-0.072271,	-0.043463
	-0.074788,	-0.042257
	-0.077251,	-0.040925
	-0.079654,	-0.039468
	-0.081992,	-0.03789
	-0.084259,	-0.036194
	-0.086449,	-0.034383
	-0.088556,	-0.032462
	-0.090576,	-0.030434
	-0.092504,	-0.028304
	-0.094336,	-0.026077
	-0.096066,	-0.023756
	-0.097691,	-0.021347
	-0.099207,	-0.018856
	-0.10061,	-0.016287
	-0.10189,	-0.013645
	-0.10306,	-0.010937
	-0.10411,	-0.0081682
	-0.10503,	-0.0053439
	-0.10583,	-0.0024703
	-0.1065,	 0.00044671
	-0.10704,	 0.0034011
	-0.10744,	 0.0063868
	-0.10772,	 0.0093977
	-0.10786,	 0.012428
	-0.10788,	 0.015471
	-0.10775,	 0.018521
	-0.1076,	 0.020556
	-0.10739,	 0.022589
	-0.10712,	 0.024619
	-0.10679,	 0.026644
	-0.1064,	 0.028662
	-0.10595,	 0.030673
	-0.10545,	 0.032673
	-0.10489,	 0.034661
	-0.10428,	 0.036637
	-0.10361,	 0.038597
	-0.10288,	 0.040541
	-0.1021,	 0.042467
	-0.10127,	 0.044373
	-0.10038,	 0.046257
	-0.09945,	 0.04812
	-0.098462,	 0.049958
	-0.096337,	 0.053556
	-0.094021,	 0.057042
	-0.091521,	 0.060405
	-0.088847,	 0.063636
	-0.086009,	 0.066726
	-0.083016,	 0.069666
	-0.07988,	 0.072451
	-0.07661,	 0.075072
	-0.074929,	 0.076321
	-0.07322,	 0.077526
	-0.071482,	 0.078688
	-0.069718,	 0.079807
	-0.06793,	 0.080881
	-0.066119,	 0.08191
	-0.064286,	 0.082895
	-0.062432,	 0.083834
	-0.06056,	 0.084728
	-0.058671,	 0.085576
	-0.056766,	 0.086379
	-0.054846,	 0.087135
	-0.052914,	 0.087846
	-0.05097,	 0.08851
	-0.049016,	 0.089129
	-0.047054,	 0.089702
	-0.045084,	 0.090229
	-0.043109,	 0.090711
	-0.041129,	 0.091148
	-0.039146,	 0.091541
	-0.037162,	 0.091889
	-0.035177,	 0.092193
	-0.033193,	 0.092454
	-0.031211,	 0.092672
	-0.027259,	 0.092982
	-0.023329,	 0.093127
	-0.019431,	 0.093113
	-0.015574,	 0.092948
	-0.011764,	 0.092636
	-0.0080081,	 0.092186
	-0.0043135,	 0.091605
	-0.00068529,	 0.090902
	 0.0028718,	 0.090085
	 0.0063539,	 0.089161
	 0.0097579,	 0.088141
	 0.013082,	 0.087033
	 0.016323,	 0.085846
	 0.019483,	 0.084589
	 0.02256,	 0.083271
	 0.025556,	 0.0819
	 0.028473,	 0.080485
	 0.031314,	 0.079034
	 0.034081,	 0.077555
	 0.03678,	 0.076054
	 0.038761,	 0.07492
	 0.04071,	 0.073779
	 0.042626,	 0.072636
	 0.044515,	 0.071493
	 0.046378,	 0.07035
	 0.048218,	 0.069212
	 0.050039,	 0.068077
	 0.051844,	 0.066949
	 0.053637,	 0.065828
	 0.05542,	 0.064715
	 0.057198,	 0.06361
	 0.058974,	 0.062513
	 0.060752,	 0.061425
	 0.062536,	 0.060345
	 0.064329,	 0.059272
	 0.066135,	 0.058205
	 0.067958,	 0.057143
	 0.069801,	 0.056085
	 0.071669,	 0.055027
	 0.073564,	 0.053968
	 0.07549,	 0.052906
	 0.07745,	 0.051837
	 0.079448,	 0.050758
	 0.081485,	 0.049666
	 0.083565,	 0.048557
	 0.085691,	 0.047427
	 0.087864,	 0.046271
	 0.090086,	 0.045085
	 0.09236,	 0.043865
	 0.094686,	 0.042605
	 0.097066,	 0.0413
	 0.0995,	 0.039945
	 0.10198,	 0.038534
	 0.10453,	 0.037061
	 0.10713,	 0.03552
	 0.10978,	 0.033906
	 0.11249,	 0.032213
	 0.11524,	 0.030434
	 0.11805,	 0.028562
	 0.1209,	 0.026593
	 0.1238,	 0.02452
	 0.12673,	 0.022336
	 0.12971,	 0.020035
	 0.13272,	 0.017613
	 0.13423,	 0.016354
	 0.13575,	 0.015062
	 0.13728,	 0.013736
	 0.13881,	 0.012377
	 0.14035,	 0.010982
	 0.14189,	 0.0095523
	 0.14343,	 0.0080862
	 0.14498,	 0.0065832
	 0.14653,	 0.0050428
	 0.14807,	 0.0034643
	 0.14962,	 0.0018472
	 0.15117,	 0.00019084
	 0.15271,	-0.0015053
	 0.15425,	-0.0032417
	 0.15579,	-0.0050189
	 0.15732,	-0.0068374
	 0.15885,	-0.0086977
	 0.16036,	-0.0106
	 0.16187,	-0.012545
	 0.16338,	-0.014533
	 0.16487,	-0.016565
	 0.16635,	-0.01864
	 0.16782,	-0.020759
	 0.16927,	-0.022922
	 0.17071,	-0.02513
	 0.17213,	-0.027383
	 0.17354,	-0.029681
	 0.17492,	-0.032023
	 0.17629,	-0.034411
	 0.17764,	-0.036844
	 0.17896,	-0.039323
	 0.18026,	-0.041846
	 0.18154,	-0.044416
	 0.18279,	-0.04703
	 0.18401,	-0.04969
	 0.18521,	-0.052394
	 0.18637,	-0.055144
	 0.1875,	-0.057938
	 0.1886,	-0.060777
	 0.18967,	-0.06366
	 0.19169,	-0.069558
	 0.19356,	-0.075627
	 0.19527,	-0.081866
	 0.1968,	-0.08827
	 0.19815,	-0.094833
	 0.19931,	-0.10155
	 0.20026,	-0.10841
	 0.20099,	-0.11542
	 0.2015,	-0.12256
	 0.20177,	-0.12983
	 0.2018,	-0.13721
	 0.20157,	-0.1447
	 0.20108,	-0.15229
	 0.20033,	-0.15997
	 0.19929,	-0.16773
	 0.19797,	-0.17555
	 0.19636,	-0.18343
	 0.19445,	-0.19134
	 0.19223,	-0.19929
	 0.18971,	-0.20725
	 0.18688,	-0.21521
	 0.18373,	-0.22316
	 0.18025,	-0.23109
	 0.17646,	-0.23897
	 0.17234,	-0.2468
	 0.1679,	-0.25456
	 0.16314,	-0.26223
	 0.15805,	-0.26981
	 0.15264,	-0.27727
	 0.14691,	-0.2846
	 0.14086,	-0.29179
	 0.1345,	-0.29881
	 0.12783,	-0.30566
	 0.12085,	-0.31232
	 0.11357,	-0.31878
	 0.10601,	-0.32502
	 0.098159,	-0.33103
	 0.09003,	-0.33678
	 0.081633,	-0.34228
	 0.072976,	-0.34751
	 0.06407,	-0.35245
	 0.054925,	-0.35709
	 0.045553,	-0.36142
	 0.035965,	-0.36543
	 0.026173,	-0.36911
	 0.016191,	-0.37244
	 0.0060306,	-0.37542
	-0.0042935,	-0.37804
	-0.014767,	-0.38028
	-0.025376,	-0.38215
	-0.036105,	-0.38363
	-0.046938,	-0.38471
	-0.057861,	-0.3854
	-0.068856,	-0.38568
	-0.079908,	-0.38555
	-0.091,	-0.385
	-0.10211,	-0.38403
	-0.11323,	-0.38264
	-0.12434,	-0.38083
	-0.13542,	-0.37859
	-0.14646,	-0.37593
	-0.15743,	-0.37283
	-0.16832,	-0.36932
	-0.17912,	-0.36537
	-0.18901,	-0.36134
	-0.19878,	-0.35696
	-0.20843,	-0.35221
	-0.21794,	-0.34711
	-0.22729,	-0.34165
	-0.23647,	-0.33585
	-0.24547,	-0.32971
	-0.25427,	-0.32323
	-0.26285,	-0.31642
	-0.27122,	-0.30929
	-0.27934,	-0.30184
	-0.28722,	-0.29408
	-0.29483,	-0.28601
	-0.30216,	-0.27765
	-0.3092,	-0.26901
	-0.31594,	-0.26009
	-0.32307,	-0.24987
	-0.32978,	-0.23933
	-0.33608,	-0.2285
	-0.34194,	-0.21739
	-0.34735,	-0.20601
	-0.35229,	-0.19439
	-0.35676,	-0.18254
	-0.36073,	-0.17048
	-0.36419,	-0.15823
	-0.36715,	-0.14581
	-0.36957,	-0.13325
	-0.37145,	-0.12057
	-0.37279,	-0.10779
	-0.37357,	-0.094935
	-0.37378,	-0.082028
	-0.37343,	-0.069098
	-0.37249,	-0.056169
	-0.37098,	-0.04327
	-0.36888,	-0.030427
	-0.36619,	-0.017671
	-0.36292,	-0.0050284
	-0.35906,	 0.0074699
	-0.35462,	 0.019794
	-0.34959,	 0.031914
	-0.34399,	 0.043799
	-0.33781,	 0.055417
	-0.33108,	 0.066737
	-0.3238,	 0.077728
	-0.31598,	 0.088358
	-0.30763,	 0.098596
	-0.29878,	 0.1084
	-0.28943,	 0.11776
	-0.27962,	 0.12664
	-0.26936,	 0.13499
	-0.25867,	 0.1428
	-0.24759,	 0.15004
	-0.23614,	 0.15668
	-0.22436,	 0.16268
	-0.21227,	 0.16804
	-0.19992,	 0.17272
	-0.19365,	 0.17479
	-0.18733,	 0.17669
	-0.18096,	 0.17842
	-0.17456,	 0.17995
	-0.16811,	 0.18131
	-0.16163,	 0.18248
	-0.15513,	 0.18346
	-0.14861,	 0.18425
	-0.14207,	 0.18485
	-0.13552,	 0.18526
	-0.12897,	 0.18547
	-0.12242,	 0.18549
	-0.11588,	 0.18531
	-0.10936,	 0.18494
	-0.10286,	 0.18437
	-0.096392,	 0.18361
	-0.08675,	 0.18209
	-0.077208,	 0.18013
	-0.067788,	 0.17773
	-0.058513,	 0.1749
	-0.049405,	 0.17163
	-0.040486,	 0.16794
	-0.03178,	 0.16384
	-0.023309,	 0.15932
	-0.015095,	 0.1544
	-0.0071606,	 0.1491
	 0.00047334,	 0.14341
	 0.0077852,	 0.13737
	 0.014754,	 0.13098
	 0.02136,	 0.12426
	 0.027584,	 0.11722
	 0.033407,	 0.1099
	 0.038812,	 0.1023
	 0.043781,	 0.094448
	 0.048299,	 0.086368
	 0.052352,	 0.078083
	 0.055927,	 0.06962
	 0.059011,	 0.061003
	 0.061595,	 0.05226
	 0.06367,	 0.043419
	 0.065227,	 0.034509
	 0.066263,	 0.025559
	 0.066772,	 0.0166
	 0.066753,	 0.0076618
	 0.066206,	-0.0012243
	 0.065132,	-0.010027
	 0.063535,	-0.018715
	 0.061421,	-0.027257
	 0.059583,	-0.033299
	 0.057484,	-0.039237
	 0.055129,	-0.045059
	 0.052521,	-0.050755
	 0.049666,	-0.056312
	 0.04657,	-0.06172
	 0.04324,	-0.066968
	 0.039681,	-0.072044
	 0.035901,	-0.076938
	 0.031908,	-0.081641
	 0.027711,	-0.086141
	 0.023319,	-0.090429
	 0.01874,	-0.094496
	 0.013985,	-0.098333
	 0.0090645,	-0.10193
	 0.0039893,	-0.10528
	-0.0012292,	-0.10837
	-0.0065791,	-0.11121
	-0.012048,	-0.11377
	-0.017623,	-0.11607
	-0.023292,	-0.11808
	-0.02904,	-0.1198
	-0.034853,	-0.12123
	-0.040718,	-0.12237
	-0.046619,	-0.12322
	-0.052542,	-0.12376
	-0.058472,	-0.124
	-0.064392,	-0.12394
	-0.070287,	-0.12357
	-0.07614,	-0.1229
	-0.081936,	-0.12193
	-0.087659,	-0.12066
	-0.094404,	-0.11874
	-0.10099,	-0.11641
	-0.10738,	-0.11366
	-0.11356,	-0.1105
	-0.11949,	-0.10696
	-0.12515,	-0.10304
	-0.1305,	-0.09877
	-0.13552,	-0.094155
	-0.14017,	-0.089222
	-0.14443,	-0.083996
	-0.14828,	-0.078504
	-0.15168,	-0.072774
	-0.15462,	-0.066839
	-0.15706,	-0.060734
	-0.15898,	-0.054498
	-0.16038,	-0.048171
	-0.161,	-0.043925
	-0.16137,	-0.039672
	-0.16149,	-0.035427
	-0.16135,	-0.031205
	-0.16095,	-0.027022
	-0.16029,	-0.022895
	-0.15936,	-0.018839
	-0.15816,	-0.014874
	-0.1567,	-0.011017
	-0.15498,	-0.0072874
	-0.15299,	-0.0037045
	-0.15074,	-0.00028866
	-0.14824,	 0.002939
	-0.14549,	 0.0059565
	-0.14249,	 0.0087413
	-0.13926,	 0.01127
	-0.13581,	 0.013517
	-0.13214,	 0.015459
	-0.12827,	 0.01707
	-0.12422,	 0.018324
	-0.12001,	 0.019195
	-0.11566,	 0.019658
	-0.11121,	 0.019687
	-0.10667,	 0.01926
END
BEGIN
	 0.999923141899283884903582020343 ,	 -0 
	 0.999923141899284662059699257952 ,	 -9.14016886482960089210791920777e-09 
	 0.999923141899277778676946581982 ,	 -9.1401686615200095076261277427e-08 
	 0.999923141898536593785706827475 ,	 -9.14016864715649912653816500097e-07 
	 0.999923141824501149343973338546 ,	 -9.14016864319439070740713759733e-06 
	 0.999923141780761581820513583807 ,	 -1.15067905695001582166980824695e-05 
	 0.999923141711437368783776946657 ,	 -1.44861910491150824853434642137e-05 
	 0.999923141601567477820822205103 ,	 -1.82370340174459188986588742409e-05 
	 0.999923141427434214456582139974 ,	 -2.29590655311251445880316168768e-05 
	 0.999923141151452532504606551811 ,	 -2.89037509701925432459290732368e-05 
