CITIFILE A.01.01
#Momentum: B.12.070 (*) built: Feb 13 2020 
#Momentum Date and Time: Mon Aug 15 17:31:41 2022

NAME Momentum.SP

#  mode: MW    reference: S_50

#eesof Port[1] P1
#eesof Port[2] P2

CONSTANT NBR_OF_PORTS 2

CONSTANT NORMALIZATION 1

VAR freq MAG 510

DATA S[1,1] RI
DATA S[1,2] RI
DATA S[2,1] RI
DATA S[2,2] RI
DATA PORTZ[1] RI
DATA PORTZ[2] RI

VAR_LIST_BEGIN
	 0
	 8.701167245
	 87.01167245
	 870.1167245
	 8701.167245
	 10954.12056
	 13790.42073
	 17361.1111
	 21856.34394
	 27515.5068
	 34639.97072
	 43609.13941
	 54900.65379
	 69115.82818
	 87011.67245
	 109541.2056
	 137904.2073
	 173611.111
	 218563.4394
	 275155.068
	 346399.7072
	 436091.3941
	 549006.5379
	 691158.2818
	 870116.7245
	 1095412.056
	 1379042.073
	 1736111.11
	 2185634.394
	 2751550.68
	 3463997.072
	 4360913.941
	 5490065.379
	 6911582.818
	 8701167.245
	 10954120.56
	 13790420.73
	 17361111.1
	 19629339.22
	 21908241.11
	 27580841.47
	 34722222.2
	 42541975.04
	 52083333.3
	 60365357.38
	 69444444.4
	 86805555.5
	 104166666.6
	 121527777.7
	 138888888.8
	 160590277.7
	 182291666.6
	 203993055.4
	 225694444.3
	 247395833.2
	 269097222.1
	 290798611
	 312499999.9
	 334201388.7
	 355902777.6
	 377604166.5
	 399305555.4
	 421006944.3
	 442708333.1
	 464409722
	 486111110.9
	 507812499.8
	 529513888.7
	 551215277.5
	 572916666.4
	 594618055.3
	 616319444.2
	 638020833.1
	 659722222
	 681423610.8
	 703124999.7
	 724826388.6
	 746527777.5
	 768229166.4
	 789930555.2
	 811631944.1
	 833333333
	 850694444.1
	 868055555.2
	 885416666.3
	 902777777.4
	 920138888.5
	 937499999.6
	 954861110.7
	 972222221.8
	 993923610.7
	 1015625000
	 1037326388
	 1059027777
	 1080729166
	 1102430555
	 1124131944
	 1145833333
	 1167534722
	 1189236111
	 1210937499
	 1232638888
	 1254340277
	 1276041666
	 1297743055
	 1319444444
	 1341145833
	 1362847222
	 1384548611
	 1406249999
	 1427951388
	 1449652777
	 1471354166
	 1493055555
	 1536458333
	 1579861110
	 1623263888
	 1666666666
	 1692708333
	 1718749999
	 1744791666
	 1770833333
	 1796874999
	 1822916666
	 1848958333
	 1875000000
	 1901041666
	 1927083333
	 1953125000
	 1979166666
	 2005208333
	 2031250000
	 2057291666
	 2083333333
	 2135416666
	 2187500000
	 2239583333
	 2291666666
	 2317708333
	 2343750000
	 2369791667
	 2395833333
	 2421875000
	 2447916667
	 2473958333
	 2500000000
	 2526041667
	 2552083333
	 2578125000
	 2604166667
	 2630208333
	 2656250000
	 2682291667
	 2708333333
	 2734375000
	 2760416667
	 2786458333
	 2812500000
	 2838541667
	 2864583333
	 2890625000
	 2916666666
	 2942708333
	 2968750000
	 2994791666
	 3020833333
	 3046875000
	 3072916666
	 3098958333
	 3125000000
	 3151041666
	 3177083333
	 3203125000
	 3229166666
	 3255208333
	 3281250000
	 3307291666
	 3333333333
	 3368055555
	 3402777777
	 3437500000
	 3472222222
	 3506944444
	 3541666666
	 3576388889
	 3611111111
	 3645833333
	 3680555555
	 3715277777
	 3750000000
	 3784722222
	 3819444444
	 3854166666
	 3888888888
	 3923611111
	 3958333333
	 3993055555
	 4027777777
	 4062500000
	 4097222222
	 4131944444
	 4166666666
	 4201388888
	 4236111111
	 4270833333
	 4305555555
	 4340277777
	 4375000000
	 4409722222
	 4444444444
	 4467592592
	 4490740740
	 4513888888
	 4537037037
	 4560185185
	 4583333333
	 4606481481
	 4629629629
	 4652777777
	 4675925926
	 4699074074
	 4722222222
	 4745370370
	 4768518518
	 4791666666
	 4814814814
	 4837962963
	 4861111111
	 4884259259
	 4907407407
	 4930555555
	 4953703703
	 4976851852
	 5000000000
	 5011574074
	 5023148148
	 5034722222
	 5046296296
	 5057870370
	 5069444444
	 5081018518
	 5092592592
	 5104166666
	 5115740741
	 5127314815
	 5138888889
	 5150462963
	 5162037037
	 5173611111
	 5185185185
	 5196759259
	 5208333333
	 5219907407
	 5231481481
	 5243055555
	 5254629630
	 5266203704
	 5277777778
	 5289351852
	 5300925926
	 5312500000
	 5324074074
	 5335648148
	 5347222222
	 5358796296
	 5370370370
	 5376157408
	 5381944445
	 5387731482
	 5393518519
	 5399305556
	 5405092593
	 5410879630
	 5416666667
	 5422453704
	 5428240741
	 5434027778
	 5439814815
	 5445601852
	 5451388889
	 5457175926
	 5462962963
	 5468750000
	 5474537037
	 5480324074
	 5486111111
	 5491898148
	 5497685186
	 5503472223
	 5509259260
	 5515046297
	 5520833334
	 5526620371
	 5532407408
	 5538194445
	 5543981482
	 5549768519
	 5555555556
	 5561342593
	 5567129630
	 5572916667
	 5578703704
	 5584490741
	 5590277778
	 5596064815
	 5601851852
	 5607638889
	 5613425926
	 5619212963
	 5625000000
	 5630787037
	 5636574074
	 5642361111
	 5648148148
	 5653935186
	 5659722223
	 5665509260
	 5671296297
	 5677083334
	 5682870371
	 5688657408
	 5694444445
	 5706018519
	 5717592593
	 5729166667
	 5740740741
	 5752314815
	 5763888889
	 5775462963
	 5787037037
	 5798611111
	 5810185185
	 5821759259
	 5833333334
	 5844907408
	 5856481482
	 5868055556
	 5879629630
	 5891203704
	 5902777778
	 5914351852
	 5925925926
	 5949074074
	 5972222222
	 5995370370
	 6018518519
	 6041666667
	 6064814815
	 6087962963
	 6111111111
	 6134259259
	 6157407408
	 6180555556
	 6203703704
	 6226851852
	 6250000000
	 6273148148
	 6296296296
	 6319444445
	 6342592593
	 6365740741
	 6388888889
	 6412037037
	 6435185185
	 6458333334
	 6481481482
	 6504629630
	 6527777778
	 6550925926
	 6574074074
	 6597222223
	 6620370371
	 6643518519
	 6666666667
	 6701388889
	 6736111112
	 6770833334
	 6805555556
	 6840277778
	 6875000000
	 6909722223
	 6944444445
	 6987847223
	 7031250001
	 7074652778
	 7118055556
	 7161458334
	 7204861112
	 7248263889
	 7291666667
	 7335069445
	 7378472223
	 7421875001
	 7465277778
	 7508680556
	 7552083334
	 7595486112
	 7638888890
	 7682291667
	 7725694445
	 7769097223
	 7812500001
	 7855902778
	 7899305556
	 7942708334
	 7986111112
	 8029513890
	 8072916667
	 8116319445
	 8159722223
	 8181423612
	 8203125001
	 8224826390
	 8246527778
	 8268229167
	 8289930556
	 8311631945
	 8333333334
	 8346193416
	 8359053498
	 8371913581
	 8384773663
	 8400848766
	 8416923869
	 8432998972
	 8449074075
	 8465149178
	 8481224281
	 8497299384
	 8513374486
	 8545524692
	 8577674898
	 8609825104
	 8641975310
	 8680555557
	 8719135804
	 8757716051
	 8796296298
	 8834876544
	 8873456791
	 8912037038
	 8950617285
	 8969907408
	 8989197532
	 9008487655
	 9027777779
	 9047067902
	 9066358026
	 9085648149
	 9104938272
	 9124228396
	 9143518519
	 9162808643
	 9182098766
	 9201388890
	 9220679013
	 9239969137
	 9259259260
	 9270833334
	 9282407408
	 9293981482
	 9305555556
	 9317129630
	 9328703704
	 9340277778
	 9351851852
	 9363425927
	 9375000001
	 9386574075
	 9398148149
	 9409722223
	 9421296297
	 9432870371
	 9444444445
	 9453125001
	 9461805556
	 9470486112
	 9479166667
	 9487847223
	 9496527778
	 9505208334
	 9513888889
	 9522569445
	 9531250000
	 9539930556
	 9548611112
	 9557291667
	 9565972223
	 9574652778
	 9583333334
	 9600694445
	 9618055556
	 9635416667
	 9652777778
	 9670138889
	 9687500000
	 9704861111
	 9722222222
	 9739583334
	 9756944445
	 9774305556
	 9791666667
	 9809027778
	 9826388889
	 9843750000
	 9861111111
	 9895833333
	 9930555556
	 9965277778
	 1e+10
VAR_LIST_END

BEGIN
	 6.47373423000000041338183875972e-05 ,	 -0 
	 6.47373423000000041338183875972e-05 ,	 -3.12802495000000004675321813453e-09 
	 6.47373423000000041338183875972e-05 ,	 -3.1280242799999997504584024104e-08 
	 6.47373420000000026220537963084e-05 ,	 -3.12802434999999987203406518962e-07 
	 6.47373116999999990116287928998e-05 ,	 -3.1280243400000001533964831546e-06 
	 6.47372937000000031734434080555e-05 ,	 -3.93794933999999985699790039373e-06 
	 6.47372653000000001025093787632e-05 ,	 -4.95758449000000004166935699268e-06 
	 6.47372203000000037307823386179e-05 ,	 -6.24122908999999991832511453405e-06 
	 6.47371488999999962965156696804e-05 ,	 -7.85724190999999969509288988423e-06 
	 6.47370357999999955674053087051e-05 ,	 -9.89168149999999990007546607496e-06 
	 6.47368565999999960418331834688e-05 ,	 -1.24528892000000004469228293003e-05 
	 6.47365725000000009686437763001e-05 ,	 -1.56772586999999994934046343431e-05 
	 6.47361223000000001034578978043e-05 ,	 -1.97364992999999985703440258389e-05 
	 6.47354087000000000566221625142e-05 ,	 -2.48467805000000006908442845566e-05 
	 6.47342777999999977869491352145e-05 ,	 -3.1280243199999999961433139184e-05 
	 6.47324854e-05 ,	 -3.9379493e-05 
	 6.47296446e-05 ,	 -4.95758441e-05 
	 6.47251422e-05 ,	 -6.24122893e-05 
	 6.47180065e-05 ,	 -7.85724158e-05 
	 6.47066971e-05 ,	 -9.89168085e-05 
	 6.46887729e-05 ,	 -0.000124528879 
	 6.4660365e-05 ,	 -0.000156772561 
	 6.46153415e-05 ,	 -0.000197364941 
	 6.4543984e-05 ,	 -0.000248467702 
	 6.44308901e-05 ,	 -0.000312802227 
	 6.42516485e-05 ,	 -0.00039379452 
	 6.39675698e-05 ,	 -0.000495757623 
	 6.35173358e-05 ,	 -0.000624121261 
	 6.28037643e-05 ,	 -0.000785720901 
	 6.16728326e-05 ,	 -0.000989161587 
	 5.98804339e-05 ,	 -0.00124527583 
	 5.70396921e-05 ,	 -0.00156769974 
	 5.25374662e-05 ,	 -0.0019735978 
	 4.5402036e-05 ,	 -0.00248457403 
	 3.40934348e-05 ,	 -0.0031278168 
	 1.61712472e-05 ,	 -0.00393753524 
	 -1.22316541e-05 ,	 -0.00495675831 
	 -5.72425701e-05 ,	 -0.00623958081 
	 -9.11905844e-05 ,	 -0.00705426307 
	 -0.000129487231 ,	 -0.00787258697 
	-0.00024304,	-0.0099086
	-0.00042293,	-0.012469
	-0.00066707,	-0.015269
	-0.0010316,	-0.018679
	-0.0014072,	-0.021632
	-0.001882,	-0.02486
	-0.0029724,	-0.031001
	-0.0043008,	-0.037095
	-0.0058646,	-0.04313
	-0.0076609,	-0.0491
	-0.010228,	-0.056455
	-0.013148,	-0.063677
	-0.016411,	-0.07075
	-0.02001,	-0.077659
	-0.023937,	-0.084391
	-0.028183,	-0.090933
	-0.032738,	-0.09727
	-0.037593,	-0.10339
	-0.042737,	-0.10928
	-0.04816,	-0.11494
	-0.05385,	-0.12035
	-0.059797,	-0.12551
	-0.065988,	-0.1304
	-0.072411,	-0.13501
	-0.079053,	-0.13934
	-0.085902,	-0.14338
	-0.092943,	-0.14712
	-0.10016,	-0.15056
	-0.10755,	-0.15369
	-0.11509,	-0.15651
	-0.12276,	-0.159
	-0.13057,	-0.16117
	-0.13848,	-0.16301
	-0.14649,	-0.16452
	-0.15458,	-0.1657
	-0.16273,	-0.16654
	-0.17095,	-0.16704
	-0.1792,	-0.1672
	-0.18748,	-0.16703
	-0.19577,	-0.16652
	-0.20406,	-0.16567
	-0.21234,	-0.16448
	-0.21894,	-0.16329
	-0.22551,	-0.16189
	-0.23206,	-0.16028
	-0.23857,	-0.15846
	-0.24504,	-0.15643
	-0.25145,	-0.15419
	-0.25781,	-0.15176
	-0.26411,	-0.14912
	-0.27189,	-0.14554
	-0.27955,	-0.14166
	-0.28708,	-0.13748
	-0.29448,	-0.13301
	-0.30172,	-0.12825
	-0.30881,	-0.12322
	-0.31573,	-0.11791
	-0.32247,	-0.11233
	-0.32902,	-0.1065
	-0.33538,	-0.10042
	-0.34153,	-0.094101
	-0.34748,	-0.087545
	-0.35321,	-0.080764
	-0.35871,	-0.073767
	-0.36398,	-0.066563
	-0.36901,	-0.05916
	-0.37379,	-0.051568
	-0.37833,	-0.043796
	-0.38261,	-0.035853
	-0.38663,	-0.027748
	-0.39039,	-0.019492
	-0.39387,	-0.011093
	-0.39709,	-0.0025612
	-0.40003,	 0.0060938
	-0.40506,	 0.023735
	-0.40895,	 0.041752
	-0.41168,	 0.060068
	-0.41325,	 0.078606
	-0.41362,	 0.089802
	-0.41357,	 0.10103
	-0.41309,	 0.11228
	-0.41218,	 0.12353
	-0.41086,	 0.13477
	-0.40911,	 0.14597
	-0.40694,	 0.15713
	-0.40435,	 0.16823
	-0.40134,	 0.17925
	-0.39793,	 0.19017
	-0.3941,	 0.20099
	-0.38988,	 0.21168
	-0.38525,	 0.22223
	-0.38024,	 0.23262
	-0.37483,	 0.24284
	-0.36905,	 0.25288
	-0.35636,	 0.27235
	-0.34225,	 0.29091
	-0.32677,	 0.30845
	-0.31001,	 0.32486
	-0.30117,	 0.33262
	-0.29204,	 0.34006
	-0.28263,	 0.34716
	-0.27295,	 0.35393
	-0.26302,	 0.36034
	-0.25285,	 0.36639
	-0.24245,	 0.37207
	-0.23184,	 0.37736
	-0.22102,	 0.38226
	-0.21003,	 0.38675
	-0.19886,	 0.39083
	-0.18754,	 0.3945
	-0.17608,	 0.39773
	-0.1645,	 0.40053
	-0.15281,	 0.40288
	-0.14104,	 0.40478
	-0.1292,	 0.40623
	-0.11731,	 0.40722
	-0.10539,	 0.40774
	-0.093462,	 0.4078
	-0.081536,	 0.40738
	-0.069639,	 0.40648
	-0.057789,	 0.40511
	-0.046009,	 0.40326
	-0.034319,	 0.40094
	-0.022741,	 0.39813
	-0.011297,	 0.39485
	-9.4414e-06,	 0.3911
	 0.0111,	 0.38688
	 0.022007,	 0.3822
	 0.032691,	 0.37705
	 0.043128,	 0.37146
	 0.053294,	 0.36542
	 0.063167,	 0.35894
	 0.072724,	 0.35205
	 0.081941,	 0.34474
	 0.090796,	 0.33703
	 0.099265,	 0.32894
	 0.10732,	 0.32047
	 0.11495,	 0.31166
	 0.12442,	 0.2994
	 0.13304,	 0.2866
	 0.14076,	 0.27331
	 0.14754,	 0.25959
	 0.15332,	 0.2455
	 0.15809,	 0.23112
	 0.16179,	 0.21651
	 0.16441,	 0.20175
	 0.16592,	 0.18693
	 0.1663,	 0.17212
	 0.16555,	 0.15743
	 0.16365,	 0.14293
	 0.16062,	 0.12873
	 0.15646,	 0.11492
	 0.15121,	 0.10161
	 0.14489,	 0.088891
	 0.13755,	 0.076859
	 0.12923,	 0.065615
	 0.12001,	 0.055254
	 0.10996,	 0.045865
	 0.09917,	 0.037535
	 0.087725,	 0.03034
	 0.07574,	 0.024352
	 0.063333,	 0.019631
	 0.050631,	 0.016225
	 0.037771,	 0.014171
	 0.024897,	 0.013489
	 0.012159,	 0.014186
	-0.000288,	 0.01625
	-0.012286,	 0.01965
	-0.023677,	 0.024336
	-0.034302,	 0.030236
	-0.040883,	 0.0348
	-0.047012,	 0.03983
	-0.052644,	 0.045287
	-0.057739,	 0.051131
	-0.062258,	 0.057315
	-0.066166,	 0.063785
	-0.06943,	 0.070488
	-0.072021,	 0.07736
	-0.073914,	 0.084337
	-0.075089,	 0.091349
	-0.075531,	 0.09832
	-0.07523,	 0.10516
	-0.074185,	 0.11181
	-0.072398,	 0.11816
	-0.069883,	 0.12413
	-0.066661,	 0.12961
	-0.062763,	 0.1345
	-0.058233,	 0.1387
	-0.053123,	 0.14211
	-0.047505,	 0.1446
	-0.041463,	 0.14606
	-0.035099,	 0.14639
	-0.028537,	 0.14546
	-0.021922,	 0.14316
	-0.018648,	 0.14146
	-0.015427,	 0.13938
	-0.012286,	 0.13691
	-0.0092524,	 0.13403
	-0.0063566,	 0.13074
	-0.0036311,	 0.12701
	-0.0011107,	 0.12286
	 0.0011672,	 0.11826
	 0.0031627,	 0.11321
	 0.0048334,	 0.10772
	 0.006134,	 0.10177
	 0.0070165,	 0.095389
	 0.0074301,	 0.088559
	 0.0073213,	 0.081298
	 0.0066339,	 0.073621
	 0.0053091,	 0.065547
	 0.003286,	 0.057101
	 0.00050144,	 0.048315
	-0.0031092,	 0.039226
	-0.0076118,	 0.029881
	-0.013072,	 0.020334
	-0.019556,	 0.01065
	-0.027128,	 0.00090128
	-0.03585,	-0.0088262
	-0.045777,	-0.018437
	-0.056963,	-0.027823
	-0.06945,	-0.036866
	-0.083273,	-0.045433
	-0.098453,	-0.053383
	-0.11499,	-0.06056
	-0.13289,	-0.066804
	-0.15211,	-0.071943
	-0.16221,	-0.074043
	-0.17261,	-0.075801
	-0.18331,	-0.077195
	-0.19431,	-0.078201
	-0.20557,	-0.078799
	-0.2171,	-0.078966
	-0.22886,	-0.078681
	-0.24085,	-0.077925
	-0.25305,	-0.076676
	-0.26542,	-0.074916
	-0.27796,	-0.072628
	-0.29062,	-0.069794
	-0.3034,	-0.066401
	-0.31624,	-0.062433
	-0.32914,	-0.057881
	-0.34205,	-0.052733
	-0.35495,	-0.046982
	-0.3678,	-0.040621
	-0.38057,	-0.033649
	-0.39322,	-0.026063
	-0.40572,	-0.017864
	-0.41803,	-0.0090563
	-0.43013,	 0.00035396
	-0.44197,	 0.010358
	-0.45352,	 0.020946
	-0.46475,	 0.032103
	-0.47563,	 0.043813
	-0.48612,	 0.056059
	-0.4962,	 0.06882
	-0.50583,	 0.082073
	-0.515,	 0.095795
	-0.52366,	 0.10995
	-0.53182,	 0.12453
	-0.53943,	 0.13949
	-0.54649,	 0.15481
	-0.55297,	 0.17045
	-0.55887,	 0.18638
	-0.56417,	 0.20258
	-0.56886,	 0.21899
	-0.57294,	 0.2356
	-0.57639,	 0.25237
	-0.57923,	 0.26926
	-0.58145,	 0.28625
	-0.58305,	 0.3033
	-0.58403,	 0.32038
	-0.58441,	 0.33746
	-0.58419,	 0.35451
	-0.58337,	 0.3715
	-0.58198,	 0.38841
	-0.58002,	 0.40521
	-0.5775,	 0.42187
	-0.57445,	 0.43838
	-0.57087,	 0.45471
	-0.56679,	 0.47084
	-0.56222,	 0.48675
	-0.55718,	 0.50243
	-0.54575,	 0.53303
	-0.53267,	 0.56252
	-0.51808,	 0.59082
	-0.50214,	 0.61787
	-0.48499,	 0.64362
	-0.46677,	 0.66804
	-0.44763,	 0.69111
	-0.42768,	 0.71284
	-0.40706,	 0.73323
	-0.38586,	 0.7523
	-0.3642,	 0.77007
	-0.34216,	 0.78659
	-0.31984,	 0.80187
	-0.29731,	 0.81598
	-0.27463,	 0.82893
	-0.25187,	 0.84078
	-0.22908,	 0.85158
	-0.20632,	 0.86137
	-0.18362,	 0.87018
	-0.16102,	 0.87807
	-0.11625,	 0.89126
	-0.072224,	 0.90124
	-0.02909,	 0.90834
	 0.013039,	 0.91282
	 0.054086,	 0.91494
	 0.094003,	 0.91494
	 0.13276,	 0.91302
	 0.17035,	 0.90936
	 0.20676,	 0.90413
	 0.24202,	 0.89748
	 0.27612,	 0.88954
	 0.3091,	 0.88043
	 0.34096,	 0.87024
	 0.37174,	 0.85909
	 0.40146,	 0.84704
	 0.43014,	 0.83418
	 0.45781,	 0.82059
	 0.48449,	 0.80631
	 0.51021,	 0.79141
	 0.53499,	 0.77593
	 0.55885,	 0.75994
	 0.58182,	 0.74346
	 0.60392,	 0.72655
	 0.62517,	 0.70923
	 0.64559,	 0.69154
	 0.66519,	 0.67352
	 0.68401,	 0.65519
	 0.70204,	 0.63658
	 0.71932,	 0.61772
	 0.73586,	 0.59863
	 0.75168,	 0.57933
	 0.76678,	 0.55984
	 0.78813,	 0.53031
	 0.80797,	 0.50046
	 0.82634,	 0.47036
	 0.84329,	 0.44007
	 0.85885,	 0.40962
	 0.87307,	 0.37907
	 0.88598,	 0.34846
	 0.89763,	 0.31783
	 0.91046,	 0.27957
	 0.92144,	 0.24139
	 0.93063,	 0.20338
	 0.93809,	 0.16557
	 0.94388,	 0.12802
	 0.94807,	 0.090784
	 0.9507,	 0.053897
	 0.95183,	 0.017403
	 0.9515,	-0.018661
	 0.94978,	-0.054262
	 0.9467,	-0.089368
	 0.94232,	-0.12395
	 0.93666,	-0.15798
	 0.92978,	-0.19144
	 0.92171,	-0.22431
	 0.91249,	-0.25657
	 0.90214,	-0.2882
	 0.89071,	-0.31918
	 0.8782,	-0.34951
	 0.86465,	-0.37916
	 0.85008,	-0.40814
	 0.83448,	-0.43643
	 0.81786,	-0.46404
	 0.80022,	-0.49095
	 0.78151,	-0.51717
	 0.76169,	-0.5427
	 0.74063,	-0.56755
	 0.71816,	-0.5917
	 0.70628,	-0.6035
	 0.6939,	-0.61508
	 0.68091,	-0.6264
	 0.6672,	-0.63738
	 0.6526,	-0.64786
	 0.63693,	-0.65754
	 0.62003,	-0.66586
	 0.60207,	-0.67187
	 0.59125,	-0.67383
	 0.58083,	-0.67431
	 0.57147,	-0.6733
	 0.56393,	-0.67122
	 0.55774,	-0.66853
	 0.55469,	-0.66771
	 0.55301,	-0.67
	 0.55091,	-0.67515
	 0.54737,	-0.68217
	 0.5422,	-0.69004
	 0.53561,	-0.6981
	 0.52789,	-0.706
	 0.51005,	-0.72071
	 0.49015,	-0.73377
	 0.46891,	-0.74527
	 0.4467,	-0.75533
	 0.41898,	-0.76563
	 0.39024,	-0.77403
	 0.36052,	-0.78048
	 0.32985,	-0.78487
	 0.29825,	-0.787
	 0.26575,	-0.78659
	 0.23241,	-0.78331
	 0.19838,	-0.77671
	 0.18117,	-0.77201
	 0.16388,	-0.76626
	 0.14656,	-0.7594
	 0.12927,	-0.75134
	 0.11211,	-0.74196
	 0.095176,	-0.73119
	 0.078579,	-0.71893
	 0.062479,	-0.70506
	 0.047058,	-0.68949
	 0.032535,	-0.67215
	 0.019168,	-0.65297
	 0.0072557,	-0.63191
	-0.0028569,	-0.60897
	-0.010785,	-0.58422
	-0.016107,	-0.5578
	-0.018381,	-0.52993
	-0.018094,	-0.51265
	-0.016455,	-0.49507
	-0.013375,	-0.47729
	-0.0087769,	-0.45946
	-0.0025938,	-0.44171
	 0.0052234,	-0.42422
	 0.014704,	-0.40716
	 0.025853,	-0.39072
	 0.038648,	-0.3751
	 0.053038,	-0.36051
	 0.068939,	-0.34714
	 0.086235,	-0.3352
	 0.10477,	-0.32486
	 0.12439,	-0.31627
	 0.14487,	-0.30958
	 0.166,	-0.30487
	 0.18212,	-0.3027
	 0.19837,	-0.30169
	 0.21465,	-0.30187
	 0.23084,	-0.30321
	 0.24686,	-0.30569
	 0.26259,	-0.30929
	 0.27796,	-0.31396
	 0.29288,	-0.31964
	 0.30728,	-0.32629
	 0.32108,	-0.33384
	 0.33423,	-0.34222
	 0.34669,	-0.35134
	 0.3584,	-0.36115
	 0.36935,	-0.37156
	 0.37952,	-0.3825
	 0.38887,	-0.39388
	 0.40517,	-0.41773
	 0.41828,	-0.44255
	 0.42831,	-0.46788
	 0.43546,	-0.49329
	 0.43995,	-0.51846
	 0.44201,	-0.54311
	 0.44191,	-0.56705
	 0.43988,	-0.59012
	 0.43618,	-0.61223
	 0.43102,	-0.63331
	 0.4246,	-0.65332
	 0.4171,	-0.67225
	 0.4087,	-0.69012
	 0.39952,	-0.70695
	 0.38971,	-0.72277
	 0.37937,	-0.73761
	 0.35746,	-0.76456
	 0.33441,	-0.78814
	 0.31067,	-0.80873
	 0.28657,	-0.82666
END
BEGIN
	 0.999935262659108370364435813826 ,	 -0 
	 0.999935262659109369565157976467 ,	 -9.57803734762119329815277524176e-09 
	 0.999935262659102930271615150559 ,	 -9.57803735941731293479506348376e-08 
	 0.999935262658476098351911787177 ,	 -9.57803734482828850183011581976e-07 
	 0.999935262595806895191685725877 ,	 -9.57803734839487996843843120587e-06 
	 0.99993526255878206754346138041 ,	 -1.20580346130005205962376635398e-05 
	 0.999935262500101451621503656497 ,	 -1.51801661888890937479601461746e-05 
	 0.999935262407098846004771530716 ,	 -1.91106969668498188896776923684e-05 
	 0.999935262259699864095807697595 ,	 -2.40589420426404881903081900418e-05 
	 0.999935262026088733655626583641 ,	 -3.02884135055083228427186270437e-05 
	 0.999935261655839013883451116271 ,	 -3.81308534209276114856912442974e-05 
	 0.999935261069034075909200964816 ,	 -4.80039002951262311347235822723e-05 
	 0.999935260139009685076416644733 ,	 -6.04333298480875732994199722725e-05 
	 0.999935258665020310075988163589 ,	 -7.60810544676686351106553729551e-05 
	 0.999935256328905119893590836 ,	 -9.578037243165860026294922136e-05 
	 0.99993525262641191897472481287 ,	 -0.00012058034401981297667472148305 
