CITIFILE A.01.01
#Momentum: B.12.070 (*) built: Feb 13 2020 
#Momentum Date and Time: Mon Aug 15 02:27:54 2022

NAME Momentum.SP

#  mode: MW    reference: S_50

#eesof Port[1] P1
#eesof Port[2] P2

CONSTANT NBR_OF_PORTS 2

CONSTANT NORMALIZATION 1

VAR freq MAG 496

DATA S[1,1] RI
DATA S[1,2] RI
DATA S[2,1] RI
DATA S[2,2] RI
DATA PORTZ[1] RI
DATA PORTZ[2] RI

VAR_LIST_BEGIN
	 0
	 9.193613824
	 91.93613824
	 919.3613824
	 9193.613824
	 11574.07407
	 14570.89596
	 18343.6712
	 23093.31382
	 29072.75961
	 36600.43586
	 46077.21879
	 58007.78164
	 73027.47039
	 91936.13824
	 115740.7407
	 145708.9596
	 183436.712
	 230933.1382
	 290727.5961
	 366004.3586
	 460772.1879
	 580077.8164
	 730274.7039
	 919361.3824
	 1157407.407
	 1457089.596
	 1834367.12
	 2309331.382
	 2907275.961
	 3660043.586
	 4607721.879
	 5800778.164
	 7302747.039
	 9193613.824
	 11574074.07
	 13086226.15
	 14605494.08
	 18387227.65
	 23148148.14
	 28361316.7
	 34722222.21
	 40243571.59
	 46296296.27
	 57870370.34
	 69444444.41
	 81018518.48
	 92592592.55
	 104166666.6
	 115740740.7
	 127314814.8
	 138888888.8
	 150462962.9
	 162037037
	 173611111
	 185185185.1
	 208333333.2
	 231481481.4
	 254629629.5
	 277777777.6
	 289351851.7
	 300925925.8
	 312499999.9
	 324074073.9
	 335648148
	 347222222.1
	 358796296.1
	 370370370.2
	 381944444.3
	 393518518.3
	 405092592.4
	 416666666.5
	 428240740.5
	 439814814.6
	 451388888.7
	 462962962.8
	 474537036.8
	 486111110.9
	 497685185
	 509259259
	 520833333.1
	 532407407.2
	 543981481.2
	 555555555.3
	 572916666.4
	 590277777.5
	 607638888.6
	 624999999.7
	 642361110.8
	 659722221.9
	 677083333
	 694444444.1
	 711805555.3
	 729166666.4
	 746527777.5
	 763888888.6
	 781249999.7
	 798611110.8
	 815972221.9
	 833333333
	 859374999.7
	 885416666.4
	 911458333.1
	 937499999.8
	 963541666.4
	 989583333.1
	 1015625000
	 1041666666
	 1067708333
	 1093750000
	 1119791667
	 1145833333
	 1171875000
	 1197916667
	 1223958333
	 1250000000
	 1276041667
	 1302083333
	 1328125000
	 1354166666
	 1380208333
	 1406250000
	 1432291666
	 1458333333
	 1484375000
	 1510416666
	 1536458333
	 1562500000
	 1588541666
	 1614583333
	 1640624999
	 1666666666
	 1692708333
	 1718749999
	 1744791666
	 1770833333
	 1796874999
	 1822916666
	 1848958333
	 1874999999
	 1901041666
	 1927083333
	 1953124999
	 1979166666
	 2005208333
	 2031249999
	 2057291666
	 2083333333
	 2135416666
	 2187499999
	 2239583333
	 2291666666
	 2343749999
	 2395833333
	 2447916666
	 2500000000
	 2552083333
	 2604166666
	 2656250000
	 2708333333
	 2760416666
	 2812500000
	 2864583333
	 2916666666
	 2968750000
	 3020833333
	 3072916666
	 3125000000
	 3177083333
	 3229166666
	 3281250000
	 3333333333
	 3385416666
	 3437500000
	 3489583333
	 3541666666
	 3593750000
	 3645833333
	 3697916666
	 3750000000
	 3802083333
	 3854166666
	 3906250000
	 3958333333
	 4010416666
	 4062500000
	 4114583333
	 4166666666
	 4218750000
	 4270833333
	 4322916667
	 4375000000
	 4427083333
	 4479166667
	 4531250000
	 4583333333
	 4635416667
	 4687500000
	 4739583333
	 4791666667
	 4843750000
	 4895833333
	 4947916667
	 5000000000
	 5026041667
	 5052083333
	 5078125000
	 5104166667
	 5130208333
	 5156250000
	 5182291667
	 5208333334
	 5234375000
	 5260416667
	 5286458334
	 5312500000
	 5338541667
	 5364583334
	 5390625000
	 5416666667
	 5442708334
	 5468750000
	 5494791667
	 5520833334
	 5546875000
	 5572916667
	 5598958334
	 5625000000
	 5651041667
	 5677083334
	 5703125001
	 5729166667
	 5755208334
	 5781250001
	 5807291667
	 5833333334
	 5859375001
	 5885416667
	 5911458334
	 5937500001
	 5963541667
	 5989583334
	 6015625001
	 6041666667
	 6067708334
	 6093750001
	 6119791667
	 6145833334
	 6158854167
	 6171875001
	 6184895834
	 6197916667
	 6210937501
	 6223958334
	 6236979167
	 6250000000
	 6263020834
	 6276041667
	 6289062500
	 6302083334
	 6315104167
	 6328125000
	 6341145834
	 6354166667
	 6367187500
	 6380208334
	 6393229167
	 6406250000
	 6419270834
	 6432291667
	 6445312500
	 6458333334
	 6471354167
	 6484375000
	 6497395834
	 6510416667
	 6523437500
	 6536458334
	 6549479167
	 6562500000
	 6575520834
	 6588541667
	 6601562500
	 6614583334
	 6627604167
	 6640625000
	 6653645834
	 6666666667
	 6679687500
	 6692708334
	 6705729167
	 6718750000
	 6731770834
	 6744791667
	 6757812500
	 6770833334
	 6783854167
	 6796875000
	 6809895834
	 6822916667
	 6835937500
	 6848958334
	 6861979167
	 6875000000
	 6888020834
	 6901041667
	 6914062500
	 6927083334
	 6940104167
	 6953125000
	 6966145834
	 6979166667
	 6992187500
	 7005208334
	 7018229167
	 7031250000
	 7044270834
	 7057291667
	 7070312500
	 7083333334
	 7096354167
	 7109375000
	 7122395833
	 7135416667
	 7148437500
	 7161458333
	 7174479167
	 7187500000
	 7200520833
	 7213541667
	 7226562500
	 7239583333
	 7252604167
	 7265625000
	 7278645833
	 7291666667
	 7304687500
	 7317708333
	 7330729167
	 7343750000
	 7356770833
	 7369791667
	 7382812500
	 7395833333
	 7408854167
	 7421875000
	 7434895833
	 7447916667
	 7460937500
	 7473958333
	 7486979167
	 7500000000
	 7513020833
	 7526041667
	 7539062500
	 7552083333
	 7565104167
	 7578125000
	 7591145833
	 7604166667
	 7617187500
	 7630208333
	 7643229167
	 7656250000
	 7669270833
	 7682291667
	 7695312500
	 7708333334
	 7734375000
	 7760416667
	 7786458334
	 7812500000
	 7838541667
	 7864583334
	 7890625000
	 7916666667
	 7942708334
	 7968750000
	 7994791667
	 8020833334
	 8046875000
	 8072916667
	 8098958334
	 8125000000
	 8151041667
	 8177083334
	 8203125001
	 8229166667
	 8255208334
	 8281250001
	 8307291667
	 8333333334
	 8350694445
	 8368055556
	 8385416667
	 8402777778
	 8420138890
	 8437500001
	 8454861112
	 8472222223
	 8489583334
	 8506944445
	 8524305556
	 8541666668
	 8550347223
	 8559027779
	 8567708334
	 8576388890
	 8585069445
	 8593750001
	 8602430556
	 8611111112
	 8616898149
	 8622685186
	 8628472223
	 8634259260
	 8640046297
	 8645833334
	 8651620371
	 8657407408
	 8660300926
	 8663194445
	 8666087964
	 8668981482
	 8671875000
	 8674768519
	 8677662038
	 8680555556
	 8683449074
	 8686342593
	 8689236112
	 8692129630
	 8695023148
	 8697916667
	 8700810186
	 8703703704
	 8707320602
	 8710937500
	 8714554398
	 8718171297
	 8721788195
	 8725405093
	 8729021991
	 8732638889
	 8736255787
	 8739872685
	 8743489584
	 8747106482
	 8750723380
	 8754340278
	 8757957176
	 8761574074
	 8768807871
	 8776041667
	 8783275463
	 8790509260
	 8797743056
	 8804976852
	 8812210648
	 8819444445
	 8826678241
	 8833912037
	 8841145834
	 8848379630
	 8855613426
	 8862847223
	 8870081019
	 8877314815
	 8891782408
	 8906250000
	 8920717593
	 8935185186
	 8964120371
	 8993055556
	 9021990741
	 9050925926
	 9079861111
	 9108796297
	 9137731482
	 9166666667
	 9218750000
	 9270833334
	 9322916667
	 9375000000
	 9427083334
	 9479166667
	 9531250000
	 9583333334
	 9635416667
	 9687500000
	 9739583333
	 9791666667
	 9843750000
	 9895833333
	 9947916667
	 1e+10
VAR_LIST_END

BEGIN
	 0.999999999999998445687765524781 ,	 -0 
	 1.00000000000000266453525910038 ,	 -2.48780102074519504640193190426e-09 
	 1.00000000000000222044604925031 ,	 -2.48780117062530337079806486145e-08 
	 0.999999999999947930540145080158 ,	 -2.4878011400941701936062599998e-07 
	 0.999999999994682364778952887718 ,	 -2.48780114098234861330638523214e-06 
	 0.999999999991570409640928573936 ,	 -3.1319560755971309617962106131e-06 
	 0.999999999986639354077055941161 ,	 -3.9428990925016726976082281908e-06 
	 0.999999999978823383983694839117 ,	 -4.96381586267968799575101002119e-06 
	 0.999999999966436070586439655017 ,	 -6.24907392798856875515411957167e-06 
	 0.999999999946802553552060999209 ,	 -7.86711796690875431181666499469e-06 
	 0.999999999915687665108521287038 ,	 -9.9041147228473569441575818928e-06 
	 0.999999999866371669376974296028 ,	 -1.24685417002279308462675544433e-05 
	 0.999999999788212190487968200614 ,	 -1.56969639813486772084161202656e-05 
	 0.999999999664337502203181884397 ,	 -1.97613068202984187848869623849e-05 
	 0.999999999468008660130635689711 ,	 -2.48780112761526339681950048544e-05 
	 0.999999999156850893911041566753 ,	 -3.13195604914051628497873025481e-05 
	 0.999999998663697931000626795139 ,	 -3.94289903926092755170884629479e-05 
	 0.999999997882102920065960915963 ,	 -4.9638157573472785344392832485e-05 
	 0.999999996643358479708751929138 ,	 -6.24907371805094591366014356026e-05 
	 0.999999994680084935971819959377 ,	 -7.86711754746094449330939823994e-05 
	 0.999999991568508495021205817466 ,	 -9.90411388597789432708395906957e-05 
	 0.999999986637003956957414629869 ,	 -0.000124685400299306969884582940722 
	 0.999999978821126123129658935795 ,	 -0.000156969606495693803083213424543 
	 0.99999996643386812600340363133 ,	 -0.00019761300171522444557581366098 
	 0.99999994680156878423815669521 ,	 -0.000248779980115076959634734521387 
	 0.999999915686935914038713235641 ,	 -0.000313195340259864174470294528874 
	 0.999999866374725154827274309355 ,	 -0.000394289375883982717851949928445 
	 0.999999788223052354929620832991 ,	 -0.000496380522220007946998521219939 
	 0.999999664368314888918121141614 ,	 -0.000624905269960007725416062385193 
	 0.99999946809016571069861356591 ,	 -0.000786707561635291430235383813852 
	 0.999999157056399634591059566446 ,	 -0.000990403024215880112279819513788 
	 0.999998664216910637669855077547 ,	 -0.00124683732004393643677531144931 
	 0.999997883409496135520555526455 ,	 -0.00156966279768377958703240437899 
	 0.999996646641508446506918517116 ,	 -0.00197606370204145287416963583382 
	 0.999994688320251512436698249076 ,	 -0.00248766768014313521817371110956 
	 0.999991589149251791646122455859 ,	 -0.0031316904008423795957583024574 
	 0.999989255118826525503550328722 ,	 -0.00354076261119823376688486860075 
	 0.999986625612216184499914106709 ,	 -0.00395172947029226451221006755077 
	 0.999978850620692472084272139909 ,	 -0.00497454710435230040843634924386 
	 0.99996659820580480193541461631 ,	 -0.00626182583709999907028986854129 
	 0.999950094005977896394199433416 ,	 -0.00767081014362641644410700791923 
	 0.999925706998411545356475471635 ,	 -0.00938903578026656360222546027217 
	 0.999900880629817523370661547233 ,	 -0.0108795043172518757224054297694 
	 0.999869913693774869933861282334 ,	 -0.0125122721986906104696402053378 
	 0.999800377621120506255181226152 ,	 -0.0156308738732741647758928138501 
	 0.999718267123268056195684039267 ,	 -0.0187445564091816008200908072467 
	 0.999624643157290160289107916469 ,	 -0.0218533483516713533667541469185 
	 0.999520390871380781661059700127 ,	 -0.0249575017801965670649622097699 
	 0.999406195557360987891115655657 ,	 -0.0280574021153494057578825504606 
	 0.999282550838649474833630392823 ,	 -0.0311534925653616512342125588475 
	 0.99914978531141140916105314318 ,	 -0.03424621925080739703872723112 
	 0.999008096336448381258321660425 ,	 -0.0373359964838622659932809710881 
	 0.998857583519554892426128844818 ,	 -0.0404231883755087340048817168281 
	 0.998698277915126553239133500028 ,	 -0.043508102065824616477840436346 
	 0.998530165486389953422019516438 ,	 -0.04659098833867320044177517957 
	 0.99835320484268452734255561154 ,	 -0.0496720463622611352327851363953 
	 0.997972509130592100312640013726 ,	 -0.0558292564528125589973228670715 
	 0.997555705064063880094238356833 ,	 -0.0619805507330731808579571406881 
	 0.997102349161463341609135113686 ,	 -0.0681263390826299386482389763842 
	 0.996612093694812406496907897235 ,	 -0.0742667746367938197415980994265 
	 0.996353047743748110320893829339 ,	 -0.0773349887623090426203020797402 
	 0.996084691326745708117584854335 ,	 -0.080401856036374730329896465264 
	 0.995807006877374889519671796734 ,	 -0.083467362687098423101872413099 
	 0.9955199810455992448510187387 ,	 -0.0865314918603573568489650824631 
	 0.99522360412581589717007091167 ,	 -0.0895942243917731695468376074132 
	 0.994917869531716902997686702292 ,	 -0.0926555393855645337275461770332 
	 0.994602773325584110786223845935 ,	 -0.0957154146435515995605669559154 
	 0.994278313804007218834613013314 ,	 -0.0987738269788667189175157545833 
	 0.99394449113849436816536808692 ,	 -0.101830752441714356137936192681 
	 0.993601307067474293077680158603 ,	 -0.104886166478676490232402329639 
	 0.993248764635044079085446355748 ,	 -0.107940044042349025943394735805 
	 0.992886867971466746674025216635 ,	 -0.11099235966435733180546208132 
	 0.992515622110329398530836897407 ,	 -0.114043087501801754246599784892 
	 0.992135032837511032788313514175 ,	 -0.117092201364841996813481728168 
	 0.991745106567464840274794823927 ,	 -0.120139674731281675956751087142 
	 0.991345850242697612664244388725 ,	 -0.123185480752560749806434614584 
	 0.990937271252824936063063887559 ,	 -0.126229592254460176725672226894 
	 0.990519377369971865121556220402 ,	 -0.12927198173489790056223114334 
	 0.990092176697741299662425262795 ,	 -0.132312621360600124464923510459 
	 0.98965,	-0.13535
	 0.9892,	-0.13838
	 0.98875,	-0.14142
	 0.98829,	-0.14445
	 0.98781,	-0.14748
	 0.98708,	-0.15203
	 0.98634,	-0.15657
	 0.98557,	-0.1611
	 0.98478,	-0.16563
	 0.98397,	-0.17016
	 0.98313,	-0.17468
	 0.98228,	-0.17919
	 0.98141,	-0.1837
	 0.98052,	-0.18821
	 0.9796,	-0.19271
	 0.97867,	-0.1972
	 0.97771,	-0.20169
	 0.97674,	-0.20617
	 0.97575,	-0.21065
	 0.97473,	-0.21512
	 0.97369,	-0.21959
	 0.9721,	-0.22628
	 0.97047,	-0.23295
	 0.96878,	-0.23961
	 0.96706,	-0.24625
	 0.96529,	-0.25288
	 0.96347,	-0.25949
	 0.96161,	-0.26609
	 0.95971,	-0.27267
	 0.95776,	-0.27923
	 0.95577,	-0.28578
	 0.95373,	-0.29231
	 0.95165,	-0.29882
	 0.94953,	-0.30531
	 0.94736,	-0.31179
	 0.94515,	-0.31825
	 0.9429,	-0.32468
	 0.9406,	-0.3311
	 0.93827,	-0.3375
	 0.93589,	-0.34388
	 0.93347,	-0.35023
	 0.931,	-0.35657
	 0.9285,	-0.36288
	 0.92595,	-0.36918
	 0.92337,	-0.37545
	 0.92074,	-0.3817
	 0.91807,	-0.38793
	 0.91536,	-0.39413
	 0.91261,	-0.40032
	 0.90983,	-0.40647
	 0.907,	-0.41261
	 0.90413,	-0.41872
	 0.90122,	-0.42481
	 0.89827,	-0.43087
	 0.89529,	-0.43691
	 0.89226,	-0.44293
	 0.8892,	-0.44892
	 0.8861,	-0.45488
	 0.88296,	-0.46082
	 0.87979,	-0.46673
	 0.87657,	-0.47262
	 0.87332,	-0.47848
	 0.87003,	-0.48432
	 0.86671,	-0.49012
	 0.86335,	-0.4959
	 0.85995,	-0.50166
	 0.85652,	-0.50738
	 0.85305,	-0.51308
	 0.84955,	-0.51875
	 0.84243,	-0.53001
	 0.83518,	-0.54115
	 0.8278,	-0.55217
	 0.82027,	-0.56308
	 0.81262,	-0.57387
	 0.80484,	-0.58453
	 0.79693,	-0.59508
	 0.78889,	-0.6055
	 0.78073,	-0.61579
	 0.77245,	-0.62596
	 0.76405,	-0.63599
	 0.75553,	-0.6459
	 0.7469,	-0.65568
	 0.73816,	-0.66532
	 0.72931,	-0.67483
	 0.72035,	-0.68421
	 0.71129,	-0.69345
	 0.70212,	-0.70255
	 0.69286,	-0.71151
	 0.6835,	-0.72034
	 0.67404,	-0.72902
	 0.66449,	-0.73757
	 0.65485,	-0.74597
	 0.64514,	-0.75422
	 0.63535,	-0.76236
	 0.62542,	-0.7704
	 0.61539,	-0.77821
	 0.60532,	-0.78587
	 0.59518,	-0.7934
	 0.58497,	-0.80079
	 0.57468,	-0.80803
	 0.56433,	-0.81512
	 0.55391,	-0.82206
	 0.54342,	-0.82886
	 0.53287,	-0.83551
	 0.52226,	-0.84201
	 0.51159,	-0.84836
	 0.50087,	-0.85456
	 0.49009,	-0.86061
	 0.47926,	-0.86651
	 0.46838,	-0.87226
	 0.45746,	-0.87786
	 0.44649,	-0.88331
	 0.43548,	-0.88861
	 0.42443,	-0.89375
	 0.41334,	-0.89875
	 0.40221,	-0.9036
	 0.39105,	-0.9083
	 0.37986,	-0.91285
	 0.36864,	-0.91724
	 0.3574,	-0.92149
	 0.34613,	-0.92559
	 0.33483,	-0.92954
	 0.32352,	-0.93334
	 0.31218,	-0.937
	 0.30083,	-0.9405
	 0.29515,	-0.9422
	 0.28946,	-0.94386
	 0.28378,	-0.94548
	 0.27808,	-0.94707
	 0.27239,	-0.94862
	 0.26669,	-0.95013
	 0.261,	-0.95161
	 0.25529,	-0.95305
	 0.24959,	-0.95445
	 0.24389,	-0.95582
	 0.23818,	-0.95715
	 0.23248,	-0.95844
	 0.22677,	-0.9597
	 0.22106,	-0.96092
	 0.21535,	-0.96211
	 0.20964,	-0.96325
	 0.20393,	-0.96437
	 0.19822,	-0.96545
	 0.19252,	-0.96649
	 0.18681,	-0.96749
	 0.1811,	-0.96846
	 0.1754,	-0.9694
	 0.16969,	-0.9703
	 0.16399,	-0.97116
	 0.15829,	-0.97199
	 0.15259,	-0.97279
	 0.14689,	-0.97354
	 0.1412,	-0.97427
	 0.13551,	-0.97496
	 0.12982,	-0.97561
	 0.12413,	-0.97623
	 0.11845,	-0.97681
	 0.11277,	-0.97736
	 0.1071,	-0.97787
	 0.10142,	-0.97835
	 0.095762,	-0.9788
	 0.090098,	-0.97921
	 0.08444,	-0.97959
	 0.078785,	-0.97993
	 0.073136,	-0.98024
	 0.067492,	-0.98052
	 0.061852,	-0.98076
	 0.056218,	-0.98096
	 0.05059,	-0.98114
	 0.047778,	-0.98121
	 0.044968,	-0.98128
	 0.042159,	-0.98134
	 0.039351,	-0.98139
	 0.036545,	-0.98143
	 0.033741,	-0.98146
	 0.030938,	-0.98148
	 0.028136,	-0.9815
	 0.025337,	-0.98151
	 0.022539,	-0.98151
	 0.019742,	-0.9815
	 0.016948,	-0.98148
	 0.014155,	-0.98146
	 0.011364,	-0.98142
	 0.0085742,	-0.98138
	 0.0057865,	-0.98133
	 0.0030006,	-0.98128
	 0.00021655,	-0.98121
	-0.0025657,	-0.98114
	-0.005346,	-0.98105
	-0.0081245,	-0.98096
	-0.010901,	-0.98086
	-0.013676,	-0.98076
	-0.016448,	-0.98064
	-0.019219,	-0.98052
	-0.021988,	-0.98039
	-0.024755,	-0.98025
	-0.027519,	-0.9801
	-0.030282,	-0.97995
	-0.033043,	-0.97979
	-0.035801,	-0.97962
	-0.038558,	-0.97944
	-0.041312,	-0.97925
	-0.044064,	-0.97906
	-0.046814,	-0.97885
	-0.049562,	-0.97864
	-0.052307,	-0.97842
	-0.05505,	-0.9782
	-0.057791,	-0.97796
	-0.06053,	-0.97772
	-0.063267,	-0.97747
	-0.066001,	-0.97721
	-0.068733,	-0.97695
	-0.071462,	-0.97668
	-0.074189,	-0.9764
	-0.076914,	-0.97611
	-0.079636,	-0.97581
	-0.082356,	-0.97551
	-0.085073,	-0.97519
	-0.087788,	-0.97487
	-0.090501,	-0.97455
	-0.093211,	-0.97421
	-0.095918,	-0.97387
	-0.098623,	-0.97352
	-0.10132,	-0.97316
	-0.10402,	-0.97279
	-0.10672,	-0.97242
	-0.10941,	-0.97204
	-0.1121,	-0.97165
	-0.11479,	-0.97126
	-0.11748,	-0.97085
	-0.12016,	-0.97044
	-0.12285,	-0.97002
	-0.12552,	-0.9696
	-0.1282,	-0.96916
	-0.13087,	-0.96872
	-0.13354,	-0.96827
	-0.13621,	-0.96782
	-0.13888,	-0.96735
	-0.14154,	-0.96688
	-0.1442,	-0.9664
	-0.14685,	-0.96592
	-0.14951,	-0.96542
	-0.15216,	-0.96492
	-0.1548,	-0.96441
	-0.15745,	-0.9639
	-0.16009,	-0.96338
	-0.16273,	-0.96285
	-0.16536,	-0.96231
	-0.168,	-0.96177
	-0.17063,	-0.96121
	-0.17325,	-0.96065
	-0.17588,	-0.96009
	-0.1785,	-0.95951
	-0.18111,	-0.95893
	-0.18373,	-0.95835
	-0.18634,	-0.95775
	-0.18895,	-0.95715
	-0.19155,	-0.95654
	-0.19416,	-0.95592
	-0.19675,	-0.9553
	-0.19935,	-0.95467
	-0.20194,	-0.95403
	-0.20453,	-0.95339
	-0.20712,	-0.95273
	-0.2097,	-0.95208
	-0.21228,	-0.95141
	-0.21486,	-0.95074
	-0.21743,	-0.95006
	-0.22,	-0.94937
	-0.22256,	-0.94868
	-0.22513,	-0.94797
	-0.22769,	-0.94727
	-0.23024,	-0.94655
	-0.2328,	-0.94583
	-0.23535,	-0.9451
	-0.23789,	-0.94437
	-0.24043,	-0.94362
	-0.24297,	-0.94287
	-0.24551,	-0.94212
	-0.24804,	-0.94136
	-0.25057,	-0.94059
	-0.2531,	-0.93981
	-0.25562,	-0.93903
	-0.25814,	-0.93824
	-0.26065,	-0.93744
	-0.26316,	-0.93664
	-0.26567,	-0.93583
	-0.26818,	-0.93501
	-0.27068,	-0.93419
	-0.27567,	-0.93252
	-0.28064,	-0.93082
	-0.2856,	-0.9291
	-0.29055,	-0.92736
	-0.29548,	-0.92558
	-0.3004,	-0.92379
	-0.30531,	-0.92196
	-0.31019,	-0.92011
	-0.31507,	-0.91823
	-0.31992,	-0.91633
	-0.32477,	-0.9144
	-0.32959,	-0.91245
	-0.33441,	-0.91047
	-0.3392,	-0.90846
	-0.34399,	-0.90643
	-0.34875,	-0.90438
	-0.3535,	-0.9023
	-0.35824,	-0.9002
	-0.36296,	-0.89807
	-0.36766,	-0.89591
	-0.37235,	-0.89373
	-0.37703,	-0.89153
	-0.38169,	-0.8893
	-0.38633,	-0.88704
	-0.38942,	-0.88552
	-0.3925,	-0.88399
	-0.39558,	-0.88245
	-0.39865,	-0.8809
	-0.40171,	-0.87933
	-0.40477,	-0.87776
	-0.40782,	-0.87617
	-0.41087,	-0.87456
	-0.41391,	-0.87294
	-0.41695,	-0.87131
	-0.41998,	-0.86966
	-0.42301,	-0.86798
	-0.42452,	-0.86714
	-0.42603,	-0.86629
	-0.42754,	-0.86543
	-0.42905,	-0.86457
	-0.43055,	-0.8637
	-0.43205,	-0.86282
	-0.43355,	-0.86192
	-0.43504,	-0.86102
	-0.43603,	-0.86042
	-0.43701,	-0.8598
	-0.43799,	-0.85919
	-0.43896,	-0.85857
	-0.43993,	-0.85794
	-0.44088,	-0.85731
	-0.44183,	-0.85667
	-0.44277,	-0.85604
	-0.44323,	-0.85572
	-0.44369,	-0.8554
	-0.44415,	-0.85509
	-0.44461,	-0.85477
	-0.44506,	-0.85446
	-0.44551,	-0.85414
	-0.44595,	-0.85383
	-0.44639,	-0.85352
	-0.44683,	-0.85322
	-0.44727,	-0.85291
	-0.44771,	-0.85261
	-0.44814,	-0.85231
	-0.44857,	-0.85202
	-0.449,	-0.85173
	-0.44944,	-0.85145
	-0.44987,	-0.85116
	-0.45041,	-0.85082
	-0.45095,	-0.85047
	-0.45149,	-0.85014
	-0.45204,	-0.8498
	-0.45259,	-0.84948
