CITIFILE A.01.01
#Momentum: B.12.070 (*) built: Feb 13 2020 
#Momentum Date and Time: Tue Aug 16 05:48:50 2022

NAME Momentum.SP

#  mode: MW    reference: S_50

#eesof Port[1] P1
#eesof Port[2] P2

CONSTANT NBR_OF_PORTS 2

CONSTANT NORMALIZATION 1

VAR freq MAG 414

DATA S[1,1] RI
DATA S[1,2] RI
DATA S[2,1] RI
DATA S[2,2] RI
DATA PORTZ[1] RI
DATA PORTZ[2] RI

VAR_LIST_BEGIN
	 0
	 8.701167248
	 87.01167248
	 870.1167248
	 8701.167248
	 10954.12056
	 13790.42074
	 17361.11111
	 21856.34395
	 27515.50681
	 34639.97074
	 43609.13942
	 54900.65381
	 69115.8282
	 87011.67248
	 109541.2056
	 137904.2074
	 173611.1111
	 218563.4395
	 275155.0681
	 346399.7074
	 436091.3942
	 549006.5381
	 691158.282
	 870116.7248
	 1095412.056
	 1379042.074
	 1736111.111
	 2185634.395
	 2751550.681
	 3463997.074
	 4360913.942
	 5490065.381
	 6911582.82
	 8701167.248
	 10954120.56
	 13790420.74
	 17361111.11
	 19629339.22
	 21908241.12
	 27580841.48
	 34722222.21
	 42541975.06
	 52083333.32
	 60365357.4
	 69444444.42
	 86805555.53
	 104166666.6
	 121527777.7
	 138888888.8
	 156250000
	 173611111.1
	 190972222.2
	 208333333.3
	 225694444.4
	 243055555.5
	 260416666.6
	 277777777.7
	 295138888.8
	 312499999.9
	 329861111
	 347222222.1
	 364583333.2
	 381944444.3
	 399305555.4
	 416666666.5
	 434027777.6
	 451388888.7
	 468749999.8
	 486111110.9
	 503472222
	 520833333.1
	 538194444.2
	 555555555.4
	 572916666.5
	 590277777.6
	 607638888.7
	 624999999.8
	 642361110.9
	 659722222
	 677083333.1
	 694444444.2
	 711805555.3
	 729166666.4
	 746527777.5
	 763888888.6
	 781249999.7
	 798611110.8
	 815972221.9
	 833333333
	 846354166.3
	 859374999.7
	 872395833
	 885416666.3
	 898437499.6
	 911458333
	 924479166.3
	 937499999.6
	 950520833
	 963541666.3
	 976562499.6
	 989583332.9
	 1002604166
	 1015625000
	 1028645833
	 1041666666
	 1054687500
	 1067708333
	 1080729166
	 1093750000
	 1106770833
	 1119791666
	 1132812500
	 1145833333
	 1158854166
	 1171875000
	 1184895833
	 1197916666
	 1210937500
	 1223958333
	 1236979166
	 1250000000
	 1276041666
	 1302083333
	 1328124999
	 1354166666
	 1380208333
	 1406249999
	 1432291666
	 1458333333
	 1484374999
	 1510416666
	 1536458333
	 1562499999
	 1588541666
	 1614583333
	 1640624999
	 1666666666
	 1684027777
	 1701388888
	 1718749999
	 1736111110
	 1753472222
	 1770833333
	 1788194444
	 1805555555
	 1840277777
	 1875000000
	 1909722222
	 1944444444
	 1979166666
	 2013888888
	 2048611111
	 2083333333
	 2118055555
	 2152777778
	 2187500000
	 2222222222
	 2256944444
	 2291666666
	 2326388889
	 2361111111
	 2395833333
	 2430555555
	 2465277778
	 2500000000
	 2534722222
	 2569444444
	 2604166666
	 2638888889
	 2673611111
	 2708333333
	 2743055555
	 2777777778
	 2812500000
	 2847222222
	 2881944444
	 2916666666
	 2951388889
	 2986111111
	 3020833333
	 3055555555
	 3090277777
	 3125000000
	 3159722222
	 3194444444
	 3229166666
	 3263888889
	 3298611111
	 3333333333
	 3385416666
	 3437500000
	 3489583333
	 3541666666
	 3593750000
	 3645833333
	 3697916666
	 3750000000
	 3776041666
	 3802083333
	 3828125000
	 3854166666
	 3880208333
	 3906250000
	 3932291666
	 3958333333
	 3984375000
	 4010416666
	 4036458333
	 4062500000
	 4088541666
	 4114583333
	 4140625000
	 4166666666
	 4218750000
	 4270833333
	 4322916667
	 4375000000
	 4427083333
	 4479166667
	 4531250000
	 4583333333
	 4635416667
	 4687500000
	 4739583333
	 4791666667
	 4843750000
	 4895833333
	 4947916667
	 5000000000
	 5052083333
	 5104166667
	 5156250000
	 5208333333
	 5260416667
	 5312500000
	 5364583333
	 5416666667
	 5468750000
	 5520833333
	 5572916667
	 5625000000
	 5677083333
	 5729166667
	 5781250000
	 5833333334
	 5885416667
	 5937500000
	 5989583334
	 6041666667
	 6093750000
	 6145833334
	 6197916667
	 6250000000
	 6302083334
	 6354166667
	 6406250000
	 6458333334
	 6484375000
	 6510416667
	 6536458334
	 6562500000
	 6588541667
	 6614583334
	 6640625000
	 6666666667
	 6678240741
	 6689814815
	 6701388889
	 6712962963
	 6724537037
	 6736111111
	 6747685185
	 6759259260
	 6765046297
	 6770833334
	 6776620371
	 6782407408
	 6788194445
	 6793981482
	 6799768519
	 6805555556
	 6811342593
	 6817129630
	 6822916667
	 6828703704
	 6834490741
	 6840277778
	 6846064815
	 6851851852
	 6855709877
	 6859567901
	 6863425926
	 6867283951
	 6871141975
	 6875000000
	 6878858025
	 6882716050
	 6886574074
	 6890432099
	 6894290124
	 6898148148
	 6902006173
	 6905864198
	 6909722222
	 6913580247
	 6918402778
	 6923225309
	 6928047840
	 6932870370
	 6937692901
	 6942515432
	 6947337963
	 6952160494
	 6961805556
	 6971450618
	 6981095679
	 6990740741
	 7000385803
	 7010030864
	 7019675926
	 7029320988
	 7038966050
	 7048611112
	 7058256173
	 7067901235
	 7087191358
	 7106481482
	 7125771606
	 7145061729
	 7164351852
	 7183641976
	 7202932100
	 7222222223
	 7256944445
	 7291666667
	 7326388890
	 7361111112
	 7395833334
	 7430555556
	 7465277779
	 7500000001
	 7534722223
	 7569444445
	 7604166667
	 7638888890
	 7673611112
	 7708333334
	 7743055556
	 7777777778
	 7812500001
	 7847222223
	 7881944445
	 7916666667
	 7951388890
	 7986111112
	 8020833334
	 8055555556
	 8090277778
	 8125000001
	 8159722223
	 8194444445
	 8229166667
	 8263888890
	 8298611112
	 8333333334
	 8368055556
	 8402777778
	 8437500001
	 8472222223
	 8506944445
	 8541666667
	 8576388890
	 8611111112
	 8645833334
	 8680555556
	 8715277778
	 8750000001
	 8784722223
	 8819444445
	 8854166667
	 8888888890
	 8923611112
	 8958333334
	 8993055556
	 9027777778
	 9062500001
	 9097222223
	 9131944445
	 9166666667
	 9201388889
	 9236111112
	 9270833334
	 9305555556
	 9340277778
	 9375000001
	 9409722223
	 9444444445
	 9479166667
	 9513888889
	 9548611112
	 9583333334
	 9618055556
	 9652777778
	 9687500000
	 9722222222
	 9756944445
	 9791666667
	 9826388889
	 9861111111
	 9895833333
	 9930555556
	 9965277778
	 1e+10
VAR_LIST_END

BEGIN
	 4.46468193000000009929353894655e-05 ,	 -0 
	 4.46468193000000009929353894655e-05 ,	 -2.65270757000000016999725794967e-09 
	 4.46468193000000009929353894655e-05 ,	 -2.65270746000000005221435640844e-08 
	 4.46468190999999977263378025949e-05 ,	 -2.65270749000000009486471917036e-07 
	 4.4646797399999999054337473936e-05 ,	 -2.65270748999999988310648235679e-06 
	 4.46467846000000000562628332812e-05 ,	 -3.33956086999999990122707516083e-06 
	 4.46467644000000021668218830317e-05 ,	 -4.20425803999999996577374358764e-06 
	 4.46467321999999980169059055068e-05 ,	 -5.29284727999999994412210629902e-06 
	 4.46466812999999967601083561419e-05 ,	 -6.66329995000000025221712635082e-06 
	 4.46466005999999966712479815278e-05 ,	 -8.3885976300000005424079008165e-06 
	 4.46464726999999981594050013634e-05 ,	 -1.0560618700000000655153838125e-05 
	 4.46462698999999994223415733519e-05 ,	 -1.32950313000000002253142561415e-05 
	 4.46459485999999998494594533049e-05 ,	 -1.67374527000000002054016373654e-05 
	 4.46454392999999993222465244358e-05 ,	 -2.10712045000000014526118224945e-05 
	 4.46446321000000019433087694587e-05 ,	 -2.65270748000000005858978191497e-05 
	 4.46433529e-05 ,	 -3.33956084e-05 
	 4.46413254e-05 ,	 -4.20425799e-05 
	 4.46381121e-05 ,	 -5.29284719e-05 
	 4.46330193e-05 ,	 -6.66329975e-05 
	 4.46249478e-05 ,	 -8.38859724e-05 
	 4.46121553e-05 ,	 -0.000105606179 
	 4.45918806e-05 ,	 -0.000132950297 
	 4.45597473e-05 ,	 -0.000167374496 
	 4.45088195e-05 ,	 -0.000210711984 
	 4.44281044e-05 ,	 -0.000265270626 
	 4.43001796e-05 ,	 -0.000333955841 
	 4.40974326e-05 ,	 -0.000420425314 
	 4.37761006e-05 ,	 -0.00052928375 
	 4.32668244e-05 ,	 -0.000666328043 
	 4.24596782e-05 ,	 -0.000838855869 
	 4.11804426e-05 ,	 -0.0010560541 
	 3.91530036e-05 ,	 -0.00132948763 
	 3.59397611e-05 ,	 -0.00167371434 
	 3.08471949e-05 ,	 -0.00210705875 
	 2.27762224e-05 ,	 -0.00265258437 
	 9.98509735e-06 ,	 -0.00333931522 
	 -1.02862032e-05 ,	 -0.00420376797 
	 -4.24108709e-05 ,	 -0.00529186961 
	 -6.66399672e-05 ,	 -0.0059829445 
	 -9.39728523e-05 ,	 -0.00667715756 
	 -0.000175016994 ,	 -0.00840459852 
	-0.00030341,	-0.010578
	-0.00047767,	-0.012955
	-0.00073785,	-0.015852
	-0.001006,	-0.018363
	-0.0013449,	-0.021109
	-0.0021234,	-0.026343
	-0.0030721,	-0.031549
	-0.0041892,	-0.036721
	-0.0054729,	-0.041854
	-0.0069214,	-0.046944
	-0.0085325,	-0.051985
	-0.010304,	-0.056973
	-0.012234,	-0.061905
	-0.014319,	-0.066775
	-0.016558,	-0.07158
	-0.018948,	-0.076315
	-0.021487,	-0.080978
	-0.024172,	-0.085563
	-0.027,	-0.090068
	-0.029969,	-0.094489
	-0.033077,	-0.098822
	-0.03632,	-0.10306
	-0.039696,	-0.10721
	-0.043201,	-0.11126
	-0.046834,	-0.1152
	-0.050591,	-0.11905
	-0.054469,	-0.12279
	-0.058465,	-0.12641
	-0.062576,	-0.12993
	-0.066798,	-0.13333
	-0.071128,	-0.1366
	-0.075563,	-0.13976
	-0.080099,	-0.1428
	-0.084733,	-0.1457
	-0.089462,	-0.14848
	-0.094281,	-0.15113
	-0.099186,	-0.15364
	-0.10417,	-0.15602
	-0.10924,	-0.15826
	-0.11438,	-0.16037
	-0.1196,	-0.16233
	-0.12488,	-0.16415
	-0.13023,	-0.16583
	-0.13564,	-0.16736
	-0.1411,	-0.16874
	-0.14662,	-0.16998
	-0.15218,	-0.17107
	-0.15779,	-0.17201
	-0.16344,	-0.1728
	-0.1677,	-0.17329
	-0.17198,	-0.1737
	-0.17627,	-0.17402
	-0.18058,	-0.17426
	-0.18491,	-0.17441
	-0.18925,	-0.17447
	-0.19359,	-0.17445
	-0.19795,	-0.17435
	-0.20231,	-0.17415
	-0.20668,	-0.17388
	-0.21105,	-0.17351
	-0.21543,	-0.17306
	-0.2198,	-0.17253
	-0.22418,	-0.17191
	-0.22855,	-0.1712
	-0.23291,	-0.17041
	-0.23728,	-0.16954
	-0.24163,	-0.16858
	-0.24597,	-0.16753
	-0.25031,	-0.1664
	-0.25463,	-0.16519
	-0.25894,	-0.1639
	-0.26323,	-0.16252
	-0.26751,	-0.16106
	-0.27177,	-0.15952
	-0.27601,	-0.1579
	-0.28023,	-0.15619
	-0.28443,	-0.15441
	-0.2886,	-0.15254
	-0.29275,	-0.1506
	-0.29687,	-0.14858
	-0.30097,	-0.14648
	-0.30907,	-0.14205
	-0.31704,	-0.13731
	-0.32488,	-0.13228
	-0.33257,	-0.12696
	-0.34011,	-0.12135
	-0.34749,	-0.11546
	-0.35469,	-0.10929
	-0.36171,	-0.10287
	-0.36854,	-0.096185
	-0.37517,	-0.089247
	-0.3816,	-0.082066
	-0.38782,	-0.074648
	-0.39382,	-0.067003
	-0.39959,	-0.059138
	-0.40513,	-0.05106
	-0.41044,	-0.042779
	-0.41384,	-0.03715
	-0.41714,	-0.031435
	-0.42032,	-0.025639
	-0.42339,	-0.019764
	-0.42635,	-0.013811
	-0.42919,	-0.0077843
	-0.43192,	-0.0016857
	-0.43453,	 0.0044823
	-0.4394,	 0.017016
	-0.44378,	 0.029796
	-0.44768,	 0.042803
	-0.45108,	 0.056015
	-0.45398,	 0.069412
	-0.45638,	 0.082975
	-0.45827,	 0.096682
	-0.45965,	 0.11051
	-0.46051,	 0.12445
	-0.46086,	 0.13847
	-0.46069,	 0.15255
	-0.46,	 0.16669
	-0.4588,	 0.18085
	-0.45708,	 0.19501
	-0.45485,	 0.20917
	-0.45211,	 0.22329
	-0.44887,	 0.23737
	-0.44511,	 0.25139
	-0.44086,	 0.26532
	-0.43612,	 0.27915
	-0.43088,	 0.29286
	-0.42516,	 0.30644
	-0.41896,	 0.31987
	-0.41229,	 0.33313
	-0.40516,	 0.34622
	-0.39757,	 0.3591
	-0.38953,	 0.37178
	-0.38106,	 0.38423
	-0.37215,	 0.39644
	-0.36282,	 0.40839
	-0.35307,	 0.42008
	-0.34292,	 0.43149
	-0.33238,	 0.44261
	-0.32146,	 0.45342
	-0.31017,	 0.46392
	-0.29851,	 0.47409
	-0.28651,	 0.48392
	-0.27417,	 0.4934
	-0.2615,	 0.50252
	-0.24852,	 0.51128
	-0.23524,	 0.51965
	-0.22167,	 0.52764
	-0.20782,	 0.53524
	-0.19371,	 0.54243
	-0.17207,	 0.55244
	-0.14992,	 0.5615
	-0.1273,	 0.5696
	-0.10425,	 0.5767
	-0.080829,	 0.58279
	-0.057068,	 0.58787
	-0.033022,	 0.5919
	-0.0087401,	 0.5949
	 0.0034747,	 0.596
	 0.015731,	 0.59683
	 0.028022,	 0.5974
	 0.040341,	 0.5977
	 0.052684,	 0.59774
	 0.065044,	 0.59751
	 0.077414,	 0.59701
	 0.089789,	 0.59625
	 0.10216,	 0.59522
	 0.11453,	 0.59392
	 0.12688,	 0.59235
	 0.13921,	 0.59052
	 0.15152,	 0.58843
	 0.1638,	 0.58606
	 0.17604,	 0.58344
	 0.18824,	 0.58055
	 0.21248,	 0.57399
	 0.23649,	 0.56639
	 0.2602,	 0.55776
	 0.28359,	 0.54812
	 0.3066,	 0.53749
	 0.32919,	 0.52588
	 0.35131,	 0.51332
	 0.37294,	 0.49982
	 0.39402,	 0.48541
	 0.41452,	 0.47011
	 0.4344,	 0.45395
	 0.45362,	 0.43696
	 0.47215,	 0.41917
	 0.48995,	 0.4006
	 0.507,	 0.3813
	 0.52325,	 0.3613
	 0.53869,	 0.34062
	 0.55328,	 0.31931
	 0.567,	 0.29741
	 0.57982,	 0.27495
	 0.59172,	 0.25197
	 0.60268,	 0.22851
	 0.61268,	 0.20462
	 0.62171,	 0.18033
	 0.62974,	 0.15568
	 0.63677,	 0.13072
	 0.64277,	 0.10549
	 0.64776,	 0.080045
	 0.6517,	 0.054405
	 0.65461,	 0.028624
	 0.65646,	 0.0027421
	 0.65727,	-0.023198
	 0.65703,	-0.049155
	 0.65575,	-0.075089
	 0.65341,	-0.10096
	 0.65004,	-0.12673
	 0.64563,	-0.15238
	 0.64018,	-0.17786
	 0.63372,	-0.20315
	 0.62623,	-0.22823
	 0.61774,	-0.25309
	 0.60823,	-0.27773
	 0.5977,	-0.30216
	 0.58613,	-0.32643
	 0.57995,	-0.33852
	 0.57348,	-0.35062
	 0.56672,	-0.36273
	 0.55963,	-0.37489
	 0.5522,	-0.38714
	 0.54436,	-0.39952
	 0.53604,	-0.41212
	 0.52713,	-0.42501
	 0.52292,	-0.43087
	 0.51854,	-0.43682
	 0.51394,	-0.44289
	 0.5091,	-0.44907
	 0.50395,	-0.45539
	 0.49843,	-0.46186
	 0.49246,	-0.46848
	 0.48592,	-0.47526
	 0.48239,	-0.4787
	 0.47866,	-0.48216
	 0.4747,	-0.48565
	 0.47049,	-0.48913
	 0.466,	-0.49261
	 0.46117,	-0.49604
	 0.45599,	-0.49941
	 0.4504,	-0.50265
	 0.44437,	-0.50572
	 0.43785,	-0.50853
	 0.43081,	-0.51098
	 0.42324,	-0.51294
	 0.41514,	-0.51426
	 0.40656,	-0.51477
	 0.3976,	-0.51426
	 0.38843,	-0.51253
	 0.38233,	-0.51062
	 0.37635,	-0.50805
	 0.37061,	-0.50482
	 0.36524,	-0.50092
	 0.36036,	-0.49639
	 0.3561,	-0.49131
	 0.35258,	-0.48578
	 0.34989,	-0.47994
	 0.34809,	-0.47394
	 0.34718,	-0.46796
	 0.34713,	-0.46214
	 0.3479,	-0.45666
	 0.34937,	-0.45162
	 0.35144,	-0.44713
	 0.35398,	-0.44324
	 0.35686,	-0.43999
	 0.36075,	-0.43683
	 0.36477,	-0.43462
	 0.36877,	-0.43327
	 0.3726,	-0.4327
	 0.37619,	-0.43277
	 0.37948,	-0.4334
	 0.38244,	-0.43448
	 0.38506,	-0.43591
	 0.38928,	-0.43957
	 0.39225,	-0.44391
	 0.39414,	-0.4486
	 0.39513,	-0.45345
	 0.39535,	-0.45831
	 0.39496,	-0.46312
	 0.39405,	-0.46783
	 0.39271,	-0.47241
	 0.39103,	-0.47685
	 0.38904,	-0.48116
	 0.38681,	-0.48532
	 0.38438,	-0.48935
	 0.37899,	-0.49704
	 0.37307,	-0.50425
	 0.36674,	-0.51105
	 0.36009,	-0.51748
	 0.35318,	-0.52357
	 0.34606,	-0.52935
	 0.33877,	-0.53484
	 0.33132,	-0.54008
	 0.3176,	-0.54889
	 0.30354,	-0.55698
	 0.2892,	-0.5644
	 0.27463,	-0.57119
	 0.25986,	-0.57738
	 0.24493,	-0.58299
	 0.22984,	-0.58803
	 0.21464,	-0.59253
	 0.19933,	-0.59647
	 0.18394,	-0.59988
	 0.16848,	-0.60276
	 0.15297,	-0.60511
	 0.13743,	-0.60693
	 0.12188,	-0.60823
	 0.10633,	-0.60901
	 0.090796,	-0.60927
	 0.075295,	-0.60901
	 0.059843,	-0.60823
	 0.044459,	-0.60694
	 0.029157,	-0.60514
	 0.013955,	-0.60282
	-0.00113,	-0.6
	-0.016082,	-0.59667
	-0.030883,	-0.59283
	-0.045516,	-0.5885
	-0.059963,	-0.58366
	-0.074208,	-0.57833
	-0.088231,	-0.57252
	-0.10201,	-0.56621
	-0.11554,	-0.55943
	-0.12879,	-0.55218
	-0.14174,	-0.54445
	-0.15439,	-0.53627
	-0.1667,	-0.52763
	-0.17865,	-0.51856
	-0.19024,	-0.50904
	-0.20144,	-0.4991
	-0.21222,	-0.48875
	-0.22258,	-0.478
	-0.23248,	-0.46686
	-0.24192,	-0.45535
	-0.25087,	-0.44348
	-0.25931,	-0.43127
	-0.26721,	-0.41873
	-0.27458,	-0.40589
	-0.28137,	-0.39276
	-0.28758,	-0.37937
	-0.29319,	-0.36573
	-0.29818,	-0.35189
	-0.30253,	-0.33785
	-0.30623,	-0.32365
	-0.30926,	-0.30931
	-0.31161,	-0.29487
	-0.31326,	-0.28037
	-0.31422,	-0.26582
	-0.31445,	-0.25127
	-0.31397,	-0.23676
	-0.31276,	-0.22232
	-0.31082,	-0.20799
	-0.30815,	-0.19381
	-0.30474,	-0.17982
	-0.30062,	-0.16607
	-0.29577,	-0.1526
	-0.29021,	-0.13944
	-0.28396,	-0.12665
	-0.27703,	-0.11427
	-0.26943,	-0.10234
	-0.2612,	-0.0909
	-0.25236,	-0.079993
	-0.24293,	-0.06966
	-0.23296,	-0.059938
	-0.22247,	-0.050865
	-0.21151,	-0.042474
	-0.20012,	-0.034798
	-0.18834,	-0.027863
	-0.17623,	-0.021696
	-0.16383,	-0.016318
	-0.1512,	-0.011747
	-0.13838,	-0.0079949
	-0.12544,	-0.0050723
END
BEGIN
	 0.999955353180681627556225521403 ,	 -0 
	 0.99995535318068118346701567134 ,	 -7.85173262518590320269140647724e-09 
	 0.999955353180678518931756570964 ,	 -7.85173288331275642804030212574e-08 
	 0.999955353180291162118464853847 ,	 -7.85173285416940203162994293962e-07 
	 0.999955353141551150919497104042 ,	 -7.8517328533367347631610755343e-06 
	 0.999955353118664458378361814539 ,	 -9.88474601509858885606263356749e-06 
	 0.999955353082391140695506237535 ,	 -1.24441579471279428759089569212e-05 
	 0.999955353024900905900551606464 ,	 -1.56662666670470684948668349534e-05 
	 0.999955352933786456581799484411 ,	 -1.97226612130285694490794412559e-05 
	 0.999955352789379858791107835714 ,	 -2.48293593860526851102576983976e-05 
	 0.999955352560510268844495840312 ,	 -3.12583114827902353027866411139e-05 
	 0.999955352197775981792915445112 ,	 -3.93518826408145727668852487113e-05 
	 0.999955351622881183359936585475 ,	 -4.95410850294142335314973024651e-05 
	 0.999955350711733359503341489471 ,	 -6.23685308142885030946445112932e-05 
	 0.999955349267662940704326501873 ,	 -7.85173282239481906685796275269e-05 
	 0.999955346978963821591435134906 ,	 -9.88474595392530019921650819015e-05 
	 0.999955343351622283343260733091 ,	 -0.000124441578250533702032498695189 
	 0.999955337602671412433608111314 ,	 -0.000156662664236334459033628263569 
	 0.999955328491199946228107364732 ,	 -0.000197226607276251852951531873259 
	 0.999955314050493981881118088495 ,	 -0.000248293584169140268969044882397 
	 0.999955291163519888186783646233 ,	 -0.000312583095487317663696558156516 
	 0.999955254890121492117316392978 ,	 -0.000393518787824093108085321546241 
	 0.999955197400686168762717898062 ,	 -0.000495410773314108876519412660855 
	 0.999955106286137818116799280688 ,	 -0.000623685154545916553558981831884 
	 0.999954961879479631292610974924 ,	 -0.000785172975775905168660528943292 
	 0.99995473301077275607440242311 ,	 -0.000988473983921323018364546442172 
	 0.99995437027937728036164344303 ,	 -0.0012444145624667390936934907586 
	 0.99995379539152629000398064818 ,	 -0.00156662420809025593193553049787 
	 0.999952884262380603530573353055 ,	 -0.00197226121584331837155446010001 
	 0.999951440236823252405429229839 ,	 -0.00248292615117481907383023553848 
	 0.999949151652797407763273440651 ,	 -0.00312581162072630980297560654435 
	 0.999945524597653623288806556957 ,	 -0.00393514930460525658162396211992 
	 0.999939776369054844629147282831 ,	 -0.00495403077828712734564930997294 
	 0.999930666709466953179230586102 ,	 -0.00623669803089921259697803179733 
	 0.999916230550326301518282434699 ,	 -0.00785142355251988721676070781541 
	 0.999893354989420557465962247079 ,	 -0.00988412918442721499800995843543 
	 0.999857110217203137736419193971 ,	 -0.0124429281707240935173075513376 
	 0.99979969252170008964242242655 ,	 -0.015663815975048789308488039751 
	 0.999756403613023980625484909979 ,	 -0.0177095245546805835079595681236 
	 0.999707586481514920428992354573 ,	 -0.0197645770775158879928312671836 
	 0.999562945887645382114783387806 ,	 -0.0248785395801466302501125937852 
	 0.999334115729094807356602814252 ,	 -0.0313131216562297087779853654865 
	 0.999024165809367925561446099891 ,	 -0.0383534281603781779246276073536 
	 0.998562635811353627168784896639 ,	 -0.0469343318076504145697214198663 
	 0.998088539998003509978730107832 ,	 -0.0543729016233844286709597781737 
	 0.99749132167948451055394798459 ,	 -0.0625155208222012703789260967824 
	 0.996127540370855490969859147299 ,	 -0.078046840942651490857784324362 
	 0.994479167869393498868646474875 ,	 -0.0935205956827231399408617562585 
	 0.992553914874041764981882352004 ,	 -0.108931027541915914635950457523 
	 0.990358850901194132099192302121 ,	 -0.124273927781692328231599731225 
	 0.9879,	-0.13954
	 0.98518,	-0.15474
	 0.98221,	-0.16986
	 0.97898,	-0.18491
	 0.97551,	-0.19988
	 0.9718,	-0.21476
	 0.96784,	-0.22956
	 0.96364,	-0.24427
	 0.9592,	-0.2589
	 0.95452,	-0.27342
	 0.94961,	-0.28785
	 0.94446,	-0.30218
	 0.93908,	-0.31639
	 0.93347,	-0.3305
	 0.92764,	-0.3445
	 0.92157,	-0.35838
	 0.91529,	-0.37213
	 0.90879,	-0.38576
	 0.90207,	-0.39926
	 0.89513,	-0.41262
	 0.88799,	-0.42584
	 0.88063,	-0.43893
	 0.87307,	-0.45187
	 0.86532,	-0.46465
	 0.85736,	-0.47729
	 0.84921,	-0.48977
	 0.84087,	-0.50209
	 0.83234,	-0.51425
	 0.82363,	-0.52624
	 0.81474,	-0.53806
	 0.80568,	-0.54972
	 0.79644,	-0.5612
	 0.78704,	-0.5725
	 0.77748,	-0.58362
	 0.76775,	-0.59456
	 0.75787,	-0.60532
	 0.74784,	-0.61589
	 0.73766,	-0.62628
	 0.72734,	-0.63647
	 0.71688,	-0.64648
