CITIFILE A.01.01
#Momentum: B.12.070 (*) built: Feb 13 2020 
#Momentum Date and Time: Mon Aug 15 00:12:56 2022

NAME Momentum.SP

#  mode: MW    reference: S_50

#eesof Port[1] P1
#eesof Port[2] P2

CONSTANT NBR_OF_PORTS 2

CONSTANT NORMALIZATION 1

VAR freq MAG 154

DATA S[1,1] RI
DATA S[1,2] RI
DATA S[2,1] RI
DATA S[2,2] RI
DATA PORTZ[1] RI
DATA PORTZ[2] RI

VAR_LIST_BEGIN
	 0
	 8.274252442
	 82.74252442
	 827.4252442
	 8274.252442
	 10416.66666
	 13113.80637
	 16509.30408
	 20783.98244
	 26165.48365
	 32940.39228
	 41469.49692
	 52207.00348
	 65724.72336
	 82742.52442
	 104166.6666
	 131138.0637
	 165093.0408
	 207839.8244
	 261654.8365
	 329403.9228
	 414694.9692
	 522070.0348
	 657247.2336
	 827425.2442
	 1041666.666
	 1311380.637
	 1650930.408
	 2078398.244
	 2616548.365
	 3294039.228
	 4146949.692
	 5220700.348
	 6572472.336
	 8274252.442
	 10416666.66
	 13113806.37
	 16509304.08
	 20783982.44
	 26165483.65
	 32940392.28
	 41469496.92
	 52207003.48
	 65724723.36
	 82742524.42
	 104166666.6
	 117776035.3
	 131449446.7
	 165485048.8
	 208333333.2
	 255251850.3
	 312499999.9
	 362192144.3
	 416666666.5
	 468749999.8
	 520833333.1
	 572916666.4
	 624999999.8
	 677083333.1
	 729166666.4
	 781249999.7
	 833333333
	 937499999.6
	 1041666666
	 1145833333
	 1250000000
	 1302083333
	 1354166666
	 1406249999
	 1458333333
	 1510416666
	 1562499999
	 1614583333
	 1666666666
	 1770833333
	 1874999999
	 1979166666
	 2083333333
	 2187499999
	 2291666666
	 2395833333
	 2500000000
	 2604166666
	 2708333333
	 2812500000
	 2916666666
	 3020833333
	 3125000000
	 3229166666
	 3333333333
	 3437500000
	 3541666666
	 3645833333
	 3750000000
	 3854166666
	 3958333333
	 4062500000
	 4166666666
	 4270833333
	 4375000000
	 4479166667
	 4583333333
	 4687500000
	 4791666667
	 4895833333
	 5000000000
	 5104166667
	 5208333333
	 5312500000
	 5416666667
	 5520833333
	 5625000000
	 5729166667
	 5833333334
	 5937500000
	 6041666667
	 6145833334
	 6250000000
	 6354166667
	 6458333334
	 6562500000
	 6666666667
	 6770833334
	 6875000000
	 6979166667
	 7083333334
	 7187500000
	 7291666667
	 7395833334
	 7500000000
	 7604166667
	 7708333334
	 7812500001
	 7916666667
	 8020833334
	 8125000001
	 8229166667
	 8333333334
	 8437500001
	 8541666667
	 8645833334
	 8750000000
	 8854166667
	 8958333334
	 9062500000
	 9166666667
	 9270833334
	 9375000000
	 9479166667
	 9583333334
	 9687500000
	 9791666667
	 9895833333
	 1e+10
VAR_LIST_END

BEGIN
	 0.999999999999997890576253212203 ,	 -0 
	 1.00000000000000177635683940025 ,	 -2.19608875529075930899125523865e-09 
	 1.00000000000000133226762955019 ,	 -2.19608853879726950708572985604e-08 
	 0.999999999999974242825828696368 ,	 -2.1960885743244062950907391496e-07 
	 0.999999999997274180429940315662 ,	 -2.19608857843223148620381834917e-06 
	 0.999999999995679678121973665839 ,	 -2.7647117185058966981614503311e-06 
	 0.999999999993152477451019422006 ,	 -3.48056583870937075175788777415e-06 
	 0.99999999998914546051054230702 ,	 -4.38177278122564572981900710147e-06 
	 0.99999999998279698321113073689 ,	 -5.51632510292776601090736221522e-06 
	 0.999999999972734476827440630586 ,	 -6.94464185169163528144053998403e-06 
	 0.999999999956785790011792869336 ,	 -8.74278610296652658462335239165e-06 
	 0.999999999931509453432454392896 ,	 -1.10065155947136616987336310558e-05 
	 0.999999999891448942967997481901 ,	 -1.38563821772685891176024597371e-05 
	 0.999999999827957397613431567152 ,	 -1.74441516380130501318035385339e-05 
	 0.999999999727329003107456628641 ,	 -2.19608857813802238467815186596e-05 
	 0.999999999567844688463935653999 ,	 -2.76471171714587349299563356908e-05 
	 0.999999999315079657336013951863 ,	 -3.48056583615585779512002773117e-05 
	 0.999999998914473664513025141787 ,	 -4.38177277694573596988902863814e-05 
	 0.999999998279555102342897043854 ,	 -5.51632509414035077099924819777e-05 
	 0.999999997273278928844320034841 ,	 -6.94464183414456037723994086264e-05 
	 0.999999995678437114676739838615 ,	 -8.74278606742828756637209153268e-05 
	 0.999999993150783361706146479264 ,	 -0.000110065155235816725109998515109 
	 0.999999989144723433476258378505 ,	 -0.00013856382034821423943071749818 
	 0.999999982795545028224637462699 ,	 -0.000174441513531353731281114960439 
	 0.999999972732777075989929471689 ,	 -0.000219608852142338939472665515495 
	 0.999999956784367038942207273067 ,	 -0.000276471160397639970085492677754 
	 0.999999931507846051559340594395 ,	 -0.000348056561034926215114637670922 
	 0.999999891447274080746865365654 ,	 -0.000438177232631231650117342724116 
	 0.999999827955581510607885320496 ,	 -0.000551632419515668548370967982919 
	 0.999999727328119591973631941073 ,	 -0.000694464004029837767006938520353 
	 0.999999567844563452823081206589 ,	 -0.000874278248830240301003868808039 
	 0.999999315080724260340616638132 ,	 -0.00110065083822746823116744963045 
	 0.999998914478449796305881136504 ,	 -0.00138563677862163503462511471298 
	 0.999998279570180059749873180408 ,	 -0.00174441229239741257828200104996 
	 0.99999727331729848511798763866 ,	 -0.00219608284920669305506635282654 
	 0.999995678536341525699526755488 ,	 -0.00276470028690317670694298612943 
	 0.999993151035077132426920343278 ,	 -0.00348054303134903708638603347936 
	 0.99998914535669436443043878171 ,	 -0.00438172728014474266444722161395 
	 0.999982797138695644889594404958 ,	 -0.00551623433156328557558367720048 
	 0.999972736780674442691463355004 ,	 -0.00694446078730320826011279677914 
	 0.999956794419000871698699484114 ,	 -0.00874242498460126027381988933485 
	 0.999931533071378941812668017519 ,	 -0.0110057955517076089257955118228 
	 0.999891510535270366943905173684 ,	 -0.0138549470255751594471860244084 
	 0.999828114075664187154757200915 ,	 -0.0174412929294853746853277698392 
	 0.999727724606853440647569186694 ,	 -0.0219551969690752746267037309735 
	 0.999568834063661704192327306373 ,	 -0.0276358135939060445274151334161 
	 0.999449155355167317971165630297 ,	 -0.0312429240338120695064105802885 
	 0.999314307714595062570595018769 ,	 -0.0348657378768625902942801531026 
	 0.998915456690705916287242871476 ,	 -0.0438772031103790149941801246314 
	 0.99828643510550163497896392073 ,	 -0.0552066883068805802636802582128 
	 0.997437949948730806504215706809 ,	 -0.067589215644660638471208358169 
	 0.996181053724941145688376309408 ,	 -0.082660018658643752420545069981 
	 0.994896798800098736137442756444 ,	 -0.0957041675621088661074509218452 
	 0.993287053655111162875357422308 ,	 -0.10996041669808814811304387149 
	 0.991554288967791852549282793916 ,	 -0.123546237610318576649603983242 
	 0.98963,	-0.13708
	 0.98753,	-0.15057
	 0.98524,	-0.16402
	 0.98278,	-0.17742
	 0.98014,	-0.19076
	 0.97732,	-0.20405
	 0.97433,	-0.21729
	 0.96783,	-0.24359
	 0.96063,	-0.26965
	 0.95276,	-0.29545
	 0.94421,	-0.32097
	 0.93969,	-0.33362
	 0.93501,	-0.3462
	 0.93016,	-0.35869
	 0.92515,	-0.37111
	 0.91998,	-0.38344
	 0.91466,	-0.39569
	 0.90917,	-0.40784
	 0.90354,	-0.41991
	 0.8918,	-0.44377
	 0.87947,	-0.46724
	 0.86656,	-0.49031
	 0.85308,	-0.51297
	 0.83904,	-0.53519
	 0.82447,	-0.55696
	 0.80938,	-0.57828
	 0.79379,	-0.59912
	 0.7777,	-0.61947
	 0.76115,	-0.63933
	 0.74415,	-0.65868
	 0.72672,	-0.67751
	 0.70887,	-0.69581
	 0.69062,	-0.71358
	 0.67199,	-0.7308
	 0.653,	-0.74748
	 0.63367,	-0.76359
	 0.61401,	-0.77915
	 0.59405,	-0.79413
	 0.5738,	-0.80854
	 0.55328,	-0.82238
	 0.5325,	-0.83563
	 0.5115,	-0.8483
	 0.49027,	-0.86039
	 0.46885,	-0.87189
	 0.44725,	-0.88281
	 0.42548,	-0.89313
	 0.40357,	-0.90288
	 0.38152,	-0.91203
	 0.35936,	-0.9206
	 0.3371,	-0.92859
	 0.31476,	-0.936
	 0.29236,	-0.94283
	 0.2699,	-0.94909
	 0.2474,	-0.95477
	 0.22489,	-0.95989
	 0.20236,	-0.96444
	 0.17984,	-0.96844
	 0.15734,	-0.97188
	 0.13487,	-0.97477
	 0.11245,	-0.97712
	 0.090093,	-0.97893
	 0.067799,	-0.9802
	 0.045586,	-0.98095
	 0.023466,	-0.98118
	 0.0014505,	-0.9809
	-0.02045,	-0.98011
	-0.042225,	-0.97881
	-0.063864,	-0.97702
	-0.085359,	-0.97475
	-0.10669,	-0.97199
	-0.12787,	-0.96876
	-0.14887,	-0.96506
	-0.16969,	-0.9609
	-0.19032,	-0.95629
	-0.21076,	-0.95124
	-0.23099,	-0.94575
	-0.251,	-0.93983
	-0.2708,	-0.93348
	-0.29037,	-0.92672
	-0.3097,	-0.91955
	-0.3288,	-0.91198
	-0.34765,	-0.90401
	-0.36625,	-0.89566
	-0.38459,	-0.88693
	-0.40267,	-0.87783
	-0.42048,	-0.86836
	-0.43801,	-0.85853
	-0.45527,	-0.84835
	-0.47224,	-0.83783
	-0.48893,	-0.82697
	-0.50532,	-0.81578
	-0.52141,	-0.80427
	-0.53721,	-0.79244
	-0.5527,	-0.7803
	-0.56788,	-0.76786
	-0.58275,	-0.75512
	-0.59731,	-0.7421
	-0.61154,	-0.72878
	-0.62545,	-0.71519
END
BEGIN
	 4.38637355999999997612931730811e-20 ,	 0 
	 2.09793120000000008310076895742e-16 ,	 2.8753909000000000440373184955e-13 
	 2.01878444999999997690660884631e-16 ,	 2.8752469199999998897907362989e-12 
	 3.66894014999999998851282484289e-16 ,	 2.87525090999999985047760698482e-11 
	 1.46855184000000007296168024309e-14 ,	 2.87525146000000016797347619701e-10 
	 2.31708098999999999403061968062e-14 ,	 3.61972712000000006416674658006e-10 
	 3.65899802000000021442641835697e-14 ,	 4.55696642000000000836415472094e-10 
	 5.78893487000000004679247153252e-14 ,	 5.73688073999999972321382269748e-10 
	 9.16044584000000010136376326842e-14 ,	 7.22230479000000021295420616848e-10 
	 1.45049661999999995625325233108e-13 ,	 9.09234282000000000529211547387e-10 
	 2.29764232999999986287278954562e-13 ,	 1.14465810000000007169692227204e-09 
	 3.64038769000000020218136924277e-13 ,	 1.4410390700000000129756055824e-09 
	 5.76855186999999992048850996003e-13 ,	 1.8141605399999999954631537316e-09 
	 9.14128907000000014723737385843e-13 ,	 2.28389242000000008832445066022e-09 
	 1.44866724999999995311375634114e-12 ,	 2.87524944999999979607691187025e-09 
	 2.29587302e-12 ,	 3.61972308e-09 
	 3.63856644e-12 ,	 4.5569584e-09 
	 5.76661516e-12 ,	 5.73686476e-09 
	 9.13929793e-12 ,	 7.22227294e-09 
	 1.44845784e-11 ,	 9.09227918e-09 
	 2.29561401e-11 ,	 1.14464539e-08 
	 3.63822346e-11 ,	 1.44101372e-08 
	 5.76601283e-11 ,	 1.81410992e-08 
	 9.13807752e-11 ,	 2.28379144e-08 
	 1.4481799e-10 ,	 2.87504799e-08 
	 2.29494099e-10 ,	 3.61932119e-08 
	 3.63656179e-10 ,	 4.55615664e-08 
	 5.76186967e-10 ,	 5.73526552e-08 
	 9.12770292e-10 ,	 7.21908354e-08 
	 1.44557856e-09 ,	 9.08592032e-08 
	 2.28841821e-09 ,	 1.14337815e-07 
	 3.62021397e-09 ,	 1.43849003e-07 
	 5.72094366e-09 ,	 1.80908958e-07 
	 9.02543605e-09 ,	 2.27382185e-07 
	 1.42009978e-08 ,	 2.85530382e-07 
	 2.22523563e-08 ,	 3.58038487e-07 
	 3.46466263e-08 ,	 4.47987568e-07 
	 5.34220522e-08 ,	 5.58731324e-07 
	 8.11849877e-08 ,	 6.93638961e-07 
	 1.2081411e-07 ,	 8.55738687e-07 
	 1.74652522e-07 ,	 1.04749751e-06 
	 2.43174772e-07 ,	 1.27127658e-06 
	 3.23742606e-07 ,	 1.53105824e-06 
	 4.10708251e-07 ,	 1.8352628e-06 
	 4.97630834e-07 ,	 2.19908748e-06 
	 5.80526284e-07 ,	 2.64452824e-06 
	 6.23096387e-07 ,	 2.9244562e-06 
	 6.60813522e-07 ,	 3.20426036e-06 
	 7.42122387e-07 ,	 3.89391244e-06 
	 8.33468534e-07 ,	 4.74079433e-06 
	 9.28728527e-07 ,	 5.62598992e-06 
	 1.03824034e-06 ,	 6.6240263e-06 
	 1.12045494e-06 ,	 7.39921983e-06 
	 1.18489866e-06 ,	 8.1341081e-06 
	 1.20727669e-06 ,	 8.70962701e-06 
	 1.17514959e-06 ,	 9.14795938e-06 
	 1.07076221e-06 ,	 9.43800653e-06 
	 8.74713878e-07 ,	 9.57031764e-06 
	 5.66104213e-07 ,	 9.5371582e-06 
	 1.22666633e-07 ,	 9.33259507e-06 
	 -4.79100343e-07 ,	 8.95258748e-06 
	 -1.26379969e-06 ,	 8.39507844e-06 
	 -3.48508485e-06 ,	 6.74977029e-06 
	 -6.75469373e-06 ,	 4.42309453e-06 
	 -1.12944412e-05 ,	 1.47819036e-06 
	 -1.73293658e-05 ,	 -1.98333105e-06 
	 -2.09774192e-05 ,	 -3.86525391e-06 
	 -2.50824061e-05 ,	 -5.82023677e-06 
	 -2.9670965e-05 ,	 -7.82435253e-06 
	 -3.47689109e-05 ,	 -9.85117208e-06 
	 -4.04010608e-05 ,	 -1.18717859e-05 
	 -4.65910585e-05 ,	 -1.38548368e-05 
	 -5.33612011e-05 ,	 -1.57665626e-05 
	 -6.07322671e-05 ,	 -1.75708512e-05 
	 -7.73516766e-05 ,	 -2.07013145e-05 
	 -9.65787858e-05 ,	 -2.29130464e-05 
	 -0.000118508324 ,	 -2.38404939e-05 
	 -0.000143195437 ,	 -2.30892749e-05 
	 -0.000170651257 ,	 -2.02403202e-05 
	 -0.000200838936 ,	 -1.48545682e-05 
	 -0.000233670189 ,	 -6.47815776e-06 
	 -0.000269002426 ,	 5.35194232e-06 
	 -0.000306636491 ,	 2.11019342e-05 
	 -0.000346315082 ,	 4.12348948e-05 
	 -0.000387721854 ,	 6.62042591e-05 
	 -0.000430481242 ,	 9.644716e-05 
	 -0.000474159014 ,	 0.000132377707 
	 -0.000518263552 ,	 0.000174380283 
	 -0.000562247863 ,	 0.000222802934 
	 -0.000605512293 ,	 0.000277950943 
	 -0.000647407938 ,	 0.000340080637 
	 -0.000687240704 ,	 0.000409393528 
	 -0.000724275993 ,	 0.000486030827 
	 -0.000757743958 ,	 0.000570068405 
	 -0.000786845296 ,	 0.000661512256 
	 -0.000810757506 ,	 0.000760294506 
	 -0.000828641572 ,	 0.000866270005 
	 -0.000839649004 ,	 0.000979213556 
	 -0.000842929173 ,	 0.00109881779 
	 -0.000837636888 ,	 0.00122469174 
	 -0.000822940139 ,	 0.00135636007 
	 -0.000798027949 ,	 0.00149326306 
	 -0.000762118272 ,	 0.00163475731 
	 -0.000714465865 ,	 0.00178011708 
	 -0.000654370084 ,	 0.00192853647 
	 -0.000581182529 ,	 0.00207913223 
	 -0.000494314487 ,	 0.00223094723 
	 -0.000393244106 ,	 0.00238295471 
	 -0.000277523249 ,	 0.00253406307 
	 -0.000146783962 ,	 0.00268312139 
	 -7.44510564e-07 ,	 0.00282892545 
	 0.000160785075 ,	 0.00297022437 
	 0.000337897988 ,	 0.00310572778 
	 0.000530586224 ,	 0.00323411338 
	 0.000738736789 ,	 0.003354035 
	 0.000962128573 ,	 0.00346413105 
	 0.00120042993 ,	 0.00356303318 
	 0.00145319701 ,	 0.00364937527 
	 0.00171987282 ,	 0.00372180261 
	 0.0019997871 ,	 0.00377898113 
	 0.00229215694 ,	 0.00381960671 
	 0.00259608829 ,	 0.00384241446 
	 0.00291057815 ,	 0.0038461879 
	 0.00323451761 ,	 0.00382976791 
	 0.00356669562 ,	 0.00379206147 
	 0.00390580354 ,	 0.00373205002 
	 0.00425044032 ,	 0.00364879751 
	 0.00459911835 ,	 0.00354145786 
	 0.00495026995 ,	 0.00340928199 
	 0.00530225435 ,	 0.00325162424 
	 0.0056533651 ,	 0.00306794818 
	 0.00600183803 ,	 0.00285783175 
	 0.00634585933 ,	 0.00262097174 
	 0.00668357406 ,	 0.00235718757 
	 0.00701309469 ,	 0.00206642435 
	 0.00733250984 ,	 0.00174875529 
	 0.00763989297 ,	 0.0014043834 
	 0.00793331107 ,	 0.00103364257 
	 0.0082108332 ,	 0.000636998005 
	 0.00847053888 ,	 0.000215046146 
	 0.0087105263 ,	 -0.000231485955 
	 0.00892892025 ,	 -0.000701741694 
	 0.0091239,	-0.0011947
	 0.0092936,	-0.0017094
	 0.0094363,	-0.0022444
	 0.0095504,	-0.0027984
	 0.0096342,	-0.00337
	 0.009686,	-0.0039576
	 0.0097045,	-0.0045594
	 0.0096883,	-0.0051737
	 0.0096359,	-0.0057984
	 0.0095462,	-0.0064317
	 0.0094181,	-0.0070712
	 0.0092505,	-0.0077148
END
BEGIN
	 4.38637355999999997612931730811e-20 ,	 0 
	 2.09793120000000008310076895742e-16 ,	 2.8753909000000000440373184955e-13 
	 2.01878444999999997690660884631e-16 ,	 2.8752469199999998897907362989e-12 
	 3.66894014999999998851282484289e-16 ,	 2.87525090999999985047760698482e-11 
	 1.46855184000000007296168024309e-14 ,	 2.87525146000000016797347619701e-10 
	 2.31708098999999999403061968062e-14 ,	 3.61972712000000006416674658006e-10 
	 3.65899802000000021442641835697e-14 ,	 4.55696642000000000836415472094e-10 
	 5.78893487000000004679247153252e-14 ,	 5.73688073999999972321382269748e-10 
	 9.16044584000000010136376326842e-14 ,	 7.22230479000000021295420616848e-10 
	 1.45049661999999995625325233108e-13 ,	 9.09234282000000000529211547387e-10 
	 2.29764232999999986287278954562e-13 ,	 1.14465810000000007169692227204e-09 
	 3.64038769000000020218136924277e-13 ,	 1.4410390700000000129756055824e-09 
	 5.76855186999999992048850996003e-13 ,	 1.8141605399999999954631537316e-09 
	 9.14128907000000014723737385843e-13 ,	 2.28389242000000008832445066022e-09 
	 1.44866724999999995311375634114e-12 ,	 2.87524944999999979607691187025e-09 
	 2.29587302e-12 ,	 3.61972308e-09 
	 3.63856644e-12 ,	 4.5569584e-09 
	 5.76661516e-12 ,	 5.73686476e-09 
	 9.13929793e-12 ,	 7.22227294e-09 
	 1.44845784e-11 ,	 9.09227918e-09 
	 2.29561401e-11 ,	 1.14464539e-08 
	 3.63822346e-11 ,	 1.44101372e-08 
	 5.76601283e-11 ,	 1.81410992e-08 
	 9.13807752e-11 ,	 2.28379144e-08 
	 1.4481799e-10 ,	 2.87504799e-08 
	 2.29494099e-10 ,	 3.61932119e-08 
	 3.63656179e-10 ,	 4.55615664e-08 
	 5.76186967e-10 ,	 5.73526552e-08 
	 9.12770292e-10 ,	 7.21908354e-08 
	 1.44557856e-09 ,	 9.08592032e-08 
	 2.28841821e-09 ,	 1.14337815e-07 
	 3.62021397e-09 ,	 1.43849003e-07 
	 5.72094366e-09 ,	 1.80908958e-07 
	 9.02543605e-09 ,	 2.27382185e-07 
	 1.42009978e-08 ,	 2.85530382e-07 
	 2.22523563e-08 ,	 3.58038487e-07 
	 3.46466263e-08 ,	 4.47987568e-07 
	 5.34220522e-08 ,	 5.58731324e-07 
	 8.11849877e-08 ,	 6.93638961e-07 
	 1.2081411e-07 ,	 8.55738687e-07 
	 1.74652522e-07 ,	 1.04749751e-06 
	 2.43174772e-07 ,	 1.27127658e-06 
	 3.23742606e-07 ,	 1.53105824e-06 
	 4.10708251e-07 ,	 1.8352628e-06 
	 4.97630834e-07 ,	 2.19908748e-06 
	 5.80526284e-07 ,	 2.64452824e-06 
	 6.23096387e-07 ,	 2.9244562e-06 
	 6.60813522e-07 ,	 3.20426036e-06 
	 7.42122387e-07 ,	 3.89391244e-06 
	 8.33468534e-07 ,	 4.74079433e-06 
	 9.28728527e-07 ,	 5.62598992e-06 
	 1.03824034e-06 ,	 6.6240263e-06 
	 1.12045494e-06 ,	 7.39921983e-06 
	 1.18489866e-06 ,	 8.1341081e-06 
	 1.20727669e-06 ,	 8.70962701e-06 
	 1.17514959e-06 ,	 9.14795938e-06 
	 1.07076221e-06 ,	 9.43800653e-06 
	 8.74713878e-07 ,	 9.57031764e-06 
	 5.66104213e-07 ,	 9.5371582e-06 
	 1.22666633e-07 ,	 9.33259507e-06 
	 -4.79100343e-07 ,	 8.95258748e-06 
	 -1.26379969e-06 ,	 8.39507844e-06 
	 -3.48508485e-06 ,	 6.74977029e-06 
	 -6.75469373e-06 ,	 4.42309453e-06 
	 -1.12944412e-05 ,	 1.47819036e-06 
	 -1.73293658e-05 ,	 -1.98333105e-06 
	 -2.09774192e-05 ,	 -3.86525391e-06 
	 -2.50824061e-05 ,	 -5.82023677e-06 
	 -2.9670965e-05 ,	 -7.82435253e-06 
	 -3.47689109e-05 ,	 -9.85117208e-06 
	 -4.04010608e-05 ,	 -1.18717859e-05 
	 -4.65910585e-05 ,	 -1.38548368e-05 
	 -5.33612011e-05 ,	 -1.57665626e-05 
	 -6.07322671e-05 ,	 -1.75708512e-05 
	 -7.73516766e-05 ,	 -2.07013145e-05 
	 -9.65787858e-05 ,	 -2.29130464e-05 
	 -0.000118508324 ,	 -2.38404939e-05 
	 -0.000143195437 ,	 -2.30892749e-05 
	 -0.000170651257 ,	 -2.02403202e-05 
	 -0.000200838936 ,	 -1.48545682e-05 
	 -0.000233670189 ,	 -6.47815776e-06 
	 -0.000269002426 ,	 5.35194232e-06 
	 -0.000306636491 ,	 2.11019342e-05 
	 -0.000346315082 ,	 4.12348948e-05 
	 -0.000387721854 ,	 6.62042591e-05 
	 -0.000430481242 ,	 9.644716e-05 
	 -0.000474159014 ,	 0.000132377707 
	 -0.000518263552 ,	 0.000174380283 
	 -0.000562247863 ,	 0.000222802934 
	 -0.000605512293 ,	 0.000277950943 
	 -0.000647407938 ,	 0.000340080637 
	 -0.000687240704 ,	 0.000409393528 
	 -0.000724275993 ,	 0.000486030827 
	 -0.000757743958 ,	 0.000570068405 
	 -0.000786845296 ,	 0.000661512256 
	 -0.000810757506 ,	 0.000760294506 
	 -0.000828641572 ,	 0.000866270005 
	 -0.000839649004 ,	 0.000979213556 
	 -0.000842929173 ,	 0.00109881779 
	 -0.000837636888 ,	 0.00122469174 
	 -0.000822940139 ,	 0.00135636007 
	 -0.000798027949 ,	 0.00149326306 
	 -0.000762118272 ,	 0.00163475731 
	 -0.000714465865 ,	 0.00178011708 
	 -0.000654370084 ,	 0.00192853647 
	 -0.000581182529 ,	 0.00207913223 
	 -0.000494314487 ,	 0.00223094723 
	 -0.000393244106 ,	 0.00238295471 
	 -0.000277523249 ,	 0.00253406307 
	 -0.000146783962 ,	 0.00268312139 
	 -7.44510564e-07 ,	 0.00282892545 
	 0.000160785075 ,	 0.00297022437 
	 0.000337897988 ,	 0.00310572778 
	 0.000530586224 ,	 0.00323411338 
	 0.000738736789 ,	 0.003354035 
	 0.000962128573 ,	 0.00346413105 
	 0.00120042993 ,	 0.00356303318 
	 0.00145319701 ,	 0.00364937527 
	 0.00171987282 ,	 0.00372180261 
	 0.0019997871 ,	 0.00377898113 
	 0.00229215694 ,	 0.00381960671 
	 0.00259608829 ,	 0.00384241446 
	 0.00291057815 ,	 0.0038461879 
	 0.00323451761 ,	 0.00382976791 
	 0.00356669562 ,	 0.00379206147 
	 0.00390580354 ,	 0.00373205002 
	 0.00425044032 ,	 0.00364879751 
	 0.00459911835 ,	 0.00354145786 
	 0.00495026995 ,	 0.00340928199 
	 0.00530225435 ,	 0.00325162424 
	 0.0056533651 ,	 0.00306794818 
	 0.00600183803 ,	 0.00285783175 
	 0.00634585933 ,	 0.00262097174 
	 0.00668357406 ,	 0.00235718757 
	 0.00701309469 ,	 0.00206642435 
	 0.00733250984 ,	 0.00174875529 
