CITIFILE A.01.01
#Momentum: B.12.070 (*) built: Feb 13 2020 
#Momentum Date and Time: Tue Aug 16 11:30:14 2022

NAME Momentum.SP

#  mode: MW    reference: S_50

#eesof Port[1] P1
#eesof Port[2] P2

CONSTANT NBR_OF_PORTS 2

CONSTANT NORMALIZATION 1

VAR freq MAG 500

DATA S[1,1] RI
DATA S[1,2] RI
DATA S[2,1] RI
DATA S[2,2] RI
DATA PORTZ[1] RI
DATA PORTZ[2] RI

VAR_LIST_BEGIN
	 0
	 9.193613824
	 91.93613824
	 919.3613824
	 9193.613824
	 11574.07407
	 14570.89596
	 18343.6712
	 23093.31382
	 29072.75961
	 36600.43586
	 46077.21879
	 58007.78164
	 73027.47039
	 91936.13824
	 115740.7407
	 145708.9596
	 183436.712
	 230933.1382
	 290727.5961
	 366004.3586
	 460772.1879
	 580077.8164
	 730274.7039
	 919361.3824
	 1157407.407
	 1457089.596
	 1834367.12
	 2309331.382
	 2907275.961
	 3660043.586
	 4607721.879
	 5800778.164
	 7302747.039
	 9193613.824
	 11574074.07
	 13086226.15
	 14605494.08
	 18387227.65
	 23148148.14
	 28361316.7
	 34722222.21
	 40243571.59
	 46296296.27
	 57870370.34
	 69444444.41
	 81018518.48
	 92592592.55
	 111882716
	 131172839.4
	 150462962.9
	 169753086.3
	 189043209.8
	 208333333.2
	 227623456.7
	 246913580.1
	 266203703.6
	 285493827
	 304783950.4
	 324074073.9
	 343364197.3
	 362654320.8
	 381944444.2
	 401234567.7
	 420524691.1
	 439814814.6
	 459104938.1
	 478395061.5
	 497685184.9
	 516975308.4
	 536265431.8
	 555555555.3
	 572916666.4
	 590277777.5
	 607638888.6
	 624999999.7
	 642361110.8
	 659722221.9
	 677083333
	 694444444.1
	 711805555.2
	 729166666.3
	 746527777.5
	 763888888.6
	 781249999.7
	 798611110.8
	 815972221.9
	 833333333
	 850694444.1
	 868055555.2
	 885416666.3
	 902777777.4
	 920138888.5
	 937499999.6
	 954861110.7
	 972222221.8
	 989583332.9
	 1006944444
	 1024305555
	 1041666666
	 1059027777
	 1076388888
	 1093750000
	 1111111111
	 1128472222
	 1145833333
	 1163194444
	 1180555555
	 1197916666
	 1215277777
	 1232638888
	 1249999999
	 1267361111
	 1284722222
	 1302083333
	 1319444444
	 1336805555
	 1354166666
	 1371527777
	 1388888888
	 1406249999
	 1423611111
	 1440972222
	 1458333333
	 1475694444
	 1493055555
	 1510416666
	 1527777777
	 1562499999
	 1597222222
	 1631944444
	 1666666666
	 1692708333
	 1718749999
	 1744791666
	 1770833333
	 1796874999
	 1822916666
	 1848958333
	 1874999999
	 1901041666
	 1927083333
	 1953124999
	 1979166666
	 2005208333
	 2031249999
	 2057291666
	 2083333333
	 2109374999
	 2135416666
	 2161458333
	 2187499999
	 2213541666
	 2239583333
	 2265624999
	 2291666666
	 2317708333
	 2343749999
	 2369791666
	 2395833333
	 2421874999
	 2447916666
	 2473958333
	 2500000000
	 2526041666
	 2552083333
	 2578125000
	 2604166666
	 2630208333
	 2656250000
	 2682291666
	 2708333333
	 2734375000
	 2760416666
	 2786458333
	 2812500000
	 2838541666
	 2864583333
	 2890625000
	 2916666666
	 2942708333
	 2968750000
	 2994791666
	 3020833333
	 3046875000
	 3072916666
	 3098958333
	 3125000000
	 3151041666
	 3177083333
	 3203125000
	 3229166666
	 3255208333
	 3281250000
	 3307291666
	 3333333333
	 3359375000
	 3385416666
	 3411458333
	 3437500000
	 3463541666
	 3489583333
	 3515625000
	 3541666666
	 3567708333
	 3593750000
	 3619791666
	 3645833333
	 3671875000
	 3697916666
	 3723958333
	 3750000000
	 3776041666
	 3802083333
	 3828124999
	 3854166666
	 3880208333
	 3906249999
	 3932291666
	 3958333333
	 3984374999
	 4010416666
	 4036458333
	 4062499999
	 4088541666
	 4114583333
	 4140624999
	 4166666666
	 4192708333
	 4218749999
	 4244791666
	 4270833333
	 4296874999
	 4322916666
	 4348958333
	 4375000000
	 4401041666
	 4427083333
	 4453125000
	 4479166666
	 4505208333
	 4531250000
	 4557291666
	 4583333333
	 4609375000
	 4635416666
	 4661458333
	 4687500000
	 4713541666
	 4739583333
	 4765625000
	 4791666666
	 4817708333
	 4843750000
	 4869791667
	 4895833333
	 4921875000
	 4947916667
	 4973958333
	 5000000000
	 5026041667
	 5052083333
	 5078125000
	 5104166667
	 5130208333
	 5156250000
	 5182291667
	 5208333334
	 5234375000
	 5260416667
	 5286458334
	 5312500000
	 5338541667
	 5364583334
	 5390625000
	 5416666667
	 5442708334
	 5468750000
	 5494791667
	 5520833334
	 5546875000
	 5572916667
	 5598958334
	 5625000000
	 5651041667
	 5677083334
	 5703125001
	 5729166667
	 5755208334
	 5781250001
	 5807291667
	 5833333334
	 5859375001
	 5885416667
	 5911458334
	 5937500001
	 5963541667
	 5989583334
	 6015625001
	 6041666667
	 6067708334
	 6093750001
	 6119791667
	 6145833334
	 6171875001
	 6197916667
	 6223958334
	 6250000000
	 6263020834
	 6276041667
	 6289062500
	 6302083334
	 6315104167
	 6328125000
	 6341145834
	 6354166667
	 6367187500
	 6380208334
	 6393229167
	 6406250000
	 6419270834
	 6432291667
	 6445312500
	 6458333334
	 6471354167
	 6484375000
	 6497395834
	 6510416667
	 6523437500
	 6536458334
	 6549479167
	 6562500000
	 6575520834
	 6588541667
	 6601562500
	 6614583334
	 6627604167
	 6640625000
	 6653645834
	 6666666667
	 6689814815
	 6712962963
	 6736111111
	 6759259260
	 6782407408
	 6805555556
	 6828703704
	 6851851852
	 6875000000
	 6898148148
	 6921296297
	 6944444445
	 6967592593
	 6990740741
	 7013888889
	 7037037037
	 7048611111
	 7060185185
	 7071759259
	 7083333334
	 7094907408
	 7106481482
	 7118055556
	 7129629630
	 7141203704
	 7152777778
	 7164351852
	 7175925926
	 7187500000
	 7199074074
	 7210648148
	 7222222222
	 7233796296
	 7245370371
	 7256944445
	 7268518519
	 7280092593
	 7291666667
	 7303240741
	 7314814815
	 7326388889
	 7337962963
	 7349537037
	 7361111111
	 7372685185
	 7384259259
	 7395833333
	 7407407408
	 7430555556
	 7453703704
	 7476851852
	 7500000000
	 7523148148
	 7546296296
	 7569444444
	 7592592593
	 7615740741
	 7638888889
	 7662037037
	 7685185185
	 7708333333
	 7731481481
	 7754629630
	 7777777778
	 7800925926
	 7824074074
	 7847222222
	 7870370370
	 7893518518
	 7916666667
	 7939814815
	 7962962963
	 7986111111
	 8009259259
	 8032407407
	 8055555555
	 8078703704
	 8101851852
	 8125000000
	 8148148148
	 8171296296
	 8194444444
	 8217592592
	 8240740741
	 8263888889
	 8287037037
	 8310185185
	 8333333333
	 8356481481
	 8379629630
	 8402777778
	 8425925926
	 8449074074
	 8472222222
	 8495370370
	 8518518518
	 8541666667
	 8564814815
	 8587962963
	 8611111111
	 8634259259
	 8657407407
	 8680555556
	 8703703704
	 8726851852
	 8750000000
	 8773148148
	 8796296296
	 8819444445
	 8842592593
	 8865740741
	 8888888889
	 8912037037
	 8935185185
	 8958333333
	 8981481482
	 9004629630
	 9027777778
	 9050925926
	 9074074074
	 9097222222
	 9120370371
	 9143518519
	 9166666667
	 9189814815
	 9212962963
	 9236111111
	 9259259260
	 9282407408
	 9305555556
	 9328703704
	 9351851852
	 9375000000
	 9398148148
	 9421296297
	 9444444445
	 9467592593
	 9490740741
	 9513888889
	 9537037037
	 9560185186
	 9583333334
	 9606481482
	 9629629630
	 9652777778
	 9675925926
	 9699074074
	 9722222222
	 9745370371
	 9768518519
	 9791666667
	 9814814815
	 9837962963
	 9861111111
	 9884259259
	 9907407408
	 9930555556
	 9953703704
	 9976851852
	 1e+10
VAR_LIST_END

BEGIN
	 5.51804913999999997807448248732e-05 ,	 -0 
	 5.51804913999999997807448248732e-05 ,	 -2.15650230999999989656332912541e-09 
	 5.51804913999999997807448248732e-05 ,	 -2.15650261999999999538242447666e-08 
	 5.5180491200000003290410816037e-05 ,	 -2.15650263000000003165736173205e-07 
	 5.51804740999999984349920489901e-05 ,	 -2.15650263000000003165736173205e-06 
	 5.51804639999999994902715738654e-05 ,	 -2.71487596000000008377318200248e-06 
	 5.51804478999999974153135851029e-05 ,	 -3.41782633999999995810890190961e-06 
	 5.51804225000000026857618906639e-05 ,	 -4.30278843000000029144370278233e-06 
	 5.51803821999999983757834165488e-05 ,	 -5.41688970000000008454994759877e-06 
	 5.51803183000000016305772176928e-05 ,	 -6.81946009000000037962758991927e-06 
	 5.51802171000000021405113015405e-05 ,	 -8.58519159000000060247195093899e-06 
	 5.51800565999999997218207481442e-05 ,	 -1.08081157999999996242260907886e-05 
	 5.51798022999999967044305881902e-05 ,	 -1.36066115999999991841885871313e-05 
	 5.51793993000000010384908932792e-05 ,	 -1.71297090999999992099681739299e-05 
	 5.5178760500000002971708601418e-05 ,	 -2.15650259000000005596420216136e-05 
	 5.51777482e-05 ,	 -2.71487588e-05 
	 5.51761437e-05 ,	 -3.41782617e-05 
	 5.51736007e-05 ,	 -4.3027881e-05 
	 5.51695703e-05 ,	 -5.41688903e-05 
	 5.51631827e-05 ,	 -6.81945875e-05 
	 5.51530589e-05 ,	 -8.58518893e-05 
	 5.51370138e-05 ,	 -0.000108081105 
	 5.51115838e-05 ,	 -0.000136066011 
	 5.50712799e-05 ,	 -0.00017129688 
	 5.50074018e-05 ,	 -0.000215649838 
	 5.49061603e-05 ,	 -0.000271486747 
	 5.47456996e-05 ,	 -0.00034178094 
	 5.44913769e-05 ,	 -0.000430275463 
	 5.40882785e-05 ,	 -0.000541682225 
	 5.34493503e-05 ,	 -0.000681932556 
	 5.24365658e-05 ,	 -0.000858492328 
	 5.08310309e-05 ,	 -0.00108075808 
	 4.8285479e-05 ,	 -0.00136055453 
	 4.42486757e-05 ,	 -0.00171275849 
	 3.78448563e-05 ,	 -0.00215607984 
	 2.76808153e-05 ,	 -0.00271403579 
	 2.00023449e-05 ,	 -0.00306836365 
	 1.13275042e-05 ,	 -0.00342426435 
	 -1.44716234e-05 ,	 -0.00430969131 
	 -5.55720047e-05 ,	 -0.00542324055 
	 -0.000111769517 ,	 -0.00664084331 
	 -0.000196492233 ,	 -0.00812369821 
	 -0.000284707248 ,	 -0.0094080543 
	-0.00039737,	-0.010813
	-0.00066014,	-0.013489
	-0.00098603,	-0.016152
	-0.0013755,	-0.018801
	-0.0018285,	-0.021436
	-0.002723,	-0.025795
	-0.0037889,	-0.030109
	-0.005022,	-0.034375
	-0.0064182,	-0.038588
	-0.0079736,	-0.042743
	-0.0096844,	-0.046837
	-0.011547,	-0.050864
	-0.013558,	-0.05482
	-0.015715,	-0.0587
	-0.018013,	-0.0625
	-0.020449,	-0.066215
	-0.023021,	-0.069842
	-0.025725,	-0.073375
	-0.028557,	-0.076812
	-0.031514,	-0.080147
	-0.034592,	-0.083376
	-0.037787,	-0.086497
	-0.041095,	-0.089504
	-0.044512,	-0.092394
	-0.048035,	-0.095164
	-0.051658,	-0.09781
	-0.055378,	-0.10032
	-0.059189,	-0.10271
	-0.063088,	-0.10497
	-0.066668,	-0.10688
	-0.070311,	-0.10869
	-0.074014,	-0.11037
	-0.077773,	-0.11195
	-0.081585,	-0.1134
	-0.085446,	-0.11474
	-0.089352,	-0.11596
	-0.093299,	-0.11705
	-0.097285,	-0.11803
	-0.1013,	-0.11888
	-0.10535,	-0.11961
	-0.10943,	-0.12021
	-0.11352,	-0.12069
	-0.11764,	-0.12104
	-0.12178,	-0.12127
	-0.12592,	-0.12137
	-0.13007,	-0.12135
	-0.13423,	-0.12119
	-0.13838,	-0.12092
	-0.14253,	-0.12051
	-0.14668,	-0.11998
	-0.15081,	-0.11933
	-0.15493,	-0.11855
	-0.15903,	-0.11765
	-0.1631,	-0.11662
	-0.16715,	-0.11548
	-0.17118,	-0.11421
	-0.17517,	-0.11282
	-0.17912,	-0.11131
	-0.18303,	-0.10969
	-0.18691,	-0.10795
	-0.19073,	-0.10609
	-0.19451,	-0.10413
	-0.19823,	-0.10205
	-0.2019,	-0.099864
	-0.20551,	-0.097567
	-0.20906,	-0.095164
	-0.21254,	-0.092658
	-0.21596,	-0.090049
	-0.21931,	-0.08734
	-0.22258,	-0.084534
	-0.22578,	-0.081632
	-0.2289,	-0.078638
	-0.23194,	-0.075552
	-0.2349,	-0.072378
	-0.23778,	-0.069118
	-0.24056,	-0.065775
	-0.24326,	-0.062351
	-0.24587,	-0.058849
	-0.24838,	-0.055271
	-0.2508,	-0.051621
	-0.25312,	-0.047901
	-0.25535,	-0.044113
	-0.25747,	-0.040261
	-0.25949,	-0.036348
	-0.26141,	-0.032376
	-0.26492,	-0.024268
	-0.26801,	-0.015961
	-0.27066,	-0.0074792
	-0.27286,	 0.0011528
	-0.27422,	 0.0077107
	-0.27532,	 0.014329
	-0.27616,	 0.020997
	-0.27674,	 0.027704
	-0.27705,	 0.034439
	-0.27711,	 0.041193
	-0.27691,	 0.047954
	-0.27644,	 0.054713
	-0.27571,	 0.061458
	-0.27473,	 0.06818
	-0.27348,	 0.074868
	-0.27198,	 0.081511
	-0.27023,	 0.0881
	-0.26822,	 0.094625
	-0.26597,	 0.10107
	-0.26347,	 0.10744
	-0.26073,	 0.11371
	-0.25776,	 0.11988
	-0.25455,	 0.12594
	-0.25112,	 0.13188
	-0.24746,	 0.13768
	-0.24359,	 0.14335
	-0.2395,	 0.14887
	-0.23521,	 0.15424
	-0.23073,	 0.15944
	-0.22605,	 0.16447
	-0.22119,	 0.16933
	-0.21616,	 0.17399
	-0.21095,	 0.17847
	-0.20559,	 0.18275
	-0.20007,	 0.18682
	-0.19441,	 0.19068
	-0.18862,	 0.19433
	-0.1827,	 0.19775
	-0.17666,	 0.20095
	-0.17052,	 0.20392
	-0.16428,	 0.20665
	-0.15796,	 0.20915
	-0.15155,	 0.21141
	-0.14508,	 0.21342
	-0.13856,	 0.21519
	-0.13198,	 0.21671
	-0.12537,	 0.21798
	-0.11874,	 0.219
	-0.11209,	 0.21977
	-0.10544,	 0.22029
	-0.098799,	 0.22056
	-0.092171,	 0.22058
	-0.08557,	 0.22035
	-0.079008,	 0.21988
	-0.072495,	 0.21917
	-0.066042,	 0.21821
	-0.059658,	 0.21702
	-0.053354,	 0.2156
	-0.04714,	 0.21394
	-0.041025,	 0.21207
	-0.035019,	 0.20997
	-0.029131,	 0.20767
	-0.023371,	 0.20515
	-0.017747,	 0.20244
	-0.012267,	 0.19953
	-0.0069393,	 0.19644
	-0.0017719,	 0.19317
	 0.0032279,	 0.18974
	 0.0080535,	 0.18614
	 0.012698,	 0.18239
	 0.017156,	 0.17849
	 0.021421,	 0.17447
	 0.025489,	 0.17032
	 0.029355,	 0.16606
	 0.033014,	 0.16169
	 0.036464,	 0.15723
	 0.039702,	 0.1527
	 0.042724,	 0.14809
	 0.045529,	 0.14342
	 0.048116,	 0.1387
	 0.050484,	 0.13395
	 0.052633,	 0.12917
	 0.054563,	 0.12437
	 0.056276,	 0.11957
	 0.057773,	 0.11478
	 0.059057,	 0.11001
	 0.060129,	 0.10526
	 0.060995,	 0.10055
	 0.061656,	 0.095898
	 0.062119,	 0.0913
	 0.062388,	 0.086771
	 0.062469,	 0.082321
	 0.062367,	 0.07796
	 0.06209,	 0.073696
	 0.061645,	 0.069537
	 0.061039,	 0.065493
	 0.06028,	 0.06157
	 0.059377,	 0.057777
	 0.058337,	 0.054118
	 0.057172,	 0.050602
	 0.05589,	 0.047233
	 0.0545,	 0.044017
	 0.053014,	 0.040958
	 0.051441,	 0.03806
	 0.049791,	 0.035327
	 0.048077,	 0.032762
	 0.046308,	 0.030367
	 0.044496,	 0.028143
	 0.042652,	 0.026091
	 0.040787,	 0.024212
	 0.038912,	 0.022505
	 0.037038,	 0.020969
	 0.035177,	 0.019604
	 0.033339,	 0.018405
	 0.031536,	 0.017371
	 0.029779,	 0.016498
	 0.028077,	 0.015781
	 0.026442,	 0.015217
	 0.024883,	 0.014799
	 0.02341,	 0.014521
	 0.022034,	 0.014378
	 0.020762,	 0.01436
	 0.019605,	 0.014462
	 0.018569,	 0.014674
	 0.017664,	 0.014988
	 0.016897,	 0.015394
	 0.016274,	 0.015882
	 0.015803,	 0.016442
	 0.015488,	 0.017064
	 0.015336,	 0.017736
	 0.015351,	 0.018447
	 0.015537,	 0.019184
	 0.015898,	 0.019935
	 0.016435,	 0.020689
	 0.017153,	 0.021431
	 0.018051,	 0.022149
	 0.01913,	 0.022829
	 0.02039,	 0.023459
	 0.02183,	 0.024024
	 0.023449,	 0.024511
	 0.025243,	 0.024905
	 0.027209,	 0.025194
	 0.029344,	 0.025363
	 0.031642,	 0.025399
	 0.034097,	 0.025288
	 0.036702,	 0.025017
	 0.03945,	 0.024571
	 0.042332,	 0.02394
	 0.045339,	 0.023109
	 0.048461,	 0.022066
	 0.051686,	 0.020799
	 0.055003,	 0.019298
	 0.058398,	 0.01755
	 0.061859,	 0.015545
	 0.06537,	 0.013274
	 0.068917,	 0.010728
	 0.072483,	 0.0078968
	 0.076052,	 0.0047741
	 0.079606,	 0.0013526
	 0.083127,	-0.0023737
	 0.086596,	-0.0064098
	 0.089994,	-0.01076
	 0.0933,	-0.015427
	 0.096495,	-0.020412
	 0.099557,	-0.025718
	 0.10246,	-0.031342
	 0.10519,	-0.037285
	 0.10772,	-0.043542
	 0.11004,	-0.050109
	 0.11211,	-0.056981
	 0.11391,	-0.064151
	 0.11543,	-0.071611
	 0.11663,	-0.07935
	 0.11751,	-0.087357
	 0.11803,	-0.095619
	 0.11817,	-0.10412
	 0.11792,	-0.11285
	 0.11725,	-0.12178
	 0.11614,	-0.13091
	 0.11457,	-0.1402
	 0.11361,	-0.14491
	 0.11253,	-0.14965
	 0.11133,	-0.15442
	 0.11,	-0.15921
	 0.10855,	-0.16404
	 0.10697,	-0.16888
	 0.10525,	-0.17374
	 0.10341,	-0.17862
	 0.10143,	-0.18351
	 0.099315,	-0.18841
	 0.097062,	-0.19331
	 0.094671,	-0.19821
	 0.09214,	-0.20311
	 0.089467,	-0.20801
	 0.086653,	-0.21289
	 0.083696,	-0.21776
	 0.080595,	-0.22261
	 0.07735,	-0.22744
	 0.073959,	-0.23225
	 0.070422,	-0.23702
	 0.06674,	-0.24176
	 0.06291,	-0.24646
	 0.058934,	-0.25112
	 0.054811,	-0.25573
	 0.050542,	-0.26029
	 0.046126,	-0.2648
	 0.041564,	-0.26924
	 0.036856,	-0.27362
	 0.032003,	-0.27793
	 0.027006,	-0.28217
	 0.021865,	-0.28633
	 0.016582,	-0.29041
	 0.006841,	-0.29745
	-0.0033396,	-0.30419
	-0.013951,	-0.31061
	-0.024984,	-0.31669
	-0.036426,	-0.3224
	-0.048265,	-0.32772
	-0.060486,	-0.33262
	-0.073076,	-0.33709
	-0.086016,	-0.3411
	-0.09929,	-0.34463
	-0.11287,	-0.34766
	-0.12675,	-0.35018
	-0.14091,	-0.35216
	-0.15531,	-0.35359
	-0.16995,	-0.35445
	-0.18478,	-0.35472
	-0.19227,	-0.35464
	-0.1998,	-0.3544
	-0.20736,	-0.35401
	-0.21497,	-0.35347
	-0.2226,	-0.35277
	-0.23026,	-0.35192
	-0.23794,	-0.3509
	-0.24565,	-0.34973
	-0.25337,	-0.3484
	-0.26111,	-0.34691
	-0.26886,	-0.34525
	-0.27662,	-0.34344
	-0.28438,	-0.34146
	-0.29214,	-0.33931
	-0.29989,	-0.337
	-0.30764,	-0.33453
	-0.31538,	-0.33189
	-0.3231,	-0.32909
	-0.33081,	-0.32612
	-0.33849,	-0.32299
	-0.34614,	-0.31969
	-0.35377,	-0.31622
	-0.36136,	-0.31259
	-0.36892,	-0.3088
	-0.37644,	-0.30484
	-0.38391,	-0.30072
	-0.39134,	-0.29643
	-0.39871,	-0.29199
	-0.40603,	-0.28738
	-0.41329,	-0.28261
	-0.42048,	-0.27767
	-0.42761,	-0.27259
	-0.44166,	-0.26193
	-0.45541,	-0.25066
	-0.46882,	-0.23878
	-0.48188,	-0.2263
	-0.49454,	-0.21323
	-0.5068,	-0.1996
	-0.51862,	-0.18541
	-0.52998,	-0.17069
	-0.54086,	-0.15545
	-0.55124,	-0.13971
	-0.56109,	-0.12349
	-0.57039,	-0.10682
	-0.57913,	-0.08971
	-0.58728,	-0.072186
	-0.59484,	-0.054272
	-0.60177,	-0.035991
	-0.60808,	-0.017369
	-0.61375,	 0.0015696
	-0.61876,	 0.020799
	-0.62309,	 0.040295
	-0.62676,	 0.060029
	-0.62973,	 0.079976
	-0.63201,	 0.1001
	-0.63359,	 0.12039
	-0.63446,	 0.14082
	-0.63462,	 0.16135
	-0.63406,	 0.18195
	-0.63279,	 0.20261
	-0.6308,	 0.22329
	-0.6281,	 0.24397
	-0.62468,	 0.26461
	-0.62054,	 0.2852
	-0.61569,	 0.30571
	-0.61014,	 0.32611
	-0.60389,	 0.34638
	-0.59694,	 0.36648
	-0.5893,	 0.38641
	-0.58098,	 0.40612
	-0.572,	 0.4256
	-0.56235,	 0.44483
	-0.55206,	 0.46377
	-0.54112,	 0.48242
	-0.52956,	 0.50074
	-0.51738,	 0.51872
	-0.50461,	 0.53634
	-0.49125,	 0.55357
	-0.47732,	 0.5704
	-0.46283,	 0.5868
	-0.44781,	 0.60277
	-0.43226,	 0.61828
	-0.41621,	 0.63332
	-0.39967,	 0.64786
	-0.38266,	 0.66191
	-0.3652,	 0.67543
	-0.3473,	 0.68843
	-0.329,	 0.70088
	-0.31029,	 0.71278
	-0.29122,	 0.7241
	-0.27179,	 0.73486
	-0.25202,	 0.74502
	-0.23194,	 0.75459
	-0.21156,	 0.76355
	-0.19092,	 0.7719
	-0.17002,	 0.77963
	-0.14888,	 0.78674
	-0.12754,	 0.79322
	-0.10601,	 0.79907
	-0.084311,	 0.80428
	-0.06246,	 0.80884
	-0.040481,	 0.81277
	-0.018394,	 0.81605
	 0.0037795,	 0.81869
	 0.026019,	 0.82067
	 0.048305,	 0.82202
	 0.070618,	 0.82272
	 0.092936,	 0.82278
	 0.11524,	 0.82219
	 0.13751,	 0.82097
	 0.15973,	 0.81912
	 0.18188,	 0.81664
	 0.20394,	 0.81353
	 0.22589,	 0.8098
	 0.24771,	 0.80545
	 0.26939,	 0.8005
	 0.29091,	 0.79495
	 0.31225,	 0.7888
	 0.3334,	 0.78206
	 0.35433,	 0.77475
	 0.37504,	 0.76686
	 0.3955,	 0.75841
	 0.4157,	 0.74941
	 0.43563,	 0.73987
	 0.45527,	 0.72979
	 0.47461,	 0.71919
	 0.49364,	 0.70807
	 0.51233,	 0.69645
	 0.53068,	 0.68435
	 0.54868,	 0.67176
	 0.5663,	 0.6587
	 0.58355,	 0.64519
	 0.60041,	 0.63123
	 0.61687,	 0.61684
	 0.63292,	 0.60203
	 0.64854,	 0.58681
	 0.66374,	 0.5712
	 0.67849,	 0.5552
	 0.69279,	 0.53884
	 0.70663,	 0.52211
	 0.72001,	 0.50505
	 0.7329,	 0.48766
	 0.74532,	 0.46995
	 0.75725,	 0.45193
END
BEGIN
	 0.999944819508639892724488618114 ,	 -0 
	 0.999944819508662652296493433823 ,	 -8.63838789996046463315337859967e-09 
	 0.999944819508656213002950607915 ,	 -8.6383883056255494903297176279e-08 
	 0.999944819508023607923519193719 ,	 -8.63838829702132104948475443962e-07 
	 0.999944819444737786895416320476 ,	 -8.63838829376004091464835710212e-06 
	 0.99994481940734813996130014857 ,	 -1.08750865374217936532019734841e-05 
	 0.99994481934808987499962995571 ,	 -1.36909227920799583810840260867e-05 
	 0.999944819254171002320674688235 ,	 -1.72358506042727746554454881789e-05 
	 0.999944819105321736074643013126 ,	 -2.16986502997998029207415982e-05 
	 0.999944818869410334549741037335 ,	 -2.73169822246413507293993916392e-05 
	 0.99994481849551586361002364356 ,	 -3.43900430181268493279311826427e-05 
	 0.99994481790293376910483402753 ,	 -4.3294498911195487822478611406e-05 
	 0.99994481696375359103257096649 ,	 -5.4504544557474124411022842196e-05 
	 0.999944815475254267234106464457 ,	 -6.86171555781701220100288196591e-05 
	 0.999944813116142694475740881899 ,	 -8.6383879597425050622661046873e-05 
	 0.999944809377204313349807307532 ,	 -0.000108750858711269098033636026912 
	 0.999944803451392583149015536037 ,	 -0.000136909214631192321931507649424 
	 0.999944794059630215343759118696 ,	 -0.000172358479521122522071241434105 
	 0.999944779174727016446411198558 ,	 -0.00021698645008071202472388350202 
