CITIFILE A.01.01
#Momentum: B.12.070 (*) built: Feb 13 2020 
#Momentum Date and Time: Mon Aug 15 05:36:16 2022

NAME Momentum.SP

#  mode: MW    reference: S_50

#eesof Port[1] P1
#eesof Port[2] P2

CONSTANT NBR_OF_PORTS 2

CONSTANT NORMALIZATION 1

VAR freq MAG 438

DATA S[1,1] RI
DATA S[1,2] RI
DATA S[2,1] RI
DATA S[2,2] RI
DATA PORTZ[1] RI
DATA PORTZ[2] RI

VAR_LIST_BEGIN
	 0
	 8.19612898
	 81.9612898
	 819.612898
	 8196.12898
	 10318.31505
	 12989.98902
	 16353.42728
	 20587.74518
	 25918.43557
	 32629.37718
	 41077.9521
	 51714.07776
	 65104.16664
	 81961.2898
	 103183.1505
	 129899.8902
	 163534.2728
	 205877.4518
	 259184.3557
	 326293.7718
	 410779.521
	 517140.7776
	 651041.6664
	 819612.898
	 1031831.505
	 1298998.902
	 1635342.728
	 2058774.518
	 2591843.557
	 3262937.718
	 4107795.21
	 5171407.776
	 6510416.664
	 7361002.208
	 8215590.42
	 10342815.55
	 13020833.33
	 15953240.64
	 19531249.99
	 22637009.02
	 26041666.66
	 32552083.32
	 39062499.98
	 45572916.65
	 52083333.31
	 65104166.64
	 78124999.97
	 91145833.3
	 104166666.6
	 130208333.3
	 156249999.9
	 182291666.6
	 208333333.2
	 234374999.9
	 260416666.6
	 286458333.2
	 312499999.9
	 338541666.5
	 364583333.2
	 390624999.8
	 416666666.5
	 442708333.2
	 468749999.8
	 494791666.5
	 520833333.1
	 546874999.8
	 572916666.4
	 598958333.1
	 624999999.8
	 651041666.4
	 677083333.1
	 703124999.7
	 729166666.4
	 755208333
	 781249999.7
	 807291666.3
	 833333333
	 859374999.7
	 885416666.3
	 911458333
	 937499999.6
	 963541666.3
	 989583332.9
	 1015625000
	 1041666666
	 1067708333
	 1093750000
	 1119791666
	 1145833333
	 1171875000
	 1197916666
	 1223958333
	 1250000000
	 1276041666
	 1302083333
	 1328124999
	 1354166666
	 1380208333
	 1406249999
	 1432291666
	 1458333333
	 1484374999
	 1510416666
	 1536458333
	 1562499999
	 1588541666
	 1614583333
	 1640624999
	 1666666666
	 1692708333
	 1718749999
	 1744791666
	 1770833333
	 1796874999
	 1822916666
	 1848958333
	 1874999999
	 1901041666
	 1927083333
	 1953124999
	 1979166666
	 2005208333
	 2031249999
	 2057291666
	 2083333333
	 2109374999
	 2135416666
	 2161458333
	 2187499999
	 2213541666
	 2239583333
	 2265624999
	 2291666666
	 2317708333
	 2343749999
	 2369791666
	 2395833333
	 2421874999
	 2447916666
	 2473958333
	 2500000000
	 2552083333
	 2604166666
	 2656250000
	 2708333333
	 2760416666
	 2812500000
	 2864583333
	 2916666666
	 2968750000
	 3020833333
	 3072916666
	 3125000000
	 3177083333
	 3229166666
	 3281250000
	 3333333333
	 3385416666
	 3437500000
	 3489583333
	 3541666666
	 3593750000
	 3645833333
	 3697916666
	 3750000000
	 3802083333
	 3854166666
	 3906250000
	 3958333333
	 4010416666
	 4062500000
	 4114583333
	 4166666666
	 4218750000
	 4270833333
	 4322916667
	 4375000000
	 4427083333
	 4479166667
	 4531250000
	 4583333333
	 4635416667
	 4687500000
	 4739583333
	 4791666667
	 4843750000
	 4895833333
	 4947916667
	 5000000000
	 5052083333
	 5104166667
	 5156250000
	 5208333333
	 5260416667
	 5312500000
	 5364583333
	 5416666667
	 5468750000
	 5520833333
	 5572916667
	 5625000000
	 5677083333
	 5729166667
	 5781250000
	 5833333334
	 5885416667
	 5937500000
	 5989583334
	 6041666667
	 6093750000
	 6145833334
	 6197916667
	 6250000000
	 6302083334
	 6354166667
	 6406250000
	 6458333334
	 6510416667
	 6562500000
	 6614583334
	 6666666667
	 6718750000
	 6770833334
	 6822916667
	 6875000000
	 6927083334
	 6979166667
	 7031250000
	 7083333334
	 7135416667
	 7187500000
	 7239583334
	 7291666667
	 7343750000
	 7395833334
	 7447916667
	 7500000000
	 7552083334
	 7604166667
	 7656250001
	 7708333334
	 7734375001
	 7760416667
	 7786458334
	 7812500001
	 7838541667
	 7864583334
	 7890625001
	 7916666667
	 7942708334
	 7968750001
	 7994791667
	 8020833334
	 8033854167
	 8046875001
	 8059895834
	 8072916667
	 8085937501
	 8098958334
	 8111979167
	 8125000001
	 8138020834
	 8151041667
	 8164062501
	 8177083334
	 8190104167
	 8203125001
	 8216145834
	 8229166667
	 8235677084
	 8242187501
	 8248697917
	 8255208334
	 8261718751
	 8268229167
	 8274739584
	 8281250001
	 8287760417
	 8294270834
	 8300781251
	 8307291667
	 8313802084
	 8320312501
	 8326822917
	 8333333334
	 8337673612
	 8342013890
	 8346354167
	 8350694445
	 8355034723
	 8359375001
	 8363715278
	 8368055556
	 8372395834
	 8376736112
	 8381076390
	 8385416667
	 8387586806
	 8389756945
	 8391927084
	 8394097223
	 8396267362
	 8398437501
	 8400607640
	 8402777778
	 8404947917
	 8407118056
	 8409288195
	 8411458334
	 8413628473
	 8415798612
	 8417968751
	 8420138890
	 8422309029
	 8424479167
	 8426649306
	 8428819445
	 8430989584
	 8433159723
	 8435329862
	 8437500001
	 8439670140
	 8441840279
	 8444010417
	 8446180556
	 8448350695
	 8450520834
	 8452690973
	 8454861112
	 8457031251
	 8459201390
	 8461371529
	 8463541667
	 8465711806
	 8467881945
	 8470052084
	 8472222223
	 8474392362
	 8476562501
	 8478732640
	 8480902779
	 8483072917
	 8485243056
	 8487413195
	 8489583334
	 8491753473
	 8493923612
	 8496093751
	 8498263890
	 8500434029
	 8502604167
	 8504774306
	 8506944445
	 8509114584
	 8511284723
	 8513454862
	 8515625001
	 8517795140
	 8519965279
	 8522135417
	 8524305556
	 8528645834
	 8532986112
	 8537326390
	 8541666668
	 8546006945
	 8550347223
	 8554687501
	 8559027779
	 8563368056
	 8567708334
	 8572048612
	 8576388890
	 8580729168
	 8585069445
	 8589409723
	 8593750001
	 8598090279
	 8602430556
	 8606770834
	 8611111112
	 8616536459
	 8621961806
	 8627387154
	 8632812501
	 8638237848
	 8643663195
	 8649088543
	 8654513890
	 8665364584
	 8676215279
	 8687065973
	 8697916668
	 8708767362
	 8719618056
	 8730468751
	 8741319445
	 8752170140
	 8763020834
	 8773871529
	 8784722223
	 8806423612
	 8828125001
	 8849826390
	 8871527778
	 8893229167
	 8914930556
	 8936631945
	 8958333334
	 8980034723
	 9001736112
	 9023437501
	 9045138890
	 9066840278
	 9088541667
	 9110243056
	 9131944445
	 9175347223
	 9218750000
	 9262152778
	 9305555556
	 9348958334
	 9392361112
	 9435763889
	 9479166667
	 9522569445
	 9565972222
	 9609375000
	 9652777778
	 9696180556
	 9739583334
	 9782986111
	 9826388889
	 9869791667
	 9913194444
	 9956597222
	 1e+10
VAR_LIST_END

BEGIN
	 0.999999999999966471264656320272 ,	 -0 
	 0.999999999999966249220051395241 ,	 -7.41079952959466936590615659952e-09 
	 0.999999999999955591079014993738 ,	 -7.41079986266157675345311872661e-08 
	 0.999999999999007904705194960115 ,	 -7.41079987820469909820531029254e-07 
	 0.999999999904268133121831851895 ,	 -7.41079986710246885195374488831e-06 
	 0.999999999848295129112329959753 ,	 -9.32964426603177798824617639184e-06 
	 0.999999999759582536285051901359 ,	 -1.17453262347133602361282100901e-05 
	 0.999999999618985224714151627268 ,	 -1.47864896364868769751410582103e-05 
	 0.999999999396151473263216757914 ,	 -1.86150874956769740720119443722e-05 
	 0.999999999042985088237855961779 ,	 -2.34350065710930977047610213049e-05 
	 0.999999998483255048142837040359 ,	 -2.95029250600986614472276414745e-05 
	 0.999999997596139778011092857923 ,	 -3.7141981605870455496187787503e-05 
	 0.999999996190159112785522665945 ,	 -4.67589835413395604746256140061e-05 
	 0.999999993961830035971161123598 ,	 -5.88660707201427157997386530042e-05 
	 0.999999990430171958877281213063 ,	 -7.41079885526740866907857707702e-05 
	 0.999999984832879995622079150053 ,	 -9.32964224831245303448667982593e-05 
	 0.999999975961788134526386784273 ,	 -0.000117453222085561748144755256362 
	 0.999999961902106271338652732084 ,	 -0.000147864816036236135232684318908 
	 0.999999939619138356050598304137 ,	 -0.000186150714670096917302544170525 
	 0.999999904303336073496666358551 ,	 -0.000234349745909856466141718556173 
	 0.999999848332363772129838253022 ,	 -0.000295028612520953359421582717914 
	 0.999999759626367890064102539327 ,	 -0.0003714185429453120690368450596 
	 0.999999619041912257699777910602 ,	 -0.000467587295290616822285301168449 
	 0.999999396243296256869825811009 ,	 -0.000588655639233603977800157736056 
	 0.999999043163271483791731952806 ,	 -0.000741069774350622267888866190333 
	 0.999998483649455760513546920265 ,	 -0.000932944052780770860522352450062 
	 0.999997597081484279613050603075 ,	 -0.00117449197985797226806425896939 
	 0.999996192472197620304541487712 ,	 -0.00147856789283240530608054541517 
	 0.999993967586948695469573067385 ,	 -0.00186134706720619824693585542263 
	 0.999990444567882885706922024838 ,	 -0.00234317829627150864268969598925 
	 0.999984868943799121154825115809 ,	 -0.00294965006201719504019820305984 
	 0.9999760521565774773478096904 ,	 -0.00371291868222933807430763408775 
	 0.999962128382651638247580194729 ,	 -0.00467335290508064105097218998708 
	 0.99994018483383317885682117776 ,	 -0.0058815516017052260622222092934 
	 0.9999237324069114585256556893 ,	 -0.00664840992301551914067658799468 
	 0.999905272203333694847060542088 ,	 -0.00741831101607104415052162948996 
	 0.999851146722272154931943077827 ,	 -0.00933190313176868180278233921854 
	 0.999767205448678364376746685593 ,	 -0.0117342250905583256326281116344 
	 0.999656646012538008250203347416 ,	 -0.0143546226315824920760633176542 
	 0.999498248003336531297691180953 ,	 -0.0175356830574340261108545746538 
	 0.999342651105481927231721783755 ,	 -0.020281251737431338355577281618 
	 0.999155890630801568619290264905 ,	 -0.0232737679639951622334592684638 
	 0.99876244903123101437358855037 ,	 -0.0289463532508318355240817254526 
	 0.998336166232742350246098794742 ,	 -0.0345586170593266128747700349777 
	 0.997889792160819411037664394826 ,	 -0.0401196245482751123745401855558 
	 0.997430915913450011345275925123 ,	 -0.0456395301730101454751320488867 
	 0.996487255009701033969804484514 ,	 -0.0565925829979652128542966238456 
	 0.995507292446952796183268219465 ,	 -0.0674753347261534131007465475705 
	 0.99447706426521165212761843577 ,	 -0.0783217249018761663137411233038 
	 0.993380491471135496084343685652 ,	 -0.0891491002118929287689752527513 
	 0.990937243532039158111501819803 ,	 -0.110772455847437889531192922732 
	 0.9881,	-0.13235
	 0.98484,	-0.15389
	 0.98114,	-0.17536
	 0.97698,	-0.19675
	 0.97236,	-0.21804
	 0.96729,	-0.23921
	 0.96176,	-0.26025
	 0.95577,	-0.28114
	 0.94934,	-0.30188
	 0.94247,	-0.32245
	 0.93515,	-0.34283
	 0.9274,	-0.36302
	 0.91923,	-0.38301
	 0.91064,	-0.40278
	 0.90163,	-0.42232
	 0.89222,	-0.44163
	 0.8824,	-0.4607
	 0.8722,	-0.4795
	 0.86162,	-0.49804
	 0.85067,	-0.51631
	 0.83935,	-0.5343
	 0.82767,	-0.552
	 0.81565,	-0.5694
	 0.80329,	-0.5865
	 0.7906,	-0.60328
	 0.7776,	-0.61975
	 0.76428,	-0.63589
	 0.75067,	-0.6517
	 0.73677,	-0.66718
	 0.72258,	-0.68232
	 0.70813,	-0.69711
	 0.69342,	-0.71155
	 0.67846,	-0.72564
	 0.66326,	-0.73937
	 0.64783,	-0.75273
	 0.63218,	-0.76574
	 0.61632,	-0.77838
	 0.60026,	-0.79065
	 0.58402,	-0.80254
	 0.56759,	-0.81407
	 0.551,	-0.82522
	 0.53424,	-0.83599
	 0.51734,	-0.84639
	 0.50029,	-0.85641
	 0.48311,	-0.86605
	 0.46581,	-0.87531
	 0.4484,	-0.8842
	 0.43089,	-0.89271
	 0.41328,	-0.90084
	 0.39559,	-0.90859
	 0.37782,	-0.91597
	 0.35998,	-0.92298
	 0.34208,	-0.92962
	 0.32413,	-0.93588
	 0.30614,	-0.94178
	 0.28812,	-0.94731
	 0.27006,	-0.95247
	 0.25199,	-0.95727
	 0.23391,	-0.96172
	 0.21582,	-0.96581
	 0.19773,	-0.96954
	 0.17966,	-0.97292
	 0.1616,	-0.97596
	 0.14356,	-0.97865
	 0.12556,	-0.98099
	 0.10759,	-0.983
	 0.089669,	-0.98468
	 0.071792,	-0.98602
	 0.05397,	-0.98704
	 0.036208,	-0.98774
	 0.018512,	-0.98811
	 0.0008873,	-0.98817
	-0.016661,	-0.98792
	-0.034127,	-0.98736
	-0.051507,	-0.98649
	-0.068796,	-0.98533
	-0.085988,	-0.98387
	-0.10308,	-0.98212
	-0.12006,	-0.98008
	-0.13694,	-0.97776
	-0.15371,	-0.97516
	-0.17036,	-0.97229
	-0.18688,	-0.96915
	-0.20329,	-0.96574
	-0.21956,	-0.96207
	-0.23571,	-0.95814
	-0.25172,	-0.95396
	-0.26759,	-0.94953
	-0.28332,	-0.94485
	-0.29891,	-0.93994
	-0.31436,	-0.93479
	-0.3448,	-0.9238
	-0.37462,	-0.91191
	-0.40381,	-0.89917
	-0.43236,	-0.8856
	-0.46024,	-0.87124
	-0.48744,	-0.85611
	-0.51395,	-0.84026
	-0.53977,	-0.8237
	-0.56487,	-0.80648
	-0.58926,	-0.78862
	-0.61292,	-0.77015
	-0.63585,	-0.7511
	-0.65804,	-0.7315
	-0.67949,	-0.71137
	-0.70019,	-0.69075
	-0.72015,	-0.66965
	-0.73935,	-0.64811
	-0.7578,	-0.62614
	-0.7755,	-0.60378
	-0.79244,	-0.58105
	-0.80862,	-0.55797
	-0.82405,	-0.53456
	-0.83872,	-0.51084
	-0.85264,	-0.48684
	-0.86581,	-0.46258
	-0.87823,	-0.43808
	-0.8899,	-0.41335
	-0.90083,	-0.38842
	-0.91101,	-0.36331
	-0.92045,	-0.33803
	-0.92915,	-0.3126
	-0.93712,	-0.28705
	-0.94436,	-0.26138
	-0.95087,	-0.23562
	-0.95665,	-0.20978
	-0.96172,	-0.18387
	-0.96607,	-0.15793
	-0.9697,	-0.13195
	-0.97263,	-0.10595
	-0.97485,	-0.079962
	-0.97637,	-0.053982
	-0.9772,	-0.028032
	-0.97733,	-0.0021266
	-0.97677,	 0.023721
	-0.97553,	 0.049495
	-0.97361,	 0.075183
	-0.97102,	 0.10077
	-0.96775,	 0.12624
	-0.96382,	 0.15158
	-0.95923,	 0.17679
	-0.95398,	 0.20184
	-0.94808,	 0.22672
	-0.94153,	 0.25142
	-0.93434,	 0.27593
	-0.92651,	 0.30022
	-0.91805,	 0.3243
	-0.90896,	 0.34815
	-0.89925,	 0.37174
	-0.88892,	 0.39508
	-0.87798,	 0.41814
	-0.86643,	 0.44091
	-0.85429,	 0.46339
	-0.84155,	 0.48555
	-0.82822,	 0.50739
	-0.81432,	 0.52888
	-0.79983,	 0.55002
	-0.78478,	 0.5708
	-0.76917,	 0.59119
	-0.753,	 0.61119
	-0.73629,	 0.63079
	-0.71904,	 0.64996
	-0.70126,	 0.6687
	-0.68295,	 0.68699
	-0.66413,	 0.70481
	-0.64481,	 0.72216
	-0.62499,	 0.73902
	-0.60468,	 0.75538
	-0.5839,	 0.77121
	-0.56266,	 0.78652
	-0.54096,	 0.80128
	-0.51881,	 0.81548
	-0.49624,	 0.8291
	-0.47325,	 0.84214
	-0.44986,	 0.85457
	-0.42607,	 0.86639
	-0.40191,	 0.87758
	-0.37738,	 0.88813
	-0.3525,	 0.89802
	-0.3273,	 0.90725
	-0.30178,	 0.91579
	-0.27596,	 0.92363
	-0.24985,	 0.93077
	-0.22349,	 0.93719
	-0.19688,	 0.94287
	-0.17005,	 0.94781
	-0.14302,	 0.95199
	-0.1158,	 0.95541
	-0.088433,	 0.95804
	-0.06092,	 0.95989
	-0.033296,	 0.96093
	-0.019449,	 0.96115
	-0.0055833,	 0.96116
	 0.0082971,	 0.96097
	 0.022189,	 0.96057
	 0.036089,	 0.95996
	 0.049993,	 0.95915
	 0.063898,	 0.95812
	 0.077798,	 0.95688
	 0.09169,	 0.95542
	 0.10556,	 0.95375
	 0.11942,	 0.95187
	 0.13326,	 0.94976
	 0.14017,	 0.94863
	 0.14707,	 0.94744
	 0.15396,	 0.9462
	 0.16084,	 0.9449
	 0.16771,	 0.94355
	 0.17457,	 0.94214
	 0.18141,	 0.94068
	 0.18824,	 0.93916
	 0.19506,	 0.93759
	 0.20185,	 0.93596
	 0.20864,	 0.93428
	 0.2154,	 0.93254
	 0.22214,	 0.93076
	 0.22886,	 0.92891
	 0.23555,	 0.92702
	 0.24222,	 0.92508
	 0.24555,	 0.92409
	 0.24886,	 0.92308
	 0.25217,	 0.92207
	 0.25548,	 0.92104
	 0.25877,	 0.92
	 0.26206,	 0.91896
	 0.26534,	 0.91789
	 0.26861,	 0.91682
	 0.27187,	 0.91574
	 0.27513,	 0.91465
	 0.27837,	 0.91355
	 0.28161,	 0.91244
	 0.28484,	 0.91132
	 0.28806,	 0.91019
	 0.29127,	 0.90906
	 0.29447,	 0.90792
	 0.29659,	 0.90715
	 0.29872,	 0.90638
	 0.30084,	 0.90561
	 0.30296,	 0.90484
	 0.30507,	 0.90407
	 0.30718,	 0.90329
	 0.30928,	 0.90251
	 0.31139,	 0.90173
	 0.31348,	 0.90095
	 0.31558,	 0.90016
	 0.31767,	 0.89938
	 0.31976,	 0.89859
	 0.3208,	 0.8982
	 0.32185,	 0.89781
	 0.32289,	 0.89741
	 0.32393,	 0.89702
	 0.32497,	 0.89663
	 0.32601,	 0.89623
	 0.32705,	 0.89584
	 0.32809,	 0.89545
	 0.32913,	 0.89505
	 0.33016,	 0.89466
	 0.3312,	 0.89426
	 0.33224,	 0.89387
	 0.33328,	 0.89347
	 0.33431,	 0.89308
	 0.33535,	 0.89269
	 0.33638,	 0.89229
	 0.33742,	 0.8919
	 0.33845,	 0.8915
	 0.33949,	 0.89111
	 0.34052,	 0.89072
	 0.34156,	 0.89032
	 0.34259,	 0.88993
	 0.34363,	 0.88954
	 0.34466,	 0.88914
	 0.3457,	 0.88875
	 0.34673,	 0.88835
	 0.34777,	 0.88796
	 0.3488,	 0.88757
	 0.34984,	 0.88717
	 0.35087,	 0.88678
	 0.35191,	 0.88639
	 0.35295,	 0.88599
	 0.35398,	 0.8856
	 0.35502,	 0.88521
	 0.35606,	 0.88481
	 0.3571,	 0.88442
	 0.35814,	 0.88403
	 0.35917,	 0.88363
	 0.36021,	 0.88324
	 0.36125,	 0.88285
	 0.3623,	 0.88245
	 0.36334,	 0.88206
	 0.36438,	 0.88166
	 0.36542,	 0.88127
	 0.36647,	 0.88087
	 0.36751,	 0.88048
	 0.36856,	 0.88008
	 0.36961,	 0.87968
	 0.37065,	 0.87929
	 0.3717,	 0.87889
	 0.37275,	 0.87849
	 0.3738,	 0.87809
	 0.37485,	 0.87769
	 0.37591,	 0.87729
	 0.37696,	 0.87689
	 0.37802,	 0.87649
	 0.37907,	 0.87609
	 0.38013,	 0.87568
	 0.38119,	 0.87528
	 0.38225,	 0.87487
	 0.38331,	 0.87447
	 0.38437,	 0.87406
	 0.38543,	 0.87365
	 0.3865,	 0.87324
	 0.38863,	 0.87242
	 0.39076,	 0.87159
	 0.3929,	 0.87076
	 0.39505,	 0.86992
	 0.39719,	 0.86908
	 0.39935,	 0.86822
	 0.4015,	 0.86736
	 0.40366,	 0.8665
	 0.40583,	 0.86563
	 0.408,	 0.86474
	 0.41017,	 0.86386
	 0.41234,	 0.86296
	 0.41452,	 0.86205
	 0.41669,	 0.86114
	 0.41887,	 0.86021
	 0.42106,	 0.85928
	 0.42324,	 0.85834
	 0.42543,	 0.85739
	 0.42761,	 0.85643
	 0.4298,	 0.85546
	 0.43253,	 0.85424
	 0.43527,	 0.853
	 0.438,	 0.85174
	 0.44074,	 0.85047
	 0.44347,	 0.84919
	 0.4462,	 0.84789
	 0.44893,	 0.84658
	 0.45166,	 0.84525
	 0.4571,	 0.84255
	 0.46254,	 0.83979
	 0.46795,	 0.83698
	 0.47335,	 0.83412
	 0.47872,	 0.8312
	 0.48408,	 0.82823
	 0.48941,	 0.82522
	 0.49471,	 0.82215
	 0.5,	 0.81904
	 0.50525,	 0.81589
	 0.51048,	 0.81269
	 0.51569,	 0.80945
	 0.52601,	 0.80285
	 0.53623,	 0.7961
	 0.54634,	 0.7892
	 0.55634,	 0.78215
	 0.56623,	 0.77497
	 0.57601,	 0.76765
	 0.58568,	 0.7602
	 0.59524,	 0.75263
	 0.60468,	 0.74493
	 0.61402,	 0.73711
	 0.62324,	 0.72918
	 0.63235,	 0.72112
	 0.64135,	 0.71295
	 0.65023,	 0.70467
	 0.659,	 0.69628
	 0.66765,	 0.68778
	 0.6846,	 0.67046
	 0.70107,	 0.65272
	 0.71705,	 0.63459
	 0.73255,	 0.61607
	 0.74753,	 0.59718
	 0.76201,	 0.57793
	 0.77596,	 0.55835
	 0.78938,	 0.53845
	 0.80227,	 0.51823
	 0.8146,	 0.49773
	 0.82639,	 0.47696
	 0.83761,	 0.45593
	 0.84826,	 0.43466
	 0.85835,	 0.41317
	 0.86785,	 0.39148
	 0.87678,	 0.36961
	 0.88512,	 0.34757
	 0.89287,	 0.32539
	 0.90003,	 0.30308
	 0.90661,	 0.28066
END
BEGIN
	 8.13026339000000036434703903464e-18 ,	 0 
	 -9.93996552000000048788880282433e-16 ,	 8.64236915999999925144959860945e-12 
	 2.69749501000000006178938940899e-16 ,	 8.64237537000000025132718039521e-11 
	 1.26307817999999995498369570419e-13 ,	 8.64237509999999977234814509434e-10 
	 1.27302386999999997417181287899e-11 ,	 8.64234897999999963513049783823e-09 
	 2.01766069000000010310244380777e-11 ,	 1.08800532999999992716358667897e-08 
	 3.19782274000000000596162101249e-11 ,	 1.36971368000000007550326022602e-08 
	 5.06823420000000010561970120407e-11 ,	 1.72435963000000007752043299381e-08 
	 8.03258831000000004034178291696e-11 ,	 2.17082472000000009422797706384e-08 
	 1.27306512999999994606855970532e-10 ,	 2.73287560999999994147785070111e-08 
	 2.01762738999999994409890598473e-10 ,	 3.4404251200000002215652930267e-08 
	 3.19760235000000002612316698882e-10 ,	 4.33111604000000013464690405175e-08 
	 5.06754405999999953397886347261e-10 ,	 5.45230749999999986850368225919e-08 
	 8.03071799999999952301619920883e-10 ,	 6.86356061000000017927475661969e-08 
	 1.27258174000000006236747477294e-09 ,	 8.63973773000000054538688714495e-08 
	 2.01639984e-09 ,	 1.08748445e-07 
	 3.19450657e-09 ,	 1.36867481e-07 
	 5.05975946e-09 ,	 1.72228812e-07 
	 8.01117193e-09 ,	 2.16669569e-07 
	 1.26767917e-08 ,	 2.72465028e-07 
	 2.00411766e-08 ,	 3.42405486e-07 
	 3.16378777e-08 ,	 4.29858328e-07 
	 4.98312403e-08 ,	 5.3878037e-07 
	 7.82073958e-08 ,	 6.73612697e-07 
	 1.22064744e-07 ,	 8.38938549e-07 
	 1.88905135e-07 ,	 1.03872194e-06 
	 2.88625949e-07 ,	 1.27492091e-06 
	 4.32773359e-07 ,	 1.54543364e-06 
	 6.31900802e-07 ,	 1.84195862e-06 
	 8.9041973e-07 ,	 2.14956848e-06 
	 1.20030676e-06 ,	 2.45076172e-06 
	 1.53821183e-06 ,	 2.73508456e-06 
	 1.87084569e-06 ,	 3.01003546e-06 
	 2.16728258e-06 ,	 3.3052391e-06 
	 2.30374905e-06 ,	 3.48648796e-06 
	 2.41186627e-06 ,	 3.67106133e-06 
	 2.59727604e-06 ,	 4.15348644e-06 
	 2.73495311e-06 ,	 4.80964207e-06 
	 2.82757507e-06 ,	 5.57613137e-06 
	 2.90346762e-06 ,	 6.55641545e-06 
	 2.95423095e-06 ,	 7.43345094e-06 
	 3.00287114e-06 ,	 8.41327259e-06 
	 3.09035886e-06 ,	 1.0320454e-05 
	 3.18139661e-06 ,	 1.22536646e-05 
	 3.28148226e-06 ,	 1.42014956e-05 
	 3.39294525e-06 ,	 1.61578866e-05 
	 3.65390824e-06 ,	 2.00834378e-05 
	 3.96821436e-06 ,	 2.40142937e-05 
	 4.33699136e-06 ,	 2.79424192e-05 
