CITIFILE A.01.01
#Momentum: B.12.070 (*) built: Feb 13 2020 
#Momentum Date and Time: Tue Aug 16 02:53:38 2022

NAME Momentum.SP

#  mode: MW    reference: S_50

#eesof Port[1] P1
#eesof Port[2] P2

CONSTANT NBR_OF_PORTS 2

CONSTANT NORMALIZATION 1

VAR freq MAG 502

DATA S[1,1] RI
DATA S[1,2] RI
DATA S[2,1] RI
DATA S[2,2] RI
DATA PORTZ[1] RI
DATA PORTZ[2] RI

VAR_LIST_BEGIN
	 0
	 8.701167245
	 87.01167245
	 870.1167245
	 8701.167245
	 10954.12056
	 13790.42073
	 17361.1111
	 21856.34394
	 27515.5068
	 34639.97072
	 43609.13941
	 54900.65379
	 69115.82818
	 87011.67245
	 109541.2056
	 137904.2073
	 173611.111
	 218563.4394
	 275155.068
	 346399.7072
	 436091.3941
	 549006.5379
	 691158.2818
	 870116.7245
	 1095412.056
	 1379042.073
	 1736111.11
	 2185634.394
	 2751550.68
	 3463997.072
	 4360913.941
	 5490065.379
	 6911582.818
	 8701167.245
	 10954120.56
	 13790420.73
	 17361111.1
	 19629339.22
	 21908241.11
	 27580841.47
	 34722222.2
	 42541975.04
	 52083333.3
	 60365357.38
	 69444444.4
	 86805555.5
	 104166666.6
	 121527777.7
	 138888888.8
	 160590277.7
	 182291666.6
	 203993055.4
	 225694444.3
	 247395833.2
	 269097222.1
	 290798611
	 312499999.9
	 334201388.7
	 355902777.6
	 377604166.5
	 399305555.4
	 421006944.3
	 442708333.1
	 464409722
	 486111110.9
	 507812499.8
	 529513888.7
	 551215277.5
	 572916666.4
	 594618055.3
	 616319444.2
	 638020833.1
	 659722222
	 681423610.8
	 703124999.7
	 724826388.6
	 746527777.5
	 768229166.4
	 789930555.2
	 811631944.1
	 833333333
	 850694444.1
	 868055555.2
	 885416666.4
	 902777777.5
	 920138888.6
	 937499999.8
	 954861110.9
	 972222222
	 989583333.1
	 1006944444
	 1024305555
	 1041666666
	 1059027778
	 1076388889
	 1093750000
	 1111111111
	 1128472222
	 1145833333
	 1163194444
	 1180555555
	 1197916666
	 1215277778
	 1232638889
	 1250000000
	 1267361111
	 1284722222
	 1302083333
	 1319444444
	 1336805555
	 1354166666
	 1371527777
	 1388888888
	 1406250000
	 1423611111
	 1440972222
	 1458333333
	 1475694444
	 1493055555
	 1510416666
	 1527777777
	 1562499999
	 1597222222
	 1631944444
	 1666666666
	 1692708333
	 1718749999
	 1744791666
	 1770833333
	 1796874999
	 1822916666
	 1848958333
	 1874999999
	 1901041666
	 1927083333
	 1953124999
	 1979166666
	 2005208333
	 2031249999
	 2057291666
	 2083333333
	 2109374999
	 2135416666
	 2161458333
	 2187499999
	 2213541666
	 2239583333
	 2265624999
	 2291666666
	 2317708333
	 2343749999
	 2369791666
	 2395833333
	 2421874999
	 2447916666
	 2473958333
	 2500000000
	 2526041666
	 2552083333
	 2578125000
	 2604166666
	 2630208333
	 2656250000
	 2682291666
	 2708333333
	 2734375000
	 2760416666
	 2786458333
	 2812500000
	 2838541666
	 2864583333
	 2890625000
	 2916666666
	 2942708333
	 2968750000
	 2994791666
	 3020833333
	 3046875000
	 3072916666
	 3098958333
	 3125000000
	 3151041666
	 3177083333
	 3203125000
	 3229166666
	 3255208333
	 3281250000
	 3307291666
	 3333333333
	 3350694444
	 3368055555
	 3385416666
	 3402777778
	 3420138889
	 3437500000
	 3454861111
	 3472222222
	 3489583333
	 3506944444
	 3524305555
	 3541666666
	 3559027778
	 3576388889
	 3593750000
	 3611111111
	 3632812500
	 3654513889
	 3676215278
	 3697916667
	 3719618055
	 3741319444
	 3763020833
	 3784722222
	 3806423611
	 3828125000
	 3849826389
	 3871527778
	 3893229167
	 3914930555
	 3936631944
	 3958333333
	 3980034722
	 4001736111
	 4023437500
	 4045138889
	 4066840278
	 4088541667
	 4110243055
	 4131944444
	 4153645833
	 4175347222
	 4197048611
	 4218750000
	 4240451389
	 4262152778
	 4283854167
	 4305555556
	 4327256944
	 4348958333
	 4370659722
	 4392361111
	 4414062500
	 4435763889
	 4457465278
	 4479166667
	 4500868056
	 4522569444
	 4544270833
	 4565972222
	 4587673611
	 4609375000
	 4631076389
	 4652777778
	 4674479167
	 4696180556
	 4717881944
	 4739583333
	 4761284722
	 4782986111
	 4804687500
	 4826388889
	 4848090278
	 4869791667
	 4891493056
	 4913194444
	 4934895833
	 4956597222
	 4978298611
	 5000000000
	 5026041667
	 5052083333
	 5078125000
	 5104166667
	 5130208333
	 5156250000
	 5182291667
	 5208333333
	 5234375000
	 5260416667
	 5286458333
	 5312500000
	 5338541667
	 5364583333
	 5390625000
	 5416666667
	 5442708333
	 5468750000
	 5494791667
	 5520833333
	 5546875000
	 5572916667
	 5598958333
	 5625000000
	 5651041667
	 5677083333
	 5703125000
	 5729166667
	 5755208333
	 5781250000
	 5807291667
	 5833333334
	 5859375000
	 5885416667
	 5911458334
	 5937500000
	 5963541667
	 5989583334
	 6015625000
	 6041666667
	 6067708334
	 6093750000
	 6119791667
	 6145833334
	 6171875000
	 6197916667
	 6223958334
	 6250000000
	 6276041667
	 6302083334
	 6328125000
	 6354166667
	 6380208334
	 6406250000
	 6432291667
	 6458333334
	 6484375000
	 6510416667
	 6536458334
	 6562500000
	 6588541667
	 6614583334
	 6640625000
	 6666666667
	 6692708334
	 6718750000
	 6744791667
	 6770833334
	 6796875000
	 6822916667
	 6848958334
	 6875000000
	 6901041667
	 6927083334
	 6953125000
	 6979166667
	 7005208334
	 7031250000
	 7057291667
	 7083333334
	 7109375000
	 7135416667
	 7161458333
	 7187500000
	 7213541667
	 7239583333
	 7265625000
	 7291666667
	 7317708333
	 7343750000
	 7369791667
	 7395833333
	 7421875000
	 7447916667
	 7473958333
	 7500000000
	 7526041667
	 7552083333
	 7578125000
	 7604166667
	 7630208333
	 7656250000
	 7682291667
	 7708333334
	 7734375000
	 7760416667
	 7786458334
	 7812500000
	 7838541667
	 7864583334
	 7890625000
	 7916666667
	 7942708334
	 7968750000
	 7994791667
	 8020833334
	 8046875000
	 8072916667
	 8098958334
	 8125000000
	 8138020834
	 8151041667
	 8164062501
	 8177083334
	 8190104167
	 8203125001
	 8216145834
	 8229166667
	 8242187501
	 8255208334
	 8268229167
	 8281250001
	 8294270834
	 8307291667
	 8320312501
	 8333333334
	 8346354167
	 8359375001
	 8372395834
	 8385416667
	 8398437501
	 8411458334
	 8424479167
	 8437500001
	 8450520834
	 8463541667
	 8476562501
	 8489583334
	 8502604167
	 8515625001
	 8528645834
	 8541666667
	 8554687501
	 8567708334
	 8580729167
	 8593750001
	 8606770834
	 8619791667
	 8632812501
	 8645833334
	 8671875001
	 8697916667
	 8723958334
	 8750000000
	 8776041667
	 8802083334
	 8828125000
	 8854166667
	 8867187500
	 8880208334
	 8893229167
	 8906250000
	 8919270834
	 8932291667
	 8945312500
	 8958333334
	 8971354167
	 8984375000
	 8997395834
	 9010416667
	 9023437500
	 9036458334
	 9049479167
	 9062500000
	 9088541667
	 9114583334
	 9140625000
	 9166666667
	 9184027778
	 9201388889
	 9218750000
	 9236111111
	 9253472222
	 9270833334
	 9288194445
	 9305555556
	 9322916667
	 9340277778
	 9357638889
	 9375000000
	 9392361111
	 9409722222
	 9427083333
	 9444444444
	 9479166667
	 9513888889
	 9548611111
	 9583333333
	 9600694444
	 9618055555
	 9635416667
	 9652777778
	 9670138889
	 9687500000
	 9704861111
	 9722222222
	 9739583333
	 9756944444
	 9774305555
	 9791666666
	 9809027778
	 9826388889
	 9843750000
	 9861111111
	 9878472222
	 9895833333
	 9913194444
	 9930555556
	 9947916667
	 9965277778
	 9982638889
	 1e+10
VAR_LIST_END

BEGIN
	 7.00295554000000011708390590393e-05 ,	 -0 
	 7.00295554000000011708390590393e-05 ,	 -6.90812544000000037392373768093e-10 
	 7.00295554000000011708390590393e-05 ,	 -6.90812477000000028442407509505e-09 
	 7.00295554000000011708390590393e-05 ,	 -6.90812538999999948944553073392e-08 
	 7.00295536999999971216820937592e-05 ,	 -6.9081253799999997178683894955e-07 
	 7.00295527000000011174848935092e-05 ,	 -8.69681457999999984459092890188e-07 
	 7.00295511999999935586619370653e-05 ,	 -1.0948640900000000644769681743e-06 
	 7.00295487000000035481689364403e-05 ,	 -1.3783522199999999045160392272e-06 
	 7.00295447999999974477564057551e-05 ,	 -1.73524262999999997717653649892e-06 
	 7.00295385999999978271848832811e-05 ,	 -2.18454103999999980104075245069e-06 
	 7.00295287000000021490619950271e-05 ,	 -2.75017422000000002387507837265e-06 
	 7.0029513100000004852466184424e-05 ,	 -3.4622641900000001987595509706e-06 
	 7.00294883999999978390835209119e-05 ,	 -4.35873232999999962549147330959e-06 
	 7.00294491000000030858294031155e-05 ,	 -5.4873188100000002204105660486e-06 
	 7.00293870000000018586835959233e-05 ,	 -6.9081249300000004148368179524e-06 
	 7.00292885e-05 ,	 -8.69681368e-06 
	 7.00291323e-05 ,	 -1.09486391e-05 
	 7.00288848e-05 ,	 -1.37835186e-05 
	 7.00284926e-05 ,	 -1.73524192e-05 
	 7.0027871e-05 ,	 -2.18453963e-05 
	 7.00268857e-05 ,	 -2.75017139e-05 
	 7.00253241e-05 ,	 -3.46225855e-05 
	 7.0022849e-05 ,	 -4.35872108e-05 
	 7.00189258e-05 ,	 -5.48729637e-05 
	 7.00127069e-05 ,	 -6.90808015e-05 
	 7.00028481e-05 ,	 -8.69672435e-05 
	 6.99872167e-05 ,	 -0.000109484609 
	 6.99624268e-05 ,	 -0.000137831631 
	 6.99230978e-05 ,	 -0.0001735171 
	 6.98606656e-05 ,	 -0.000218439817 
	 6.97614671e-05 ,	 -0.000274988934 
	 6.96036208e-05 ,	 -0.000346169632 
	 6.93518811e-05 ,	 -0.000435760103 
	 6.89489767e-05 ,	 -0.000548506706 
	 6.83006417e-05 ,	 -0.000690364933 
	 6.72488662e-05 ,	 -0.000868793765 
	 6.55222837e-05 ,	 -0.00109310969 
	 6.26408148e-05 ,	 -0.00137490345 
	 6.0354008e-05 ,	 -0.0015535039 
	 5.7661687e-05 ,	 -0.00173259277 
	 4.90194358e-05 ,	 -0.00217669199 
	 3.35142617e-05 ,	 -0.00273205136 
	 9.45888994e-06 ,	 -0.00333517447 
	 -3.16029345e-05 ,	 -0.00406419006 
	 -7.88752514e-05 ,	 -0.00469135981 
	 -0.000143989934 ,	 -0.00537364059 
	 -0.000308713713 ,	 -0.00666580443 
	 -0.000526542002 ,	 -0.00794508333 
	-0.00079636,	-0.009214
	-0.0011166,	-0.010473
	-0.0015853,	-0.012034
	-0.0021277,	-0.013579
	-0.0027417,	-0.015106
	-0.0034256,	-0.016612
	-0.0041779,	-0.018096
	-0.0049971,	-0.019556
	-0.0058819,	-0.020988
	-0.0068311,	-0.022392
	-0.0078433,	-0.023764
	-0.0089173,	-0.025103
	-0.010052,	-0.026406
	-0.011245,	-0.027671
	-0.012496,	-0.028897
	-0.013804,	-0.030082
	-0.015166,	-0.031223
	-0.016581,	-0.032318
	-0.018049,	-0.033367
	-0.019566,	-0.034367
	-0.021132,	-0.035317
	-0.022746,	-0.036214
	-0.024404,	-0.037058
	-0.026106,	-0.037847
	-0.02785,	-0.038579
	-0.029634,	-0.039253
	-0.031456,	-0.039868
	-0.033315,	-0.040422
	-0.035209,	-0.040914
	-0.037135,	-0.041344
	-0.039092,	-0.041709
	-0.041078,	-0.042009
	-0.043091,	-0.042243
	-0.04513,	-0.04241
	-0.046777,	-0.042494
	-0.048438,	-0.042535
	-0.050112,	-0.042531
	-0.051797,	-0.042483
	-0.053494,	-0.04239
	-0.055199,	-0.042251
	-0.056914,	-0.042067
	-0.058636,	-0.041837
	-0.060364,	-0.04156
	-0.062098,	-0.041237
	-0.063837,	-0.040868
	-0.065578,	-0.040452
	-0.067322,	-0.039989
	-0.069067,	-0.039479
	-0.070813,	-0.038922
	-0.072557,	-0.038317
	-0.074299,	-0.037665
	-0.076039,	-0.036966
	-0.077774,	-0.036219
	-0.079504,	-0.035426
	-0.081228,	-0.034584
	-0.082945,	-0.033696
	-0.084654,	-0.03276
	-0.086353,	-0.031777
	-0.088042,	-0.030747
	-0.089719,	-0.029671
	-0.091384,	-0.028547
	-0.093036,	-0.027377
	-0.094673,	-0.026161
	-0.096295,	-0.024899
	-0.097901,	-0.02359
	-0.099489,	-0.022237
	-0.10105,	-0.020837
	-0.1026,	-0.019393
	-0.10413,	-0.017904
	-0.10564,	-0.01637
	-0.10713,	-0.014793
	-0.10859,	-0.013172
	-0.11003,	-0.011507
	-0.11145,	-0.0097994
	-0.1142,	-0.006257
	-0.11684,	-0.0025481
	-0.11936,	 0.0013239
	-0.12176,	 0.0053548
	-0.12347,	 0.0084799
	-0.1251,	 0.01169
	-0.12666,	 0.014984
	-0.12814,	 0.018359
	-0.12953,	 0.021814
	-0.13083,	 0.025346
	-0.13205,	 0.028953
	-0.13317,	 0.032634
	-0.1342,	 0.036385
	-0.13513,	 0.040205
	-0.13596,	 0.044092
	-0.1367,	 0.048042
	-0.13733,	 0.052054
	-0.13785,	 0.056126
	-0.13827,	 0.060254
	-0.13858,	 0.064436
	-0.13878,	 0.06867
	-0.13887,	 0.072953
	-0.13884,	 0.077282
	-0.1387,	 0.081656
	-0.13844,	 0.08607
	-0.13806,	 0.090523
	-0.13756,	 0.095011
	-0.13694,	 0.099533
	-0.13619,	 0.10408
	-0.13532,	 0.10866
	-0.13432,	 0.11326
	-0.13319,	 0.11788
	-0.13193,	 0.12253
	-0.13054,	 0.12718
	-0.12902,	 0.13185
	-0.12737,	 0.13653
	-0.12558,	 0.14122
	-0.12366,	 0.1459
	-0.1216,	 0.15059
	-0.1194,	 0.15527
	-0.11707,	 0.15995
	-0.11459,	 0.16461
	-0.11198,	 0.16927
	-0.10922,	 0.1739
	-0.10633,	 0.17851
	-0.10329,	 0.1831
	-0.10011,	 0.18766
	-0.096793,	 0.19219
	-0.093326,	 0.19669
	-0.089716,	 0.20114
	-0.085963,	 0.20555
	-0.082065,	 0.20992
	-0.078023,	 0.21423
	-0.073836,	 0.21849
	-0.069506,	 0.22269
	-0.065032,	 0.22683
	-0.060414,	 0.2309
	-0.055652,	 0.23489
	-0.050748,	 0.23882
	-0.045702,	 0.24266
	-0.040514,	 0.24642
	-0.035185,	 0.25009
	-0.029717,	 0.25367
	-0.02411,	 0.25715
	-0.018365,	 0.26053
	-0.012485,	 0.2638
	-0.0064693,	 0.26697
	-0.00032073,	 0.27002
	 0.0038514,	 0.27198
	 0.0080813,	 0.27389
	 0.012368,	 0.27575
	 0.016712,	 0.27755
	 0.021112,	 0.27928
	 0.025567,	 0.28096
	 0.030076,	 0.28258
	 0.03464,	 0.28414
	 0.039256,	 0.28563
	 0.043925,	 0.28705
	 0.048645,	 0.28841
	 0.053415,	 0.2897
	 0.058235,	 0.29092
	 0.063104,	 0.29207
	 0.06802,	 0.29315
	 0.072983,	 0.29416
	 0.079251,	 0.29531
	 0.085587,	 0.29634
	 0.091991,	 0.29725
	 0.098458,	 0.29804
	 0.10498,	 0.2987
	 0.11157,	 0.29923
	 0.11822,	 0.29963
	 0.12492,	 0.29989
	 0.13167,	 0.30002
	 0.13847,	 0.30001
	 0.14532,	 0.29986
	 0.15221,	 0.29957
	 0.15914,	 0.29913
	 0.1661,	 0.29855
	 0.1731,	 0.29782
	 0.18013,	 0.29694
	 0.18719,	 0.29591
	 0.19426,	 0.29472
	 0.20136,	 0.29338
	 0.20847,	 0.29189
	 0.2156,	 0.29023
	 0.22273,	 0.28842
	 0.22986,	 0.28644
	 0.237,	 0.28431
	 0.24413,	 0.28201
	 0.25126,	 0.27955
	 0.25837,	 0.27693
	 0.26547,	 0.27414
	 0.27254,	 0.27118
	 0.27959,	 0.26806
	 0.28662,	 0.26477
	 0.2936,	 0.26132
	 0.30056,	 0.2577
	 0.30746,	 0.25392
	 0.31433,	 0.24997
	 0.32114,	 0.24585
	 0.3279,	 0.24157
	 0.33459,	 0.23713
	 0.34122,	 0.23252
	 0.34779,	 0.22775
	 0.35428,	 0.22281
	 0.36069,	 0.21772
	 0.36702,	 0.21247
	 0.37326,	 0.20706
	 0.37941,	 0.20149
	 0.38547,	 0.19577
	 0.39143,	 0.18989
	 0.39728,	 0.18387
	 0.40302,	 0.17769
	 0.40866,	 0.17137
	 0.41417,	 0.16491
	 0.41956,	 0.1583
	 0.42483,	 0.15156
	 0.42997,	 0.14468
	 0.43498,	 0.13766
	 0.43985,	 0.13052
	 0.44458,	 0.12324
	 0.44916,	 0.11585
	 0.4536,	 0.10833
	 0.45788,	 0.1007
	 0.46201,	 0.092955
	 0.46599,	 0.085098
	 0.4698,	 0.077134
	 0.47344,	 0.069069
	 0.4776,	 0.059261
	 0.4815,	 0.049318
	 0.48516,	 0.039249
	 0.48856,	 0.029059
	 0.4917,	 0.018758
	 0.49457,	 0.0083516
	 0.49718,	-0.0021511
	 0.49951,	-0.012743
	 0.50157,	-0.023415
	 0.50336,	-0.034159
	 0.50486,	-0.044967
	 0.50607,	-0.055831
	 0.507,	-0.066742
	 0.50765,	-0.077691
	 0.508,	-0.08867
	 0.50806,	-0.09967
	 0.50783,	-0.11068
	 0.50731,	-0.12169
	 0.50649,	-0.1327
	 0.50538,	-0.1437
	 0.50397,	-0.15467
	 0.50227,	-0.16561
	 0.50028,	-0.17651
	 0.49799,	-0.18736
	 0.49541,	-0.19815
	 0.49254,	-0.20888
	 0.48937,	-0.21952
	 0.48592,	-0.23008
	 0.48219,	-0.24055
	 0.47817,	-0.25092
	 0.47387,	-0.26117
	 0.46928,	-0.2713
	 0.46443,	-0.28131
	 0.45929,	-0.29117
	 0.45389,	-0.30089
	 0.44822,	-0.31046
	 0.44229,	-0.31987
	 0.43611,	-0.3291
	 0.42966,	-0.33815
	 0.42297,	-0.34702
	 0.41603,	-0.35569
	 0.40885,	-0.36416
	 0.40144,	-0.37242
	 0.39379,	-0.38045
	 0.38593,	-0.38826
	 0.37784,	-0.39584
	 0.36954,	-0.40317
	 0.36103,	-0.41026
	 0.35233,	-0.41708
	 0.34343,	-0.42364
	 0.33435,	-0.42993
	 0.32508,	-0.43594
	 0.31565,	-0.44167
	 0.30605,	-0.4471
	 0.2963,	-0.45223
	 0.28639,	-0.45705
	 0.27635,	-0.46156
	 0.26618,	-0.46575
	 0.25589,	-0.46962
	 0.24548,	-0.47314
	 0.23497,	-0.47633
	 0.22437,	-0.47918
	 0.21369,	-0.48167
	 0.20293,	-0.4838
	 0.19212,	-0.48558
	 0.18126,	-0.48698
	 0.17035,	-0.48801
	 0.15943,	-0.48866
	 0.14849,	-0.48892
	 0.13754,	-0.4888
	 0.12662,	-0.48828
	 0.11572,	-0.48737
	 0.10486,	-0.48605
	 0.094061,	-0.48433
	 0.083329,	-0.4822
	 0.072685,	-0.47966
	 0.062144,	-0.47671
	 0.051723,	-0.47334
	 0.041439,	-0.46956
	 0.03131,	-0.46536
	 0.021354,	-0.46075
	 0.011591,	-0.45572
	 0.0020397,	-0.45027
	-0.0072801,	-0.44441
	-0.016348,	-0.43814
	-0.025142,	-0.43147
	-0.033642,	-0.42439
	-0.041825,	-0.41692
	-0.049668,	-0.40906
	-0.05715,	-0.40082
	-0.064247,	-0.39221
	-0.070935,	-0.38324
	-0.077192,	-0.37392
	-0.082992,	-0.36427
	-0.088312,	-0.35431
	-0.093128,	-0.34404
	-0.097416,	-0.3335
	-0.10115,	-0.32269
	-0.10431,	-0.31165
	-0.10688,	-0.3004
	-0.10883,	-0.28896
	-0.11013,	-0.27737
	-0.11078,	-0.26566
	-0.11076,	-0.25386
	-0.11003,	-0.242
	-0.1086,	-0.23013
	-0.10645,	-0.21829
	-0.10356,	-0.20651
	-0.099935,	-0.19485
	-0.095558,	-0.18334
	-0.090431,	-0.17203
	-0.084555,	-0.16098
	-0.077935,	-0.15024
	-0.070578,	-0.13985
	-0.062496,	-0.12986
	-0.053706,	-0.12034
	-0.044227,	-0.11132
	-0.034085,	-0.10286
	-0.023309,	-0.095024
	-0.011932,	-0.08784
	-0.0060304,	-0.08451
	 6.9566e-06,	-0.081362
	 0.0061744,	-0.078403
	 0.012466,	-0.075637
	 0.018877,	-0.073069
	 0.025399,	-0.070705
	 0.032027,	-0.068549
	 0.038755,	-0.066605
	 0.045574,	-0.064879
	 0.052479,	-0.063373
	 0.059462,	-0.062092
	 0.066514,	-0.061039
	 0.07363,	-0.060216
	 0.0808,	-0.059628
	 0.088017,	-0.059277
	 0.095272,	-0.059164
	 0.10255,	-0.059291
	 0.10986,	-0.059661
	 0.11718,	-0.060274
	 0.12451,	-0.06113
	 0.13183,	-0.062232
	 0.13914,	-0.063578
	 0.14643,	-0.065169
	 0.1537,	-0.067003
	 0.16092,	-0.06908
	 0.1681,	-0.071399
	 0.17522,	-0.073958
	 0.18228,	-0.076755
	 0.18927,	-0.079787
	 0.19618,	-0.083052
	 0.203,	-0.086546
	 0.20972,	-0.090267
	 0.21635,	-0.094211
	 0.22286,	-0.098374
	 0.22925,	-0.10275
	 0.23552,	-0.10733
	 0.24166,	-0.11212
	 0.24766,	-0.11712
	 0.25351,	-0.1223
	 0.25922,	-0.12768
	 0.27014,	-0.13897
	 0.2804,	-0.15095
	 0.28994,	-0.16356
	 0.29874,	-0.17674
	 0.30675,	-0.19046
	 0.31397,	-0.20463
	 0.32037,	-0.21922
	 0.32592,	-0.23416
	 0.32839,	-0.24174
	 0.33063,	-0.24939
	 0.33267,	-0.25709
	 0.33449,	-0.26485
	 0.33609,	-0.27266
	 0.33749,	-0.2805
	 0.33866,	-0.28838
	 0.33963,	-0.29628
	 0.34038,	-0.3042
	 0.34092,	-0.31213
	 0.34125,	-0.32006
	 0.34137,	-0.328
	 0.34129,	-0.33593
	 0.341,	-0.34384
	 0.3405,	-0.35174
	 0.33981,	-0.35961
	 0.33782,	-0.37527
	 0.33506,	-0.39076
	 0.33154,	-0.40605
	 0.32729,	-0.42111
	 0.32406,	-0.431
	 0.32052,	-0.44075
	 0.31669,	-0.45037
	 0.31256,	-0.45984
	 0.30815,	-0.46916
	 0.30347,	-0.47831
	 0.29852,	-0.48729
	 0.2933,	-0.49609
	 0.28784,	-0.50471
	 0.28214,	-0.51314
	 0.2762,	-0.52137
	 0.27004,	-0.5294
	 0.26365,	-0.53722
	 0.25706,	-0.54483
	 0.25027,	-0.55223
	 0.24328,	-0.55941
	 0.22876,	-0.57309
	 0.21355,	-0.58584
	 0.19773,	-0.59766
	 0.18134,	-0.6085
	 0.17295,	-0.61356
	 0.16444,	-0.61836
	 0.15582,	-0.62292
	 0.14709,	-0.62722
	 0.13827,	-0.63126
	 0.12935,	-0.63505
	 0.12035,	-0.63858
	 0.11127,	-0.64185
	 0.10211,	-0.64485
	 0.092897,	-0.64759
	 0.083618,	-0.65006
	 0.074287,	-0.65227
	 0.06491,	-0.6542
	 0.055494,	-0.65585
	 0.046046,	-0.65723
	 0.036573,	-0.65834
	 0.027082,	-0.65916
	 0.01758,	-0.6597
	 0.0080755,	-0.65996
	-0.0014245,	-0.65992
	-0.010912,	-0.6596
	-0.020378,	-0.65899
	-0.029815,	-0.65808
	-0.039213,	-0.65687
END
BEGIN
	 0.999929970444567328691221064219 ,	 -0 
	 0.999929970444575766386208215408 ,	 -7.89375703344474821676612918964e-09 
	 0.99992997044457188060562202736 ,	 -7.8937576013932142515727719001e-08 
	 0.999929970444127347306562114682 ,	 -7.89375754872700952091690851375e-07 
	 0.999929970399541789838337990659 ,	 -7.89375754839741206048131516582e-06 
	 0.999929970373202747779828314378 ,	 -9.93765197144710898946584620717e-06 
	 0.999929970331455919563268253114 ,	 -1.25107625988420123608335643439e-05 
	 0.999929970265291068187707423931 ,	 -1.57501169525918471858716429779e-05 
	 0.999929970160428838177324450953 ,	 -1.98282224633493375787196555393e-05 
	 0.99992996999423411352836410515 ,	 -2.49622531144112758116904160488e-05 
	 0.999929969730829593110854602855 ,	 -3.14256147521917161835602883002e-05 
	 0.999929969313362754235186002916 ,	 -3.95625049351353008653120468807e-05 
	 0.999929968651725120665219037619 ,	 -4.98062427011329578174780863264e-05 
	 0.999929967603098934780803119793 ,	 -6.27023443702141858313581224138e-05 
	 0.999929965941138476637206622399 ,	 -7.89375742447154249425977923238e-05 
	 0.999929963307108260472944039066 ,	 -9.93765172398533569442236057512e-05 
	 0.999929959132454526660183091735 ,	 -0.000125107621048191341994737513232 
