CITIFILE A.01.01
#Momentum: B.12.070 (*) built: Feb 13 2020 
#Momentum Date and Time: Mon Aug 15 02:07:08 2022

NAME Momentum.SP

#  mode: MW    reference: S_50

#eesof Port[1] P1
#eesof Port[2] P2

CONSTANT NBR_OF_PORTS 2

CONSTANT NORMALIZATION 1

VAR freq MAG 290

DATA S[1,1] RI
DATA S[1,2] RI
DATA S[2,1] RI
DATA S[2,2] RI
DATA PORTZ[1] RI
DATA PORTZ[2] RI

VAR_LIST_BEGIN
	 0
	 8.701167245
	 87.01167245
	 870.1167245
	 8701.167245
	 10954.12056
	 13790.42073
	 17361.1111
	 21856.34394
	 27515.5068
	 34639.97072
	 43609.13941
	 54900.65379
	 69115.82818
	 87011.67245
	 109541.2056
	 137904.2073
	 173611.111
	 218563.4394
	 275155.068
	 346399.7072
	 436091.3941
	 549006.5379
	 691158.2818
	 870116.7245
	 1095412.056
	 1379042.073
	 1736111.11
	 2185634.394
	 2751550.68
	 3463997.072
	 4360913.941
	 5490065.379
	 6911582.818
	 8701167.245
	 10954120.56
	 13790420.73
	 17361111.1
	 19629339.22
	 21908241.11
	 27580841.47
	 34722222.2
	 42541975.04
	 52083333.3
	 60365357.38
	 69444444.4
	 86805555.5
	 104166666.6
	 121527777.7
	 138888888.8
	 160590277.7
	 182291666.6
	 203993055.4
	 225694444.3
	 247395833.2
	 269097222.1
	 290798611
	 312499999.9
	 334201388.7
	 355902777.6
	 377604166.5
	 399305555.4
	 421006944.3
	 442708333.1
	 464409722
	 486111110.9
	 507812499.8
	 529513888.7
	 551215277.5
	 572916666.4
	 594618055.3
	 616319444.2
	 638020833.1
	 659722222
	 681423610.8
	 703124999.7
	 724826388.6
	 746527777.5
	 768229166.4
	 789930555.2
	 811631944.1
	 833333333
	 859374999.7
	 885416666.3
	 911458333
	 937499999.6
	 963541666.3
	 989583332.9
	 1015625000
	 1041666666
	 1067708333
	 1093750000
	 1119791666
	 1145833333
	 1171875000
	 1197916666
	 1223958333
	 1250000000
	 1276041666
	 1302083333
	 1328124999
	 1354166666
	 1380208333
	 1406249999
	 1432291666
	 1458333333
	 1484374999
	 1510416666
	 1536458333
	 1562499999
	 1588541666
	 1614583333
	 1640624999
	 1666666666
	 1692708333
	 1718749999
	 1744791666
	 1770833333
	 1796874999
	 1822916666
	 1848958333
	 1874999999
	 1901041666
	 1927083333
	 1953124999
	 1979166666
	 2005208333
	 2031249999
	 2057291666
	 2083333333
	 2109374999
	 2135416666
	 2161458333
	 2187499999
	 2213541666
	 2239583333
	 2265624999
	 2291666666
	 2317708333
	 2343749999
	 2369791666
	 2395833333
	 2421874999
	 2447916666
	 2473958333
	 2500000000
	 2552083333
	 2604166666
	 2656250000
	 2708333333
	 2760416666
	 2812500000
	 2864583333
	 2916666666
	 2968750000
	 3020833333
	 3072916666
	 3125000000
	 3177083333
	 3229166666
	 3281250000
	 3333333333
	 3385416666
	 3437500000
	 3489583333
	 3541666666
	 3593750000
	 3645833333
	 3697916666
	 3750000000
	 3802083333
	 3854166666
	 3906250000
	 3958333333
	 4010416666
	 4062500000
	 4114583333
	 4166666666
	 4218750000
	 4270833333
	 4322916667
	 4375000000
	 4427083333
	 4479166667
	 4531250000
	 4583333333
	 4635416667
	 4687500000
	 4739583333
	 4791666667
	 4843750000
	 4895833333
	 4947916667
	 5000000000
	 5052083333
	 5104166667
	 5156250000
	 5208333333
	 5260416667
	 5312500000
	 5364583333
	 5416666667
	 5468750000
	 5520833333
	 5572916667
	 5625000000
	 5677083333
	 5729166667
	 5781250000
	 5833333334
	 5885416667
	 5937500000
	 5989583334
	 6041666667
	 6093750000
	 6145833334
	 6197916667
	 6250000000
	 6302083334
	 6354166667
	 6406250000
	 6458333334
	 6510416667
	 6562500000
	 6614583334
	 6666666667
	 6718750000
	 6770833334
	 6822916667
	 6875000000
	 6927083334
	 6979166667
	 7031250000
	 7083333334
	 7135416667
	 7187500000
	 7239583334
	 7291666667
	 7343750000
	 7395833334
	 7447916667
	 7500000000
	 7552083334
	 7604166667
	 7656250001
	 7708333334
	 7760416667
	 7812500001
	 7864583334
	 7916666667
	 7968750001
	 8020833334
	 8072916667
	 8125000001
	 8177083334
	 8229166667
	 8281250001
	 8333333334
	 8385416667
	 8437500001
	 8489583334
	 8541666667
	 8593750001
	 8645833334
	 8697916667
	 8750000000
	 8802083334
	 8854166667
	 8906250000
	 8958333334
	 9010416667
	 9062500000
	 9114583334
	 9166666667
	 9218750000
	 9270833334
	 9322916667
	 9375000000
	 9427083334
	 9479166667
	 9531250000
	 9583333334
	 9635416667
	 9687500000
	 9739583333
	 9791666667
	 9843750000
	 9895833333
	 9947916667
	 1e+10
VAR_LIST_END

BEGIN
	 0.999999999999994781951784261764 ,	 -0 
	 0.999999999999998556710067987296 ,	 -7.61215357414357640664093196392e-09 
	 0.999999999999995337063296574343 ,	 -7.61215341871235295911901630461e-08 
	 0.999999999999645616810539650032 ,	 -7.61215338762610826961463317275e-07 
	 0.999999999964696573151456959749 ,	 -7.61215339117882194841513410211e-06 
	 0.999999999944048867384083223442 ,	 -9.58313334131766225709725404158e-06 
	 0.999999999911324155554837034288 ,	 -1.20644500880562333122725249268e-05 
	 0.999999999859459198781053146377 ,	 -1.51882427941174569241411518306e-05 
	 0.999999999777258063993201631092 ,	 -1.91208648112617396463974728249e-05 
	 0.999999999646979942369284799497 ,	 -2.40717426009950941079296171665e-05 
	 0.999999999440500775271800648625 ,	 -3.03045284573144613204931374639e-05 
	 0.999999999113254323113153532177 ,	 -3.81511409468515694243251346052e-05 
	 0.999999998594603756174592490424 ,	 -4.80294407882997376191269722767e-05 
	 0.999999997772597626344293075817 ,	 -6.04654834441831212643592152745e-05 
	 0.999999996469806196053298208426 ,	 -7.61215334881271132871916051954e-05 
	 0.999999994405021852550419225736 ,	 -9.58313325800652648922550724819e-05 
	 0.99999999113255844118697268641 ,	 -0.00012064449920856645803723949939 
	 0.999999985946054437135899206623 ,	 -0.000151882424603622112613265926484 
	 0.999999977725999800171052811493 ,	 -0.000191208641457274453046011331026 
	 0.99999996469809593335753561405 ,	 -0.000240717412733904012611674261279 
	 0.999999944050269595763325014559 ,	 -0.000303045258074341461451695067808 
	 0.999999911325693546793047516985 ,	 -0.00038151135660524637671642267378 
	 0.999999859460794504606440114003 ,	 -0.000480294302394934646827096003108 
	 0.999999777260621836028064990387 ,	 -0.000604654623965528159601490187924 
	 0.999999646982504208914122045826 ,	 -0.000761214914923868946061702445149 
	 0.999999440506553205487705326959 ,	 -0.000958312487889356745540681004059 
	 0.999999113266605732519565208349 ,	 -0.00120644332025365841332131822128 
	 0.999998594632232840062613377086 ,	 -0.00151882091038868516363891103538 
	 0.999997772667185480521823137678 ,	 -0.00191207975939211571869691397296 
	 0.999996469978153612601090571843 ,	 -0.0024071608494957708046513289446 
	 0.999994405450035594995483734237 ,	 -0.00303042609105030891214482835494 
	 0.999991133631645712220858968067 ,	 -0.00381506072192028256040430278517 
	 0.999985948746768604777912514692 ,	 -0.00480283761688671262390926131047 
	 0.99997773275793078173734329539 ,	 -0.00604633602234616596149407996563 
	 0.99996471505383299760438831072 ,	 -0.00761173001821657813081856147619 
	 0.999944092802182993295900814701 ,	 -0.00958228957317164287132982281037 
	 0.999911432286614831888016396988 ,	 -0.0120627696062896028195154940477 
	 0.999859727585417079609442225774 ,	 -0.0151848994052374841601249499945 
	 0.999820773915096272510538710776 ,	 -0.017167763715255190959396713879 
	 0.999776874263212933513500502158 ,	 -0.0191595788279064205283930277801 
	 0.999646978698706334398593753576 ,	 -0.0241156510889706243716545941425 
	 0.999441994443455827834554838773 ,	 -0.0303503434975676000817657040898 
	 0.999165307968280735906319023343 ,	 -0.0371701678861235951245589603786 
	 0.998755222737472858618446025503 ,	 -0.0454796537263435496356578369159 
	 0.998336154857747737345619043481 ,	 -0.0526805602724718102791712226463 
	 0.997811081365710283996861562628 ,	 -0.0605607049696184063236614747439 
	 0.996622044472605383980123860965 ,	 -0.0755862759025942576585066490225 
	 0.995199440817704172879132329399 ,	 -0.0905532320727557848982769428403 
	 0.993552380974165316729340702295 ,	 -0.105461154835357007186757982709 
	 0.991687499800580796183169240976 ,	 -0.120310979372058923786426021252 
	 0.98905,	-0.13879
	 0.98609,	-0.15718
	 0.98281,	-0.17549
	 0.9792,	-0.19371
	 0.97526,	-0.21184
	 0.971,	-0.22987
	 0.96642,	-0.24779
	 0.96152,	-0.26561
	 0.9563,	-0.28332
	 0.95076,	-0.3009
	 0.94491,	-0.31835
	 0.93874,	-0.33567
	 0.93227,	-0.35285
	 0.92549,	-0.36988
	 0.91841,	-0.38675
	 0.91104,	-0.40347
	 0.90337,	-0.42001
	 0.89542,	-0.43639
	 0.88718,	-0.45258
	 0.87867,	-0.46859
	 0.86988,	-0.48441
	 0.86083,	-0.50003
	 0.85152,	-0.51545
	 0.84195,	-0.53066
	 0.83213,	-0.54567
	 0.82207,	-0.56046
	 0.81177,	-0.57503
	 0.80124,	-0.58937
	 0.79048,	-0.60349
	 0.7795,	-0.61738
	 0.76831,	-0.63103
	 0.75691,	-0.64445
	 0.74296,	-0.66023
	 0.72873,	-0.67565
	 0.71424,	-0.69072
	 0.69948,	-0.70543
	 0.68448,	-0.71977
	 0.66925,	-0.73375
	 0.65378,	-0.74735
	 0.63811,	-0.76058
	 0.62223,	-0.77343
	 0.60615,	-0.7859
	 0.58989,	-0.79799
	 0.57346,	-0.8097
	 0.55687,	-0.82103
	 0.54013,	-0.83197
	 0.52324,	-0.84253
	 0.50623,	-0.8527
	 0.48909,	-0.86249
	 0.47184,	-0.8719
	 0.45448,	-0.88092
	 0.43704,	-0.88956
	 0.41951,	-0.89782
	 0.40191,	-0.9057
	 0.38424,	-0.9132
	 0.36652,	-0.92033
	 0.34875,	-0.92708
	 0.33094,	-0.93347
	 0.3131,	-0.93948
	 0.29523,	-0.94513
	 0.27735,	-0.95041
	 0.25947,	-0.95533
	 0.24158,	-0.9599
	 0.22371,	-0.96411
	 0.20585,	-0.96797
	 0.18801,	-0.97149
	 0.1702,	-0.97466
	 0.15243,	-0.97749
	 0.13469,	-0.97999
	 0.11701,	-0.98216
	 0.099386,	-0.984
	 0.081817,	-0.98552
	 0.064314,	-0.98672
	 0.046882,	-0.9876
	 0.029527,	-0.98818
	 0.012254,	-0.98845
	-0.0049329,	-0.98842
	-0.022028,	-0.98809
	-0.039028,	-0.98747
	-0.055927,	-0.98657
	-0.072721,	-0.98538
	-0.089407,	-0.98392
	-0.10598,	-0.98218
	-0.12243,	-0.98017
	-0.13877,	-0.9779
	-0.15498,	-0.97537
	-0.17107,	-0.97259
	-0.18703,	-0.96956
	-0.20286,	-0.96628
	-0.21854,	-0.96276
	-0.2341,	-0.95901
	-0.24951,	-0.95503
	-0.26478,	-0.95082
	-0.2799,	-0.94639
	-0.29487,	-0.94174
	-0.3097,	-0.93687
	-0.33889,	-0.92653
	-0.36747,	-0.91539
	-0.39541,	-0.90348
	-0.42271,	-0.89084
	-0.44935,	-0.87751
	-0.47534,	-0.86352
	-0.50066,	-0.84889
	-0.5253,	-0.83365
	-0.54927,	-0.81785
	-0.57256,	-0.8015
	-0.59516,	-0.78464
	-0.61709,	-0.76729
	-0.63833,	-0.74948
	-0.65888,	-0.73123
	-0.67875,	-0.71258
	-0.69794,	-0.69353
	-0.71646,	-0.67412
	-0.73429,	-0.65437
	-0.75145,	-0.6343
	-0.76794,	-0.61394
	-0.78377,	-0.59329
	-0.79893,	-0.57238
	-0.81343,	-0.55123
	-0.82728,	-0.52986
	-0.84048,	-0.50828
	-0.85303,	-0.48651
	-0.86495,	-0.46457
	-0.87623,	-0.44248
	-0.88688,	-0.42024
	-0.89691,	-0.39787
	-0.90632,	-0.37539
	-0.91512,	-0.35281
	-0.92331,	-0.33015
	-0.9309,	-0.30741
	-0.93789,	-0.28461
	-0.9443,	-0.26175
	-0.95011,	-0.23886
	-0.95535,	-0.21595
	-0.96001,	-0.19301
	-0.9641,	-0.17007
	-0.96763,	-0.14714
	-0.9706,	-0.12422
	-0.97302,	-0.10133
	-0.97488,	-0.07847
	-0.9762,	-0.055653
	-0.97699,	-0.032887
	-0.97724,	-0.010184
	-0.97696,	 0.01245
	-0.97615,	 0.035005
	-0.97483,	 0.057472
	-0.97299,	 0.079844
	-0.97064,	 0.10211
	-0.96778,	 0.12426
	-0.96442,	 0.1463
	-0.96057,	 0.16821
	-0.95622,	 0.18998
	-0.95138,	 0.21161
	-0.94606,	 0.23309
	-0.94026,	 0.25442
	-0.93399,	 0.27557
	-0.92724,	 0.29655
	-0.92002,	 0.31735
	-0.91234,	 0.33796
	-0.9042,	 0.35838
	-0.8956,	 0.37859
	-0.88656,	 0.39859
	-0.87707,	 0.41837
	-0.86713,	 0.43793
	-0.85676,	 0.45725
	-0.84595,	 0.47633
	-0.83471,	 0.49516
	-0.82304,	 0.51374
	-0.81096,	 0.53205
	-0.79845,	 0.55009
	-0.78554,	 0.56784
	-0.77222,	 0.58532
	-0.75849,	 0.60249
	-0.74436,	 0.61937
	-0.72984,	 0.63593
	-0.71494,	 0.65217
	-0.69965,	 0.66809
	-0.68398,	 0.68367
	-0.66793,	 0.69891
	-0.65152,	 0.7138
	-0.63475,	 0.72832
	-0.61763,	 0.74249
	-0.60015,	 0.75627
	-0.58233,	 0.76967
	-0.56417,	 0.78268
	-0.54568,	 0.79529
	-0.52687,	 0.80749
	-0.50774,	 0.81927
	-0.4883,	 0.83062
	-0.46857,	 0.84154
	-0.44853,	 0.85202
	-0.42821,	 0.86205
	-0.40762,	 0.87162
	-0.38675,	 0.88072
	-0.36563,	 0.88935
	-0.34426,	 0.89749
	-0.32264,	 0.90514
	-0.3008,	 0.91229
	-0.27873,	 0.91893
	-0.25646,	 0.92505
	-0.23398,	 0.93065
	-0.21132,	 0.93572
	-0.18848,	 0.94026
	-0.16548,	 0.94424
	-0.14232,	 0.94768
	-0.11903,	 0.95055
	-0.09561,	 0.95286
	-0.072077,	 0.9546
	-0.048444,	 0.95575
	-0.024727,	 0.95632
	-0.00093971,	 0.95631
	 0.022903,	 0.9557
	 0.046786,	 0.95448
	 0.070694,	 0.95267
	 0.09461,	 0.95024
	 0.11851,	 0.94721
	 0.1424,	 0.94356
	 0.16624,	 0.93929
	 0.19003,	 0.9344
	 0.21373,	 0.92889
	 0.23735,	 0.92276
	 0.26085,	 0.916
	 0.28423,	 0.90863
	 0.30745,	 0.90063
	 0.33051,	 0.89201
	 0.35338,	 0.88277
	 0.37605,	 0.87292
	 0.39849,	 0.86245
	 0.42069,	 0.85138
	 0.44263,	 0.8397
	 0.46429,	 0.82742
	 0.48564,	 0.81455
	 0.50668,	 0.8011
	 0.52737,	 0.78707
	 0.54771,	 0.77247
	 0.56768,	 0.75731
	 0.58724,	 0.74161
	 0.6064,	 0.72536
	 0.62512,	 0.70859
	 0.64339,	 0.69131
END
BEGIN
	 -3.72646224000000011890159125357e-19 ,	 0 
	 1.40946281999999995810668924782e-18 ,	 1.28386190999999991533651763614e-12 
	 -3.03576607999999995891226429954e-18 ,	 1.28386071999999999579479830332e-11 
	 -4.38993459999999978592865483726e-16 ,	 1.28386038000000009033030870918e-10 
	 -4.37877815999999974855560731773e-14 ,	 1.28386030000000004414909136923e-09 
	 -6.93944684999999952566292144249e-14 ,	 1.61628431000000009798298369445e-09 
	 -1.09987430999999995622382114181e-13 ,	 2.03478128000000019948785910759e-09 
	 -1.74312386999999997035088605896e-13 ,	 2.56163766000000018126665554522e-09 
	 -2.76272168999999974929159474088e-13 ,	 3.22491032999999979764736783008e-09 
	 -4.37854397000000007123406180612e-13 ,	 4.05992075000000000831731835097e-09 
	 -6.93945118000000019758836475149e-13 ,	 5.11113576000000033585185274889e-09 
	 -1.09980784999999990583613819699e-12 ,	 6.43453541000000001764709946315e-09 
	 -1.74301859999999997801001196968e-12 ,	 8.10059361000000020253978622519e-09 
	 -2.76235023999999989429305327947e-12 ,	 1.01980300999999994011280677795e-08 
	 -4.37766880000000038324851421006e-12 ,	 1.28385333000000001434192560827e-08 
	 -6.93721176e-12 ,	 1.61627039e-08 
	 -1.09924346e-11 ,	 2.03475352e-08 
	 -1.74160405e-11 ,	 2.56158228e-08 
	 -2.75880202e-11 ,	 3.22479989e-08 
	 -4.36875676e-11 ,	 4.05970054e-08 
	 -6.91486328e-11 ,	 5.11069691e-08 
	 -1.0936405e-10 ,	 6.43366142e-08 
	 -1.72757469e-10 ,	 8.09885485e-08 
	 -2.72373871e-10 ,	 1.01945768e-07 
	 -4.281379e-10 ,	 1.2831693e-07 
	 -6.69810257e-10 ,	 1.61492108e-07 
	 -1.04024529e-09 ,	 2.03210894e-07 
	 -1.59745588e-09 ,	 2.55644965e-07 
	 -2.41175591e-09 ,	 3.21498379e-07 
	 -3.55091371e-09 ,	 4.04132435e-07 
	 -5.044183e-09 ,	 5.07730524e-07 
	 -6.82211872e-09 ,	 6.37531455e-07 
	 -8.65002973e-09 ,	 8.00165793e-07 
	 -1.00960005e-08 ,	 1.00410736e-06 
	 -1.05580467e-08 ,	 1.26020665e-06 
	 -9.30620136e-09 ,	 1.5822657e-06 
	 -5.44739231e-09 ,	 1.9876821e-06 
	 2.24619738e-09 ,	 2.49825973e-06 
	 8.52667268e-09 ,	 2.82269559e-06 
	 1.58286956e-08 ,	 3.14870363e-06 
	 3.80524969e-08 ,	 3.96022163e-06 
	 7.38502779e-08 ,	 4.98150279e-06 
	 1.22741e-07 ,	 6.09880824e-06 
	 1.95895507e-07 ,	 7.46003274e-06 
	 2.71303663e-07 ,	 8.63923105e-06 
	 3.66578204e-07 ,	 9.92886749e-06 
	 5.85088501e-07 ,	 1.23841925e-05 
	 8.50583651e-07 ,	 1.48224731e-05 
	 1.16207935e-06 ,	 1.72402869e-05 
	 1.51842975e-06 ,	 1.96342831e-05 
	 2.02493132e-06 ,	 2.25882804e-05 
	 2.59653453e-06 ,	 2.54936422e-05 
	 3.22992048e-06 ,	 2.83442454e-05 
	 3.92138329e-06 ,	 3.1134146e-05 
	 4.66684061e-06 ,	 3.38575973e-05 
	 5.46184542e-06 ,	 3.65090677e-05 
	 6.30159872e-06 ,	 3.90832591e-05 
	 7.18096317e-06 ,	 4.15751245e-05 
	 8.09447753e-06 ,	 4.39798856e-05 
	 9.03637181e-06 ,	 4.62930491e-05 
	 1.00005831e-05 ,	 4.85104227e-05 
	 1.09807722e-05 ,	 5.06281304e-05 
	 1.19703402e-05 ,	 5.26426267e-05 
	 1.29624469e-05 ,	 5.45507095e-05 
	 1.39500279e-05 ,	 5.63495332e-05 
	 1.49258137e-05 ,	 5.80366194e-05 
	 1.58823483e-05 ,	 5.96098678e-05 
	 1.68120084e-05 ,	 6.10675652e-05 
	 1.7707023e-05 ,	 6.24083939e-05 
	 1.85594927e-05 ,	 6.36314389e-05 
	 1.93614099e-05 ,	 6.47361939e-05 
	 2.01046785e-05 ,	 6.57225667e-05 
	 2.07811343e-05 ,	 6.65908828e-05 
	 2.13825646e-05 ,	 6.73418885e-05 
	 2.19007287e-05 ,	 6.7976753e-05 
	 2.23273777e-05 ,	 6.8497069e-05 
	 2.26542742e-05 ,	 6.89048525e-05 
	 2.28732123e-05 ,	 6.92025421e-05 
	 2.29760369e-05 ,	 6.93929965e-05 
	 2.2954663e-05 ,	 6.94794918e-05 
	 2.28010947e-05 ,	 6.94657173e-05 
	 2.25074436e-05 ,	 6.93557708e-05 
	 2.19592333e-05 ,	 6.91032532e-05 
	 2.11849963e-05 ,	 6.87272796e-05 
	 2.01719364e-05 ,	 6.82371836e-05 
	 1.89076399e-05 ,	 6.76430821e-05 
	 1.7380116e-05 ,	 6.69558534e-05 
	 1.55778351e-05 ,	 6.61871126e-05 
	 1.34897656e-05 ,	 6.53491858e-05 
	 1.11054088e-05 ,	 6.44550821e-05 
	 8.41483237e-06 ,	 6.35184649e-05 
	 5.40870125e-06 ,	 6.25536206e-05 
	 2.07830726e-06 ,	 6.15754278e-05 
	 -1.58440365e-06 ,	 6.05993234e-05 
	 -5.5868059e-06 ,	 5.96412694e-05 
	 -9.93557086e-06 ,	 5.8717718e-05 
	 -1.46366454e-05 ,	 5.78455763e-05 
	 -1.96952325e-05 ,	 5.70421701e-05 
	 -2.51157736e-05 ,	 5.63252074e-05 
	 -3.09019332e-05 ,	 5.57127418e-05 
	 -3.70565851e-05 ,	 5.52231353e-05 
	 -4.3581801e-05 ,	 5.48750209e-05 
	 -5.04788401e-05 ,	 5.46872651e-05 
	 -5.77481416e-05 ,	 5.46789313e-05 
	 -6.53893183e-05 ,	 5.48692417e-05 
	 -7.34011519e-05 ,	 5.52775411e-05 
	 -8.17815903e-05 ,	 5.59232596e-05 
	 -9.05277465e-05 ,	 5.68258765e-05 
	 -9.96358989e-05 ,	 5.80048844e-05 
	 -0.000109101493 ,	 5.94797537e-05 
	 -0.000118919146 ,	 6.12698974e-05 
	 -0.000129082649 ,	 6.33946369e-05 
	 -0.000139584976 ,	 6.58731683e-05 
	 -0.00015041829 ,	 6.87245291e-05 
	 -0.000161573951 ,	 7.1967566e-05 
	 -0.000173042529 ,	 7.56209033e-05 
	 -0.000184813809 ,	 7.97029116e-05 
	 -0.000196876811 ,	 8.42316781e-05 
	 -0.000209219796 ,	 8.92249774e-05 
	 -0.000221830284 ,	 9.47002427e-05 
	 -0.000234695069 ,	 0.000100674538 
	 -0.000247800233 ,	 0.000107164533 
	 -0.000261131163 ,	 0.000114186474 
	 -0.00027467257 ,	 0.000121756163 
	 -0.000288408506 ,	 0.000129888931 
	 -0.000302322383 ,	 0.000138599614 
	 -0.000316396992 ,	 0.000147902533 
	 -0.000330614525 ,	 0.000157811474 
	 -0.000344956592 ,	 0.000168339662 
	 -0.000359404245 ,	 0.000179499747 
	 -0.000373938001 ,	 0.000191303783 
	 -0.000388537859 ,	 0.00020376321 
	 -0.000403183326 ,	 0.000216888838 
	 -0.00041785344 ,	 0.00023069083 
	 -0.000432526791 ,	 0.00024517869 
	 -0.000447181546 ,	 0.000260361245 
	 -0.000461795472 ,	 0.000276246634 
	 -0.000476345961 ,	 0.000292842293 
	 -0.000490810052 ,	 0.00031015495 
	 -0.000505164459 ,	 0.000328190605 
	 -0.00051938559 ,	 0.000346954529 
	 -0.000533449577 ,	 0.000366451249 
	 -0.000547332297 ,	 0.000386684543 
	 -0.0005610094 ,	 0.000407657431 
	 -0.000574456331 ,	 0.000429372171 
	 -0.000587648356 ,	 0.00045183025 
	 -0.000613168011 ,	 0.000498978504 
	 -0.000637367867 ,	 0.00054909855 
	 -0.000660046157 ,	 0.000602174216 
	 -0.00068100064 ,	 0.000658176758 
	 -0.000700029383 ,	 0.000717064869 
	 -0.000716931535 ,	 0.000778784738 
	 -0.000731508094 ,	 0.000843270147 
	 -0.000743562656 ,	 0.000910442625 
	 -0.000752902144 ,	 0.000980211632 
	 -0.000759337525 ,	 0.0010524748 
	 -0.000762684501 ,	 0.00112711818 
	 -0.000762764179 ,	 0.00120401661 
	 -0.000759403718 ,	 0.00128303398 
	 -0.000752436941 ,	 0.0013640237 
	 -0.000741704932 ,	 0.00144682906 
	 -0.000727056586 ,	 0.00153128369 
	 -0.000708349143 ,	 0.00161721203 
	 -0.000685448678 ,	 0.00170442985 
	 -0.000658230564 ,	 0.00179274475 
	 -0.000626579893 ,	 0.0018819567 
	 -0.000590391868 ,	 0.00197185865 
	 -0.000549572155 ,	 0.00206223704 
	 -0.000504037199 ,	 0.00215287245 
	 -0.0004537145 ,	 0.00224354015 
	 -0.000398542862 ,	 0.00233401078 
	 -0.000338472592 ,	 0.00242405089 
	 -0.000273465674 ,	 0.00251342362 
	 -0.0002034959 ,	 0.0026018893 
	 -0.000128548972 ,	 0.00268920606 
	 -4.86225672e-05 ,	 0.00277513046 
	 3.62736311e-05 ,	 0.00285941812 
	 0.00012611793 ,	 0.00294182428 
	 0.000220876657 ,	 0.00302210446 
	 0.000320504217 ,	 0.00310001499 
	 0.000424943177 ,	 0.00317531362 
	 0.000534124381 ,	 0.00324776011 
	 0.00064796708 ,	 0.00331711671 
	 0.000766379094 ,	 0.00338314878 
