CITIFILE A.01.01
#Momentum: B.12.070 (*) built: Feb 13 2020 
#Momentum Date and Time: Tue Aug 16 00:41:55 2022

NAME Momentum.SP

#  mode: MW    reference: S_50

#eesof Port[1] P1
#eesof Port[2] P2

CONSTANT NBR_OF_PORTS 2

CONSTANT NORMALIZATION 1

VAR freq MAG 479

DATA S[1,1] RI
DATA S[1,2] RI
DATA S[2,1] RI
DATA S[2,2] RI
DATA PORTZ[1] RI
DATA PORTZ[2] RI

VAR_LIST_BEGIN
	 0
	 9.215443759
	 92.15443759
	 921.5443759
	 9215.443759
	 11601.55633
	 14605.49408
	 18387.22765
	 23148.14814
	 29141.79193
	 36687.3424
	 46186.62764
	 58145.51922
	 73200.87173
	 92154.43759
	 116015.5633
	 146054.9408
	 183872.2765
	 231481.4814
	 291417.9193
	 366873.424
	 461866.2764
	 581455.1922
	 732008.7173
	 921544.3759
	 1160155.633
	 1460549.408
	 1838722.765
	 2314814.814
	 2914179.193
	 3668734.24
	 4618662.764
	 5814551.922
	 7320087.173
	 9215443.759
	 11601556.33
	 14605494.08
	 18387227.65
	 23148148.14
	 26172452.29
	 29210988.16
	 36774455.29
	 46296296.27
	 56722633.4
	 69444444.41
	 80487143.18
	 92592592.55
	 111882716
	 131172839.4
	 150462962.9
	 169753086.3
	 189043209.8
	 208333333.2
	 227623456.7
	 246913580.1
	 266203703.6
	 285493827
	 304783950.4
	 324074073.9
	 343364197.3
	 362654320.8
	 381944444.2
	 401234567.7
	 420524691.1
	 439814814.6
	 459104938.1
	 478395061.5
	 497685184.9
	 516975308.4
	 536265431.8
	 555555555.3
	 572916666.4
	 590277777.5
	 607638888.6
	 624999999.7
	 642361110.8
	 659722221.9
	 677083333
	 694444444.1
	 711805555.2
	 729166666.3
	 746527777.5
	 763888888.6
	 781249999.7
	 798611110.8
	 815972221.9
	 833333333
	 850694444.1
	 868055555.2
	 885416666.3
	 902777777.4
	 920138888.5
	 937499999.6
	 954861110.7
	 972222221.8
	 989583332.9
	 1006944444
	 1024305555
	 1041666666
	 1059027777
	 1076388888
	 1093750000
	 1111111111
	 1128472222
	 1145833333
	 1163194444
	 1180555555
	 1197916666
	 1215277777
	 1232638888
	 1249999999
	 1284722222
	 1319444444
	 1354166666
	 1388888888
	 1423611111
	 1458333333
	 1493055555
	 1527777777
	 1562499999
	 1597222222
	 1631944444
	 1666666666
	 1692708333
	 1718749999
	 1744791666
	 1770833333
	 1796874999
	 1822916666
	 1848958333
	 1874999999
	 1901041666
	 1927083333
	 1953124999
	 1979166666
	 2005208333
	 2031249999
	 2057291666
	 2083333333
	 2109374999
	 2135416666
	 2161458333
	 2187499999
	 2213541666
	 2239583333
	 2265624999
	 2291666666
	 2317708333
	 2343749999
	 2369791666
	 2395833333
	 2421874999
	 2447916666
	 2473958333
	 2500000000
	 2526041666
	 2552083333
	 2578125000
	 2604166666
	 2630208333
	 2656250000
	 2682291666
	 2708333333
	 2734375000
	 2760416666
	 2786458333
	 2812500000
	 2838541666
	 2864583333
	 2890625000
	 2916666666
	 2942708333
	 2968750000
	 2994791666
	 3020833333
	 3046875000
	 3072916666
	 3098958333
	 3125000000
	 3151041666
	 3177083333
	 3203125000
	 3229166666
	 3255208333
	 3281250000
	 3307291666
	 3333333333
	 3359375000
	 3385416666
	 3411458333
	 3437500000
	 3463541666
	 3489583333
	 3515625000
	 3541666666
	 3567708333
	 3593750000
	 3619791666
	 3645833333
	 3671875000
	 3697916666
	 3723958333
	 3750000000
	 3776041666
	 3802083333
	 3828124999
	 3854166666
	 3880208333
	 3906249999
	 3932291666
	 3958333333
	 3984374999
	 4010416666
	 4036458333
	 4062499999
	 4088541666
	 4114583333
	 4140624999
	 4166666666
	 4192708333
	 4218749999
	 4244791666
	 4270833333
	 4296874999
	 4322916666
	 4348958333
	 4375000000
	 4401041666
	 4427083333
	 4453125000
	 4479166666
	 4505208333
	 4531250000
	 4557291666
	 4583333333
	 4609375000
	 4635416666
	 4661458333
	 4687500000
	 4713541666
	 4739583333
	 4765625000
	 4791666666
	 4817708333
	 4843750000
	 4869791667
	 4895833333
	 4921875000
	 4947916667
	 4973958333
	 5000000000
	 5026041667
	 5052083333
	 5078125000
	 5104166667
	 5130208333
	 5156250000
	 5182291667
	 5208333334
	 5234375000
	 5260416667
	 5286458334
	 5312500000
	 5338541667
	 5364583334
	 5390625000
	 5416666667
	 5442708334
	 5468750000
	 5494791667
	 5520833334
	 5546875000
	 5572916667
	 5598958334
	 5625000000
	 5651041667
	 5677083334
	 5703125001
	 5729166667
	 5755208334
	 5781250001
	 5807291667
	 5833333334
	 5859375001
	 5885416667
	 5911458334
	 5937500001
	 5963541667
	 5989583334
	 6015625001
	 6041666667
	 6067708334
	 6093750001
	 6119791667
	 6145833334
	 6171875001
	 6197916667
	 6223958334
	 6250000000
	 6276041667
	 6302083334
	 6328125000
	 6354166667
	 6380208334
	 6406250000
	 6432291667
	 6458333334
	 6484375000
	 6510416667
	 6536458334
	 6562500000
	 6588541667
	 6614583334
	 6640625000
	 6666666667
	 6681134260
	 6695601852
	 6710069445
	 6724537037
	 6739004630
	 6753472223
	 6767939815
	 6782407408
	 6796875000
	 6811342593
	 6825810186
	 6840277778
	 6854745371
	 6869212963
	 6883680556
	 6898148148
	 6912615741
	 6927083334
	 6941550926
	 6956018519
	 6970486111
	 6984953704
	 6999421297
	 7013888889
	 7028356482
	 7042824074
	 7057291667
	 7071759260
	 7086226852
	 7100694445
	 7115162037
	 7129629630
	 7144097223
	 7158564815
	 7173032408
	 7187500000
	 7201967593
	 7216435186
	 7230902778
	 7245370371
	 7259837963
	 7274305556
	 7288773149
	 7303240741
	 7317708334
	 7332175926
	 7346643519
	 7361111112
	 7375578704
	 7390046297
	 7404513889
	 7418981482
	 7433449074
	 7447916667
	 7462384260
	 7476851852
	 7491319445
	 7505787037
	 7520254630
	 7534722223
	 7549189815
	 7563657408
	 7578125000
	 7592592593
	 7604166667
	 7615740741
	 7627314815
	 7638888889
	 7650462963
	 7662037037
	 7673611111
	 7685185186
	 7696759260
	 7708333334
	 7719907408
	 7731481482
	 7743055556
	 7754629630
	 7766203704
	 7777777778
	 7792245371
	 7806712963
	 7821180556
	 7835648148
	 7850115741
	 7864583334
	 7879050926
	 7893518519
	 7922453704
	 7951388889
	 7980324074
	 8009259260
	 8038194445
	 8067129630
	 8096064815
	 8125000000
	 8139467593
	 8153935185
	 8168402778
	 8182870371
	 8197337963
	 8211805556
	 8226273148
	 8240740741
	 8252314815
	 8263888889
	 8275462963
	 8287037038
	 8298611112
	 8310185186
	 8321759260
	 8333333334
	 8356481482
	 8379629630
	 8402777778
	 8425925926
	 8449074075
	 8472222223
	 8495370371
	 8518518519
	 8541666667
	 8564814815
	 8587962963
	 8611111112
	 8634259260
	 8657407408
	 8680555556
	 8703703704
	 8726851852
	 8750000000
	 8773148148
	 8796296296
	 8819444445
	 8842592593
	 8865740741
	 8888888889
	 8923611111
	 8958333333
	 8993055556
	 9027777778
	 9062500000
	 9097222222
	 9131944444
	 9166666666
	 9201388889
	 9236111111
	 9270833333
	 9305555555
	 9340277777
	 9375000000
	 9409722222
	 9444444444
	 9490740740
	 9537037037
	 9583333333
	 9629629630
	 9675925926
	 9722222222
	 9768518519
	 9814814815
	 9861111111
	 9907407408
	 9953703704
	 1e+10
VAR_LIST_END

BEGIN
	 6.5417248699999993514879459422e-05 ,	 -0 
	 6.5417248699999993514879459422e-05 ,	 -2.2442875400000001170348451051e-09 
	 6.5417248699999993514879459422e-05 ,	 -2.24428799000000009504579649147e-08 
	 6.54172486000000020459760330382e-05 ,	 -2.24428807999999995829908876026e-07 
	 6.54172324000000017258510398577e-05 ,	 -2.24428807999999979948041115008e-06 
	 6.54172227999999940069655868236e-05 ,	 -2.82539129000000004401037777269e-06 
	 6.54172076999999947124683763455e-05 ,	 -3.55695689999999992728053552216e-06 
	 6.54171836000000042751420514797e-05 ,	 -4.47794342000000031712818315821e-06 
	 6.54171455999999934853225691533e-05 ,	 -5.63739675999999969717739120578e-06 
	 6.54170851999999963073337272412e-05 ,	 -7.0970620299999998971504817924e-06 
	 6.54169895999999934143101509854e-05 ,	 -8.93467170999999942644295702898e-06 
	 6.54168381000000024672394460801e-05 ,	 -1.12480852000000004537079434375e-05 
	 6.54165979000000027401492963541e-05 ,	 -1.41605001999999992329118750356e-05 
	 6.54162173000000002386425390632e-05 ,	 -1.78270133000000009760276087345e-05 
	 6.54156139999999958461324167658e-05 ,	 -2.24428796999999986632422233068e-05 
	 6.54146579e-05 ,	 -2.82539108e-05 
	 6.54131425e-05 ,	 -3.55695647e-05 
	 6.54107408e-05 ,	 -4.47794256e-05 
	 6.54069344e-05 ,	 -5.63739504e-05 
	 6.54009016e-05 ,	 -7.0970586e-05 
	 6.53913401e-05 ,	 -8.93466488e-05 
	 6.53761861e-05 ,	 -0.000112480716 
	 6.5352168e-05 ,	 -0.00014160473 
	 6.53141007e-05 ,	 -0.000178269591 
	 6.52537649e-05 ,	 -0.000224427714 
	 6.51581314e-05 ,	 -0.000282536948 
	 6.5006543e-05 ,	 -0.000355691338 
	 6.47662426e-05 ,	 -0.000447785662 
	 6.43852689e-05 ,	 -0.000563722364 
	 6.37811579e-05 ,	 -0.000709671685 
	 6.28229335e-05 ,	 -0.000893398378 
	 6.13023175e-05 ,	 -0.00112467151 
	 5.88874823e-05 ,	 -0.00141577743 
	 5.50482489e-05 ,	 -0.00178215991 
	 4.89339058e-05 ,	 -0.00224321536 
	 3.91710542e-05 ,	 -0.00282327468 
	 2.3524038e-05 ,	 -0.00355280627 
	 -1.68363991e-06 ,	 -0.00446987967 
	 -4.25622694e-05 ,	 -0.00562194338 
	 -7.40662185e-05 ,	 -0.00635222416 
	 -0.000110219779 ,	 -0.00708467744 
	 -0.00022061248 ,	 -0.00890232574 
	-0.00040279,	-0.01118
	-0.00065931,	-0.01366
	-0.0010538,	-0.016671
	-0.0014684,	-0.019269
	-0.0019984,	-0.022103
	-0.0030027,	-0.026582
	-0.0041982,	-0.031013
	-0.0055793,	-0.03539
	-0.0071415,	-0.039704
	-0.0088803,	-0.043951
	-0.010792,	-0.048124
	-0.012871,	-0.052217
	-0.015116,	-0.056225
	-0.01752,	-0.06014
	-0.020081,	-0.063959
	-0.022795,	-0.067676
	-0.025656,	-0.071285
	-0.028661,	-0.074781
	-0.031806,	-0.078159
	-0.035085,	-0.081415
	-0.038493,	-0.084544
	-0.042026,	-0.087541
	-0.045679,	-0.090401
	-0.049446,	-0.093121
	-0.053321,	-0.095697
	-0.0573,	-0.098125
	-0.061376,	-0.1004
	-0.065544,	-0.10252
	-0.069798,	-0.10448
	-0.073694,	-0.10611
	-0.07765,	-0.10761
	-0.081662,	-0.10897
	-0.085724,	-0.1102
	-0.089833,	-0.11129
	-0.093983,	-0.11224
	-0.09817,	-0.11305
	-0.10238,	-0.11372
	-0.10663,	-0.11425
	-0.1109,	-0.11464
	-0.11519,	-0.11488
	-0.11949,	-0.11499
	-0.1238,	-0.11495
	-0.12811,	-0.11477
	-0.13242,	-0.11444
	-0.13673,	-0.11397
	-0.14103,	-0.11336
	-0.14531,	-0.11261
	-0.14957,	-0.11172
	-0.15381,	-0.11069
	-0.15802,	-0.10952
	-0.1622,	-0.10821
	-0.16634,	-0.10677
	-0.17044,	-0.10519
	-0.17449,	-0.10348
	-0.17849,	-0.10164
	-0.18245,	-0.099671
	-0.18634,	-0.097572
	-0.19017,	-0.095348
	-0.19394,	-0.093
	-0.19763,	-0.090532
	-0.20126,	-0.087945
	-0.2048,	-0.085243
	-0.20827,	-0.082427
	-0.21166,	-0.0795
	-0.21495,	-0.076466
	-0.21816,	-0.073327
	-0.22128,	-0.070086
	-0.2243,	-0.066746
	-0.22722,	-0.063311
	-0.23275,	-0.056166
	-0.23786,	-0.048679
	-0.24252,	-0.040875
	-0.24672,	-0.032786
	-0.25044,	-0.024438
	-0.25367,	-0.015864
	-0.25639,	-0.0070921
	-0.2586,	 0.0018448
	-0.26029,	 0.010916
	-0.26145,	 0.020089
	-0.26208,	 0.029332
	-0.26217,	 0.038613
	-0.26189,	 0.045579
	-0.2613,	 0.052535
	-0.26042,	 0.059467
	-0.25924,	 0.066362
	-0.25776,	 0.073206
	-0.25598,	 0.079987
	-0.25392,	 0.08669
	-0.25157,	 0.093303
	-0.24893,	 0.099814
	-0.24602,	 0.1062
	-0.24284,	 0.11247
	-0.23939,	 0.1186
	-0.23568,	 0.12457
	-0.23171,	 0.13039
	-0.2275,	 0.13602
	-0.22306,	 0.14147
	-0.21838,	 0.14673
	-0.21349,	 0.15178
	-0.20839,	 0.15661
	-0.20308,	 0.16121
	-0.19759,	 0.16558
	-0.19191,	 0.1697
	-0.18607,	 0.17357
	-0.18007,	 0.17718
	-0.17393,	 0.18052
	-0.16765,	 0.18359
	-0.16126,	 0.18637
	-0.15476,	 0.18887
	-0.14816,	 0.19108
	-0.14149,	 0.19299
	-0.13475,	 0.1946
	-0.12796,	 0.1959
	-0.12114,	 0.1969
	-0.11429,	 0.19759
	-0.10743,	 0.19797
	-0.10058,	 0.19805
	-0.09376,	 0.1978
	-0.086971,	 0.19726
	-0.080234,	 0.1964
	-0.073564,	 0.19523
	-0.066977,	 0.19377
	-0.060487,	 0.192
	-0.054109,	 0.18994
	-0.047858,	 0.18759
	-0.041748,	 0.18495
	-0.035793,	 0.18204
	-0.030008,	 0.17886
	-0.024406,	 0.17542
	-0.019001,	 0.17173
	-0.013805,	 0.16779
	-0.0088304,	 0.16362
	-0.00409,	 0.15923
	 0.00040502,	 0.15463
	 0.0046437,	 0.14983
	 0.0086157,	 0.14485
	 0.012311,	 0.1397
	 0.015722,	 0.13439
	 0.018838,	 0.12894
	 0.021653,	 0.12336
	 0.02416,	 0.11767
	 0.026353,	 0.11188
	 0.028226,	 0.10602
	 0.029775,	 0.10009
	 0.030997,	 0.094127
	 0.03189,	 0.088127
	 0.032451,	 0.082116
	 0.032679,	 0.076112
	 0.032576,	 0.070133
	 0.032142,	 0.064195
	 0.03138,	 0.058317
	 0.030291,	 0.052516
	 0.028882,	 0.046809
	 0.027156,	 0.041214
	 0.025119,	 0.035748
	 0.022779,	 0.030427
	 0.020143,	 0.025267
	 0.017219,	 0.020284
	 0.014019,	 0.015495
	 0.010551,	 0.010912
	 0.0068267,	 0.0065522
	 0.00285873981 ,	 0.00242742768 
	 -0.00134035667 ,	 -0.00144870608 
	-0.0057572,	-0.0050639
	-0.010378,	-0.0084066
	-0.015187,	-0.011466
	-0.020169,	-0.014232
	-0.025309,	-0.016695
	-0.030591,	-0.018848
	-0.035996,	-0.020683
	-0.041509,	-0.022193
	-0.047112,	-0.023373
	-0.052786,	-0.024218
	-0.058514,	-0.024725
	-0.064278,	-0.024891
	-0.07006,	-0.024715
	-0.07584,	-0.024196
	-0.081601,	-0.023334
	-0.087324,	-0.022131
	-0.092992,	-0.020589
	-0.098586,	-0.018711
	-0.10408,	-0.016502
	-0.10948,	-0.013967
	-0.11474,	-0.011112
	-0.11987,	-0.007944
	-0.12483,	-0.0044709
	-0.12962,	-0.00070147
	-0.13421,	 0.0033546
	-0.1386,	 0.0076871
	-0.14277,	 0.012285
	-0.14671,	 0.017135
	-0.1504,	 0.022227
	-0.15383,	 0.027546
	-0.15698,	 0.033079
	-0.15986,	 0.03881
	-0.16244,	 0.044726
	-0.16471,	 0.050811
	-0.16668,	 0.057048
	-0.16833,	 0.063421
	-0.16965,	 0.069914
	-0.17064,	 0.07651
	-0.17129,	 0.08319
	-0.1716,	 0.089938
	-0.17157,	 0.096735
	-0.17118,	 0.10356
	-0.17045,	 0.1104
	-0.16937,	 0.11723
	-0.16793,	 0.12405
	-0.16615,	 0.13082
	-0.16402,	 0.13753
	-0.16154,	 0.14416
	-0.15873,	 0.15069
	-0.15557,	 0.15711
	-0.15209,	 0.1634
	-0.14828,	 0.16953
	-0.14416,	 0.1755
	-0.13973,	 0.18128
	-0.135,	 0.18686
	-0.12997,	 0.19222
	-0.12467,	 0.19735
	-0.11911,	 0.20223
	-0.11329,	 0.20684
	-0.10722,	 0.21117
	-0.10093,	 0.21521
	-0.094435,	 0.21894
	-0.087737,	 0.22234
	-0.080858,	 0.22542
	-0.073816,	 0.22815
	-0.066629,	 0.23053
	-0.059315,	 0.23254
	-0.051895,	 0.23417
	-0.044388,	 0.23542
	-0.036814,	 0.23628
	-0.029195,	 0.23674
	-0.021553,	 0.2368
	-0.01391,	 0.23645
	-0.0062897,	 0.23568
	 0.0012844,	 0.2345
	 0.0087881,	 0.23291
	 0.016197,	 0.23089
	 0.023485,	 0.22845
	 0.030628,	 0.2256
	 0.037599,	 0.22234
	 0.044371,	 0.21867
	 0.050919,	 0.2146
	 0.057214,	 0.21013
	 0.063231,	 0.20528
	 0.068941,	 0.20005
	 0.074317,	 0.19445
	 0.079331,	 0.18851
	 0.083955,	 0.18224
	 0.088163,	 0.17565
	 0.091927,	 0.16876
	 0.09522,	 0.16159
	 0.098015,	 0.15417
	 0.10028,	 0.14653
	 0.102,	 0.13869
	 0.10315,	 0.13068
	 0.1037,	 0.12253
	 0.10362,	 0.11428
	 0.10291,	 0.10597
	 0.10153,	 0.097641
	 0.099477,	 0.089323
	 0.09672,	 0.081069
	 0.093251,	 0.072925
	 0.089058,	 0.064943
	 0.084132,	 0.057174
	 0.078467,	 0.049675
	 0.07206,	 0.042502
	 0.064913,	 0.035717
	 0.05703,	 0.029381
	 0.048422,	 0.023559
	 0.039102,	 0.018317
	 0.033624,	 0.01568
	 0.027937,	 0.013255
	 0.022046,	 0.011053
	 0.015956,	 0.0090867
	 0.0096718,	 0.0073676
	 0.00320129027 ,	 0.00590783993 
	 -0.00344868158 ,	 0.00471932578 
	-0.01027,	 0.003814
	-0.017255,	 0.0032037
	-0.024393,	 0.0029001
	-0.031676,	 0.0029148
	-0.039091,	 0.0032592
	-0.046629,	 0.0039444
	-0.054276,	 0.0049813
	-0.06202,	 0.0063804
	-0.069846,	 0.0081519
	-0.077742,	 0.010306
	-0.085691,	 0.012851
	-0.093677,	 0.015796
	-0.10168,	 0.019149
	-0.10969,	 0.022918
	-0.11769,	 0.027109
	-0.12565,	 0.031729
	-0.13356,	 0.036783
	-0.1414,	 0.042275
	-0.14914,	 0.048208
	-0.15677,	 0.054585
	-0.16426,	 0.061408
	-0.1716,	 0.068676
	-0.17875,	 0.076388
	-0.1857,	 0.084543
	-0.19242,	 0.093137
	-0.1989,	 0.10216
	-0.2051,	 0.11162
	-0.211,	 0.1215
	-0.21658,	 0.13179
	-0.22182,	 0.14248
	-0.2267,	 0.15356
	-0.23118,	 0.16503
	-0.23526,	 0.17685
	-0.2389,	 0.18903
	-0.24209,	 0.20153
	-0.24481,	 0.21435
	-0.24703,	 0.22746
	-0.24875,	 0.24084
	-0.24993,	 0.25448
	-0.25058,	 0.26834
	-0.25066,	 0.2824
	-0.25018,	 0.29663
	-0.24911,	 0.31102
	-0.24744,	 0.32552
	-0.24517,	 0.34013
	-0.24229,	 0.3548
	-0.2388,	 0.3695
	-0.23468,	 0.38421
	-0.22994,	 0.3989
	-0.22457,	 0.41354
	-0.21858,	 0.4281
	-0.21198,	 0.44254
	-0.20475,	 0.45684
	-0.19692,	 0.47097
	-0.18848,	 0.4849
	-0.17946,	 0.4986
	-0.16985,	 0.51204
	-0.16175,	 0.52259
	-0.1533,	 0.53295
	-0.1445,	 0.5431
	-0.13536,	 0.55302
	-0.12589,	 0.56272
	-0.11609,	 0.57217
	-0.10598,	 0.58137
	-0.095576,	 0.5903
	-0.084872,	 0.59895
	-0.073888,	 0.60732
	-0.062634,	 0.61539
	-0.051122,	 0.62316
	-0.039363,	 0.63062
	-0.02737,	 0.63775
	-0.015155,	 0.64456
	-0.0027307,	 0.65104
	 0.013076,	 0.65866
	 0.029166,	 0.66575
	 0.045514,	 0.67228
	 0.062095,	 0.67826
	 0.078885,	 0.68368
	 0.095858,	 0.68854
	 0.11298,	 0.69282
	 0.13025,	 0.69654
	 0.16508,	 0.70223
	 0.20016,	 0.70563
	 0.23529,	 0.70672
	 0.27029,	 0.70552
	 0.30495,	 0.70204
	 0.33905,	 0.69626
	 0.37231,	 0.68817
	 0.40431,	 0.67775
	 0.41964,	 0.67167
	 0.43435,	 0.66504
	 0.44826,	 0.65796
	 0.46115,	 0.65061
	 0.4728,	 0.64338
	 0.48317,	 0.63692
	 0.4927,	 0.63209
	 0.50261,	 0.62948
	 0.51194,	 0.62868
	 0.52309,	 0.62808
	 0.53588,	 0.62673
	 0.54969,	 0.62403
	 0.56383,	 0.61987
	 0.57778,	 0.61445
	 0.59131,	 0.60805
	 0.6043,	 0.60095
	 0.62869,	 0.58534
	 0.65123,	 0.56858
	 0.67225,	 0.55111
	 0.69199,	 0.53312
	 0.71061,	 0.5147
	 0.72822,	 0.49592
	 0.74489,	 0.4768
	 0.76067,	 0.45739
	 0.7756,	 0.43771
	 0.78971,	 0.41778
	 0.80302,	 0.39764
	 0.81555,	 0.37731
	 0.82732,	 0.35682
	 0.83834,	 0.33619
	 0.84864,	 0.31544
	 0.85823,	 0.2946
	 0.86711,	 0.27368
	 0.87532,	 0.25272
	 0.88286,	 0.23173
	 0.88974,	 0.21072
	 0.89598,	 0.18972
	 0.9016,	 0.16874
	 0.90661,	 0.1478
	 0.91102,	 0.12692
	 0.91655,	 0.095723
	 0.9208,	 0.06472
	 0.92384,	 0.033951
	 0.92569,	 0.0034544
	 0.92641,	-0.026738
	 0.92603,	-0.056598
	 0.9246,	-0.086096
	 0.92214,	-0.11521
	 0.91871,	-0.14391
	 0.91432,	-0.1722
	 0.90903,	-0.20004
	 0.90285,	-0.22741
	 0.89582,	-0.25432
	 0.88797,	-0.28073
	 0.87932,	-0.30664
	 0.86989,	-0.33203
	 0.85611,	-0.36506
	 0.84092,	-0.39723
	 0.82465,	-0.42868
	 0.80738,	-0.45902
	 0.78893,	-0.48827
	 0.76935,	-0.51648
	 0.74867,	-0.54365
	 0.72694,	-0.56977
	 0.70418,	-0.59479
	 0.6804,	-0.61869
	 0.65563,	-0.64144
	 0.62988,	-0.663
END
BEGIN
	 0.999934582751285772062033174734 ,	 -0 
	 0.999934582751284106727496236999 ,	 -9.55908196576069763006344714995e-09 
	 0.999934582751277556411650948576 ,	 -9.55908193239979678268447571554e-08 
	 0.999934582750535150275084106397 ,	 -9.55908189132046066938119821543e-07 
	 0.999934582676323846506249992672 ,	 -9.559081886436563563202994942e-06 
	 0.999934582632481361308407485922 ,	 -1.20341710975203344466399890678e-05 
	 0.999934582562994278553958338307 ,	 -1.5150123799471666534433023088e-05 
	 0.999934582452864595403241310123 ,	 -1.90728758322463234908816787083e-05 
	 0.999934582278321215653704712167 ,	 -2.40113280398952669628109823918e-05 
	 0.999934582001689054031601244787 ,	 -3.02284709984461733012217621308e-05 
	 0.999934581563256430492003801191 ,	 -3.80553902159444642702701422365e-05 
	 0.999934580868388378505073887936 ,	 -4.79088976310333486061110441767e-05 
	 0.999934579767095654823094719177 ,	 -6.0313728343798674036424500855e-05 
	 0.999934578021663744706870602386 ,	 -7.59304846247005988876810356203e-05 
	 0.99993457525534357177576794129 ,	 -9.55908152912248289603813766746e-05 
	 0.999934570871021777271892005956 ,	 -0.000120341703847795305701295909273 
	 0.999934563922348251807648011891 ,	 -0.000151501223770874617578774401494 
	 0.999934552909455098834712316602 ,	 -0.00019072872994394874431728359454 
	 0.999934535455235695700082487747 ,	 -0.000240113223778371616054516657357 
	 0.999934507792256788150098145707 ,	 -0.000302284597007970614983285440047 
	 0.999934463949626484158272887726 ,	 -0.000380553676738594145491367815026 
	 0.999934394464338405228431838623 ,	 -0.000479088526544100981943707928679 
	 0.999934284339078272019207815902 ,	 -0.000603136386063022797952848375047 
	 0.999934109806070670067867922626 ,	 -0.000759303055809293077176025388297 
	 0.999933833199360688759327331354 ,	 -0.000955904580725206788095749121936 
	 0.999933394831037603012191539165 ,	 -0.00120340991163195624134851779985 
	 0.999932700123754236720685639739 ,	 -0.00151499801973438842465913278801 
	 0.999931599236770329852674876747 ,	 -0.00190725893703404389065148016869 
