CITIFILE A.01.01
#Momentum: B.12.070 (*) built: Feb 13 2020 
#Momentum Date and Time: Tue Aug 16 05:17:18 2022

NAME Momentum.SP

#  mode: MW    reference: S_50

#eesof Port[1] P1
#eesof Port[2] P2

CONSTANT NBR_OF_PORTS 2

CONSTANT NORMALIZATION 1

VAR freq MAG 562

DATA S[1,1] RI
DATA S[1,2] RI
DATA S[2,1] RI
DATA S[2,2] RI
DATA PORTZ[1] RI
DATA PORTZ[2] RI

VAR_LIST_BEGIN
	 0
	 8.701167245
	 87.01167245
	 870.1167245
	 8701.167245
	 10954.12056
	 13790.42073
	 17361.1111
	 21856.34394
	 27515.5068
	 34639.97072
	 43609.13941
	 54900.65379
	 69115.82818
	 87011.67245
	 109541.2056
	 137904.2073
	 173611.111
	 218563.4394
	 275155.068
	 346399.7072
	 436091.3941
	 549006.5379
	 691158.2818
	 870116.7245
	 1095412.056
	 1379042.073
	 1736111.11
	 2185634.394
	 2751550.68
	 3463997.072
	 4360913.941
	 5490065.379
	 6911582.818
	 8701167.245
	 10954120.56
	 13790420.73
	 17361111.1
	 19629339.22
	 21908241.11
	 27580841.47
	 34722222.2
	 42541975.04
	 52083333.3
	 60365357.38
	 69444444.4
	 86805555.5
	 104166666.6
	 121527777.7
	 138888888.8
	 160590277.7
	 182291666.6
	 203993055.4
	 225694444.3
	 247395833.2
	 269097222.1
	 290798611
	 312499999.9
	 334201388.7
	 355902777.6
	 377604166.5
	 399305555.4
	 421006944.3
	 442708333.1
	 464409722
	 486111110.9
	 507812499.8
	 529513888.7
	 551215277.5
	 572916666.4
	 594618055.3
	 616319444.2
	 638020833.1
	 659722222
	 681423610.8
	 703124999.7
	 724826388.6
	 746527777.5
	 768229166.4
	 789930555.2
	 811631944.1
	 833333333
	 859374999.7
	 885416666.3
	 911458333
	 937499999.6
	 963541666.3
	 989583332.9
	 1015625000
	 1041666666
	 1067708333
	 1093750000
	 1119791666
	 1145833333
	 1171875000
	 1197916666
	 1223958333
	 1250000000
	 1276041666
	 1302083333
	 1328124999
	 1354166666
	 1380208333
	 1406249999
	 1432291666
	 1458333333
	 1484374999
	 1510416666
	 1536458333
	 1562499999
	 1588541666
	 1614583333
	 1640624999
	 1666666666
	 1692708333
	 1718749999
	 1744791666
	 1770833333
	 1796874999
	 1822916666
	 1848958333
	 1875000000
	 1901041666
	 1927083333
	 1953125000
	 1979166666
	 2005208333
	 2031250000
	 2057291666
	 2083333333
	 2109375000
	 2135416666
	 2161458333
	 2187500000
	 2213541666
	 2239583333
	 2265625000
	 2291666666
	 2317708333
	 2343750000
	 2369791667
	 2395833333
	 2421875000
	 2447916667
	 2473958333
	 2500000000
	 2526041667
	 2552083333
	 2578125000
	 2604166667
	 2630208333
	 2656250000
	 2682291667
	 2708333333
	 2734375000
	 2760416667
	 2786458333
	 2812500000
	 2838541667
	 2864583333
	 2890625000
	 2916666666
	 2929687500
	 2942708333
	 2955729166
	 2968750000
	 2981770833
	 2994791666
	 3007812500
	 3020833333
	 3033854166
	 3046875000
	 3059895833
	 3072916666
	 3085937500
	 3098958333
	 3111979166
	 3125000000
	 3151041666
	 3177083333
	 3203125000
	 3229166666
	 3255208333
	 3281250000
	 3307291666
	 3333333333
	 3359375000
	 3385416666
	 3411458333
	 3437500000
	 3450520833
	 3463541666
	 3476562500
	 3489583333
	 3502604166
	 3515625000
	 3528645833
	 3541666666
	 3554687500
	 3567708333
	 3580729166
	 3593750000
	 3606770833
	 3619791666
	 3632812500
	 3645833333
	 3658854166
	 3671875000
	 3684895833
	 3697916666
	 3710937500
	 3723958333
	 3736979166
	 3750000000
	 3763020833
	 3776041666
	 3789062499
	 3802083333
	 3815104166
	 3828124999
	 3841145833
	 3854166666
	 3867187499
	 3880208333
	 3893229166
	 3906249999
	 3919270833
	 3932291666
	 3945312499
	 3958333333
	 3971354166
	 3984374999
	 3997395833
	 4010416666
	 4023437499
	 4036458333
	 4049479166
	 4062499999
	 4075520833
	 4088541666
	 4101562499
	 4114583333
	 4127604166
	 4140624999
	 4153645833
	 4166666666
	 4179687499
	 4192708333
	 4205729166
	 4218749999
	 4231770833
	 4244791666
	 4257812499
	 4270833333
	 4283854166
	 4296874999
	 4309895833
	 4322916666
	 4335937499
	 4348958333
	 4361979166
	 4375000000
	 4388020833
	 4401041666
	 4414062500
	 4427083333
	 4440104166
	 4453125000
	 4466145833
	 4479166666
	 4492187500
	 4505208333
	 4518229166
	 4531250000
	 4544270833
	 4557291666
	 4570312500
	 4583333333
	 4596354166
	 4609375000
	 4622395833
	 4635416666
	 4648437500
	 4661458333
	 4674479166
	 4687500000
	 4700520833
	 4713541666
	 4726562500
	 4739583333
	 4752604166
	 4765625000
	 4778645833
	 4791666666
	 4804687500
	 4817708333
	 4830729167
	 4843750000
	 4856770833
	 4869791667
	 4882812500
	 4895833333
	 4908854167
	 4921875000
	 4934895833
	 4947916667
	 4960937500
	 4973958333
	 4986979167
	 5000000000
	 5013020833
	 5026041667
	 5039062500
	 5052083333
	 5065104167
	 5078125000
	 5091145833
	 5104166667
	 5117187500
	 5130208333
	 5143229167
	 5156250000
	 5169270833
	 5182291667
	 5195312500
	 5208333333
	 5221354167
	 5234375000
	 5247395833
	 5260416667
	 5273437500
	 5286458333
	 5299479167
	 5312500000
	 5325520833
	 5338541667
	 5351562500
	 5364583333
	 5377604167
	 5390625000
	 5403645833
	 5416666667
	 5429687500
	 5442708333
	 5455729167
	 5468750000
	 5481770833
	 5494791667
	 5507812500
	 5520833333
	 5533854167
	 5546875000
	 5559895833
	 5572916667
	 5585937500
	 5598958333
	 5611979167
	 5625000000
	 5638020833
	 5651041667
	 5664062500
	 5677083333
	 5690104167
	 5703125000
	 5716145833
	 5729166667
	 5742187500
	 5755208333
	 5768229167
	 5781250000
	 5794270833
	 5807291667
	 5820312500
	 5833333334
	 5846354167
	 5859375000
	 5872395834
	 5885416667
	 5898437500
	 5911458334
	 5924479167
	 5937500000
	 5950520834
	 5963541667
	 5976562500
	 5989583334
	 6002604167
	 6015625000
	 6028645834
	 6041666667
	 6054687500
	 6067708334
	 6080729167
	 6093750000
	 6106770834
	 6119791667
	 6132812500
	 6145833334
	 6158854167
	 6171875000
	 6184895834
	 6197916667
	 6210937500
	 6223958334
	 6236979167
	 6250000000
	 6263020834
	 6276041667
	 6289062500
	 6302083334
	 6315104167
	 6328125000
	 6341145834
	 6354166667
	 6367187500
	 6380208334
	 6393229167
	 6406250000
	 6419270834
	 6432291667
	 6445312500
	 6458333334
	 6471354167
	 6484375000
	 6497395834
	 6510416667
	 6523437500
	 6536458334
	 6549479167
	 6562500000
	 6575520834
	 6588541667
	 6601562500
	 6614583334
	 6627604167
	 6640625000
	 6653645834
	 6666666667
	 6684027778
	 6701388889
	 6718750000
	 6736111111
	 6753472223
	 6770833334
	 6788194445
	 6805555556
	 6822916667
	 6840277778
	 6857638889
	 6875000000
	 6892361111
	 6909722223
	 6927083334
	 6944444445
	 6961805556
	 6979166667
	 6996527778
	 7013888889
	 7031250000
	 7048611111
	 7065972223
	 7083333334
	 7100694445
	 7118055556
	 7135416667
	 7152777778
	 7170138889
	 7187500000
	 7204861111
	 7222222222
	 7239583334
	 7256944445
	 7274305556
	 7291666667
	 7309027778
	 7326388889
	 7343750000
	 7361111111
	 7378472222
	 7395833334
	 7413194445
	 7430555556
	 7447916667
	 7465277778
	 7482638889
	 7500000000
	 7517361111
	 7534722222
	 7552083334
	 7569444445
	 7586805556
	 7604166667
	 7621527778
	 7638888889
	 7673611111
	 7708333334
	 7743055556
	 7777777778
	 7812500000
	 7847222222
	 7881944445
	 7916666667
	 7951388889
	 7986111111
	 8020833334
	 8055555556
	 8090277778
	 8125000000
	 8159722222
	 8194444445
	 8229166667
	 8263888889
	 8298611111
	 8333333334
	 8368055556
	 8402777778
	 8437500000
	 8472222222
	 8506944445
	 8541666667
	 8576388889
	 8611111111
	 8645833333
	 8680555556
	 8715277778
	 8750000000
	 8784722222
	 8819444445
	 8854166667
	 8888888889
	 8923611111
	 8958333333
	 8993055556
	 9027777778
	 9062500000
	 9097222222
	 9131944445
	 9166666667
	 9201388889
	 9236111111
	 9270833333
	 9305555556
	 9340277778
	 9375000000
	 9409722222
	 9444444444
	 9479166667
	 9513888889
	 9548611111
	 9583333333
	 9618055556
	 9652777778
	 9687500000
	 9722222222
	 9756944444
	 9791666667
	 9826388889
	 9861111111
	 9895833333
	 9930555556
	 9965277778
	 1e+10
VAR_LIST_END

BEGIN
	 7.02848792000000010182433896055e-05 ,	 -0 
	 7.02848792000000010182433896055e-05 ,	 -4.67965000000000048190404574808e-10 
	 7.02848792000000010182433896055e-05 ,	 -4.67965894000000018843291946648e-09 
	 7.02848793000000060396739720581e-05 ,	 -4.67965910999999991175179125079e-08 
	 7.02848855999999971291489209158e-05 ,	 -4.67965914999999979215374425537e-07 
	 7.02848893000000067392274427647e-05 ,	 -5.89134179000000000636953420563e-07 
	 7.02848952000000048480343739499e-05 ,	 -7.41675986999999956333798432212e-07 
	 7.02849044999999975026280796264e-05 ,	 -9.33714745999999972086817734418e-07 
	 7.02849192999999952853606988157e-05 ,	 -1.17547720999999992599362435425e-06 
	 7.0284942700000004782781570789e-05 ,	 -1.47983812000000000463689406316e-06 
	 7.02849799000000025062107056328e-05 ,	 -1.86300577999999999583577783846e-06 
	 7.02850388000000056779037471699e-05 ,	 -2.34538525000000009382251572876e-06 
	 7.02851321000000014982411755682e-05 ,	 -2.95266494999999982182335017677e-06 
	 7.02852801000000064306216795984e-05 ,	 -3.71718468000000007932757950524e-06 
	 7.02855144999999995178083245229e-05 ,	 -4.67965773000000004094769273655e-06 
	 7.02858861e-05 ,	 -5.89133898e-06 
	 7.0286475e-05 ,	 -7.41675424e-06 
	 7.02874084e-05 ,	 -9.3371362e-06 
	 7.02888877e-05 ,	 -1.17547497e-05 
	 7.02912322e-05 ,	 -1.47983364e-05 
	 7.02949478e-05 ,	 -1.86299684e-05 
	 7.03008363e-05 ,	 -2.34536742e-05 
	 7.03101684e-05 ,	 -2.95262939e-05 
	 7.03249568e-05 ,	 -3.71711372e-05 
	 7.03483903e-05 ,	 -4.67951615e-05 
	 7.03855184e-05 ,	 -5.89105652e-05 
	 7.04443337e-05 ,	 -7.41619079e-05 
	 7.05374773e-05 ,	 -9.33601231e-05 
	 7.06849183e-05 ,	 -0.000117525083 
	 7.09181412e-05 ,	 -0.000147938678 
	 7.12866334e-05 ,	 -0.000186210634 
	 7.18677994e-05 ,	 -0.000234359412 
	 7.27817595e-05 ,	 -0.000294910211 
	 7.42125665e-05 ,	 -0.000371011018 
	 7.64364209e-05 ,	 -0.000466564936 
	 7.98536053e-05 ,	 -0.000586372071 
	 8.5009977e-05 ,	 -0.000736266668 
	 9.25685465e-05 ,	 -0.000923228574 
	 9.7805532e-05 ,	 -0.00104086593 
	 0.000103268868 ,	 -0.00115811516 
	 0.000116991479 ,	 -0.00144571724 
	 0.000132451203 ,	 -0.00179924499 
	 0.000144158015 ,	 -0.00217646671 
	 0.000147929386 ,	 -0.00262541481 
	 0.000140436158 ,	 -0.00300759559 
	 0.000120359308 ,	 -0.00342095402 
	 4.88347183e-05 ,	 -0.00420120742 
	 -6.22992184e-05 ,	 -0.0049737146 
	 -0.000208645473 ,	 -0.00574122614 
	 -0.000386844331 ,	 -0.00650422411 
	 -0.000650756821 ,	 -0.00745083579 
	 -0.000957323415 ,	 -0.0083878577 
	-0.0013041,	-0.0093133
	-0.0016891,	-0.010225
	-0.0021108,	-0.011121
	-0.0025676,	-0.011999
	-0.0030581,	-0.012858
	-0.0035809,	-0.013696
	-0.0041346,	-0.01451
	-0.0047178,	-0.015299
	-0.0053291,	-0.016062
	-0.0059671,	-0.016797
	-0.0066303,	-0.017503
	-0.0073171,	-0.018178
	-0.0080261,	-0.018821
	-0.0087556,	-0.01943
	-0.009504,	-0.020005
	-0.01027,	-0.020544
	-0.011051,	-0.021047
	-0.011846,	-0.021513
	-0.012653,	-0.02194
	-0.01347,	-0.022328
	-0.014296,	-0.022677
	-0.015129,	-0.022986
	-0.015966,	-0.023254
	-0.016806,	-0.023481
	-0.017647,	-0.023667
	-0.018487,	-0.023811
	-0.019324,	-0.023915
	-0.020157,	-0.023976
	-0.020982,	-0.023997
	-0.021799,	-0.023976
	-0.022765,	-0.023897
	-0.023713,	-0.02376
	-0.024639,	-0.023565
	-0.02554,	-0.023314
	-0.026413,	-0.023008
	-0.027254,	-0.022648
	-0.028062,	-0.022236
	-0.028832,	-0.021774
	-0.029562,	-0.021262
	-0.030249,	-0.020704
	-0.03089,	-0.020101
	-0.031483,	-0.019457
	-0.032026,	-0.018772
	-0.032516,	-0.018051
	-0.032951,	-0.017295
	-0.033328,	-0.016508
	-0.033647,	-0.015692
	-0.033905,	-0.014851
	-0.034101,	-0.013988
	-0.034233,	-0.013105
	-0.034301,	-0.012208
	-0.034302,	-0.011298
	-0.034237,	-0.010379
	-0.034105,	-0.0094557
	-0.033904,	-0.0085306
	-0.033635,	-0.0076077
	-0.033298,	-0.0066905
	-0.032893,	-0.0057828
	-0.03242,	-0.0048881
	-0.03188,	-0.0040102
	-0.031272,	-0.0031527
	-0.030599,	-0.0023192
	-0.029861,	-0.0015133
	-0.02906,	-0.0007384
	-0.028197,	 1.9253e-06
	-0.027273,	 0.00070432
	-0.02629,	 0.0013655
	-0.025251,	 0.0019822
	-0.024158,	 0.0025513
	-0.023013,	 0.0030699
	-0.021818,	 0.0035349
	-0.020577,	 0.0039438
	-0.019292,	 0.0042938
	-0.017965,	 0.0045825
	-0.016601,	 0.0048075
	-0.015203,	 0.0049667
	-0.013774,	 0.0050581
	-0.012317,	 0.0050799
	-0.010836,	 0.0050305
	-0.0093344,	 0.0049084
	-0.0078168,	 0.0047124
	-0.0062867,	 0.0044415
	 -0.00474803284 ,	 0.00409476864 
	 -0.00320485723 ,	 0.00367165541 
	 -0.00166121205 ,	 0.00317173986 
	 -0.000121195506 ,	 0.0025948347 
	 0.00141107009 ,	 0.00194097349 
	 0.00293144983 ,	 0.0012104128 
	 0.00443580792 ,	 0.000403633732 
	 0.00592001943 ,	 -0.000478657071 
	 0.00737998228 ,	 -0.00143552707 
	 0.0088116,	-0.0024658
	 0.010211,	-0.0035681
	 0.011574,	-0.0047409
	 0.012897,	-0.0059823
	 0.014176,	-0.0072902
	 0.015407,	-0.0086624
	 0.016586,	-0.010096
	 0.017711,	-0.01159
	 0.018778,	-0.013139
	 0.019784,	-0.014742
	 0.020725,	-0.016394
	 0.021598,	-0.018093
	 0.022402,	-0.019835
	 0.023132,	-0.021616
	 0.023788,	-0.023432
	 0.024367,	-0.025279
	 0.024866,	-0.027153
	 0.025285,	-0.029049
	 0.025621,	-0.030963
	 0.025758,	-0.031925
	 0.025873,	-0.03289
	 0.025968,	-0.033858
	 0.026041,	-0.034826
	 0.026093,	-0.035796
	 0.026123,	-0.036766
	 0.026132,	-0.037736
	 0.02612,	-0.038705
	 0.026085,	-0.039672
	 0.026029,	-0.040637
	 0.025952,	-0.0416
	 0.025853,	-0.042559
	 0.025732,	-0.043514
	 0.02559,	-0.044465
	 0.025427,	-0.04541
	 0.025242,	-0.046349
	 0.024809,	-0.048208
	 0.024293,	-0.050036
	 0.023693,	-0.051827
	 0.023014,	-0.053577
	 0.022255,	-0.055282
	 0.021419,	-0.056935
	 0.02051,	-0.058533
	 0.019529,	-0.06007
	 0.018479,	-0.061542
	 0.017364,	-0.062944
	 0.016188,	-0.064272
	 0.014953,	-0.065522
	 0.014316,	-0.066117
	 0.013665,	-0.06669
	 0.013002,	-0.067242
	 0.012328,	-0.067771
	 0.011642,	-0.068279
	 0.010945,	-0.068763
	 0.010238,	-0.069224
	 0.0095224,	-0.069661
	 0.0087976,	-0.070074
	 0.0080647,	-0.070462
	 0.0073243,	-0.070825
	 0.0065772,	-0.071163
	 0.005824,	-0.071475
	 0.0050654,	-0.071761
	 0.0043022,	-0.072021
	 0.003535,	-0.072254
	 0.0027647,	-0.07246
	 0.0019919,	-0.072639
	 0.0012175,	-0.072791
	 0.00044225,	-0.072915
	-0.00033313,	-0.073011
	-0.0011078,	-0.073079
	-0.0018809,	-0.073118
	-0.0026518,	-0.073129
	-0.0034194,	-0.073112
	-0.0041831,	-0.073066
	-0.0049419,	-0.072991
	-0.005695,	-0.072887
	-0.0064415,	-0.072754
	-0.0071806,	-0.072592
	-0.0079114,	-0.072402
	-0.0086331,	-0.072182
	-0.0093446,	-0.071934
	-0.010045,	-0.071656
	-0.010734,	-0.07135
	-0.01141,	-0.071015
	-0.012072,	-0.070651
	-0.01272,	-0.070259
	-0.013352,	-0.069839
	-0.013968,	-0.069391
	-0.014567,	-0.068915
	-0.015147,	-0.068411
	-0.015708,	-0.067879
	-0.016249,	-0.067321
	-0.016769,	-0.066736
	-0.017267,	-0.066125
	-0.017742,	-0.065487
	-0.018194,	-0.064824
	-0.018621,	-0.064135
	-0.019022,	-0.063422
	-0.019397,	-0.062684
	-0.019744,	-0.061923
	-0.020064,	-0.061138
	-0.020354,	-0.06033
	-0.020614,	-0.0595
	-0.020843,	-0.058649
	-0.02104,	-0.057776
	-0.021204,	-0.056883
	-0.021336,	-0.055971
	-0.021432,	-0.055039
	-0.021494,	-0.054089
	-0.021519,	-0.053122
	-0.021508,	-0.052138
	-0.021459,	-0.051138
	-0.021372,	-0.050122
	-0.021246,	-0.049093
	-0.021079,	-0.04805
	-0.020872,	-0.046995
	-0.020624,	-0.045929
	-0.020333,	-0.044851
	-0.02,	-0.043765
	-0.019623,	-0.042669
	-0.019202,	-0.041566
	-0.018736,	-0.040457
	-0.018225,	-0.039343
	-0.017668,	-0.038224
	-0.017064,	-0.037102
	-0.016414,	-0.035978
	-0.015715,	-0.034853
	-0.014969,	-0.033729
	-0.014174,	-0.032606
	-0.01333,	-0.031486
	-0.012436,	-0.030371
	-0.011493,	-0.029261
	-0.010499,	-0.028158
	-0.009455,	-0.027063
	-0.0083599,	-0.025977
	-0.0072137,	-0.024902
	-0.006016,	-0.02384
	-0.0047668,	-0.022791
	-0.0034657,	-0.021758
	-0.0021127,	-0.020741
	-0.00070769,	-0.019742
	 0.00074948,	-0.018762
	 0.0022588,	-0.017804
	 0.0038203,	-0.016868
	 0.005434,	-0.015956
	 0.0070997,	-0.01507
	 0.0088174,	-0.014211
	 0.010587,	-0.013381
	 0.012408,	-0.012581
	 0.014281,	-0.011813
	 0.016204,	-0.011078
	 0.018179,	-0.010379
	 0.020203,	-0.0097158
	 0.022278,	-0.0090913
	 0.024403,	-0.0085066
	 0.026576,	-0.0079635
	 0.028798,	-0.0074636
	 0.031068,	-0.0070084
	 0.033385,	-0.0065996
	 0.035749,	-0.0062389
	 0.038159,	-0.0059278
	 0.040614,	-0.0056679
	 0.043114,	-0.0054609
	 0.045656,	-0.0053083
	 0.048242,	-0.0052119
	 0.050869,	-0.005173
	 0.053536,	-0.0051934
	 0.056243,	-0.0052745
	 0.058988,	-0.0054179
	 0.061771,	-0.0056252
	 0.064589,	-0.0058978
	 0.067442,	-0.0062373
	 0.070329,	-0.0066451
	 0.073247,	-0.0071227
	 0.076196,	-0.0076714
	 0.079174,	-0.0082928
	 0.08218,	-0.0089881
	 0.085212,	-0.0097588
	 0.088268,	-0.010606
	 0.091347,	-0.011531
	 0.094447,	-0.012536
	 0.097566,	-0.01362
	 0.1007,	-0.014787
	 0.10385,	-0.016036
	 0.10702,	-0.017368
	 0.11019,	-0.018786
	 0.11338,	-0.020289
	 0.11658,	-0.02188
	 0.11978,	-0.023558
	 0.12298,	-0.025324
	 0.12619,	-0.02718
	 0.12939,	-0.029126
	 0.1326,	-0.031163
	 0.13579,	-0.033292
	 0.13898,	-0.035512
	 0.14216,	-0.037826
	 0.14533,	-0.040232
	 0.14848,	-0.042732
	 0.15162,	-0.045326
	 0.15473,	-0.048014
	 0.15783,	-0.050796
	 0.1609,	-0.053673
	 0.16394,	-0.056645
	 0.16696,	-0.059711
	 0.16994,	-0.062872
	 0.17289,	-0.066128
	 0.1758,	-0.069477
	 0.17867,	-0.072921
	 0.18149,	-0.076458
	 0.18428,	-0.080088
	 0.18701,	-0.083812
	 0.1897,	-0.087627
	 0.19233,	-0.091534
	 0.19491,	-0.095531
	 0.19743,	-0.099619
	 0.19989,	-0.10379
	 0.20229,	-0.10806
	 0.20462,	-0.11241
	 0.20688,	-0.11685
	 0.20908,	-0.12137
	 0.2112,	-0.12597
	 0.21324,	-0.13066
	 0.21521,	-0.13543
	 0.21709,	-0.14028
	 0.2189,	-0.14521
	 0.22062,	-0.15021
	 0.22225,	-0.15529
	 0.22379,	-0.16043
	 0.22524,	-0.16565
	 0.2266,	-0.17094
	 0.22786,	-0.1763
	 0.22903,	-0.18172
	 0.23009,	-0.1872
	 0.23105,	-0.19275
	 0.23191,	-0.19835
	 0.23267,	-0.204
	 0.23331,	-0.20972
	 0.23385,	-0.21548
	 0.23427,	-0.22129
	 0.23459,	-0.22715
	 0.23479,	-0.23305
	 0.23487,	-0.23899
	 0.23484,	-0.24497
	 0.23469,	-0.25099
	 0.23443,	-0.25703
	 0.23404,	-0.26311
	 0.23353,	-0.26922
	 0.2329,	-0.27535
	 0.23215,	-0.2815
	 0.23127,	-0.28768
	 0.23027,	-0.29386
	 0.22914,	-0.30006
	 0.22789,	-0.30627
	 0.22651,	-0.31249
	 0.22501,	-0.31871
	 0.22338,	-0.32493
	 0.22162,	-0.33116
	 0.21974,	-0.33737
	 0.21772,	-0.34358
	 0.21558,	-0.34978
	 0.21332,	-0.35596
	 0.21093,	-0.36213
	 0.20841,	-0.36827
	 0.20576,	-0.3744
	 0.20299,	-0.3805
	 0.2001,	-0.38657
	 0.19708,	-0.39261
	 0.19393,	-0.39861
	 0.19066,	-0.40458
	 0.18728,	-0.41051
	 0.18377,	-0.41639
	 0.18013,	-0.42223
	 0.17638,	-0.42802
	 0.17252,	-0.43376
	 0.16853,	-0.43945
	 0.16443,	-0.44508
	 0.16022,	-0.45066
	 0.15589,	-0.45617
	 0.15145,	-0.46162
	 0.1469,	-0.467
	 0.14224,	-0.47232
	 0.13747,	-0.47756
	 0.1326,	-0.48273
	 0.12763,	-0.48783
	 0.12256,	-0.49285
	 0.11738,	-0.49779
	 0.11211,	-0.50265
	 0.10674,	-0.50743
	 0.10127,	-0.51212
	 0.095723,	-0.51673
	 0.090077,	-0.52125
	 0.084342,	-0.52567
	 0.078522,	-0.53001
	 0.072617,	-0.53425
	 0.06663,	-0.5384
	 0.060564,	-0.54245
	 0.052355,	-0.5477
	 0.044014,	-0.55277
	 0.035544,	-0.55766
	 0.026953,	-0.56237
	 0.018245,	-0.56689
	 0.0094247,	-0.57123
	 0.00049864,	-0.57537
	-0.0085281,	-0.57932
	-0.01765,	-0.58308
	-0.026862,	-0.58665
	-0.036159,	-0.59002
	-0.045535,	-0.59319
	-0.054984,	-0.59616
	-0.064502,	-0.59893
	-0.074083,	-0.6015
	-0.083723,	-0.60387
	-0.093414,	-0.60603
	-0.10315,	-0.608
	-0.11293,	-0.60976
	-0.12275,	-0.61132
	-0.1326,	-0.61268
	-0.14248,	-0.61384
	-0.15238,	-0.6148
	-0.1623,	-0.61556
	-0.17223,	-0.61611
	-0.18217,	-0.61647
	-0.19212,	-0.61663
	-0.20206,	-0.6166
	-0.212,	-0.61636
	-0.22193,	-0.61594
	-0.23185,	-0.61532
	-0.24175,	-0.61451
	-0.25162,	-0.6135
	-0.26147,	-0.61231
	-0.2713,	-0.61094
	-0.28108,	-0.60937
	-0.29084,	-0.60763
	-0.30055,	-0.6057
	-0.31022,	-0.60359
	-0.31984,	-0.60131
	-0.32941,	-0.59885
	-0.33892,	-0.59621
	-0.34838,	-0.59341
	-0.35778,	-0.59043
	-0.36712,	-0.58729
	-0.37639,	-0.58398
	-0.38559,	-0.58051
	-0.39472,	-0.57688
	-0.40378,	-0.5731
	-0.41276,	-0.56915
	-0.42167,	-0.56505
	-0.43049,	-0.56081
	-0.43923,	-0.55641
	-0.44788,	-0.55187
	-0.45644,	-0.54718
	-0.46492,	-0.54235
	-0.4816,	-0.53228
	-0.49789,	-0.52167
	-0.51379,	-0.51054
	-0.52929,	-0.49891
	-0.54436,	-0.48681
	-0.55901,	-0.47424
	-0.57321,	-0.46123
