CITIFILE A.01.01
#Momentum: B.12.070 (*) built: Feb 13 2020 
#Momentum Date and Time: Mon Aug 15 23:14:36 2022

NAME Momentum.SP

#  mode: MW    reference: S_50

#eesof Port[1] P1
#eesof Port[2] P2

CONSTANT NBR_OF_PORTS 2

CONSTANT NORMALIZATION 1

VAR freq MAG 510

DATA S[1,1] RI
DATA S[1,2] RI
DATA S[2,1] RI
DATA S[2,2] RI
DATA PORTZ[1] RI
DATA PORTZ[2] RI

VAR_LIST_BEGIN
	 0
	 8.701167245
	 87.01167245
	 870.1167245
	 8701.167245
	 10954.12056
	 13790.42073
	 17361.1111
	 21856.34394
	 27515.5068
	 34639.97072
	 43609.13941
	 54900.65379
	 69115.82818
	 87011.67245
	 109541.2056
	 137904.2073
	 173611.111
	 218563.4394
	 275155.068
	 346399.7072
	 436091.3941
	 549006.5379
	 691158.2818
	 870116.7245
	 1095412.056
	 1379042.073
	 1736111.11
	 2185634.394
	 2751550.68
	 3463997.072
	 4360913.941
	 5490065.379
	 6911582.818
	 8701167.245
	 10954120.56
	 13790420.73
	 17361111.1
	 19629339.22
	 21908241.11
	 27580841.47
	 34722222.2
	 42541975.04
	 52083333.3
	 60365357.38
	 69444444.4
	 86805555.5
	 104166666.6
	 121527777.7
	 138888888.8
	 167824074
	 196759259.2
	 225694444.3
	 254629629.5
	 272714120.2
	 290798611
	 308883101.7
	 326967592.4
	 345052083.2
	 363136573.9
	 381221064.6
	 399305555.4
	 417390046.1
	 435474536.8
	 453559027.6
	 471643518.3
	 489728009
	 507812499.8
	 525896990.5
	 543981481.2
	 562065972
	 580150462.7
	 598234953.5
	 616319444.2
	 634403934.9
	 652488425.7
	 670572916.4
	 688657407.1
	 706741897.9
	 724826388.6
	 742910879.3
	 760995370.1
	 779079860.8
	 797164351.5
	 815248842.3
	 833333333
	 859374999.7
	 885416666.4
	 911458333.1
	 937499999.8
	 963541666.4
	 989583333.1
	 1015625000
	 1041666666
	 1067708333
	 1093750000
	 1119791667
	 1145833333
	 1171875000
	 1197916667
	 1223958333
	 1250000000
	 1276041667
	 1302083333
	 1328125000
	 1354166666
	 1380208333
	 1406250000
	 1432291666
	 1458333333
	 1484375000
	 1510416666
	 1536458333
	 1562500000
	 1588541666
	 1614583333
	 1640624999
	 1666666666
	 1692708333
	 1718749999
	 1744791666
	 1770833333
	 1796874999
	 1822916666
	 1848958333
	 1875000000
	 1901041666
	 1927083333
	 1953125000
	 1979166666
	 2005208333
	 2031250000
	 2057291666
	 2083333333
	 2109375000
	 2135416666
	 2161458333
	 2187500000
	 2213541666
	 2239583333
	 2265625000
	 2291666666
	 2317708333
	 2343750000
	 2369791667
	 2395833333
	 2421875000
	 2447916667
	 2473958333
	 2500000000
	 2526041667
	 2552083333
	 2578125000
	 2604166667
	 2630208333
	 2656250000
	 2682291667
	 2708333333
	 2734375000
	 2760416667
	 2786458333
	 2812500000
	 2838541667
	 2864583333
	 2890625000
	 2916666666
	 2942708333
	 2968750000
	 2994791666
	 3020833333
	 3046875000
	 3072916666
	 3098958333
	 3125000000
	 3151041666
	 3177083333
	 3203125000
	 3229166666
	 3255208333
	 3281250000
	 3307291666
	 3333333333
	 3368055555
	 3402777777
	 3437500000
	 3472222222
	 3506944444
	 3541666666
	 3576388889
	 3611111111
	 3645833333
	 3680555555
	 3715277777
	 3750000000
	 3784722222
	 3819444444
	 3854166666
	 3888888888
	 3923611111
	 3958333333
	 3993055555
	 4027777777
	 4062500000
	 4097222222
	 4131944444
	 4166666666
	 4201388888
	 4236111111
	 4270833333
	 4305555555
	 4340277777
	 4375000000
	 4409722222
	 4444444444
	 4479166666
	 4513888888
	 4548611111
	 4583333333
	 4618055555
	 4652777778
	 4687500000
	 4722222222
	 4756944444
	 4791666666
	 4826388889
	 4861111111
	 4895833333
	 4930555556
	 4965277778
	 5000000000
	 5034722222
	 5069444444
	 5104166667
	 5138888889
	 5173611111
	 5208333333
	 5243055556
	 5277777778
	 5312500000
	 5347222222
	 5381944444
	 5416666667
	 5451388889
	 5486111111
	 5520833333
	 5555555556
	 5590277778
	 5625000000
	 5659722222
	 5694444444
	 5729166667
	 5763888889
	 5798611111
	 5833333333
	 5868055555
	 5902777778
	 5937500000
	 5972222222
	 5989583333
	 6006944444
	 6024305555
	 6041666667
	 6059027778
	 6076388889
	 6093750000
	 6111111111
	 6128472222
	 6145833333
	 6163194444
	 6180555556
	 6197916667
	 6215277778
	 6232638889
	 6250000000
	 6267361111
	 6284722222
	 6302083333
	 6319444444
	 6336805556
	 6354166667
	 6371527778
	 6388888889
	 6406250000
	 6423611111
	 6440972222
	 6458333334
	 6475694445
	 6493055556
	 6510416667
	 6527777778
	 6545138889
	 6562500000
	 6579861111
	 6597222222
	 6614583334
	 6631944445
	 6649305556
	 6666666667
	 6684027778
	 6701388889
	 6718750000
	 6736111112
	 6753472223
	 6770833334
	 6788194445
	 6805555556
	 6814236112
	 6822916667
	 6831597223
	 6840277778
	 6848958334
	 6857638889
	 6866319445
	 6875000000
	 6883680556
	 6892361112
	 6901041667
	 6909722223
	 6918402778
	 6927083334
	 6935763889
	 6944444445
	 6953125001
	 6961805556
	 6970486112
	 6979166667
	 6987847223
	 6996527778
	 7005208334
	 7013888890
	 7022569445
	 7031250001
	 7039930556
	 7048611112
	 7057291667
	 7065972223
	 7074652778
	 7083333334
	 7092013890
	 7100694445
	 7109375001
	 7118055556
	 7126736112
	 7135416667
	 7144097223
	 7152777778
	 7161458334
	 7170138890
	 7178819445
	 7187500001
	 7196180556
	 7204861112
	 7213541667
	 7222222223
	 7230902779
	 7239583334
	 7248263890
	 7256944445
	 7265625001
	 7274305556
	 7282986112
	 7291666667
	 7300347223
	 7309027778
	 7317708334
	 7326388890
	 7335069445
	 7343750001
	 7352430556
	 7361111112
	 7369791667
	 7378472223
	 7387152778
	 7395833334
	 7404513889
	 7413194445
	 7421875001
	 7430555556
	 7447916667
	 7465277778
	 7482638889
	 7500000000
	 7517361112
	 7534722223
	 7552083334
	 7569444445
	 7586805556
	 7604166667
	 7621527778
	 7638888889
	 7656250000
	 7673611111
	 7690972223
	 7708333334
	 7725694445
	 7743055556
	 7760416667
	 7777777778
	 7795138889
	 7812500000
	 7829861111
	 7847222222
	 7864583334
	 7881944445
	 7899305556
	 7916666667
	 7934027778
	 7951388889
	 7968750000
	 7986111112
	 8003472223
	 8020833334
	 8038194445
	 8055555556
	 8072916667
	 8090277778
	 8107638889
	 8125000000
	 8142361112
	 8159722223
	 8177083334
	 8194444445
	 8211805556
	 8229166667
	 8246527778
	 8263888890
	 8281250001
	 8298611112
	 8315972223
	 8333333334
	 8350694445
	 8368055556
	 8385416667
	 8402777778
	 8420138889
	 8437500001
	 8454861112
	 8472222223
	 8489583334
	 8506944445
	 8524305556
	 8541666667
	 8559027778
	 8576388889
	 8593750000
	 8611111112
	 8628472223
	 8645833334
	 8663194445
	 8680555556
	 8697916667
	 8715277778
	 8732638889
	 8750000000
	 8767361111
	 8784722222
	 8802083334
	 8819444445
	 8836805556
	 8854166667
	 8871527778
	 8888888889
	 8912037037
	 8935185185
	 8958333333
	 8981481482
	 9004629630
	 9027777778
	 9050925926
	 9074074074
	 9097222222
	 9120370371
	 9143518519
	 9166666667
	 9189814815
	 9212962963
	 9236111111
	 9259259260
	 9282407408
	 9305555556
	 9328703704
	 9351851852
	 9375000000
	 9398148148
	 9421296297
	 9444444445
	 9467592593
	 9490740741
	 9513888889
	 9537037037
	 9560185186
	 9583333334
	 9606481482
	 9629629630
	 9652777778
	 9675925926
	 9699074074
	 9722222222
	 9745370371
	 9768518519
	 9791666667
	 9814814815
	 9837962963
	 9861111111
	 9884259259
	 9907407408
	 9930555556
	 9953703704
	 9976851852
	 1e+10
VAR_LIST_END

BEGIN
	 0.000104701085999999994428921734624 ,	 -0 
	 0.000104701085999999994428921734624 ,	 -1.63139989000000010091070246987e-09 
	 0.000104701085999999994428921734624 ,	 -1.63139971000000004353187291108e-08 
	 0.000104701085999999994428921734624 ,	 -1.63139967000000003078102189802e-07 
	 0.000104701088999999995994040491443 ,	 -1.63139964999999995823114738724e-06 
	 0.000104701091000000001554962048012 ,	 -2.05381046999999979140241745945e-06 
	 0.00010470109400000000312008080483 ,	 -2.58559417999999992308999413604e-06 
	 0.000104701098999999996693593962149 ,	 -3.2550702100000001168119984768e-06 
	 0.000104701107000000005384753032356 ,	 -4.09789058000000031993558316512e-06 
	 0.000104701118999999998092700903563 ,	 -5.15893854000000031995339100366e-06 
	 0.000104701138000000003487610644726 ,	 -6.49471871999999998112179308563e-06 
	 0.000104701169000000001590468257096 ,	 -8.17636624999999951830548933218e-06 
	 0.00010470121699999999952731405406 ,	 -1.02934348999999995355556642318e-05 
	 0.000104701292999999994001898706575 ,	 -1.29586660000000004525728611315e-05 
	 0.000104701414999999994404934755554 ,	 -1.63139922999999995934308771872e-05 
	 0.000104701607 ,	 -2.05380964e-05 
	 0.000104701911 ,	 -2.58559254e-05 
	 0.000104702394 ,	 -3.25506693e-05 
	 0.000104703159 ,	 -4.09788404e-05 
	 0.000104704371 ,	 -5.1589255e-05 
	 0.000104706292 ,	 -6.49469271e-05 
	 0.000104709336 ,	 -8.17631436e-05 
	 0.000104714156 ,	 -0.000102933313 
	 0.00010472179 ,	 -0.000129584594 
	 0.000104733872 ,	 -0.000163135802 
	 0.000104752979 ,	 -0.000205372744 
	 0.000104783158 ,	 -0.000258542857 
	 0.000104830724 ,	 -0.000325473993 
	 0.000104905454 ,	 -0.00040972321 
	 0.000105022243 ,	 -0.000515762633 
	 0.000105203215 ,	 -0.00064921057 
	 0.000105479741 ,	 -0.000817116882 
	 0.000105892413 ,	 -0.00102831156 
	 0.000106483223 ,	 -0.00129382352 
	 0.000107264832 ,	 -0.00162737198 
	 0.000108130346 ,	 -0.00204592493 
	 0.000108621941 ,	 -0.00257031372 
	 0.000107395109 ,	 -0.00322590875 
	 0.000105013682 ,	 -0.00363953065 
	 0.000100990598 ,	 -0.00405282938 
	 8.20527214e-05 ,	 -0.00507192547 
	 3.58647518e-05 ,	 -0.00633701596 
	 -4.78320797e-05 ,	 -0.00770363915 
	 -0.000199592809 ,	 -0.00935153529 
	-0.00037522,	-0.010769
	-0.00061282,	-0.012313
	-0.0011904,	-0.015238
	-0.0019185,	-0.018131
	-0.0027871,	-0.020988
	-0.0037891,	-0.023806
	-0.0057415,	-0.028401
	-0.0080317,	-0.032855
	-0.010646,	-0.037148
	-0.01357,	-0.041261
	-0.015551,	-0.043734
	-0.017645,	-0.046125
	-0.01985,	-0.048431
	-0.022162,	-0.050647
	-0.024578,	-0.05277
	-0.027094,	-0.054795
	-0.029706,	-0.056718
	-0.032411,	-0.058537
	-0.035203,	-0.060246
	-0.03808,	-0.061844
	-0.041037,	-0.063326
	-0.044069,	-0.064689
	-0.047171,	-0.065931
	-0.050339,	-0.067049
	-0.053569,	-0.06804
	-0.056854,	-0.068902
	-0.060191,	-0.069633
	-0.063573,	-0.07023
	-0.066997,	-0.070693
	-0.070456,	-0.071019
	-0.073946,	-0.071208
	-0.077462,	-0.071258
	-0.080997,	-0.071168
	-0.084547,	-0.070938
	-0.088107,	-0.070566
	-0.091671,	-0.070054
	-0.095233,	-0.0694
	-0.09879,	-0.068604
	-0.10233,	-0.067668
	-0.10586,	-0.066592
	-0.10936,	-0.065375
	-0.11284,	-0.06402
	-0.1178,	-0.061827
	-0.12267,	-0.059352
	-0.12744,	-0.056601
	-0.13211,	-0.053577
	-0.13665,	-0.050288
	-0.14105,	-0.04674
	-0.14531,	-0.042941
	-0.1494,	-0.038899
	-0.15332,	-0.034621
	-0.15706,	-0.030119
	-0.1606,	-0.0254
	-0.16393,	-0.020475
	-0.16705,	-0.015354
	-0.16995,	-0.010049
	-0.17261,	-0.0045704
	-0.17504,	 0.0010704
	-0.17721,	 0.0068616
	-0.17914,	 0.012791
	-0.18081,	 0.018848
	-0.18222,	 0.025018
	-0.18336,	 0.03129
	-0.18423,	 0.037653
	-0.18482,	 0.044092
	-0.18514,	 0.050597
	-0.18519,	 0.057154
	-0.18495,	 0.063753
	-0.18444,	 0.07038
	-0.18365,	 0.077023
	-0.18258,	 0.083672
	-0.18123,	 0.090315
	-0.17961,	 0.096941
	-0.17771,	 0.10353
	-0.17555,	 0.11009
	-0.17311,	 0.1166
	-0.17041,	 0.12305
	-0.16746,	 0.12943
	-0.16424,	 0.13573
	-0.16078,	 0.14194
	-0.15706,	 0.14806
	-0.1531,	 0.15408
	-0.14891,	 0.15998
	-0.14448,	 0.16576
	-0.13983,	 0.17141
	-0.13496,	 0.17694
	-0.12986,	 0.18232
	-0.12456,	 0.18755
	-0.11906,	 0.19264
	-0.11335,	 0.19757
	-0.10746,	 0.20233
	-0.10137,	 0.20693
	-0.095112,	 0.21136
	-0.088669,	 0.21562
	-0.082055,	 0.21969
	-0.075275,	 0.22359
	-0.068334,	 0.2273
	-0.061237,	 0.23082
	-0.053989,	 0.23414
	-0.046594,	 0.23728
	-0.039057,	 0.24021
	-0.031381,	 0.24294
	-0.02357,	 0.24548
	-0.015629,	 0.2478
	-0.0075611,	 0.24992
	 0.00063074,	 0.25182
	 0.0089431,	 0.25351
	 0.017373,	 0.25498
	 0.025917,	 0.25623
	 0.034573,	 0.25725
	 0.043338,	 0.25804
	 0.05221,	 0.2586
	 0.061184,	 0.25893
	 0.07026,	 0.25901
	 0.079433,	 0.25884
	 0.088702,	 0.25842
	 0.098063,	 0.25774
	 0.10751,	 0.2568
	 0.11704,	 0.25559
	 0.12666,	 0.2541
	 0.13636,	 0.25232
	 0.14612,	 0.25025
	 0.15596,	 0.24788
	 0.16586,	 0.24521
	 0.17582,	 0.24221
	 0.18582,	 0.23889
	 0.19587,	 0.23524
	 0.20596,	 0.23124
	 0.21607,	 0.22689
	 0.2262,	 0.22217
	 0.23634,	 0.21709
	 0.24647,	 0.21162
	 0.25659,	 0.20576
	 0.26667,	 0.1995
	 0.27671,	 0.19284
	 0.2867,	 0.18575
	 0.2966,	 0.17824
	 0.30642,	 0.1703
	 0.31933,	 0.15902
	 0.33201,	 0.14695
	 0.34439,	 0.13407
	 0.35643,	 0.12037
	 0.36808,	 0.10584
	 0.37928,	 0.090497
	 0.38996,	 0.074322
	 0.40007,	 0.057329
	 0.40955,	 0.039529
	 0.41833,	 0.020939
	 0.42635,	 0.001581
	 0.43355,	-0.018519
	 0.43985,	-0.039327
	 0.4452,	-0.060806
	 0.44954,	-0.08291
	 0.4528,	-0.10559
	 0.45493,	-0.12879
	 0.45587,	-0.15245
	 0.45559,	-0.1765
	 0.45402,	-0.20088
	 0.45113,	-0.2255
	 0.44688,	-0.25028
	 0.44125,	-0.27515
	 0.43421,	-0.30002
	 0.42573,	-0.32479
	 0.41582,	-0.34938
	 0.40447,	-0.37368
	 0.39167,	-0.39762
	 0.37745,	-0.42108
	 0.3618,	-0.44399
	 0.34477,	-0.46624
	 0.32638,	-0.48774
	 0.30666,	-0.5084
	 0.28565,	-0.52814
	 0.26342,	-0.54688
	 0.24001,	-0.56452
	 0.21548,	-0.581
	 0.1899,	-0.59623
	 0.16333,	-0.61016
	 0.13586,	-0.62272
	 0.10755,	-0.63384
	 0.078505,	-0.64349
	 0.048786,	-0.6516
	 0.018487,	-0.65813
	-0.012303,	-0.66305
	-0.043491,	-0.66632
	-0.074988,	-0.66792
	-0.10669,	-0.66782
	-0.13853,	-0.666
	-0.17038,	-0.66246
	-0.20217,	-0.65719
	-0.2338,	-0.65018
	-0.26516,	-0.64144
	-0.29617,	-0.63097
	-0.32674,	-0.61878
	-0.35676,	-0.6049
	-0.38614,	-0.58934
	-0.4148,	-0.57212
	-0.44263,	-0.55327
	-0.46955,	-0.53283
	-0.49546,	-0.51083
	-0.52028,	-0.4873
	-0.54391,	-0.46231
	-0.56626,	-0.43589
	-0.58724,	-0.40809
	-0.60677,	-0.37899
	-0.62474,	-0.34862
	-0.64109,	-0.31707
	-0.65571,	-0.28441
	-0.66851,	-0.25071
	-0.67941,	-0.21606
	-0.68832,	-0.18055
	-0.69515,	-0.14427
	-0.69981,	-0.10733
	-0.70222,	-0.069859
	-0.70227,	-0.031959
	-0.70139,	-0.012893
	-0.6999,	 0.0062259
	-0.69777,	 0.02538
	-0.695,	 0.044549
	-0.69158,	 0.063713
	-0.6875,	 0.082851
	-0.68275,	 0.10193
	-0.67732,	 0.12095
	-0.67119,	 0.13987
	-0.66437,	 0.15866
	-0.65683,	 0.17731
	-0.64858,	 0.19578
	-0.6396,	 0.21404
	-0.62989,	 0.23205
	-0.61944,	 0.2498
	-0.60824,	 0.26723
	-0.59628,	 0.28433
	-0.58357,	 0.30103
	-0.5701,	 0.31732
	-0.55587,	 0.33313
	-0.54087,	 0.34843
	-0.52511,	 0.36317
	-0.5086,	 0.3773
	-0.49133,	 0.39076
	-0.47332,	 0.4035
	-0.45459,	 0.41546
	-0.43513,	 0.42657
	-0.41498,	 0.43677
	-0.39415,	 0.44599
	-0.37269,	 0.45415
	-0.35062,	 0.46118
	-0.32798,	 0.46701
	-0.30483,	 0.47154
	-0.28124,	 0.47469
	-0.25726,	 0.47638
	-0.23298,	 0.4765
	-0.2085,	 0.47498
	-0.18393,	 0.47172
	-0.1594,	 0.46663
	-0.13505,	 0.45963
	-0.11104,	 0.45063
	-0.087578,	 0.43957
	-0.064852,	 0.42638
	-0.043104,	 0.41103
	-0.022592,	 0.3935
	-0.0035986,	 0.37378
	 0.01357,	 0.35194
	 0.028588,	 0.32804
	 0.035184,	 0.31536
	 0.041113,	 0.30222
	 0.046332,	 0.28865
	 0.050795,	 0.27468
	 0.054458,	 0.26033
	 0.05728,	 0.24566
	 0.059216,	 0.2307
	 0.060228,	 0.2155
	 0.060276,	 0.20012
	 0.059324,	 0.18461
	 0.057341,	 0.16903
	 0.054297,	 0.15345
	 0.050168,	 0.13794
	 0.044935,	 0.12259
	 0.038586,	 0.10746
	 0.031113,	 0.092656
	 0.022517,	 0.078245
	 0.012806,	 0.064323
	 0.001996,	 0.05098
	-0.0098885,	 0.038309
	-0.022814,	 0.0264
	-0.036738,	 0.015342
	-0.051608,	 0.0052238
	-0.067364,	-0.0038719
	-0.083937,	-0.011865
	-0.10124,	-0.018682
	-0.11921,	-0.024256
	-0.13773,	-0.028527
	-0.15672,	-0.031444
	-0.17606,	-0.032966
	-0.19565,	-0.033061
	-0.21538,	-0.031707
	-0.23513,	-0.028896
	-0.25479,	-0.024627
	-0.27424,	-0.018912
	-0.29338,	-0.011774
	-0.31209,	-0.0032439
	-0.33028,	 0.0066346
	-0.34784,	 0.017811
	-0.36469,	 0.030224
	-0.38074,	 0.043809
	-0.39591,	 0.058492
	-0.41013,	 0.074195
	-0.42335,	 0.090834
	-0.43552,	 0.10832
	-0.44658,	 0.12657
	-0.45652,	 0.1455
	-0.4653,	 0.16502
	-0.4729,	 0.18503
	-0.47932,	 0.20545
	-0.48455,	 0.2262
	-0.48861,	 0.24719
	-0.49149,	 0.26835
	-0.49321,	 0.2896
	-0.49381,	 0.31086
	-0.49329,	 0.33208
	-0.49169,	 0.35318
	-0.48904,	 0.37412
	-0.48538,	 0.39483
	-0.48075,	 0.41527
	-0.47517,	 0.4354
	-0.46869,	 0.45516
	-0.46136,	 0.47453
	-0.45321,	 0.49348
	-0.44428,	 0.51196
	-0.43462,	 0.52997
	-0.42426,	 0.54747
	-0.41324,	 0.56445
	-0.40162,	 0.58089
	-0.38941,	 0.59678
	-0.37666,	 0.61211
	-0.36342,	 0.62686
	-0.33555,	 0.65464
	-0.30609,	 0.68007
	-0.27526,	 0.70316
	-0.24332,	 0.72392
	-0.21045,	 0.74238
	-0.17686,	 0.75858
	-0.14271,	 0.77258
	-0.10816,	 0.78443
	-0.073362,	 0.7942
	-0.038422,	 0.80196
	-0.0034625,	 0.80777
	 0.031415,	 0.81171
	 0.066117,	 0.81385
	 0.10056,	 0.81426
	 0.13467,	 0.813
	 0.16839,	 0.81015
	 0.20164,	 0.80577
	 0.23439,	 0.79993
	 0.26657,	 0.7927
	 0.29815,	 0.78412
	 0.32908,	 0.77427
	 0.35933,	 0.76321
	 0.38887,	 0.75098
	 0.41767,	 0.73766
	 0.4457,	 0.72328
	 0.47294,	 0.70791
	 0.49937,	 0.69159
	 0.52497,	 0.67438
	 0.54973,	 0.65632
	 0.57362,	 0.63747
	 0.59664,	 0.61786
	 0.61878,	 0.59754
	 0.64002,	 0.57655
	 0.66036,	 0.55495
	 0.67979,	 0.53276
	 0.69832,	 0.51004
	 0.71592,	 0.48682
	 0.73261,	 0.46313
	 0.74837,	 0.43903
	 0.76321,	 0.41453
	 0.77714,	 0.38969
	 0.79014,	 0.36453
	 0.80223,	 0.3391
	 0.8134,	 0.31341
	 0.82367,	 0.28751
	 0.83303,	 0.26143
	 0.84149,	 0.2352
	 0.84906,	 0.20884
	 0.85575,	 0.18239
	 0.86156,	 0.15588
	 0.8665,	 0.12933
	 0.87058,	 0.10278
	 0.87381,	 0.076242
	 0.8762,	 0.049744
	 0.87777,	 0.023312
	 0.87851,	-0.0030285
	 0.87845,	-0.029255
	 0.87759,	-0.055346
	 0.87595,	-0.081279
	 0.87354,	-0.10703
	 0.87037,	-0.13258
	 0.86646,	-0.15792
	 0.86182,	-0.18302
	 0.85646,	-0.20786
	 0.85039,	-0.23244
	 0.84364,	-0.25672
	 0.83621,	-0.28069
	 0.82812,	-0.30435
	 0.81938,	-0.32766
	 0.81001,	-0.35063
	 0.80002,	-0.37323
	 0.78942,	-0.39546
	 0.77824,	-0.41729
	 0.76648,	-0.43872
	 0.75417,	-0.45973
	 0.7413,	-0.48032
	 0.72791,	-0.50047
	 0.714,	-0.52018
	 0.69959,	-0.53943
	 0.68469,	-0.55821
	 0.66932,	-0.57652
	 0.65349,	-0.59434
	 0.63721,	-0.61167
	 0.62051,	-0.6285
	 0.59759,	-0.65015
	 0.57397,	-0.67088
	 0.54967,	-0.69067
	 0.52473,	-0.70951
	 0.49919,	-0.72739
	 0.47306,	-0.74428
	 0.4464,	-0.76019
	 0.41922,	-0.77508
	 0.39155,	-0.78896
	 0.36344,	-0.80181
	 0.33491,	-0.81362
	 0.30598,	-0.82438
	 0.2767,	-0.83408
	 0.24709,	-0.8427
	 0.21719,	-0.85024
	 0.18702,	-0.85669
	 0.15661,	-0.86204
	 0.126,	-0.86628
	 0.095217,	-0.86939
	 0.06429,	-0.87137
	 0.033254,	-0.87222
	 0.0021411,	-0.87191
	-0.029016,	-0.87045
	-0.060182,	-0.86781
	-0.091325,	-0.864
	-0.1224,	-0.859
	-0.15339,	-0.85281
	-0.18424,	-0.84542
	-0.21492,	-0.83681
	-0.24538,	-0.82698
	-0.27559,	-0.81593
	-0.30551,	-0.80364
	-0.33508,	-0.79011
	-0.36427,	-0.77533
	-0.39302,	-0.7593
	-0.42128,	-0.74202
	-0.44901,	-0.72348
	-0.47614,	-0.70368
	-0.50263,	-0.68263
	-0.5284,	-0.66033
	-0.55342,	-0.63677
	-0.5776,	-0.61198
	-0.60088,	-0.58595
	-0.62321,	-0.55871
	-0.6445,	-0.53028
	-0.66468,	-0.50067
	-0.68369,	-0.4699
	-0.70145,	-0.43802
END
BEGIN
	 0.999895298914595609396371855837 ,	 -0 
	 0.999895298914588281924409329804 ,	 -1.09285067106945632531278533861e-08 
	 0.999895298914577290716465540754 ,	 -1.09285065628961230999038889422e-07 
	 0.999895298913369146021068445407 ,	 -1.09285064857356228884555093828e-06 
	 0.999895298792622400085861045227 ,	 -1.0928506468707577248267170944e-05 
	 0.999895298721285019638571611722 ,	 -1.37581744974676900561405545886e-05 
	 0.999895298608221905212189994927 ,	 -1.7320515477182996111338297851e-05 
	 0.99989529842902968859164047899 ,	 -2.18052370446544796500631946401e-05 
	 0.999895298145030420045031860354 ,	 -2.74511669546770309402461407444e-05 
	 0.999895297694920581754729482782 ,	 -3.45589715223873494842621312273e-05 
	 0.999895296981545778081112985092 ,	 -4.35071671746820043402692590462e-05 
	 0.999895295850921961289259343175 ,	 -5.4772277792089485437543316948e-05 
	 0.999895294059005901310399622162 ,	 -6.89542112567581577664554970397e-05 
	 0.999895291219011550509776498075 ,	 -8.68082065733910557270291974419e-05 
	 0.999895286717928377662190086994 ,	 -0.000109285052760435541507888501656 
	 0.999895279584205654010986563662 ,	 -0.000137581721177469640249313442837 
