CITIFILE A.01.01
#Momentum: B.12.070 (*) built: Feb 13 2020 
#Momentum Date and Time: Sun Aug 14 23:32:36 2022

NAME Momentum.SP

#  mode: MW    reference: S_50

#eesof Port[1] P1
#eesof Port[2] P2

CONSTANT NBR_OF_PORTS 2

CONSTANT NORMALIZATION 1

VAR freq MAG 159

DATA S[1,1] RI
DATA S[1,2] RI
DATA S[2,1] RI
DATA S[2,2] RI
DATA PORTZ[1] RI
DATA PORTZ[2] RI

VAR_LIST_BEGIN
	 0
	 8.254652041
	 82.54652041
	 825.4652041
	 8254.652041
	 10391.99122
	 13082.74183
	 16470.19614
	 20734.74846
	 26103.50174
	 32862.36168
	 41371.26221
	 52083.33331
	 65569.03184
	 82546.52041
	 103919.9122
	 130827.4183
	 164701.9614
	 207347.4846
	 261035.0174
	 328623.6168
	 413712.6221
	 520833.3331
	 655690.3184
	 825465.2041
	 1039199.122
	 1308274.183
	 1647019.614
	 2073474.846
	 2610350.174
	 3286236.168
	 4137126.221
	 5208333.331
	 6556903.184
	 8254652.041
	 10391991.22
	 13082741.83
	 16470196.14
	 20734748.46
	 26103501.74
	 32862361.68
	 41371262.21
	 52083333.31
	 58888017.66
	 65724723.36
	 82742524.42
	 104166666.6
	 127625925.2
	 156249999.9
	 181096072.2
	 208333333.2
	 260416666.6
	 312499999.9
	 364583333.2
	 416666666.5
	 468749999.8
	 520833333.1
	 572916666.4
	 624999999.8
	 677083333.1
	 729166666.4
	 781249999.7
	 833333333
	 885416666.3
	 937499999.6
	 989583332.9
	 1041666666
	 1093750000
	 1145833333
	 1197916666
	 1250000000
	 1302083333
	 1354166666
	 1406249999
	 1458333333
	 1510416666
	 1562499999
	 1614583333
	 1666666666
	 1770833333
	 1874999999
	 1979166666
	 2083333333
	 2187499999
	 2291666666
	 2395833333
	 2500000000
	 2604166666
	 2708333333
	 2812500000
	 2916666666
	 3020833333
	 3125000000
	 3229166666
	 3333333333
	 3437500000
	 3541666666
	 3645833333
	 3750000000
	 3854166666
	 3958333333
	 4062500000
	 4166666666
	 4270833333
	 4375000000
	 4479166667
	 4583333333
	 4687500000
	 4791666667
	 4895833333
	 5000000000
	 5104166667
	 5208333333
	 5312500000
	 5416666667
	 5520833333
	 5625000000
	 5729166667
	 5833333334
	 5937500000
	 6041666667
	 6145833334
	 6250000000
	 6354166667
	 6458333334
	 6562500000
	 6666666667
	 6770833334
	 6875000000
	 6979166667
	 7083333334
	 7187500000
	 7291666667
	 7395833334
	 7500000000
	 7604166667
	 7708333334
	 7812500001
	 7916666667
	 8020833334
	 8125000001
	 8229166667
	 8333333334
	 8437500001
	 8541666667
	 8645833334
	 8750000000
	 8854166667
	 8958333334
	 9062500000
	 9166666667
	 9270833334
	 9375000000
	 9479166667
	 9583333334
	 9687500000
	 9791666667
	 9895833333
	 1e+10
VAR_LIST_END

BEGIN
	 0.999999999999998445687765524781 ,	 -0 
	 0.999999999999999888977697537484 ,	 -2.21020240998015538025356363505e-09 
	 1 ,	 -2.21020259316695444340439280495e-08 
	 0.999999999999973132602804071212 ,	 -2.2102025343251341382710961625e-07 
	 0.999999999997240984761504023481 ,	 -2.2102025324932661476395878708e-06 
	 0.999999999995627053550606433419 ,	 -2.78248013307891284284778521396e-06 
	 0.999999999993069765835684847843 ,	 -3.50293494721931608637532917783e-06 
	 0.999999999989016119528173476283 ,	 -4.40993382189169835783104645088e-06 
	 0.999999999982590814795457845321 ,	 -5.55177775202198020565447222907e-06 
	 0.999999999972408515347410684626 ,	 -6.9892740928167995662079192698e-06 
	 0.99999999995627042448376187167 ,	 -8.79897476535607125924798310734e-06 
	 0.999999999930692218264027815167 ,	 -1.10772529299252298073952260893e-05 
	 0.999999999890154200876679624344 ,	 -1.39454352054424468576598883374e-05 
	 0.999999999825905927508529202896 ,	 -1.75562627577341423545931320405e-05 
	 0.999999999724080268492798495572 ,	 -2.21020253194370575045013538329e-05 
	 0.999999999562695141008816790418 ,	 -2.78248013222404111388641467784e-05 
	 0.999999999306920073216531363869 ,	 -3.50293494540965255623632401694e-05 
	 0.999999998901542119789098705951 ,	 -4.40993381700671704948035767302e-05 
	 0.999999998259061162464433891728 ,	 -5.55177774321236050525385508081e-05 
	 0.999999997240796911768256904907 ,	 -6.98927407478122653117225127062e-05 
	 0.999999995626958293470920580148 ,	 -8.79897472921831180769913771655e-05 
	 0.999999993069195292072492975421 ,	 -0.000110772528574443196447418813477 
	 0.999999989015415202686654083664 ,	 -0.000139454350612910893403295631288 
	 0.999999982590607516819147804199 ,	 -0.000175562624699088232205212989356 
	 0.999999972407974446753087249817 ,	 -0.000221020247453906915069410388242 
	 0.999999956269588929913538777328 ,	 -0.000278248001770398101228920495487 
	 0.999999930691978788921403520362 ,	 -0.000350293471688467583646797720576 
	 0.999999890154212311976777982636 ,	 -0.000440993336092376786439217539737 
	 0.9999998259062184979839571497 ,	 -0.000555177683315422054732835022151 
	 0.999999724080100849121777173423 ,	 -0.000698927225901757598336416776874 
	 0.999999562696807453576752777735 ,	 -0.000879897110633409695878981438 
	 0.999999306922094155503089041304 ,	 -0.00110772456288599219220714076073 
	 0.99999890154792314689302656916 ,	 -0.00139454206386185886046291670937 
	 0.999998259076757434193893914198 ,	 -0.00175562336934104168406634016719 
	 0.999997240837612766384268070397 ,	 -0.00221019673303740615821766368754 
	 0.999995627060012104436736990465 ,	 -0.00278246856239044992875619755068 
	 0.999993069451853289208997921378 ,	 -0.00350291186209322757960649141751 
	 0.999989016059165125582808286708 ,	 -0.00440988776455558673106338574144 
	 0.999982592223869093395194340701 ,	 -0.00555168587203991314993345440598 
	 0.999972412032498980671846311452 ,	 -0.00698909081703602552693155303132 
	 0.999956279777820644660835114337 ,	 -0.00879860923772396441577825498825 
	 0.999930717545300051796175466734 ,	 -0.0110765240976409828910220767284 
	 0.99989021832670088585359735589 ,	 -0.0139439825446648901774437945278 
	 0.999859681188331350654152629431 ,	 -0.0157653074975129814383478787931 
	 0.999825240629043765494543549721 ,	 -0.0175950353716695095940281134972 
	 0.999723173833245271069358750538 ,	 -0.0221487068515664464740666517173 
	 0.9995616298043566994024899941 ,	 -0.0278793483467652536411662822502 
	 0.999342688506115073288071926072 ,	 -0.0341510698235644172271463503421 
	 0.999016405779692084898613302357 ,	 -0.0417979564447878981781059337663 
	 0.998680917919530175552722539578 ,	 -0.0484296919111197876617325164261 
	 0.998257862480499191804028669139 ,	 -0.055692529140601021442336104883 
	 0.997290083190400911128392635874 ,	 -0.0695568901366190317503424012102 
	 0.996117512799894355701724180108 ,	 -0.0833860345081773313147266435408 
	 0.994744595930424191365659680741 ,	 -0.0971760517856442018747031852399 
	 0.993175504055855973284394622169 ,	 -0.110923948594859544947155427508 
	 0.991413967191402178968928637914 ,	 -0.12462742385263508859694070452 
	 0.98946,	-0.13828
	 0.98732,	-0.15189
	 0.985,	-0.16545
	 0.9825,	-0.17896
	 0.97981,	-0.19242
	 0.97695,	-0.20582
	 0.9739,	-0.21917
	 0.97068,	-0.23246
	 0.96729,	-0.24569
	 0.96372,	-0.25885
	 0.95997,	-0.27196
	 0.95605,	-0.285
	 0.95196,	-0.29797
	 0.9477,	-0.31086
	 0.94327,	-0.32369
	 0.93868,	-0.33644
	 0.93391,	-0.34911
	 0.92898,	-0.3617
	 0.92389,	-0.37421
	 0.91863,	-0.38663
	 0.91322,	-0.39896
	 0.90764,	-0.41121
	 0.90191,	-0.42336
	 0.88998,	-0.44738
	 0.87745,	-0.471
	 0.86432,	-0.49422
	 0.85062,	-0.517
	 0.83636,	-0.53935
	 0.82155,	-0.56123
	 0.80622,	-0.58265
	 0.79037,	-0.60358
	 0.77404,	-0.62401
	 0.75723,	-0.64394
	 0.73996,	-0.66335
	 0.72226,	-0.68223
	 0.70413,	-0.70057
	 0.68561,	-0.71836
	 0.6667,	-0.73559
	 0.64743,	-0.75227
	 0.62782,	-0.76837
	 0.60788,	-0.7839
	 0.58763,	-0.79885
	 0.56709,	-0.81322
	 0.54629,	-0.82699
	 0.52523,	-0.84018
	 0.50394,	-0.85277
	 0.48243,	-0.86476
	 0.46073,	-0.87616
	 0.43885,	-0.88696
	 0.4168,	-0.89717
	 0.39461,	-0.90677
	 0.3723,	-0.91578
	 0.34987,	-0.92419
	 0.32735,	-0.93202
	 0.30475,	-0.93925
	 0.28208,	-0.94589
	 0.25937,	-0.95195
	 0.23663,	-0.95743
	 0.21387,	-0.96233
	 0.19111,	-0.96666
	 0.16836,	-0.97042
	 0.14564,	-0.97362
	 0.12295,	-0.97626
	 0.10031,	-0.97835
	 0.077745,	-0.97989
	 0.05525,	-0.98089
	 0.032843,	-0.98136
	 0.010536,	-0.9813
	-0.01166,	-0.98071
	-0.033734,	-0.97962
	-0.055676,	-0.97801
	-0.077474,	-0.9759
	-0.09912,	-0.9733
	-0.1206,	-0.97021
	-0.14191,	-0.96665
	-0.16304,	-0.96261
	-0.18398,	-0.9581
	-0.20473,	-0.95314
	-0.22527,	-0.94772
	-0.24559,	-0.94187
	-0.2657,	-0.93557
	-0.28557,	-0.92885
	-0.30521,	-0.92171
	-0.32461,	-0.91416
	-0.34377,	-0.9062
	-0.36266,	-0.89784
	-0.3813,	-0.88909
	-0.39967,	-0.87996
	-0.41777,	-0.87045
	-0.43559,	-0.86057
	-0.45313,	-0.85033
	-0.47038,	-0.83973
	-0.48733,	-0.82879
	-0.50399,	-0.81751
	-0.52035,	-0.8059
	-0.53641,	-0.79395
	-0.55215,	-0.78169
	-0.56758,	-0.76912
	-0.58269,	-0.75624
	-0.59748,	-0.74306
	-0.61195,	-0.72958
	-0.62609,	-0.71582
	-0.63989,	-0.70178
END
BEGIN
	 -1.6225676100000000737656792734e-19 ,	 0 
	 9.62771528999999989278010966861e-17 ,	 2.8049090800000001257593626828e-13 
	 1.02999205999999999790939520934e-16 ,	 2.80485704000000005401881675067e-12 
	 1.6371452800000000986726526925e-16 ,	 2.804856689999999932755347583e-11 
	 7.96259759999999930216805388506e-15 ,	 2.8048575300000000299172175183e-10 
	 1.25624336999999994283180123485e-14 ,	 3.53110645000000012973239757718e-10 
	 1.98656196000000012056404368781e-14 ,	 4.44539956999999991815189314239e-10 
	 3.14269010000000009418004111885e-14 ,	 5.59642658999999957291391214706e-10 
	 4.97364736000000018914639571086e-14 ,	 7.0454832899999997188091707925e-10 
	 7.87980791999999949079771535201e-14 ,	 8.8697380699999996940887155101e-10 
	 1.24815955999999988218268631168e-13 ,	 1.1166338400000000450580266693e-09 
	 1.97741780000000006231770207512e-13 ,	 1.40575869000000007157533033657e-09 
	 3.13383650999999978616677410886e-13 ,	 1.76974525999999999289123722127e-09 
	 4.96594735999999962620856784501e-13 ,	 2.22797714000000007376596000209e-09 
	 7.87004575999999962642981699359e-13 ,	 2.80485674000000012963967034531e-09 
	 1.24726119e-12 ,	 3.53110486e-09 
	 1.97670157e-12 ,	 4.44539648e-09 
	 3.13280023e-12 ,	 5.5964203e-09 
	 4.96510081e-12 ,	 7.04547112e-09 
	 7.86906391e-12 ,	 8.86971347e-09 
	 1.24714993e-11 ,	 1.11662894e-08 
	 1.976576e-11 ,	 1.40574889e-08 
	 3.13260795e-11 ,	 1.76972572e-08 
	 4.96472626e-11 ,	 2.22793814e-08 
	 7.86825969e-11 ,	 2.80477894e-08 
	 1.24696025e-10 ,	 3.53094963e-08 
	 1.97611196e-10 ,	 4.4450868e-08 
	 3.13145825e-10 ,	 5.59580248e-08 
	 4.96185178e-10 ,	 7.04423874e-08 
	 7.8610565e-10 ,	 8.86725551e-08 
	 1.24515364e-09 ,	 1.11613882e-07 
	 1.97158021e-09 ,	 1.40477193e-07 
	 3.12009566e-09 ,	 1.76777946e-07 
	 4.93338926e-09 ,	 2.22406439e-07 
	 7.78987e-09 ,	 2.79707977e-07 
	 1.2273935e-08 ,	 3.51568164e-07 
	 1.92744275e-08 ,	 4.41491534e-07 
	 3.01106724e-08 ,	 5.53650377e-07 
	 4.66656526e-08 ,	 6.92866385e-07 
	 7.14603052e-08 ,	 8.64481898e-07 
	 1.07524937e-07 ,	 1.0741139e-06 
	 1.5785023e-07 ,	 1.32742488e-06 
	 2.24278626e-07 ,	 1.63032214e-06 
	 2.66189408e-07 ,	 1.81455531e-06 
	 3.07071565e-07 ,	 1.99425114e-06 
	 4.00847259e-07 ,	 2.42335169e-06 
	 5.01248423e-07 ,	 2.93921167e-06 
	 5.92574256e-07 ,	 3.48641398e-06 
	 6.86768144e-07 ,	 4.13855047e-06 
	 7.5962142e-07 ,	 4.69276722e-06 
	 8.34336443e-07 ,	 5.28655124e-06 
	 9.6929143e-07 ,	 6.37271598e-06 
	 1.09534845e-06 ,	 7.37735861e-06 
	 1.20646488e-06 ,	 8.28141517e-06 
	 1.29150629e-06 ,	 9.06763708e-06 
	 1.33605454e-06 ,	 9.72060518e-06 
	 1.32319629e-06 ,	 1.02266685e-05 
	 1.23392872e-06 ,	 1.05739408e-05 
	 1.04741222e-06 ,	 1.07523458e-05 
	 7.41159771e-07 ,	 1.07536938e-05 
	 2.91200486e-07 ,	 1.05717712e-05 
	 -3.27765891e-07 ,	 1.02024376e-05 
	 -1.14221579e-06 ,	 9.64372166e-06 
	 -2.17964625e-06 ,	 8.89591477e-06 
	 -3.4684153e-06 ,	 7.96165758e-06 
	 -5.03757765e-06 ,	 6.84601987e-06 
	 -6.91671553e-06 ,	 5.55657144e-06 
	 -9.13576496e-06 ,	 4.10344367e-06 
	 -1.17248377e-05 ,	 2.49938085e-06 
	 -1.47140399e-05 ,	 7.59780916e-07 
	 -1.81332866e-05 ,	 -1.09727481e-06 
	 -2.2012115e-05 ,	 -3.05100326e-06 
	 -2.63794952e-05 ,	 -5.07791282e-06 
	 -3.12636394e-05 ,	 -7.15180827e-06 
	 -3.66918114e-05 ,	 -9.24380758e-06 
	 -4.26901359e-05 ,	 -1.13223707e-05 
	 -4.92834089e-05 ,	 -1.33533401e-05 
	 -5.64949096e-05 ,	 -1.52999935e-05 
	 -6.43462148e-05 ,	 -1.71231084e-05 
	 -8.20449431e-05 ,	 -2.02297981e-05 
	 -0.000102511326 ,	 -2.23127987e-05 
	 -0.000125838633 ,	 -2.29775418e-05 
	 -0.000152076557 ,	 -2.17995247e-05 
	 -0.000181226557 ,	 -1.83289737e-05 
	 -0.000213237726 ,	 -1.20960917e-05 
	 -0.000248003242 ,	 -2.61682714e-06 
	 -0.000285357482 ,	 1.0600907e-05 
	 -0.000325073825 ,	 2.80506412e-05 
	 -0.0003668632 ,	 5.0220466e-05 
	 -0.000410373395 ,	 7.75859414e-05 
	 -0.000455189161 ,	 0.000110602889 
	 -0.000500833104 ,	 0.00014970015 
	 -0.000546767379 ,	 0.000195272408 
	 -0.000592396162 ,	 0.000247673143 
	 -0.000637068884 ,	 0.000307207825 
	 -0.000680084202 ,	 0.000374127404 
	 -0.000720694664 ,	 0.000448622184 
	 -0.000758112024 ,	 0.000530816154 
	 -0.000791513163 ,	 0.000620761818 
	 -0.000820046546 ,	 0.000718435611 
	 -0.000842839172 ,	 0.000823733928 
	 -0.00085900394 ,	 0.000936469816 
	 -0.000867647365 ,	 0.00105637037 
	 -0.000867877581 ,	 0.00118307487 
	 -0.000858812555 ,	 0.00131613363 
	 -0.000839588446 ,	 0.00145500766 
	 -0.000809368025 ,	 0.0015990691 
	 -0.000767349108 ,	 0.00174760239 
	 -0.000712772903 ,	 0.00189980626 
	 -0.000644932224 ,	 0.00205479649 
	 -0.0005631795 ,	 0.00221160939 
	 -0.000466934496 ,	 0.00236920603 
	 -0.000355691708 ,	 0.00252647719 
	 -0.000229027347 ,	 0.00268224898 
	 -8.66058696e-05 ,	 0.00283528908 
	 7.18140176e-05 ,	 0.00298431363 
	 0.000246373918 ,	 0.00312799463 
	 0.000437110929 ,	 0.00326496787 
	 0.000643953494 ,	 0.00339384132 
	 0.000866717961 ,	 0.0035132039 
	 0.00110510588 ,	 0.00362163457 
	 0.00135870211 ,	 0.00371771175 
	 0.00162697365 ,	 0.0038000228 
	 0.00190926937 ,	 0.00386717381 
	 0.00220482054 ,	 0.00391779922 
	 0.00251274215 ,	 0.00395057163 
	 0.00283203515 ,	 0.0039642113 
	 0.00316158938 ,	 0.00395749562 
	 0.00350018739 ,	 0.00392926821 
	 0.00384650901 ,	 0.00387844776 
	 0.00419913657 ,	 0.00380403645 
	 0.00455656089 ,	 0.00370512783 
	 0.00491718784 ,	 0.0035809143 
	 0.00527934546 ,	 0.00343069388 
	 0.00564129165 ,	 0.00325387645 
	 0.00600122217 ,	 0.0030499893 
	 0.00635727911 ,	 0.00281868195 
	 0.0067075596 ,	 0.00255973034 
	 0.0070501247 ,	 0.00227304026 
	 0.00738300844 ,	 0.00195865008 
	 0.00770422699 ,	 0.00161673281 
	 0.00801178769 ,	 0.00124759745 
	 0.00830369814 ,	 0.000851689777 
	 0.00857797511 ,	 0.000429592414 
	 0.00883265327 ,	 -1.79755269e-05 
	 0.00906579379 ,	 -0.00049015938 
	 0.0092755,	-0.00098597
	 0.0094599,	-0.0015043
	 0.0096172,	-0.0020439
	 0.0097456,	-0.0026033
	 0.0098435,	-0.0031811
	 0.0099092,	-0.0037757
	 0.0099412,	-0.0043852
	 0.009938,	-0.0050079
	 0.0098984,	-0.0056417
	 0.009821,	-0.0062846
	 0.0097047,	-0.0069344
	 0.0095485,	-0.0075887
	 0.0093514,	-0.0082451
END
BEGIN
	 -1.6225676100000000737656792734e-19 ,	 0 
	 9.62771528999999989278010966861e-17 ,	 2.8049090800000001257593626828e-13 
	 1.02999205999999999790939520934e-16 ,	 2.80485704000000005401881675067e-12 
	 1.6371452800000000986726526925e-16 ,	 2.804856689999999932755347583e-11 
	 7.96259759999999930216805388506e-15 ,	 2.8048575300000000299172175183e-10 
	 1.25624336999999994283180123485e-14 ,	 3.53110645000000012973239757718e-10 
	 1.98656196000000012056404368781e-14 ,	 4.44539956999999991815189314239e-10 
	 3.14269010000000009418004111885e-14 ,	 5.59642658999999957291391214706e-10 
	 4.97364736000000018914639571086e-14 ,	 7.0454832899999997188091707925e-10 
	 7.87980791999999949079771535201e-14 ,	 8.8697380699999996940887155101e-10 
	 1.24815955999999988218268631168e-13 ,	 1.1166338400000000450580266693e-09 
	 1.97741780000000006231770207512e-13 ,	 1.40575869000000007157533033657e-09 
	 3.13383650999999978616677410886e-13 ,	 1.76974525999999999289123722127e-09 
	 4.96594735999999962620856784501e-13 ,	 2.22797714000000007376596000209e-09 
	 7.87004575999999962642981699359e-13 ,	 2.80485674000000012963967034531e-09 
	 1.24726119e-12 ,	 3.53110486e-09 
	 1.97670157e-12 ,	 4.44539648e-09 
	 3.13280023e-12 ,	 5.5964203e-09 
	 4.96510081e-12 ,	 7.04547112e-09 
	 7.86906391e-12 ,	 8.86971347e-09 
	 1.24714993e-11 ,	 1.11662894e-08 
	 1.976576e-11 ,	 1.40574889e-08 
	 3.13260795e-11 ,	 1.76972572e-08 
	 4.96472626e-11 ,	 2.22793814e-08 
	 7.86825969e-11 ,	 2.80477894e-08 
	 1.24696025e-10 ,	 3.53094963e-08 
	 1.97611196e-10 ,	 4.4450868e-08 
	 3.13145825e-10 ,	 5.59580248e-08 
	 4.96185178e-10 ,	 7.04423874e-08 
	 7.8610565e-10 ,	 8.86725551e-08 
	 1.24515364e-09 ,	 1.11613882e-07 
	 1.97158021e-09 ,	 1.40477193e-07 
	 3.12009566e-09 ,	 1.76777946e-07 
	 4.93338926e-09 ,	 2.22406439e-07 
	 7.78987e-09 ,	 2.79707977e-07 
	 1.2273935e-08 ,	 3.51568164e-07 
	 1.92744275e-08 ,	 4.41491534e-07 
	 3.01106724e-08 ,	 5.53650377e-07 
	 4.66656526e-08 ,	 6.92866385e-07 
	 7.14603052e-08 ,	 8.64481898e-07 
	 1.07524937e-07 ,	 1.0741139e-06 
	 1.5785023e-07 ,	 1.32742488e-06 
	 2.24278626e-07 ,	 1.63032214e-06 
	 2.66189408e-07 ,	 1.81455531e-06 
	 3.07071565e-07 ,	 1.99425114e-06 
	 4.00847259e-07 ,	 2.42335169e-06 
	 5.01248423e-07 ,	 2.93921167e-06 
	 5.92574256e-07 ,	 3.48641398e-06 
	 6.86768144e-07 ,	 4.13855047e-06 
	 7.5962142e-07 ,	 4.69276722e-06 
	 8.34336443e-07 ,	 5.28655124e-06 
	 9.6929143e-07 ,	 6.37271598e-06 
	 1.09534845e-06 ,	 7.37735861e-06 
	 1.20646488e-06 ,	 8.28141517e-06 
	 1.29150629e-06 ,	 9.06763708e-06 
	 1.33605454e-06 ,	 9.72060518e-06 
	 1.32319629e-06 ,	 1.02266685e-05 
	 1.23392872e-06 ,	 1.05739408e-05 
	 1.04741222e-06 ,	 1.07523458e-05 
	 7.41159771e-07 ,	 1.07536938e-05 
	 2.91200486e-07 ,	 1.05717712e-05 
	 -3.27765891e-07 ,	 1.02024376e-05 
	 -1.14221579e-06 ,	 9.64372166e-06 
	 -2.17964625e-06 ,	 8.89591477e-06 
	 -3.4684153e-06 ,	 7.96165758e-06 
	 -5.03757765e-06 ,	 6.84601987e-06 
	 -6.91671553e-06 ,	 5.55657144e-06 
	 -9.13576496e-06 ,	 4.10344367e-06 
	 -1.17248377e-05 ,	 2.49938085e-06 
	 -1.47140399e-05 ,	 7.59780916e-07 
	 -1.81332866e-05 ,	 -1.09727481e-06 
	 -2.2012115e-05 ,	 -3.05100326e-06 
	 -2.63794952e-05 ,	 -5.07791282e-06 
	 -3.12636394e-05 ,	 -7.15180827e-06 
	 -3.66918114e-05 ,	 -9.24380758e-06 
	 -4.26901359e-05 ,	 -1.13223707e-05 
	 -4.92834089e-05 ,	 -1.33533401e-05 
	 -5.64949096e-05 ,	 -1.52999935e-05 
	 -6.43462148e-05 ,	 -1.71231084e-05 
	 -8.20449431e-05 ,	 -2.02297981e-05 
	 -0.000102511326 ,	 -2.23127987e-05 
	 -0.000125838633 ,	 -2.29775418e-05 
	 -0.000152076557 ,	 -2.17995247e-05 
	 -0.000181226557 ,	 -1.83289737e-05 
	 -0.000213237726 ,	 -1.20960917e-05 
	 -0.000248003242 ,	 -2.61682714e-06 
	 -0.000285357482 ,	 1.0600907e-05 
	 -0.000325073825 ,	 2.80506412e-05 
	 -0.0003668632 ,	 5.0220466e-05 
	 -0.000410373395 ,	 7.75859414e-05 
	 -0.000455189161 ,	 0.000110602889 
	 -0.000500833104 ,	 0.00014970015 
	 -0.000546767379 ,	 0.000195272408 
	 -0.000592396162 ,	 0.000247673143 
	 -0.000637068884 ,	 0.000307207825 
	 -0.000680084202 ,	 0.000374127404 
	 -0.000720694664 ,	 0.000448622184 
	 -0.000758112024 ,	 0.000530816154 
	 -0.000791513163 ,	 0.000620761818 
	 -0.000820046546 ,	 0.000718435611 
	 -0.000842839172 ,	 0.000823733928 
	 -0.00085900394 ,	 0.000936469816 
	 -0.000867647365 ,	 0.00105637037 
	 -0.000867877581 ,	 0.00118307487 
	 -0.000858812555 ,	 0.00131613363 
	 -0.000839588446 ,	 0.00145500766 
	 -0.000809368025 ,	 0.0015990691 
	 -0.000767349108 ,	 0.00174760239 
	 -0.000712772903 ,	 0.00189980626 
	 -0.000644932224 ,	 0.00205479649 
	 -0.0005631795 ,	 0.00221160939 
	 -0.000466934496 ,	 0.00236920603 
	 -0.000355691708 ,	 0.00252647719 
	 -0.000229027347 ,	 0.00268224898 
	 -8.66058696e-05 ,	 0.00283528908 
	 7.18140176e-05 ,	 0.00298431363 
	 0.000246373918 ,	 0.00312799463 
	 0.000437110929 ,	 0.00326496787 
	 0.000643953494 ,	 0.00339384132 
	 0.000866717961 ,	 0.0035132039 
	 0.00110510588 ,	 0.00362163457 
	 0.00135870211 ,	 0.00371771175 
	 0.00162697365 ,	 0.0038000228 
	 0.00190926937 ,	 0.00386717381 
	 0.00220482054 ,	 0.00391779922 
	 0.00251274215 ,	 0.00395057163 
