CITIFILE A.01.01
#Momentum: B.12.070 (*) built: Feb 13 2020 
#Momentum Date and Time: Mon Aug 15 10:49:17 2022

NAME Momentum.SP

#  mode: MW    reference: S_50

#eesof Port[1] P1
#eesof Port[2] P2

CONSTANT NBR_OF_PORTS 2

CONSTANT NORMALIZATION 1

VAR freq MAG 434

DATA S[1,1] RI
DATA S[1,2] RI
DATA S[2,1] RI
DATA S[2,2] RI
DATA PORTZ[1] RI
DATA PORTZ[2] RI

VAR_LIST_BEGIN
	 0
	 8.701167245
	 87.01167245
	 870.1167245
	 8701.167245
	 10954.12056
	 13790.42073
	 17361.1111
	 21856.34394
	 27515.5068
	 34639.97072
	 43609.13941
	 54900.65379
	 69115.82818
	 87011.67245
	 109541.2056
	 137904.2073
	 173611.111
	 218563.4394
	 275155.068
	 346399.7072
	 436091.3941
	 549006.5379
	 691158.2818
	 870116.7245
	 1095412.056
	 1379042.073
	 1736111.11
	 2185634.394
	 2751550.68
	 3463997.072
	 4360913.941
	 5490065.379
	 6911582.818
	 8701167.245
	 10954120.56
	 13790420.73
	 17361111.1
	 19629339.22
	 21908241.11
	 27580841.47
	 34722222.2
	 42541975.04
	 52083333.3
	 60365357.38
	 69444444.4
	 78124999.95
	 86805555.5
	 95486111.05
	 104166666.6
	 112847222.2
	 121527777.7
	 130208333.3
	 138888888.8
	 156249999.9
	 173611111
	 190972222.1
	 208333333.2
	 225694444.3
	 243055555.4
	 260416666.5
	 277777777.6
	 295138888.8
	 312499999.9
	 329861111
	 347222222.1
	 364583333.2
	 381944444.3
	 399305555.4
	 416666666.5
	 429687499.8
	 442708333.2
	 455729166.5
	 468749999.8
	 481770833.1
	 494791666.5
	 507812499.8
	 520833333.1
	 546874999.8
	 572916666.4
	 598958333.1
	 624999999.8
	 651041666.4
	 677083333.1
	 703124999.7
	 729166666.4
	 755208333
	 781249999.7
	 807291666.3
	 833333333
	 868055555.2
	 902777777.4
	 937499999.6
	 972222221.8
	 1006944444
	 1041666666
	 1076388888
	 1111111110
	 1145833333
	 1180555555
	 1215277777
	 1249999999
	 1284722221
	 1319444444
	 1354166666
	 1388888888
	 1423611110
	 1458333332
	 1493055555
	 1527777777
	 1562499999
	 1597222222
	 1631944444
	 1666666666
	 1718749999
	 1770833333
	 1822916666
	 1875000000
	 1927083333
	 1979166666
	 2031250000
	 2083333333
	 2135416666
	 2187500000
	 2239583333
	 2291666666
	 2343750000
	 2395833333
	 2447916667
	 2500000000
	 2552083333
	 2604166667
	 2656250000
	 2708333333
	 2760416667
	 2812500000
	 2864583333
	 2916666666
	 2968750000
	 3020833333
	 3072916666
	 3125000000
	 3151041666
	 3177083333
	 3203125000
	 3229166666
	 3255208333
	 3281250000
	 3307291666
	 3333333333
	 3368055555
	 3402777777
	 3437500000
	 3472222222
	 3489583333
	 3506944444
	 3524305555
	 3541666666
	 3559027777
	 3576388888
	 3593749999
	 3611111110
	 3628472222
	 3645833333
	 3663194444
	 3680555555
	 3697916666
	 3715277777
	 3732638888
	 3749999999
	 3767361110
	 3784722221
	 3802083333
	 3819444444
	 3836805555
	 3854166666
	 3871527777
	 3888888888
	 3906249999
	 3923611110
	 3940972221
	 3958333332
	 3975694444
	 3993055555
	 4010416666
	 4027777777
	 4045138888
	 4062499999
	 4079861110
	 4097222222
	 4114583333
	 4131944444
	 4149305555
	 4166666666
	 4184027777
	 4201388888
	 4218749999
	 4236111110
	 4253472222
	 4270833333
	 4288194444
	 4305555555
	 4322916666
	 4340277777
	 4357638888
	 4375000000
	 4383680555
	 4392361111
	 4401041666
	 4409722222
	 4418402777
	 4427083333
	 4435763888
	 4444444444
	 4456018518
	 4467592592
	 4479166666
	 4490740740
	 4502314814
	 4513888888
	 4525462963
	 4537037037
	 4548611111
	 4560185185
	 4571759259
	 4583333333
	 4594907407
	 4606481481
	 4618055555
	 4629629629
	 4641203703
	 4652777777
	 4664351851
	 4675925926
	 4687500000
	 4699074074
	 4710648148
	 4722222222
	 4733796296
	 4745370370
	 4756944444
	 4768518518
	 4780092592
	 4791666666
	 4803240740
	 4814814814
	 4837962963
	 4861111111
	 4884259259
	 4907407407
	 4930555555
	 4953703703
	 4976851852
	 5000000000
	 5023148148
	 5046296296
	 5069444444
	 5092592592
	 5115740741
	 5138888889
	 5162037037
	 5185185185
	 5208333333
	 5231481481
	 5254629629
	 5277777778
	 5300925926
	 5324074074
	 5347222222
	 5370370370
	 5393518518
	 5416666667
	 5439814815
	 5462962963
	 5486111111
	 5509259259
	 5532407407
	 5555555556
	 5601851852
	 5648148148
	 5694444444
	 5740740741
	 5787037037
	 5833333333
	 5879629630
	 5925925926
	 5972222222
	 6018518519
	 6064814815
	 6111111111
	 6157407408
	 6203703704
	 6250000000
	 6296296296
	 6342592593
	 6388888889
	 6435185185
	 6481481482
	 6527777778
	 6574074074
	 6620370371
	 6666666667
	 6736111111
	 6805555556
	 6875000000
	 6944444444
	 7013888889
	 7083333333
	 7152777778
	 7222222222
	 7280092592
	 7337962963
	 7395833333
	 7453703704
	 7511574074
	 7569444444
	 7627314815
	 7685185185
	 7743055555
	 7800925926
	 7858796296
	 7916666666
	 7974537037
	 8032407407
	 8090277778
	 8148148148
	 8206018518
	 8263888889
	 8321759259
	 8379629630
	 8437500000
	 8495370370
	 8553240741
	 8611111111
	 8668981481
	 8726851852
	 8784722222
	 8842592592
	 8900462963
	 8958333333
	 9016203704
	 9074074074
	 9106224280
	 9138374486
	 9170524691
	 9202674897
	 9234825103
	 9266975308
	 9299125514
	 9331275720
	 9347350823
	 9363425926
	 9379501029
	 9395576132
	 9411651234
	 9427726337
	 9443801440
	 9459876543
	 9475951646
	 9492026749
	 9508101852
	 9524176954
	 9540252057
	 9556327160
	 9572402263
	 9588477366
	 9604552469
	 9620627572
	 9636702675
	 9652777778
	 9660815329
	 9668852880
	 9676890432
	 9684927983
	 9692965535
	 9701003086
	 9709040638
	 9717078189
	 9725115740
	 9733153292
	 9741190843
	 9749228395
	 9757265946
	 9765303498
	 9773341049
	 9781378600
	 9785397376
	 9789416152
	 9793434928
	 9797453703
	 9801472479
	 9805491255
	 9809510031
	 9813528806
	 9821566358
	 9829603909
	 9837641461
	 9845679012
	 9850501543
	 9855324074
	 9860146605
	 9864969136
	 9869791666
	 9874614197
	 9879436728
	 9884259259
	 9889081790
	 9893904321
	 9898726852
	 9903549382
	 9908371913
	 9913194444
	 9918016975
	 9922839506
	 9926858282
	 9930877058
	 9934895833
	 9938914609
	 9942933385
	 9946952160
	 9950970936
	 9954989712
	 9959008488
	 9963027264
	 9967046039
	 9971064815
	 9975083591
	 9979102366
	 9983121142
	 9987139918
	 9990354938
	 9993569959
	 9996784980
	 1e+10
VAR_LIST_END

BEGIN
	 0.999999999999997890576253212203 ,	 -0 
	 0.999999999999078958978770970134 ,	 -3.91607102301350096240639686584e-09 
	 0.999999999999078514889561120071 ,	 -3.91607108962688243991578929126e-08 
	 0.999999999998960942271253315994 ,	 -3.91607111627223503091954626143e-07 
	 0.999999999987224219566428473627 ,	 -3.91607111649427963584457756951e-06 
	 0.99999999998028965553231728336 ,	 -4.93004144264119759100140072405e-06 
	 0.999999999969298447588528233609 ,	 -6.20655445282558559938479447737e-06 
	 0.999999999951880713666696465225 ,	 -7.81358911949858736534224590287e-06 
	 0.999999999924273907936367322691 ,	 -9.83672589827122578753915149719e-06 
	 0.999999999880520018535889903433 ,	 -1.23837041985375151398329762742e-05 
	 0.99999999981117415615017307573 ,	 -1.55901599003804847143328515813e-05 
	 0.999999999701270403384967266902 ,	 -1.96268484593531411519506946206e-05 
	 0.999999999527083627270940269227 ,	 -2.47087382505561947709793457761e-05 
	 0.999999999251016236101463618979 ,	 -3.11064584206377503505791537464e-05 
	 0.999999998813479895609646064258 ,	 -3.91607108651825797096535097808e-05 
	 0.99999999812002948740286001339 ,	 -4.9300413830222211686304945033e-05 
	 0.999999997020987074769493574422 ,	 -6.20655433403172196449304465204e-05 
	 0.99999999527912064589685314786 ,	 -7.81358888233274484491630573757e-05 
	 0.999999992518452507361814696196 ,	 -9.83672542484992362687989952974e-05 
	 0.999999988143091878001200711878 ,	 -0.00012383703254159605933182319859 
	 0.999999981208627874984529171343 ,	 -0.00015590158016376420846427208744 
	 0.999999970218268474653200428293 ,	 -0.000196268446992498013514705235139 
	 0.999999952799799918246037577774 ,	 -0.000247087307490234664442141365726 
	 0.999999925193574057402656762861 ,	 -0.000311064434540542222862313792575 
	 0.999999881441129279124879758456 ,	 -0.000391606810035138863668180420063 
	 0.999999812099361173878264708037 ,	 -0.000493003542495484836649666249286 
	 0.999999702203046902937444428972 ,	 -0.000620654244662510734542593127117 
	 0.999999528036611740056116559572 ,	 -0.000781356516575737458651929046027 
	 0.999999252020214113301221914298 ,	 -0.000983667810994903746291129209567 
	 0.999998814610900232935364329023 ,	 -0.00123836088671303024000280856853 
	 0.99999812148233457875790008984 ,	 -0.00155899697483441457279695896432 
	 0.999997023244873495251283657126 ,	 -0.00196264692410741403705287666526 
	 0.999995283401278634016762225656 ,	 -0.0024707982198592937095327215502 
	 0.999992527802571640194173596683 ,	 -0.00311049517522721252760220522759 
	 0.999988165144212848289839712379 ,	 -0.00391577105057483443317778437631 
	 0.999981262452048325073405976582 ,	 -0.00492944456906951877783740201266 
	 0.999970351391062606261073142377 ,	 -0.00620536929153470140363424434327 
	 0.999953130087574693085628041445 ,	 -0.00781124237572194957124338543508 
	 0.999940196979603235227784807648 ,	 -0.00883106141339529138178932043957 
	 0.999925663253318108836253941263 ,	 -0.0098554238022199314173121820204 
	 0.999882907982055035844837220793 ,	 -0.0124039849035599836213350499747 
	 0.999816149178628377214295142039 ,	 -0.0156094902881245278791766395443 
	 0.999727293045440723595618237596 ,	 -0.0191152265139143962002776788722 
	 0.999597905638082595558557841287 ,	 -0.0233862552680550450645569071639 
	 0.999468093778581034847263708798 ,	 -0.0270875946313564597289769153576 
	 0.999308262634814981062447714066 ,	 -0.0311389038181375532587935595075 
	 0.999139204028794192247175942612 ,	 -0.0350065798690946117233124823542 
	 0.998954954276128681556201627245 ,	 -0.0388689995746486216532389335043 
	 0.998756003807152126228174893185 ,	 -0.0427266071652002699110539651883 
	 0.99854268663734058186776110233 ,	 -0.0465798390948237717168467497686 
	 0.998315212457667300327557313722 ,	 -0.0504290958654756149570630441303 
	 0.998073697396863579456294246484 ,	 -0.0542747271832557665049989736872 
	 0.997818190711682984073149782489 ,	 -0.0581170266230798260309597935702 
	 0.997548696417752567278114383953 ,	 -0.061956232440366854063995560864 
	 0.996967630330114484848991196486 ,	 -0.0696260674951225677631327926065 
	 0.996330155603229683514143744105 ,	 -0.0772852313446392713558452669531 
	 0.995635883143013433738133244333 ,	 -0.0849342080742632177248196967412 
	 0.994884483452138645986906340113 ,	 -0.0925731394425944875692380264809 
	 0.994075718489742965466859914159 ,	 -0.1002019516194274650899842527 
	 0.993209439832409723969419701461 ,	 -0.10782044042080718426745988836 
	 0.992285574134787462519113887538 ,	 -0.115428325450151914033369848767 
	 0.991304105979431193773621089349 ,	 -0.123025282959954518346989971178 
	 0.990265062403207441121821830166 ,	 -0.130610964927087569442676340259 
	 0.98916,	-0.13818
	 0.98801,	-0.14574
	 0.9868,	-0.15329
	 0.98553,	-0.16083
	 0.9842,	-0.16835
	 0.98282,	-0.17586
	 0.98138,	-0.18336
	 0.98026,	-0.18897
	 0.97912,	-0.19458
	 0.97793,	-0.20017
	 0.97672,	-0.20576
	 0.97548,	-0.21134
	 0.9742,	-0.21691
	 0.9729,	-0.22247
	 0.97156,	-0.22802
	 0.96878,	-0.23909
	 0.96589,	-0.25013
	 0.96287,	-0.26112
	 0.95972,	-0.27207
	 0.95645,	-0.28298
	 0.95306,	-0.29384
	 0.94955,	-0.30466
	 0.94592,	-0.31543
	 0.94217,	-0.32614
	 0.9383,	-0.33681
	 0.93432,	-0.34742
	 0.93021,	-0.35798
	 0.92456,	-0.37196
	 0.91871,	-0.38585
	 0.91265,	-0.39963
	 0.9064,	-0.41329
	 0.89995,	-0.42685
	 0.8933,	-0.44028
	 0.88647,	-0.4536
	 0.87944,	-0.46679
	 0.87223,	-0.47986
	 0.86484,	-0.4928
	 0.85727,	-0.5056
	 0.84952,	-0.51828
	 0.84159,	-0.53081
	 0.83349,	-0.5432
	 0.82522,	-0.55546
	 0.81678,	-0.56757
	 0.80818,	-0.57953
	 0.79942,	-0.59134
	 0.7905,	-0.603
	 0.78142,	-0.61451
	 0.7722,	-0.62587
	 0.76282,	-0.63706
	 0.75329,	-0.6481
	 0.74362,	-0.65898
	 0.72886,	-0.675
	 0.71378,	-0.69065
	 0.69841,	-0.70594
	 0.68275,	-0.72089
	 0.66688,	-0.73554
	 0.65109,	-0.74968
	 0.63467,	-0.76305
	 0.61789,	-0.77628
	 0.60093,	-0.78917
	 0.58378,	-0.80167
	 0.56643,	-0.81376
	 0.54889,	-0.82544
	 0.53117,	-0.83671
	 0.51327,	-0.84757
	 0.4952,	-0.85801
	 0.47698,	-0.86803
	 0.45861,	-0.87763
	 0.44011,	-0.88681
	 0.42148,	-0.89557
	 0.40273,	-0.90391
	 0.38388,	-0.91183
	 0.36492,	-0.91932
	 0.34589,	-0.9264
	 0.32677,	-0.93305
	 0.30759,	-0.93928
	 0.28835,	-0.94509
	 0.26905,	-0.95048
	 0.24972,	-0.95545
	 0.24005,	-0.95778
	 0.23036,	-0.96
	 0.22067,	-0.96212
	 0.21098,	-0.96413
	 0.20128,	-0.96604
	 0.19158,	-0.96785
	 0.18189,	-0.96955
	 0.17219,	-0.97115
	 0.15926,	-0.97312
	 0.14634,	-0.9749
	 0.13343,	-0.9765
	 0.12053,	-0.97792
	 0.11409,	-0.97855
	 0.10765,	-0.97915
	 0.10122,	-0.9797
	 0.094792,	-0.9802
	 0.088368,	-0.98065
	 0.081951,	-0.98106
	 0.07554,	-0.98143
	 0.069136,	-0.98175
	 0.06274,	-0.98202
	 0.056351,	-0.98225
	 0.049971,	-0.98244
	 0.0436,	-0.98257
	 0.037238,	-0.98267
	 0.030887,	-0.98272
	 0.024546,	-0.98272
	 0.018216,	-0.98268
	 0.011897,	-0.9826
	 0.0055912,	-0.98247
	-0.00070211,	-0.9823
	-0.006982,	-0.98208
	-0.013248,	-0.98182
	-0.019499,	-0.98152
	-0.025735,	-0.98118
	-0.031955,	-0.98079
	-0.038159,	-0.98036
	-0.044346,	-0.9799
	-0.050515,	-0.97939
	-0.056666,	-0.97884
	-0.062798,	-0.97825
	-0.068911,	-0.97763
	-0.075004,	-0.97696
	-0.081077,	-0.97626
	-0.087129,	-0.97552
	-0.093161,	-0.97475
	-0.099171,	-0.97395
	-0.10516,	-0.97311
	-0.11112,	-0.97224
	-0.11707,	-0.97134
	-0.123,	-0.9704
	-0.1289,	-0.96944
	-0.13478,	-0.96845
	-0.14065,	-0.96744
	-0.14649,	-0.9664
	-0.15231,	-0.96533
	-0.15812,	-0.96424
	-0.16391,	-0.96312
	-0.16968,	-0.96198
	-0.17543,	-0.96082
	-0.18117,	-0.95964
	-0.1869,	-0.95843
	-0.19261,	-0.9572
	-0.19831,	-0.95595
	-0.20116,	-0.95532
	-0.204,	-0.95468
	-0.20684,	-0.95404
	-0.20968,	-0.95339
	-0.21252,	-0.95273
	-0.21535,	-0.95207
	-0.21818,	-0.95141
	-0.22101,	-0.95073
	-0.22478,	-0.94983
	-0.22855,	-0.94891
	-0.23231,	-0.94799
	-0.23607,	-0.94705
	-0.23983,	-0.9461
	-0.24359,	-0.94514
	-0.24734,	-0.94416
	-0.25109,	-0.94318
	-0.25483,	-0.94218
	-0.25858,	-0.94117
	-0.26232,	-0.94015
	-0.26606,	-0.93911
	-0.2698,	-0.93807
	-0.27353,	-0.93701
	-0.27726,	-0.93593
	-0.28099,	-0.93484
	-0.28472,	-0.93374
	-0.28844,	-0.93262
	-0.29216,	-0.93149
	-0.29587,	-0.93035
	-0.29959,	-0.92919
	-0.3033,	-0.92801
	-0.307,	-0.92682
	-0.3107,	-0.92562
	-0.3144,	-0.9244
	-0.31809,	-0.92316
	-0.32178,	-0.92191
	-0.32547,	-0.92065
	-0.32915,	-0.91936
	-0.33282,	-0.91807
	-0.33649,	-0.91676
	-0.34016,	-0.91543
	-0.34747,	-0.91273
	-0.35476,	-0.90996
	-0.36203,	-0.90714
	-0.36927,	-0.90425
	-0.37648,	-0.9013
	-0.38367,	-0.89829
	-0.39083,	-0.89522
	-0.39795,	-0.89208
	-0.40505,	-0.88889
	-0.41211,	-0.88564
	-0.41914,	-0.88233
	-0.42614,	-0.87896
	-0.4331,	-0.87553
	-0.44003,	-0.87204
	-0.44692,	-0.8685
	-0.45378,	-0.8649
	-0.4606,	-0.86125
	-0.46738,	-0.85754
	-0.47413,	-0.85378
	-0.48083,	-0.84996
	-0.4875,	-0.84609
	-0.49413,	-0.84217
	-0.50071,	-0.8382
	-0.50726,	-0.83418
	-0.51377,	-0.8301
	-0.52024,	-0.82598
	-0.52666,	-0.8218
	-0.53305,	-0.81758
	-0.53939,	-0.81331
	-0.54569,	-0.80899
	-0.55195,	-0.80462
	-0.55817,	-0.80021
	-0.57048,	-0.79124
	-0.58261,	-0.78209
	-0.59457,	-0.77277
	-0.60635,	-0.76327
	-0.61796,	-0.75359
	-0.62939,	-0.74376
	-0.64064,	-0.73375
	-0.65171,	-0.72359
	-0.66259,	-0.71327
	-0.67329,	-0.7028
	-0.68381,	-0.69218
	-0.69414,	-0.6814
	-0.70428,	-0.67049
	-0.71423,	-0.65943
	-0.724,	-0.64823
	-0.73357,	-0.6369
	-0.74295,	-0.62544
	-0.75214,	-0.61384
	-0.76114,	-0.60212
	-0.76994,	-0.59027
	-0.77854,	-0.5783
	-0.78695,	-0.56622
	-0.79516,	-0.55401
	-0.80317,	-0.54169
	-0.81481,	-0.52301
	-0.826,	-0.50408
	-0.83674,	-0.48492
	-0.84702,	-0.46554
	-0.85683,	-0.44594
	-0.86618,	-0.42613
	-0.87507,	-0.40612
	-0.88349,	-0.38593
	-0.89014,	-0.36895
	-0.89646,	-0.35186
	-0.90245,	-0.33465
	-0.90811,	-0.31733
	-0.91343,	-0.2999
	-0.91841,	-0.28236
	-0.92305,	-0.26473
	-0.92736,	-0.247
	-0.93132,	-0.22918
	-0.93494,	-0.21128
	-0.9382,	-0.1933
	-0.94113,	-0.17524
	-0.9437,	-0.15711
	-0.94591,	-0.13892
	-0.94778,	-0.12066
	-0.94928,	-0.10235
	-0.95043,	-0.083985
	-0.95121,	-0.065571
	-0.95163,	-0.047114
	-0.95168,	-0.028619
	-0.95136,	-0.01009
	-0.95067,	 0.0084682
	-0.9496,	 0.02705
	-0.94814,	 0.045652
	-0.9463,	 0.064268
	-0.94407,	 0.082895
	-0.94145,	 0.10152
	-0.93842,	 0.12015
	-0.93498,	 0.13878
	-0.93113,	 0.1574
	-0.92684,	 0.17601
	-0.92212,	 0.19459
	-0.91929,	 0.20491
	-0.91633,	 0.21521
	-0.91321,	 0.2255
	-0.90994,	 0.23579
	-0.90652,	 0.24605
	-0.90293,	 0.25631
	-0.89917,	 0.26654
	-0.89523,	 0.27675
	-0.89319,	 0.28184
	-0.8911,	 0.28693
	-0.88896,	 0.29201
	-0.88678,	 0.29708
	-0.88454,	 0.30214
	-0.88224,	 0.30719
	-0.87989,	 0.31222
	-0.87747,	 0.31725
	-0.875,	 0.32225
	-0.87246,	 0.32724
	-0.86986,	 0.3322
	-0.86719,	 0.33714
	-0.86444,	 0.34205
	-0.86162,	 0.34692
	-0.85871,	 0.35176
	-0.85573,	 0.35655
	-0.85265,	 0.36129
	-0.84949,	 0.36597
	-0.84623,	 0.37057
	-0.84288,	 0.37508
	-0.84117,	 0.3773
	-0.83943,	 0.3795
	-0.83767,	 0.38166
	-0.83589,	 0.38379
	-0.83408,	 0.38588
	-0.83225,	 0.38794
	-0.8304,	 0.38995
	-0.82853,	 0.39192
	-0.82664,	 0.39384
	-0.82473,	 0.39571
	-0.82281,	 0.39752
	-0.82088,	 0.39928
	-0.81894,	 0.40097
	-0.817,	 0.40259
	-0.81507,	 0.40415
	-0.81314,	 0.40563
	-0.81218,	 0.40634
	-0.81123,	 0.40703
	-0.81028,	 0.4077
	-0.80934,	 0.40835
	-0.80841,	 0.40898
	-0.80749,	 0.40959
	-0.80658,	 0.41018
	-0.80568,	 0.41075
	-0.80392,	 0.41182
	-0.80223,	 0.41282
	-0.80061,	 0.41374
	-0.79908,	 0.41459
	-0.79821,	 0.41506
	-0.79737,	 0.41552
	-0.79658,	 0.41596
	-0.79583,	 0.41638
	-0.79513,	 0.41679
	-0.79447,	 0.41719
	-0.79386,	 0.41758
	-0.7933,	 0.41797
	-0.79279,	 0.41836
	-0.79233,	 0.41876
	-0.79193,	 0.41916
	-0.79157,	 0.41958
	-0.79127,	 0.42001
	-0.79101,	 0.42047
	-0.7908,	 0.42095
	-0.79064,	 0.42146
	-0.79054,	 0.42191
	-0.79047,	 0.42239
	-0.79042,	 0.42289
	-0.7904,	 0.42342
	-0.79041,	 0.42398
	-0.79043,	 0.42458
	-0.79048,	 0.42521
	-0.79053,	 0.42587
	-0.79061,	 0.42656
	-0.79069,	 0.42729
	-0.79079,	 0.42806
	-0.79089,	 0.42886
	-0.791,	 0.4297
	-0.79111,	 0.43058
	-0.79121,	 0.43149
	-0.79132,	 0.43244
	-0.7914,	 0.43322
	-0.79147,	 0.43403
	-0.79152,	 0.43487
	-0.79192,	 0.436
END
BEGIN
	 -2.55076473999999999213577167027e-15 ,	 0 
	 -3.12553801999999986458430206072e-15 ,	 3.004044779999999785833181949e-10 
	 -2.66800470999999990679317693681e-15 ,	 3.00404485000000020105796218455e-09 
	 4.3873325099999997847006670595e-14 ,	 3.00404485000000020105796218455e-08 
	 4.69701447999999999716660992606e-12 ,	 3.0040448499999998040112681591e-07 
	 7.4461175100000000388266120383e-12 ,	 3.78186839999999998880049869102e-07 
	 1.18031253000000001269990362495e-11 ,	 4.7610902399999999959362027499e-07 
	 1.87085313000000012073663365598e-11 ,	 5.99385748000000003619838328389e-07 
	 2.96528453000000001266174380875e-11 ,	 7.54581950000000003989759304185e-07 
	 4.69984264000000020632192688495e-11 ,	 9.4996239099999995584324959455e-07 
	 7.44893057999999993810290448994e-11 ,	 1.19593178999999997097209835512e-06 
	 1.18059438999999996642602827617e-10 ,	 1.50558892000000007664129234031e-06 
	 1.87113420999999991500157334332e-10 ,	 1.89542413999999999761245615681e-06 
	 2.96556601000000003783277019586e-10 ,	 2.38619761000000013754346848971e-06 
	 4.70012359999999980206806985094e-10 ,	 3.00404478000000018536141781211e-06 
	 7.44921168e-10 ,	 3.78186825e-06 
	 1.18062226e-09 ,	 4.76108993e-06 
	 1.87116182e-09 ,	 5.99385687e-06 
	 2.96559301e-09 ,	 7.54581826e-06 
	 4.70014885e-09 ,	 9.49962145e-06 
	 7.44923286e-09 ,	 1.1959313e-05 
	 1.1806233e-08 ,	 1.50558794e-05 
	 1.87116019e-08 ,	 1.89542219e-05 
	 2.96558463e-08 ,	 2.38619371e-05 
	 4.70012355e-08 ,	 3.00403699e-05 
	 7.44916505e-08 ,	 3.78185272e-05 
	 1.18060584e-07 ,	 4.76105894e-05 
	 1.87111591e-07 ,	 5.99379504e-05 
	 2.96547302e-07 ,	 7.54569491e-05 
	 4.69984283e-07 ,	 9.49937535e-05 
	 7.44845977e-07 ,	 0.000119588221 
	 1.18042876e-06 ,	 0.000150549001 
	 1.87067151e-06 ,	 0.000189522688 
	 2.96435847e-06 ,	 0.000238580428 
