CITIFILE A.01.01
#Momentum: B.12.070 (*) built: Feb 13 2020 
#Momentum Date and Time: Mon Aug 15 14:15:31 2022

NAME Momentum.SP

#  mode: MW    reference: S_50

#eesof Port[1] P1
#eesof Port[2] P2

CONSTANT NBR_OF_PORTS 2

CONSTANT NORMALIZATION 1

VAR freq MAG 154

DATA S[1,1] RI
DATA S[1,2] RI
DATA S[2,1] RI
DATA S[2,2] RI
DATA PORTZ[1] RI
DATA PORTZ[2] RI

VAR_LIST_BEGIN
	 0
	 8.274252442
	 82.74252442
	 827.4252442
	 8274.252442
	 10416.66666
	 13113.80637
	 16509.30408
	 20783.98244
	 26165.48365
	 32940.39228
	 41469.49692
	 52207.00348
	 65724.72336
	 82742.52442
	 104166.6666
	 131138.0637
	 165093.0408
	 207839.8244
	 261654.8365
	 329403.9228
	 414694.9692
	 522070.0348
	 657247.2336
	 827425.2442
	 1041666.666
	 1311380.637
	 1650930.408
	 2078398.244
	 2616548.365
	 3294039.228
	 4146949.692
	 5220700.348
	 6572472.336
	 8274252.442
	 10416666.66
	 13113806.37
	 16509304.08
	 20783982.44
	 26165483.65
	 32940392.28
	 41469496.92
	 52207003.48
	 65724723.36
	 82742524.42
	 104166666.6
	 117776035.3
	 131449446.7
	 165485048.8
	 208333333.2
	 255251850.3
	 312499999.9
	 362192144.3
	 416666666.5
	 468749999.8
	 520833333.1
	 572916666.4
	 624999999.8
	 677083333.1
	 729166666.4
	 781249999.7
	 833333333
	 937499999.6
	 1041666666
	 1145833333
	 1250000000
	 1302083333
	 1354166666
	 1406249999
	 1458333333
	 1510416666
	 1562499999
	 1614583333
	 1666666666
	 1770833333
	 1874999999
	 1979166666
	 2083333333
	 2187499999
	 2291666666
	 2395833333
	 2500000000
	 2604166666
	 2708333333
	 2812500000
	 2916666666
	 3020833333
	 3125000000
	 3229166666
	 3333333333
	 3437500000
	 3541666666
	 3645833333
	 3750000000
	 3854166666
	 3958333333
	 4062500000
	 4166666666
	 4270833333
	 4375000000
	 4479166667
	 4583333333
	 4687500000
	 4791666667
	 4895833333
	 5000000000
	 5104166667
	 5208333333
	 5312500000
	 5416666667
	 5520833333
	 5625000000
	 5729166667
	 5833333334
	 5937500000
	 6041666667
	 6145833334
	 6250000000
	 6354166667
	 6458333334
	 6562500000
	 6666666667
	 6770833334
	 6875000000
	 6979166667
	 7083333334
	 7187500000
	 7291666667
	 7395833334
	 7500000000
	 7604166667
	 7708333334
	 7812500001
	 7916666667
	 8020833334
	 8125000001
	 8229166667
	 8333333334
	 8437500001
	 8541666667
	 8645833334
	 8750000000
	 8854166667
	 8958333334
	 9062500000
	 9166666667
	 9270833334
	 9375000000
	 9479166667
	 9583333334
	 9687500000
	 9791666667
	 9895833333
	 1e+10
VAR_LIST_END

BEGIN
	 0.999999999999998445687765524781 ,	 -0 
	 1.00000000000000532907051820075 ,	 -2.22564400242930560125387273729e-09 
	 1.00000000000000510702591327572 ,	 -2.22564384144696703060617437586e-08 
	 0.999999999999977351450297646807 ,	 -2.22564390028878733573947101831e-07 
	 0.999999999997205235580111093441 ,	 -2.22564389756874092540783749428e-06 
	 0.999999999995567434574184062512 ,	 -2.80191966012255377904693887103e-06 
	 0.999999999992972621321030146646 ,	 -3.52740786296878994221515313257e-06 
	 0.999999999988859356037096404179 ,	 -4.44074339606137513669636973646e-06 
	 0.999999999982339682347287634911 ,	 -5.59056470850194386912335176021e-06 
	 0.99999999997200683665710130299 ,	 -7.03810397778559249104546324816e-06 
	 0.999999999955630824999275318987 ,	 -8.86044794834450755161014967598e-06 
	 0.999999999929677363397217959573 ,	 -1.11546430818787456473728525452e-05 
	 0.999999999888542823178738672141 ,	 -1.40428636344891444309723738115e-05 
	 0.999999999823349194905119929899 ,	 -1.76789178826797233057277480839e-05 
	 0.999999999720023957650028023636 ,	 -2.22564389730228739949779992457e-05 
	 0.999999999556263396982558333548 ,	 -2.8019196595063800003799769911e-05 
	 0.999999999296722563713046838529 ,	 -3.52740786025984576212977117393e-05 
	 0.999999998885376939483649039175 ,	 -4.44074339126521167031569348183e-05 
	 0.9999999982334381032345049789 ,	 -5.59056469907059927493264694931e-05 
	 0.999999997200185175572073603689 ,	 -7.03810395895065887827968253987e-05 
	 0.999999995562589893971505716763 ,	 -8.86044791085782712514173908858e-05 
	 0.999999992967176565272779953375 ,	 -0.00011154643007044162672514175938 
	 0.999999988853721988313338897569 ,	 -0.000140428634857414635916939005256 
	 0.999999982334338510803206645505 ,	 -0.000176789175860003755502702915692 
	 0.999999972001811676669547068741 ,	 -0.000222564383814516375537095882464 
	 0.999999955625862302355244537466 ,	 -0.000280191954143249599695764118223 
	 0.999999929671737008973764204711 ,	 -0.000352740762469438973170099416166 
	 0.999999888537237424657178053167 ,	 -0.000444074292128615599750673936796 
	 0.999999823343486915483424581907 ,	 -0.000559056376126743082011216756655 
	 0.999999720018449722580555771856 ,	 -0.000703810208780963897368110337993 
	 0.999999556259541400038415304152 ,	 -0.000886044417746090218201970856171 
	 0.999999296719764285690246197191 ,	 -0.00111546355580238731874942459399 
	 0.999998885378447277538782600459 ,	 -0.00140428486230415039415220235242 
	 0.999998233450189566440258204238 ,	 -0.00176788879315781244372374203522 
	 0.999997200223058824164468205709 ,	 -0.00222563792148039452101215829316 
	 0.99999556269234468608431143366 ,	 -0.0028019077366698841302650180296 
	 0.999992967441159397168348732521 ,	 -0.00352738407278391230548209023254 
	 0.999988854396127835322261034889 ,	 -0.00444069593435275633552805629733 
	 0.999982336037899544045615130017 ,	 -0.00559047002681895000009149043763 
	 0.999972006087083586933772494376 ,	 -0.00703791511610080133820588343951 
	 0.999955636603231834413918477367 ,	 -0.00886007128756749473552645213204 
	 0.999929698696964130988362740027 ,	 -0.011153892074268312306628558872 
	 0.99988860484742636547395022717 ,	 -0.0140413668470106278718390058202 
	 0.999823512858487251087069580535 ,	 -0.017675936653061941061793049812 
	 0.999720442065894498995248795836 ,	 -0.0222505071295640011186378615093 
	 0.999557316406330054192608258745 ,	 -0.0280074125533391615761047432898 
	 0.999434454583352560597120373131 ,	 -0.0316629259118521022564607392269 
	 0.99929602717406917911091568385 ,	 -0.0353343188191600487968457855459 
	 0.998886627820564698687633153895 ,	 -0.0444664527878496640411754015076 
	 0.998241080306893957541092277097 ,	 -0.0559472662845862944713815068098 
	 0.997370484072686025456278002821 ,	 -0.0684946605979244727002708259533 
	 0.996081132822921766489798756083 ,	 -0.0837653619259391413187643138372 
	 0.994763984927002797853390347882 ,	 -0.0969818709477125451279277967842 
	 0.993113261695665938688648566313 ,	 -0.111425838697421897283135194812 
	 0.991336570069273337324489148159 ,	 -0.125189944783388351634556556746 
	 0.98936,	-0.1389
	 0.98721,	-0.15257
	 0.98487,	-0.16619
	 0.98234,	-0.17976
	 0.97963,	-0.19328
	 0.97675,	-0.20674
	 0.97368,	-0.22014
	 0.967,	-0.24678
	 0.95962,	-0.27316
	 0.95155,	-0.29927
	 0.94278,	-0.3251
	 0.93814,	-0.3379
	 0.93334,	-0.35062
	 0.92837,	-0.36326
	 0.92323,	-0.37582
	 0.91793,	-0.38829
	 0.91246,	-0.40067
	 0.90684,	-0.41296
	 0.90106,	-0.42515
	 0.88903,	-0.44925
	 0.87639,	-0.47296
	 0.86315,	-0.49625
	 0.84933,	-0.5191
	 0.83495,	-0.54151
	 0.82002,	-0.56345
	 0.80456,	-0.58492
	 0.78858,	-0.6059
	 0.77211,	-0.62638
	 0.75517,	-0.64634
	 0.73776,	-0.66578
	 0.71992,	-0.68468
	 0.70165,	-0.70303
	 0.68298,	-0.72084
	 0.66393,	-0.73808
	 0.64451,	-0.75475
	 0.62475,	-0.77085
	 0.60466,	-0.78637
	 0.58427,	-0.8013
	 0.56358,	-0.81564
	 0.54262,	-0.82938
	 0.52142,	-0.84253
	 0.49998,	-0.85508
	 0.47832,	-0.86702
	 0.45647,	-0.87837
	 0.43444,	-0.88911
	 0.41225,	-0.89924
	 0.38992,	-0.90878
	 0.36746,	-0.91771
	 0.3449,	-0.92604
	 0.32224,	-0.93378
	 0.2995,	-0.94091
	 0.2767,	-0.94746
	 0.25386,	-0.95341
	 0.23099,	-0.95878
	 0.2081,	-0.96357
	 0.18522,	-0.96778
	 0.16234,	-0.97142
	 0.1395,	-0.9745
	 0.11669,	-0.97701
	 0.09395,	-0.97896
	 0.071269,	-0.98036
	 0.048666,	-0.98122
	 0.026155,	-0.98154
	 0.0037472,	-0.98133
	-0.018546,	-0.98059
	-0.040714,	-0.97933
	-0.062747,	-0.97757
	-0.084633,	-0.97529
	-0.10636,	-0.97253
	-0.12792,	-0.96927
	-0.14931,	-0.96552
	-0.17052,	-0.96131
	-0.19153,	-0.95662
	-0.21234,	-0.95147
	-0.23294,	-0.94587
	-0.25333,	-0.93983
	-0.27349,	-0.93334
	-0.29342,	-0.92643
	-0.31312,	-0.91909
	-0.33256,	-0.91134
	-0.35176,	-0.90318
	-0.3707,	-0.89461
	-0.38937,	-0.88566
	-0.40778,	-0.87632
	-0.42591,	-0.8666
	-0.44377,	-0.8565
	-0.46134,	-0.84605
	-0.47861,	-0.83524
	-0.4956,	-0.82407
	-0.51228,	-0.81257
	-0.52867,	-0.80072
	-0.54474,	-0.78855
	-0.56051,	-0.77606
	-0.57596,	-0.76325
	-0.59109,	-0.75013
	-0.6059,	-0.73671
	-0.62038,	-0.72299
	-0.63454,	-0.70897
	-0.64836,	-0.69468
END
BEGIN
	 -5.08028073000000020027840272114e-20 ,	 0 
	 6.52256027000000037340867037921e-16 ,	 2.32956016000000009382130677018e-13 
	 6.6613381500000004187733936648e-16 ,	 2.33106242999999999428048185391e-12 
	 7.21644966000000040481747302455e-16 ,	 2.33107214000000010652948125594e-11 
	 1.86656246000000005277320578008e-15 ,	 2.33108542999999976507202774844e-10 
	 2.44942955000000012605615530999e-15 ,	 2.93466431999999978159018782889e-10 
	 3.63598041000000028964760668244e-15 ,	 3.69451827000000002462765738237e-10 
	 4.89885910000000025211231061998e-15 ,	 4.6511277500000001568040847787e-10 
	 7.16787739999999970890737162599e-15 ,	 5.85542131999999991441282334506e-10 
	 1.09079411999999992966222471732e-14 ,	 7.37154156999999971753323208153e-10 
	 1.69447788999999994108463603776e-14 ,	 9.28021954000000046573384618884e-10 
	 2.61249355000000012674588920698e-14 ,	 1.16831070999999992763188187028e-09 
	 4.06480404999999984575175902914e-14 ,	 1.47081586000000005941096164374e-09 
	 6.40945630000000001950989192654e-14 ,	 1.85164717999999996022053848241e-09 
	 1.01044173000000003842920645097e-13 ,	 2.3310856499999999179197695756e-09 
	 1.59393332e-13 ,	 2.93466306e-09 
	 2.5281166e-13 ,	 3.69452165e-09 
	 4.00054989e-13 ,	 4.65112764e-09 
	 6.33770814e-13 ,	 5.85542246e-09 
	 1.00346814e-12 ,	 7.37153983e-09 
	 1.59044306e-12 ,	 9.28021822e-09 
	 2.51947768e-12 ,	 1.16831014e-08 
	 3.99280609e-12 ,	 1.4708151e-08 
	 6.32727898e-12 ,	 1.85164602e-08 
	 1.00277633e-11 ,	 2.33108334e-08 
	 1.58926761e-11 ,	 2.93465817e-08 
	 2.51872134e-11 ,	 3.69451207e-08 
	 3.99185962e-11 ,	 4.6511077e-08 
	 6.32655386e-11 ,	 5.85538296e-08 
	 1.00267142e-10 ,	 7.37146093e-08 
	 1.58909212e-10 ,	 9.28006076e-08 
	 2.51846856e-10 ,	 1.16827872e-07 
	 3.99130701e-10 ,	 1.47075238e-07 
	 6.32530937e-10 ,	 1.8515209e-07 
	 1.00237422e-09 ,	 2.33083364e-07 
	 1.58835481e-09 ,	 2.93416005e-07 
	 2.51661711e-09 ,	 3.69351836e-07 
	 3.98667407e-09 ,	 4.64912568e-07 
	 6.31369831e-09 ,	 5.8514303e-07 
	 9.99462081e-09 ,	 7.36358084e-07 
	 1.58105691e-08 ,	 9.26435826e-07 
	 2.49834953e-08 ,	 1.16515205e-06 
	 3.94103574e-08 ,	 1.46453393e-06 
	 6.20002894e-08 ,	 1.83917597e-06 
	 9.7128583e-08 ,	 2.30639541e-06 
	 1.51172399e-07 ,	 2.88598844e-06 
	 1.90671079e-07 ,	 3.24834108e-06 
	 2.33985549e-07 ,	 3.60727884e-06 
	 3.55183643e-07 ,	 4.47576852e-06 
	 5.27460887e-07 ,	 5.51180799e-06 
	 7.28557559e-07 ,	 6.56396333e-06 
	 9.71877544e-07 ,	 7.72006243e-06 
	 1.16477709e-06 ,	 8.60143417e-06 
	 1.3396921e-06 ,	 9.42869422e-06 
	 1.45545812e-06 ,	 1.00757739e-05 
	 1.50479857e-06 ,	 1.05742924e-05 
	 1.47078952e-06 ,	 1.09166874e-05 
	 1.33516332e-06 ,	 1.10959808e-05 
	 1.07819731e-06 ,	 1.11061241e-05 
	 6.78720599e-07 ,	 1.09423052e-05 
	 1.14192029e-07 ,	 1.0601207e-05 
	 -6.39180527e-07 ,	 1.00812199e-05 
	 -2.81301147e-06 ,	 8.50769627e-06 
	 -6.05241648e-06 ,	 6.24891837e-06 
	 -1.05769394e-05 ,	 3.36780288e-06 
	 -1.66105125e-05 ,	 -3.46507082e-08 
	 -2.0262987e-05 ,	 -1.88903287e-06 
	 -2.4375824e-05 ,	 -3.8179205e-06 
	 -2.89757298e-05 ,	 -5.79746699e-06 
	 -3.40886193e-05 ,	 -7.80131551e-06 
	 -3.97394375e-05 ,	 -9.8006189e-06 
	 -4.59519819e-05 ,	 -1.17640706e-05 
	 -5.27487271e-05 ,	 -1.36579469e-05 
	 -6.01506511e-05 ,	 -1.54461594e-05 
	 -7.68454407e-05 ,	 -1.85498088e-05 
	 -9.61678268e-05 ,	 -2.07416997e-05 
	 -0.000118214778 ,	 -2.16558312e-05 
	 -0.000143043896 ,	 -2.08970196e-05 
	 -0.000170668945 ,	 -1.80449963e-05 
	 -0.000201055823 ,	 -1.26590601e-05 
	 -0.000234119048 ,	 -4.2832318e-06 
	 -0.000269718809 ,	 7.54814479e-06 
	 -0.000307658636 ,	 2.33044228e-05 
	 -0.000347683722 ,	 4.34523599e-05 
	 -0.00038947994 ,	 6.84495891e-05 
	 -0.000432673575 ,	 9.87379277e-05 
	 -0.000476831787 ,	 0.000134736606 
	 -0.000521463815 ,	 0.000176835494 
	 -0.000566022925 ,	 0.000225388408 
	 -0.000609909076 ,	 0.000280706576 
	 -0.000652472303 ,	 0.00034305234 
	 -0.00069301678 ,	 0.000412633171 
	 -0.000730805531 ,	 0.000489596065 
	 -0.000765065741 ,	 0.000574022391 
	 -0.000794994628 ,	 0.000665923247 
	 -0.000819765807 ,	 0.000765235384 
	 -0.000838536103 ,	 0.000871817742 
	 -0.000850452733 ,	 0.000985448647 
	 -0.000854660795 ,	 0.00110582369 
	 -0.000850310993 ,	 0.00123255432 
	 -0.000836567533 ,	 0.00136516721 
	 -0.0008126161 ,	 0.00150310428 
	 -0.000777671862 ,	 0.00164572359 
	 -0.000730987415 ,	 0.00179230087 
	 -0.000671860613 ,	 0.00194203188 
	 -0.000599642196 ,	 0.00209403538 
	 -0.000513743172 ,	 0.00224735691 
	 -0.00041364188 ,	 0.00240097313 
	 -0.00029889068 ,	 0.00255379691 
	 -0.000169122215 ,	 0.00270468286 
	 -2.40552094e-05 ,	 0.00285243353 
	 0.000136500259 ,	 0.00299580611 
	 0.000312638032 ,	 0.00313351947 
	 0.000504351728 ,	 0.00326426174 
	 0.000711531219 ,	 0.00338669819 
	 0.000933959731 ,	 0.00349947939 
	 0.00117131161 ,	 0.00360124961 
	 0.00142315072 ,	 0.0036906555 
	 0.0016889296 ,	 0.00376635483 
	 0.00196798915 ,	 0.00382702533 
	 0.00225955916 ,	 0.00387137364 
	 0.00256275944 ,	 0.00389814417 
	 0.00287660158 ,	 0.00390612797 
	 0.00319999149 ,	 0.00389417149 
	 0.0035317325 ,	 0.00386118517 
	 0.00387052917 ,	 0.00380615189 
	 0.0042149917 ,	 0.00372813517 
	 0.00456364101 ,	 0.00362628711 
	 0.00491491437 ,	 0.00349985607 
	 0.00526717168 ,	 0.00334819389 
	 0.00561870231 ,	 0.00317076291 
	 0.00596773251 ,	 0.00296714239 
	 0.00631243331 ,	 0.00273703459 
	 0.00665092907 ,	 0.00248027032 
	 0.00698130639 ,	 0.00219681397 
	 0.0073016236 ,	 0.00188676788 
	 0.00760992069 ,	 0.00155037625 
	 0.00790422959 ,	 0.00118802819 
	 0.00818258497 ,	 0.000800260247 
	 0.00844303529 ,	 0.000387758043 
	 0.0086836542 ,	 -4.86428115e-05 
	 0.00890255225 ,	 -0.000507956682 
	 0.0090979,	-0.00098905
	 0.0092679,	-0.0014906
	 0.0094108,	-0.0020113
	 0.0095251,	-0.0025495
	 0.0096092,	-0.0031034
	 0.0096617,	-0.0036713
	 0.0096812,	-0.0042513
	 0.0096667,	-0.0048411
	 0.0096171,	-0.0054387
	 0.0095316,	-0.0060418
	 0.0094093,	-0.0066481
	 0.0092499,	-0.007255
END
BEGIN
	 -5.08028073000000020027840272114e-20 ,	 0 
	 6.52256027000000037340867037921e-16 ,	 2.32956016000000009382130677018e-13 
	 6.6613381500000004187733936648e-16 ,	 2.33106242999999999428048185391e-12 
	 7.21644966000000040481747302455e-16 ,	 2.33107214000000010652948125594e-11 
	 1.86656246000000005277320578008e-15 ,	 2.33108542999999976507202774844e-10 
	 2.44942955000000012605615530999e-15 ,	 2.93466431999999978159018782889e-10 
	 3.63598041000000028964760668244e-15 ,	 3.69451827000000002462765738237e-10 
	 4.89885910000000025211231061998e-15 ,	 4.6511277500000001568040847787e-10 
	 7.16787739999999970890737162599e-15 ,	 5.85542131999999991441282334506e-10 
	 1.09079411999999992966222471732e-14 ,	 7.37154156999999971753323208153e-10 
	 1.69447788999999994108463603776e-14 ,	 9.28021954000000046573384618884e-10 
	 2.61249355000000012674588920698e-14 ,	 1.16831070999999992763188187028e-09 
	 4.06480404999999984575175902914e-14 ,	 1.47081586000000005941096164374e-09 
	 6.40945630000000001950989192654e-14 ,	 1.85164717999999996022053848241e-09 
	 1.01044173000000003842920645097e-13 ,	 2.3310856499999999179197695756e-09 
	 1.59393332e-13 ,	 2.93466306e-09 
	 2.5281166e-13 ,	 3.69452165e-09 
	 4.00054989e-13 ,	 4.65112764e-09 
	 6.33770814e-13 ,	 5.85542246e-09 
	 1.00346814e-12 ,	 7.37153983e-09 
	 1.59044306e-12 ,	 9.28021822e-09 
	 2.51947768e-12 ,	 1.16831014e-08 
	 3.99280609e-12 ,	 1.4708151e-08 
	 6.32727898e-12 ,	 1.85164602e-08 
	 1.00277633e-11 ,	 2.33108334e-08 
	 1.58926761e-11 ,	 2.93465817e-08 
	 2.51872134e-11 ,	 3.69451207e-08 
	 3.99185962e-11 ,	 4.6511077e-08 
	 6.32655386e-11 ,	 5.85538296e-08 
	 1.00267142e-10 ,	 7.37146093e-08 
	 1.58909212e-10 ,	 9.28006076e-08 
	 2.51846856e-10 ,	 1.16827872e-07 
	 3.99130701e-10 ,	 1.47075238e-07 
	 6.32530937e-10 ,	 1.8515209e-07 
	 1.00237422e-09 ,	 2.33083364e-07 
	 1.58835481e-09 ,	 2.93416005e-07 
	 2.51661711e-09 ,	 3.69351836e-07 
	 3.98667407e-09 ,	 4.64912568e-07 
	 6.31369831e-09 ,	 5.8514303e-07 
	 9.99462081e-09 ,	 7.36358084e-07 
	 1.58105691e-08 ,	 9.26435826e-07 
	 2.49834953e-08 ,	 1.16515205e-06 
	 3.94103574e-08 ,	 1.46453393e-06 
	 6.20002894e-08 ,	 1.83917597e-06 
	 9.7128583e-08 ,	 2.30639541e-06 
	 1.51172399e-07 ,	 2.88598844e-06 
	 1.90671079e-07 ,	 3.24834108e-06 
	 2.33985549e-07 ,	 3.60727884e-06 
	 3.55183643e-07 ,	 4.47576852e-06 
	 5.27460887e-07 ,	 5.51180799e-06 
	 7.28557559e-07 ,	 6.56396333e-06 
	 9.71877544e-07 ,	 7.72006243e-06 
	 1.16477709e-06 ,	 8.60143417e-06 
	 1.3396921e-06 ,	 9.42869422e-06 
	 1.45545812e-06 ,	 1.00757739e-05 
	 1.50479857e-06 ,	 1.05742924e-05 
	 1.47078952e-06 ,	 1.09166874e-05 
	 1.33516332e-06 ,	 1.10959808e-05 
	 1.07819731e-06 ,	 1.11061241e-05 
	 6.78720599e-07 ,	 1.09423052e-05 
	 1.14192029e-07 ,	 1.0601207e-05 
	 -6.39180527e-07 ,	 1.00812199e-05 
	 -2.81301147e-06 ,	 8.50769627e-06 
	 -6.05241648e-06 ,	 6.24891837e-06 
	 -1.05769394e-05 ,	 3.36780288e-06 
	 -1.66105125e-05 ,	 -3.46507082e-08 
	 -2.0262987e-05 ,	 -1.88903287e-06 
	 -2.4375824e-05 ,	 -3.8179205e-06 
	 -2.89757298e-05 ,	 -5.79746699e-06 
	 -3.40886193e-05 ,	 -7.80131551e-06 
	 -3.97394375e-05 ,	 -9.8006189e-06 
	 -4.59519819e-05 ,	 -1.17640706e-05 
	 -5.27487271e-05 ,	 -1.36579469e-05 
	 -6.01506511e-05 ,	 -1.54461594e-05 
	 -7.68454407e-05 ,	 -1.85498088e-05 
	 -9.61678268e-05 ,	 -2.07416997e-05 
	 -0.000118214778 ,	 -2.16558312e-05 
	 -0.000143043896 ,	 -2.08970196e-05 
	 -0.000170668945 ,	 -1.80449963e-05 
	 -0.000201055823 ,	 -1.26590601e-05 
	 -0.000234119048 ,	 -4.2832318e-06 
	 -0.000269718809 ,	 7.54814479e-06 
	 -0.000307658636 ,	 2.33044228e-05 
	 -0.000347683722 ,	 4.34523599e-05 
	 -0.00038947994 ,	 6.84495891e-05 
	 -0.000432673575 ,	 9.87379277e-05 
	 -0.000476831787 ,	 0.000134736606 
	 -0.000521463815 ,	 0.000176835494 
	 -0.000566022925 ,	 0.000225388408 
	 -0.000609909076 ,	 0.000280706576 
	 -0.000652472303 ,	 0.00034305234 
	 -0.00069301678 ,	 0.000412633171 
	 -0.000730805531 ,	 0.000489596065 
	 -0.000765065741 ,	 0.000574022391 
	 -0.000794994628 ,	 0.000665923247 
	 -0.000819765807 ,	 0.000765235384 
	 -0.000838536103 ,	 0.000871817742 
	 -0.000850452733 ,	 0.000985448647 
	 -0.000854660795 ,	 0.00110582369 
	 -0.000850310993 ,	 0.00123255432 
	 -0.000836567533 ,	 0.00136516721 
	 -0.0008126161 ,	 0.00150310428 
	 -0.000777671862 ,	 0.00164572359 
	 -0.000730987415 ,	 0.00179230087 
	 -0.000671860613 ,	 0.00194203188 
	 -0.000599642196 ,	 0.00209403538 
	 -0.000513743172 ,	 0.00224735691 
	 -0.00041364188 ,	 0.00240097313 
	 -0.00029889068 ,	 0.00255379691 
	 -0.000169122215 ,	 0.00270468286 
	 -2.40552094e-05 ,	 0.00285243353 
	 0.000136500259 ,	 0.00299580611 
	 0.000312638032 ,	 0.00313351947 
	 0.000504351728 ,	 0.00326426174 
	 0.000711531219 ,	 0.00338669819 
	 0.000933959731 ,	 0.00349947939 
	 0.00117131161 ,	 0.00360124961 
	 0.00142315072 ,	 0.0036906555 
	 0.0016889296 ,	 0.00376635483 
	 0.00196798915 ,	 0.00382702533 
	 0.00225955916 ,	 0.00387137364 
	 0.00256275944 ,	 0.00389814417 
	 0.00287660158 ,	 0.00390612797 
	 0.00319999149 ,	 0.00389417149 
	 0.0035317325 ,	 0.00386118517 
	 0.00387052917 ,	 0.00380615189 
	 0.0042149917 ,	 0.00372813517 
	 0.00456364101 ,	 0.00362628711 
	 0.00491491437 ,	 0.00349985607 
	 0.00526717168 ,	 0.00334819389 
	 0.00561870231 ,	 0.00317076291 
	 0.00596773251 ,	 0.00296714239 
	 0.00631243331 ,	 0.00273703459 
	 0.00665092907 ,	 0.00248027032 
	 0.00698130639 ,	 0.00219681397 
	 0.0073016236 ,	 0.00188676788 
