CITIFILE A.01.01
#Momentum: B.12.070 (*) built: Feb 13 2020 
#Momentum Date and Time: Mon Aug 15 04:44:23 2022

NAME Momentum.SP

#  mode: MW    reference: S_50

#eesof Port[1] P1
#eesof Port[2] P2

CONSTANT NBR_OF_PORTS 2

CONSTANT NORMALIZATION 1

VAR freq MAG 410

DATA S[1,1] RI
DATA S[1,2] RI
DATA S[2,1] RI
DATA S[2,2] RI
DATA PORTZ[1] RI
DATA PORTZ[2] RI

VAR_LIST_BEGIN
	 0
	 8.19612898
	 81.9612898
	 819.612898
	 8196.12898
	 10318.31505
	 12989.98902
	 16353.42728
	 20587.74518
	 25918.43557
	 32629.37718
	 41077.9521
	 51714.07776
	 65104.16664
	 81961.2898
	 103183.1505
	 129899.8902
	 163534.2728
	 205877.4518
	 259184.3557
	 326293.7718
	 410779.521
	 517140.7776
	 651041.6664
	 819612.898
	 1031831.505
	 1298998.902
	 1635342.728
	 2058774.518
	 2591843.557
	 3262937.718
	 4107795.21
	 5171407.776
	 6510416.664
	 7361002.208
	 8215590.42
	 10342815.55
	 13020833.33
	 15953240.64
	 19531249.99
	 22637009.02
	 26041666.66
	 32552083.32
	 39062499.98
	 45572916.65
	 52083333.31
	 65104166.64
	 78124999.97
	 91145833.3
	 104166666.6
	 130208333.3
	 156249999.9
	 182291666.6
	 208333333.2
	 260416666.6
	 312499999.9
	 364583333.2
	 416666666.5
	 468749999.8
	 520833333.1
	 572916666.4
	 624999999.8
	 677083333.1
	 729166666.4
	 781249999.7
	 833333333
	 885416666.3
	 937499999.6
	 989583332.9
	 1041666666
	 1093750000
	 1145833333
	 1197916666
	 1250000000
	 1302083333
	 1354166666
	 1406249999
	 1458333333
	 1510416666
	 1562499999
	 1614583333
	 1666666666
	 1718749999
	 1770833333
	 1822916666
	 1874999999
	 1927083333
	 1979166666
	 2031249999
	 2083333333
	 2135416666
	 2187499999
	 2239583333
	 2291666666
	 2343749999
	 2395833333
	 2447916666
	 2500000000
	 2552083333
	 2604166666
	 2656250000
	 2708333333
	 2760416666
	 2812500000
	 2864583333
	 2916666666
	 2968750000
	 3020833333
	 3072916666
	 3125000000
	 3177083333
	 3229166666
	 3281250000
	 3333333333
	 3385416666
	 3437500000
	 3489583333
	 3541666666
	 3593750000
	 3645833333
	 3697916666
	 3750000000
	 3802083333
	 3854166666
	 3906250000
	 3958333333
	 4010416666
	 4062500000
	 4114583333
	 4166666666
	 4218750000
	 4270833333
	 4322916667
	 4375000000
	 4427083333
	 4479166667
	 4531250000
	 4583333333
	 4635416667
	 4687500000
	 4739583333
	 4791666667
	 4843750000
	 4895833333
	 4947916667
	 5000000000
	 5052083333
	 5104166667
	 5156250000
	 5208333333
	 5260416667
	 5312500000
	 5364583333
	 5416666667
	 5468750000
	 5520833333
	 5572916667
	 5625000000
	 5677083333
	 5729166667
	 5781250000
	 5833333334
	 5885416667
	 5937500000
	 5989583334
	 6041666667
	 6093750000
	 6145833334
	 6197916667
	 6250000000
	 6354166667
	 6458333334
	 6562500000
	 6666666667
	 6770833334
	 6875000000
	 6979166667
	 7083333334
	 7135416667
	 7187500000
	 7239583334
	 7291666667
	 7343750000
	 7395833334
	 7447916667
	 7500000000
	 7552083334
	 7604166667
	 7656250001
	 7708333334
	 7760416667
	 7812500001
	 7864583334
	 7916666667
	 7968750001
	 8020833334
	 8072916667
	 8125000001
	 8177083334
	 8229166667
	 8281250001
	 8333333334
	 8362268519
	 8391203704
	 8420138890
	 8449074075
	 8478009260
	 8506944445
	 8535879630
	 8564814816
	 8593750001
	 8622685186
	 8651620371
	 8680555556
	 8709490741
	 8738425927
	 8767361112
	 8796296297
	 8810763890
	 8825231482
	 8839699075
	 8854166667
	 8868634260
	 8883101853
	 8897569445
	 8912037038
	 8926504630
	 8940972223
	 8955439816
	 8969907408
	 8984375001
	 8998842593
	 9013310186
	 9027777778
	 9035011575
	 9042245371
	 9049479167
	 9056712964
	 9063946760
	 9071180556
	 9078414353
	 9085648149
	 9092881945
	 9100115741
	 9107349538
	 9114583334
	 9121817130
	 9129050927
	 9136284723
	 9143518519
	 9150752316
	 9157986112
	 9165219908
	 9172453704
	 9176070603
	 9179687501
	 9183304399
	 9186921297
	 9190538195
	 9194155093
	 9197771991
	 9201388890
	 9205005788
	 9208622686
	 9212239584
	 9215856482
	 9219473380
	 9223090279
	 9226707177
	 9230324075
	 9233940973
	 9237557871
	 9241174769
	 9244791667
	 9248408566
	 9252025464
	 9255642362
	 9259259260
	 9262152779
	 9265046297
	 9267939816
	 9270833334
	 9273726853
	 9276620371
	 9279513890
	 9282407408
	 9285300927
	 9288194445
	 9291087964
	 9293981482
	 9296875001
	 9299768519
	 9302662038
	 9305555556
	 9308449075
	 9311342593
	 9314236112
	 9317129630
	 9320023149
	 9322916667
	 9325810186
	 9328703704
	 9331597223
	 9334490741
	 9337384260
	 9340277778
	 9343171297
	 9346064815
	 9348958334
	 9351851852
	 9354745371
	 9357638890
	 9360532408
	 9363425927
	 9366319445
	 9369212964
	 9372106482
	 9375000001
	 9377893519
	 9380787038
	 9383680556
	 9386574075
	 9389467593
	 9392361112
	 9395254630
	 9398148149
	 9401041667
	 9403935186
	 9406828704
	 9409722223
	 9412615741
	 9415509260
	 9418402778
	 9421296297
	 9424189815
	 9427083334
	 9429976852
	 9432870371
	 9435763889
	 9438657408
	 9441550926
	 9444444445
	 9448784723
	 9453125001
	 9457465278
	 9461805556
	 9466145834
	 9470486112
	 9474826389
	 9479166667
	 9483506945
	 9487847223
	 9492187501
	 9496527778
	 9500868056
	 9505208334
	 9509548612
	 9513888889
	 9518229167
	 9522569445
	 9526909723
	 9531250000
	 9535590278
	 9539930556
	 9544270834
	 9548611112
	 9552951389
	 9557291667
	 9561631945
	 9565972223
	 9570312500
	 9574652778
	 9578993056
	 9583333334
	 9592013889
	 9600694445
	 9609375000
	 9618055556
	 9626736111
	 9635416667
	 9644097223
	 9652777778
	 9661458334
	 9670138889
	 9678819445
	 9687500000
	 9696180556
	 9704861111
	 9713541667
	 9722222222
	 9730902778
	 9739583334
	 9748263889
	 9756944445
	 9765625000
	 9774305556
	 9782986111
	 9791666667
	 9809027778
	 9826388889
	 9843750000
	 9861111111
	 9878472222
	 9895833333
	 9913194445
	 9930555556
	 9947916667
	 9965277778
	 9982638889
	 1e+10
VAR_LIST_END

BEGIN
	 0.999999999999993560706457174092 ,	 -0 
	 0.99999999999999489297408672428 ,	 -2.58837395961108995834365487099e-09 
	 0.999999999999984900966865097871 ,	 -2.58837409283785291336243972182e-08 
	 0.999999999998999689054812733957 ,	 -2.58837405286982402685680426657e-07 
	 0.999999999900518465878462848195 ,	 -2.58837407951517661786056123674e-06 
	 0.999999999842335896005351969507 ,	 -3.25856992322570704345707781613e-06 
	 0.999999999750121215669196317322 ,	 -4.10229652203497607843019068241e-06 
	 0.999999999603970124439911160152 ,	 -5.16448541620917467298568226397e-06 
	 0.999999999372339631875661325466 ,	 -6.50170208604805566210416145623e-06 
	 0.999999999005228845661008563184 ,	 -8.18515828893140451327781192958e-06 
	 0.999999998423398261948591425607 ,	 -1.03045043924332446749758673832e-05 
	 0.999999997501259896282022054947 ,	 -1.29726036792732202229672111571e-05 
	 0.999999996039771188449662986386 ,	 -1.63315429100308051602041814476e-05 
	 0.99999999372347381232373209059 ,	 -2.0560199333718998104814090766e-05 
	 0.999999990052407472518325448618 ,	 -2.58837672895140258333412930369e-05 
	 0.999999984234200667287950636819 ,	 -3.25857520997452354549750452861e-05 
	 0.999999975013071251694896091067 ,	 -4.10230707004188843711744993925e-05 
	 0.999999960398830989305452021654 ,	 -5.16450646248500788715318776667e-05 
	 0.999999937237486369312478018401 ,	 -6.50174407748060900757991475984e-05 
	 0.999999900530904595186143524188 ,	 -8.18524206951387611752579687163e-05 
	 0.999999842359097890209795878036 ,	 -0.000103046715490773266310498001985 
	 0.99999975017355891004910972697 ,	 -0.00012972937175437238010999863036 
	 0.999999604095849647933391679544 ,	 -0.000163322082437300508672706200741 
	 0.999999372644879036542420180922 ,	 -0.000205615266010816810648975661024 
	 0.999999005986999867090503357758 ,	 -0.000258864147537618549677063128911 
	 0.99999842529298654802971668687 ,	 -0.000325910320138955711399830761366 
	 0.999997506007318959220242504671 ,	 -0.000410335977046649702515423996374 
	 0.999996051674804764530790635035 ,	 -0.000516660441127303471375853405334 
	 0.999993753312459210391693886777 ,	 -0.000650592226473012402720996760763 
	 0.999990127132777573137900617439 ,	 -0.000819355419156231334909534780309 
	 0.999984421034256554250418957963 ,	 -0.00103211796495905616666277637705 
	 0.999975478980744014734227675945 ,	 -0.00130056352734309044194560556207 
	 0.999961555901711651728192009614 ,	 -0.00163967048962465611339212046005 
	 0.999940092740007058225160108123 ,	 -0.0020687927165781161420454736799 
	 0.999924372375005088287025500904 ,	 -0.00234285907092246503680144087411 
	 0.999907099413535283005671772116 ,	 -0.00261948476808893104816888808273 
	 0.999858564133941252194404114562 ,	 -0.00331405655184946468239104433451 
	 0.999788949375822300069671655365 ,	 -0.00420144406504130429880206065718 
	 0.999706329043102526199504609394 ,	 -0.0051898549650233327668047422776 
	 0.999602723840427920265483408002 ,	 -0.00641773435532266844916193804238 
	 0.999514494603846559428461659991 ,	 -0.00750013722321662967829070112202 
	 0.99942243893452276104483189556 ,	 -0.0087007364554216870544678386068 
	 0.999264156556956217869469583093 ,	 -0.0110247349905390201740829070332 
	 0.999128845058908643395056969894 ,	 -0.0133699014218171541301671823021 
	 0.999011944726532652438777404313 ,	 -0.0157241977109272568213782506064 
	 0.998908074124574829610878623498 ,	 -0.0180811370596436482571789383655 
	 0.998722047272945445683944853954 ,	 -0.0227917924269553928695586364483 
	 0.998545710774660921771328503382 ,	 -0.0274924108044958259711165737826 
	 0.998365464259147072922928600747 ,	 -0.0321825177803409800958434061613 
	 0.998173976351566905051981848374 ,	 -0.0368635589748356196082568203565 
	 0.997742613664224675673608544457 ,	 -0.0462043386084696194870957697276 
	 0.997235120830563648297584222746 ,	 -0.0555235602424604124394136306364 
	 0.996645148861626806180424864579 ,	 -0.064825999352687180277143852436 
	 0.995969944479194513320408077561 ,	 -0.0741140059668281558913349726936 
	 0.99435940530883959453944953566 ,	 -0.0926500181624589913553791120648 
	 0.992399638698845842910145620408 ,	 -0.111132391450445400238322690711 
	 0.990090581832411498197643595631 ,	 -0.129557021546875983375457508373 
	 0.98743,	-0.14791
	 0.98443,	-0.1662
	 0.98108,	-0.18442
	 0.97739,	-0.20254
	 0.97337,	-0.22058
	 0.96901,	-0.23852
	 0.96432,	-0.25635
	 0.9593,	-0.27407
	 0.95396,	-0.29166
	 0.9483,	-0.30914
	 0.94232,	-0.32648
	 0.93603,	-0.34368
	 0.92943,	-0.36074
	 0.92253,	-0.37765
	 0.91533,	-0.39441
	 0.90784,	-0.411
	 0.90005,	-0.42743
	 0.89198,	-0.44369
	 0.88363,	-0.45977
	 0.87499,	-0.47567
	 0.86609,	-0.49138
	 0.85692,	-0.50691
	 0.84748,	-0.52223
	 0.83779,	-0.53736
	 0.82784,	-0.55229
	 0.81765,	-0.56701
	 0.80721,	-0.58151
	 0.79653,	-0.5958
	 0.78562,	-0.60987
	 0.77447,	-0.62372
	 0.76311,	-0.63734
	 0.75152,	-0.65073
	 0.73973,	-0.66388
	 0.72772,	-0.6768
	 0.71551,	-0.68948
	 0.7031,	-0.70191
	 0.6905,	-0.7141
	 0.67771,	-0.72604
	 0.66474,	-0.73773
	 0.6516,	-0.74917
	 0.63828,	-0.76035
	 0.62479,	-0.77127
	 0.61115,	-0.78193
	 0.59735,	-0.79233
	 0.5834,	-0.80247
	 0.56931,	-0.81234
	 0.55508,	-0.82194
	 0.54071,	-0.83127
	 0.52621,	-0.84034
	 0.5116,	-0.84913
	 0.49686,	-0.85765
	 0.48202,	-0.86589
	 0.46706,	-0.87386
	 0.45201,	-0.88156
	 0.43686,	-0.88898
	 0.42162,	-0.89612
	 0.40629,	-0.90299
	 0.39088,	-0.90957
	 0.3754,	-0.91588
	 0.35984,	-0.92192
	 0.34422,	-0.92767
	 0.32854,	-0.93315
	 0.31281,	-0.93835
	 0.29702,	-0.94327
	 0.28119,	-0.94791
	 0.26531,	-0.95228
	 0.2494,	-0.95637
	 0.23346,	-0.96019
	 0.2175,	-0.96373
	 0.2015,	-0.96699
	 0.1855,	-0.96998
	 0.16948,	-0.9727
	 0.15344,	-0.97515
	 0.13741,	-0.97732
	 0.12137,	-0.97923
	 0.10534,	-0.98086
	 0.089322,	-0.98223
	 0.07331,	-0.98332
	 0.057314,	-0.98416
	 0.041338,	-0.98473
	 0.025386,	-0.98503
	 0.0094615,	-0.98507
	-0.0064314,	-0.98486
	-0.022289,	-0.98438
	-0.038108,	-0.98364
	-0.053885,	-0.98265
	-0.069615,	-0.9814
	-0.085297,	-0.9799
	-0.10092,	-0.97815
	-0.11649,	-0.97614
	-0.13201,	-0.97389
	-0.14746,	-0.97139
	-0.16284,	-0.96864
	-0.17816,	-0.96565
	-0.1934,	-0.96242
	-0.20857,	-0.95894
	-0.22366,	-0.95523
	-0.23867,	-0.95127
	-0.2536,	-0.94708
	-0.26844,	-0.94265
	-0.28319,	-0.93799
	-0.29785,	-0.9331
	-0.31242,	-0.92798
	-0.32689,	-0.92262
	-0.34125,	-0.91704
	-0.35552,	-0.91123
	-0.36969,	-0.9052
	-0.38374,	-0.89894
	-0.39769,	-0.89246
	-0.41153,	-0.88576
	-0.42525,	-0.87883
	-0.43886,	-0.87169
	-0.45234,	-0.86433
	-0.47896,	-0.84896
	-0.50507,	-0.83272
	-0.53067,	-0.81563
	-0.55574,	-0.79768
	-0.58027,	-0.77889
	-0.60423,	-0.75923
	-0.62761,	-0.73873
	-0.6504,	-0.71736
	-0.66157,	-0.70635
	-0.67258,	-0.69512
	-0.68343,	-0.68366
	-0.69413,	-0.67198
	-0.70467,	-0.66007
	-0.71504,	-0.64793
	-0.72525,	-0.63555
	-0.73529,	-0.62294
	-0.74516,	-0.61007
	-0.75486,	-0.59695
	-0.76438,	-0.58357
	-0.77372,	-0.56992
	-0.78288,	-0.55599
	-0.79186,	-0.54177
	-0.80064,	-0.52725
	-0.80923,	-0.5124
	-0.81762,	-0.49722
	-0.82579,	-0.48168
	-0.83376,	-0.46575
	-0.8415,	-0.44941
	-0.849,	-0.43262
	-0.85625,	-0.41535
	-0.86324,	-0.39755
	-0.86994,	-0.37916
	-0.87353,	-0.36866
	-0.87701,	-0.35794
	-0.88039,	-0.347
	-0.88365,	-0.3358
	-0.88678,	-0.32434
	-0.88978,	-0.31259
	-0.89263,	-0.30053
	-0.89531,	-0.28813
	-0.89782,	-0.27536
	-0.90012,	-0.26219
	-0.90219,	-0.24857
	-0.90401,	-0.23447
	-0.90554,	-0.21983
	-0.90672,	-0.20459
	-0.90751,	-0.18868
	-0.90783,	-0.17204
	-0.90779,	-0.16341
	-0.90759,	-0.15457
	-0.90723,	-0.14549
	-0.90669,	-0.13616
	-0.90594,	-0.12657
	-0.90497,	-0.11671
	-0.90375,	-0.10654
	-0.90225,	-0.096073
	-0.90044,	-0.085265
	-0.89829,	-0.074103
	-0.89575,	-0.062567
	-0.89277,	-0.050635
	-0.8893,	-0.038285
	-0.88527,	-0.025494
	-0.88061,	-0.01224
	-0.87522,	 0.0014959
	-0.87223,	 0.0085503
	-0.86901,	 0.015731
	-0.86557,	 0.023041
	-0.86187,	 0.030479
	-0.8579,	 0.038047
	-0.85364,	 0.045744
	-0.84907,	 0.053569
	-0.84417,	 0.06152
	-0.83891,	 0.069594
	-0.83327,	 0.077786
	-0.82722,	 0.08609
	-0.82073,	 0.094498
	-0.81377,	 0.103
	-0.8063,	 0.11158
	-0.79829,	 0.12022
	-0.78969,	 0.12892
	-0.78047,	 0.13763
	-0.77058,	 0.14633
	-0.75997,	 0.15499
	-0.7486,	 0.16357
	-0.74261,	 0.16781
	-0.73642,	 0.17201
	-0.73,	 0.17616
	-0.72337,	 0.18026
	-0.71651,	 0.18429
	-0.70941,	 0.18825
	-0.70208,	 0.19213
	-0.69449,	 0.19591
	-0.68666,	 0.19959
	-0.67856,	 0.20315
	-0.67021,	 0.20657
	-0.66158,	 0.20985
	-0.65268,	 0.21297
	-0.64351,	 0.21591
	-0.63405,	 0.21865
	-0.62431,	 0.22118
	-0.61429,	 0.22348
	-0.60399,	 0.22553
	-0.5934,	 0.2273
	-0.58252,	 0.22878
	-0.57137,	 0.22994
	-0.55994,	 0.23076
	-0.54825,	 0.2312
	-0.53629,	 0.23126
	-0.52654,	 0.231
	-0.51664,	 0.23046
	-0.5066,	 0.22962
	-0.49642,	 0.22848
	-0.4861,	 0.227
	-0.47567,	 0.22519
	-0.46513,	 0.22303
	-0.4545,	 0.2205
	-0.44379,	 0.21759
	-0.43302,	 0.21429
	-0.42219,	 0.21059
	-0.41134,	 0.20646
	-0.40048,	 0.20191
	-0.38963,	 0.19693
	-0.37881,	 0.1915
	-0.36804,	 0.18561
	-0.35736,	 0.17926
	-0.34678,	 0.17245
	-0.33633,	 0.16517
	-0.32604,	 0.15742
	-0.31593,	 0.1492
	-0.30604,	 0.14051
	-0.29639,	 0.13136
	-0.28701,	 0.12175
	-0.27794,	 0.1117
	-0.26919,	 0.10121
	-0.26081,	 0.090306
	-0.2528,	 0.07899
	-0.24521,	 0.067286
	-0.23806,	 0.055216
	-0.23138,	 0.042801
	-0.22518,	 0.030067
	-0.21948,	 0.017041
	-0.21431,	 0.0037507
	-0.20969,	-0.009773
	-0.20562,	-0.023499
	-0.20213,	-0.037394
	-0.19921,	-0.051424
	-0.19688,	-0.065556
	-0.19514,	-0.079754
	-0.19399,	-0.093983
	-0.19343,	-0.1082
	-0.19346,	-0.12239
	-0.19407,	-0.13651
	-0.19525,	-0.15052
	-0.19699,	-0.1644
	-0.19928,	-0.17811
	-0.20209,	-0.19163
	-0.20542,	-0.20492
	-0.20924,	-0.21797
	-0.21354,	-0.23074
	-0.21828,	-0.24322
	-0.22345,	-0.25539
	-0.22903,	-0.26723
	-0.23498,	-0.27873
	-0.24129,	-0.28987
	-0.24792,	-0.30064
	-0.25486,	-0.31103
	-0.26207,	-0.32103
	-0.26954,	-0.33065
	-0.27723,	-0.33987
	-0.28513,	-0.34869
	-0.29321,	-0.35712
	-0.30144,	-0.36516
	-0.31404,	-0.37648
	-0.32688,	-0.38692
	-0.33989,	-0.39652
	-0.35301,	-0.40529
	-0.36618,	-0.41326
	-0.37936,	-0.42046
	-0.3925,	-0.42693
	-0.40556,	-0.43268
	-0.41851,	-0.43777
	-0.43132,	-0.44222
	-0.44395,	-0.44607
	-0.45639,	-0.44936
	-0.46862,	-0.45211
	-0.48061,	-0.45436
	-0.49237,	-0.45615
	-0.50388,	-0.4575
	-0.51513,	-0.45845
	-0.52611,	-0.45902
	-0.53682,	-0.45924
	-0.54727,	-0.45914
	-0.55744,	-0.45874
	-0.56734,	-0.45806
	-0.57698,	-0.45713
	-0.58634,	-0.45597
	-0.59545,	-0.45459
	-0.60429,	-0.45301
	-0.61289,	-0.45126
	-0.62123,	-0.44933
	-0.62933,	-0.44726
	-0.63719,	-0.44505
	-0.64482,	-0.44272
	-0.65222,	-0.44028
	-0.66637,	-0.43509
	-0.67969,	-0.42956
	-0.69223,	-0.42378
	-0.70403,	-0.41777
	-0.71514,	-0.41161
	-0.72561,	-0.40532
	-0.73548,	-0.39894
	-0.74478,	-0.3925
	-0.75356,	-0.38602
	-0.76184,	-0.37952
	-0.76967,	-0.37302
	-0.77707,	-0.36653
	-0.78407,	-0.36007
	-0.79069,	-0.35364
	-0.79697,	-0.34725
	-0.80292,	-0.34091
	-0.80856,	-0.33463
	-0.81391,	-0.3284
	-0.819,	-0.32222
	-0.82384,	-0.31611
	-0.82843,	-0.31007
	-0.83281,	-0.30409
	-0.83697,	-0.29817
	-0.84094,	-0.29231
	-0.84834,	-0.2808
	-0.85507,	-0.26955
	-0.86121,	-0.25854
	-0.86682,	-0.24777
	-0.87196,	-0.23724
	-0.87667,	-0.22692
	-0.881,	-0.21682
	-0.88497,	-0.20691
	-0.88862,	-0.19719
	-0.89198,	-0.18765
	-0.89507,	-0.17828
	-0.89792,	-0.16907
END
BEGIN
	 7.55898898000000057965453953316e-18 ,	 0 
	 4.40728183000000018692990411978e-17 ,	 6.06936376000000033257541133962e-13 
	 5.65411432999999974990755892499e-17 ,	 6.06937243999999972907220244779e-12 
	 8.87419478000000011761555763142e-17 ,	 6.06938040999999948311457826287e-11 
	 3.06368429000000013262207099703e-15 ,	 6.06937950000000044414339420211e-10 
	 4.81841128999999990148574252236e-15 ,	 7.64089608999999969575275742353e-10 
	 7.61256291999999946429434482875e-15 ,	 9.61931832999999920888124346134e-10 
	 1.20200074000000007140075161348e-14 ,	 1.21100046000000003863049307198e-09 
	 1.90512752999999990853410832612e-14 ,	 1.52455924999999992256086756194e-09 
	 3.0128135200000001368746437829e-14 ,	 1.91930635000000014235048522153e-09 
	 4.77335185000000028725685052345e-14 ,	 2.4162635599999998198769492365e-09 
	 7.56338350999999961205608686308e-14 ,	 3.04189559000000001156062965409e-09 
	 1.19862562000000012000845119713e-13 ,	 3.8295196599999999601738378532e-09 
	 1.89946311999999995973444060137e-13 ,	 4.82107960000000035093900056468e-09 
	 3.00974305999999998639794271217e-13 ,	 6.06937962000000035831885535835e-09 
	 4.77002877e-13 ,	 7.64089626e-09 
	 7.55959043e-13 ,	 9.61931849e-09 
	 1.19807576e-12 ,	 1.21100045e-08 
	 1.89882051e-12 ,	 1.52455924e-08 
	 3.00939265e-12 ,	 1.91930638e-08 
	 4.76954121e-12 ,	 2.41626359e-08 
	 7.55918353e-12 ,	 3.04189568e-08 
	 1.1980427e-11 ,	 3.82951983e-08 
	 1.89876589e-11 ,	 4.82107997e-08 
	 3.00933505e-11 ,	 6.06938036e-08 
	 4.76945857e-11 ,	 7.64089771e-08 
	 7.55905567e-11 ,	 9.61932138e-08 
	 1.19802253e-10 ,	 1.21100103e-07 
	 1.89872065e-10 ,	 1.5245604e-07 
	 3.009227e-10 ,	 1.91930869e-07 
	 4.7691967e-10 ,	 2.4162682e-07 
	 7.55840105e-10 ,	 3.04190486e-07 
	 1.19785895e-09 ,	 3.82953815e-07 
	 1.89831057e-09 ,	 4.82111649e-07 
	 2.42658005e-09 ,	 5.45100664e-07 
	 3.02249514e-09 ,	 6.08386519e-07 
	 4.78926355e-09 ,	 7.65918667e-07 
	 7.58779016e-09 ,	 9.64245224e-07 
	 1.13848538e-08 ,	 1.18141955e-06 
	 1.70521502e-08 ,	 1.44642162e-06 
	 2.28895571e-08 ,	 1.67646195e-06 
	 3.02644657e-08 ,	 1.92865972e-06 
	 4.71875034e-08 ,	 2.41097538e-06 
	 6.77741695e-08 ,	 2.89338056e-06 
	 9.19680663e-08 ,	 3.37588248e-06 
	 1.19704144e-07 ,	 3.85848288e-06 
	 1.85503835e-07 ,	 4.82395473e-06 
	 2.64509053e-07 ,	 5.7896782e-06 
	 3.55969069e-07 ,	 6.75541749e-06 
	 4.59074486e-07 ,	 7.72081438e-06 
	 6.9684781e-07 ,	 9.64855399e-06 
	 9.71116313e-07 ,	 1.15677933e-05 
	 1.27557172e-06 ,	 1.34720752e-05 
	 1.60460097e-06 ,	 1.53541078e-05 
	 2.3175802e-06 ,	 1.90209215e-05 
	 3.0778571e-06 ,	 2.25091205e-05 
	 3.8577486e-06 ,	 2.576628e-05 
	 4.62906705e-06 ,	 2.87484425e-05 
	 5.36011811e-06 ,	 3.1419572e-05 
	 6.01443085e-06 ,	 3.37504972e-05 
	 6.55052932e-06 ,	 3.57180556e-05 
	 6.92222429e-06 ,	 3.7304584e-05 
	 7.07912685e-06 ,	 3.84977017e-05 
	 6.96723722e-06 ,	 3.92902911e-05 
	 6.52954548e-06 ,	 3.96805948e-05 
