CITIFILE A.01.01
#Momentum: B.12.070 (*) built: Feb 13 2020 
#Momentum Date and Time: Mon Aug 15 23:45:48 2022

NAME Momentum.SP

#  mode: MW    reference: S_50

#eesof Port[1] P1
#eesof Port[2] P2

CONSTANT NBR_OF_PORTS 2

CONSTANT NORMALIZATION 1

VAR freq MAG 562

DATA S[1,1] RI
DATA S[1,2] RI
DATA S[2,1] RI
DATA S[2,2] RI
DATA PORTZ[1] RI
DATA PORTZ[2] RI

VAR_LIST_BEGIN
	 0
	 8.701167245
	 87.01167245
	 870.1167245
	 8701.167245
	 10954.12056
	 13790.42073
	 17361.1111
	 21856.34394
	 27515.5068
	 34639.97072
	 43609.13941
	 54900.65379
	 69115.82818
	 87011.67245
	 109541.2056
	 137904.2073
	 173611.111
	 218563.4394
	 275155.068
	 346399.7072
	 436091.3941
	 549006.5379
	 691158.2818
	 870116.7245
	 1095412.056
	 1379042.073
	 1736111.11
	 2185634.394
	 2751550.68
	 3463997.072
	 4360913.941
	 5490065.379
	 6911582.818
	 8701167.245
	 10954120.56
	 13790420.73
	 17361111.1
	 19629339.22
	 21908241.11
	 27580841.47
	 34722222.2
	 42541975.04
	 52083333.3
	 60365357.38
	 69444444.4
	 86805555.5
	 104166666.6
	 121527777.7
	 138888888.8
	 167824074
	 196759259.2
	 225694444.3
	 254629629.5
	 272714120.2
	 290798611
	 308883101.7
	 326967592.4
	 345052083.2
	 363136573.9
	 381221064.6
	 399305555.4
	 417390046.1
	 435474536.8
	 453559027.6
	 471643518.3
	 489728009
	 507812499.8
	 525896990.5
	 543981481.2
	 562065972
	 580150462.7
	 598234953.5
	 616319444.2
	 634403934.9
	 652488425.7
	 670572916.4
	 688657407.1
	 706741897.9
	 724826388.6
	 742910879.3
	 760995370.1
	 779079860.8
	 797164351.5
	 815248842.3
	 833333333
	 859374999.7
	 885416666.3
	 911458333
	 937499999.6
	 963541666.3
	 989583332.9
	 1015625000
	 1041666666
	 1067708333
	 1093750000
	 1119791666
	 1145833333
	 1171875000
	 1197916666
	 1223958333
	 1250000000
	 1276041666
	 1302083333
	 1328124999
	 1354166666
	 1380208333
	 1406249999
	 1432291666
	 1458333333
	 1484374999
	 1510416666
	 1536458333
	 1562499999
	 1588541666
	 1614583333
	 1640624999
	 1666666666
	 1684027777
	 1701388888
	 1718749999
	 1736111110
	 1753472222
	 1770833333
	 1788194444
	 1805555555
	 1822916666
	 1840277777
	 1857638888
	 1875000000
	 1892361111
	 1909722222
	 1927083333
	 1944444444
	 1961805555
	 1979166666
	 1996527777
	 2013888888
	 2031250000
	 2048611111
	 2065972222
	 2083333333
	 2100694444
	 2118055555
	 2135416666
	 2152777778
	 2170138889
	 2187500000
	 2204861111
	 2222222222
	 2239583333
	 2256944444
	 2274305555
	 2291666666
	 2309027778
	 2326388889
	 2343750000
	 2361111111
	 2378472222
	 2395833333
	 2413194444
	 2430555555
	 2447916666
	 2465277778
	 2482638889
	 2500000000
	 2517361111
	 2534722222
	 2552083333
	 2569444444
	 2586805555
	 2604166666
	 2621527778
	 2638888889
	 2673611111
	 2708333333
	 2743055555
	 2777777778
	 2812500000
	 2847222222
	 2881944444
	 2916666666
	 2934027777
	 2951388889
	 2968750000
	 2986111111
	 3003472222
	 3020833333
	 3038194444
	 3055555555
	 3090277777
	 3125000000
	 3159722222
	 3194444444
	 3229166666
	 3263888889
	 3298611111
	 3333333333
	 3359375000
	 3385416666
	 3411458333
	 3437500000
	 3463541666
	 3489583333
	 3515625000
	 3541666666
	 3567708333
	 3593750000
	 3619791666
	 3645833333
	 3671875000
	 3697916666
	 3723958333
	 3750000000
	 3776041666
	 3802083333
	 3828124999
	 3854166666
	 3880208333
	 3906249999
	 3932291666
	 3958333333
	 3984374999
	 4010416666
	 4036458333
	 4062499999
	 4088541666
	 4114583333
	 4140624999
	 4166666666
	 4192708333
	 4218749999
	 4244791666
	 4270833333
	 4296874999
	 4322916666
	 4348958333
	 4375000000
	 4401041666
	 4427083333
	 4453125000
	 4479166666
	 4505208333
	 4531250000
	 4557291666
	 4583333333
	 4609375000
	 4635416666
	 4661458333
	 4687500000
	 4700520833
	 4713541666
	 4726562500
	 4739583333
	 4752604166
	 4765625000
	 4778645833
	 4791666666
	 4804687500
	 4817708333
	 4830729167
	 4843750000
	 4856770833
	 4869791667
	 4882812500
	 4895833333
	 4908854167
	 4921875000
	 4934895833
	 4947916667
	 4960937500
	 4973958333
	 4986979167
	 5000000000
	 5013020833
	 5026041667
	 5039062500
	 5052083333
	 5065104167
	 5078125000
	 5091145833
	 5104166667
	 5117187500
	 5130208333
	 5143229167
	 5156250000
	 5169270833
	 5182291667
	 5195312500
	 5208333333
	 5221354167
	 5234375000
	 5247395833
	 5260416667
	 5273437500
	 5286458333
	 5299479167
	 5312500000
	 5325520833
	 5338541667
	 5351562500
	 5364583333
	 5377604167
	 5390625000
	 5403645833
	 5416666666
	 5429687500
	 5442708333
	 5455729166
	 5468750000
	 5481770833
	 5494791666
	 5507812500
	 5520833333
	 5533854166
	 5546875000
	 5559895833
	 5572916666
	 5585937500
	 5598958333
	 5611979166
	 5625000000
	 5638020833
	 5651041666
	 5664062500
	 5677083333
	 5690104166
	 5703125000
	 5716145833
	 5729166666
	 5742187500
	 5755208333
	 5768229166
	 5781250000
	 5794270833
	 5807291666
	 5820312500
	 5833333333
	 5859375000
	 5885416666
	 5911458333
	 5937500000
	 5963541666
	 5989583333
	 6015625000
	 6041666666
	 6067708333
	 6093750000
	 6119791667
	 6145833333
	 6171875000
	 6197916667
	 6223958333
	 6250000000
	 6276041667
	 6302083333
	 6328125000
	 6354166667
	 6380208333
	 6406250000
	 6432291667
	 6458333334
	 6484375000
	 6510416667
	 6536458334
	 6562500000
	 6588541667
	 6614583334
	 6640625000
	 6666666667
	 6684027778
	 6701388889
	 6718750000
	 6736111111
	 6753472223
	 6770833334
	 6788194445
	 6805555556
	 6822916667
	 6840277778
	 6857638889
	 6875000000
	 6892361111
	 6909722223
	 6927083334
	 6944444445
	 6961805556
	 6979166667
	 6996527778
	 7013888889
	 7031250000
	 7048611111
	 7065972223
	 7083333334
	 7100694445
	 7118055556
	 7135416667
	 7152777778
	 7170138889
	 7187500000
	 7204861111
	 7222222222
	 7239583334
	 7256944445
	 7274305556
	 7291666667
	 7309027778
	 7326388889
	 7343750000
	 7361111111
	 7378472222
	 7395833334
	 7413194445
	 7430555556
	 7447916667
	 7465277778
	 7482638889
	 7500000000
	 7517361111
	 7534722222
	 7552083334
	 7569444445
	 7586805556
	 7604166667
	 7621527778
	 7638888889
	 7656250000
	 7673611111
	 7690972222
	 7708333334
	 7725694445
	 7743055556
	 7760416667
	 7777777778
	 7795138889
	 7812500000
	 7829861111
	 7847222222
	 7864583334
	 7881944445
	 7899305556
	 7916666667
	 7934027778
	 7951388889
	 7968750000
	 7986111112
	 8003472223
	 8020833334
	 8038194445
	 8055555556
	 8072916667
	 8090277778
	 8107638889
	 8125000000
	 8142361112
	 8159722223
	 8177083334
	 8194444445
	 8211805556
	 8229166667
	 8246527778
	 8263888890
	 8281250001
	 8298611112
	 8315972223
	 8333333334
	 8350694445
	 8368055556
	 8385416667
	 8402777778
	 8420138889
	 8437500001
	 8454861112
	 8472222223
	 8489583334
	 8506944445
	 8524305556
	 8541666667
	 8559027778
	 8576388889
	 8593750000
	 8611111112
	 8628472223
	 8645833334
	 8663194445
	 8680555556
	 8697916667
	 8715277778
	 8732638889
	 8750000000
	 8767361111
	 8784722222
	 8802083334
	 8819444445
	 8836805556
	 8854166667
	 8871527778
	 8888888889
	 8912037037
	 8935185185
	 8958333333
	 8981481482
	 9004629630
	 9027777778
	 9050925926
	 9074074074
	 9097222222
	 9120370371
	 9143518519
	 9166666667
	 9189814815
	 9212962963
	 9236111111
	 9259259260
	 9282407408
	 9305555556
	 9328703704
	 9351851852
	 9375000000
	 9398148148
	 9421296297
	 9444444445
	 9456018519
	 9467592593
	 9479166667
	 9490740741
	 9502314815
	 9513888889
	 9525462963
	 9537037037
	 9548611111
	 9560185186
	 9571759260
	 9583333334
	 9594907408
	 9606481482
	 9618055556
	 9629629630
	 9645061729
	 9660493828
	 9675925926
	 9691358025
	 9706790124
	 9722222222
	 9737654321
	 9753086420
	 9768518519
	 9783950618
	 9799382716
	 9814814815
	 9830246914
	 9845679012
	 9861111111
	 9876543210
	 9891975309
	 9907407408
	 9922839506
	 9938271605
	 9953703704
	 9969135802
	 9984567901
	 1e+10
VAR_LIST_END

BEGIN
	 7.85361460999999992042136520709e-05 ,	 -0 
	 7.85361460999999992042136520709e-05 ,	 -9.02295097000000034071123563819e-10 
	 7.85361460999999992042136520709e-05 ,	 -9.02294756999999946368405266597e-09 
	 7.85361465000000057374088258122e-05 ,	 -9.02294728999999937442809557452e-08 
	 7.8536185199999997467133761031e-05 ,	 -9.02294713000000011751807957316e-07 
	 7.85362080000000039410254504268e-05 ,	 -1.13592173000000005174783043044e-06 
	 7.85362442999999971291608114043e-05 ,	 -1.4300407099999999409529246458e-06 
	 7.85363017000000062945580525664e-05 ,	 -1.80031453999999995704308069361e-06 
	 7.85363926999999950422093331071e-05 ,	 -2.2664616199999999280321246603e-06 
	 7.85365368999999988956078889046e-05 ,	 -2.85330592999999997771564015647e-06 
	 7.85367653999999938739876026439e-05 ,	 -3.5920989599999999179042158709e-06 
	 7.85371276999999990255443838016e-05 ,	 -4.52218386999999980984136713213e-06 
	 7.85377018000000008332572853931e-05 ,	 -5.69309062000000003201348464099e-06 
	 7.85386117000000052610839129663e-05 ,	 -7.16717333000000020282963669738e-06 
	 7.85400537999999946063914291194e-05 ,	 -9.02293038999999995612884273744e-06 
	 7.85423393e-05 ,	 -1.13591839e-05 
	 7.85459615e-05 ,	 -1.43003404e-05 
	 7.8551702e-05 ,	 -1.80030124e-05 
	 7.85607997e-05 ,	 -2.26643509e-05 
	 7.85752171e-05 ,	 -2.85325299e-05 
	 7.85980639e-05 ,	 -3.59199333e-05 
	 7.8634265e-05 ,	 -4.52197314e-05 
	 7.86916185e-05 ,	 -5.69267024e-05 
	 7.8782464e-05 ,	 -7.1663348e-05 
	 7.89263095e-05 ,	 -9.02125812e-05 
	 7.91539512e-05 ,	 -0.000113558498 
	 7.95138917e-05 ,	 -0.000142936961 
	 8.0082239e-05 ,	 -0.000179897807 
	 8.0977716e-05 ,	 -0.000226380301 
	 8.23837846e-05 ,	 -0.00028480264 
	 8.45796805e-05 ,	 -0.000358164328 
	 8.79800625e-05 ,	 -0.00045015652 
	 9.31760635e-05 ,	 -0.000565269704 
	 0.000100953364 ,	 -0.0007088829 
	 0.000112228805 ,	 -0.000887323903 
	 0.000127797901 ,	 -0.00110793066 
	 0.000147759548 ,	 -0.00137925339 
	 0.000170583338 ,	 -0.0017116993 
	 0.000182611262 ,	 -0.00191850999 
	 0.000192287664 ,	 -0.0021235978 
	 0.000205017661 ,	 -0.00262584055 
	 0.000198735447 ,	 -0.0032488588 
	 0.000167163065 ,	 -0.00392659631 
	 9.98651277e-05 ,	 -0.00475216473 
	 1.98060468e-05 ,	 -0.00546878397 
	 -8.83038617e-05 ,	 -0.00625433479 
	 -0.000348585092 ,	 -0.00775437916 
	 -0.000674189191 ,	 -0.0092480529 
	-0.001062,	-0.010732
	-0.0015101,	-0.012202
	-0.0023877,	-0.014614
	-0.0034244,	-0.01697
	-0.0046154,	-0.019259
	-0.0059556,	-0.02147
	-0.0068666,	-0.022809
	-0.0078324,	-0.024112
	-0.0088514,	-0.025378
	-0.0099221,	-0.026603
	-0.011043,	-0.027786
	-0.012212,	-0.028926
	-0.013428,	-0.030021
	-0.014689,	-0.031068
	-0.015993,	-0.032066
	-0.017337,	-0.033014
	-0.018722,	-0.03391
	-0.020143,	-0.034753
	-0.021599,	-0.035541
	-0.023089,	-0.036273
	-0.024609,	-0.036949
	-0.026158,	-0.037566
	-0.027734,	-0.038123
	-0.029334,	-0.038621
	-0.030956,	-0.039058
	-0.032598,	-0.039433
	-0.034258,	-0.039745
	-0.035933,	-0.039994
	-0.037621,	-0.04018
	-0.039319,	-0.040301
	-0.041026,	-0.040358
	-0.042738,	-0.040349
	-0.044454,	-0.040276
	-0.046171,	-0.040138
	-0.047887,	-0.039934
	-0.049599,	-0.039665
	-0.051305,	-0.039331
	-0.053003,	-0.038933
	-0.055427,	-0.038245
	-0.057823,	-0.037425
	-0.060183,	-0.036473
	-0.062499,	-0.035392
	-0.064766,	-0.034184
	-0.066976,	-0.032852
	-0.069124,	-0.031398
	-0.071202,	-0.029826
	-0.073206,	-0.028139
	-0.075128,	-0.02634
	-0.076964,	-0.024436
	-0.078708,	-0.022429
	-0.080355,	-0.020324
	-0.0819,	-0.018127
	-0.083337,	-0.015842
	-0.084664,	-0.013476
	-0.085875,	-0.011033
	-0.086968,	-0.0085203
	-0.087937,	-0.0059434
	-0.088782,	-0.0033085
	-0.089498,	-0.00062213
	-0.090083,	 0.0021092
	-0.090535,	 0.0048788
	-0.090852,	 0.0076801
	-0.091034,	 0.010506
	-0.091079,	 0.01335
	-0.090986,	 0.016205
	-0.090755,	 0.019063
	-0.090386,	 0.021919
	-0.08988,	 0.024765
	-0.089237,	 0.027595
	-0.088459,	 0.0304
	-0.087866,	 0.032255
	-0.087214,	 0.034093
	-0.086504,	 0.035915
	-0.085736,	 0.037717
	-0.084911,	 0.039498
	-0.08403,	 0.041256
	-0.083095,	 0.042989
	-0.082104,	 0.044696
	-0.081061,	 0.046374
	-0.079965,	 0.048022
	-0.078819,	 0.049638
	-0.077622,	 0.051221
	-0.076377,	 0.052769
	-0.075085,	 0.05428
	-0.073746,	 0.055752
	-0.072363,	 0.057186
	-0.070937,	 0.058578
	-0.06947,	 0.059929
	-0.067962,	 0.061235
	-0.066416,	 0.062497
	-0.064833,	 0.063713
	-0.063215,	 0.064882
	-0.061563,	 0.066002
	-0.05988,	 0.067074
	-0.058166,	 0.068095
	-0.056425,	 0.069066
	-0.054657,	 0.069985
	-0.052865,	 0.070852
	-0.05105,	 0.071665
	-0.049214,	 0.072425
	-0.04736,	 0.073131
	-0.045488,	 0.073783
	-0.043602,	 0.074379
	-0.041703,	 0.07492
	-0.039793,	 0.075406
	-0.037874,	 0.075836
	-0.035948,	 0.076211
	-0.034017,	 0.07653
	-0.032082,	 0.076793
	-0.030147,	 0.077001
	-0.028212,	 0.077153
	-0.02628,	 0.077251
	-0.024353,	 0.077294
	-0.022432,	 0.077283
	-0.02052,	 0.077218
	-0.018618,	 0.0771
	-0.016728,	 0.076929
	-0.014852,	 0.076707
	-0.012992,	 0.076433
	-0.01115,	 0.07611
	-0.0093264,	 0.075737
	-0.0075242,	 0.075316
	-0.0057447,	 0.074847
	-0.0039894,	 0.074333
	-0.0022598,	 0.073773
	-0.00055762,	 0.07317
	 0.002759,	 0.071836
	 0.0059493,	 0.070344
	 0.0090031,	 0.068703
	 0.011911,	 0.066927
	 0.014664,	 0.065029
	 0.017256,	 0.063022
	 0.01968,	 0.06092
	 0.02193,	 0.058739
	 0.022989,	 0.057623
	 0.024004,	 0.056493
	 0.024973,	 0.05535
	 0.025897,	 0.054197
	 0.026776,	 0.053035
	 0.027609,	 0.051867
	 0.028397,	 0.050695
	 0.02914,	 0.049519
	 0.030489,	 0.047169
	 0.03166,	 0.044831
	 0.032655,	 0.042522
	 0.03348,	 0.040256
	 0.034141,	 0.038049
	 0.034644,	 0.035914
	 0.034997,	 0.033865
	 0.035211,	 0.031916
	 0.035286,	 0.030528
	 0.035293,	 0.029206
	 0.035237,	 0.027958
	 0.035124,	 0.026786
	 0.03496,	 0.025696
	 0.03475,	 0.02469
	 0.034501,	 0.023772
	 0.034219,	 0.022944
	 0.033911,	 0.022211
	 0.033584,	 0.021573
	 0.033245,	 0.021032
	 0.032902,	 0.020591
	 0.032561,	 0.020249
	 0.03223,	 0.020007
	 0.031916,	 0.019866
	 0.031628,	 0.019824
	 0.031373,	 0.019881
	 0.031159,	 0.020036
	 0.030992,	 0.020286
	 0.030882,	 0.02063
	 0.030834,	 0.021064
	 0.030857,	 0.021585
	 0.030958,	 0.02219
	 0.031144,	 0.022873
	 0.031422,	 0.023631
	 0.031798,	 0.024459
	 0.032279,	 0.02535
	 0.032871,	 0.026298
	 0.033579,	 0.027298
	 0.03441,	 0.028341
	 0.035369,	 0.029422
	 0.03646,	 0.030532
	 0.037687,	 0.031663
	 0.039055,	 0.032807
	 0.040568,	 0.033954
	 0.042227,	 0.035097
	 0.044036,	 0.036226
	 0.045997,	 0.037331
	 0.04811,	 0.038402
	 0.050378,	 0.03943
	 0.052801,	 0.040404
	 0.055377,	 0.041314
	 0.058107,	 0.042151
	 0.060989,	 0.042902
	 0.064021,	 0.043558
	 0.0672,	 0.044109
	 0.070523,	 0.044544
	 0.073986,	 0.044852
	 0.077585,	 0.045024
	 0.081314,	 0.045049
	 0.085167,	 0.044917
	 0.089138,	 0.044619
	 0.091166,	 0.044404
	 0.093221,	 0.044145
	 0.095301,	 0.043839
	 0.097406,	 0.043486
	 0.099535,	 0.043084
	 0.10168,	 0.042632
	 0.10385,	 0.04213
	 0.10605,	 0.041577
	 0.10826,	 0.040971
	 0.11049,	 0.040311
	 0.11274,	 0.039597
	 0.115,	 0.038827
	 0.11728,	 0.038001
	 0.11957,	 0.037118
	 0.12187,	 0.036177
	 0.12418,	 0.035177
	 0.1265,	 0.034117
	 0.12882,	 0.032998
	 0.13115,	 0.031817
	 0.13349,	 0.030575
	 0.13582,	 0.029271
	 0.13816,	 0.027905
	 0.1405,	 0.026475
	 0.14283,	 0.024981
	 0.14516,	 0.023424
	 0.14749,	 0.021802
	 0.1498,	 0.020115
	 0.15211,	 0.018363
	 0.15441,	 0.016546
	 0.15669,	 0.014663
	 0.15896,	 0.012715
	 0.16121,	 0.010701
	 0.16344,	 0.0086205
	 0.16566,	 0.0064745
	 0.16785,	 0.0042626
	 0.17002,	 0.0019849
	 0.17217,	-0.00035843
	 0.17428,	-0.0027672
	 0.17637,	-0.0052413
	 0.17843,	-0.0077803
	 0.18045,	-0.010384
	 0.18244,	-0.013052
	 0.18439,	-0.015784
	 0.18631,	-0.018579
	 0.18818,	-0.021436
	 0.19002,	-0.024357
	 0.19181,	-0.027338
	 0.19355,	-0.030381
	 0.19525,	-0.033483
	 0.1969,	-0.036646
	 0.1985,	-0.039866
	 0.20004,	-0.043144
	 0.20153,	-0.046479
	 0.20297,	-0.04987
	 0.20435,	-0.053315
	 0.20567,	-0.056814
	 0.20693,	-0.060366
	 0.20812,	-0.063969
	 0.20925,	-0.067621
	 0.21032,	-0.071323
	 0.21132,	-0.075072
	 0.21225,	-0.078868
	 0.21311,	-0.082708
	 0.2139,	-0.086591
	 0.21461,	-0.090516
	 0.21525,	-0.094481
	 0.21582,	-0.098485
	 0.21631,	-0.10252
	 0.21672,	-0.1066
	 0.21705,	-0.11071
	 0.2173,	-0.11485
	 0.21747,	-0.11902
	 0.21756,	-0.12322
	 0.21756,	-0.12745
	 0.21747,	-0.13171
	 0.2173,	-0.13598
	 0.21705,	-0.14028
	 0.2167,	-0.14459
	 0.21627,	-0.14893
	 0.21575,	-0.15327
	 0.21514,	-0.15764
	 0.21443,	-0.16201
	 0.21364,	-0.16639
	 0.21275,	-0.17078
	 0.21177,	-0.17517
	 0.2107,	-0.17957
	 0.20953,	-0.18396
	 0.20827,	-0.18836
	 0.20547,	-0.19713
	 0.20229,	-0.20588
	 0.19873,	-0.21457
	 0.19478,	-0.22319
	 0.19046,	-0.23174
	 0.18576,	-0.24017
	 0.18068,	-0.24849
	 0.17523,	-0.25667
	 0.16941,	-0.26469
	 0.16322,	-0.27254
	 0.15668,	-0.2802
	 0.14978,	-0.28765
	 0.14254,	-0.29488
	 0.13496,	-0.30187
	 0.12705,	-0.3086
	 0.11882,	-0.31506
	 0.11029,	-0.32123
	 0.10145,	-0.32711
	 0.092335,	-0.33266
	 0.082937,	-0.33789
	 0.073278,	-0.34277
	 0.063369,	-0.3473
	 0.053226,	-0.35146
	 0.042862,	-0.35524
	 0.032292,	-0.35863
	 0.021532,	-0.36163
	 0.010598,	-0.36421
	-0.00049475,	-0.36637
	-0.011729,	-0.3681
	-0.023088,	-0.3694
	-0.034555,	-0.37026
	-0.046111,	-0.37067
	-0.053856,	-0.37069
	-0.061628,	-0.37051
	-0.069421,	-0.37012
	-0.077229,	-0.36953
	-0.085048,	-0.36873
	-0.092872,	-0.36773
	-0.10069,	-0.36651
	-0.10851,	-0.36509
	-0.11631,	-0.36346
	-0.1241,	-0.36161
	-0.13186,	-0.35956
	-0.13959,	-0.3573
	-0.14729,	-0.35483
	-0.15495,	-0.35215
	-0.16256,	-0.34926
	-0.17013,	-0.34616
	-0.17763,	-0.34285
	-0.18507,	-0.33934
	-0.19244,	-0.33562
	-0.19974,	-0.3317
	-0.20696,	-0.32757
	-0.21409,	-0.32324
	-0.22113,	-0.31871
	-0.22807,	-0.31399
	-0.23491,	-0.30907
	-0.24165,	-0.30395
	-0.24827,	-0.29864
	-0.25477,	-0.29314
	-0.26114,	-0.28746
	-0.26739,	-0.28159
	-0.2735,	-0.27554
	-0.27947,	-0.26931
	-0.2853,	-0.26291
	-0.29098,	-0.25633
	-0.2965,	-0.24958
	-0.30186,	-0.24268
	-0.30706,	-0.2356
	-0.31209,	-0.22838
	-0.31694,	-0.221
	-0.32161,	-0.21347
	-0.3261,	-0.20579
	-0.3304,	-0.19798
	-0.33451,	-0.19003
	-0.33842,	-0.18194
	-0.34213,	-0.17374
	-0.34564,	-0.16541
	-0.34894,	-0.15696
	-0.35202,	-0.14841
	-0.35489,	-0.13975
	-0.35754,	-0.13099
	-0.35997,	-0.12213
	-0.36218,	-0.11319
	-0.36415,	-0.10416
	-0.36589,	-0.095068
	-0.3674,	-0.085895
	-0.36867,	-0.076658
	-0.36971,	-0.067364
	-0.3705,	-0.058017
	-0.37104,	-0.048626
	-0.37135,	-0.039195
	-0.3714,	-0.029733
	-0.37121,	-0.020245
	-0.37077,	-0.010739
	-0.37008,	-0.0012209
	-0.36914,	 0.0083021
	-0.36794,	 0.017823
	-0.36649,	 0.027335
	-0.36479,	 0.036831
	-0.36284,	 0.046304
	-0.36064,	 0.055747
	-0.35818,	 0.065153
	-0.35548,	 0.074515
	-0.35252,	 0.083825
	-0.34931,	 0.093078
	-0.34586,	 0.10226
	-0.34216,	 0.11137
	-0.33822,	 0.12041
	-0.33403,	 0.12936
	-0.32961,	 0.13822
	-0.32494,	 0.14698
	-0.32005,	 0.15563
	-0.31492,	 0.16417
	-0.30956,	 0.17258
	-0.30398,	 0.18088
	-0.29817,	 0.18904
	-0.29215,	 0.19706
	-0.28591,	 0.20494
	-0.27947,	 0.21267
	-0.27282,	 0.22024
	-0.26596,	 0.22765
	-0.25892,	 0.2349
	-0.25168,	 0.24197
	-0.24425,	 0.24886
	-0.23665,	 0.25558
	-0.22887,	 0.2621
	-0.22092,	 0.26844
	-0.2128,	 0.27458
	-0.20453,	 0.28051
	-0.19611,	 0.28625
	-0.18754,	 0.29178
	-0.17883,	 0.2971
	-0.16999,	 0.3022
	-0.16102,	 0.30709
	-0.15193,	 0.31176
	-0.14272,	 0.31621
	-0.13341,	 0.32043
	-0.12399,	 0.32443
	-0.11448,	 0.3282
	-0.10488,	 0.33174
	-0.095208,	 0.33505
	-0.085452,	 0.33813
	-0.075627,	 0.34098
	-0.06574,	 0.34359
	-0.055796,	 0.34597
	-0.045803,	 0.34812
	-0.035766,	 0.35004
	-0.025692,	 0.35173
	-0.015586,	 0.35318
	-0.0054553,	 0.35441
	 0.0046952,	 0.3554
	 0.01486,	 0.35617
	 0.025032,	 0.35671
	 0.035208,	 0.35703
	 0.045381,	 0.35712
	 0.055546,	 0.35699
	 0.065699,	 0.35664
	 0.075835,	 0.35608
	 0.08595,	 0.3553
	 0.099395,	 0.35394
	 0.11278,	 0.3522
	 0.1261,	 0.3501
	 0.13935,	 0.34764
	 0.15252,	 0.34484
	 0.1656,	 0.34169
	 0.17859,	 0.3382
	 0.19148,	 0.33439
	 0.20426,	 0.33025
	 0.21693,	 0.3258
	 0.22949,	 0.32103
	 0.24194,	 0.31597
	 0.25426,	 0.3106
	 0.26647,	 0.30495
	 0.27855,	 0.299
	 0.29052,	 0.29278
	 0.30236,	 0.28627
	 0.31408,	 0.27948
	 0.32568,	 0.27242
	 0.33715,	 0.26508
	 0.34851,	 0.25746
