CITIFILE A.01.01
#Momentum: B.12.070 (*) built: Feb 13 2020 
#Momentum Date and Time: Mon Aug 15 21:25:24 2022

NAME Momentum.SP

#  mode: MW    reference: S_50

#eesof Port[1] P1
#eesof Port[2] P2

CONSTANT NBR_OF_PORTS 2

CONSTANT NORMALIZATION 1

VAR freq MAG 450

DATA S[1,1] RI
DATA S[1,2] RI
DATA S[2,1] RI
DATA S[2,2] RI
DATA PORTZ[1] RI
DATA PORTZ[2] RI

VAR_LIST_BEGIN
	 0
	 8.701167245
	 87.01167245
	 870.1167245
	 8701.167245
	 10954.12056
	 13790.42073
	 17361.1111
	 21856.34394
	 27515.5068
	 34639.97072
	 43609.13941
	 54900.65379
	 69115.82818
	 87011.67245
	 109541.2056
	 137904.2073
	 173611.111
	 218563.4394
	 275155.068
	 346399.7072
	 436091.3941
	 549006.5379
	 691158.2818
	 870116.7245
	 1095412.056
	 1379042.073
	 1736111.11
	 2185634.394
	 2751550.68
	 3463997.072
	 4360913.941
	 5490065.379
	 6911582.818
	 8701167.245
	 10954120.56
	 13790420.73
	 17361111.1
	 19629339.22
	 21908241.11
	 27580841.47
	 34722222.2
	 42541975.04
	 52083333.3
	 60365357.38
	 69444444.4
	 86805555.5
	 104166666.6
	 121527777.7
	 138888888.8
	 149739583.2
	 160590277.7
	 171440972.1
	 182291666.6
	 193142361
	 203993055.4
	 214843749.9
	 225694444.3
	 247395833.2
	 269097222.1
	 290798611
	 312499999.9
	 334201388.7
	 355902777.6
	 377604166.5
	 399305555.4
	 421006944.3
	 442708333.1
	 464409722
	 486111110.9
	 507812499.8
	 529513888.7
	 551215277.5
	 572916666.4
	 594618055.3
	 616319444.2
	 638020833.1
	 659722222
	 681423610.8
	 703124999.7
	 724826388.6
	 746527777.5
	 768229166.4
	 789930555.2
	 811631944.1
	 833333333
	 859374999.7
	 885416666.3
	 911458333
	 937499999.6
	 963541666.3
	 989583332.9
	 1015625000
	 1041666666
	 1067708333
	 1093750000
	 1119791666
	 1145833333
	 1171875000
	 1197916666
	 1223958333
	 1250000000
	 1276041666
	 1302083333
	 1328124999
	 1354166666
	 1380208333
	 1406249999
	 1432291666
	 1458333333
	 1484374999
	 1510416666
	 1536458333
	 1562499999
	 1588541666
	 1614583333
	 1640624999
	 1666666666
	 1692708333
	 1718749999
	 1744791666
	 1770833333
	 1796874999
	 1822916666
	 1848958333
	 1875000000
	 1927083333
	 1979166666
	 2031250000
	 2083333333
	 2135416666
	 2187500000
	 2239583333
	 2291666666
	 2343750000
	 2395833333
	 2447916667
	 2500000000
	 2552083333
	 2604166667
	 2656250000
	 2708333333
	 2760416667
	 2812500000
	 2864583333
	 2916666666
	 2968750000
	 3020833333
	 3072916666
	 3125000000
	 3177083333
	 3229166666
	 3281250000
	 3333333333
	 3385416666
	 3437500000
	 3489583333
	 3541666666
	 3593750000
	 3645833333
	 3697916666
	 3750000000
	 3802083333
	 3854166666
	 3906250000
	 3958333333
	 3984375000
	 4010416666
	 4036458333
	 4062500000
	 4088541666
	 4114583333
	 4140625000
	 4166666666
	 4192708333
	 4218750000
	 4244791667
	 4270833333
	 4296875000
	 4322916667
	 4348958333
	 4375000000
	 4401041667
	 4427083333
	 4453125000
	 4479166667
	 4505208333
	 4531250000
	 4557291667
	 4583333333
	 4609375000
	 4635416667
	 4661458333
	 4687500000
	 4713541667
	 4739583333
	 4765625000
	 4791666667
	 4817708333
	 4843750000
	 4869791667
	 4895833333
	 4921875000
	 4947916667
	 4973958333
	 5000000000
	 5023148148
	 5046296296
	 5069444444
	 5092592592
	 5115740741
	 5138888889
	 5162037037
	 5185185185
	 5208333333
	 5231481481
	 5254629630
	 5277777778
	 5300925926
	 5324074074
	 5347222222
	 5370370370
	 5393518519
	 5416666667
	 5439814815
	 5462962963
	 5486111111
	 5509259260
	 5532407408
	 5555555556
	 5572916667
	 5590277778
	 5607638889
	 5625000000
	 5642361112
	 5659722223
	 5677083334
	 5694444445
	 5711805556
	 5729166667
	 5746527778
	 5763888889
	 5781250000
	 5798611112
	 5815972223
	 5833333334
	 5850694445
	 5868055556
	 5885416667
	 5902777778
	 5920138889
	 5937500000
	 5954861112
	 5972222223
	 5989583334
	 6006944445
	 6024305556
	 6041666667
	 6059027778
	 6076388889
	 6093750000
	 6111111112
	 6128472223
	 6145833334
	 6163194445
	 6180555556
	 6197916667
	 6215277778
	 6232638889
	 6250000000
	 6284722223
	 6319444445
	 6354166667
	 6388888889
	 6423611111
	 6458333334
	 6493055556
	 6527777778
	 6562500000
	 6597222223
	 6631944445
	 6666666667
	 6697530864
	 6728395062
	 6759259260
	 6790123457
	 6820987654
	 6851851852
	 6882716050
	 6913580247
	 6944444444
	 6975308642
	 7006172840
	 7037037037
	 7067901234
	 7098765432
	 7129629630
	 7160493827
	 7191358025
	 7222222222
	 7253086420
	 7283950617
	 7314814815
	 7345679012
	 7376543210
	 7407407408
	 7422839506
	 7438271605
	 7453703704
	 7469135803
	 7484567901
	 7500000000
	 7515432099
	 7530864198
	 7546296297
	 7561728395
	 7577160494
	 7592592593
	 7600308642
	 7608024692
	 7615740741
	 7623456790
	 7631172840
	 7638888889
	 7646604939
	 7654320988
	 7659465021
	 7664609054
	 7669753087
	 7674897120
	 7680041153
	 7685185186
	 7690329219
	 7695473252
	 7700617284
	 7705761317
	 7710905350
	 7716049383
	 7721193416
	 7726337449
	 7731481482
	 7736625515
	 7739840536
	 7743055556
	 7746270577
	 7749485597
	 7752700618
	 7755915638
	 7759130659
	 7762345680
	 7768775721
	 7775205762
	 7781635803
	 7788065844
	 7794495885
	 7800925927
	 7807355968
	 7813786009
	 7820216050
	 7826646091
	 7833076132
	 7839506174
	 7852366256
	 7865226338
	 7878086420
	 7890946503
	 7903806585
	 7916666667
	 7929526750
	 7942386832
	 7968106996
	 7993827161
	 8019547326
	 8045267490
	 8070987654
	 8096707819
	 8122427984
	 8148148148
	 8171296296
	 8194444444
	 8217592592
	 8240740741
	 8263888889
	 8287037037
	 8310185185
	 8333333333
	 8356481481
	 8379629630
	 8402777778
	 8425925926
	 8449074074
	 8472222222
	 8495370370
	 8518518518
	 8541666667
	 8564814815
	 8587962963
	 8611111111
	 8634259259
	 8657407407
	 8680555556
	 8703703704
	 8726851852
	 8750000000
	 8773148148
	 8796296296
	 8819444445
	 8842592593
	 8865740741
	 8888888889
	 8935185185
	 8981481482
	 9027777778
	 9074074074
	 9098186728
	 9122299383
	 9146412037
	 9170524691
	 9194637346
	 9218750000
	 9242862654
	 9266975308
	 9291087963
	 9315200617
	 9339313271
	 9363425926
	 9387538580
	 9411651234
	 9435763889
	 9459876543
	 9483989197
	 9508101852
	 9532214506
	 9556327160
	 9580439815
	 9604552469
	 9628665123
	 9652777778
	 9676890432
	 9701003086
	 9725115740
	 9749228395
	 9773341049
	 9797453703
	 9821566358
	 9845679012
	 9884259259
	 9922839506
	 9961419753
	 1e+10
VAR_LIST_END

BEGIN
	 4.86834638999999989058924121377e-05 ,	 -0 
	 4.86834638999999989058924121377e-05 ,	 -4.14189838000000016294114117969e-09 
	 4.86834638999999989058924121377e-05 ,	 -4.14189890999999967014542706038e-08 
	 4.86834634999999991489608164308e-05 ,	 -4.14189880000000019756340331051e-07 
	 4.86834209000000013188233505268e-05 ,	 -4.14189879999999998580516649693e-06 
	 4.8683395700000003079605664924e-05 ,	 -5.21434165000000030524987884584e-06 
	 4.86833558999999967717257909339e-05 ,	 -6.56446720999999984972770802893e-06 
	 4.86832927000000012952157790735e-05 ,	 -8.26417458000000012098909540903e-06 
	 4.86831926000000028307776456238e-05 ,	 -1.04039793999999996424246639926e-05 
	 4.86830339000000027064110619257e-05 ,	 -1.30978339999999998628050709715e-05 
	 4.868278239999999798754207192e-05 ,	 -1.64891960999999985884069408915e-05 
	 4.86823837999999996478499297847e-05 ,	 -2.07586680000000007900902432301e-05 
	 4.86817520000000007155023518113e-05 ,	 -2.61336146000000012592275749901e-05 
	 4.86807507000000010068292699561e-05 ,	 -3.29002714000000011959450041399e-05 
	 4.86791637999999980083304373935e-05 ,	 -4.14189875999999984070541747538e-05 
	 4.86766487e-05 ,	 -5.21434158e-05 
	 4.86726626e-05 ,	 -6.56446708e-05 
	 4.86663449e-05 ,	 -8.26417432e-05 
	 4.86563322e-05 ,	 -0.000104039789 
	 4.86404631e-05 ,	 -0.00013097833 
	 4.86153122e-05 ,	 -0.00016489194 
	 4.85754507e-05 ,	 -0.000207586638 
	 4.85122745e-05 ,	 -0.000261336063 
	 4.8412147e-05 ,	 -0.00032900255 
	 4.82534558e-05 ,	 -0.000414189548 
	 4.80019472e-05 ,	 -0.000521433504 
	 4.76033335e-05 ,	 -0.000656445401 
	 4.69715745e-05 ,	 -0.000826414825 
	 4.59703068e-05 ,	 -0.00104039269 
	 4.43834115e-05 ,	 -0.00130977292 
	 4.18683698e-05 ,	 -0.0016488987 
	 3.78823423e-05 ,	 -0.00207582507 
	 3.15650273e-05 ,	 -0.00261327821 
	 2.15530411e-05 ,	 -0.00328986105 
	 5.68582412e-06 ,	 -0.00414156738 
	 -1.94602331e-05 ,	 -0.00521368044 
	 -5.93095624e-05 ,	 -0.00656314811 
	 -0.000122455237 ,	 -0.00826154322 
	 -0.000170076969 ,	 -0.00934008581 
	-0.00022379,	-0.010423
	-0.00038305,	-0.013118
	-0.00063527,	-0.016507
	-0.00097741,	-0.020212
	-0.001488,	-0.024722
	-0.0020137,	-0.028625
	-0.0026776,	-0.03289
	-0.0042003,	-0.040997
	-0.0060513,	-0.049028
	-0.0082251,	-0.056971
	-0.010715,	-0.064812
	-0.01243,	-0.069657
	-0.014264,	-0.074454
	-0.016215,	-0.079201
	-0.018283,	-0.083896
	-0.020465,	-0.088536
	-0.022759,	-0.093118
	-0.025164,	-0.097641
	-0.027677,	-0.1021
	-0.033022,	-0.11082
	-0.03878,	-0.11928
	-0.044934,	-0.12744
	-0.051468,	-0.1353
	-0.058367,	-0.14284
	-0.065614,	-0.15004
	-0.073191,	-0.1569
	-0.081082,	-0.1634
	-0.089268,	-0.16953
	-0.097732,	-0.17527
	-0.10645,	-0.18063
	-0.11541,	-0.18559
	-0.1246,	-0.19014
	-0.13398,	-0.19428
	-0.14355,	-0.198
	-0.15329,	-0.20129
	-0.16316,	-0.20416
	-0.17316,	-0.20659
	-0.18327,	-0.20859
	-0.19347,	-0.21016
	-0.20373,	-0.21129
	-0.21404,	-0.21198
	-0.22439,	-0.21224
	-0.23474,	-0.21208
	-0.24509,	-0.21148
	-0.25542,	-0.21046
	-0.26572,	-0.20902
	-0.27595,	-0.20716
	-0.28814,	-0.20439
	-0.3002,	-0.20104
	-0.3121,	-0.19713
	-0.32383,	-0.19266
	-0.33535,	-0.18764
	-0.34665,	-0.18211
	-0.3577,	-0.17606
	-0.36849,	-0.16951
	-0.37899,	-0.16249
	-0.38919,	-0.15501
	-0.39907,	-0.14708
	-0.40861,	-0.13873
	-0.41781,	-0.12997
	-0.42664,	-0.12081
	-0.4351,	-0.11129
	-0.44318,	-0.10141
	-0.45085,	-0.091209
	-0.45812,	-0.080683
	-0.46498,	-0.06986
	-0.47141,	-0.058759
	-0.47742,	-0.047399
	-0.48298,	-0.035797
	-0.48811,	-0.023972
	-0.49279,	-0.011943
	-0.49702,	 0.0002737
	-0.5008,	 0.012659
	-0.50412,	 0.025197
	-0.50699,	 0.037868
	-0.50939,	 0.050657
	-0.51134,	 0.063546
	-0.51283,	 0.076519
	-0.51385,	 0.08956
	-0.51442,	 0.10265
	-0.51452,	 0.11577
	-0.51417,	 0.12892
	-0.51337,	 0.14207
	-0.51211,	 0.15521
	-0.5104,	 0.16833
	-0.50825,	 0.18141
	-0.50565,	 0.19443
	-0.49913,	 0.22026
	-0.4909,	 0.2457
	-0.48097,	 0.27066
	-0.4694,	 0.29504
	-0.45623,	 0.31872
	-0.44152,	 0.34163
	-0.42532,	 0.36366
	-0.40769,	 0.38474
	-0.38869,	 0.40478
	-0.3684,	 0.4237
	-0.34688,	 0.44142
	-0.32421,	 0.45788
	-0.30047,	 0.47301
	-0.27574,	 0.48675
	-0.25011,	 0.49903
	-0.22366,	 0.50981
	-0.19649,	 0.51903
	-0.16869,	 0.52667
	-0.14035,	 0.53268
	-0.11158,	 0.53704
	-0.082486,	 0.53971
	-0.05315,	 0.5407
	-0.023681,	 0.53998
	 0.0058223,	 0.53756
	 0.03526,	 0.53344
	 0.064537,	 0.52764
	 0.093561,	 0.52017
	 0.12224,	 0.51106
	 0.15049,	 0.50034
	 0.17824,	 0.48804
	 0.20541,	 0.4742
	 0.23194,	 0.45887
	 0.25776,	 0.44207
	 0.28284,	 0.42385
	 0.30711,	 0.40425
	 0.33055,	 0.3833
	 0.35313,	 0.36103
	 0.37481,	 0.33746
	 0.39557,	 0.3126
	 0.41539,	 0.28645
	 0.42493,	 0.27288
	 0.43423,	 0.25899
	 0.44328,	 0.24475
	 0.45208,	 0.23018
	 0.46061,	 0.21527
	 0.46888,	 0.2
	 0.47688,	 0.18438
	 0.48459,	 0.16838
	 0.49201,	 0.15201
	 0.49912,	 0.13525
	 0.50592,	 0.11809
	 0.51238,	 0.10051
	 0.5185,	 0.082525
	 0.52425,	 0.064095
	 0.5296,	 0.045218
	 0.53455,	 0.02588
	 0.53905,	 0.0060689
	 0.54307,	-0.014226
	 0.54659,	-0.035016
	 0.54957,	-0.056311
	 0.55197,	-0.078118
	 0.55374,	-0.10044
	 0.55483,	-0.12329
	 0.5552,	-0.14666
	 0.55479,	-0.17055
	 0.55354,	-0.19495
	 0.5514,	-0.21985
	 0.54829,	-0.24524
	 0.54415,	-0.27109
	 0.53891,	-0.29737
	 0.53251,	-0.32405
	 0.52485,	-0.35108
	 0.51588,	-0.37841
	 0.50553,	-0.40597
	 0.49371,	-0.43371
	 0.48036,	-0.46152
	 0.46541,	-0.48934
	 0.44881,	-0.51705
	 0.43049,	-0.54454
	 0.41042,	-0.57169
	 0.39107,	-0.59544
	 0.37028,	-0.61871
	 0.34804,	-0.64142
	 0.32434,	-0.66345
	 0.2992,	-0.6847
	 0.27262,	-0.70504
	 0.24463,	-0.72436
	 0.21527,	-0.74255
	 0.18458,	-0.75949
	 0.15263,	-0.77507
	 0.11948,	-0.78917
	 0.085228,	-0.8017
	 0.049945,	-0.81254
	 0.013743,	-0.8216
	-0.023265,	-0.8288
	-0.060956,	-0.83406
	-0.0992,	-0.83732
	-0.13786,	-0.83851
	-0.17679,	-0.83761
	-0.21585,	-0.83457
	-0.2549,	-0.82938
	-0.29377,	-0.82205
	-0.33232,	-0.81257
	-0.3704,	-0.80097
	-0.39857,	-0.79091
	-0.42633,	-0.7797
	-0.45362,	-0.76735
	-0.4804,	-0.75391
	-0.50661,	-0.7394
	-0.5322,	-0.72385
	-0.55711,	-0.7073
	-0.58131,	-0.6898
	-0.60475,	-0.67137
	-0.62739,	-0.65206
	-0.64919,	-0.63193
	-0.67013,	-0.611
	-0.69017,	-0.58934
	-0.70928,	-0.56699
	-0.72745,	-0.544
	-0.74465,	-0.52042
	-0.76086,	-0.4963
	-0.77608,	-0.47169
	-0.79028,	-0.44663
	-0.80347,	-0.42118
	-0.81563,	-0.39539
	-0.82676,	-0.3693
	-0.83687,	-0.34296
	-0.84595,	-0.31641
	-0.85401,	-0.28971
	-0.86105,	-0.26289
	-0.86709,	-0.23599
	-0.87212,	-0.20907
	-0.87617,	-0.18215
	-0.87924,	-0.15528
	-0.88136,	-0.12849
	-0.88252,	-0.10181
	-0.88276,	-0.075296
	-0.88209,	-0.048958
	-0.88052,	-0.022837
	-0.87808,	 0.0030403
	-0.87478,	 0.028644
	-0.87065,	 0.053947
	-0.8657,	 0.078925
	-0.85996,	 0.10355
	-0.8462,	 0.15166
	-0.82953,	 0.19812
	-0.81013,	 0.24276
	-0.78819,	 0.28546
	-0.76389,	 0.32609
	-0.73741,	 0.36457
	-0.70894,	 0.40078
	-0.67865,	 0.43467
	-0.64673,	 0.46617
	-0.61335,	 0.49522
	-0.57868,	 0.52178
	-0.54291,	 0.54583
	-0.51032,	 0.56506
	-0.4771,	 0.58229
	-0.44338,	 0.59749
	-0.40926,	 0.61068
	-0.37487,	 0.62185
	-0.3403,	 0.63104
	-0.30568,	 0.63824
	-0.2711,	 0.6435
	-0.23666,	 0.64683
	-0.20247,	 0.64828
	-0.16862,	 0.64789
	-0.13519,	 0.6457
	-0.10228,	 0.64177
	-0.069958,	 0.63615
	-0.038291,	 0.62891
	-0.0073423,	 0.6201
	 0.022837,	 0.6098
	 0.052211,	 0.59808
	 0.080758,	 0.58501
	 0.10847,	 0.57066
	 0.13538,	 0.5551
	 0.16152,	 0.53837
	 0.187,	 0.52051
	 0.21195,	 0.50152
	 0.22428,	 0.4916
	 0.23657,	 0.48136
	 0.24885,	 0.4708
	 0.26116,	 0.45988
	 0.27357,	 0.44855
	 0.28614,	 0.43675
	 0.29895,	 0.42438
	 0.31207,	 0.41134
	 0.32561,	 0.39743
	 0.33966,	 0.38243
	 0.3543,	 0.36599
	 0.3696,	 0.34765
	 0.37749,	 0.33758
	 0.38552,	 0.32677
	 0.39365,	 0.31511
	 0.40184,	 0.30246
	 0.40999,	 0.28868
	 0.41798,	 0.27359
	 0.42563,	 0.25701
	 0.43269,	 0.23877
	 0.43691,	 0.22559
	 0.44061,	 0.21157
	 0.44362,	 0.19666
	 0.44578,	 0.18087
	 0.44691,	 0.16422
	 0.4468,	 0.14677
	 0.44522,	 0.12863
	 0.44197,	 0.10998
	 0.43682,	 0.091042
	 0.42963,	 0.072107
	 0.42027,	 0.053539
	 0.40871,	 0.035744
	 0.39504,	 0.019155
	 0.37942,	 0.0041987
	 0.36217,	-0.0087385
	 0.34366,	-0.01935
	 0.33167,	-0.024708
	 0.3195,	-0.029054
	 0.30727,	-0.032384
	 0.29509,	-0.034714
	 0.28309,	-0.036077
	 0.27137,	-0.036523
	 0.26003,	-0.036116
	 0.24913,	-0.034928
	 0.22891,	-0.030538
	 0.21108,	-0.02403
	 0.19574,	-0.016066
	 0.18285,	-0.0072381
	 0.17226,	 0.0019645
	 0.16373,	 0.011161
	 0.157,	 0.020072
	 0.15182,	 0.028508
	 0.14793,	 0.03635
	 0.1451,	 0.043533
	 0.14314,	 0.05003
	 0.14187,	 0.055845
	 0.14088,	 0.065522
	 0.14122,	 0.072845
	 0.14232,	 0.078153
	 0.14377,	 0.081779
	 0.14532,	 0.08402
	 0.1468,	 0.08513
	 0.14812,	 0.085324
	 0.14922,	 0.084776
	 0.15063,	 0.082014
	 0.15092,	 0.077728
	 0.15014,	 0.07252
	 0.14838,	 0.066814
	 0.14574,	 0.060906
	 0.14232,	 0.055011
	 0.13823,	 0.049286
	 0.13357,	 0.043846
	 0.12896,	 0.039263
	 0.12402,	 0.035025
	 0.1188,	 0.031166
	 0.11338,	 0.027711
	 0.10778,	 0.024677
	 0.10207,	 0.022074
	 0.096287,	 0.019907
	 0.090469,	 0.018179
	 0.08466,	 0.016885
	 0.078895,	 0.016019
	 0.07321,	 0.015573
	 0.067636,	 0.015534
	 0.062205,	 0.015889
	 0.056943,	 0.016621
	 0.051876,	 0.017714
	 0.047028,	 0.019147
	 0.042421,	 0.0209
	 0.038073,	 0.022952
	 0.034001,	 0.025281
	 0.030223,	 0.027862
	 0.026749,	 0.030673
	 0.023594,	 0.033689
	 0.020764,	 0.036884
	 0.01827,	 0.040234
	 0.016116,	 0.043713
	 0.014306,	 0.047296
	 0.012844,	 0.050959
	 0.011729,	 0.054674
	 0.010961,	 0.058419
	 0.010537,	 0.062168
	 0.010453,	 0.065897
	 0.010703,	 0.069582
	 0.012175,	 0.076729
	 0.014881,	 0.083433
	 0.018723,	 0.089528
	 0.023587,	 0.094865
	 0.026481,	 0.097298
	 0.029596,	 0.099472
	 0.032909,	 0.10137
	 0.036399,	 0.10297
	 0.040042,	 0.10428
	 0.043811,	 0.10527
	 0.047683,	 0.10594
	 0.051631,	 0.10627
	 0.055628,	 0.10627
	 0.059645,	 0.10592
	 0.063655,	 0.10523
	 0.06763,	 0.10419
	 0.07154,	 0.10281
	 0.075356,	 0.10108
	 0.079049,	 0.099015
	 0.082589,	 0.096617
	 0.085946,	 0.093896
	 0.089092,	 0.090865
	 0.091997,	 0.087535
	 0.094632,	 0.083923
	 0.096971,	 0.080048
	 0.098984,	 0.075928
	 0.10064,	 0.071587
	 0.10193,	 0.06705
	 0.10281,	 0.062344
	 0.10327,	 0.057498
	 0.10328,	 0.052546
	 0.10283,	 0.047522
	 0.1019,	 0.042462
	 0.10046,	 0.037406
	 0.098526,	 0.032395
	 0.096062,	 0.027474
	 0.091019,	 0.0199
	 0.084615,	 0.012869
	 0.076867,	 0.0065887
	 0.067815,	 0.0012746
END
BEGIN
	 0.999951316536143552937687672966 ,	 -0 
	 0.99995131653614344191538521045 ,	 -9.95070159603983483975753188133e-09 
	 0.999951316536136558532632534479 ,	 -9.95070154052868360849970486015e-08 
	 0.999951316535419021391817295807 ,	 -9.95070154552468721931290929206e-07 
	 0.999951316463691952662884432357 ,	 -9.95070154496957570700033102185e-06 
	 0.999951316421315850035966832365 ,	 -1.25271910390856167083484251634e-05 
	 0.999951316354154018384292612609 ,	 -1.57707991353672749568204380921e-05 
	 0.999951316247708277273886778858 ,	 -1.98542597916184782036452816101e-05 
	 0.999951316079004670633878504304 ,	 -2.49950321757341775708027853398e-05 
	 0.999951315811627661211957729392 ,	 -3.14668811573493023558967252029e-05 
	 0.999951315387862971206800466462 ,	 -3.96144562852529524832334573148e-05 
	 0.999951314716241324020984393428 ,	 -4.98716456246439676647241867613e-05 
	 0.99995131365179268367882059465 ,	 -6.27846818709865139851444837404e-05 
	 0.999951311964756062167225536541 ,	 -7.9041231210386087013830547221e-05 
	 0.999951309290982859323548836983 ,	 -9.95070140157594540397667515208e-05 
	 0.999951305053338401762630383018 ,	 -0.000125271907529006520931602608471 
	 0.999951298337125815685055840731 ,	 -0.000157707985643851245072255551349 
	 0.99995128769264873813682470427 ,	 -0.000198542586521965880308471241733 
	 0.999951270822297733076311487821 ,	 -0.000249950299021001187682600175322 
	 0.999951244084612556051183673844 ,	 -0.000314668766214415418502881038876 
	 0.9999512017082849979487946257 ,	 -0.000396144472346593445877260819543 
	 0.999951134546454234452994569438 ,	 -0.000498716275662863806061864124786 
	 0.999951028102432970534607648005 ,	 -0.000627846458395586726197734606103 
	 0.999950859400797309461950135301 ,	 -0.000790411593195650130638796326821 
	 0.999950592028655105281131909578 ,	 -0.000995068705768320516114044949063 
	 0.999950168277220163837171185151 ,	 -0.00125271621338571281789597833267 
	 0.999949496688644523523237239715 ,	 -0.00157707414641705678803873524885 
	 0.999948432323096048079946740472 ,	 -0.00198541447297301276719849738583 
	 0.999946745494259436881634428573 ,	 -0.00249948026201640693955141614424 
	 0.999944072243746262529384694062 ,	 -0.00314664232078271099979360769794 
	 0.999939835911760499520539724472 ,	 -0.00396135427880334178851740034588 
	 0.999933122993961864821699236927 ,	 -0.00498698236923167392831146571552 
	 0.999922486785663533481738340924 ,	 -0.00627810489568661478365640959964 
	 0.999905637172096128928444613848 ,	 -0.00790339899136441315086187842098 
	 0.999878951450220099239629689691 ,	 -0.00994925887993564073141783410392 
	 0.999836705147025273099359310436 ,	 -0.0125243198019418522370926893927 
	 0.999769867938947620622514023125 ,	 -0.0157650930304757685984640147581 
	 0.999664231550574933216068984621 ,	 -0.0198429456935309278531320842376 
	 0.999584783664480891474113377626 ,	 -0.0224319408052681967813413166368 
	 0.999495386227760906905359661323 ,	 -0.0250318709668830574610609573938 
	 0.999231691512066588778395725967 ,	 -0.0314973655432111143692708310482 
	 0.99881791137062203578267371995 ,	 -0.0396223197516695768705119462538 
	 0.998263493636418419718836503307 ,	 -0.0484974852364125075254719376971 
