CITIFILE A.01.01
#Momentum: B.12.070 (*) built: Feb 13 2020 
#Momentum Date and Time: Mon Aug 15 23:30:14 2022

NAME Momentum.SP

#  mode: MW    reference: S_50

#eesof Port[1] P1
#eesof Port[2] P2

CONSTANT NBR_OF_PORTS 2

CONSTANT NORMALIZATION 1

VAR freq MAG 406

DATA S[1,1] RI
DATA S[1,2] RI
DATA S[2,1] RI
DATA S[2,2] RI
DATA PORTZ[1] RI
DATA PORTZ[2] RI

VAR_LIST_BEGIN
	 0
	 8.701167245
	 87.01167245
	 870.1167245
	 8701.167245
	 10954.12056
	 13790.42073
	 17361.1111
	 21856.34394
	 27515.5068
	 34639.97072
	 43609.13941
	 54900.65379
	 69115.82818
	 87011.67245
	 109541.2056
	 137904.2073
	 173611.111
	 218563.4394
	 275155.068
	 346399.7072
	 436091.3941
	 549006.5379
	 691158.2818
	 870116.7245
	 1095412.056
	 1379042.073
	 1736111.11
	 2185634.394
	 2751550.68
	 3463997.072
	 4360913.941
	 5490065.379
	 6911582.818
	 8701167.245
	 10954120.56
	 13790420.73
	 17361111.1
	 19629339.22
	 21908241.11
	 27580841.47
	 34722222.2
	 42541975.04
	 52083333.3
	 60365357.38
	 69444444.4
	 86805555.5
	 104166666.6
	 121527777.7
	 138888888.8
	 167824074
	 196759259.2
	 225694444.3
	 254629629.5
	 283564814.7
	 312499999.9
	 341435185
	 370370370.2
	 399305555.4
	 428240740.5
	 457175925.7
	 486111110.9
	 515046296.1
	 543981481.2
	 572916666.4
	 601851851.6
	 630787036.8
	 659722222
	 688657407.1
	 717592592.3
	 746527777.5
	 775462962.6
	 804398147.8
	 833333333
	 859374999.7
	 885416666.3
	 911458333
	 937499999.6
	 963541666.3
	 989583332.9
	 1015625000
	 1041666666
	 1067708333
	 1093750000
	 1119791666
	 1145833333
	 1171875000
	 1197916666
	 1223958333
	 1250000000
	 1276041666
	 1302083333
	 1328124999
	 1354166666
	 1380208333
	 1406249999
	 1432291666
	 1458333333
	 1484374999
	 1510416666
	 1536458333
	 1562499999
	 1588541666
	 1614583333
	 1640624999
	 1666666666
	 1692708333
	 1718749999
	 1744791666
	 1770833333
	 1796874999
	 1822916666
	 1848958333
	 1875000000
	 1901041666
	 1927083333
	 1953125000
	 1979166666
	 2005208333
	 2031250000
	 2057291666
	 2083333333
	 2109375000
	 2135416666
	 2161458333
	 2187500000
	 2213541666
	 2239583333
	 2265625000
	 2291666666
	 2317708333
	 2343750000
	 2369791667
	 2395833333
	 2421875000
	 2447916667
	 2473958333
	 2500000000
	 2526041667
	 2552083333
	 2578125000
	 2604166667
	 2630208333
	 2656250000
	 2682291667
	 2708333333
	 2734375000
	 2760416667
	 2786458333
	 2812500000
	 2838541667
	 2864583333
	 2890625000
	 2916666666
	 2942708333
	 2968750000
	 2994791666
	 3020833333
	 3046875000
	 3072916666
	 3098958333
	 3125000000
	 3151041666
	 3177083333
	 3203125000
	 3229166666
	 3255208333
	 3281250000
	 3307291666
	 3333333333
	 3356481481
	 3379629629
	 3402777777
	 3425925926
	 3449074074
	 3472222222
	 3495370370
	 3518518518
	 3564814815
	 3611111111
	 3657407407
	 3703703704
	 3750000000
	 3796296296
	 3842592592
	 3888888889
	 3935185185
	 3981481481
	 4027777778
	 4074074074
	 4120370370
	 4166666667
	 4212962963
	 4259259259
	 4305555556
	 4351851852
	 4398148148
	 4444444444
	 4490740741
	 4537037037
	 4583333333
	 4629629630
	 4675925926
	 4722222222
	 4768518519
	 4814814815
	 4837962963
	 4861111111
	 4884259259
	 4907407408
	 4930555556
	 4953703704
	 4976851852
	 5000000000
	 5011574074
	 5023148148
	 5034722222
	 5046296297
	 5057870371
	 5069444445
	 5081018519
	 5092592593
	 5104166667
	 5115740741
	 5127314815
	 5138888889
	 5150462963
	 5162037037
	 5173611111
	 5185185186
	 5196759260
	 5208333334
	 5219907408
	 5231481482
	 5243055556
	 5254629630
	 5266203704
	 5277777778
	 5289351852
	 5300925926
	 5312500000
	 5324074074
	 5335648149
	 5347222223
	 5358796297
	 5370370371
	 5381944445
	 5393518519
	 5405092593
	 5416666667
	 5428240741
	 5439814815
	 5451388889
	 5462962963
	 5474537037
	 5486111112
	 5497685186
	 5509259260
	 5520833334
	 5532407408
	 5543981482
	 5555555556
	 5578703704
	 5601851852
	 5625000000
	 5648148148
	 5671296297
	 5694444445
	 5717592593
	 5740740741
	 5769675926
	 5798611111
	 5827546297
	 5856481482
	 5885416667
	 5914351852
	 5943287037
	 5972222222
	 6030092593
	 6087962963
	 6145833334
	 6203703704
	 6261574074
	 6319444445
	 6377314815
	 6435185186
	 6493055556
	 6550925926
	 6608796297
	 6666666667
	 6718750000
	 6770833334
	 6822916667
	 6875000000
	 6927083334
	 6979166667
	 7031250000
	 7083333334
	 7135416667
	 7187500000
	 7239583333
	 7291666667
	 7317708333
	 7343750000
	 7369791667
	 7395833333
	 7421875000
	 7447916667
	 7473958333
	 7500000000
	 7508680556
	 7517361111
	 7526041667
	 7534722222
	 7543402778
	 7552083333
	 7560763889
	 7569444444
	 7578125000
	 7586805556
	 7595486111
	 7604166667
	 7612847222
	 7621527778
	 7630208333
	 7638888889
	 7647569445
	 7656250000
	 7664930556
	 7673611111
	 7682291667
	 7690972222
	 7699652778
	 7708333334
	 7712673611
	 7717013889
	 7721354167
	 7725694445
	 7730034722
	 7734375000
	 7738715278
	 7743055556
	 7751736111
	 7760416667
	 7769097222
	 7777777778
	 7786458334
	 7795138889
	 7803819445
	 7812500000
	 7821180556
	 7829861111
	 7838541667
	 7847222222
	 7864583334
	 7881944445
	 7899305556
	 7916666667
	 7934027778
	 7951388889
	 7968750000
	 7986111112
	 8003472223
	 8020833334
	 8038194445
	 8055555556
	 8090277778
	 8125000000
	 8159722223
	 8194444445
	 8229166667
	 8263888890
	 8298611112
	 8333333334
	 8385416667
	 8437500001
	 8489583334
	 8541666667
	 8593750001
	 8645833334
	 8697916667
	 8750000000
	 8802083334
	 8854166667
	 8906250000
	 8958333334
	 9010416667
	 9062500000
	 9114583334
	 9166666667
	 9218750000
	 9270833334
	 9322916667
	 9375000000
	 9427083334
	 9479166667
	 9531250000
	 9583333334
	 9635416667
	 9687500000
	 9739583333
	 9791666667
	 9843750000
	 9895833333
	 9947916667
	 1e+10
VAR_LIST_END

BEGIN
	 7.63319992000000008139717899702e-05 ,	 -0 
	 7.63319992000000008139717899702e-05 ,	 -2.79112776999999984467650009827e-09 
	 7.63319992000000008139717899702e-05 ,	 -2.79112714999999997791055441699e-08 
	 7.63319988999999993022071986815e-05 ,	 -2.79112713000000010388402691894e-07 
	 7.63319698000000017388405604279e-05 ,	 -2.79112714000000003427984576754e-06 
	 7.63319526000000054145183669974e-05 ,	 -3.51382088000000006986389862462e-06 
	 7.63319253000000033692121204076e-05 ,	 -4.42363839999999983870759834303e-06 
	 7.63318821000000025155454719261e-05 ,	 -5.56903078999999962911621534389e-06 
	 7.63318136999999966463975598074e-05 ,	 -7.01099437999999981665621290317e-06 
	 7.63317051999999965101323384786e-05 ,	 -8.82631897999999948849561559605e-06 
	 7.63315332000000061618560920351e-05 ,	 -1.11116772999999992418886790579e-05 
	 7.63312606999999972634193823318e-05 ,	 -1.39887729000000001698374510473e-05 
	 7.63308287000000022792800535854e-05 ,	 -1.76108216000000012888253991816e-05 
	 7.63301440999999947743803740963e-05 ,	 -2.21707108000000012427120610337e-05 
	 7.63290590000000019428247344244e-05 ,	 -2.79112711000000005250997608952e-05 
	 7.63273393e-05 ,	 -3.51382083e-05 
	 7.63246138e-05 ,	 -4.42363831e-05 
	 7.63202941e-05 ,	 -5.56903061e-05 
	 7.63134479e-05 ,	 -7.01099402e-05 
	 7.63025973e-05 ,	 -8.82631826e-05 
	 7.62854004e-05 ,	 -0.000111116758 
	 7.6258145e-05 ,	 -0.0001398877 
	 7.62149482e-05 ,	 -0.000176108159 
	 7.6146486e-05 ,	 -0.000221706994 
	 7.60379806e-05 ,	 -0.000279112483 
	 7.58660113e-05 ,	 -0.000351381628 
	 7.55934585e-05 ,	 -0.000442362922 
	 7.51614921e-05 ,	 -0.000556901249 
	 7.44768729e-05 ,	 -0.000701095786 
	 7.33918283e-05 ,	 -0.000882624612 
	 7.16721581e-05 ,	 -0.00111115319 
	 6.89466879e-05 ,	 -0.00139884828 
	 6.46271682e-05 ,	 -0.00176102429 
	 5.77813399e-05 ,	 -0.0022169556 
	 4.69318074e-05 ,	 -0.00279089671 
	 2.97373973e-05 ,	 -0.00351336112 
	 2.48845479e-06 ,	 -0.00442272106 
	 -4.06922803e-05 ,	 -0.00556720047 
	 -7.32587484e-05 ,	 -0.00629397881 
	 -0.000109995646 ,	 -0.00702396373 
	 -0.000218914733 ,	 -0.00883993822 
	-0.00039145,	-0.011123
	-0.00062555,	-0.01362
	-0.00097497,	-0.016658
	-0.0013349,	-0.019287
	-0.0017897,	-0.022159
	-0.0028334,	-0.027616
	-0.0041035,	-0.033019
	-0.0055967,	-0.038355
	-0.0073095,	-0.043614
	-0.010642,	-0.052178
	-0.014559,	-0.060445
	-0.019047,	-0.068372
	-0.024093,	-0.075922
	-0.029675,	-0.083076
	-0.035756,	-0.089816
	-0.042291,	-0.09612
	-0.049231,	-0.10195
	-0.056534,	-0.10729
	-0.064159,	-0.11212
	-0.072066,	-0.11639
	-0.080216,	-0.1201
	-0.088569,	-0.12324
	-0.097084,	-0.12579
	-0.10572,	-0.12774
	-0.11443,	-0.12909
	-0.12319,	-0.12984
	-0.13195,	-0.12998
	-0.14067,	-0.12953
	-0.1493,	-0.12848
	-0.15782,	-0.12685
	-0.16617,	-0.12465
	-0.17433,	-0.12188
	-0.18226,	-0.11857
	-0.18917,	-0.11514
	-0.19583,	-0.1113
	-0.20223,	-0.10705
	-0.20833,	-0.10243
	-0.21413,	-0.097448
	-0.21959,	-0.092116
	-0.2247,	-0.08646
	-0.22943,	-0.080501
	-0.23377,	-0.07426
	-0.23771,	-0.067762
	-0.24122,	-0.061029
	-0.24429,	-0.054086
	-0.24691,	-0.04696
	-0.24906,	-0.039676
	-0.25074,	-0.032262
	-0.25193,	-0.024745
	-0.25262,	-0.017154
	-0.25282,	-0.0095185
	-0.25251,	-0.0018672
	-0.25169,	 0.0057692
	-0.25035,	 0.01336
	-0.2485,	 0.020874
	-0.24614,	 0.02828
	-0.24326,	 0.035546
	-0.23988,	 0.042639
	-0.23599,	 0.049527
	-0.2316,	 0.056178
	-0.22673,	 0.062557
	-0.22138,	 0.068633
	-0.21557,	 0.074372
	-0.2093,	 0.079741
	-0.20261,	 0.084708
	-0.1955,	 0.089239
	-0.188,	 0.093304
	-0.18013,	 0.09687
	-0.17192,	 0.099906
	-0.16339,	 0.10238
	-0.15458,	 0.10427
	-0.14551,	 0.10554
	-0.13624,	 0.10617
	-0.12678,	 0.10613
	-0.11718,	 0.10539
	-0.10749,	 0.10395
	-0.097761,	 0.10177
	-0.088021,	 0.098854
	-0.078329,	 0.095167
	-0.068738,	 0.090708
	-0.059301,	 0.085469
	-0.050074,	 0.079446
	-0.041116,	 0.07264
	-0.032484,	 0.065055
	-0.024238,	 0.056699
	-0.016439,	 0.047585
	-0.009149,	 0.037732
	-0.0024274,	 0.027164
	 0.0036648,	 0.015907
	 0.0090682,	 0.0039958
	 0.013725,	-0.0085309
	 0.017579,	-0.021629
	 0.020577,	-0.035249
	 0.022668,	-0.049337
	 0.023806,	-0.063832
	 0.023948,	-0.078672
	 0.023057,	-0.093786
	 0.0211,	-0.1091
	 0.01805,	-0.12454
	 0.013887,	-0.14003
	 0.0085956,	-0.15549
	 0.0021694,	-0.17082
	-0.0053921,	-0.18596
	-0.014082,	-0.20081
	-0.023886,	-0.21528
	-0.034782,	-0.2293
	-0.046742,	-0.24278
	-0.059731,	-0.25564
	-0.073705,	-0.2678
	-0.088617,	-0.27921
	-0.10441,	-0.28977
	-0.12102,	-0.29944
	-0.1384,	-0.30815
	-0.15646,	-0.31586
	-0.17514,	-0.32251
	-0.19436,	-0.32808
	-0.21405,	-0.33252
	-0.23412,	-0.33581
	-0.25449,	-0.33793
	-0.27509,	-0.33888
	-0.29584,	-0.33864
	-0.31665,	-0.33721
	-0.33745,	-0.33461
	-0.35817,	-0.33083
	-0.37873,	-0.32591
	-0.39906,	-0.31986
	-0.4191,	-0.31271
	-0.43879,	-0.30448
	-0.45806,	-0.29522
	-0.4748,	-0.28614
	-0.49113,	-0.27631
	-0.50702,	-0.26573
	-0.52244,	-0.25445
	-0.53735,	-0.2425
	-0.55174,	-0.22991
	-0.56558,	-0.21671
	-0.57884,	-0.20294
	-0.60358,	-0.17379
	-0.62581,	-0.14274
	-0.64545,	-0.11005
	-0.66242,	-0.075966
	-0.67667,	-0.040739
	-0.68818,	-0.0046039
	-0.69694,	 0.032216
	-0.70295,	 0.06951
	-0.70624,	 0.10707
	-0.70682,	 0.14473
	-0.70472,	 0.1823
	-0.69998,	 0.21961
	-0.69263,	 0.25651
	-0.68269,	 0.29284
	-0.6702,	 0.32845
	-0.65518,	 0.3632
	-0.63764,	 0.39694
	-0.61759,	 0.4295
	-0.59503,	 0.46074
	-0.56994,	 0.49046
	-0.54228,	 0.51845
	-0.51203,	 0.54449
	-0.47913,	 0.56829
	-0.44351,	 0.58951
	-0.4051,	 0.60772
	-0.36383,	 0.62239
	-0.31967,	 0.63284
	-0.27262,	 0.63819
	-0.24805,	 0.6386
	-0.22282,	 0.6373
	-0.19699,	 0.63407
	-0.17063,	 0.6287
	-0.14386,	 0.62095
	-0.11682,	 0.61053
	-0.089739,	 0.59713
	-0.062888,	 0.58043
	-0.049665,	 0.57073
	-0.036652,	 0.56007
	-0.023916,	 0.54841
	-0.011532,	 0.5357
	 0.00041431,	 0.52191
	 0.011826,	 0.50698
	 0.022595,	 0.4909
	 0.0326,	 0.47363
	 0.041707,	 0.45516
	 0.049767,	 0.43548
	 0.056619,	 0.4146
	 0.062089,	 0.39255
	 0.06599,	 0.36938
	 0.068126,	 0.34517
	 0.068295,	 0.32002
	 0.066292,	 0.29408
	 0.061914,	 0.26752
	 0.05497,	 0.24057
	 0.045285,	 0.21349
	 0.032716,	 0.18658
	 0.017153,	 0.16021
	-0.0014587,	 0.13475
	-0.023118,	 0.11061
	-0.047752,	 0.08825
	-0.075212,	 0.068078
	-0.10526,	 0.05053
	-0.13761,	 0.035999
	-0.17186,	 0.024829
	-0.20756,	 0.0173
	-0.24422,	 0.013609
	-0.2813,	 0.013864
	-0.31827,	 0.018076
	-0.3546,	 0.026162
	-0.38978,	 0.037947
	-0.42338,	 0.053182
	-0.455,	 0.07155
	-0.48432,	 0.092689
	-0.51111,	 0.1162
	-0.5352,	 0.1417
	-0.5565,	 0.16877
	-0.57498,	 0.19702
	-0.59065,	 0.2261
	-0.60361,	 0.25567
	-0.61395,	 0.28544
	-0.62181,	 0.31515
	-0.62736,	 0.34459
	-0.63074,	 0.37356
	-0.63215,	 0.40193
	-0.6297,	 0.4564
	-0.62132,	 0.50737
	-0.60821,	 0.55453
	-0.59139,	 0.59781
	-0.57172,	 0.6373
	-0.5499,	 0.67319
	-0.52648,	 0.7057
	-0.50192,	 0.73509
	-0.47013,	 0.76782
	-0.43761,	 0.79656
	-0.40473,	 0.82173
	-0.37176,	 0.84375
	-0.33889,	 0.86296
	-0.30624,	 0.87966
	-0.27392,	 0.89412
	-0.24197,	 0.90656
	-0.17936,	 0.92615
	-0.11856,	 0.93971
	-0.059578,	 0.94816
	-0.002381,	 0.95222
	 0.053094,	 0.95244
	 0.10691,	 0.94922
	 0.15914,	 0.94289
	 0.20983,	 0.93371
	 0.25903,	 0.92187
	 0.30677,	 0.90754
	 0.35309,	 0.89083
	 0.39799,	 0.87184
	 0.43721,	 0.85285
	 0.4753,	 0.83211
	 0.51227,	 0.80961
	 0.54811,	 0.78536
	 0.58281,	 0.75931
	 0.61635,	 0.73141
	 0.64871,	 0.70155
	 0.67985,	 0.66956
	 0.70968,	 0.63522
	 0.73807,	 0.59815
	 0.76481,	 0.55787
	 0.78945,	 0.51361
	 0.80078,	 0.48965
	 0.81124,	 0.46426
	 0.82062,	 0.43719
	 0.8286,	 0.4082
	 0.83474,	 0.37697
	 0.83838,	 0.34318
	 0.83853,	 0.3065
	 0.83376,	 0.26673
	 0.83074,	 0.25278
	 0.82684,	 0.23852
	 0.82197,	 0.22398
	 0.816,	 0.2092
	 0.8088,	 0.19425
	 0.80023,	 0.17924
	 0.79013,	 0.16428
	 0.77835,	 0.14954
	 0.76474,	 0.13525
	 0.74917,	 0.12167
	 0.73154,	 0.10914
	 0.71177,	 0.098059
	 0.6899,	 0.088888
	 0.66604,	 0.082147
	 0.64045,	 0.078386
	 0.61354,	 0.07815
	 0.5859,	 0.081928
	 0.55831,	 0.090087
	 0.53168,	 0.1028
	 0.507,	 0.11999
	 0.48528,	 0.1413
	 0.4674,	 0.16608
	 0.45404,	 0.19342
	 0.44562,	 0.22228
	 0.44329,	 0.23694
	 0.44221,	 0.25157
	 0.44233,	 0.26605
	 0.4436,	 0.28025
	 0.44597,	 0.29409
	 0.44935,	 0.30745
	 0.45366,	 0.32027
	 0.45883,	 0.33248
	 0.47135,	 0.35489
	 0.48618,	 0.37442
	 0.50267,	 0.39101
	 0.52022,	 0.40471
	 0.53835,	 0.41569
	 0.55664,	 0.42417
	 0.57479,	 0.43039
	 0.59257,	 0.4346
	 0.60982,	 0.43706
	 0.62644,	 0.43799
	 0.64235,	 0.43762
	 0.65752,	 0.43613
	 0.68562,	 0.43043
	 0.71083,	 0.42199
	 0.73336,	 0.41161
	 0.7535,	 0.39989
	 0.77151,	 0.38725
	 0.78766,	 0.37398
	 0.80217,	 0.36029
	 0.81525,	 0.34636
	 0.82707,	 0.33227
	 0.83778,	 0.31811
	 0.8475,	 0.30394
	 0.85635,	 0.28978
	 0.87179,	 0.26164
	 0.88466,	 0.23381
	 0.89542,	 0.20634
	 0.90439,	 0.17925
	 0.9118,	 0.15253
	 0.91786,	 0.12617
	 0.92271,	 0.10016
	 0.92647,	 0.074486
	 0.93024,	 0.036551
	 0.932,	-0.00071591
	 0.93192,	-0.037345
	 0.93015,	-0.073358
	 0.92678,	-0.10876
	 0.9219,	-0.14358
	 0.91558,	-0.1778
	 0.90788,	-0.21142
	 0.89883,	-0.24444
	 0.88847,	-0.27684
	 0.87684,	-0.30861
	 0.86395,	-0.33973
	 0.84983,	-0.37017
	 0.83448,	-0.39992
	 0.81792,	-0.42895
	 0.80016,	-0.45723
	 0.78118,	-0.48471
	 0.76099,	-0.51137
	 0.73958,	-0.53714
	 0.71694,	-0.56198
	 0.69305,	-0.58582
	 0.66791,	-0.60858
	 0.64148,	-0.63019
	 0.61377,	-0.65053
	 0.58473,	-0.66948
	 0.55438,	-0.68692
	 0.52269,	-0.70266
	 0.48968,	-0.71652
	 0.45538,	-0.72828
	 0.41984,	-0.73768
	 0.38316,	-0.74443
	 0.34548,	-0.74821
END
BEGIN
	 0.999923668000973431269073898875 ,	 -0 
	 0.999923668000970322644604948437 ,	 -1.03728133842712066936542214535e-08 
	 0.999923668000962884150339959888 ,	 -1.0372813357729937511209072909e-07 
	 0.999923668000220922102982967772 ,	 -1.03728133725965177003303097081e-06 
	 0.999923667926010395490266091656 ,	 -1.03728133710023068259076239883e-05 
	 0.999923667882166911091701422265 ,	 -1.30585983434110958212315267701e-05 
	 0.999923667812679162203437499556 ,	 -1.64398012945012744756567713011e-05 
	 0.999923667702548479851998308732 ,	 -2.06964836095713949903895922944e-05 
	 0.999923667528003989879437085619 ,	 -2.60553291407741860474800432712e-05 
	 0.999923667251369385766679442895 ,	 -3.28017159481348158367453038409e-05 
	 0.999923666812932987468798273767 ,	 -4.1294913717850392775865486783e-05 
	 0.99992366611805783005451075951 ,	 -5.19872161778428543144059403858e-05 
	 0.999923665016755336409914889373 ,	 -6.54480273761404857113532784751e-05 
	 0.999923663271308216238253407937 ,	 -8.23941844995818017949318345927e-05 
	 0.9999236605049615089768622056 ,	 -0.000103728132020029437110331116401 
	 0.999923656120598303154167751927 ,	 -0.000130585980060056450202665700999 
	 0.999923649171851280925693572499 ,	 -0.000164398006211234279372312983014 
	 0.999923638158835226263931872381 ,	 -0.000206964822658880706618411693398 
	 0.999923620704390891944512986811 ,	 -0.000260553264598881173519373533054 
	 0.999923593040986324886887359753 ,	 -0.000328017105989541687960375782041 
	 0.999923549197509697883390344941 ,	 -0.000412949030447683565481220568927 
	 0.999923479710445151091846582858 ,	 -0.000519871948824409541023428005246 
	 0.999923369581278587148176484334 ,	 -0.000654479848867595484507297953769 
	 0.999923195039340351186751831847 ,	 -0.000823940997230990929134364364472 
	 0.999922918411593086851496536838 ,	 -0.00103727962871930610988524534832 
	 0.999922479992647161850527481874 ,	 -0.00130585642575422461453271694154 
	 0.99992178516173413349577003828 ,	 -0.00164397332874512309974779356025 
	 0.999920683969865331519599749299 ,	 -0.00206963479281429933720470870639 
	 0.99991893880111171188929120035 ,	 -0.00260550584543423578709475663118 
	 0.999916173152993636996654913673 ,	 -0.00328011759634257681061964007085 
	 0.999911790543608347547888115514 ,	 -0.00412938366412740620603472052608 
	 0.999904846200369790132356229151 ,	 -0.00519850681848447668254031839297 
	 0.999893844231236728070655317424 ,	 -0.006544374490518756193324634296 
	 0.999876417486995516803460759547 ,	 -0.00823856503783778650051861092152 
	 0.999848823466864655706842768268 ,	 -0.0103711137389974391437297285279 
	 0.999805153502202781368168871268 ,	 -0.0130552175624289567429370251261 
	 0.999736099231609554038868736825 ,	 -0.0164330884296300140656743593581 
	 0.999627045257733382044307290926 ,	 -0.0206831915240479231876680188407 
	 0.999545095270590433500501603703 ,	 -0.0233813750219517210715558519496 
	 0.999452950695058572883056058345 ,	 -0.0260908071027255855645066162651 
	 0.999181557982877555090794885473 ,	 -0.0328279196459623501258562328076 
	 0.998756837013351939091876374732 ,	 -0.0412927508313832569708523578811 
	 0.998189711193974482661417368945 ,	 -0.0505374227012042182005657764421 
	 0.997360214719602344857207754103 ,	 -0.0617800719597024206031221638113 
	 0.996523723042455400467076742643 ,	 -0.0715043983826330331599052669844 
	 0.995488167459388284541432767583 ,	 -0.0821279681550130813416643604796 
	 0.99317896414976469809943182554 ,	 -0.102340323644523389923222111975 
	 0.990454584879518429296751946822 ,	 -0.122428380517759796686227957707 
	 0.98732,	-0.1424
	 0.98379,	-0.16226
	 0.977,	-0.19512
	 0.9691,	-0.22766
	 0.96007,	-0.25984
	 0.94993,	-0.29162
	 0.93869,	-0.32295
	 0.92639,	-0.35379
	 0.91303,	-0.3841
	 0.89866,	-0.41384
	 0.88331,	-0.44297
	 0.867,	-0.47146
	 0.84978,	-0.49928
	 0.83168,	-0.5264
	 0.81273,	-0.5528
	 0.79297,	-0.57845
	 0.77243,	-0.60334
	 0.75116,	-0.62744
	 0.72919,	-0.65074
	 0.70655,	-0.67324
	 0.68327,	-0.69491
	 0.65939,	-0.71576
	 0.63494,	-0.73576
	 0.60994,	-0.75491
	 0.58444,	-0.77322
	 0.55845,	-0.79066
	 0.53467,	-0.80563
	 0.51055,	-0.81989
	 0.48609,	-0.83345
	 0.46132,	-0.84631
	 0.43625,	-0.85845
	 0.41091,	-0.86989
	 0.38531,	-0.88063
	 0.35946,	-0.89065
	 0.33339,	-0.89996
	 0.3071,	-0.90856
	 0.28061,	-0.91645
	 0.25393,	-0.92362
	 0.22709,	-0.93008
	 0.20008,	-0.93582
	 0.17293,	-0.94085
	 0.14564,	-0.94515
	 0.11823,	-0.94874
	 0.090714,	-0.9516
	 0.063096,	-0.95373
	 0.03539,	-0.95513
	 0.0076089,	-0.95579
	-0.020236,	-0.95571
	-0.048133,	-0.95489
	-0.07607,	-0.95331
	-0.10403,	-0.95098
	-0.13201,	-0.94788
	-0.15999,	-0.944
	-0.18795,	-0.93934
	-0.21589,	-0.93389
	-0.24379,	-0.92763
	-0.27162,	-0.92056
	-0.29937,	-0.91267
	-0.32703,	-0.90394
