CITIFILE A.01.01
#Momentum: B.12.070 (*) built: Feb 13 2020 
#Momentum Date and Time: Tue Aug 16 11:27:46 2022

NAME Momentum.SP

#  mode: MW    reference: S_50

#eesof Port[1] P1
#eesof Port[2] P2

CONSTANT NBR_OF_PORTS 2

CONSTANT NORMALIZATION 1

VAR freq MAG 535

DATA S[1,1] RI
DATA S[1,2] RI
DATA S[2,1] RI
DATA S[2,2] RI
DATA PORTZ[1] RI
DATA PORTZ[2] RI

VAR_LIST_BEGIN
	 0
	 9.215443759
	 92.15443759
	 921.5443759
	 9215.443759
	 11601.55633
	 14605.49408
	 18387.22765
	 23148.14814
	 29141.79193
	 36687.3424
	 46186.62764
	 58145.51922
	 73200.87173
	 92154.43759
	 116015.5633
	 146054.9408
	 183872.2765
	 231481.4814
	 291417.9193
	 366873.424
	 461866.2764
	 581455.1922
	 732008.7173
	 921544.3759
	 1160155.633
	 1460549.408
	 1838722.765
	 2314814.814
	 2914179.193
	 3668734.24
	 4618662.764
	 5814551.922
	 7320087.173
	 9215443.759
	 11601556.33
	 14605494.08
	 18387227.65
	 23148148.14
	 26172452.29
	 29210988.16
	 36774455.29
	 46296296.27
	 56722633.4
	 69444444.41
	 80487143.18
	 92592592.55
	 111882716
	 131172839.4
	 150462962.9
	 169753086.3
	 193865740.6
	 217978394.9
	 242091049.2
	 266203703.5
	 290316357.9
	 314429012.2
	 338541666.5
	 362654320.8
	 386766975.1
	 410879629.4
	 434992283.7
	 459104938
	 483217592.4
	 507330246.7
	 531442901
	 555555555.3
	 572916666.4
	 590277777.5
	 607638888.6
	 624999999.7
	 642361110.8
	 659722221.9
	 677083333
	 694444444.1
	 711805555.2
	 729166666.3
	 746527777.5
	 763888888.6
	 781249999.7
	 798611110.8
	 815972221.9
	 833333333
	 850694444.1
	 868055555.2
	 885416666.3
	 902777777.4
	 920138888.5
	 937499999.6
	 954861110.7
	 972222221.8
	 989583332.9
	 1006944444
	 1024305555
	 1041666666
	 1059027777
	 1076388888
	 1093750000
	 1111111111
	 1128472222
	 1145833333
	 1163194444
	 1180555555
	 1197916666
	 1215277777
	 1232638888
	 1249999999
	 1284722222
	 1319444444
	 1354166666
	 1388888888
	 1423611111
	 1458333333
	 1493055555
	 1527777777
	 1562499999
	 1597222222
	 1631944444
	 1666666666
	 1692708333
	 1718749999
	 1744791666
	 1770833333
	 1796874999
	 1822916666
	 1848958333
	 1875000000
	 1901041666
	 1927083333
	 1953125000
	 1979166666
	 2005208333
	 2031250000
	 2057291666
	 2083333333
	 2109375000
	 2135416666
	 2161458333
	 2187500000
	 2213541666
	 2239583333
	 2265625000
	 2291666666
	 2317708333
	 2343750000
	 2369791667
	 2395833333
	 2421875000
	 2447916667
	 2473958333
	 2500000000
	 2526041667
	 2552083333
	 2578125000
	 2604166667
	 2630208333
	 2656250000
	 2682291667
	 2708333333
	 2734375000
	 2760416667
	 2786458333
	 2812500000
	 2838541667
	 2864583333
	 2890625000
	 2916666666
	 2942708333
	 2968750000
	 2994791666
	 3020833333
	 3046875000
	 3072916666
	 3098958333
	 3125000000
	 3151041666
	 3177083333
	 3203125000
	 3229166666
	 3255208333
	 3281250000
	 3307291666
	 3333333333
	 3359375000
	 3385416666
	 3411458333
	 3437500000
	 3463541666
	 3489583333
	 3515625000
	 3541666666
	 3567708333
	 3593750000
	 3619791666
	 3645833333
	 3671875000
	 3697916666
	 3723958333
	 3750000000
	 3776041666
	 3802083333
	 3828124999
	 3854166666
	 3880208333
	 3906249999
	 3932291666
	 3958333333
	 3984374999
	 4010416666
	 4036458333
	 4062499999
	 4088541666
	 4114583333
	 4140624999
	 4166666666
	 4192708333
	 4218749999
	 4244791666
	 4270833333
	 4296874999
	 4322916666
	 4348958333
	 4375000000
	 4401041666
	 4427083333
	 4453125000
	 4479166666
	 4505208333
	 4531250000
	 4557291666
	 4583333333
	 4609375000
	 4635416666
	 4661458333
	 4687500000
	 4713541666
	 4739583333
	 4765625000
	 4791666666
	 4817708333
	 4843750000
	 4869791667
	 4895833333
	 4921875000
	 4947916667
	 4973958333
	 5000000000
	 5026041667
	 5052083333
	 5078125000
	 5104166667
	 5130208333
	 5156250000
	 5182291667
	 5208333333
	 5234375000
	 5260416667
	 5286458333
	 5312500000
	 5338541667
	 5364583333
	 5390625000
	 5416666667
	 5442708333
	 5468750000
	 5494791667
	 5520833333
	 5546875000
	 5572916667
	 5598958333
	 5625000000
	 5651041667
	 5677083333
	 5703125000
	 5729166667
	 5755208333
	 5781250000
	 5807291667
	 5833333334
	 5859375000
	 5885416667
	 5911458334
	 5937500000
	 5963541667
	 5989583334
	 6015625000
	 6041666667
	 6067708334
	 6093750000
	 6119791667
	 6145833334
	 6171875000
	 6197916667
	 6223958334
	 6250000000
	 6276041667
	 6302083334
	 6328125000
	 6354166667
	 6380208334
	 6406250000
	 6432291667
	 6458333334
	 6484375000
	 6510416667
	 6536458334
	 6562500000
	 6588541667
	 6614583334
	 6640625000
	 6666666667
	 6697530865
	 6728395062
	 6759259260
	 6790123457
	 6820987655
	 6851851852
	 6882716050
	 6913580247
	 6944444445
	 6975308642
	 7006172840
	 7037037037
	 7052469136
	 7067901235
	 7083333334
	 7098765432
	 7114197531
	 7129629630
	 7145061729
	 7160493828
	 7175925926
	 7191358025
	 7206790124
	 7222222223
	 7237654321
	 7253086420
	 7268518519
	 7283950618
	 7299382716
	 7314814815
	 7330246914
	 7345679013
	 7361111111
	 7376543210
	 7391975309
	 7407407408
	 7422839507
	 7438271605
	 7453703704
	 7469135803
	 7484567902
	 7500000000
	 7515432099
	 7530864198
	 7546296297
	 7561728395
	 7577160494
	 7592592593
	 7608024692
	 7623456790
	 7638888889
	 7654320988
	 7669753087
	 7685185186
	 7700617284
	 7716049383
	 7731481482
	 7746913580
	 7762345679
	 7777777778
	 7793209877
	 7808641976
	 7824074074
	 7839506173
	 7854938272
	 7870370370
	 7885802469
	 7901234568
	 7916666667
	 7932098766
	 7947530864
	 7962962963
	 7978395062
	 7993827160
	 8009259259
	 8024691358
	 8040123457
	 8055555556
	 8070987654
	 8086419753
	 8101851852
	 8117283950
	 8132716049
	 8148148148
	 8159722222
	 8171296296
	 8182870370
	 8194444444
	 8206018518
	 8217592593
	 8229166667
	 8240740741
	 8252314815
	 8263888889
	 8275462963
	 8287037037
	 8298611111
	 8310185185
	 8321759259
	 8333333334
	 8344907408
	 8356481482
	 8368055556
	 8379629630
	 8391203704
	 8402777778
	 8414351852
	 8425925926
	 8437500000
	 8449074074
	 8460648149
	 8472222223
	 8483796297
	 8495370371
	 8506944445
	 8518518519
	 8526234568
	 8533950618
	 8541666667
	 8549382716
	 8557098766
	 8564814815
	 8572530865
	 8580246914
	 8587962963
	 8595679013
	 8603395062
	 8611111112
	 8618827161
	 8626543210
	 8634259260
	 8641975309
	 8649691358
	 8657407408
	 8665123457
	 8672839506
	 8680555556
	 8688271605
	 8695987655
	 8703703704
	 8711419753
	 8719135803
	 8726851852
	 8734567902
	 8742283951
	 8750000000
	 8757716050
	 8765432099
	 8773148148
	 8780864198
	 8788580247
	 8796296296
	 8804012346
	 8811728395
	 8819444445
	 8827160494
	 8834876543
	 8842592593
	 8850308642
	 8858024692
	 8865740741
	 8873456790
	 8881172840
	 8888888889
	 8900462963
	 8912037037
	 8923611111
	 8935185185
	 8946759259
	 8958333333
	 8969907407
	 8981481482
	 8993055556
	 9004629630
	 9016203704
	 9027777778
	 9039351852
	 9050925926
	 9062500000
	 9074074074
	 9085648148
	 9097222222
	 9108796296
	 9120370370
	 9131944444
	 9143518518
	 9155092592
	 9166666666
	 9189814815
	 9212962963
	 9236111111
	 9259259259
	 9282407407
	 9305555555
	 9328703704
	 9351851852
	 9375000000
	 9398148148
	 9421296296
	 9444444444
	 9467592593
	 9490740741
	 9513888889
	 9537037037
	 9560185185
	 9583333334
	 9606481482
	 9629629630
	 9652777778
	 9675925926
	 9699074074
	 9722222222
	 9745370371
	 9768518519
	 9791666667
	 9814814815
	 9837962963
	 9861111111
	 9884259259
	 9907407408
	 9930555556
	 9953703704
	 9976851852
	 1e+10
VAR_LIST_END

BEGIN
	 6.90763401999999938516913711162e-05 ,	 -0 
	 6.90763401999999938516913711162e-05 ,	 -2.11684759000000000229918356543e-09 
	 6.90763401999999938516913711162e-05 ,	 -2.11684623999999998554826815102e-08 
	 6.90763401000000023827879447325e-05 ,	 -2.11684629999999987232564666213e-07 
	 6.90763318000000057323914393059e-05 ,	 -2.11684630000000003114432427231e-06 
	 6.90763269000000036277817083707e-05 ,	 -2.66495158999999983589265090123e-06 
	 6.90763191999999964483872294529e-05 ,	 -3.35497528000000017907962154839e-06 
	 6.90763069000000022286747669575e-05 ,	 -4.22366361999999964183319378641e-06 
	 6.90762873999999988316664256693e-05 ,	 -5.31727745000000004567917988307e-06 
	 6.9076256500000005750239395752e-05 ,	 -6.69405565999999966437725151813e-06 
	 6.9076207499999998256669242469e-05 ,	 -8.42731669999999978136907136106e-06 
	 6.90761297999999997329276246738e-05 ,	 -1.06093629999999992052049646585e-05 
	 6.90760068000000033256943754445e-05 ,	 -1.33563964000000002114434613509e-05 
	 6.90758117999999964606652747001e-05 ,	 -1.68147061999999997529767203908e-05 
	 6.90755027000000064148557687993e-05 ,	 -2.11684597999999997148916353051e-05 
	 6.90750128e-05 ,	 -2.66495095e-05 
	 6.90742364e-05 ,	 -3.354974e-05 
	 6.90730059e-05 ,	 -4.22366107e-05 
	 6.90710555e-05 ,	 -5.31727236e-05 
	 6.90679643e-05 ,	 -6.69404552e-05 
	 6.90630647e-05 ,	 -8.42729647e-05 
	 6.90552983e-05 ,	 -0.000106093226 
	 6.90429869e-05 ,	 -0.000133563158 
	 6.90234686e-05 ,	 -0.000168145455 
	 6.89925186e-05 ,	 -0.000211681392 
	 6.89434274e-05 ,	 -0.000266488701 
	 6.88655255e-05 ,	 -0.000335484648 
	 6.87418147e-05 ,	 -0.000422340682 
	 6.85451334e-05 ,	 -0.000531676565 
	 6.82318811e-05 ,	 -0.000669303633 
	 6.7731581e-05 ,	 -0.000842528864 
	 6.69291341e-05 ,	 -0.00106053346 
	 6.56337776e-05 ,	 -0.00133484154 
	 6.35229856e-05 ,	 -0.00167989579 
	 6.00377855e-05 ,	 -0.00211375774 
	 5.41828178e-05 ,	 -0.00265895198 
	 4.41427676e-05 ,	 -0.00334348399 
	 2.6564228e-05 ,	 -0.0042020964 
	 -4.70942668e-06 ,	 -0.00527791288 
	 -3.05065529e-05 ,	 -0.00595848623 
	 -6.14183865e-05 ,	 -0.00664024073 
	 -0.000161276332 ,	 -0.00832968385 
	-0.00033489,	-0.010445
	-0.00058597,	-0.012749
	-0.00097599,	-0.015548
	-0.0013865,	-0.017966
	-0.0019109,	-0.020604
	-0.002903,	-0.024775
	-0.0040819,	-0.0289
	-0.005443,	-0.03297
	-0.0069819,	-0.036977
	-0.0091493,	-0.041888
	-0.01158,	-0.046677
	-0.014266,	-0.051331
	-0.017198,	-0.055839
	-0.020369,	-0.060189
	-0.023769,	-0.064369
	-0.027389,	-0.068371
	-0.03122,	-0.072183
	-0.035251,	-0.075796
	-0.039472,	-0.079201
	-0.043873,	-0.082389
	-0.048443,	-0.085352
	-0.053169,	-0.088082
	-0.058041,	-0.090573
	-0.063047,	-0.092817
	-0.068173,	-0.094809
	-0.071932,	-0.096083
	-0.075743,	-0.097223
	-0.0796,	-0.098225
	-0.083498,	-0.099088
	-0.087434,	-0.099812
	-0.091402,	-0.10039
	-0.095396,	-0.10083
	-0.099413,	-0.10113
	-0.10344,	-0.10128
	-0.10749,	-0.10129
	-0.11154,	-0.10116
	-0.11559,	-0.10088
	-0.11964,	-0.10046
	-0.12368,	-0.0999
	-0.12771,	-0.099191
	-0.13172,	-0.09834
	-0.13571,	-0.097346
	-0.13967,	-0.096212
	-0.1436,	-0.094937
	-0.14749,	-0.093524
	-0.15133,	-0.091974
	-0.15513,	-0.090288
	-0.15888,	-0.088468
	-0.16258,	-0.086516
	-0.16621,	-0.084434
	-0.16977,	-0.082224
	-0.17327,	-0.079889
	-0.17669,	-0.07743
	-0.18004,	-0.074852
	-0.1833,	-0.072155
	-0.18648,	-0.069344
	-0.18957,	-0.06642
	-0.19257,	-0.063388
	-0.19547,	-0.060251
	-0.19827,	-0.057011
	-0.20096,	-0.053672
	-0.20355,	-0.050238
	-0.20603,	-0.046712
	-0.2084,	-0.043098
	-0.21065,	-0.0394
	-0.21479,	-0.031767
	-0.21843,	-0.023845
	-0.22157,	-0.015667
	-0.22417,	-0.0072679
	-0.22623,	 0.0013169
	-0.22773,	 0.010052
	-0.22866,	 0.018899
	-0.22903,	 0.027822
	-0.22881,	 0.036783
	-0.22802,	 0.045744
	-0.22664,	 0.054667
	-0.22469,	 0.063513
	-0.22284,	 0.070074
	-0.22068,	 0.076555
	-0.2182,	 0.082939
	-0.21541,	 0.08921
	-0.21231,	 0.095354
	-0.2089,	 0.10135
	-0.2052,	 0.10719
	-0.20122,	 0.11286
	-0.19695,	 0.11834
	-0.19241,	 0.12361
	-0.18761,	 0.12867
	-0.18256,	 0.1335
	-0.17726,	 0.13809
	-0.17174,	 0.14242
	-0.16599,	 0.14647
	-0.16004,	 0.15025
	-0.1539,	 0.15374
	-0.14758,	 0.15692
	-0.14109,	 0.15978
	-0.13446,	 0.16233
	-0.12769,	 0.16454
	-0.12081,	 0.16641
	-0.11383,	 0.16794
	-0.10676,	 0.1691
	-0.099636,	 0.16991
	-0.092458,	 0.17035
	-0.085252,	 0.17042
	-0.078036,	 0.17012
	-0.07083,	 0.16944
	-0.063654,	 0.16838
	-0.056527,	 0.16694
	-0.049469,	 0.16513
	-0.0425,	 0.16294
	-0.035641,	 0.16037
	-0.028913,	 0.15743
	-0.022334,	 0.15412
	-0.015926,	 0.15046
	-0.0097095,	 0.14644
	-0.0037035,	 0.14207
	 0.0020718,	 0.13736
	 0.0075968,	 0.13233
	 0.012852,	 0.12698
	 0.01782,	 0.12133
	 0.022481,	 0.11538
	 0.026818,	 0.10916
	 0.030814,	 0.10268
	 0.034452,	 0.095956
	 0.037717,	 0.089003
	 0.040594,	 0.081843
	 0.043069,	 0.074495
	 0.045129,	 0.066979
	 0.046763,	 0.059318
	 0.047959,	 0.051532
	 0.048708,	 0.043647
	 0.049001,	 0.035684
	 0.048831,	 0.027669
	 0.048192,	 0.019626
	 0.04708,	 0.011581
	 0.045492,	 0.0035609
	 0.043426,	-0.0044092
	 0.040882,	-0.012303
	 0.03786,	-0.020092
	 0.034365,	-0.027752
	 0.0304,	-0.035254
	 0.025972,	-0.042573
	 0.021087,	-0.049681
	 0.015755,	-0.056553
	 0.0099866,	-0.063162
	 0.0037934,	-0.069485
	-0.0028107,	-0.075495
	-0.0098109,	-0.081169
	-0.017191,	-0.086484
	-0.024932,	-0.091418
	-0.033016,	-0.095948
	-0.041423,	-0.10005
	-0.05013,	-0.10372
	-0.059115,	-0.10692
	-0.068354,	-0.10965
	-0.077823,	-0.11188
	-0.087496,	-0.11361
	-0.097346,	-0.11482
	-0.10734,	-0.1155
	-0.11747,	-0.11564
	-0.12768,	-0.11523
	-0.13797,	-0.11427
	-0.14829,	-0.11275
	-0.15862,	-0.11067
	-0.16892,	-0.10802
	-0.17918,	-0.10481
	-0.18935,	-0.10104
	-0.19942,	-0.096718
	-0.20935,	-0.091834
	-0.21911,	-0.086404
	-0.22867,	-0.080434
	-0.23802,	-0.073934
	-0.24711,	-0.066916
	-0.25593,	-0.05939
	-0.26445,	-0.051371
	-0.27264,	-0.042874
	-0.28049,	-0.033914
	-0.28796,	-0.024509
	-0.29504,	-0.014676
	-0.3017,	-0.0044367
	-0.30793,	 0.0061904
	-0.31371,	 0.017184
	-0.31902,	 0.028521
	-0.32384,	 0.040181
	-0.32817,	 0.052138
	-0.33197,	 0.06437
	-0.33526,	 0.076851
	-0.338,	 0.089558
	-0.3402,	 0.10246
	-0.34184,	 0.11554
	-0.34292,	 0.12877
	-0.34343,	 0.14212
	-0.34337,	 0.15556
	-0.34273,	 0.16908
	-0.34151,	 0.18264
	-0.33972,	 0.19622
	-0.33734,	 0.20979
	-0.33439,	 0.22333
	-0.33086,	 0.2368
	-0.32676,	 0.2502
	-0.3221,	 0.26348
	-0.31688,	 0.27663
	-0.31111,	 0.28963
	-0.30479,	 0.30244
	-0.29793,	 0.31505
	-0.29055,	 0.32744
	-0.28266,	 0.33957
	-0.27427,	 0.35144
	-0.26539,	 0.36302
	-0.25603,	 0.3743
	-0.24621,	 0.38524
	-0.23594,	 0.39584
	-0.22525,	 0.40608
	-0.21414,	 0.41593
	-0.20263,	 0.4254
	-0.19074,	 0.43445
	-0.17849,	 0.44308
	-0.1659,	 0.45127
	-0.15299,	 0.45901
	-0.13976,	 0.46629
	-0.12626,	 0.4731
	-0.11249,	 0.47943
	-0.098473,	 0.48526
	-0.08423,	 0.4906
	-0.069784,	 0.49544
	-0.055154,	 0.49976
	-0.040361,	 0.50357
	-0.025427,	 0.50686
	-0.010372,	 0.50963
	 0.004783,	 0.51187
	 0.020017,	 0.51358
	 0.035309,	 0.51477
	 0.050639,	 0.51543
	 0.065986,	 0.51557
	 0.08133,	 0.51518
	 0.096652,	 0.51427
	 0.11193,	 0.51284
	 0.12714,	 0.5109
	 0.14228,	 0.50846
	 0.15732,	 0.50551
	 0.17224,	 0.50207
	 0.18702,	 0.49814
	 0.20166,	 0.49374
	 0.21613,	 0.48887
	 0.23041,	 0.48353
	 0.24449,	 0.47775
	 0.25836,	 0.47153
	 0.272,	 0.46488
	 0.2854,	 0.45782
	 0.29855,	 0.45035
	 0.31143,	 0.44249
	 0.32404,	 0.43425
	 0.33636,	 0.42565
	 0.34838,	 0.41669
	 0.3601,	 0.4074
	 0.37151,	 0.39778
	 0.3826,	 0.38785
	 0.39336,	 0.37762
	 0.4038,	 0.36711
	 0.4139,	 0.35632
	 0.42367,	 0.34528
	 0.43309,	 0.334
	 0.44218,	 0.32248
	 0.45092,	 0.31074
	 0.45932,	 0.29879
	 0.46738,	 0.28665
	 0.4751,	 0.27432
	 0.48247,	 0.26181
	 0.48952,	 0.24913
	 0.49743,	 0.2339
	 0.50488,	 0.21845
	 0.51187,	 0.20279
	 0.51842,	 0.18694
	 0.52452,	 0.17089
	 0.53018,	 0.15466
	 0.5354,	 0.13823
	 0.5402,	 0.1216
	 0.54458,	 0.10478
	 0.54853,	 0.087752
	 0.55206,	 0.0705
	 0.55516,	 0.053015
	 0.55655,	 0.04418
	 0.55783,	 0.035281
	 0.559,	 0.026315
	 0.56006,	 0.017279
	 0.56101,	 0.0081723
	 0.56184,	-0.0010093
	 0.56255,	-0.010268
	 0.56314,	-0.019607
	 0.5636,	-0.029029
	 0.56394,	-0.038538
	 0.56415,	-0.048135
	 0.56422,	-0.057824
	 0.56414,	-0.067609
	 0.56393,	-0.077492
	 0.56356,	-0.087476
	 0.56304,	-0.097564
	 0.56235,	-0.10775
	 0.56149,	-0.11806
	 0.56045,	-0.12847
	 0.55923,	-0.139
	 0.55781,	-0.14965
	 0.55618,	-0.16042
	 0.55435,	-0.1713
	 0.55229,	-0.18231
	 0.55,	-0.19343
	 0.54746,	-0.20468
	 0.54467,	-0.21605
	 0.5416,	-0.22755
	 0.53826,	-0.23916
	 0.53462,	-0.25089
	 0.53067,	-0.26274
	 0.52639,	-0.2747
	 0.52177,	-0.28677
	 0.5168,	-0.29895
	 0.51146,	-0.31123
	 0.50573,	-0.3236
	 0.4996,	-0.33605
	 0.49304,	-0.34858
	 0.48604,	-0.36118
	 0.47859,	-0.37384
	 0.47065,	-0.38653
	 0.46222,	-0.39926
	 0.45327,	-0.41201
	 0.44379,	-0.42475
	 0.43376,	-0.43747
	 0.42314,	-0.45016
	 0.41194,	-0.46278
	 0.40012,	-0.47532
	 0.38768,	-0.48774
	 0.37458,	-0.50003
	 0.36081,	-0.51215
	 0.34636,	-0.52408
	 0.33121,	-0.53577
	 0.31534,	-0.54718
	 0.29874,	-0.55829
	 0.28139,	-0.56905
	 0.26329,	-0.57942
	 0.24442,	-0.58935
	 0.22478,	-0.59879
	 0.20436,	-0.60768
	 0.18315,	-0.61599
	 0.16117,	-0.62364
	 0.13841,	-0.63058
	 0.11488,	-0.63675
	 0.09059,	-0.64209
	 0.065554,	-0.64652
	 0.039795,	-0.64999
	 0.013337,	-0.65242
	-0.01379,	-0.65373
	-0.041547,	-0.65387
	-0.069893,	-0.65275
	-0.098777,	-0.65031
	-0.12075,	-0.64756
	-0.14298,	-0.644
	-0.16542,	-0.63959
	-0.18805,	-0.6343
	-0.21082,	-0.6281
	-0.23371,	-0.62098
	-0.25667,	-0.61289
	-0.27967,	-0.60383
	-0.30265,	-0.59375
	-0.32557,	-0.58265
	-0.34838,	-0.57051
	-0.37103,	-0.5573
	-0.39346,	-0.54301
	-0.41561,	-0.52763
	-0.43744,	-0.51116
	-0.45887,	-0.49359
	-0.47984,	-0.47492
	-0.50029,	-0.45515
	-0.52016,	-0.43429
	-0.53936,	-0.41235
	-0.55785,	-0.38935
	-0.57555,	-0.3653
	-0.59239,	-0.34024
	-0.60831,	-0.31419
	-0.62323,	-0.2872
	-0.6371,	-0.2593
	-0.64984,	-0.23053
	-0.6614,	-0.20095
	-0.67171,	-0.17061
	-0.68072,	-0.13958
	-0.68838,	-0.10792
	-0.69462,	-0.075702
	-0.69798,	-0.053944
	-0.70068,	-0.031992
	-0.70271,	-0.0098701
	-0.70405,	 0.012398
	-0.70469,	 0.034786
	-0.70463,	 0.05727
	-0.70386,	 0.079821
	-0.70236,	 0.10241
	-0.70014,	 0.12502
	-0.69717,	 0.14761
	-0.69347,	 0.17015
	-0.68901,	 0.19263
	-0.6838,	 0.21499
	-0.67784,	 0.23722
	-0.67111,	 0.25927
	-0.66362,	 0.28112
	-0.65536,	 0.30273
	-0.64634,	 0.32406
	-0.63655,	 0.34506
	-0.626,	 0.3657
	-0.61468,	 0.38592
	-0.60261,	 0.40568
	-0.58979,	 0.42491
	-0.57624,	 0.44356
	-0.56197,	 0.46155
	-0.54701,	 0.47882
	-0.53141,	 0.49526
	-0.51523,	 0.5108
	-0.49854,	 0.52535
	-0.48145,	 0.53881
	-0.46411,	 0.55109
	-0.44668,	 0.56214
	-0.42939,	 0.57193
	-0.41247,	 0.58048
	-0.39618,	 0.5879
	-0.38077,	 0.59436
	-0.36643,	 0.60015
	-0.35327,	 0.60562
	-0.34127,	 0.61113
	-0.33029,	 0.61706
	-0.32006,	 0.62369
	-0.31024,	 0.6312
	-0.30047,	 0.63962
	-0.29044,	 0.6489
	-0.27988,	 0.65886
	-0.2686,	 0.6693
	-0.25653,	 0.68001
	-0.24362,	 0.69077
	-0.22275,	 0.70664
	-0.20026,	 0.72175
	-0.17641,	 0.73581
	-0.15149,	 0.74862
	-0.12576,	 0.7601
	-0.099427,	 0.7702
	-0.072685,	 0.77895
	-0.045691,	 0.78636
	-0.018572,	 0.79248
	 0.0085632,	 0.79736
	 0.035628,	 0.80106
	 0.062548,	 0.80363
	 0.089261,	 0.80511
	 0.11571,	 0.80558
	 0.14186,	 0.80507
	 0.16767,	 0.80364
	 0.19311,	 0.80133
	 0.21815,	 0.79819
	 0.24277,	 0.79426
	 0.26694,	 0.78959
	 0.29066,	 0.78421
	 0.3139,	 0.77817
	 0.33666,	 0.77151
	 0.35892,	 0.76425
	 0.40194,	 0.74809
	 0.44292,	 0.72997
	 0.48185,	 0.71012
	 0.51872,	 0.68875
	 0.55355,	 0.66609
	 0.58637,	 0.6423
	 0.61723,	 0.61755
	 0.64617,	 0.59201
	 0.67324,	 0.5658
	 0.69849,	 0.53905
	 0.722,	 0.51188
	 0.74382,	 0.48438
	 0.76401,	 0.45666
	 0.78264,	 0.42878
	 0.79977,	 0.40083
	 0.81547,	 0.37287
	 0.8298,	 0.34496
	 0.84281,	 0.31715
	 0.85457,	 0.28948
	 0.86514,	 0.262
	 0.87457,	 0.23474
	 0.88292,	 0.20773
	 0.89023,	 0.181
	 0.89656,	 0.15458
	 0.90196,	 0.12848
	 0.90646,	 0.10272
	 0.91012,	 0.077318
	 0.91298,	 0.05228
	 0.91508,	 0.027621
	 0.91645,	 0.0033478
	 0.91714,	-0.020532
	 0.91717,	-0.044013
	 0.91658,	-0.067091
	 0.91541,	-0.089764
	 0.91368,	-0.11202
	 0.91142,	-0.13388
END
BEGIN
	 0.999930923659761106137011665851 ,	 -0 
	 0.999930923659762105337733828492 ,	 -9.53720663554591396859905216843e-09 
	 0.999930923659753778665049139818 ,	 -9.53720688812165207082216511481e-08 
	 0.99993092365894187256714076284 ,	 -9.53720687757453333688317798078e-07 
	 0.999930923577683650194103393005 ,	 -9.53720686994175004258522676537e-06 
