CITIFILE A.01.01
#Momentum: B.12.070 (*) built: Feb 13 2020 
#Momentum Date and Time: Sun Aug 14 10:55:21 2022

NAME Momentum.SP

#  mode: MW    reference: S_50

#eesof Port[1] P1
#eesof Port[2] P2

CONSTANT NBR_OF_PORTS 2

CONSTANT NORMALIZATION 1

VAR freq MAG 280

DATA S[1,1] RI
DATA S[1,2] RI
DATA S[2,1] RI
DATA S[2,2] RI
DATA PORTZ[1] RI
DATA PORTZ[2] RI

VAR_LIST_BEGIN
	 0
	 9.215443759
	 92.15443759
	 921.5443759
	 9215.443759
	 11601.55633
	 14605.49408
	 18387.22765
	 23148.14814
	 29141.79193
	 36687.3424
	 46186.62764
	 58145.51922
	 73200.87173
	 92154.43759
	 116015.5633
	 146054.9408
	 183872.2765
	 231481.4814
	 291417.9193
	 366873.424
	 461866.2764
	 581455.1922
	 732008.7173
	 921544.3759
	 1160155.633
	 1460549.408
	 1838722.765
	 2314814.814
	 2914179.193
	 3668734.24
	 4618662.764
	 5814551.922
	 7320087.173
	 9215443.759
	 11601556.33
	 14605494.08
	 18387227.65
	 23148148.14
	 26172452.29
	 29210988.16
	 36774455.29
	 46296296.27
	 56722633.4
	 69444444.41
	 80487143.18
	 92592592.55
	 106550056.4
	 121527777.7
	 150462962.9
	 179398148.1
	 208333333.2
	 237268518.4
	 266203703.6
	 295138888.8
	 324074073.9
	 353009259.1
	 381944444.3
	 410879629.4
	 439814814.6
	 468749999.8
	 497685185
	 526620370.1
	 555555555.3
	 590277777.5
	 624999999.7
	 659722221.9
	 694444444.1
	 729166666.3
	 763888888.6
	 798611110.8
	 833333333
	 868055555.2
	 902777777.4
	 937499999.6
	 972222221.8
	 1006944444
	 1041666666
	 1076388888
	 1111111111
	 1145833333
	 1180555555
	 1215277777
	 1249999999
	 1284722222
	 1319444444
	 1354166666
	 1388888888
	 1423611111
	 1458333333
	 1493055555
	 1527777777
	 1562499999
	 1597222222
	 1631944444
	 1666666666
	 1718749999
	 1770833333
	 1822916666
	 1874999999
	 1927083333
	 1979166666
	 2031249999
	 2083333333
	 2135416666
	 2187499999
	 2239583333
	 2291666666
	 2343749999
	 2395833333
	 2447916666
	 2500000000
	 2552083333
	 2604166666
	 2656250000
	 2708333333
	 2760416666
	 2812500000
	 2864583333
	 2916666666
	 2968750000
	 3020833333
	 3072916666
	 3125000000
	 3177083333
	 3229166666
	 3281250000
	 3333333333
	 3385416666
	 3437500000
	 3489583333
	 3541666666
	 3593750000
	 3645833333
	 3697916666
	 3750000000
	 3802083333
	 3854166666
	 3906250000
	 3958333333
	 4010416666
	 4062500000
	 4114583333
	 4166666666
	 4218750000
	 4270833333
	 4322916667
	 4375000000
	 4427083333
	 4479166667
	 4531250000
	 4583333333
	 4635416667
	 4687500000
	 4739583333
	 4791666667
	 4843750000
	 4895833333
	 4947916667
	 5000000000
	 5052083333
	 5104166667
	 5156250000
	 5208333333
	 5260416667
	 5312500000
	 5364583333
	 5416666667
	 5468750000
	 5520833333
	 5572916667
	 5625000000
	 5677083333
	 5729166667
	 5781250000
	 5833333334
	 5885416667
	 5937500000
	 5989583334
	 6041666667
	 6093750000
	 6145833334
	 6197916667
	 6250000000
	 6302083334
	 6354166667
	 6406250000
	 6458333334
	 6510416667
	 6562500000
	 6614583334
	 6666666667
	 6718750000
	 6770833334
	 6822916667
	 6875000000
	 6927083334
	 6979166667
	 7031250000
	 7083333334
	 7135416667
	 7187500000
	 7239583334
	 7291666667
	 7343750000
	 7395833334
	 7447916667
	 7500000000
	 7552083334
	 7604166667
	 7656250001
	 7708333334
	 7760416667
	 7812500001
	 7864583334
	 7916666667
	 7968750001
	 8020833334
	 8072916667
	 8125000001
	 8177083334
	 8229166667
	 8281250001
	 8333333334
	 8385416667
	 8437500001
	 8489583334
	 8541666667
	 8593750001
	 8645833334
	 8697916667
	 8750000000
	 8776041667
	 8802083334
	 8828125000
	 8854166667
	 8880208334
	 8906250000
	 8932291667
	 8958333334
	 8984375000
	 9010416667
	 9036458334
	 9062500000
	 9088541667
	 9114583334
	 9140625000
	 9166666667
	 9192708334
	 9218750000
	 9244791667
	 9270833334
	 9296875000
	 9322916667
	 9348958334
	 9375000000
	 9401041667
	 9427083334
	 9453125000
	 9479166667
	 9505208334
	 9531250000
	 9557291667
	 9583333334
	 9609375000
	 9635416667
	 9661458333
	 9687500000
	 9713541667
	 9739583333
	 9765625000
	 9791666667
	 9817708333
	 9843750000
	 9869791667
	 9895833333
	 9921875000
	 9947916667
	 9973958333
	 1e+10
VAR_LIST_END

BEGIN
	 0.999999999999996003197111349436 ,	 -0 
	 0.999999999999995448085599036858 ,	 -2.78441625312098040012642741203e-09 
	 0.999999999999995115018691649311 ,	 -2.7844157535206193188059842214e-08 
	 0.99999999999992872368181906495 ,	 -2.78441579792954030381224583834e-07 
	 0.999999999993307908674466943921 ,	 -2.78441579659727267426205798984e-06 
	 0.999999999989395704780292817304 ,	 -3.50537180299204109701349807438e-06 
	 0.999999999983196219410785943182 ,	 -4.41300164055746790836565196514e-06 
	 0.999999999973369746442131145159 ,	 -5.55563990689567077652100124396e-06 
	 0.999999999957796426031109149335 ,	 -6.99413625704359276369359577075e-06 
	 0.999999999933114502859154981707 ,	 -8.80509586570488167467374296393e-06 
	 0.999999999893996571742604828614 ,	 -1.1084958936313782373872527387e-05 
	 0.99999999983199805431155482438 ,	 -1.39551364885526218984068691498e-05 
	 0.999999999733736100182568407035 ,	 -1.75684759396443901380280294688e-05 
	 0.999999999578003118116953373828 ,	 -2.21174007863367272364030213794e-05 
	 0.999999999331183331285899384966 ,	 -2.78441578499544206692917214241e-05 
	 0.999999998939998246960669803229 ,	 -3.50537178031573581904467573622e-05 
	 0.999999998320013627761682073469 ,	 -4.41300159516599954656612680992e-05 
	 0.999999997337403967456737063912 ,	 -5.55563981680662344331267377129e-05 
	 0.999999995780072259421444869076 ,	 -6.99413607699872486023195961025e-05 
	 0.999999993311870172263411404856 ,	 -8.80509550715280475685631245142e-05 
	 0.99999998940003775871332436509 ,	 -0.000110849582200034380008446532884 
	 0.99999998320020888620263121993 ,	 -0.000139551350586797351382983833901 
	 0.99999997337416623999217790697 ,	 -0.000175684730868652660973339152406 
	 0.99999995780099859565837050468 ,	 -0.000221173950933573060240178165259 
	 0.999999933119336659181897175586 ,	 -0.000278441464915291092552251939196 
	 0.999999894001908140594991891703 ,	 -0.000350536951399804674878168953001 
	 0.999999832005891708952560748003 ,	 -0.000441299707334308344286455394467 
	 0.999999733751159025629817733716 ,	 -0.000555563079489562738899621763267 
	 0.999999578033760272433028148953 ,	 -0.000699411807692840170602721627802 
	 0.999999331253028422850093193119 ,	 -0.000880505959517330349939356892719 
	 0.999998940168874916878394287778 ,	 -0.00110848865761858927925231910194 
	 0.999998320435028342778593923867 ,	 -0.00139549921417830846692709201307 
	 0.999997338455933304501854763657 ,	 -0.00175681880287015257380289767752 
	 0.999995782708225089407960695098 ,	 -0.00221168266391802426085178012727 
	 0.999993318479361237294256170571 ,	 -0.00278430132604362556847377163649 
	 0.999989416609836312410664049821 ,	 -0.00350514371513610534236704552313 
	 0.999983241742046891076256542874 ,	 -0.0044125475236798661349268968479 
	 0.999973478133726612071541239857 ,	 -0.0055547369013354552791383866861 
	 0.99995806075163717885345704417 ,	 -0.00699234416436778083436820452334 
	 0.999946476979747811419940717315 ,	 -0.00790533987540265048465926156496 
	 0.999933454441806812695858752704 ,	 -0.0088224327079667874684787420847 
	 0.999895116815880502514346517273 ,	 -0.0111042496109774457835328576039 
	 0.999835190439385845806441466266 ,	 -0.0139745325148119547975511522964 
	 0.999755355477510487816061868216 ,	 -0.017113967368682037051286215501 
	 0.999639087095594569554179997795 ,	 -0.0209390345033958480414071345876 
	 0.999522577705413417525903696514 ,	 -0.024253978563760880682309561962 
	 0.99937952793418682873038960679 ,	 -0.0278822229790858244768969598226 
	 0.999196297573532454805445013335 ,	 -0.0320582617945759928979043706931 
	 0.998979673538141654809408009896 ,	 -0.0365313591410500460021637536556 
	 0.998508036759142236782338386547 ,	 -0.0451517112787108709781591642241 
	 0.997971844164327825943416883092 ,	 -0.0537494398904249104376162904373 
	 0.997373794245940747948964144598 ,	 -0.0623300612233212425472572704166 
	 0.996713888001879211309130823793 ,	 -0.0708976164115376339402985195193 
	 0.995990829607697025771528842597 ,	 -0.079454674788331403068042391169 
	 0.995202874711861973366922029527 ,	 -0.0880026347053901036865397600195 
	 0.994348269320212807542702648789 ,	 -0.0965420545551307629494885986787 
	 0.993425443392900398009714990621 ,	 -0.105072921852604195258606978314 
	 0.992433075218883020696125640825 ,	 -0.11359484733675878631586897427 
	 0.991370094791736322648034729355 ,	 -0.122107197266953959591262446338 
	 0.990235662235882219128768610972 ,	 -0.130609181265211204969745040216 
	 0.98902,	-0.13909
	 0.98775,	-0.14757
	 0.98639,	-0.15604
	 0.98497,	-0.16449
	 0.98316,	-0.17461
	 0.98125,	-0.18471
	 0.97923,	-0.19478
	 0.97711,	-0.20483
	 0.97488,	-0.21484
	 0.97255,	-0.22483
	 0.97012,	-0.23478
	 0.96758,	-0.24471
	 0.96495,	-0.25459
	 0.96221,	-0.26445
	 0.95937,	-0.27426
	 0.95643,	-0.28404
	 0.95339,	-0.29377
	 0.95026,	-0.30347
	 0.94703,	-0.31312
	 0.9437,	-0.32273
	 0.94027,	-0.3323
	 0.93675,	-0.34182
	 0.93314,	-0.3513
	 0.92944,	-0.36073
	 0.92564,	-0.37012
	 0.92175,	-0.37945
	 0.91777,	-0.38874
	 0.9137,	-0.39797
	 0.90955,	-0.40716
	 0.9053,	-0.41629
	 0.90097,	-0.42537
	 0.89655,	-0.4344
	 0.89204,	-0.44338
	 0.88745,	-0.4523
	 0.88277,	-0.46116
	 0.87802,	-0.46997
	 0.87072,	-0.48307
	 0.86324,	-0.49604
	 0.85558,	-0.50888
	 0.84775,	-0.52158
	 0.83973,	-0.53414
	 0.83155,	-0.54656
	 0.82319,	-0.55883
	 0.81467,	-0.57096
	 0.80598,	-0.58294
	 0.79713,	-0.59477
	 0.78812,	-0.60645
	 0.77895,	-0.61797
	 0.76963,	-0.62933
	 0.76016,	-0.64054
	 0.75055,	-0.65158
	 0.74079,	-0.66246
	 0.73089,	-0.67317
	 0.72086,	-0.68372
	 0.71069,	-0.6941
	 0.70038,	-0.70431
	 0.68995,	-0.71434
	 0.6794,	-0.7242
	 0.66873,	-0.73389
	 0.65793,	-0.7434
	 0.64702,	-0.75274
	 0.636,	-0.76189
	 0.62487,	-0.77087
	 0.61364,	-0.77966
	 0.6023,	-0.78828
	 0.59087,	-0.79671
	 0.57934,	-0.80495
	 0.56772,	-0.81302
	 0.55601,	-0.82089
	 0.54421,	-0.82858
	 0.53233,	-0.83609
	 0.52037,	-0.84341
	 0.50834,	-0.85054
	 0.49623,	-0.85748
	 0.48406,	-0.86423
	 0.47181,	-0.8708
	 0.45951,	-0.87717
	 0.44714,	-0.88336
	 0.43472,	-0.88936
	 0.42224,	-0.89516
	 0.40971,	-0.90078
	 0.39713,	-0.90621
	 0.38451,	-0.91145
	 0.37185,	-0.9165
	 0.35914,	-0.92137
	 0.3464,	-0.92604
	 0.33363,	-0.93053
	 0.32083,	-0.93482
	 0.308,	-0.93893
	 0.29514,	-0.94285
	 0.28226,	-0.94659
	 0.26937,	-0.95014
	 0.25645,	-0.9535
	 0.24352,	-0.95668
	 0.23058,	-0.95967
	 0.21764,	-0.96248
	 0.20468,	-0.96511
	 0.19172,	-0.96755
	 0.17876,	-0.96981
	 0.16581,	-0.97189
	 0.15285,	-0.97379
	 0.13991,	-0.97551
	 0.12697,	-0.97705
	 0.11404,	-0.97841
	 0.10113,	-0.97959
	 0.088232,	-0.9806
	 0.075351,	-0.98143
	 0.06249,	-0.98209
	 0.049651,	-0.98258
	 0.036837,	-0.98289
	 0.024049,	-0.98303
	 0.01129,	-0.983
	-0.0014391,	-0.98281
	-0.014135,	-0.98244
	-0.026797,	-0.98191
	-0.039421,	-0.98121
	-0.052008,	-0.98035
	-0.064554,	-0.97932
	-0.077057,	-0.97813
	-0.089517,	-0.97678
	-0.10193,	-0.97526
	-0.11429,	-0.97359
	-0.12661,	-0.97176
	-0.13887,	-0.96978
	-0.15109,	-0.96763
	-0.16324,	-0.96534
	-0.17535,	-0.96289
	-0.18739,	-0.96029
	-0.19938,	-0.95754
	-0.2113,	-0.95463
	-0.22316,	-0.95158
	-0.23496,	-0.94839
	-0.2467,	-0.94504
	-0.25836,	-0.94156
	-0.26996,	-0.93792
	-0.28149,	-0.93415
	-0.29295,	-0.93024
	-0.30433,	-0.92618
	-0.31565,	-0.92199
	-0.32689,	-0.91766
	-0.33805,	-0.9132
	-0.34913,	-0.9086
	-0.36014,	-0.90386
	-0.37106,	-0.899
	-0.38191,	-0.894
	-0.39267,	-0.88887
	-0.40335,	-0.88362
	-0.41395,	-0.87823
	-0.42446,	-0.87273
	-0.43488,	-0.86709
	-0.44522,	-0.86133
	-0.45547,	-0.85545
	-0.46563,	-0.84945
	-0.47569,	-0.84333
	-0.48567,	-0.83709
	-0.49555,	-0.83073
	-0.50534,	-0.82426
	-0.51503,	-0.81767
	-0.52463,	-0.81097
	-0.53414,	-0.80415
	-0.54354,	-0.79722
	-0.55285,	-0.79018
	-0.56205,	-0.78303
	-0.57116,	-0.77578
	-0.58017,	-0.76841
	-0.58907,	-0.76094
	-0.59787,	-0.75336
	-0.60657,	-0.74568
	-0.61517,	-0.7379
	-0.62366,	-0.73002
	-0.63204,	-0.72203
	-0.64031,	-0.71395
	-0.64441,	-0.70987
	-0.64848,	-0.70576
	-0.65253,	-0.70164
	-0.65654,	-0.69748
	-0.66053,	-0.69331
	-0.66449,	-0.68911
	-0.66843,	-0.68488
	-0.67233,	-0.68063
	-0.67621,	-0.67636
	-0.68006,	-0.67207
	-0.68389,	-0.66775
	-0.68768,	-0.66341
	-0.69145,	-0.65904
	-0.69519,	-0.65466
	-0.6989,	-0.65024
	-0.70258,	-0.64581
	-0.70624,	-0.64136
	-0.70986,	-0.63688
	-0.71346,	-0.63238
	-0.71703,	-0.62785
	-0.72057,	-0.62331
	-0.72408,	-0.61874
	-0.72756,	-0.61415
	-0.73101,	-0.60954
	-0.73443,	-0.60491
	-0.73783,	-0.60026
	-0.74119,	-0.59558
	-0.74452,	-0.59089
	-0.74783,	-0.58617
	-0.75111,	-0.58143
	-0.75435,	-0.57667
	-0.75757,	-0.57189
	-0.76075,	-0.56709
	-0.76391,	-0.56227
	-0.76703,	-0.55743
	-0.77013,	-0.55257
	-0.77319,	-0.54769
	-0.77623,	-0.54279
	-0.77923,	-0.53786
	-0.7822,	-0.53292
	-0.78515,	-0.52796
	-0.78806,	-0.52298
	-0.79094,	-0.51798
	-0.79379,	-0.51296
	-0.79661,	-0.50792
	-0.79939,	-0.50286
	-0.80215,	-0.49778
	-0.80487,	-0.49269
END
BEGIN
	 1.00831084999999996134137271549e-17 ,	 0 
	 2.91650384000000000917757886289e-17 ,	 7.53325353000000029623712813857e-13 
	 2.58040116999999998104722807849e-17 ,	 7.53327619000000012925244176112e-12 
	 4.91143584000000017275844163671e-17 ,	 7.53327833999999975478552387976e-11 
	 2.35163450999999989211830698114e-15 ,	 7.5332781199999997570341469063e-10 
	 3.71285034000000030691025502216e-15 ,	 9.48383529000000052332242591355e-10 
	 5.86813583999999989692384187111e-15 ,	 1.19394412000000006690163045976e-09 
	 9.29247998000000067506338361215e-15 ,	 1.50308658999999993355785852817e-09 
	 1.47043834999999994907248118675e-14 ,	 1.89227390999999996557164378048e-09 
	 2.32932162999999993570134772523e-14 ,	 2.38223170999999991738435826288e-09 
	 3.69039651000000016821447303854e-14 ,	 2.99905203000000004623957674383e-09 
	 5.84790463000000049405198899664e-14 ,	 3.77558280000000038017317471732e-09 
	 9.26692533000000029836254649863e-14 ,	 4.7531771300000001599401937074e-09 
	 1.46856810999999992048089230629e-13 ,	 5.98389545999999961279027562702e-09 
	 2.32734405000000017385830658753e-13 ,	 7.53327800999999947381512285446e-09 
	 3.68843953e-13 ,	 9.48383504e-09 
	 5.84563105e-13 ,	 1.19394408e-08 
	 9.26455418e-13 ,	 1.50308651e-08 
	 1.46832123e-12 ,	 1.89227373e-08 
	 2.32712786e-12 ,	 2.38223136e-08 
	 3.68824329e-12 ,	 2.99905133e-08 
	 5.84547309e-12 ,	 3.77558142e-08 
	 9.26449217e-12 ,	 4.75317436e-08 
	 1.46833374e-11 ,	 5.98388992e-08 
	 2.3271835e-11 ,	 7.53326697e-08 
	 3.68841631e-11 ,	 9.48381301e-08 
	 5.84594838e-11 ,	 1.19393968e-07 
	 9.26571255e-11 ,	 1.50307774e-07 
	 1.46864457e-10 ,	 1.89225624e-07 
	 2.32796631e-10 ,	 2.38219648e-07 
	 3.69038437e-10 ,	 2.99898179e-07 
	 5.85088476e-10 ,	 3.7754428e-07 
	 9.27807715e-10 ,	 4.75289822e-07 
	 1.47173522e-09 ,	 5.98334039e-07 
	 2.33566903e-09 ,	 7.53217497e-07 
	 3.70949453e-09 ,	 9.48164806e-07 
	 5.8979647e-09 ,	 1.19351198e-06 
	 9.39282033e-09 ,	 1.50223726e-06 
	 1.49924897e-08 ,	 1.89061745e-06 
	 1.92608661e-08 ,	 2.13714397e-06 
	 2.41178133e-08 ,	 2.38467077e-06 
	 3.87415356e-08 ,	 3.00005322e-06 
	 6.24338531e-08 ,	 3.77309936e-06 
	 9.52827968e-08 ,	 4.61724709e-06 
	 1.4521749e-07 ,	 5.64364103e-06 
	 1.97286887e-07 ,	 6.53103334e-06 
	 2.63539656e-07 ,	 7.49963307e-06 
	 3.51584675e-07 ,	 8.61032429e-06 
	 4.59587339e-07 ,	 9.79401885e-06 
	 7.06265633e-07 ,	 1.20527632e-05 
	 1.00017214e-06 ,	 1.42678133e-05 
	 1.33749983e-06 ,	 1.64311455e-05 
	 1.71395593e-06 ,	 1.85349172e-05 
	 2.12472055e-06 ,	 2.05715313e-05 
	 2.56443286e-06 ,	 2.25336753e-05 
	 3.02719232e-06 ,	 2.44143535e-05 
	 3.50656815e-06 ,	 2.62069166e-05 
	 3.99561369e-06 ,	 2.79050898e-05 
	 4.48688397e-06 ,	 2.95030006e-05 
	 4.97245558e-06 ,	 3.09952054e-05 
	 5.44394849e-06 ,	 3.23767149e-05 
	 5.89254928e-06 ,	 3.3643019e-05 
	 6.30903585e-06 ,	 3.47901098e-05 
	 6.68380322e-06 ,	 3.5814504e-05 
	 7.06440628e-06 ,	 3.68777195e-05 
	 7.35274184e-06 ,	 3.77560487e-05 
	 7.53037052e-06 ,	 3.84467036e-05 
	 7.57831811e-06 ,	 3.894815e-05 
	 7.47715127e-06 ,	 3.92601419e-05 
	 7.20705474e-06 ,	 3.93837521e-05 
	 6.74790981e-06 ,	 3.93213978e-05 
	 6.07937369e-06 ,	 3.90768622e-05 
	 5.18095952e-06 ,	 3.86553105e-05 
	 4.03211673e-06 ,	 3.80633022e-05 
	 2.61231145e-06 ,	 3.73087984e-05 
	 9.01106725e-07 ,	 3.6401165e-05 
	 -1.12175767e-06 ,	 3.53511712e-05 
	 -3.47628618e-06 ,	 3.41709841e-05 
	 -6.18214924e-06 ,	 3.28741588e-05 
	 -9.25860618e-06 ,	 3.1475625e-05 
	 -1.27244295e-05 ,	 2.99916695e-05 
	 -1.65978303e-05 ,	 2.84399147e-05 
	 -2.08963861e-05 ,	 2.68392943e-05 
	 -2.56369693e-05 ,	 2.52100249e-05 
	 -3.08356785e-05 ,	 2.35735746e-05 
	 -3.65077715e-05 ,	 2.19526288e-05 
	 -4.26676002e-05 ,	 2.03710529e-05 
	 -4.93285481e-05 ,	 1.88538522e-05 
	 -5.65029695e-05 ,	 1.7427129e-05 
	 -6.42021319e-05 ,	 1.61180383e-05 
	 -7.24361595e-05 ,	 1.49547396e-05 
	 -8.12139807e-05 ,	 1.39663482e-05 
	 -9.05432761e-05 ,	 1.31828833e-05 
	 -0.000100430431 ,	 1.26352152e-05 
	 -0.000110880489 ,	 1.23550099e-05 
	 -0.000121897109 ,	 1.23746726e-05 
	 -0.000139488823 ,	 1.3038968e-05 
	 -0.000158361292 ,	 1.45667838e-05 
	 -0.000178508144 ,	 1.70750303e-05 
	 -0.000199915082 ,	 2.06828255e-05 
	 -0.000222559666 ,	 2.55110075e-05 
	 -0.000246411126 ,	 3.16816374e-05 
	 -0.000271430202 ,	 3.93174919e-05 
	 -0.000297569008 ,	 4.85415489e-05 
	 -0.000324770928 ,	 5.94764656e-05 
	 -0.00035297053 ,	 7.22440506e-05 
	 -0.000382093516 ,	 8.69647306e-05 
	 -0.000412056692 ,	 0.000103757013 
	 -0.000442767967 ,	 0.000122736944 
	 -0.000474126376 ,	 0.000144017568 
	 -0.000506022136 ,	 0.000167708379 
	 -0.000538336716 ,	 0.000193914779 
	 -0.000570942948 ,	 0.000222737535 
	 -0.000603705152 ,	 0.000254272236 
	 -0.000636479289 ,	 0.00028860876 
	 -0.000669113141 ,	 0.000325830744 
	 -0.000701446502 ,	 0.000366015065 
	 -0.000733311398 ,	 0.000409231326 
	 -0.00076453231 ,	 0.000455541363 
	 -0.000794926406 ,	 0.000504998754 
	 -0.000824303772 ,	 0.000557648356 
	 -0.00085246762 ,	 0.000613525835 
	 -0.000879214471 ,	 0.000672657221 
	 -0.000904334271 ,	 0.000735058443 
	 -0.000927610428 ,	 0.000800734846 
	 -0.000948819717 ,	 0.000869680641 
	 -0.000967732016 ,	 0.000941878235 
	 -0.00098410981 ,	 0.00101729732 
	 -0.000997707426 ,	 0.00109589357 
	 -0.00100826997 ,	 0.00117760663 
	 -0.00101553203 ,	 0.00126235705 
	 -0.00101921647 ,	 0.00135004141 
	 -0.00101903403 ,	 0.00144052492 
	 -0.00101468528 ,	 0.00153363037 
	 -0.00100586827 ,	 0.00162912324 
	 -0.00099229675 ,	 0.00172669412 
	 -0.00097373585 ,	 0.00182594511 
	 -0.000950058754 ,	 0.00192639548 
	 -0.000921314044 ,	 0.00202753108 
	 -0.000887764203 ,	 0.0021289163 
	 -0.000849831724 ,	 0.00223034426 
	 -0.00080792209 ,	 0.00233193122 
	 -0.000762201672 ,	 0.00243405027 
	 -0.00071248606 ,	 0.00253711518 
	 -0.000658313842 ,	 0.00264136148 
	 -0.000599124227 ,	 0.00274675644 
	 -0.000534409427 ,	 0.00285303951 
	 -0.000463784481 ,	 0.00295981554 
	 -0.000386990933 ,	 0.00306663629 
	 -0.000303871245 ,	 0.00317304934 
	 -0.000214339288 ,	 0.00327861967 
	 -0.000118357086 ,	 0.0033829351 
	 -1.59193813e-05 ,	 0.00348560466 
	 9.29555928e-05 ,	 0.00358625454 
	 0.000208231199 ,	 0.00368452415 
	 0.000329854967 ,	 0.00378006284 
	 0.000457759746 ,	 0.00387252763 
	 0.000591864109 ,	 0.00396158176 
	 0.000732072389 ,	 0.00404689381 
	 0.000878274584 ,	 0.00412813739 
	 0.00103034622 ,	 0.00420499108 
	 0.00118814828 ,	 0.00427713868 
	 0.00135152711 ,	 0.0043442696 
	 0.00152031451 ,	 0.00440607932 
	 0.00169432782 ,	 0.00446226996 
	 0.00187337003 ,	 0.00451255089 
	 0.0020572301 ,	 0.00455663929 
	 0.00224568313 ,	 0.00459426082 
	 0.00243849074 ,	 0.00462515019 
	 0.00263540143 ,	 0.00464905175 
	 0.00283615092 ,	 0.00466572012 
	 0.00304046261 ,	 0.00467492068 
	 0.00324804802 ,	 0.00467643016 
	 0.00345860722 ,	 0.00467003711 
	 0.00367182932 ,	 0.00465554247 
	 0.00388739296 ,	 0.00463275997 
	 0.00410496681 ,	 0.00460151663 
	 0.00432421009 ,	 0.00456165322 
	 0.00454477306 ,	 0.00451302466 
	 0.00476629758 ,	 0.00445550047 
