CITIFILE A.01.01
#Momentum: B.12.070 (*) built: Feb 13 2020 
#Momentum Date and Time: Sun Aug 14 20:53:56 2022

NAME Momentum.SP

#  mode: MW    reference: S_50

#eesof Port[1] P1
#eesof Port[2] P2

CONSTANT NBR_OF_PORTS 2

CONSTANT NORMALIZATION 1

VAR freq MAG 159

DATA S[1,1] RI
DATA S[1,2] RI
DATA S[2,1] RI
DATA S[2,2] RI
DATA PORTZ[1] RI
DATA PORTZ[2] RI

VAR_LIST_BEGIN
	 0
	 8.254652041
	 82.54652041
	 825.4652041
	 8254.652041
	 10391.99122
	 13082.74183
	 16470.19614
	 20734.74846
	 26103.50174
	 32862.36168
	 41371.26221
	 52083.33331
	 65569.03184
	 82546.52041
	 103919.9122
	 130827.4183
	 164701.9614
	 207347.4846
	 261035.0174
	 328623.6168
	 413712.6221
	 520833.3331
	 655690.3184
	 825465.2041
	 1039199.122
	 1308274.183
	 1647019.614
	 2073474.846
	 2610350.174
	 3286236.168
	 4137126.221
	 5208333.331
	 6556903.184
	 8254652.041
	 10391991.22
	 13082741.83
	 16470196.14
	 20734748.46
	 26103501.74
	 32862361.68
	 41371262.21
	 52083333.31
	 58888017.66
	 65724723.36
	 82742524.42
	 104166666.6
	 127625925.2
	 156249999.9
	 181096072.2
	 208333333.2
	 260416666.6
	 312499999.9
	 364583333.2
	 416666666.5
	 468749999.8
	 520833333.1
	 572916666.4
	 624999999.8
	 677083333.1
	 729166666.4
	 781249999.7
	 833333333
	 885416666.3
	 937499999.6
	 989583332.9
	 1041666666
	 1093750000
	 1145833333
	 1197916666
	 1250000000
	 1302083333
	 1354166666
	 1406249999
	 1458333333
	 1510416666
	 1562499999
	 1614583333
	 1666666666
	 1770833333
	 1874999999
	 1979166666
	 2083333333
	 2187499999
	 2291666666
	 2395833333
	 2500000000
	 2604166666
	 2708333333
	 2812500000
	 2916666666
	 3020833333
	 3125000000
	 3229166666
	 3333333333
	 3437500000
	 3541666666
	 3645833333
	 3750000000
	 3854166666
	 3958333333
	 4062500000
	 4166666666
	 4270833333
	 4375000000
	 4479166667
	 4583333333
	 4687500000
	 4791666667
	 4895833333
	 5000000000
	 5104166667
	 5208333333
	 5312500000
	 5416666667
	 5520833333
	 5625000000
	 5729166667
	 5833333334
	 5937500000
	 6041666667
	 6145833334
	 6250000000
	 6354166667
	 6458333334
	 6562500000
	 6666666667
	 6770833334
	 6875000000
	 6979166667
	 7083333334
	 7187500000
	 7291666667
	 7395833334
	 7500000000
	 7604166667
	 7708333334
	 7812500001
	 7916666667
	 8020833334
	 8125000001
	 8229166667
	 8333333334
	 8437500001
	 8541666667
	 8645833334
	 8750000000
	 8854166667
	 8958333334
	 9062500000
	 9166666667
	 9270833334
	 9375000000
	 9479166667
	 9583333334
	 9687500000
	 9791666667
	 9895833333
	 1e+10
VAR_LIST_END

BEGIN
	 0.999999999999998445687765524781 ,	 -0 
	 0.999999999999998889776975374843 ,	 -2.32218771989423089507909025997e-09 
	 0.999999999999998667732370449812 ,	 -2.32218799189887192824244266376e-08 
	 0.999999999999968247621495720523 ,	 -2.32218803741801593787386082113e-07 
	 0.999999999996976418614735848678 ,	 -2.32218803930539507973662693985e-06 
	 0.999999999995208610492625211918 ,	 -2.92346153335509839621408900712e-06 
	 0.999999999992407850868403329514 ,	 -3.68042001530621831761891371571e-06 
	 0.99999999998796829103753225354 ,	 -4.63337428335819367930525913835e-06 
	 0.999999999980932252618970323965 ,	 -5.83307262713717022961645852774e-06 
	 0.999999999969779507225098313938 ,	 -7.34340335839522850847060908563e-06 
	 0.99999999995210486769536828433 ,	 -9.24479709729641996318605379201e-06 
	 0.999999999924092386471841109596 ,	 -1.16385099923621559980801976053e-05 
	 0.999999999879696344073920499795 ,	 -1.46520159839402808188424387481e-05 
	 0.999999999809332296152319941029 ,	 -1.84457952558947368970621027984e-05 
	 0.999999999697811392529445129185 ,	 -2.32218803852823896249901736155e-05 
	 0.99999999952106488620984237059 ,	 -2.92346153224487537158893246669e-05 
	 0.999999999240940296019175548281 ,	 -3.68042001246959848970163875492e-05 
	 0.999999998796972322523401999206 ,	 -4.63337427795140754938074678648e-05 
	 0.999999998093330955128976711421 ,	 -5.83307261728949200119132001419e-05 
	 0.99999999697813302113047484454 ,	 -7.3434033394437214781191869406e-05 
	 0.999999995210664849309978308156 ,	 -9.244797058721720972584989795e-05 
	 0.99999999240941650491265590972 ,	 -0.000116385099154459048520493524848 
	 0.999999987969737658133340119093 ,	 -0.000146520158306906456147089556907 
	 0.999999980933320209430803515716 ,	 -0.000184457949489347239335756967193 
	 0.99999996978135141656451878589 ,	 -0.000232218797740768589932258691988 
	 0.999999952106674472318559310224 ,	 -0.000292346141023747119191966703511 
	 0.999999924094203684887816052651 ,	 -0.000368041976899602385486787170521 
	 0.999999879697445526183230413153 ,	 -0.000463337379219386225059906792012 
	 0.999999809333361300289766404603 ,	 -0.000583307164806090572284347217646 
	 0.999999697813891863518165337155 ,	 -0.000734340140571942967540053359699 
	 0.999999521067669761009710782673 ,	 -0.000924479320041637908644815979642 
	 0.999999240944349887527664577647 ,	 -0.00116385022171294760795490219607 
	 0.999998796980228088493447557994 ,	 -0.00146520004707373363572742164251 
	 0.99999809334808031913155446091 ,	 -0.00184457643023705486484686844051 
	 0.999996978175238249164635817579 ,	 -0.00232218186275395810369559512765 
	 0.99999521076789421591968221037 ,	 -0.00292344921037268612451498484006 
	 0.999992409672534998676951545349 ,	 -0.00368039542855363999152018550376 
	 0.999987970377472112915029356373 ,	 -0.00463332523131315676678809722944 
	 0.999980934925211562003255494346 ,	 -0.00583297477119165685977009161434 
	 0.999969785379011710801933077164 ,	 -0.00734320815782091296242128919403 
	 0.999952116782461875033050091588 ,	 -0.00924440776819768217364980955608 
	 0.999924119567955127507730139769 ,	 -0.0116377336460739555512589049613 
	 0.999879761055868288011083677702 ,	 -0.0146504684437647192396525497315 
	 0.999846312764954947560624987091 ,	 -0.0165640657918161848805027602793 
	 0.999808587728537201400058620493 ,	 -0.0184864891304319933773570028279 
	 0.999696779745073427214663297491 ,	 -0.0232708393210532826778091930464 
	 0.999519795754230222506464542676 ,	 -0.0292917460893943326638577673293 
	 0.999279886222054103406264857767 ,	 -0.0358810775467555687079368453851 
	 0.998922268299334947805334650184 ,	 -0.0439150962917845832933494421013 
	 0.998554458506453301858130089386 ,	 -0.0508824312559976732472932781093 
	 0.998090505516829540333390013984 ,	 -0.0585126118144486118133329455304 
	 0.997028642821011557018096027605 ,	 -0.0730774551594297050449711150577 
	 0.995741237395040723612282818067 ,	 -0.0876039439790747276326499104471 
	 0.994232913901954340474276250461 ,	 -0.102087496933684684918830498646 
	 0.992508087091908519639105179522 ,	 -0.116524479101822397986154555838 
	 0.990570779805220125169284983713 ,	 -0.1309119942110049672479021865 
	 0.98842,	-0.14524
	 0.98607,	-0.15952
	 0.98351,	-0.17375
	 0.98076,	-0.18792
	 0.9778,	-0.20203
	 0.97465,	-0.21607
	 0.9713,	-0.23006
	 0.96775,	-0.24398
	 0.96401,	-0.25783
	 0.96008,	-0.2716
	 0.95596,	-0.28531
	 0.95165,	-0.29894
	 0.94715,	-0.31249
	 0.94247,	-0.32596
	 0.9376,	-0.33935
	 0.93254,	-0.35264
	 0.92731,	-0.36585
	 0.92189,	-0.37897
	 0.9163,	-0.39199
	 0.91052,	-0.40492
	 0.90458,	-0.41774
	 0.89846,	-0.43047
	 0.89217,	-0.44308
	 0.87908,	-0.46799
	 0.86534,	-0.49245
	 0.85096,	-0.51644
	 0.83596,	-0.53994
	 0.82035,	-0.56294
	 0.80417,	-0.58542
	 0.78742,	-0.60737
	 0.77012,	-0.62876
	 0.75231,	-0.64959
	 0.73399,	-0.66984
	 0.7152,	-0.68951
	 0.69594,	-0.70858
	 0.67625,	-0.72704
	 0.65614,	-0.74489
	 0.63564,	-0.76211
	 0.61477,	-0.7787
	 0.59354,	-0.79465
	 0.57199,	-0.80995
	 0.55013,	-0.82461
	 0.52799,	-0.83861
	 0.50557,	-0.85196
	 0.48292,	-0.86465
	 0.46004,	-0.87668
	 0.43696,	-0.88805
	 0.4137,	-0.89875
	 0.39027,	-0.9088
	 0.36671,	-0.91818
	 0.34302,	-0.92691
	 0.31922,	-0.93498
	 0.29534,	-0.9424
	 0.2714,	-0.94917
	 0.2474,	-0.95529
	 0.22337,	-0.96077
	 0.19932,	-0.96561
	 0.17528,	-0.96981
	 0.15126,	-0.9734
	 0.12726,	-0.97636
	 0.10332,	-0.9787
	 0.079446,	-0.98043
	 0.055644,	-0.98157
	 0.031935,	-0.9821
	 0.0083304,	-0.98205
	-0.015155,	-0.98142
	-0.038509,	-0.98022
	-0.061719,	-0.97845
	-0.084773,	-0.97612
	-0.10766,	-0.97324
	-0.13036,	-0.96982
	-0.15288,	-0.96587
	-0.1752,	-0.96139
	-0.19731,	-0.9564
	-0.2192,	-0.9509
	-0.24086,	-0.94489
	-0.26229,	-0.9384
	-0.28347,	-0.93142
	-0.30439,	-0.92397
	-0.32505,	-0.91606
	-0.34544,	-0.90768
	-0.36555,	-0.89886
	-0.38538,	-0.8896
	-0.40491,	-0.8799
	-0.42415,	-0.86979
	-0.44308,	-0.85925
	-0.4617,	-0.84831
	-0.48,	-0.83697
	-0.49798,	-0.82524
	-0.51563,	-0.81312
	-0.53294,	-0.80063
	-0.54992,	-0.78777
	-0.56655,	-0.77455
	-0.58284,	-0.76098
	-0.59876,	-0.74707
	-0.61433,	-0.73281
	-0.62954,	-0.71823
	-0.64438,	-0.70333
	-0.65884,	-0.6881
	-0.67293,	-0.67257
	-0.68664,	-0.65674
	-0.69997,	-0.64062
	-0.71291,	-0.6242
END
BEGIN
	 2.85514985999999982498632043613e-18 ,	 0 
	 3.39138440000000009319819205433e-16 ,	 2.35492180999999994062414910869e-13 
	 3.46944695000000015704401322668e-16 ,	 2.35497384999999981041630330424e-12 
	 3.52582546000000007137799778277e-16 ,	 2.3549818300000000549074714546e-11 
	 1.67617655999999998178393728842e-15 ,	 2.35498106999999987467984814785e-10 
	 2.44075593000000018530072145569e-15 ,	 2.96474545999999985913636770183e-10 
	 3.65332764000000017295888691367e-15 ,	 3.73239349000000000790999404567e-10 
	 5.62007037999999976397538146685e-15 ,	 4.69880503000000022524613753881e-10 
	 8.70007190999999983828542385592e-15 ,	 5.91544496999999959473865799035e-10 
	 1.35698743999999997533252187513e-14 ,	 7.44710436000000025085280674057e-10 
	 2.12850571000000001240435233364e-14 ,	 9.37534865999999971091819912761e-10 
	 3.35209290999999987487826521396e-14 ,	 1.18028646000000001420544231101e-09 
	 5.29181733000000007726436450414e-14 ,	 1.48589260999999996808215589931e-09 
	 8.37099487000000035568785836153e-14 ,	 1.87062797999999987465758556409e-09 
	 1.32438330999999992884985600213e-13 ,	 2.35498105999999983013310476693e-09 
	 2.09718527e-13 ,	 2.96474547e-09 
	 3.32227735e-13 ,	 3.73239336e-09 
	 5.2629472e-13 ,	 4.69880469e-09 
	 8.33899356e-13 ,	 5.9154443e-09 
	 1.3214963e-12 ,	 7.44710254e-09 
	 2.09421109e-12 ,	 9.37534544e-09 
	 3.31888987e-12 ,	 1.18028582e-08 
	 5.25985288e-12 ,	 1.48589132e-08 
	 8.33610481e-12 ,	 1.87062538e-08 
	 1.32115447e-11 ,	 2.35497589e-08 
	 2.09385309e-11 ,	 2.96473514e-08 
	 3.31847189e-11 ,	 3.73237272e-08 
	 5.2592963e-11 ,	 4.69876352e-08 
	 8.33514082e-11 ,	 5.91536219e-08 
	 1.32096217e-10 ,	 7.44693871e-08 
	 2.09341606e-10 ,	 9.37501854e-08 
	 3.31742094e-10 ,	 1.1802206e-07 
	 5.25670711e-10 ,	 1.48576123e-07 
	 8.3286845e-10 ,	 1.8703659e-07 
	 1.31934683e-09 ,	 2.35445845e-07 
	 2.08936742e-09 ,	 2.9637036e-07 
	 3.30727543e-09 ,	 3.73031731e-07 
	 5.23130335e-09 ,	 4.69467122e-07 
	 8.2651781e-09 ,	 5.90722455e-07 
	 1.30351317e-08 ,	 7.4307882e-07 
	 2.05005675e-08 ,	 9.34306182e-07 
	 3.21031682e-08 ,	 1.17392674e-06 
	 4.99455407e-08 ,	 1.47345261e-06 
	 6.29867866e-08 ,	 1.66230334e-06 
	 7.72963481e-08 ,	 1.8508231e-06 
	 1.17451977e-07 ,	 2.31432301e-06 
	 1.75163613e-07 ,	 2.88528968e-06 
	 2.44429427e-07 ,	 3.49379749e-06 
	 3.33716011e-07 ,	 4.21256054e-06 
	 4.13140502e-07 ,	 4.81551303e-06 
	 5.00670495e-07 ,	 5.45407793e-06 
	 6.65685974e-07 ,	 6.60741072e-06 
	 8.22150262e-07 ,	 7.66395425e-06 
	 9.61920609e-07 ,	 8.61126042e-06 
	 1.07399137e-06 ,	 9.43551422e-06 
	 1.14450701e-06 ,	 1.01230014e-05 
	 1.15706929e-06 ,	 1.06608896e-05 
	 1.09304669e-06 ,	 1.10376599e-05 
	 9.31834692e-07 ,	 1.1243374e-05 
	 6.51073974e-07 ,	 1.12698624e-05 
	 2.26841635e-07 ,	 1.11108744e-05 
	 -3.66172396e-07 ,	 1.07622062e-05 
	 -1.15449583e-06 ,	 1.02218142e-05 
	 -2.16570649e-06 ,	 9.48991702e-06 
	 -3.42826387e-06 ,	 8.56908792e-06 
	 -4.9713383e-06 ,	 7.46433637e-06 
	 -6.82463697e-06 ,	 6.1831801e-06 
	 -9.01822645e-06 ,	 4.73570656e-06 
	 -1.1582352e-05 ,	 3.13462376e-06 
	 -1.45472539e-05 ,	 1.39530007e-06 
	 -1.7942981e-05 ,	 -4.64207218e-07 
	 -2.17992023e-05 ,	 -2.42313477e-06 
	 -2.61450173e-05 ,	 -4.45800779e-06 
	 -3.10087655e-05 ,	 -6.54264634e-06 
	 -3.6417835e-05 ,	 -8.64818352e-06 
	 -4.23984728e-05 ,	 -1.07430955e-05 
	 -4.89755957e-05 ,	 -1.27932437e-05 
	 -5.61726029e-05 ,	 -1.47619279e-05 
	 -6.40111915e-05 ,	 -1.66099526e-05 
	 -8.16903079e-05 ,	 -1.9775234e-05 
	 -0.000102145698 ,	 -2.19288119e-05 
	 -0.000125471751 ,	 -2.26765599e-05 
	 -0.000151719439 ,	 -2.15945224e-05 
	 -0.000180891715 ,	 -1.82335594e-05 
	 -0.000212939435 ,	 -1.21245607e-05 
	 -0.000247757866 ,	 -2.78416485e-06 
	 -0.000285183839 ,	 1.02790842e-05 
	 -0.000324993576 ,	 2.75582196e-05 
	 -0.000366901258 ,	 4.9541051e-05 
	 -0.000410558328 ,	 7.67031624e-05 
	 -0.000455553577 ,	 0.000109500793 
	 -0.000501413996 ,	 0.000148363685 
	 -0.000547606412 ,	 0.000193687983 
	 -0.000593539893 ,	 0.000245829264 
	 -0.000638568896 ,	 0.000305095787 
	 -0.000681997145 ,	 0.000371742026 
	 -0.000723082195 ,	 0.000445962577 
	 -0.000761040643 ,	 0.000527886489 
	 -0.000795053944 ,	 0.000617572093 
	 -0.000824274775 ,	 0.000715002395 
	 -0.000847833891 ,	 0.000820081059 
	 -0.000864847407 ,	 0.000932629057 
	 -0.000874424451 ,	 0.001052382 
	 -0.000875675107 ,	 0.0011789882 
	 -0.000867718595 ,	 0.00131200746 
	 -0.000849691593 ,	 0.0014509107 
	 -0.000820756648 ,	 0.00159508024 
	 -0.000780110599 ,	 0.00174381101 
	 -0.000726992928 ,	 0.00189631245 
	 -0.000660693976 ,	 0.00205171122 
	 -0.000580562956 ,	 0.00220905466 
	 -0.00048601568 ,	 0.00236731505 
	 -0.000376541941 ,	 0.0025253945 
	 -0.000251712487 ,	 0.0026821306 
	 -0.000111185519 ,	 0.00283630264 
	 4.52873474e-05 ,	 0.00298663855 
	 0.000217855703 ,	 0.00313182225 
	 0.000406565601 ,	 0.00327050163 
	 0.000611355502 ,	 0.00340129686 
	 0.000832052929 ,	 0.00352280915 
	 0.00106837188 ,	 0.00363362979 
	 0.00131991104 ,	 0.00373234946 
	 0.00158615272 ,	 0.00381756764 
	 0.00186646272 ,	 0.00388790215 
	 0.00216009089 ,	 0.00394199878 
	 0.00246617258 ,	 0.00397854069 
	 0.00278373087 ,	 0.00399625788 
	 0.00311167953 ,	 0.00399393629 
	 0.0034488268 ,	 0.00397042671 
	 0.00379387987 ,	 0.00392465336 
	 0.00414545001 ,	 0.00385562201 
	 0.00450205837 ,	 0.0037624277 
	 0.00486214231 ,	 0.00364426191 
	 0.00522406234 ,	 0.00350041921 
	 0.00558610938 ,	 0.00333030336 
	 0.00594651262 ,	 0.00313343266 
	 0.00630344749 ,	 0.00290944489 
	 0.00665504412 ,	 0.00265810137 
	 0.00699939584 ,	 0.0023792906 
	 0.00733456793 ,	 0.00207303108 
	 0.00765860643 ,	 0.00173947358 
	 0.00796954701 ,	 0.00137890286 
	 0.00826542379 ,	 0.000991738672 
	 0.00854427816 ,	 0.000578536348 
	 0.00880416752 ,	 0.000139986762 
	 0.00904317385 ,	 -0.000323084128 
	 0.0092594,	-0.00080972
	 0.009451,	-0.0013188
	 0.0096163,	-0.0018492
	 0.0097533,	-0.0023994
	 0.0098606,	-0.002968
	 0.0099365,	-0.0035535
	 0.0099794,	-0.004154
	 0.009988,	-0.0047678
	 0.0099609,	-0.0053929
	 0.0098969,	-0.0060271
	 0.0097949,	-0.0066684
	 0.0096539,	-0.0073145
	 0.0094731,	-0.007963
END
BEGIN
	 2.85514985999999982498632043613e-18 ,	 0 
	 3.39138440000000009319819205433e-16 ,	 2.35492180999999994062414910869e-13 
	 3.46944695000000015704401322668e-16 ,	 2.35497384999999981041630330424e-12 
	 3.52582546000000007137799778277e-16 ,	 2.3549818300000000549074714546e-11 
	 1.67617655999999998178393728842e-15 ,	 2.35498106999999987467984814785e-10 
	 2.44075593000000018530072145569e-15 ,	 2.96474545999999985913636770183e-10 
	 3.65332764000000017295888691367e-15 ,	 3.73239349000000000790999404567e-10 
	 5.62007037999999976397538146685e-15 ,	 4.69880503000000022524613753881e-10 
	 8.70007190999999983828542385592e-15 ,	 5.91544496999999959473865799035e-10 
	 1.35698743999999997533252187513e-14 ,	 7.44710436000000025085280674057e-10 
	 2.12850571000000001240435233364e-14 ,	 9.37534865999999971091819912761e-10 
	 3.35209290999999987487826521396e-14 ,	 1.18028646000000001420544231101e-09 
	 5.29181733000000007726436450414e-14 ,	 1.48589260999999996808215589931e-09 
	 8.37099487000000035568785836153e-14 ,	 1.87062797999999987465758556409e-09 
	 1.32438330999999992884985600213e-13 ,	 2.35498105999999983013310476693e-09 
	 2.09718527e-13 ,	 2.96474547e-09 
	 3.32227735e-13 ,	 3.73239336e-09 
	 5.2629472e-13 ,	 4.69880469e-09 
	 8.33899356e-13 ,	 5.9154443e-09 
	 1.3214963e-12 ,	 7.44710254e-09 
	 2.09421109e-12 ,	 9.37534544e-09 
	 3.31888987e-12 ,	 1.18028582e-08 
	 5.25985288e-12 ,	 1.48589132e-08 
	 8.33610481e-12 ,	 1.87062538e-08 
	 1.32115447e-11 ,	 2.35497589e-08 
	 2.09385309e-11 ,	 2.96473514e-08 
	 3.31847189e-11 ,	 3.73237272e-08 
	 5.2592963e-11 ,	 4.69876352e-08 
	 8.33514082e-11 ,	 5.91536219e-08 
	 1.32096217e-10 ,	 7.44693871e-08 
	 2.09341606e-10 ,	 9.37501854e-08 
	 3.31742094e-10 ,	 1.1802206e-07 
	 5.25670711e-10 ,	 1.48576123e-07 
	 8.3286845e-10 ,	 1.8703659e-07 
	 1.31934683e-09 ,	 2.35445845e-07 
	 2.08936742e-09 ,	 2.9637036e-07 
	 3.30727543e-09 ,	 3.73031731e-07 
	 5.23130335e-09 ,	 4.69467122e-07 
	 8.2651781e-09 ,	 5.90722455e-07 
	 1.30351317e-08 ,	 7.4307882e-07 
	 2.05005675e-08 ,	 9.34306182e-07 
	 3.21031682e-08 ,	 1.17392674e-06 
	 4.99455407e-08 ,	 1.47345261e-06 
	 6.29867866e-08 ,	 1.66230334e-06 
	 7.72963481e-08 ,	 1.8508231e-06 
	 1.17451977e-07 ,	 2.31432301e-06 
	 1.75163613e-07 ,	 2.88528968e-06 
	 2.44429427e-07 ,	 3.49379749e-06 
	 3.33716011e-07 ,	 4.21256054e-06 
	 4.13140502e-07 ,	 4.81551303e-06 
	 5.00670495e-07 ,	 5.45407793e-06 
	 6.65685974e-07 ,	 6.60741072e-06 
	 8.22150262e-07 ,	 7.66395425e-06 
	 9.61920609e-07 ,	 8.61126042e-06 
	 1.07399137e-06 ,	 9.43551422e-06 
	 1.14450701e-06 ,	 1.01230014e-05 
	 1.15706929e-06 ,	 1.06608896e-05 
	 1.09304669e-06 ,	 1.10376599e-05 
	 9.31834692e-07 ,	 1.1243374e-05 
	 6.51073974e-07 ,	 1.12698624e-05 
	 2.26841635e-07 ,	 1.11108744e-05 
	 -3.66172396e-07 ,	 1.07622062e-05 
	 -1.15449583e-06 ,	 1.02218142e-05 
	 -2.16570649e-06 ,	 9.48991702e-06 
	 -3.42826387e-06 ,	 8.56908792e-06 
	 -4.9713383e-06 ,	 7.46433637e-06 
	 -6.82463697e-06 ,	 6.1831801e-06 
	 -9.01822645e-06 ,	 4.73570656e-06 
	 -1.1582352e-05 ,	 3.13462376e-06 
	 -1.45472539e-05 ,	 1.39530007e-06 
	 -1.7942981e-05 ,	 -4.64207218e-07 
	 -2.17992023e-05 ,	 -2.42313477e-06 
	 -2.61450173e-05 ,	 -4.45800779e-06 
	 -3.10087655e-05 ,	 -6.54264634e-06 
	 -3.6417835e-05 ,	 -8.64818352e-06 
	 -4.23984728e-05 ,	 -1.07430955e-05 
	 -4.89755957e-05 ,	 -1.27932437e-05 
	 -5.61726029e-05 ,	 -1.47619279e-05 
	 -6.40111915e-05 ,	 -1.66099526e-05 
	 -8.16903079e-05 ,	 -1.9775234e-05 
	 -0.000102145698 ,	 -2.19288119e-05 
	 -0.000125471751 ,	 -2.26765599e-05 
	 -0.000151719439 ,	 -2.15945224e-05 
	 -0.000180891715 ,	 -1.82335594e-05 
	 -0.000212939435 ,	 -1.21245607e-05 
	 -0.000247757866 ,	 -2.78416485e-06 
	 -0.000285183839 ,	 1.02790842e-05 
	 -0.000324993576 ,	 2.75582196e-05 
	 -0.000366901258 ,	 4.9541051e-05 
	 -0.000410558328 ,	 7.67031624e-05 
	 -0.000455553577 ,	 0.000109500793 
	 -0.000501413996 ,	 0.000148363685 
	 -0.000547606412 ,	 0.000193687983 
	 -0.000593539893 ,	 0.000245829264 
	 -0.000638568896 ,	 0.000305095787 
	 -0.000681997145 ,	 0.000371742026 
	 -0.000723082195 ,	 0.000445962577 
	 -0.000761040643 ,	 0.000527886489 
	 -0.000795053944 ,	 0.000617572093 
	 -0.000824274775 ,	 0.000715002395 
	 -0.000847833891 ,	 0.000820081059 
	 -0.000864847407 ,	 0.000932629057 
	 -0.000874424451 ,	 0.001052382 
	 -0.000875675107 ,	 0.0011789882 
	 -0.000867718595 ,	 0.00131200746 
	 -0.000849691593 ,	 0.0014509107 
	 -0.000820756648 ,	 0.00159508024 
	 -0.000780110599 ,	 0.00174381101 
	 -0.000726992928 ,	 0.00189631245 
	 -0.000660693976 ,	 0.00205171122 
	 -0.000580562956 ,	 0.00220905466 
	 -0.00048601568 ,	 0.00236731505 
	 -0.000376541941 ,	 0.0025253945 
	 -0.000251712487 ,	 0.0026821306 
	 -0.000111185519 ,	 0.00283630264 
	 4.52873474e-05 ,	 0.00298663855 
	 0.000217855703 ,	 0.00313182225 
	 0.000406565601 ,	 0.00327050163 
	 0.000611355502 ,	 0.00340129686 
	 0.000832052929 ,	 0.00352280915 
	 0.00106837188 ,	 0.00363362979 
	 0.00131991104 ,	 0.00373234946 
	 0.00158615272 ,	 0.00381756764 
	 0.00186646272 ,	 0.00388790215 
	 0.00216009089 ,	 0.00394199878 
