CITIFILE A.01.01
#Momentum: B.12.070 (*) built: Feb 13 2020 
#Momentum Date and Time: Wed Sep  7 10:21:09 2022

NAME Momentum.SP

#  mode: MW    reference: S_50

#eesof Port[1] P1
#eesof Port[2] P2

CONSTANT NBR_OF_PORTS 2

CONSTANT NORMALIZATION 1

VAR freq MAG 221

DATA S[1,1] RI
DATA S[1,2] RI
DATA S[2,1] RI
DATA S[2,2] RI
DATA PORTZ[1] RI
DATA PORTZ[2] RI

VAR_LIST_BEGIN
	 0
	 8.639478524
	 86.39478524
	 863.9478524
	 8639.478524
	 10876.45906
	 13692.6507
	 17238.02592
	 21701.38888
	 27320.42993
	 34394.3835
	 43299.96341
	 54511.42427
	 68625.81725
	 86394.78524
	 108764.5906
	 136926.507
	 172380.2592
	 217013.8888
	 273204.2993
	 343943.835
	 432999.6341
	 545114.2427
	 686258.1725
	 863947.8524
	 1087645.906
	 1369265.07
	 1723802.592
	 2170138.888
	 2453667.402
	 2738530.14
	 3447605.184
	 4340277.776
	 5317746.881
	 6510416.664
	 7545669.673
	 8680555.552
	 10850694.44
	 13020833.33
	 15190972.22
	 17361111.1
	 21701388.88
	 26041666.65
	 30381944.43
	 34722222.21
	 43402777.76
	 52083333.31
	 60763888.86
	 69444444.41
	 85083950.1
	 104166666.6
	 120730714.8
	 138888888.8
	 173611111
	 208333333.2
	 243055555.4
	 277777777.6
	 312499999.9
	 347222222.1
	 381944444.3
	 416666666.5
	 451388888.7
	 486111110.9
	 520833333.1
	 555555555.3
	 590277777.5
	 624999999.7
	 659722221.9
	 694444444.1
	 729166666.3
	 763888888.6
	 798611110.8
	 833333333
	 902777777.4
	 972222221.8
	 1041666666
	 1111111111
	 1180555555
	 1249999999
	 1319444444
	 1388888888
	 1458333333
	 1527777777
	 1597222222
	 1666666666
	 1718749999
	 1770833333
	 1822916666
	 1874999999
	 1927083333
	 1979166666
	 2031249999
	 2083333333
	 2135416666
	 2187499999
	 2239583333
	 2291666666
	 2343749999
	 2395833333
	 2447916666
	 2500000000
	 2552083333
	 2604166666
	 2656250000
	 2708333333
	 2760416666
	 2812500000
	 2864583333
	 2916666666
	 2968750000
	 3020833333
	 3072916666
	 3125000000
	 3177083333
	 3229166666
	 3281250000
	 3333333333
	 3385416666
	 3437500000
	 3489583333
	 3541666666
	 3593750000
	 3645833333
	 3697916666
	 3750000000
	 3802083333
	 3854166666
	 3906250000
	 3958333333
	 4010416666
	 4062500000
	 4114583333
	 4166666666
	 4218750000
	 4270833333
	 4322916667
	 4375000000
	 4427083333
	 4479166667
	 4531250000
	 4583333333
	 4635416667
	 4687500000
	 4739583333
	 4791666667
	 4843750000
	 4895833333
	 4947916667
	 5000000000
	 5104166667
	 5208333333
	 5312500000
	 5416666667
	 5520833333
	 5625000000
	 5729166667
	 5833333334
	 5937500000
	 6041666667
	 6145833334
	 6250000000
	 6354166667
	 6458333334
	 6562500000
	 6666666667
	 6770833334
	 6875000000
	 6979166667
	 7083333334
	 7187500000
	 7291666667
	 7395833334
	 7500000000
	 7552083334
	 7604166667
	 7656250001
	 7708333334
	 7760416667
	 7812500001
	 7864583334
	 7916666667
	 7968750001
	 8020833334
	 8072916667
	 8125000001
	 8177083334
	 8229166667
	 8281250001
	 8333333334
	 8385416667
	 8437500001
	 8489583334
	 8541666667
	 8593750001
	 8645833334
	 8697916667
	 8750000000
	 8802083334
	 8854166667
	 8906250000
	 8958333334
	 9010416667
	 9062500000
	 9114583334
	 9166666667
	 9218750000
	 9270833334
	 9322916667
	 9375000000
	 9427083334
	 9479166667
	 9531250000
	 9583333334
	 9635416667
	 9687500000
	 9739583333
	 9791666667
	 9843750000
	 9895833333
	 9947916667
	 1e+10
VAR_LIST_END

BEGIN
	 0.999999999999998445687765524781 ,	 -0 
	 1.00000000000073341333006737841 ,	 -3.81318554509846308064879849553e-09 
	 1.00000000000067035266226866952 ,	 -3.81318625564119884074898436666e-08 
	 0.999999999994413135695481287257 ,	 -3.8131862201140620527439750731e-07 
	 0.999999999368614611583439000242 ,	 -3.81318572362232544037397019565e-06 
	 0.999999998998893468993287569901 ,	 -4.80051603646280966586346039549e-06 
	 0.999999998412923751800462923711 ,	 -6.04349088728639571854728274047e-06 
	 0.999999997484227520772037678398 ,	 -7.6083027769069389023570693098e-06 
	 0.99999999601234734747379206965 ,	 -9.57828275960359576401970116422e-06 
	 0.999999993679580923000571601733 ,	 -1.20583376876925996157297049649e-05 
	 0.999999989982419901224375280435 ,	 -1.51805360069090511387912556529e-05 
	 0.999999984122870833047613814415 ,	 -1.91111391352194459614111110568e-05 
	 0.999999974836253358034809934907 ,	 -2.40594520004577816507662646472e-05 
	 0.999999960118314934476302369148 ,	 -3.02889623307045496858336264268e-05 
	 0.999999936792853594269558925589 ,	 -3.81313584492115609236861928366e-05 
	 0.999999899826744753639218288299 ,	 -4.80041651915730227528911200352e-05 
	 0.999999841245082787821729652933 ,	 -6.04329233677702859495184384286e-05 
	 0.99999974841364180910829873028 ,	 -7.60790665439436963879415998235e-05 
	 0.999999601321482689542108346359 ,	 -9.57749251087047781538785784505e-05 
	 0.999999368285892309415885392809 ,	 -0.000120567613126842942961047810968 
	 0.999998999174699143566158454632 ,	 -0.000151773919227382592112007841934 
	 0.999998414738197505258199271339 ,	 -0.000191048696456919131492213637102 
	 0.999997489886041313056352919375 ,	 -0.000240469546683996782121539581567 
	 0.99999602764338990645853755268 ,	 -0.000302640645531537799683974299114 
	 0.999993719017451487829362122284 ,	 -0.000380817995432991551751911174506 
	 0.999990082209685438030533077836 ,	 -0.000479056552189938145147607428953 
	 0.999984373151750594033160268737 ,	 -0.000602375384804787472603493370116 
	 0.999975460206656840966843446949 ,	 -0.000756928613951934892156714340672 
	 0.999961664050055043517772901396 ,	 -0.000950155809848585164445466944017 
	 0.999951516148220642676847091934 ,	 -0.00107199798974266791162790468661 
	 0.9999403242895290588876378024 ,	 -0.00119362827375479874092434329214 
	 0.999908645687004771218653331744 ,	 -0.00149262590765886216104263439775 
	 0.999862632019257402404832646425 ,	 -0.0018607183563219553690259999712 
	 0.999807193028470653217709696037 ,	 -0.00225266101320342748692837631097 
	 0.999736553460527810344160570821 ,	 -0.00271568418502110553447437268915 
	 0.999675628395051418806360743474 ,	 -0.00310543578272493014935662358766 
	 0.999611627342746000834949882119 ,	 -0.00352180669331025875123941659695 
	 0.999501973127165932453408458969 ,	 -0.00429439324709490755083152180305 
	 0.99941110446979020132118876063 ,	 -0.0050473072672181373832245299127 
	 0.999337461391964998469461534114 ,	 -0.00579008239381662015432539192261 
	 0.99927791325242920628113552084 ,	 -0.00652845825976977600646478094859 
	 0.999189037518065648058041006152 ,	 -0.00800326302258125288346946035745 
	 0.999125628129515108710734239139 ,	 -0.00948266470125425087189796613529 
	 0.999076439007359873301084007835 ,	 -0.0109686584634167694218831456965 
	 0.99903507209445630010691274947 ,	 -0.0124607374554561722845846816199 
	 0.998962502932801532651296838594 ,	 -0.0154590811865338295660876610782 
	 0.998892617271671889866979654471 ,	 -0.018470596539347017284171670326 
	 0.998819284139415675127793292631 ,	 -0.021490593578535444052590719366 
	 0.998739718935017339873638775316 ,	 -0.0245161883300935024010414053919 
	 0.998576586578612257483200664865 ,	 -0.0299760591934838949157438037219 
	 0.998339011850776669731999390933 ,	 -0.036646357109627825110464982572 
	 0.998096607884534137156151700765 ,	 -0.0424397190861460771316160389688 
	 0.997791369556981111443860754662 ,	 -0.0487918092558288218896223042975 
	 0.997091386821889358316184370779 ,	 -0.0609363190085845385368656934588 
	 0.99623797690635007562320879515 ,	 -0.0730725230464144281938843050739 
	 0.995231065811010395805169537198 ,	 -0.0851957538608212328057334161713 
	 0.99407093920323430502605788206 ,	 -0.0973023982465135439667847094825 
	 0.992758060019301113996448293619 ,	 -0.109389336226996869427807723696 
	 0.991293003992597343554393773957 ,	 -0.121453714787822075749090799945 
	 0.98967,	-0.13349
	 0.9879,	-0.1455
	 0.98599,	-0.15748
	 0.98392,	-0.16943
	 0.98171,	-0.18134
	 0.97934,	-0.19322
	 0.97684,	-0.20505
	 0.97418,	-0.21685
	 0.97138,	-0.2286
	 0.96844,	-0.2403
	 0.96536,	-0.25196
	 0.96214,	-0.26357
	 0.95877,	-0.27512
	 0.95527,	-0.28662
	 0.94786,	-0.30945
	 0.9399,	-0.33205
	 0.93142,	-0.35439
	 0.92242,	-0.37647
	 0.91291,	-0.39828
	 0.9029,	-0.41979
	 0.89241,	-0.44101
	 0.88144,	-0.46191
	 0.87001,	-0.48249
	 0.85812,	-0.50274
	 0.84579,	-0.52264
	 0.83304,	-0.54219
	 0.82319,	-0.55662
	 0.81312,	-0.57084
	 0.80282,	-0.58485
	 0.7923,	-0.59864
	 0.78156,	-0.61222
	 0.77062,	-0.62558
	 0.75947,	-0.63871
	 0.74812,	-0.65161
	 0.73657,	-0.66429
	 0.72484,	-0.67673
	 0.71292,	-0.68894
	 0.70082,	-0.70091
	 0.68855,	-0.71264
	 0.67611,	-0.72413
	 0.66351,	-0.73538
	 0.65076,	-0.74637
	 0.63785,	-0.75713
	 0.62479,	-0.76763
	 0.61159,	-0.77788
	 0.59826,	-0.78788
	 0.58479,	-0.79762
	 0.5712,	-0.80711
	 0.55749,	-0.81634
	 0.54367,	-0.82532
	 0.52974,	-0.83404
	 0.5157,	-0.8425
	 0.50156,	-0.8507
	 0.48733,	-0.85864
	 0.47301,	-0.86632
	 0.45861,	-0.87375
	 0.44412,	-0.88091
	 0.42957,	-0.88781
	 0.41494,	-0.89445
	 0.40025,	-0.90084
	 0.38551,	-0.90696
	 0.3707,	-0.91282
	 0.35585,	-0.91843
	 0.34095,	-0.92378
	 0.32602,	-0.92887
	 0.31104,	-0.9337
	 0.29604,	-0.93828
	 0.28101,	-0.9426
	 0.26596,	-0.94666
	 0.25088,	-0.95048
	 0.2358,	-0.95404
	 0.2207,	-0.95735
	 0.2056,	-0.96041
	 0.1905,	-0.96323
	 0.1754,	-0.96579
	 0.16031,	-0.96811
	 0.14522,	-0.97019
	 0.13015,	-0.97202
	 0.1151,	-0.97361
	 0.10007,	-0.97496
	 0.085067,	-0.97607
	 0.070089,	-0.97695
	 0.055142,	-0.97759
	 0.04023,	-0.978
	 0.025357,	-0.97818
	 0.010525,	-0.97812
	-0.0042628,	-0.97784
	-0.019002,	-0.97733
	-0.033691,	-0.9766
	-0.048326,	-0.97565
	-0.077423,	-0.97308
	-0.10627,	-0.96965
	-0.13484,	-0.96537
	-0.16313,	-0.96025
	-0.1911,	-0.95431
	-0.21874,	-0.94757
	-0.24603,	-0.94004
	-0.27296,	-0.93174
	-0.2995,	-0.92268
	-0.32565,	-0.91288
	-0.35138,	-0.90237
	-0.37667,	-0.89114
	-0.40153,	-0.87922
	-0.42593,	-0.86663
	-0.44985,	-0.85337
	-0.4733,	-0.83947
	-0.49624,	-0.82494
	-0.51868,	-0.80979
	-0.5406,	-0.79405
	-0.56198,	-0.77771
	-0.58283,	-0.76081
	-0.60312,	-0.74335
	-0.62285,	-0.72535
	-0.642,	-0.70681
	-0.65136,	-0.69736
	-0.66057,	-0.68777
	-0.66963,	-0.67806
	-0.67854,	-0.66822
	-0.68731,	-0.65827
	-0.69592,	-0.64819
	-0.70437,	-0.63799
	-0.71267,	-0.62768
	-0.72082,	-0.61726
	-0.7288,	-0.60672
	-0.73663,	-0.59607
	-0.7443,	-0.5853
	-0.75181,	-0.57444
	-0.75915,	-0.56346
	-0.76633,	-0.55238
	-0.77335,	-0.5412
	-0.7802,	-0.52991
	-0.78689,	-0.51853
	-0.7934,	-0.50705
	-0.79975,	-0.49547
	-0.80592,	-0.4838
	-0.81193,	-0.47203
	-0.81775,	-0.46018
	-0.82341,	-0.44823
	-0.82889,	-0.4362
	-0.83419,	-0.42408
	-0.83931,	-0.41187
	-0.84425,	-0.39959
	-0.84901,	-0.38722
	-0.85359,	-0.37478
	-0.85798,	-0.36225
	-0.86219,	-0.34966
	-0.86621,	-0.33699
	-0.87005,	-0.32424
	-0.87369,	-0.31143
	-0.87715,	-0.29855
	-0.88041,	-0.2856
	-0.88348,	-0.27259
	-0.88635,	-0.25952
	-0.88902,	-0.24639
	-0.8915,	-0.2332
	-0.89378,	-0.21995
	-0.89586,	-0.20665
	-0.89773,	-0.1933
	-0.8994,	-0.1799
	-0.90087,	-0.16644
	-0.90213,	-0.15295
	-0.90318,	-0.13941
END
BEGIN
	 1.08334392000000002703687252327e-16 ,	 0 
	 3.19883008999999993931265820779e-15 ,	 2.77780243000000013644533609496e-10 
	 3.19536063999999980559838612639e-15 ,	 2.77780227999999988183449165771e-09 
	 1.18620390999999999334804938142e-14 ,	 2.77780229000000013317638817689e-08 
	 8.74494920999999983882201651096e-13 ,	 2.77780228999999973612969415143e-07 
	 1.38405258999999994457805491891e-12 ,	 3.49704588999999985170279116417e-07 
	 2.1916288199999999069999841765e-12 ,	 4.40251994000000021725924970531e-07 
	 3.47161535999999993070680373493e-12 ,	 5.54244423000000022090693121979e-07 
	 5.50027385000000015078802665643e-12 ,	 6.97752388999999995036641140672e-07 
	 8.71526114999999961807143923434e-12 ,	 8.7841821300000002952781345128e-07 
	 1.38107649999999992630764217869e-11 ,	 1.10586300999999993781720396963e-06 
	 2.18867319999999987117280253363e-11 ,	 1.39219904999999992792922374335e-06 
	 3.4686330199999999799895159165e-11 ,	 1.75267476000000009821351565353e-06 
	 5.49723878000000005313462012729e-11 ,	 2.20648679000000011519500887902e-06 
	 8.71234786000000034952937106788e-11 ,	 2.77780228999999994788793096501e-06 
	 1.38079343e-10 ,	 3.49704589e-06 
	 2.18839339e-10 ,	 4.40251993e-06 
	 3.46835054e-10 ,	 5.54244422e-06 
	 5.49694453e-10 ,	 6.97752386e-06 
	 8.71204969e-10 ,	 8.78418207e-06 
	 1.38076498e-09 ,	 1.105863e-05 
	 2.1883634e-09 ,	 1.39219902e-05 
	 3.46832016e-09 ,	 1.75267471e-05 
	 5.49691496e-09 ,	 2.2064867e-05 
	 8.71202102e-09 ,	 2.7778021e-05 
	 1.38076206e-08 ,	 3.49704552e-05 
	 2.18836006e-08 ,	 4.40251919e-05 
	 3.46831652e-08 ,	 5.54244273e-05 
	 5.49691034e-08 ,	 6.97752088e-05 
	 7.02708057e-08 ,	 7.88913262e-05 
	 8.7534357e-08 ,	 8.80503385e-05 
	 1.3873256e-07 ,	 0.000110848764 
	 2.19876176e-07 ,	 0.000139550237 
	 3.3006399e-07 ,	 0.000170978043 
	 4.94720538e-07 ,	 0.000209324906 
	 6.64565032e-07 ,	 0.000242610354 
	 8.7950105e-07 ,	 0.000279099033 
	 1.37421612e-06 ,	 0.00034887244 
	 1.97886369e-06 ,	 0.000418644945 
	 2.69344127e-06 ,	 0.000488416369 
	 3.51794589e-06 ,	 0.000558186532 
	 5.49672212e-06 ,	 0.000697722351 
	 7.91515961e-06 ,	 0.000837250963 
	 1.07732183e-05 ,	 0.000976770926 
	 1.40708507e-05 ,	 0.0011162808 
	 2.19846113e-05 ,	 0.00139526451 
	 3.16559167e-05 ,	 0.00167419059 
	 4.30841262e-05 ,	 0.00195304753 
	 5.62684826e-05 ,	 0.00223182383 
	 8.44517305e-05 ,	 0.00273384677 
	 0.000126548171 ,	 0.00334589318 
	 0.000169947728 ,	 0.00387662156 
	 0.000224835502 ,	 0.00445775666 
	 0.000351026591 ,	 0.00556668779 
	 0.000504988425 ,	 0.00667196772 
	 0.000686559388 ,	 0.00777288735 
	 0.000895549991 ,	 0.00886874942 
	 0.0011317,	 0.0099589
	 0.0013949,	 0.011043
	 0.0016847,	 0.012119
	 0.002001,	 0.013188
	 0.0023434,	 0.014249
	 0.0027115,	 0.015301
	 0.0031051,	 0.016343
	 0.0035237,	 0.017375
	 0.0039671,	 0.018397
	 0.0044348,	 0.019408
	 0.0049266,	 0.020408
	 0.0054419,	 0.021395
	 0.0059806,	 0.022371
	 0.0065421,	 0.023333
	 0.0071261,	 0.024282
	 0.0077323,	 0.025218
	 0.0090099,	 0.027048
	 0.010372,	 0.028819
	 0.011816,	 0.030529
	 0.013339,	 0.032175
	 0.014937,	 0.033753
	 0.016609,	 0.035262
	 0.018352,	 0.036699
	 0.020161,	 0.038061
	 0.022033,	 0.039345
	 0.023966,	 0.04055
	 0.025955,	 0.041673
	 0.027997,	 0.042713
	 0.029561,	 0.043436
	 0.031151,	 0.044111
	 0.032765,	 0.044737
	 0.034401,	 0.045313
	 0.036059,	 0.045839
	 0.037736,	 0.046314
	 0.039431,	 0.046739
	 0.041142,	 0.047112
	 0.042868,	 0.047435
	 0.044606,	 0.047705
	 0.046356,	 0.047925
	 0.048115,	 0.048092
	 0.049882,	 0.048209
	 0.051656,	 0.048274
	 0.053435,	 0.048288
	 0.055218,	 0.048251
	 0.057002,	 0.048163
	 0.058787,	 0.048025
	 0.060571,	 0.047837
	 0.062353,	 0.047599
	 0.064131,	 0.047313
	 0.065905,	 0.046977
	 0.067672,	 0.046593
	 0.069432,	 0.046162
	 0.071184,	 0.045683
	 0.072925,	 0.045158
	 0.074656,	 0.044587
	 0.076375,	 0.04397
	 0.07808,	 0.043309
	 0.079772,	 0.042604
	 0.081448,	 0.041856
	 0.083108,	 0.041066
	 0.084751,	 0.040234
	 0.086377,	 0.039361
	 0.087984,	 0.038448
	 0.089571,	 0.037495
	 0.091138,	 0.036504
	 0.092685,	 0.035475
	 0.094209,	 0.03441
	 0.095711,	 0.033308
	 0.097191,	 0.032171
	 0.098647,	 0.030999
	 0.10007,	 0.029794
	 0.10148,	 0.028556
	 0.10286,	 0.027285
	 0.10422,	 0.025984
	 0.10555,	 0.024652
	 0.10685,	 0.023291
	 0.10813,	 0.021901
	 0.10938,	 0.020483
	 0.11061,	 0.019038
	 0.1118,	 0.017566
	 0.11297,	 0.016069
	 0.11411,	 0.014547
	 0.11522,	 0.013001
	 0.11631,	 0.011431
	 0.11736,	 0.0098386
	 0.11839,	 0.0082243
	 0.11938,	 0.0065887
	 0.12035,	 0.0049325
	 0.12129,	 0.0032565
	 0.1222,	 0.0015611
	 0.12308,	-0.00015284
	 0.12393,	-0.0018848
	 0.12555,	-0.0054004
	 0.12705,	-0.0089809
	 0.12843,	-0.012622
	 0.1297,	-0.01632
	 0.13085,	-0.02007
	 0.13189,	-0.02387
	 0.13281,	-0.027716
	 0.13363,	-0.031605
	 0.13433,	-0.035535
	 0.13492,	-0.039503
	 0.1354,	-0.043508
	 0.13577,	-0.047547
	 0.13603,	-0.051619
	 0.13618,	-0.055723
	 0.13623,	-0.059858
	 0.13617,	-0.064023
	 0.13601,	-0.068218
	 0.13574,	-0.072443
	 0.13536,	-0.076697
	 0.13487,	-0.080981
	 0.13427,	-0.085294
	 0.13357,	-0.089638
	 0.13275,	-0.094011
	 0.13182,	-0.098415
	 0.13131,	-0.10062
	 0.13077,	-0.10284
	 0.1302,	-0.10507
	 0.12961,	-0.10731
	 0.12898,	-0.10955
	 0.12832,	-0.11181
	 0.12763,	-0.11407
	 0.12691,	-0.11633
	 0.12616,	-0.11861
	 0.12537,	-0.12089
	 0.12455,	-0.12318
	 0.1237,	-0.12548
	 0.12281,	-0.12779
	 0.12189,	-0.1301
	 0.12093,	-0.13242
	 0.11994,	-0.13474
	 0.11891,	-0.13708
	 0.11784,	-0.13942
	 0.11673,	-0.14176
	 0.11559,	-0.14411
	 0.11441,	-0.14647
	 0.11318,	-0.14883
	 0.11192,	-0.1512
	 0.11062,	-0.15358
	 0.10927,	-0.15595
	 0.10788,	-0.15833
	 0.10645,	-0.16072
	 0.10497,	-0.16311
	 0.10345,	-0.1655
	 0.10189,	-0.16789
	 0.10028,	-0.17029
	 0.098622,	-0.17268
	 0.096916,	-0.17508
	 0.095161,	-0.17748
	 0.093357,	-0.17988
	 0.091503,	-0.18228
	 0.089599,	-0.18467
	 0.087643,	-0.18706
	 0.085634,	-0.18946
	 0.083573,	-0.19184
	 0.081458,	-0.19423
	 0.079288,	-0.19661
	 0.077063,	-0.19898
	 0.074781,	-0.20135
	 0.072442,	-0.20371
	 0.070045,	-0.20606
	 0.067589,	-0.2084
	 0.065072,	-0.21074
END
BEGIN
	 1.08334392000000002703687252327e-16 ,	 0 
	 3.19883008999999993931265820779e-15 ,	 2.77780243000000013644533609496e-10 
	 3.19536063999999980559838612639e-15 ,	 2.77780227999999988183449165771e-09 
	 1.18620390999999999334804938142e-14 ,	 2.77780229000000013317638817689e-08 
	 8.74494920999999983882201651096e-13 ,	 2.77780228999999973612969415143e-07 
	 1.38405258999999994457805491891e-12 ,	 3.49704588999999985170279116417e-07 
	 2.1916288199999999069999841765e-12 ,	 4.40251994000000021725924970531e-07 
	 3.47161535999999993070680373493e-12 ,	 5.54244423000000022090693121979e-07 
	 5.50027385000000015078802665643e-12 ,	 6.97752388999999995036641140672e-07 
	 8.71526114999999961807143923434e-12 ,	 8.7841821300000002952781345128e-07 
	 1.38107649999999992630764217869e-11 ,	 1.10586300999999993781720396963e-06 
	 2.18867319999999987117280253363e-11 ,	 1.39219904999999992792922374335e-06 
	 3.4686330199999999799895159165e-11 ,	 1.75267476000000009821351565353e-06 
	 5.49723878000000005313462012729e-11 ,	 2.20648679000000011519500887902e-06 
	 8.71234786000000034952937106788e-11 ,	 2.77780228999999994788793096501e-06 
	 1.38079343e-10 ,	 3.49704589e-06 
	 2.18839339e-10 ,	 4.40251993e-06 
	 3.46835054e-10 ,	 5.54244422e-06 
	 5.49694453e-10 ,	 6.97752386e-06 
	 8.71204969e-10 ,	 8.78418207e-06 
	 1.38076498e-09 ,	 1.105863e-05 
	 2.1883634e-09 ,	 1.39219902e-05 
	 3.46832016e-09 ,	 1.75267471e-05 
	 5.49691496e-09 ,	 2.2064867e-05 
	 8.71202102e-09 ,	 2.7778021e-05 
	 1.38076206e-08 ,	 3.49704552e-05 
	 2.18836006e-08 ,	 4.40251919e-05 
	 3.46831652e-08 ,	 5.54244273e-05 
	 5.49691034e-08 ,	 6.97752088e-05 
	 7.02708057e-08 ,	 7.88913262e-05 
	 8.7534357e-08 ,	 8.80503385e-05 
	 1.3873256e-07 ,	 0.000110848764 
	 2.19876176e-07 ,	 0.000139550237 
	 3.3006399e-07 ,	 0.000170978043 
	 4.94720538e-07 ,	 0.000209324906 
	 6.64565032e-07 ,	 0.000242610354 
	 8.7950105e-07 ,	 0.000279099033 
	 1.37421612e-06 ,	 0.00034887244 
	 1.97886369e-06 ,	 0.000418644945 
	 2.69344127e-06 ,	 0.000488416369 
	 3.51794589e-06 ,	 0.000558186532 
	 5.49672212e-06 ,	 0.000697722351 
	 7.91515961e-06 ,	 0.000837250963 
	 1.07732183e-05 ,	 0.000976770926 
	 1.40708507e-05 ,	 0.0011162808 
	 2.19846113e-05 ,	 0.00139526451 
	 3.16559167e-05 ,	 0.00167419059 
	 4.30841262e-05 ,	 0.00195304753 
	 5.62684826e-05 ,	 0.00223182383 
	 8.44517305e-05 ,	 0.00273384677 
	 0.000126548171 ,	 0.00334589318 
	 0.000169947728 ,	 0.00387662156 
	 0.000224835502 ,	 0.00445775666 
	 0.000351026591 ,	 0.00556668779 
	 0.000504988425 ,	 0.00667196772 
	 0.000686559388 ,	 0.00777288735 
	 0.000895549991 ,	 0.00886874942 
	 0.0011317,	 0.0099589
	 0.0013949,	 0.011043
	 0.0016847,	 0.012119
	 0.002001,	 0.013188
	 0.0023434,	 0.014249
	 0.0027115,	 0.015301
	 0.0031051,	 0.016343
	 0.0035237,	 0.017375
	 0.0039671,	 0.018397
	 0.0044348,	 0.019408
	 0.0049266,	 0.020408
	 0.0054419,	 0.021395
	 0.0059806,	 0.022371
	 0.0065421,	 0.023333
