CITIFILE A.01.01
#Momentum: B.12.070 (*) built: Feb 13 2020 
#Momentum Date and Time: Wed Sep  7 01:09:18 2022

NAME Momentum.SP

#  mode: MW    reference: S_50

#eesof Port[1] P1
#eesof Port[2] P2

CONSTANT NBR_OF_PORTS 2

CONSTANT NORMALIZATION 1

VAR freq MAG 159

DATA S[1,1] RI
DATA S[1,2] RI
DATA S[2,1] RI
DATA S[2,2] RI
DATA PORTZ[1] RI
DATA PORTZ[2] RI

VAR_LIST_BEGIN
	 0
	 8.254652041
	 82.54652041
	 825.4652041
	 8254.652041
	 10391.99122
	 13082.74183
	 16470.19614
	 20734.74846
	 26103.50174
	 32862.36168
	 41371.26221
	 52083.33331
	 65569.03184
	 82546.52041
	 103919.9122
	 130827.4183
	 164701.9614
	 207347.4846
	 261035.0174
	 328623.6168
	 413712.6221
	 520833.3331
	 655690.3184
	 825465.2041
	 1039199.122
	 1308274.183
	 1647019.614
	 2073474.846
	 2610350.174
	 3286236.168
	 4137126.221
	 5208333.331
	 6556903.184
	 8254652.041
	 10391991.22
	 13082741.83
	 16470196.14
	 20734748.46
	 26103501.74
	 32862361.68
	 41371262.21
	 52083333.31
	 58888017.66
	 65724723.36
	 82742524.42
	 104166666.6
	 127625925.2
	 156249999.9
	 181096072.2
	 208333333.2
	 260416666.6
	 312499999.9
	 364583333.2
	 416666666.5
	 468749999.8
	 520833333.1
	 572916666.4
	 624999999.8
	 677083333.1
	 729166666.4
	 781249999.7
	 833333333
	 885416666.3
	 937499999.6
	 989583332.9
	 1041666666
	 1093750000
	 1145833333
	 1197916666
	 1250000000
	 1302083333
	 1354166666
	 1406249999
	 1458333333
	 1510416666
	 1562499999
	 1614583333
	 1666666666
	 1770833333
	 1874999999
	 1979166666
	 2083333333
	 2187499999
	 2291666666
	 2395833333
	 2500000000
	 2604166666
	 2708333333
	 2812500000
	 2916666666
	 3020833333
	 3125000000
	 3229166666
	 3333333333
	 3437500000
	 3541666666
	 3645833333
	 3750000000
	 3854166666
	 3958333333
	 4062500000
	 4166666666
	 4270833333
	 4375000000
	 4479166667
	 4583333333
	 4687500000
	 4791666667
	 4895833333
	 5000000000
	 5104166667
	 5208333333
	 5312500000
	 5416666667
	 5520833333
	 5625000000
	 5729166667
	 5833333334
	 5937500000
	 6041666667
	 6145833334
	 6250000000
	 6354166667
	 6458333334
	 6562500000
	 6666666667
	 6770833334
	 6875000000
	 6979166667
	 7083333334
	 7187500000
	 7291666667
	 7395833334
	 7500000000
	 7604166667
	 7708333334
	 7812500001
	 7916666667
	 8020833334
	 8125000001
	 8229166667
	 8333333334
	 8437500001
	 8541666667
	 8645833334
	 8750000000
	 8854166667
	 8958333334
	 9062500000
	 9166666667
	 9270833334
	 9375000000
	 9479166667
	 9583333334
	 9687500000
	 9791666667
	 9895833333
	 1e+10
VAR_LIST_END

BEGIN
	 0.999999999999998445687765524781 ,	 -0 
	 1.00000000000000022204460492503 ,	 -2.27687324549918912452994845808e-09 
	 1.00000000000000066613381477509 ,	 -2.27687311227242616951116360724e-08 
	 0.999999999999971356245964670961 ,	 -2.27687314668933993289101636037e-07 
	 0.999999999997098765192049540929 ,	 -2.27687313997249063390881929081e-06 
	 0.999999999995401123165095214063 ,	 -2.86641345564886407260019041132e-06 
	 0.999999999992709831531101372093 ,	 -3.60860073972402162212347320747e-06 
	 0.999999999988446575116540770978 ,	 -4.54295917234892598912665562239e-06 
	 0.999999999981688758587949905632 ,	 -5.71924674663826237974717514589e-06 
	 0.999999999970977215824063932814 ,	 -7.2001050652747977665057987906e-06 
	 0.999999999954001461688335439248 ,	 -9.06439523395974333652702625841e-06 
	 0.99999999992709676099877924571 ,	 -1.14113975025476044322658708552e-05 
	 0.999999999884456203247395933431 ,	 -1.43660982990234664669060293818e-05 
	 0.999999999816874818314715867018 ,	 -1.80858462162647448678853834281e-05 
	 0.999999999709765718947096502234 ,	 -2.27687313935631685524185741087e-05 
	 0.999999999540009065768231266702 ,	 -2.86641345412230741374060016824e-05 
	 0.999999999270962947051089031447 ,	 -3.60860073730373542844063194934e-05 
	 0.99999999884455337273436725809 ,	 -4.54295916747504691102221840993e-05 
	 0.999999998168740189541381369054 ,	 -5.71924673726798005191085394472e-05 
	 0.999999997097649417909792646242 ,	 -7.20010504709489573826886044117e-05 
	 0.999999995400083219188047678472 ,	 -9.06439519787749503620943869464e-05 
	 0.999999992709623475306557338627 ,	 -0.000114113974302665344140450542909 
	 0.999999988445531617919925793103 ,	 -0.000143660981553439537350413957029 
	 0.999999981687401784391511228023 ,	 -0.000180858459289334749797717449837 
	 0.999999970976488627982803336636 ,	 -0.000227687308197999094261376740178 
	 0.9999999540008377429955999105 ,	 -0.000286641333966775047059627468116 
	 0.99999992709624896392028858827 ,	 -0.000360860050887090721971617313102 
	 0.999999884455361476298662637419 ,	 -0.000454295871175403043196183716645 
	 0.999999816874142299916172760277 ,	 -0.000571924582802307845952327625128 
	 0.99999970976520757837135988666 ,	 -0.000720010323292497034231018915307 
	 0.999999540009189002987000094436 ,	 -0.000906439157813243578942774547613 
	 0.999999270964538888861738996638 ,	 -0.00114113902079004958523000823334 
	 0.999998844558781185831719540147 ,	 -0.00143660837449521849862321687397 
	 0.999998168754404948010972020711 ,	 -0.00180858171768139008861453476129 
	 0.999997097684702129782863266882 ,	 -0.00227686734531701295836114695703 
	 0.99999540017384824786006447539 ,	 -0.00286640189392173283522424753755 
	 0.99999270985124821820022589236 ,	 -0.00360857767289607389571415296814 
	 0.999988446104827843896600825246 ,	 -0.00454291315205779255848028697073 
	 0.999981688842414451201534575375 ,	 -0.00571915493730534851835045628832 
	 0.999970980107087181742997472611 ,	 -0.00719992192266472041950464699767 
	 0.999954009922266351395592209883 ,	 -0.00906402994476102064069777952682 
	 0.999927119048830026493135392229 ,	 -0.0114106690590971560084199154517 
	 0.999884512552332682666644814162 ,	 -0.0143646461402810454721645783138 
	 0.999852384666014004643841417419 ,	 -0.0162409306273674225451486563543 
	 0.999816148153002348664131204714 ,	 -0.0181258764405075600834038596076 
	 0.999708747425599342228963450907 ,	 -0.0228169935414157531994305827538 
	 0.999538726707086766509746666998 ,	 -0.0287206611947657397543309798493 
	 0.999308231390441892294518311246 ,	 -0.0351818250745507543619794432743 
	 0.998964596129003790103695337166 ,	 -0.0430598087935233353462649574794 
	 0.998611108097993471766073980689 ,	 -0.0498920597987536074136016850389 
	 0.998165140745660650622994580772 ,	 -0.0573745778073057044466054321674 
	 0.997144144872872950635667166353 ,	 -0.0716584019485662082615817780606 
	 0.995905821782085309834542385943 ,	 -0.0859057496649152652068437419075 
	 0.994454499034633565557328438445 ,	 -0.100112093811638491747117996056 
	 0.992794363581670613605467679008 ,	 -0.114273790738636249475490558325 
	 0.990929285420746763790589284326 ,	 -0.128387906825284836553890954747 
	 0.98886,	-0.14245
	 0.98659,	-0.15646
	 0.98413,	-0.17042
	 0.98148,	-0.18432
	 0.97863,	-0.19816
	 0.97559,	-0.21195
	 0.97237,	-0.22567
	 0.96896,	-0.23933
	 0.96536,	-0.25293
	 0.96158,	-0.26645
	 0.95761,	-0.27991
	 0.95346,	-0.29329
	 0.94913,	-0.3066
	 0.94462,	-0.31983
	 0.93994,	-0.33298
	 0.93507,	-0.34604
	 0.93004,	-0.35902
	 0.92482,	-0.37192
	 0.91944,	-0.38472
	 0.91389,	-0.39743
	 0.90817,	-0.41004
	 0.90228,	-0.42255
	 0.89623,	-0.43496
	 0.88365,	-0.45948
	 0.87043,	-0.48356
	 0.8566,	-0.50719
	 0.84218,	-0.53036
	 0.82717,	-0.55304
	 0.81161,	-0.57523
	 0.7955,	-0.5969
	 0.77888,	-0.61805
	 0.76175,	-0.63867
	 0.74414,	-0.65873
	 0.72607,	-0.67823
	 0.70756,	-0.69716
	 0.68864,	-0.71551
	 0.66931,	-0.73328
	 0.64961,	-0.75044
	 0.62955,	-0.76701
	 0.60915,	-0.78297
	 0.58843,	-0.79831
	 0.56742,	-0.81304
	 0.54614,	-0.82715
	 0.5246,	-0.84063
	 0.50283,	-0.85349
	 0.48084,	-0.86572
	 0.45865,	-0.87732
	 0.43629,	-0.8883
	 0.41378,	-0.89865
	 0.39112,	-0.90838
	 0.36834,	-0.91748
	 0.34546,	-0.92596
	 0.3225,	-0.93382
	 0.29947,	-0.94107
	 0.27638,	-0.94771
	 0.25327,	-0.95374
	 0.23013,	-0.95917
	 0.20699,	-0.96401
	 0.18386,	-0.96825
	 0.16077,	-0.9719
	 0.13771,	-0.97498
	 0.1147,	-0.97749
	 0.091775,	-0.97943
	 0.068922,	-0.9808
	 0.046164,	-0.98163
	 0.023512,	-0.98191
	 0.00097777,	-0.98166
	-0.021427,	-0.98088
	-0.043691,	-0.97957
	-0.065804,	-0.97775
	-0.087756,	-0.97542
	-0.10953,	-0.9726
	-0.13113,	-0.96929
	-0.15255,	-0.96549
	-0.17376,	-0.96122
	-0.19477,	-0.95649
	-0.21556,	-0.9513
	-0.23613,	-0.94566
	-0.25648,	-0.93959
	-0.27658,	-0.93308
	-0.29645,	-0.92614
	-0.31606,	-0.91879
	-0.33542,	-0.91103
	-0.35452,	-0.90288
	-0.37335,	-0.89433
	-0.3919,	-0.8854
	-0.41018,	-0.87609
	-0.42818,	-0.86641
	-0.44589,	-0.85638
	-0.46331,	-0.84599
	-0.48043,	-0.83525
	-0.49725,	-0.82418
	-0.51377,	-0.81278
	-0.52998,	-0.80105
	-0.54587,	-0.78901
	-0.56146,	-0.77666
	-0.57672,	-0.764
	-0.59166,	-0.75105
	-0.60628,	-0.73781
	-0.62057,	-0.72429
	-0.63452,	-0.71049
	-0.64815,	-0.69642
	-0.66143,	-0.68209
END
BEGIN
	 8.28868325000000051879970008532e-18 ,	 0 
	 2.56218657000000015193935072743e-15 ,	 4.03787763000000016312710582161e-11 
	 2.61249355000000012674588920698e-15 ,	 4.03787789999999986662431685402e-10 
	 7.25634829999999997668078273728e-15 ,	 4.03787769000000037870877782255e-09 
	 4.72193465000000031627323428205e-13 ,	 4.037877699999999885588123044e-08 
	 7.46883457999999964811180574837e-13 ,	 5.08338682999999998177295592455e-08 
	 1.1822261900000000443517892563e-12 ,	 6.39960485999999983990131581166e-08 
	 1.87219857999999986636982021285e-12 ,	 8.05662516999999974427371812226e-08 
	 2.96574569999999990052272994403e-12 ,	 1.01426900999999997142392890292e-07 
	 4.69888537999999998266161921433e-12 ,	 1.27688902999999991670268930169e-07 
	 7.44572632999999976018301540682e-12 ,	 1.60750803000000007956447585847e-07 
	 1.1799186599999999583587212194e-11 ,	 2.02373269000000004708261628662e-07 
	 1.86989434000000014477153808357e-11 ,	 2.54772845999999998283994237167e-07 
	 2.96343193000000008980383073298e-11 ,	 3.20740001000000002390644560785e-07 
	 4.69657073999999975050133812591e-11 ,	 4.03787719999999979237693438494e-07 
	 7.44340718e-11 ,	 5.08338584e-07 
	 1.17968406e-10 ,	 6.39960288e-07 
	 1.86965455e-10 ,	 8.05662122e-07 
	 2.96317811e-10 ,	 1.01426823e-06 
	 4.69628196e-10 ,	 1.27688746e-06 
	 7.44303019e-10 ,	 1.6075049e-06 
	 1.17962418e-09 ,	 2.02372644e-06 
	 1.86953892e-09 ,	 2.54771599e-06 
	 2.96292272e-09 ,	 3.20737513e-06 
	 4.69567524e-09 ,	 4.03782755e-06 
	 7.4415412e-09 ,	 5.0832868e-06 
	 1.17925372e-08 ,	 6.39940529e-06 
	 1.86861207e-08 ,	 8.05622707e-06 
	 2.96059908e-08 ,	 1.01418961e-05 
	 4.68984598e-08 ,	 1.2767307e-05 
	 7.42691804e-08 ,	 1.60719245e-05 
	 1.17558717e-07 ,	 2.02310398e-05 
	 1.85942734e-07 ,	 2.5464771e-05 
	 2.93762685e-07 ,	 3.20491286e-05 
	 4.63253057e-07 ,	 4.03294489e-05 
	 7.28446837e-07 ,	 5.07363864e-05 
	 1.14039559e-06 ,	 6.38044481e-05 
	 1.77328982e-06 ,	 8.0192787e-05 
	 2.72973051e-06 ,	 0.000100708047 
	 4.14108984e-06 ,	 0.000126330577 
	 6.15683273e-06 ,	 0.000158250405 
	 8.91970191e-06 ,	 0.000197929186 
	 1.25395556e-05 ,	 0.000247212773 
	 1.48497766e-05 ,	 0.000278223782 
	 1.7157513e-05 ,	 0.000309212048 
	 2.28455958e-05 ,	 0.000385876517 
	 3.00731464e-05 ,	 0.000481932554 
	 3.84420116e-05 ,	 0.000586944515 
	 4.97563296e-05 ,	 0.000715050308 
	 6.08179512e-05 ,	 0.000826241381 
	 7.44302575e-05 ,	 0.000948082122 
	 0.000105085803 ,	 0.00118070366 
	 0.000142036749 ,	 0.00141252419 
	 0.000185374714 ,	 0.00164321493 
	 0.000235105072 ,	 0.00187249277 
	 0.000291192499 ,	 0.00210010277 
	 0.000353578388 ,	 0.00232580798 
	 0.000422188345 ,	 0.00254938391 
	 0.00049693577 ,	 0.00277061551 
	 0.000577723751 ,	 0.00298929562 
	 0.000664446177 ,	 0.00320522406 
	 0.000756988469 ,	 0.00341820726 
	 0.000855228111 ,	 0.00362805811 
	 0.000959035089 ,	 0.00383459593 
	 0.00106827227 ,	 0.00403764657 
	 0.00118279575 ,	 0.00423704255 
	 0.00130245519 ,	 0.00443262322 
	 0.0014270942 ,	 0.00462423496 
	 0.00155655061 ,	 0.00481173137 
	 0.00169065687 ,	 0.00499497344 
	 0.00182924036 ,	 0.00517382975 
	 0.00197212379 ,	 0.00534817664 
	 0.00211912551 ,	 0.00551789839 
	 0.00227005992 ,	 0.00568288735 
	 0.00242473784 ,	 0.00584304408 
	 0.00258296686 ,	 0.00599827749 
	 0.00274455174 ,	 0.0061485049 
	 0.00290929481 ,	 0.00629365219 
	 0.00307699633 ,	 0.00643365381 
	 0.0034205,	 0.006698
	 0.0037733,	 0.0069412
	 0.004134,	 0.007163
	 0.0045008,	 0.0073634
	 0.0048721,	 0.0075424
	 0.0052464,	 0.0077003
	 0.005622,	 0.0078373
	 0.0059976,	 0.0079538
	 0.0063717,	 0.0080505
	 0.0067428,	 0.0081281
	 0.0071098,	 0.0081873
	 0.0074714,	 0.0082289
	 0.0078265,	 0.008254
	 0.0081741,	 0.0082636
	 0.0085133,	 0.0082588
	 0.0088433,	 0.0082407
	 0.0091634,	 0.0082106
	 0.0094729,	 0.0081697
	 0.0097715,	 0.0081194
	 0.010059,	 0.0080608
	 0.010334,	 0.0079954
	 0.010598,	 0.0079245
	 0.010851,	 0.0078493
	 0.011091,	 0.0077712
	 0.01132,	 0.0076915
	 0.011538,	 0.0076114
	 0.011746,	 0.0075321
	 0.011943,	 0.0074548
	 0.01213,	 0.0073807
	 0.012308,	 0.0073108
	 0.012478,	 0.0072462
	 0.012641,	 0.0071878
	 0.012797,	 0.0071364
	 0.012947,	 0.007093
	 0.013094,	 0.0070581
	 0.013236,	 0.0070326
	 0.013377,	 0.0070169
	 0.013516,	 0.0070116
	 0.013656,	 0.007017
	 0.013797,	 0.0070334
	 0.013941,	 0.0070609
	 0.01409,	 0.0070998
	 0.014244,	 0.00715
	 0.014404,	 0.0072113
	 0.014573,	 0.0072835
	 0.014752,	 0.0073664
	 0.014942,	 0.0074594
	 0.015144,	 0.0075621
	 0.015359,	 0.0076737
	 0.015589,	 0.0077935
	 0.015836,	 0.0079207
	 0.016099,	 0.0080543
	 0.016381,	 0.0081932
	 0.016682,	 0.0083364
	 0.017003,	 0.0084827
	 0.017344,	 0.0086307
	 0.017708,	 0.0087792
	 0.018093,	 0.0089267
	 0.018502,	 0.0090719
	 0.018933,	 0.0092133
	 0.019388,	 0.0093495
	 0.019867,	 0.0094789
	 0.020369,	 0.0096002
	 0.020895,	 0.0097118
	 0.021444,	 0.0098126
	 0.022017,	 0.009901
	 0.022612,	 0.0099758
	 0.02323,	 0.010036
	 0.02387,	 0.01008
	 0.024531,	 0.010107
	 0.025214,	 0.010116
	 0.025916,	 0.010107
	 0.026639,	 0.010078
	 0.027381,	 0.010029
	 0.028142,	 0.0099585
	 0.028921,	 0.0098671
	 0.029718,	 0.0097542
	 0.030532,	 0.0096192
	 0.031363,	 0.0094621
	 0.032211,	 0.0092827
END
BEGIN
	 8.28868325000000051879970008532e-18 ,	 0 
	 2.56218657000000015193935072743e-15 ,	 4.03787763000000016312710582161e-11 
	 2.61249355000000012674588920698e-15 ,	 4.03787789999999986662431685402e-10 
	 7.25634829999999997668078273728e-15 ,	 4.03787769000000037870877782255e-09 
	 4.72193465000000031627323428205e-13 ,	 4.037877699999999885588123044e-08 
	 7.46883457999999964811180574837e-13 ,	 5.08338682999999998177295592455e-08 
	 1.1822261900000000443517892563e-12 ,	 6.39960485999999983990131581166e-08 
	 1.87219857999999986636982021285e-12 ,	 8.05662516999999974427371812226e-08 
	 2.96574569999999990052272994403e-12 ,	 1.01426900999999997142392890292e-07 
	 4.69888537999999998266161921433e-12 ,	 1.27688902999999991670268930169e-07 
	 7.44572632999999976018301540682e-12 ,	 1.60750803000000007956447585847e-07 
	 1.1799186599999999583587212194e-11 ,	 2.02373269000000004708261628662e-07 
	 1.86989434000000014477153808357e-11 ,	 2.54772845999999998283994237167e-07 
	 2.96343193000000008980383073298e-11 ,	 3.20740001000000002390644560785e-07 
	 4.69657073999999975050133812591e-11 ,	 4.03787719999999979237693438494e-07 
	 7.44340718e-11 ,	 5.08338584e-07 
	 1.17968406e-10 ,	 6.39960288e-07 
	 1.86965455e-10 ,	 8.05662122e-07 
	 2.96317811e-10 ,	 1.01426823e-06 
	 4.69628196e-10 ,	 1.27688746e-06 
	 7.44303019e-10 ,	 1.6075049e-06 
	 1.17962418e-09 ,	 2.02372644e-06 
	 1.86953892e-09 ,	 2.54771599e-06 
	 2.96292272e-09 ,	 3.20737513e-06 
	 4.69567524e-09 ,	 4.03782755e-06 
	 7.4415412e-09 ,	 5.0832868e-06 
	 1.17925372e-08 ,	 6.39940529e-06 
	 1.86861207e-08 ,	 8.05622707e-06 
	 2.96059908e-08 ,	 1.01418961e-05 
	 4.68984598e-08 ,	 1.2767307e-05 
	 7.42691804e-08 ,	 1.60719245e-05 
	 1.17558717e-07 ,	 2.02310398e-05 
	 1.85942734e-07 ,	 2.5464771e-05 
	 2.93762685e-07 ,	 3.20491286e-05 
	 4.63253057e-07 ,	 4.03294489e-05 
	 7.28446837e-07 ,	 5.07363864e-05 
	 1.14039559e-06 ,	 6.38044481e-05 
	 1.77328982e-06 ,	 8.0192787e-05 
	 2.72973051e-06 ,	 0.000100708047 
	 4.14108984e-06 ,	 0.000126330577 
	 6.15683273e-06 ,	 0.000158250405 
	 8.91970191e-06 ,	 0.000197929186 
	 1.25395556e-05 ,	 0.000247212773 
	 1.48497766e-05 ,	 0.000278223782 
	 1.7157513e-05 ,	 0.000309212048 
	 2.28455958e-05 ,	 0.000385876517 
	 3.00731464e-05 ,	 0.000481932554 
	 3.84420116e-05 ,	 0.000586944515 
	 4.97563296e-05 ,	 0.000715050308 
	 6.08179512e-05 ,	 0.000826241381 
	 7.44302575e-05 ,	 0.000948082122 
	 0.000105085803 ,	 0.00118070366 
	 0.000142036749 ,	 0.00141252419 
	 0.000185374714 ,	 0.00164321493 
	 0.000235105072 ,	 0.00187249277 
	 0.000291192499 ,	 0.00210010277 
	 0.000353578388 ,	 0.00232580798 
	 0.000422188345 ,	 0.00254938391 
	 0.00049693577 ,	 0.00277061551 
	 0.000577723751 ,	 0.00298929562 
	 0.000664446177 ,	 0.00320522406 
	 0.000756988469 ,	 0.00341820726 
	 0.000855228111 ,	 0.00362805811 
	 0.000959035089 ,	 0.00383459593 
	 0.00106827227 ,	 0.00403764657 
	 0.00118279575 ,	 0.00423704255 
	 0.00130245519 ,	 0.00443262322 
	 0.0014270942 ,	 0.00462423496 
	 0.00155655061 ,	 0.00481173137 
	 0.00169065687 ,	 0.00499497344 
	 0.00182924036 ,	 0.00517382975 
	 0.00197212379 ,	 0.00534817664 
	 0.00211912551 ,	 0.00551789839 
	 0.00227005992 ,	 0.00568288735 
	 0.00242473784 ,	 0.00584304408 
	 0.00258296686 ,	 0.00599827749 
	 0.00274455174 ,	 0.0061485049 
	 0.00290929481 ,	 0.00629365219 
	 0.00307699633 ,	 0.00643365381 
	 0.0034205,	 0.006698
	 0.0037733,	 0.0069412
	 0.004134,	 0.007163
	 0.0045008,	 0.0073634
	 0.0048721,	 0.0075424
	 0.0052464,	 0.0077003
	 0.005622,	 0.0078373
	 0.0059976,	 0.0079538
	 0.0063717,	 0.0080505
	 0.0067428,	 0.0081281
	 0.0071098,	 0.0081873
	 0.0074714,	 0.0082289
	 0.0078265,	 0.008254
	 0.0081741,	 0.0082636
	 0.0085133,	 0.0082588
	 0.0088433,	 0.0082407
	 0.0091634,	 0.0082106
	 0.0094729,	 0.0081697
	 0.0097715,	 0.0081194
	 0.010059,	 0.0080608
	 0.010334,	 0.0079954
	 0.010598,	 0.0079245
	 0.010851,	 0.0078493
	 0.011091,	 0.0077712
	 0.01132,	 0.0076915
	 0.011538,	 0.0076114
	 0.011746,	 0.0075321
	 0.011943,	 0.0074548
	 0.01213,	 0.0073807
	 0.012308,	 0.0073108
	 0.012478,	 0.0072462
	 0.012641,	 0.0071878
	 0.012797,	 0.0071364
	 0.012947,	 0.007093
	 0.013094,	 0.0070581
	 0.013236,	 0.0070326
	 0.013377,	 0.0070169
	 0.013516,	 0.0070116
	 0.013656,	 0.007017
	 0.013797,	 0.0070334
	 0.013941,	 0.0070609
	 0.01409,	 0.0070998
	 0.014244,	 0.00715
	 0.014404,	 0.0072113
	 0.014573,	 0.0072835
	 0.014752,	 0.0073664
	 0.014942,	 0.0074594
	 0.015144,	 0.0075621
	 0.015359,	 0.0076737
	 0.015589,	 0.0077935
	 0.015836,	 0.0079207
	 0.016099,	 0.0080543
	 0.016381,	 0.0081932
	 0.016682,	 0.0083364
	 0.017003,	 0.0084827
	 0.017344,	 0.0086307
	 0.017708,	 0.0087792
	 0.018093,	 0.0089267
	 0.018502,	 0.0090719
	 0.018933,	 0.0092133
	 0.019388,	 0.0093495
	 0.019867,	 0.0094789
	 0.020369,	 0.0096002
	 0.020895,	 0.0097118
	 0.021444,	 0.0098126
	 0.022017,	 0.009901
	 0.022612,	 0.0099758
	 0.02323,	 0.010036
	 0.02387,	 0.01008
	 0.024531,	 0.010107
	 0.025214,	 0.010116
	 0.025916,	 0.010107
	 0.026639,	 0.010078
	 0.027381,	 0.010029
	 0.028142,	 0.0099585
	 0.028921,	 0.0098671
	 0.029718,	 0.0097542
	 0.030532,	 0.0096192
	 0.031363,	 0.0094621
	 0.032211,	 0.0092827
END
BEGIN
	 0.999999999999998445687765524781 ,	 -0 
	 0.999999999999998667732370449812 ,	 -2.27677932063130583628662861884e-09 
	 0.999999999999998445687765524781 ,	 -2.27677941500026292942493455485e-08 
	 0.999999999999969357844520345679 ,	 -2.27677943387405434805259574205e-07 
	 0.999999999997096655768302753131 ,	 -2.27677943254178671850240789354e-06 
	 0.999999999995399013741348426265 ,	 -2.86629548412742352070381457452e-06 
	 0.999999999992708055174261971842 ,	 -3.6084522226920157095264585223e-06 
	 0.999999999988445908982725995884 ,	 -4.54277220007792692513248766772e-06 
	 0.999999999981687759387227742991 ,	 -5.71901136275920762841451505665e-06 
	 0.999999999970978326047088557971 ,	 -7.19980873487013894873598474078e-06 
