CITIFILE A.01.01
#Momentum: B.12.070 (*) built: Feb 13 2020 
#Momentum Date and Time: Wed Sep  7 09:52:31 2022

NAME Momentum.SP

#  mode: MW    reference: S_50

#eesof Port[1] P1
#eesof Port[2] P2

CONSTANT NBR_OF_PORTS 2

CONSTANT NORMALIZATION 1

VAR freq MAG 290

DATA S[1,1] RI
DATA S[1,2] RI
DATA S[2,1] RI
DATA S[2,2] RI
DATA PORTZ[1] RI
DATA PORTZ[2] RI

VAR_LIST_BEGIN
	 0
	 8.701167246
	 87.01167246
	 870.1167246
	 8701.167246
	 10954.12056
	 13790.42074
	 17361.1111
	 21856.34394
	 27515.5068
	 34639.97073
	 43609.13942
	 54900.6538
	 69115.82819
	 87011.67246
	 109541.2056
	 137904.2074
	 173611.111
	 218563.4394
	 275155.068
	 346399.7073
	 436091.3942
	 549006.538
	 691158.2819
	 870116.7246
	 1095412.056
	 1379042.074
	 1736111.11
	 2185634.394
	 2751550.68
	 3463997.073
	 4360913.942
	 5490065.38
	 6911582.819
	 8701167.246
	 10954120.56
	 13790420.74
	 17361111.1
	 19629339.22
	 21908241.12
	 27580841.47
	 34722222.21
	 42541975.05
	 52083333.31
	 60365357.39
	 69444444.41
	 86805555.52
	 104166666.6
	 121527777.7
	 138888888.8
	 173611111
	 208333333.2
	 243055555.4
	 277777777.6
	 312499999.9
	 347222222.1
	 381944444.3
	 416666666.5
	 451388888.7
	 486111110.9
	 520833333.1
	 555555555.3
	 590277777.5
	 624999999.7
	 659722221.9
	 694444444.1
	 729166666.3
	 763888888.6
	 798611110.8
	 833333333
	 902777777.4
	 972222221.8
	 1041666666
	 1111111111
	 1180555555
	 1249999999
	 1319444444
	 1388888888
	 1423611111
	 1458333333
	 1493055555
	 1527777777
	 1562499999
	 1597222222
	 1631944444
	 1666666666
	 1718749999
	 1770833333
	 1822916666
	 1874999999
	 1927083333
	 1979166666
	 2031249999
	 2083333333
	 2135416666
	 2187499999
	 2239583333
	 2291666666
	 2343749999
	 2395833333
	 2447916666
	 2500000000
	 2552083333
	 2604166666
	 2656250000
	 2708333333
	 2760416666
	 2812500000
	 2864583333
	 2916666666
	 2968750000
	 3020833333
	 3072916666
	 3125000000
	 3177083333
	 3229166666
	 3281250000
	 3333333333
	 3385416666
	 3437500000
	 3489583333
	 3541666666
	 3593750000
	 3645833333
	 3697916666
	 3750000000
	 3802083333
	 3854166666
	 3906250000
	 3958333333
	 4010416666
	 4062500000
	 4114583333
	 4166666666
	 4218750000
	 4270833333
	 4322916667
	 4375000000
	 4427083333
	 4479166667
	 4531250000
	 4583333333
	 4635416667
	 4687500000
	 4739583333
	 4791666667
	 4843750000
	 4895833333
	 4947916667
	 5000000000
	 5052083333
	 5104166667
	 5156250000
	 5208333333
	 5260416667
	 5312500000
	 5364583333
	 5416666667
	 5468750000
	 5520833333
	 5572916667
	 5625000000
	 5677083333
	 5729166667
	 5781250000
	 5833333334
	 5885416667
	 5937500000
	 5989583334
	 6041666667
	 6093750000
	 6145833334
	 6197916667
	 6250000000
	 6302083334
	 6354166667
	 6406250000
	 6458333334
	 6510416667
	 6562500000
	 6614583334
	 6666666667
	 6718750000
	 6770833334
	 6822916667
	 6875000000
	 6901041667
	 6927083334
	 6953125000
	 6979166667
	 7005208334
	 7031250000
	 7057291667
	 7083333334
	 7109375000
	 7135416667
	 7161458334
	 7187500000
	 7213541667
	 7239583334
	 7265625000
	 7291666667
	 7317708334
	 7343750000
	 7369791667
	 7395833334
	 7421875000
	 7447916667
	 7473958334
	 7500000000
	 7526041667
	 7552083334
	 7578125001
	 7604166667
	 7630208334
	 7656250001
	 7682291667
	 7708333334
	 7760416667
	 7812500001
	 7864583334
	 7916666667
	 7968750001
	 8020833334
	 8072916667
	 8125000001
	 8177083334
	 8229166667
	 8281250001
	 8333333334
	 8385416667
	 8437500001
	 8489583334
	 8541666667
	 8567708334
	 8593750001
	 8619791667
	 8645833334
	 8671875001
	 8697916667
	 8723958334
	 8750000000
	 8776041667
	 8802083334
	 8828125000
	 8854166667
	 8880208334
	 8906250000
	 8932291667
	 8958333334
	 8984375000
	 9010416667
	 9036458334
	 9062500000
	 9088541667
	 9114583334
	 9140625000
	 9166666667
	 9192708334
	 9218750000
	 9244791667
	 9270833334
	 9296875000
	 9322916667
	 9348958334
	 9375000000
	 9401041667
	 9427083334
	 9453125000
	 9479166667
	 9505208334
	 9531250000
	 9557291667
	 9583333334
	 9609375000
	 9635416667
	 9661458333
	 9687500000
	 9713541667
	 9739583333
	 9765625000
	 9791666667
	 9817708333
	 9843750000
	 9869791667
	 9895833333
	 9921875000
	 9947916667
	 9973958333
	 1e+10
VAR_LIST_END

BEGIN
	 2.34525692999999997372887611258e-05 ,	 -0 
	 2.34525692999999997372887611258e-05 ,	 -3.21850838000000010804276522763e-10 
	 2.34525692999999997372887611258e-05 ,	 -3.21850802999999999647281886332e-09 
	 2.34525692999999997372887611258e-05 ,	 -3.21850798999999973556778408434e-08 
	 2.34525683999999985901267762767e-05 ,	 -3.21850798999999973556778408434e-07 
	 2.34525679000000005880281761517e-05 ,	 -4.05186150000000000846310955344e-07 
	 2.34525671000000010741649847379e-05 ,	 -5.10099140000000051751289330271e-07 
	 2.34525658000000001700714041819e-05 ,	 -6.42176769999999980014838453501e-07 
	 2.34525638000000013854134256475e-05 ,	 -8.08452654999999959359237734074e-07 
	 2.34525605999999999418288709752e-05 ,	 -1.0177815899999999431786148682e-06 
	 2.34525553999999997135863377684e-05 ,	 -1.28131110999999998008053603976e-06 
	 2.34525472999999995535238411781e-05 ,	 -1.61307512000000002171790341315e-06 
	 2.34525345000000005554492005233e-05 ,	 -2.03074124999999980765628092294e-06 
	 2.34525140999999993994106634032e-05 ,	 -2.55655176999999996816288240498e-06 
	 2.34524818999999986376264748955e-05 ,	 -3.21850799000000015908425771149e-06 
	 2.34524307e-05 ,	 -4.05186149e-06 
	 2.34523497e-05 ,	 -5.1009914e-06 
	 2.34522213e-05 ,	 -6.42176769e-06 
	 2.34520177e-05 ,	 -8.08452652e-06 
	 2.34516951e-05 ,	 -1.01778159e-05 
	 2.34511837e-05 ,	 -1.2813111e-05 
	 2.34503733e-05 ,	 -1.6130751e-05 
	 2.34490889e-05 ,	 -2.03074122e-05 
	 2.34470532e-05 ,	 -2.5565517e-05 
	 2.34438269e-05 ,	 -3.21850785e-05 
	 2.34387135e-05 ,	 -4.05186121e-05 
	 2.34306094e-05 ,	 -5.10099084e-05 
	 2.34177652e-05 ,	 -6.42176658e-05 
	 2.33974086e-05 ,	 -8.08452432e-05 
	 2.33651455e-05 ,	 -0.000101778115 
	 2.3314012e-05 ,	 -0.000128131022 
	 2.3232971e-05 ,	 -0.000161307334 
	 2.31045299e-05 ,	 -0.000203073772 
	 2.29009654e-05 ,	 -0.000255654472 
	 2.25783395e-05 ,	 -0.000321849393 
	 2.20670169e-05 ,	 -0.000405183343 
	 2.12566381e-05 ,	 -0.000510093541 
	 1.99723064e-05 ,	 -0.000642165597 
	 1.90035598e-05 ,	 -0.000726060976 
	 1.79106358e-05 ,	 -0.000810349844 
	 1.46695374e-05 ,	 -0.00102015347 
	 9.53325701e-06 ,	 -0.0012842641 
	 2.55951732e-06 ,	 -0.00157343679 
	 -7.85938804e-06 ,	 -0.00192622811 
	 -1.86038971e-05 ,	 -0.00223240645 
	 -3.21970649e-05 ,	 -0.00256798968 
	 -6.34679646e-05 ,	 -0.00320947999 
	 -0.000101657204 ,	 -0.00385062918 
	 -0.000146747035 ,	 -0.00449136609 
	 -0.000198717078 ,	 -0.00513161814 
	 -0.000323204684 ,	 -0.00641036954 
	 -0.000474914328 ,	 -0.00768627085 
	 -0.000653615017 ,	 -0.00895868382 
	-0.00085906,	-0.010227
	-0.001091,	-0.01149
	-0.0013491,	-0.012748
	-0.0016332,	-0.014
	-0.001943,	-0.015245
	-0.0022781,	-0.016482
	-0.0026384,	-0.01771
	-0.0030235,	-0.01893
	-0.0034331,	-0.02014
	-0.003867,	-0.02134
	-0.0043249,	-0.022528
	-0.0048064,	-0.023705
	-0.0053112,	-0.024869
	-0.0058389,	-0.026021
	-0.0063893,	-0.027158
	-0.006962,	-0.028282
	-0.0075566,	-0.029391
	-0.00881,	-0.031562
	-0.010146,	-0.033668
	-0.011562,	-0.035705
	-0.013054,	-0.037667
	-0.014618,	-0.039553
	-0.01625,	-0.041358
	-0.017947,	-0.04308
	-0.019703,	-0.044715
	-0.020603,	-0.045499
	-0.021516,	-0.04626
	-0.022442,	-0.046998
	-0.023381,	-0.047713
	-0.024331,	-0.048405
	-0.025292,	-0.049072
	-0.026264,	-0.049716
	-0.027246,	-0.050335
	-0.028737,	-0.051217
	-0.030247,	-0.052044
	-0.031775,	-0.052813
	-0.033318,	-0.053526
	-0.034874,	-0.05418
	-0.036442,	-0.054776
	-0.03802,	-0.055313
	-0.039604,	-0.055792
	-0.041194,	-0.05621
	-0.042788,	-0.05657
	-0.044382,	-0.056869
	-0.045976,	-0.057109
	-0.047566,	-0.057289
	-0.049152,	-0.057409
	-0.050731,	-0.05747
	-0.052301,	-0.057471
	-0.053859,	-0.057413
	-0.055405,	-0.057295
	-0.056935,	-0.05712
	-0.058448,	-0.056885
	-0.059942,	-0.056593
	-0.061415,	-0.056244
	-0.062865,	-0.055838
	-0.064289,	-0.055376
	-0.065686,	-0.054859
	-0.067055,	-0.054287
	-0.068392,	-0.053662
	-0.069696,	-0.052984
	-0.070966,	-0.052254
	-0.072198,	-0.051473
	-0.073393,	-0.050642
	-0.074546,	-0.049763
	-0.075658,	-0.048837
	-0.076726,	-0.047864
	-0.077749,	-0.046847
	-0.078724,	-0.045786
	-0.07965,	-0.044683
	-0.080525,	-0.04354
	-0.081349,	-0.042358
	-0.082118,	-0.041138
	-0.082833,	-0.039884
	-0.083491,	-0.038595
	-0.084091,	-0.037274
	-0.084632,	-0.035923
	-0.085112,	-0.034544
	-0.08553,	-0.033139
	-0.085885,	-0.031709
	-0.086176,	-0.030257
	-0.086403,	-0.028784
	-0.086562,	-0.027294
	-0.086655,	-0.025788
	-0.08668,	-0.024268
	-0.086636,	-0.022737
	-0.086523,	-0.021197
	-0.08634,	-0.01965
	-0.086086,	-0.018099
	-0.085762,	-0.016546
	-0.085365,	-0.014993
	-0.084897,	-0.013443
	-0.084358,	-0.011899
	-0.083746,	-0.010363
	-0.083061,	-0.0088374
	-0.082305,	-0.0073247
	-0.081477,	-0.0058276
	-0.080576,	-0.0043486
	-0.079605,	-0.0028902
	-0.078562,	-0.0014551
	-0.077448,	-4.5694e-05
	-0.076264,	 0.0013354
	-0.07501,	 0.0026855
	-0.073688,	 0.0040023
	-0.072298,	 0.0052832
	-0.07084,	 0.0065256
	-0.069317,	 0.0077272
	-0.067728,	 0.0088854
	-0.066076,	 0.0099978
	-0.064362,	 0.011062
	-0.062586,	 0.012076
	-0.06075,	 0.013037
	-0.058856,	 0.013942
	-0.056905,	 0.01479
	-0.0549,	 0.015579
	-0.052841,	 0.016306
	-0.050732,	 0.016969
	-0.048572,	 0.017566
	-0.046366,	 0.018095
	-0.044114,	 0.018554
	-0.041819,	 0.018942
	-0.039484,	 0.019256
	-0.037109,	 0.019494
	-0.034699,	 0.019656
	-0.032255,	 0.01974
	-0.02978,	 0.019743
	-0.027276,	 0.019665
	-0.024746,	 0.019504
	-0.022193,	 0.019259
	-0.019619,	 0.018928
	-0.017027,	 0.018511
	-0.014421,	 0.018007
	-0.011802,	 0.017415
	-0.01049,	 0.017085
	-0.0091749,	 0.016733
	-0.0078586,	 0.016358
	-0.0065413,	 0.015961
	-0.0052231,	 0.015542
	-0.0039046,	 0.015099
	-0.0025861,	 0.014634
	-0.001268,	 0.014146
	 4.9309e-05,	 0.013635
	 0.0013655,	 0.013102
	 0.0026801,	 0.012545
	 0.0039927,	 0.011965
	 0.005303,	 0.011363
	 0.0066105,	 0.010737
	 0.0079149,	 0.010088
	 0.0092158,	 0.0094166
	 0.010513,	 0.0087219
	 0.011805,	 0.0080042
	 0.013093,	 0.0072634
	 0.014376,	 0.0064998
	 0.015653,	 0.0057131
	 0.016924,	 0.0049036
	 0.018189,	 0.0040712
	 0.019447,	 0.0032161
	 0.020697,	 0.0023382
	 0.021941,	 0.0014376
	 0.023176,	 0.00051451
	 0.024403,	-0.00043113
	 0.025621,	-0.0013992
	 0.02683,	-0.0023895
	 0.028029,	-0.0034021
	 0.029218,	-0.0044368
	 0.031565,	-0.0065719
	 0.033866,	-0.0087938
	 0.03612,	-0.011101
	 0.038323,	-0.013493
	 0.040471,	-0.015968
	 0.042561,	-0.018524
	 0.044591,	-0.02116
	 0.046558,	-0.023873
	 0.048458,	-0.026663
	 0.050289,	-0.029526
	 0.052047,	-0.032462
	 0.053731,	-0.035466
	 0.055336,	-0.038538
	 0.056862,	-0.041674
	 0.058305,	-0.044872
	 0.059662,	-0.048129
	 0.060308,	-0.049779
	 0.060932,	-0.051443
	 0.061533,	-0.05312
	 0.062112,	-0.05481
	 0.062667,	-0.056513
	 0.063199,	-0.058227
	 0.063708,	-0.059954
	 0.064193,	-0.061692
	 0.064654,	-0.063441
	 0.065091,	-0.0652
	 0.065504,	-0.06697
	 0.065891,	-0.06875
	 0.066254,	-0.070538
	 0.066592,	-0.072336
	 0.066905,	-0.074142
	 0.067192,	-0.075956
	 0.067454,	-0.077778
	 0.06769,	-0.079606
	 0.0679,	-0.081442
	 0.068084,	-0.083283
	 0.068242,	-0.08513
	 0.068373,	-0.086983
	 0.068479,	-0.08884
	 0.068557,	-0.090701
	 0.06861,	-0.092567
	 0.068635,	-0.094436
	 0.068634,	-0.096307
	 0.068606,	-0.098181
	 0.068551,	-0.10005
	 0.068469,	-0.10193
	 0.06836,	-0.10381
	 0.068224,	-0.10569
	 0.068061,	-0.10757
	 0.067871,	-0.10944
	 0.067655,	-0.11132
	 0.067411,	-0.1132
	 0.06714,	-0.11507
	 0.066843,	-0.11694
	 0.066518,	-0.11881
	 0.066167,	-0.12067
	 0.065789,	-0.12254
	 0.065384,	-0.12439
	 0.064953,	-0.12624
	 0.064495,	-0.12809
	 0.064011,	-0.12993
	 0.063501,	-0.13176
	 0.062964,	-0.13359
	 0.062402,	-0.13541
	 0.061814,	-0.13722
	 0.0612,	-0.13903
	 0.060561,	-0.14082
	 0.059896,	-0.14261
	 0.059206,	-0.14439
	 0.058491,	-0.14615
	 0.057752,	-0.14791
	 0.056988,	-0.14966
END
BEGIN
	 0.999976547430724282961023163807 ,	 -0 
	 0.999976547430735829280479265435 ,	 -2.56726578884425293836102355272e-09 
	 0.999976547430735163146664490341 ,	 -2.5672654169195396889335825108e-08 
	 0.999976547430631246271559575689 ,	 -2.5672654496711189153757004533e-07 
	 0.999976547420246553166123248957 ,	 -2.56726545083685309123211482074e-06 
	 0.999976547414111238687439708883 ,	 -3.23199571483634429114317754284e-06 
	 0.999976547404387683393167662871 ,	 -4.06884153469899700894529814832e-06 
	 0.999976547388976788610648327449 ,	 -5.12236800326304475561300932895e-06 
	 0.999976547364552104113499808591 ,	 -6.44867924431968830845107731875e-06 
	 0.999976547325841513824684625433 ,	 -8.11840616576908757906494429335e-06 
	 0.999976547264489923350083699916 ,	 -1.02204678104067525623577239458e-05 
	 0.999976547167253371206641077151 ,	 -1.28668066182169305022853222908e-05 
	 0.999976547013143868269935410353 ,	 -1.61983497628526151856931392103e-05 
	 0.99997654676889735636535760932 ,	 -2.03925140302985141715907957405e-05 
	 0.999976546381793340856347640511 ,	 -2.56726538937490644798344874289e-05 
	 0.999976545768274105441264509864 ,	 -3.23199559168485528459768829634e-05 
	 0.999976544795912358765122007753 ,	 -4.06884128982820669762077159248e-05 
	 0.999976543254824656870027865807 ,	 -5.12236751396000222769089305075e-05 
	 0.99997654081237041800989118201 ,	 -6.44867826800066268333466723561e-05 
	 0.999976536941353022491796309623 ,	 -8.11840421803267098255219025305e-05 
	 0.999976530806233276926775488391 ,	 -0.000102204639247427397918954738998 
	 0.999976521082797331629876680381 ,	 -0.000128667988648967224207808612846 
	 0.999976505672376281275148812711 ,	 -0.000161983342927218831874824900297 
	 0.999976481248971316162510447612 ,	 -0.000203924831640722725722980612773 
	 0.999976442541654408913132101588 ,	 -0.000256725923088063634480704422458 
	 0.999976381197635544317847688944 ,	 -0.000323198330440255254814019281184 
	 0.999976283981309332915543564013 ,	 -0.000406881677506187866555364962551 
	 0.999976129922380829739836372028 ,	 -0.000512231860581524589548507719883 
	 0.999975885802050434847387805348 ,	 -0.000644858070003806460590567439795 
	 0.999975499014433610867058632721 ,	 -0.000811820959682796328138465469237 
	 0.999974886291090769852019093378 ,	 -0.00102200757700560140861512081756 
	 0.999973915926818168742329362431 ,	 -0.00128660249178769170441682945238 
	 0.999972379849802028850547230832 ,	 -0.00161967917175198650170386827085 
	 0.999969949954674364178686118976 ,	 -0.00203894105318874752086344415147 
	 0.999966110379831629728641928523 ,	 -0.00256664780054932650799059956626 
	 0.999960053827196881925942761882 ,	 -0.00323076849231923590721748951182 
	 0.999950526118519089635583441122 ,	 -0.00406640902193738940084699606814 
	 0.999935600995734863438713091455 ,	 -0.00511756460612805552656823238067 
	 0.999924481677070153828879028879 ,	 -0.00578471593832569075388505552837 
	 0.999912076138329775076840633119 ,	 -0.00645449628455224688750035966223 
	 0.999876118668367119823869870743 ,	 -0.00811921102182472376185273787996 
	 0.999821503092966690218190706219 ,	 -0.0102092825438467316168100751383 
	 0.999751490888382998711847449158 ,	 -0.0124899389271486138675015808985 
	 0.999654457831872900186453989591 ,	 -0.0152611036142356604194958435983 
	 0.999562241668398909766324322845 ,	 -0.0176565269763563348348611725669 
	 0.999454739951179726986651985499 ,	 -0.0202727707386144984091913556767 
	 0.999235858694691225778683474346 ,	 -0.025252064210720570613943891658 
	 0.999004086937387070221916474111 ,	 -0.0302085653487639826941801857174 
	 0.998760859499257303006913844001 ,	 -0.0351503561042115775236993613362 
	 0.998505184552845204137838663883 ,	 -0.0400831843682517563465239618381 
	 0.997948864795347723166685227625 ,	 -0.0499352966968442113504522694711 
	 0.997320451521078621404114983306 ,	 -0.0597796812246294551052017141046 
	 0.996609212570904956507433780644 ,	 -0.0696203264512909036909604765242 
	 0.995808385560983611028973427892 ,	 -0.0794571694856642807280877605081 
	 0.994913862222438383220435298426 ,	 -0.0892887811530841957186055424245 
	 0.99392316333833508057438166361 ,	 -0.0991133552109822457687471342069 
	 0.992834800784402005113804534631 ,	 -0.108929055065905944221782419845 
	 0.991647900208716626124783033447 ,	 -0.118734123733963081726017207984 
	 0.990361978217752403352847068163 ,	 -0.128526908499159597809580191097 
	 0.98897,	-0.1383
	 0.98749,	-0.14806
	 0.9859,	-0.15781
	 0.98422,	-0.16754
	 0.98244,	-0.17725
	 0.98056,	-0.18694
	 0.97858,	-0.19661
	 0.9765,	-0.20625
	 0.97433,	-0.21587
	 0.97206,	-0.22547
	 0.96969,	-0.23504
	 0.96467,	-0.25409
	 0.95926,	-0.27303
	 0.95348,	-0.29185
	 0.94733,	-0.31053
	 0.9408,	-0.32908
	 0.93391,	-0.34748
	 0.92666,	-0.36573
	 0.91905,	-0.38381
	 0.91511,	-0.3928
	 0.91109,	-0.40174
	 0.90697,	-0.41064
	 0.90277,	-0.41949
	 0.89849,	-0.42831
	 0.89411,	-0.43707
	 0.88966,	-0.44579
	 0.88511,	-0.45447
	 0.87814,	-0.46739
	 0.87098,	-0.4802
	 0.86363,	-0.49291
	 0.8561,	-0.5055
	 0.84839,	-0.51797
	 0.84049,	-0.53033
	 0.83241,	-0.54257
	 0.82416,	-0.55468
	 0.81573,	-0.56667
	 0.80712,	-0.57853
	 0.79834,	-0.59026
	 0.78939,	-0.60186
	 0.78028,	-0.61332
	 0.77099,	-0.62465
	 0.76154,	-0.63584
	 0.75192,	-0.64688
	 0.74215,	-0.65779
	 0.73221,	-0.66854
	 0.72212,	-0.67915
	 0.71187,	-0.68961
	 0.70147,	-0.69991
	 0.69092,	-0.71007
	 0.68022,	-0.72006
	 0.66937,	-0.7299
	 0.65838,	-0.73957
	 0.64725,	-0.74908
	 0.63597,	-0.75843
	 0.62456,	-0.76761
	 0.61301,	-0.77662
	 0.60133,	-0.78546
	 0.58952,	-0.79413
	 0.57758,	-0.80262
	 0.56552,	-0.81094
	 0.55333,	-0.81908
	 0.54102,	-0.82704
	 0.52859,	-0.83482
	 0.51604,	-0.84241
	 0.50338,	-0.84982
	 0.49061,	-0.85705
	 0.47773,	-0.86408
	 0.46475,	-0.87093
	 0.45166,	-0.87758
	 0.43846,	-0.88404
	 0.42517,	-0.89031
	 0.41179,	-0.89638
	 0.39831,	-0.90225
	 0.38473,	-0.90793
	 0.37107,	-0.9134
	 0.35733,	-0.91867
	 0.3435,	-0.92374
	 0.32959,	-0.9286
	 0.3156,	-0.93325
	 0.30154,	-0.9377
	 0.2874,	-0.94194
	 0.2732,	-0.94596
	 0.25893,	-0.94978
	 0.2446,	-0.95338
	 0.2302,	-0.95677
	 0.21575,	-0.95994
	 0.20124,	-0.9629
	 0.18668,	-0.96563
	 0.17207,	-0.96815
	 0.15742,	-0.97045
	 0.14272,	-0.97252
	 0.12799,	-0.97437
	 0.11321,	-0.976
	 0.098412,	-0.9774
	 0.083576,	-0.97858
	 0.068713,	-0.97953
	 0.053827,	-0.98025
	 0.03892,	-0.98074
	 0.023997,	-0.981
	 0.0090613,	-0.98103
	-0.0058847,	-0.98083
	-0.020837,	-0.9804
	-0.035792,	-0.97973
	-0.050746,	-0.97883
	-0.065695,	-0.9777
	-0.080636,	-0.97633
	-0.095565,	-0.97472
	-0.11047,	-0.97288
	-0.12537,	-0.97081
	-0.14024,	-0.96849
	-0.15508,	-0.96594
	-0.16989,	-0.96315
	-0.18467,	-0.96013
	-0.19941,	-0.95687
	-0.2141,	-0.95337
	-0.22875,	-0.94963
	-0.24334,	-0.94565
	-0.25788,	-0.94144
	-0.27236,	-0.93699
	-0.28678,	-0.93231
	-0.30113,	-0.92738
	-0.31541,	-0.92223
	-0.32961,	-0.91684
	-0.34373,	-0.91121
	-0.35776,	-0.90535
	-0.3717,	-0.89926
	-0.38556,	-0.89294
	-0.39245,	-0.88969
	-0.39931,	-0.88638
	-0.40615,	-0.88302
	-0.41296,	-0.8796
	-0.41975,	-0.87613
	-0.4265,	-0.87259
	-0.43324,	-0.869
	-0.43994,	-0.86536
	-0.44661,	-0.86165
	-0.45326,	-0.85789
	-0.45987,	-0.85408
	-0.46645,	-0.85021
	-0.47301,	-0.84629
	-0.47953,	-0.8423
	-0.48602,	-0.83827
	-0.49248,	-0.83418
	-0.4989,	-0.83003
	-0.50529,	-0.82584
	-0.51165,	-0.82158
	-0.51797,	-0.81728
	-0.52425,	-0.81292
	-0.5305,	-0.8085
	-0.53672,	-0.80404
	-0.54289,	-0.79952
	-0.54903,	-0.79495
	-0.55514,	-0.79033
	-0.5612,	-0.78565
	-0.56722,	-0.78093
	-0.57321,	-0.77615
	-0.57915,	-0.77132
	-0.58506,	-0.76645
	-0.59092,	-0.76152
	-0.60253,	-0.75151
	-0.61396,	-0.74132
	-0.62522,	-0.73092
	-0.6363,	-0.72034
	-0.64721,	-0.70957
	-0.65792,	-0.69862
	-0.66845,	-0.68749
	-0.67879,	-0.67618
	-0.68893,	-0.6647
	-0.69887,	-0.65305
	-0.7086,	-0.64124
	-0.71814,	-0.62926
	-0.72746,	-0.61713
	-0.73657,	-0.60484
	-0.74547,	-0.59241
	-0.75415,	-0.57983
	-0.7584,	-0.57348
	-0.7626,	-0.5671
	-0.76675,	-0.56069
	-0.77084,	-0.55425
	-0.77487,	-0.54777
	-0.77885,	-0.54125
	-0.78276,	-0.53471
	-0.78663,	-0.52814
