CITIFILE A.01.01
#Momentum: B.12.070 (*) built: Feb 13 2020 
#Momentum Date and Time: Wed Sep  7 05:59:04 2022

NAME Momentum.SP

#  mode: MW    reference: S_50

#eesof Port[1] P1
#eesof Port[2] P2

CONSTANT NBR_OF_PORTS 2

CONSTANT NORMALIZATION 1

VAR freq MAG 159

DATA S[1,1] RI
DATA S[1,2] RI
DATA S[2,1] RI
DATA S[2,2] RI
DATA PORTZ[1] RI
DATA PORTZ[2] RI

VAR_LIST_BEGIN
	 0
	 8.254652041
	 82.54652041
	 825.4652041
	 8254.652041
	 10391.99122
	 13082.74183
	 16470.19614
	 20734.74846
	 26103.50174
	 32862.36168
	 41371.26221
	 52083.33331
	 65569.03184
	 82546.52041
	 103919.9122
	 130827.4183
	 164701.9614
	 207347.4846
	 261035.0174
	 328623.6168
	 413712.6221
	 520833.3331
	 655690.3184
	 825465.2041
	 1039199.122
	 1308274.183
	 1647019.614
	 2073474.846
	 2610350.174
	 3286236.168
	 4137126.221
	 5208333.331
	 6556903.184
	 8254652.041
	 10391991.22
	 13082741.83
	 16470196.14
	 20734748.46
	 26103501.74
	 32862361.68
	 41371262.21
	 52083333.31
	 58888017.66
	 65724723.36
	 82742524.42
	 104166666.6
	 127625925.2
	 156249999.9
	 181096072.2
	 208333333.2
	 260416666.6
	 312499999.9
	 364583333.2
	 416666666.5
	 468749999.8
	 520833333.1
	 572916666.4
	 624999999.8
	 677083333.1
	 729166666.4
	 781249999.7
	 833333333
	 885416666.3
	 937499999.6
	 989583332.9
	 1041666666
	 1093750000
	 1145833333
	 1197916666
	 1250000000
	 1302083333
	 1354166666
	 1406249999
	 1458333333
	 1510416666
	 1562499999
	 1614583333
	 1666666666
	 1770833333
	 1874999999
	 1979166666
	 2083333333
	 2187499999
	 2291666666
	 2395833333
	 2500000000
	 2604166666
	 2708333333
	 2812500000
	 2916666666
	 3020833333
	 3125000000
	 3229166666
	 3333333333
	 3437500000
	 3541666666
	 3645833333
	 3750000000
	 3854166666
	 3958333333
	 4062500000
	 4166666666
	 4270833333
	 4375000000
	 4479166667
	 4583333333
	 4687500000
	 4791666667
	 4895833333
	 5000000000
	 5104166667
	 5208333333
	 5312500000
	 5416666667
	 5520833333
	 5625000000
	 5729166667
	 5833333334
	 5937500000
	 6041666667
	 6145833334
	 6250000000
	 6354166667
	 6458333334
	 6562500000
	 6666666667
	 6770833334
	 6875000000
	 6979166667
	 7083333334
	 7187500000
	 7291666667
	 7395833334
	 7500000000
	 7604166667
	 7708333334
	 7812500001
	 7916666667
	 8020833334
	 8125000001
	 8229166667
	 8333333334
	 8437500001
	 8541666667
	 8645833334
	 8750000000
	 8854166667
	 8958333334
	 9062500000
	 9166666667
	 9270833334
	 9375000000
	 9479166667
	 9583333334
	 9687500000
	 9791666667
	 9895833333
	 1e+10
VAR_LIST_END

BEGIN
	 0.999999999999998445687765524781 ,	 -0 
	 1.00000000000000088817841970013 ,	 -2.32137042921465308609185740352e-09 
	 1.00000000000000111022302462516 ,	 -2.32137020717004816106054931879e-08 
	 0.999999999999970468067544970836 ,	 -2.32137018274514161930710542947e-07 
	 0.999999999996991961737080600869 ,	 -2.32137017608380347155616618693e-06 
	 0.999999999995232036198444802721 ,	 -2.92243190513907791228120913729e-06 
	 0.999999999992442711871376559429 ,	 -3.67912378940182804853975540027e-06 
	 0.999999999988022025831924111117 ,	 -4.63174243181541100966569501907e-06 
	 0.999999999981015186278909823159 ,	 -5.83101824758180953267583390698e-06 
	 0.999999999969911845809633632598 ,	 -7.34081704889533170899085234851e-06 
	 0.99999999995231281246788057615 ,	 -9.24154112591502041595958871767e-06 
	 0.999999999924421345554037543479 ,	 -1.16344109679644702737277839333e-05 
	 0.999999999880215817427142610541 ,	 -1.46468556179168984954230836593e-05 
	 0.999999999810152528922913006681 ,	 -1.84392987387926865494591766037e-05 
	 0.999999999699112684936608275166 ,	 -2.32137017559530534072109730914e-05 
	 0.999999999523125016054336811067 ,	 -2.92243190378460582223851815797e-05 
	 0.999999999244203685577758733416 ,	 -3.67912378707035969682692666538e-05 
	 0.999999998802141965015266578121 ,	 -4.6317424269304297013150062412e-05 
	 0.999999998101523956961500516627 ,	 -5.83101823863341195419707219116e-05 
	 0.999999996991117523492675900343 ,	 -7.3408170302657893557807256002e-05 
	 0.999999995231243499205220359727 ,	 -9.24154108890018477495686965995e-05 
	 0.999999992442029084216414958064 ,	 -0.00011634410893224256255962245632 
	 0.99999998802142364695555443177 ,	 -0.00014646855469435671182054647943 
	 0.9999999810152362389459312908 ,	 -0.000184392984431180906312874867581 
	 0.99999996991117878764043780393 ,	 -0.000232137011656918801350002468098 
	 0.999999952312434770007598672237 ,	 -0.000292243178603657227654366579372 
	 0.999999924420310160044778058364 ,	 -0.000367912355208499519676479394548 
	 0.999999880214285541413232749619 ,	 -0.000463174195809656907840690109879 
	 0.999999810152489843062539875973 ,	 -0.00058310173032305456786161812488 
	 0.999999699112106954501655309286 ,	 -0.000734081516392981470175982394721 
	 0.999999523125165490355925612675 ,	 -0.000924153736501676092984780552797 
	 0.999999244205170390031867100333 ,	 -0.0011634403463198772499254118884 
	 0.999998802148055032645856954332 ,	 -0.00146468406447475274489988805726 
	 0.999998101537971528784964903025 ,	 -0.00184392688643231217326956539182 
	 0.999996991153924374984285350365 ,	 -0.00232136421495021672001257684315 
	 0.999995231334172673953730736685 ,	 -0.0029224200111570564075691436301 
	 0.999992442258970326562916852708 ,	 -0.00367910005939786621809162170393 
	 0.999988022001095711033258339739 ,	 -0.00463169508806116070331881928723 
	 0.999981016686932289161404696642 ,	 -0.00583092379799943216767132980749 
	 0.999969914821579486385871859966 ,	 -0.00734062863685047695128105260665 
	 0.999952321581518921433939794952 ,	 -0.00924116532215313313258775451686 
	 0.999924443267013129954534633725 ,	 -0.0116336615429217804518202683539 
	 0.999880271870119186061742766469 ,	 -0.0146453615899471145667121163569 
	 0.999846963649722475508951902157 ,	 -0.0165583083498570537983596295817 
	 0.999809395545239176783525181236 ,	 -0.0184800840713474912035962915979 
	 0.999698046210911739350990501407 ,	 -0.0232628525098883542909788957331 
	 0.999521768842838387314486681134 ,	 -0.0292818405415036231431713531492 
	 0.999282780353760502478621674527 ,	 -0.0358691807504267767825467672083 
	 0.998926460095820978324354655342 ,	 -0.0439009475267486681815398696926 
	 0.998559895976095290848206786904 ,	 -0.0508664998843035842668314217008 
	 0.99809739402197461544119505561 ,	 -0.0584949168845436684449623498949 
	 0.997038398920034873995632551669 ,	 -0.0730569279362429657709299135604 
	 0.995753749150335432105407562631 ,	 -0.0875811982738419203542434843257 
	 0.994247850274404321169186005136 ,	 -0.102062957630970840838813273876 
	 0.992524982061301130897845723666 ,	 -0.116498330871077637738153498503 
	 0.990589118639446652991864539217 ,	 -0.130884167245291394010564545169 
	 0.98844,	-0.14521
	 0.98609,	-0.15949
	 0.98353,	-0.17371
	 0.98078,	-0.18788
	 0.97782,	-0.20198
	 0.97467,	-0.21602
	 0.97132,	-0.23
	 0.96777,	-0.24391
	 0.96404,	-0.25775
	 0.96011,	-0.27152
	 0.95599,	-0.28522
	 0.95168,	-0.29884
	 0.94719,	-0.31237
	 0.94251,	-0.32583
	 0.93764,	-0.3392
	 0.93259,	-0.35249
	 0.92736,	-0.36568
	 0.92196,	-0.37878
	 0.91637,	-0.39179
	 0.91061,	-0.4047
	 0.90467,	-0.4175
	 0.89856,	-0.43021
	 0.89229,	-0.4428
	 0.87923,	-0.46767
	 0.86553,	-0.49208
	 0.85119,	-0.51602
	 0.83623,	-0.53948
	 0.82068,	-0.56242
	 0.80455,	-0.58484
	 0.78787,	-0.60673
	 0.77065,	-0.62806
	 0.75292,	-0.64883
	 0.73469,	-0.66902
	 0.716,	-0.68862
	 0.69686,	-0.70763
	 0.67729,	-0.72603
	 0.65731,	-0.74381
	 0.63695,	-0.76097
	 0.61623,	-0.7775
	 0.59517,	-0.79339
	 0.57379,	-0.80864
	 0.55211,	-0.82325
	 0.53016,	-0.83721
	 0.50795,	-0.85052
	 0.48551,	-0.86318
	 0.46286,	-0.87518
	 0.44002,	-0.88653
	 0.417,	-0.89722
	 0.39383,	-0.90727
	 0.37053,	-0.91666
	 0.34712,	-0.9254
	 0.32361,	-0.9335
	 0.30003,	-0.94096
	 0.27638,	-0.94777
	 0.2527,	-0.95396
	 0.22899,	-0.95951
	 0.20527,	-0.96444
	 0.18157,	-0.96875
	 0.15788,	-0.97245
	 0.13424,	-0.97554
	 0.11065,	-0.97803
	 0.087136,	-0.97992
	 0.063699,	-0.98123
	 0.040358,	-0.98197
	 0.017126,	-0.98213
	-0.0059847,	-0.98173
	-0.028961,	-0.98077
	-0.051793,	-0.97926
	-0.074467,	-0.97722
	-0.096975,	-0.97464
	-0.1193,	-0.97155
	-0.14144,	-0.96794
	-0.16338,	-0.96382
	-0.18512,	-0.95921
	-0.20664,	-0.9541
	-0.22794,	-0.94852
	-0.249,	-0.94247
	-0.26982,	-0.93595
	-0.2904,	-0.92898
	-0.31072,	-0.92157
	-0.33077,	-0.91372
	-0.35056,	-0.90543
	-0.37007,	-0.89673
	-0.3893,	-0.88762
	-0.40825,	-0.8781
	-0.4269,	-0.86819
	-0.44525,	-0.85789
	-0.4633,	-0.84721
	-0.48103,	-0.83616
	-0.49846,	-0.82474
	-0.51557,	-0.81297
	-0.53235,	-0.80085
	-0.54881,	-0.78838
	-0.56493,	-0.77559
	-0.58072,	-0.76246
	-0.59618,	-0.74902
	-0.61129,	-0.73526
	-0.62605,	-0.7212
	-0.64046,	-0.70684
	-0.65452,	-0.69218
	-0.66822,	-0.67724
	-0.68156,	-0.66202
	-0.69454,	-0.64652
END
BEGIN
	 1.99477484000000003521957714131e-17 ,	 0 
	 1.56125113000000011952350939766e-16 ,	 5.19365549000000020884085341247e-11 
	 1.78676517999999997227426140465e-16 ,	 5.19365355000000025216906932127e-10 
	 2.86576318000000006673551138414e-15 ,	 5.19365347000000010259027541219e-09 
	 2.71848515999999987295831404667e-13 ,	 5.19365348000000010577798816545e-08 
	 4.3076132900000000606981571795e-13 ,	 6.53842233999999934924491533719e-08 
	 6.82613688000000049330866639339e-13 ,	 8.23138602999999985747111718067e-08 
	 1.08178397000000009149064611628e-12 ,	 1.03627011000000005584959861336e-07 
	 1.714430680000000025240404651e-12 ,	 1.3045867700000000994455591919e-07 
	 2.71709217999999997313709900112e-12 ,	 1.64237743000000012047310702853e-07 
	 4.30621683999999991471764812164e-12 ,	 2.06763067999999991856773353185e-07 
	 6.82479940999999990164533260936e-12 ,	 2.60299280000000003604016148018e-07 
	 1.08164831000000001449830063901e-11 ,	 3.27697378000000020684877267627e-07 
	 1.71428825999999984256495859526e-11 ,	 4.1254655400000001818730543425e-07 
	 2.71695496000000000535297407762e-11 ,	 5.19365335999999993517653711778e-07 
	 4.30607373e-11 ,	 6.53842211e-07 
	 6.8246556e-11 ,	 8.23138559e-07 
	 1.08163372e-10 ,	 1.03627002e-06 
	 1.71427181e-10 ,	 1.30458659e-06 
	 2.71693387e-10 ,	 1.64237708e-06 
	 4.30604174e-10 ,	 2.06762997e-06 
	 6.82459689e-10 ,	 2.60299139e-06 
	 1.08162098e-09 ,	 3.27697095e-06 
	 1.71424198e-09 ,	 4.1254599e-06 
	 2.71686108e-09 ,	 5.19364211e-06 
	 4.30586101e-09 ,	 6.53839965e-06 
	 6.82414498e-09 ,	 8.23134077e-06 
	 1.08150769e-08 ,	 1.03626107e-05 
	 1.71395765e-08 ,	 1.30456875e-05 
	 2.71614722e-08 ,	 1.64234149e-05 
	 4.30406865e-08 ,	 2.067559e-05 
	 6.8196453e-08 ,	 2.60284983e-05 
	 1.08037836e-07 ,	 3.27668872e-05 
	 1.71112457e-07 ,	 4.12489743e-05 
	 2.70904532e-07 ,	 5.1925219e-05 
	 4.28628684e-07 ,	 6.53617103e-05 
	 6.77520594e-07 ,	 8.22691444e-05 
	 1.06930479e-06 ,	 0.000103538426 
	 1.68365709e-06 ,	 0.000130283902 
	 2.64139543e-06 ,	 0.000163895081 
	 4.12147314e-06 ,	 0.000206097681 
	 6.38018651e-06 ,	 0.000259025656 
	 9.76866826e-06 ,	 0.000325309759 
	 1.21911543e-05 ,	 0.000367210144 
	 1.48065719e-05 ,	 0.00040915129 
	 2.19781779e-05 ,	 0.000512927618 
	 3.20944958e-05 ,	 0.000642538885 
	 4.43614565e-05 ,	 0.000783531963 
	 6.09939604e-05 ,	 0.000954743341 
	 7.7024131e-05 ,	 0.00110289781 
	 9.64451246e-05 ,	 0.00126496849 
	 0.000139404122 ,	 0.00157403491 
	 0.000190474544 ,	 0.00188189875 
	 0.0002499496 ,	 0.0021882845 
	 0.000317947876 ,	 0.00249286967 
	 0.00039449264 ,	 0.00279533269 
	 0.000479551994 ,	 0.00309536352 
	 0.00057305918 ,	 0.00339266479 
	 0.000674923252 ,	 0.00368695066 
	 0.000785034954 ,	 0.0039779457 
	 0.000903270166 ,	 0.00426538396 
	 0.00102949203 ,	 0.00454900837 
	 0.00116355238 ,	 0.00482857048 
	 0.00130529274 ,	 0.00510383022 
	 0.00145454512 ,	 0.00537455598 
	 0.00161113263 ,	 0.00564052462 
	 0.00177487009 ,	 0.00590152162 
	 0.00194556448 ,	 0.00615734124 
	 0.00212301548 ,	 0.0064077867 
	 0.00230701589 ,	 0.00665267034 
	 0.00249735212 ,	 0.00689181384 
	 0.00269380465 ,	 0.00712504839 
	 0.0028961,	 0.0073522
	 0.0031042,	 0.0075732
	 0.0033176,	 0.0077878
	 0.0035362,	 0.0079959
	 0.0037598,	 0.0081974
	 0.003988,	 0.0083922
	 0.0042208,	 0.0085801
	 0.0046985,	 0.0089353
	 0.0051911,	 0.0092623
	 0.0056964,	 0.0095607
	 0.0062125,	 0.0098304
	 0.0067372,	 0.010071
	 0.0072686,	 0.010283
	 0.0078048,	 0.010466
	 0.0083439,	 0.010621
	 0.0088839,	 0.010749
	 0.0094233,	 0.010849
	 0.0099603,	 0.010923
	 0.010493,	 0.010972
	 0.011021,	 0.010996
	 0.011542,	 0.010997
	 0.012055,	 0.010976
	 0.012558,	 0.010935
	 0.013052,	 0.010873
	 0.013534,	 0.010794
	 0.014005,	 0.010697
	 0.014463,	 0.010586
	 0.014909,	 0.01046
	 0.015341,	 0.010323
	 0.01576,	 0.010174
	 0.016165,	 0.010016
	 0.016557,	 0.0098495
	 0.016935,	 0.0096767
	 0.0173,	 0.0094986
	 0.017652,	 0.0093167
	 0.017991,	 0.0091323
	 0.018319,	 0.0089464
	 0.018636,	 0.0087604
	 0.018942,	 0.0085753
	 0.019238,	 0.0083921
	 0.019526,	 0.0082118
	 0.019806,	 0.0080353
	 0.02008,	 0.0078633
	 0.020347,	 0.0076965
	 0.020611,	 0.0075356
	 0.020871,	 0.0073809
	 0.021129,	 0.0072329
	 0.021387,	 0.0070919
	 0.021645,	 0.0069579
	 0.021905,	 0.0068312
	 0.022168,	 0.0067116
	 0.022436,	 0.0065989
	 0.022711,	 0.0064929
	 0.022992,	 0.0063931
	 0.023282,	 0.0062991
	 0.023582,	 0.0062101
	 0.023893,	 0.0061256
	 0.024216,	 0.0060445
	 0.024553,	 0.005966
	 0.024904,	 0.005889
	 0.02527,	 0.0058123
	 0.025652,	 0.0057348
	 0.026052,	 0.0056552
	 0.026469,	 0.005572
	 0.026903,	 0.0054839
	 0.027357,	 0.0053894
	 0.027829,	 0.005287
	 0.02832,	 0.0051753
	 0.02883,	 0.0050527
	 0.029359,	 0.0049177
	 0.029906,	 0.004769
	 0.030473,	 0.004605
	 0.031057,	 0.0044244
	 0.031659,	 0.004226
	 0.032277,	 0.0040084
	 0.032913,	 0.0037705
	 0.033564,	 0.0035113
	 0.03423,	 0.0032299
	 0.03491,	 0.0029253
	 0.035604,	 0.0025968
	 0.03631,	 0.0022438
	 0.037029,	 0.0018657
	 0.037759,	 0.001462
	 0.0385,	 0.0010323
	 0.039251,	 0.00057646
	 0.040012,	 9.4098e-05
	 0.040782,	-0.00041492
END
BEGIN
	 1.99477484000000003521957714131e-17 ,	 0 
	 1.56125113000000011952350939766e-16 ,	 5.19365549000000020884085341247e-11 
	 1.78676517999999997227426140465e-16 ,	 5.19365355000000025216906932127e-10 
	 2.86576318000000006673551138414e-15 ,	 5.19365347000000010259027541219e-09 
	 2.71848515999999987295831404667e-13 ,	 5.19365348000000010577798816545e-08 
	 4.3076132900000000606981571795e-13 ,	 6.53842233999999934924491533719e-08 
	 6.82613688000000049330866639339e-13 ,	 8.23138602999999985747111718067e-08 
	 1.08178397000000009149064611628e-12 ,	 1.03627011000000005584959861336e-07 
	 1.714430680000000025240404651e-12 ,	 1.3045867700000000994455591919e-07 
	 2.71709217999999997313709900112e-12 ,	 1.64237743000000012047310702853e-07 
	 4.30621683999999991471764812164e-12 ,	 2.06763067999999991856773353185e-07 
	 6.82479940999999990164533260936e-12 ,	 2.60299280000000003604016148018e-07 
	 1.08164831000000001449830063901e-11 ,	 3.27697378000000020684877267627e-07 
	 1.71428825999999984256495859526e-11 ,	 4.1254655400000001818730543425e-07 
	 2.71695496000000000535297407762e-11 ,	 5.19365335999999993517653711778e-07 
	 4.30607373e-11 ,	 6.53842211e-07 
	 6.8246556e-11 ,	 8.23138559e-07 
	 1.08163372e-10 ,	 1.03627002e-06 
	 1.71427181e-10 ,	 1.30458659e-06 
	 2.71693387e-10 ,	 1.64237708e-06 
	 4.30604174e-10 ,	 2.06762997e-06 
	 6.82459689e-10 ,	 2.60299139e-06 
	 1.08162098e-09 ,	 3.27697095e-06 
	 1.71424198e-09 ,	 4.1254599e-06 
	 2.71686108e-09 ,	 5.19364211e-06 
	 4.30586101e-09 ,	 6.53839965e-06 
	 6.82414498e-09 ,	 8.23134077e-06 
	 1.08150769e-08 ,	 1.03626107e-05 
	 1.71395765e-08 ,	 1.30456875e-05 
	 2.71614722e-08 ,	 1.64234149e-05 
	 4.30406865e-08 ,	 2.067559e-05 
	 6.8196453e-08 ,	 2.60284983e-05 
	 1.08037836e-07 ,	 3.27668872e-05 
	 1.71112457e-07 ,	 4.12489743e-05 
	 2.70904532e-07 ,	 5.1925219e-05 
	 4.28628684e-07 ,	 6.53617103e-05 
	 6.77520594e-07 ,	 8.22691444e-05 
	 1.06930479e-06 ,	 0.000103538426 
	 1.68365709e-06 ,	 0.000130283902 
	 2.64139543e-06 ,	 0.000163895081 
	 4.12147314e-06 ,	 0.000206097681 
	 6.38018651e-06 ,	 0.000259025656 
	 9.76866826e-06 ,	 0.000325309759 
	 1.21911543e-05 ,	 0.000367210144 
	 1.48065719e-05 ,	 0.00040915129 
	 2.19781779e-05 ,	 0.000512927618 
	 3.20944958e-05 ,	 0.000642538885 
	 4.43614565e-05 ,	 0.000783531963 
	 6.09939604e-05 ,	 0.000954743341 
	 7.7024131e-05 ,	 0.00110289781 
	 9.64451246e-05 ,	 0.00126496849 
	 0.000139404122 ,	 0.00157403491 
	 0.000190474544 ,	 0.00188189875 
	 0.0002499496 ,	 0.0021882845 
	 0.000317947876 ,	 0.00249286967 
	 0.00039449264 ,	 0.00279533269 
	 0.000479551994 ,	 0.00309536352 
	 0.00057305918 ,	 0.00339266479 
	 0.000674923252 ,	 0.00368695066 
	 0.000785034954 ,	 0.0039779457 
	 0.000903270166 ,	 0.00426538396 
	 0.00102949203 ,	 0.00454900837 
	 0.00116355238 ,	 0.00482857048 
	 0.00130529274 ,	 0.00510383022 
	 0.00145454512 ,	 0.00537455598 
	 0.00161113263 ,	 0.00564052462 
	 0.00177487009 ,	 0.00590152162 
	 0.00194556448 ,	 0.00615734124 
	 0.00212301548 ,	 0.0064077867 
	 0.00230701589 ,	 0.00665267034 
	 0.00249735212 ,	 0.00689181384 
	 0.00269380465 ,	 0.00712504839 
	 0.0028961,	 0.0073522
	 0.0031042,	 0.0075732
	 0.0033176,	 0.0077878
	 0.0035362,	 0.0079959
	 0.0037598,	 0.0081974
	 0.003988,	 0.0083922
	 0.0042208,	 0.0085801
	 0.0046985,	 0.0089353
	 0.0051911,	 0.0092623
	 0.0056964,	 0.0095607
	 0.0062125,	 0.0098304
	 0.0067372,	 0.010071
	 0.0072686,	 0.010283
	 0.0078048,	 0.010466
	 0.0083439,	 0.010621
	 0.0088839,	 0.010749
	 0.0094233,	 0.010849
	 0.0099603,	 0.010923
	 0.010493,	 0.010972
	 0.011021,	 0.010996
	 0.011542,	 0.010997
	 0.012055,	 0.010976
	 0.012558,	 0.010935
	 0.013052,	 0.010873
	 0.013534,	 0.010794
	 0.014005,	 0.010697
	 0.014463,	 0.010586
	 0.014909,	 0.01046
	 0.015341,	 0.010323
	 0.01576,	 0.010174
	 0.016165,	 0.010016
	 0.016557,	 0.0098495
	 0.016935,	 0.0096767
	 0.0173,	 0.0094986
	 0.017652,	 0.0093167
	 0.017991,	 0.0091323
	 0.018319,	 0.0089464
	 0.018636,	 0.0087604
	 0.018942,	 0.0085753
	 0.019238,	 0.0083921
	 0.019526,	 0.0082118
	 0.019806,	 0.0080353
	 0.02008,	 0.0078633
	 0.020347,	 0.0076965
	 0.020611,	 0.0075356
	 0.020871,	 0.0073809
	 0.021129,	 0.0072329
	 0.021387,	 0.0070919
	 0.021645,	 0.0069579
	 0.021905,	 0.0068312
	 0.022168,	 0.0067116
	 0.022436,	 0.0065989
	 0.022711,	 0.0064929
	 0.022992,	 0.0063931
	 0.023282,	 0.0062991
	 0.023582,	 0.0062101
	 0.023893,	 0.0061256
	 0.024216,	 0.0060445
	 0.024553,	 0.005966
	 0.024904,	 0.005889
	 0.02527,	 0.0058123
	 0.025652,	 0.0057348
	 0.026052,	 0.0056552
	 0.026469,	 0.005572
	 0.026903,	 0.0054839
	 0.027357,	 0.0053894
	 0.027829,	 0.005287
	 0.02832,	 0.0051753
	 0.02883,	 0.0050527
	 0.029359,	 0.0049177
	 0.029906,	 0.004769
	 0.030473,	 0.004605
	 0.031057,	 0.0044244
	 0.031659,	 0.004226
	 0.032277,	 0.0040084
	 0.032913,	 0.0037705
	 0.033564,	 0.0035113
	 0.03423,	 0.0032299
	 0.03491,	 0.0029253
	 0.035604,	 0.0025968
	 0.03631,	 0.0022438
	 0.037029,	 0.0018657
	 0.037759,	 0.001462
	 0.0385,	 0.0010323
	 0.039251,	 0.00057646
	 0.040012,	 9.4098e-05
	 0.040782,	-0.00041492
END
BEGIN
	 0.999999999999998445687765524781 ,	 -0 
	 0.999999999999999333866185224906 ,	 -2.32141217360037899197777733207e-09 
	 0.999999999999998889776975374843 ,	 -2.32141199596469505195273086429e-08 
	 0.999999999999968691710705570586 ,	 -2.32141200706692529820429626852e-07 
	 0.999999999996989963335636275588 ,	 -2.32141200950941595237964065745e-06 
	 0.999999999995229593707790627377 ,	 -2.92248456990051863613189198077e-06 
	 0.999999999992440713469932234148 ,	 -3.67919009014450182348809903488e-06 
	 0.999999999988019361296665010741 ,	 -4.63182589860444693385943537578e-06 
	 0.999999999981013409922070422908 ,	 -5.83112332730451043971697799861e-06 
	 0.999999999969908515140559757128 ,	 -7.34094933574347408011817606166e-06 
	 0.999999999952309703843411625712 ,	 -9.24170766514187391749146627262e-06 
	 0.999999999924415572394309492665 ,	 -1.16346206275874664015645976178e-05 
	 0.999999999880209156088994859601 ,	 -1.46471195645592189293893170543e-05 
