CITIFILE A.01.01
#Momentum: B.12.070 (*) built: Feb 13 2020 
#Momentum Date and Time: Wed Sep  7 12:14:10 2022

NAME Momentum.SP

#  mode: MW    reference: S_50

#eesof Port[1] P1
#eesof Port[2] P2

CONSTANT NBR_OF_PORTS 2

CONSTANT NORMALIZATION 1

VAR freq MAG 154

DATA S[1,1] RI
DATA S[1,2] RI
DATA S[2,1] RI
DATA S[2,2] RI
DATA PORTZ[1] RI
DATA PORTZ[2] RI

VAR_LIST_BEGIN
	 0
	 8.274252442
	 82.74252442
	 827.4252442
	 8274.252442
	 10416.66666
	 13113.80637
	 16509.30408
	 20783.98244
	 26165.48365
	 32940.39228
	 41469.49692
	 52207.00348
	 65724.72336
	 82742.52442
	 104166.6666
	 131138.0637
	 165093.0408
	 207839.8244
	 261654.8365
	 329403.9228
	 414694.9692
	 522070.0348
	 657247.2336
	 827425.2442
	 1041666.666
	 1311380.637
	 1650930.408
	 2078398.244
	 2616548.365
	 3294039.228
	 4146949.692
	 5220700.348
	 6572472.336
	 8274252.442
	 10416666.66
	 13113806.37
	 16509304.08
	 20783982.44
	 26165483.65
	 32940392.28
	 41469496.92
	 52207003.48
	 65724723.36
	 82742524.42
	 104166666.6
	 117776035.3
	 131449446.7
	 165485048.8
	 208333333.2
	 255251850.3
	 312499999.9
	 362192144.3
	 416666666.5
	 468749999.8
	 520833333.1
	 572916666.4
	 624999999.8
	 677083333.1
	 729166666.4
	 781249999.7
	 833333333
	 937499999.6
	 1041666666
	 1145833333
	 1250000000
	 1302083333
	 1354166666
	 1406249999
	 1458333333
	 1510416666
	 1562499999
	 1614583333
	 1666666666
	 1770833333
	 1874999999
	 1979166666
	 2083333333
	 2187499999
	 2291666666
	 2395833333
	 2500000000
	 2604166666
	 2708333333
	 2812500000
	 2916666666
	 3020833333
	 3125000000
	 3229166666
	 3333333333
	 3437500000
	 3541666666
	 3645833333
	 3750000000
	 3854166666
	 3958333333
	 4062500000
	 4166666666
	 4270833333
	 4375000000
	 4479166667
	 4583333333
	 4687500000
	 4791666667
	 4895833333
	 5000000000
	 5104166667
	 5208333333
	 5312500000
	 5416666667
	 5520833333
	 5625000000
	 5729166667
	 5833333334
	 5937500000
	 6041666667
	 6145833334
	 6250000000
	 6354166667
	 6458333334
	 6562500000
	 6666666667
	 6770833334
	 6875000000
	 6979166667
	 7083333334
	 7187500000
	 7291666667
	 7395833334
	 7500000000
	 7604166667
	 7708333334
	 7812500001
	 7916666667
	 8020833334
	 8125000001
	 8229166667
	 8333333334
	 8437500001
	 8541666667
	 8645833334
	 8750000000
	 8854166667
	 8958333334
	 9062500000
	 9166666667
	 9270833334
	 9375000000
	 9479166667
	 9583333334
	 9687500000
	 9791666667
	 9895833333
	 1e+10
VAR_LIST_END

BEGIN
	 0.99999999999999822364316059975 ,	 -0 
	 0.999999999999997557509345824656 ,	 -2.26742646880495613004313781857e-09 
	 0.999999999999997779553950749687 ,	 -2.26742663533840982381661888212e-08 
	 0.999999999999968691710705570586 ,	 -2.26742661701972991750153596513e-07 
	 0.99999999999711763898346816859 ,	 -2.26742661407763890224487113301e-06 
	 0.999999999995432764521297031024 ,	 -2.85452098447436242167896125466e-06 
	 0.99999999999276356632549322967 ,	 -3.59362900603787949194156681187e-06 
	 0.999999999988532284334041833063 ,	 -4.52411087703552539096563123167e-06 
	 0.999999999981825538064583724918 ,	 -5.69551814794122535090536985081e-06 
	 0.999999999971197928161359413934 ,	 -7.17023252999604565616209583823e-06 
	 0.999999999954353069320234226325 ,	 -9.02678793995859152232696942519e-06 
	 0.999999999927654759090955849388 ,	 -1.13640527242275801711457461352e-05 
	 0.999999999885343271444071433507 ,	 -1.43064947547011378503611922497e-05 
	 0.999999999818282470087638102996 ,	 -1.80108097996845017974010261241e-05 
	 0.999999999711997822338105379458 ,	 -2.26742661409429224761424848111e-05 
	 0.999999999543548678815341190784 ,	 -2.85452098349736616000882349908e-05 
	 0.999999999276574569329056885181 ,	 -3.5936290037508200612137443386e-05 
	 0.999999998853448701652268937323 ,	 -4.52411087173976156350363453384e-05 
	 0.999999998182840021954120857117 ,	 -5.69551813880408985824033152312e-05 
	 0.999999997119997097172472422244 ,	 -7.170232511588547907877000398e-05 
	 0.99999999543550499581101576041 ,	 -9.02678790390409879762501077494e-05 
	 0.999999992765763456858962854312 ,	 -0.000113640526523406393266668601427 
	 0.999999988534510442228508964035 ,	 -0.000143064946115989410913016399718 
	 0.999999981828423978313935549522 ,	 -0.000180108095135522727758825567435 
	 0.9999999711999955076535684384 ,	 -0.000226742655709766260940796200885 
	 0.999999954355074716083606745087 ,	 -0.000285452086966730966821614856599 
	 0.999999927657677534220681536681 ,	 -0.000359362877665136970506409852533 
	 0.999999885345169370332030212012 ,	 -0.000452411041855727003024867372005 
	 0.99999981828439288289445130431 ,	 -0.000569551723461236836243415382341 
	 0.999999712000307350301397946168 ,	 -0.000717023070743172397101261594798 
	 0.999999543551585601264264369092 ,	 -0.000902678430413639265594838434481 
	 0.999999276578862117403900811041 ,	 -0.00113640454698815673850731400307 
	 0.999998853456890324231665090338 ,	 -0.00143064802808462454564164545445 
	 0.999998182856969841658667519368 ,	 -0.00180107809204788082979575847276 
	 0.999997120035790998393565587321 ,	 -0.00226742085215192457070543241571 
	 0.999995435598008630684319086868 ,	 -0.0028545094872201581814863402542 
	 0.999992765994939136753316688555 ,	 -0.0035936060669764513519908177841 
	 0.999988535087030783188311033882 ,	 -0.00452406511087366514090035707341 
	 0.999981829870822180872380613437 ,	 -0.00569542684683332911532716025249 
	 0.999971203624856030955925234593 ,	 -0.00717005040094992329713363687915 
	 0.999954364181067312244977074442 ,	 -0.00902642467445546881066320565878 
	 0.999927680528663320735915931436 ,	 -0.0113633283217822733668356249837 
	 0.999885402481247798078811683808 ,	 -0.0143050506674751165547831988079 
	 0.999818428024533245590532715141 ,	 -0.0180079325149717361931323011959 
	 0.999712359792785720813412808639 ,	 -0.0226685379270194498069201927137 
	 0.99954444945782039422255138561 ,	 -0.0285338203833027659328536174144 
	 0.999417951784308034035575474263 ,	 -0.0322582205695189916383469608263 
	 0.999275395680288558430959255929 ,	 -0.0359988588943963017108274016209 
	 0.998853594413993128853235248243 ,	 -0.0453035059700029330009840577986 
	 0.998187953468593236472372609569 ,	 -0.0570017592080691026801275711478 
	 0.997289338448085871391413093079 ,	 -0.0697874143184734618827746999159 
	 0.995956873047059931813862476702 ,	 -0.0853486200950143714116791215929 
	 0.99459409524923947376606747639 ,	 -0.0988165638330172346748270229 
	 0.992884486464259308213797794451 ,	 -0.113534720485130025124931307801 
	 0.991042895019072278550709143019 ,	 -0.127558944334631607642194239816 
	 0.989,	-0.14153
	 0.98676,	-0.15545
	 0.98433,	-0.16932
	 0.98171,	-0.18314
	 0.9789,	-0.1969
	 0.9759,	-0.2106
	 0.97272,	-0.22424
	 0.96579,	-0.25133
	 0.95814,	-0.27816
	 0.94977,	-0.3047
	 0.94069,	-0.33093
	 0.93589,	-0.34392
	 0.93091,	-0.35683
	 0.92576,	-0.36966
	 0.92045,	-0.38239
	 0.91496,	-0.39504
	 0.90931,	-0.40759
	 0.90349,	-0.42004
	 0.89752,	-0.43239
	 0.88508,	-0.4568
	 0.87202,	-0.48077
	 0.85835,	-0.50431
	 0.84409,	-0.52739
	 0.82926,	-0.55
	 0.81387,	-0.57211
	 0.79794,	-0.59373
	 0.7815,	-0.61483
	 0.76456,	-0.6354
	 0.74714,	-0.65542
	 0.72926,	-0.6749
	 0.71094,	-0.69382
	 0.69221,	-0.71216
	 0.67307,	-0.72993
	 0.65356,	-0.7471
	 0.63369,	-0.76369
	 0.61348,	-0.77968
	 0.59296,	-0.79506
	 0.57214,	-0.80983
	 0.55104,	-0.82399
	 0.52969,	-0.83754
	 0.5081,	-0.85047
	 0.48629,	-0.86278
	 0.46428,	-0.87447
	 0.4421,	-0.88554
	 0.41975,	-0.89599
	 0.39726,	-0.90582
	 0.37465,	-0.91504
	 0.35192,	-0.92364
	 0.32911,	-0.93163
	 0.30623,	-0.93901
	 0.28329,	-0.94578
	 0.26032,	-0.95196
	 0.23732,	-0.95754
	 0.21431,	-0.96252
	 0.19131,	-0.96692
	 0.16833,	-0.97074
	 0.14538,	-0.97399
	 0.12249,	-0.97666
	 0.099661,	-0.97878
	 0.076905,	-0.98033
	 0.054238,	-0.98134
	 0.031672,	-0.98181
	 0.0092189,	-0.98174
	-0.013111,	-0.98115
	-0.035306,	-0.98004
	-0.057355,	-0.97841
	-0.07925,	-0.97628
	-0.10097,	-0.97366
	-0.12253,	-0.97055
	-0.1439,	-0.96696
	-0.16508,	-0.96289
	-0.18605,	-0.95837
	-0.20682,	-0.95338
	-0.22737,	-0.94795
	-0.2477,	-0.94208
	-0.2678,	-0.93578
	-0.28766,	-0.92906
	-0.30727,	-0.92192
	-0.32664,	-0.91438
	-0.34575,	-0.90643
	-0.36459,	-0.8981
	-0.38317,	-0.88938
	-0.40148,	-0.88029
	-0.41951,	-0.87083
	-0.43725,	-0.861
	-0.45471,	-0.85083
	-0.47188,	-0.84031
	-0.48875,	-0.82945
	-0.50532,	-0.81827
	-0.52159,	-0.80675
	-0.53755,	-0.79493
	-0.5532,	-0.78279
	-0.56853,	-0.77035
	-0.58355,	-0.75762
	-0.59825,	-0.74459
	-0.61263,	-0.73128
	-0.62667,	-0.7177
	-0.64039,	-0.70385
	-0.65378,	-0.68973
END
BEGIN
	 8.39170941999999992134201145841e-18 ,	 0 
	 3.12250226000000023904701879533e-17 ,	 3.2580732299999998351948631515e-11 
	 1.23165366999999998623018204491e-16 ,	 3.25807349000000024377776092918e-10 
	 9.12117603999999956726619360484e-15 ,	 3.25807347999999988903828784088e-09 
	 9.08826833000000009340322770159e-13 ,	 3.25807345999999971722673982374e-08 
	 1.44037038999999999365497639634e-12 ,	 4.10167146000000009564219916481e-08 
	 2.28281109000000018869494739423e-12 ,	 5.16369840000000025971518965388e-08 
	 3.61799826000000001775259397437e-12 ,	 6.50071109000000049444722288738e-08 
	 5.73411631000000017864245534065e-12 ,	 8.18391027000000004539608726255e-08 
	 9.08795781999999928837971327659e-12 ,	 1.03029323999999999685129388645e-07 
	 1.44034090000000001454799702285e-11 ,	 1.29706229999999997436443662305e-07 
	 2.28278351000000010047418159268e-11 ,	 1.632904600000000027568342921e-07 
	 3.61796425999999985856018789989e-11 ,	 2.0557049199999999185896901524e-07 
	 5.7340788400000001973823779007e-11 ,	 2.58797882000000007751206506507e-07 
	 9.0878861699999999325924143882e-11 ,	 3.25807161000000002085494202678e-07 
	 1.44032886e-10 ,	 4.10166777e-07 
	 2.28275758e-10 ,	 5.16369105e-07 
	 3.61790264e-10 ,	 6.5006964e-07 
	 5.73392856e-10 ,	 8.18388097e-07 
	 9.08751201e-10 ,	 1.03028739e-06 
	 1.44023536e-09 ,	 1.29705063e-06 
	 2.28252323e-09 ,	 1.63288133e-06 
	 3.61731447e-09 ,	 2.0556585e-06 
	 5.73245168e-09 ,	 2.5878862e-06 
	 9.08380342e-09 ,	 3.25788685e-06 
	 1.43930414e-08 ,	 4.10129922e-06 
	 2.28018531e-08 ,	 5.16295603e-06 
	 3.61144654e-08 ,	 6.49923091e-06 
	 5.71773052e-08 ,	 8.18096028e-06 
	 9.04689852e-08 ,	 1.02970569e-05 
	 1.43006295e-07 ,	 1.29589331e-05 
	 2.25708669e-07 ,	 1.63058258e-05 
	 3.5538748e-07 ,	 2.05110445e-05 
	 5.57487335e-07 ,	 2.57890082e-05 
	 8.69485252e-07 ,	 3.24026953e-05 
	 1.34422009e-06 ,	 4.06708862e-05 
	 2.05107474e-06 ,	 5.09747567e-05 
	 3.07088812e-06 ,	 6.37650707e-05 
	 4.47929702e-06 ,	 7.95760751e-05 
	 6.31753984e-06 ,	 9.9060084e-05 
	 8.56461727e-06 ,	 0.000123060101 
	 1.11425101e-05 ,	 0.000152721931 
	 1.39790821e-05 ,	 0.000189613943 
	 1.71105972e-05 ,	 0.00023581283 
	 2.07764028e-05 ,	 0.00029395563 
	 2.54876682e-05 ,	 0.000367304236 
	 2.87068355e-05 ,	 0.000413984369 
	 3.21856908e-05 ,	 0.000460933177 
	 4.20932663e-05 ,	 0.000577906879 
	 5.73557689e-05 ,	 0.000725151002 
	 7.78128537e-05 ,	 0.000886068586 
	 0.000108160069 ,	 0.00108163246 
	 0.000139304966 ,	 0.00125044536 
	 0.000178543547 ,	 0.00143427039 
	 0.000220995055 ,	 0.00160861992 
	 0.000268210557 ,	 0.00178140861 
	 0.000320120979 ,	 0.00195246134 
	 0.000376649109 ,	 0.00212160922 
	 0.00043771024 ,	 0.00228868889 
	 0.000503212597 ,	 0.00245354215 
	 0.000573057669 ,	 0.00261601588 
	 0.000647140488 ,	 0.0027759621 
	 0.000807568796 ,	 0.00308770646 
	 0.000983538572 ,	 0.00338769941 
	 0.00117400432 ,	 0.00367495785 
	 0.00137784281 ,	 0.00394859768 
	 0.00148440685 ,	 0.00408006288 
	 0.00159386241 ,	 0.00420783974 
	 0.00170605146 ,	 0.00433184813 
	 0.00182081296 ,	 0.00445201511 
	 0.00193798319 ,	 0.00456827501 
	 0.00205739608 ,	 0.00468056958 
	 0.00217888355 ,	 0.00478884804 
	 0.00230227586 ,	 0.0048930672 
	 0.00255408986 ,	 0.00508919288 
	 0.00281146022 ,	 0.00526875385 
	 0.00307300492 ,	 0.00543168015 
	 0.0033373489 ,	 0.00557802399 
	 0.00360313506 ,	 0.00570795806 
	 0.00386903492 ,	 0.00582177282 
	 0.0041338,	 0.0059199
	 0.0043961,	 0.0060028
	 0.0046548,	 0.0060711
	 0.0049088,	 0.0061255
	 0.005157,	 0.0061669
	 0.0053985,	 0.0061961
	 0.0056324,	 0.0062141
	 0.005858,	 0.006222
	 0.0060745,	 0.0062207
	 0.0062813,	 0.0062115
	 0.0064781,	 0.0061955
	 0.0066643,	 0.0061739
	 0.0068398,	 0.006148
	 0.0070043,	 0.0061191
	 0.0071578,	 0.0060882
	 0.0073004,	 0.0060568
	 0.0074322,	 0.006026
	 0.0075535,	 0.0059971
	 0.0076646,	 0.0059712
	 0.0077659,	 0.0059495
	 0.0078579,	 0.0059332
	 0.0079414,	 0.0059233
	 0.008017,	 0.0059208
	 0.0080855,	 0.0059268
	 0.0081478,	 0.0059421
	 0.0082047,	 0.0059675
	 0.0082573,	 0.006004
	 0.0083068,	 0.0060521
	 0.0083541,	 0.0061125
	 0.0084004,	 0.0061858
	 0.0084471,	 0.0062725
	 0.0084954,	 0.0063729
	 0.0085465,	 0.0064873
	 0.0086019,	 0.0066159
	 0.0086629,	 0.0067588
	 0.0087308,	 0.006916
	 0.0088072,	 0.0070875
	 0.0088933,	 0.007273
	 0.0089906,	 0.0074723
	 0.0091005,	 0.0076848
	 0.0092243,	 0.0079102
	 0.0093635,	 0.0081478
	 0.0095193,	 0.0083968
	 0.009693,	 0.0086565
	 0.0098859,	 0.0089259
	 0.010099,	 0.0092041
	 0.010333,	 0.0094899
	 0.01059,	 0.0097821
	 0.010871,	 0.01008
	 0.011175,	 0.010381
	 0.011504,	 0.010685
	 0.011859,	 0.01099
	 0.01224,	 0.011294
	 0.012647,	 0.011597
	 0.013081,	 0.011896
	 0.013543,	 0.012191
	 0.014031,	 0.012479
	 0.014546,	 0.01276
	 0.015089,	 0.013031
	 0.015658,	 0.013292
	 0.016253,	 0.01354
	 0.016875,	 0.013776
	 0.017523,	 0.013998
	 0.018196,	 0.014204
	 0.018893,	 0.014394
	 0.019615,	 0.014567
	 0.020361,	 0.014721
	 0.02113,	 0.014857
	 0.021921,	 0.014974
	 0.022735,	 0.015071
	 0.023571,	 0.015148
	 0.024429,	 0.015204
	 0.025307,	 0.01524
	 0.026207,	 0.015255
END
BEGIN
	 8.39170941999999992134201145841e-18 ,	 0 
	 3.12250226000000023904701879533e-17 ,	 3.2580732299999998351948631515e-11 
	 1.23165366999999998623018204491e-16 ,	 3.25807349000000024377776092918e-10 
	 9.12117603999999956726619360484e-15 ,	 3.25807347999999988903828784088e-09 
	 9.08826833000000009340322770159e-13 ,	 3.25807345999999971722673982374e-08 
	 1.44037038999999999365497639634e-12 ,	 4.10167146000000009564219916481e-08 
	 2.28281109000000018869494739423e-12 ,	 5.16369840000000025971518965388e-08 
	 3.61799826000000001775259397437e-12 ,	 6.50071109000000049444722288738e-08 
	 5.73411631000000017864245534065e-12 ,	 8.18391027000000004539608726255e-08 
	 9.08795781999999928837971327659e-12 ,	 1.03029323999999999685129388645e-07 
	 1.44034090000000001454799702285e-11 ,	 1.29706229999999997436443662305e-07 
	 2.28278351000000010047418159268e-11 ,	 1.632904600000000027568342921e-07 
	 3.61796425999999985856018789989e-11 ,	 2.0557049199999999185896901524e-07 
	 5.7340788400000001973823779007e-11 ,	 2.58797882000000007751206506507e-07 
	 9.0878861699999999325924143882e-11 ,	 3.25807161000000002085494202678e-07 
	 1.44032886e-10 ,	 4.10166777e-07 
	 2.28275758e-10 ,	 5.16369105e-07 
	 3.61790264e-10 ,	 6.5006964e-07 
	 5.73392856e-10 ,	 8.18388097e-07 
	 9.08751201e-10 ,	 1.03028739e-06 
	 1.44023536e-09 ,	 1.29705063e-06 
	 2.28252323e-09 ,	 1.63288133e-06 
	 3.61731447e-09 ,	 2.0556585e-06 
	 5.73245168e-09 ,	 2.5878862e-06 
	 9.08380342e-09 ,	 3.25788685e-06 
	 1.43930414e-08 ,	 4.10129922e-06 
	 2.28018531e-08 ,	 5.16295603e-06 
	 3.61144654e-08 ,	 6.49923091e-06 
	 5.71773052e-08 ,	 8.18096028e-06 
	 9.04689852e-08 ,	 1.02970569e-05 
	 1.43006295e-07 ,	 1.29589331e-05 
	 2.25708669e-07 ,	 1.63058258e-05 
	 3.5538748e-07 ,	 2.05110445e-05 
	 5.57487335e-07 ,	 2.57890082e-05 
	 8.69485252e-07 ,	 3.24026953e-05 
	 1.34422009e-06 ,	 4.06708862e-05 
	 2.05107474e-06 ,	 5.09747567e-05 
	 3.07088812e-06 ,	 6.37650707e-05 
	 4.47929702e-06 ,	 7.95760751e-05 
	 6.31753984e-06 ,	 9.9060084e-05 
	 8.56461727e-06 ,	 0.000123060101 
	 1.11425101e-05 ,	 0.000152721931 
	 1.39790821e-05 ,	 0.000189613943 
	 1.71105972e-05 ,	 0.00023581283 
	 2.07764028e-05 ,	 0.00029395563 
	 2.54876682e-05 ,	 0.000367304236 
	 2.87068355e-05 ,	 0.000413984369 
	 3.21856908e-05 ,	 0.000460933177 
	 4.20932663e-05 ,	 0.000577906879 
	 5.73557689e-05 ,	 0.000725151002 
	 7.78128537e-05 ,	 0.000886068586 
	 0.000108160069 ,	 0.00108163246 
	 0.000139304966 ,	 0.00125044536 
	 0.000178543547 ,	 0.00143427039 
	 0.000220995055 ,	 0.00160861992 
	 0.000268210557 ,	 0.00178140861 
	 0.000320120979 ,	 0.00195246134 
	 0.000376649109 ,	 0.00212160922 
	 0.00043771024 ,	 0.00228868889 
	 0.000503212597 ,	 0.00245354215 
	 0.000573057669 ,	 0.00261601588 
	 0.000647140488 ,	 0.0027759621 
	 0.000807568796 ,	 0.00308770646 
	 0.000983538572 ,	 0.00338769941 
	 0.00117400432 ,	 0.00367495785 
	 0.00137784281 ,	 0.00394859768 
	 0.00148440685 ,	 0.00408006288 
	 0.00159386241 ,	 0.00420783974 
	 0.00170605146 ,	 0.00433184813 
	 0.00182081296 ,	 0.00445201511 
	 0.00193798319 ,	 0.00456827501 
	 0.00205739608 ,	 0.00468056958 
	 0.00217888355 ,	 0.00478884804 
	 0.00230227586 ,	 0.0048930672 
	 0.00255408986 ,	 0.00508919288 
	 0.00281146022 ,	 0.00526875385 
	 0.00307300492 ,	 0.00543168015 
	 0.0033373489 ,	 0.00557802399 
	 0.00360313506 ,	 0.00570795806 
	 0.00386903492 ,	 0.00582177282 
	 0.0041338,	 0.0059199
	 0.0043961,	 0.0060028
	 0.0046548,	 0.0060711
	 0.0049088,	 0.0061255
	 0.005157,	 0.0061669
	 0.0053985,	 0.0061961
	 0.0056324,	 0.0062141
	 0.005858,	 0.006222
	 0.0060745,	 0.0062207
	 0.0062813,	 0.0062115
	 0.0064781,	 0.0061955
	 0.0066643,	 0.0061739
	 0.0068398,	 0.006148
	 0.0070043,	 0.0061191
	 0.0071578,	 0.0060882
	 0.0073004,	 0.0060568
	 0.0074322,	 0.006026
	 0.0075535,	 0.0059971
	 0.0076646,	 0.0059712
	 0.0077659,	 0.0059495
	 0.0078579,	 0.0059332
	 0.0079414,	 0.0059233
	 0.008017,	 0.0059208
	 0.0080855,	 0.0059268
	 0.0081478,	 0.0059421
	 0.0082047,	 0.0059675
	 0.0082573,	 0.006004
	 0.0083068,	 0.0060521
	 0.0083541,	 0.0061125
	 0.0084004,	 0.0061858
	 0.0084471,	 0.0062725
	 0.0084954,	 0.0063729
	 0.0085465,	 0.0064873
	 0.0086019,	 0.0066159
	 0.0086629,	 0.0067588
	 0.0087308,	 0.006916
	 0.0088072,	 0.0070875
	 0.0088933,	 0.007273
	 0.0089906,	 0.0074723
	 0.0091005,	 0.0076848
	 0.0092243,	 0.0079102
	 0.0093635,	 0.0081478
	 0.0095193,	 0.0083968
	 0.009693,	 0.0086565
	 0.0098859,	 0.0089259
	 0.010099,	 0.0092041
	 0.010333,	 0.0094899
	 0.01059,	 0.0097821
	 0.010871,	 0.01008
	 0.011175,	 0.010381
	 0.011504,	 0.010685
	 0.011859,	 0.01099
	 0.01224,	 0.011294
	 0.012647,	 0.011597
	 0.013081,	 0.011896
	 0.013543,	 0.012191
	 0.014031,	 0.012479
	 0.014546,	 0.01276
	 0.015089,	 0.013031
	 0.015658,	 0.013292
	 0.016253,	 0.01354
	 0.016875,	 0.013776
	 0.017523,	 0.013998
	 0.018196,	 0.014204
	 0.018893,	 0.014394
	 0.019615,	 0.014567
	 0.020361,	 0.014721
	 0.02113,	 0.014857
	 0.021921,	 0.014974
	 0.022735,	 0.015071
	 0.023571,	 0.015148
	 0.024429,	 0.015204
	 0.025307,	 0.01524
	 0.026207,	 0.015255
END
BEGIN
	 0.999999999999998778754672912328 ,	 -0 
	 1.00000000000000088817841970013 ,	 -2.26731378116795667665428481996e-09 
	 1.00000000000000111022302462516 ,	 -2.26731410313263381794968154281e-08 
	 0.999999999999971800335174521024 ,	 -2.26731406871572005456982878968e-07 
	 0.999999999997121191697146969091 ,	 -2.26731406316460493144404608756e-06 
	 0.999999999995436539279580756556 ,	 -2.85437929065102125036901270505e-06 
	 0.999999999992767341083776955202 ,	 -3.593450623951000011402356904e-06 
	 0.99999999998853694727074525872 ,	 -4.52388630656219703496390138753e-06 
	 0.9999999999818310891797068507 ,	 -5.69523543164640599911763274577e-06 
	 0.999999999971204034387994852295 ,	 -7.16987661042445267867151414976e-06 
	 0.999999999954361062926011527452 ,	 -9.02633986488154960170504637063e-06 
	 0.999999999927666083365807025984 ,	 -1.13634886310109983753591222921e-05 
	 0.999999999885357704343391560542 ,	 -1.43057846032079716280804859707e-05 
	 0.999999999818303453302803518454 ,	 -1.80099157718327518296064226888e-05 
	 0.999999999712030351872726896545 ,	 -2.26731406271496460647085768869e-05 
	 0.999999999543597972717634547735 ,	 -2.85437928964626941308324603597e-05 
