CITIFILE A.01.01
#Momentum: B.12.070 (*) built: Feb 13 2020 
#Momentum Date and Time: Wed Sep  7 02:45:32 2022

NAME Momentum.SP

#  mode: MW    reference: S_50

#eesof Port[1] P1
#eesof Port[2] P2

CONSTANT NBR_OF_PORTS 2

CONSTANT NORMALIZATION 1

VAR freq MAG 154

DATA S[1,1] RI
DATA S[1,2] RI
DATA S[2,1] RI
DATA S[2,2] RI
DATA PORTZ[1] RI
DATA PORTZ[2] RI

VAR_LIST_BEGIN
	 0
	 8.274252442
	 82.74252442
	 827.4252442
	 8274.252442
	 10416.66666
	 13113.80637
	 16509.30408
	 20783.98244
	 26165.48365
	 32940.39228
	 41469.49692
	 52207.00348
	 65724.72336
	 82742.52442
	 104166.6666
	 131138.0637
	 165093.0408
	 207839.8244
	 261654.8365
	 329403.9228
	 414694.9692
	 522070.0348
	 657247.2336
	 827425.2442
	 1041666.666
	 1311380.637
	 1650930.408
	 2078398.244
	 2616548.365
	 3294039.228
	 4146949.692
	 5220700.348
	 6572472.336
	 8274252.442
	 10416666.66
	 13113806.37
	 16509304.08
	 20783982.44
	 26165483.65
	 32940392.28
	 41469496.92
	 52207003.48
	 65724723.36
	 82742524.42
	 104166666.6
	 117776035.3
	 131449446.7
	 165485048.8
	 208333333.2
	 255251850.3
	 312499999.9
	 362192144.3
	 416666666.5
	 468749999.8
	 520833333.1
	 572916666.4
	 624999999.8
	 677083333.1
	 729166666.4
	 781249999.7
	 833333333
	 937499999.6
	 1041666666
	 1145833333
	 1250000000
	 1302083333
	 1354166666
	 1406249999
	 1458333333
	 1510416666
	 1562499999
	 1614583333
	 1666666666
	 1770833333
	 1874999999
	 1979166666
	 2083333333
	 2187499999
	 2291666666
	 2395833333
	 2500000000
	 2604166666
	 2708333333
	 2812500000
	 2916666666
	 3020833333
	 3125000000
	 3229166666
	 3333333333
	 3437500000
	 3541666666
	 3645833333
	 3750000000
	 3854166666
	 3958333333
	 4062500000
	 4166666666
	 4270833333
	 4375000000
	 4479166667
	 4583333333
	 4687500000
	 4791666667
	 4895833333
	 5000000000
	 5104166667
	 5208333333
	 5312500000
	 5416666667
	 5520833333
	 5625000000
	 5729166667
	 5833333334
	 5937500000
	 6041666667
	 6145833334
	 6250000000
	 6354166667
	 6458333334
	 6562500000
	 6666666667
	 6770833334
	 6875000000
	 6979166667
	 7083333334
	 7187500000
	 7291666667
	 7395833334
	 7500000000
	 7604166667
	 7708333334
	 7812500001
	 7916666667
	 8020833334
	 8125000001
	 8229166667
	 8333333334
	 8437500001
	 8541666667
	 8645833334
	 8750000000
	 8854166667
	 8958333334
	 9062500000
	 9166666667
	 9270833334
	 9375000000
	 9479166667
	 9583333334
	 9687500000
	 9791666667
	 9895833333
	 1e+10
VAR_LIST_END

BEGIN
	 0.999999999999998445687765524781 ,	 -0 
	 1.00000000000000111022302462516 ,	 -2.24088353428797404376382473856e-09 
	 1.00000000000000088817841970013 ,	 -2.24088324562998764122312422842e-08 
	 0.999999999999972577491291758633 ,	 -2.24088324674021066584828076884e-07 
	 0.999999999997183475208828440373 ,	 -2.24088324574100994368563988246e-06 
	 0.999999999995535127084167470457 ,	 -2.82110486365949597598046239e-06 
	 0.999999999992922994351829402149 ,	 -3.55156060183325905654783127829e-06 
	 0.9999999999887821955368849558 ,	 -4.47114989327035416977196291555e-06 
	 0.999999999982220999505955205677 ,	 -5.62884422045106802556801994797e-06 
	 0.999999999971821096345081514301 ,	 -7.08629502860214088855173031334e-06 
	 0.999999999955338170209984127723 ,	 -8.92111688655106149781204294413e-06 
	 0.999999999929215732663578819484 ,	 -1.12310207492916092064660915639e-05 
	 0.9999999998878127405177451692 ,	 -1.41390174218103403802615503082e-05 
	 0.999999999822194785004114692128 ,	 -1.77999683288465604391603847034e-05 
	 0.999999999718196974640704866033 ,	 -2.24088324562443652609999844572e-05 
	 0.999999999553371821114922113338 ,	 -2.82110486233833057667652610689e-05 
	 0.999999999292140229201208967424 ,	 -3.55156059970163084926753072068e-05 
	 0.99999999887811763521483499062 ,	 -4.47114988889052433762572036358e-05 
	 0.999999998221934638387153881922 ,	 -5.62884421171361282176803797483e-05 
	 0.999999997181955313507728533295 ,	 -7.08629501056101673839293653145e-05 
	 0.999999995533700225536222205847 ,	 -8.92111685106833363079203991219e-05 
	 0.999999992921391300804145885195 ,	 -0.000112310206790700028989249403821 
	 0.999999988781159698802980528853 ,	 -0.000141390172809008340948366821976 
	 0.999999982219336502886619655328 ,	 -0.000177999680480322997055964151514 
	 0.99999997181954813907367451975 ,	 -0.000224088318959481114234222332016 
	 0.999999955336996926291703857714 ,	 -0.000282110475056884801858814171283 
	 0.999999929213917448933557352575 ,	 -0.000355156037667336832441833394114 
	 0.999999887811639842638555819576 ,	 -0.000447114944381987733379446581239 
	 0.999999822193483822729831445031 ,	 -0.000562884332374280482724770990899 
	 0.999999718195795472830411654286 ,	 -0.000708629323881382333638612180948 
	 0.99999955337076817940555883979 ,	 -0.000892111331600664581031878697104 
	 0.99999929214121230369727300058 ,	 -0.00112310136257459669550939906912 
	 0.999998878121535983432011107652 ,	 -0.00141390032076604832411703682737 
	 0.999998221947761445349556197471 ,	 -0.00177999399686684656174406882201 
	 0.99999718199043119426505654701 ,	 -0.00224087758715380003238237804908 
	 0.999995533789275081737457639974 ,	 -0.00282109357264159754663523926865 
	 0.999992921617052554772442363173 ,	 -0.00355153807507191388026512868237 
	 0.99998878173006977565506758765 ,	 -0.00447110495035246691131192164903 
	 0.999982220770208485305374779273 ,	 -0.00562875456050987432732313209272 
	 0.999971823149870875369060740923 ,	 -0.00708611617366949886331894958857 
	 0.999955346040039216859440784901 ,	 -0.00892076015344500650172676614602 
	 0.999929236614960359474935103208 ,	 -0.0112303093806326859116495597846 
	 0.999887868572825189161790149228 ,	 -0.0141375993372110375645434032776 
	 0.999822336166782288380261434213 ,	 -0.0177971429208571563229668299755 
	 0.999718552901562529378054478002 ,	 -0.0224032077292105058496929359535 
	 0.999554262660045100830075170961 ,	 -0.0281998655916398943688250255946 
	 0.999430494541059144530947833118 ,	 -0.0318806994999688009251315179426 
	 0.999291016826989175747542049066 ,	 -0.0355775905374076106824077214696 
	 0.998878338051023106913817173336 ,	 -0.044773465076295537734551999165 
	 0.998227133599193239277269640297 ,	 -0.0563350833313788212919348552532 
	 0.997348079687005784066400337906 ,	 -0.068971601284087691308144485447 
	 0.996044753368233504176032511168 ,	 -0.0843516606410650293668140875525 
	 0.994711918957718488343289209297 ,	 -0.0976632358531180910787838911347 
	 0.993040041123235295295046398678 ,	 -0.112211044936152304352106057195 
	 0.991239261114861380796980938612 ,	 -0.126073571319076205288212122468 
	 0.98924,	-0.13988
	 0.98705,	-0.15365
	 0.98468,	-0.16736
	 0.98211,	-0.18102
	 0.97937,	-0.19463
	 0.97644,	-0.20817
	 0.97332,	-0.22166
	 0.96656,	-0.24846
	 0.95907,	-0.275
	 0.95089,	-0.30126
	 0.94201,	-0.32722
	 0.93731,	-0.34009
	 0.93245,	-0.35287
	 0.92741,	-0.36557
	 0.92221,	-0.37818
	 0.91685,	-0.39071
	 0.91132,	-0.40314
	 0.90563,	-0.41548
	 0.89979,	-0.42772
	 0.88762,	-0.45191
	 0.87484,	-0.47569
	 0.86147,	-0.49905
	 0.84751,	-0.52196
	 0.83298,	-0.54441
	 0.81792,	-0.56638
	 0.80232,	-0.58787
	 0.78621,	-0.60886
	 0.76961,	-0.62933
	 0.75254,	-0.64928
	 0.73501,	-0.66869
	 0.71706,	-0.68755
	 0.69868,	-0.70587
	 0.67991,	-0.72362
	 0.66077,	-0.74079
	 0.64127,	-0.7574
	 0.62144,	-0.77341
	 0.60128,	-0.78884
	 0.58083,	-0.80368
	 0.56011,	-0.81792
	 0.53912,	-0.83156
	 0.5179,	-0.8446
	 0.49645,	-0.85704
	 0.47481,	-0.86887
	 0.45297,	-0.88009
	 0.43098,	-0.89071
	 0.40884,	-0.90073
	 0.38656,	-0.91015
	 0.36418,	-0.91896
	 0.34169,	-0.92717
	 0.31913,	-0.93479
	 0.29651,	-0.94182
	 0.27384,	-0.94826
	 0.25114,	-0.95411
	 0.22842,	-0.95938
	 0.2057,	-0.96408
	 0.18299,	-0.9682
	 0.16031,	-0.97177
	 0.13767,	-0.97477
	 0.11509,	-0.97722
	 0.092569,	-0.97912
	 0.070126,	-0.98049
	 0.047774,	-0.98132
	 0.025524,	-0.98162
	 0.0033863,	-0.9814
	-0.018627,	-0.98068
	-0.040506,	-0.97944
	-0.062241,	-0.97771
	-0.083822,	-0.97549
	-0.10523,	-0.97279
	-0.12648,	-0.96961
	-0.14754,	-0.96597
	-0.16842,	-0.96187
	-0.18909,	-0.95731
	-0.20957,	-0.95231
	-0.22983,	-0.94688
	-0.24987,	-0.94102
	-0.26968,	-0.93474
	-0.28926,	-0.92804
	-0.3086,	-0.92094
	-0.3277,	-0.91345
	-0.34655,	-0.90556
	-0.36514,	-0.8973
	-0.38347,	-0.88865
	-0.40153,	-0.87965
	-0.41932,	-0.87028
	-0.43684,	-0.86056
	-0.45408,	-0.85049
	-0.47103,	-0.84009
	-0.48769,	-0.82936
	-0.50406,	-0.8183
	-0.52013,	-0.80692
	-0.53591,	-0.79524
	-0.55138,	-0.78325
	-0.56654,	-0.77096
	-0.5814,	-0.75838
	-0.59594,	-0.74552
	-0.61017,	-0.73238
	-0.62408,	-0.71897
	-0.63766,	-0.70529
END
BEGIN
	 3.54264323000000007368020218295e-17 ,	 0 
	 1.76941794999999994105156144449e-16 ,	 4.4068685300000003049132337222e-11 
	 2.13370988000000008568606961864e-16 ,	 4.40686880000000013765741546602e-10 
	 3.92220978000000032293289963056e-15 ,	 4.40686873000000003262536493786e-09 
	 3.74837314000000012753631156512e-13 ,	 4.4068687200000001948737746952e-08 
	 5.93979727000000039763018949855e-13 ,	 5.54791900999999994006827894709e-08 
	 9.41285243999999993787090669582e-13 ,	 6.98441621999999953917517489521e-08 
	 1.49174075999999997724685558316e-12 ,	 8.79285905999999979539230739699e-08 
	 2.36414533999999983276194570477e-12 ,	 1.10695537000000002026619822914e-07 
	 3.74681708999999983751964530962e-12 ,	 1.39357423999999997930147074658e-07 
	 5.93819612000000022526897773064e-12 ,	 1.75440602000000001309249321804e-07 
	 9.41130332999999983725024086003e-12 ,	 2.20866629999999996263596773252e-07 
	 1.49158064000000011868312171189e-11 ,	 2.78054610999999975943787174429e-07 
	 2.36398504999999995684248168072e-11 ,	 3.5005001000000002419322250348e-07 
	 3.74665280999999967779588382112e-11 ,	 4.40686841999999990071904508449e-07 
	 5.93803097e-11 ,	 5.54791842e-07 
	 9.41112778e-11 ,	 6.98441505e-07 
	 1.4915604e-10 ,	 8.79285672e-07 
	 2.36395835e-10 ,	 1.1069549e-06 
	 3.74660894e-10 ,	 1.39357331e-06 
	 5.93794531e-10 ,	 1.75440416e-06 
	 9.41093594e-10 ,	 2.2086626e-06 
	 1.49151462e-09 ,	 2.78053871e-06 
	 2.36384578e-09 ,	 3.50048534e-06 
	 3.74632872e-09 ,	 4.40683896e-06 
	 5.93724382e-09 ,	 5.54785965e-06 
	 9.40917649e-09 ,	 6.9842978e-06 
	 1.49107298e-08 ,	 8.79262282e-06 
	 2.36273697e-08 ,	 1.10690824e-05 
	 3.743545e-08 ,	 1.39348025e-05 
	 5.93025658e-08 ,	 1.75421861e-05 
	 9.39164512e-08 ,	 2.20829275e-05 
	 1.48667708e-07 ,	 2.77980195e-05 
	 2.35172572e-07 ,	 3.49901904e-05 
	 3.7160076e-07 ,	 4.40392506e-05 
	 5.86156476e-07 ,	 5.5420824e-05 
	 9.22097497e-07 ,	 6.972885e-05 
	 1.44453454e-06 ,	 8.77020375e-05 
	 2.24865244e-06 ,	 0.000110254218 
	 3.46751798e-06 ,	 0.000138508747 
	 5.27513705e-06 ,	 0.000173839083 
	 7.87850086e-06 ,	 0.000217923852 
	 1.14968789e-05 ,	 0.000272836092 
	 1.634632e-05 ,	 0.000341195292 
	 2.26781962e-05 ,	 0.000426395956 
	 3.09271279e-05 ,	 0.000532879331 
	 3.63871575e-05 ,	 0.000600288775 
	 4.21086553e-05 ,	 0.000667922925 
	 5.76828428e-05 ,	 0.000836085242 
	 8.06223635e-05 ,	 0.00104756841 
	 0.000110615936 ,	 0.0012787682 
	 0.000154570733 ,	 0.00155999733 
	 0.000199445247 ,	 0.00180301124 
	 0.000255864983 ,	 0.00206791903 
	 0.00031686092 ,	 0.00231946053 
	 0.000384703845 ,	 0.00256904765 
	 0.000459326295 ,	 0.00281644287 
	 0.000540646066 ,	 0.00306141925 
	 0.000628569158 ,	 0.00330375851 
	 0.000722991464 ,	 0.00354324993 
	 0.000823799826 ,	 0.00377968979 
	 0.000930872768 ,	 0.00401288102 
	 0.00116328807 ,	 0.00446876243 
	 0.00141911788 ,	 0.0049094503 
	 0.00169713767 ,	 0.00533361002 
	 0.00199602922 ,	 0.00574002117 
	 0.00215286706 ,	 0.00593622219 
	 0.00231439169 ,	 0.00612758285 
	 0.00248041695 ,	 0.00631398504 
	 0.00265075295 ,	 0.00649531869 
	 0.00282520643 ,	 0.00667148193 
	 0.00300358111 ,	 0.00684238116 
	 0.0031857,	 0.0070079
	 0.0033713,	 0.0071681
	 0.0037523,	 0.0074718
	 0.0041449,	 0.0077531
	 0.0045475,	 0.0080116
	 0.0049584,	 0.0082473
	 0.005376,	 0.00846
	 0.0057987,	 0.00865
	 0.0062249,	 0.0088173
	 0.006653,	 0.0089623
	 0.0070815,	 0.0090855
	 0.0075091,	 0.0091875
	 0.0079343,	 0.0092689
	 0.008356,	 0.0093305
	 0.0087728,	 0.0093732
	 0.0091838,	 0.009398
	 0.0095878,	 0.0094057
	 0.0099841,	 0.0093976
	 0.010372,	 0.0093748
	 0.01075,	 0.0093383
	 0.011119,	 0.0092896
	 0.011477,	 0.0092297
	 0.011824,	 0.0091599
	 0.01216,	 0.0090816
	 0.012485,	 0.008996
	 0.012799,	 0.0089044
	 0.013102,	 0.008808
	 0.013394,	 0.0087081
	 0.013675,	 0.0086058
	 0.013946,	 0.0085024
	 0.014207,	 0.0083989
	 0.014458,	 0.0082966
	 0.014701,	 0.0081963
	 0.014936,	 0.0080991
	 0.015163,	 0.0080059
	 0.015384,	 0.0079176
	 0.0156,	 0.0078349
	 0.015811,	 0.0077585
	 0.016018,	 0.007689
	 0.016224,	 0.0076271
	 0.016428,	 0.007573
	 0.016632,	 0.0075273
	 0.016837,	 0.0074901
	 0.017044,	 0.0074617
	 0.017256,	 0.007442
	 0.017472,	 0.0074311
	 0.017694,	 0.0074289
	 0.017924,	 0.007435
	 0.018163,	 0.0074492
	 0.018412,	 0.007471
	 0.018673,	 0.0074998
	 0.018946,	 0.007535
	 0.019232,	 0.0075759
	 0.019534,	 0.0076216
	 0.019851,	 0.0076711
	 0.020185,	 0.0077234
	 0.020537,	 0.0077775
	 0.020907,	 0.0078321
	 0.021297,	 0.0078859
	 0.021706,	 0.0079378
	 0.022136,	 0.0079863
	 0.022587,	 0.00803
	 0.023059,	 0.0080676
	 0.023553,	 0.0080976
	 0.024068,	 0.0081187
	 0.024605,	 0.0081294
	 0.025163,	 0.0081284
	 0.025742,	 0.0081142
	 0.026342,	 0.0080858
	 0.026963,	 0.0080418
	 0.027603,	 0.007981
	 0.028264,	 0.0079025
	 0.028944,	 0.0078052
	 0.029642,	 0.0076883
	 0.030358,	 0.0075508
	 0.031092,	 0.0073922
	 0.031842,	 0.0072118
	 0.032609,	 0.0070091
	 0.033391,	 0.0067836
	 0.03419,	 0.006535
	 0.035003,	 0.006263
	 0.035831,	 0.0059674
END
BEGIN
	 3.54264323000000007368020218295e-17 ,	 0 
	 1.76941794999999994105156144449e-16 ,	 4.4068685300000003049132337222e-11 
	 2.13370988000000008568606961864e-16 ,	 4.40686880000000013765741546602e-10 
	 3.92220978000000032293289963056e-15 ,	 4.40686873000000003262536493786e-09 
	 3.74837314000000012753631156512e-13 ,	 4.4068687200000001948737746952e-08 
	 5.93979727000000039763018949855e-13 ,	 5.54791900999999994006827894709e-08 
	 9.41285243999999993787090669582e-13 ,	 6.98441621999999953917517489521e-08 
	 1.49174075999999997724685558316e-12 ,	 8.79285905999999979539230739699e-08 
	 2.36414533999999983276194570477e-12 ,	 1.10695537000000002026619822914e-07 
	 3.74681708999999983751964530962e-12 ,	 1.39357423999999997930147074658e-07 
	 5.93819612000000022526897773064e-12 ,	 1.75440602000000001309249321804e-07 
	 9.41130332999999983725024086003e-12 ,	 2.20866629999999996263596773252e-07 
	 1.49158064000000011868312171189e-11 ,	 2.78054610999999975943787174429e-07 
	 2.36398504999999995684248168072e-11 ,	 3.5005001000000002419322250348e-07 
	 3.74665280999999967779588382112e-11 ,	 4.40686841999999990071904508449e-07 
	 5.93803097e-11 ,	 5.54791842e-07 
	 9.41112778e-11 ,	 6.98441505e-07 
	 1.4915604e-10 ,	 8.79285672e-07 
	 2.36395835e-10 ,	 1.1069549e-06 
	 3.74660894e-10 ,	 1.39357331e-06 
	 5.93794531e-10 ,	 1.75440416e-06 
	 9.41093594e-10 ,	 2.2086626e-06 
	 1.49151462e-09 ,	 2.78053871e-06 
	 2.36384578e-09 ,	 3.50048534e-06 
	 3.74632872e-09 ,	 4.40683896e-06 
	 5.93724382e-09 ,	 5.54785965e-06 
	 9.40917649e-09 ,	 6.9842978e-06 
	 1.49107298e-08 ,	 8.79262282e-06 
	 2.36273697e-08 ,	 1.10690824e-05 
	 3.743545e-08 ,	 1.39348025e-05 
	 5.93025658e-08 ,	 1.75421861e-05 
	 9.39164512e-08 ,	 2.20829275e-05 
	 1.48667708e-07 ,	 2.77980195e-05 
	 2.35172572e-07 ,	 3.49901904e-05 
	 3.7160076e-07 ,	 4.40392506e-05 
	 5.86156476e-07 ,	 5.5420824e-05 
	 9.22097497e-07 ,	 6.972885e-05 
	 1.44453454e-06 ,	 8.77020375e-05 
	 2.24865244e-06 ,	 0.000110254218 
	 3.46751798e-06 ,	 0.000138508747 
	 5.27513705e-06 ,	 0.000173839083 
	 7.87850086e-06 ,	 0.000217923852 
	 1.14968789e-05 ,	 0.000272836092 
	 1.634632e-05 ,	 0.000341195292 
	 2.26781962e-05 ,	 0.000426395956 
	 3.09271279e-05 ,	 0.000532879331 
	 3.63871575e-05 ,	 0.000600288775 
	 4.21086553e-05 ,	 0.000667922925 
	 5.76828428e-05 ,	 0.000836085242 
	 8.06223635e-05 ,	 0.00104756841 
	 0.000110615936 ,	 0.0012787682 
	 0.000154570733 ,	 0.00155999733 
	 0.000199445247 ,	 0.00180301124 
	 0.000255864983 ,	 0.00206791903 
	 0.00031686092 ,	 0.00231946053 
	 0.000384703845 ,	 0.00256904765 
	 0.000459326295 ,	 0.00281644287 
	 0.000540646066 ,	 0.00306141925 
	 0.000628569158 ,	 0.00330375851 
	 0.000722991464 ,	 0.00354324993 
	 0.000823799826 ,	 0.00377968979 
	 0.000930872768 ,	 0.00401288102 
	 0.00116328807 ,	 0.00446876243 
	 0.00141911788 ,	 0.0049094503 
	 0.00169713767 ,	 0.00533361002 
	 0.00199602922 ,	 0.00574002117 
	 0.00215286706 ,	 0.00593622219 
	 0.00231439169 ,	 0.00612758285 
	 0.00248041695 ,	 0.00631398504 
	 0.00265075295 ,	 0.00649531869 
	 0.00282520643 ,	 0.00667148193 
	 0.00300358111 ,	 0.00684238116 
	 0.0031857,	 0.0070079
	 0.0033713,	 0.0071681
	 0.0037523,	 0.0074718
	 0.0041449,	 0.0077531
	 0.0045475,	 0.0080116
	 0.0049584,	 0.0082473
	 0.005376,	 0.00846
	 0.0057987,	 0.00865
	 0.0062249,	 0.0088173
	 0.006653,	 0.0089623
	 0.0070815,	 0.0090855
	 0.0075091,	 0.0091875
	 0.0079343,	 0.0092689
	 0.008356,	 0.0093305
	 0.0087728,	 0.0093732
	 0.0091838,	 0.009398
	 0.0095878,	 0.0094057
	 0.0099841,	 0.0093976
	 0.010372,	 0.0093748
	 0.01075,	 0.0093383
	 0.011119,	 0.0092896
	 0.011477,	 0.0092297
	 0.011824,	 0.0091599
	 0.01216,	 0.0090816
	 0.012485,	 0.008996
	 0.012799,	 0.0089044
	 0.013102,	 0.008808
	 0.013394,	 0.0087081
	 0.013675,	 0.0086058
	 0.013946,	 0.0085024
	 0.014207,	 0.0083989
	 0.014458,	 0.0082966
	 0.014701,	 0.0081963
	 0.014936,	 0.0080991
	 0.015163,	 0.0080059
	 0.015384,	 0.0079176
	 0.0156,	 0.0078349
	 0.015811,	 0.0077585
	 0.016018,	 0.007689
	 0.016224,	 0.0076271
	 0.016428,	 0.007573
	 0.016632,	 0.0075273
	 0.016837,	 0.0074901
	 0.017044,	 0.0074617
	 0.017256,	 0.007442
	 0.017472,	 0.0074311
	 0.017694,	 0.0074289
	 0.017924,	 0.007435
	 0.018163,	 0.0074492
	 0.018412,	 0.007471
	 0.018673,	 0.0074998
	 0.018946,	 0.007535
	 0.019232,	 0.0075759
	 0.019534,	 0.0076216
	 0.019851,	 0.0076711
	 0.020185,	 0.0077234
	 0.020537,	 0.0077775
	 0.020907,	 0.0078321
	 0.021297,	 0.0078859
	 0.021706,	 0.0079378
	 0.022136,	 0.0079863
	 0.022587,	 0.00803
	 0.023059,	 0.0080676
	 0.023553,	 0.0080976
	 0.024068,	 0.0081187
	 0.024605,	 0.0081294
	 0.025163,	 0.0081284
	 0.025742,	 0.0081142
	 0.026342,	 0.0080858
	 0.026963,	 0.0080418
	 0.027603,	 0.007981
	 0.028264,	 0.0079025
	 0.028944,	 0.0078052
	 0.029642,	 0.0076883
	 0.030358,	 0.0075508
	 0.031092,	 0.0073922
	 0.031842,	 0.0072118
	 0.032609,	 0.0070091
	 0.033391,	 0.0067836
	 0.03419,	 0.006535
	 0.035003,	 0.006263
	 0.035831,	 0.0059674
END
BEGIN
	 0.99999999999999822364316059975 ,	 -0 
	 0.999999999999998445687765524781 ,	 -2.24093171796724277555767912418e-09 
	 0.999999999999998556710067987296 ,	 -2.2409318789495813462053774856e-08 
	 0.999999999999970246022940045805 ,	 -2.24093189338248066633241251111e-07 
	 0.999999999997179922495149639872 ,	 -2.24093189438168138849505339749e-06 
	 0.999999999995531796415093594987 ,	 -2.82116610789140409565334266517e-06 
	 0.999999999992919330615848139132 ,	 -3.55163770432431746826296148356e-06 
	 0.999999999988779753046230780456 ,	 -4.4712469591257075762769090943e-06 
	 0.999999999982216447591554242535 ,	 -5.62896641947974174513547040988e-06 
	 0.999999999971816544430680551159 ,	 -7.08644886737719303937410586514e-06 
	 0.999999999955333063184070852003 ,	 -8.92131055807432460369454929605e-06 
	 0.999999999929209515414640918607 ,	 -1.12312645683121381523505988298e-05 
	 0.999999999887804857934270330588 ,	 -1.41393243707210736204160639318e-05 
	 0.999999999822184459929985678173 ,	 -1.78003547548488683105460950173e-05 
	 0.999999999718181542540662576357 ,	 -2.24093189378771207032059464836e-05 
	 0.99999999955335006074363946027 ,	 -2.82116610676452772565880877664e-05 
	 0.999999999292108032733494837885 ,	 -3.55163770179300897211760457139e-05 
	 0.999999998878068896424053946248 ,	 -4.47124695469591770802253449801e-05 
	 0.999999998221858366065362133668 ,	 -5.62896641038701517345543834381e-05 
