CITIFILE A.01.01
#Momentum: B.12.070 (*) built: Feb 13 2020 
#Momentum Date and Time: Wed Sep  7 13:23:04 2022

NAME Momentum.SP

#  mode: MW    reference: S_50

#eesof Port[1] P1
#eesof Port[2] P2

CONSTANT NBR_OF_PORTS 2

CONSTANT NORMALIZATION 1

VAR freq MAG 159

DATA S[1,1] RI
DATA S[1,2] RI
DATA S[2,1] RI
DATA S[2,2] RI
DATA PORTZ[1] RI
DATA PORTZ[2] RI

VAR_LIST_BEGIN
	 0
	 8.254652041
	 82.54652041
	 825.4652041
	 8254.652041
	 10391.99122
	 13082.74183
	 16470.19614
	 20734.74846
	 26103.50174
	 32862.36168
	 41371.26221
	 52083.33331
	 65569.03184
	 82546.52041
	 103919.9122
	 130827.4183
	 164701.9614
	 207347.4846
	 261035.0174
	 328623.6168
	 413712.6221
	 520833.3331
	 655690.3184
	 825465.2041
	 1039199.122
	 1308274.183
	 1647019.614
	 2073474.846
	 2610350.174
	 3286236.168
	 4137126.221
	 5208333.331
	 6556903.184
	 8254652.041
	 10391991.22
	 13082741.83
	 16470196.14
	 20734748.46
	 26103501.74
	 32862361.68
	 41371262.21
	 52083333.31
	 58888017.66
	 65724723.36
	 82742524.42
	 104166666.6
	 127625925.2
	 156249999.9
	 181096072.2
	 208333333.2
	 260416666.6
	 312499999.9
	 364583333.2
	 416666666.5
	 468749999.8
	 520833333.1
	 572916666.4
	 624999999.8
	 677083333.1
	 729166666.4
	 781249999.7
	 833333333
	 885416666.3
	 937499999.6
	 989583332.9
	 1041666666
	 1093750000
	 1145833333
	 1197916666
	 1250000000
	 1302083333
	 1354166666
	 1406249999
	 1458333333
	 1510416666
	 1562499999
	 1614583333
	 1666666666
	 1770833333
	 1874999999
	 1979166666
	 2083333333
	 2187499999
	 2291666666
	 2395833333
	 2500000000
	 2604166666
	 2708333333
	 2812500000
	 2916666666
	 3020833333
	 3125000000
	 3229166666
	 3333333333
	 3437500000
	 3541666666
	 3645833333
	 3750000000
	 3854166666
	 3958333333
	 4062500000
	 4166666666
	 4270833333
	 4375000000
	 4479166667
	 4583333333
	 4687500000
	 4791666667
	 4895833333
	 5000000000
	 5104166667
	 5208333333
	 5312500000
	 5416666667
	 5520833333
	 5625000000
	 5729166667
	 5833333334
	 5937500000
	 6041666667
	 6145833334
	 6250000000
	 6354166667
	 6458333334
	 6562500000
	 6666666667
	 6770833334
	 6875000000
	 6979166667
	 7083333334
	 7187500000
	 7291666667
	 7395833334
	 7500000000
	 7604166667
	 7708333334
	 7812500001
	 7916666667
	 8020833334
	 8125000001
	 8229166667
	 8333333334
	 8437500001
	 8541666667
	 8645833334
	 8750000000
	 8854166667
	 8958333334
	 9062500000
	 9166666667
	 9270833334
	 9375000000
	 9479166667
	 9583333334
	 9687500000
	 9791666667
	 9895833333
	 1e+10
VAR_LIST_END

BEGIN
	 0.999999999999998778754672912328 ,	 -0 
	 0.999999999999998889776975374843 ,	 -2.34857977510216642258455976844e-09 
	 0.999999999999998667732370449812 ,	 -2.34857953085310100505012087524e-08 
	 0.999999999999967581487680945429 ,	 -2.34857951086908656179730314761e-07 
	 0.99999999999692246177573906607 ,	 -2.34857951064704195687227183953e-06 
	 0.999999999995124122520451237506 ,	 -2.95668642813495807786239311099e-06 
	 0.999999999992272403659399060416 ,	 -3.72224767830608982421836117283e-06 
	 0.999999999987754684127594373422 ,	 -4.68603219205832033367187250406e-06 
	 0.999999999980592191306527638517 ,	 -5.89936500650090067665587412193e-06 
	 0.99999999996923993883513048786 ,	 -7.42686052013219466516602551565e-06 
	 0.999999999951250995167129076435 ,	 -9.34986343881227810470591066405e-06 
	 0.999999999922739357671730431321 ,	 -1.17707806799316472279315348715e-05 
	 0.99999999987755061603422745975 ,	 -1.48185349135854238511456060223e-05 
	 0.999999999805932571206312786671 ,	 -1.8655430167324738022216479294e-05 
	 0.999999999692424257347056482104 ,	 -2.34857951026956612849971861579e-05 
	 0.9999999995125266050166601417 ,	 -2.95668642666946368535718647763e-05 
	 0.999999999227406233259785039991 ,	 -3.7222476763965062218630919233e-05 
	 0.999999998775522147553829199751 ,	 -4.68603218704011226236616494134e-05 
	 0.999999998059334149758115017903 ,	 -5.89936499721943619078956544399e-05 
	 0.999999996924254119790020922665 ,	 -7.42686050125840324653836432844e-05 
	 0.999999995125271823326329467818 ,	 -9.3498634006872194390780350659e-05 
	 0.999999992274077875720195152098 ,	 -0.000117707806036815298966757836752 
	 0.999999987755239017062081074982 ,	 -0.000148185347621287988317817507777 
	 0.999999980593363702041642682161 ,	 -0.000186554298650110084167863533366 
	 0.999999969242556741022553978837 ,	 -0.000234857945002220347419097379316 
	 0.9999999512527417699914167315 ,	 -0.000295668630641232610400948033202 
	 0.999999922740811397758875500585 ,	 -0.000372224743638849275839675101452 
	 0.999999877552461002849781834811 ,	 -0.000468603170814096969820639060345 
	 0.999999805933783347811072417244 ,	 -0.000589936404167934469455758517142 
	 0.999999692425910913229358811805 ,	 -0.000742685859483893651145081094 
	 0.99999951252826457803735138441 ,	 -0.00093498595968943831735487037804 
	 0.999999227410224733603172353469 ,	 -0.00117707730141014543789879098767 
	 0.999998775529885142177022316901 ,	 -0.00148185196191108481400533491978 
	 0.999998059351074441991613639402 ,	 -0.00186553996510485653459454624681 
	 0.999996924292354094632173655555 ,	 -0.00234857342167860139170443289913 
	 0.999995125366108572606549387274 ,	 -0.00295667427868662180401315708878 
	 0.99999227431187098780185351643 ,	 -0.00372222343919514919718949386152 
	 0.999987755825300750345263622876 ,	 -0.00468598383151741515462163079064 
	 0.999980594832797997639772802358 ,	 -0.00589926852811295532319491030648 
	 0.999969246243087583891906433564 ,	 -0.00742666806085146014027031924343 
	 0.99995126199432160518654200132 ,	 -0.00934947955999243518476760073099 
	 0.999922764030649613431478428538 ,	 -0.0117700151461115343209939965163 
	 0.999877610701285446381803012628 ,	 -0.0148170087523313842581274002441 
	 0.999843561925906954002130078152 ,	 -0.0167523710985837404052745114313 
	 0.999805158440344898806984019757 ,	 -0.0186966641495014407325925276382 
	 0.999691332386688502609217721329 ,	 -0.0235354632254529683166310860543 
	 0.999511131994366364139636971231 ,	 -0.0296249425789496534378031356027 
	 0.999266820802675814761073525005 ,	 -0.0362893955226737396912994881859 
	 0.99890255631351321241595542233 ,	 -0.044415122438337784060990998114 
	 0.998527809637909102846720088564 ,	 -0.0514620956495943637776235846104 
	 0.998054970014682796275451437396 ,	 -0.0591795980980986957575851192814 
	 0.996972252738185238385426600871 ,	 -0.0739113719104944610904794899398 
	 0.995658741582739370556964786374 ,	 -0.0886044942271859703453174006427 
	 0.994118913705922313539531387505 ,	 -0.103254038788865187825649627484 
	 0.992357126485792218062442771043 ,	 -0.117855986413060609407921219827 
	 0.990377434859990524174122583645 ,	 -0.132407054071147722851264916244 
	 0.98818,	-0.1469
	 0.98577,	-0.16134
	 0.98316,	-0.17572
	 0.98034,	-0.19005
	 0.97732,	-0.20431
	 0.97409,	-0.2185
	 0.97067,	-0.23263
	 0.96704,	-0.24669
	 0.96322,	-0.26068
	 0.95921,	-0.2746
	 0.95499,	-0.28844
	 0.95059,	-0.3022
	 0.94599,	-0.31588
	 0.94121,	-0.32947
	 0.93623,	-0.34297
	 0.93107,	-0.35639
	 0.92573,	-0.36971
	 0.9202,	-0.38294
	 0.91449,	-0.39606
	 0.9086,	-0.40909
	 0.90254,	-0.42201
	 0.89629,	-0.43483
	 0.88988,	-0.44753
	 0.87654,	-0.4726
	 0.86254,	-0.49721
	 0.8479,	-0.52132
	 0.83263,	-0.54494
	 0.81675,	-0.56803
	 0.80029,	-0.59058
	 0.78326,	-0.61258
	 0.7657,	-0.63401
	 0.74761,	-0.65485
	 0.72903,	-0.67511
	 0.70997,	-0.69476
	 0.69046,	-0.71379
	 0.67052,	-0.7322
	 0.65017,	-0.74998
	 0.62944,	-0.76712
	 0.60834,	-0.78361
	 0.5869,	-0.79945
	 0.56515,	-0.81463
	 0.5431,	-0.82914
	 0.52078,	-0.843
	 0.49821,	-0.85618
	 0.47541,	-0.8687
	 0.4524,	-0.88055
	 0.4292,	-0.89173
	 0.40584,	-0.90224
	 0.38233,	-0.91209
	 0.35869,	-0.92127
	 0.33495,	-0.92979
	 0.31112,	-0.93765
	 0.28722,	-0.94485
	 0.26328,	-0.9514
	 0.2393,	-0.95731
	 0.2153,	-0.96257
	 0.19131,	-0.9672
	 0.16734,	-0.9712
	 0.1434,	-0.97457
	 0.11951,	-0.97733
	 0.095687,	-0.97948
	 0.071942,	-0.98103
	 0.048291,	-0.98198
	 0.024747,	-0.98234
	 0.0013243,	-0.98213
	-0.021966,	-0.98135
	-0.04511,	-0.98
	-0.068097,	-0.9781
	-0.090916,	-0.97566
	-0.11355,	-0.97267
	-0.136,	-0.96917
	-0.15825,	-0.96514
	-0.18029,	-0.9606
	-0.20211,	-0.95556
	-0.2237,	-0.95003
	-0.24505,	-0.94402
	-0.26616,	-0.93753
	-0.28702,	-0.93058
	-0.30762,	-0.92317
	-0.32795,	-0.91532
	-0.348,	-0.90702
	-0.36778,	-0.8983
	-0.38726,	-0.88915
	-0.40646,	-0.87959
	-0.42535,	-0.86963
	-0.44394,	-0.85927
	-0.46222,	-0.84853
	-0.48018,	-0.8374
	-0.49783,	-0.82591
	-0.51514,	-0.81405
	-0.53213,	-0.80183
	-0.54879,	-0.78927
	-0.5651,	-0.77637
	-0.58107,	-0.76314
	-0.5967,	-0.74958
	-0.61198,	-0.7357
	-0.6269,	-0.72151
	-0.64147,	-0.70702
	-0.65567,	-0.69224
	-0.66951,	-0.67716
	-0.68298,	-0.6618
	-0.69608,	-0.64616
	-0.70881,	-0.63026
END
BEGIN
	 8.1012368999999997073759858048e-18 ,	 0 
	 1.21430643000000000611170118368e-17 ,	 4.42177370999999992980151086649e-11 
	 6.24500451000000028267922380803e-17 ,	 4.42177382000000018717114077605e-10 
	 4.71324368000000017024050715361e-15 ,	 4.42177388000000004086129478504e-09 
	 4.70208940999999954890702044478e-13 ,	 4.42177387000000003767358203177e-08 
	 7.45221592999999963591852724521e-13 ,	 5.56668347999999984021939091784e-08 
	 1.18110209000000000070429084786e-12 ,	 7.0080392900000004010823795135e-08 
	 1.87190887999999984590488578974e-12 ,	 8.82259873000000029267001974698e-08 
	 2.9667744000000000049794945427e-12 ,	 1.1106993699999999775587805487e-07 
	 4.70201308000000007645792139726e-12 ,	 1.39828765999999999134137938263e-07 
	 7.45218123000000040549985490755e-12 ,	 1.76033986000000002038654001689e-07 
	 1.18109030000000002060302606842e-11 ,	 2.21613656000000011174466945513e-07 
	 1.87190106999999986110751787605e-11 ,	 2.78995059000000019967915919697e-07 
	 2.96676172999999971883323076035e-11 ,	 3.51233961000000024337133275668e-07 
	 4.70199817000000019360406268344e-11 ,	 4.42177343000000002976311889655e-07 
	 7.45215972e-11 ,	 5.5666826e-07 
	 1.18108641e-10 ,	 7.00803754e-07 
	 1.87189268e-10 ,	 8.82259524e-07 
	 2.96674222e-10 ,	 1.11069867e-06 
	 4.70195024e-10 ,	 1.39828627e-06 
	 7.45204044e-10 ,	 1.76033708e-06 
	 1.18105666e-09 ,	 2.21613102e-06 
	 1.87181815e-09 ,	 2.78993955e-06 
	 2.9665552e-09 ,	 3.51231758e-06 
	 4.70148065e-09 ,	 4.42172947e-06 
	 7.45086122e-09 ,	 5.56659491e-06 
	 1.18076051e-08 ,	 7.00786259e-06 
	 1.87107443e-08 ,	 8.82224624e-06 
	 2.96468775e-08 ,	 1.11062906e-05 
	 4.69679248e-08 ,	 1.39814745e-05 
	 7.43909561e-08 ,	 1.76006032e-05 
	 1.1778093e-07 ,	 2.21557953e-05 
	 1.86367791e-07 ,	 2.78884142e-05 
	 2.94617415e-07 ,	 3.51013362e-05 
	 4.65054757e-07 ,	 4.41739409e-05 
	 7.32395174e-07 ,	 5.55801397e-05 
	 1.14928347e-06 ,	 6.99095599e-05 
	 1.79355434e-06 ,	 8.78917043e-05 
	 2.77582445e-06 ,	 0.000110422733 
	 4.24399764e-06 ,	 0.000138595371 
	 6.37839741e-06 ,	 0.000173736362 
	 9.37139884e-06 ,	 0.000217465281 
	 1.33971319e-05 ,	 0.000271800938 
	 1.60175185e-05 ,	 0.000305980331 
	 1.86657068e-05 ,	 0.000340116469 
	 2.52740902e-05 ,	 0.000424473693 
	 3.37201326e-05 ,	 0.000529998317 
	 4.34556574e-05 ,	 0.000645223072 
	 5.65086608e-05 ,	 0.000785691504 
	 6.9183951e-05 ,	 0.000907576032 
	 8.47138701e-05 ,	 0.0010411186 
	 0.000119555075 ,	 0.00129606162 
	 0.000161449034 ,	 0.00155010298 
	 0.000210529156 ,	 0.00180286953 
	 0.000266815915 ,	 0.0020540353 
	 0.000330276465 ,	 0.00230330617 
	 0.000400847968 ,	 0.0025504091 
	 0.000478447762 ,	 0.00279508592 
	 0.00056297824 ,	 0.00303708972 
	 0.000654329434 ,	 0.00327618301 
	 0.000752380515 ,	 0.00351213656 
	 0.000857000761 ,	 0.00374472896 
	 0.000968050248 ,	 0.00397374633 
	 0.0010853804 ,	 0.00419898233 
	 0.00120883445 ,	 0.00442023819 
	 0.00133824789 ,	 0.0046373229 
	 0.00147344887 ,	 0.00485005334 
	 0.00161425858 ,	 0.00505825453 
	 0.0017604917 ,	 0.00526175982 
	 0.00191195675 ,	 0.00546041109 
	 0.00206845654 ,	 0.00565405896 
	 0.00222978857 ,	 0.00584256301 
	 0.00239574547 ,	 0.00602579193 
	 0.00256611538 ,	 0.00620362369 
	 0.00274068245 ,	 0.00637594572 
	 0.00291922724 ,	 0.00654265502 
	 0.00310152717 ,	 0.00670365825 
	 0.0032874,	 0.0068589
	 0.0034765,	 0.0070082
	 0.0038637,	 0.0072891
	 0.0042614,	 0.0075459
	 0.0046677,	 0.0077783
	 0.0050807,	 0.0079864
	 0.0054987,	 0.0081701
	 0.0059198,	 0.0083298
	 0.0063422,	 0.0084657
	 0.0067643,	 0.0085785
	 0.0071846,	 0.0086687
	 0.0076013,	 0.0087371
	 0.0080132,	 0.0087847
	 0.0084188,	 0.0088123
	 0.008817,	 0.0088211
	 0.0092065,	 0.0088123
	 0.0095864,	 0.0087872
	 0.0099559,	 0.0087469
	 0.010314,	 0.0086929
	 0.01066,	 0.0086266
	 0.010994,	 0.0085494
	 0.011315,	 0.0084628
	 0.011623,	 0.0083681
	 0.011918,	 0.008267
	 0.0122,	 0.0081608
	 0.012469,	 0.0080509
	 0.012725,	 0.0079388
	 0.012968,	 0.0078257
	 0.0132,	 0.0077132
	 0.01342,	 0.0076023
	 0.013629,	 0.0074943
	 0.013828,	 0.0073904
	 0.014018,	 0.0072916
	 0.0142,	 0.007199
	 0.014375,	 0.0071134
	 0.014543,	 0.0070358
	 0.014706,	 0.0069667
	 0.014866,	 0.0069071
	 0.015022,	 0.0068572
	 0.015178,	 0.0068178
	 0.015334,	 0.006789
	 0.015491,	 0.0067711
	 0.015651,	 0.0067644
	 0.015815,	 0.0067688
	 0.015985,	 0.0067842
	 0.016162,	 0.0068104
	 0.016348,	 0.0068472
	 0.016544,	 0.006894
	 0.016751,	 0.0069504
	 0.016971,	 0.0070157
	 0.017205,	 0.0070891
	 0.017454,	 0.0071697
	 0.01772,	 0.0072566
	 0.018003,	 0.0073486
	 0.018305,	 0.0074446
	 0.018627,	 0.0075433
	 0.01897,	 0.0076434
	 0.019333,	 0.0077434
	 0.019719,	 0.0078419
	 0.020127,	 0.0079373
	 0.020558,	 0.0080282
	 0.021012,	 0.0081128
	 0.021489,	 0.0081897
	 0.02199,	 0.0082573
	 0.022514,	 0.008314
	 0.023061,	 0.0083583
	 0.023631,	 0.0083887
	 0.024224,	 0.0084038
	 0.024838,	 0.0084024
	 0.025474,	 0.0083831
	 0.02613,	 0.0083447
	 0.026806,	 0.0082863
	 0.027502,	 0.0082067
	 0.028216,	 0.0081052
	 0.028949,	 0.007981
	 0.029698,	 0.0078334
	 0.030465,	 0.0076619
	 0.031247,	 0.0074659
	 0.032044,	 0.0072452
	 0.032856,	 0.0069993
	 0.033683,	 0.006728
	 0.034525,	 0.0064312
END
BEGIN
	 8.1012368999999997073759858048e-18 ,	 0 
	 1.21430643000000000611170118368e-17 ,	 4.42177370999999992980151086649e-11 
	 6.24500451000000028267922380803e-17 ,	 4.42177382000000018717114077605e-10 
	 4.71324368000000017024050715361e-15 ,	 4.42177388000000004086129478504e-09 
	 4.70208940999999954890702044478e-13 ,	 4.42177387000000003767358203177e-08 
	 7.45221592999999963591852724521e-13 ,	 5.56668347999999984021939091784e-08 
	 1.18110209000000000070429084786e-12 ,	 7.0080392900000004010823795135e-08 
	 1.87190887999999984590488578974e-12 ,	 8.82259873000000029267001974698e-08 
	 2.9667744000000000049794945427e-12 ,	 1.1106993699999999775587805487e-07 
	 4.70201308000000007645792139726e-12 ,	 1.39828765999999999134137938263e-07 
	 7.45218123000000040549985490755e-12 ,	 1.76033986000000002038654001689e-07 
	 1.18109030000000002060302606842e-11 ,	 2.21613656000000011174466945513e-07 
	 1.87190106999999986110751787605e-11 ,	 2.78995059000000019967915919697e-07 
	 2.96676172999999971883323076035e-11 ,	 3.51233961000000024337133275668e-07 
	 4.70199817000000019360406268344e-11 ,	 4.42177343000000002976311889655e-07 
	 7.45215972e-11 ,	 5.5666826e-07 
	 1.18108641e-10 ,	 7.00803754e-07 
	 1.87189268e-10 ,	 8.82259524e-07 
	 2.96674222e-10 ,	 1.11069867e-06 
	 4.70195024e-10 ,	 1.39828627e-06 
	 7.45204044e-10 ,	 1.76033708e-06 
	 1.18105666e-09 ,	 2.21613102e-06 
	 1.87181815e-09 ,	 2.78993955e-06 
	 2.9665552e-09 ,	 3.51231758e-06 
	 4.70148065e-09 ,	 4.42172947e-06 
	 7.45086122e-09 ,	 5.56659491e-06 
	 1.18076051e-08 ,	 7.00786259e-06 
	 1.87107443e-08 ,	 8.82224624e-06 
	 2.96468775e-08 ,	 1.11062906e-05 
	 4.69679248e-08 ,	 1.39814745e-05 
	 7.43909561e-08 ,	 1.76006032e-05 
	 1.1778093e-07 ,	 2.21557953e-05 
	 1.86367791e-07 ,	 2.78884142e-05 
	 2.94617415e-07 ,	 3.51013362e-05 
	 4.65054757e-07 ,	 4.41739409e-05 
	 7.32395174e-07 ,	 5.55801397e-05 
	 1.14928347e-06 ,	 6.99095599e-05 
	 1.79355434e-06 ,	 8.78917043e-05 
	 2.77582445e-06 ,	 0.000110422733 
	 4.24399764e-06 ,	 0.000138595371 
	 6.37839741e-06 ,	 0.000173736362 
	 9.37139884e-06 ,	 0.000217465281 
	 1.33971319e-05 ,	 0.000271800938 
	 1.60175185e-05 ,	 0.000305980331 
	 1.86657068e-05 ,	 0.000340116469 
	 2.52740902e-05 ,	 0.000424473693 
	 3.37201326e-05 ,	 0.000529998317 
	 4.34556574e-05 ,	 0.000645223072 
	 5.65086608e-05 ,	 0.000785691504 
	 6.9183951e-05 ,	 0.000907576032 
	 8.47138701e-05 ,	 0.0010411186 
	 0.000119555075 ,	 0.00129606162 
	 0.000161449034 ,	 0.00155010298 
	 0.000210529156 ,	 0.00180286953 
	 0.000266815915 ,	 0.0020540353 
	 0.000330276465 ,	 0.00230330617 
	 0.000400847968 ,	 0.0025504091 
	 0.000478447762 ,	 0.00279508592 
	 0.00056297824 ,	 0.00303708972 
	 0.000654329434 ,	 0.00327618301 
	 0.000752380515 ,	 0.00351213656 
	 0.000857000761 ,	 0.00374472896 
	 0.000968050248 ,	 0.00397374633 
	 0.0010853804 ,	 0.00419898233 
	 0.00120883445 ,	 0.00442023819 
	 0.00133824789 ,	 0.0046373229 
	 0.00147344887 ,	 0.00485005334 
	 0.00161425858 ,	 0.00505825453 
	 0.0017604917 ,	 0.00526175982 
	 0.00191195675 ,	 0.00546041109 
	 0.00206845654 ,	 0.00565405896 
	 0.00222978857 ,	 0.00584256301 
	 0.00239574547 ,	 0.00602579193 
	 0.00256611538 ,	 0.00620362369 
	 0.00274068245 ,	 0.00637594572 
	 0.00291922724 ,	 0.00654265502 
	 0.00310152717 ,	 0.00670365825 
	 0.0032874,	 0.0068589
	 0.0034765,	 0.0070082
	 0.0038637,	 0.0072891
	 0.0042614,	 0.0075459
	 0.0046677,	 0.0077783
	 0.0050807,	 0.0079864
	 0.0054987,	 0.0081701
	 0.0059198,	 0.0083298
	 0.0063422,	 0.0084657
	 0.0067643,	 0.0085785
	 0.0071846,	 0.0086687
	 0.0076013,	 0.0087371
	 0.0080132,	 0.0087847
	 0.0084188,	 0.0088123
	 0.008817,	 0.0088211
	 0.0092065,	 0.0088123
	 0.0095864,	 0.0087872
	 0.0099559,	 0.0087469
	 0.010314,	 0.0086929
	 0.01066,	 0.0086266
	 0.010994,	 0.0085494
	 0.011315,	 0.0084628
	 0.011623,	 0.0083681
	 0.011918,	 0.008267
	 0.0122,	 0.0081608
	 0.012469,	 0.0080509
	 0.012725,	 0.0079388
	 0.012968,	 0.0078257
	 0.0132,	 0.0077132
	 0.01342,	 0.0076023
	 0.013629,	 0.0074943
	 0.013828,	 0.0073904
	 0.014018,	 0.0072916
	 0.0142,	 0.007199
	 0.014375,	 0.0071134
	 0.014543,	 0.0070358
	 0.014706,	 0.0069667
	 0.014866,	 0.0069071
	 0.015022,	 0.0068572
	 0.015178,	 0.0068178
	 0.015334,	 0.006789
	 0.015491,	 0.0067711
	 0.015651,	 0.0067644
	 0.015815,	 0.0067688
	 0.015985,	 0.0067842
	 0.016162,	 0.0068104
	 0.016348,	 0.0068472
	 0.016544,	 0.006894
	 0.016751,	 0.0069504
	 0.016971,	 0.0070157
	 0.017205,	 0.0070891
	 0.017454,	 0.0071697
	 0.01772,	 0.0072566
	 0.018003,	 0.0073486
	 0.018305,	 0.0074446
	 0.018627,	 0.0075433
	 0.01897,	 0.0076434
	 0.019333,	 0.0077434
	 0.019719,	 0.0078419
	 0.020127,	 0.0079373
	 0.020558,	 0.0080282
	 0.021012,	 0.0081128
	 0.021489,	 0.0081897
	 0.02199,	 0.0082573
	 0.022514,	 0.008314
	 0.023061,	 0.0083583
	 0.023631,	 0.0083887
	 0.024224,	 0.0084038
	 0.024838,	 0.0084024
	 0.025474,	 0.0083831
	 0.02613,	 0.0083447
	 0.026806,	 0.0082863
	 0.027502,	 0.0082067
	 0.028216,	 0.0081052
	 0.028949,	 0.007981
	 0.029698,	 0.0078334
	 0.030465,	 0.0076619
	 0.031247,	 0.0074659
	 0.032044,	 0.0072452
	 0.032856,	 0.0069993
	 0.033683,	 0.006728
	 0.034525,	 0.0064312
END
BEGIN
	 0.999999999999998445687765524781 ,	 -0 
	 0.99999999999999666933092612453 ,	 -2.34849206748322103521786630154e-09 
	 0.999999999999995337063296574343 ,	 -2.34849224511890497524291276932e-08 
	 0.999999999999966471264656320272 ,	 -2.34849221403266028573852963746e-07 
	 0.999999999996921573597319365945 ,	 -2.34849221092403581678809132427e-06 
	 0.999999999995122568208216762287 ,	 -2.95657652427117056959104957059e-06 
	 0.999999999992271071391769510228 ,	 -3.72210931809391354363469872624e-06 
	 0.999999999987752463681545123109 ,	 -4.6858580060593624239118071273e-06 
	 0.999999999980590636994293163298 ,	 -5.89914571991201341916166711599e-06 
	 0.999999999969240604968945262954 ,	 -7.42658445451738202791602816433e-06 
	 0.999999999951252771523968476686 ,	 -9.34951589237620339645218336955e-06 
