CITIFILE A.01.01
#Momentum: B.12.070 (*) built: Feb 13 2020 
#Momentum Date and Time: Wed Sep  7 03:49:34 2022

NAME Momentum.SP

#  mode: MW    reference: S_50

#eesof Port[1] P1
#eesof Port[2] P2

CONSTANT NBR_OF_PORTS 2

CONSTANT NORMALIZATION 1

VAR freq MAG 159

DATA S[1,1] RI
DATA S[1,2] RI
DATA S[2,1] RI
DATA S[2,2] RI
DATA PORTZ[1] RI
DATA PORTZ[2] RI

VAR_LIST_BEGIN
	 0
	 8.254652041
	 82.54652041
	 825.4652041
	 8254.652041
	 10391.99122
	 13082.74183
	 16470.19614
	 20734.74846
	 26103.50174
	 32862.36168
	 41371.26221
	 52083.33331
	 65569.03184
	 82546.52041
	 103919.9122
	 130827.4183
	 164701.9614
	 207347.4846
	 261035.0174
	 328623.6168
	 413712.6221
	 520833.3331
	 655690.3184
	 825465.2041
	 1039199.122
	 1308274.183
	 1647019.614
	 2073474.846
	 2610350.174
	 3286236.168
	 4137126.221
	 5208333.331
	 6556903.184
	 8254652.041
	 10391991.22
	 13082741.83
	 16470196.14
	 20734748.46
	 26103501.74
	 32862361.68
	 41371262.21
	 52083333.31
	 58888017.66
	 65724723.36
	 82742524.42
	 104166666.6
	 127625925.2
	 156249999.9
	 181096072.2
	 208333333.2
	 260416666.6
	 312499999.9
	 364583333.2
	 416666666.5
	 468749999.8
	 520833333.1
	 572916666.4
	 624999999.8
	 677083333.1
	 729166666.4
	 781249999.7
	 833333333
	 885416666.3
	 937499999.6
	 989583332.9
	 1041666666
	 1093750000
	 1145833333
	 1197916666
	 1250000000
	 1302083333
	 1354166666
	 1406249999
	 1458333333
	 1510416666
	 1562499999
	 1614583333
	 1666666666
	 1770833333
	 1874999999
	 1979166666
	 2083333333
	 2187499999
	 2291666666
	 2395833333
	 2500000000
	 2604166666
	 2708333333
	 2812500000
	 2916666666
	 3020833333
	 3125000000
	 3229166666
	 3333333333
	 3437500000
	 3541666666
	 3645833333
	 3750000000
	 3854166666
	 3958333333
	 4062500000
	 4166666666
	 4270833333
	 4375000000
	 4479166667
	 4583333333
	 4687500000
	 4791666667
	 4895833333
	 5000000000
	 5104166667
	 5208333333
	 5312500000
	 5416666667
	 5520833333
	 5625000000
	 5729166667
	 5833333334
	 5937500000
	 6041666667
	 6145833334
	 6250000000
	 6354166667
	 6458333334
	 6562500000
	 6666666667
	 6770833334
	 6875000000
	 6979166667
	 7083333334
	 7187500000
	 7291666667
	 7395833334
	 7500000000
	 7604166667
	 7708333334
	 7812500001
	 7916666667
	 8020833334
	 8125000001
	 8229166667
	 8333333334
	 8437500001
	 8541666667
	 8645833334
	 8750000000
	 8854166667
	 8958333334
	 9062500000
	 9166666667
	 9270833334
	 9375000000
	 9479166667
	 9583333334
	 9687500000
	 9791666667
	 9895833333
	 1e+10
VAR_LIST_END

BEGIN
	 0.999999999999998445687765524781 ,	 -0 
	 0.999999999999997224442438437109 ,	 -2.28388857825834179493540432304e-09 
	 0.999999999999997668531648287171 ,	 -2.28388842282711834741348866373e-08 
	 0.99999999999996780353228587046 ,	 -2.28388844281113279066630639136e-07 
	 0.999999999997078670155303825595 ,	 -2.28388843676041730645920324605e-06 
	 0.999999999995371258165732797352 ,	 -2.87524519054782601301667455118e-06 
	 0.999999999992665755677023753378 ,	 -3.61971923534820660961486282758e-06 
	 0.999999999988377741289014011272 ,	 -4.55695652928911343337858852465e-06 
	 0.9999999999815807338876538779 ,	 -5.73686837546105721230560448021e-06 
	 0.999999999970809128058135684114 ,	 -7.22228938127011943493016588036e-06 
	 0.999999999953736451452357414382 ,	 -9.09232363371925700334941211622e-06 
	 0.999999999926678762030007874273 ,	 -1.14465572735866771836299449205e-05 
	 0.999999999883794399302416877617 ,	 -1.44103618293645041603667777963e-05 
	 0.999999999815827544935586956854 ,	 -1.81415706983489855019797687419e-05 
	 0.999999999708108489038238531066 ,	 -2.28388843603877234045285149477e-05 
	 0.999999999537385608761042021797 ,	 -2.87524518944870521863776957616e-05 
	 0.999999999266806716136102295422 ,	 -3.61971923326653843844269431429e-05 
	 0.999999998837968195886105604586 ,	 -4.55695652450405219724416383542e-05 
	 0.99999999815830520333292952273 ,	 -5.73686836576881020732798788231e-05 
	 0.999999997081112090846488626994 ,	 -7.22228936305691071595447283471e-05 
	 0.999999995373875627535653620725 ,	 -9.09232359691536373702547280118e-05 
	 0.999999992668088144576188369683 ,	 -0.000114465572013944250073791408795 
	 0.999999988379704385366153474024 ,	 -0.000144103616843971327199369625305 
	 0.999999981583074681878997580498 ,	 -0.000181415704100185148917034894112 
	 0.999999970811143779059193548164 ,	 -0.000228388837842430358904266540776 
	 0.999999953738785918311293698935 ,	 -0.000287524507446179633518568152795 
	 0.99999992668092696490589332825 ,	 -0.000361971900388169398610216376255 
	 0.999999883797122013362468351261 ,	 -0.000455695606696560062687240133528 
	 0.999999815830904248414867652173 ,	 -0.000573686745279855525581069741747 
	 0.999999708111790175379951506329 ,	 -0.000722228754135467720942642699811 
	 0.999999537388700399098695470457 ,	 -0.000909231996219339588805041785236 
	 0.999999266811345433048074937687 ,	 -0.00114465499492028000005916510418 
	 0.999998837976412868755460294778 ,	 -0.00144103472145706845708446053322 
	 0.999998158322052188573536568583 ,	 -0.00181415415392932599658593062486 
	 0.999997081150530431337131176406 ,	 -0.0022838826180897608963960010442 
	 0.999995373968929901487001643545 ,	 -0.0028752335814753449128033935267 
	 0.999992668319194200066135636007 ,	 -0.00361969607364448497932585269155 
	 0.999988380280815158940299625101 ,	 -0.00455691031917121458505448572396 
	 0.999981584518016664020478856401 ,	 -0.00573677618672696620905071540619 
	 0.999970814763141646608346491121 ,	 -0.00722210548201462909645442778128 
	 0.999953747867485587264013702224 ,	 -0.00909195683370622731445109820925 
	 0.999926703714322018257121271745 ,	 -0.0114458258156752146206258657912 
	 0.999883854277578643099388955306 ,	 -0.0144089036496786726537777667545 
	 0.999851543134694820125218939211 ,	 -0.0162909684775351393248854492413 
	 0.999815099863118339484913121851 ,	 -0.0181817211252257582287938930676 
	 0.999707085917741711256212511216 ,	 -0.0228872888657670192635862349562 
	 0.999536093212443188527061010973 ,	 -0.0288091397816399030773482081713 
	 0.999304277839575205710787031421 ,	 -0.0352901997001498490824644704844 
	 0.998958669760169115647840953898 ,	 -0.0431924341742583872694183355634 
	 0.998603146649578166105243326456 ,	 -0.0500457074147127589647254808369 
	 0.998154604072853501861573022325 ,	 -0.057551235559287594600874626849 
	 0.997127683173008705352913239039 ,	 -0.0718789352270717274429046028672 
	 0.995882126834730097009185101342 ,	 -0.086169957774120897742164970623 
	 0.994422273608628892738181548339 ,	 -0.10041973217376609639472917479 
	 0.992752325860604023510802562669 ,	 -0.114624572379849243297655903007 
	 0.990876172729095006097566056269 ,	 -0.128781505123696682346690067789 
	 0.98879,	-0.14288
	 0.98651,	-0.15694
	 0.98404,	-0.17094
	 0.98137,	-0.18488
	 0.9785,	-0.19877
	 0.97545,	-0.21259
	 0.97221,	-0.22635
	 0.96877,	-0.24005
	 0.96515,	-0.25369
	 0.96135,	-0.26725
	 0.95736,	-0.28074
	 0.95318,	-0.29416
	 0.94883,	-0.30751
	 0.94429,	-0.32077
	 0.93958,	-0.33396
	 0.93469,	-0.34706
	 0.92962,	-0.36007
	 0.92438,	-0.373
	 0.91897,	-0.38583
	 0.91338,	-0.39857
	 0.90763,	-0.41121
	 0.90171,	-0.42375
	 0.89562,	-0.43619
	 0.88297,	-0.46076
	 0.86968,	-0.4849
	 0.85577,	-0.50858
	 0.84126,	-0.53179
	 0.82617,	-0.55451
	 0.81052,	-0.57674
	 0.79433,	-0.59845
	 0.77761,	-0.61963
	 0.76039,	-0.64026
	 0.74269,	-0.66035
	 0.72453,	-0.67986
	 0.70592,	-0.69881
	 0.6869,	-0.71717
	 0.66747,	-0.73493
	 0.64767,	-0.7521
	 0.62751,	-0.76866
	 0.60701,	-0.78461
	 0.5862,	-0.79994
	 0.56509,	-0.81465
	 0.5437,	-0.82873
	 0.52207,	-0.84219
	 0.50019,	-0.85502
	 0.4781,	-0.86721
	 0.45582,	-0.87878
	 0.43336,	-0.88971
	 0.41075,	-0.90002
	 0.388,	-0.90969
	 0.36513,	-0.91874
	 0.34216,	-0.92716
	 0.31911,	-0.93496
	 0.29599,	-0.94214
	 0.27282,	-0.94871
	 0.24962,	-0.95467
	 0.2264,	-0.96003
	 0.20318,	-0.96478
	 0.17998,	-0.96894
	 0.1568,	-0.97251
	 0.13367,	-0.9755
	 0.1106,	-0.97791
	 0.087603,	-0.97976
	 0.064685,	-0.98104
	 0.041865,	-0.98177
	 0.019154,	-0.98195
	-0.0034362,	-0.9816
	-0.025894,	-0.98071
	-0.048208,	-0.97929
	-0.070369,	-0.97736
	-0.092365,	-0.97493
	-0.11418,	-0.97199
	-0.13582,	-0.96856
	-0.15727,	-0.96465
	-0.17852,	-0.96026
	-0.19955,	-0.95541
	-0.22037,	-0.9501
	-0.24097,	-0.94434
	-0.26133,	-0.93814
	-0.28145,	-0.93151
	-0.30133,	-0.92445
	-0.32095,	-0.91697
	-0.34032,	-0.90909
	-0.35942,	-0.90081
	-0.37825,	-0.89213
	-0.3968,	-0.88307
	-0.41507,	-0.87363
	-0.43306,	-0.86383
	-0.45076,	-0.85366
	-0.46816,	-0.84314
	-0.48527,	-0.83228
	-0.50207,	-0.82108
	-0.51856,	-0.80954
	-0.53474,	-0.79769
	-0.55061,	-0.78551
	-0.56615,	-0.77303
	-0.58138,	-0.76025
	-0.59628,	-0.74716
	-0.61085,	-0.73379
	-0.6251,	-0.72014
	-0.639,	-0.70621
	-0.65258,	-0.69201
	-0.66581,	-0.67755
END
BEGIN
	 3.67992323999999989607230187472e-18 ,	 0 
	 2.255140520000000150932312043e-17 ,	 3.46408290999999998131641479851e-11 
	 1.02348685000000004144261355731e-16 ,	 3.46408288999999984052413975211e-10 
	 8.37004077000000047691366614867e-15 ,	 3.46408294000000016665543322583e-09 
	 8.34887715000000003540880965167e-13 ,	 3.46408291999999974668970144278e-08 
	 1.32319155999999991022424552263e-12 ,	 4.36102200999999971141176475977e-08 
	 2.09710548000000019518323381973e-12 ,	 5.49020140999999970916413719827e-08 
	 3.32367813999999988588347948581e-12 ,	 6.91175402999999946627743773429e-08 
	 5.26766131000000022398235001141e-12 ,	 8.70138269000000002352724530821e-08 
	 8.34866898000000026773979227076e-12 ,	 1.09543916000000004396330399552e-07 
	 1.32317352000000007845546235961e-11 ,	 1.37907616000000003136853978826e-07 
	 2.09708673999999995932879893211e-11 ,	 1.73615395999999990437985737148e-07 
	 3.32365697000000002442041517896e-11 ,	 2.18568819000000008405417664843e-07 
	 5.26763493999999986490021614109e-11 ,	 2.75161812999999995835273720879e-07 
	 8.34862665000000006591017565677e-11 ,	 3.46408142999999976802886873795e-07 
	 1.32316536e-10 ,	 4.36101904e-07 
	 2.0970688e-10 ,	 5.49019547e-07 
	 3.32361267e-10 ,	 6.91174218e-07 
	 5.26752753e-10 ,	 8.70135906e-07 
	 8.34835933e-10 ,	 1.09543445e-06 
	 1.32309836e-09 ,	 1.37906676e-06 
	 2.09690073e-09 ,	 1.73613519e-06 
	 3.32319079e-09 ,	 2.18565075e-06 
	 5.26646818e-09 ,	 2.75154343e-06 
	 8.34569902e-09 ,	 3.4639324e-06 
	 1.32243032e-08 ,	 4.36072174e-06 
	 2.09522337e-08 ,	 5.48960251e-06 
	 3.31898009e-08 ,	 6.91055974e-06 
	 5.25590186e-08 ,	 8.69900191e-06 
	 8.31919909e-08 ,	 1.09496481e-05 
	 1.31579029e-07 ,	 1.37813182e-05 
	 2.07860944e-07 ,	 1.73427643e-05 
	 3.27750448e-07 ,	 2.18196295e-05 
	 5.15272702e-07 ,	 2.74425049e-05 
	 8.06395464e-07 ,	 3.44958261e-05 
	 1.2531813e-06 ,	 4.33270533e-05 
	 1.92701422e-06 ,	 5.43554426e-05 
	 2.91746341e-06 ,	 6.80805659e-05 
	 4.32109973e-06 ,	 8.50942427e-05 
	 6.21548723e-06 ,	 0.000106107201 
	 8.62422243e-06 ,	 0.000132010118 
	 1.15004078e-05 ,	 0.000163983629 
	 1.47669929e-05 ,	 0.000203640806 
	 1.6661154e-05 ,	 0.000228655242 
	 1.84620394e-05 ,	 0.000253723543 
	 2.27130677e-05 ,	 0.000316047424 
	 2.80649215e-05 ,	 0.000394585893 
	 3.44140384e-05 ,	 0.00048075232 
	 4.32497962e-05 ,	 0.000586046117 
	 5.20610927e-05 ,	 0.00067748953 
	 6.30297894e-05 ,	 0.000777698249 
	 8.7960788e-05 ,	 0.000968977505 
	 0.000118174734 ,	 0.00115951245 
	 0.000153688352 ,	 0.0013490239 
	 0.000194475143 ,	 0.001537276 
	 0.000240486917 ,	 0.0017240557 
	 0.000291661569 ,	 0.0019091636 
	 0.000347926343 ,	 0.00209240962 
	 0.000409199395 ,	 0.00227361098 
	 0.000475390665 ,	 0.0024525911 
	 0.000546402425 ,	 0.00262917919 
	 0.000622129685 ,	 0.00280321003 
	 0.000702460523 ,	 0.00297452402 
	 0.000787276392 ,	 0.00314296722 
	 0.000876452404 ,	 0.00330839157 
	 0.000969857617 ,	 0.00347065501 
	 0.00106735533 ,	 0.00362962169 
	 0.00116880336 ,	 0.0037851622 
	 0.00127405437 ,	 0.00393715374 
	 0.00138295616 ,	 0.00408548035 
	 0.00149535199 ,	 0.00423003304 
	 0.00161108092 ,	 0.00437071004 
	 0.00172997814 ,	 0.0045074169 
	 0.00185187528 ,	 0.0046400667 
	 0.0019766008 ,	 0.00476858014 
	 0.00210398034 ,	 0.00489288568 
	 0.00223383707 ,	 0.00501291965 
	 0.00236599204 ,	 0.00512862632 
	 0.00250026458 ,	 0.00523995799 
	 0.00277443317 ,	 0.00544934599 
	 0.00305487674 ,	 0.00564086414 
	 0.00334012517 ,	 0.00581442297 
	 0.00362871607 ,	 0.00597006215 
	 0.0039192,	 0.0061079
	 0.0042102,	 0.0062284
	 0.0045003,	 0.0063317
	 0.0047882,	 0.0064186
	 0.0050726,	 0.0064896
	 0.0053524,	 0.0065454
	 0.0056264,	 0.0065869
	 0.0058936,	 0.006615
	 0.0061532,	 0.0066307
	 0.0064041,	 0.006635
	 0.0066458,	 0.0066292
	 0.0068776,	 0.0066143
	 0.0070989,	 0.0065916
	 0.0073094,	 0.0065624
	 0.0075088,	 0.0065279
	 0.0076968,	 0.0064894
	 0.0078734,	 0.0064482
	 0.0080386,	 0.0064056
	 0.0081926,	 0.0063628
	 0.0083355,	 0.0063212
	 0.0084678,	 0.006282
	 0.0085898,	 0.0062463
	 0.0087022,	 0.0062153
	 0.0088054,	 0.0061902
	 0.0089004,	 0.006172
	 0.0089877,	 0.0061616
	 0.0090684,	 0.0061602
	 0.0091433,	 0.0061684
	 0.0092135,	 0.0061871
	 0.00928,	 0.0062172
	 0.0093441,	 0.0062591
	 0.0094068,	 0.0063134
	 0.0094695,	 0.0063808
	 0.0095334,	 0.0064614
	 0.0095999,	 0.0065557
	 0.0096703,	 0.0066639
	 0.0097459,	 0.006786
	 0.0098283,	 0.006922
	 0.0099188,	 0.0070718
	 0.010019,	 0.0072353
	 0.01013,	 0.0074121
	 0.010253,	 0.0076017
	 0.01039,	 0.0078038
	 0.010542,	 0.0080175
	 0.010711,	 0.0082423
	 0.010897,	 0.0084772
	 0.011102,	 0.0087213
	 0.011327,	 0.0089736
	 0.011574,	 0.0092329
	 0.011842,	 0.0094982
	 0.012133,	 0.0097679
	 0.012449,	 0.010041
	 0.012789,	 0.010316
	 0.013154,	 0.010591
	 0.013545,	 0.010865
	 0.013962,	 0.011137
	 0.014405,	 0.011404
	 0.014875,	 0.011666
	 0.015372,	 0.011921
	 0.015895,	 0.012167
	 0.016445,	 0.012403
	 0.017021,	 0.012628
	 0.017623,	 0.01284
	 0.01825,	 0.013039
	 0.018902,	 0.013222
	 0.019579,	 0.013389
	 0.02028,	 0.013539
	 0.021005,	 0.013671
	 0.021752,	 0.013784
	 0.022522,	 0.013878
	 0.023313,	 0.013952
	 0.024126,	 0.014005
	 0.02496,	 0.014037
	 0.025815,	 0.014048
	 0.02669,	 0.014037
	 0.027585,	 0.014005
END
BEGIN
	 3.67992323999999989607230187472e-18 ,	 0 
	 2.255140520000000150932312043e-17 ,	 3.46408290999999998131641479851e-11 
	 1.02348685000000004144261355731e-16 ,	 3.46408288999999984052413975211e-10 
	 8.37004077000000047691366614867e-15 ,	 3.46408294000000016665543322583e-09 
	 8.34887715000000003540880965167e-13 ,	 3.46408291999999974668970144278e-08 
	 1.32319155999999991022424552263e-12 ,	 4.36102200999999971141176475977e-08 
	 2.09710548000000019518323381973e-12 ,	 5.49020140999999970916413719827e-08 
	 3.32367813999999988588347948581e-12 ,	 6.91175402999999946627743773429e-08 
	 5.26766131000000022398235001141e-12 ,	 8.70138269000000002352724530821e-08 
	 8.34866898000000026773979227076e-12 ,	 1.09543916000000004396330399552e-07 
	 1.32317352000000007845546235961e-11 ,	 1.37907616000000003136853978826e-07 
	 2.09708673999999995932879893211e-11 ,	 1.73615395999999990437985737148e-07 
	 3.32365697000000002442041517896e-11 ,	 2.18568819000000008405417664843e-07 
	 5.26763493999999986490021614109e-11 ,	 2.75161812999999995835273720879e-07 
	 8.34862665000000006591017565677e-11 ,	 3.46408142999999976802886873795e-07 
	 1.32316536e-10 ,	 4.36101904e-07 
	 2.0970688e-10 ,	 5.49019547e-07 
	 3.32361267e-10 ,	 6.91174218e-07 
	 5.26752753e-10 ,	 8.70135906e-07 
	 8.34835933e-10 ,	 1.09543445e-06 
	 1.32309836e-09 ,	 1.37906676e-06 
	 2.09690073e-09 ,	 1.73613519e-06 
	 3.32319079e-09 ,	 2.18565075e-06 
	 5.26646818e-09 ,	 2.75154343e-06 
	 8.34569902e-09 ,	 3.4639324e-06 
	 1.32243032e-08 ,	 4.36072174e-06 
	 2.09522337e-08 ,	 5.48960251e-06 
	 3.31898009e-08 ,	 6.91055974e-06 
	 5.25590186e-08 ,	 8.69900191e-06 
	 8.31919909e-08 ,	 1.09496481e-05 
	 1.31579029e-07 ,	 1.37813182e-05 
	 2.07860944e-07 ,	 1.73427643e-05 
	 3.27750448e-07 ,	 2.18196295e-05 
	 5.15272702e-07 ,	 2.74425049e-05 
	 8.06395464e-07 ,	 3.44958261e-05 
	 1.2531813e-06 ,	 4.33270533e-05 
	 1.92701422e-06 ,	 5.43554426e-05 
	 2.91746341e-06 ,	 6.80805659e-05 
	 4.32109973e-06 ,	 8.50942427e-05 
	 6.21548723e-06 ,	 0.000106107201 
	 8.62422243e-06 ,	 0.000132010118 
	 1.15004078e-05 ,	 0.000163983629 
	 1.47669929e-05 ,	 0.000203640806 
	 1.6661154e-05 ,	 0.000228655242 
	 1.84620394e-05 ,	 0.000253723543 
	 2.27130677e-05 ,	 0.000316047424 
	 2.80649215e-05 ,	 0.000394585893 
	 3.44140384e-05 ,	 0.00048075232 
	 4.32497962e-05 ,	 0.000586046117 
	 5.20610927e-05 ,	 0.00067748953 
	 6.30297894e-05 ,	 0.000777698249 
	 8.7960788e-05 ,	 0.000968977505 
	 0.000118174734 ,	 0.00115951245 
	 0.000153688352 ,	 0.0013490239 
	 0.000194475143 ,	 0.001537276 
	 0.000240486917 ,	 0.0017240557 
	 0.000291661569 ,	 0.0019091636 
	 0.000347926343 ,	 0.00209240962 
	 0.000409199395 ,	 0.00227361098 
	 0.000475390665 ,	 0.0024525911 
	 0.000546402425 ,	 0.00262917919 
	 0.000622129685 ,	 0.00280321003 
	 0.000702460523 ,	 0.00297452402 
	 0.000787276392 ,	 0.00314296722 
	 0.000876452404 ,	 0.00330839157 
	 0.000969857617 ,	 0.00347065501 
	 0.00106735533 ,	 0.00362962169 
	 0.00116880336 ,	 0.0037851622 
	 0.00127405437 ,	 0.00393715374 
	 0.00138295616 ,	 0.00408548035 
	 0.00149535199 ,	 0.00423003304 
	 0.00161108092 ,	 0.00437071004 
	 0.00172997814 ,	 0.0045074169 
	 0.00185187528 ,	 0.0046400667 
	 0.0019766008 ,	 0.00476858014 
	 0.00210398034 ,	 0.00489288568 
	 0.00223383707 ,	 0.00501291965 
	 0.00236599204 ,	 0.00512862632 
	 0.00250026458 ,	 0.00523995799 
	 0.00277443317 ,	 0.00544934599 
	 0.00305487674 ,	 0.00564086414 
	 0.00334012517 ,	 0.00581442297 
	 0.00362871607 ,	 0.00597006215 
	 0.0039192,	 0.0061079
	 0.0042102,	 0.0062284
	 0.0045003,	 0.0063317
	 0.0047882,	 0.0064186
	 0.0050726,	 0.0064896
	 0.0053524,	 0.0065454
	 0.0056264,	 0.0065869
	 0.0058936,	 0.006615
	 0.0061532,	 0.0066307
	 0.0064041,	 0.006635
	 0.0066458,	 0.0066292
	 0.0068776,	 0.0066143
	 0.0070989,	 0.0065916
	 0.0073094,	 0.0065624
	 0.0075088,	 0.0065279
	 0.0076968,	 0.0064894
	 0.0078734,	 0.0064482
	 0.0080386,	 0.0064056
	 0.0081926,	 0.0063628
	 0.0083355,	 0.0063212
	 0.0084678,	 0.006282
	 0.0085898,	 0.0062463
	 0.0087022,	 0.0062153
	 0.0088054,	 0.0061902
	 0.0089004,	 0.006172
	 0.0089877,	 0.0061616
	 0.0090684,	 0.0061602
	 0.0091433,	 0.0061684
	 0.0092135,	 0.0061871
	 0.00928,	 0.0062172
	 0.0093441,	 0.0062591
	 0.0094068,	 0.0063134
	 0.0094695,	 0.0063808
	 0.0095334,	 0.0064614
	 0.0095999,	 0.0065557
	 0.0096703,	 0.0066639
	 0.0097459,	 0.006786
	 0.0098283,	 0.006922
	 0.0099188,	 0.0070718
	 0.010019,	 0.0072353
	 0.01013,	 0.0074121
	 0.010253,	 0.0076017
	 0.01039,	 0.0078038
	 0.010542,	 0.0080175
	 0.010711,	 0.0082423
	 0.010897,	 0.0084772
	 0.011102,	 0.0087213
	 0.011327,	 0.0089736
	 0.011574,	 0.0092329
	 0.011842,	 0.0094982
	 0.012133,	 0.0097679
	 0.012449,	 0.010041
	 0.012789,	 0.010316
	 0.013154,	 0.010591
	 0.013545,	 0.010865
	 0.013962,	 0.011137
	 0.014405,	 0.011404
	 0.014875,	 0.011666
	 0.015372,	 0.011921
	 0.015895,	 0.012167
	 0.016445,	 0.012403
	 0.017021,	 0.012628
	 0.017623,	 0.01284
	 0.01825,	 0.013039
	 0.018902,	 0.013222
	 0.019579,	 0.013389
	 0.02028,	 0.013539
	 0.021005,	 0.013671
	 0.021752,	 0.013784
	 0.022522,	 0.013878
	 0.023313,	 0.013952
	 0.024126,	 0.014005
	 0.02496,	 0.014037
	 0.025815,	 0.014048
	 0.02669,	 0.014037
	 0.027585,	 0.014005
END
BEGIN
	 0.999999999999998778754672912328 ,	 -0 
	 0.99999999999999822364316059975 ,	 -2.28494778653498542553279548883e-09 
	 0.999999999999997890576253212203 ,	 -2.28494795306843911930627655238e-08 
	 0.999999999999968136599193258007 ,	 -2.28494791865152535592642379925e-07 
	 0.999999999997075339486229950126 ,	 -2.28494792187117212733937776648e-06 
	 0.999999999995367372385146609304 ,	 -2.87657900327475957169554021675e-06 
	 0.999999999992659538428085852502 ,	 -3.621398407094300608832782018e-06 
	 0.999999999988366194969557909644 ,	 -4.55907048035886219849999179132e-06 
	 0.999999999981563969519982038037 ,	 -5.73952968135893470957853423897e-06 
