CITIFILE A.01.01
#Momentum: B.12.070 (*) built: Feb 13 2020 
#Momentum Date and Time: Tue Sep  6 22:33:42 2022

NAME Momentum.SP

#  mode: MW    reference: S_50

#eesof Port[1] P1
#eesof Port[2] P2

CONSTANT NBR_OF_PORTS 2

CONSTANT NORMALIZATION 1

VAR freq MAG 195

DATA S[1,1] RI
DATA S[1,2] RI
DATA S[2,1] RI
DATA S[2,2] RI
DATA PORTZ[1] RI
DATA PORTZ[2] RI

VAR_LIST_BEGIN
	 0
	 8.254652041
	 82.54652041
	 825.4652041
	 8254.652041
	 10391.99122
	 13082.74183
	 16470.19614
	 20734.74846
	 26103.50174
	 32862.36168
	 41371.26221
	 52083.33331
	 65569.03184
	 82546.52041
	 103919.9122
	 130827.4183
	 164701.9614
	 207347.4846
	 261035.0174
	 328623.6168
	 413712.6221
	 520833.3331
	 655690.3184
	 825465.2041
	 1039199.122
	 1308274.183
	 1647019.614
	 2073474.846
	 2610350.174
	 3286236.168
	 4137126.221
	 5208333.331
	 6556903.184
	 8254652.041
	 10391991.22
	 13082741.83
	 16470196.14
	 20734748.46
	 26103501.74
	 32862361.68
	 41371262.21
	 52083333.31
	 58888017.66
	 65724723.36
	 82742524.42
	 104166666.6
	 127625925.2
	 156249999.9
	 181096072.2
	 208333333.2
	 260416666.6
	 312499999.9
	 364583333.2
	 416666666.5
	 468749999.8
	 520833333.1
	 572916666.4
	 624999999.8
	 677083333.1
	 729166666.4
	 781249999.7
	 833333333
	 885416666.3
	 937499999.6
	 989583332.9
	 1041666666
	 1093750000
	 1145833333
	 1197916666
	 1250000000
	 1302083333
	 1354166666
	 1406249999
	 1458333333
	 1510416666
	 1562499999
	 1614583333
	 1666666666
	 1718749999
	 1770833333
	 1822916666
	 1874999999
	 1927083333
	 1979166666
	 2031249999
	 2083333333
	 2135416666
	 2187499999
	 2239583333
	 2291666666
	 2343749999
	 2395833333
	 2447916666
	 2500000000
	 2552083333
	 2604166666
	 2656250000
	 2708333333
	 2760416666
	 2812500000
	 2864583333
	 2916666666
	 2968750000
	 3020833333
	 3072916666
	 3125000000
	 3177083333
	 3229166666
	 3281250000
	 3333333333
	 3385416666
	 3437500000
	 3489583333
	 3541666666
	 3593750000
	 3645833333
	 3697916666
	 3750000000
	 3802083333
	 3854166666
	 3906250000
	 3958333333
	 4010416666
	 4062500000
	 4114583333
	 4166666666
	 4218750000
	 4270833333
	 4322916667
	 4375000000
	 4427083333
	 4479166667
	 4531250000
	 4583333333
	 4635416667
	 4687500000
	 4739583333
	 4791666667
	 4843750000
	 4895833333
	 4947916667
	 5000000000
	 5052083333
	 5104166667
	 5156250000
	 5208333333
	 5260416667
	 5312500000
	 5364583333
	 5416666667
	 5520833333
	 5625000000
	 5729166667
	 5833333334
	 5937500000
	 6041666667
	 6145833334
	 6250000000
	 6354166667
	 6458333334
	 6562500000
	 6666666667
	 6770833334
	 6875000000
	 6979166667
	 7083333334
	 7187500000
	 7291666667
	 7395833334
	 7500000000
	 7604166667
	 7708333334
	 7812500001
	 7916666667
	 8020833334
	 8125000001
	 8229166667
	 8333333334
	 8437500001
	 8541666667
	 8645833334
	 8750000000
	 8854166667
	 8958333334
	 9062500000
	 9166666667
	 9270833334
	 9375000000
	 9479166667
	 9583333334
	 9687500000
	 9791666667
	 9895833333
	 1e+10
VAR_LIST_END

BEGIN
	 0.999999999999997890576253212203 ,	 -0 
	 0.999999999999994004795667024155 ,	 -3.01931002422151095743174664676e-09 
	 0.999999999999994226840271949186 ,	 -3.01931011303935292744426988065e-08 
	 0.999999999999943378625744117016 ,	 -3.01931009083489243494113907218e-07 
	 0.999999999995036303879203387623 ,	 -3.01931009261124927434138953686e-06 
	 0.999999999992137511561907103896 ,	 -3.80108620157137977457750821486e-06 
	 0.999999999987541743351471268397 ,	 -4.78528401171018913373700343072e-06 
	 0.99999999998025923542144255407 ,	 -6.02431564522554197083081817254e-06 
	 0.999999999968717134812834501645 ,	 -7.58416405410855531954439356923e-06 
	 0.999999999950424101058388259844 ,	 -9.54789685481127747834761976264e-06 
	 0.999999999921430404725697371759 ,	 -1.20200899792477500227505515795e-05 
	 0.999999999875479717026394155255 ,	 -1.5132396726791341734497109428e-05 
	 0.999999999802652417280057761673 ,	 -1.90505587795986031096617807634e-05 
	 0.999999999687228857681020599557 ,	 -2.39832325550359826138446805999e-05 
	 0.999999999504294301289064605953 ,	 -3.0193100916675597034100064775e-05 
	 0.999999999214363444188791163469 ,	 -3.80108619979502293517725775018e-05 
	 0.999999998754853791638197435532 ,	 -4.78528400791322638951896806248e-05 
	 0.999999998026579905996413799585 ,	 -6.02431563730965180525345203932e-05 
	 0.999999996872344421028344640945 ,	 -7.58416403874306865873222704977e-05 
	 0.999999995043002631867068430438 ,	 -9.54789682415801976844704768155e-05 
	 0.999999992143692617574401992897 ,	 -0.000120200899182631992800907028141 
	 0.999999987548596758202279488614 ,	 -0.00015132396604544684493021122762 
	 0.999999980265859789163584991911 ,	 -0.00019050558535838035822962410748 
	 0.999999968723499721434677667276 ,	 -0.000239832320681032662434972735355 
	 0.999999950430093598185976588866 ,	 -0.000301930999453636772500431106891 
	 0.999999921437000116597459964396 ,	 -0.000380108600594453172050180000952 
	 0.999999875486052514084178710618 ,	 -0.000478528362112595750943455641391 
	 0.999999802658723235815330099285 ,	 -0.000602431486560806028762726782588 
	 0.999999687235226586423664230097 ,	 -0.000758416249899140915147199848434 
	 0.999999504301418706830872906721 ,	 -0.000954789375193998424151686776895 
	 0.99999921437113514777195177885 ,	 -0.00120200837884243405540019011823 
	 0.999998754863267391712611242838 ,	 -0.00151323843739892271997860007104 
	 0.999998026594044242543191103323 ,	 -0.00190505341328284227842004838749 
	 0.999996872369297129523602052359 ,	 -0.00239831833782022663115185423521 
	 0.999995043056873145204122010909 ,	 -0.00301930027976704540293440004461 
	 0.999992143818489997997289719933 ,	 -0.00380106662289725338865764570073 
	 0.999987548901677403279109057621 ,	 -0.00478524494831944480210950132459 
	 0.999980266615964286103235281189 ,	 -0.00602423770783544476614679297199 
	 0.999968725389390744595630167169 ,	 -0.00758400856359175978838038645335 
	 0.999950434828527190411762148869 ,	 -0.00954758665656385563380581515958 
	 0.999921448879590446523479840835 ,	 -0.0120194711983447888314913143404 
	 0.999875515859268149121419355652 ,	 -0.015131162556384913919771406654 
	 0.999802733500320339743439035374 ,	 -0.0190480977387329497574341985455 
	 0.999747847095342589973654412461 ,	 -0.0215359575520872592591103966697 
	 0.99968593743134948059747557636 ,	 -0.0240352391411505772467194219644 
	 0.999502418631858624564756610198 ,	 -0.0302549497989222926364050181292 
	 0.99921182118157503282418474555 ,	 -0.0380815225867227047373830828292 
	 0.998817712157384129945114636939 ,	 -0.0466459012222024682614573976025 
	 0.998229844850731184990877409291 ,	 -0.0570860542302201734443656278017 
	 0.997624754422899329142637725454 ,	 -0.0661379519632169232679075321357 
	 0.996860856820644847253731768433 ,	 -0.076048314494720270495520253462 
	 0.995110052180950610534182487754 ,	 -0.0949560457899751853005909651984 
	 0.992983392417362331627828098135 ,	 -0.113798254953291766433665088698 
	 0.990487235510136287963689483149 ,	 -0.13256522539336379473695615161 
	 0.98762,	-0.15124
	 0.98441,	-0.16984
	 0.98084,	-0.18833
	 0.97693,	-0.20672
	 0.97268,	-0.225
	 0.96809,	-0.24316
	 0.96317,	-0.26121
	 0.95792,	-0.27913
	 0.95235,	-0.29691
	 0.94647,	-0.31456
	 0.94026,	-0.33207
	 0.93375,	-0.34943
	 0.92692,	-0.36664
	 0.9198,	-0.38369
	 0.91237,	-0.40058
	 0.90465,	-0.4173
	 0.89663,	-0.43384
	 0.88833,	-0.4502
	 0.87974,	-0.46638
	 0.87088,	-0.48237
	 0.86174,	-0.49816
	 0.85234,	-0.51375
	 0.84267,	-0.52914
	 0.83274,	-0.54431
	 0.82256,	-0.55927
	 0.81213,	-0.57402
	 0.80146,	-0.58854
	 0.79055,	-0.60283
	 0.77941,	-0.61689
	 0.76804,	-0.63071
	 0.75645,	-0.6443
	 0.74465,	-0.65764
	 0.73265,	-0.67074
	 0.72043,	-0.68359
	 0.70803,	-0.69619
	 0.69543,	-0.70853
	 0.68264,	-0.72062
	 0.66968,	-0.73244
	 0.65655,	-0.74401
	 0.64324,	-0.75531
	 0.62978,	-0.76634
	 0.61616,	-0.77711
	 0.60239,	-0.78761
	 0.58848,	-0.79784
	 0.57444,	-0.80779
	 0.56026,	-0.81747
	 0.54595,	-0.82688
	 0.53153,	-0.83601
	 0.51699,	-0.84486
	 0.50235,	-0.85344
	 0.4876,	-0.86174
	 0.47276,	-0.86976
	 0.45782,	-0.87751
	 0.4428,	-0.88497
	 0.4277,	-0.89216
	 0.41253,	-0.89907
	 0.39729,	-0.9057
	 0.38198,	-0.91205
	 0.36662,	-0.91813
	 0.3512,	-0.92393
	 0.33574,	-0.92945
	 0.32023,	-0.9347
	 0.30469,	-0.93967
	 0.28911,	-0.94437
	 0.27351,	-0.94879
	 0.25788,	-0.95295
	 0.24224,	-0.95683
	 0.22658,	-0.96044
	 0.21091,	-0.96379
	 0.19524,	-0.96687
	 0.17957,	-0.96968
	 0.16391,	-0.97223
	 0.14825,	-0.97452
	 0.13261,	-0.97655
	 0.11698,	-0.97832
	 0.10138,	-0.97983
	 0.085805,	-0.98109
	 0.070256,	-0.98209
	 0.05474,	-0.98285
	 0.039261,	-0.98335
	 0.023822,	-0.9836
	 0.0084281,	-0.98361
	-0.0069182,	-0.98338
	-0.022213,	-0.98291
	-0.037454,	-0.98219
	-0.052636,	-0.98124
	-0.067757,	-0.98005
	-0.082814,	-0.97863
	-0.097803,	-0.97698
	-0.11272,	-0.97511
	-0.12756,	-0.973
	-0.14233,	-0.97067
	-0.15702,	-0.96812
	-0.17163,	-0.96536
	-0.18615,	-0.96237
	-0.20059,	-0.95917
	-0.21494,	-0.95576
	-0.24335,	-0.9483
	-0.27138,	-0.94003
	-0.29899,	-0.93095
	-0.32619,	-0.92109
	-0.35294,	-0.91046
	-0.37924,	-0.89909
	-0.40507,	-0.88698
	-0.43041,	-0.87417
	-0.45525,	-0.86066
	-0.47958,	-0.84648
	-0.50339,	-0.83164
	-0.52665,	-0.81616
	-0.54937,	-0.80005
	-0.57153,	-0.78334
	-0.59313,	-0.76604
	-0.61414,	-0.74816
	-0.63456,	-0.72973
	-0.65438,	-0.71076
	-0.6736,	-0.69126
	-0.6922,	-0.67124
	-0.71017,	-0.65074
	-0.7275,	-0.62975
	-0.7442,	-0.60829
	-0.76024,	-0.58638
	-0.77562,	-0.56404
	-0.79033,	-0.54127
	-0.80436,	-0.51809
	-0.81771,	-0.49452
	-0.83036,	-0.47057
	-0.84231,	-0.44625
	-0.85354,	-0.42157
	-0.86406,	-0.39656
	-0.87384,	-0.37122
	-0.88289,	-0.34557
	-0.89118,	-0.31962
	-0.89872,	-0.29339
	-0.90549,	-0.26688
	-0.91148,	-0.24013
	-0.91668,	-0.21313
	-0.92108,	-0.18591
	-0.92466,	-0.15849
	-0.92743,	-0.13087
	-0.92937,	-0.10307
	-0.93046,	-0.075125
END
BEGIN
	 6.14133239000000045102174212963e-17 ,	 0 
	 -1.52221984999999998989319192017e-16 ,	 1.41541597999999988572224112218e-10 
	 -1.06251813000000004781341459401e-16 ,	 1.41541481999999993987762567674e-09 
	 4.42224381999999995242293539759e-15 ,	 1.41541451000000004785368346374e-08 
	 4.57498189000000036397020114031e-13 ,	 1.41541448999999997530380895297e-07 
	 7.25175995999999984580249767439e-13 ,	 1.78190125999999990004209258869e-07 
	 1.14943340999999990910380616838e-12 ,	 2.24328077000000010066843060541e-07 
	 1.82179272000000017186387870382e-12 ,	 2.82412315999999982869139323813e-07 
	 2.88741383000000014334059908359e-12 ,	 3.55536042000000008211620192849e-07 
	 4.57635926000000015860545831036e-12 ,	 4.4759335900000000839908014319e-07 
	 7.25312778999999966671352063713e-12 ,	 5.6348665299999995409864321505e-07 
	 1.14955107000000005624894211067e-11 ,	 7.09387666999999982368686930745e-07 
	 1.82192667999999995412988761142e-11 ,	 8.93066161000000039296502999525e-07 
	 2.88756808999999993108378728309e-11 ,	 1.12430367999999998431870981003e-06 
	 4.57649587000000017815458448986e-11 ,	 1.41541448000000004490799010437e-06 
	 7.25326661e-11 ,	 1.78190125e-06 
	 1.14956614e-10 ,	 2.24328076e-06 
	 1.8219404e-10 ,	 2.82412315e-06 
	 2.88758179e-10 ,	 3.55536038e-06 
	 4.5765094e-10 ,	 4.4759335e-06 
	 7.253279e-10 ,	 5.63486637e-06 
	 1.14956723e-09 ,	 7.09387634e-06 
	 1.82194106e-09 ,	 8.93066094e-06 
	 2.88758133e-09 ,	 1.12430355e-05 
	 4.57650615e-09 ,	 1.41541421e-05 
	 7.25326878e-09 ,	 1.78190072e-05 
	 1.14956444e-08 ,	 2.2432797e-05 
	 1.82193385e-08 ,	 2.82412103e-05 
	 2.88756301e-08 ,	 3.55535616e-05 
	 4.57645997e-08 ,	 4.47592508e-05 
	 7.25315255e-08 ,	 5.63484955e-05 
	 1.14953523e-07 ,	 7.09384278e-05 
	 1.82186047e-07 ,	 8.930594e-05 
	 2.88737868e-07 ,	 0.00011242902 
	 4.57599705e-07 ,	 0.000141538757 
	 7.25199018e-07 ,	 0.000178184758 
	 1.14924343e-06 ,	 0.000224317372 
	 1.82112822e-06 ,	 0.000282390971 
	 2.88554218e-06 ,	 0.000355493497 
	 4.57139521e-06 ,	 0.000447508615 
	 7.24047536e-06 ,	 0.000563318022 
	 1.14636858e-05 ,	 0.00070905263 
	 1.81397575e-05 ,	 0.000892402121 
	 2.31618044e-05 ,	 0.00100879018 
	 2.88138834e-05 ,	 0.00112565293 
	 4.54927728e-05 ,	 0.00141618328 
	 7.16867354e-05 ,	 0.00178108748 
	 0.000106828171 ,	 0.0021794003 
	 0.000158538078 ,	 0.00266343533 
	 0.000211018948 ,	 0.00308171855 
	 0.000276395638 ,	 0.00353820765 
	 0.000423495328 ,	 0.00440510308 
	 0.00059877125 ,	 0.00526415683 
	 0.000801686473 ,	 0.00611535222 
	 0.00103199892 ,	 0.00695847293 
	 0.00128958432 ,	 0.0077930953 
	 0.0015743,	 0.0086186
	 0.0018861,	 0.0094344
	 0.0022247,	 0.01024
	 0.0025898,	 0.011033
	 0.0029811,	 0.011815
	 0.0033983,	 0.012584
	 0.0038409,	 0.013339
	 0.0043084,	 0.014079
	 0.0048003,	 0.014804
	 0.0053161,	 0.015513
	 0.0058552,	 0.016205
	 0.0064169,	 0.016879
	 0.0070006,	 0.017536
	 0.0076057,	 0.018173
	 0.0082315,	 0.018791
	 0.0088772,	 0.019389
	 0.0095421,	 0.019966
	 0.010226,	 0.020523
	 0.010927,	 0.021057
	 0.011645,	 0.02157
	 0.012379,	 0.02206
	 0.013129,	 0.022528
	 0.013893,	 0.022972
	 0.014671,	 0.023393
	 0.015462,	 0.02379
	 0.016265,	 0.024163
	 0.017079,	 0.024512
	 0.017904,	 0.024837
	 0.018738,	 0.025137
	 0.019582,	 0.025412
	 0.020433,	 0.025662
	 0.021292,	 0.025888
	 0.022158,	 0.026089
	 0.023029,	 0.026265
	 0.023905,	 0.026416
	 0.024785,	 0.026542
	 0.025668,	 0.026644
	 0.026554,	 0.026721
	 0.027442,	 0.026773
	 0.028332,	 0.026801
	 0.029221,	 0.026805
	 0.030111,	 0.026785
	 0.031,	 0.026742
	 0.031887,	 0.026675
	 0.032772,	 0.026585
	 0.033654,	 0.026471
	 0.034533,	 0.026335
	 0.035408,	 0.026177
	 0.036279,	 0.025997
	 0.037144,	 0.025795
	 0.038004,	 0.025572
	 0.038858,	 0.025328
	 0.039705,	 0.025064
	 0.040546,	 0.024779
	 0.041378,	 0.024475
	 0.042203,	 0.024151
	 0.04302,	 0.023808
	 0.043828,	 0.023447
	 0.044627,	 0.023067
	 0.045416,	 0.022671
	 0.046196,	 0.022256
	 0.046966,	 0.021825
	 0.047726,	 0.021378
	 0.048475,	 0.020915
	 0.049213,	 0.020436
	 0.049941,	 0.019943
	 0.050657,	 0.019434
	 0.051362,	 0.018912
	 0.052055,	 0.018376
	 0.052736,	 0.017827
	 0.053406,	 0.017265
	 0.054064,	 0.01669
	 0.05471,	 0.016104
	 0.055344,	 0.015506
	 0.055965,	 0.014896
	 0.056575,	 0.014277
	 0.057172,	 0.013646
	 0.057757,	 0.013006
	 0.058329,	 0.012356
	 0.05889,	 0.011697
	 0.059438,	 0.011029
	 0.059973,	 0.010353
	 0.060497,	 0.0096687
	 0.061009,	 0.0089764
	 0.061508,	 0.0082767
	 0.061996,	 0.0075699
	 0.062471,	 0.0068562
	 0.062935,	 0.0061359
	 0.063387,	 0.0054094
	 0.063827,	 0.0046769
	 0.064256,	 0.0039386
	 0.064674,	 0.0031949
	 0.06508,	 0.0024459
	 0.065476,	 0.0016919
	 0.06586,	 0.00093316
	 0.066596,	-0.00059802
	 0.067291,	-0.0021461
	 0.067945,	-0.0037099
	 0.068559,	-0.0052883
	 0.069136,	-0.0068804
	 0.069675,	-0.0084856
	 0.07018,	-0.010103
	 0.070651,	-0.011733
	 0.071088,	-0.013376
	 0.071495,	-0.01503
	 0.07187,	-0.016697
	 0.072217,	-0.018378
	 0.072535,	-0.020072
	 0.072825,	-0.02178
	 0.073088,	-0.023504
	 0.073325,	-0.025244
	 0.073535,	-0.027002
	 0.073719,	-0.028779
	 0.073876,	-0.030577
	 0.074007,	-0.032396
	 0.074111,	-0.034239
	 0.074187,	-0.036106
	 0.074234,	-0.037999
	 0.074251,	-0.039921
	 0.074236,	-0.041871
	 0.074188,	-0.043852
	 0.074105,	-0.045865
	 0.073985,	-0.047911
	 0.073825,	-0.04999
	 0.073624,	-0.052104
	 0.073378,	-0.054254
	 0.073085,	-0.05644
	 0.072741,	-0.058661
	 0.072345,	-0.060919
	 0.071892,	-0.063213
	 0.071381,	-0.065542
	 0.070808,	-0.067906
	 0.07017,	-0.070305
	 0.069464,	-0.072737
	 0.068687,	-0.075201
	 0.067836,	-0.077697
	 0.066909,	-0.080223
	 0.065903,	-0.082778
	 0.064815,	-0.08536
END
BEGIN
	 6.14133239000000045102174212963e-17 ,	 0 
	 -1.52221984999999998989319192017e-16 ,	 1.41541597999999988572224112218e-10 
	 -1.06251813000000004781341459401e-16 ,	 1.41541481999999993987762567674e-09 
	 4.42224381999999995242293539759e-15 ,	 1.41541451000000004785368346374e-08 
	 4.57498189000000036397020114031e-13 ,	 1.41541448999999997530380895297e-07 
	 7.25175995999999984580249767439e-13 ,	 1.78190125999999990004209258869e-07 
	 1.14943340999999990910380616838e-12 ,	 2.24328077000000010066843060541e-07 
	 1.82179272000000017186387870382e-12 ,	 2.82412315999999982869139323813e-07 
	 2.88741383000000014334059908359e-12 ,	 3.55536042000000008211620192849e-07 
	 4.57635926000000015860545831036e-12 ,	 4.4759335900000000839908014319e-07 
	 7.25312778999999966671352063713e-12 ,	 5.6348665299999995409864321505e-07 
	 1.14955107000000005624894211067e-11 ,	 7.09387666999999982368686930745e-07 
	 1.82192667999999995412988761142e-11 ,	 8.93066161000000039296502999525e-07 
	 2.88756808999999993108378728309e-11 ,	 1.12430367999999998431870981003e-06 
	 4.57649587000000017815458448986e-11 ,	 1.41541448000000004490799010437e-06 
	 7.25326661e-11 ,	 1.78190125e-06 
	 1.14956614e-10 ,	 2.24328076e-06 
	 1.8219404e-10 ,	 2.82412315e-06 
	 2.88758179e-10 ,	 3.55536038e-06 
	 4.5765094e-10 ,	 4.4759335e-06 
	 7.253279e-10 ,	 5.63486637e-06 
	 1.14956723e-09 ,	 7.09387634e-06 
	 1.82194106e-09 ,	 8.93066094e-06 
	 2.88758133e-09 ,	 1.12430355e-05 
	 4.57650615e-09 ,	 1.41541421e-05 
	 7.25326878e-09 ,	 1.78190072e-05 
	 1.14956444e-08 ,	 2.2432797e-05 
	 1.82193385e-08 ,	 2.82412103e-05 
	 2.88756301e-08 ,	 3.55535616e-05 
	 4.57645997e-08 ,	 4.47592508e-05 
	 7.25315255e-08 ,	 5.63484955e-05 
	 1.14953523e-07 ,	 7.09384278e-05 
	 1.82186047e-07 ,	 8.930594e-05 
	 2.88737868e-07 ,	 0.00011242902 
	 4.57599705e-07 ,	 0.000141538757 
	 7.25199018e-07 ,	 0.000178184758 
	 1.14924343e-06 ,	 0.000224317372 
	 1.82112822e-06 ,	 0.000282390971 
	 2.88554218e-06 ,	 0.000355493497 
	 4.57139521e-06 ,	 0.000447508615 
	 7.24047536e-06 ,	 0.000563318022 
	 1.14636858e-05 ,	 0.00070905263 
	 1.81397575e-05 ,	 0.000892402121 
	 2.31618044e-05 ,	 0.00100879018 
	 2.88138834e-05 ,	 0.00112565293 
	 4.54927728e-05 ,	 0.00141618328 
	 7.16867354e-05 ,	 0.00178108748 
	 0.000106828171 ,	 0.0021794003 
	 0.000158538078 ,	 0.00266343533 
	 0.000211018948 ,	 0.00308171855 
	 0.000276395638 ,	 0.00353820765 
	 0.000423495328 ,	 0.00440510308 
	 0.00059877125 ,	 0.00526415683 
	 0.000801686473 ,	 0.00611535222 
	 0.00103199892 ,	 0.00695847293 
	 0.00128958432 ,	 0.0077930953 
	 0.0015743,	 0.0086186
	 0.0018861,	 0.0094344
	 0.0022247,	 0.01024
	 0.0025898,	 0.011033
	 0.0029811,	 0.011815
	 0.0033983,	 0.012584
	 0.0038409,	 0.013339
	 0.0043084,	 0.014079
	 0.0048003,	 0.014804
	 0.0053161,	 0.015513
	 0.0058552,	 0.016205
	 0.0064169,	 0.016879
	 0.0070006,	 0.017536
	 0.0076057,	 0.018173
	 0.0082315,	 0.018791
	 0.0088772,	 0.019389
	 0.0095421,	 0.019966
	 0.010226,	 0.020523
	 0.010927,	 0.021057
	 0.011645,	 0.02157
	 0.012379,	 0.02206
	 0.013129,	 0.022528
	 0.013893,	 0.022972
	 0.014671,	 0.023393
	 0.015462,	 0.02379
	 0.016265,	 0.024163
	 0.017079,	 0.024512
	 0.017904,	 0.024837
	 0.018738,	 0.025137
	 0.019582,	 0.025412
	 0.020433,	 0.025662
	 0.021292,	 0.025888
	 0.022158,	 0.026089
	 0.023029,	 0.026265
	 0.023905,	 0.026416
	 0.024785,	 0.026542
	 0.025668,	 0.026644
	 0.026554,	 0.026721
	 0.027442,	 0.026773
	 0.028332,	 0.026801
	 0.029221,	 0.026805
	 0.030111,	 0.026785
	 0.031,	 0.026742
	 0.031887,	 0.026675
	 0.032772,	 0.026585
	 0.033654,	 0.026471
	 0.034533,	 0.026335
	 0.035408,	 0.026177
	 0.036279,	 0.025997
	 0.037144,	 0.025795
	 0.038004,	 0.025572
	 0.038858,	 0.025328
	 0.039705,	 0.025064
	 0.040546,	 0.024779
	 0.041378,	 0.024475
	 0.042203,	 0.024151
	 0.04302,	 0.023808
	 0.043828,	 0.023447
	 0.044627,	 0.023067
	 0.045416,	 0.022671
	 0.046196,	 0.022256
	 0.046966,	 0.021825
	 0.047726,	 0.021378
	 0.048475,	 0.020915
	 0.049213,	 0.020436
	 0.049941,	 0.019943
	 0.050657,	 0.019434
	 0.051362,	 0.018912
	 0.052055,	 0.018376
	 0.052736,	 0.017827
	 0.053406,	 0.017265
	 0.054064,	 0.01669
	 0.05471,	 0.016104
	 0.055344,	 0.015506
	 0.055965,	 0.014896
	 0.056575,	 0.014277
	 0.057172,	 0.013646
	 0.057757,	 0.013006
	 0.058329,	 0.012356
	 0.05889,	 0.011697
	 0.059438,	 0.011029
	 0.059973,	 0.010353
	 0.060497,	 0.0096687
	 0.061009,	 0.0089764
	 0.061508,	 0.0082767
	 0.061996,	 0.0075699
