CITIFILE A.01.01
#Momentum: B.12.070 (*) built: Feb 13 2020 
#Momentum Date and Time: Wed Sep  7 12:17:42 2022

NAME Momentum.SP

#  mode: MW    reference: S_50

#eesof Port[1] P1
#eesof Port[2] P2

CONSTANT NBR_OF_PORTS 2

CONSTANT NORMALIZATION 1

VAR freq MAG 154

DATA S[1,1] RI
DATA S[1,2] RI
DATA S[2,1] RI
DATA S[2,2] RI
DATA PORTZ[1] RI
DATA PORTZ[2] RI

VAR_LIST_BEGIN
	 0
	 8.274252442
	 82.74252442
	 827.4252442
	 8274.252442
	 10416.66666
	 13113.80637
	 16509.30408
	 20783.98244
	 26165.48365
	 32940.39228
	 41469.49692
	 52207.00348
	 65724.72336
	 82742.52442
	 104166.6666
	 131138.0637
	 165093.0408
	 207839.8244
	 261654.8365
	 329403.9228
	 414694.9692
	 522070.0348
	 657247.2336
	 827425.2442
	 1041666.666
	 1311380.637
	 1650930.408
	 2078398.244
	 2616548.365
	 3294039.228
	 4146949.692
	 5220700.348
	 6572472.336
	 8274252.442
	 10416666.66
	 13113806.37
	 16509304.08
	 20783982.44
	 26165483.65
	 32940392.28
	 41469496.92
	 52207003.48
	 65724723.36
	 82742524.42
	 104166666.6
	 117776035.3
	 131449446.7
	 165485048.8
	 208333333.2
	 255251850.3
	 312499999.9
	 362192144.3
	 416666666.5
	 468749999.8
	 520833333.1
	 572916666.4
	 624999999.8
	 677083333.1
	 729166666.4
	 781249999.7
	 833333333
	 937499999.6
	 1041666666
	 1145833333
	 1250000000
	 1302083333
	 1354166666
	 1406249999
	 1458333333
	 1510416666
	 1562499999
	 1614583333
	 1666666666
	 1770833333
	 1874999999
	 1979166666
	 2083333333
	 2187499999
	 2291666666
	 2395833333
	 2500000000
	 2604166666
	 2708333333
	 2812500000
	 2916666666
	 3020833333
	 3125000000
	 3229166666
	 3333333333
	 3437500000
	 3541666666
	 3645833333
	 3750000000
	 3854166666
	 3958333333
	 4062500000
	 4166666666
	 4270833333
	 4375000000
	 4479166667
	 4583333333
	 4687500000
	 4791666667
	 4895833333
	 5000000000
	 5104166667
	 5208333333
	 5312500000
	 5416666667
	 5520833333
	 5625000000
	 5729166667
	 5833333334
	 5937500000
	 6041666667
	 6145833334
	 6250000000
	 6354166667
	 6458333334
	 6562500000
	 6666666667
	 6770833334
	 6875000000
	 6979166667
	 7083333334
	 7187500000
	 7291666667
	 7395833334
	 7500000000
	 7604166667
	 7708333334
	 7812500001
	 7916666667
	 8020833334
	 8125000001
	 8229166667
	 8333333334
	 8437500001
	 8541666667
	 8645833334
	 8750000000
	 8854166667
	 8958333334
	 9062500000
	 9166666667
	 9270833334
	 9375000000
	 9479166667
	 9583333334
	 9687500000
	 9791666667
	 9895833333
	 1e+10
VAR_LIST_END

BEGIN
	 1.00000000000000310862446895044 ,	 -0 
	 1.00000000000000510702591327572 ,	 -2.26080032472708580826292745769e-09 
	 1.00000000000000421884749357559 ,	 -2.26080024701147408450196962804e-08 
	 0.999999999999975686115760709072 ,	 -2.26080023202346325206235633232e-07 
	 0.999999999997141175711590221908 ,	 -2.26080022452945783584254968446e-06 
	 0.999999999995465738145128398173 ,	 -2.84617885343285692556491994765e-06 
	 0.999999999992811527960157036432 ,	 -3.58312688519824007471470395103e-06 
	 0.99999999998860389371913015566 ,	 -4.51088948927313992953713750467e-06 
	 0.999999999981935339121719152899 ,	 -5.67887340741091151130603975616e-06 
	 0.999999999971366460016497512697 ,	 -7.14927804279508194440495572053e-06 
	 0.999999999954615415020953150815 ,	 -9.00040780360544800942079746164e-06 
	 0.999999999928068206145326257683 ,	 -1.13308421002544790212596126366e-05 
	 0.999999999885993307024989462661 ,	 -1.42646850571082062231198506197e-05 
	 0.999999999819309093318508985249 ,	 -1.79581745086698774116484855767e-05 
	 0.999999999713621301467014745867 ,	 -2.26080022363017718589617288671e-05 
	 0.999999999546118067961231190566 ,	 -2.84617885205618037502972583752e-05 
	 0.999999999280643647736610546417 ,	 -3.58312688255590927610683138482e-05 
	 0.999999998859893768354822896072 ,	 -4.51088948447697646315646125004e-05 
	 0.999999998193050521066993496788 ,	 -5.67887339843475835721164912684e-05 
	 0.999999997136174822998100353288 ,	 -7.14927802499820685966369637754e-05 
	 0.999999995461139712382703237381 ,	 -9.00040776833366251707957417239e-05 
	 0.999999992806390070043676132627 ,	 -0.00011330842029527721237514015229 
	 0.999999988598893940761058729549 ,	 -0.000142646849148886367686372977914 
	 0.99999998193046235606118443684 ,	 -0.000179581742247580944393803292769 
	 0.999999971361712369777308140328 ,	 -0.000226080016698382291195912330295 
	 0.999999954611373031987398007914 ,	 -0.000284617873907155871648910760996 
	 0.999999928063879162110083598236 ,	 -0.000358312665705406985239278583322 
	 0.999999885988951175974648322153 ,	 -0.00045108890345135765898021418252 
	 0.999999819304714820944468556263 ,	 -0.000567887250066401172432506427867 
	 0.999999713617403140908379555185 ,	 -0.000714927623366334863419524481287 
	 0.999999546114502479987606875511 ,	 -0.000900040419415548686998818084248 
	 0.999999280640799348418568115449 ,	 -0.00113308348981061568494510538585 
	 0.999998859894601244135969864146 ,	 -0.00142646706860616312440015462926 
	 0.999998193059996598464067574241 ,	 -0.001795814583491595062270107519 
	 0.999997136206360326404762872698 ,	 -0.00226079450258992453726136773184 
	 0.999995461226292237100210513745 ,	 -0.00284616743752574841153091256274 
	 0.999992806612178153358172494336 ,	 -0.00358310410878898144559911997931 
	 0.999988599458883742343573430844 ,	 -0.00451084404883894674043176564737 
	 0.999981931887984343276798426814 ,	 -0.00567878275519589914566154220665 
	 0.999971365297743886024761650333 ,	 -0.00714909720822692884567572946253 
	 0.999954620381679259999430087191 ,	 -0.00900004711877716578882768772019 
	 0.99992808649496500716935543096 ,	 -0.0113301228410627730092130605044 
	 0.999886045683542445949854027276 ,	 -0.0142632512135923428253647671227 
	 0.999819446904901543149435383384 ,	 -0.017955317609395171629671494884 
	 0.999713973299507285830145519867 ,	 -0.0226023145273286929501921349583 
	 0.999547003453726934374401480454 ,	 -0.0284504793633716390743870761071 
	 0.999421213661132346040005813848 ,	 -0.0321640157587061992217059014365 
	 0.999279454653915988338042097894 ,	 -0.0358937480104831174720914077625 
	 0.998860008068805482750462942931 ,	 -0.0451712917964058324749032635737 
	 0.998198072535162572727074348222 ,	 -0.0568355274249711661660455774836 
	 0.99730444249544580870292520558 ,	 -0.069584086282189094863070977226 
	 0.995979340197621354491275269538 ,	 -0.0851002700891200780652923185698 
	 0.994624067641097897585211740079 ,	 -0.0985293649891139655672134267661 
	 0.992923851437513604878404294141 ,	 -0.113205191757291101506410768707 
	 0.991092363066254256054321558622 ,	 -0.127189203656575489098656817077 
	 0.98906,	-0.14112
	 0.98683,	-0.155
	 0.98442,	-0.16883
	 0.98181,	-0.18261
	 0.97902,	-0.19633
	 0.97603,	-0.21
	 0.97287,	-0.2236
	 0.96598,	-0.25061
	 0.95837,	-0.27737
	 0.95005,	-0.30383
	 0.94102,	-0.33
	 0.93624,	-0.34296
	 0.93129,	-0.35583
	 0.92618,	-0.36863
	 0.92089,	-0.38133
	 0.91543,	-0.39394
	 0.90982,	-0.40646
	 0.90403,	-0.41888
	 0.89809,	-0.43121
	 0.88572,	-0.45555
	 0.87274,	-0.47948
	 0.85915,	-0.50296
	 0.84496,	-0.52599
	 0.83021,	-0.54855
	 0.81491,	-0.57063
	 0.79907,	-0.59221
	 0.78272,	-0.61327
	 0.76587,	-0.63381
	 0.74855,	-0.65381
	 0.73077,	-0.67326
	 0.71255,	-0.69216
	 0.69392,	-0.71049
	 0.67489,	-0.72824
	 0.65548,	-0.74541
	 0.63572,	-0.76199
	 0.61562,	-0.77798
	 0.59521,	-0.79337
	 0.5745,	-0.80815
	 0.55352,	-0.82233
	 0.53228,	-0.83589
	 0.5108,	-0.84884
	 0.48911,	-0.86118
	 0.46721,	-0.8729
	 0.44514,	-0.88401
	 0.42291,	-0.8945
	 0.40053,	-0.90438
	 0.37803,	-0.91364
	 0.35542,	-0.9223
	 0.33273,	-0.93035
	 0.30996,	-0.93779
	 0.28713,	-0.94464
	 0.26426,	-0.95088
	 0.24137,	-0.95654
	 0.21847,	-0.9616
	 0.19557,	-0.96609
	 0.1727,	-0.97
	 0.14986,	-0.97333
	 0.12706,	-0.97611
	 0.10433,	-0.97832
	 0.081674,	-0.97999
	 0.0591,	-0.9811
	 0.036625,	-0.98168
	 0.01426,	-0.98173
	-0.0079837,	-0.98126
	-0.030096,	-0.98027
	-0.052065,	-0.97877
	-0.073883,	-0.97677
	-0.095538,	-0.97428
	-0.11702,	-0.97131
	-0.13832,	-0.96785
	-0.15943,	-0.96393
	-0.18035,	-0.95955
	-0.20106,	-0.95471
	-0.22156,	-0.94943
	-0.24184,	-0.94372
	-0.26189,	-0.93757
	-0.28171,	-0.93101
	-0.30129,	-0.92403
	-0.32062,	-0.91664
	-0.3397,	-0.90886
	-0.35852,	-0.90069
	-0.37708,	-0.89214
	-0.39537,	-0.88322
	-0.41338,	-0.87392
	-0.43112,	-0.86427
	-0.44858,	-0.85427
	-0.46575,	-0.84392
	-0.48262,	-0.83324
	-0.49921,	-0.82223
	-0.51549,	-0.81089
	-0.53147,	-0.79924
	-0.54714,	-0.78728
	-0.56251,	-0.77501
	-0.57756,	-0.76245
	-0.5923,	-0.7496
	-0.60672,	-0.73647
	-0.62082,	-0.72306
	-0.63459,	-0.70938
	-0.64803,	-0.69543
END
BEGIN
	 3.91574796999999984963914307e-16 ,	 0 
	 4.18068358000000016857129673325e-16 ,	 4.11676699999999975915178968896e-11 
	 4.61436445000000008936913366863e-16 ,	 4.11676566000000014883913564741e-10 
	 4.26915447000000033953750721454e-15 ,	 4.11676572999999984028087989907e-09 
	 3.85151980000000001671856422105e-13 ,	 4.11676571000000033021382192435e-08 
	 6.10180309000000019935979654893e-13 ,	 5.18270097000000028956284703341e-08 
	 9.66825578000000007085040512544e-13 ,	 6.52463395000000014066338896619e-08 
	 1.53206787999999998161581519178e-12 ,	 8.2140274699999999545878184154e-08 
	 2.42791723999999996010830783625e-12 ,	 1.03408478999999999085642051703e-07 
	 3.84774157000000018014815345617e-12 ,	 1.3018356199999999563879750971e-07 
	 6.09802313000000033347284114311e-12 ,	 1.6389139299999999121448530752e-07 
	 9.66445673000000017096297244286e-12 ,	 2.06327037999999997447726101697e-07 
	 1.53168849000000000619091011827e-11 ,	 2.59750348000000024798145179666e-07 
	 2.42753751000000015192033419378e-11 ,	 3.27006307000000011915433802828e-07 
	 3.84736167000000011226637957703e-11 ,	 4.11676537999999979488538253899e-07 
	 6.09762935e-11 ,	 5.1827003e-07 
	 9.66405844e-11 ,	 6.52463261e-07 
	 1.53164526e-10 ,	 8.21402481e-07 
	 2.42748613e-10 ,	 1.03408426e-06 
	 3.84728976e-10 ,	 1.30183456e-06 
	 6.09750569e-10 ,	 1.63891182e-06 
	 9.66380439e-10 ,	 2.06326616e-06 
	 1.53158731e-09 ,	 2.59749507e-06 
	 2.42734625e-09 ,	 3.27004629e-06 
	 3.84694414e-09 ,	 4.11673189e-06 
	 6.09664326e-09 ,	 5.18263348e-06 
	 9.66164398e-09 ,	 6.52449931e-06 
	 1.53104533e-08 ,	 8.21375888e-06 
	 2.42598585e-08 ,	 1.03403122e-05 
	 3.84352929e-08 ,	 1.30172877e-05 
	 6.08807315e-08 ,	 1.63870091e-05 
	 9.64014524e-08 ,	 2.06284584e-05 
	 1.52565619e-07 ,	 2.59665798e-05 
	 2.41249278e-07 ,	 3.26838102e-05 
	 3.80980919e-07 ,	 4.11342472e-05 
	 6.00405224e-07 ,	 5.1760832e-05 
	 9.43175088e-07 ,	 6.51157996e-05 
	 1.47433653e-06 ,	 8.18844252e-05 
	 2.28748617e-06 ,	 0.000102911924 
	 3.51027723e-06 ,	 0.000129233867 
	 5.30339052e-06 ,	 0.000162113242 
	 7.84734173e-06 ,	 0.000203094521 
	 1.13192027e-05 ,	 0.000254096109 
	 1.58839326e-05 ,	 0.000317566022 
	 2.17502272e-05 ,	 0.000396701514 
	 2.93303054e-05 ,	 0.000495687958 
	 3.43452876e-05 ,	 0.000558395053 
	 3.96112648e-05 ,	 0.000621336218 
	 5.40142661e-05 ,	 0.000777895298 
	 7.5360451e-05 ,	 0.000974837285 
	 0.00010338477 ,	 0.00119013934 
	 0.000144544324 ,	 0.00145199004 
	 0.000186606852 ,	 0.00167820916 
	 0.00023951215 ,	 0.00192474844 
	 0.000296716219 ,	 0.00215878332 
	 0.000360340642 ,	 0.00239093091 
	 0.000430315931 ,	 0.00262096529 
	 0.000506559313 ,	 0.0028486704 
	 0.00058897713 ,	 0.00307383826 
	 0.000677466235 ,	 0.0032962681 
	 0.000771914879 ,	 0.00351576582 
	 0.000872203338 ,	 0.00373214378 
	 0.00108978377 ,	 0.00415482209 
	 0.00132910711 ,	 0.00456293168 
	 0.00158897121 ,	 0.00495520899 
	 0.00186808319 ,	 0.00533050352 
	 0.00201443101 ,	 0.005511455 
	 0.00216507046 ,	 0.00568778338 
	 0.00231981934 ,	 0.00585937903 
	 0.00247849191 ,	 0.00602614034 
	 0.00264089923 ,	 0.00618797381 
	 0.00280684954 ,	 0.00634479418 
	 0.00297614863 ,	 0.00649652449 
	 0.00314860022 ,	 0.00664309613 
	 0.0035022,	 0.0069205
	 0.003866,	 0.0071767
	 0.0042384,	 0.0074114
	 0.0046178,	 0.0076245
	 0.0050026,	 0.007816
	 0.0053913,	 0.0079861
	 0.0057823,	 0.0081351
	 0.0061742,	 0.0082633
	 0.0065655,	 0.0083712
	 0.0069548,	 0.0084596
	 0.007341,	 0.008529
	 0.0077227,	 0.0085804
	 0.0080989,	 0.0086146
	 0.0084686,	 0.0086327
	 0.0088307,	 0.0086355
	 0.0091846,	 0.0086244
	 0.0095294,	 0.0086004
	 0.0098647,	 0.0085647
	 0.01019,	 0.0085186
	 0.010504,	 0.0084633
	 0.010808,	 0.0084001
	 0.011101,	 0.0083302
	 0.011383,	 0.008255
	 0.011654,	 0.0081756
	 0.011913,	 0.0080934
	 0.012163,	 0.0080095
	 0.012402,	 0.0079252
	 0.012631,	 0.0078415
	 0.012851,	 0.0077597
	 0.013063,	 0.0076806
	 0.013266,	 0.0076054
	 0.013462,	 0.007535
	 0.013652,	 0.0074702
	 0.013837,	 0.0074118
	 0.014017,	 0.0073606
	 0.014194,	 0.0073172
	 0.014369,	 0.0072821
	 0.014543,	 0.0072559
	 0.014716,	 0.0072389
	 0.014891,	 0.0072314
	 0.015069,	 0.0072336
	 0.015251,	 0.0072455
	 0.015437,	 0.0072673
	 0.015631,	 0.0072988
	 0.015832,	 0.0073397
	 0.016042,	 0.0073898
	 0.016263,	 0.0074486
	 0.016496,	 0.0075156
	 0.016742,	 0.0075902
	 0.017001,	 0.0076716
	 0.017277,	 0.007759
	 0.017568,	 0.0078515
	 0.017877,	 0.0079481
	 0.018205,	 0.0080476
	 0.018552,	 0.0081488
	 0.01892,	 0.0082506
	 0.019308,	 0.0083515
	 0.019717,	 0.0084503
	 0.020149,	 0.0085454
	 0.020603,	 0.0086355
	 0.02108,	 0.0087191
	 0.02158,	 0.0087948
	 0.022102,	 0.0088609
	 0.022648,	 0.0089162
	 0.023216,	 0.0089592
	 0.023807,	 0.0089886
	 0.02442,	 0.0090029
	 0.025054,	 0.0090011
	 0.02571,	 0.0089818
	 0.026387,	 0.0089441
	 0.027084,	 0.0088868
	 0.0278,	 0.0088091
	 0.028536,	 0.0087103
	 0.02929,	 0.0085895
	 0.030061,	 0.0084461
	 0.03085,	 0.0082797
	 0.031656,	 0.0080898
	 0.032478,	 0.0078761
	 0.033316,	 0.0076382
	 0.034169,	 0.0073761
END
BEGIN
	 3.91574796999999984963914307e-16 ,	 0 
	 4.18068358000000016857129673325e-16 ,	 4.11676699999999975915178968896e-11 
	 4.61436445000000008936913366863e-16 ,	 4.11676566000000014883913564741e-10 
	 4.26915447000000033953750721454e-15 ,	 4.11676572999999984028087989907e-09 
	 3.85151980000000001671856422105e-13 ,	 4.11676571000000033021382192435e-08 
	 6.10180309000000019935979654893e-13 ,	 5.18270097000000028956284703341e-08 
	 9.66825578000000007085040512544e-13 ,	 6.52463395000000014066338896619e-08 
	 1.53206787999999998161581519178e-12 ,	 8.2140274699999999545878184154e-08 
	 2.42791723999999996010830783625e-12 ,	 1.03408478999999999085642051703e-07 
	 3.84774157000000018014815345617e-12 ,	 1.3018356199999999563879750971e-07 
	 6.09802313000000033347284114311e-12 ,	 1.6389139299999999121448530752e-07 
	 9.66445673000000017096297244286e-12 ,	 2.06327037999999997447726101697e-07 
	 1.53168849000000000619091011827e-11 ,	 2.59750348000000024798145179666e-07 
	 2.42753751000000015192033419378e-11 ,	 3.27006307000000011915433802828e-07 
	 3.84736167000000011226637957703e-11 ,	 4.11676537999999979488538253899e-07 
	 6.09762935e-11 ,	 5.1827003e-07 
	 9.66405844e-11 ,	 6.52463261e-07 
	 1.53164526e-10 ,	 8.21402481e-07 
	 2.42748613e-10 ,	 1.03408426e-06 
	 3.84728976e-10 ,	 1.30183456e-06 
	 6.09750569e-10 ,	 1.63891182e-06 
	 9.66380439e-10 ,	 2.06326616e-06 
	 1.53158731e-09 ,	 2.59749507e-06 
	 2.42734625e-09 ,	 3.27004629e-06 
	 3.84694414e-09 ,	 4.11673189e-06 
	 6.09664326e-09 ,	 5.18263348e-06 
	 9.66164398e-09 ,	 6.52449931e-06 
	 1.53104533e-08 ,	 8.21375888e-06 
	 2.42598585e-08 ,	 1.03403122e-05 
	 3.84352929e-08 ,	 1.30172877e-05 
	 6.08807315e-08 ,	 1.63870091e-05 
	 9.64014524e-08 ,	 2.06284584e-05 
	 1.52565619e-07 ,	 2.59665798e-05 
	 2.41249278e-07 ,	 3.26838102e-05 
	 3.80980919e-07 ,	 4.11342472e-05 
	 6.00405224e-07 ,	 5.1760832e-05 
	 9.43175088e-07 ,	 6.51157996e-05 
	 1.47433653e-06 ,	 8.18844252e-05 
	 2.28748617e-06 ,	 0.000102911924 
	 3.51027723e-06 ,	 0.000129233867 
	 5.30339052e-06 ,	 0.000162113242 
	 7.84734173e-06 ,	 0.000203094521 
	 1.13192027e-05 ,	 0.000254096109 
	 1.58839326e-05 ,	 0.000317566022 
	 2.17502272e-05 ,	 0.000396701514 
	 2.93303054e-05 ,	 0.000495687958 
	 3.43452876e-05 ,	 0.000558395053 
	 3.96112648e-05 ,	 0.000621336218 
	 5.40142661e-05 ,	 0.000777895298 
	 7.5360451e-05 ,	 0.000974837285 
	 0.00010338477 ,	 0.00119013934 
	 0.000144544324 ,	 0.00145199004 
	 0.000186606852 ,	 0.00167820916 
	 0.00023951215 ,	 0.00192474844 
	 0.000296716219 ,	 0.00215878332 
	 0.000360340642 ,	 0.00239093091 
	 0.000430315931 ,	 0.00262096529 
	 0.000506559313 ,	 0.0028486704 
	 0.00058897713 ,	 0.00307383826 
	 0.000677466235 ,	 0.0032962681 
	 0.000771914879 ,	 0.00351576582 
	 0.000872203338 ,	 0.00373214378 
	 0.00108978377 ,	 0.00415482209 
	 0.00132910711 ,	 0.00456293168 
	 0.00158897121 ,	 0.00495520899 
	 0.00186808319 ,	 0.00533050352 
	 0.00201443101 ,	 0.005511455 
	 0.00216507046 ,	 0.00568778338 
	 0.00231981934 ,	 0.00585937903 
	 0.00247849191 ,	 0.00602614034 
	 0.00264089923 ,	 0.00618797381 
	 0.00280684954 ,	 0.00634479418 
	 0.00297614863 ,	 0.00649652449 
	 0.00314860022 ,	 0.00664309613 
	 0.0035022,	 0.0069205
	 0.003866,	 0.0071767
	 0.0042384,	 0.0074114
	 0.0046178,	 0.0076245
	 0.0050026,	 0.007816
	 0.0053913,	 0.0079861
	 0.0057823,	 0.0081351
	 0.0061742,	 0.0082633
	 0.0065655,	 0.0083712
	 0.0069548,	 0.0084596
	 0.007341,	 0.008529
	 0.0077227,	 0.0085804
	 0.0080989,	 0.0086146
	 0.0084686,	 0.0086327
	 0.0088307,	 0.0086355
	 0.0091846,	 0.0086244
	 0.0095294,	 0.0086004
	 0.0098647,	 0.0085647
	 0.01019,	 0.0085186
	 0.010504,	 0.0084633
	 0.010808,	 0.0084001
	 0.011101,	 0.0083302
	 0.011383,	 0.008255
	 0.011654,	 0.0081756
	 0.011913,	 0.0080934
	 0.012163,	 0.0080095
	 0.012402,	 0.0079252
	 0.012631,	 0.0078415
	 0.012851,	 0.0077597
	 0.013063,	 0.0076806
	 0.013266,	 0.0076054
	 0.013462,	 0.007535
	 0.013652,	 0.0074702
	 0.013837,	 0.0074118
	 0.014017,	 0.0073606
	 0.014194,	 0.0073172
	 0.014369,	 0.0072821
	 0.014543,	 0.0072559
	 0.014716,	 0.0072389
	 0.014891,	 0.0072314
	 0.015069,	 0.0072336
	 0.015251,	 0.0072455
	 0.015437,	 0.0072673
	 0.015631,	 0.0072988
	 0.015832,	 0.0073397
	 0.016042,	 0.0073898
	 0.016263,	 0.0074486
	 0.016496,	 0.0075156
	 0.016742,	 0.0075902
	 0.017001,	 0.0076716
	 0.017277,	 0.007759
	 0.017568,	 0.0078515
	 0.017877,	 0.0079481
	 0.018205,	 0.0080476
	 0.018552,	 0.0081488
	 0.01892,	 0.0082506
	 0.019308,	 0.0083515
	 0.019717,	 0.0084503
	 0.020149,	 0.0085454
	 0.020603,	 0.0086355
	 0.02108,	 0.0087191
	 0.02158,	 0.0087948
	 0.022102,	 0.0088609
	 0.022648,	 0.0089162
	 0.023216,	 0.0089592
	 0.023807,	 0.0089886
	 0.02442,	 0.0090029
	 0.025054,	 0.0090011
	 0.02571,	 0.0089818
	 0.026387,	 0.0089441
	 0.027084,	 0.0088868
	 0.0278,	 0.0088091
	 0.028536,	 0.0087103
	 0.02929,	 0.0085895
	 0.030061,	 0.0084461
	 0.03085,	 0.0082797
	 0.031656,	 0.0080898
	 0.032478,	 0.0078761
	 0.033316,	 0.0076382
	 0.034169,	 0.0073761
END
BEGIN
	 0.999999999999998445687765524781 ,	 -0 
	 0.999999999999999777955395074969 ,	 -2.2612816619194120448810281232e-09 
	 1 ,	 -2.26128219482646386495616752654e-08 
	 0.999999999999971023179057283414 ,	 -2.26128211933129819044552277774e-07 
	 0.999999999997134958462652321032 ,	 -2.2612821216072553909270936856e-06 
	 0.99999999999545918782928310975 ,	 -2.8467855257008345404301508097e-06 
	 0.999999999992804089465892047883 ,	 -3.58389064092357045865355757996e-06 
	 0.999999999988593790689606066735 ,	 -4.51185100058815180545934708789e-06 
	 0.999999999981922682579238426115 ,	 -5.68008387935581282590646878816e-06 
	 0.999999999971349695648825672833 ,	 -7.1508019358068608539724664297e-06 
	 0.999999999954592544426645872591 ,	 -9.00232627176755784148554084823e-06 
	 0.999999999928034455365377652925 ,	 -1.1333257308232536075820462429e-05 
	 0.999999999885942347788159167976 ,	 -1.42677256238510352659432101063e-05 
	 0.999999999819230711572970449197 ,	 -1.79620023554871721671588602476e-05 
	 0.999999999713500065112725678773 ,	 -2.26128212093557046102887397865e-05 
	 0.999999999545928108801717826282 ,	 -2.84678552490702507782316388329e-05 
	 0.999999999280344553653776529245 ,	 -3.58389063833675081127694284078e-05 
	 0.999999998859423033792381829699 ,	 -4.51185099604733963474245683756e-05 
