CITIFILE A.01.01
#Momentum: B.12.070 (*) built: Feb 13 2020 
#Momentum Date and Time: Wed Sep  7 00:21:51 2022

NAME Momentum.SP

#  mode: MW    reference: S_50

#eesof Port[1] P1
#eesof Port[2] P2

CONSTANT NBR_OF_PORTS 2

CONSTANT NORMALIZATION 1

VAR freq MAG 159

DATA S[1,1] RI
DATA S[1,2] RI
DATA S[2,1] RI
DATA S[2,2] RI
DATA PORTZ[1] RI
DATA PORTZ[2] RI

VAR_LIST_BEGIN
	 0
	 8.254652041
	 82.54652041
	 825.4652041
	 8254.652041
	 10391.99122
	 13082.74183
	 16470.19614
	 20734.74846
	 26103.50174
	 32862.36168
	 41371.26221
	 52083.33331
	 65569.03184
	 82546.52041
	 103919.9122
	 130827.4183
	 164701.9614
	 207347.4846
	 261035.0174
	 328623.6168
	 413712.6221
	 520833.3331
	 655690.3184
	 825465.2041
	 1039199.122
	 1308274.183
	 1647019.614
	 2073474.846
	 2610350.174
	 3286236.168
	 4137126.221
	 5208333.331
	 6556903.184
	 8254652.041
	 10391991.22
	 13082741.83
	 16470196.14
	 20734748.46
	 26103501.74
	 32862361.68
	 41371262.21
	 52083333.31
	 58888017.66
	 65724723.36
	 82742524.42
	 104166666.6
	 127625925.2
	 156249999.9
	 181096072.2
	 208333333.2
	 260416666.6
	 312499999.9
	 364583333.2
	 416666666.5
	 468749999.8
	 520833333.1
	 572916666.4
	 624999999.8
	 677083333.1
	 729166666.4
	 781249999.7
	 833333333
	 885416666.3
	 937499999.6
	 989583332.9
	 1041666666
	 1093750000
	 1145833333
	 1197916666
	 1250000000
	 1302083333
	 1354166666
	 1406249999
	 1458333333
	 1510416666
	 1562499999
	 1614583333
	 1666666666
	 1770833333
	 1874999999
	 1979166666
	 2083333333
	 2187499999
	 2291666666
	 2395833333
	 2500000000
	 2604166666
	 2708333333
	 2812500000
	 2916666666
	 3020833333
	 3125000000
	 3229166666
	 3333333333
	 3437500000
	 3541666666
	 3645833333
	 3750000000
	 3854166666
	 3958333333
	 4062500000
	 4166666666
	 4270833333
	 4375000000
	 4479166667
	 4583333333
	 4687500000
	 4791666667
	 4895833333
	 5000000000
	 5104166667
	 5208333333
	 5312500000
	 5416666667
	 5520833333
	 5625000000
	 5729166667
	 5833333334
	 5937500000
	 6041666667
	 6145833334
	 6250000000
	 6354166667
	 6458333334
	 6562500000
	 6666666667
	 6770833334
	 6875000000
	 6979166667
	 7083333334
	 7187500000
	 7291666667
	 7395833334
	 7500000000
	 7604166667
	 7708333334
	 7812500001
	 7916666667
	 8020833334
	 8125000001
	 8229166667
	 8333333334
	 8437500001
	 8541666667
	 8645833334
	 8750000000
	 8854166667
	 8958333334
	 9062500000
	 9166666667
	 9270833334
	 9375000000
	 9479166667
	 9583333334
	 9687500000
	 9791666667
	 9895833333
	 1e+10
VAR_LIST_END

BEGIN
	 0.999999999999998445687765524781 ,	 -0 
	 0.999999999999999111821580299875 ,	 -2.34846875279970390693051740527e-09 
	 0.999999999999998889776975374843 ,	 -2.34846844193725701188668608665e-08 
	 0.999999999999968913755310495617 ,	 -2.34846841751235047013324219733e-07 
	 0.999999999996924460177183391352 ,	 -2.3484684195107519144585239701e-06 
	 0.999999999995125010698870937631 ,	 -2.95654657223032302226783940569e-06 
	 0.999999999992273957971633535635 ,	 -3.72207161114523898959305370227e-06 
	 0.999999999987756238439828848641 ,	 -4.68581053625349852609360823408e-06 
	 0.999999999980594633797181813861 ,	 -5.89908595749477626668522134423e-06 
	 0.999999999969245267905648688611 ,	 -7.42650921892185067463287850842e-06 
	 0.999999999951256546282252202218 ,	 -9.34942117636339276032231282443e-06 
	 0.999999999922748017411322507542 ,	 -1.17702239046391099464017315768e-05 
	 0.999999999877563050532103261503 ,	 -1.48178339749449605733389034867e-05 
	 0.999999999805951667042336339364 ,	 -1.86545477378619040109697380103e-05 
	 0.99999999969245423336872136133 ,	 -2.34846841904445824411595822312e-05 
	 0.999999999512574344606719023432 ,	 -2.95654657109789553715017973445e-05 
	 0.999999999227483504782298950886 ,	 -3.72207160863613495394019992091e-05 
	 0.999999998775642939818908416783 ,	 -4.68581053079120124493783805519e-05 
	 0.999999998059525774252165319922 ,	 -5.8990859485019697672214533668e-05 
	 0.99999999692455543431890419015 ,	 -7.42650919982601465108018601313e-05 
	 0.999999995125749441271523210162 ,	 -9.34942113841596977863446227275e-05 
	 0.999999992274833715555359958671 ,	 -0.000117702238285444238385935022961 
	 0.999999987756437613839466393983 ,	 -0.000148178338238436069218550983351 
	 0.999999980595262627502961549908 ,	 -0.000186545474362143082203147059772 
	 0.99999996924556522337468322803 ,	 -0.000234846835885926807918622216675 
	 0.999999951257509733792971928779 ,	 -0.000295654645100063007134849613067 
	 0.999999922748368463842894016125 ,	 -0.000372207136899671553464941098355 
	 0.999999877564436312482598623319 ,	 -0.000468581005273582817949318268802 
	 0.99999980595276394268466901849 ,	 -0.000589908499466496039076446322724 
	 0.999999692455991295858552803111 ,	 -0.000742650729666838316234134254046 
	 0.999999512575936000402521131036 ,	 -0.00093494173411201586532115470618 
	 0.999999227485773412027469930763 ,	 -0.00117702162518784625433454493759 
	 0.999998775649607152260500697594 ,	 -0.00148178187066050348619228316238 
	 0.999998059540788908350350538967 ,	 -0.00186545172736507502975200623041 
	 0.999996924592948310817064339062 ,	 -0.00234846234076813153990315186093 
	 0.999995125842312315711524206563 ,	 -0.00295653444373078500007068214472 
	 0.999992275066085012369399009913 ,	 -0.00372204741262160965220573416445 
	 0.999987757019354273069211558322 ,	 -0.00468576225751093922156087501207 
	 0.999980596721991465969381351897 ,	 -0.00589898964338786413463822100312 
	 0.999969249229091472486175007361 ,	 -0.00742631708611773966310920513934 
	 0.999951266706348596002840167785 ,	 -0.00934903794836583479366254323395 
	 0.99992277144744057260083991423 ,	 -0.0117694596654023264648003532784 
	 0.999877622327913995192716356541 ,	 -0.0148163103850040833719958754955 
	 0.999843576666028299726463046682 ,	 -0.0167515822860764274082612246275 
	 0.999805176629608549632166614174 ,	 -0.018695784753973043734731618315 
	 0.99969136041346184917699702055 ,	 -0.0235343597915469437964475218905 
	 0.999511174437482496912821261503 ,	 -0.029623560522119563032106270839 
	 0.99926688059133139674372614536 ,	 -0.0362877134924308730745678985841 
	 0.998902637462232734222311592021 ,	 -0.0444130825126807238234505348373 
	 0.998527907434689554477813544509 ,	 -0.0514597527122286901857250995818 
	 0.998055081609420691179934692627 ,	 -0.0591769311039314072075967487763 
	 0.996972368696792399234141157649 ,	 -0.0739081063184041653357780887745 
	 0.995658819428779207072466306272 ,	 -0.0886006492805220258190956883482 
	 0.994118898338196554931300852331 ,	 -0.10324961920788822133943085646 
	 0.992356955189446665599461994134 ,	 -0.117850979290035295932170811284 
	 0.990377042481289437958480448287 ,	 -0.132401427953596106945610699768 
	 0.98818,	-0.14689
	 0.98577,	-0.16133
	 0.98316,	-0.17572
	 0.98034,	-0.19004
	 0.97732,	-0.2043
	 0.97409,	-0.21849
	 0.97066,	-0.23262
	 0.96704,	-0.24668
	 0.96322,	-0.26067
	 0.9592,	-0.27458
	 0.95499,	-0.28842
	 0.95058,	-0.30218
	 0.94599,	-0.31585
	 0.9412,	-0.32944
	 0.93623,	-0.34295
	 0.93107,	-0.35636
	 0.92572,	-0.36968
	 0.92019,	-0.3829
	 0.91448,	-0.39603
	 0.90859,	-0.40905
	 0.90253,	-0.42197
	 0.89629,	-0.43478
	 0.88987,	-0.44748
	 0.87654,	-0.47255
	 0.86254,	-0.49714
	 0.84789,	-0.52125
	 0.83262,	-0.54485
	 0.81675,	-0.56793
	 0.80029,	-0.59047
	 0.78328,	-0.61246
	 0.76572,	-0.63388
	 0.74764,	-0.65471
	 0.72907,	-0.67495
	 0.71002,	-0.69459
	 0.69052,	-0.71361
	 0.67059,	-0.73201
	 0.65026,	-0.74977
	 0.62954,	-0.7669
	 0.60846,	-0.78337
	 0.58704,	-0.7992
	 0.56531,	-0.81436
	 0.54328,	-0.82887
	 0.52099,	-0.84271
	 0.49844,	-0.85589
	 0.47566,	-0.8684
	 0.45268,	-0.88024
	 0.42951,	-0.89141
	 0.40618,	-0.90192
	 0.3827,	-0.91176
	 0.3591,	-0.92094
	 0.33539,	-0.92945
	 0.3116,	-0.93731
	 0.28774,	-0.94451
	 0.26382,	-0.95107
	 0.23988,	-0.95698
	 0.21592,	-0.96225
	 0.19197,	-0.96688
	 0.16803,	-0.97089
	 0.14413,	-0.97428
	 0.12028,	-0.97705
	 0.096496,	-0.97921
	 0.072788,	-0.98077
	 0.049174,	-0.98174
	 0.025666,	-0.98213
	 0.0022791,	-0.98194
	-0.020976,	-0.98117
	-0.044086,	-0.97985
	-0.06704,	-0.97798
	-0.089826,	-0.97556
	-0.11243,	-0.97261
	-0.13485,	-0.96913
	-0.15707,	-0.96513
	-0.17908,	-0.96062
	-0.20087,	-0.95562
	-0.22244,	-0.95012
	-0.24377,	-0.94414
	-0.26486,	-0.93769
	-0.2857,	-0.93077
	-0.30628,	-0.92339
	-0.3266,	-0.91557
	-0.34664,	-0.90731
	-0.3664,	-0.89862
	-0.38588,	-0.88951
	-0.40506,	-0.87999
	-0.42395,	-0.87006
	-0.44254,	-0.85973
	-0.46081,	-0.84902
	-0.47878,	-0.83792
	-0.49642,	-0.82645
	-0.51374,	-0.81462
	-0.53074,	-0.80243
	-0.5474,	-0.78989
	-0.56372,	-0.77701
	-0.57971,	-0.76379
	-0.59535,	-0.75025
	-0.61064,	-0.73638
	-0.62558,	-0.7222
	-0.64016,	-0.70772
	-0.65438,	-0.69293
	-0.66824,	-0.67785
	-0.68173,	-0.66249
	-0.69486,	-0.64684
	-0.7076,	-0.63092
END
BEGIN
	 9.91357430999999934162505638679e-18 ,	 0 
	 2.41126562999999983308928267826e-15 ,	 6.76588559000000040421164259141e-11 
	 2.43555175999999998382910707228e-15 ,	 6.7658846799999995557828685709e-10 
	 4.57273108000000025433366787125e-15 ,	 6.76588473999999982306332885641e-09 
	 2.18757303999999999554331171385e-13 ,	 6.76588474999999999168716412028e-08 
	 3.45300176999999989955106178753e-13 ,	 8.51774424000000043626375343005e-08 
	 5.45848089000000001056608828414e-13 ,	 1.07232047000000002026870535993e-07 
	 8.63699737000000011005895498837e-13 ,	 1.3499714900000001217811968976e-07 
	 1.36746517000000002736030929231e-12 ,	 1.69951341000000003756195817925e-07 
	 2.16587165000000008330514965244e-12 ,	 2.13956062000000000156797524617e-07 
	 3.43126394999999991978411580119e-12 ,	 2.69354722999999993299257480123e-07 
	 5.43677428999999963532588283907e-12 ,	 3.39097506000000017984806911092e-07 
	 8.61529423999999967805545595073e-12 ,	 4.26898466999999988869836766228e-07 
	 1.36529086999999998885417384029e-11 ,	 5.3743332800000001749633109574e-07 
	 2.16369942999999991265127957781e-11 ,	 6.76588473000000018383508562647e-07 
	 3.42909139e-11 ,	 8.5177442e-07 
	 5.43460103e-11 ,	 1.07232046e-06 
	 8.61312081e-11 ,	 1.34997147e-06 
	 1.36507345e-10 ,	 1.69951337e-06 
	 2.16348118e-10 ,	 2.13956054e-06 
	 3.42887167e-10 ,	 2.69354708e-06 
	 5.43437944e-10 ,	 3.39097474e-06 
	 8.61289207e-10 ,	 4.26898404e-06 
	 1.36504877e-09 ,	 5.37433203e-06 
	 2.16345207e-09 ,	 6.76588223e-06 
	 3.42883146e-09 ,	 8.51773922e-06 
	 5.43431113e-09 ,	 1.07231947e-05 
	 8.61275333e-09 ,	 1.34996949e-05 
	 1.36501723e-08 ,	 1.69950942e-05 
	 2.16337611e-08 ,	 2.13955266e-05 
	 3.42864393e-08 ,	 2.69353135e-05 
	 5.43384342e-08 ,	 3.39094337e-05 
	 8.61158205e-08 ,	 4.26892145e-05 
	 1.36472344e-07 ,	 5.37420718e-05 
	 2.16263886e-07 ,	 6.76563324e-05 
	 3.4267939e-07 ,	 8.51724275e-05 
	 5.42920279e-07 ,	 0.000107222052 
	 8.59994979e-07 ,	 0.000134977239 
	 1.36181115e-06 ,	 0.000169911724 
	 2.15536136e-06 ,	 0.000213877351 
	 3.40866237e-06 ,	 0.000269198723 
	 5.38423904e-06 ,	 0.000338789498 
	 8.48924842e-06 ,	 0.000426293898 
	 1.08111056e-05 ,	 0.000481809436 
	 1.3410693e-05 ,	 0.000537525299 
	 2.10044123e-05 ,	 0.000675922055 
	 3.27257968e-05 ,	 0.000849516351 
	 4.81328441e-05 ,	 0.0010387554 
	 7.03091561e-05 ,	 0.00126849507 
	 9.23913645e-05 ,	 0.00146695648 
	 0.000119503367 ,	 0.00168360367 
	 0.000179621215 ,	 0.00209555595 
	 0.000250583431 ,	 0.00250480089 
	 0.000332514628 ,	 0.00291145975 
	 0.000425551791 ,	 0.00331542785 
	 0.000529782509 ,	 0.00371647234 
	 0.000645235883 ,	 0.00411429482 
	 0.000771889512 ,	 0.00450856658 
	 0.000909679138 ,	 0.00489894735 
	 0.001058507 ,	 0.00528509532 
	 0.00121824821 ,	 0.00566667233 
	 0.00138875546 ,	 0.00604334672 
	 0.00156986239 ,	 0.00641479493 
	 0.00176138617 ,	 0.00678070242 
	 0.00196312936 ,	 0.0071407643 
	 0.0021748814 ,	 0.0074946857 
	 0.0023964,	 0.0078422
	 0.0026275,	 0.008183
	 0.0028679,	 0.0085168
	 0.0031174,	 0.0088434
	 0.0033756,	 0.0091626
	 0.0036424,	 0.0094741
	 0.0039174,	 0.0097777
	 0.0042004,	 0.010073
	 0.0044911,	 0.01036
	 0.0047892,	 0.010639
	 0.0050943,	 0.010909
	 0.0054062,	 0.01117
	 0.0057246,	 0.011423
	 0.0063796,	 0.0119
	 0.0070567,	 0.01234
	 0.0077535,	 0.012742
	 0.0084673,	 0.013106
	 0.0091956,	 0.013431
	 0.009936,	 0.013718
	 0.010686,	 0.013965
	 0.011443,	 0.014175
	 0.012205,	 0.014346
	 0.01297,	 0.01448
	 0.013735,	 0.014577
	 0.014499,	 0.014638
	 0.015259,	 0.014665
	 0.016014,	 0.014657
	 0.016761,	 0.014618
	 0.017501,	 0.014547
	 0.01823,	 0.014446
	 0.018948,	 0.014318
	 0.019654,	 0.014162
	 0.020346,	 0.013981
	 0.021024,	 0.013777
	 0.021687,	 0.013551
	 0.022335,	 0.013304
	 0.022968,	 0.013039
	 0.023584,	 0.012757
	 0.024183,	 0.012459
	 0.024767,	 0.012147
	 0.025335,	 0.011823
	 0.025886,	 0.011488
	 0.026422,	 0.011143
	 0.026943,	 0.010791
	 0.02745,	 0.010431
	 0.027943,	 0.010066
	 0.028422,	 0.0096956
	 0.02889,	 0.009322
	 0.029346,	 0.0089459
	 0.029792,	 0.008568
	 0.030228,	 0.008189
	 0.030657,	 0.0078097
	 0.031078,	 0.0074305
	 0.031494,	 0.0070518
	 0.031904,	 0.006674
	 0.032312,	 0.0062971
	 0.032718,	 0.0059214
	 0.033122,	 0.0055466
	 0.033527,	 0.0051726
	 0.033934,	 0.004799
	 0.034344,	 0.0044256
	 0.034757,	 0.0040516
	 0.035176,	 0.0036765
	 0.035602,	 0.0032993
	 0.036034,	 0.0029194
	 0.036475,	 0.0025355
	 0.036925,	 0.0021467
	 0.037385,	 0.0017517
	 0.037856,	 0.0013492
	 0.038338,	 0.00093793
	 0.038831,	 0.00051646
	 0.039337,	 8.3311e-05
	 0.039854,	-0.000363
	 0.040384,	-0.00082399
	 0.040926,	-0.0013012
	 0.04148,	-0.0017961
	 0.042045,	-0.0023103
	 0.042622,	-0.0028451
	 0.043209,	-0.003402
	 0.043806,	-0.0039823
	 0.044412,	-0.0045873
	 0.045027,	-0.0052182
	 0.045649,	-0.0058761
	 0.046278,	-0.0065619
	 0.046913,	-0.0072766
	 0.047552,	-0.008021
	 0.048195,	-0.0087956
	 0.048841,	-0.0096012
	 0.049488,	-0.010438
	 0.050137,	-0.011307
	 0.050786,	-0.012208
	 0.051434,	-0.013141
	 0.052082,	-0.014108
END
BEGIN
	 9.91357430999999934162505638679e-18 ,	 0 
	 2.41126562999999983308928267826e-15 ,	 6.76588559000000040421164259141e-11 
	 2.43555175999999998382910707228e-15 ,	 6.7658846799999995557828685709e-10 
	 4.57273108000000025433366787125e-15 ,	 6.76588473999999982306332885641e-09 
	 2.18757303999999999554331171385e-13 ,	 6.76588474999999999168716412028e-08 
	 3.45300176999999989955106178753e-13 ,	 8.51774424000000043626375343005e-08 
	 5.45848089000000001056608828414e-13 ,	 1.07232047000000002026870535993e-07 
	 8.63699737000000011005895498837e-13 ,	 1.3499714900000001217811968976e-07 
	 1.36746517000000002736030929231e-12 ,	 1.69951341000000003756195817925e-07 
	 2.16587165000000008330514965244e-12 ,	 2.13956062000000000156797524617e-07 
	 3.43126394999999991978411580119e-12 ,	 2.69354722999999993299257480123e-07 
	 5.43677428999999963532588283907e-12 ,	 3.39097506000000017984806911092e-07 
	 8.61529423999999967805545595073e-12 ,	 4.26898466999999988869836766228e-07 
	 1.36529086999999998885417384029e-11 ,	 5.3743332800000001749633109574e-07 
	 2.16369942999999991265127957781e-11 ,	 6.76588473000000018383508562647e-07 
	 3.42909139e-11 ,	 8.5177442e-07 
	 5.43460103e-11 ,	 1.07232046e-06 
	 8.61312081e-11 ,	 1.34997147e-06 
	 1.36507345e-10 ,	 1.69951337e-06 
	 2.16348118e-10 ,	 2.13956054e-06 
	 3.42887167e-10 ,	 2.69354708e-06 
	 5.43437944e-10 ,	 3.39097474e-06 
	 8.61289207e-10 ,	 4.26898404e-06 
	 1.36504877e-09 ,	 5.37433203e-06 
	 2.16345207e-09 ,	 6.76588223e-06 
	 3.42883146e-09 ,	 8.51773922e-06 
	 5.43431113e-09 ,	 1.07231947e-05 
	 8.61275333e-09 ,	 1.34996949e-05 
	 1.36501723e-08 ,	 1.69950942e-05 
	 2.16337611e-08 ,	 2.13955266e-05 
	 3.42864393e-08 ,	 2.69353135e-05 
	 5.43384342e-08 ,	 3.39094337e-05 
	 8.61158205e-08 ,	 4.26892145e-05 
	 1.36472344e-07 ,	 5.37420718e-05 
	 2.16263886e-07 ,	 6.76563324e-05 
	 3.4267939e-07 ,	 8.51724275e-05 
	 5.42920279e-07 ,	 0.000107222052 
	 8.59994979e-07 ,	 0.000134977239 
	 1.36181115e-06 ,	 0.000169911724 
	 2.15536136e-06 ,	 0.000213877351 
	 3.40866237e-06 ,	 0.000269198723 
	 5.38423904e-06 ,	 0.000338789498 
	 8.48924842e-06 ,	 0.000426293898 
	 1.08111056e-05 ,	 0.000481809436 
	 1.3410693e-05 ,	 0.000537525299 
	 2.10044123e-05 ,	 0.000675922055 
	 3.27257968e-05 ,	 0.000849516351 
	 4.81328441e-05 ,	 0.0010387554 
	 7.03091561e-05 ,	 0.00126849507 
	 9.23913645e-05 ,	 0.00146695648 
	 0.000119503367 ,	 0.00168360367 
	 0.000179621215 ,	 0.00209555595 
	 0.000250583431 ,	 0.00250480089 
	 0.000332514628 ,	 0.00291145975 
	 0.000425551791 ,	 0.00331542785 
	 0.000529782509 ,	 0.00371647234 
	 0.000645235883 ,	 0.00411429482 
	 0.000771889512 ,	 0.00450856658 
	 0.000909679138 ,	 0.00489894735 
	 0.001058507 ,	 0.00528509532 
	 0.00121824821 ,	 0.00566667233 
	 0.00138875546 ,	 0.00604334672 
	 0.00156986239 ,	 0.00641479493 
	 0.00176138617 ,	 0.00678070242 
	 0.00196312936 ,	 0.0071407643 
	 0.0021748814 ,	 0.0074946857 
	 0.0023964,	 0.0078422
	 0.0026275,	 0.008183
	 0.0028679,	 0.0085168
	 0.0031174,	 0.0088434
	 0.0033756,	 0.0091626
	 0.0036424,	 0.0094741
	 0.0039174,	 0.0097777
	 0.0042004,	 0.010073
	 0.0044911,	 0.01036
	 0.0047892,	 0.010639
	 0.0050943,	 0.010909
	 0.0054062,	 0.01117
	 0.0057246,	 0.011423
	 0.0063796,	 0.0119
	 0.0070567,	 0.01234
	 0.0077535,	 0.012742
	 0.0084673,	 0.013106
	 0.0091956,	 0.013431
	 0.009936,	 0.013718
	 0.010686,	 0.013965
	 0.011443,	 0.014175
	 0.012205,	 0.014346
	 0.01297,	 0.01448
	 0.013735,	 0.014577
	 0.014499,	 0.014638
	 0.015259,	 0.014665
	 0.016014,	 0.014657
	 0.016761,	 0.014618
	 0.017501,	 0.014547
	 0.01823,	 0.014446
	 0.018948,	 0.014318
	 0.019654,	 0.014162
	 0.020346,	 0.013981
	 0.021024,	 0.013777
	 0.021687,	 0.013551
	 0.022335,	 0.013304
	 0.022968,	 0.013039
	 0.023584,	 0.012757
	 0.024183,	 0.012459
	 0.024767,	 0.012147
	 0.025335,	 0.011823
	 0.025886,	 0.011488
	 0.026422,	 0.011143
	 0.026943,	 0.010791
	 0.02745,	 0.010431
	 0.027943,	 0.010066
	 0.028422,	 0.0096956
	 0.02889,	 0.009322
	 0.029346,	 0.0089459
	 0.029792,	 0.008568
	 0.030228,	 0.008189
	 0.030657,	 0.0078097
	 0.031078,	 0.0074305
	 0.031494,	 0.0070518
	 0.031904,	 0.006674
	 0.032312,	 0.0062971
	 0.032718,	 0.0059214
	 0.033122,	 0.0055466
	 0.033527,	 0.0051726
	 0.033934,	 0.004799
	 0.034344,	 0.0044256
	 0.034757,	 0.0040516
	 0.035176,	 0.0036765
	 0.035602,	 0.0032993
	 0.036034,	 0.0029194
	 0.036475,	 0.0025355
	 0.036925,	 0.0021467
	 0.037385,	 0.0017517
	 0.037856,	 0.0013492
	 0.038338,	 0.00093793
	 0.038831,	 0.00051646
	 0.039337,	 8.3311e-05
	 0.039854,	-0.000363
	 0.040384,	-0.00082399
	 0.040926,	-0.0013012
	 0.04148,	-0.0017961
	 0.042045,	-0.0023103
	 0.042622,	-0.0028451
	 0.043209,	-0.003402
	 0.043806,	-0.0039823
	 0.044412,	-0.0045873
	 0.045027,	-0.0052182
	 0.045649,	-0.0058761
	 0.046278,	-0.0065619
	 0.046913,	-0.0072766
	 0.047552,	-0.008021
	 0.048195,	-0.0087956
	 0.048841,	-0.0096012
	 0.049488,	-0.010438
	 0.050137,	-0.011307
	 0.050786,	-0.012208
	 0.051434,	-0.013141
	 0.052082,	-0.014108
END
BEGIN
	 0.99999999999999822364316059975 ,	 -0 
	 0.999999999999995781152506424405 ,	 -2.3477000343774534485419280827e-09 
	 0.999999999999996225241716274468 ,	 -2.3477000343774534485419280827e-08 
	 0.999999999999965361041631695116 ,	 -2.34770004547968369479349348694e-07 
	 0.99999999999692246177573906607 ,	 -2.34770004681195132434368133545e-06 
	 0.999999999995125676832685712725 ,	 -2.95557924800959881395101547241e-06 
	 0.999999999992276178417682785948 ,	 -3.7208538219424269755108980462e-06 
	 0.999999999987760679331927349267 ,	 -4.68427743038901667205209378153e-06 
	 0.999999999980604403759798515239 ,	 -5.89715589294215192239789757878e-06 
	 0.999999999969262587384832841053 ,	 -7.42407941123346404310723301023e-06 
	 0.999999999951286744348522006476 ,	 -9.3463622297118575943386531435e-06 
	 0.999999999922796645179801089398 ,	 -1.17663729177763798361411318183e-05 
	 0.999999999877641876366851647617 ,	 -1.48129858710266404386857175268e-05 
	 0.999999999806078454511748532241 ,	 -1.864844433607792950624570949e-05 
	 0.999999999692657404182227764977 ,	 -2.34770004627904427252360619605e-05 
	 0.999999999512896087239255393797 ,	 -2.95557924707701147326588397846e-05 
