CITIFILE A.01.01
#Momentum: B.12.070 (*) built: Feb 13 2020 
#Momentum Date and Time: Wed Sep  7 02:21:35 2022

NAME Momentum.SP

#  mode: MW    reference: S_50

#eesof Port[1] P1
#eesof Port[2] P2

CONSTANT NBR_OF_PORTS 2

CONSTANT NORMALIZATION 1

VAR freq MAG 154

DATA S[1,1] RI
DATA S[1,2] RI
DATA S[2,1] RI
DATA S[2,2] RI
DATA PORTZ[1] RI
DATA PORTZ[2] RI

VAR_LIST_BEGIN
	 0
	 8.274252442
	 82.74252442
	 827.4252442
	 8274.252442
	 10416.66666
	 13113.80637
	 16509.30408
	 20783.98244
	 26165.48365
	 32940.39228
	 41469.49692
	 52207.00348
	 65724.72336
	 82742.52442
	 104166.6666
	 131138.0637
	 165093.0408
	 207839.8244
	 261654.8365
	 329403.9228
	 414694.9692
	 522070.0348
	 657247.2336
	 827425.2442
	 1041666.666
	 1311380.637
	 1650930.408
	 2078398.244
	 2616548.365
	 3294039.228
	 4146949.692
	 5220700.348
	 6572472.336
	 8274252.442
	 10416666.66
	 13113806.37
	 16509304.08
	 20783982.44
	 26165483.65
	 32940392.28
	 41469496.92
	 52207003.48
	 65724723.36
	 82742524.42
	 104166666.6
	 117776035.3
	 131449446.7
	 165485048.8
	 208333333.2
	 255251850.3
	 312499999.9
	 362192144.3
	 416666666.5
	 468749999.8
	 520833333.1
	 572916666.4
	 624999999.8
	 677083333.1
	 729166666.4
	 781249999.7
	 833333333
	 937499999.6
	 1041666666
	 1145833333
	 1250000000
	 1302083333
	 1354166666
	 1406249999
	 1458333333
	 1510416666
	 1562499999
	 1614583333
	 1666666666
	 1770833333
	 1874999999
	 1979166666
	 2083333333
	 2187499999
	 2291666666
	 2395833333
	 2500000000
	 2604166666
	 2708333333
	 2812500000
	 2916666666
	 3020833333
	 3125000000
	 3229166666
	 3333333333
	 3437500000
	 3541666666
	 3645833333
	 3750000000
	 3854166666
	 3958333333
	 4062500000
	 4166666666
	 4270833333
	 4375000000
	 4479166667
	 4583333333
	 4687500000
	 4791666667
	 4895833333
	 5000000000
	 5104166667
	 5208333333
	 5312500000
	 5416666667
	 5520833333
	 5625000000
	 5729166667
	 5833333334
	 5937500000
	 6041666667
	 6145833334
	 6250000000
	 6354166667
	 6458333334
	 6562500000
	 6666666667
	 6770833334
	 6875000000
	 6979166667
	 7083333334
	 7187500000
	 7291666667
	 7395833334
	 7500000000
	 7604166667
	 7708333334
	 7812500001
	 7916666667
	 8020833334
	 8125000001
	 8229166667
	 8333333334
	 8437500001
	 8541666667
	 8645833334
	 8750000000
	 8854166667
	 8958333334
	 9062500000
	 9166666667
	 9270833334
	 9375000000
	 9479166667
	 9583333334
	 9687500000
	 9791666667
	 9895833333
	 1e+10
VAR_LIST_END

BEGIN
	 0.999999999999998445687765524781 ,	 -0 
	 1.00000000000000244249065417534 ,	 -2.2495862950222544895950704813e-09 
	 1.00000000000000199840144432528 ,	 -2.24958608963099493394111050293e-08 
	 0.999999999999973465669711458759 ,	 -2.249586074087872589188918937e-07 
	 0.999999999997163380172082725039 ,	 -2.24958607419889489165143459104e-06 
	 0.999999999995502375504941028339 ,	 -2.83206107504208048908367345575e-06 
	 0.999999999992869259557437544572 ,	 -3.56535365497734346718061715364e-06 
	 0.999999999988697263475501131325 ,	 -4.48851431816832402432737580966e-06 
	 0.999999999982086329453068174189 ,	 -5.65070473534934336612423066981e-06 
	 0.999999999971606712279026396573 ,	 -7.11381578694103566817830142099e-06 
	 0.999999999954997997875238979759 ,	 -8.955763468154742668048129417e-06 
	 0.999999999928675831206703605858 ,	 -1.12746382120998411835444130702e-05 
	 0.999999999886957313677271486085 ,	 -1.41939285538961179611305851722e-05 
	 0.999999999820837648378812900773 ,	 -1.78690973485218229654947208473e-05 
	 0.999999999716045917530493625236 ,	 -2.24958607350500550126071175328e-05 
	 0.999999999549961660072483482509 ,	 -2.83206107364319947805597621482e-05 
	 0.999999999286736218628846017964 ,	 -3.56535365241827939541963132797e-05 
	 0.999999998869552042535246982879 ,	 -4.48851431342212059405483159935e-05 
	 0.999999998208359053286642392777 ,	 -5.65070472706152848729743709555e-05 
	 0.999999997160438747201283149479 ,	 -7.11381576877223587018761463696e-05 
	 0.999999995499597393866508809879 ,	 -8.95576343279969044886001938721e-05 
	 0.999999992867341092050992301665 ,	 -0.000112746381410011586865493882215 
	 0.999999988695496111468230537866 ,	 -0.000141939284115044639378311330802 
	 0.999999982083567662272116649547 ,	 -0.00017869097064693306720073451288 
	 0.999999971604368376176807942102 ,	 -0.00022495860169557957419783633668 
	 0.999999954995959394743465509237 ,	 -0.000283206096067745161093398564844 
	 0.999999928673409477219991003949 ,	 -0.000356535342716235437166005795007 
	 0.999999886954991534793180107954 ,	 -0.000448851386390614059962445026031 
	 0.999999820835788533202048711246 ,	 -0.000565070383011678778473196871346 
	 0.999999716043992958880437527114 ,	 -0.000711381397914545576810496640974 
	 0.9999995499603941961908049052 ,	 -0.000895575986208096974650061383727 
	 0.999999286736138026654430177587 ,	 -0.00112746310165462437780092841422 
	 0.999998869555088210070437071408 ,	 -0.00141939141964658732675275132351 
	 0.999998208370900809605075210129 ,	 -0.00178690687023913552522458303429 
	 0.999997160472664514685448011733 ,	 -0.00224958035806743783524552782183 
	 0.999995499686184952103928935685 ,	 -0.00283204967011313479829937023169 
	 0.999992867567980558973772531317 ,	 -0.00356533090082777892604326552828 
	 0.999988696069783356001892116183 ,	 -0.00448846892207993564127832541999 
	 0.999982085012121602041190726595 ,	 -0.00565061417238321705980297338101 
	 0.999971607998644818060540728766 ,	 -0.00711363512954110710495569946943 
	 0.999955005075536695891003091674 ,	 -0.00895540313999992898530422280601 
	 0.999928696290905305588125884242 ,	 -0.0112739196722325685229293412704 
	 0.999887012388019247310921855387 ,	 -0.0141924961706777486014630085265 
	 0.999820979633705420042133482639 ,	 -0.0178662434406252623730892992171 
	 0.999716404011991355282873428223 ,	 -0.0224901792373123909918319895951 
	 0.999550859566427751801143131161 ,	 -0.0283093147224270924589006881433 
	 0.999426146679726734589621628402 ,	 -0.0320044129083744688379908893694 
	 0.999285604372177282961331457045 ,	 -0.0357156224659707088875393310445 
	 0.998869776317390711817267856532 ,	 -0.0449470733240067699121311761701 
	 0.998213604157291989338318671798 ,	 -0.0565533217030044221829143680225 
	 0.997327848157962382202867956948 ,	 -0.0692384654386141162873968823988 
	 0.996014593586588503626444435213 ,	 -0.0846774469675974916782479340327 
	 0.994671617583282596797289443202 ,	 -0.0980397500276977140742928895634 
	 0.992987036048034399371431391046 ,	 -0.11264267140500261454860719823 
	 0.991172596503362868247677397449 ,	 -0.126557360836186016950222210653 
	 0.98916,	-0.14042
	 0.98695,	-0.15423
	 0.98456,	-0.168
	 0.98198,	-0.18171
	 0.97921,	-0.19536
	 0.97626,	-0.20896
	 0.97312,	-0.2225
	 0.9663,	-0.24939
	 0.95877,	-0.27601
	 0.95052,	-0.30236
	 0.94158,	-0.3284
	 0.93685,	-0.34131
	 0.93195,	-0.35413
	 0.92688,	-0.36687
	 0.92165,	-0.37952
	 0.91625,	-0.39208
	 0.91068,	-0.40454
	 0.90495,	-0.41692
	 0.89907,	-0.42919
	 0.88682,	-0.45344
	 0.87396,	-0.47728
	 0.8605,	-0.50068
	 0.84645,	-0.52364
	 0.83184,	-0.54613
	 0.81667,	-0.56814
	 0.80098,	-0.58966
	 0.78478,	-0.61067
	 0.76809,	-0.63116
	 0.75092,	-0.65112
	 0.7333,	-0.67055
	 0.71525,	-0.68942
	 0.69678,	-0.70773
	 0.67792,	-0.72547
	 0.65868,	-0.74264
	 0.63909,	-0.75922
	 0.61917,	-0.77522
	 0.59893,	-0.79062
	 0.57839,	-0.80543
	 0.55758,	-0.81963
	 0.53652,	-0.83323
	 0.51522,	-0.84623
	 0.4937,	-0.85862
	 0.47198,	-0.87039
	 0.45008,	-0.88156
	 0.42802,	-0.89213
	 0.40582,	-0.90208
	 0.38349,	-0.91143
	 0.36105,	-0.92017
	 0.33852,	-0.92832
	 0.31592,	-0.93586
	 0.29326,	-0.94281
	 0.27055,	-0.94917
	 0.24782,	-0.95495
	 0.22508,	-0.96014
	 0.20234,	-0.96476
	 0.17962,	-0.9688
	 0.15693,	-0.97228
	 0.13429,	-0.9752
	 0.1117,	-0.97757
	 0.08919,	-0.97939
	 0.066758,	-0.98067
	 0.044422,	-0.98142
	 0.022193,	-0.98165
	 8.1713e-05,	-0.98135
	-0.021901,	-0.98055
	-0.043744,	-0.97924
	-0.065438,	-0.97744
	-0.086974,	-0.97515
	-0.10834,	-0.97238
	-0.12953,	-0.96914
	-0.15053,	-0.96543
	-0.17134,	-0.96127
	-0.19195,	-0.95666
	-0.21235,	-0.95161
	-0.23254,	-0.94613
	-0.2525,	-0.94022
	-0.27223,	-0.9339
	-0.29173,	-0.92717
	-0.31098,	-0.92004
	-0.32999,	-0.91252
	-0.34874,	-0.90461
	-0.36723,	-0.89633
	-0.38546,	-0.88768
	-0.40342,	-0.87867
	-0.42111,	-0.8693
	-0.43852,	-0.85959
	-0.45565,	-0.84954
	-0.47249,	-0.83915
	-0.48904,	-0.82845
	-0.5053,	-0.81742
	-0.52126,	-0.80608
	-0.53692,	-0.79444
	-0.55228,	-0.78251
	-0.56733,	-0.77028
	-0.58207,	-0.75777
	-0.5965,	-0.74498
	-0.61061,	-0.73192
	-0.62441,	-0.7186
	-0.63788,	-0.70501
END
BEGIN
	 3.7542929600000001385503337128e-18 ,	 0 
	 1.89084859000000000629780386885e-16 ,	 2.79589903000000015851204340038e-11 
	 3.22658567000000002655152837795e-16 ,	 2.79589914999999996928992798749e-10 
	 1.41067713000000000229953980794e-14 ,	 2.79589917999999989613500499198e-09 
	 1.39239487999999991629438438246e-12 ,	 2.79589913999999996610221523422e-08 
	 2.2066966300000001931528356761e-12 ,	 3.51982845000000016102657265319e-08 
	 3.49726670999999989894877636484e-12 ,	 4.43120142000000012264488227515e-08 
	 5.54268436999999982293998723106e-12 ,	 5.57855194999999980885177150447e-08 
	 8.78445406999999947708668426087e-12 ,	 7.022980579999999522003011369e-08 
	 1.39223077999999998164739695082e-11 ,	 8.84140826000000032914826202275e-08 
	 2.20652454999999997362500174677e-11 ,	 1.1130672600000000401957957934e-07 
	 3.49709237000000031350611325295e-11 ,	 1.40126846999999995594610928233e-07 
	 5.54250048999999981948662809138e-11 ,	 1.76409212000000002992634536882e-07 
	 8.78424242999999976618096047253e-11 ,	 2.22085966000000003311697104914e-07 
	 1.39220318000000001112829752569e-10 ,	 2.7958951899999997988340862641e-07 
	 2.20648114e-10 ,	 3.51982056e-07 
	 3.49700831e-10 ,	 4.43118569e-07 
	 5.54231404e-10 ,	 5.57852057e-07 
	 8.78380034e-10 ,	 7.02291796e-07 
	 1.39209459e-09 ,	 8.84128332e-07 
	 2.20621105e-09 ,	 1.11304233e-06 
	 3.4963323e-09 ,	 1.40121874e-06 
	 5.54061883e-09 ,	 1.76399291e-06 
	 8.77954549e-09 ,	 2.22066174e-06 
	 1.39102647e-08 ,	 2.79550042e-06 
	 2.20352983e-08 ,	 3.51903331e-06 
	 3.4896037e-08 ,	 4.42961621e-06 
	 5.52374172e-08 ,	 5.57539316e-06 
	 8.73724805e-08 ,	 7.01669089e-06 
	 1.38043976e-07 ,	 8.82889934e-06 
	 2.17708685e-07 ,	 1.11058416e-05 
	 3.42376971e-07 ,	 1.39635384e-05 
	 5.36066565e-07 ,	 1.75440943e-05 
	 8.3364483e-07 ,	 2.20191762e-05 
	 1.28310432e-06 ,	 2.75923602e-05 
	 1.9448958e-06 ,	 3.44999954e-05 
	 2.88409127e-06 ,	 4.30123297e-05 
	 4.15092483e-06 ,	 5.34417987e-05 
	 5.75139387e-06 ,	 6.61721328e-05 
	 7.62475877e-06 ,	 8.17211221e-05 
	 9.65657368e-06 ,	 0.000100829729 
	 1.1738899e-05 ,	 0.000124542309 
	 1.38484714e-05 ,	 0.000154247515 
	 1.61007523e-05 ,	 0.00019169399 
	 1.87734974e-05 ,	 0.000239024622 
	 2.23307674e-05 ,	 0.000298857277 
	 2.48219711e-05 ,	 0.000336958966 
	 2.75483935e-05 ,	 0.000375284167 
	 3.54142869e-05 ,	 0.000470764771 
	 4.7646638e-05 ,	 0.000590918606 
	 6.4108034e-05 ,	 0.000722181728 
	 8.85656636e-05 ,	 0.000881641235 
	 0.000113677023 ,	 0.00101923109 
	 0.00014531268 ,	 0.00116899289 
	 0.000179529409 ,	 0.00131096871 
	 0.00021757065 ,	 0.00145160356 
	 0.000259373567 ,	 0.00159074993 
	 0.000304868505 ,	 0.00172826528 
	 0.000353979366 ,	 0.00186401163 
	 0.000406623892 ,	 0.00199785541 
	 0.000462713903 ,	 0.00212966747 
	 0.000522155515 ,	 0.00225932314 
	 0.000650690802 ,	 0.00251169029 
	 0.000791372962 ,	 0.00275405624 
	 0.000943268354 ,	 0.00298560397 
	 0.00110537438 ,	 0.00320560607 
	 0.00118992627 ,	 0.0033110761 
	 0.00127662792 ,	 0.00341343042 
	 0.00136533844 ,	 0.0035126057 
	 0.00145591434 ,	 0.00360854518 
	 0.00154820978 ,	 0.00370119875 
	 0.00164207691 ,	 0.00379052304 
	 0.00173736619 ,	 0.00387648151 
	 0.00183392665 ,	 0.00395904453 
	 0.0020302524 ,	 0.00411390052 
	 0.00222983116 ,	 0.0042549936 
	 0.00243143847 ,	 0.00438233861 
	 0.00263385873 ,	 0.00449606199 
	 0.00283589545 ,	 0.00459640029 
	 0.00303638116 ,	 0.00468369757 
	 0.00323418705 ,	 0.00475840193 
	 0.00342823203 ,	 0.00482106112 
	 0.00361749137 ,	 0.00487231733 
	 0.00380100457 ,	 0.00491290124 
	 0.00397788261 ,	 0.0049436254 
	 0.00414731435 ,	 0.00496537707 
	 0.00430857223 ,	 0.00497911058 
	 0.00446101703 ,	 0.00498583935 
	 0.00460410181 ,	 0.00498662767 
	 0.00473737508 ,	 0.00498258228 
	 0.00486048303 ,	 0.00497484397 
	 0.00497317105 ,	 0.00496457919 
	 0.0050753,	 0.004953
	 0.0051668,	 0.0049412
	 0.0052477,	 0.0049305
	 0.0053181,	 0.004922
	 0.0053784,	 0.004917
	 0.0054288,	 0.0049164
	 0.0054697,	 0.0049216
	 0.0055017,	 0.0049336
	 0.0055254,	 0.0049534
	 0.0055415,	 0.0049821
	 0.0055506,	 0.0050206
	 0.0055537,	 0.0050698
	 0.0055517,	 0.0051306
	 0.0055455,	 0.0052038
	 0.0055362,	 0.0052901
	 0.0055249,	 0.0053902
	 0.0055127,	 0.0055045
	 0.0055008,	 0.0056337
	 0.0054906,	 0.0057782
	 0.0054831,	 0.0059382
	 0.0054799,	 0.006114
	 0.0054822,	 0.0063059
	 0.0054914,	 0.0065138
	 0.005509,	 0.0067377
	 0.0055363,	 0.0069775
	 0.0055747,	 0.0072329
	 0.0056256,	 0.0075037
	 0.0056905,	 0.0077894
	 0.0057707,	 0.0080895
	 0.0058675,	 0.0084033
	 0.0059824,	 0.0087302
	 0.0061165,	 0.0090692
	 0.0062711,	 0.0094195
	 0.0064474,	 0.0097801
	 0.0066464,	 0.01015
	 0.0068692,	 0.010528
	 0.0071167,	 0.010912
	 0.0073898,	 0.011302
	 0.0076892,	 0.011696
	 0.0080156,	 0.012093
	 0.0083695,	 0.01249
	 0.0087514,	 0.012888
	 0.0091617,	 0.013284
	 0.0096005,	 0.013677
	 0.010068,	 0.014065
	 0.010564,	 0.014447
	 0.011089,	 0.014822
	 0.011643,	 0.015188
	 0.012224,	 0.015543
	 0.012834,	 0.015888
	 0.013471,	 0.01622
	 0.014136,	 0.016538
	 0.014827,	 0.016842
	 0.015545,	 0.017131
	 0.016288,	 0.017403
	 0.017057,	 0.017659
	 0.017851,	 0.017897
	 0.01867,	 0.018118
	 0.019512,	 0.01832
	 0.020379,	 0.018503
	 0.021269,	 0.018667
	 0.022182,	 0.018813
END
BEGIN
	 3.7542929600000001385503337128e-18 ,	 0 
	 1.89084859000000000629780386885e-16 ,	 2.79589903000000015851204340038e-11 
	 3.22658567000000002655152837795e-16 ,	 2.79589914999999996928992798749e-10 
	 1.41067713000000000229953980794e-14 ,	 2.79589917999999989613500499198e-09 
	 1.39239487999999991629438438246e-12 ,	 2.79589913999999996610221523422e-08 
	 2.2066966300000001931528356761e-12 ,	 3.51982845000000016102657265319e-08 
	 3.49726670999999989894877636484e-12 ,	 4.43120142000000012264488227515e-08 
	 5.54268436999999982293998723106e-12 ,	 5.57855194999999980885177150447e-08 
	 8.78445406999999947708668426087e-12 ,	 7.022980579999999522003011369e-08 
	 1.39223077999999998164739695082e-11 ,	 8.84140826000000032914826202275e-08 
	 2.20652454999999997362500174677e-11 ,	 1.1130672600000000401957957934e-07 
	 3.49709237000000031350611325295e-11 ,	 1.40126846999999995594610928233e-07 
	 5.54250048999999981948662809138e-11 ,	 1.76409212000000002992634536882e-07 
	 8.78424242999999976618096047253e-11 ,	 2.22085966000000003311697104914e-07 
	 1.39220318000000001112829752569e-10 ,	 2.7958951899999997988340862641e-07 
	 2.20648114e-10 ,	 3.51982056e-07 
	 3.49700831e-10 ,	 4.43118569e-07 
	 5.54231404e-10 ,	 5.57852057e-07 
	 8.78380034e-10 ,	 7.02291796e-07 
	 1.39209459e-09 ,	 8.84128332e-07 
	 2.20621105e-09 ,	 1.11304233e-06 
	 3.4963323e-09 ,	 1.40121874e-06 
	 5.54061883e-09 ,	 1.76399291e-06 
	 8.77954549e-09 ,	 2.22066174e-06 
	 1.39102647e-08 ,	 2.79550042e-06 
	 2.20352983e-08 ,	 3.51903331e-06 
	 3.4896037e-08 ,	 4.42961621e-06 
	 5.52374172e-08 ,	 5.57539316e-06 
	 8.73724805e-08 ,	 7.01669089e-06 
	 1.38043976e-07 ,	 8.82889934e-06 
	 2.17708685e-07 ,	 1.11058416e-05 
	 3.42376971e-07 ,	 1.39635384e-05 
	 5.36066565e-07 ,	 1.75440943e-05 
	 8.3364483e-07 ,	 2.20191762e-05 
	 1.28310432e-06 ,	 2.75923602e-05 
	 1.9448958e-06 ,	 3.44999954e-05 
	 2.88409127e-06 ,	 4.30123297e-05 
	 4.15092483e-06 ,	 5.34417987e-05 
	 5.75139387e-06 ,	 6.61721328e-05 
	 7.62475877e-06 ,	 8.17211221e-05 
	 9.65657368e-06 ,	 0.000100829729 
	 1.1738899e-05 ,	 0.000124542309 
	 1.38484714e-05 ,	 0.000154247515 
	 1.61007523e-05 ,	 0.00019169399 
	 1.87734974e-05 ,	 0.000239024622 
	 2.23307674e-05 ,	 0.000298857277 
	 2.48219711e-05 ,	 0.000336958966 
	 2.75483935e-05 ,	 0.000375284167 
	 3.54142869e-05 ,	 0.000470764771 
	 4.7646638e-05 ,	 0.000590918606 
	 6.4108034e-05 ,	 0.000722181728 
	 8.85656636e-05 ,	 0.000881641235 
	 0.000113677023 ,	 0.00101923109 
	 0.00014531268 ,	 0.00116899289 
	 0.000179529409 ,	 0.00131096871 
	 0.00021757065 ,	 0.00145160356 
	 0.000259373567 ,	 0.00159074993 
	 0.000304868505 ,	 0.00172826528 
	 0.000353979366 ,	 0.00186401163 
	 0.000406623892 ,	 0.00199785541 
	 0.000462713903 ,	 0.00212966747 
	 0.000522155515 ,	 0.00225932314 
	 0.000650690802 ,	 0.00251169029 
	 0.000791372962 ,	 0.00275405624 
	 0.000943268354 ,	 0.00298560397 
	 0.00110537438 ,	 0.00320560607 
	 0.00118992627 ,	 0.0033110761 
	 0.00127662792 ,	 0.00341343042 
	 0.00136533844 ,	 0.0035126057 
	 0.00145591434 ,	 0.00360854518 
	 0.00154820978 ,	 0.00370119875 
	 0.00164207691 ,	 0.00379052304 
	 0.00173736619 ,	 0.00387648151 
	 0.00183392665 ,	 0.00395904453 
	 0.0020302524 ,	 0.00411390052 
	 0.00222983116 ,	 0.0042549936 
	 0.00243143847 ,	 0.00438233861 
	 0.00263385873 ,	 0.00449606199 
	 0.00283589545 ,	 0.00459640029 
	 0.00303638116 ,	 0.00468369757 
	 0.00323418705 ,	 0.00475840193 
	 0.00342823203 ,	 0.00482106112 
	 0.00361749137 ,	 0.00487231733 
	 0.00380100457 ,	 0.00491290124 
	 0.00397788261 ,	 0.0049436254 
	 0.00414731435 ,	 0.00496537707 
	 0.00430857223 ,	 0.00497911058 
	 0.00446101703 ,	 0.00498583935 
	 0.00460410181 ,	 0.00498662767 
	 0.00473737508 ,	 0.00498258228 
	 0.00486048303 ,	 0.00497484397 
	 0.00497317105 ,	 0.00496457919 
	 0.0050753,	 0.004953
	 0.0051668,	 0.0049412
	 0.0052477,	 0.0049305
	 0.0053181,	 0.004922
	 0.0053784,	 0.004917
	 0.0054288,	 0.0049164
	 0.0054697,	 0.0049216
	 0.0055017,	 0.0049336
	 0.0055254,	 0.0049534
	 0.0055415,	 0.0049821
	 0.0055506,	 0.0050206
	 0.0055537,	 0.0050698
	 0.0055517,	 0.0051306
	 0.0055455,	 0.0052038
	 0.0055362,	 0.0052901
	 0.0055249,	 0.0053902
	 0.0055127,	 0.0055045
	 0.0055008,	 0.0056337
	 0.0054906,	 0.0057782
	 0.0054831,	 0.0059382
	 0.0054799,	 0.006114
	 0.0054822,	 0.0063059
	 0.0054914,	 0.0065138
	 0.005509,	 0.0067377
	 0.0055363,	 0.0069775
	 0.0055747,	 0.0072329
	 0.0056256,	 0.0075037
	 0.0056905,	 0.0077894
	 0.0057707,	 0.0080895
	 0.0058675,	 0.0084033
	 0.0059824,	 0.0087302
	 0.0061165,	 0.0090692
	 0.0062711,	 0.0094195
	 0.0064474,	 0.0097801
	 0.0066464,	 0.01015
	 0.0068692,	 0.010528
	 0.0071167,	 0.010912
	 0.0073898,	 0.011302
	 0.0076892,	 0.011696
	 0.0080156,	 0.012093
	 0.0083695,	 0.01249
	 0.0087514,	 0.012888
	 0.0091617,	 0.013284
	 0.0096005,	 0.013677
	 0.010068,	 0.014065
	 0.010564,	 0.014447
	 0.011089,	 0.014822
	 0.011643,	 0.015188
	 0.012224,	 0.015543
	 0.012834,	 0.015888
	 0.013471,	 0.01622
	 0.014136,	 0.016538
	 0.014827,	 0.016842
	 0.015545,	 0.017131
	 0.016288,	 0.017403
	 0.017057,	 0.017659
	 0.017851,	 0.017897
	 0.01867,	 0.018118
	 0.019512,	 0.01832
	 0.020379,	 0.018503
	 0.021269,	 0.018667
	 0.022182,	 0.018813
END
BEGIN
	 0.999999999999998445687765524781 ,	 -0 
	 0.999999999999997779553950749687 ,	 -2.24880858379350456743850372732e-09 
	 0.999999999999998112620858137234 ,	 -2.248808944615987570614379365e-08 
	 0.999999999999970468067544970836 ,	 -2.24880891852574649192320066504e-07 
	 0.999999999997160271547613774601 ,	 -2.24880891952494721408584155142e-06 
	 0.999999999995501265281916403183 ,	 -2.83108269466536555114544171374e-06 
	 0.999999999992871035914276944823 ,	 -3.56412194718602748366720334161e-06 
	 0.999999999988701260278389781888 ,	 -4.48696368998691141882773081306e-06 
	 0.999999999982093656925030700222 ,	 -5.64875261110930892982651130296e-06 
	 0.999999999971621811312161298702 ,	 -7.1113582071347103408243128797e-06 
	 0.999999999955024865272434908547 ,	 -8.95266955930340557756608177442e-06 
	 0.999999999928719573993873837026 ,	 -1.12707432107228555651090573519e-05 
	 0.999999999887028812040057346167 ,	 -1.41890250378029492139830836095e-05 
