CITIFILE A.01.01
#Momentum: B.12.070 (*) built: Feb 13 2020 
#Momentum Date and Time: Wed Sep  7 14:01:44 2022

NAME Momentum.SP

#  mode: MW    reference: S_50

#eesof Port[1] P1
#eesof Port[2] P2

CONSTANT NBR_OF_PORTS 2

CONSTANT NORMALIZATION 1

VAR freq MAG 251

DATA S[1,1] RI
DATA S[1,2] RI
DATA S[2,1] RI
DATA S[2,2] RI
DATA PORTZ[1] RI
DATA PORTZ[2] RI

VAR_LIST_BEGIN
	 0
	 8.176713641
	 81.76713641
	 817.6713641
	 8176.713641
	 10293.87259
	 12959.21779
	 16314.68859
	 20538.97605
	 25857.03888
	 32552.08332
	 40980.6449
	 51591.57525
	 64949.94512
	 81767.13641
	 102938.7259
	 129592.1779
	 163146.8859
	 205389.7605
	 258570.3888
	 325520.8332
	 409806.449
	 515915.7525
	 649499.4512
	 817671.3641
	 1029387.259
	 1295921.779
	 1631468.859
	 2053897.605
	 2585703.888
	 3255208.332
	 3680501.104
	 4107795.21
	 5171407.776
	 6510416.664
	 7976620.322
	 9765624.996
	 11318504.51
	 13020833.33
	 16276041.66
	 19531249.99
	 22786458.32
	 26041666.66
	 32552083.32
	 39062499.98
	 45572916.65
	 52083333.31
	 65104166.64
	 78124999.97
	 91145833.3
	 104166666.6
	 130208333.3
	 156249999.9
	 182291666.6
	 208333333.2
	 234374999.9
	 260416666.6
	 286458333.2
	 312499999.9
	 338541666.5
	 364583333.2
	 390624999.8
	 416666666.5
	 442708333.2
	 468749999.8
	 494791666.5
	 520833333.1
	 546874999.8
	 572916666.4
	 598958333.1
	 624999999.8
	 677083333.1
	 729166666.4
	 781249999.7
	 833333333
	 885416666.3
	 937499999.6
	 989583332.9
	 1041666666
	 1093750000
	 1145833333
	 1197916666
	 1250000000
	 1302083333
	 1354166666
	 1406249999
	 1458333333
	 1510416666
	 1562499999
	 1614583333
	 1666666666
	 1718749999
	 1770833333
	 1822916666
	 1874999999
	 1927083333
	 1979166666
	 2031249999
	 2083333333
	 2135416666
	 2187499999
	 2239583333
	 2291666666
	 2343749999
	 2395833333
	 2447916666
	 2500000000
	 2552083333
	 2604166666
	 2656250000
	 2708333333
	 2760416666
	 2812500000
	 2864583333
	 2916666666
	 2968750000
	 3020833333
	 3072916666
	 3125000000
	 3177083333
	 3229166666
	 3281250000
	 3333333333
	 3385416666
	 3437500000
	 3489583333
	 3541666666
	 3593750000
	 3645833333
	 3697916666
	 3750000000
	 3802083333
	 3854166666
	 3906250000
	 3958333333
	 4010416666
	 4062500000
	 4114583333
	 4166666666
	 4218750000
	 4270833333
	 4322916667
	 4375000000
	 4427083333
	 4479166667
	 4531250000
	 4583333333
	 4635416667
	 4687500000
	 4739583333
	 4791666667
	 4843750000
	 4895833333
	 4947916667
	 5000000000
	 5052083333
	 5104166667
	 5156250000
	 5208333333
	 5260416667
	 5312500000
	 5364583333
	 5416666667
	 5468750000
	 5520833333
	 5572916667
	 5625000000
	 5677083333
	 5729166667
	 5781250000
	 5833333334
	 5885416667
	 5937500000
	 5989583334
	 6041666667
	 6093750000
	 6145833334
	 6197916667
	 6250000000
	 6302083334
	 6354166667
	 6406250000
	 6458333334
	 6510416667
	 6562500000
	 6614583334
	 6666666667
	 6718750000
	 6770833334
	 6822916667
	 6875000000
	 6927083334
	 6979166667
	 7031250000
	 7083333334
	 7135416667
	 7187500000
	 7239583334
	 7291666667
	 7343750000
	 7395833334
	 7447916667
	 7500000000
	 7552083334
	 7604166667
	 7656250001
	 7708333334
	 7760416667
	 7812500001
	 7864583334
	 7916666667
	 7968750001
	 8020833334
	 8072916667
	 8125000001
	 8177083334
	 8229166667
	 8281250001
	 8333333334
	 8385416667
	 8437500001
	 8489583334
	 8541666667
	 8593750001
	 8645833334
	 8697916667
	 8750000000
	 8802083334
	 8854166667
	 8906250000
	 8958333334
	 9010416667
	 9062500000
	 9114583334
	 9166666667
	 9218750000
	 9270833334
	 9322916667
	 9375000000
	 9427083334
	 9479166667
	 9531250000
	 9583333334
	 9635416667
	 9687500000
	 9739583333
	 9791666667
	 9843750000
	 9895833333
	 9947916667
	 1e+10
VAR_LIST_END

BEGIN
	 0.99999999999999822364316059975 ,	 -0 
	 0.999999999999998889776975374843 ,	 -3.51555495825550679001025855541e-09 
	 0.999999999999958033569669169083 ,	 -3.51555483613097408124303910881e-08 
	 0.999999999995885957559949019924 ,	 -3.51555485389454247524554375559e-07 
	 0.999999999588713439635512258974 ,	 -3.51555461886032816209990414791e-06 
	 0.999999999348155865774856465578 ,	 -4.42582087301079951657811761834e-06 
	 0.999999998966897951646615183563 ,	 -5.57177802085195850168020115234e-06 
	 0.999999998362644859639658534434 ,	 -7.01445225126384741543006384745e-06 
	 0.99999999740497091949009700329 ,	 -8.83067081691724098391205188818e-06 
	 0.999999995887161485796923443559 ,	 -1.1117153157158554677153006196e-05 
	 0.9999999934816035107587595121 ,	 -1.39956611540092978884786134586e-05 
	 0.999999989669069666575751398341 ,	 -1.76194825816100575366363045759e-05 
	 0.999999983626658428548239498923 ,	 -2.21815926190194190326110401656e-05 
	 0.99999997405020235596850852744 ,	 -2.79249272333581544103253690992e-05 
	 0.999999958872841876456050158595 ,	 -3.51553139456006746854654920753e-05 
	 0.999999934819101099492399953306 ,	 -4.42577453603210102528464631177e-05 
	 0.99999989669838496020304319245 ,	 -5.57168556868381514846078061964e-05 
	 0.999999836285877519159726034559 ,	 -7.01426779455838200760808831546e-05 
	 0.99999974055045504073291340319 ,	 -8.83030280589558458359533688053e-05 
	 0.99999958885004014419450868445 ,	 -0.000111164189691148607153081684373 
	 0.999999348496420026322084595449 ,	 -0.000139941965434431381254398729652 
	 0.999998967750721279301728827704 ,	 -0.000176165612081780054154478420969 
	 0.999998364784031590346558004967 ,	 -0.00022175766579468625394611080992 
	 0.999997410336442182909877374186 ,	 -0.000279133118130325819095105543965 
	 0.999995900621222899573581344157 ,	 -0.000351321667195647613368691963842 
	 0.99999351534560854126709728007 ,	 -0.00044211650677883351789887456107 
	 0.999989753565543093571932331542 ,	 -0.000556251682250596957146626664326 
	 0.999983837877847836494993316592 ,	 -0.000699606269393138191503567213658 
	 0.999974576737167497597624787886 ,	 -0.000879425667500655094954709056765 
	 0.99996017973576090120957360341 ,	 -0.00110453590343528862405264590052 
	 0.99993804124627572171846168203 ,	 -0.00138550558199057594066516685416 
	 0.99992186932578852598396679241 ,	 -0.00156237488328170304185960048926 
	 0.999904142820514429956801905064 ,	 -0.0017386898964886210450231374125 
	 0.999854577487563567217421223177 ,	 -0.00217104113220101258008298827917 
	 0.999784141375784862759701354662 ,	 -0.00270130889960240594405149749946 
	 0.999701622014878665822834591381 ,	 -0.00326402317569163269439513896941 
	 0.999599975344047209091513650492 ,	 -0.00392748454783131695222664347966 
	 0.999515247543892648707242187811 ,	 -0.00448605142080849006447351712268 
	 0.99942895283427835018130735989 ,	 -0.00508393725623834669136158481706 
	 0.999286865664623435989710742433 ,	 -0.00619872624302231223225589928916 
	 0.99917371923347708673190936679 ,	 -0.00729267331599825485710653083515 
	 0.999084177058884748134914843831 ,	 -0.00837802777117113706140116846655 
	 0.999012386193529611233543619164 ,	 -0.00946119467508699241165004423237 
	 0.998903788947383963758852587489 ,	 -0.011631530081092855688496001676 
	 0.998822010711984287212317212834 ,	 -0.0138121387826134478515882619831 
	 0.998753260665963260578337212792 ,	 -0.0160028609166504853789092521765 
	 0.998690185355257886712365689164 ,	 -0.0182018544135058579769292919082 
	 0.998566446180672473431627622631 ,	 -0.0226177124689357356146501842886 
	 0.998434366659661787224422369036 ,	 -0.0270492335164148611781342879112 
	 0.998287588153440541560712517821 ,	 -0.0314902843555383560314453461615 
	 0.998123279616392800051016820362 ,	 -0.0359372527274023356724796940398 
	 0.997737116946167734710115837515 ,	 -0.044840763675025208101487805834 
	 0.997270684099066162531244117417 ,	 -0.0537493648658272649143441412889 
	 0.996722223893567793595593684586 ,	 -0.0626577409911431848499319130497 
	 0.99609107508369176819940093992 ,	 -0.0715626465314658233296540856827 
	 0.995377007330669139051337879209 ,	 -0.0804617992321775554742657732277 
	 0.994579989907795392056755190424 ,	 -0.0893534142422744981359983285074 
	 0.993700098633093942268601495016 ,	 -0.0982359858444306066616036332562 
	 0.992737473999517172629225569835 ,	 -0.107108176283970846220938710758 
	 0.991692300554827044223316079297 ,	 -0.115968755267277456866281681869 
	 0.990564795925179319979747560865 ,	 -0.124816565230712939182922127657 
	 0.98935,	-0.13365
	 0.98806,	-0.14246
	 0.98669,	-0.15127
	 0.98523,	-0.16005
	 0.9837,	-0.16882
	 0.98208,	-0.17757
	 0.98039,	-0.1863
	 0.97861,	-0.19501
	 0.97675,	-0.20369
	 0.97482,	-0.21236
	 0.97072,	-0.22962
	 0.9663,	-0.24677
	 0.96158,	-0.26382
	 0.95655,	-0.28075
	 0.95123,	-0.29756
	 0.9456,	-0.31425
	 0.93969,	-0.3308
	 0.93349,	-0.34721
	 0.927,	-0.36348
	 0.92024,	-0.3796
	 0.9132,	-0.39557
	 0.9059,	-0.41137
	 0.89832,	-0.42702
	 0.89049,	-0.44249
	 0.8824,	-0.45779
	 0.87406,	-0.47291
	 0.86548,	-0.48784
	 0.85665,	-0.5026
	 0.84758,	-0.51716
	 0.83829,	-0.53153
	 0.82877,	-0.5457
	 0.81902,	-0.55966
	 0.80906,	-0.57343
	 0.79889,	-0.58698
	 0.78851,	-0.60033
	 0.77794,	-0.61346
	 0.76716,	-0.62638
	 0.75619,	-0.63907
	 0.74504,	-0.65155
	 0.73371,	-0.6638
	 0.7222,	-0.67582
	 0.71051,	-0.68761
	 0.69867,	-0.69918
	 0.68666,	-0.71051
	 0.6745,	-0.7216
	 0.66219,	-0.73246
	 0.64973,	-0.74309
	 0.63714,	-0.75347
	 0.6244,	-0.76361
	 0.61154,	-0.77351
	 0.59856,	-0.78317
	 0.58545,	-0.79258
	 0.57223,	-0.80175
	 0.5589,	-0.81067
	 0.54547,	-0.81934
	 0.53194,	-0.82777
	 0.51831,	-0.83596
	 0.50459,	-0.84389
	 0.49079,	-0.85158
	 0.47691,	-0.85901
	 0.46295,	-0.86621
	 0.44892,	-0.87315
	 0.43483,	-0.87984
	 0.42067,	-0.88629
	 0.40646,	-0.89249
	 0.39219,	-0.89844
	 0.37788,	-0.90415
	 0.36353,	-0.90961
	 0.34913,	-0.91483
	 0.3347,	-0.9198
	 0.32024,	-0.92453
	 0.30575,	-0.92902
	 0.29124,	-0.93326
	 0.27671,	-0.93727
	 0.26217,	-0.94103
	 0.24761,	-0.94456
	 0.23305,	-0.94785
	 0.21849,	-0.9509
	 0.20393,	-0.95372
	 0.18937,	-0.9563
	 0.17482,	-0.95866
	 0.16028,	-0.96078
	 0.14575,	-0.96267
	 0.13125,	-0.96433
	 0.11676,	-0.96577
	 0.10231,	-0.96699
	 0.087879,	-0.96798
	 0.07348,	-0.96875
	 0.059115,	-0.9693
	 0.044788,	-0.96963
	 0.030501,	-0.96974
	 0.016257,	-0.96964
	 0.0020598,	-0.96933
	-0.012089,	-0.96881
	-0.026185,	-0.96808
	-0.040228,	-0.96714
	-0.054213,	-0.96599
	-0.068139,	-0.96464
	-0.082003,	-0.96309
	-0.095802,	-0.96134
	-0.10953,	-0.95939
	-0.12319,	-0.95724
	-0.13678,	-0.9549
	-0.1503,	-0.95237
	-0.16374,	-0.94964
	-0.1771,	-0.94673
	-0.19039,	-0.94363
	-0.20359,	-0.94034
	-0.2167,	-0.93687
	-0.22973,	-0.93322
	-0.24267,	-0.92939
	-0.25552,	-0.92538
	-0.26828,	-0.9212
	-0.28094,	-0.91684
	-0.29351,	-0.91231
	-0.30598,	-0.90761
	-0.31835,	-0.90274
	-0.33061,	-0.89771
	-0.34278,	-0.89251
	-0.35484,	-0.88715
	-0.36679,	-0.88163
	-0.37864,	-0.87595
	-0.39038,	-0.87011
	-0.402,	-0.86411
	-0.41352,	-0.85796
	-0.42492,	-0.85166
	-0.4362,	-0.84521
	-0.44737,	-0.83862
	-0.45842,	-0.83187
	-0.46935,	-0.82498
	-0.48015,	-0.81795
	-0.49084,	-0.81078
	-0.5014,	-0.80347
	-0.51184,	-0.79602
	-0.52215,	-0.78843
	-0.53233,	-0.78071
	-0.54238,	-0.77286
	-0.5523,	-0.76488
	-0.56209,	-0.75677
	-0.57175,	-0.74853
	-0.58127,	-0.74017
	-0.59065,	-0.73168
	-0.5999,	-0.72307
	-0.60902,	-0.71434
	-0.61799,	-0.7055
	-0.62682,	-0.69653
	-0.63551,	-0.68746
	-0.64406,	-0.67826
	-0.65246,	-0.66896
	-0.66072,	-0.65955
	-0.66883,	-0.65003
	-0.67679,	-0.6404
	-0.68461,	-0.63067
	-0.69227,	-0.62083
	-0.69979,	-0.6109
	-0.70715,	-0.60086
	-0.71436,	-0.59073
	-0.72141,	-0.5805
	-0.72831,	-0.57018
	-0.73505,	-0.55977
	-0.74163,	-0.54927
	-0.74805,	-0.53867
	-0.75432,	-0.52799
	-0.76042,	-0.51723
	-0.76636,	-0.50638
	-0.77213,	-0.49545
	-0.77775,	-0.48444
	-0.78319,	-0.47336
	-0.78847,	-0.4622
	-0.79358,	-0.45096
	-0.79852,	-0.43966
	-0.80329,	-0.42828
	-0.80789,	-0.41684
	-0.81232,	-0.40533
	-0.81657,	-0.39375
	-0.82065,	-0.38211
	-0.82456,	-0.37042
	-0.82828,	-0.35866
	-0.83183,	-0.34685
	-0.8352,	-0.33499
	-0.83839,	-0.32308
	-0.8414,	-0.31111
	-0.84423,	-0.2991
	-0.84688,	-0.28704
	-0.84934,	-0.27494
	-0.85162,	-0.2628
	-0.85371,	-0.25062
	-0.85561,	-0.2384
	-0.85733,	-0.22616
	-0.85885,	-0.21387
END
BEGIN
	 -1.31960120999999996499617059083e-15 ,	 0 
	 5.56846235999999973835083626079e-16 ,	 3.84579312999999989446616214216e-10 
	 6.59194920999999990305296625888e-16 ,	 3.84579332000000012046882696482e-09 
	 1.26478689000000003555745045165e-14 ,	 3.84579327999999977684573093054e-08 
	 1.21550859999999993666070476886e-12 ,	 3.845793280000000173892424956e-07 
	 1.92609643999999992606311968082e-12 ,	 4.84156688999999969238356798545e-07 
	 3.05252524999999980210550582235e-12 ,	 6.09517159000000038542130698788e-07 
	 4.83749325000000007794589323663e-12 ,	 7.67336639999999975378960730132e-07 
	 7.6665410099999992156653968177e-12 ,	 9.66019596000000086821312555996e-07 
	 1.21504178000000001842551178456e-11 ,	 1.21614662000000001540846780029e-06 
	 1.92568807999999990820204281768e-11 ,	 1.53103788000000001602390019284e-06 
	 3.05196389000000031995863039084e-11 ,	 1.92746248999999984986191206571e-06 
	 4.83700717999999995256843160102e-11 ,	 2.4265315100000001411254240552e-06 
	 7.6661248500000003496905979332e-11 ,	 3.05482219000000019561678887836e-06 
	 1.21499410999999996517390551387e-10 ,	 3.84579327999999985625506973563e-06 
	 1.92563456e-10 ,	 4.84156688e-06 
	 3.0519212e-10 ,	 6.09517158e-06 
	 4.83696378e-10 ,	 7.67336638e-06 
	 7.66606795e-10 ,	 9.66019592e-06 
	 1.2149896e-09 ,	 1.21614661e-05 
	 1.92562839e-09 ,	 1.53103786e-05 
	 3.05191497e-09 ,	 1.92746246e-05 
	 4.83695898e-09 ,	 2.42653145e-05 
	 7.66606319e-09 ,	 3.05482206e-05 
	 1.21498907e-08 ,	 3.84579302e-05 
	 1.92562783e-08 ,	 4.84156637e-05 
	 3.05191425e-08 ,	 6.09517056e-05 
	 4.83695768e-08 ,	 7.67336434e-05 
	 7.66606032e-08 ,	 9.66019184e-05 
	 1.21498844e-07 ,	 0.00012161458 
	 1.92562629e-07 ,	 0.000153103624 
	 2.46166092e-07 ,	 0.000173106552 
	 3.06642099e-07 ,	 0.00019320359 
	 4.85994589e-07 ,	 0.000243228666 
	 7.70248546e-07 ,	 0.000306206265 
	 1.15624647e-06 ,	 0.000375165831 
	 1.73305185e-06 ,	 0.00045930694 
	 2.32802919e-06 ,	 0.000532341809 
	 3.08096268e-06 ,	 0.000612404665 
	 4.81396727e-06 ,	 0.000765498457 
	 6.93204791e-06 ,	 0.000918587333 
	 9.43518294e-06 ,	 0.00107167031 
	 1.23233468e-05 ,	 0.00122474641 
	 1.9254639e-05 ,	 0.00153087403 
	 2.77256414e-05 ,	 0.00183696234 
	 3.77360082e-05 ,	 0.00214300349 
	 4.92853311e-05 ,	 0.00244898964 
	 7.69989007e-05 ,	 0.00306076557 
	 0.000110861841 ,	 0.00367222754 
	 0.000150868656 ,	 0.00428331312 
	 0.000197012873 ,	 0.00489396004 
	 0.000307682809 ,	 0.00611369006 
	 0.000442800783 ,	 0.00733092455 
	 0.000602281152 ,	 0.0085451753 
	 0.00078602,	 0.009756
	 0.00099392,	 0.010963
	 0.0012258,	 0.012165
	 0.0014816,	 0.013363
	 0.0017612,	 0.014555
	 0.0020643,	 0.015741
	 0.0023908,	 0.016922
	 0.0027405,	 0.018095
	 0.0031133,	 0.019262
	 0.0035089,	 0.020421
	 0.0039271,	 0.021572
	 0.0043678,	 0.022715
	 0.0048306,	 0.02385
	 0.0053155,	 0.024975
	 0.0058221,	 0.026091
	 0.0063503,	 0.027197
	 0.0068997,	 0.028293
	 0.0080616,	 0.030454
	 0.0093057,	 0.032571
	 0.01063,	 0.03464
	 0.012033,	 0.036661
	 0.013512,	 0.038629
	 0.015065,	 0.040544
	 0.01669,	 0.042403
	 0.018385,	 0.044204
	 0.020147,	 0.045945
	 0.021975,	 0.047624
	 0.023865,	 0.049239
	 0.025817,	 0.050789
	 0.027826,	 0.052271
	 0.029891,	 0.053685
	 0.032009,	 0.055029
	 0.034179,	 0.056301
	 0.036396,	 0.057499
	 0.038659,	 0.058624
	 0.040965,	 0.059674
	 0.043312,	 0.060647
	 0.045697,	 0.061544
	 0.048116,	 0.062362
	 0.050569,	 0.063101
	 0.053051,	 0.063762
	 0.05556,	 0.064342
	 0.058094,	 0.064842
	 0.06065,	 0.065262
	 0.063225,	 0.065601
	 0.065817,	 0.065859
	 0.068423,	 0.066036
	 0.071041,	 0.066132
	 0.073667,	 0.066147
	 0.0763,	 0.066082
	 0.078937,	 0.065937
	 0.081576,	 0.065712
	 0.084214,	 0.065408
	 0.086848,	 0.065025
	 0.089478,	 0.064564
	 0.092099,	 0.064026
	 0.094711,	 0.063411
	 0.097311,	 0.062721
	 0.099898,	 0.061955
	 0.10246,	 0.061116
	 0.10501,	 0.060203
	 0.10755,	 0.059219
	 0.11006,	 0.058164
	 0.11255,	 0.05704
	 0.11501,	 0.055847
	 0.11744,	 0.054586
	 0.11985,	 0.05326
	 0.12223,	 0.051869
	 0.12458,	 0.050414
	 0.12689,	 0.048897
	 0.12917,	 0.04732
	 0.13142,	 0.045683
	 0.13362,	 0.043987
	 0.1358,	 0.042235
	 0.13793,	 0.040428
	 0.14002,	 0.038567
	 0.14208,	 0.036652
	 0.14409,	 0.034687
	 0.14606,	 0.032672
	 0.14799,	 0.030608
	 0.14987,	 0.028497
	 0.15171,	 0.02634
	 0.15351,	 0.024139
	 0.15526,	 0.021894
	 0.15696,	 0.019608
	 0.15862,	 0.017281
	 0.16023,	 0.014915
	 0.16179,	 0.012511
	 0.16331,	 0.01007
	 0.16478,	 0.007594
	 0.1662,	 0.0050833
	 0.16757,	 0.0025395
	 0.16889,	-3.6348e-05
	 0.17017,	-0.002643
	 0.17139,	-0.0052794
	 0.17257,	-0.0079444
	 0.17369,	-0.010637
	 0.17477,	-0.013356
	 0.1758,	-0.016101
	 0.17678,	-0.01887
	 0.17771,	-0.021663
	 0.17859,	-0.024478
	 0.17942,	-0.027315
	 0.1802,	-0.030173
	 0.18093,	-0.033051
	 0.18161,	-0.035948
	 0.18225,	-0.038863
	 0.18283,	-0.041796
	 0.18336,	-0.044746
	 0.18385,	-0.047712
	 0.18429,	-0.050693
	 0.18468,	-0.053689
	 0.18502,	-0.056699
	 0.18531,	-0.059722
	 0.18555,	-0.062758
	 0.18574,	-0.065806
	 0.18589,	-0.068866
	 0.18599,	-0.071937
	 0.18604,	-0.075018
	 0.18604,	-0.07811
	 0.18599,	-0.081211
	 0.1859,	-0.084321
	 0.18575,	-0.08744
	 0.18556,	-0.090567
	 0.18533,	-0.093702
	 0.18504,	-0.096844
	 0.18471,	-0.099994
	 0.18433,	-0.10314
	 0.1839,	-0.10631
	 0.18343,	-0.10948
	 0.1829,	-0.11265
	 0.18233,	-0.11583
	 0.18171,	-0.11902
	 0.18105,	-0.1222
	 0.18033,	-0.1254
	 0.17957,	-0.1286
	 0.17876,	-0.1318
	 0.1779,	-0.13501
	 0.17699,	-0.13822
	 0.17604,	-0.14143
	 0.17503,	-0.14465
	 0.17398,	-0.14787
	 0.17288,	-0.15109
	 0.17172,	-0.15432
	 0.17052,	-0.15755
	 0.16927,	-0.16078
	 0.16796,	-0.16401
	 0.16661,	-0.16725
	 0.1652,	-0.17048
	 0.16374,	-0.17372
	 0.16223,	-0.17696
	 0.16067,	-0.1802
	 0.15905,	-0.18344
	 0.15737,	-0.18668
	 0.15565,	-0.18992
	 0.15386,	-0.19316
	 0.15202,	-0.1964
	 0.15013,	-0.19964
	 0.14817,	-0.20288
	 0.14616,	-0.20611
	 0.14408,	-0.20935
	 0.14195,	-0.21258
	 0.13975,	-0.21581
	 0.1375,	-0.21903
	 0.13517,	-0.22225
	 0.13279,	-0.22547
	 0.13034,	-0.22868
	 0.12782,	-0.23188
	 0.12523,	-0.23508
	 0.12257,	-0.23827
	 0.11985,	-0.24144
	 0.11705,	-0.24461
	 0.11418,	-0.24776
	 0.11123,	-0.25091
	 0.10821,	-0.25403
	 0.10512,	-0.25714
	 0.10195,	-0.26023
	 0.0987,	-0.2633
	 0.09537,	-0.26635
	 0.09196,	-0.26937
	 0.08847,	-0.27237
	 0.084901,	-0.27534
	 0.08125,	-0.27827
	 0.07752,	-0.28118
	 0.073711,	-0.28404
	 0.069824,	-0.28687
	 0.06586,	-0.28965
	 0.061822,	-0.2924
	 0.057711,	-0.2951
	 0.053529,	-0.29776
	 0.049278,	-0.30038
	 0.044961,	-0.30296
	 0.040579,	-0.3055
	 0.036131,	-0.30801
	 0.031617,	-0.3105
	 0.027034,	-0.31295
	 0.022377,	-0.31539
END
BEGIN
	 -1.31960120999999996499617059083e-15 ,	 0 
	 5.56846235999999973835083626079e-16 ,	 3.84579312999999989446616214216e-10 
	 6.59194920999999990305296625888e-16 ,	 3.84579332000000012046882696482e-09 
	 1.26478689000000003555745045165e-14 ,	 3.84579327999999977684573093054e-08 
	 1.21550859999999993666070476886e-12 ,	 3.845793280000000173892424956e-07 
	 1.92609643999999992606311968082e-12 ,	 4.84156688999999969238356798545e-07 
	 3.05252524999999980210550582235e-12 ,	 6.09517159000000038542130698788e-07 
	 4.83749325000000007794589323663e-12 ,	 7.67336639999999975378960730132e-07 
	 7.6665410099999992156653968177e-12 ,	 9.66019596000000086821312555996e-07 
	 1.21504178000000001842551178456e-11 ,	 1.21614662000000001540846780029e-06 
	 1.92568807999999990820204281768e-11 ,	 1.53103788000000001602390019284e-06 
	 3.05196389000000031995863039084e-11 ,	 1.92746248999999984986191206571e-06 
	 4.83700717999999995256843160102e-11 ,	 2.4265315100000001411254240552e-06 
	 7.6661248500000003496905979332e-11 ,	 3.05482219000000019561678887836e-06 
	 1.21499410999999996517390551387e-10 ,	 3.84579327999999985625506973563e-06 
	 1.92563456e-10 ,	 4.84156688e-06 
	 3.0519212e-10 ,	 6.09517158e-06 
	 4.83696378e-10 ,	 7.67336638e-06 
	 7.66606795e-10 ,	 9.66019592e-06 
	 1.2149896e-09 ,	 1.21614661e-05 
