CITIFILE A.01.01
#Momentum: B.12.070 (*) built: Feb 13 2020 
#Momentum Date and Time: Wed Sep  7 00:59:39 2022

NAME Momentum.SP

#  mode: MW    reference: S_50

#eesof Port[1] P1
#eesof Port[2] P2

CONSTANT NBR_OF_PORTS 2

CONSTANT NORMALIZATION 1

VAR freq MAG 159

DATA S[1,1] RI
DATA S[1,2] RI
DATA S[2,1] RI
DATA S[2,2] RI
DATA PORTZ[1] RI
DATA PORTZ[2] RI

VAR_LIST_BEGIN
	 0
	 8.254652041
	 82.54652041
	 825.4652041
	 8254.652041
	 10391.99122
	 13082.74183
	 16470.19614
	 20734.74846
	 26103.50174
	 32862.36168
	 41371.26221
	 52083.33331
	 65569.03184
	 82546.52041
	 103919.9122
	 130827.4183
	 164701.9614
	 207347.4846
	 261035.0174
	 328623.6168
	 413712.6221
	 520833.3331
	 655690.3184
	 825465.2041
	 1039199.122
	 1308274.183
	 1647019.614
	 2073474.846
	 2610350.174
	 3286236.168
	 4137126.221
	 5208333.331
	 6556903.184
	 8254652.041
	 10391991.22
	 13082741.83
	 16470196.14
	 20734748.46
	 26103501.74
	 32862361.68
	 41371262.21
	 52083333.31
	 58888017.66
	 65724723.36
	 82742524.42
	 104166666.6
	 127625925.2
	 156249999.9
	 181096072.2
	 208333333.2
	 260416666.6
	 312499999.9
	 364583333.2
	 416666666.5
	 468749999.8
	 520833333.1
	 572916666.4
	 624999999.8
	 677083333.1
	 729166666.4
	 781249999.7
	 833333333
	 885416666.3
	 937499999.6
	 989583332.9
	 1041666666
	 1093750000
	 1145833333
	 1197916666
	 1250000000
	 1302083333
	 1354166666
	 1406249999
	 1458333333
	 1510416666
	 1562499999
	 1614583333
	 1666666666
	 1770833333
	 1874999999
	 1979166666
	 2083333333
	 2187499999
	 2291666666
	 2395833333
	 2500000000
	 2604166666
	 2708333333
	 2812500000
	 2916666666
	 3020833333
	 3125000000
	 3229166666
	 3333333333
	 3437500000
	 3541666666
	 3645833333
	 3750000000
	 3854166666
	 3958333333
	 4062500000
	 4166666666
	 4270833333
	 4375000000
	 4479166667
	 4583333333
	 4687500000
	 4791666667
	 4895833333
	 5000000000
	 5104166667
	 5208333333
	 5312500000
	 5416666667
	 5520833333
	 5625000000
	 5729166667
	 5833333334
	 5937500000
	 6041666667
	 6145833334
	 6250000000
	 6354166667
	 6458333334
	 6562500000
	 6666666667
	 6770833334
	 6875000000
	 6979166667
	 7083333334
	 7187500000
	 7291666667
	 7395833334
	 7500000000
	 7604166667
	 7708333334
	 7812500001
	 7916666667
	 8020833334
	 8125000001
	 8229166667
	 8333333334
	 8437500001
	 8541666667
	 8645833334
	 8750000000
	 8854166667
	 8958333334
	 9062500000
	 9166666667
	 9270833334
	 9375000000
	 9479166667
	 9583333334
	 9687500000
	 9791666667
	 9895833333
	 1e+10
VAR_LIST_END

BEGIN
	 0.999999999999997557509345824656 ,	 -0 
	 0.999999999999996891375531049562 ,	 -2.32902941377233219100162386894e-09 
	 0.999999999999997557509345824656 ,	 -2.32902948038571366851101629436e-08 
	 0.999999999999968025576890795492 ,	 -2.32902942043367033875256311148e-07 
	 0.999999999996969091142773322645 ,	 -2.32902942154389336337771965191e-06 
	 0.999999999995198285418496197963 ,	 -2.93207432267017509275319753215e-06 
	 0.999999999992390753433824102103 ,	 -3.69126287402821162686450406909e-06 
	 0.999999999987940979551126474689 ,	 -4.6470246339858078954421216622e-06 
	 0.999999999980890175166337030532 ,	 -5.85025740074129885215370450169e-06 
	 0.999999999969713782022040504671 ,	 -7.3650377074852002579063992016e-06 
	 0.999999999952002394110195382382 ,	 -9.27203312772739707270375220105e-06 
	 0.99999999992392751835268427385 ,	 -1.16727981243069933725564624183e-05 
	 0.999999999879436440863855750649 ,	 -1.46951821846652563863244722597e-05 
	 0.999999999808921735677813558141 ,	 -1.85001382817517878720536828041e-05 
	 0.999999999697162023082341875124 ,	 -2.3290294202116257338275318034e-05 
	 0.999999999520035265376805000415 ,	 -2.93207432153774760763553786092e-05 
	 0.999999999239308712262186418229 ,	 -3.69126287180776557761419098824e-05 
	 0.999999998794385946965235234529 ,	 -4.64702462912303104758393601514e-05 
	 0.999999998089231567632850783411 ,	 -5.8502573913266076033323770389e-05 
	 0.999999996971637994391812753747 ,	 -7.36503768847818207632371922955e-05 
	 0.999999995200370639381048931682 ,	 -9.27203309077917481317854253575e-05 
	 0.999999992393101333476579384296 ,	 -0.000116727980490116678424783458468 
	 0.999999987943880785934425148298 ,	 -0.000146951820348295569829133455642 
	 0.999999980892339213056629887433 ,	 -0.000185001379831684076293640828226 
	 0.999999969716402592467829890666 ,	 -0.000232902936065260135478638403583 
	 0.999999952003736591876759121078 ,	 -0.000293207420260399587164101831149 
	 0.99999992393105885390980347438 ,	 -0.000369126263445540558905122452416 
	 0.999999879438875360904148692498 ,	 -0.000464702415560624970680692058522 
	 0.999999808923550226325005496619 ,	 -0.000585025644652015230917641019914 
	 0.999999697164372092217377030465 ,	 -0.000736503580332614760095566452947 
	 0.999999520038218125961293480941 ,	 -0.00092720293294812350382017029915 
	 0.999999239312699517157057016448 ,	 -0.0011672790544261513190349432989 
	 0.999998794394034717925023869611 ,	 -0.00146951670610118156901080510579 
	 0.999998089248732791034512956685 ,	 -0.00185001081069313677573973109247 
	 0.999996971676931245553987537278 ,	 -0.00232902339968221738786269270349 
	 0.999995200465563893743592416286 ,	 -0.00293206230930986855298669979675 
	 0.999992393336382345836454987875 ,	 -0.00369123890550859812265116488561 
	 0.999987944466179889957402338041 ,	 -0.00464697681421877284435595356626 
	 0.999980893807791870742107676051 ,	 -0.00585016200094723437530319642974 
	 0.999969720084872060184011388628 ,	 -0.0073648474004406327964034062461 
	 0.999952012978776005880376942514 ,	 -0.00927165354524750462417159724282 
	 0.999923954250230950790978567966 ,	 -0.0116720411632429410531130997697 
	 0.999879497045218279538403294282 ,	 -0.0146936731335267634079855270102 
	 0.999845973343594263127442900441 ,	 -0.0166129270799120210000410224893 
	 0.999808162237820763351692221477 ,	 -0.0185410379297339389381704677362 
	 0.999696092901913857531326357275 ,	 -0.0233395668079741103184687744942 
	 0.99951867641681424458965921076 ,	 -0.0293783743502573635453245515237 
	 0.999278144948261948243839469797 ,	 -0.0359873825986731787907046964392 
	 0.998919527056277622989455267088 ,	 -0.0440455291707415597102226456627 
	 0.998550602720102320475348278705 ,	 -0.0510339180915233558977206484997 
	 0.998085127656001880325220554369 ,	 -0.0586872942589362622811677283607 
	 0.997019344062892276525644774665 ,	 -0.0732967807738127419270313112065 
	 0.995726491925146728334539147909 ,	 -0.0878681482168541805322092841379 
	 0.994211018731187445851560369192 ,	 -0.102396577580364578352600801736 
	 0.992477244523074952908814339025 ,	 -0.11687815275095969624885583471 
	 0.990529180692878652436661468528 ,	 -0.131309687798824681337350739341 
	 0.98837,	-0.14568
	 0.986,	-0.16001
	 0.98343,	-0.17427
	 0.98065,	-0.18848
	 0.97768,	-0.20263
	 0.97451,	-0.21671
	 0.97114,	-0.23073
	 0.96757,	-0.24468
	 0.96381,	-0.25856
	 0.95986,	-0.27237
	 0.95572,	-0.2861
	 0.95139,	-0.29976
	 0.94686,	-0.31333
	 0.94216,	-0.32683
	 0.93726,	-0.34023
	 0.93218,	-0.35355
	 0.92692,	-0.36678
	 0.92149,	-0.37991
	 0.91587,	-0.39295
	 0.91007,	-0.40589
	 0.9041,	-0.41872
	 0.89796,	-0.43145
	 0.89165,	-0.44407
	 0.87853,	-0.46899
	 0.86475,	-0.49345
	 0.85034,	-0.51743
	 0.8353,	-0.54091
	 0.81968,	-0.56389
	 0.80347,	-0.58633
	 0.78671,	-0.60824
	 0.76942,	-0.62958
	 0.75161,	-0.65036
	 0.73331,	-0.67056
	 0.71454,	-0.69016
	 0.69532,	-0.70916
	 0.67568,	-0.72755
	 0.65563,	-0.74532
	 0.6352,	-0.76245
	 0.61441,	-0.77896
	 0.59329,	-0.79483
	 0.57185,	-0.81005
	 0.55012,	-0.82462
	 0.52811,	-0.83854
	 0.50585,	-0.85181
	 0.48337,	-0.86442
	 0.46068,	-0.87637
	 0.4378,	-0.88767
	 0.41475,	-0.89831
	 0.39155,	-0.9083
	 0.36823,	-0.91763
	 0.3448,	-0.92632
	 0.32127,	-0.93436
	 0.29768,	-0.94175
	 0.27403,	-0.9485
	 0.25035,	-0.95462
	 0.22665,	-0.96012
	 0.20295,	-0.96498
	 0.17926,	-0.96923
	 0.1556,	-0.97287
	 0.13198,	-0.9759
	 0.10843,	-0.97833
	 0.084953,	-0.98017
	 0.06156,	-0.98143
	 0.038268,	-0.98211
	 0.01509,	-0.98222
	-0.0079615,	-0.98177
	-0.030874,	-0.98077
	-0.053637,	-0.97922
	-0.076239,	-0.97714
	-0.098668,	-0.97454
	-0.12091,	-0.97141
	-0.14297,	-0.96778
	-0.16482,	-0.96364
	-0.18646,	-0.95901
	-0.20788,	-0.9539
	-0.22908,	-0.94832
	-0.25004,	-0.94227
	-0.27076,	-0.93576
	-0.29122,	-0.9288
	-0.31143,	-0.92141
	-0.33137,	-0.91359
	-0.35104,	-0.90534
	-0.37044,	-0.89668
	-0.38955,	-0.88761
	-0.40837,	-0.87815
	-0.4269,	-0.8683
	-0.44512,	-0.85807
	-0.46305,	-0.84747
	-0.48066,	-0.8365
	-0.49797,	-0.82518
	-0.51495,	-0.81351
	-0.53161,	-0.80149
	-0.54795,	-0.78915
	-0.56395,	-0.77648
	-0.57963,	-0.76349
	-0.59496,	-0.75019
	-0.60996,	-0.73658
	-0.62461,	-0.72268
	-0.63891,	-0.70849
	-0.65287,	-0.69401
	-0.66647,	-0.67925
	-0.67971,	-0.66423
	-0.6926,	-0.64894
END
BEGIN
	 5.19849647999999981042637592607e-16 ,	 0 
	 1.73645819999999994816391634879e-15 ,	 4.11630070000000006031515271973e-11 
	 1.80237768999999993573961906281e-15 ,	 4.11630184000000007216264625703e-10 
	 7.47492346000000054627870958512e-15 ,	 4.1163017999999996871805195951e-09 
	 5.75754722000000041327664935937e-13 ,	 4.11630180000000018348888712692e-08 
	 9.11494837999999935830839798385e-13 ,	 5.18211693000000006458890720006e-08 
	 1.4436056500000000587726939765e-12 ,	 6.52389867999999951894888705443e-08 
	 2.28694841000000003560276228805e-12 ,	 8.21310181999999985656324874746e-08 
	 3.62354590999999998553613529231e-12 ,	 1.03396824999999996511788533365e-07 
	 5.74192082999999974561416745812e-12 ,	 1.3016889000000000377763541802e-07 
	 9.09931678999999972783462371713e-12 ,	 1.63872922000000009259832378303e-07 
	 1.44204249000000000629075896899e-11 ,	 2.06303782999999999268729306695e-07 
	 2.28538074000000012615282735806e-11 ,	 2.59721068000000008537623413796e-07 
	 3.62198170999999997893322842244e-11 ,	 3.26969440000000002430802139436e-07 
	 5.74034829999999977715340674337e-11 ,	 4.11630112000000023142221592179e-07 
	 9.0977283e-11 ,	 5.18211557e-07 
	 1.4418803e-10 ,	 6.52389597e-07 
	 2.28521046e-10 ,	 8.2130964e-07 
	 3.62179007e-10 ,	 1.03396717e-06 
	 5.74010436e-10 ,	 1.30168674e-06 
	 9.09735221e-10 ,	 1.63872492e-06 
	 1.44180953e-09 ,	 2.06302924e-06 
	 2.28505632e-09 ,	 2.59719354e-06 
	 3.62142658e-09 ,	 3.2696602e-06 
	 5.73921511e-09 ,	 4.11623287e-06 
	 9.0951424e-09 ,	 5.18197942e-06 
	 1.44125694e-08 ,	 6.52362437e-06 
	 2.28367107e-08 ,	 8.21255464e-06 
	 3.61795112e-08 ,	 1.03385913e-05 
	 5.73049459e-08 ,	 1.30147133e-05 
	 9.07326778e-08 ,	 1.63829561e-05 
	 1.43577362e-07 ,	 2.06217424e-05 
	 2.26994185e-07 ,	 2.59549259e-05 
	 3.58363899e-07 ,	 3.26628203e-05 
	 5.64499062e-07 ,	 4.1095415e-05 
	 8.86116405e-07 ,	 5.16878036e-05 
	 1.38352866e-06 ,	 6.49775556e-05 
	 2.14263749e-06 ,	 8.16235045e-05 
	 3.27844494e-06 ,	 0.000102425824 
	 4.93055708e-06 ,	 0.000128349948 
	 7.24396951e-06 ,	 0.000160564156 
	 1.03356491e-05 ,	 0.000200512002 
	 1.42698891e-05 ,	 0.000250044697 
	 1.67255275e-05 ,	 0.00028119441 
	 1.91455281e-05 ,	 0.000312321699 
	 2.50169173e-05 ,	 0.00038936679 
	 3.2391026e-05 ,	 0.000485993331 
	 4.09136987e-05 ,	 0.000591718698 
	 5.24650431e-05 ,	 0.000720763621 
	 6.37898237e-05 ,	 0.000832797481 
	 7.77529036e-05 ,	 0.00095557119 
	 0.000109251901 ,	 0.00118996584 
	 0.000147259234 ,	 0.00142351388 
	 0.000191854543 ,	 0.00165586542 
	 0.000243034528 ,	 0.00188672264 
	 0.000300756654 ,	 0.0021158182 
	 0.00036495559 ,	 0.00234290372 
	 0.000435550221 ,	 0.00256774385 
	 0.000512446985 ,	 0.00279011311 
	 0.000595541654 ,	 0.00300979429 
	 0.000684720381 ,	 0.00322657754 
	 0.000779860414 ,	 0.00344026004 
	 0.000880830618 ,	 0.00365064582 
	 0.000987491916 ,	 0.0038575458 
	 0.00109969768 ,	 0.00406077789 
	 0.0012172941 ,	 0.00426016718 
	 0.00134012056 ,	 0.00445554609 
	 0.00146800997 ,	 0.0046467546 
	 0.00160078918 ,	 0.00483364048 
	 0.0017382793 ,	 0.00501605945 
	 0.00188029611 ,	 0.00519387545 
	 0.00202665043 ,	 0.00536696075 
	 0.00217714855 ,	 0.00553519622 
	 0.00233159257 ,	 0.0056984714 
	 0.00248978086 ,	 0.00585668473 
	 0.00265150844 ,	 0.00600974363 
	 0.00281656742 ,	 0.00615756462 
	 0.00298474742 ,	 0.00630007343 
	 0.00315583595 ,	 0.00643720505 
	 0.0035059,	 0.0066951
	 0.003865,	 0.006931
	 0.0042314,	 0.0071446
	 0.0046034,	 0.007336
	 0.0049793,	 0.0075052
	 0.0053575,	 0.0076524
	 0.0057362,	 0.0077782
	 0.006114,	 0.007883
	 0.0064893,	 0.0079674
	 0.0068607,	 0.0080322
	 0.0072269,	 0.0080783
	 0.0075866,	 0.0081067
	 0.0079388,	 0.0081184
	 0.0082823,	 0.0081146
	 0.0086163,	 0.0080965
	 0.00894,	 0.0080653
	 0.0092527,	 0.0080224
	 0.0095537,	 0.0079691
	 0.0098428,	 0.0079068
	 0.01012,	 0.0078369
	 0.010384,	 0.0077608
	 0.010635,	 0.0076799
	 0.010874,	 0.0075956
	 0.011101,	 0.0075093
	 0.011316,	 0.0074223
	 0.011519,	 0.007336
	 0.01171,	 0.0072516
	 0.011891,	 0.0071703
	 0.012062,	 0.0070932
	 0.012224,	 0.0070216
	 0.012377,	 0.0069564
	 0.012523,	 0.0068985
	 0.012663,	 0.0068489
	 0.012797,	 0.0068084
	 0.012927,	 0.0067776
	 0.013054,	 0.0067573
	 0.01318,	 0.0067478
	 0.013305,	 0.0067498
	 0.01343,	 0.0067635
	 0.013558,	 0.0067891
	 0.01369,	 0.0068268
	 0.013827,	 0.0068766
	 0.01397,	 0.0069384
	 0.014122,	 0.007012
	 0.014282,	 0.0070971
	 0.014454,	 0.0071933
	 0.014638,	 0.0073
	 0.014835,	 0.0074166
	 0.015047,	 0.0075423
	 0.015275,	 0.0076763
	 0.01552,	 0.0078176
	 0.015784,	 0.0079651
	 0.016068,	 0.0081177
	 0.016372,	 0.0082742
	 0.016697,	 0.0084331
	 0.017044,	 0.0085932
	 0.017414,	 0.008753
	 0.017808,	 0.008911
	 0.018225,	 0.0090657
	 0.018667,	 0.0092156
	 0.019133,	 0.0093591
	 0.019623,	 0.0094946
	 0.020138,	 0.0096206
	 0.020677,	 0.0097357
	 0.021241,	 0.0098384
	 0.021827,	 0.0099273
	 0.022438,	 0.010001
	 0.023071,	 0.010058
	 0.023726,	 0.010098
	 0.024403,	 0.01012
	 0.025101,	 0.010121
	 0.02582,	 0.010103
	 0.026558,	 0.010063
	 0.027315,	 0.010001
	 0.028091,	 0.0099169
	 0.028885,	 0.0098098
	 0.029696,	 0.0096793
	 0.030524,	 0.0095252
	 0.031369,	 0.0093472
	 0.032231,	 0.0091451
END
BEGIN
	 5.19849647999999981042637592607e-16 ,	 0 
	 1.73645819999999994816391634879e-15 ,	 4.11630070000000006031515271973e-11 
	 1.80237768999999993573961906281e-15 ,	 4.11630184000000007216264625703e-10 
	 7.47492346000000054627870958512e-15 ,	 4.1163017999999996871805195951e-09 
	 5.75754722000000041327664935937e-13 ,	 4.11630180000000018348888712692e-08 
	 9.11494837999999935830839798385e-13 ,	 5.18211693000000006458890720006e-08 
	 1.4436056500000000587726939765e-12 ,	 6.52389867999999951894888705443e-08 
	 2.28694841000000003560276228805e-12 ,	 8.21310181999999985656324874746e-08 
	 3.62354590999999998553613529231e-12 ,	 1.03396824999999996511788533365e-07 
	 5.74192082999999974561416745812e-12 ,	 1.3016889000000000377763541802e-07 
	 9.09931678999999972783462371713e-12 ,	 1.63872922000000009259832378303e-07 
	 1.44204249000000000629075896899e-11 ,	 2.06303782999999999268729306695e-07 
	 2.28538074000000012615282735806e-11 ,	 2.59721068000000008537623413796e-07 
	 3.62198170999999997893322842244e-11 ,	 3.26969440000000002430802139436e-07 
	 5.74034829999999977715340674337e-11 ,	 4.11630112000000023142221592179e-07 
	 9.0977283e-11 ,	 5.18211557e-07 
	 1.4418803e-10 ,	 6.52389597e-07 
	 2.28521046e-10 ,	 8.2130964e-07 
	 3.62179007e-10 ,	 1.03396717e-06 
	 5.74010436e-10 ,	 1.30168674e-06 
	 9.09735221e-10 ,	 1.63872492e-06 
	 1.44180953e-09 ,	 2.06302924e-06 
	 2.28505632e-09 ,	 2.59719354e-06 
	 3.62142658e-09 ,	 3.2696602e-06 
	 5.73921511e-09 ,	 4.11623287e-06 
	 9.0951424e-09 ,	 5.18197942e-06 
	 1.44125694e-08 ,	 6.52362437e-06 
	 2.28367107e-08 ,	 8.21255464e-06 
	 3.61795112e-08 ,	 1.03385913e-05 
	 5.73049459e-08 ,	 1.30147133e-05 
	 9.07326778e-08 ,	 1.63829561e-05 
	 1.43577362e-07 ,	 2.06217424e-05 
	 2.26994185e-07 ,	 2.59549259e-05 
	 3.58363899e-07 ,	 3.26628203e-05 
	 5.64499062e-07 ,	 4.1095415e-05 
	 8.86116405e-07 ,	 5.16878036e-05 
	 1.38352866e-06 ,	 6.49775556e-05 
	 2.14263749e-06 ,	 8.16235045e-05 
	 3.27844494e-06 ,	 0.000102425824 
	 4.93055708e-06 ,	 0.000128349948 
	 7.24396951e-06 ,	 0.000160564156 
	 1.03356491e-05 ,	 0.000200512002 
	 1.42698891e-05 ,	 0.000250044697 
	 1.67255275e-05 ,	 0.00028119441 
	 1.91455281e-05 ,	 0.000312321699 
	 2.50169173e-05 ,	 0.00038936679 
	 3.2391026e-05 ,	 0.000485993331 
	 4.09136987e-05 ,	 0.000591718698 
	 5.24650431e-05 ,	 0.000720763621 
	 6.37898237e-05 ,	 0.000832797481 
	 7.77529036e-05 ,	 0.00095557119 
	 0.000109251901 ,	 0.00118996584 
	 0.000147259234 ,	 0.00142351388 
	 0.000191854543 ,	 0.00165586542 
	 0.000243034528 ,	 0.00188672264 
	 0.000300756654 ,	 0.0021158182 
	 0.00036495559 ,	 0.00234290372 
	 0.000435550221 ,	 0.00256774385 
	 0.000512446985 ,	 0.00279011311 
	 0.000595541654 ,	 0.00300979429 
	 0.000684720381 ,	 0.00322657754 
	 0.000779860414 ,	 0.00344026004 
	 0.000880830618 ,	 0.00365064582 
	 0.000987491916 ,	 0.0038575458 
	 0.00109969768 ,	 0.00406077789 
	 0.0012172941 ,	 0.00426016718 
	 0.00134012056 ,	 0.00445554609 
	 0.00146800997 ,	 0.0046467546 
	 0.00160078918 ,	 0.00483364048 
	 0.0017382793 ,	 0.00501605945 
	 0.00188029611 ,	 0.00519387545 
	 0.00202665043 ,	 0.00536696075 
	 0.00217714855 ,	 0.00553519622 
	 0.00233159257 ,	 0.0056984714 
	 0.00248978086 ,	 0.00585668473 
	 0.00265150844 ,	 0.00600974363 
	 0.00281656742 ,	 0.00615756462 
	 0.00298474742 ,	 0.00630007343 
	 0.00315583595 ,	 0.00643720505 
	 0.0035059,	 0.0066951
	 0.003865,	 0.006931
	 0.0042314,	 0.0071446
	 0.0046034,	 0.007336
	 0.0049793,	 0.0075052
	 0.0053575,	 0.0076524
	 0.0057362,	 0.0077782
	 0.006114,	 0.007883
	 0.0064893,	 0.0079674
	 0.0068607,	 0.0080322
	 0.0072269,	 0.0080783
	 0.0075866,	 0.0081067
	 0.0079388,	 0.0081184
	 0.0082823,	 0.0081146
	 0.0086163,	 0.0080965
	 0.00894,	 0.0080653
	 0.0092527,	 0.0080224
	 0.0095537,	 0.0079691
	 0.0098428,	 0.0079068
	 0.01012,	 0.0078369
	 0.010384,	 0.0077608
	 0.010635,	 0.0076799
	 0.010874,	 0.0075956
	 0.011101,	 0.0075093
	 0.011316,	 0.0074223
	 0.011519,	 0.007336
	 0.01171,	 0.0072516
	 0.011891,	 0.0071703
	 0.012062,	 0.0070932
	 0.012224,	 0.0070216
	 0.012377,	 0.0069564
	 0.012523,	 0.0068985
	 0.012663,	 0.0068489
	 0.012797,	 0.0068084
	 0.012927,	 0.0067776
	 0.013054,	 0.0067573
	 0.01318,	 0.0067478
	 0.013305,	 0.0067498
	 0.01343,	 0.0067635
	 0.013558,	 0.0067891
	 0.01369,	 0.0068268
	 0.013827,	 0.0068766
	 0.01397,	 0.0069384
	 0.014122,	 0.007012
	 0.014282,	 0.0070971
	 0.014454,	 0.0071933
	 0.014638,	 0.0073
	 0.014835,	 0.0074166
	 0.015047,	 0.0075423
	 0.015275,	 0.0076763
	 0.01552,	 0.0078176
	 0.015784,	 0.0079651
	 0.016068,	 0.0081177
	 0.016372,	 0.0082742
	 0.016697,	 0.0084331
	 0.017044,	 0.0085932
	 0.017414,	 0.008753
	 0.017808,	 0.008911
	 0.018225,	 0.0090657
	 0.018667,	 0.0092156
	 0.019133,	 0.0093591
	 0.019623,	 0.0094946
	 0.020138,	 0.0096206
	 0.020677,	 0.0097357
	 0.021241,	 0.0098384
	 0.021827,	 0.0099273
	 0.022438,	 0.010001
	 0.023071,	 0.010058
	 0.023726,	 0.010098
	 0.024403,	 0.01012
	 0.025101,	 0.010121
	 0.02582,	 0.010103
	 0.026558,	 0.010063
	 0.027315,	 0.010001
	 0.028091,	 0.0099169
	 0.028885,	 0.0098098
	 0.029696,	 0.0096793
	 0.030524,	 0.0095252
	 0.031369,	 0.0093472
	 0.032231,	 0.0091451
END
BEGIN
	 0.999999999999998445687765524781 ,	 -0 
	 0.999999999999997557509345824656 ,	 -2.32953323298090708703966811299e-09 
	 0.999999999999998001598555674718 ,	 -2.32953296652738117700209841132e-08 
	 0.999999999999966693309261245304 ,	 -2.32953295542515093075053300709e-07 
	 0.999999999996968202964353622519 ,	 -2.32953295542515093075053300709e-06 
	 0.999999999995195398838632172556 ,	 -2.93270823492619570060924161226e-06 
	 0.99999999999238675663093545154 ,	 -3.69206092254437123756360961124e-06 
	 0.999999999987936538659027974063 ,	 -4.64802931743335534520156215876e-06 
	 0.999999999980882403605164654437 ,	 -5.85152222165596924696728819981e-06 
	 0.999999999969700681390349927824 ,	 -7.3666300233199422109464649111e-06 
	 0.999999999951980411694307804282 ,	 -9.27403773487434079925151308998e-06 
