CITIFILE A.01.01
#Momentum: B.12.070 (*) built: Feb 13 2020 
#Momentum Date and Time: Tue Sep  6 23:29:58 2022

NAME Momentum.SP

#  mode: MW    reference: S_50

#eesof Port[1] P1
#eesof Port[2] P2

CONSTANT NBR_OF_PORTS 2

CONSTANT NORMALIZATION 1

VAR freq MAG 154

DATA S[1,1] RI
DATA S[1,2] RI
DATA S[2,1] RI
DATA S[2,2] RI
DATA PORTZ[1] RI
DATA PORTZ[2] RI

VAR_LIST_BEGIN
	 0
	 8.274252442
	 82.74252442
	 827.4252442
	 8274.252442
	 10416.66666
	 13113.80637
	 16509.30408
	 20783.98244
	 26165.48365
	 32940.39228
	 41469.49692
	 52207.00348
	 65724.72336
	 82742.52442
	 104166.6666
	 131138.0637
	 165093.0408
	 207839.8244
	 261654.8365
	 329403.9228
	 414694.9692
	 522070.0348
	 657247.2336
	 827425.2442
	 1041666.666
	 1311380.637
	 1650930.408
	 2078398.244
	 2616548.365
	 3294039.228
	 4146949.692
	 5220700.348
	 6572472.336
	 8274252.442
	 10416666.66
	 13113806.37
	 16509304.08
	 20783982.44
	 26165483.65
	 32940392.28
	 41469496.92
	 52207003.48
	 65724723.36
	 82742524.42
	 104166666.6
	 117776035.3
	 131449446.7
	 165485048.8
	 208333333.2
	 255251850.3
	 312499999.9
	 362192144.3
	 416666666.5
	 468749999.8
	 520833333.1
	 572916666.4
	 624999999.8
	 677083333.1
	 729166666.4
	 781249999.7
	 833333333
	 937499999.6
	 1041666666
	 1145833333
	 1250000000
	 1302083333
	 1354166666
	 1406249999
	 1458333333
	 1510416666
	 1562499999
	 1614583333
	 1666666666
	 1770833333
	 1874999999
	 1979166666
	 2083333333
	 2187499999
	 2291666666
	 2395833333
	 2500000000
	 2604166666
	 2708333333
	 2812500000
	 2916666666
	 3020833333
	 3125000000
	 3229166666
	 3333333333
	 3437500000
	 3541666666
	 3645833333
	 3750000000
	 3854166666
	 3958333333
	 4062500000
	 4166666666
	 4270833333
	 4375000000
	 4479166667
	 4583333333
	 4687500000
	 4791666667
	 4895833333
	 5000000000
	 5104166667
	 5208333333
	 5312500000
	 5416666667
	 5520833333
	 5625000000
	 5729166667
	 5833333334
	 5937500000
	 6041666667
	 6145833334
	 6250000000
	 6354166667
	 6458333334
	 6562500000
	 6666666667
	 6770833334
	 6875000000
	 6979166667
	 7083333334
	 7187500000
	 7291666667
	 7395833334
	 7500000000
	 7604166667
	 7708333334
	 7812500001
	 7916666667
	 8020833334
	 8125000001
	 8229166667
	 8333333334
	 8437500001
	 8541666667
	 8645833334
	 8750000000
	 8854166667
	 8958333334
	 9062500000
	 9166666667
	 9270833334
	 9375000000
	 9479166667
	 9583333334
	 9687500000
	 9791666667
	 9895833333
	 1e+10
VAR_LIST_END

BEGIN
	 0.999999999999998778754672912328 ,	 -0 
	 1.00000000000000333066907387547 ,	 -2.25114171747975433390820398927e-09 
	 1.00000000000000377475828372553 ,	 -2.2511420949555827064614277333e-08 
	 0.999999999999974575892736083915 ,	 -2.25114207774712582477150135674e-07 
	 0.999999999997161381770638399757 ,	 -2.25114208007859417648433009163e-06 
	 0.999999999995498378702052377776 ,	 -2.83401996958865254327974980697e-06 
	 0.999999999992863486397709493758 ,	 -3.56781975724418387585501477588e-06 
	 0.999999999988687049423674579884 ,	 -4.49161895726968296571612881962e-06 
	 0.999999999982068343840069246653 ,	 -5.65461324525395880868927633855e-06 
	 0.99999999997157917874801569269 ,	 -7.11873630787618338899847003631e-06 
	 0.999999999954953810998858898529 ,	 -8.96195803806731916552053007763e-06 
	 0.999999999928604554888522670808 ,	 -1.12824367132779990186008944875e-05 
	 0.999999999886844181951062182634 ,	 -1.4203746284913165709440363571e-05 
	 0.999999999820658125315731012961 ,	 -1.7881457139823364599351407378e-05 
	 0.999999999715759591012442797364 ,	 -2.25114207911825126018356968416e-05 
	 0.999999999549507689877714255999 ,	 -2.83401996854504290013210265897e-05 
	 0.99999999928601490672974705376 ,	 -3.56781975504039117197407904314e-05 
	 0.999999998868408179752975684096 ,	 -4.49161895267335964376798074227e-05 
	 0.999999998206546392154336899694 ,	 -5.65461323622784561848675366491e-05 
	 0.999999997157565601035855706868 ,	 -7.11873629032355736967474513222e-05 
	 0.999999995495043036974891492719 ,	 -8.96195800241805784480675356463e-05 
	 0.999999992860122866034089383902 ,	 -0.000112824366422514810182065048139 
	 0.999999988684055596266375687264 ,	 -0.000142037461429378453203753451817 
	 0.999999982065435166767031205381 ,	 -0.00017881456856455590909149577783 
	 0.999999971575629031939058677381 ,	 -0.000225114202257903350812284770655 
	 0.999999954950410052667564286821 ,	 -0.000283401985575582049392551198252 
	 0.999999928601217780155252512486 ,	 -0.000356781953006535257344467026996 
	 0.99999988684057572463359520043 ,	 -0.000449161850377743920859074933105 
	 0.999999820654449589341083992622 ,	 -0.000565461234061925832605766117922 
	 0.999999715756589191428815865947 ,	 -0.000711873450331190760209665313596 
	 0.999999549504887230710892254137 ,	 -0.000896195443691627513516095859814 
	 0.999999286014203181416348797939 ,	 -0.0011282429528052806411153596855 
	 0.999998868410885477508998064877 ,	 -0.0014203731948439490828661746491 
	 0.99999820655743010267002546243 ,	 -0.00178814285351086565967193564575 
	 0.99999715759843188500610722258 ,	 -0.00225113637186397097522672083869 
	 0.999995495130643341497034271015 ,	 -0.00283400858149890355619504589413 
	 0.999992860347459933123559494561 ,	 -0.00356779703627008171196166586014 
	 0.999988684624835588721225576592 ,	 -0.00449157362681656957548170794325 
	 0.999982066870109709277869569632 ,	 -0.00565452281221057173610233803629 
	 0.999971579237986296639917327411 ,	 -0.00711855591138305099363492445264 
	 0.999954959474141702457927749492 ,	 -0.0089615982278669625848976920679 
	 0.999928623970428032130541851075 ,	 -0.0112817192039065816722143154038 
	 0.999886897649936434717687916418 ,	 -0.0142023159472031146322024142137 
	 0.999820797492256829741563706193 ,	 -0.0178786072784863359075302469137 
	 0.999716114607747785569813459006 ,	 -0.0225057472589798579498676645017 
	 0.999550399092794528144167998107 ,	 -0.0283289192314356563784372156078 
	 0.999425556323945918357765094697 ,	 -0.0320265832835782693344128801982 
	 0.999284866635702817561082156317 ,	 -0.0357403722627547271173398257815 
	 0.998868596461444768763726642646 ,	 -0.04497825054321136217794219192 
	 0.998211709390099399819007430779 ,	 -0.056592604101786292414288936925 
	 0.997324958206803224847192268498 ,	 -0.0692866371220784427187311393936 
	 0.996010173469769277687646535924 ,	 -0.0847364742910817758669850263686 
	 0.994665576823269947936978496728 ,	 -0.0981081940525651008400132013776 
	 0.992978899122373137586805569299 ,	 -0.112721412672075027572304861678 
	 0.991162140989246487343677927129 ,	 -0.126645903201518750247345224125 
	 0.98914,	-0.14052
	 0.98694,	-0.15434
	 0.98454,	-0.16812
	 0.98196,	-0.18183
	 0.97918,	-0.1955
	 0.97623,	-0.2091
	 0.97309,	-0.22265
	 0.96626,	-0.24956
	 0.95871,	-0.2762
	 0.95046,	-0.30257
	 0.9415,	-0.32863
	 0.93677,	-0.34154
	 0.93186,	-0.35437
	 0.92679,	-0.36711
	 0.92154,	-0.37977
	 0.91613,	-0.39234
	 0.91056,	-0.40481
	 0.90483,	-0.41719
	 0.89893,	-0.42947
	 0.88667,	-0.45374
	 0.87379,	-0.47759
	 0.86031,	-0.501
	 0.84624,	-0.52397
	 0.83161,	-0.54647
	 0.81643,	-0.56849
	 0.80072,	-0.59001
	 0.7845,	-0.61103
	 0.76779,	-0.63153
	 0.7506,	-0.6515
	 0.73296,	-0.67092
	 0.71488,	-0.68979
	 0.69639,	-0.70811
	 0.67751,	-0.72585
	 0.65825,	-0.74302
	 0.63864,	-0.7596
	 0.61869,	-0.7756
	 0.59843,	-0.791
	 0.57787,	-0.8058
	 0.55704,	-0.82
	 0.53595,	-0.8336
	 0.51463,	-0.84659
	 0.49308,	-0.85897
	 0.47134,	-0.87074
	 0.44942,	-0.8819
	 0.42734,	-0.89245
	 0.40512,	-0.90239
	 0.38277,	-0.91173
	 0.36031,	-0.92046
	 0.33776,	-0.92859
	 0.31514,	-0.93612
	 0.29246,	-0.94306
	 0.26973,	-0.94941
	 0.24698,	-0.95516
	 0.22422,	-0.96034
	 0.20147,	-0.96494
	 0.17873,	-0.96897
	 0.15602,	-0.97243
	 0.13336,	-0.97533
	 0.11076,	-0.97768
	 0.088234,	-0.97948
	 0.065787,	-0.98074
	 0.043437,	-0.98147
	 0.021194,	-0.98167
	-0.0009311,	-0.98135
	-0.022926,	-0.98053
	-0.044782,	-0.9792
	-0.066488,	-0.97737
	-0.088034,	-0.97505
	-0.10941,	-0.97226
	-0.13061,	-0.96899
	-0.15162,	-0.96526
	-0.17244,	-0.96107
	-0.19306,	-0.95644
	-0.21347,	-0.95136
	-0.23366,	-0.94585
	-0.25363,	-0.93992
	-0.27337,	-0.93357
	-0.29287,	-0.92681
	-0.31213,	-0.91965
	-0.33114,	-0.9121
	-0.34989,	-0.90417
	-0.36839,	-0.89586
	-0.38662,	-0.88718
	-0.40458,	-0.87813
	-0.42227,	-0.86874
	-0.43968,	-0.85899
	-0.45681,	-0.84891
	-0.47365,	-0.8385
	-0.4902,	-0.82776
	-0.50646,	-0.8167
	-0.52242,	-0.80533
	-0.53807,	-0.79366
	-0.55343,	-0.78169
	-0.56847,	-0.76943
	-0.58321,	-0.75689
	-0.59763,	-0.74406
	-0.61174,	-0.73097
	-0.62553,	-0.71761
	-0.639,	-0.704
END
BEGIN
	 8.02301767000000069832209725388e-18 ,	 0 
	 5.60315683000000048924911572688e-16 ,	 2.9251589200000002126813628453e-11 
	 6.8521577299999995206258662057e-16 ,	 2.92515896999999991842719690424e-10 
	 1.29393024000000005975330619385e-14 ,	 2.92515899000000011091826023521e-09 
	 1.23792122000000009849664514776e-12 ,	 2.92515894999999993273128671154e-08 
	 1.96164958999999991174858970679e-12 ,	 3.68255692000000033041885293822e-08 
	 3.10868170999999989420030420393e-12 ,	 4.63606443999999998292546187113e-08 
	 4.92659558999999982730099494945e-12 ,	 5.83645923000000009120398849777e-08 
	 7.8078116900000005198532916704e-12 ,	 7.34766666000000063258481446983e-08 
	 1.23742093000000000390218418765e-11 ,	 9.25016388999999958011685881852e-08 
	 1.96114686999999986842807254892e-11 ,	 1.16452656000000000124389588473e-07 
	 3.1081741299999997918689612613e-11 ,	 1.46605192999999993563517691059e-07 
	 4.92608558000000026091973597686e-11 ,	 1.84564972999999993353886958147e-07 
	 7.80727530999999978659633188118e-11 ,	 2.32353474999999992076137392272e-07 
	 1.23736315999999996869731343902e-10 ,	 2.92515576000000020625267400237e-07 
	 1.9610771e-10 ,	 3.68255053e-07 
	 3.10807385e-10 ,	 4.6360517e-07 
	 4.92591024e-10 ,	 5.83643382e-07 
	 7.80690866e-10 ,	 7.34761596e-07 
	 1.23727874e-09 ,	 9.25006274e-07 
	 1.96087252e-09 ,	 1.16450638e-06 
	 3.10756771e-09 ,	 1.46601167e-06 
	 4.92464658e-09 ,	 1.8455694e-06 
	 7.8037427e-09 ,	 2.3233745e-06 
	 1.23648449e-08 ,	 2.92483609e-06 
	 1.95887916e-08 ,	 3.68191299e-06 
	 3.10256517e-08 ,	 4.63478053e-06 
	 4.91209662e-08 ,	 5.8339003e-06 
	 7.77227939e-08 ,	 7.34256975e-06 
	 1.22860512e-07 ,	 9.24002203e-06 
	 1.93918118e-07 ,	 1.16251173e-05 
	 3.05345627e-07 ,	 1.46205911e-05 
	 4.79018828e-07 ,	 1.83776785e-05 
	 7.47166488e-07 ,	 2.30806938e-05 
	 1.15523148e-06 ,	 2.89508926e-05 
	 1.76283635e-06 ,	 3.62490198e-05 
	 2.63914853e-06 ,	 4.52772978e-05 
	 3.84764396e-06 ,	 5.63857406e-05 
	 5.4185626e-06 ,	 6.99947496e-05 
	 7.32008809e-06 ,	 8.66497382e-05 
	 9.45592068e-06 ,	 0.000107110614 
	 1.17128185e-05 ,	 0.000132448706 
	 1.40437111e-05 ,	 0.000164111416 
	 1.65412266e-05 ,	 0.000203950292 
	 1.9478311e-05 ,	 0.000254252569 
	 2.33385277e-05 ,	 0.000317815893 
	 2.60213982e-05 ,	 0.000358290224 
	 2.89469118e-05 ,	 0.000399002571 
	 3.73571373e-05 ,	 0.000500437199 
	 5.04032981e-05 ,	 0.000628099333 
	 6.7941971e-05 ,	 0.000767583408 
	 9.39904997e-05 ,	 0.000937053919 
	 0.000120733114 ,	 0.00108330319 
	 0.000154425332 ,	 0.00124251455 
	 0.000190870293 ,	 0.00139347402 
	 0.000231394641 ,	 0.00154303464 
	 0.000275933923 ,	 0.0016910416 
	 0.000324416544 ,	 0.0018373454 
	 0.000376764208 ,	 0.00198180135 
	 0.000432892237 ,	 0.00212426936 
	 0.000492709824 ,	 0.00226461393 
	 0.000556120269 ,	 0.00240270421 
	 0.000693304851 ,	 0.00267162278 
	 0.000843563257 ,	 0.0029300778 
	 0.00100593344 ,	 0.00317720781 
	 0.00117938216 ,	 0.00341224329 
	 0.00126992072 ,	 0.00352501166 
	 0.00136281361 ,	 0.00363451235 
	 0.00145791557 ,	 0.00374067748 
	 0.00155507865 ,	 0.00384344583 
	 0.00165415243 ,	 0.00394276302 
	 0.00175498443 ,	 0.00403858155 
	 0.00185742035 ,	 0.00413086093 
	 0.00196130443 ,	 0.00421956773 
	 0.00217278875 ,	 0.00438616546 
	 0.00238817465 ,	 0.00453825014 
	 0.00260619705 ,	 0.00467581197 
	 0.00282559915 ,	 0.00479895534 
	 0.00304514275 ,	 0.00490789725 
	 0.00326361837 ,	 0.00500296475 
	 0.00347985507 ,	 0.00508459138 
	 0.00369272962 ,	 0.00515331275 
	 0.00390117531 ,	 0.00520976127 
	 0.00410418995 ,	 0.00525466014 
	 0.00430084324 ,	 0.00528881666 
	 0.00449028334 ,	 0.00531311499 
	 0.0046717,	 0.0053285
	 0.0048445,	 0.005336
	 0.0050081,	 0.0053367
	 0.0051619,	 0.0053317
	 0.0053056,	 0.0053221
	 0.0054389,	 0.0053091
	 0.0055616,	 0.0052939
	 0.0056736,	 0.0052777
	 0.0057749,	 0.0052617
	 0.0058657,	 0.0052472
	 0.0059461,	 0.0052352
	 0.0060164,	 0.0052271
	 0.0060771,	 0.0052238
	 0.0061287,	 0.0052266
	 0.0061717,	 0.0052365
	 0.0062067,	 0.0052545
	 0.0062346,	 0.0052816
	 0.0062562,	 0.0053188
	 0.0062722,	 0.0053669
	 0.0062838,	 0.0054267
	 0.0062919,	 0.0054989
	 0.0062976,	 0.0055843
	 0.006302,	 0.0056834
	 0.0063064,	 0.0057968
	 0.0063119,	 0.0059248
	 0.0063199,	 0.0060679
	 0.0063317,	 0.0062262
	 0.0063486,	 0.0064
	 0.0063719,	 0.0065894
	 0.0064031,	 0.0067943
	 0.0064436,	 0.0070146
	 0.0064947,	 0.0072501
	 0.0065579,	 0.0075005
	 0.0066346,	 0.0077653
	 0.0067261,	 0.0080441
	 0.0068338,	 0.0083363
	 0.006959,	 0.008641
	 0.007103,	 0.0089576
	 0.007267,	 0.009285
	 0.0074521,	 0.0096223
	 0.0076596,	 0.0099684
	 0.0078902,	 0.010322
	 0.0081451,	 0.010682
	 0.0084251,	 0.011048
	 0.0087309,	 0.011417
	 0.0090632,	 0.011788
	 0.0094225,	 0.01216
	 0.0098093,	 0.012532
	 0.010224,	 0.012902
	 0.010667,	 0.013268
	 0.011137,	 0.013629
	 0.011636,	 0.013984
	 0.012164,	 0.014331
	 0.012719,	 0.014669
	 0.013302,	 0.014997
	 0.013912,	 0.015313
	 0.01455,	 0.015616
	 0.015214,	 0.015906
	 0.015904,	 0.01618
	 0.016621,	 0.016439
	 0.017362,	 0.016682
	 0.018128,	 0.016907
	 0.018919,	 0.017114
	 0.019733,	 0.017304
	 0.020572,	 0.017474
	 0.021433,	 0.017626
	 0.022318,	 0.017758
	 0.023225,	 0.017872
END
BEGIN
	 8.02301767000000069832209725388e-18 ,	 0 
	 5.60315683000000048924911572688e-16 ,	 2.9251589200000002126813628453e-11 
	 6.8521577299999995206258662057e-16 ,	 2.92515896999999991842719690424e-10 
	 1.29393024000000005975330619385e-14 ,	 2.92515899000000011091826023521e-09 
	 1.23792122000000009849664514776e-12 ,	 2.92515894999999993273128671154e-08 
	 1.96164958999999991174858970679e-12 ,	 3.68255692000000033041885293822e-08 
	 3.10868170999999989420030420393e-12 ,	 4.63606443999999998292546187113e-08 
	 4.92659558999999982730099494945e-12 ,	 5.83645923000000009120398849777e-08 
	 7.8078116900000005198532916704e-12 ,	 7.34766666000000063258481446983e-08 
	 1.23742093000000000390218418765e-11 ,	 9.25016388999999958011685881852e-08 
	 1.96114686999999986842807254892e-11 ,	 1.16452656000000000124389588473e-07 
	 3.1081741299999997918689612613e-11 ,	 1.46605192999999993563517691059e-07 
	 4.92608558000000026091973597686e-11 ,	 1.84564972999999993353886958147e-07 
	 7.80727530999999978659633188118e-11 ,	 2.32353474999999992076137392272e-07 
	 1.23736315999999996869731343902e-10 ,	 2.92515576000000020625267400237e-07 
	 1.9610771e-10 ,	 3.68255053e-07 
	 3.10807385e-10 ,	 4.6360517e-07 
	 4.92591024e-10 ,	 5.83643382e-07 
	 7.80690866e-10 ,	 7.34761596e-07 
	 1.23727874e-09 ,	 9.25006274e-07 
	 1.96087252e-09 ,	 1.16450638e-06 
	 3.10756771e-09 ,	 1.46601167e-06 
	 4.92464658e-09 ,	 1.8455694e-06 
	 7.8037427e-09 ,	 2.3233745e-06 
	 1.23648449e-08 ,	 2.92483609e-06 
	 1.95887916e-08 ,	 3.68191299e-06 
	 3.10256517e-08 ,	 4.63478053e-06 
	 4.91209662e-08 ,	 5.8339003e-06 
	 7.77227939e-08 ,	 7.34256975e-06 
	 1.22860512e-07 ,	 9.24002203e-06 
	 1.93918118e-07 ,	 1.16251173e-05 
	 3.05345627e-07 ,	 1.46205911e-05 
	 4.79018828e-07 ,	 1.83776785e-05 
	 7.47166488e-07 ,	 2.30806938e-05 
	 1.15523148e-06 ,	 2.89508926e-05 
	 1.76283635e-06 ,	 3.62490198e-05 
	 2.63914853e-06 ,	 4.52772978e-05 
	 3.84764396e-06 ,	 5.63857406e-05 
	 5.4185626e-06 ,	 6.99947496e-05 
	 7.32008809e-06 ,	 8.66497382e-05 
	 9.45592068e-06 ,	 0.000107110614 
	 1.17128185e-05 ,	 0.000132448706 
	 1.40437111e-05 ,	 0.000164111416 
	 1.65412266e-05 ,	 0.000203950292 
	 1.9478311e-05 ,	 0.000254252569 
	 2.33385277e-05 ,	 0.000317815893 
	 2.60213982e-05 ,	 0.000358290224 
	 2.89469118e-05 ,	 0.000399002571 
	 3.73571373e-05 ,	 0.000500437199 
	 5.04032981e-05 ,	 0.000628099333 
	 6.7941971e-05 ,	 0.000767583408 
	 9.39904997e-05 ,	 0.000937053919 
	 0.000120733114 ,	 0.00108330319 
	 0.000154425332 ,	 0.00124251455 
	 0.000190870293 ,	 0.00139347402 
	 0.000231394641 ,	 0.00154303464 
	 0.000275933923 ,	 0.0016910416 
	 0.000324416544 ,	 0.0018373454 
	 0.000376764208 ,	 0.00198180135 
	 0.000432892237 ,	 0.00212426936 
	 0.000492709824 ,	 0.00226461393 
	 0.000556120269 ,	 0.00240270421 
	 0.000693304851 ,	 0.00267162278 
	 0.000843563257 ,	 0.0029300778 
	 0.00100593344 ,	 0.00317720781 
	 0.00117938216 ,	 0.00341224329 
	 0.00126992072 ,	 0.00352501166 
	 0.00136281361 ,	 0.00363451235 
	 0.00145791557 ,	 0.00374067748 
	 0.00155507865 ,	 0.00384344583 
	 0.00165415243 ,	 0.00394276302 
	 0.00175498443 ,	 0.00403858155 
	 0.00185742035 ,	 0.00413086093 
	 0.00196130443 ,	 0.00421956773 
	 0.00217278875 ,	 0.00438616546 
	 0.00238817465 ,	 0.00453825014 
	 0.00260619705 ,	 0.00467581197 
	 0.00282559915 ,	 0.00479895534 
	 0.00304514275 ,	 0.00490789725 
	 0.00326361837 ,	 0.00500296475 
	 0.00347985507 ,	 0.00508459138 
	 0.00369272962 ,	 0.00515331275 
	 0.00390117531 ,	 0.00520976127 
	 0.00410418995 ,	 0.00525466014 
	 0.00430084324 ,	 0.00528881666 
	 0.00449028334 ,	 0.00531311499 
	 0.0046717,	 0.0053285
	 0.0048445,	 0.005336
	 0.0050081,	 0.0053367
	 0.0051619,	 0.0053317
	 0.0053056,	 0.0053221
	 0.0054389,	 0.0053091
	 0.0055616,	 0.0052939
	 0.0056736,	 0.0052777
	 0.0057749,	 0.0052617
	 0.0058657,	 0.0052472
	 0.0059461,	 0.0052352
	 0.0060164,	 0.0052271
	 0.0060771,	 0.0052238
	 0.0061287,	 0.0052266
	 0.0061717,	 0.0052365
	 0.0062067,	 0.0052545
	 0.0062346,	 0.0052816
	 0.0062562,	 0.0053188
	 0.0062722,	 0.0053669
	 0.0062838,	 0.0054267
	 0.0062919,	 0.0054989
	 0.0062976,	 0.0055843
	 0.006302,	 0.0056834
	 0.0063064,	 0.0057968
	 0.0063119,	 0.0059248
	 0.0063199,	 0.0060679
	 0.0063317,	 0.0062262
	 0.0063486,	 0.0064
	 0.0063719,	 0.0065894
	 0.0064031,	 0.0067943
	 0.0064436,	 0.0070146
	 0.0064947,	 0.0072501
	 0.0065579,	 0.0075005
	 0.0066346,	 0.0077653
	 0.0067261,	 0.0080441
	 0.0068338,	 0.0083363
	 0.006959,	 0.008641
	 0.007103,	 0.0089576
	 0.007267,	 0.009285
	 0.0074521,	 0.0096223
	 0.0076596,	 0.0099684
	 0.0078902,	 0.010322
	 0.0081451,	 0.010682
	 0.0084251,	 0.011048
	 0.0087309,	 0.011417
	 0.0090632,	 0.011788
	 0.0094225,	 0.01216
	 0.0098093,	 0.012532
	 0.010224,	 0.012902
	 0.010667,	 0.013268
	 0.011137,	 0.013629
	 0.011636,	 0.013984
	 0.012164,	 0.014331
	 0.012719,	 0.014669
	 0.013302,	 0.014997
	 0.013912,	 0.015313
	 0.01455,	 0.015616
	 0.015214,	 0.015906
	 0.015904,	 0.01618
	 0.016621,	 0.016439
	 0.017362,	 0.016682
	 0.018128,	 0.016907
	 0.018919,	 0.017114
	 0.019733,	 0.017304
	 0.020572,	 0.017474
	 0.021433,	 0.017626
	 0.022318,	 0.017758
	 0.023225,	 0.017872
END
BEGIN
	 0.999999999999998445687765524781 ,	 -0 
	 1.00000000000000333066907387547 ,	 -2.25195390113341886717535089701e-09 
	 1.00000000000000333066907387547 ,	 -2.25195380676446177403704496101e-08 
	 0.999999999999974020781223771337 ,	 -2.2519538439569330989797890652e-07 
	 0.99999999999715849519077437435 ,	 -2.25195383990461905909796769265e-06 
	 0.999999999995495270077583427337 ,	 -2.83504191617156564575452648569e-06 
	 0.999999999992858046304888830491 ,	 -3.56910631149620627411422901787e-06 
	 0.999999999988679055817897278757 ,	 -4.49323863244144305895133584272e-06 
	 0.999999999982055243208378669806 ,	 -5.65665229590450735486228950322e-06 
	 0.999999999971558084510547814716 ,	 -7.1213033213668452958700072486e-06 
	 0.999999999954921281464237381442 ,	 -8.96518971621462767984667152632e-06 
	 0.999999999928552596450970213482 ,	 -1.12865051543620253937660891097e-05 
	 0.999999999886763024647962083691 ,	 -1.42088681490126766959747328656e-05 
	 0.999999999820529006377967107255 ,	 -1.7887905184921226720007325639e-05 
