! freq	dB(S11)	phase(S11)	dB(S12)	phase(S12)	
!     	dB(S21)	phase(S21)	dB(S22)	phase(S22)	
!S-par simulation data
#  GHz  S  DB  R 50
0.000000	-88.621214	0.000000	-0.000322	0.000000	-0.000322	0.000000	-88.621214	0.000000
0.050000	-71.433363	81.116556	-0.000463	-0.893277	-0.000463	-0.893277	-71.431631	81.085307
0.100000	-65.465831	84.235044	-0.000876	-1.786200	-0.000876	-1.786200	-65.464239	84.170295
0.150000	-61.938848	84.715120	-0.001540	-2.678454	-0.001540	-2.678454	-61.937518	84.617839
0.200000	-59.420552	84.534311	-0.002416	-3.569804	-0.002416	-3.569804	-59.419573	84.405251
0.250000	-57.452539	84.081443	-0.003475	-4.460017	-0.003475	-4.460017	-57.451995	83.921485
0.300000	-55.831837	83.513631	-0.004657	-5.349113	-0.004657	-5.349113	-55.831776	83.323679
0.350000	-54.448045	82.877753	-0.005931	-6.237042	-0.005931	-6.237042	-54.448505	82.658827
0.400000	-53.235600	82.203674	-0.007260	-7.123852	-0.007260	-7.123852	-53.236602	81.956854
0.450000	-52.152147	81.507573	-0.008615	-8.009635	-0.008615	-8.009635	-52.153700	81.233974
0.500000	-51.168749	80.798670	-0.009970	-8.894510	-0.009970	-8.894510	-51.170848	80.499424
0.550000	-50.264777	80.082297	-0.011310	-9.778606	-0.011310	-9.778606	-50.267406	79.758535
0.600000	-49.425035	79.361459	-0.012621	-10.662057	-0.012621	-10.662057	-49.428171	79.014297
0.650000	-48.638035	78.637701	-0.013897	-11.544989	-0.013897	-11.544989	-48.641652	78.268238
0.700000	-47.894916	77.911638	-0.015133	-12.427520	-0.015133	-12.427520	-47.898982	77.520948
0.750000	-47.188727	77.183292	-0.016329	-13.309754	-0.016329	-13.309754	-47.193210	76.772424
0.800000	-46.513944	76.452311	-0.017484	-14.191786	-0.017484	-14.191786	-46.518812	76.022291
0.850000	-45.866130	75.718134	-0.018602	-15.073695	-0.018602	-15.073695	-45.871351	75.269961
0.900000	-45.241689	74.980091	-0.019684	-15.955552	-0.019684	-15.955552	-45.247234	74.514745
0.950000	-44.637685	74.237487	-0.020736	-16.837417	-0.020736	-16.837417	-44.643527	73.755927
1.000000	-44.051709	73.489650	-0.021759	-17.719339	-0.021759	-17.719339	-44.057822	72.992816
1.050000	-43.481769	72.735967	-0.022759	-18.601364	-0.022759	-18.601364	-43.488130	72.224779
1.100000	-42.926214	71.975908	-0.023738	-19.483528	-0.023738	-19.483528	-42.932801	71.451266
1.150000	-42.383669	71.209034	-0.024701	-20.365865	-0.024701	-20.365865	-42.390462	70.671819
1.200000	-41.852981	70.435002	-0.025651	-21.248401	-0.025651	-21.248401	-41.859962	69.886075
1.250000	-41.333184	69.653568	-0.026590	-22.131164	-0.026590	-22.131164	-41.340337	69.093767
1.300000	-40.822592	68.864246	-0.027522	-23.014186	-0.027522	-23.014186	-40.829901	68.294420
1.350000	-40.321423	68.067301	-0.028451	-23.897477	-0.028451	-23.897477	-40.328872	67.488239
1.400000	-39.829091	67.262750	-0.029377	-24.781057	-0.029377	-24.781057	-39.836667	66.675213
1.450000	-39.345095	66.450677	-0.030304	-25.664940	-0.030304	-25.664940	-39.352783	65.855399
1.500000	-38.869002	65.631221	-0.031234	-26.549145	-0.031234	-26.549145	-38.876790	65.028908
1.550000	-38.400441	64.804569	-0.032169	-27.433685	-0.032169	-27.433685	-38.408317	64.195897
1.600000	-37.939087	63.970947	-0.033111	-28.318575	-0.033111	-28.318575	-37.947039	63.356563
1.650000	-37.484657	63.130613	-0.034061	-29.203830	-0.034061	-29.203830	-37.492674	62.511132
1.700000	-37.036901	62.283847	-0.035022	-30.089463	-0.035022	-30.089463	-37.044971	61.659856
1.750000	-36.595596	61.430948	-0.035994	-30.975487	-0.035994	-30.975487	-36.603709	60.803001
1.800000	-36.160545	60.572227	-0.036981	-31.861916	-0.036981	-31.861916	-36.168690	59.940849
1.850000	-35.731568	59.708001	-0.037982	-32.748764	-0.037982	-32.748764	-35.739736	59.073687
1.900000	-35.308504	58.838591	-0.038999	-33.636043	-0.038999	-33.636043	-35.316685	58.201806
1.950000	-34.891203	57.964314	-0.040035	-34.523767	-0.040035	-34.523767	-34.899390	57.325497
2.000000	-34.479530	57.085485	-0.041090	-35.411948	-0.041090	-35.411948	-34.487713	56.445046
2.050000	-34.073358	56.202414	-0.042166	-36.300601	-0.042166	-36.300601	-34.081530	55.560736
2.100000	-33.672568	55.315400	-0.043264	-37.189738	-0.043264	-37.189738	-33.680722	54.672840
2.150000	-33.277049	54.424733	-0.044386	-38.079372	-0.044386	-38.079372	-33.285178	53.781623
2.200000	-32.886696	53.530690	-0.045533	-38.969517	-0.045533	-38.969517	-32.894794	52.887340
2.250000	-32.501410	52.633537	-0.046707	-39.860186	-0.046707	-39.860186	-32.509470	51.990235
2.300000	-32.121094	51.733527	-0.047909	-40.751392	-0.047909	-40.751392	-32.129111	51.090537
2.350000	-31.745657	50.830899	-0.049141	-41.643149	-0.049141	-41.643149	-31.753627	50.188467
2.400000	-31.375012	49.925879	-0.050404	-42.535469	-0.050404	-42.535469	-31.382930	49.284231
2.450000	-31.009073	49.018678	-0.051699	-43.428366	-0.051699	-43.428366	-31.016936	48.378021
2.500000	-30.647759	48.109495	-0.053030	-44.321852	-0.053030	-44.321852	-30.655563	47.470020
2.550000	-30.290554	47.198444	-0.054399	-45.215968	-0.054399	-45.215968	-30.298296	46.560332
2.600000	-29.937841	46.285780	-0.055805	-46.110702	-0.055805	-46.110702	-29.945518	45.649190
2.650000	-29.589543	45.371661	-0.057252	-47.006065	-0.057252	-47.006065	-29.597153	44.736737
2.700000	-29.245587	44.456231	-0.058741	-47.902071	-0.058741	-47.902071	-29.253128	43.823104
2.750000	-28.905899	43.539623	-0.060273	-48.798732	-0.060273	-48.798732	-28.913370	42.908411
2.800000	-28.570409	42.621957	-0.061852	-49.696061	-0.061852	-49.696061	-28.577808	41.992768
2.850000	-28.239047	41.703344	-0.063478	-50.594070	-0.063478	-50.594070	-28.246374	41.076275
2.900000	-27.911747	40.783885	-0.065154	-51.492771	-0.065154	-51.492771	-27.919001	40.159021
2.950000	-27.588442	39.863670	-0.066882	-52.392176	-0.066882	-52.392176	-27.595623	39.241089
3.000000	-27.269067	38.942779	-0.068665	-53.292297	-0.068665	-53.292297	-27.276175	38.322550
3.050000	-26.953561	38.021285	-0.070504	-54.193144	-0.070504	-54.193144	-26.960595	37.403470
3.100000	-26.641861	37.099252	-0.072402	-55.094730	-0.072402	-55.094730	-26.648822	36.483903
3.150000	-26.333906	36.176737	-0.074362	-55.997065	-0.074362	-55.997065	-26.340795	35.563902
3.200000	-26.029639	35.253789	-0.076385	-56.900159	-0.076385	-56.900159	-26.036457	34.643507
3.250000	-25.729002	34.330451	-0.078475	-57.804023	-0.078475	-57.804023	-25.735749	33.722757
3.300000	-25.431938	33.406760	-0.080634	-58.708667	-0.080634	-58.708667	-25.438616	32.801682
3.350000	-25.138394	32.482746	-0.082864	-59.614100	-0.082864	-59.614100	-25.145003	31.880308
3.400000	-24.848315	31.558434	-0.085169	-60.520331	-0.085169	-60.520331	-24.854856	30.958656
3.450000	-24.561649	30.633846	-0.087550	-61.427369	-0.087550	-61.427369	-24.568125	30.036743
3.500000	-24.278346	29.708998	-0.090012	-62.335223	-0.090012	-62.335223	-24.284757	29.114581
3.550000	-23.998356	28.783902	-0.092556	-63.243899	-0.092556	-63.243899	-24.004703	28.192178
3.600000	-23.721630	27.858567	-0.095186	-64.153407	-0.095186	-64.153407	-23.727916	27.269540
3.650000	-23.448121	26.932997	-0.097905	-65.063752	-0.097905	-65.063752	-23.454348	26.346669
3.700000	-23.177784	26.007196	-0.100715	-65.974941	-0.100715	-65.974941	-23.183952	25.423565
3.750000	-22.910573	25.081162	-0.103620	-66.886981	-0.103620	-66.886981	-22.916685	24.500225
3.800000	-22.646233	24.154884	-0.106627	-67.799913	-0.106627	-67.799913	-22.652289	23.576632
3.850000	-22.384945	23.228365	-0.109736	-68.713706	-0.109736	-68.713706	-22.390947	22.652791
3.900000	-22.126668	22.301601	-0.112949	-69.628364	-0.112949	-69.628364	-22.132619	21.728692
3.950000	-21.871362	21.374582	-0.116270	-70.543891	-0.116270	-70.543891	-21.877262	20.804326
4.000000	-21.618986	20.447299	-0.119702	-71.460290	-0.119702	-71.460290	-21.624839	19.879682
4.050000	-21.369504	19.519743	-0.123249	-72.377563	-0.123249	-72.377563	-21.375309	18.954749
4.100000	-21.122877	18.591902	-0.126914	-73.295712	-0.126914	-73.295712	-21.128637	18.029514
4.150000	-20.879069	17.663766	-0.130701	-74.214738	-0.130701	-74.214738	-20.884785	17.103965
4.200000	-20.638045	16.735322	-0.134612	-75.134642	-0.134612	-75.134642	-20.643719	16.178089
4.250000	-20.399770	15.806560	-0.138651	-76.055423	-0.138651	-76.055423	-20.405404	15.251874
4.300000	-20.164212	14.877467	-0.142823	-76.977082	-0.142823	-76.977082	-20.169806	14.325306
4.350000	-19.931338	13.948032	-0.147130	-77.899615	-0.147130	-77.899615	-19.936895	13.398374
4.400000	-19.701562	13.018292	-0.151557	-78.822908	-0.151557	-78.822908	-19.707082	12.471116
4.450000	-19.473913	12.088139	-0.156147	-79.747195	-0.156147	-79.747195	-19.479398	11.543417
4.500000	-19.248860	11.157612	-0.160883	-80.672348	-0.160883	-80.672348	-19.254311	10.615319
4.550000	-19.026372	10.226702	-0.165768	-81.598363	-0.165768	-81.598363	-19.031791	9.686814
4.600000	-18.806424	9.295403	-0.170807	-82.525234	-0.170807	-82.525234	-18.811811	8.757892
4.650000	-18.588986	8.363705	-0.176004	-83.452956	-0.176004	-83.452956	-18.594344	7.828546
4.700000	-18.374034	7.431605	-0.181361	-84.381521	-0.181361	-84.381521	-18.379362	6.898769
4.750000	-18.161540	6.499096	-0.186882	-85.310923	-0.186882	-85.310923	-18.166841	5.968557
4.800000	-17.951481	5.566175	-0.192571	-86.241152	-0.192571	-86.241152	-17.956754	5.037904
4.850000	-17.743831	4.632840	-0.198432	-87.172199	-0.198432	-87.172199	-17.749079	4.106809
4.900000	-17.538568	3.699091	-0.204468	-88.104055	-0.204468	-88.104055	-17.543791	3.175271
4.950000	-17.335668	2.764928	-0.210683	-89.036708	-0.210683	-89.036708	-17.340867	2.243290
5.000000	-17.135109	1.830353	-0.217080	-89.970147	-0.217080	-89.970147	-17.140284	1.310868
5.050000	-16.936822	0.895361	-0.223667	-90.904376	-0.223667	-90.904376	-16.941975	0.377998
5.100000	-16.740837	-0.040033	-0.230443	-91.839364	-0.230443	-91.839364	-16.745968	-0.555303
5.150000	-16.547133	-0.975822	-0.237412	-92.775097	-0.237412	-92.775097	-16.552243	-1.489030
5.200000	-16.355689	-1.911997	-0.244577	-93.711560	-0.244577	-93.711560	-16.360779	-2.423174
5.250000	-16.166486	-2.848549	-0.251942	-94.648737	-0.251942	-94.648737	-16.171556	-3.357724
5.300000	-15.979505	-3.785465	-0.259510	-95.586611	-0.259510	-95.586611	-15.984556	-4.292670
5.350000	-15.794726	-4.722731	-0.267285	-96.525165	-0.267285	-96.525165	-15.799759	-5.227996
5.400000	-15.612132	-5.660332	-0.275268	-97.464380	-0.275268	-97.464380	-15.617147	-6.163689
5.450000	-15.431704	-6.598252	-0.283465	-98.404236	-0.283465	-98.404236	-15.436702	-7.099731
5.500000	-15.253424	-7.536472	-0.291876	-99.344715	-0.291876	-99.344715	-15.258406	-8.036105
5.550000	-15.077276	-8.474972	-0.300507	-100.285794	-0.300507	-100.285794	-15.082242	-8.972790
5.600000	-14.903243	-9.413730	-0.309359	-101.227452	-0.309359	-101.227452	-14.908193	-9.909764
5.650000	-14.731293	-10.352725	-0.318438	-102.169673	-0.318438	-102.169673	-14.736228	-10.847008
5.700000	-14.561412	-11.291933	-0.327747	-103.112432	-0.327747	-103.112432	-14.566333	-11.784495
5.750000	-14.393599	-12.231323	-0.337286	-104.055700	-0.337286	-104.055700	-14.398507	-12.722197
5.800000	-14.227839	-13.170870	-0.347057	-104.999450	-0.347057	-104.999450	-14.232732	-13.660086
5.850000	-14.064114	-14.110543	-0.357063	-105.943658	-0.357063	-105.943658	-14.068995	-14.598134
5.900000	-13.902411	-15.050313	-0.367306	-106.888297	-0.367306	-106.888297	-13.907279	-15.536309
5.950000	-13.742712	-15.990148	-0.377790	-107.833340	-0.377790	-107.833340	-13.747569	-16.474582
6.000000	-13.585005	-16.930016	-0.388515	-108.778759	-0.388515	-108.778759	-13.589849	-17.412919
6.050000	-13.429272	-17.869884	-0.399483	-109.724526	-0.399483	-109.724526	-13.434106	-18.351286
6.100000	-13.275500	-18.809716	-0.410698	-110.670612	-0.410698	-110.670612	-13.280323	-19.289650
6.150000	-13.123674	-19.749478	-0.422160	-111.616986	-0.422160	-111.616986	-13.128487	-20.227974
6.200000	-12.973779	-20.689132	-0.433871	-112.563619	-0.433871	-112.563619	-12.978583	-21.166221
6.250000	-12.825801	-21.628641	-0.445833	-113.510479	-0.445833	-113.510479	-12.830596	-22.104355
6.300000	-12.679714	-22.567963	-0.458052	-114.457538	-0.458052	-114.457538	-12.684500	-23.042332
6.350000	-12.535518	-23.507061	-0.470524	-115.404759	-0.470524	-115.404759	-12.540296	-23.980117
6.400000	-12.393198	-24.445897	-0.483250	-116.352110	-0.483250	-116.352110	-12.397968	-24.917670
6.450000	-12.252740	-25.384431	-0.496232	-117.299557	-0.496232	-117.299557	-12.257503	-25.854951
6.500000	-12.114111	-26.322602	-0.509483	-118.247068	-0.509483	-118.247068	-12.118867	-26.791901
6.550000	-11.977334	-27.260403	-0.522980	-119.194604	-0.522980	-119.194604	-11.982085	-27.728510
6.600000	-11.842379	-28.197778	-0.536735	-120.142133	-0.536735	-120.142133	-11.847124	-28.664723
6.650000	-11.709231	-29.134687	-0.550747	-121.089621	-0.550747	-121.089621	-11.713971	-29.600500
6.700000	-11.577877	-30.071089	-0.565016	-122.037032	-0.565016	-122.037032	-11.582612	-30.535798
6.750000	-11.448302	-31.006941	-0.579543	-122.984330	-0.579543	-122.984330	-11.453034	-31.470577
6.800000	-11.320493	-31.942203	-0.594328	-123.931480	-0.594328	-123.931480	-11.325221	-32.404794
6.850000	-11.194436	-32.876833	-0.609369	-124.878446	-0.609369	-124.878446	-11.199161	-33.338409
6.900000	-11.070117	-33.810791	-0.624667	-125.825192	-0.624667	-125.825192	-11.074840	-34.271379
6.950000	-10.947523	-34.744034	-0.640220	-126.771681	-0.640220	-126.771681	-10.952245	-35.203664
7.000000	-10.826641	-35.676524	-0.656029	-127.717877	-0.656029	-127.717877	-10.831361	-36.135222
7.050000	-10.707456	-36.608218	-0.672091	-128.663744	-0.672091	-128.663744	-10.712175	-37.066014
7.100000	-10.589955	-37.539078	-0.688405	-129.609244	-0.688405	-129.609244	-10.594674	-37.995999
7.150000	-10.474125	-38.469063	-0.704971	-130.554341	-0.704971	-130.554341	-10.478845	-38.925137
7.200000	-10.359952	-39.398135	-0.721786	-131.498998	-0.721786	-131.498998	-10.364673	-39.853389
7.250000	-10.247423	-40.326255	-0.738849	-132.443180	-0.738849	-132.443180	-10.252145	-40.780716
7.300000	-10.136525	-41.253385	-0.756157	-133.386849	-0.756157	-133.386849	-10.141249	-41.707081
7.350000	-10.027244	-42.179488	-0.773709	-134.329969	-0.773709	-134.329969	-10.031970	-42.632445
7.400000	-9.919568	-43.104528	-0.791503	-135.272505	-0.791503	-135.272505	-9.924296	-43.556773
7.450000	-9.813482	-44.028467	-0.809534	-136.214419	-0.809534	-136.214419	-9.818214	-44.480027
7.500000	-9.708974	-44.951272	-0.827802	-137.155678	-0.827802	-137.155678	-9.713710	-45.402172
7.550000	-9.606047	-45.872854	-0.846311	-138.096212	-0.846311	-138.096212	-9.610787	-46.323122
7.600000	-9.504674	-46.793231	-0.865050	-139.036017	-0.865050	-139.036017	-9.509418	-47.242893
7.650000	-9.404842	-47.712368	-0.884016	-139.975057	-0.884016	-139.975057	-9.409591	-48.161450
7.700000	-9.306539	-48.630234	-0.903204	-140.913299	-0.903204	-140.913299	-9.311293	-49.078761
7.750000	-9.209752	-49.546797	-0.922611	-141.850707	-0.922611	-141.850707	-9.214512	-49.994796
7.800000	-9.114467	-50.462027	-0.942235	-142.787251	-0.942235	-142.787251	-9.119233	-50.909524
7.850000	-9.020674	-51.375895	-0.962069	-143.722896	-0.962069	-143.722896	-9.025446	-51.822915
7.900000	-8.928359	-52.288372	-0.982111	-144.657610	-0.982111	-144.657610	-8.933137	-52.734940
7.950000	-8.837509	-53.199429	-1.002357	-145.591362	-1.002357	-145.591362	-8.842295	-53.645572
8.000000	-8.748114	-54.109040	-1.022801	-146.524121	-1.022801	-146.524121	-8.752906	-54.554783
8.050000	-8.660160	-55.017177	-1.043439	-147.455857	-1.043439	-147.455857	-8.664960	-55.462546
8.100000	-8.573636	-55.923817	-1.064267	-148.386539	-1.064267	-148.386539	-8.578444	-56.368837
8.150000	-8.488530	-56.828933	-1.085279	-149.316140	-1.085279	-149.316140	-8.493346	-57.273630
8.200000	-8.404831	-57.732502	-1.106471	-150.244631	-1.106471	-150.244631	-8.409655	-58.176902
8.250000	-8.322527	-58.634499	-1.127837	-151.171985	-1.127837	-151.171985	-8.327359	-59.078629
8.300000	-8.241607	-59.534904	-1.149371	-152.098174	-1.149371	-152.098174	-8.246447	-59.978789
8.350000	-8.162060	-60.433693	-1.171069	-153.023175	-1.171069	-153.023175	-8.166908	-60.877359
8.400000	-8.083874	-61.330845	-1.192925	-153.946961	-1.192925	-153.946961	-8.088731	-61.774319
8.450000	-8.007039	-62.226340	-1.214932	-154.869509	-1.214932	-154.869509	-8.011904	-62.669649
8.500000	-7.931544	-63.120157	-1.237085	-155.790795	-1.237085	-155.790795	-7.936418	-63.563327
8.550000	-7.857379	-64.012277	-1.259379	-156.710798	-1.259379	-156.710798	-7.862262	-64.455336
8.600000	-7.784533	-64.902680	-1.281806	-157.629497	-1.281806	-157.629497	-7.789426	-65.345654
8.650000	-7.712996	-65.791347	-1.304360	-158.546872	-1.304360	-158.546872	-7.717898	-66.234266
8.700000	-7.642759	-66.678262	-1.327036	-159.462903	-1.327036	-159.462903	-7.647671	-67.121152
8.750000	-7.573811	-67.563404	-1.349826	-160.377572	-1.349826	-160.377572	-7.578732	-68.006294
8.800000	-7.506176	-68.446680	-1.372726	-161.290802	-1.372726	-161.290802	-7.511107	-68.889599
8.850000	-7.439813	-69.328147	-1.395727	-162.202636	-1.395727	-162.202636	-7.444753	-69.771124
8.900000	-7.374711	-70.207789	-1.418822	-163.113059	-1.418822	-163.113059	-7.379661	-70.650854
8.950000	-7.310862	-71.085590	-1.442004	-164.022058	-1.442004	-164.022058	-7.315823	-71.528772
9.000000	-7.248257	-71.961532	-1.465265	-164.929620	-1.465265	-164.929620	-7.253228	-72.404861
9.050000	-7.186887	-72.835599	-1.488600	-165.835734	-1.488600	-165.835734	-7.191869	-73.279106
9.100000	-7.126744	-73.707775	-1.512001	-166.740389	-1.512001	-166.740389	-7.131737	-74.151490
9.150000	-7.067819	-74.578042	-1.535460	-167.643577	-1.535460	-167.643577	-7.072823	-75.021997
9.200000	-7.010104	-75.446385	-1.558971	-168.545289	-1.558971	-168.545289	-7.015119	-75.890611
9.250000	-6.953590	-76.312787	-1.582525	-169.445519	-1.582525	-169.445519	-6.958618	-76.757315
9.300000	-6.898270	-77.177230	-1.606116	-170.344262	-1.606116	-170.344262	-6.903311	-77.622094
9.350000	-6.844136	-78.039699	-1.629737	-171.241512	-1.629737	-171.241512	-6.849190	-78.484931
9.400000	-6.791180	-78.900176	-1.653379	-172.137266	-1.653379	-172.137266	-6.796248	-79.345808
9.450000	-6.739395	-79.758643	-1.677036	-173.031523	-1.677036	-173.031523	-6.744477	-80.204710
9.500000	-6.688774	-80.615083	-1.700699	-173.924282	-1.700699	-173.924282	-6.693871	-81.061619
9.550000	-6.639309	-81.469478	-1.724361	-174.815542	-1.724361	-174.815542	-6.644422	-81.916516
9.600000	-6.590993	-82.321809	-1.748015	-175.705307	-1.748015	-175.705307	-6.596123	-82.769386
9.650000	-6.543819	-83.172059	-1.771652	-176.593578	-1.771652	-176.593578	-6.548967	-83.620208
9.700000	-6.497780	-84.020207	-1.795266	-177.480359	-1.795266	-177.480359	-6.502947	-84.468964
9.750000	-6.452870	-84.866235	-1.818847	-178.365656	-1.818847	-178.365656	-6.458057	-85.315636
9.800000	-6.409082	-85.710122	-1.842390	-179.249476	-1.842390	-179.249476	-6.414291	-86.160203
9.850000	-6.366410	-86.551847	-1.865885	179.868175	-1.865885	179.868175	-6.371641	-87.002645
9.900000	-6.324846	-87.391391	-1.889325	178.987287	-1.889325	178.987287	-6.330102	-87.842942
9.950000	-6.284386	-88.228730	-1.912703	178.107851	-1.912703	178.107851	-6.289668	-88.681072
10.000000	-6.245022	-89.063844	-1.936011	177.229854	-1.936011	177.229854	-6.250332	-89.517013
