! freq	dB(S11)	phase(S11)	dB(S12)	phase(S12)	
!     	dB(S21)	phase(S21)	dB(S22)	phase(S22)	
!S-par simulation data
#  GHz  S  DB  R 50
0.000000	-0.000000	0.000000	-320.007579	0.000000	-320.007579	0.000000	-0.000000	0.000000
0.050000	-0.000121	-1.022820	-59.000075	86.530680	-59.000075	86.530680	-0.000108	-0.815450
0.100000	-0.000479	-2.045371	-53.246094	85.733175	-53.246094	85.733175	-0.000427	-1.630648
0.150000	-0.001064	-3.067402	-49.838394	85.298498	-49.838394	85.298498	-0.000945	-2.445361
0.200000	-0.001856	-4.088695	-47.392847	84.762511	-47.392847	84.762511	-0.001643	-3.259398
0.250000	-0.002848	-5.108991	-45.483507	84.115401	-45.483507	84.115401	-0.002506	-4.072540
0.300000	-0.003997	-6.128221	-43.918157	83.400159	-43.918157	83.400159	-0.003497	-4.884747
0.350000	-0.005288	-7.146223	-42.592248	82.635998	-42.592248	82.635998	-0.004596	-5.695906
0.400000	-0.006695	-8.162908	-41.442743	81.838631	-41.442743	81.838631	-0.005781	-6.505971
0.450000	-0.008196	-9.178216	-40.428625	81.018104	-40.428625	81.018104	-0.007030	-7.314927
0.500000	-0.009767	-10.192115	-39.521713	80.180997	-39.521713	80.180997	-0.008324	-8.122782
0.550000	-0.011391	-11.204593	-38.701810	79.331756	-38.701810	79.331756	-0.009648	-8.929556
0.600000	-0.013051	-12.215654	-37.953952	78.473484	-37.953952	78.473484	-0.010989	-9.735281
0.650000	-0.014732	-13.225311	-37.266744	77.608405	-37.266744	77.608405	-0.012338	-10.539993
0.700000	-0.016424	-14.233585	-36.631309	76.738162	-36.631309	76.738162	-0.013689	-11.343725
0.750000	-0.018118	-15.240497	-36.040596	75.863995	-36.040596	75.863995	-0.015036	-12.146511
0.800000	-0.019807	-16.246069	-35.488914	74.986860	-35.488914	74.986860	-0.016375	-12.948378
0.850000	-0.021488	-17.250321	-34.971601	74.107509	-34.971601	74.107509	-0.017707	-13.749347
0.900000	-0.023156	-18.253267	-34.484791	73.226545	-34.484791	73.226545	-0.019029	-14.549437
0.950000	-0.024810	-19.254920	-34.025243	72.344461	-34.025243	72.344461	-0.020342	-15.348657
1.000000	-0.026450	-20.255286	-33.590210	71.461663	-33.590210	71.461663	-0.021646	-16.147013
1.050000	-0.028075	-21.254367	-33.177348	70.578493	-33.177348	70.578493	-0.022942	-16.944507
1.100000	-0.029685	-22.252161	-32.784636	69.695239	-32.784636	69.695239	-0.024232	-17.741134
1.150000	-0.031282	-23.248660	-32.410323	68.812153	-32.410323	68.812153	-0.025516	-18.536888
1.200000	-0.032866	-24.243855	-32.052880	67.929451	-32.052880	67.929451	-0.026796	-19.331760
1.250000	-0.034439	-25.237732	-31.710962	67.047324	-31.710962	67.047324	-0.028073	-20.125735
1.300000	-0.036003	-26.230215	-31.383445	66.165980	-31.383445	66.165980	-0.029347	-20.918760
1.350000	-0.037558	-27.221341	-31.069214	65.285543	-31.069214	65.285543	-0.030621	-21.710856
1.400000	-0.039107	-28.211090	-30.767328	64.406149	-30.767328	64.406149	-0.031896	-22.502006
1.450000	-0.040651	-29.199439	-30.476946	63.527919	-30.476946	63.527919	-0.033171	-23.292190
1.500000	-0.042190	-30.186363	-30.197311	62.650965	-30.197311	62.650965	-0.034447	-24.081389
1.550000	-0.043728	-31.171837	-29.927739	61.775390	-29.927739	61.775390	-0.035727	-24.869583
1.600000	-0.045264	-32.155836	-29.667613	60.901288	-29.667613	60.901288	-0.037009	-25.656752
1.650000	-0.046799	-33.138334	-29.416368	60.028748	-29.416368	60.028748	-0.038295	-26.442874
1.700000	-0.048335	-34.119304	-29.173491	59.157851	-29.173491	59.157851	-0.039585	-27.227929
1.750000	-0.049873	-35.098721	-28.938514	58.288673	-28.938514	58.288673	-0.040879	-28.011897
1.800000	-0.051413	-36.076558	-28.711005	57.421287	-28.711005	57.421287	-0.042178	-28.794757
1.850000	-0.052957	-37.052789	-28.490569	56.555759	-28.490569	56.555759	-0.043482	-29.576487
1.900000	-0.054504	-38.027390	-28.276840	55.692151	-28.276840	55.692151	-0.044791	-30.357070
1.950000	-0.056055	-39.000336	-28.069481	54.830525	-28.069481	54.830525	-0.046105	-31.136483
2.000000	-0.057612	-39.971602	-27.868180	53.970934	-27.868180	53.970934	-0.047425	-31.914709
2.050000	-0.059174	-40.941166	-27.672647	53.113432	-27.672647	53.113432	-0.048751	-32.691728
2.100000	-0.060742	-41.909003	-27.482613	52.258070	-27.482613	52.258070	-0.050083	-33.467520
2.150000	-0.062317	-42.875094	-27.297825	51.404893	-27.297825	51.404893	-0.051421	-34.242068
2.200000	-0.063898	-43.839415	-27.118049	50.553947	-27.118049	50.553947	-0.052765	-35.015354
2.250000	-0.065487	-44.801949	-26.943066	49.705275	-26.943066	49.705275	-0.054115	-35.787361
2.300000	-0.067082	-45.762674	-26.772670	48.858915	-26.772670	48.858915	-0.055472	-36.558070
2.350000	-0.068686	-46.721573	-26.606669	48.014905	-26.606669	48.014905	-0.056835	-37.327465
2.400000	-0.070298	-47.678629	-26.444880	47.173282	-26.444880	47.173282	-0.058205	-38.095531
2.450000	-0.071918	-48.633826	-26.287133	46.334078	-26.287133	46.334078	-0.059582	-38.862250
2.500000	-0.073547	-49.587146	-26.133267	45.497327	-26.133267	45.497327	-0.060966	-39.627609
2.550000	-0.075185	-50.538495	-25.983176	44.663166	-25.983176	44.663166	-0.062357	-40.391530
2.600000	-0.076832	-51.487940	-25.836670	43.831518	-25.836670	43.831518	-0.063755	-41.154060
2.650000	-0.078489	-52.435468	-25.693611	43.002408	-25.693611	43.002408	-0.065161	-41.915183
2.700000	-0.080155	-53.381068	-25.553871	42.175862	-25.553871	42.175862	-0.066574	-42.674887
2.750000	-0.081831	-54.324731	-25.417328	41.351902	-25.417328	41.351902	-0.067995	-43.433158
2.800000	-0.083518	-55.266447	-25.283865	40.530551	-25.283865	40.530551	-0.069424	-44.189984
2.850000	-0.085215	-56.206207	-25.153373	39.711829	-25.153373	39.711829	-0.070861	-44.945351
2.900000	-0.086923	-57.144005	-25.025745	38.895754	-25.025745	38.895754	-0.072307	-45.699249
2.950000	-0.088642	-58.079834	-24.900882	38.082344	-24.900882	38.082344	-0.073761	-46.451666
3.000000	-0.090373	-59.013689	-24.778688	37.271615	-24.778688	37.271615	-0.075223	-47.202590
3.050000	-0.092115	-59.945565	-24.659071	36.463583	-24.659071	36.463583	-0.076695	-47.952012
3.100000	-0.093870	-60.875460	-24.541944	35.658260	-24.541944	35.658260	-0.078176	-48.699920
3.150000	-0.095637	-61.803371	-24.427224	34.855660	-24.427224	34.855660	-0.079667	-49.446306
3.200000	-0.097417	-62.729296	-24.314830	34.055794	-24.314830	34.055794	-0.081167	-50.191160
3.250000	-0.099210	-63.653235	-24.204685	33.258671	-24.204685	33.258671	-0.082677	-50.934473
3.300000	-0.101016	-64.575188	-24.096716	32.464301	-24.096716	32.464301	-0.084198	-51.676237
3.350000	-0.102837	-65.495158	-23.990852	31.672692	-23.990852	31.672692	-0.085730	-52.416443
3.400000	-0.104672	-66.413146	-23.887026	30.883851	-23.887026	30.883851	-0.087272	-53.155084
3.450000	-0.106521	-67.329155	-23.785170	30.097783	-23.785170	30.097783	-0.088825	-53.892152
3.500000	-0.108386	-68.243191	-23.685224	29.314494	-23.685224	29.314494	-0.090391	-54.627642
3.550000	-0.110266	-69.155257	-23.587125	28.533987	-23.587125	28.533987	-0.091968	-55.361546
3.600000	-0.112163	-70.065360	-23.490816	27.756265	-23.490816	27.756265	-0.093557	-56.093859
3.650000	-0.114076	-70.973507	-23.396240	26.981330	-23.396240	26.981330	-0.095159	-56.824575
3.700000	-0.116006	-71.879706	-23.303342	26.209183	-23.303342	26.209183	-0.096774	-57.553689
3.750000	-0.117953	-72.783965	-23.212070	25.439825	-23.212070	25.439825	-0.098402	-58.281196
3.800000	-0.119920	-73.686211	-23.122400	24.673374	-23.122400	24.673374	-0.100045	-59.007021
3.850000	-0.121904	-74.586538	-23.034254	23.909709	-23.034254	23.909709	-0.101701	-59.731232
3.900000	-0.123908	-75.484958	-22.947584	23.148827	-22.947584	23.148827	-0.103372	-60.453823
3.950000	-0.125931	-76.381482	-22.862345	22.390723	-22.862345	22.390723	-0.105058	-61.174793
4.000000	-0.127974	-77.276125	-22.778491	21.635393	-22.778491	21.635393	-0.106759	-61.894139
4.050000	-0.130038	-78.168899	-22.695978	20.882833	-22.695978	20.882833	-0.108476	-62.611857
4.100000	-0.132123	-79.059820	-22.614765	20.133035	-22.614765	20.133035	-0.110208	-63.327948
4.150000	-0.134230	-79.948903	-22.534811	19.385992	-22.534811	19.385992	-0.111957	-64.042408
4.200000	-0.136359	-80.836164	-22.456076	18.641697	-22.456076	18.641697	-0.113723	-64.755238
4.250000	-0.138510	-81.721621	-22.378521	17.900141	-22.378521	17.900141	-0.115506	-65.466436
4.300000	-0.140685	-82.605292	-22.302108	17.161314	-22.302108	17.161314	-0.117307	-66.176002
4.350000	-0.142884	-83.487195	-22.226801	16.425205	-22.226801	16.425205	-0.119126	-66.883937
4.400000	-0.145108	-84.367349	-22.152563	15.691803	-22.152563	15.691803	-0.120964	-67.590240
4.450000	-0.147356	-85.245776	-22.079360	14.961096	-22.079360	14.961096	-0.122820	-68.294914
4.500000	-0.149630	-86.122496	-22.007159	14.233070	-22.007159	14.233070	-0.124696	-68.997958
4.550000	-0.151931	-86.997530	-21.935925	13.507712	-21.935925	13.507712	-0.126592	-69.699375
4.600000	-0.154258	-87.870902	-21.865626	12.785005	-21.865626	12.785005	-0.128508	-70.399166
4.650000	-0.156612	-88.742635	-21.796231	12.064935	-21.796231	12.064935	-0.130445	-71.097335
4.700000	-0.158995	-89.612753	-21.727709	11.347484	-21.727709	11.347484	-0.132403	-71.793884
4.750000	-0.161406	-90.481281	-21.660029	10.632634	-21.660029	10.632634	-0.134383	-72.488815
4.800000	-0.163847	-91.348244	-21.593162	9.920366	-21.593162	9.920366	-0.136384	-73.182133
4.850000	-0.166317	-92.213669	-21.527080	9.210661	-21.527080	9.210661	-0.138409	-73.873841
4.900000	-0.168818	-93.077583	-21.461752	8.503497	-21.461752	8.503497	-0.140457	-74.563944
4.950000	-0.171350	-93.940013	-21.397153	7.798852	-21.397153	7.798852	-0.142528	-75.252446
5.000000	-0.173914	-94.800989	-21.333253	7.096704	-21.333253	7.096704	-0.144624	-75.939352
5.050000	-0.176512	-95.660478	-21.270037	6.397134	-21.270037	6.397134	-0.146745	-76.624598
5.100000	-0.179142	-96.518573	-21.207466	5.700009	-21.207466	5.700009	-0.148891	-77.308259
5.150000	-0.181806	-97.375307	-21.145516	5.005302	-21.145516	5.005302	-0.151063	-77.990341
5.200000	-0.184505	-98.230710	-21.084161	4.312985	-21.084161	4.312985	-0.153261	-78.670851
5.250000	-0.187238	-99.084814	-21.023377	3.623029	-21.023377	3.623029	-0.155486	-79.349795
5.300000	-0.190007	-99.937653	-20.963140	2.935404	-20.963140	2.935404	-0.157738	-80.027180
5.350000	-0.192812	-100.789259	-20.903425	2.250079	-20.903425	2.250079	-0.160018	-80.703013
5.400000	-0.195653	-101.639667	-20.844210	1.567020	-20.844210	1.567020	-0.162326	-81.377302
5.450000	-0.198533	-102.488912	-20.785471	0.886194	-20.785471	0.886194	-0.164663	-82.050054
5.500000	-0.201450	-103.337030	-20.727185	0.207566	-20.727185	0.207566	-0.167029	-82.721278
5.550000	-0.204406	-104.184057	-20.669332	-0.468901	-20.669332	-0.468901	-0.169425	-83.390982
5.600000	-0.207401	-105.030030	-20.611888	-1.143245	-20.611888	-1.143245	-0.171852	-84.059175
5.650000	-0.210436	-105.874987	-20.554833	-1.815506	-20.554833	-1.815506	-0.174309	-84.725867
5.700000	-0.213512	-106.718966	-20.498145	-2.485724	-20.498145	-2.485724	-0.176798	-85.391065
5.750000	-0.216630	-107.562007	-20.441804	-3.153942	-20.441804	-3.153942	-0.179319	-86.054781
5.800000	-0.219789	-108.404148	-20.385790	-3.820203	-20.385790	-3.820203	-0.181873	-86.717023
5.850000	-0.222998	-109.245295	-20.330069	-4.484234	-20.330069	-4.484234	-0.184466	-87.377551
5.900000	-0.226252	-110.085590	-20.274632	-5.146320	-20.274632	-5.146320	-0.187095	-88.036564
5.950000	-0.229530	-110.925498	-20.219496	-5.807479	-20.219496	-5.807479	-0.189742	-88.694829
6.000000	-0.232877	-111.764244	-20.164560	-6.465853	-20.164560	-6.465853	-0.192443	-89.350851
6.050000	-0.236240	-112.602763	-20.109924	-7.123647	-20.109924	-7.123647	-0.195158	-90.006382
6.100000	-0.239683	-113.440150	-20.055409	-7.778535	-20.055409	-7.778535	-0.197934	-90.659462
6.150000	-0.243134	-114.277439	-20.001206	-8.433152	-20.001206	-8.433152	-0.200718	-91.312301
6.200000	-0.246675	-115.113663	-19.947037	-9.084792	-19.947037	-9.084792	-0.203573	-91.962491
6.250000	-0.250217	-115.949887	-19.893203	-9.736432	-19.893203	-9.736432	-0.206429	-92.612680
6.300000	-0.253858	-116.785150	-19.839305	-10.385075	-19.839305	-10.385075	-0.209365	-93.260034
6.350000	-0.257502	-117.620413	-19.785740	-11.033718	-19.785740	-11.033718	-0.212302	-93.907388
6.400000	-0.261239	-118.454988	-19.732083	-11.679858	-19.732083	-11.679858	-0.215314	-94.552193
6.450000	-0.264987	-119.289500	-19.678717	-12.325770	-19.678717	-12.325770	-0.218335	-95.196766
6.500000	-0.268823	-120.123566	-19.625244	-12.969638	-19.625244	-12.969638	-0.221427	-95.839072
6.550000	-0.272677	-120.957543	-19.572012	-13.613097	-19.572012	-13.613097	-0.224534	-96.480924
6.600000	-0.276614	-121.791285	-19.518669	-14.254934	-19.518669	-14.254934	-0.227708	-97.120779
6.650000	-0.280579	-122.624948	-19.465507	-14.896231	-19.465507	-14.896231	-0.230904	-97.759970
6.700000	-0.284619	-123.458556	-19.412244	-15.536287	-19.412244	-15.536287	-0.234162	-98.397427
6.750000	-0.288697	-124.292136	-19.359094	-16.175723	-19.359094	-16.175723	-0.237451	-99.034018
6.800000	-0.292843	-125.125805	-19.305862	-16.814256	-19.305862	-16.814256	-0.240796	-99.669130
6.850000	-0.297038	-125.959537	-19.252666	-17.452143	-19.252666	-17.452143	-0.244181	-100.303186
6.900000	-0.301293	-126.793467	-19.199420	-18.089419	-19.199420	-18.089419	-0.247615	-100.936007
6.950000	-0.305607	-127.627595	-19.146127	-18.726082	-19.146127	-18.726082	-0.251099	-101.567593
7.000000	-0.309973	-128.461991	-19.092825	-19.362372	-19.092825	-19.362372	-0.254625	-102.198179
7.050000	-0.314410	-129.296764	-19.039383	-19.998142	-19.039383	-19.998142	-0.258210	-102.827363
7.100000	-0.318890	-130.131838	-18.985986	-20.633727	-18.985986	-20.633727	-0.261831	-103.455770
7.150000	-0.323453	-130.967513	-18.932351	-21.268943	-18.932351	-21.268943	-0.265522	-104.082623
7.200000	-0.328050	-131.803481	-18.878821	-21.904106	-18.878821	-21.904106	-0.269240	-104.708910
7.250000	-0.332742	-132.640324	-18.824950	-22.539114	-18.824950	-22.539114	-0.273039	-105.333501
7.300000	-0.337458	-133.477407	-18.771254	-23.174145	-18.771254	-23.174145	-0.276858	-105.957727
7.350000	-0.342283	-134.315691	-18.717108	-23.809296	-18.717108	-23.809296	-0.280768	-106.580129
7.400000	-0.347122	-135.154117	-18.663215	-24.444489	-18.663215	-24.444489	-0.284690	-107.202355
7.450000	-0.352083	-135.994121	-18.608758	-25.080138	-18.608758	-25.080138	-0.288716	-107.822643
7.500000	-0.357047	-136.834124	-18.554640	-25.715788	-18.554640	-25.715788	-0.292744	-108.442931
7.550000	-0.362147	-137.676136	-18.499839	-26.352294	-18.499839	-26.352294	-0.296889	-109.061180
7.600000	-0.367251	-138.518148	-18.445382	-26.988801	-18.445382	-26.988801	-0.301036	-109.679430
7.650000	-0.372483	-139.362272	-18.390297	-27.626422	-18.390297	-27.626422	-0.305293	-110.295881
7.700000	-0.377730	-140.206589	-18.335472	-28.264145	-18.335472	-28.264145	-0.309563	-110.912168
7.750000	-0.383097	-141.053080	-18.280083	-28.903181	-18.280083	-28.903181	-0.313936	-111.526886
7.800000	-0.388490	-141.900006	-18.224865	-29.542481	-18.224865	-29.542481	-0.318331	-112.141291
7.850000	-0.393995	-142.749124	-18.169154	-30.183232	-18.169154	-30.183232	-0.322823	-112.754343
7.900000	-0.399539	-143.598972	-18.113520	-30.824468	-18.113520	-30.824468	-0.327348	-113.366945
7.950000	-0.405184	-144.450984	-18.057473	-31.467233	-18.057473	-31.467233	-0.331962	-113.978398
8.000000	-0.410882	-145.304078	-18.001403	-32.110763	-18.001403	-32.110763	-0.336621	-114.589278
8.050000	-0.416672	-146.159258	-17.945006	-32.755839	-17.945006	-32.755839	-0.341360	-115.199201
8.100000	-0.422528	-147.015927	-17.888484	-33.402019	-17.888484	-33.402019	-0.346157	-115.808442
8.150000	-0.428465	-147.874556	-17.831726	-34.049701	-17.831726	-34.049701	-0.351025	-116.416904
8.200000	-0.434483	-148.735142	-17.774737	-34.698885	-17.774737	-34.698885	-0.355964	-117.024590
8.250000	-0.440571	-149.597507	-17.717609	-35.349465	-17.717609	-35.349465	-0.360964	-117.631662
8.300000	-0.446755	-150.462360	-17.660143	-36.002001	-17.660143	-36.002001	-0.366048	-118.237877
8.350000	-0.452984	-151.328355	-17.602744	-36.655448	-17.602744	-36.655448	-0.371171	-118.843743
8.400000	-0.459320	-152.197334	-17.544920	-37.311280	-17.544920	-37.311280	-0.376391	-119.448714
8.450000	-0.465740	-153.068642	-17.486878	-37.968988	-17.486878	-37.968988	-0.381683	-120.053048
8.500000	-0.472244	-153.942363	-17.428615	-38.628650	-17.428615	-38.628650	-0.387050	-120.656766
8.550000	-0.478832	-154.818584	-17.370130	-39.290345	-17.370130	-39.290345	-0.392492	-121.259888
8.600000	-0.485506	-155.697394	-17.311423	-39.954149	-17.311423	-39.954149	-0.398010	-121.862433
8.650000	-0.492267	-156.578881	-17.252492	-40.620140	-17.252492	-40.620140	-0.403605	-122.464424
8.700000	-0.499115	-157.463136	-17.193339	-41.288394	-17.193339	-41.288394	-0.409279	-123.065880
8.750000	-0.506052	-158.350250	-17.133961	-41.958988	-17.133961	-41.958988	-0.415032	-123.666823
8.800000	-0.513083	-159.240449	-17.074332	-42.632107	-17.074332	-42.632107	-0.420869	-124.267253
8.850000	-0.520204	-160.133702	-17.014479	-43.307725	-17.014479	-43.307725	-0.426788	-124.867212
8.900000	-0.527416	-161.030104	-16.954402	-43.985917	-16.954402	-43.985917	-0.432789	-125.466724
8.950000	-0.534722	-161.929753	-16.894102	-44.666760	-16.894102	-44.666760	-0.438873	-126.065808
9.000000	-0.542121	-162.832744	-16.833578	-45.350328	-16.833578	-45.350328	-0.445043	-126.664487
9.050000	-0.549615	-163.739178	-16.772832	-46.036698	-16.772832	-46.036698	-0.451298	-127.262781
9.100000	-0.557205	-164.649155	-16.711865	-46.725944	-16.711865	-46.725944	-0.457640	-127.860714
9.150000	-0.564891	-165.562776	-16.650677	-47.418142	-16.650677	-47.418142	-0.464071	-128.458306
9.200000	-0.572675	-166.480143	-16.589270	-48.113368	-16.589270	-48.113368	-0.470591	-129.055579
9.250000	-0.580558	-167.401361	-16.527645	-48.811698	-16.527645	-48.811698	-0.477201	-129.652556
9.300000	-0.588540	-168.326535	-16.465803	-49.513207	-16.465803	-49.513207	-0.483902	-130.249259
9.350000	-0.596624	-169.255772	-16.403746	-50.217971	-16.403746	-50.217971	-0.490696	-130.845710
9.400000	-0.604809	-170.189178	-16.341475	-50.926069	-16.341475	-50.926069	-0.497584	-131.441932
9.450000	-0.613096	-171.126864	-16.278992	-51.637575	-16.278992	-51.637575	-0.504567	-132.037948
9.500000	-0.621488	-172.068940	-16.216300	-52.352569	-16.216300	-52.352569	-0.511647	-132.633779
9.550000	-0.629984	-173.015518	-16.153400	-53.071127	-16.153400	-53.071127	-0.518823	-133.229450
9.600000	-0.638585	-173.966709	-16.090294	-53.793329	-16.090294	-53.793329	-0.526099	-133.824982
9.650000	-0.647294	-174.922630	-16.026985	-54.519254	-16.026985	-54.519254	-0.533474	-134.420400
9.700000	-0.656109	-175.883395	-15.963475	-55.248982	-15.963475	-55.248982	-0.540950	-135.015726
9.750000	-0.665033	-176.849120	-15.899768	-55.982594	-15.899768	-55.982594	-0.548529	-135.610984
9.800000	-0.674067	-177.819925	-15.835865	-56.720171	-15.835865	-56.720171	-0.556211	-136.206197
9.850000	-0.683210	-178.795928	-15.771771	-57.461796	-15.771771	-57.461796	-0.563999	-136.801389
9.900000	-0.692465	-179.777250	-15.707488	-58.207552	-15.707488	-58.207552	-0.571892	-137.396584
9.950000	-0.701831	179.235987	-15.643019	-58.957525	-15.643019	-58.957525	-0.579893	-137.991806
10.000000	-0.711310	178.243661	-15.578369	-59.711800	-15.578369	-59.711800	-0.588003	-138.587079
