! freq	dB(S11)	phase(S11)	dB(S12)	phase(S12)	
!     	dB(S21)	phase(S21)	dB(S22)	phase(S22)	
!S-par simulation data
#  GHz  S  DB  R 50
0.000000	-0.000000	-0.000000	-337.695807	180.000000	-337.695807	180.000000	-0.000000	-0.000000
0.050000	-0.000102	-0.809932	-66.980802	88.740803	-66.980802	88.740803	-0.000119	-0.980964
0.100000	-0.000403	-1.619620	-60.994943	87.587042	-60.994943	87.587042	-0.000473	-1.961637
0.150000	-0.000892	-2.428838	-57.513763	86.562734	-57.513763	86.562734	-0.001047	-2.941747
0.200000	-0.001550	-3.237397	-55.052266	85.633701	-55.052266	85.633701	-0.001822	-3.921064
0.250000	-0.002363	-4.045085	-53.145807	84.762223	-53.145807	84.762223	-0.002785	-4.899321
0.300000	-0.003294	-4.851863	-51.587880	83.914960	-51.587880	83.914960	-0.003891	-5.876454
0.350000	-0.004326	-5.657617	-50.270369	83.078571	-50.270369	83.078571	-0.005123	-6.852308
0.400000	-0.005436	-6.462303	-49.128928	82.244807	-49.128928	82.244807	-0.006453	-7.826804
0.450000	-0.006603	-7.265904	-48.122254	81.409870	-48.122254	81.409870	-0.007858	-8.799899
0.500000	-0.007808	-8.068425	-47.222209	80.572256	-47.222209	80.572256	-0.009315	-9.771573
0.550000	-0.009036	-8.869886	-46.408727	79.731588	-46.408727	79.731588	-0.010806	-10.741828
0.600000	-0.010275	-9.670318	-45.666984	78.888013	-45.666984	78.888013	-0.012315	-11.710680
0.650000	-0.011516	-10.469753	-44.985704	78.041899	-44.985704	78.041899	-0.013829	-12.678149
0.700000	-0.012752	-11.268226	-44.356108	77.193693	-44.356108	77.193693	-0.015341	-13.644259
0.750000	-0.013978	-12.065767	-43.771223	76.343845	-43.771223	76.343845	-0.016841	-14.609035
0.800000	-0.015190	-12.862404	-43.225419	75.492785	-43.225419	75.492785	-0.018327	-15.572495
0.850000	-0.016388	-13.658159	-42.714083	74.640907	-42.714083	74.640907	-0.019795	-16.534657
0.900000	-0.017570	-14.453048	-42.233387	73.788568	-42.233387	73.788568	-0.021242	-17.495531
0.950000	-0.018736	-15.247082	-41.780118	72.936088	-41.780118	72.936088	-0.022669	-18.455121
1.000000	-0.019887	-16.040268	-41.351557	72.083757	-41.351557	72.083757	-0.024076	-19.413427
1.050000	-0.021023	-16.832606	-40.945377	71.231837	-40.945377	71.231837	-0.025463	-20.370443
1.100000	-0.022147	-17.624095	-40.559574	70.380564	-40.559574	70.380564	-0.026831	-21.326158
1.150000	-0.023258	-18.414728	-40.192410	69.530153	-40.192410	69.530153	-0.028182	-22.280558
1.200000	-0.024358	-19.204496	-39.842367	68.680804	-39.842367	68.680804	-0.029516	-23.233623
1.250000	-0.025449	-19.993387	-39.508111	67.832699	-39.508111	67.832699	-0.030836	-24.185333
1.300000	-0.026531	-20.781347	-39.188561	66.986076	-39.188561	66.986076	-0.032143	-25.135603
1.350000	-0.027605	-21.568398	-38.882573	66.141040	-38.882573	66.141040	-0.033438	-26.084465
1.400000	-0.028674	-22.354524	-38.589210	65.297737	-38.589210	65.297737	-0.034722	-27.031892
1.450000	-0.029737	-23.139707	-38.307638	64.456308	-38.307638	64.456308	-0.035998	-27.977854
1.500000	-0.030796	-23.923927	-38.037104	63.616886	-38.037104	63.616886	-0.037266	-28.922323
1.550000	-0.031850	-24.707165	-37.776927	62.779596	-37.776927	62.779596	-0.038527	-29.865267
1.600000	-0.032902	-25.489401	-37.526492	61.944560	-37.526492	61.944560	-0.039782	-30.806655
1.650000	-0.033952	-26.270616	-37.285239	61.111895	-37.285239	61.111895	-0.041033	-31.746459
1.700000	-0.035000	-27.050788	-37.052658	60.281713	-37.052658	60.281713	-0.042280	-32.684646
1.750000	-0.036047	-27.829898	-36.828280	59.454122	-36.828280	59.454122	-0.043523	-33.621186
1.800000	-0.037092	-28.607925	-36.611678	58.629226	-36.611678	58.629226	-0.044764	-34.556049
1.850000	-0.038138	-29.384850	-36.402457	57.807129	-36.402457	57.807129	-0.046003	-35.489205
1.900000	-0.039183	-30.160653	-36.200254	56.987929	-36.200254	56.987929	-0.047241	-36.420625
1.950000	-0.040229	-30.935313	-36.004732	56.171723	-36.004732	56.171723	-0.048478	-37.350280
2.000000	-0.041276	-31.708813	-35.815579	55.358604	-35.815579	55.358604	-0.049715	-38.278143
2.050000	-0.042323	-32.481132	-35.632508	54.548666	-35.632508	54.548666	-0.050952	-39.204186
2.100000	-0.043372	-33.252253	-35.455248	53.741998	-35.455248	53.741998	-0.052189	-40.128381
2.150000	-0.044422	-34.022156	-35.283549	52.938689	-35.283549	52.938689	-0.053427	-41.050704
2.200000	-0.045474	-34.790824	-35.117176	52.138825	-35.117176	52.138825	-0.054667	-41.971129
2.250000	-0.046528	-35.558239	-34.955909	51.342490	-34.955909	51.342490	-0.055909	-42.889632
2.300000	-0.047585	-36.324384	-34.799543	50.549768	-34.799543	50.549768	-0.057153	-43.806190
2.350000	-0.048644	-37.089242	-34.647885	49.760741	-34.647885	49.760741	-0.058399	-44.720778
2.400000	-0.049706	-37.852796	-34.500752	48.975489	-34.500752	48.975489	-0.059649	-45.633377
2.450000	-0.050771	-38.615030	-34.357973	48.194090	-34.357973	48.194090	-0.060901	-46.543963
2.500000	-0.051840	-39.375929	-34.219385	47.416622	-34.219385	47.416622	-0.062157	-47.452519
2.550000	-0.052912	-40.135417	-34.084918	46.643338	-34.084918	46.643338	-0.063418	-48.358933
2.600000	-0.053989	-40.893539	-33.954343	45.874143	-33.954343	45.874143	-0.064683	-49.263275
2.650000	-0.055069	-41.650279	-33.827522	45.109109	-33.827522	45.109109	-0.065952	-50.165529
2.700000	-0.056155	-42.405623	-33.704324	44.348309	-33.704324	44.348309	-0.067227	-51.065677
2.750000	-0.057245	-43.159558	-33.584626	43.591813	-33.584626	43.591813	-0.068507	-51.963704
2.800000	-0.058340	-43.912069	-33.468308	42.839690	-33.468308	42.839690	-0.069793	-52.859594
2.850000	-0.059440	-44.663146	-33.355259	42.092009	-33.355259	42.092009	-0.071085	-53.753334
2.900000	-0.060547	-45.412774	-33.245369	41.348838	-33.245369	41.348838	-0.072384	-54.644909
2.950000	-0.061659	-46.160942	-33.138537	40.610241	-33.138537	40.610241	-0.073691	-55.534307
3.000000	-0.062778	-46.907638	-33.034664	39.876284	-33.034664	39.876284	-0.075004	-56.421516
3.050000	-0.063903	-47.652850	-32.933654	39.147030	-32.933654	39.147030	-0.076326	-57.306526
3.100000	-0.065035	-48.396569	-32.835417	38.422542	-32.835417	38.422542	-0.077656	-58.189326
3.150000	-0.066175	-49.138782	-32.739867	37.702879	-32.739867	37.702879	-0.078994	-59.069907
3.200000	-0.067323	-49.879481	-32.646918	36.988103	-32.646918	36.988103	-0.080342	-59.948260
3.250000	-0.068478	-50.618655	-32.556491	36.278272	-32.556491	36.278272	-0.081700	-60.824378
3.300000	-0.069642	-51.356296	-32.468507	35.573443	-32.468507	35.573443	-0.083068	-61.698253
3.350000	-0.070815	-52.092393	-32.382892	34.873673	-32.382892	34.873673	-0.084446	-62.569880
3.400000	-0.071997	-52.826939	-32.299572	34.179016	-32.299572	34.179016	-0.085835	-63.439252
3.450000	-0.073189	-53.559926	-32.218478	33.489526	-32.218478	33.489526	-0.087236	-64.306366
3.500000	-0.074390	-54.291346	-32.139541	32.805256	-32.139541	32.805256	-0.088648	-65.171218
3.550000	-0.075601	-55.021191	-32.062696	32.126256	-32.062696	32.126256	-0.090073	-66.033803
3.600000	-0.076824	-55.749454	-31.987878	31.452578	-31.987878	31.452578	-0.091511	-66.894121
3.650000	-0.078057	-56.476130	-31.915026	30.784269	-31.915026	30.784269	-0.092963	-67.752169
3.700000	-0.079301	-57.201212	-31.844080	30.121377	-31.844080	30.121377	-0.094428	-68.607946
3.750000	-0.080558	-57.924694	-31.774979	29.463947	-31.774979	29.463947	-0.095907	-69.461453
3.800000	-0.081827	-58.646501	-31.707721	28.812266	-31.707721	28.812266	-0.097402	-70.312591
3.850000	-0.083108	-59.366697	-31.642194	28.166139	-31.642194	28.166139	-0.098912	-71.161460
3.900000	-0.084403	-60.085278	-31.578343	27.525608	-31.578343	27.525608	-0.100438	-72.008062
3.950000	-0.085711	-60.802241	-31.516116	26.890712	-31.516116	26.890712	-0.101980	-72.852401
4.000000	-0.087033	-61.517580	-31.455459	26.261492	-31.455459	26.261492	-0.103539	-73.694479
4.050000	-0.088369	-62.231294	-31.396323	25.637982	-31.396323	25.637982	-0.105115	-74.534301
4.100000	-0.089719	-62.943378	-31.338657	25.020220	-31.338657	25.020220	-0.106708	-75.371871
4.150000	-0.091085	-63.653831	-31.282412	24.408238	-31.282412	24.408238	-0.108320	-76.207195
4.200000	-0.092465	-64.362649	-31.227541	23.802070	-31.227541	23.802070	-0.109951	-77.040280
4.250000	-0.093862	-65.069833	-31.173997	23.201745	-31.173997	23.201745	-0.111601	-77.871132
4.300000	-0.095275	-65.775379	-31.121732	22.607293	-31.121732	22.607293	-0.113270	-78.699758
4.350000	-0.096704	-66.479287	-31.070702	22.018740	-31.070702	22.018740	-0.114960	-79.526167
4.400000	-0.098150	-67.181557	-31.020862	21.436112	-31.020862	21.436112	-0.116670	-80.350367
4.450000	-0.099614	-67.882187	-30.972167	20.859431	-30.972167	20.859431	-0.118401	-81.172367
4.500000	-0.101095	-68.581179	-30.924574	20.288719	-30.924574	20.288719	-0.120153	-81.992178
4.550000	-0.102594	-69.278532	-30.878041	19.723995	-30.878041	19.723995	-0.121928	-82.809810
4.600000	-0.104112	-69.974247	-30.832524	19.165276	-30.832524	19.165276	-0.123725	-83.625274
4.650000	-0.105649	-70.668326	-30.787982	18.612575	-30.787982	18.612575	-0.125545	-84.438582
4.700000	-0.107206	-71.360770	-30.744374	18.065907	-30.744374	18.065907	-0.127388	-85.249746
4.750000	-0.108782	-72.051580	-30.701658	17.525280	-30.701658	17.525280	-0.129255	-86.058779
4.800000	-0.110378	-72.740759	-30.659794	16.990701	-30.659794	16.990701	-0.131147	-86.865694
4.850000	-0.111995	-73.428310	-30.618742	16.462177	-30.618742	16.462177	-0.133063	-87.670505
4.900000	-0.113633	-74.114236	-30.578463	15.939708	-30.578463	15.939708	-0.135005	-88.473227
4.950000	-0.115293	-74.798539	-30.538916	15.423293	-30.538916	15.423293	-0.136972	-89.273875
5.000000	-0.116974	-75.481223	-30.500063	14.912930	-30.500063	14.912930	-0.138965	-90.072464
5.050000	-0.118690	-76.161383	-30.462118	14.412022	-30.462118	14.412022	-0.141000	-90.867866
5.100000	-0.120406	-76.841542	-30.424338	13.911114	-30.424338	13.911114	-0.143035	-91.663268
5.150000	-0.122166	-77.518631	-30.387511	13.421718	-30.387511	13.421718	-0.145123	-92.454831
5.200000	-0.123930	-78.195440	-30.350910	12.933369	-30.350910	12.933369	-0.147216	-93.246045
5.250000	-0.125736	-78.869476	-30.315059	12.455416	-30.315059	12.455416	-0.149357	-94.033835
5.300000	-0.127550	-79.542958	-30.279475	11.979542	-30.279475	11.979542	-0.151509	-94.820940
5.350000	-0.129403	-80.213962	-30.244464	11.512936	-30.244464	11.512936	-0.153707	-95.605024
5.400000	-0.131269	-80.884141	-30.209735	11.049419	-30.209735	11.049419	-0.155920	-96.388102
5.450000	-0.133170	-81.552137	-30.175428	10.594038	-30.175428	10.594038	-0.158175	-97.168553
5.500000	-0.135089	-82.219041	-30.141397	10.142724	-30.141397	10.142724	-0.160451	-97.947689
5.550000	-0.137040	-82.884052	-30.107660	9.698415	-30.107660	9.698415	-0.162765	-98.724581
5.600000	-0.139014	-83.547712	-30.074170	9.259109	-30.074170	9.259109	-0.165106	-99.499867
5.650000	-0.141017	-84.209766	-30.040873	8.825690	-30.040873	8.825690	-0.167481	-100.273276
5.700000	-0.143048	-84.870215	-30.007768	8.398157	-30.007768	8.398157	-0.169888	-101.044807
5.750000	-0.145103	-85.529341	-29.974782	7.975413	-29.974782	7.975413	-0.172324	-101.814815
5.800000	-0.147192	-86.186615	-29.941911	7.559372	-29.941911	7.559372	-0.174800	-102.582688
5.850000	-0.149302	-86.842843	-29.909110	7.147053	-29.909110	7.147053	-0.177300	-103.349377
5.900000	-0.151452	-87.496981	-29.876323	6.742178	-29.876323	6.742178	-0.179846	-104.113694
5.950000	-0.153617	-88.150344	-29.843583	6.340000	-29.843583	6.340000	-0.182410	-104.877150
6.000000	-0.155829	-88.801385	-29.810734	5.945913	-29.810734	5.945913	-0.185028	-105.638017
6.050000	-0.158051	-89.451918	-29.777934	5.553554	-29.777934	5.553554	-0.187659	-106.398327
6.100000	-0.160326	-90.099906	-29.744881	5.169830	-29.744881	5.169830	-0.190350	-107.155853
6.150000	-0.162608	-90.747644	-29.711903	4.786930	-29.711903	4.786930	-0.193049	-107.913109
6.200000	-0.164948	-91.392625	-29.678507	4.413089	-29.678507	4.413089	-0.195815	-108.667405
6.250000	-0.167289	-92.037606	-29.645239	4.039249	-29.645239	4.039249	-0.198582	-109.421700
6.300000	-0.169697	-92.679628	-29.611367	3.674762	-29.611367	3.674762	-0.201426	-110.172881
6.350000	-0.172105	-93.321649	-29.577627	3.310275	-29.577627	3.310275	-0.204270	-110.924062
6.400000	-0.174575	-93.961003	-29.543223	2.953826	-29.543223	2.953826	-0.207185	-111.672496
6.450000	-0.177052	-94.600115	-29.508884	2.598108	-29.508884	2.598108	-0.210107	-112.420680
6.500000	-0.179587	-95.236844	-29.473850	2.249169	-29.473850	2.249169	-0.213096	-113.166468
6.550000	-0.182134	-95.873098	-29.438792	1.901585	-29.438792	1.901585	-0.216098	-113.911776
6.600000	-0.184735	-96.507248	-29.403036	1.559588	-29.403036	1.559588	-0.219161	-114.655021
6.650000	-0.187354	-97.140697	-29.367147	1.219454	-29.367147	1.219454	-0.222245	-115.397578
6.700000	-0.190022	-97.772315	-29.330580	0.883798	-29.330580	0.883798	-0.225384	-116.138385
6.750000	-0.192715	-98.403016	-29.293757	0.550380	-29.293757	0.550380	-0.228551	-116.878318
6.800000	-0.195451	-99.032147	-29.256302	0.220429	-29.256302	0.220429	-0.231767	-117.616794
6.850000	-0.198219	-99.660158	-29.218449	-0.107046	-29.218449	-0.107046	-0.235018	-118.354231
6.900000	-0.201025	-100.286853	-29.180035	-0.431958	-29.180035	-0.431958	-0.238312	-119.090487
6.950000	-0.203870	-100.912233	-29.141069	-0.754306	-29.141069	-0.754306	-0.241649	-119.825561
7.000000	-0.206748	-101.536543	-29.101633	-1.074871	-29.101633	-1.074871	-0.245023	-120.559707
7.050000	-0.209671	-102.159354	-29.061479	-1.392938	-29.061479	-1.392938	-0.248448	-121.292553
7.100000	-0.212621	-102.781329	-29.020968	-1.709869	-29.020968	-1.709869	-0.251902	-122.024702
7.150000	-0.215624	-103.401634	-28.979565	-2.024528	-28.979565	-2.024528	-0.255415	-122.755457
7.200000	-0.218648	-104.021328	-28.937934	-2.338558	-28.937934	-2.338558	-0.258952	-123.485725
7.250000	-0.221733	-104.639192	-28.895233	-2.650699	-28.895233	-2.650699	-0.262555	-124.214529
7.300000	-0.224832	-105.256661	-28.852447	-2.962570	-28.852447	-2.962570	-0.266174	-124.943033
7.350000	-0.228000	-105.872150	-28.808410	-3.273093	-28.808410	-3.273093	-0.269869	-125.670029
7.400000	-0.231175	-106.487448	-28.764445	-3.583556	-28.764445	-3.583556	-0.273572	-126.396887
7.450000	-0.234428	-107.100631	-28.719049	-3.893359	-28.719049	-3.893359	-0.277359	-127.122220
7.500000	-0.237681	-107.713815	-28.673889	-4.203162	-28.673889	-4.203162	-0.281148	-127.847553
7.550000	-0.241019	-108.324763	-28.627123	-4.513136	-28.627123	-4.513136	-0.285029	-128.571370
7.600000	-0.244359	-108.935711	-28.580607	-4.823109	-28.580607	-4.823109	-0.288912	-129.295187
7.650000	-0.247778	-109.544675	-28.532629	-5.134036	-28.532629	-5.134036	-0.292880	-130.017751
7.700000	-0.251205	-110.153458	-28.484760	-5.445049	-28.484760	-5.445049	-0.296858	-130.740202
7.750000	-0.254705	-110.760499	-28.435587	-5.757627	-28.435587	-5.757627	-0.300914	-131.461641
7.800000	-0.258221	-111.367191	-28.386380	-6.070519	-28.386380	-6.070519	-0.304988	-132.182878
7.850000	-0.261805	-111.972371	-28.336038	-6.385420	-28.336038	-6.385420	-0.309134	-132.903320
7.900000	-0.265411	-112.577047	-28.285519	-6.700990	-28.285519	-6.700990	-0.313305	-133.623497
7.950000	-0.269078	-113.180429	-28.234043	-7.018846	-28.234043	-7.018846	-0.317542	-134.343073
8.000000	-0.272776	-113.783164	-28.182249	-7.337846	-28.182249	-7.337846	-0.321811	-135.062348
8.050000	-0.276529	-114.384813	-28.129681	-7.659250	-28.129681	-7.659250	-0.326139	-135.781190
8.100000	-0.280320	-114.985686	-28.076660	-7.982373	-28.076660	-7.982373	-0.330508	-136.499721
8.150000	-0.284159	-115.585667	-28.023048	-8.307871	-28.023048	-8.307871	-0.334927	-137.217963
8.200000	-0.288045	-116.184756	-27.968857	-8.635746	-27.968857	-8.635746	-0.339396	-137.935913
8.250000	-0.291971	-116.783135	-27.914257	-8.965834	-27.914257	-8.965834	-0.343908	-138.653691
8.300000	-0.295952	-117.380521	-27.858959	-9.299019	-27.858959	-9.299019	-0.348479	-139.371224
8.350000	-0.299967	-117.977367	-27.803429	-9.634137	-27.803429	-9.634137	-0.353085	-140.088675
8.400000	-0.304045	-118.573133	-27.747095	-9.973117	-27.747095	-9.973117	-0.357757	-140.805959
8.450000	-0.308149	-119.168514	-27.690699	-10.313648	-27.690699	-10.313648	-0.362457	-141.523222
8.500000	-0.312326	-119.762742	-27.633402	-10.658828	-27.633402	-10.658828	-0.367233	-142.240425
8.550000	-0.316520	-120.356729	-27.576206	-11.005096	-27.576206	-11.005096	-0.372028	-142.957643
8.600000	-0.320796	-120.949505	-27.518023	-11.356802	-27.518023	-11.356802	-0.376907	-143.674937
8.650000	-0.325082	-121.542168	-27.460095	-11.709072	-27.460095	-11.709072	-0.381797	-144.392253
8.700000	-0.329458	-122.133579	-27.401105	-12.067548	-27.401105	-12.067548	-0.386780	-145.109813
8.750000	-0.333836	-122.724990	-27.342512	-12.426024	-27.342512	-12.426024	-0.391766	-145.827372
8.800000	-0.338314	-123.315123	-27.282792	-12.791436	-27.282792	-12.791436	-0.396855	-146.545373
8.850000	-0.342794	-123.905257	-27.223480	-13.156849	-27.223480	-13.156849	-0.401946	-147.263375
8.900000	-0.347366	-124.494302	-27.163228	-13.528702	-27.163228	-13.528702	-0.407131	-147.981946
8.950000	-0.351948	-125.083248	-27.103271	-13.901141	-27.103271	-13.901141	-0.412327	-148.700569
9.000000	-0.356616	-125.671280	-27.042552	-14.279450	-27.042552	-14.279450	-0.417609	-149.419863
9.050000	-0.361302	-126.259130	-26.982021	-14.658933	-26.982021	-14.658933	-0.422911	-150.139290
9.100000	-0.366064	-126.846226	-26.920894	-15.043663	-26.920894	-15.043663	-0.428291	-150.859459
9.150000	-0.370855	-127.433072	-26.859857	-15.430142	-26.859857	-15.430142	-0.433699	-151.579876
9.200000	-0.375714	-128.019311	-26.798375	-15.821211	-26.798375	-15.821211	-0.439176	-152.301077
9.250000	-0.380610	-128.605247	-26.736893	-16.214575	-26.736893	-16.214575	-0.444690	-153.022670
9.300000	-0.385567	-129.190708	-26.675106	-16.611859	-26.675106	-16.611859	-0.450265	-153.745061
9.350000	-0.390568	-129.775830	-26.613233	-17.011945	-26.613233	-17.011945	-0.455885	-154.468022
9.400000	-0.395623	-130.360595	-26.551185	-17.415285	-26.551185	-17.415285	-0.461558	-155.191764
9.450000	-0.400731	-130.945001	-26.488968	-17.821879	-26.488968	-17.821879	-0.467284	-155.916286
9.500000	-0.405884	-131.529150	-26.426695	-18.231082	-26.426695	-18.231082	-0.473055	-156.641540
9.550000	-0.411100	-132.112939	-26.364173	-18.643936	-26.364173	-18.643936	-0.478887	-157.367820
9.600000	-0.416352	-132.696556	-26.301705	-19.058782	-26.301705	-19.058782	-0.484755	-158.094752
9.650000	-0.421675	-133.279829	-26.238907	-19.477612	-26.238907	-19.477612	-0.490692	-158.822989
9.700000	-0.427027	-133.862998	-26.176268	-19.897859	-26.176268	-19.897859	-0.496657	-159.551765
9.750000	-0.432458	-134.445858	-26.113213	-20.322358	-26.113213	-20.322358	-0.502700	-160.282162
9.800000	-0.437910	-135.028666	-26.050420	-20.747749	-26.050420	-20.747749	-0.508762	-161.012952
9.850000	-0.443450	-135.611217	-25.987120	-21.177595	-25.987120	-21.177595	-0.514908	-161.745714
9.900000	-0.449002	-136.193750	-25.924181	-21.607860	-25.924181	-21.607860	-0.521067	-162.478690
9.950000	-0.454651	-136.776099	-25.860636	-22.042720	-25.860636	-22.042720	-0.527316	-163.214026
10.000000	-0.460303	-137.358447	-25.797554	-22.477581	-25.797554	-22.477581	-0.533570	-163.949362
