! freq	dB(S11)	phase(S11)	dB(S12)	phase(S12)	
!     	dB(S21)	phase(S21)	dB(S22)	phase(S22)	
!S-par simulation data
#  GHz  S  DB  R 50
0.000000	-0.000000	0.000000	-344.597957	0.000000	-344.597957	0.000000	-0.000000	0.000000
0.050000	-0.000100	-0.799143	-75.021498	85.431533	-75.021498	85.431533	-0.000098	-0.779931
0.100000	-0.000396	-1.598045	-69.286222	85.828287	-69.286222	85.828287	-0.000389	-1.559626
0.150000	-0.000876	-2.396484	-65.845409	85.792234	-65.845409	85.792234	-0.000861	-2.338865
0.200000	-0.001521	-3.194277	-63.380958	85.450464	-63.380958	85.450464	-0.001494	-3.117468
0.250000	-0.002319	-3.991213	-61.462519	84.945466	-61.462519	84.945466	-0.002277	-3.895232
0.300000	-0.003233	-4.787254	-59.893328	84.361175	-59.893328	84.361175	-0.003173	-4.672120
0.350000	-0.004245	-5.582289	-58.566788	83.725101	-58.566788	83.725101	-0.004164	-5.448026
0.400000	-0.005333	-6.376273	-57.418768	83.056221	-57.418768	83.056221	-0.005229	-6.222910
0.450000	-0.006476	-7.169191	-56.407667	82.365520	-56.407667	82.365520	-0.006346	-6.996760
0.500000	-0.007657	-7.961048	-55.504976	81.659783	-55.504976	81.659783	-0.007498	-7.769583
0.550000	-0.008859	-8.751864	-54.690306	80.943435	-54.690306	80.943435	-0.008671	-8.541405
0.600000	-0.010071	-9.541670	-53.948573	80.219498	-53.948573	80.219498	-0.009853	-9.312254
0.650000	-0.011284	-10.330498	-53.268307	79.490114	-53.268307	79.490114	-0.011035	-10.082168
0.700000	-0.012491	-11.118383	-52.640581	78.756860	-52.640581	78.756860	-0.012210	-10.851180
0.750000	-0.013687	-11.905357	-52.058311	78.020927	-52.058311	78.020927	-0.013375	-11.619323
0.800000	-0.014869	-12.691446	-51.515786	77.283244	-51.515786	77.283244	-0.014525	-12.386625
0.850000	-0.016034	-13.476673	-51.008328	76.544554	-51.008328	76.544554	-0.015660	-13.153108
0.900000	-0.017183	-14.261057	-50.532062	75.805463	-50.532062	75.805463	-0.016779	-13.918791
0.950000	-0.018316	-15.044607	-50.083740	75.066481	-50.083740	75.066481	-0.017882	-14.683686
1.000000	-0.019432	-15.827332	-49.660613	74.328039	-49.660613	74.328039	-0.018969	-15.447799
1.050000	-0.020533	-16.609233	-49.260334	73.590517	-49.260334	73.590517	-0.020042	-16.211133
1.100000	-0.021620	-17.390309	-48.880884	72.854246	-48.880884	72.854246	-0.021101	-16.973688
1.150000	-0.022694	-18.170554	-48.520511	72.119529	-48.520511	72.119529	-0.022148	-17.735458
1.200000	-0.023756	-18.949960	-48.177688	71.386640	-48.177688	71.386640	-0.023183	-18.496435
1.250000	-0.024807	-19.728515	-47.851073	70.655832	-47.851073	70.655832	-0.024209	-19.256609
1.300000	-0.025849	-20.506169	-47.539626	69.927456	-47.539626	69.927456	-0.025226	-20.015933
1.350000	-0.026883	-21.282942	-47.242154	69.201643	-47.242154	69.201643	-0.026235	-20.774426
1.400000	-0.027910	-22.058819	-46.957719	68.478607	-46.957719	68.478607	-0.027238	-21.532074
1.450000	-0.028930	-22.833783	-46.685483	67.758556	-46.685483	67.758556	-0.028235	-22.288859
1.500000	-0.029946	-23.607814	-46.424695	67.041687	-46.424695	67.041687	-0.029227	-23.044766
1.550000	-0.030957	-24.380894	-46.174673	66.328197	-46.174673	66.328197	-0.030215	-23.799776
1.600000	-0.031965	-25.153005	-45.934803	65.618277	-45.934803	65.618277	-0.031200	-24.553871
1.650000	-0.032969	-25.924126	-45.704526	64.912117	-45.704526	64.912117	-0.032182	-25.307033
1.700000	-0.033971	-26.693878	-45.484453	64.211362	-45.484453	64.211362	-0.033162	-26.058905
1.750000	-0.034972	-27.463097	-45.271438	63.512731	-45.271438	63.512731	-0.034140	-26.810274
1.800000	-0.035971	-28.231030	-45.067339	62.819446	-45.067339	62.819446	-0.035118	-27.560430
1.850000	-0.036969	-28.998045	-44.870592	62.129979	-44.870592	62.129979	-0.036094	-28.309721
1.900000	-0.037968	-29.763915	-44.681447	61.445498	-44.681447	61.445498	-0.037071	-29.057932
1.950000	-0.038966	-30.528641	-44.499511	60.766002	-44.499511	60.766002	-0.038047	-29.805066
2.000000	-0.039964	-31.292379	-44.323985	60.090997	-44.323985	60.090997	-0.039024	-30.551267
2.050000	-0.040963	-32.054734	-44.155613	59.422281	-44.155613	59.422281	-0.040002	-31.296165
2.100000	-0.041963	-32.816272	-43.992561	58.757432	-43.992561	58.757432	-0.040980	-32.040293
2.150000	-0.042965	-33.576176	-43.836672	58.100317	-43.836672	58.100317	-0.041960	-32.782880
2.200000	-0.043967	-34.335448	-43.685100	57.446310	-43.685100	57.446310	-0.042941	-33.524872
2.250000	-0.044973	-35.092825	-43.540753	56.801628	-43.540753	56.801628	-0.043925	-34.265076
2.300000	-0.045979	-35.849767	-43.399794	56.159161	-43.399794	56.159161	-0.044910	-35.004871
2.350000	-0.046990	-36.604542	-43.266156	55.527763	-43.266156	55.527763	-0.045900	-35.742621
2.400000	-0.048002	-37.359094	-43.135048	54.897545	-43.135048	54.897545	-0.046889	-36.480162
2.450000	-0.049019	-38.111197	-43.011379	54.280300	-43.011379	54.280300	-0.047885	-37.215392
2.500000	-0.050036	-38.863300	-42.889446	53.663055	-42.889446	53.663055	-0.048880	-37.950621
2.550000	-0.051061	-39.612663	-42.775082	53.060852	-42.775082	53.060852	-0.049883	-38.683266
2.600000	-0.052086	-40.362026	-42.662205	52.458649	-42.662205	52.458649	-0.050887	-39.415911
2.650000	-0.053120	-41.108820	-42.556059	51.871070	-42.556059	51.871070	-0.051898	-40.146130
2.700000	-0.054154	-41.855379	-42.451671	51.284821	-42.451671	51.284821	-0.052910	-40.876129
2.750000	-0.055197	-42.599553	-42.353218	50.712644	-42.353218	50.712644	-0.053930	-41.603874
2.800000	-0.056241	-43.343249	-42.256798	50.143281	-42.256798	50.143281	-0.054953	-42.331169
2.850000	-0.057295	-44.084754	-42.165558	49.587302	-42.165558	49.587302	-0.055984	-43.056394
2.900000	-0.058351	-44.825529	-42.076626	49.035784	-42.076626	49.035784	-0.057017	-43.780929
2.950000	-0.059417	-45.564321	-41.992156	48.496816	-41.992156	48.496816	-0.058060	-44.503589
3.000000	-0.060487	-46.302122	-41.910263	47.964123	-41.910263	47.964123	-0.059107	-45.225313
3.050000	-0.061565	-47.038158	-41.832154	47.442996	-41.832154	47.442996	-0.060162	-45.945367
3.100000	-0.062650	-47.772934	-41.756877	46.930132	-41.756877	46.930132	-0.061224	-46.664230
3.150000	-0.063743	-48.506173	-41.684744	46.427695	-41.684744	46.427695	-0.062293	-47.381640
3.200000	-0.064844	-49.237878	-41.615681	45.935686	-41.615681	45.935686	-0.063371	-48.097597
3.250000	-0.065952	-49.968284	-41.549162	45.452801	-41.549162	45.452801	-0.064455	-48.812324
3.300000	-0.067071	-50.696873	-41.485926	44.982693	-41.485926	44.982693	-0.065550	-49.525332
3.350000	-0.068197	-51.424411	-41.424675	44.520239	-41.424675	44.520239	-0.066652	-50.237343
3.400000	-0.069336	-52.149845	-41.366888	44.073096	-41.366888	44.073096	-0.067766	-50.947362
3.450000	-0.070480	-52.874482	-41.310573	43.631963	-41.310573	43.631963	-0.068885	-51.656625
3.500000	-0.071639	-53.596725	-41.257867	43.208863	-41.257867	43.208863	-0.070020	-52.363619
3.550000	-0.072803	-54.318431	-41.206165	42.789952	-41.206165	42.789952	-0.071159	-53.070103
3.600000	-0.073986	-55.037451	-41.158174	42.391983	-41.158174	42.391983	-0.072316	-53.774038
3.650000	-0.075171	-55.756199	-41.110768	41.996200	-41.110768	41.996200	-0.073475	-54.477717
3.700000	-0.076378	-56.471965	-41.067126	41.624453	-41.067126	41.624453	-0.074657	-55.178564
3.750000	-0.077586	-57.187731	-41.023702	41.252707	-41.023702	41.252707	-0.075838	-55.879411
3.800000	-0.078819	-57.900217	-40.984039	40.908267	-40.984039	40.908267	-0.077045	-56.577143
3.850000	-0.080053	-58.612704	-40.944557	40.563828	-40.944557	40.563828	-0.078252	-57.274875
3.900000	-0.081312	-59.322163	-40.908226	40.245401	-40.908226	40.245401	-0.079484	-57.969729
3.950000	-0.082574	-60.031347	-40.872316	39.929339	-40.872316	39.929339	-0.080718	-58.664322
4.000000	-0.083861	-60.737764	-40.838986	39.637793	-40.838986	39.637793	-0.081976	-59.356281
4.050000	-0.085152	-61.443627	-40.806267	39.351149	-40.806267	39.351149	-0.083240	-60.047714
4.100000	-0.086467	-62.146988	-40.775600	39.087318	-40.775600	39.087318	-0.084526	-60.736765
4.150000	-0.087790	-62.849514	-40.745682	38.831090	-40.745682	38.831090	-0.085820	-61.425020
4.200000	-0.089135	-63.549808	-40.717333	38.595764	-40.717333	38.595764	-0.087135	-62.111149
4.250000	-0.090491	-64.248985	-40.689806	38.370888	-40.689806	38.370888	-0.088462	-62.796213
4.300000	-0.091867	-64.946203	-40.663418	38.164796	-40.663418	38.164796	-0.089808	-63.479409
4.350000	-0.093258	-65.642021	-40.637859	37.972122	-40.637859	37.972122	-0.091168	-64.161270
4.400000	-0.094668	-66.336158	-40.613065	37.795919	-40.613065	37.795919	-0.092546	-64.841526
4.450000	-0.096095	-67.028612	-40.589029	37.636188	-40.589029	37.636188	-0.093943	-65.520177
4.500000	-0.097539	-67.719664	-40.565449	37.490435	-40.565449	37.490435	-0.095354	-66.197487
4.550000	-0.099005	-68.408751	-40.542474	37.364250	-40.542474	37.364250	-0.096788	-66.872921
4.600000	-0.100485	-69.096717	-40.519712	37.249392	-40.519712	37.249392	-0.098234	-67.547282
4.650000	-0.101991	-69.782439	-40.497314	37.157186	-40.497314	37.157186	-0.099707	-68.219497
4.700000	-0.103507	-70.467320	-40.474963	37.073532	-40.474963	37.073532	-0.101190	-68.890908
4.750000	-0.105055	-71.149679	-40.452639	37.015533	-40.452639	37.015533	-0.102703	-69.559906
4.800000	-0.106611	-71.831479	-40.430279	36.963233	-40.430279	36.963233	-0.104224	-70.228368
4.850000	-0.108202	-72.510483	-40.407508	36.939426	-40.407508	36.939426	-0.105780	-70.894151
4.900000	-0.109797	-73.189209	-40.384705	36.918445	-40.384705	36.918445	-0.107339	-71.559667
4.950000	-0.111434	-73.864867	-40.360951	36.928536	-40.360951	36.928536	-0.108939	-72.222243
5.000000	-0.113071	-74.540526	-40.337261	36.938627	-40.337261	36.938627	-0.110539	-72.884818
5.050000	-0.114754	-75.212852	-40.311974	36.982004	-40.311974	36.982004	-0.112185	-73.544195
5.100000	-0.116438	-75.885178	-40.286761	37.025381	-40.286761	37.025381	-0.113831	-74.203572
5.150000	-0.118166	-76.554464	-40.259574	37.098385	-40.259574	37.098385	-0.115520	-74.860027
5.200000	-0.119898	-77.223473	-40.232286	37.174082	-40.232286	37.174082	-0.117214	-75.516217
5.250000	-0.121672	-77.889734	-40.202740	37.275589	-40.202740	37.275589	-0.118948	-76.169764
5.300000	-0.123455	-78.555445	-40.172827	37.382257	-40.172827	37.382257	-0.120690	-76.822782
5.350000	-0.125277	-79.218699	-40.140472	37.510837	-40.140472	37.510837	-0.122470	-77.473434
5.400000	-0.127111	-79.881133	-40.107392	37.646721	-40.107392	37.646721	-0.124263	-78.123297
5.450000	-0.128981	-80.541399	-40.071794	37.800631	-40.071794	37.800631	-0.126091	-78.771069
5.500000	-0.130869	-81.200581	-40.035025	37.963553	-40.035025	37.963553	-0.127937	-79.417797
5.550000	-0.132790	-81.857881	-39.995771	38.140733	-39.995771	38.140733	-0.129814	-80.062709
5.600000	-0.134733	-82.513837	-39.954817	38.328096	-39.954817	38.328096	-0.131713	-80.706324
5.650000	-0.136705	-83.168194	-39.911526	38.526177	-39.911526	38.526177	-0.133640	-81.348395
5.700000	-0.138705	-83.820954	-39.865932	38.734974	-39.865932	38.734974	-0.135595	-81.988921
5.750000	-0.140729	-84.472395	-39.818259	38.951291	-39.818259	38.951291	-0.137574	-82.628173
5.800000	-0.142788	-85.121989	-39.767620	39.178137	-39.767620	39.178137	-0.139586	-83.265638
5.850000	-0.144867	-85.770540	-39.715266	39.409760	-39.715266	39.409760	-0.141618	-83.902093
5.900000	-0.146985	-86.417004	-39.659237	39.650937	-39.659237	39.650937	-0.143689	-84.536527
5.950000	-0.149120	-87.062695	-39.601958	39.894700	-39.601958	39.894700	-0.145776	-85.170210
6.000000	-0.151300	-87.706065	-39.540262	40.146220	-39.540262	40.146220	-0.147907	-85.801644
6.050000	-0.153491	-88.348927	-39.477871	40.398767	-39.477871	40.398767	-0.150049	-86.432583
6.100000	-0.155735	-88.989242	-39.410311	40.656448	-39.410311	40.656448	-0.152242	-87.061050
6.150000	-0.157984	-89.629306	-39.342682	40.914284	-39.342682	40.914284	-0.154441	-87.689273
6.200000	-0.160293	-90.266608	-39.269141	41.173836	-39.269141	41.173836	-0.156697	-88.314809
6.250000	-0.162602	-90.903909	-39.196217	41.433388	-39.196217	41.433388	-0.158955	-88.940346
6.300000	-0.164976	-91.538241	-39.116664	41.690506	-39.116664	41.690506	-0.161276	-89.562990
6.350000	-0.167351	-92.172572	-39.037833	41.947625	-39.037833	41.947625	-0.163599	-90.185634
6.400000	-0.169788	-92.804222	-38.952941	42.198641	-38.952941	42.198641	-0.165981	-90.805663
6.450000	-0.172232	-93.435628	-38.868262	42.449103	-38.868262	42.449103	-0.168370	-91.425454
6.500000	-0.174732	-94.064636	-38.778182	42.690642	-38.778182	42.690642	-0.170815	-92.042904
6.550000	-0.177245	-94.693165	-38.687795	42.930396	-38.687795	42.930396	-0.173272	-92.659885
6.600000	-0.179810	-95.319572	-38.592733	43.159271	-38.592733	43.159271	-0.175781	-93.274790
6.650000	-0.182393	-95.945273	-38.496852	43.384520	-38.496852	43.384520	-0.178307	-93.889005
6.700000	-0.185025	-96.569122	-38.397068	43.597785	-38.397068	43.597785	-0.180881	-94.501405
6.750000	-0.187681	-97.192046	-38.295972	43.805059	-38.295972	43.805059	-0.183478	-95.112898
6.800000	-0.190379	-97.813382	-38.191771	44.000045	-38.191771	44.000045	-0.186118	-95.722831
6.850000	-0.193109	-98.433582	-38.085794	44.186255	-38.085794	44.186255	-0.188788	-96.331651
6.900000	-0.195876	-99.052449	-37.977516	44.360599	-37.977516	44.360599	-0.191495	-96.939158
6.950000	-0.198681	-99.669981	-37.867038	44.523078	-37.867038	44.523078	-0.194239	-97.545353
7.000000	-0.201518	-100.286426	-37.755050	44.674743	-37.755050	44.674743	-0.197014	-98.150476
7.050000	-0.204400	-100.901347	-37.640485	44.811268	-37.640485	44.811268	-0.199834	-98.754098
7.100000	-0.207308	-101.515417	-37.525173	44.938551	-37.525173	44.938551	-0.202679	-99.356879
7.150000	-0.210268	-102.127785	-37.406956	45.047351	-37.406956	45.047351	-0.205575	-99.957980
7.200000	-0.213248	-102.739531	-37.288715	45.148887	-37.288715	45.148887	-0.208492	-100.558465
7.250000	-0.216287	-103.349407	-37.167295	45.228632	-37.167295	45.228632	-0.211466	-101.157099
7.300000	-0.219340	-103.958878	-37.046523	45.303384	-37.046523	45.303384	-0.214454	-101.755332
7.350000	-0.222460	-104.566324	-36.922349	45.353171	-36.922349	45.353171	-0.217508	-102.351555
7.400000	-0.225588	-105.173573	-36.799439	45.400419	-36.799439	45.400419	-0.220570	-102.947583
7.450000	-0.228790	-105.778652	-36.672956	45.419739	-36.672956	45.419739	-0.223705	-103.541453
7.500000	-0.231994	-106.383731	-36.548290	45.439059	-36.548290	45.439059	-0.226841	-104.135323
7.550000	-0.235279	-106.986509	-36.419930	45.427765	-36.419930	45.427765	-0.230058	-104.726899
7.600000	-0.238566	-107.589286	-36.293439	45.416470	-36.293439	45.416470	-0.233276	-105.318474
7.650000	-0.241930	-108.190015	-36.164048	45.377271	-36.164048	45.377271	-0.236570	-105.908002
7.700000	-0.245301	-108.790558	-36.036133	45.335535	-36.036133	45.335535	-0.239872	-106.497343
7.750000	-0.248744	-109.389296	-35.906046	45.268811	-35.906046	45.268811	-0.243244	-107.084874
7.800000	-0.252202	-109.987672	-35.777084	45.197090	-35.777084	45.197090	-0.246630	-107.672043
7.850000	-0.255724	-110.584476	-35.646611	45.103399	-35.646611	45.103399	-0.250081	-108.257629
7.900000	-0.259269	-111.180756	-35.516952	45.002386	-35.516952	45.002386	-0.253554	-108.842689
7.950000	-0.262873	-111.775685	-35.386376	44.882442	-35.386376	44.882442	-0.257084	-109.426386
8.000000	-0.266506	-112.369939	-35.256341	44.753032	-35.256341	44.753032	-0.260644	-110.009401
8.050000	-0.270191	-112.963054	-35.125917	44.607674	-35.125917	44.607674	-0.264256	-110.591261
8.100000	-0.273914	-113.555356	-34.995798	44.450924	-34.995798	44.450924	-0.267904	-111.172298
8.150000	-0.277683	-114.146718	-34.865755	44.281099	-34.865755	44.281099	-0.271597	-111.752379
8.200000	-0.281496	-114.737141	-34.735812	44.098197	-34.735812	44.098197	-0.275335	-112.331504
8.250000	-0.285349	-115.326812	-34.606351	43.904932	-34.606351	43.904932	-0.279111	-112.909862
8.300000	-0.289254	-115.915432	-34.476814	43.697160	-34.476814	43.697160	-0.282940	-113.487145
8.350000	-0.293191	-116.503477	-34.348111	43.481550	-34.348111	43.481550	-0.286800	-114.063837
8.400000	-0.297190	-117.090371	-34.219181	43.250263	-34.219181	43.250263	-0.290721	-114.639347
8.450000	-0.301212	-117.676853	-34.091388	43.013446	-34.091388	43.013446	-0.294665	-115.214433
8.500000	-0.305305	-118.262100	-33.963235	42.760041	-33.963235	42.760041	-0.298678	-115.788243
8.550000	-0.309414	-118.847085	-33.836479	42.503188	-33.836479	42.503188	-0.302708	-116.361782
8.600000	-0.313601	-119.430764	-33.709247	42.229090	-33.709247	42.229090	-0.306815	-116.933964
8.650000	-0.317797	-120.014319	-33.583634	41.953387	-33.583634	41.953387	-0.310932	-117.506016
8.700000	-0.322080	-120.596511	-33.457440	41.660027	-33.457440	41.660027	-0.315133	-118.076645
8.750000	-0.326365	-121.178704	-33.333054	41.366666	-33.333054	41.366666	-0.319337	-118.647273
8.800000	-0.330744	-121.759493	-33.207990	41.055465	-33.207990	41.055465	-0.323634	-119.216424
8.850000	-0.335125	-122.340282	-33.084702	40.744265	-33.084702	40.744265	-0.327933	-119.785574
8.900000	-0.339594	-122.919862	-32.961032	40.417995	-32.961032	40.417995	-0.332319	-120.353440
8.950000	-0.344073	-123.499332	-32.838909	40.090355	-32.838909	40.090355	-0.336714	-120.921189
9.000000	-0.348632	-124.077774	-32.716659	39.750157	-32.716659	39.750157	-0.341189	-121.487836
9.050000	-0.353209	-124.656010	-32.595747	39.407448	-32.595747	39.407448	-0.345682	-122.054262
9.100000	-0.357859	-125.233386	-32.474929	39.054434	-32.474929	39.054434	-0.350247	-122.619756
9.150000	-0.362535	-125.810476	-32.355253	38.697986	-32.355253	38.697986	-0.354838	-123.184939
9.200000	-0.367276	-126.386861	-32.235864	38.333234	-32.235864	38.333234	-0.359494	-123.749347
9.250000	-0.372052	-126.962892	-32.117433	37.964329	-32.117433	37.964329	-0.364183	-124.313368
9.300000	-0.376885	-127.538360	-31.999457	37.588877	-31.999457	37.588877	-0.368930	-124.876759
9.350000	-0.381761	-128.113424	-31.882261	37.208748	-31.882261	37.208748	-0.373719	-125.439701
9.400000	-0.386687	-128.688050	-31.765671	36.823594	-31.765671	36.823594	-0.378557	-126.002144
9.450000	-0.391663	-129.262239	-31.649684	36.433416	-31.649684	36.433416	-0.383445	-126.564090
9.500000	-0.396681	-129.836101	-31.534441	36.039514	-31.534441	36.039514	-0.388376	-127.125657
9.550000	-0.401759	-130.409507	-31.419624	35.640401	-31.419624	35.640401	-0.393364	-127.686693
9.600000	-0.406871	-130.982683	-31.305681	35.238662	-31.305681	35.238662	-0.398387	-128.247454
9.650000	-0.412049	-131.555401	-31.191980	34.831668	-31.191980	34.831668	-0.403476	-128.807667
9.700000	-0.417255	-132.127971	-31.079278	34.422953	-31.079278	34.422953	-0.408592	-129.367696
9.750000	-0.422535	-132.700098	-30.966628	34.009071	-30.966628	34.009071	-0.413782	-129.927174
9.800000	-0.427834	-133.272143	-30.855104	33.594195	-30.855104	33.594195	-0.418990	-130.486545
9.850000	-0.433216	-133.843777	-30.743428	33.174351	-30.743428	33.174351	-0.424281	-131.045379
9.900000	-0.438610	-134.415378	-30.633008	32.754082	-30.633008	32.754082	-0.429583	-131.604166
9.950000	-0.444093	-134.986619	-30.522219	32.329139	-30.522219	32.329139	-0.434975	-132.162448
10.000000	-0.449581	-135.557861	-30.412825	31.904196	-30.412825	31.904196	-0.440371	-132.720729
