! freq	dB(S11)	phase(S11)	dB(S12)	phase(S12)	
!     	dB(S21)	phase(S21)	dB(S22)	phase(S22)	
!S-par simulation data
#  GHz  S  DB  R 50
0.000000	0.000000	-0.000000	-297.494833	180.000000	-297.494833	180.000000	-0.000000	-0.000000
0.050000	-0.000113	-0.919870	-65.847803	88.858566	-65.847803	88.858566	-0.000113	-0.920114
0.100000	-0.000447	-1.839469	-59.845330	87.756785	-59.845330	87.756785	-0.000448	-1.839956
0.150000	-0.000991	-2.758544	-56.347948	86.714072	-56.347948	86.714072	-0.000992	-2.759274
0.200000	-0.001724	-3.676881	-53.875202	85.727818	-53.875202	85.727818	-0.001725	-3.677854
0.250000	-0.002633	-4.594235	-51.962493	84.787708	-51.962493	84.787708	-0.002634	-4.595450
0.300000	-0.003678	-5.510550	-50.401704	83.875250	-50.401704	83.875250	-0.003680	-5.512007
0.350000	-0.004841	-6.425686	-49.083329	82.981113	-49.083329	82.981113	-0.004843	-6.427384
0.400000	-0.006095	-7.339577	-47.942073	82.097376	-47.942073	82.097376	-0.006098	-7.341516
0.450000	-0.007419	-8.252189	-46.936068	81.219014	-46.936068	81.219014	-0.007422	-8.254368
0.500000	-0.008791	-9.163510	-46.036860	80.343039	-46.036860	80.343039	-0.008795	-9.165928
0.550000	-0.010194	-10.073549	-45.224225	79.467776	-45.224225	79.467776	-0.010199	-10.076206
0.600000	-0.011614	-10.982326	-44.483258	78.592358	-44.483258	78.592358	-0.011619	-10.985221
0.650000	-0.013039	-11.889867	-43.802652	77.716402	-43.802652	77.716402	-0.013045	-11.892999
0.700000	-0.014461	-12.796200	-43.173615	76.839805	-43.173615	76.839805	-0.014467	-12.799569
0.750000	-0.015873	-13.701352	-42.589178	75.962623	-42.589178	75.962623	-0.015880	-13.704957
0.800000	-0.017271	-14.605347	-42.043717	75.084999	-42.043717	75.084999	-0.017279	-14.609187
0.850000	-0.018652	-15.508203	-41.532625	74.207118	-41.532625	74.207118	-0.018661	-15.512279
0.900000	-0.020016	-16.409935	-41.052084	73.329185	-41.052084	73.329185	-0.020025	-16.414244
0.950000	-0.021361	-17.310550	-40.598891	72.451410	-40.598891	72.451410	-0.021371	-17.315093
1.000000	-0.022687	-18.210052	-40.170331	71.573998	-40.170331	71.573998	-0.022698	-18.214828
1.050000	-0.023997	-19.108438	-39.764087	70.697149	-39.764087	70.697149	-0.024007	-19.113447
1.100000	-0.025289	-20.005701	-39.378158	69.821052	-39.378158	69.821052	-0.025300	-20.010942
1.150000	-0.026566	-20.901831	-39.010813	68.945887	-39.010813	68.945887	-0.026578	-20.907303
1.200000	-0.027829	-21.796813	-38.660536	68.071824	-38.660536	68.071824	-0.027842	-21.802516
1.250000	-0.029080	-22.690631	-38.325996	67.199024	-38.325996	67.199024	-0.029093	-22.696563
1.300000	-0.030319	-23.583211	-38.006115	66.327709	-38.006115	66.327709	-0.030333	-23.589373
1.350000	-0.031548	-24.474584	-37.699752	65.457967	-37.699752	65.457967	-0.031562	-24.480974
1.400000	-0.032769	-25.364726	-37.405973	64.589934	-37.405973	64.589934	-0.032783	-25.371343
1.450000	-0.033982	-26.253611	-37.123946	63.723742	-37.123946	63.723742	-0.033997	-26.260456
1.500000	-0.035189	-27.141215	-36.852917	62.859515	-36.852917	62.859515	-0.035205	-27.148287
1.550000	-0.036391	-28.027513	-36.592210	61.997373	-36.592210	61.997373	-0.036407	-28.034810
1.600000	-0.037588	-28.912476	-36.341210	61.137430	-36.341210	61.137430	-0.037605	-28.919999
1.650000	-0.038782	-29.796080	-36.099356	60.279798	-36.099356	60.279798	-0.038799	-29.803827
1.700000	-0.039973	-30.678297	-35.866139	59.424584	-35.866139	59.424584	-0.039991	-30.686267
1.750000	-0.041161	-31.559101	-35.641093	58.571892	-35.641093	58.571892	-0.041180	-31.567294
1.800000	-0.042349	-32.438466	-35.423789	57.721821	-35.423789	57.721821	-0.042367	-32.446881
1.850000	-0.043535	-33.316365	-35.213834	56.874470	-35.213834	56.874470	-0.043554	-33.325001
1.900000	-0.044720	-34.192773	-35.010864	56.029933	-35.010864	56.029933	-0.044740	-34.201629
1.950000	-0.045906	-35.067665	-34.814542	55.188303	-34.814542	55.188303	-0.045926	-35.076740
2.000000	-0.047092	-35.941015	-34.624559	54.349669	-34.624559	54.349669	-0.047112	-35.950310
2.050000	-0.048278	-36.812800	-34.440624	53.514119	-34.440624	53.514119	-0.048299	-36.822313
2.100000	-0.049466	-37.682996	-34.262470	52.681739	-34.262470	52.681739	-0.049488	-37.692725
2.150000	-0.050655	-38.551580	-34.089844	51.852612	-34.089844	51.852612	-0.050678	-38.561525
2.200000	-0.051847	-39.418529	-33.922512	51.026821	-33.922512	51.026821	-0.051869	-39.428689
2.250000	-0.053040	-40.283820	-33.760255	50.204445	-33.760255	50.204445	-0.053063	-40.294196
2.300000	-0.054236	-41.147434	-33.602867	49.385562	-33.602867	49.385562	-0.054259	-41.158023
2.350000	-0.055434	-42.009349	-33.450155	48.570250	-33.450155	48.570250	-0.055458	-42.020151
2.400000	-0.056636	-42.869546	-33.301936	47.758583	-33.301936	47.758583	-0.056660	-42.880559
2.450000	-0.057841	-43.728004	-33.158039	46.950634	-33.158039	46.950634	-0.057866	-43.739228
2.500000	-0.059050	-44.584705	-33.018302	46.146476	-33.018302	46.146476	-0.059075	-44.596140
2.550000	-0.060263	-45.439554	-32.882650	45.346350	-32.882650	45.346350	-0.060289	-45.451198
2.600000	-0.061480	-46.292608	-32.750857	44.550159	-32.750857	44.550159	-0.061507	-46.304461
2.650000	-0.062702	-47.143853	-32.622787	43.757972	-32.622787	43.757972	-0.062729	-47.155913
2.700000	-0.063930	-47.993271	-32.498307	42.969854	-32.498307	42.969854	-0.063957	-48.005538
2.750000	-0.065162	-48.840847	-32.377295	42.185868	-32.377295	42.185868	-0.065190	-48.853320
2.800000	-0.066400	-49.686568	-32.259631	41.406080	-32.259631	41.406080	-0.066429	-49.699245
2.850000	-0.067645	-50.530418	-32.145202	40.630549	-32.145202	40.630549	-0.067673	-50.543299
2.900000	-0.068895	-51.372384	-32.033901	39.859336	-32.033901	39.859336	-0.068925	-51.385469
2.950000	-0.070153	-52.212454	-31.925625	39.092500	-31.925625	39.092500	-0.070182	-52.225741
3.000000	-0.071417	-53.050616	-31.820275	38.330099	-31.820275	38.330099	-0.071448	-53.064105
3.050000	-0.072689	-53.886859	-31.717756	37.572188	-31.717756	37.572188	-0.072720	-53.900548
3.100000	-0.073969	-54.721171	-31.617977	36.818823	-31.617977	36.818823	-0.074001	-54.735060
3.150000	-0.075258	-55.553543	-31.520853	36.070056	-31.520853	36.070056	-0.075289	-55.567630
3.200000	-0.076555	-56.383965	-31.426298	35.325939	-31.426298	35.325939	-0.076587	-56.398250
3.250000	-0.077861	-57.212428	-31.334232	34.586524	-31.334232	34.586524	-0.077893	-57.226911
3.300000	-0.079176	-58.038925	-31.244577	33.851860	-31.244577	33.851860	-0.079209	-58.053604
3.350000	-0.080501	-58.863447	-31.157259	33.121993	-31.157259	33.121993	-0.080535	-58.878322
3.400000	-0.081837	-59.685989	-31.072205	32.396971	-31.072205	32.396971	-0.081871	-59.701058
3.450000	-0.083183	-60.506542	-30.989346	31.676840	-30.989346	31.676840	-0.083218	-60.521805
3.500000	-0.084541	-61.325103	-30.908612	30.961641	-30.908612	30.961641	-0.084576	-61.340559
3.550000	-0.085910	-62.141666	-30.829939	30.251418	-30.829939	30.251418	-0.085945	-62.157314
3.600000	-0.087291	-62.956226	-30.753263	29.546212	-30.753263	29.546212	-0.087327	-62.972066
3.650000	-0.088685	-63.768779	-30.678523	28.846061	-30.678523	28.846061	-0.088721	-63.784810
3.700000	-0.090091	-64.579323	-30.605658	28.151004	-30.605658	28.151004	-0.090128	-64.595544
3.750000	-0.091511	-65.387855	-30.534611	27.461078	-30.534611	27.461078	-0.091548	-65.404265
3.800000	-0.092945	-66.194285	-30.465374	26.776542	-30.465374	26.776542	-0.092983	-66.210884
3.850000	-0.094393	-66.998699	-30.397841	26.097208	-30.397841	26.097208	-0.094432	-67.015485
3.900000	-0.095856	-67.801097	-30.331956	25.423108	-30.331956	25.423108	-0.095895	-67.818070
3.950000	-0.097334	-68.601478	-30.267668	24.754271	-30.267668	24.754271	-0.097374	-68.618638
4.000000	-0.098828	-69.399843	-30.204924	24.090726	-30.204924	24.090726	-0.098869	-69.417188
4.050000	-0.100338	-70.196193	-30.143676	23.432500	-30.143676	23.432500	-0.100379	-70.213722
4.100000	-0.101865	-70.990528	-30.083874	22.779618	-30.083874	22.779618	-0.101906	-71.008242
4.150000	-0.103408	-71.782852	-30.025469	22.132105	-30.025469	22.132105	-0.103450	-71.800750
4.200000	-0.104975	-72.572470	-29.968740	21.491867	-29.968740	21.491867	-0.105018	-72.590551
4.250000	-0.106552	-73.361041	-29.912869	20.854449	-29.912869	20.854449	-0.106595	-73.379304
4.300000	-0.108151	-74.147176	-29.858444	20.223648	-29.858444	20.223648	-0.108194	-74.165621
4.350000	-0.109766	-74.931572	-29.805132	19.597574	-29.805132	19.597574	-0.109810	-74.950198
4.400000	-0.111401	-75.713890	-29.753016	18.977206	-29.753016	18.977206	-0.111446	-75.732697
4.450000	-0.113057	-76.494132	-29.702077	18.362544	-29.702077	18.362544	-0.113102	-76.513119
4.500000	-0.114730	-77.272654	-29.652109	17.752656	-29.652109	17.752656	-0.114776	-77.291820
4.550000	-0.116429	-78.048767	-29.603365	17.149453	-29.603365	17.149453	-0.116475	-78.068113
4.600000	-0.118142	-78.823515	-29.555389	16.550079	-29.555389	16.550079	-0.118189	-78.843039
4.650000	-0.119885	-79.595530	-29.508665	15.958365	-29.508665	15.958365	-0.119933	-79.615232
4.700000	-0.121640	-80.366530	-29.462532	15.369526	-29.462532	15.369526	-0.121688	-80.386409
4.750000	-0.123429	-81.134482	-29.417659	14.789312	-29.417659	14.789312	-0.123478	-81.154539
4.800000	-0.125227	-81.901763	-29.373222	14.211013	-29.373222	14.211013	-0.125277	-81.921997
4.850000	-0.127065	-82.665691	-29.330034	13.642288	-29.330034	13.642288	-0.127115	-82.686101
4.900000	-0.128907	-83.429287	-29.287152	13.074518	-29.287152	13.074518	-0.128958	-83.449874
4.950000	-0.130796	-84.189235	-29.245487	12.517251	-29.245487	12.517251	-0.130848	-84.209996
5.000000	-0.132685	-84.949182	-29.204021	11.959983	-29.204021	11.959983	-0.132737	-84.970119
5.050000	-0.134625	-85.705197	-29.163721	11.414117	-29.163721	11.414117	-0.134678	-85.726309
5.100000	-0.136566	-86.461211	-29.123607	10.868251	-29.123607	10.868251	-0.136620	-86.482498
5.150000	-0.138557	-87.213668	-29.084444	10.332762	-29.084444	10.332762	-0.138612	-87.235129
5.200000	-0.140553	-87.965801	-29.045528	9.798215	-29.045528	9.798215	-0.140608	-87.987437
5.250000	-0.142595	-88.714747	-29.007373	9.273013	-29.007373	9.273013	-0.142651	-88.736557
5.300000	-0.144646	-89.463055	-28.969503	8.749679	-28.969503	8.749679	-0.144703	-89.485038
5.350000	-0.146741	-90.208539	-28.932228	8.234651	-28.932228	8.234651	-0.146799	-90.230696
5.400000	-0.148851	-90.953081	-28.895255	7.722392	-28.895255	7.722392	-0.148909	-90.975412
5.450000	-0.151001	-91.695155	-28.858734	7.217405	-28.858734	7.217405	-0.151059	-91.717659
5.500000	-0.153170	-92.435995	-28.822512	6.716054	-28.822512	6.716054	-0.153230	-92.458672
5.550000	-0.155376	-93.174714	-28.786622	6.220949	-28.786622	6.220949	-0.155436	-93.197564
5.600000	-0.157607	-93.911918	-28.751009	5.730306	-28.751009	5.730306	-0.157669	-93.934941
5.650000	-0.159870	-94.647339	-28.715629	5.244899	-28.715629	5.244899	-0.159933	-94.670535
5.700000	-0.162165	-95.380978	-28.680482	4.764729	-28.680482	4.764729	-0.162228	-95.404347
5.750000	-0.164488	-96.113161	-28.645495	4.288810	-28.645495	4.288810	-0.164552	-96.136704
5.800000	-0.166848	-96.843308	-28.610676	3.818843	-28.610676	3.818843	-0.166913	-96.867024
5.850000	-0.169231	-97.572317	-28.575967	3.352173	-28.575967	3.352173	-0.169297	-97.596206
5.900000	-0.171659	-98.299050	-28.541339	2.892099	-28.541339	2.892099	-0.171725	-98.323111
5.950000	-0.174104	-99.024949	-28.506796	2.434411	-28.506796	2.434411	-0.174171	-99.049184
6.000000	-0.176601	-99.748347	-28.472228	1.983882	-28.472228	1.983882	-0.176668	-99.772755
6.050000	-0.179109	-100.471203	-28.437741	1.534879	-28.437741	1.534879	-0.179178	-100.495785
6.100000	-0.181677	-101.191349	-28.403105	1.093505	-28.403105	1.093505	-0.181746	-101.216106
6.150000	-0.184250	-101.911233	-28.368567	0.652859	-28.368567	0.652859	-0.184321	-101.936163
6.200000	-0.186890	-102.628214	-28.333737	0.220210	-28.333737	0.220210	-0.186962	-102.653319
6.250000	-0.189531	-103.345196	-28.299046	-0.212440	-28.299046	-0.212440	-0.189603	-103.370475
6.300000	-0.192244	-104.059102	-28.263902	-0.636839	-28.263902	-0.636839	-0.192318	-104.084556
6.350000	-0.194959	-104.773008	-28.228900	-1.061238	-28.228900	-1.061238	-0.195033	-104.798637
6.400000	-0.197742	-105.484179	-28.193386	-1.478548	-28.193386	-1.478548	-0.197818	-105.509984
6.450000	-0.200533	-106.195101	-28.157958	-1.895214	-28.157958	-1.895214	-0.200609	-106.221082
6.500000	-0.203387	-106.903615	-28.121985	-2.305901	-28.121985	-2.305901	-0.203464	-106.929772
6.550000	-0.206255	-107.611648	-28.086023	-2.715392	-28.086023	-2.715392	-0.206333	-107.637982
6.600000	-0.209182	-108.317586	-28.049505	-3.119952	-28.049505	-3.119952	-0.209261	-108.344098
6.650000	-0.212129	-109.022827	-28.012907	-3.522868	-28.012907	-3.522868	-0.212209	-109.049516
6.700000	-0.215130	-109.726273	-27.975766	-3.921827	-27.975766	-3.921827	-0.215211	-109.753141
6.750000	-0.218158	-110.428821	-27.938437	-4.318807	-27.938437	-4.318807	-0.218240	-110.455868
6.800000	-0.221234	-111.129859	-27.900599	-4.712719	-27.900599	-4.712719	-0.221317	-111.157085
6.850000	-0.224344	-111.829818	-27.862451	-5.104439	-27.862451	-5.104439	-0.224429	-111.857224
6.900000	-0.227497	-112.528534	-27.823851	-5.493883	-27.823851	-5.493883	-0.227582	-112.556121
6.950000	-0.230691	-113.226007	-27.784805	-5.881050	-27.784805	-5.881050	-0.230777	-113.253776
7.000000	-0.233921	-113.922490	-27.745383	-6.266628	-27.745383	-6.266628	-0.234009	-113.950441
7.050000	-0.237201	-114.617586	-27.705370	-6.649981	-27.705370	-6.649981	-0.237290	-114.645720
7.100000	-0.240511	-115.311926	-27.665073	-7.032314	-27.665073	-7.032314	-0.240600	-115.340244
7.150000	-0.243878	-116.004754	-27.624033	-7.412611	-27.624033	-7.412611	-0.243969	-116.033256
7.200000	-0.247268	-116.697043	-27.582818	-7.792339	-27.582818	-7.792339	-0.247360	-116.725730
7.250000	-0.250723	-117.387714	-27.540701	-8.170358	-27.540701	-8.170358	-0.250816	-117.416588
7.300000	-0.254195	-118.078045	-27.498532	-8.548129	-27.498532	-8.548129	-0.254289	-118.107106
7.350000	-0.257741	-118.766675	-27.455298	-8.924659	-27.455298	-8.924659	-0.257836	-118.795924
7.400000	-0.261295	-119.455143	-27.412147	-9.301130	-27.412147	-9.301130	-0.261392	-119.484581
7.450000	-0.264933	-120.141847	-27.367768	-9.676960	-27.367768	-9.676960	-0.265030	-120.171475
7.500000	-0.268572	-120.828551	-27.323616	-10.052791	-27.323616	-10.052791	-0.268670	-120.858369
7.550000	-0.272302	-121.513447	-27.278075	-10.428709	-27.278075	-10.428709	-0.272402	-121.543459
7.600000	-0.276034	-122.198343	-27.232773	-10.804627	-27.232773	-10.804627	-0.276135	-122.228548
7.650000	-0.279851	-122.881694	-27.186202	-11.181334	-27.186202	-11.181334	-0.279953	-122.912093
7.700000	-0.283677	-123.564904	-27.139744	-11.558113	-27.139744	-11.558113	-0.283781	-123.595498
7.750000	-0.287582	-124.246811	-27.092150	-11.936236	-27.092150	-11.936236	-0.287687	-124.277603
7.800000	-0.291504	-124.928458	-27.044541	-12.314627	-27.044541	-12.314627	-0.291611	-124.959447
7.850000	-0.295498	-125.609026	-26.995941	-12.694769	-26.995941	-12.694769	-0.295606	-125.640215
7.900000	-0.299518	-126.289234	-26.947196	-13.075494	-26.947196	-13.075494	-0.299627	-126.320623
7.950000	-0.303602	-126.968569	-26.897613	-13.458232	-26.897613	-13.458232	-0.303712	-127.000160
8.000000	-0.307720	-127.647466	-26.847758	-13.841976	-26.847758	-13.841976	-0.307831	-127.679260
8.050000	-0.311896	-128.325674	-26.797221	-14.227853	-26.797221	-14.227853	-0.312008	-128.357673
8.100000	-0.316113	-129.003390	-26.746290	-14.615254	-26.746290	-14.615254	-0.316227	-129.035595
8.150000	-0.320381	-129.680581	-26.694837	-15.004777	-26.694837	-15.004777	-0.320496	-129.712994
8.200000	-0.324699	-130.357247	-26.642872	-15.396422	-26.642872	-15.396422	-0.324816	-130.389869
8.250000	-0.329061	-131.033531	-26.590545	-15.790054	-26.590545	-15.790054	-0.329179	-131.066363
8.300000	-0.333481	-131.709281	-26.537595	-16.186471	-26.537595	-16.186471	-0.333601	-131.742326
8.350000	-0.337937	-132.384770	-26.484440	-16.584632	-26.484440	-16.584632	-0.338058	-132.418029
8.400000	-0.342461	-133.059740	-26.430561	-16.986285	-26.430561	-16.986285	-0.342583	-133.093214
8.450000	-0.347012	-133.734549	-26.376628	-17.389347	-26.376628	-17.389347	-0.347136	-133.768240
8.500000	-0.351640	-134.408876	-26.321879	-17.796636	-26.321879	-17.796636	-0.351765	-134.442787
8.550000	-0.356287	-135.083119	-26.267223	-18.204918	-26.267223	-18.204918	-0.356414	-135.117251
8.600000	-0.361021	-135.756945	-26.211665	-18.618172	-26.211665	-18.618172	-0.361149	-135.791300
8.650000	-0.365765	-136.430741	-26.156340	-19.031944	-26.156340	-19.031944	-0.365895	-136.465319
8.700000	-0.370605	-137.104207	-26.100039	-19.451421	-26.100039	-19.451421	-0.370736	-137.139013
8.750000	-0.375447	-137.777674	-26.044100	-19.870899	-26.044100	-19.870899	-0.375580	-137.812707
8.800000	-0.380394	-138.450927	-25.987120	-20.296791	-25.987120	-20.296791	-0.380529	-138.486191
8.850000	-0.385344	-139.124179	-25.930510	-20.722683	-25.930510	-20.722683	-0.385480	-139.159675
8.900000	-0.390391	-139.797370	-25.873027	-21.154566	-25.873027	-21.154566	-0.390528	-139.833102
8.950000	-0.395448	-140.470556	-25.815809	-21.586994	-25.815809	-21.586994	-0.395587	-140.506524
9.000000	-0.400595	-141.143811	-25.757875	-22.024916	-25.757875	-22.024916	-0.400735	-141.180018
9.050000	-0.405762	-141.817079	-25.700108	-22.463938	-25.700108	-22.463938	-0.405904	-141.853527
9.100000	-0.411009	-142.490524	-25.641773	-22.907901	-25.641773	-22.907901	-0.411153	-142.527216
9.150000	-0.416286	-143.164028	-25.583513	-23.353512	-25.583513	-23.353512	-0.416431	-143.200965
9.200000	-0.421634	-143.837791	-25.524822	-23.803476	-25.524822	-23.803476	-0.421781	-143.874976
9.250000	-0.427021	-144.511684	-25.466119	-24.255616	-25.466119	-24.255616	-0.427169	-144.549119
9.300000	-0.432471	-145.185897	-25.407114	-24.711503	-25.407114	-24.711503	-0.432621	-145.223585
9.350000	-0.437968	-145.860336	-25.348013	-25.170064	-25.348013	-25.170064	-0.438120	-145.898280
9.400000	-0.443521	-146.535129	-25.288728	-25.631760	-25.288728	-25.631760	-0.443675	-146.573330
9.450000	-0.449129	-147.210276	-25.229266	-26.096590	-25.229266	-26.096590	-0.449285	-147.248737
9.500000	-0.454785	-147.885784	-25.169731	-26.563953	-25.169731	-26.563953	-0.454942	-147.924508
9.550000	-0.460504	-148.561799	-25.109938	-27.034862	-25.109938	-27.034862	-0.460663	-148.600789
9.600000	-0.466263	-149.238159	-25.050176	-27.507726	-25.050176	-27.507726	-0.466423	-149.277417
9.650000	-0.472094	-149.915208	-24.990074	-27.984498	-24.990074	-27.984498	-0.472256	-149.954737
9.700000	-0.477955	-150.592557	-24.930103	-28.462676	-24.930103	-28.462676	-0.478119	-150.632360
9.750000	-0.483898	-151.270808	-24.869703	-28.945073	-24.869703	-28.945073	-0.484063	-151.310888
9.800000	-0.489862	-151.949287	-24.809533	-29.428364	-24.809533	-29.428364	-0.490029	-151.989646
9.850000	-0.495917	-152.628910	-24.748840	-29.916132	-24.748840	-29.916132	-0.496085	-152.669553
9.900000	-0.501984	-153.308662	-24.688474	-30.404326	-24.688474	-30.404326	-0.502154	-153.349590
9.950000	-0.508150	-153.989832	-24.627483	-30.897208	-24.627483	-30.897208	-0.508322	-154.031049
10.000000	-0.514320	-154.671001	-24.566917	-31.390089	-24.566917	-31.390089	-0.514494	-154.712509
