! freq	dB(S11)	phase(S11)	dB(S12)	phase(S12)	
!     	dB(S21)	phase(S21)	dB(S22)	phase(S22)	
!S-par simulation data
#  GHz  S  DB  R 50
0.000000	-93.091008	0.000000	-0.000192	0.000000	-0.000192	0.000000	-93.091008	0.000000
0.050000	-57.829530	-90.417186	-0.000303	-0.855596	-0.000303	-0.855596	-57.744651	-90.136931
0.100000	-51.762809	-92.155722	-0.000629	-1.710969	-0.000629	-1.710969	-51.711937	-91.720257
0.150000	-48.192528	-93.365811	-0.001158	-2.565914	-0.001158	-2.565914	-48.173465	-92.920748
0.200000	-45.656077	-94.367584	-0.001870	-3.420266	-0.001870	-3.420266	-45.658431	-93.985445
0.250000	-43.692813	-95.270473	-0.002751	-4.273845	-0.002751	-4.273845	-43.706969	-94.969902
0.300000	-42.095041	-96.136837	-0.003759	-5.126632	-0.003759	-5.126632	-42.114733	-95.910430
0.350000	-40.750338	-96.987620	-0.004877	-5.978548	-0.004877	-5.978548	-40.771916	-96.821594
0.400000	-39.591239	-97.834599	-0.006078	-6.829584	-0.006078	-6.829584	-39.612762	-97.715079
0.450000	-38.574079	-98.682822	-0.007341	-7.679762	-0.007341	-7.679762	-38.594605	-98.598279
0.500000	-37.669029	-99.534230	-0.008645	-8.529125	-0.008645	-8.529125	-37.688165	-99.475780
0.550000	-36.854834	-100.389355	-0.009972	-9.377737	-0.009972	-9.377737	-36.872476	-100.350379
0.600000	-36.115836	-101.248119	-0.011311	-10.225670	-0.011311	-10.225670	-36.132021	-101.223742
0.650000	-35.440169	-102.110198	-0.012650	-11.073001	-0.012650	-11.073001	-35.454998	-102.096838
0.700000	-34.818631	-102.975190	-0.013982	-11.919808	-0.013982	-11.919808	-34.832231	-102.970212
0.750000	-34.243945	-103.842692	-0.015302	-12.766164	-0.015302	-12.766164	-34.256447	-103.844142
0.800000	-33.710259	-104.712333	-0.016606	-13.612140	-0.016606	-13.612140	-33.721786	-104.718754
0.850000	-33.212795	-105.583783	-0.017892	-14.457800	-0.017892	-14.457800	-33.223461	-105.594080
0.900000	-32.747603	-106.456755	-0.019161	-15.303203	-0.019161	-15.303203	-32.757511	-106.470096
0.950000	-32.311384	-107.331002	-0.020411	-16.148400	-0.020411	-16.148400	-32.320624	-107.346753
1.000000	-31.901348	-108.206315	-0.021644	-16.993436	-0.021644	-16.993436	-31.910001	-108.223986
1.050000	-31.515121	-109.082516	-0.022862	-17.838350	-0.022862	-17.838350	-31.523258	-109.101726
1.100000	-31.150664	-109.959455	-0.024065	-18.683179	-0.024065	-18.683179	-31.158348	-109.979904
1.150000	-30.806214	-110.837005	-0.025255	-19.527952	-0.025255	-19.527952	-30.813501	-110.858456
1.200000	-30.480237	-111.715063	-0.026433	-20.372695	-0.026433	-20.372695	-30.487176	-111.737325
1.250000	-30.171389	-112.593542	-0.027603	-21.217432	-0.027603	-21.217432	-30.178025	-112.616460
1.300000	-29.878730	-113.472386	-0.028763	-22.062184	-0.028763	-22.062184	-29.885102	-113.495826
1.350000	-29.600973	-114.351523	-0.029918	-22.906968	-0.029918	-22.906968	-29.607119	-114.375376
1.400000	-29.337193	-115.230911	-0.031067	-23.751801	-0.031067	-23.751801	-29.343145	-115.255085
1.450000	-29.086561	-116.110521	-0.032211	-24.596696	-0.032211	-24.596696	-29.092349	-116.134934
1.500000	-28.848339	-116.990334	-0.033353	-25.441666	-0.033353	-25.441666	-28.853991	-117.014909
1.550000	-28.621864	-117.870339	-0.034493	-26.286723	-0.034493	-26.286723	-28.627405	-117.895005
1.600000	-28.406538	-118.750536	-0.035631	-27.131877	-0.035631	-27.131877	-28.411993	-118.775225
1.650000	-28.201825	-119.630931	-0.036769	-27.977139	-0.036769	-27.977139	-28.207216	-119.655577
1.700000	-28.007238	-120.511539	-0.037907	-28.822519	-0.037907	-28.822519	-28.012585	-120.536073
1.750000	-27.822338	-121.392381	-0.039045	-29.668026	-0.039045	-29.668026	-27.827661	-121.416735
1.800000	-27.646725	-122.273485	-0.040184	-30.513669	-0.040184	-30.513669	-27.652043	-122.297588
1.850000	-27.480038	-123.154887	-0.041324	-31.359457	-0.041324	-31.359457	-27.485369	-123.178664
1.900000	-27.321948	-124.036626	-0.042465	-32.205400	-0.042465	-32.205400	-27.327309	-124.060000
1.950000	-27.172157	-124.918751	-0.043608	-33.051506	-0.043608	-33.051506	-27.177564	-124.941639
2.000000	-27.030393	-125.801315	-0.044752	-33.897785	-0.044752	-33.897785	-27.035862	-125.823628
2.050000	-26.896412	-126.684375	-0.045898	-34.744246	-0.045898	-34.744246	-26.901958	-126.706022
2.100000	-26.769988	-127.567997	-0.047046	-35.590898	-0.047046	-35.590898	-26.775626	-127.588879
2.150000	-26.650922	-128.452250	-0.048195	-36.437750	-0.048195	-36.437750	-26.656665	-128.472262
2.200000	-26.539028	-129.337212	-0.049346	-37.284812	-0.049346	-37.284812	-26.544892	-129.356242
2.250000	-26.434144	-130.222962	-0.050499	-38.132095	-0.050499	-38.132095	-26.440141	-130.240891
2.300000	-26.336122	-131.109589	-0.051654	-38.979607	-0.051654	-38.979607	-26.342264	-131.126291
2.350000	-26.244830	-131.997184	-0.052810	-39.827360	-0.052810	-39.827360	-26.251131	-132.012526
2.400000	-26.160152	-132.885849	-0.053967	-40.675364	-0.053967	-40.675364	-26.166623	-132.899687
2.450000	-26.081984	-133.775686	-0.055126	-41.523629	-0.055126	-41.523629	-26.088638	-133.787870
2.500000	-26.010239	-134.666808	-0.056286	-42.372166	-0.056286	-42.372166	-26.017087	-134.677179
2.550000	-25.945093	-135.559399	-0.057448	-43.221000	-0.057448	-43.221000	-25.952149	-135.567779
2.600000	-25.886235	-136.453528	-0.058611	-44.070130	-0.058611	-44.070130	-25.893509	-136.459739
2.650000	-25.833611	-137.349329	-0.059775	-44.919568	-0.059775	-44.919568	-25.841114	-137.353180
2.700000	-25.787183	-138.246942	-0.060941	-45.769325	-0.060941	-45.769325	-25.794927	-138.248232
2.750000	-25.746924	-139.146514	-0.062108	-46.619413	-0.062108	-46.619413	-25.754920	-139.145031
2.800000	-25.712817	-140.048203	-0.063277	-47.469845	-0.063277	-47.469845	-25.721076	-140.043722
2.850000	-25.684859	-140.952174	-0.064447	-48.320633	-0.064447	-48.320633	-25.693391	-140.944457
2.900000	-25.663055	-141.858603	-0.065619	-49.171789	-0.065619	-49.171789	-25.671871	-141.847399
2.950000	-25.647423	-142.767675	-0.066794	-50.023327	-0.066794	-50.023327	-25.656536	-142.752720
3.000000	-25.637994	-143.679590	-0.067970	-50.875258	-0.067970	-50.875258	-25.647414	-143.660601
3.050000	-25.634808	-144.594556	-0.069149	-51.727597	-0.069149	-51.727597	-25.644548	-144.571236
3.100000	-25.637919	-145.512797	-0.070331	-52.580356	-0.070331	-52.580356	-25.647991	-145.484831
3.150000	-25.647394	-146.434553	-0.071516	-53.433549	-0.071516	-53.433549	-25.657810	-146.401606
3.200000	-25.663310	-147.360078	-0.072704	-54.287188	-0.072704	-54.287188	-25.674083	-147.321794
3.250000	-25.685759	-148.289645	-0.073897	-55.141288	-0.073897	-55.141288	-25.696904	-148.245646
3.300000	-25.714848	-149.223549	-0.075094	-55.995861	-0.075094	-55.995861	-25.726379	-149.173433
3.350000	-25.750697	-150.162104	-0.076296	-56.850922	-0.076296	-56.850922	-25.762630	-150.105442
3.400000	-25.793443	-151.105651	-0.077505	-57.706484	-0.077505	-57.706484	-25.805794	-151.041985
3.450000	-25.843237	-152.054558	-0.078719	-58.562561	-0.078719	-58.562561	-25.856025	-151.983399
3.500000	-25.900251	-153.009226	-0.079941	-59.419166	-0.079941	-59.419166	-25.913496	-152.930050
3.550000	-25.964673	-153.970088	-0.081171	-60.276314	-0.081171	-60.276314	-25.978397	-153.882332
3.600000	-26.036714	-154.937619	-0.082409	-61.134017	-0.082409	-61.134017	-26.050941	-154.840679
3.650000	-26.116605	-155.912338	-0.083657	-61.992290	-0.083657	-61.992290	-26.131360	-155.805562
3.700000	-26.204601	-156.894813	-0.084916	-62.851146	-0.084916	-62.851146	-26.219916	-156.777500
3.750000	-26.300986	-157.885672	-0.086187	-63.710599	-0.086187	-63.710599	-26.316891	-157.757063
3.800000	-26.406403	-158.886040	-0.087471	-64.570689	-0.087471	-64.570689	-26.422937	-158.745271
3.850000	-26.520872	-159.896333	-0.088768	-65.431405	-0.088768	-65.431405	-26.538076	-159.742503
3.900000	-26.644773	-160.917421	-0.090081	-66.292758	-0.090081	-66.292758	-26.662693	-160.749547
3.950000	-26.778523	-161.950278	-0.091411	-67.154764	-0.091411	-67.154764	-26.797211	-161.767286
4.000000	-26.922581	-162.995997	-0.092758	-68.017434	-0.092758	-68.017434	-26.942098	-162.796711
4.050000	-27.077457	-164.055813	-0.094124	-68.880783	-0.094124	-68.880783	-27.097870	-163.838940
4.100000	-27.243714	-165.131124	-0.095511	-69.744821	-0.095511	-69.744821	-27.265101	-164.895240
4.150000	-27.421976	-166.223523	-0.096920	-70.609564	-0.096920	-70.609564	-27.444427	-165.967053
4.200000	-27.612937	-167.334829	-0.098352	-71.475021	-0.098352	-71.475021	-27.636556	-167.056030
4.250000	-27.817371	-168.467138	-0.099810	-72.341207	-0.099810	-72.341207	-27.842276	-168.164067
4.300000	-28.036140	-169.622869	-0.101294	-73.208133	-0.101294	-73.208133	-28.062471	-169.293360
4.350000	-28.270211	-170.804837	-0.102807	-74.075811	-0.102807	-74.075811	-28.298131	-170.446460
4.400000	-28.520670	-172.016331	-0.104351	-74.944252	-0.104351	-74.944252	-28.550370	-171.626355
4.450000	-28.788741	-173.261225	-0.105927	-75.813467	-0.105927	-75.813467	-28.820449	-172.836566
4.500000	-29.075809	-174.544109	-0.107537	-76.683469	-0.107537	-76.683469	-29.109796	-174.081268
4.550000	-29.383450	-175.870465	-0.109183	-77.554267	-0.109183	-77.554267	-29.420040	-175.365455
4.600000	-29.713458	-177.246889	-0.110867	-78.425872	-0.110867	-78.425872	-29.753045	-176.695148
4.650000	-30.067892	-178.681390	-0.112592	-79.298294	-0.112592	-79.298294	-30.110956	-178.077669
4.700000	-30.449122	179.816221	-0.114358	-80.171542	-0.114358	-80.171542	-30.496255	-179.522010
4.750000	-30.859891	178.233800	-0.116170	-81.045627	-0.116170	-81.045627	-30.911831	178.960667
4.800000	-31.303388	176.556151	-0.118028	-81.920557	-0.118028	-81.920557	-31.361064	177.356353
4.850000	-31.783338	174.764028	-0.119935	-82.796341	-0.119935	-82.796341	-31.847938	175.647230
4.900000	-32.304112	172.832738	-0.121893	-83.672986	-0.121893	-83.672986	-32.377173	173.810335
4.950000	-32.870852	170.730147	-0.123905	-84.550502	-0.123905	-84.550502	-32.954400	171.815604
5.000000	-33.489618	168.413782	-0.125973	-85.428895	-0.125973	-85.428895	-33.586364	169.623026
5.050000	-34.167908	165.810947	-0.128102	-86.308211	-0.128102	-86.308211	-34.281643	167.163689
5.100000	-34.913300	162.848666	-0.130293	-87.188418	-0.130293	-87.188418	-35.049257	164.366921
5.150000	-35.734748	159.410928	-0.132547	-88.069522	-0.132547	-88.069522	-35.900407	161.119111
5.200000	-36.641323	155.330874	-0.134867	-88.951529	-0.134867	-88.951529	-36.847606	157.253226
5.250000	-37.640033	150.364716	-0.137257	-89.834444	-0.137257	-89.834444	-37.903162	152.517652
5.300000	-38.730301	144.155044	-0.139718	-90.718272	-0.139718	-90.718272	-39.074403	146.526946
5.350000	-39.890975	136.192736	-0.142253	-91.603015	-0.142253	-91.603015	-40.350556	138.695015
5.400000	-41.053274	125.831124	-0.144865	-92.488678	-0.144865	-92.488678	-41.670477	128.197662
5.450000	-42.059474	112.517944	-0.147557	-93.375263	-0.147557	-93.375263	-42.860914	114.182685
5.500000	-42.651371	96.444438	-0.150331	-94.262774	-0.150331	-94.262774	-43.592315	96.651026
5.550000	-42.591781	79.156101	-0.153191	-95.151210	-0.153191	-95.151210	-43.531561	77.531366
5.600000	-41.872588	62.944907	-0.156138	-96.040575	-0.156138	-96.040575	-42.670464	59.868171
5.650000	-40.720711	49.399044	-0.159177	-96.930868	-0.159177	-96.930868	-41.331172	45.618293
5.700000	-39.396210	38.797735	-0.162308	-97.822089	-0.162308	-97.822089	-39.846127	34.887373
5.750000	-38.063909	30.638470	-0.165536	-98.714237	-0.165536	-98.714237	-38.396714	26.873395
5.800000	-36.797993	24.279742	-0.168864	-99.607312	-0.168864	-99.607312	-37.049361	20.750282
5.850000	-35.626843	19.129562	-0.172284	-100.501232	-0.172284	-100.501232	-35.821311	15.847423
5.900000	-34.541691	14.991343	-0.175820	-101.396164	-0.175820	-101.396164	-34.696290	11.934986
5.950000	-33.542720	11.503291	-0.179463	-102.292015	-0.179463	-102.292015	-33.668497	8.645205
6.000000	-32.620654	8.496599	-0.183217	-103.188781	-0.183217	-103.188781	-32.725114	5.809980
6.050000	-31.766351	5.853639	-0.187084	-104.086457	-0.187084	-104.086457	-31.854709	3.314664
6.100000	-30.971565	3.490869	-0.191067	-104.985040	-0.191067	-104.985040	-31.047528	1.079118
6.150000	-30.229129	1.347766	-0.195170	-105.884521	-0.195170	-105.884521	-30.295387	-0.954020
6.200000	-29.532905	-0.620358	-0.199394	-106.784897	-0.199394	-106.784897	-29.591454	-2.826714
6.250000	-28.877668	-2.447099	-0.203743	-107.686158	-0.203743	-107.686158	-28.930012	-4.570280
6.300000	-28.258770	-4.156079	-0.208222	-108.588317	-0.208222	-108.588317	-28.306071	-6.206649
6.350000	-27.672650	-5.769961	-0.212832	-109.491346	-0.212832	-109.491346	-27.715804	-7.756690
6.400000	-27.116041	-7.304193	-0.217574	-110.395235	-0.217574	-110.395235	-27.155757	-9.234590
6.450000	-26.586131	-8.771102	-0.222451	-111.299975	-0.222451	-111.299975	-26.622978	-10.651638
6.500000	-26.080490	-10.180634	-0.227466	-112.205555	-0.227466	-112.205555	-26.114925	-12.016915
6.550000	-25.597003	-11.540896	-0.232622	-113.111965	-0.232622	-113.111965	-25.629401	-13.337807
6.600000	-25.133823	-12.858558	-0.237921	-114.019192	-0.237921	-114.019192	-25.164494	-14.620376
6.650000	-24.689328	-14.139150	-0.243366	-114.927223	-0.243366	-114.927223	-24.718528	-15.869644
6.700000	-24.262086	-15.387297	-0.248958	-115.836047	-0.248958	-115.836047	-24.290031	-17.089801
6.750000	-23.850830	-16.606895	-0.254701	-116.745648	-0.254701	-116.745648	-23.877701	-18.284372
6.800000	-23.454431	-17.801243	-0.260596	-117.656013	-0.260596	-117.656013	-23.480384	-19.456341
6.850000	-23.071882	-18.973157	-0.266645	-118.567127	-0.266645	-118.567127	-23.097048	-20.608252
6.900000	-22.702245	-20.124860	-0.272853	-119.478982	-0.272853	-119.478982	-22.726738	-21.742112
6.950000	-22.344716	-21.258493	-0.279222	-120.391561	-0.279222	-120.391561	-22.368634	-22.859852
7.000000	-21.998595	-22.376064	-0.285751	-121.304839	-0.285751	-121.304839	-22.022023	-23.963280
7.050000	-21.663216	-23.479130	-0.292443	-122.218799	-0.292443	-122.218799	-21.686228	-25.053798
7.100000	-21.337975	-24.569055	-0.299300	-123.133422	-0.299300	-123.133422	-21.360634	-26.132634
7.150000	-21.022321	-25.647037	-0.306323	-124.048691	-0.306323	-124.048691	-21.044683	-27.200868
7.200000	-20.715750	-26.714133	-0.313514	-124.964585	-0.313514	-124.964585	-20.737865	-28.259450
7.250000	-20.417802	-27.771276	-0.320874	-125.881086	-0.320874	-125.881086	-20.439712	-29.309222
7.300000	-20.128054	-28.819298	-0.328405	-126.798173	-0.328405	-126.798173	-20.149798	-30.350931
7.350000	-19.846118	-29.858936	-0.336108	-127.715825	-0.336108	-127.715825	-19.867728	-31.385241
7.400000	-19.571634	-30.890850	-0.343984	-128.634022	-0.343984	-128.634022	-19.593140	-32.412748
7.450000	-19.304271	-31.915631	-0.352034	-129.552741	-0.352034	-129.552741	-19.325700	-33.433983
7.500000	-19.043723	-32.933807	-0.360260	-130.471961	-0.360260	-130.471961	-19.065097	-34.449424
7.550000	-18.789684	-33.945733	-0.368666	-131.391669	-0.368666	-131.391669	-18.811024	-35.459394
7.600000	-18.541917	-34.951978	-0.377249	-132.311831	-0.377249	-132.311831	-18.563240	-36.464405
7.650000	-18.300176	-35.952927	-0.386009	-133.232424	-0.386009	-133.232424	-18.321497	-37.464804
7.700000	-18.064231	-36.948928	-0.394947	-134.153425	-0.394947	-134.153425	-18.085564	-38.460907
7.750000	-17.833868	-37.940297	-0.404064	-135.074809	-0.404064	-135.074809	-17.855226	-39.453001
7.800000	-17.608888	-38.927320	-0.413359	-135.996552	-0.413359	-135.996552	-17.630281	-40.441346
7.850000	-17.389105	-39.910255	-0.422833	-136.918630	-0.422833	-136.918630	-17.410541	-41.426179
7.900000	-17.174341	-40.889341	-0.432485	-137.841019	-0.432485	-137.841019	-17.195830	-42.407714
7.950000	-16.964434	-41.864790	-0.442316	-138.763693	-0.442316	-138.763693	-16.985982	-43.386150
8.000000	-16.759229	-42.836798	-0.452325	-139.686627	-0.452325	-139.686627	-16.780844	-44.361664
8.050000	-16.558581	-43.805543	-0.462512	-140.609795	-0.462512	-140.609795	-16.580267	-45.334421
8.100000	-16.362352	-44.771185	-0.472876	-141.533174	-0.472876	-141.533174	-16.384117	-46.304569
8.150000	-16.170416	-45.733841	-0.483417	-142.456738	-0.483417	-142.456738	-16.192263	-47.272218
8.200000	-15.982652	-46.693648	-0.494136	-143.380462	-0.494136	-143.380462	-16.004587	-48.237496
8.250000	-15.798946	-47.650757	-0.505029	-144.304317	-0.505029	-144.304317	-15.820973	-49.200542
8.300000	-15.619190	-48.605278	-0.516095	-145.228279	-0.516095	-145.228279	-15.641314	-50.161457
8.350000	-15.443281	-49.557307	-0.527332	-146.152322	-0.527332	-146.152322	-15.465506	-51.120332
8.400000	-15.271122	-50.506934	-0.538740	-147.076421	-0.538740	-147.076421	-15.293454	-52.077252
8.450000	-15.102621	-51.454236	-0.550316	-148.000549	-0.550316	-148.000549	-15.125064	-53.032291
8.500000	-14.937691	-52.399284	-0.562058	-148.924682	-0.562058	-148.924682	-14.960251	-53.985515
8.550000	-14.776248	-53.342141	-0.573965	-149.848796	-0.573965	-149.848796	-14.798931	-54.936984
8.600000	-14.618215	-54.282861	-0.586034	-150.772864	-0.586034	-150.772864	-14.641027	-55.886751
8.650000	-14.463516	-55.221492	-0.598264	-151.696863	-0.598264	-151.696863	-14.486465	-56.834862
8.700000	-14.312081	-56.158076	-0.610651	-152.620768	-0.610651	-152.620768	-14.335175	-57.781356
8.750000	-14.163841	-57.092646	-0.623193	-153.544555	-0.623193	-153.544555	-14.187088	-58.726266
8.800000	-14.018747	-58.025189	-0.635891	-154.468198	-0.635891	-154.468198	-14.042158	-59.669589
8.850000	-13.876724	-58.955772	-0.648737	-155.391674	-0.648737	-155.391674	-13.900311	-60.611379
8.900000	-13.737714	-59.884411	-0.661730	-156.314962	-0.661730	-156.314962	-13.761487	-61.551654
8.950000	-13.601660	-60.811120	-0.674866	-157.238039	-0.674866	-157.238039	-13.625634	-62.490425
9.000000	-13.468509	-61.735904	-0.688142	-158.160883	-0.688142	-158.160883	-13.492697	-63.427700
9.050000	-13.338209	-62.658767	-0.701553	-159.083472	-0.701553	-159.083472	-13.362627	-64.363479
9.100000	-13.210711	-63.579706	-0.715097	-160.005786	-0.715097	-160.005786	-13.235376	-65.297762
9.150000	-13.085967	-64.498716	-0.728770	-160.927805	-0.728770	-160.927805	-13.110899	-66.230539
9.200000	-12.963933	-65.415785	-0.742567	-161.849508	-0.742567	-161.849508	-12.989151	-67.161801
9.250000	-12.844564	-66.330900	-0.756485	-162.770877	-0.756485	-162.770877	-12.870090	-68.091532
9.300000	-12.727819	-67.244041	-0.770520	-163.691893	-0.770520	-163.691893	-12.753677	-69.019711
9.350000	-12.613658	-68.155186	-0.784666	-164.612539	-0.784666	-164.612539	-12.639873	-69.946315
9.400000	-12.502054	-69.064289	-0.798921	-165.532793	-0.798921	-165.532793	-12.528654	-70.871299
9.450000	-12.392971	-69.971318	-0.813279	-166.452638	-0.813279	-166.452638	-12.419983	-71.794630
9.500000	-12.286359	-70.876263	-0.827735	-167.372064	-0.827735	-167.372064	-12.313817	-72.716291
9.550000	-12.182185	-71.779089	-0.842285	-168.291056	-0.842285	-168.291056	-12.210120	-73.636243
9.600000	-12.080415	-72.679757	-0.856922	-169.209600	-0.856922	-169.209600	-12.108861	-74.554443
9.650000	-11.981015	-73.578226	-0.871642	-170.127683	-0.871642	-170.127683	-12.010009	-75.470847
9.700000	-11.883954	-74.474452	-0.886440	-171.045293	-0.886440	-171.045293	-11.913534	-76.385404
9.750000	-11.789200	-75.368387	-0.901310	-171.962421	-0.901310	-171.962421	-11.819407	-77.298064
9.800000	-11.696724	-76.259983	-0.916247	-172.879055	-0.916247	-172.879055	-11.727600	-78.208772
9.850000	-11.606496	-77.149188	-0.931245	-173.795186	-0.931245	-173.795186	-11.638085	-79.117471
9.900000	-11.518488	-78.035949	-0.946299	-174.710807	-0.946299	-174.710807	-11.550836	-80.024098
9.950000	-11.432671	-78.920210	-0.961403	-175.625911	-0.961403	-175.625911	-11.465827	-80.928593
10.000000	-11.349018	-79.801913	-0.976551	-176.540491	-0.976551	-176.540491	-11.383032	-81.830889
