! freq	dB(S11)	phase(S11)	dB(S12)	phase(S12)	
!     	dB(S21)	phase(S21)	dB(S22)	phase(S22)	
!S-par simulation data
#  GHz  S  DB  R 50
0.000000	-91.348228	0.000000	-0.000235	0.000000	-0.000235	0.000000	-91.348228	0.000000
0.050000	-58.767710	-89.583760	-0.000353	-0.868218	-0.000353	-0.868218	-58.767850	-89.584126
0.100000	-52.751154	-91.202680	-0.000700	-1.736186	-0.000700	-1.736186	-52.751296	-91.203448
0.150000	-49.233419	-92.368272	-0.001261	-2.603674	-0.001261	-2.603674	-49.233566	-92.369440
0.200000	-46.740058	-93.418784	-0.002014	-3.470500	-0.002014	-3.470500	-46.740211	-93.420360
0.250000	-44.809109	-94.419139	-0.002942	-4.336469	-0.002942	-4.336469	-44.809269	-94.421133
0.300000	-43.234298	-95.395779	-0.003998	-5.201565	-0.003998	-5.201565	-43.234465	-95.398200
0.350000	-41.906017	-96.356208	-0.005163	-6.065712	-0.005163	-6.065712	-41.906193	-96.359065
0.400000	-40.758769	-97.305426	-0.006407	-6.928906	-0.006407	-6.928906	-40.758952	-97.308729
0.450000	-39.750323	-98.246303	-0.007707	-7.791181	-0.007707	-7.791181	-39.750513	-98.250060
0.500000	-38.851856	-99.180671	-0.009040	-8.652594	-0.009040	-8.652594	-38.852053	-99.184889
0.550000	-38.042818	-100.109808	-0.010389	-9.513221	-0.010389	-9.513221	-38.043021	-100.114492
0.600000	-37.308034	-101.034659	-0.011740	-10.373146	-0.011740	-10.373146	-37.308244	-101.039814
0.650000	-36.635982	-101.955958	-0.013084	-11.232457	-0.013084	-11.232457	-36.636197	-101.961588
0.700000	-36.017703	-102.874289	-0.014412	-12.091240	-0.014412	-12.091240	-36.017923	-102.880398
0.750000	-35.446093	-103.790127	-0.015721	-12.949579	-0.015721	-12.949579	-35.446319	-103.796718
0.800000	-34.915425	-104.703859	-0.017006	-13.807548	-0.017006	-13.807548	-34.915655	-104.710936
0.850000	-34.421011	-105.615808	-0.018268	-14.665217	-0.018268	-14.665217	-34.421246	-105.623373
0.900000	-33.958969	-106.526238	-0.019507	-15.522647	-0.019507	-15.522647	-33.959208	-106.534296
0.950000	-33.526046	-107.435371	-0.020722	-16.379892	-0.020722	-16.379892	-33.526289	-107.443924
1.000000	-33.119491	-108.343391	-0.021916	-17.236999	-0.021916	-17.236999	-33.119738	-108.352443
1.050000	-32.736957	-109.250453	-0.023090	-18.094009	-0.023090	-18.094009	-32.737208	-109.260009
1.100000	-32.376426	-110.156687	-0.024246	-18.950957	-0.024246	-18.950957	-32.376681	-110.166751
1.150000	-32.036151	-111.062207	-0.025386	-19.807875	-0.025386	-19.807875	-32.036411	-111.072784
1.200000	-31.714611	-111.967108	-0.026513	-20.664789	-0.026513	-20.664789	-31.714875	-111.978204
1.250000	-31.410474	-112.871474	-0.027627	-21.521721	-0.027627	-21.521721	-31.410742	-112.883095
1.300000	-31.122835	-113.775365	-0.028731	-22.378695	-0.028731	-22.378695	-31.123107	-113.787518
1.350000	-30.850391	-114.678872	-0.029827	-23.235726	-0.029827	-23.235726	-30.850668	-114.691564
1.400000	-30.592222	-115.582058	-0.030916	-24.092831	-0.030916	-24.092831	-30.592503	-115.595297
1.450000	-30.347509	-116.484984	-0.032000	-24.950023	-0.032000	-24.950023	-30.347794	-116.498777
1.500000	-30.115518	-117.387707	-0.033079	-25.807314	-0.033079	-25.807314	-30.115808	-117.402064
1.550000	-29.895595	-118.290286	-0.034156	-26.664717	-0.034156	-26.664717	-29.895890	-118.305216
1.600000	-29.687150	-119.192778	-0.035230	-27.522243	-0.035230	-27.522243	-29.687450	-119.208292
1.650000	-29.489653	-120.095242	-0.036303	-28.379900	-0.036303	-28.379900	-29.489957	-120.111351
1.700000	-29.302626	-120.997740	-0.037375	-29.237700	-0.037375	-29.237700	-29.302935	-121.014455
1.750000	-29.125637	-121.900334	-0.038448	-30.095652	-0.038448	-30.095652	-29.125951	-121.917668
1.800000	-28.958297	-122.803091	-0.039521	-30.953764	-0.039521	-30.953764	-28.958615	-122.821056
1.850000	-28.800253	-123.706078	-0.040595	-31.812047	-0.040595	-31.812047	-28.800576	-123.724689
1.900000	-28.651187	-124.609369	-0.041670	-32.670508	-0.041670	-32.670508	-28.651515	-124.628641
1.950000	-28.510811	-125.513042	-0.042748	-33.529157	-0.042748	-33.529157	-28.511144	-125.532990
2.000000	-28.378866	-126.417176	-0.043827	-34.388004	-0.043827	-34.388004	-28.379204	-126.437817
2.050000	-28.255118	-127.321859	-0.044908	-35.247057	-0.044908	-35.247057	-28.255460	-127.343210
2.100000	-28.139357	-128.227181	-0.045992	-36.106325	-0.045992	-36.106325	-28.139704	-128.249262
2.150000	-28.031394	-129.133239	-0.047078	-36.965818	-0.047078	-36.965818	-28.031747	-129.156070
2.200000	-27.931064	-130.040135	-0.048167	-37.825546	-0.048167	-37.825546	-27.931420	-130.063737
2.250000	-27.838216	-130.947980	-0.049259	-38.685519	-0.049259	-38.685519	-27.838577	-130.972374
2.300000	-27.752721	-131.856886	-0.050353	-39.545745	-0.050353	-39.545745	-27.753087	-131.882098
2.350000	-27.674466	-132.766978	-0.051451	-40.406236	-0.051451	-40.406236	-27.674836	-132.793032
2.400000	-27.603354	-133.678385	-0.052552	-41.267001	-0.052552	-41.267001	-27.603728	-133.705307
2.450000	-27.539303	-134.591245	-0.053656	-42.128052	-0.053656	-42.128052	-27.539682	-134.619064
2.500000	-27.482249	-135.505704	-0.054763	-42.989398	-0.054763	-42.989398	-27.482632	-135.534450
2.550000	-27.432429	-136.422003	-0.055874	-43.851065	-0.055874	-43.851065	-27.432816	-136.451708
2.600000	-27.389521	-137.340237	-0.056988	-44.713051	-0.056988	-44.713051	-27.389911	-137.370937
2.650000	-27.353503	-138.260585	-0.058107	-45.575366	-0.058107	-45.575366	-27.353897	-138.292316
2.700000	-27.324366	-139.183236	-0.059229	-46.438022	-0.059229	-46.438022	-27.324763	-139.216036
2.750000	-27.302117	-140.108392	-0.060356	-47.301031	-0.060356	-47.301031	-27.302516	-140.142302
2.800000	-27.286775	-141.036268	-0.061487	-48.164404	-0.061487	-48.164404	-27.287176	-141.071332
2.850000	-27.278374	-141.967095	-0.062623	-49.028154	-0.062623	-49.028154	-27.278778	-142.003359
2.900000	-27.276963	-142.901119	-0.063764	-49.892291	-0.063764	-49.892291	-27.277369	-142.938633
2.950000	-27.282607	-143.838605	-0.064910	-50.756828	-0.064910	-50.756828	-27.283013	-143.877423
3.000000	-27.295383	-144.779838	-0.066063	-51.621777	-0.066063	-51.621777	-27.295791	-144.820015
3.050000	-27.315389	-145.725124	-0.067221	-52.487150	-0.067221	-52.487150	-27.315796	-145.766722
3.100000	-27.342735	-146.674794	-0.068387	-53.352959	-0.068387	-53.352959	-27.343141	-146.717878
3.150000	-27.377552	-147.629206	-0.069560	-54.219218	-0.069560	-54.219218	-27.377957	-147.673846
3.200000	-27.419988	-148.588748	-0.070741	-55.085937	-0.070741	-55.085937	-27.420391	-148.635019
3.250000	-27.470213	-149.553841	-0.071931	-55.953129	-0.071931	-55.953129	-27.470611	-149.601824
3.300000	-27.528415	-150.524946	-0.073129	-56.820807	-0.073129	-56.820807	-27.528809	-150.574728
3.350000	-27.594807	-151.502566	-0.074338	-57.688983	-0.074338	-57.688983	-27.595195	-151.554242
3.400000	-27.669628	-152.487252	-0.075557	-58.557670	-0.075557	-58.557670	-27.670008	-152.540923
3.450000	-27.753141	-153.479610	-0.076788	-59.426879	-0.076788	-59.426879	-27.753511	-153.535387
3.500000	-27.845641	-154.480311	-0.078032	-60.296624	-0.078032	-60.296624	-27.845999	-154.538313
3.550000	-27.947453	-155.490096	-0.079289	-61.166915	-0.079289	-61.166915	-27.947797	-155.550454
3.600000	-28.058939	-156.509790	-0.080560	-62.037767	-0.080560	-62.037767	-28.059265	-156.572646
3.650000	-28.180499	-157.540311	-0.081846	-62.909189	-0.081846	-62.909189	-28.180805	-157.605820
3.700000	-28.312579	-158.582690	-0.083149	-63.781196	-0.083149	-63.781196	-28.312860	-158.651022
3.750000	-28.455669	-159.638086	-0.084469	-64.653797	-0.084469	-64.653797	-28.455921	-159.709428
3.800000	-28.610719	-160.708500	-0.085809	-65.527033	-0.085809	-65.527033	-28.610936	-160.783068
3.850000	-28.777953	-161.794881	-0.087169	-66.400889	-0.087169	-66.400889	-28.778129	-161.872903
3.900000	-28.958052	-162.898955	-0.088550	-67.275376	-0.088550	-67.275376	-28.958179	-162.980686
3.950000	-29.151773	-164.022709	-0.089954	-68.150506	-0.089954	-68.150506	-29.151843	-164.108432
4.000000	-29.359967	-165.168431	-0.091382	-69.026290	-0.091382	-69.026290	-29.359967	-165.258462
4.050000	-29.583584	-166.338783	-0.092835	-69.902738	-0.092835	-69.902738	-29.583503	-166.433476
4.100000	-29.823697	-167.536872	-0.094316	-70.779861	-0.094316	-70.779861	-29.823519	-167.636626
4.150000	-30.081515	-168.766353	-0.095825	-71.657670	-0.095825	-71.657670	-30.081220	-168.871618
4.200000	-30.358409	-170.031555	-0.097364	-72.536175	-0.097364	-72.536175	-30.357975	-170.142844
4.250000	-30.655938	-171.337645	-0.098935	-73.415386	-0.098935	-73.415386	-30.655337	-171.455541
4.300000	-30.975886	-172.690839	-0.100539	-74.295312	-0.100539	-74.295312	-30.975080	-172.816011
4.350000	-31.320295	-174.098680	-0.102179	-75.175964	-0.102179	-75.175964	-31.319242	-174.231903
4.400000	-31.691525	-175.570415	-0.103855	-76.057349	-0.103855	-76.057349	-31.690169	-175.712586
4.450000	-32.092311	-177.117494	-0.105571	-76.939477	-0.105571	-76.939477	-32.090579	-177.269659
4.500000	-32.525837	-178.754256	-0.107327	-77.822357	-0.107327	-77.822357	-32.523638	-178.917647
4.550000	-32.995836	179.501114	-0.109125	-78.705996	-0.109125	-78.705996	-32.993049	179.325042
4.600000	-33.506699	177.625238	-0.110968	-79.590402	-0.110968	-79.590402	-33.503164	177.434752
4.650000	-34.063618	175.587604	-0.112858	-80.475583	-0.112858	-80.475583	-34.059120	175.380632
4.700000	-34.672743	173.347737	-0.114796	-81.361545	-0.114796	-81.361545	-34.666987	173.121787
4.750000	-35.341353	170.850961	-0.116784	-82.248296	-0.116784	-82.248296	-35.333927	170.603035
4.800000	-36.078002	168.021975	-0.118825	-83.135842	-0.118825	-83.135842	-36.068317	167.748484
4.850000	-36.892533	164.754916	-0.120921	-84.024187	-0.120921	-84.024187	-36.879732	164.451636
4.900000	-37.795717	160.897835	-0.123074	-84.913339	-0.123074	-84.913339	-37.778521	160.560016
4.950000	-38.797884	156.228449	-0.125286	-85.803301	-0.125286	-85.803301	-38.774341	155.851348
5.000000	-39.905024	150.417318	-0.127560	-86.694079	-0.127560	-86.694079	-39.872132	149.997837
5.050000	-41.103038	142.872980	-0.129900	-87.585711	-0.129900	-87.585711	-41.056154	142.415010
5.100000	-42.338856	132.935966	-0.132306	-88.478167	-0.132306	-88.478167	-42.271668	132.462600
5.150000	-43.467026	119.847254	-0.134780	-89.371449	-0.134780	-89.371449	-43.373459	119.421234
5.200000	-44.210118	103.464567	-0.137325	-90.265560	-0.137325	-90.265560	-44.091321	103.193504
5.250000	-44.262035	85.293478	-0.139943	-91.160502	-0.139943	-91.160502	-44.133499	85.263238
5.300000	-43.566191	68.081671	-0.142636	-92.056276	-0.142636	-92.056276	-43.448780	68.273698
5.350000	-42.372492	53.764991	-0.145407	-92.952884	-0.145407	-92.952884	-42.276783	54.091039
5.400000	-40.983205	42.670931	-0.148258	-93.850325	-0.148258	-93.850325	-40.908821	43.049385
5.450000	-39.587307	34.228425	-0.151191	-94.748600	-0.151191	-94.748600	-39.529769	34.611866
5.500000	-38.266866	27.717015	-0.154210	-95.647709	-0.154210	-95.647709	-38.221694	28.084489
5.550000	-37.046471	22.561370	-0.157315	-96.547650	-0.157315	-96.547650	-37.010252	22.905768
5.600000	-35.926415	18.359615	-0.160510	-97.448421	-0.160510	-97.448421	-35.896743	18.679922
5.650000	-34.898386	14.840769	-0.163797	-98.350020	-0.163797	-98.350020	-34.873592	15.138359
5.700000	-33.951946	11.821718	-0.167178	-99.252445	-0.167178	-99.252445	-33.930863	12.098740
5.750000	-33.076974	9.176694	-0.170655	-100.155692	-0.170655	-100.155692	-33.058770	9.435402
5.800000	-32.264454	6.817479	-0.174231	-101.059757	-0.174231	-101.059757	-32.248527	7.059977
5.850000	-31.506629	4.680841	-0.177909	-101.964635	-0.177909	-101.964635	-31.492533	4.909001
5.900000	-30.796915	2.720504	-0.181690	-102.870322	-0.181690	-102.870322	-30.784313	2.935957
5.950000	-30.129739	0.901948	-0.185577	-103.776811	-0.185577	-103.776811	-30.118374	1.106102
6.000000	-29.500388	-0.801040	-0.189572	-104.684097	-0.189572	-104.684097	-29.490057	-0.606971
6.050000	-28.905211	-2.411895	-0.193673	-105.592139	-0.193673	-105.592139	-28.895757	-2.226902
6.100000	-28.339959	-3.938817	-0.197892	-106.501006	-0.197892	-106.501006	-28.331254	-3.761945
6.150000	-27.802193	-5.399070	-0.202225	-107.410646	-0.202225	-107.410646	-27.794133	-5.229537
6.200000	-27.289377	-6.802636	-0.206675	-108.321052	-0.206675	-108.321052	-27.281877	-6.639760
6.250000	-26.799314	-8.157620	-0.211244	-109.232215	-0.211244	-109.232215	-26.792304	-8.000805
6.300000	-26.329975	-9.469882	-0.215937	-110.144139	-0.215937	-110.144139	-26.323397	-9.318592
6.350000	-25.879812	-10.745903	-0.220752	-111.056800	-0.220752	-111.056800	-25.873616	-10.599677
6.400000	-25.447343	-11.990213	-0.225693	-111.970185	-0.225693	-111.970185	-25.441487	-11.848642
6.450000	-25.031258	-13.206622	-0.230760	-112.884284	-0.230760	-112.884284	-25.025707	-13.069342
6.500000	-24.630392	-14.398355	-0.235955	-113.799084	-0.235955	-113.799084	-24.625115	-14.265040
6.550000	-24.243708	-15.568161	-0.241280	-114.714572	-0.241280	-114.714572	-24.238677	-15.438518
6.600000	-23.870274	-16.718394	-0.246738	-115.630737	-0.246738	-115.630737	-23.865467	-16.592161
6.650000	-23.509254	-17.851085	-0.252329	-116.547563	-0.252329	-116.547563	-23.504651	-17.728023
6.700000	-23.159895	-18.967990	-0.258054	-117.465038	-0.258054	-117.465038	-23.155477	-18.847884
6.750000	-22.821513	-20.070639	-0.263916	-118.383145	-0.263916	-118.383145	-22.817265	-19.953293
6.800000	-22.493488	-21.160368	-0.269916	-119.301871	-0.269916	-119.301871	-22.489396	-21.045604
6.850000	-22.175257	-22.238350	-0.276056	-120.221200	-0.276056	-120.221200	-22.171308	-22.126004
6.900000	-21.866041	-23.304240	-0.282354	-121.141196	-0.282354	-121.141196	-21.862224	-23.194144
6.950000	-21.565900	-24.361730	-0.288776	-122.061685	-0.288776	-122.061685	-21.562205	-24.253767
7.000000	-21.274135	-25.410236	-0.295341	-122.982726	-0.295341	-122.982726	-21.270552	-25.304278
7.050000	-20.990348	-26.450479	-0.302049	-123.904304	-0.302049	-123.904304	-20.986870	-26.346411
7.100000	-20.714172	-27.483105	-0.308901	-124.826399	-0.308901	-124.826399	-20.710791	-27.380818
7.150000	-20.445269	-28.508692	-0.315898	-125.748993	-0.315898	-125.748993	-20.441978	-28.408087
7.200000	-20.183324	-29.527760	-0.323040	-126.672069	-0.323040	-126.672069	-20.180117	-29.428745
7.250000	-19.928046	-30.540780	-0.330329	-127.595608	-0.330329	-127.595608	-19.924919	-30.443268
7.300000	-19.679167	-31.548175	-0.337763	-128.519590	-0.337763	-128.519590	-19.676114	-31.452085
7.350000	-19.436436	-32.550329	-0.345344	-129.443995	-0.345344	-129.443995	-19.433451	-32.455587
7.400000	-19.199617	-33.547592	-0.353072	-130.368805	-0.353072	-130.368805	-19.196697	-33.454128
7.450000	-18.968493	-34.540283	-0.360947	-131.294000	-0.360947	-131.294000	-18.965634	-34.448031
7.500000	-18.742861	-35.528690	-0.368968	-132.219559	-0.368968	-132.219559	-18.740058	-35.437588
7.550000	-18.522519	-36.512959	-0.377141	-133.145472	-0.377141	-133.145472	-18.519770	-36.422948
7.600000	-18.307305	-37.493469	-0.385459	-134.071707	-0.385459	-134.071707	-18.304607	-37.404493
7.650000	-18.097051	-38.470439	-0.393924	-134.998243	-0.393924	-134.998243	-18.094401	-38.382448
7.700000	-17.891601	-39.444074	-0.402533	-135.925060	-0.402533	-135.925060	-17.888996	-39.357019
7.750000	-17.690806	-40.414560	-0.411287	-136.852136	-0.411287	-136.852136	-17.688244	-40.328395
7.800000	-17.494528	-41.382068	-0.420184	-137.779452	-0.420184	-137.779452	-17.492006	-41.296750
7.850000	-17.302637	-42.346757	-0.429224	-138.706985	-0.429224	-138.706985	-17.300153	-42.262244
7.900000	-17.115009	-43.308772	-0.438405	-139.634715	-0.438405	-139.634715	-17.112562	-43.225026
7.950000	-16.931529	-44.268248	-0.447726	-140.562620	-0.447726	-140.562620	-16.929116	-44.185230
8.000000	-16.752088	-45.225307	-0.457186	-141.490681	-0.457186	-141.490681	-16.749708	-45.142982
8.050000	-16.576583	-46.180063	-0.466783	-142.418875	-0.466783	-142.418875	-16.574234	-46.098396
8.100000	-16.404917	-47.132619	-0.476516	-143.347183	-0.476516	-143.347183	-16.402598	-47.051578
8.150000	-16.237004	-48.083049	-0.486384	-144.275585	-0.486384	-144.275585	-16.234714	-48.002602
8.200000	-16.072760	-49.031441	-0.496385	-145.204059	-0.496385	-145.204059	-16.070496	-48.951558
8.250000	-15.912097	-49.977897	-0.506515	-146.132584	-0.506515	-146.132584	-15.909859	-49.898548
8.300000	-15.754939	-50.922487	-0.516773	-147.061140	-0.516773	-147.061140	-15.752726	-50.843644
8.350000	-15.601213	-51.865274	-0.527156	-147.989709	-0.527156	-147.989709	-15.599024	-51.786910
8.400000	-15.450849	-52.806314	-0.537661	-148.918269	-0.537661	-148.918269	-15.448682	-52.728403
8.450000	-15.303783	-53.745655	-0.548286	-149.846803	-0.548286	-149.846803	-15.301638	-53.668173
8.500000	-15.159952	-54.683341	-0.559028	-150.775291	-0.559028	-150.775291	-15.157828	-54.606262
8.550000	-15.019299	-55.619407	-0.569884	-151.703715	-0.569884	-151.703715	-15.017194	-55.542707
8.600000	-14.881767	-56.553882	-0.580852	-152.632058	-0.580852	-152.632058	-14.879681	-56.477538
8.650000	-14.747304	-57.486791	-0.591927	-153.560302	-0.591927	-153.560302	-14.745236	-57.410780
8.700000	-14.615861	-58.418149	-0.603106	-154.488429	-0.603106	-154.488429	-14.613811	-58.342449
8.750000	-14.487391	-59.347967	-0.614387	-155.416425	-0.614387	-155.416425	-14.485357	-59.272557
8.800000	-14.361873	-60.276217	-0.625766	-156.344268	-0.625766	-156.344268	-14.359855	-60.201074
8.850000	-14.239243	-61.202930	-0.637240	-157.271948	-0.637240	-157.271948	-14.237239	-61.128034
8.900000	-14.119460	-62.128099	-0.648803	-158.199449	-0.648803	-158.199449	-14.117470	-62.053429
8.950000	-14.002486	-63.051709	-0.660451	-159.126757	-0.660451	-159.126757	-14.000510	-62.977246
9.000000	-13.888285	-63.973742	-0.672181	-160.053859	-0.672181	-160.053859	-13.886321	-63.899466
9.050000	-13.776822	-64.894171	-0.683989	-160.980743	-0.683989	-160.980743	-13.774870	-64.820062
9.100000	-13.668064	-65.812966	-0.695869	-161.907397	-0.695869	-161.907397	-13.666123	-65.739005
9.150000	-13.561980	-66.730088	-0.707818	-162.833809	-0.707818	-162.833809	-13.560049	-66.656256
9.200000	-13.458539	-67.645496	-0.719830	-163.759969	-0.719830	-163.759969	-13.456618	-67.571775
9.250000	-13.357714	-68.559140	-0.731902	-164.685868	-0.731902	-164.685868	-13.355802	-68.485511
9.300000	-13.259475	-69.470967	-0.744028	-165.611498	-0.744028	-165.611498	-13.257571	-69.397412
9.350000	-13.163798	-70.380917	-0.756204	-166.536850	-0.756204	-166.536850	-13.161901	-70.307418
9.400000	-13.070673	-71.288902	-0.768424	-167.461914	-0.768424	-167.461914	-13.068782	-71.215442
9.450000	-12.980076	-72.194849	-0.780684	-168.386685	-0.780684	-168.386685	-12.978190	-72.121410
9.500000	-12.891968	-73.098704	-0.792978	-169.311161	-0.792978	-169.311161	-12.890085	-73.025269
9.550000	-12.806324	-74.000385	-0.805300	-170.235337	-0.805300	-170.235337	-12.804445	-73.926937
9.600000	-12.723267	-74.899600	-0.817645	-171.159185	-0.817645	-171.159185	-12.721389	-74.826121
9.650000	-12.642471	-75.796687	-0.830007	-172.082758	-0.830007	-172.082758	-12.640593	-75.723163
9.700000	-12.564072	-76.691329	-0.842382	-173.006027	-0.842382	-173.006027	-12.562194	-76.617743
9.750000	-12.488051	-77.583425	-0.854763	-173.928991	-0.854763	-173.928991	-12.486171	-77.509762
9.800000	-12.414385	-78.472871	-0.867145	-174.851652	-0.867145	-174.851652	-12.412503	-78.399115
9.850000	-12.343056	-79.359558	-0.879521	-175.774013	-0.879521	-175.774013	-12.341169	-79.285693
9.900000	-12.274041	-80.243373	-0.891887	-176.696076	-0.891887	-176.696076	-12.272149	-80.169386
9.950000	-12.207321	-81.124201	-0.904236	-177.617848	-0.904236	-177.617848	-12.205422	-81.050075
10.000000	-12.142876	-82.001920	-0.916563	-178.539333	-0.916563	-178.539333	-12.140968	-81.927643
