! freq	dB(S11)	phase(S11)	dB(S12)	phase(S12)	
!     	dB(S21)	phase(S21)	dB(S22)	phase(S22)	
!S-par simulation data
#  GHz  S  DB  R 50
0.000000	-89.595555	0.000000	-0.000288	0.000000	-0.000288	0.000000	-89.595555	0.000000
0.050000	-69.170524	-85.490089	-0.000416	-0.886544	-0.000416	-0.886544	-69.170350	-85.488500
0.100000	-63.190613	-89.234266	-0.000795	-1.772783	-0.000795	-1.772783	-63.190440	-89.230919
0.150000	-59.692344	-91.153594	-0.001405	-2.658444	-0.001405	-2.658444	-59.692172	-91.148516
0.200000	-57.220464	-92.615226	-0.002216	-3.543314	-0.002216	-3.543314	-57.220294	-92.608415
0.250000	-55.316328	-93.885289	-0.003204	-4.427176	-0.003204	-4.427176	-55.316162	-93.876730
0.300000	-53.772799	-95.071455	-0.004317	-5.310030	-0.004317	-5.310030	-53.772636	-95.061130
0.350000	-52.481085	-96.205415	-0.005526	-6.191811	-0.005526	-6.191811	-52.480927	-96.193298
0.400000	-51.375793	-97.307689	-0.006800	-7.072541	-0.006800	-7.072541	-51.375640	-97.293752
0.450000	-50.414782	-98.389724	-0.008110	-7.952283	-0.008110	-7.952283	-50.414636	-98.373931
0.500000	-49.569332	-99.458474	-0.009432	-8.831129	-0.009432	-8.831129	-49.569193	-99.440784
0.550000	-48.819016	-100.518469	-0.010750	-9.709183	-0.010750	-9.709183	-48.818886	-100.498836
0.600000	-48.148816	-101.572843	-0.012048	-10.586559	-0.012048	-10.586559	-48.148695	-101.551214
0.650000	-47.547393	-102.623884	-0.013319	-11.463367	-0.013319	-11.463367	-47.547283	-102.600200
0.700000	-47.006005	-103.673351	-0.014556	-12.339715	-0.014556	-12.339715	-47.005908	-103.647546
0.750000	-46.517801	-104.722664	-0.015756	-13.215699	-0.015756	-13.215699	-46.517718	-104.694664
0.800000	-46.077335	-105.773030	-0.016919	-14.091409	-0.016919	-14.091409	-46.077268	-105.742753
0.850000	-45.680241	-106.825520	-0.018044	-14.966922	-0.018044	-14.966922	-45.680193	-106.792873
0.900000	-45.322997	-107.881129	-0.019135	-15.842308	-0.019135	-15.842308	-45.322969	-107.846009
0.950000	-45.002748	-108.940818	-0.020192	-16.717625	-0.020192	-16.717625	-45.002744	-108.903112
1.000000	-44.717190	-110.005549	-0.021219	-17.592926	-0.021219	-17.592926	-44.717212	-109.965130
1.050000	-44.464471	-111.076316	-0.022218	-18.468254	-0.022218	-18.468254	-44.464522	-111.033042
1.100000	-44.243124	-112.154170	-0.023193	-19.343649	-0.023193	-19.343649	-44.243209	-112.107884
1.150000	-44.052018	-113.240246	-0.024146	-20.219144	-0.024146	-20.219144	-44.052142	-113.190773
1.200000	-43.890318	-114.335797	-0.025081	-21.094767	-0.025081	-21.094767	-43.890485	-114.282938
1.250000	-43.757459	-115.442218	-0.026000	-21.970545	-0.026000	-21.970545	-43.757677	-115.385753
1.300000	-43.654333	-116.561720	-0.026905	-22.846508	-0.026905	-22.846508	-43.654608	-116.501387
1.350000	-43.579736	-117.695677	-0.027800	-23.722670	-0.027800	-23.722670	-43.580079	-117.631192
1.400000	-43.533856	-118.846233	-0.028685	-24.599048	-0.028685	-24.599048	-43.534276	-118.777274
1.450000	-43.517130	-120.015898	-0.029564	-25.475661	-0.029564	-25.475661	-43.517641	-119.942096
1.500000	-43.530261	-121.207639	-0.030438	-26.352522	-0.030438	-26.352522	-43.530877	-121.128574
1.550000	-43.574236	-122.424997	-0.031309	-27.229647	-0.031309	-27.229647	-43.574977	-122.340185
1.600000	-43.650362	-123.672241	-0.032178	-28.107050	-0.032178	-28.107050	-43.651250	-123.581122
1.650000	-43.760307	-124.954569	-0.033047	-28.984743	-0.033047	-28.984743	-43.761371	-124.856490
1.700000	-43.906162	-126.278380	-0.033917	-29.862741	-0.033917	-29.862741	-43.907438	-126.172576
1.750000	-44.090513	-127.651645	-0.034789	-30.741055	-0.034789	-30.741055	-44.092045	-127.537212
1.800000	-44.316550	-129.084423	-0.035665	-31.619699	-0.035665	-31.619699	-44.318398	-128.960284
1.850000	-44.588200	-130.589593	-0.036545	-32.498685	-0.036545	-32.498685	-44.590439	-130.454451
1.900000	-44.910313	-132.183905	-0.037431	-33.378025	-0.037431	-33.378025	-44.913044	-132.036184
1.950000	-45.288903	-133.889544	-0.038323	-34.257732	-0.038323	-34.257732	-45.292263	-133.727307
2.000000	-45.731486	-135.736497	-0.039223	-35.137817	-0.039223	-35.137817	-45.735663	-135.557330
2.050000	-46.247534	-137.766248	-0.040132	-36.018295	-0.040132	-36.018295	-46.252796	-137.567110
2.100000	-46.849103	-140.037744	-0.041049	-36.899177	-0.041049	-36.899177	-46.855838	-139.814745
2.150000	-47.551676	-142.637368	-0.041977	-37.780475	-0.041977	-37.780475	-47.560472	-142.385480
2.200000	-48.375271	-145.696315	-0.042916	-38.662204	-0.042916	-38.662204	-48.387049	-145.408981
2.250000	-49.345680	-149.422142	-0.043868	-39.544376	-0.043868	-39.544376	-49.361947	-149.090867
2.300000	-50.495111	-154.158477	-0.044832	-40.427003	-0.044832	-40.427003	-50.518465	-153.772747
2.350000	-51.859100	-160.500752	-0.045810	-41.310099	-0.045810	-41.310099	-51.894243	-160.049820
2.400000	-53.457631	-169.512560	-0.046803	-42.193677	-0.046803	-42.193677	-53.513302	-168.994896
2.450000	-55.218241	176.963217	-0.047812	-43.077750	-0.047812	-43.077750	-55.309553	177.504606
2.500000	-56.738260	156.448377	-0.048839	-43.962332	-0.048839	-43.962332	-56.880024	156.832089
2.550000	-56.956115	129.541854	-0.049884	-44.847460	-0.049884	-44.847460	-57.118695	129.465905
2.600000	-55.519801	105.089700	-0.050948	-45.733125	-0.050948	-45.733125	-55.646250	104.654243
2.650000	-53.346880	87.917054	-0.052033	-46.619340	-0.052033	-46.619340	-53.429887	87.387934
2.700000	-51.164272	76.599378	-0.053139	-47.506119	-0.053139	-47.506119	-51.218490	76.096368
2.750000	-49.191747	68.903306	-0.054269	-48.393476	-0.054269	-48.393476	-49.228842	68.454575
2.800000	-47.447170	63.354412	-0.055422	-49.281425	-0.055422	-49.281425	-47.473887	62.958277
2.850000	-45.899763	59.118488	-0.056601	-50.169978	-0.056601	-50.169978	-45.919880	58.766928
2.900000	-44.514407	55.725127	-0.057807	-51.059149	-0.057807	-51.059149	-44.530115	55.410186
2.950000	-43.261401	52.898339	-0.059042	-51.948953	-0.059042	-51.948953	-43.274033	52.613432
3.000000	-42.117305	50.468376	-0.060307	-52.839402	-0.060307	-52.839402	-42.127711	50.208302
3.050000	-41.063896	48.326103	-0.061603	-53.730510	-0.061603	-53.730510	-41.072639	48.086787
3.100000	-40.086949	46.398557	-0.062932	-54.622290	-0.062932	-54.622290	-40.094419	46.176792
3.150000	-39.175250	44.635279	-0.064296	-55.514754	-0.064296	-55.514754	-39.181723	44.428512
3.200000	-38.319852	43.000335	-0.065697	-56.407917	-0.065697	-56.407917	-38.325528	42.806516
3.250000	-37.513524	41.467479	-0.067136	-57.301791	-0.067136	-57.301791	-37.518553	41.284939
3.300000	-36.750352	40.017116	-0.068616	-58.196389	-0.068616	-58.196389	-36.754849	39.844481
3.350000	-36.025446	38.634325	-0.070138	-59.091722	-0.070138	-59.091722	-36.029500	38.470454
3.400000	-35.334719	37.307551	-0.071705	-59.987804	-0.071705	-59.987804	-35.338399	37.151486
3.450000	-34.674723	36.027707	-0.073318	-60.884647	-0.073318	-60.884647	-34.678085	35.878638
3.500000	-34.042525	34.787552	-0.074979	-61.782261	-0.074979	-61.782261	-34.045613	34.644785
3.550000	-33.435607	33.581241	-0.076692	-62.680659	-0.076692	-62.680659	-33.438459	33.444181
3.600000	-32.851793	32.404002	-0.078457	-63.579852	-0.078457	-63.579852	-32.854439	32.272134
3.650000	-32.289191	31.251907	-0.080278	-64.479852	-0.080278	-64.479852	-32.291657	31.124781
3.700000	-31.746145	30.121683	-0.082157	-65.380667	-0.082157	-65.380667	-31.748451	29.998906
3.750000	-31.221196	29.010589	-0.084096	-66.282310	-0.084096	-66.282310	-31.223361	28.891813
3.800000	-30.712480	27.916942	-0.086101	-67.184825	-0.086101	-67.184825	-30.714519	27.801848
3.850000	-30.219482	26.837978	-0.088171	-68.088188	-0.088171	-68.088188	-30.221409	26.726295
3.900000	-29.741170	25.772036	-0.090310	-68.992408	-0.090310	-68.992408	-29.742995	25.663522
3.950000	-29.276617	24.717681	-0.092519	-69.897492	-0.092519	-69.897492	-29.278351	24.612118
4.000000	-28.824989	23.673665	-0.094802	-70.803449	-0.094802	-70.803449	-28.826641	23.570857
4.050000	-28.385534	22.638899	-0.097162	-71.710287	-0.097162	-71.710287	-28.387111	22.538668
4.100000	-27.957569	21.612427	-0.099601	-72.618013	-0.099601	-72.618013	-27.959077	21.514612
4.150000	-27.540471	20.593406	-0.102123	-73.526635	-0.102123	-73.526635	-27.541917	20.497861
4.200000	-27.133674	19.581091	-0.104730	-74.436158	-0.104730	-74.436158	-27.135063	19.487681
4.250000	-26.736661	18.574820	-0.107425	-75.346588	-0.107425	-75.346588	-26.737997	18.483423
4.300000	-26.348954	17.574003	-0.110212	-76.257930	-0.110212	-76.257930	-26.350242	17.484506
4.350000	-25.970117	16.578111	-0.113093	-77.170190	-0.113093	-77.170190	-25.971361	16.490412
4.400000	-25.599747	15.586672	-0.116072	-78.083371	-0.116072	-78.083371	-25.600950	15.500674
4.450000	-25.237472	14.599260	-0.119152	-78.997477	-0.119152	-78.997477	-25.238636	14.514876
4.500000	-24.882946	13.615492	-0.122336	-79.912511	-0.122336	-79.912511	-24.884074	13.532639
4.550000	-24.535850	12.635021	-0.125627	-80.828476	-0.125627	-80.828476	-24.536946	12.553623
4.600000	-24.195887	11.657534	-0.129029	-81.745372	-0.129029	-81.745372	-24.196953	11.577521
4.650000	-23.862782	10.682746	-0.132545	-82.663201	-0.132545	-82.663201	-23.863819	10.604052
4.700000	-23.536275	9.710399	-0.136179	-83.581963	-0.136179	-83.581963	-23.537285	9.632964
4.750000	-23.216127	8.740259	-0.139933	-84.501659	-0.139933	-84.501659	-23.217112	8.664025
4.800000	-22.902338	7.772039	-0.143806	-85.422247	-0.143806	-85.422247	-22.903301	7.696953
4.850000	-22.594183	6.805717	-0.147814	-86.343815	-0.147814	-86.343815	-22.595123	6.731727
4.900000	-22.291757	5.841015	-0.151953	-87.266311	-0.151953	-87.266311	-22.292677	5.768073
4.950000	-21.994875	4.877771	-0.156226	-88.189733	-0.156226	-88.189733	-21.995775	4.805834
5.000000	-21.703362	3.915841	-0.160638	-89.114075	-0.160638	-89.114075	-21.704244	3.844865
5.050000	-21.416962	2.955113	-0.165194	-90.039354	-0.165194	-90.039354	-21.417827	2.885059
5.100000	-21.135618	1.995441	-0.169895	-90.965543	-0.169895	-90.965543	-21.136467	1.926271
5.150000	-20.859184	1.036715	-0.174746	-91.892637	-0.174746	-91.892637	-20.860017	0.968394
5.200000	-20.587521	0.078836	-0.179748	-92.820628	-0.179748	-92.820628	-20.588340	0.011331
5.250000	-20.320498	-0.878282	-0.184906	-93.749509	-0.184906	-93.749509	-20.321303	-0.945004
5.300000	-20.057989	-1.834722	-0.190224	-94.679271	-0.190224	-94.679271	-20.058781	-1.900690
5.350000	-19.799878	-2.790555	-0.195703	-95.609905	-0.195703	-95.609905	-19.800658	-2.855798
5.400000	-19.546053	-3.745845	-0.201349	-96.541401	-0.201349	-96.541401	-19.546821	-3.810390
5.450000	-19.296406	-4.700649	-0.207165	-97.473747	-0.207165	-97.473747	-19.297163	-4.764523
5.500000	-19.050837	-5.655019	-0.213153	-98.406932	-0.213153	-98.406932	-19.051584	-5.718246
5.550000	-18.809251	-6.608997	-0.219317	-99.340943	-0.219317	-99.340943	-18.809987	-6.671601
5.600000	-18.571554	-7.562624	-0.225660	-100.275767	-0.225660	-100.275767	-18.572281	-7.624627
5.650000	-18.337633	-8.515928	-0.232188	-101.211399	-0.232188	-101.211399	-18.338351	-8.577354
5.700000	-18.107409	-9.468940	-0.238904	-102.147821	-0.238904	-102.147821	-18.108117	-9.529807
5.750000	-17.880829	-10.421684	-0.245809	-103.085011	-0.245809	-103.085011	-17.881529	-10.482014
5.800000	-17.657817	-11.374181	-0.252907	-104.022952	-0.252907	-104.022952	-17.658509	-11.433992
5.850000	-17.438300	-12.326444	-0.260199	-104.961624	-0.260199	-104.961624	-17.438985	-12.385755
5.900000	-17.222208	-13.278484	-0.267690	-105.901012	-0.267690	-105.901012	-17.222885	-13.337312
5.950000	-17.009473	-14.230307	-0.275382	-106.841095	-0.275382	-106.841095	-17.010143	-14.288670
6.000000	-16.800031	-15.181919	-0.283278	-107.781853	-0.283278	-107.781853	-16.800695	-15.239832
6.050000	-16.593820	-16.133317	-0.291381	-108.723266	-0.291381	-108.723266	-16.594477	-16.190796
6.100000	-16.390780	-17.084501	-0.299693	-109.665313	-0.299693	-109.665313	-16.391432	-17.141562
6.150000	-16.190854	-18.035465	-0.308217	-110.607971	-0.308217	-110.607971	-16.191500	-18.092121
6.200000	-15.993987	-18.986201	-0.316956	-111.551217	-0.316956	-111.551217	-15.994627	-19.042467
6.250000	-15.800125	-19.936699	-0.325911	-112.495028	-0.325911	-112.495028	-15.800760	-19.992587
6.300000	-15.609190	-20.886940	-0.335090	-113.439390	-0.335090	-113.439390	-15.609820	-20.942465
6.350000	-15.421163	-21.836915	-0.344491	-114.384266	-0.344491	-114.384266	-15.421788	-21.892090
6.400000	-15.235995	-22.786608	-0.354115	-115.329631	-0.354115	-115.329631	-15.236616	-22.841444
6.450000	-15.053640	-23.736001	-0.363964	-116.275457	-0.363964	-116.275457	-15.054257	-23.790510
6.500000	-14.874054	-24.685075	-0.374041	-117.221718	-0.374041	-117.221718	-14.874667	-24.739268
6.550000	-14.697191	-25.633807	-0.384347	-118.168386	-0.384347	-118.168386	-14.697800	-25.687696
6.600000	-14.523011	-26.582177	-0.394883	-119.115433	-0.394883	-119.115433	-14.523616	-26.635772
6.650000	-14.351471	-27.530161	-0.405652	-120.062830	-0.405652	-120.062830	-14.352074	-27.583472
6.700000	-14.182467	-28.477692	-0.416675	-121.010576	-0.416675	-121.010576	-14.183066	-28.530731
6.750000	-14.016090	-29.424823	-0.427914	-121.958583	-0.427914	-121.958583	-14.016686	-29.477598
6.800000	-13.852240	-30.371492	-0.439388	-122.906849	-0.439388	-122.906849	-13.852833	-30.424014
6.850000	-13.690879	-31.317674	-0.451099	-123.855343	-0.451099	-123.855343	-13.691470	-31.369950
6.900000	-13.531972	-32.263340	-0.463047	-124.804035	-0.463047	-124.804035	-13.532560	-32.315381
6.950000	-13.375484	-33.208465	-0.475233	-125.752891	-0.475233	-125.752891	-13.376070	-33.260278
7.000000	-13.221382	-34.153020	-0.487657	-126.701880	-0.487657	-126.701880	-13.221966	-34.204614
7.050000	-13.069632	-35.096978	-0.500319	-127.650969	-0.500319	-127.650969	-13.070214	-35.148361
7.100000	-12.920203	-36.040311	-0.513221	-128.600126	-0.513221	-128.600126	-12.920783	-36.091491
7.150000	-12.773064	-36.982991	-0.526361	-129.549317	-0.526361	-129.549317	-12.773642	-37.033976
7.200000	-12.628183	-37.924990	-0.539739	-130.498509	-0.539739	-130.498509	-12.628760	-37.975787
7.250000	-12.485532	-38.866280	-0.553356	-131.447668	-0.553356	-131.447668	-12.486107	-38.916897
7.300000	-12.345080	-39.806833	-0.567210	-132.396760	-0.567210	-132.396760	-12.345655	-39.857277
7.350000	-12.206801	-40.746623	-0.581301	-133.345752	-0.581301	-133.345752	-12.207374	-40.796901
7.400000	-12.070666	-41.685621	-0.595627	-134.294609	-0.595627	-134.294609	-12.071238	-41.735740
7.450000	-11.936648	-42.623802	-0.610189	-135.243296	-0.610189	-135.243296	-11.937220	-42.673767
7.500000	-11.804722	-43.561137	-0.624984	-136.191781	-0.624984	-136.191781	-11.805292	-43.610957
7.550000	-11.674866	-44.497562	-0.640021	-137.140017	-0.640021	-137.140017	-11.675436	-44.547242
7.600000	-11.547053	-45.433088	-0.655288	-138.087978	-0.655288	-138.087978	-11.547623	-45.482635
7.650000	-11.421259	-46.367689	-0.670783	-139.035630	-0.670783	-139.035630	-11.421828	-46.417109
7.700000	-11.297460	-47.301340	-0.686505	-139.982940	-0.686505	-139.982940	-11.298028	-47.350639
7.750000	-11.175631	-48.234017	-0.702452	-140.929873	-0.702452	-140.929873	-11.176199	-48.283201
7.800000	-11.055750	-49.165696	-0.718621	-141.876397	-0.718621	-141.876397	-11.056318	-49.214771
7.850000	-10.937794	-50.096353	-0.735010	-142.822476	-0.735010	-142.822476	-10.938362	-50.145324
7.900000	-10.821741	-51.025965	-0.751615	-143.768079	-0.751615	-143.768079	-10.822309	-51.074837
7.950000	-10.707571	-51.954508	-0.768435	-144.713173	-0.768435	-144.713173	-10.708139	-52.003288
8.000000	-10.595261	-52.881962	-0.785466	-145.657725	-0.785466	-145.657725	-10.595829	-52.930655
8.050000	-10.484792	-53.808303	-0.802705	-146.601703	-0.802705	-146.601703	-10.485360	-53.856914
8.100000	-10.376143	-54.733510	-0.820149	-147.545075	-0.820149	-147.545075	-10.376712	-54.782045
8.150000	-10.269295	-55.657562	-0.837793	-148.487810	-0.837793	-148.487810	-10.269864	-55.706026
8.200000	-10.164229	-56.580438	-0.855635	-149.429878	-0.855635	-149.429878	-10.164798	-56.628836
8.250000	-10.060927	-57.502118	-0.873670	-150.371248	-0.873670	-150.371248	-10.061496	-57.550456
8.300000	-9.959370	-58.422581	-0.891895	-151.311891	-0.891895	-151.311891	-9.959939	-58.470864
8.350000	-9.859540	-59.341808	-0.910305	-152.251777	-0.910305	-152.251777	-9.860110	-59.390040
8.400000	-9.761421	-60.259778	-0.928896	-153.190879	-0.928896	-153.190879	-9.761992	-60.307965
8.450000	-9.664995	-61.176472	-0.947663	-154.129168	-0.947663	-154.129168	-9.665566	-61.224619
8.500000	-9.570247	-62.091870	-0.966601	-155.066618	-0.966601	-155.066618	-9.570818	-62.139982
8.550000	-9.477159	-63.005953	-0.985706	-156.003202	-0.985706	-156.003202	-9.477732	-63.054035
8.600000	-9.385718	-63.918701	-1.004973	-156.938894	-1.004973	-156.938894	-9.386291	-63.966758
8.650000	-9.295907	-64.830096	-1.024397	-157.873671	-1.024397	-157.873671	-9.296481	-64.878133
8.700000	-9.207712	-65.740117	-1.043972	-158.807508	-1.043972	-158.807508	-9.208286	-65.788139
8.750000	-9.121118	-66.648745	-1.063693	-159.740383	-1.063693	-159.740383	-9.121693	-66.696758
8.800000	-9.036144	-67.555897	-1.083558	-160.672228	-1.083558	-160.672228	-9.036720	-67.603906
8.850000	-8.952746	-68.461615	-1.103557	-161.603066	-1.103557	-161.603066	-8.953323	-68.509625
8.900000	-8.870910	-69.365878	-1.123684	-162.532875	-1.123684	-162.532875	-8.871488	-69.413893
8.950000	-8.790622	-70.268665	-1.143934	-163.461637	-1.143934	-163.461637	-8.791201	-70.316692
9.000000	-8.711871	-71.169956	-1.164300	-164.389333	-1.164300	-164.389333	-8.712451	-71.217999
9.050000	-8.634643	-72.069729	-1.184775	-165.315947	-1.184775	-165.315947	-8.635224	-72.117793
9.100000	-8.558928	-72.967962	-1.205355	-166.241462	-1.205355	-166.241462	-8.559510	-73.016053
9.150000	-8.484712	-73.864633	-1.226032	-167.165863	-1.226032	-167.165863	-8.485295	-73.912756
9.200000	-8.411985	-74.759720	-1.246799	-168.089136	-1.246799	-168.089136	-8.412570	-74.807879
9.250000	-8.340735	-75.653197	-1.267651	-169.011269	-1.267651	-169.011269	-8.341322	-75.701399
9.300000	-8.270952	-76.545042	-1.288580	-169.932249	-1.288580	-169.932249	-8.271540	-76.593291
9.350000	-8.202625	-77.435230	-1.309580	-170.852065	-1.309580	-170.852065	-8.203215	-77.483532
9.400000	-8.135744	-78.323734	-1.330644	-171.770709	-1.330644	-171.770709	-8.136335	-78.372094
9.450000	-8.070298	-79.210530	-1.351765	-172.688172	-1.351765	-172.688172	-8.070891	-79.258953
9.500000	-8.006277	-80.095589	-1.372935	-173.604447	-1.372935	-173.604447	-8.006873	-80.144081
9.550000	-7.943672	-80.978884	-1.394148	-174.519528	-1.394148	-174.519528	-7.944270	-81.027451
9.600000	-7.882474	-81.860386	-1.415397	-175.433410	-1.415397	-175.433410	-7.883074	-81.909033
9.650000	-7.822672	-82.740066	-1.436674	-176.346090	-1.436674	-176.346090	-7.823275	-82.788798
9.700000	-7.764259	-83.617893	-1.457973	-177.257565	-1.457973	-177.257565	-7.764865	-83.666716
9.750000	-7.707224	-84.493836	-1.479284	-178.167835	-1.479284	-178.167835	-7.707833	-84.542755
9.800000	-7.651559	-85.367862	-1.500603	-179.076899	-1.500603	-179.076899	-7.652172	-85.416883
9.850000	-7.597256	-86.239939	-1.521920	-179.984760	-1.521920	-179.984760	-7.597873	-86.289067
9.900000	-7.544306	-87.110032	-1.543228	179.108581	-1.543228	179.108581	-7.544926	-87.159273
9.950000	-7.492700	-87.978107	-1.564521	178.203119	-1.564521	178.203119	-7.493325	-88.027465
10.000000	-7.442430	-88.844127	-1.585790	177.298849	-1.585790	177.298849	-7.443059	-88.893609
