! freq	dB(S11)	phase(S11)	dB(S12)	phase(S12)	
!     	dB(S21)	phase(S21)	dB(S22)	phase(S22)	
!S-par simulation data
#  GHz  S  DB  R 50
0.000000	-0.000000	0.000000	-333.362915	0.000000	-333.362915	0.000000	-0.000000	0.000000
0.050000	-0.000111	-0.912416	-70.519365	87.574861	-70.519365	87.574861	-0.000099	-0.787298
0.100000	-0.000441	-1.824565	-64.679005	86.494701	-64.679005	86.494701	-0.000392	-1.574357
0.150000	-0.000978	-2.736195	-61.259793	85.872344	-61.259793	85.872344	-0.000866	-2.360959
0.200000	-0.001700	-3.647098	-58.816672	85.283496	-58.816672	85.283496	-0.001504	-3.146921
0.250000	-0.002597	-4.557029	-56.911789	84.648451	-56.911789	84.648451	-0.002292	-3.932037
0.300000	-0.003628	-5.465934	-55.350792	83.971244	-55.350792	83.971244	-0.003194	-4.716270
0.350000	-0.004774	-6.373675	-54.029125	83.259691	-54.029125	83.259691	-0.004192	-5.499513
0.400000	-0.006010	-7.280186	-52.883859	82.522920	-52.883859	82.522920	-0.005265	-6.281724
0.450000	-0.007315	-8.185433	-51.874095	81.767782	-51.874095	81.767782	-0.006391	-7.062890
0.500000	-0.008666	-9.089406	-50.971739	80.999181	-50.971739	80.999181	-0.007553	-7.843018
0.550000	-0.010048	-9.992114	-50.156657	80.220623	-50.156657	80.220623	-0.008737	-8.622130
0.600000	-0.011445	-10.893576	-49.413928	79.434658	-49.413928	79.434658	-0.009930	-9.400256
0.650000	-0.012846	-11.793819	-48.732186	78.643174	-48.732186	78.643174	-0.011124	-10.177432
0.700000	-0.014243	-12.692872	-48.102577	77.847600	-48.102577	77.847600	-0.012311	-10.953690
0.750000	-0.015629	-13.590761	-47.518064	77.049041	-47.518064	77.049041	-0.013488	-11.729063
0.800000	-0.017001	-14.487512	-46.972970	76.248370	-46.972970	76.248370	-0.014651	-12.503578
0.850000	-0.018354	-15.383144	-46.462642	75.446288	-46.462642	75.446288	-0.015800	-13.277257
0.900000	-0.019689	-16.277670	-45.983222	74.643370	-45.983222	74.643370	-0.016932	-14.050117
0.950000	-0.021005	-17.171101	-45.531474	73.840098	-45.531474	73.840098	-0.018049	-14.822170
1.000000	-0.022301	-18.063439	-45.104658	73.036879	-45.104658	73.036879	-0.019150	-15.593423
1.050000	-0.023578	-18.954684	-44.700434	72.234066	-44.700434	72.234066	-0.020237	-16.363877
1.100000	-0.024838	-19.844830	-44.316787	71.431966	-44.316787	71.431966	-0.021310	-17.133530
1.150000	-0.026082	-20.733866	-43.951968	70.630853	-43.951968	70.630853	-0.022371	-17.902378
1.200000	-0.027311	-21.621779	-43.604451	69.830974	-43.604451	69.830974	-0.023422	-18.670411
1.250000	-0.028526	-22.508553	-43.272896	69.032551	-43.272896	69.032551	-0.024463	-19.437619
1.300000	-0.029729	-23.394117	-42.956236	68.235873	-42.956236	68.235873	-0.025494	-20.203951
1.350000	-0.030921	-24.278502	-42.653305	67.441065	-42.653305	67.441065	-0.026519	-20.969430
1.400000	-0.032104	-25.161683	-42.363165	66.648305	-42.363165	66.648305	-0.027537	-21.734039
1.450000	-0.033278	-26.043637	-42.084977	65.857761	-42.084977	65.857761	-0.028549	-22.497761
1.500000	-0.034445	-26.924340	-41.817986	65.069593	-41.817986	65.069593	-0.029557	-23.260578
1.550000	-0.035607	-27.803766	-41.561513	64.283955	-41.561513	64.283955	-0.030561	-24.022472
1.600000	-0.036763	-28.681890	-41.314940	63.500994	-41.314940	63.500994	-0.031561	-24.783425
1.650000	-0.037915	-29.558686	-41.077707	62.720853	-41.077707	62.720853	-0.032559	-25.543417
1.700000	-0.039063	-30.434129	-40.849301	61.943671	-40.849301	61.943671	-0.033555	-26.302430
1.750000	-0.040209	-31.308191	-40.629256	61.169583	-40.629256	61.169583	-0.034550	-27.060444
1.800000	-0.041352	-32.180848	-40.417143	60.398721	-40.417143	60.398721	-0.035543	-27.817441
1.850000	-0.042494	-33.052073	-40.212567	59.631216	-40.212567	59.631216	-0.036536	-28.573402
1.900000	-0.043635	-33.921843	-40.015165	58.867193	-40.015165	58.867193	-0.037528	-29.328307
1.950000	-0.044775	-34.790131	-39.824601	58.106781	-39.824601	58.106781	-0.038521	-30.082139
2.000000	-0.045915	-35.656915	-39.640562	57.350101	-39.640562	57.350101	-0.039514	-30.834879
2.050000	-0.047056	-36.522169	-39.462761	56.597278	-39.462761	56.597278	-0.040508	-31.586509
2.100000	-0.048197	-37.385871	-39.290928	55.848431	-39.290928	55.848431	-0.041502	-32.337012
2.150000	-0.049340	-38.247998	-39.124811	55.103682	-39.124811	55.103682	-0.042498	-33.086369
2.200000	-0.050484	-39.108527	-38.964178	54.363150	-38.964178	54.363150	-0.043496	-33.834563
2.250000	-0.051630	-39.967438	-38.808807	53.626953	-38.808807	53.626953	-0.044496	-34.581578
2.300000	-0.052779	-40.824709	-38.658494	52.895208	-38.658494	52.895208	-0.045497	-35.327397
2.350000	-0.053930	-41.680319	-38.513044	52.168033	-38.513044	52.168033	-0.046502	-36.072005
2.400000	-0.055084	-42.534250	-38.372275	51.445543	-38.372275	51.445543	-0.047508	-36.815384
2.450000	-0.056241	-43.386481	-38.236017	50.727855	-38.236017	50.727855	-0.048518	-37.557519
2.500000	-0.057402	-44.236994	-38.104105	50.015084	-38.104105	50.015084	-0.049531	-38.298396
2.550000	-0.058568	-45.085696	-37.976484	49.307568	-37.976484	49.307568	-0.050548	-39.037942
2.600000	-0.059737	-45.932644	-37.852908	48.605208	-37.852908	48.605208	-0.051569	-39.776200
2.650000	-0.060912	-46.777820	-37.733240	47.908117	-37.733240	47.908117	-0.052594	-40.513153
2.700000	-0.062091	-47.621210	-37.617348	47.216410	-37.617348	47.216410	-0.053623	-41.248790
2.750000	-0.063276	-48.462798	-37.505106	46.530198	-37.505106	46.530198	-0.054657	-41.983095
2.800000	-0.064467	-49.302570	-37.396394	45.849595	-37.396394	45.849595	-0.055696	-42.716057
2.850000	-0.065664	-50.140511	-37.291099	45.174712	-37.291099	45.174712	-0.056740	-43.447661
2.900000	-0.066868	-50.976609	-37.189111	44.505661	-37.189111	44.505661	-0.057791	-44.177897
2.950000	-0.068079	-51.810850	-37.090325	43.842553	-37.090325	43.842553	-0.058847	-44.906752
3.000000	-0.069297	-52.643222	-36.994640	43.185500	-36.994640	43.185500	-0.059909	-45.634214
3.050000	-0.070522	-53.473715	-36.901960	42.534612	-36.901960	42.534612	-0.060978	-46.360272
3.100000	-0.071756	-54.302317	-36.812192	41.889998	-36.812192	41.889998	-0.062054	-47.084915
3.150000	-0.072999	-55.129018	-36.725245	41.251769	-36.725245	41.251769	-0.063137	-47.808132
3.200000	-0.074250	-55.953809	-36.641034	40.620032	-36.641034	40.620032	-0.064228	-48.529914
3.250000	-0.075511	-56.776681	-36.559473	39.994898	-36.559473	39.994898	-0.065328	-49.250250
3.300000	-0.076782	-57.597625	-36.480483	39.376472	-36.480483	39.376472	-0.066435	-49.969130
3.350000	-0.078063	-58.416633	-36.403984	38.764864	-36.403984	38.764864	-0.067551	-50.686546
3.400000	-0.079355	-59.233699	-36.329899	38.160180	-36.329899	38.160180	-0.068676	-51.402489
3.450000	-0.080658	-60.048817	-36.258154	37.562524	-36.258154	37.562524	-0.069811	-52.116950
3.500000	-0.081972	-60.861979	-36.188677	36.972004	-36.188677	36.972004	-0.070956	-52.829922
3.550000	-0.083298	-61.673182	-36.121397	36.388722	-36.121397	36.388722	-0.072111	-53.541396
3.600000	-0.084637	-62.482420	-36.056245	35.812783	-36.056245	35.812783	-0.073276	-54.251365
3.650000	-0.085989	-63.289690	-35.993153	35.244289	-35.993153	35.244289	-0.074452	-54.959822
3.700000	-0.087354	-64.094987	-35.932055	34.683342	-35.932055	34.683342	-0.075640	-55.666761
3.750000	-0.088733	-64.898309	-35.872887	34.130041	-35.872887	34.130041	-0.076839	-56.372174
3.800000	-0.090127	-65.699567	-35.815646	33.584828	-35.815646	33.584828	-0.078051	-57.075991
3.850000	-0.091535	-66.498847	-35.760203	33.047467	-35.760203	33.047467	-0.079275	-57.778270
3.900000	-0.092959	-67.296146	-35.706498	32.518055	-35.706498	32.518055	-0.080513	-58.479008
3.950000	-0.094398	-68.091464	-35.654469	31.996685	-35.654469	31.996685	-0.081763	-59.178198
4.000000	-0.095854	-68.884801	-35.604055	31.483451	-35.604055	31.483451	-0.083027	-59.875838
4.050000	-0.097326	-69.676159	-35.555197	30.978444	-35.555197	30.978444	-0.084306	-60.571922
4.100000	-0.098815	-70.465537	-35.507836	30.481753	-35.507836	30.481753	-0.085598	-61.266447
4.150000	-0.100322	-71.252938	-35.461913	29.993463	-35.461913	29.993463	-0.086906	-61.959409
4.200000	-0.101852	-72.037678	-35.417748	29.516649	-35.417748	29.516649	-0.088234	-62.650261
4.250000	-0.103393	-72.821389	-35.374385	29.044292	-35.374385	29.044292	-0.089570	-63.340294
4.300000	-0.104957	-73.602705	-35.332496	28.582498	-35.332496	28.582498	-0.090926	-64.028414
4.350000	-0.106537	-74.382310	-35.291704	28.128249	-35.291704	28.128249	-0.092295	-64.715169
4.400000	-0.108138	-75.159872	-35.252082	27.683214	-35.252082	27.683214	-0.093683	-65.400279
4.450000	-0.109760	-75.935391	-35.213616	27.247390	-35.213616	27.247390	-0.095088	-66.083747
4.500000	-0.111400	-76.709216	-35.176051	26.819362	-35.176051	26.819362	-0.096508	-66.765843
4.550000	-0.113066	-77.480672	-35.139667	26.402246	-35.139667	26.402246	-0.097951	-67.446019
4.600000	-0.114747	-78.250783	-35.103948	25.991448	-35.103948	25.991448	-0.099406	-68.125098
4.650000	-0.116458	-79.018204	-35.069400	25.593283	-35.069400	25.593283	-0.100886	-68.801982
4.700000	-0.118182	-79.784625	-35.035320	25.199906	-35.035320	25.199906	-0.102378	-69.478044
4.750000	-0.119940	-80.548044	-35.002362	24.820890	-35.002362	24.820890	-0.103899	-70.151638
4.800000	-0.121708	-81.310803	-34.969711	24.445091	-34.969711	24.445091	-0.105427	-70.824684
4.850000	-0.123516	-82.070258	-34.938094	24.085370	-34.938094	24.085370	-0.106990	-71.494993
4.900000	-0.125329	-82.829386	-34.906663	23.727264	-34.906663	23.727264	-0.108558	-72.165028
4.950000	-0.127189	-83.584919	-34.876136	23.386925	-34.876136	23.386925	-0.110165	-72.832059
5.000000	-0.129049	-84.340451	-34.845717	23.046586	-34.845717	23.046586	-0.111772	-73.499090
5.050000	-0.130962	-85.092106	-34.816028	22.725647	-34.816028	22.725647	-0.113424	-74.162854
5.100000	-0.132875	-85.843761	-34.786441	22.404709	-34.786441	22.404709	-0.115077	-74.826617
5.150000	-0.134839	-86.591907	-34.757304	22.101503	-34.757304	22.101503	-0.116773	-75.487398
5.200000	-0.136808	-87.339734	-34.728295	21.799908	-34.728295	21.799908	-0.118473	-76.147908
5.250000	-0.138823	-88.084417	-34.699495	21.514318	-34.699495	21.514318	-0.120213	-76.805720
5.300000	-0.140849	-88.828470	-34.670811	21.231928	-34.670811	21.231928	-0.121962	-77.462992
5.350000	-0.142919	-89.569737	-34.642132	20.963767	-34.642132	20.963767	-0.123748	-78.117851
5.400000	-0.145003	-90.310074	-34.613518	20.700349	-34.613518	20.700349	-0.125547	-78.771904
5.450000	-0.147128	-91.047974	-34.584746	20.449357	-34.584746	20.449357	-0.127381	-79.423825
5.500000	-0.149273	-91.784656	-34.555944	20.204577	-34.555944	20.204577	-0.129232	-80.074681
5.550000	-0.151454	-92.519243	-34.526865	19.970411	-34.526865	19.970411	-0.131114	-80.723686
5.600000	-0.153662	-93.252335	-34.497620	19.743827	-34.497620	19.743827	-0.133019	-81.371368
5.650000	-0.155901	-93.983665	-34.468025	19.526062	-34.468025	19.526062	-0.134952	-82.017476
5.700000	-0.158173	-94.713234	-34.438083	19.317115	-34.438083	19.317115	-0.136912	-82.662011
5.750000	-0.160472	-95.441366	-34.407762	19.115233	-34.407762	19.115233	-0.138896	-83.305247
5.800000	-0.162810	-96.167484	-34.376874	18.923243	-34.376874	18.923243	-0.140914	-83.946663
5.850000	-0.165170	-96.892478	-34.345624	18.736635	-34.345624	18.736635	-0.142951	-84.587050
5.900000	-0.167575	-97.615221	-34.313546	18.560793	-34.313546	18.560793	-0.145027	-85.225379
5.950000	-0.169998	-98.337140	-34.281169	18.388754	-34.281169	18.388754	-0.147118	-85.862945
6.000000	-0.172473	-99.056585	-34.247665	18.228123	-34.247665	18.228123	-0.149254	-86.498220
6.050000	-0.174959	-99.775495	-34.213970	18.069850	-34.213970	18.069850	-0.151401	-87.132992
6.100000	-0.177505	-100.491724	-34.178814	17.923363	-34.178814	17.923363	-0.153599	-87.765248
6.150000	-0.180057	-101.207693	-34.143620	17.777956	-34.143620	17.777956	-0.155802	-88.397257
6.200000	-0.182675	-101.920790	-34.106600	17.644419	-34.106600	17.644419	-0.158064	-89.026533
6.250000	-0.185294	-102.633888	-34.069737	17.510882	-34.069737	17.510882	-0.160326	-89.655809
6.300000	-0.187986	-103.343941	-34.030654	17.388976	-34.030654	17.388976	-0.162652	-90.282144
6.350000	-0.190679	-104.053993	-33.991747	17.267071	-33.991747	17.267071	-0.164979	-90.908479
6.400000	-0.193441	-104.761337	-33.950639	17.154516	-33.950639	17.154516	-0.167366	-91.532157
6.450000	-0.196210	-105.468435	-33.909511	17.042811	-33.909511	17.042811	-0.169760	-92.155593
6.500000	-0.199043	-106.173148	-33.866252	16.938327	-33.866252	16.938327	-0.172210	-92.776650
6.550000	-0.201889	-106.877384	-33.822746	16.835288	-33.822746	16.835288	-0.174671	-93.397231
6.600000	-0.204794	-107.579545	-33.777230	16.737532	-33.777230	16.737532	-0.177185	-94.015706
6.650000	-0.207720	-108.281015	-33.731213	16.641536	-33.731213	16.641536	-0.179716	-94.633477
6.700000	-0.210698	-108.980705	-33.683351	16.549107	-33.683351	16.549107	-0.182295	-95.249408
6.750000	-0.213704	-109.679506	-33.634714	16.458463	-33.634714	16.458463	-0.184897	-95.864418
6.800000	-0.216758	-110.376810	-33.584440	16.369923	-33.584440	16.369923	-0.187542	-96.477846
6.850000	-0.219846	-111.073043	-33.533101	16.282886	-33.533101	16.282886	-0.190217	-97.090144
6.900000	-0.222975	-111.768044	-33.480371	16.196769	-33.480371	16.196769	-0.192929	-97.701111
6.950000	-0.226147	-112.461813	-33.426275	16.111570	-33.426275	16.111570	-0.195678	-98.310747
7.000000	-0.229354	-113.154598	-33.371065	16.026398	-33.371065	16.026398	-0.198459	-98.919297
7.050000	-0.232610	-113.846008	-33.314187	15.941264	-33.314187	15.941264	-0.201284	-99.526325
7.100000	-0.235895	-114.536668	-33.256497	15.855566	-33.256497	15.855566	-0.204135	-100.132502
7.150000	-0.239238	-115.225826	-33.196838	15.768742	-33.196838	15.768742	-0.207037	-100.736976
7.200000	-0.242603	-115.914450	-33.136689	15.681070	-33.136689	15.681070	-0.209959	-101.340826
7.250000	-0.246033	-116.601469	-33.074280	15.590850	-33.074280	15.590850	-0.212939	-101.942803
7.300000	-0.249479	-117.288149	-33.011715	15.499791	-33.011715	15.499791	-0.215934	-102.544372
7.350000	-0.252999	-117.973140	-32.946612	15.404538	-32.946612	15.404538	-0.218994	-103.143909
7.400000	-0.256527	-118.657971	-32.881694	15.308736	-32.881694	15.308736	-0.222062	-103.743247
7.450000	-0.260137	-119.341049	-32.813980	15.206903	-32.813980	15.206903	-0.225204	-104.340403
7.500000	-0.263748	-120.024127	-32.746790	15.105070	-32.746790	15.105070	-0.228346	-104.937559
7.550000	-0.267450	-120.705409	-32.676570	14.995224	-32.676570	14.995224	-0.231570	-105.532395
7.600000	-0.271153	-121.386692	-32.606913	14.885378	-32.606913	14.885378	-0.234796	-106.127231
7.650000	-0.274940	-122.066439	-32.534607	14.766990	-32.534607	14.766990	-0.238097	-106.719997
7.700000	-0.278736	-122.746046	-32.462609	14.647827	-32.462609	14.647827	-0.241407	-107.312576
7.750000	-0.282610	-123.424358	-32.388347	14.519930	-32.388347	14.519930	-0.244786	-107.903325
7.800000	-0.286501	-124.102411	-32.314149	14.390288	-32.314149	14.390288	-0.248181	-108.493709
7.850000	-0.290462	-124.779392	-32.238075	14.252030	-32.238075	14.252030	-0.251640	-109.082497
7.900000	-0.294448	-125.456015	-32.161834	14.110901	-32.161834	14.110901	-0.255121	-109.670752
7.950000	-0.298498	-126.131769	-32.084096	13.961550	-32.084096	13.961550	-0.258660	-110.257632
8.000000	-0.302581	-126.807089	-32.005978	13.808087	-32.005978	13.808087	-0.262230	-110.843825
8.050000	-0.306720	-127.481724	-31.926732	13.647031	-31.926732	13.647031	-0.265850	-111.428854
8.100000	-0.310901	-128.155869	-31.846911	13.480552	-31.846911	13.480552	-0.269509	-112.013053
8.150000	-0.315131	-128.829493	-31.766314	13.307304	-31.766314	13.307304	-0.273212	-112.596288
8.200000	-0.319410	-129.502594	-31.684969	13.127287	-31.684969	13.127287	-0.276960	-113.178561
8.250000	-0.323732	-130.175316	-31.603179	12.941480	-31.603179	12.941480	-0.280747	-113.760061
8.300000	-0.328111	-130.847506	-31.520488	12.747566	-31.520488	12.747566	-0.284586	-114.340479
8.350000	-0.332525	-131.519438	-31.437661	12.548952	-31.437661	12.548952	-0.288458	-114.920303
8.400000	-0.337005	-132.190853	-31.353802	12.340935	-31.353802	12.340935	-0.292390	-115.498939
8.450000	-0.341512	-132.862108	-31.270091	12.129376	-31.270091	12.129376	-0.296346	-116.077147
8.500000	-0.346094	-133.532886	-31.185235	11.907194	-31.185235	11.907194	-0.300372	-116.654073
8.550000	-0.350695	-134.203580	-31.100786	11.682664	-31.100786	11.682664	-0.304414	-117.230726
8.600000	-0.355380	-134.873860	-31.015099	11.446390	-31.015099	11.446390	-0.308534	-117.806018
8.650000	-0.360075	-135.544109	-30.930052	11.208959	-30.930052	11.208959	-0.312664	-118.381179
8.700000	-0.364863	-136.214034	-30.843689	10.958790	-30.843689	10.958790	-0.316880	-118.954911
8.750000	-0.369654	-136.883958	-30.758177	10.708620	-30.758177	10.708620	-0.321097	-119.528644
8.800000	-0.374547	-137.553672	-30.671282	10.444860	-30.671282	10.444860	-0.325409	-120.100894
8.850000	-0.379442	-138.223386	-30.585249	10.181100	-30.585249	10.181100	-0.329723	-120.673145
8.900000	-0.384432	-138.893042	-30.498132	9.905250	-30.498132	9.905250	-0.334125	-121.244110
8.950000	-0.389432	-139.562692	-30.411707	9.628300	-30.411707	9.628300	-0.338536	-121.814958
9.000000	-0.394518	-140.232415	-30.324469	9.340762	-30.324469	9.340762	-0.343028	-122.384704
9.050000	-0.399624	-140.902152	-30.237768	9.051106	-30.237768	9.051106	-0.347538	-122.954229
9.100000	-0.404808	-141.572069	-30.150497	8.752334	-30.150497	8.752334	-0.352120	-123.522823
9.150000	-0.410021	-142.242045	-30.063622	8.450523	-30.063622	8.450523	-0.356729	-124.091107
9.200000	-0.415303	-142.912284	-29.976394	8.141012	-29.976394	8.141012	-0.361403	-124.658618
9.250000	-0.420622	-143.582653	-29.889433	7.827652	-29.889433	7.827652	-0.366111	-125.225743
9.300000	-0.426002	-144.253345	-29.802313	7.507933	-29.802313	7.507933	-0.370877	-125.792241
9.350000	-0.431428	-144.924267	-29.715336	7.183673	-29.715336	7.183673	-0.375685	-126.358292
9.400000	-0.436908	-145.595544	-29.628376	6.854300	-29.628376	6.854300	-0.380544	-126.923848
9.450000	-0.442441	-146.267177	-29.541441	6.519816	-29.541441	6.519816	-0.385453	-127.488910
9.500000	-0.448019	-146.939175	-29.454681	6.181363	-29.454681	6.181363	-0.390405	-128.053597
9.550000	-0.453660	-147.611683	-29.367828	5.837353	-29.367828	5.837353	-0.395415	-128.617757
9.600000	-0.459337	-148.284538	-29.281297	5.490402	-29.281297	5.490402	-0.400460	-129.181646
9.650000	-0.465085	-148.958087	-29.194553	5.137571	-29.194553	5.137571	-0.405572	-129.744994
9.700000	-0.470862	-149.631938	-29.108268	4.782710	-29.108268	4.782710	-0.410711	-130.308160
9.750000	-0.476717	-150.306697	-29.021645	4.421761	-29.021645	4.421761	-0.415926	-130.870785
9.800000	-0.482592	-150.981686	-28.935612	4.059575	-28.935612	4.059575	-0.421159	-131.433304
9.850000	-0.488555	-151.657826	-28.849108	3.691204	-28.849108	3.691204	-0.426475	-131.995297
9.900000	-0.494529	-152.334097	-28.763324	3.322270	-28.763324	3.322270	-0.431803	-132.557246
9.950000	-0.500598	-153.011794	-28.676923	2.947154	-28.676923	2.947154	-0.437221	-133.118702
10.000000	-0.506671	-153.689491	-28.591374	2.572039	-28.591374	2.572039	-0.442644	-133.680157
