! freq	dB(S11)	phase(S11)	dB(S12)	phase(S12)	
!     	dB(S21)	phase(S21)	dB(S22)	phase(S22)	
!S-par simulation data
#  GHz  S  DB  R 50
0.000000	-0.000000	0.000000	-332.034185	0.000000	-332.034185	0.000000	-0.000000	0.000000
0.050000	-0.000101	-0.794552	-65.019187	89.022023	-65.019187	89.022023	-0.000113	-0.936513
0.100000	-0.000398	-1.588864	-59.006088	88.054717	-59.006088	88.054717	-0.000450	-1.872759
0.150000	-0.000882	-2.382713	-55.495517	87.105729	-55.495517	87.105729	-0.000997	-2.808485
0.200000	-0.001531	-3.175917	-53.010346	86.178212	-53.010346	86.178212	-0.001735	-3.743481
0.250000	-0.002335	-3.968266	-51.087401	85.273177	-51.087401	85.273177	-0.002653	-4.677501
0.300000	-0.003255	-4.759723	-49.519080	84.385913	-49.519080	84.385913	-0.003710	-5.610486
0.350000	-0.004274	-5.550179	-48.195319	83.513814	-48.195319	83.513814	-0.004887	-6.542295
0.400000	-0.005371	-6.339590	-47.050257	82.653341	-47.050257	82.653341	-0.006160	-7.472857
0.450000	-0.006523	-7.127942	-46.041498	81.801419	-46.041498	81.801419	-0.007506	-8.402133
0.500000	-0.007713	-7.915242	-45.140180	80.955605	-45.140180	80.955605	-0.008904	-9.330110
0.550000	-0.008927	-8.701511	-44.325782	80.114068	-44.325782	80.114068	-0.010336	-10.256793
0.600000	-0.010152	-9.486780	-43.583198	79.275494	-43.583198	79.275494	-0.011788	-11.182199
0.650000	-0.011379	-10.271084	-42.900986	78.438975	-42.900986	78.438975	-0.013247	-12.106355
0.700000	-0.012602	-11.054455	-42.270272	77.603904	-42.270272	77.603904	-0.014704	-13.029287
0.750000	-0.013815	-11.836928	-41.684032	76.769896	-41.684032	76.769896	-0.016153	-13.951023
0.800000	-0.015016	-12.618528	-41.136609	75.936720	-41.136609	75.936720	-0.017588	-14.871588
0.850000	-0.016203	-13.399279	-40.623378	75.104258	-40.623378	75.104258	-0.019008	-15.791001
0.900000	-0.017375	-14.179198	-40.140509	74.272463	-40.140509	74.272463	-0.020410	-16.709279
0.950000	-0.018533	-14.958296	-39.684795	73.441343	-39.684795	73.441343	-0.021793	-17.626432
1.000000	-0.019676	-15.736580	-39.253519	72.610940	-39.253519	72.610940	-0.023157	-18.542464
1.050000	-0.020807	-16.514053	-38.844363	71.781317	-38.844363	71.781317	-0.024504	-19.457376
1.100000	-0.021925	-17.290712	-38.455331	70.952555	-38.455331	70.952555	-0.025834	-20.371162
1.150000	-0.023032	-18.066552	-38.084690	70.124742	-38.084690	70.124742	-0.027148	-21.283814
1.200000	-0.024129	-18.841564	-37.730929	69.297972	-37.730929	69.297972	-0.028448	-22.195319
1.250000	-0.025218	-19.615737	-37.392720	68.472341	-37.392720	68.472341	-0.029735	-23.105661
1.300000	-0.026299	-20.389020	-37.068966	67.648006	-37.068966	67.648006	-0.031010	-24.014771
1.350000	-0.027374	-21.161435	-36.758549	66.825012	-36.758549	66.825012	-0.032275	-24.922679
1.400000	-0.028444	-21.932965	-36.460540	66.003456	-36.460540	66.003456	-0.033531	-25.829362
1.450000	-0.029510	-22.703593	-36.174106	65.183431	-36.174106	65.183431	-0.034780	-26.734797
1.500000	-0.030572	-23.473301	-35.898498	64.365029	-35.898498	64.365029	-0.036023	-27.638960
1.550000	-0.031632	-24.242070	-35.633041	63.548338	-35.633041	63.548338	-0.037261	-28.541827
1.600000	-0.032690	-25.009882	-35.377121	62.733446	-35.377121	62.733446	-0.038494	-29.443371
1.650000	-0.033746	-25.776716	-35.130182	61.920438	-35.130182	61.920438	-0.039724	-30.343566
1.700000	-0.034802	-26.542553	-34.891715	61.109396	-34.891715	61.109396	-0.040952	-31.242388
1.750000	-0.035857	-27.307374	-34.661256	60.300401	-34.661256	60.300401	-0.042178	-32.139811
1.800000	-0.036912	-28.071161	-34.438378	59.493530	-34.438378	59.493530	-0.043403	-33.035808
1.850000	-0.037968	-28.833892	-34.222688	58.688859	-34.222688	58.688859	-0.044627	-33.930355
1.900000	-0.039025	-29.595550	-34.013826	57.886464	-34.013826	57.886464	-0.045851	-34.823427
1.950000	-0.040083	-30.356115	-33.811457	57.086415	-33.811457	57.086415	-0.047077	-35.714999
2.000000	-0.041142	-31.115570	-33.615271	56.288784	-33.615271	56.288784	-0.048303	-36.605047
2.050000	-0.042203	-31.873894	-33.424980	55.493638	-33.424980	55.493638	-0.049530	-37.493548
2.100000	-0.043266	-32.631072	-33.240318	54.701045	-33.240318	54.701045	-0.050760	-38.380479
2.150000	-0.044332	-33.387084	-33.061036	53.911069	-33.061036	53.911069	-0.051992	-39.265818
2.200000	-0.045399	-34.141913	-32.886899	53.123775	-32.886899	53.123775	-0.053226	-40.149543
2.250000	-0.046470	-34.895543	-32.717690	52.339223	-32.717690	52.339223	-0.054464	-41.031632
2.300000	-0.047543	-35.647957	-32.553206	51.557475	-32.553206	51.557475	-0.055705	-41.912066
2.350000	-0.048620	-36.399138	-32.393254	50.778588	-32.393254	50.778588	-0.056949	-42.790826
2.400000	-0.049700	-37.149071	-32.237654	50.002622	-32.237654	50.002622	-0.058198	-43.667891
2.450000	-0.050784	-37.897739	-32.086235	49.229630	-32.086235	49.229630	-0.059451	-44.543244
2.500000	-0.051871	-38.645128	-31.938839	48.459669	-31.938839	48.459669	-0.060708	-45.416867
2.550000	-0.052963	-39.391166	-31.795374	47.692927	-31.795374	47.692927	-0.061971	-46.288667
2.600000	-0.054060	-40.135895	-31.655635	46.929324	-31.655635	46.929324	-0.063239	-47.158702
2.650000	-0.055161	-40.879299	-31.519485	46.168912	-31.519485	46.168912	-0.064512	-48.026958
2.700000	-0.056266	-41.621365	-31.386796	45.411738	-31.386796	45.411738	-0.065792	-48.893420
2.750000	-0.057377	-42.362081	-31.257446	44.657850	-31.257446	44.657850	-0.067077	-49.758074
2.800000	-0.058493	-43.101433	-31.131318	43.907295	-31.131318	43.907295	-0.068369	-50.620906
2.850000	-0.059615	-43.839408	-31.008300	43.160118	-31.008300	43.160118	-0.069669	-51.481905
2.900000	-0.060743	-44.575995	-30.888288	42.416363	-30.888288	42.416363	-0.070975	-52.341059
2.950000	-0.061877	-45.311182	-30.771180	41.676071	-30.771180	41.676071	-0.072289	-53.198356
3.000000	-0.063018	-46.044957	-30.656881	40.939285	-30.656881	40.939285	-0.073611	-54.053786
3.050000	-0.064165	-46.777309	-30.545296	40.206044	-30.545296	40.206044	-0.074942	-54.907339
3.100000	-0.065320	-47.508227	-30.436339	39.476387	-30.436339	39.476387	-0.076281	-55.759007
3.150000	-0.066482	-48.237702	-30.329924	38.750352	-30.329924	38.750352	-0.077629	-56.608782
3.200000	-0.067652	-48.965723	-30.225970	38.027975	-30.225970	38.027975	-0.078987	-57.456654
3.250000	-0.068829	-49.692281	-30.124399	37.309290	-30.124399	37.309290	-0.080355	-58.302619
3.300000	-0.070016	-50.417367	-30.025136	36.594333	-30.025136	36.594333	-0.081733	-59.146669
3.350000	-0.071211	-51.140972	-29.928107	35.883135	-29.928107	35.883135	-0.083121	-59.988799
3.400000	-0.072415	-51.863087	-29.833244	35.175727	-29.833244	35.175727	-0.084521	-60.829004
3.450000	-0.073628	-52.583704	-29.740478	34.472140	-29.740478	34.472140	-0.085933	-61.667280
3.500000	-0.074851	-53.302817	-29.649746	33.772402	-29.649746	33.772402	-0.087356	-62.503623
3.550000	-0.076085	-54.020416	-29.560984	33.076542	-29.560984	33.076542	-0.088793	-63.338031
3.600000	-0.077328	-54.736497	-29.474131	32.384585	-29.474131	32.384585	-0.090241	-64.170501
3.650000	-0.078583	-55.451051	-29.389129	31.696556	-29.389129	31.696556	-0.091704	-65.001032
3.700000	-0.079849	-56.164074	-29.305921	31.012480	-29.305921	31.012480	-0.093180	-65.829623
3.750000	-0.081126	-56.875559	-29.224451	30.332379	-29.224451	30.332379	-0.094670	-66.656273
3.800000	-0.082416	-57.585433	-29.144706	29.656449	-29.144706	29.656449	-0.096176	-67.480899
3.850000	-0.083718	-58.293758	-29.066592	28.984537	-29.066592	28.984537	-0.097697	-68.303586
3.900000	-0.085033	-59.000530	-28.990059	28.316662	-28.990059	28.316662	-0.099233	-69.124336
3.950000	-0.086360	-59.705745	-28.915056	27.652840	-28.915056	27.652840	-0.100786	-69.943150
4.000000	-0.087702	-60.409398	-28.841538	26.993089	-28.841538	26.993089	-0.102355	-70.760034
4.050000	-0.089057	-61.111486	-28.769455	26.337422	-28.769455	26.337422	-0.103941	-71.574988
4.100000	-0.090426	-61.812006	-28.698765	25.685852	-28.698765	25.685852	-0.105545	-72.388019
4.150000	-0.091810	-62.510955	-28.629421	25.038393	-28.629421	25.038393	-0.107167	-73.199131
4.200000	-0.093209	-63.208331	-28.561381	24.395055	-28.561381	24.395055	-0.108808	-74.008328
4.250000	-0.094623	-63.904132	-28.494603	23.755846	-28.494603	23.755846	-0.110467	-74.815618
4.300000	-0.096053	-64.598356	-28.429045	23.120776	-28.429045	23.120776	-0.112146	-75.621007
4.350000	-0.097500	-65.291001	-28.364667	22.489849	-28.364667	22.489849	-0.113845	-76.424501
4.400000	-0.098963	-65.982067	-28.301430	21.863073	-28.301430	21.863073	-0.115564	-77.226109
4.450000	-0.100442	-66.671552	-28.239294	21.240449	-28.239294	21.240449	-0.117304	-78.025839
4.500000	-0.101939	-67.359458	-28.178222	20.621982	-28.178222	20.621982	-0.119065	-78.823700
4.550000	-0.103454	-68.045783	-28.118177	20.007670	-28.118177	20.007670	-0.120848	-79.619700
4.600000	-0.104990	-68.730254	-28.059218	19.398236	-28.059218	19.398236	-0.122658	-80.413533
4.650000	-0.106546	-69.413077	-28.001236	18.793136	-28.001236	18.793136	-0.124491	-81.205447
4.700000	-0.108112	-70.095077	-27.943909	18.190199	-27.943909	18.190199	-0.126337	-81.996412
4.750000	-0.109707	-70.774609	-27.887764	17.593750	-27.887764	17.593750	-0.128220	-82.784529
4.800000	-0.111310	-71.453594	-27.832145	16.998737	-27.832145	16.998737	-0.130111	-83.572023
4.850000	-0.112948	-72.129844	-27.777695	16.410906	-27.777695	16.410906	-0.132045	-84.356398
4.900000	-0.114589	-72.805820	-27.723658	15.823789	-27.723658	15.823789	-0.133984	-85.140466
4.950000	-0.116271	-73.478798	-27.670764	15.244529	-27.670764	15.244529	-0.135972	-85.921157
5.000000	-0.117952	-74.151775	-27.618189	14.665269	-27.618189	14.665269	-0.137960	-86.701848
5.050000	-0.119679	-74.821495	-27.566715	14.094515	-27.566715	14.094515	-0.140003	-87.478918
5.100000	-0.121406	-75.491215	-27.515544	13.523761	-27.515544	13.523761	-0.142046	-88.255989
5.150000	-0.123176	-76.157964	-27.465301	12.960731	-27.465301	12.960731	-0.144142	-89.029802
5.200000	-0.124950	-76.824443	-27.415404	12.398403	-27.415404	12.398403	-0.146243	-89.803320
5.250000	-0.126765	-77.488238	-27.366281	11.843016	-27.366281	11.843016	-0.148394	-90.573937
5.300000	-0.128588	-78.151496	-27.317532	11.289017	-27.317532	11.289017	-0.150555	-91.343975
5.350000	-0.130449	-78.812355	-27.269421	10.741177	-27.269421	10.741177	-0.152761	-92.111459
5.400000	-0.132323	-79.472414	-27.221697	10.195391	-27.221697	10.195391	-0.154984	-92.878093
5.450000	-0.134232	-80.130357	-27.174494	9.654990	-27.174494	9.654990	-0.157248	-93.642511
5.500000	-0.136158	-80.787243	-27.127675	9.117283	-27.127675	9.117283	-0.159534	-94.405822
5.550000	-0.138116	-81.442294	-27.081277	8.584197	-27.081277	8.584197	-0.161859	-95.167244
5.600000	-0.140097	-82.096034	-27.035247	8.054413	-27.035247	8.054413	-0.164211	-95.927318
5.650000	-0.142106	-82.748216	-26.989556	7.528504	-26.989556	7.528504	-0.166596	-96.685817
5.700000	-0.144142	-83.398841	-26.944201	7.006469	-26.944201	7.006469	-0.169016	-97.442742
5.750000	-0.146203	-84.048181	-26.899120	6.487581	-26.899120	6.487581	-0.171464	-98.198394
5.800000	-0.148298	-84.695723	-26.854328	5.973099	-26.854328	5.973099	-0.173953	-98.952264
5.850000	-0.150413	-85.342249	-26.809765	5.461061	-26.809765	5.461061	-0.176467	-99.705148
5.900000	-0.152567	-85.986744	-26.765428	4.953913	-26.765428	4.953913	-0.179027	-100.456060
5.950000	-0.154737	-86.630486	-26.721291	4.448538	-26.721291	4.448538	-0.181607	-101.206258
6.000000	-0.156953	-87.271971	-26.677304	3.948481	-26.677304	3.948481	-0.184241	-101.954313
6.050000	-0.159180	-87.912960	-26.633505	3.449562	-26.633505	3.449562	-0.186889	-102.701910
6.100000	-0.161459	-88.551475	-26.589765	2.956332	-26.589765	2.956332	-0.189599	-103.447213
6.150000	-0.163744	-89.189745	-26.546219	2.463646	-26.546219	2.463646	-0.192316	-104.192296
6.200000	-0.166088	-89.825332	-26.502627	1.976951	-26.502627	1.976951	-0.195103	-104.934956
6.250000	-0.168433	-90.460918	-26.459252	1.490257	-26.459252	1.490257	-0.197891	-105.677616
6.300000	-0.170844	-91.093621	-26.415711	1.009783	-26.415711	1.009783	-0.200758	-106.417744
6.350000	-0.173256	-91.726324	-26.372387	0.529310	-26.372387	0.529310	-0.203625	-107.157873
6.400000	-0.175730	-92.356426	-26.328844	0.054227	-26.328844	0.054227	-0.206567	-107.895787
6.450000	-0.178210	-92.986291	-26.285480	-0.420366	-26.285480	-0.420366	-0.209516	-108.633500
6.500000	-0.180748	-93.613832	-26.241862	-0.890363	-26.241862	-0.890363	-0.212533	-109.369299
6.550000	-0.183299	-94.240908	-26.198369	-1.359441	-26.198369	-1.359441	-0.215565	-110.104716
6.600000	-0.185904	-94.865930	-26.154606	-1.824675	-26.154606	-1.824675	-0.218661	-110.838503
6.650000	-0.188527	-95.490267	-26.110900	-2.288627	-26.110900	-2.288627	-0.221778	-111.571746
6.700000	-0.191199	-96.112814	-26.066924	-2.749440	-26.066924	-2.749440	-0.224953	-112.303624
6.750000	-0.193896	-96.734464	-26.022927	-3.208682	-26.022927	-3.208682	-0.228157	-113.034821
6.800000	-0.196637	-97.354580	-25.978676	-3.665433	-25.978676	-3.665433	-0.231413	-113.764898
6.850000	-0.199409	-97.973598	-25.934311	-4.120404	-25.934311	-4.120404	-0.234706	-114.494177
6.900000	-0.202221	-98.591328	-25.889726	-4.573469	-25.889726	-4.573469	-0.238045	-115.222564
6.950000	-0.205071	-99.207770	-25.844924	-5.024629	-25.844924	-5.024629	-0.241429	-115.950058
7.000000	-0.207954	-99.823163	-25.799949	-5.474401	-25.799949	-5.474401	-0.244851	-116.676866
7.050000	-0.210884	-100.437086	-25.754646	-5.922231	-25.754646	-5.922231	-0.248328	-117.402713
7.100000	-0.213841	-101.050190	-25.709232	-6.369118	-25.709232	-6.369118	-0.251836	-118.128057
7.150000	-0.216852	-101.661654	-25.663368	-6.814118	-25.663368	-6.814118	-0.255407	-118.852396
7.200000	-0.219883	-102.272519	-25.617470	-7.258539	-25.617470	-7.258539	-0.259003	-119.576394
7.250000	-0.222977	-102.881586	-25.570993	-7.701224	-25.570993	-7.701224	-0.262670	-120.299369
7.300000	-0.226085	-103.490263	-25.524570	-8.143611	-25.524570	-8.143611	-0.266354	-121.022141
7.350000	-0.229263	-104.096995	-25.477433	-8.584510	-25.477433	-8.584510	-0.270119	-121.743898
7.400000	-0.232449	-104.703537	-25.430449	-9.025305	-25.430449	-9.025305	-0.273894	-122.465567
7.450000	-0.235714	-105.307998	-25.382613	-9.464955	-25.382613	-9.464955	-0.277759	-123.186257
7.500000	-0.238979	-105.912459	-25.335038	-9.904605	-25.335038	-9.904605	-0.281625	-123.906947
7.550000	-0.242331	-106.514715	-25.286469	-10.343549	-25.286469	-10.343549	-0.285592	-124.626723
7.600000	-0.245685	-107.116972	-25.238171	-10.782493	-25.238171	-10.782493	-0.289560	-125.346499
7.650000	-0.249120	-107.717270	-25.188952	-11.221288	-25.188952	-11.221288	-0.293622	-126.065582
7.700000	-0.252563	-108.317390	-25.139904	-11.660070	-25.139904	-11.660070	-0.297694	-126.784602
7.750000	-0.256082	-108.915786	-25.090023	-12.099166	-25.090023	-12.099166	-0.301852	-127.503125
7.800000	-0.259616	-109.513839	-25.040207	-12.538325	-25.040207	-12.538325	-0.306029	-128.221549
7.850000	-0.263220	-110.110394	-24.989657	-12.978165	-24.989657	-12.978165	-0.310285	-128.939649
7.900000	-0.266848	-110.706449	-24.939062	-13.418232	-24.939062	-13.418232	-0.314569	-129.657641
7.950000	-0.270539	-111.301222	-24.887841	-13.859249	-24.887841	-13.859249	-0.318925	-130.375457
8.000000	-0.274262	-111.895353	-24.836462	-14.300740	-24.836462	-14.300740	-0.323317	-131.093185
8.050000	-0.278040	-112.488404	-24.784573	-14.743354	-24.784573	-14.743354	-0.327774	-131.810859
8.100000	-0.281859	-113.080685	-24.732414	-15.186768	-24.732414	-15.186768	-0.332277	-132.528495
8.150000	-0.285728	-113.672077	-24.679865	-15.631379	-24.679865	-15.631379	-0.336836	-133.246172
8.200000	-0.289645	-114.262582	-24.626935	-16.077188	-24.626935	-16.077188	-0.341451	-133.963890
8.250000	-0.293604	-114.852379	-24.573739	-16.524180	-24.573739	-16.524180	-0.346114	-134.681717
8.300000	-0.297621	-115.441185	-24.520052	-16.972828	-24.520052	-16.972828	-0.350843	-135.399697
8.350000	-0.301672	-116.029451	-24.466226	-17.422558	-24.466226	-17.422558	-0.355611	-136.117826
8.400000	-0.305790	-116.616636	-24.411802	-17.874454	-24.411802	-17.874454	-0.360456	-136.836250
8.450000	-0.309935	-117.203436	-24.357369	-18.327254	-24.357369	-18.327254	-0.365331	-137.554832
8.500000	-0.314156	-117.789080	-24.302233	-18.782768	-24.302233	-18.782768	-0.370292	-138.273888
8.550000	-0.318396	-118.374481	-24.247215	-19.238940	-24.247215	-19.238940	-0.375275	-138.993081
8.600000	-0.322721	-118.958666	-24.191397	-19.698402	-24.191397	-19.698402	-0.380355	-139.712959
8.650000	-0.327057	-119.542735	-24.135821	-20.158216	-24.135821	-20.158216	-0.385447	-140.432922
8.700000	-0.331489	-120.125542	-24.079352	-20.621909	-24.079352	-20.621909	-0.390647	-141.153817
8.750000	-0.335922	-120.708350	-24.023248	-21.085601	-24.023248	-21.085601	-0.395850	-141.874712
8.800000	-0.340460	-121.289863	-23.966161	-21.553762	-23.966161	-21.553762	-0.401171	-142.596823
8.850000	-0.345001	-121.871377	-23.909448	-22.021923	-23.909448	-22.021923	-0.406496	-143.318935
8.900000	-0.349640	-122.451784	-23.851890	-22.494351	-23.851890	-22.494351	-0.411930	-144.042348
8.950000	-0.354289	-123.032091	-23.794602	-22.967168	-23.794602	-22.967168	-0.417378	-144.765880
9.000000	-0.359029	-123.611463	-23.736604	-23.443981	-23.736604	-23.443981	-0.422927	-145.490768
9.050000	-0.363789	-124.190649	-23.678776	-23.921594	-23.678776	-23.921594	-0.428499	-146.215928
9.100000	-0.368631	-124.769061	-23.620368	-24.402872	-23.620368	-24.402872	-0.434164	-146.942469
9.150000	-0.373503	-125.347216	-23.562033	-24.885372	-23.562033	-24.885372	-0.439862	-147.669470
9.200000	-0.378448	-125.924742	-23.503244	-25.371160	-23.503244	-25.371160	-0.445643	-148.397843
9.250000	-0.383433	-126.501955	-23.444432	-25.858592	-23.444432	-25.858592	-0.451468	-149.126902
9.300000	-0.388483	-127.078672	-23.385288	-26.348902	-23.385288	-26.348902	-0.457367	-149.857292
9.350000	-0.393581	-127.655035	-23.326029	-26.841267	-23.326029	-26.841267	-0.463321	-150.588632
9.400000	-0.398738	-128.231020	-23.266553	-27.336080	-23.266553	-27.336080	-0.469338	-151.321226
9.450000	-0.403952	-128.806627	-23.206868	-27.833340	-23.206868	-27.833340	-0.475421	-152.055074
9.500000	-0.409214	-129.381958	-23.147080	-28.332607	-23.147080	-28.332607	-0.481558	-152.790064
9.550000	-0.414545	-129.956905	-23.086990	-28.834685	-23.086990	-28.834685	-0.487771	-153.526652
9.600000	-0.419916	-130.531663	-23.026904	-29.338334	-23.026904	-29.338334	-0.494029	-154.264234
9.650000	-0.425364	-131.106045	-22.966420	-29.845123	-22.966420	-29.845123	-0.500373	-155.003801
9.700000	-0.430843	-131.680310	-22.906048	-30.353056	-22.906048	-30.353056	-0.506753	-155.744173
9.750000	-0.436410	-132.254227	-22.845177	-30.864423	-22.845177	-30.864423	-0.513229	-156.486961
9.800000	-0.441999	-132.828083	-22.784523	-31.376528	-22.784523	-31.376528	-0.519730	-157.230328
9.850000	-0.447686	-133.401635	-22.723264	-31.892319	-22.723264	-31.892319	-0.526339	-157.976587
9.900000	-0.453385	-133.975165	-22.662329	-32.408465	-22.662329	-32.408465	-0.532962	-158.723156
9.950000	-0.459192	-134.548455	-22.600673	-32.928513	-22.600673	-32.928513	-0.539704	-159.473139
10.000000	-0.465003	-135.121744	-22.539452	-33.448560	-22.539452	-33.448560	-0.546451	-160.223122
