! freq	dB(S11)	phase(S11)	dB(S12)	phase(S12)	
!     	dB(S21)	phase(S21)	dB(S22)	phase(S22)	
!S-par simulation data
#  GHz  S  DB  R 50
0.000000	-0.000000	0.000000	-340.941160	180.000000	-340.941160	180.000000	-0.000000	0.000000
0.050000	-0.000113	-0.946692	-67.694950	88.777804	-67.694950	88.777804	-0.000099	-0.771971
0.100000	-0.000449	-1.893114	-61.708898	87.661254	-61.708898	87.661254	-0.000391	-1.543703
0.150000	-0.000996	-2.839015	-58.227337	86.673887	-58.227337	86.673887	-0.000865	-2.314977
0.200000	-0.001733	-3.784182	-55.765327	85.781090	-55.765327	85.781090	-0.001501	-3.085612
0.250000	-0.002650	-4.728366	-53.858271	84.945064	-53.858271	84.945064	-0.002287	-3.855404
0.300000	-0.003706	-5.671509	-52.299729	84.132725	-52.299729	84.132725	-0.003185	-4.624317
0.350000	-0.004883	-6.613463	-50.981585	83.330897	-50.981585	83.330897	-0.004178	-5.392249
0.400000	-0.006155	-7.554158	-49.839491	82.531475	-49.839491	82.531475	-0.005244	-6.159161
0.450000	-0.007501	-8.493551	-48.832140	81.730753	-48.832140	81.730753	-0.006362	-6.925043
0.500000	-0.008898	-9.431627	-47.931385	80.927282	-47.931385	80.927282	-0.007515	-7.689906
0.550000	-0.010329	-10.368389	-47.117157	80.120713	-47.117157	80.120713	-0.008688	-8.453774
0.600000	-0.011779	-11.303852	-46.374624	79.311205	-46.374624	79.311205	-0.009870	-9.216680
0.650000	-0.013236	-12.238040	-45.692508	78.499132	-45.692508	78.499132	-0.011053	-9.978660
0.700000	-0.014691	-13.170980	-45.062026	77.684937	-45.062026	77.684937	-0.012229	-10.739749
0.750000	-0.016136	-14.102697	-44.476204	76.869070	-44.476204	76.869070	-0.013394	-11.499981
0.800000	-0.017567	-15.033215	-43.929410	76.051953	-43.929410	76.051953	-0.014547	-12.259381
0.850000	-0.018981	-15.962555	-43.417028	75.233976	-43.417028	75.233976	-0.015685	-13.017974
0.900000	-0.020376	-16.890731	-42.935230	74.415490	-42.935230	74.415490	-0.016807	-13.775776
0.950000	-0.021751	-17.817752	-42.480803	73.596808	-42.480803	73.596808	-0.017915	-14.532799
1.000000	-0.023106	-18.743623	-42.051026	72.778214	-42.051026	72.778214	-0.019009	-15.289049
1.050000	-0.024442	-19.668343	-41.643572	71.959964	-41.643572	71.959964	-0.020089	-16.044529
1.100000	-0.025760	-20.591907	-41.256438	71.142288	-41.256438	71.142288	-0.021156	-16.799237
1.150000	-0.027060	-21.514305	-40.887884	70.325396	-40.887884	70.325396	-0.022213	-17.553167
1.200000	-0.028345	-22.435524	-40.536393	69.509482	-40.536393	69.509482	-0.023260	-18.306312
1.250000	-0.029615	-23.355549	-40.200629	68.694721	-40.200629	68.694721	-0.024298	-19.058660
1.300000	-0.030872	-24.274307	-39.879506	67.881344	-39.879506	67.881344	-0.025328	-19.810164
1.350000	-0.032118	-25.191828	-39.571885	67.069452	-39.571885	67.069452	-0.026351	-20.560843
1.400000	-0.033354	-26.108090	-39.276832	66.259188	-39.276832	66.259188	-0.027369	-21.310682
1.450000	-0.034581	-27.023069	-38.993510	65.450686	-38.993510	65.450686	-0.028382	-22.059665
1.500000	-0.035801	-27.936741	-38.721168	64.644074	-38.721168	64.644074	-0.029391	-22.807774
1.550000	-0.037015	-28.849078	-38.459124	63.839474	-38.459124	63.839474	-0.030398	-23.554992
1.600000	-0.038223	-29.760056	-38.206764	63.037002	-38.206764	63.037002	-0.031401	-24.301301
1.650000	-0.039427	-30.669647	-37.963528	62.236769	-37.963528	62.236769	-0.032403	-25.046682
1.700000	-0.040628	-31.577825	-37.728905	61.438883	-37.728905	61.438883	-0.033403	-25.791117
1.750000	-0.041826	-32.484565	-37.502429	60.643448	-37.502429	60.643448	-0.034402	-26.534588
1.800000	-0.043022	-33.389838	-37.283669	59.850563	-37.283669	59.850563	-0.035401	-27.277076
1.850000	-0.044216	-34.293620	-37.072234	59.060327	-37.072234	59.060327	-0.036399	-28.018563
1.900000	-0.045410	-35.195885	-36.867759	58.272833	-36.867759	58.272833	-0.037398	-28.759031
1.950000	-0.046604	-36.096608	-36.669908	57.488174	-36.669908	57.488174	-0.038397	-29.498462
2.000000	-0.047798	-36.995763	-36.478370	56.706440	-36.478370	56.706440	-0.039397	-30.236838
2.050000	-0.048993	-37.893327	-36.292856	55.927718	-36.292856	55.927718	-0.040397	-30.974142
2.100000	-0.050190	-38.789276	-36.113097	55.152094	-36.113097	55.152094	-0.041399	-31.710356
2.150000	-0.051388	-39.683587	-35.938843	54.379652	-35.938843	54.379652	-0.042403	-32.445465
2.200000	-0.052588	-40.576238	-35.769859	53.610474	-35.769859	53.610474	-0.043409	-33.179450
2.250000	-0.053790	-41.467208	-35.605927	52.844641	-35.605927	52.844641	-0.044416	-33.912296
2.300000	-0.054996	-42.356475	-35.446840	52.082231	-35.446840	52.082231	-0.045426	-34.643986
2.350000	-0.056204	-43.244019	-35.292405	51.323322	-35.292405	51.323322	-0.046438	-35.374505
2.400000	-0.057417	-44.129821	-35.142442	50.567991	-35.142442	50.567991	-0.047454	-36.103838
2.450000	-0.058633	-45.013861	-34.996778	49.816312	-34.996778	49.816312	-0.048472	-36.831969
2.500000	-0.059853	-45.896123	-34.855252	49.068358	-34.855252	49.068358	-0.049493	-37.558884
2.550000	-0.061078	-46.776509	-34.717786	48.324370	-34.717786	48.324370	-0.050518	-38.284513
2.600000	-0.062309	-47.655081	-34.584159	47.584256	-34.584159	47.584256	-0.051547	-39.008897
2.650000	-0.063544	-48.531823	-34.454234	46.848087	-34.454234	46.848087	-0.052580	-39.732020
2.700000	-0.064785	-49.406719	-34.327879	46.115930	-34.327879	46.115930	-0.053618	-40.453870
2.750000	-0.066032	-50.279757	-34.204972	45.387853	-34.204972	45.387853	-0.054660	-41.174433
2.800000	-0.067286	-51.150921	-34.085395	44.663921	-34.085395	44.663921	-0.055707	-41.893697
2.850000	-0.068546	-52.020200	-33.969034	43.944200	-33.969034	43.944200	-0.056759	-42.611649
2.900000	-0.069814	-52.887581	-33.855782	43.228752	-33.855782	43.228752	-0.057817	-43.328277
2.950000	-0.071089	-53.753053	-33.745538	42.517640	-33.745538	42.517640	-0.058881	-44.043569
3.000000	-0.072372	-54.616605	-33.638201	41.810926	-33.638201	41.810926	-0.059950	-44.757515
3.050000	-0.073663	-55.478228	-33.533679	41.108669	-33.533679	41.108669	-0.061026	-45.470101
3.100000	-0.074963	-56.337913	-33.431880	40.410928	-33.431880	40.410928	-0.062109	-46.181319
3.150000	-0.076272	-57.195650	-33.332719	39.717762	-33.332719	39.717762	-0.063199	-46.891157
3.200000	-0.077590	-58.051433	-33.236111	39.029227	-33.236111	39.029227	-0.064296	-47.599606
3.250000	-0.078919	-58.905255	-33.141977	38.345378	-33.141977	38.345378	-0.065401	-48.306654
3.300000	-0.080257	-59.757108	-33.050238	37.666270	-33.050238	37.666270	-0.066514	-49.012294
3.350000	-0.081607	-60.606988	-32.960819	36.991956	-32.960819	36.991956	-0.067635	-49.716516
3.400000	-0.082968	-61.454889	-32.873650	36.322487	-32.873650	36.322487	-0.068765	-50.419311
3.450000	-0.084340	-62.300807	-32.788659	35.657915	-32.788659	35.657915	-0.069904	-51.120671
3.500000	-0.085725	-63.144740	-32.705780	34.998288	-32.705780	34.998288	-0.071053	-51.820587
3.550000	-0.087122	-63.986683	-32.624946	34.343656	-32.624946	34.343656	-0.072211	-52.519052
3.600000	-0.088532	-64.826636	-32.546095	33.694064	-32.546095	33.694064	-0.073379	-53.216058
3.650000	-0.089956	-65.664595	-32.469163	33.049559	-32.469163	33.049559	-0.074558	-53.911599
3.700000	-0.091394	-66.500561	-32.394093	32.410184	-32.394093	32.410184	-0.075748	-54.605667
3.750000	-0.092846	-67.334534	-32.320824	31.775983	-32.320824	31.775983	-0.076949	-55.298256
3.800000	-0.094314	-68.166427	-32.249348	31.147226	-32.249348	31.147226	-0.078162	-55.989296
3.850000	-0.095797	-68.996328	-32.179560	30.523727	-32.179560	30.523727	-0.079386	-56.678844
3.900000	-0.097296	-69.824239	-32.111405	29.905526	-32.111405	29.905526	-0.080624	-57.366896
3.950000	-0.098811	-70.650163	-32.044830	29.292659	-32.044830	29.292659	-0.081873	-58.053447
4.000000	-0.100343	-71.474102	-31.979784	28.685162	-31.979784	28.685162	-0.083136	-58.738491
4.050000	-0.101893	-72.296061	-31.916216	28.083068	-31.916216	28.083068	-0.084413	-59.422024
4.100000	-0.103460	-73.116045	-31.854076	27.486410	-31.854076	27.486410	-0.085703	-60.104043
4.150000	-0.105046	-73.934057	-31.793316	26.895219	-31.793316	26.895219	-0.087007	-60.784544
4.200000	-0.106650	-74.750104	-31.733889	26.309523	-31.733889	26.309523	-0.088326	-61.463524
4.250000	-0.108274	-75.564192	-31.675747	25.729349	-31.675747	25.729349	-0.089660	-62.140978
4.300000	-0.109917	-76.376327	-31.618845	25.154724	-31.618845	25.154724	-0.091009	-62.816906
4.350000	-0.111581	-77.186518	-31.563138	24.585669	-31.563138	24.585669	-0.092374	-63.491304
4.400000	-0.113265	-77.994773	-31.508580	24.022208	-31.508580	24.022208	-0.093755	-64.164170
4.450000	-0.114970	-78.801099	-31.455129	23.464359	-31.455129	23.464359	-0.095152	-64.835503
4.500000	-0.116698	-79.605507	-31.402741	22.912139	-31.402741	22.912139	-0.096566	-65.505302
4.550000	-0.118447	-80.408005	-31.351374	22.365564	-31.351374	22.365564	-0.097998	-66.173564
4.600000	-0.120223	-81.208278	-31.301095	21.825634	-31.301095	21.825634	-0.099450	-66.840023
4.650000	-0.122023	-82.006582	-31.251780	21.291619	-31.251780	21.291619	-0.100921	-67.504878
4.700000	-0.123835	-82.803911	-31.203053	20.760568	-31.203053	20.760568	-0.102401	-68.168931
4.750000	-0.125685	-83.598318	-31.155525	20.238410	-31.155525	20.238410	-0.103911	-68.830579
4.800000	-0.127544	-84.392085	-31.108441	19.718229	-31.108441	19.718229	-0.105428	-69.491692
4.850000	-0.129446	-85.182651	-31.062529	19.207936	-31.062529	19.207936	-0.106978	-70.150135
4.900000	-0.131353	-85.972903	-31.016939	18.698631	-31.016939	18.698631	-0.108532	-70.808311
4.950000	-0.133309	-86.759689	-30.972475	18.200188	-30.972475	18.200188	-0.110124	-71.463555
5.000000	-0.135265	-87.546475	-30.928237	17.701746	-30.928237	17.701746	-0.111717	-72.118799
5.050000	-0.137277	-88.329545	-30.885054	17.215111	-30.885054	17.215111	-0.113354	-72.770851
5.100000	-0.139289	-89.112616	-30.842084	16.728477	-30.842084	16.728477	-0.114990	-73.422903
5.150000	-0.141354	-89.892345	-30.799961	16.252600	-30.799961	16.252600	-0.116668	-74.072040
5.200000	-0.143425	-90.671771	-30.758099	15.777700	-30.758099	15.777700	-0.118351	-74.720912
5.250000	-0.145545	-91.448220	-30.716899	15.312494	-30.716899	15.312494	-0.120072	-75.367145
5.300000	-0.147675	-92.224074	-30.675986	14.849227	-30.675986	14.849227	-0.121802	-76.012850
5.350000	-0.149852	-92.997309	-30.635573	14.394579	-30.635573	14.394579	-0.123568	-76.656192
5.400000	-0.152044	-93.769671	-30.595451	13.942805	-30.595451	13.942805	-0.125346	-77.298746
5.450000	-0.154279	-94.539760	-30.555694	13.498577	-30.555694	13.498577	-0.127158	-77.939212
5.500000	-0.156535	-95.308712	-30.516208	13.058122	-30.516208	13.058122	-0.128987	-78.578633
5.550000	-0.158830	-96.075727	-30.476976	12.624147	-30.476976	12.624147	-0.130846	-79.216240
5.600000	-0.161152	-96.841357	-30.437974	12.194798	-30.437974	12.194798	-0.132728	-79.852549
5.650000	-0.163508	-97.605372	-30.399140	11.770877	-30.399140	11.770877	-0.134636	-80.487315
5.700000	-0.165898	-98.367772	-30.360472	11.352382	-30.360472	11.352382	-0.136571	-81.120536
5.750000	-0.168317	-99.128865	-30.321911	10.938285	-30.321911	10.938285	-0.138529	-81.752481
5.800000	-0.170776	-99.888129	-30.283430	10.530347	-30.283430	10.530347	-0.140520	-82.382639
5.850000	-0.173260	-100.646382	-30.245020	10.125814	-30.245020	10.125814	-0.142530	-83.011786
5.900000	-0.175791	-101.402610	-30.206581	9.728091	-30.206581	9.728091	-0.144578	-83.638909
5.950000	-0.178340	-102.158106	-30.168203	9.332824	-30.168203	9.332824	-0.146641	-84.265280
6.000000	-0.180944	-102.911401	-30.129666	8.944929	-30.129666	8.944929	-0.148748	-84.889398
6.050000	-0.183561	-103.664226	-30.091204	8.558599	-30.091204	8.558599	-0.150865	-85.513021
6.100000	-0.186241	-104.414696	-30.052432	8.180096	-30.052432	8.180096	-0.153033	-86.134165
6.150000	-0.188927	-105.164940	-30.013774	7.802335	-30.013774	7.802335	-0.155206	-86.755065
6.200000	-0.191683	-105.912695	-29.974635	7.432741	-29.974635	7.432741	-0.157436	-87.373270
6.250000	-0.194439	-106.660451	-29.935672	7.063147	-29.935672	7.063147	-0.159666	-87.991476
6.300000	-0.197274	-107.405605	-29.896039	6.701929	-29.896039	6.701929	-0.161959	-88.606778
6.350000	-0.200109	-108.150760	-29.856586	6.340711	-29.856586	6.340711	-0.164254	-89.222081
6.400000	-0.203018	-108.893639	-29.816420	5.986639	-29.816420	5.986639	-0.166607	-89.834757
6.450000	-0.205933	-109.636311	-29.776357	5.633217	-29.776357	5.633217	-0.168967	-90.447195
6.500000	-0.208917	-110.377016	-29.735563	5.285768	-29.735563	5.285768	-0.171382	-91.057278
6.550000	-0.211915	-111.117327	-29.694778	4.939513	-29.694778	4.939513	-0.173809	-91.666891
6.600000	-0.214975	-111.855961	-29.653269	4.598130	-29.653269	4.598130	-0.176287	-92.274416
6.650000	-0.218056	-112.594037	-29.611655	4.258371	-29.611655	4.258371	-0.178783	-92.881246
6.700000	-0.221194	-113.330707	-29.569351	3.922464	-29.569351	3.922464	-0.181325	-93.486249
6.750000	-0.224361	-114.066675	-29.526810	3.588485	-29.526810	3.588485	-0.183891	-94.090338
6.800000	-0.227579	-114.801490	-29.483637	3.257436	-29.483637	3.257436	-0.186499	-94.692856
6.850000	-0.230833	-115.535483	-29.440081	2.928482	-29.440081	2.928482	-0.189137	-95.294252
6.900000	-0.234132	-116.268555	-29.395973	2.601647	-29.395973	2.601647	-0.191811	-95.894323
6.950000	-0.237474	-117.000707	-29.351323	2.276931	-29.351323	2.276931	-0.194523	-96.493071
7.000000	-0.240855	-117.732150	-29.306222	1.953640	-29.306222	1.953640	-0.197266	-97.090736
7.050000	-0.244288	-118.462601	-29.260408	1.632344	-29.260408	1.632344	-0.200052	-97.686885
7.100000	-0.247752	-119.192532	-29.214265	1.311910	-29.214265	1.311910	-0.202865	-98.282185
7.150000	-0.251277	-119.921423	-29.167231	0.993197	-29.167231	0.993197	-0.205728	-98.875785
7.200000	-0.254826	-120.649961	-29.120005	0.674916	-29.120005	0.674916	-0.208612	-99.468761
7.250000	-0.258445	-121.377439	-29.071705	0.357931	-29.071705	0.357931	-0.211554	-100.059865
7.300000	-0.262080	-122.104706	-29.023364	0.041092	-29.023364	0.041092	-0.214509	-100.650561
7.350000	-0.265793	-122.830919	-28.973762	-0.275025	-28.973762	-0.275025	-0.217531	-101.239220
7.400000	-0.269516	-123.557038	-28.924285	-0.591140	-28.924285	-0.591140	-0.220560	-101.827681
7.450000	-0.273326	-124.282139	-28.873360	-0.907248	-28.873360	-0.907248	-0.223663	-102.413951
7.500000	-0.277138	-125.007239	-28.822732	-1.223356	-28.822732	-1.223356	-0.226767	-103.000221
7.550000	-0.281046	-125.731382	-28.770475	-1.540303	-28.770475	-1.540303	-0.229952	-103.584159
7.600000	-0.284955	-126.455525	-28.718530	-1.857251	-28.718530	-1.857251	-0.233139	-104.168096
7.650000	-0.288955	-127.178936	-28.665104	-2.175730	-28.665104	-2.175730	-0.236402	-104.749948
7.700000	-0.292964	-127.902281	-28.611844	-2.494349	-28.611844	-2.494349	-0.239673	-105.331609
7.750000	-0.297056	-128.625097	-28.557267	-2.815027	-28.557267	-2.815027	-0.243015	-105.911424
7.800000	-0.301166	-129.347807	-28.502706	-3.136117	-28.502706	-3.136117	-0.246372	-106.490869
7.850000	-0.305352	-130.070165	-28.447003	-3.459635	-28.447003	-3.459635	-0.249793	-107.068697
7.900000	-0.309565	-130.792405	-28.391165	-3.783962	-28.391165	-3.783962	-0.253238	-107.645986
7.950000	-0.313846	-131.514446	-28.334369	-4.110926	-28.334369	-4.110926	-0.256740	-108.221879
8.000000	-0.318163	-132.236387	-28.277289	-4.439210	-28.277289	-4.439210	-0.260273	-108.797073
8.050000	-0.322540	-132.958255	-28.219439	-4.770190	-28.219439	-4.770190	-0.263858	-109.371082
8.100000	-0.326962	-133.680069	-28.161162	-5.103097	-28.161162	-5.103097	-0.267481	-109.944244
8.150000	-0.331437	-134.401909	-28.102306	-5.438619	-28.102306	-5.438619	-0.271149	-110.516422
8.200000	-0.335965	-135.123775	-28.042885	-5.776757	-28.042885	-5.776757	-0.274863	-111.087617
8.250000	-0.340538	-135.845736	-27.983074	-6.117299	-27.983074	-6.117299	-0.278617	-111.658019
8.300000	-0.345174	-136.567833	-27.922568	-6.461210	-27.922568	-6.461210	-0.282423	-112.227311
8.350000	-0.349847	-137.290068	-27.861859	-6.807202	-27.861859	-6.807202	-0.286262	-112.795991
8.400000	-0.354592	-138.012580	-27.800334	-7.157357	-27.800334	-7.157357	-0.290163	-113.363448
8.450000	-0.359365	-138.735243	-27.738787	-7.509174	-27.738787	-7.509174	-0.294088	-113.930463
8.500000	-0.364220	-139.458359	-27.676314	-7.865974	-27.676314	-7.865974	-0.298084	-114.496152
8.550000	-0.369096	-140.181608	-27.613991	-8.223935	-27.613991	-8.223935	-0.302098	-115.061558
8.600000	-0.374062	-140.905521	-27.550642	-8.587704	-27.550642	-8.587704	-0.306190	-115.625549
8.650000	-0.379040	-141.629517	-27.487608	-8.952074	-27.487608	-8.952074	-0.310292	-116.189405
8.700000	-0.384119	-142.354422	-27.423458	-9.323061	-27.423458	-9.323061	-0.314483	-116.751768
8.750000	-0.389200	-143.079327	-27.359779	-9.694048	-27.359779	-9.694048	-0.318675	-117.314131
8.800000	-0.394392	-143.805426	-27.294902	-10.072427	-27.294902	-10.072427	-0.322963	-117.874939
8.850000	-0.399588	-144.531525	-27.230507	-10.450805	-27.230507	-10.450805	-0.327254	-118.435746
8.900000	-0.404885	-145.258906	-27.165112	-10.836053	-27.165112	-10.836053	-0.331635	-118.995194
8.950000	-0.410195	-145.986403	-27.100072	-11.221925	-27.100072	-11.221925	-0.336026	-119.554519
9.000000	-0.415599	-146.715239	-27.034220	-11.614068	-27.034220	-11.614068	-0.340499	-120.112670
9.050000	-0.421024	-147.444344	-26.968606	-12.007466	-26.968606	-12.007466	-0.344991	-120.670586
9.100000	-0.426535	-148.174814	-26.902354	-12.406482	-26.902354	-12.406482	-0.349558	-121.227502
9.150000	-0.432076	-148.905740	-26.836230	-12.807371	-26.836230	-12.807371	-0.354152	-121.784085
9.200000	-0.437695	-149.638026	-26.769633	-13.213193	-26.769633	-13.213193	-0.358813	-122.339831
9.250000	-0.443353	-150.370991	-26.703060	-13.621480	-26.703060	-13.621480	-0.363510	-122.895159
9.300000	-0.449080	-151.105276	-26.636165	-14.033998	-26.636165	-14.033998	-0.368267	-123.449799
9.350000	-0.454856	-151.840504	-26.569196	-14.449536	-26.569196	-14.449536	-0.373067	-124.003949
9.400000	-0.460692	-152.576977	-26.502048	-14.868601	-26.502048	-14.868601	-0.377920	-124.557550
9.450000	-0.466586	-153.314696	-26.434728	-15.291195	-26.434728	-15.291195	-0.382825	-125.110601
9.500000	-0.472531	-154.053549	-26.367363	-15.716629	-26.367363	-15.716629	-0.387774	-125.663230
9.550000	-0.478544	-154.793991	-26.299733	-16.146041	-26.299733	-16.146041	-0.392785	-126.215264
9.600000	-0.484598	-155.535420	-26.232181	-16.577636	-26.232181	-16.577636	-0.397831	-126.766988
9.650000	-0.490730	-156.278824	-26.164270	-17.013597	-26.164270	-17.013597	-0.402948	-127.318088
9.700000	-0.496894	-157.023028	-26.096556	-17.451121	-26.096556	-17.451121	-0.408092	-127.868976
9.750000	-0.503146	-157.769637	-26.028384	-17.893335	-26.028384	-17.893335	-0.413315	-128.419226
9.800000	-0.509420	-158.516821	-25.960525	-18.336539	-25.960525	-18.336539	-0.418558	-128.969348
9.850000	-0.515790	-159.266883	-25.892105	-18.784690	-25.892105	-18.784690	-0.423888	-129.518833
9.900000	-0.522175	-160.017254	-25.824109	-19.233309	-25.824109	-19.233309	-0.429230	-130.068261
9.950000	-0.528664	-160.771024	-25.755443	-19.687072	-25.755443	-19.687072	-0.434668	-130.617067
10.000000	-0.535159	-161.524794	-25.687315	-20.140834	-25.687315	-20.140834	-0.440110	-131.165874
