! freq	dB(S11)	phase(S11)	dB(S12)	phase(S12)	
!     	dB(S21)	phase(S21)	dB(S22)	phase(S22)	
!S-par simulation data
#  GHz  S  DB  R 50
0.000000	-0.000000	0.000000	-320.810490	0.000000	-320.810490	0.000000	-0.000000	0.000000
0.050000	-0.000138	-1.120433	-57.175428	88.516568	-57.175428	88.516568	-0.000120	-0.913078
0.100000	-0.000548	-2.240539	-51.200280	87.184210	-51.200280	87.184210	-0.000474	-1.825881
0.150000	-0.001216	-3.360010	-47.729006	86.025459	-47.729006	86.025459	-0.001051	-2.738151
0.200000	-0.002121	-4.478580	-45.274250	84.983879	-45.274250	84.983879	-0.001829	-3.649673
0.250000	-0.003250	-5.595935	-43.371699	84.006278	-43.371699	84.006278	-0.002796	-4.560199
0.300000	-0.004557	-6.711991	-41.815781	83.052133	-41.815781	83.052133	-0.003909	-5.469675
0.350000	-0.006022	-7.826549	-40.499072	82.106399	-40.499072	82.106399	-0.005151	-6.377963
0.400000	-0.007617	-8.939499	-39.357657	81.160602	-39.357657	81.160602	-0.006495	-7.284996
0.450000	-0.009314	-10.050766	-38.350491	80.211307	-38.350491	80.211307	-0.007919	-8.190741
0.500000	-0.011088	-11.160302	-37.449579	79.257466	-37.449579	79.257466	-0.009402	-9.095192
0.550000	-0.012920	-12.268087	-36.634945	78.299102	-36.634945	78.299102	-0.010926	-9.998357
0.600000	-0.014790	-13.374113	-35.891811	77.336676	-35.891811	77.336676	-0.012477	-10.900257
0.650000	-0.016683	-14.478386	-35.208932	76.370797	-35.208932	76.370797	-0.014044	-11.800920
0.700000	-0.018588	-15.580914	-34.577548	75.402090	-34.577548	75.402090	-0.015618	-12.700374
0.750000	-0.020496	-16.681708	-33.990696	74.431140	-33.990696	74.431140	-0.017194	-13.598644
0.800000	-0.022400	-17.780778	-33.442752	73.458478	-33.442752	73.458478	-0.018766	-14.495755
0.850000	-0.024296	-18.878130	-32.929108	72.484572	-32.929108	72.484572	-0.020334	-15.391724
0.900000	-0.026180	-19.973766	-32.445936	71.509835	-32.445936	71.509835	-0.021894	-16.286564
0.950000	-0.028051	-21.067681	-31.990025	70.534628	-31.990025	70.534628	-0.023448	-17.180281
1.000000	-0.029909	-22.159868	-31.558655	69.559272	-31.558655	69.559272	-0.024994	-18.072876
1.050000	-0.031753	-23.250310	-31.149499	68.584048	-31.149499	68.584048	-0.026534	-18.964347
1.100000	-0.033585	-24.338990	-30.760551	67.609209	-30.760551	67.609209	-0.028068	-19.854684
1.150000	-0.035404	-25.425883	-30.390073	66.634977	-30.390073	66.634977	-0.029598	-20.743875
1.200000	-0.037214	-26.510963	-30.036542	65.661555	-30.036542	65.661555	-0.031125	-21.631905
1.250000	-0.039014	-27.594198	-29.698624	64.689125	-29.698624	64.689125	-0.032650	-22.518756
1.300000	-0.040806	-28.675472	-29.375216	63.717910	-29.375216	63.717910	-0.034174	-23.404352
1.350000	-0.042592	-29.754830	-29.065191	62.748016	-29.065191	62.748016	-0.035698	-24.288723
1.400000	-0.044373	-30.832234	-28.767611	61.779583	-28.767611	61.779583	-0.037224	-25.171843
1.450000	-0.046151	-31.907645	-28.481637	60.812736	-28.481637	60.812736	-0.038752	-26.053689
1.500000	-0.047927	-32.981024	-28.206516	59.847595	-28.206516	59.847595	-0.040283	-26.934233
1.550000	-0.049701	-34.052332	-27.941564	58.884268	-27.941564	58.884268	-0.041818	-27.813449
1.600000	-0.051476	-35.121529	-27.686164	57.922858	-27.686164	57.922858	-0.043357	-28.691310
1.650000	-0.053251	-36.188575	-27.439753	56.963463	-27.439753	56.963463	-0.044901	-29.567788
1.700000	-0.055028	-37.253431	-27.201819	56.006170	-27.201819	56.006170	-0.046450	-30.442858
1.750000	-0.056808	-38.316058	-26.971891	55.051067	-26.971891	55.051067	-0.048005	-31.316491
1.800000	-0.058591	-39.376418	-26.749540	54.098231	-26.749540	54.098231	-0.049566	-32.188662
1.850000	-0.060377	-40.434474	-26.534369	53.147740	-26.534369	53.147740	-0.051133	-33.059344
1.900000	-0.062167	-41.490189	-26.326011	52.199664	-26.326011	52.199664	-0.052706	-33.928512
1.950000	-0.063962	-42.543528	-26.124130	51.254071	-26.124130	51.254071	-0.054286	-34.796140
2.000000	-0.065762	-43.594458	-25.928412	50.311024	-25.928412	50.311024	-0.055873	-35.662203
2.050000	-0.067568	-44.642944	-25.738566	49.370584	-25.738566	49.370584	-0.057467	-36.526678
2.100000	-0.069378	-45.688956	-25.554320	48.432809	-25.554320	48.432809	-0.059068	-37.389540
2.150000	-0.071195	-46.732464	-25.375424	47.497752	-25.375424	47.497752	-0.060675	-38.250768
2.200000	-0.073018	-47.773437	-25.201640	46.565465	-25.201640	46.565465	-0.062290	-39.110338
2.250000	-0.074847	-48.811849	-25.032748	45.635997	-25.032748	45.635997	-0.063911	-39.968229
2.300000	-0.076683	-49.847673	-24.868541	44.709394	-24.868541	44.709394	-0.065540	-40.824421
2.350000	-0.078525	-50.880885	-24.708825	43.785700	-24.708825	43.785700	-0.067176	-41.678893
2.400000	-0.080375	-51.911461	-24.553416	42.864955	-24.553416	42.864955	-0.068819	-42.531625
2.450000	-0.082231	-52.939378	-24.402144	41.947199	-24.402144	41.947199	-0.070469	-43.382599
2.500000	-0.084095	-53.964617	-24.254844	41.032469	-24.254844	41.032469	-0.072126	-44.231797
2.550000	-0.085967	-54.987039	-24.111423	40.120933	-24.111423	40.120933	-0.073791	-45.079122
2.600000	-0.087846	-56.006745	-23.971675	39.212493	-23.971675	39.212493	-0.075464	-45.924635
2.650000	-0.089733	-57.023717	-23.835462	38.307179	-23.835462	38.307179	-0.077144	-46.768321
2.700000	-0.091628	-58.037940	-23.702653	37.405019	-23.702653	37.405019	-0.078831	-47.610163
2.750000	-0.093531	-59.049402	-23.573125	36.506039	-23.573125	36.506039	-0.080526	-48.450148
2.800000	-0.095443	-60.058090	-23.446760	35.610265	-23.446760	35.610265	-0.082229	-49.288261
2.850000	-0.097363	-61.063993	-23.323445	34.717719	-23.323445	34.717719	-0.083940	-50.124490
2.900000	-0.099293	-62.067103	-23.203075	33.828422	-23.203075	33.828422	-0.085660	-50.958821
2.950000	-0.101232	-63.067411	-23.085546	32.942395	-23.085546	32.942395	-0.087387	-51.791243
3.000000	-0.103180	-64.064910	-22.970762	32.059655	-22.970762	32.059655	-0.089123	-52.621745
3.050000	-0.105138	-65.059595	-22.858629	31.180218	-22.858629	31.180218	-0.090868	-53.450317
3.100000	-0.107106	-66.051462	-22.749060	30.304099	-22.749060	30.304099	-0.092621	-54.276948
3.150000	-0.109085	-67.040508	-22.641968	29.431313	-22.641968	29.431313	-0.094384	-55.101628
3.200000	-0.111074	-68.026732	-22.537271	28.561870	-22.537271	28.561870	-0.096156	-55.924351
3.250000	-0.113075	-69.010132	-22.434892	27.695781	-22.434892	27.695781	-0.097937	-56.745107
3.300000	-0.115087	-69.990711	-22.334756	26.833056	-22.334756	26.833056	-0.099729	-57.563889
3.350000	-0.117110	-70.968470	-22.236789	25.973701	-22.236789	25.973701	-0.101531	-58.380691
3.400000	-0.119146	-71.943412	-22.140923	25.117725	-22.140923	25.117725	-0.103343	-59.195507
3.450000	-0.121195	-72.915541	-22.047091	24.265130	-22.047091	24.265130	-0.105166	-60.008331
3.500000	-0.123257	-73.884864	-21.955228	23.415923	-21.955228	23.415923	-0.107000	-60.819158
3.550000	-0.125332	-74.851387	-21.865272	22.570105	-21.865272	22.570105	-0.108845	-61.627984
3.600000	-0.127421	-75.815118	-21.777163	21.727677	-21.777163	21.727677	-0.110703	-62.434806
3.650000	-0.129525	-76.776066	-21.690843	20.888640	-21.690843	20.888640	-0.112572	-63.239621
3.700000	-0.131643	-77.734240	-21.606257	20.052994	-21.606257	20.052994	-0.114454	-64.042425
3.750000	-0.133777	-78.689652	-21.523350	19.220736	-21.523350	19.220736	-0.116349	-64.843218
3.800000	-0.135927	-79.642195	-21.442106	18.392009	-21.442106	18.392009	-0.118258	-65.641910
3.850000	-0.138094	-80.592002	-21.362438	17.566663	-21.362438	17.566663	-0.120180	-66.438589
3.900000	-0.140277	-81.539088	-21.284295	16.744692	-21.284295	16.744692	-0.122117	-67.233254
3.950000	-0.142478	-82.483467	-21.207630	15.926089	-21.207630	15.926089	-0.124068	-68.025907
4.000000	-0.144697	-83.425157	-21.132398	15.110848	-21.132398	15.110848	-0.126034	-68.816547
4.050000	-0.146934	-84.364173	-21.058554	14.298958	-21.058554	14.298958	-0.128016	-69.605177
4.100000	-0.149189	-85.300535	-20.986055	13.490411	-20.986055	13.490411	-0.130013	-70.391798
4.150000	-0.151465	-86.234262	-20.914858	12.685196	-20.914858	12.685196	-0.132027	-71.176415
4.200000	-0.153760	-87.165373	-20.844922	11.883301	-20.844922	11.883301	-0.134057	-71.959029
4.250000	-0.156076	-88.093889	-20.776208	11.084715	-20.776208	11.084715	-0.136105	-72.739646
4.300000	-0.158413	-89.019831	-20.708678	10.289423	-20.708678	10.289423	-0.138170	-73.518268
4.350000	-0.160771	-89.943224	-20.642292	9.497410	-20.642292	9.497410	-0.140254	-74.294902
4.400000	-0.163152	-90.864089	-20.577016	8.708662	-20.577016	8.708662	-0.142356	-75.069552
4.450000	-0.165555	-91.782451	-20.512812	7.923162	-20.512812	7.923162	-0.144477	-75.842224
4.500000	-0.167982	-92.698335	-20.449647	7.140893	-20.449647	7.140893	-0.146618	-76.612924
4.550000	-0.170433	-93.611767	-20.387486	6.361836	-20.387486	6.361836	-0.148779	-77.381661
4.600000	-0.172908	-94.522773	-20.326296	5.585971	-20.326296	5.585971	-0.150961	-78.148440
4.650000	-0.175408	-95.431381	-20.266045	4.813279	-20.266045	4.813279	-0.153164	-78.913270
4.700000	-0.177933	-96.337620	-20.206701	4.043738	-20.206701	4.043738	-0.155388	-79.676159
4.750000	-0.180485	-97.241517	-20.148233	3.277325	-20.148233	3.277325	-0.157635	-80.437116
4.800000	-0.183064	-98.143102	-20.090611	2.514019	-20.090611	2.514019	-0.159905	-81.196150
4.850000	-0.185670	-99.042407	-20.033806	1.753793	-20.033806	1.753793	-0.162198	-81.953270
4.900000	-0.188304	-99.939460	-19.977788	0.996624	-19.977788	0.996624	-0.164515	-82.708488
4.950000	-0.190966	-100.834296	-19.922530	0.242484	-19.922530	0.242484	-0.166856	-83.461813
5.000000	-0.193658	-101.726944	-19.868003	-0.508653	-19.868003	-0.508653	-0.169222	-84.213257
5.050000	-0.196380	-102.617348	-19.814197	-1.256688	-19.814197	-1.256688	-0.171615	-84.962749
5.100000	-0.199133	-103.505634	-19.761066	-2.001781	-19.761066	-2.001781	-0.174033	-85.710385
5.150000	-0.201917	-104.391839	-19.708587	-2.743963	-19.708587	-2.743963	-0.176479	-86.456176
5.200000	-0.204732	-105.275996	-19.656732	-3.483266	-19.656732	-3.483266	-0.178951	-87.200135
5.250000	-0.207580	-106.158142	-19.605478	-4.219722	-19.605478	-4.219722	-0.181452	-87.942275
5.300000	-0.210460	-107.038311	-19.554799	-4.953365	-19.554799	-4.953365	-0.183981	-88.682610
5.350000	-0.213373	-107.916542	-19.504672	-5.684230	-19.504672	-5.684230	-0.186539	-89.421154
5.400000	-0.216320	-108.792872	-19.455073	-6.412354	-19.455073	-6.412354	-0.189126	-90.157921
5.450000	-0.219314	-109.666708	-19.406049	-7.136851	-19.406049	-7.136851	-0.191754	-90.892319
5.500000	-0.222326	-110.539585	-19.357411	-7.859951	-19.357411	-7.859951	-0.194399	-91.625803
5.550000	-0.225382	-111.410308	-19.309266	-8.579874	-19.309266	-8.579874	-0.197081	-92.357187
5.600000	-0.228469	-112.279491	-19.261545	-9.297529	-19.261545	-9.297529	-0.199792	-93.087071
5.650000	-0.231594	-113.146915	-19.214240	-10.012553	-19.214240	-10.012553	-0.202536	-93.815189
5.700000	-0.234759	-114.012579	-19.167344	-10.724947	-19.167344	-10.724947	-0.205315	-94.541542
5.750000	-0.237956	-114.876851	-19.120800	-11.435231	-19.120800	-11.435231	-0.208124	-95.266455
5.800000	-0.241201	-115.739176	-19.074642	-12.142559	-19.074642	-12.142559	-0.210974	-95.989351
5.850000	-0.244473	-116.600449	-19.028783	-12.848268	-19.028783	-12.848268	-0.213849	-96.711120
5.900000	-0.247800	-117.459617	-18.983277	-13.550738	-18.983277	-13.550738	-0.216773	-97.430636
5.950000	-0.251148	-118.318044	-18.938032	-14.252049	-18.938032	-14.252049	-0.219717	-98.149326
6.000000	-0.254560	-119.174246	-18.893095	-14.949880	-18.893095	-14.949880	-0.222718	-98.865541
6.050000	-0.257987	-120.029985	-18.848395	-15.646976	-18.848395	-15.646976	-0.225733	-99.581219
6.100000	-0.261487	-120.883412	-18.803948	-16.340400	-18.803948	-16.340400	-0.228813	-100.294215
6.150000	-0.264995	-121.736624	-18.759725	-17.033477	-18.759725	-17.033477	-0.231901	-101.006949
6.200000	-0.268585	-122.587474	-18.715694	-17.722737	-18.715694	-17.722737	-0.235064	-101.716811
6.250000	-0.272176	-123.438323	-18.671884	-18.411997	-18.671884	-18.411997	-0.238228	-102.426673
6.300000	-0.275858	-124.286795	-18.628194	-19.097350	-18.628194	-19.097350	-0.241475	-103.133488
6.350000	-0.279542	-125.135268	-18.584723	-19.782702	-18.584723	-19.782702	-0.244725	-103.840303
6.400000	-0.283313	-125.981750	-18.541318	-20.464719	-18.541318	-20.464719	-0.248053	-104.544408
6.450000	-0.287092	-126.828051	-18.498116	-21.146432	-18.498116	-21.146432	-0.251391	-105.248267
6.500000	-0.290952	-127.672716	-18.454942	-21.825345	-18.454942	-21.825345	-0.254803	-105.949739
6.550000	-0.294829	-128.517054	-18.411944	-22.503699	-18.411944	-22.503699	-0.258232	-106.650734
6.600000	-0.298781	-129.360079	-18.368945	-23.179752	-18.368945	-23.179752	-0.261730	-107.349652
6.650000	-0.302760	-130.202667	-18.326088	-23.855039	-18.326088	-23.855039	-0.265253	-108.047877
6.700000	-0.306806	-131.044232	-18.283214	-24.528482	-18.283214	-24.528482	-0.268839	-108.744321
6.750000	-0.310887	-131.885286	-18.240439	-25.201004	-18.240439	-25.201004	-0.272459	-109.439875
6.800000	-0.315030	-132.725574	-18.197643	-25.872095	-18.197643	-25.872095	-0.276137	-110.133927
6.850000	-0.319217	-133.565315	-18.154894	-26.542166	-18.154894	-26.542166	-0.279857	-110.826908
6.900000	-0.323458	-134.404510	-18.112130	-27.211172	-18.112130	-27.211172	-0.283629	-111.518653
6.950000	-0.327753	-135.243161	-18.069354	-27.879114	-18.069354	-27.879114	-0.287452	-112.209162
7.000000	-0.332095	-136.081453	-18.026581	-28.546308	-18.026581	-28.546308	-0.291320	-112.898684
7.050000	-0.336502	-136.919242	-17.983730	-29.212454	-17.983730	-29.212454	-0.295249	-113.586825
7.100000	-0.340946	-137.756821	-17.940907	-29.878114	-17.940907	-29.878114	-0.299216	-114.274212
7.150000	-0.345466	-138.593979	-17.897935	-30.542802	-17.897935	-30.542802	-0.303255	-114.960090
7.200000	-0.350017	-139.431038	-17.855027	-31.207212	-17.855027	-31.207212	-0.307323	-115.645430
7.250000	-0.354653	-140.267800	-17.811892	-31.870789	-17.811892	-31.870789	-0.311475	-116.329153
7.300000	-0.359310	-141.104535	-17.768866	-32.534239	-17.768866	-32.534239	-0.315648	-117.012535
7.350000	-0.364065	-141.941139	-17.725530	-33.197054	-17.725530	-33.197054	-0.319915	-117.694212
7.400000	-0.368832	-142.777751	-17.682354	-33.859836	-17.682354	-33.859836	-0.324195	-118.375728
7.450000	-0.373708	-143.614439	-17.638783	-34.522245	-17.638783	-34.522245	-0.328582	-119.055471
7.500000	-0.378587	-144.451127	-17.595430	-35.184655	-17.595430	-35.184655	-0.332971	-119.735213
7.550000	-0.383587	-145.288146	-17.551594	-35.847013	-17.551594	-35.847013	-0.337480	-120.413134
7.600000	-0.388590	-146.125164	-17.507977	-36.509372	-17.507977	-36.509372	-0.341992	-121.091054
7.650000	-0.393707	-146.962713	-17.463909	-37.172012	-17.463909	-37.172012	-0.346617	-121.767410
7.700000	-0.398837	-147.800310	-17.420003	-37.834678	-17.420003	-37.834678	-0.351255	-122.443624
7.750000	-0.404072	-148.638600	-17.375684	-38.497895	-17.375684	-38.497895	-0.355999	-123.118511
7.800000	-0.409331	-149.477029	-17.331465	-39.161224	-17.331465	-39.161224	-0.360766	-123.793134
7.850000	-0.414687	-150.316274	-17.286879	-39.825313	-17.286879	-39.825313	-0.365631	-124.466653
7.900000	-0.420078	-151.155791	-17.242327	-40.489657	-17.242327	-40.489657	-0.370530	-125.139803
7.950000	-0.425536	-151.995960	-17.197599	-41.154655	-17.197599	-41.154655	-0.375497	-125.812267
8.000000	-0.431069	-152.836918	-17.152644	-41.820460	-17.152644	-41.820460	-0.380541	-126.483984
8.050000	-0.436668	-153.678623	-17.107526	-42.487052	-17.107526	-42.487052	-0.385652	-127.155100
8.100000	-0.442333	-154.521136	-17.062242	-43.154508	-17.062242	-43.154508	-0.390829	-127.825643
8.150000	-0.448064	-155.364519	-17.016790	-43.822907	-17.016790	-43.822907	-0.396075	-128.495641
8.200000	-0.453863	-156.208833	-16.971167	-44.492325	-16.971167	-44.492325	-0.401390	-129.165122
8.250000	-0.459730	-157.054140	-16.925373	-45.162836	-16.925373	-45.162836	-0.406775	-129.834115
8.300000	-0.465665	-157.900503	-16.879405	-45.834517	-16.879405	-45.834517	-0.412231	-130.502649
8.350000	-0.471670	-158.747985	-16.833263	-46.507440	-16.833263	-46.507440	-0.417757	-131.170754
8.400000	-0.477743	-159.596649	-16.786946	-47.181678	-16.786946	-47.181678	-0.423357	-131.838457
8.450000	-0.483887	-160.446558	-16.740453	-47.857303	-16.740453	-47.857303	-0.429029	-132.505789
8.500000	-0.490102	-161.297777	-16.693784	-48.534385	-16.693784	-48.534385	-0.434775	-133.172779
8.550000	-0.496388	-162.150370	-16.646939	-49.212995	-16.646939	-49.212995	-0.440595	-133.839457
8.600000	-0.502746	-163.004402	-16.599917	-49.893200	-16.599917	-49.893200	-0.446491	-134.505853
8.650000	-0.509176	-163.859938	-16.552720	-50.575068	-16.552720	-50.575068	-0.452464	-135.171996
8.700000	-0.515679	-164.717044	-16.505347	-51.258665	-16.505347	-51.258665	-0.458513	-135.837918
8.750000	-0.522255	-165.575787	-16.457799	-51.944058	-16.457799	-51.944058	-0.464641	-136.503648
8.800000	-0.528908	-166.436308	-16.410057	-52.631393	-16.410057	-52.631393	-0.470850	-137.169212
8.850000	-0.535636	-167.298606	-16.362143	-53.320656	-16.362143	-53.320656	-0.477139	-137.834649
8.900000	-0.542439	-168.162746	-16.314055	-54.011910	-16.314055	-54.011910	-0.483509	-138.499991
8.950000	-0.549317	-169.028796	-16.265796	-54.705215	-16.265796	-54.705215	-0.489960	-139.165267
9.000000	-0.556271	-169.896825	-16.217367	-55.400632	-16.217367	-55.400632	-0.496493	-139.830511
9.050000	-0.563301	-170.766901	-16.168769	-56.098220	-16.168769	-56.098220	-0.503109	-140.495753
9.100000	-0.570409	-171.639092	-16.120004	-56.798038	-16.120004	-56.798038	-0.509809	-141.161026
9.150000	-0.577593	-172.513468	-16.071071	-57.500144	-16.071071	-57.500144	-0.516593	-141.826361
9.200000	-0.584855	-173.390099	-16.021974	-58.204595	-16.021974	-58.204595	-0.523463	-142.491791
9.250000	-0.592196	-174.269053	-15.972714	-58.911449	-15.972714	-58.911449	-0.530419	-143.157349
9.300000	-0.599615	-175.150402	-15.923292	-59.620760	-15.923292	-59.620760	-0.537462	-143.823066
9.350000	-0.607112	-176.034217	-15.873709	-60.332586	-15.873709	-60.332586	-0.544594	-144.488977
9.400000	-0.614689	-176.920567	-15.823968	-61.046980	-15.823968	-61.046980	-0.551813	-145.155113
9.450000	-0.622345	-177.809524	-15.774069	-61.763999	-15.774069	-61.763999	-0.559123	-145.821509
9.500000	-0.630082	-178.701160	-15.724014	-62.483697	-15.724014	-62.483697	-0.566523	-146.488198
9.550000	-0.637898	-179.595547	-15.673806	-63.206129	-15.673806	-63.206129	-0.574014	-147.155214
9.600000	-0.645795	179.507244	-15.623444	-63.931350	-15.623444	-63.931350	-0.581597	-147.822590
9.650000	-0.653772	178.607139	-15.572932	-64.659414	-15.572932	-64.659414	-0.589273	-148.490362
9.700000	-0.661830	177.704067	-15.522271	-65.390376	-15.522271	-65.390376	-0.597043	-149.158562
9.750000	-0.669970	176.797954	-15.471461	-66.124292	-15.471461	-66.124292	-0.604907	-149.827227
9.800000	-0.678190	175.888727	-15.420506	-66.861217	-15.420506	-66.861217	-0.612866	-150.496391
9.850000	-0.686492	174.976312	-15.369406	-67.601207	-15.369406	-67.601207	-0.620921	-151.166089
9.900000	-0.694875	174.060636	-15.318162	-68.344319	-15.318162	-68.344319	-0.629073	-151.836356
9.950000	-0.703340	173.141626	-15.266778	-69.090609	-15.266778	-69.090609	-0.637323	-152.507229
10.000000	-0.711887	172.219207	-15.215253	-69.840137	-15.215253	-69.840137	-0.645671	-153.178742
