! freq	dB(S11)	phase(S11)	dB(S12)	phase(S12)	
!     	dB(S21)	phase(S21)	dB(S22)	phase(S22)	
!S-par simulation data
#  GHz  S  DB  R 50
0.000000	-0.000000	0.000000	-241.761176	0.000000	-241.761176	0.000000	-0.000000	0.000000
0.050000	-0.000104	-0.833043	-67.016719	88.908695	-67.016719	88.908695	-0.000108	-0.882044
0.100000	-0.000412	-1.665837	-61.015556	87.862473	-61.015556	87.862473	-0.000428	-1.763830
0.150000	-0.000912	-2.498151	-57.519411	86.881683	-57.519411	86.881683	-0.000949	-2.645117
0.200000	-0.001585	-3.329793	-55.047356	85.961215	-55.047356	85.961215	-0.001650	-3.525704
0.250000	-0.002418	-4.160544	-53.134704	85.088002	-53.134704	85.088002	-0.002520	-4.405358
0.300000	-0.003372	-4.990360	-51.573521	84.241793	-51.573521	84.241793	-0.003519	-5.284029
0.350000	-0.004432	-5.819123	-50.254451	83.412687	-50.254451	83.412687	-0.004629	-6.161586
0.400000	-0.005572	-6.646783	-49.112319	82.592695	-49.112319	82.592695	-0.005827	-7.037970
0.450000	-0.006772	-7.473319	-48.105333	81.776970	-48.105333	81.776970	-0.007091	-7.913150
0.500000	-0.008013	-8.298733	-47.205086	80.962754	-47.205086	80.962754	-0.008400	-8.787121
0.550000	-0.009278	-9.123043	-46.391372	80.148584	-46.391372	80.148584	-0.009737	-9.659893
0.600000	-0.010557	-9.946276	-45.649294	79.333760	-45.649294	79.333760	-0.011090	-10.531490
0.650000	-0.011837	-10.768464	-44.967547	78.518023	-44.967547	78.518023	-0.012447	-11.401939
0.700000	-0.013113	-11.589640	-44.337339	77.701358	-44.337339	77.701358	-0.013801	-12.271270
0.750000	-0.014379	-12.409835	-43.751696	76.883884	-43.751696	76.883884	-0.015144	-13.139512
0.800000	-0.015632	-13.229075	-43.204991	76.065784	-43.204991	76.065784	-0.016474	-14.006690
0.850000	-0.016869	-14.047383	-42.692615	75.247272	-42.692615	75.247272	-0.017788	-14.872825
0.900000	-0.018089	-14.864775	-42.210745	74.428570	-42.210745	74.428570	-0.019085	-15.737931
0.950000	-0.019293	-15.681262	-41.756177	73.609900	-41.756177	73.609900	-0.020363	-16.602020
1.000000	-0.020482	-16.496850	-41.326193	72.791472	-41.326193	72.791472	-0.021624	-17.465095
1.050000	-0.021654	-17.311540	-40.918474	71.973487	-40.918474	71.973487	-0.022868	-18.327157
1.100000	-0.022813	-18.125329	-40.531020	71.156134	-40.531020	71.156134	-0.024096	-19.188201
1.150000	-0.023959	-18.938210	-40.162095	70.339592	-40.162095	70.339592	-0.025310	-20.048219
1.200000	-0.025093	-19.750174	-39.810184	69.524027	-39.810184	69.524027	-0.026510	-20.907198
1.250000	-0.026217	-20.561207	-39.473956	68.709595	-39.473956	68.709595	-0.027699	-21.765125
1.300000	-0.027331	-21.371253	-39.152324	67.896506	-39.152324	67.896506	-0.028876	-22.621935
1.350000	-0.028438	-22.180336	-38.844154	67.084850	-38.844154	67.084850	-0.030044	-23.477655
1.400000	-0.029537	-22.988437	-38.548513	66.274758	-38.548513	66.274758	-0.031205	-24.332263
1.450000	-0.030631	-23.795538	-38.264567	65.466353	-38.264567	65.466353	-0.032358	-25.185739
1.500000	-0.031720	-24.601617	-37.991565	64.659756	-37.991565	64.659756	-0.033505	-26.038059
1.550000	-0.032805	-25.406656	-37.728829	63.855080	-37.728829	63.855080	-0.034648	-26.889200
1.600000	-0.033887	-26.210631	-37.475744	63.052435	-37.475744	63.052435	-0.035786	-27.739139
1.650000	-0.034966	-27.013523	-37.231752	62.251924	-37.231752	62.251924	-0.036922	-28.587851
1.700000	-0.036043	-27.815310	-36.996342	61.453651	-36.996342	61.453651	-0.038054	-29.435312
1.750000	-0.037119	-28.615970	-36.769048	60.657712	-36.769048	60.657712	-0.039185	-30.281499
1.800000	-0.038194	-29.415482	-36.549443	59.864203	-36.549443	59.864203	-0.040314	-31.126388
1.850000	-0.039269	-30.213825	-36.337134	59.073216	-36.337134	59.073216	-0.041443	-31.969954
1.900000	-0.040344	-31.010978	-36.131758	58.284840	-36.131758	58.284840	-0.042571	-32.812174
1.950000	-0.041419	-31.806920	-35.932979	57.499162	-35.932979	57.499162	-0.043700	-33.653026
2.000000	-0.042494	-32.601631	-35.740487	56.716268	-35.740487	56.716268	-0.044829	-34.492486
2.050000	-0.043571	-33.395090	-35.553994	55.936241	-35.553994	55.936241	-0.045959	-35.330532
2.100000	-0.044649	-34.187279	-35.373231	55.159160	-35.373231	55.159160	-0.047090	-36.167142
2.150000	-0.045729	-34.978177	-35.197948	54.385107	-35.197948	54.385107	-0.048223	-37.002295
2.200000	-0.046811	-35.767767	-35.027912	53.614158	-35.027912	53.614158	-0.049358	-37.835970
2.250000	-0.047895	-36.556028	-34.862904	52.846388	-34.862904	52.846388	-0.050496	-38.668147
2.300000	-0.048982	-37.342944	-34.702719	52.081873	-34.702719	52.081873	-0.051635	-39.498805
2.350000	-0.050071	-38.128497	-34.547164	51.320686	-34.547164	51.320686	-0.052778	-40.327927
2.400000	-0.051164	-38.912668	-34.396059	50.562897	-34.396059	50.562897	-0.053924	-41.155492
2.450000	-0.052260	-39.695442	-34.249232	49.808578	-34.249232	49.808578	-0.055074	-41.981483
2.500000	-0.053360	-40.476803	-34.106523	49.057796	-34.106523	49.057796	-0.056227	-42.805881
2.550000	-0.054463	-41.256671	-33.967852	48.310779	-33.967852	48.310779	-0.057385	-43.628600
2.600000	-0.055571	-42.035092	-33.833001	47.567439	-33.833001	47.567439	-0.058547	-44.449693
2.650000	-0.056684	-42.812052	-33.701833	46.827842	-33.701833	46.827842	-0.059714	-45.269142
2.700000	-0.057801	-43.587536	-33.574219	46.092051	-33.574219	46.092051	-0.060886	-46.086933
2.750000	-0.058923	-44.361530	-33.450035	45.360128	-33.450035	45.360128	-0.062063	-46.903052
2.800000	-0.060051	-45.134020	-33.329164	44.632134	-33.329164	44.632134	-0.063246	-47.717484
2.850000	-0.061184	-45.904993	-33.211494	43.908131	-33.211494	43.908131	-0.064436	-48.530215
2.900000	-0.062324	-46.674438	-33.096918	43.188176	-33.096918	43.188176	-0.065631	-49.341233
2.950000	-0.063470	-47.442340	-32.985335	42.472328	-32.985335	42.472328	-0.066834	-50.150525
3.000000	-0.064622	-48.208689	-32.876647	41.760643	-32.876647	41.760643	-0.068043	-50.958079
3.050000	-0.065782	-48.973473	-32.770760	41.053177	-32.770760	41.053177	-0.069260	-51.763884
3.100000	-0.066949	-49.736682	-32.667586	40.349984	-32.667586	40.349984	-0.070485	-52.567929
3.150000	-0.068124	-50.498304	-32.567038	39.651118	-32.567038	39.651118	-0.071718	-53.370204
3.200000	-0.069306	-51.258331	-32.469033	38.956631	-32.469033	38.956631	-0.072959	-54.170699
3.250000	-0.070497	-52.016751	-32.373492	38.266574	-32.373492	38.266574	-0.074210	-54.969406
3.300000	-0.071697	-52.773557	-32.280339	37.580996	-32.280339	37.580996	-0.075469	-55.766315
3.350000	-0.072908	-53.528455	-32.189727	36.900750	-32.189727	36.900750	-0.076741	-56.561102
3.400000	-0.074129	-54.281650	-32.101409	36.225280	-32.101409	36.225280	-0.078023	-57.353997
3.450000	-0.075355	-55.033987	-32.014642	35.552241	-32.014642	35.552241	-0.079310	-58.145941
3.500000	-0.076597	-55.783749	-31.930704	34.886492	-31.930704	34.886492	-0.080615	-58.935028
3.550000	-0.077843	-56.532933	-31.847993	34.222395	-31.847993	34.222395	-0.081924	-59.723477
3.600000	-0.079108	-57.279233	-31.768166	33.566558	-31.768166	33.566558	-0.083253	-60.508731
3.650000	-0.080375	-58.025242	-31.689270	32.911562	-31.689270	32.911562	-0.084584	-61.293665
3.700000	-0.081665	-58.768054	-31.613303	32.265817	-31.613303	32.265817	-0.085939	-62.075067
3.750000	-0.082955	-59.510866	-31.537996	31.620072	-31.537996	31.620072	-0.087295	-62.856469
3.800000	-0.084271	-60.250169	-31.465652	30.984587	-31.465652	30.984587	-0.088678	-63.634004
3.850000	-0.085587	-60.989472	-31.393905	30.349103	-31.393905	30.349103	-0.090062	-64.411539
3.900000	-0.086929	-61.725542	-31.324772	29.723168	-31.324772	29.723168	-0.091472	-65.185519
3.950000	-0.088274	-62.461319	-31.256367	29.098101	-31.256367	29.098101	-0.092886	-65.959177
4.000000	-0.089643	-63.194146	-31.190246	28.481836	-31.190246	28.481836	-0.094326	-66.729598
4.050000	-0.091017	-63.926383	-31.124973	27.867332	-31.124973	27.867332	-0.095771	-67.499372
4.100000	-0.092415	-64.655958	-31.061678	27.260848	-31.061678	27.260848	-0.097242	-68.266234
4.150000	-0.093821	-65.384646	-30.999334	26.657038	-30.999334	26.657038	-0.098721	-69.032124
4.200000	-0.095249	-66.110964	-30.938686	26.060437	-30.938686	26.060437	-0.100224	-69.795427
4.250000	-0.096689	-66.836097	-30.879079	25.467440	-30.879079	25.467440	-0.101739	-70.557438
4.300000	-0.098149	-67.559155	-30.820906	24.880812	-30.820906	24.880812	-0.103276	-71.317189
4.350000	-0.099624	-68.280732	-30.763850	24.298732	-30.763850	24.298732	-0.104828	-72.075328
4.400000	-0.101117	-69.000531	-30.707988	23.722157	-30.707988	23.722157	-0.106401	-72.831536
4.450000	-0.102629	-69.718552	-30.653301	23.151084	-30.653301	23.151084	-0.107993	-73.585815
4.500000	-0.104157	-70.435095	-30.599592	22.584629	-30.599592	22.584629	-0.109602	-74.338494
4.550000	-0.105708	-71.149568	-30.547099	22.024637	-30.547099	22.024637	-0.111235	-75.088930
4.600000	-0.107273	-71.862860	-30.495390	21.468357	-30.495390	21.468357	-0.112883	-75.838093
4.650000	-0.108864	-72.573793	-30.444921	20.919501	-30.444921	20.919501	-0.114560	-76.584709
4.700000	-0.110466	-73.283844	-30.395065	20.373440	-30.395065	20.373440	-0.116248	-77.330376
4.750000	-0.112100	-73.991249	-30.346452	19.835759	-30.346452	19.835759	-0.117970	-78.073196
4.800000	-0.113742	-74.698070	-30.298305	19.299943	-30.298305	19.299943	-0.119700	-78.815388
4.850000	-0.115420	-75.401964	-30.251388	18.773455	-30.251388	18.773455	-0.121469	-79.554441
4.900000	-0.117103	-76.105568	-30.204809	18.247899	-30.204809	18.247899	-0.123242	-80.293184
4.950000	-0.118827	-76.805971	-30.159428	17.732600	-30.159428	17.732600	-0.125060	-81.028504
5.000000	-0.120552	-77.506375	-30.114282	17.217302	-30.114282	17.217302	-0.126879	-81.763824
5.050000	-0.122324	-78.203310	-30.070280	16.713167	-30.070280	16.713167	-0.128747	-82.495449
5.100000	-0.124097	-78.900245	-30.026500	16.209032	-30.026500	16.209032	-0.130617	-83.227073
5.150000	-0.125915	-79.594025	-29.983658	15.715085	-29.983658	15.715085	-0.132534	-83.955347
5.200000	-0.127738	-80.287519	-29.941092	15.222064	-29.941092	15.222064	-0.134456	-84.683317
5.250000	-0.129603	-80.978168	-29.899282	14.738240	-29.899282	14.738240	-0.136423	-85.408278
5.300000	-0.131477	-81.668249	-29.857781	14.256256	-29.857781	14.256256	-0.138400	-86.132637
5.350000	-0.133390	-82.355795	-29.816874	13.782471	-29.816874	13.782471	-0.140418	-86.854325
5.400000	-0.135318	-83.042496	-29.776291	13.311419	-29.776291	13.311419	-0.142451	-87.575122
5.450000	-0.137281	-83.726967	-29.736165	12.847565	-29.736165	12.847565	-0.144523	-88.293579
5.500000	-0.139264	-84.410324	-29.696355	12.387310	-29.696355	12.387310	-0.146614	-89.010866
5.550000	-0.141279	-85.091752	-29.656886	11.933256	-29.656886	11.933256	-0.148740	-89.726137
5.600000	-0.143318	-85.771803	-29.617708	11.483632	-29.617708	11.483632	-0.150892	-90.439968
5.650000	-0.145387	-86.450221	-29.578778	11.039222	-29.578778	11.039222	-0.153074	-91.152101
5.700000	-0.147484	-87.127008	-29.540091	10.600027	-29.540091	10.600027	-0.155287	-91.862535
5.750000	-0.149607	-87.802452	-29.501582	10.165078	-29.501582	10.165078	-0.157527	-92.571580
5.800000	-0.151765	-88.476019	-29.463249	9.736076	-29.463249	9.736076	-0.159804	-93.278678
5.850000	-0.153944	-89.148527	-29.425046	9.310379	-29.425046	9.310379	-0.162102	-93.984687
5.900000	-0.156164	-89.818920	-29.386933	8.891294	-29.386933	8.891294	-0.164445	-94.688515
5.950000	-0.158401	-90.488532	-29.348924	8.474611	-29.348924	8.474611	-0.166804	-95.391541
6.000000	-0.160685	-91.155801	-29.310898	8.065130	-29.310898	8.065130	-0.169213	-96.092166
6.050000	-0.162980	-91.822559	-29.272976	7.657192	-29.272976	7.657192	-0.171635	-96.792268
6.100000	-0.165330	-92.486756	-29.234909	7.256962	-29.234909	7.256962	-0.174113	-97.489759
6.150000	-0.167685	-93.150703	-29.196966	6.857470	-29.196966	6.857470	-0.176598	-98.186996
6.200000	-0.170102	-93.811883	-29.158733	6.466095	-29.158733	6.466095	-0.179146	-98.881428
6.250000	-0.172520	-94.473064	-29.120667	6.074719	-29.120667	6.074719	-0.181696	-99.575860
6.300000	-0.175005	-95.131285	-29.082148	5.691762	-29.082148	5.691762	-0.184317	-100.267309
6.350000	-0.177492	-95.789506	-29.043799	5.308804	-29.043799	5.308804	-0.186939	-100.958758
6.400000	-0.180043	-96.445068	-29.004940	4.933122	-29.004940	4.933122	-0.189628	-101.647545
6.450000	-0.182600	-97.100388	-28.966193	4.558102	-28.966193	4.558102	-0.192325	-102.336090
6.500000	-0.185217	-97.753342	-28.926903	4.189263	-28.926903	4.189263	-0.195083	-103.022282
6.550000	-0.187846	-98.405824	-28.887649	3.821660	-28.887649	3.821660	-0.197855	-103.708004
6.600000	-0.190531	-99.056224	-28.847844	3.459199	-28.847844	3.459199	-0.200684	-104.391672
6.650000	-0.193235	-99.705930	-28.807979	3.098451	-28.807979	3.098451	-0.203534	-105.074655
6.700000	-0.195989	-100.353831	-28.767578	2.741874	-28.767578	2.741874	-0.206435	-105.755870
6.750000	-0.198768	-101.000829	-28.727007	2.387382	-28.727007	2.387382	-0.209363	-106.436201
6.800000	-0.201592	-101.646286	-28.685937	2.036167	-28.685937	2.036167	-0.212338	-107.115037
6.850000	-0.204449	-102.290643	-28.644571	1.687295	-28.644571	1.687295	-0.215347	-107.792804
6.900000	-0.207346	-102.933715	-28.602763	1.340897	-28.602763	1.340897	-0.218397	-108.469336
6.950000	-0.210281	-103.575501	-28.560520	0.996976	-28.560520	0.996976	-0.221489	-109.144632
7.000000	-0.213251	-104.216247	-28.517914	0.654826	-28.517914	0.654826	-0.224615	-109.818937
7.050000	-0.216267	-104.855536	-28.474724	0.315158	-28.474724	0.315158	-0.227790	-110.491855
7.100000	-0.219311	-105.494016	-28.431266	-0.023332	-28.431266	-0.023332	-0.230994	-111.164013
7.150000	-0.222410	-106.130881	-28.387065	-0.359466	-28.387065	-0.359466	-0.234255	-111.834649
7.200000	-0.225530	-106.767159	-28.342708	-0.694902	-28.342708	-0.694902	-0.237537	-112.504739
7.250000	-0.228713	-107.401677	-28.297443	-1.028241	-28.297443	-1.028241	-0.240885	-113.173191
7.300000	-0.231910	-108.035816	-28.252149	-1.361239	-28.252149	-1.361239	-0.244248	-113.841296
7.350000	-0.235178	-108.668064	-28.205778	-1.692532	-28.205778	-1.692532	-0.247684	-114.507666
7.400000	-0.238454	-109.300129	-28.159516	-2.023717	-28.159516	-2.023717	-0.251129	-115.173870
7.450000	-0.241808	-109.930187	-28.112006	-2.353719	-28.112006	-2.353719	-0.254655	-115.838259
7.500000	-0.245164	-110.560246	-28.064755	-2.683720	-28.064755	-2.683720	-0.258182	-116.502648
7.550000	-0.248608	-111.188196	-28.016084	-3.013180	-28.016084	-3.013180	-0.261800	-117.165161
7.600000	-0.252052	-111.816147	-27.967684	-3.342641	-27.967684	-3.342641	-0.265419	-117.827674
7.650000	-0.255578	-112.442242	-27.917986	-3.672283	-27.917986	-3.672283	-0.269121	-118.488567
7.700000	-0.259112	-113.068169	-27.868428	-4.001942	-27.868428	-4.001942	-0.272833	-119.149312
7.750000	-0.262722	-113.692480	-27.817704	-4.332368	-27.817704	-4.332368	-0.276623	-119.808674
7.800000	-0.266348	-114.316468	-27.766988	-4.662947	-27.766988	-4.662947	-0.280430	-120.467760
7.850000	-0.270043	-114.939067	-27.715252	-4.994737	-27.715252	-4.994737	-0.284307	-121.125685
7.900000	-0.273762	-115.561204	-27.663386	-5.326930	-27.663386	-5.326930	-0.288209	-121.783223
7.950000	-0.277543	-116.182165	-27.610656	-5.660640	-27.610656	-5.660640	-0.292176	-122.439805
8.000000	-0.281356	-116.802539	-27.557661	-5.995108	-27.557661	-5.995108	-0.296175	-123.095908
8.050000	-0.285225	-117.421937	-27.503963	-6.331264	-27.503963	-6.331264	-0.300232	-123.751243
8.100000	-0.289134	-118.040639	-27.449867	-6.668626	-27.449867	-6.668626	-0.304330	-124.406027
8.150000	-0.293091	-118.658551	-27.395232	-7.007719	-27.395232	-7.007719	-0.308478	-125.060212
8.200000	-0.297097	-119.275674	-27.340071	-7.348545	-27.340071	-7.348545	-0.312676	-125.713796
8.250000	-0.301145	-119.892177	-27.284538	-7.691028	-27.284538	-7.691028	-0.316916	-126.366929
8.300000	-0.305249	-120.507814	-27.228355	-8.035834	-27.228355	-8.035834	-0.321215	-127.019432
8.350000	-0.309387	-121.122988	-27.171965	-8.382119	-27.171965	-8.382119	-0.325549	-127.671615
8.400000	-0.313592	-121.737236	-27.114810	-8.731363	-27.114810	-8.731363	-0.329950	-128.323159
8.450000	-0.317822	-122.351160	-27.057610	-9.081814	-27.057610	-9.081814	-0.334378	-128.974494
8.500000	-0.322127	-122.964116	-26.999537	-9.435891	-26.999537	-9.435891	-0.338883	-129.625203
8.550000	-0.326451	-123.576873	-26.941576	-9.790828	-26.941576	-9.790828	-0.343407	-130.275794
8.600000	-0.330858	-124.188637	-26.882642	-10.150066	-26.882642	-10.150066	-0.348016	-130.925795
8.650000	-0.335276	-124.800309	-26.823972	-10.509757	-26.823972	-10.509757	-0.352636	-131.575747
8.700000	-0.339786	-125.410982	-26.764238	-10.874420	-26.764238	-10.874420	-0.357351	-132.225168
8.750000	-0.344299	-126.021654	-26.704912	-11.239084	-26.704912	-11.239084	-0.362069	-132.874589
8.800000	-0.348914	-126.631339	-26.644437	-11.609367	-26.644437	-11.609367	-0.366890	-133.523562
8.850000	-0.353532	-127.241023	-26.584381	-11.979650	-26.584381	-11.979650	-0.371715	-134.172535
8.900000	-0.358244	-127.849898	-26.523354	-12.355202	-26.523354	-12.355202	-0.376635	-134.821219
8.950000	-0.362967	-128.458699	-26.462628	-12.731233	-26.462628	-12.731233	-0.381568	-135.469876
9.000000	-0.367777	-129.066853	-26.401100	-13.112108	-26.401100	-13.112108	-0.386588	-136.118384
9.050000	-0.372607	-129.674878	-26.339762	-13.493952	-26.339762	-13.493952	-0.391629	-136.766862
9.100000	-0.377516	-130.282401	-26.277782	-13.880156	-26.277782	-13.880156	-0.396750	-137.415309
9.150000	-0.382453	-130.889758	-26.215887	-14.267814	-26.215887	-14.267814	-0.401901	-138.063746
9.200000	-0.387461	-131.496744	-26.153502	-14.659313	-26.153502	-14.659313	-0.407123	-138.712249
9.250000	-0.392507	-132.103543	-26.091100	-15.052730	-26.091100	-15.052730	-0.412384	-139.360785
9.300000	-0.397616	-132.710083	-26.028351	-15.449445	-26.028351	-15.449445	-0.417709	-140.009463
9.350000	-0.402771	-133.316438	-25.965489	-15.848515	-25.965489	-15.848515	-0.423080	-140.658241
9.400000	-0.407981	-133.922628	-25.902413	-16.250332	-25.902413	-16.250332	-0.428507	-141.307214
9.450000	-0.413246	-134.528653	-25.839131	-16.654897	-25.839131	-16.654897	-0.433990	-141.956381
9.500000	-0.418557	-135.134588	-25.775762	-17.061670	-25.775762	-17.061670	-0.439520	-142.605771
9.550000	-0.423933	-135.740399	-25.712093	-17.471534	-25.712093	-17.471534	-0.445115	-143.255475
9.600000	-0.429346	-136.346179	-25.648456	-17.883086	-25.648456	-17.883086	-0.450749	-143.905408
9.650000	-0.434833	-136.951896	-25.584425	-18.298016	-25.584425	-18.298016	-0.456456	-144.555799
9.700000	-0.440350	-137.557619	-25.520542	-18.714146	-25.520542	-18.714146	-0.462194	-145.206402
9.750000	-0.445948	-138.163362	-25.456168	-19.133878	-25.456168	-19.133878	-0.468014	-145.857635
9.800000	-0.451568	-138.769129	-25.392054	-19.554364	-25.392054	-19.554364	-0.473855	-146.509035
9.850000	-0.457279	-139.375022	-25.327346	-19.978614	-25.327346	-19.978614	-0.479788	-147.161268
9.900000	-0.463002	-139.980937	-25.263009	-20.403216	-25.263009	-20.403216	-0.485734	-147.813597
9.950000	-0.468825	-140.587105	-25.197968	-20.831683	-25.197968	-20.831683	-0.491780	-148.466988
10.000000	-0.474652	-141.193272	-25.133410	-21.260151	-25.133410	-21.260151	-0.497830	-149.120380
