! freq	dB(S11)	phase(S11)	dB(S12)	phase(S12)	
!     	dB(S21)	phase(S21)	dB(S22)	phase(S22)	
!S-par simulation data
#  GHz  S  DB  R 50
0.000000	-0.000000	0.000000	-317.564399	0.000000	-317.564399	0.000000	-0.000000	0.000000
0.050000	-0.000116	-0.912198	-56.161205	88.685992	-56.161205	88.685992	-0.000123	-1.018795
0.100000	-0.000460	-1.824147	-50.171272	87.457755	-50.171272	87.457755	-0.000489	-2.037328
0.150000	-0.001021	-2.735613	-46.686933	86.342444	-46.686933	86.342444	-0.001086	-3.055351
0.200000	-0.001781	-3.646397	-44.223922	85.318306	-44.223922	85.318306	-0.001897	-4.072649
0.250000	-0.002732	-4.556265	-42.316997	84.355407	-42.316997	84.355407	-0.002915	-5.088967
0.300000	-0.003833	-5.465159	-40.758853	83.421818	-40.758853	83.421818	-0.004098	-6.104232
0.350000	-0.005070	-6.372937	-39.440944	82.503648	-39.440944	82.503648	-0.005431	-7.118282
0.400000	-0.006418	-7.279525	-38.298701	81.591367	-38.298701	81.591367	-0.006891	-8.131022
0.450000	-0.007857	-8.184881	-37.290738	80.680027	-37.290738	80.680027	-0.008455	-9.142388
0.500000	-0.009365	-9.088982	-36.388901	79.767272	-36.388901	79.767272	-0.010100	-10.152342
0.550000	-0.010927	-9.991829	-35.573138	78.852144	-35.573138	78.852144	-0.011809	-11.160866
0.600000	-0.012526	-10.893431	-34.828647	77.934405	-34.828647	77.934405	-0.013564	-12.167958
0.650000	-0.014151	-11.793810	-34.144176	77.014173	-34.144176	77.014173	-0.015352	-13.173625
0.700000	-0.015792	-12.692987	-33.510966	76.091727	-33.510966	76.091727	-0.017162	-14.177883
0.750000	-0.017443	-13.590989	-32.922064	75.167408	-32.922064	75.167408	-0.018984	-15.180750
0.800000	-0.019097	-14.487838	-32.371853	74.241570	-32.371853	74.241570	-0.020811	-16.182243
0.850000	-0.020752	-15.383554	-31.855731	73.314554	-31.855731	73.314554	-0.022640	-17.182378
0.900000	-0.022405	-16.278152	-31.369880	72.386675	-31.369880	72.386675	-0.024466	-18.181169
0.950000	-0.024054	-17.171643	-30.911094	71.458223	-30.911094	71.458223	-0.026287	-19.178625
1.000000	-0.025700	-18.064034	-30.476658	70.529460	-30.476658	70.529460	-0.028102	-20.174750
1.050000	-0.027342	-18.955326	-30.064252	69.600623	-30.064252	69.600623	-0.029911	-21.169545
1.100000	-0.028981	-19.845516	-29.671873	68.671925	-29.671873	68.671925	-0.031713	-22.163007
1.150000	-0.030618	-20.734597	-29.297786	67.743559	-29.297786	67.743559	-0.033510	-23.155127
1.200000	-0.032255	-21.622559	-28.940474	66.815701	-28.940474	66.815701	-0.035303	-24.145893
1.250000	-0.033892	-22.509388	-28.598603	65.888509	-28.598603	65.888509	-0.037092	-25.135291
1.300000	-0.035530	-23.395018	-28.271056	64.962171	-28.271056	64.962171	-0.038879	-26.123242
1.350000	-0.037172	-24.279477	-27.956726	64.036788	-27.956726	64.036788	-0.040666	-27.109784
1.400000	-0.038817	-25.162747	-27.654680	63.112483	-27.654680	63.112483	-0.042453	-28.094895
1.450000	-0.040468	-26.044805	-27.364080	62.189367	-27.364080	62.189367	-0.044243	-29.078550
1.500000	-0.042125	-26.925627	-27.084173	61.267543	-27.084173	61.267543	-0.046035	-30.060726
1.550000	-0.043789	-27.805191	-26.814281	60.347108	-26.814281	60.347108	-0.047832	-31.041394
1.600000	-0.045461	-28.683472	-26.553787	59.428151	-26.553787	59.428151	-0.049634	-32.020529
1.650000	-0.047142	-29.560444	-26.302130	58.510757	-26.302130	58.510757	-0.051443	-32.998103
1.700000	-0.048832	-30.436084	-26.058799	57.595004	-26.058799	57.595004	-0.053259	-33.974088
1.750000	-0.050532	-31.310365	-25.823327	56.680965	-25.823327	56.680965	-0.055084	-34.948457
1.800000	-0.052242	-32.183263	-25.595284	55.768709	-25.595284	55.768709	-0.056917	-35.921182
1.850000	-0.053963	-33.054753	-25.374275	54.858303	-25.374275	54.858303	-0.058760	-36.892238
1.900000	-0.055695	-33.924811	-25.159937	53.949806	-25.159937	53.949806	-0.060612	-37.861596
1.950000	-0.057439	-34.793413	-24.951933	53.043276	-24.951933	53.043276	-0.062476	-38.829230
2.000000	-0.059194	-35.660535	-24.749951	52.138769	-24.749951	52.138769	-0.064350	-39.795116
2.050000	-0.060961	-36.526155	-24.553702	51.236335	-24.553702	51.236335	-0.066236	-40.759229
2.100000	-0.062740	-37.390249	-24.362917	50.336023	-24.362917	50.336023	-0.068133	-41.721545
2.150000	-0.064532	-38.252796	-24.177345	49.437879	-24.177345	49.437879	-0.070043	-42.682040
2.200000	-0.066335	-39.113775	-23.996751	48.541946	-23.996751	48.541946	-0.071965	-43.640692
2.250000	-0.068151	-39.973166	-23.820916	47.648264	-23.820916	47.648264	-0.073899	-44.597480
2.300000	-0.069979	-40.830947	-23.649634	46.756871	-23.649634	46.756871	-0.075846	-45.552383
2.350000	-0.071819	-41.687101	-23.482713	45.867805	-23.482713	45.867805	-0.077806	-46.505383
2.400000	-0.073672	-42.541608	-23.319971	44.981099	-23.319971	44.981099	-0.079779	-47.456460
2.450000	-0.075538	-43.394452	-23.161238	44.096784	-23.161238	44.096784	-0.081766	-48.405597
2.500000	-0.077416	-44.245614	-23.006352	43.214891	-23.006352	43.214891	-0.083765	-49.352779
2.550000	-0.079307	-45.095005	-22.855204	42.335555	-22.855204	42.335555	-0.085779	-50.297902
2.600000	-0.081211	-45.942682	-22.707606	41.458697	-22.707606	41.458697	-0.087806	-51.241038
2.650000	-0.083127	-46.788630	-22.563422	40.584340	-22.563422	40.584340	-0.089847	-52.182174
2.700000	-0.085056	-47.632835	-22.422523	39.712508	-22.422523	39.712508	-0.091901	-53.121298
2.750000	-0.086998	-48.475284	-22.284785	38.843221	-22.284785	38.843221	-0.093970	-54.058398
2.800000	-0.088953	-49.315965	-22.150094	37.976497	-22.150094	37.976497	-0.096053	-54.993466
2.850000	-0.090921	-50.154865	-22.018338	37.112354	-22.018338	37.112354	-0.098150	-55.926491
2.900000	-0.092902	-50.991974	-21.889411	36.250808	-21.889411	36.250808	-0.100261	-56.857466
2.950000	-0.094896	-51.827282	-21.763213	35.391874	-21.763213	35.391874	-0.102387	-57.786384
3.000000	-0.096903	-52.660778	-21.639648	34.535564	-21.639648	34.535564	-0.104528	-58.713239
3.050000	-0.098924	-53.492454	-21.518624	33.681890	-21.518624	33.681890	-0.106684	-59.638026
3.100000	-0.100959	-54.322301	-21.400055	32.830863	-21.400055	32.830863	-0.108855	-60.560742
3.150000	-0.103007	-55.150312	-21.283854	31.982489	-21.283854	31.982489	-0.111042	-61.481383
3.200000	-0.105070	-55.976480	-21.169944	31.136779	-21.169944	31.136779	-0.113244	-62.399949
3.250000	-0.107147	-56.800798	-21.058245	30.293736	-21.058245	30.293736	-0.115463	-63.316437
3.300000	-0.109239	-57.623261	-20.948686	29.453367	-20.948686	29.453367	-0.117697	-64.230848
3.350000	-0.111345	-58.443865	-20.841193	28.615676	-20.841193	28.615676	-0.119948	-65.143184
3.400000	-0.113467	-59.262605	-20.735700	27.780664	-20.735700	27.780664	-0.122217	-66.053445
3.450000	-0.115605	-60.079476	-20.632140	26.948333	-20.632140	26.948333	-0.124502	-66.961636
3.500000	-0.117758	-60.894477	-20.530450	26.118683	-20.530450	26.118683	-0.126805	-67.867760
3.550000	-0.119927	-61.707605	-20.430570	25.291714	-20.430570	25.291714	-0.129126	-68.771822
3.600000	-0.122113	-62.518857	-20.332441	24.467423	-20.332441	24.467423	-0.131466	-69.673827
3.650000	-0.124315	-63.328234	-20.236005	23.645807	-20.236005	23.645807	-0.133824	-70.573783
3.700000	-0.126535	-64.135734	-20.141209	22.826863	-20.141209	22.826863	-0.136201	-71.471697
3.750000	-0.128773	-64.941357	-20.048000	22.010585	-20.048000	22.010585	-0.138599	-72.367577
3.800000	-0.131029	-65.745024	-19.956350	21.197082	-19.956350	21.197082	-0.141017	-73.261345
3.850000	-0.133305	-66.546815	-19.866184	20.386232	-19.866184	20.386232	-0.143456	-74.153099
3.900000	-0.135599	-67.346734	-19.777455	19.578025	-19.777455	19.578025	-0.145916	-75.042852
3.950000	-0.137912	-68.144783	-19.690117	18.772453	-19.690117	18.772453	-0.148398	-75.930615
4.000000	-0.140246	-68.940966	-19.604124	17.969506	-19.604124	17.969506	-0.150903	-76.816400
4.050000	-0.142600	-69.735285	-19.519434	17.169173	-19.519434	17.169173	-0.153430	-77.700222
4.100000	-0.144976	-70.527744	-19.436004	16.371441	-19.436004	16.371441	-0.155980	-78.582094
4.150000	-0.147372	-71.318350	-19.353793	15.576298	-19.353793	15.576298	-0.158555	-79.462033
4.200000	-0.149791	-72.107106	-19.272761	14.783730	-19.272761	14.783730	-0.161154	-80.340054
4.250000	-0.152232	-72.894020	-19.192871	13.993723	-19.192871	13.993723	-0.163778	-81.216174
4.300000	-0.154697	-73.679097	-19.114083	13.206260	-19.114083	13.206260	-0.166428	-82.090411
4.350000	-0.157185	-74.462343	-19.036362	12.421326	-19.036362	12.421326	-0.169105	-82.962783
4.400000	-0.159698	-75.243768	-18.959673	11.638904	-18.959673	11.638904	-0.171809	-83.833309
4.450000	-0.162235	-76.023378	-18.883980	10.858975	-18.883980	10.858975	-0.174540	-84.702009
4.500000	-0.164798	-76.801182	-18.809249	10.081520	-18.809249	10.081520	-0.177300	-85.568905
4.550000	-0.167388	-77.577190	-18.735448	9.306519	-18.735448	9.306519	-0.180089	-86.434017
4.600000	-0.170003	-78.351410	-18.662545	8.533952	-18.662545	8.533952	-0.182907	-87.297367
4.650000	-0.172647	-79.123853	-18.590509	7.763798	-18.590509	7.763798	-0.185757	-88.158980
4.700000	-0.175318	-79.894530	-18.519308	6.996033	-18.519308	6.996033	-0.188637	-89.018877
4.750000	-0.178018	-80.663451	-18.448914	6.230635	-18.448914	6.230635	-0.191549	-89.877084
4.800000	-0.180747	-81.430628	-18.379296	5.467579	-18.379296	5.467579	-0.194494	-90.733627
4.850000	-0.183506	-82.196073	-18.310427	4.706840	-18.310427	4.706840	-0.197473	-91.588529
4.900000	-0.186296	-82.959798	-18.242279	3.948393	-18.242279	3.948393	-0.200485	-92.441819
4.950000	-0.189117	-83.721817	-18.174824	3.192211	-18.174824	3.192211	-0.203533	-93.293523
5.000000	-0.191971	-84.482143	-18.108035	2.438266	-18.108035	2.438266	-0.206616	-94.143670
5.050000	-0.194858	-85.240718	-18.041893	1.686623	-18.041893	1.686623	-0.209737	-94.992223
5.100000	-0.197779	-85.997629	-17.976364	0.937157	-17.976364	0.937157	-0.212896	-95.839278
5.150000	-0.200734	-86.752892	-17.911423	0.189835	-17.911423	0.189835	-0.216092	-96.684867
5.200000	-0.203725	-87.506522	-17.847047	-0.555372	-17.847047	-0.555372	-0.219328	-97.529020
5.250000	-0.206751	-88.258535	-17.783211	-1.298499	-17.783211	-1.298499	-0.222603	-98.371768
5.300000	-0.209814	-89.008948	-17.719892	-2.039578	-17.719892	-2.039578	-0.225919	-99.213144
5.350000	-0.212914	-89.757776	-17.657066	-2.778643	-17.657066	-2.778643	-0.229276	-100.053180
5.400000	-0.216052	-90.505037	-17.594711	-3.515732	-17.594711	-3.515732	-0.232676	-100.891911
5.450000	-0.219242	-91.250219	-17.532798	-4.250223	-17.532798	-4.250223	-0.236133	-101.728943
5.500000	-0.222454	-91.994599	-17.471321	-4.983714	-17.471321	-4.983714	-0.239614	-102.565325
5.550000	-0.225715	-92.737147	-17.410236	-5.714955	-17.410236	-5.714955	-0.243150	-103.400261
5.600000	-0.229012	-93.478386	-17.349548	-6.444590	-17.349548	-6.444590	-0.246725	-104.234166
5.650000	-0.232353	-94.218097	-17.289214	-7.172385	-17.289214	-7.172385	-0.250350	-105.066913
5.700000	-0.235738	-94.956279	-17.229228	-7.898342	-17.229228	-7.898342	-0.254023	-105.898502
5.750000	-0.239163	-95.693225	-17.169570	-8.622845	-17.169570	-8.622845	-0.257739	-106.729196
5.800000	-0.242641	-96.428439	-17.110201	-9.345313	-17.110201	-9.345313	-0.261514	-107.558636
5.850000	-0.246152	-97.162694	-17.051146	-10.066684	-17.051146	-10.066684	-0.265325	-108.387418
5.900000	-0.249726	-97.895031	-16.992312	-10.785863	-16.992312	-10.785863	-0.269207	-109.214882
5.950000	-0.253327	-98.626673	-16.933790	-11.504272	-16.933790	-11.504272	-0.273117	-110.041897
6.000000	-0.257002	-99.356228	-16.875411	-12.220372	-16.875411	-12.220372	-0.277108	-110.867564
6.050000	-0.260695	-100.085336	-16.817356	-12.935997	-16.817356	-12.935997	-0.281120	-111.692963
6.100000	-0.264475	-100.812209	-16.759356	-13.649241	-16.759356	-13.649241	-0.285226	-112.517019
6.150000	-0.268265	-101.538867	-16.701703	-14.362267	-16.701703	-14.362267	-0.289343	-113.340956
6.200000	-0.272154	-102.263159	-16.644008	-15.072889	-16.644008	-15.072889	-0.293568	-114.163591
6.250000	-0.276044	-102.987451	-16.586695	-15.783511	-16.586695	-15.783511	-0.297795	-114.986227
6.300000	-0.280046	-103.709268	-16.529235	-16.491756	-16.529235	-16.491756	-0.302143	-115.807639
6.350000	-0.284050	-104.431085	-16.472152	-17.200002	-16.472152	-17.200002	-0.306493	-116.629052
6.400000	-0.288161	-105.150734	-16.414908	-17.906303	-16.414908	-17.906303	-0.310959	-117.449531
6.450000	-0.292282	-105.870186	-16.357990	-18.612428	-16.357990	-18.612428	-0.315437	-118.269924
6.500000	-0.296505	-106.587759	-16.300906	-19.317010	-16.300906	-19.317010	-0.320025	-119.089644
6.550000	-0.300750	-107.304957	-16.244088	-20.021284	-16.244088	-20.021284	-0.324636	-119.909230
6.600000	-0.305089	-108.020552	-16.187111	-20.724378	-16.187111	-20.724378	-0.329349	-120.728371
6.650000	-0.309462	-108.735612	-16.130331	-21.427079	-16.130331	-21.427079	-0.334097	-121.547364
6.700000	-0.313922	-109.449326	-16.073413	-22.128927	-16.073413	-22.128927	-0.338940	-122.366112
6.750000	-0.318427	-110.162367	-16.016613	-22.830347	-16.016613	-22.830347	-0.343832	-123.184737
6.800000	-0.323013	-110.874301	-15.959704	-23.531195	-15.959704	-23.531195	-0.348809	-124.003281
6.850000	-0.327656	-111.585444	-15.902828	-24.231635	-15.902828	-24.231635	-0.353848	-124.821767
6.900000	-0.332371	-112.295701	-15.845885	-24.931740	-15.845885	-24.931740	-0.358964	-125.640302
6.950000	-0.337158	-113.005072	-15.788880	-25.631511	-15.788880	-25.631511	-0.364157	-126.458886
7.000000	-0.342008	-113.713757	-15.731861	-26.331136	-15.731861	-26.331136	-0.369416	-127.277612
7.050000	-0.346945	-114.421482	-15.674678	-27.030557	-15.674678	-27.030557	-0.374768	-128.096538
7.100000	-0.351934	-115.128703	-15.617543	-27.729971	-15.617543	-27.729971	-0.380176	-128.915661
7.150000	-0.357026	-115.834914	-15.560134	-28.429370	-15.560134	-28.429370	-0.385692	-129.735178
7.200000	-0.362160	-116.540781	-15.502846	-29.128847	-15.502846	-29.128847	-0.391253	-130.554909
7.250000	-0.367413	-117.245611	-15.445169	-29.828559	-15.445169	-29.828559	-0.396941	-131.375276
7.300000	-0.372697	-117.950235	-15.387694	-30.528380	-15.387694	-30.528380	-0.402660	-132.195830
7.350000	-0.378118	-118.653821	-15.329708	-31.228744	-15.329708	-31.228744	-0.408524	-133.017313
7.400000	-0.383557	-119.357316	-15.272014	-31.929192	-15.272014	-31.929192	-0.414407	-133.838912
7.450000	-0.389153	-120.059798	-15.213682	-32.630555	-15.213682	-32.630555	-0.420455	-134.661783
7.500000	-0.394753	-120.762279	-15.155740	-33.331917	-15.155740	-33.331917	-0.426508	-135.484653
7.550000	-0.400486	-121.464021	-15.097323	-34.034245	-15.097323	-34.034245	-0.432700	-136.308740
7.600000	-0.406309	-122.165336	-15.038735	-34.737301	-15.038735	-34.737301	-0.438985	-137.133695
7.650000	-0.412222	-122.866258	-14.979968	-35.441166	-14.979968	-35.441166	-0.445365	-137.959584
7.700000	-0.418227	-123.566820	-14.921016	-36.145920	-14.921016	-36.145920	-0.451842	-138.786475
7.750000	-0.424326	-124.267056	-14.861873	-36.851642	-14.861873	-36.851642	-0.458416	-139.614436
7.800000	-0.430522	-124.967001	-14.802533	-37.558414	-14.802533	-37.558414	-0.465091	-140.443537
7.850000	-0.436815	-125.666688	-14.742990	-38.266315	-14.742990	-38.266315	-0.471868	-141.273847
7.900000	-0.443208	-126.366154	-14.683240	-38.975425	-14.683240	-38.975425	-0.478748	-142.105439
7.950000	-0.449702	-127.065432	-14.623277	-39.685823	-14.623277	-39.685823	-0.485733	-142.938383
8.000000	-0.456299	-127.764559	-14.563098	-40.397590	-14.563098	-40.397590	-0.492826	-143.772754
8.050000	-0.463002	-128.463571	-14.502697	-41.110804	-14.502697	-41.110804	-0.500028	-144.608624
8.100000	-0.469813	-129.162502	-14.442071	-41.825544	-14.442071	-41.825544	-0.507341	-145.446070
8.150000	-0.476732	-129.861390	-14.381216	-42.541888	-14.381216	-42.541888	-0.514768	-146.285167
8.200000	-0.483763	-130.560272	-14.320127	-43.259915	-14.320127	-43.259915	-0.522310	-147.125992
8.250000	-0.490908	-131.259183	-14.258802	-43.979701	-14.258802	-43.979701	-0.529969	-147.968623
8.300000	-0.498169	-131.958162	-14.197237	-44.701325	-14.197237	-44.701325	-0.537748	-148.813140
8.350000	-0.505547	-132.657245	-14.135430	-45.424863	-14.135430	-45.424863	-0.545649	-149.659623
8.400000	-0.513046	-133.356472	-14.073376	-46.150391	-14.073376	-46.150391	-0.553674	-150.508152
8.450000	-0.520667	-134.055879	-14.011074	-46.877987	-14.011074	-46.877987	-0.561824	-151.358811
8.500000	-0.528413	-134.755504	-13.948520	-47.607725	-13.948520	-47.607725	-0.570104	-152.211682
8.550000	-0.536287	-135.455388	-13.885713	-48.339682	-13.885713	-48.339682	-0.578515	-153.066851
8.600000	-0.544290	-136.155568	-13.822649	-49.073933	-13.822649	-49.073933	-0.587059	-153.924402
8.650000	-0.552425	-136.856084	-13.759326	-49.810554	-13.759326	-49.810554	-0.595739	-154.784424
8.700000	-0.560694	-137.556976	-13.695742	-50.549620	-13.695742	-50.549620	-0.604557	-155.647003
8.750000	-0.569101	-138.258282	-13.631894	-51.291206	-13.631894	-51.291206	-0.613516	-156.512228
8.800000	-0.577653	-138.960066	-13.567748	-52.035505	-13.567748	-52.035505	-0.622625	-157.380314
8.850000	-0.586348	-139.662349	-13.503334	-52.782482	-13.503334	-52.782482	-0.631881	-158.251238
8.900000	-0.595189	-140.365172	-13.438649	-53.532213	-13.438649	-53.532213	-0.641286	-159.125091
8.950000	-0.604177	-141.068577	-13.373691	-54.284776	-13.373691	-54.284776	-0.650843	-160.001969
9.000000	-0.613317	-141.772604	-13.308457	-55.040247	-13.308457	-55.040247	-0.660554	-160.881966
9.050000	-0.622610	-142.477294	-13.242947	-55.798705	-13.242947	-55.798705	-0.670424	-161.765179
9.100000	-0.632060	-143.182691	-13.177157	-56.560227	-13.177157	-56.560227	-0.680455	-162.651706
9.150000	-0.641670	-143.888836	-13.111086	-57.324894	-13.111086	-57.324894	-0.690649	-163.541646
9.200000	-0.651442	-144.595771	-13.044731	-58.092786	-13.044731	-58.092786	-0.701010	-164.435100
9.250000	-0.661381	-145.303540	-12.978090	-58.863985	-12.978090	-58.863985	-0.711541	-165.332169
9.300000	-0.671488	-146.012185	-12.911161	-59.638576	-12.911161	-59.638576	-0.722246	-166.232956
9.350000	-0.681767	-146.721750	-12.843942	-60.416642	-12.843942	-60.416642	-0.733126	-167.137565
9.400000	-0.692222	-147.432278	-12.776430	-61.198271	-12.776430	-61.198271	-0.744187	-168.046103
9.450000	-0.702856	-148.143813	-12.708624	-61.983551	-12.708624	-61.983551	-0.755431	-168.958675
9.500000	-0.713671	-148.856400	-12.640521	-62.772573	-12.640521	-62.772573	-0.766861	-169.875392
9.550000	-0.724673	-149.570083	-12.572120	-63.565430	-12.572120	-63.565430	-0.778481	-170.796361
9.600000	-0.735863	-150.284906	-12.503417	-64.362217	-12.503417	-64.362217	-0.790294	-171.721694
9.650000	-0.747246	-151.000916	-12.434412	-65.163032	-12.434412	-65.163032	-0.802305	-172.651503
9.700000	-0.758824	-151.718157	-12.365102	-65.967975	-12.365102	-65.967975	-0.814516	-173.585902
9.750000	-0.770603	-152.436674	-12.295485	-66.777150	-12.295485	-66.777150	-0.826932	-174.525006
9.800000	-0.782586	-153.156515	-12.225560	-67.590664	-12.225560	-67.590664	-0.839555	-175.468931
9.850000	-0.794775	-153.877725	-12.155325	-68.408624	-12.155325	-68.408624	-0.852391	-176.417795
9.900000	-0.807176	-154.600350	-12.084778	-69.231146	-12.084778	-69.231146	-0.865442	-177.371716
9.950000	-0.819792	-155.324438	-12.013919	-70.058344	-12.013919	-70.058344	-0.878713	-178.330816
10.000000	-0.832628	-156.050036	-11.942746	-70.890339	-11.942746	-70.890339	-0.892207	-179.295216
