! freq	dB(S11)	phase(S11)	dB(S12)	phase(S12)	
!     	dB(S21)	phase(S21)	dB(S22)	phase(S22)	
!S-par simulation data
#  GHz  S  DB  R 50
0.000000	-88.341089	0.000000	-0.000332	0.000000	-0.000332	0.000000	-88.341089	0.000000
0.050000	-65.238212	-86.911161	-0.000480	-0.917620	-0.000480	-0.917620	-65.238575	-86.912440
0.100000	-59.241342	-89.885564	-0.000914	-1.834883	-0.000914	-1.834883	-59.241709	-89.888377
0.150000	-55.735187	-91.517218	-0.001612	-2.751473	-0.001612	-2.751473	-55.735557	-91.521512
0.200000	-53.255026	-92.812791	-0.002538	-3.667145	-0.002538	-3.667145	-53.255401	-92.818557
0.250000	-51.340649	-93.967682	-0.003663	-4.581651	-0.003663	-4.581651	-51.341030	-93.974922
0.300000	-49.785134	-95.060876	-0.004928	-5.494997	-0.004928	-5.494997	-49.785522	-95.069596
0.350000	-48.479317	-96.115573	-0.006299	-6.407115	-0.006299	-6.407115	-48.479714	-96.125782
0.400000	-47.357713	-97.146771	-0.007738	-7.318038	-0.007738	-7.318038	-47.358119	-97.158481
0.450000	-46.378103	-98.162804	-0.009215	-8.227845	-0.009215	-8.227845	-46.378520	-98.176029
0.500000	-45.511689	-99.168700	-0.010702	-9.136647	-0.010702	-9.136647	-45.512117	-99.183456
0.550000	-44.737957	-100.167696	-0.012179	-10.044568	-0.012179	-10.044568	-44.738398	-100.184005
0.600000	-44.041798	-101.161994	-0.013632	-10.951741	-0.013632	-10.951741	-44.042251	-101.179877
0.650000	-43.411766	-102.153157	-0.015051	-11.858296	-0.015051	-11.858296	-43.412234	-102.172639
0.700000	-42.839003	-103.142342	-0.016431	-12.764354	-0.016431	-12.764354	-42.839486	-103.163452
0.750000	-42.316522	-104.130439	-0.017767	-13.670027	-0.017767	-13.670027	-42.317020	-104.153209
0.800000	-41.838730	-105.118153	-0.019060	-14.575415	-0.019060	-14.575415	-41.839244	-105.142620
0.850000	-41.401091	-106.106066	-0.020311	-15.480606	-0.020311	-15.480606	-41.401622	-106.132269
0.900000	-40.999891	-107.094669	-0.021522	-16.385677	-0.021522	-16.385677	-41.000438	-107.122653
0.950000	-40.632062	-108.084394	-0.022695	-17.290694	-0.022695	-17.290694	-40.632626	-108.114208
1.000000	-40.295055	-109.075629	-0.023834	-18.195716	-0.023834	-18.195716	-40.295636	-109.107328
1.050000	-39.986744	-110.068734	-0.024942	-19.100790	-0.024942	-19.100790	-39.987342	-110.102379
1.100000	-39.705351	-111.064055	-0.026023	-20.005960	-0.026023	-20.005960	-39.705965	-111.099712
1.150000	-39.449390	-112.061927	-0.027080	-20.911263	-0.027080	-20.911263	-39.450022	-112.099671
1.200000	-39.217626	-113.062690	-0.028115	-21.816731	-0.028115	-21.816731	-39.218274	-113.102603
1.250000	-39.009036	-114.066690	-0.029133	-22.722393	-0.029133	-22.722393	-39.009700	-114.108863
1.300000	-38.823576	-115.074465	-0.030135	-23.628284	-0.030135	-23.628284	-38.824256	-115.119003
1.350000	-38.659818	-116.086263	-0.031124	-24.534418	-0.031124	-24.534418	-38.660512	-116.133278
1.400000	-38.517248	-117.102507	-0.032104	-25.440817	-0.032104	-25.440817	-38.517956	-117.152122
1.450000	-38.395495	-118.123657	-0.033075	-26.347499	-0.033075	-26.347499	-38.396217	-118.176012
1.500000	-38.294321	-119.150228	-0.034039	-27.254482	-0.034039	-27.254482	-38.295053	-119.205474
1.550000	-38.213612	-120.182791	-0.034999	-28.161784	-0.034999	-28.161784	-38.214355	-120.241099
1.600000	-38.153383	-121.221994	-0.035957	-29.069420	-0.035957	-29.069420	-38.154134	-121.283553
1.650000	-38.113773	-122.268573	-0.036912	-29.977407	-0.036912	-29.977407	-38.114531	-122.333597
1.700000	-38.095051	-123.323374	-0.037867	-30.885760	-0.037867	-30.885760	-38.095813	-123.392099
1.750000	-38.097622	-124.387372	-0.038823	-31.794494	-0.038823	-31.794494	-38.098385	-124.460065
1.800000	-38.122035	-125.461699	-0.039781	-32.703626	-0.039781	-32.703626	-38.122795	-125.538663
1.850000	-38.168999	-126.547683	-0.040742	-33.613170	-0.040742	-33.613170	-38.169751	-126.629257
1.900000	-38.239395	-127.646886	-0.041708	-34.523142	-0.041708	-34.523142	-38.240136	-127.733460
1.950000	-38.334307	-128.761166	-0.042678	-35.433556	-0.042678	-35.433556	-38.335029	-128.853182
2.000000	-38.455045	-129.892741	-0.043654	-36.344429	-0.043654	-36.344429	-38.455739	-129.990709
2.050000	-38.603182	-131.044291	-0.044636	-37.255777	-0.044636	-37.255777	-38.603838	-131.148799
2.100000	-38.780608	-132.219073	-0.045626	-38.167615	-0.045626	-38.167615	-38.781213	-132.330805
2.150000	-38.989583	-133.421091	-0.046625	-39.079959	-0.046625	-39.079959	-38.990120	-133.540850
2.200000	-39.232827	-134.655320	-0.047633	-39.992825	-0.047633	-39.992825	-39.233274	-134.784050
2.250000	-39.513615	-135.928008	-0.048651	-40.906231	-0.048651	-40.906231	-39.513944	-136.066839
2.300000	-39.835927	-137.247116	-0.049681	-41.820193	-0.049681	-41.820193	-39.836098	-137.397405
2.350000	-40.204624	-138.622933	-0.050722	-42.734726	-0.050722	-42.734726	-40.204586	-138.786332
2.400000	-40.625715	-140.068985	-0.051776	-43.649850	-0.051776	-43.649850	-40.625396	-140.247531
2.450000	-41.106706	-141.603390	-0.052844	-44.565580	-0.052844	-44.565580	-41.106006	-141.799630
2.500000	-41.657114	-143.250949	-0.053927	-45.481935	-0.053927	-45.481935	-41.655886	-143.468119
2.550000	-42.291127	-145.055404	-0.055027	-46.398960	-0.055027	-46.398960	-42.289148	-145.297940
2.600000	-43.023200	-147.065486	-0.056145	-47.316646	-0.056145	-47.316646	-43.020132	-147.339109
2.650000	-43.874974	-149.363107	-0.057280	-48.235011	-0.057280	-48.235011	-43.870272	-149.675636
2.700000	-44.876145	-152.079523	-0.058436	-49.154073	-0.058436	-49.154073	-44.868890	-152.441951
2.750000	-46.068422	-155.438071	-0.059613	-50.073849	-0.059613	-50.073849	-46.056957	-155.866301
2.800000	-47.511255	-159.848433	-0.060812	-50.994358	-0.060812	-50.994358	-47.492350	-160.365882
2.850000	-49.287199	-166.135447	-0.062035	-51.915618	-0.062035	-51.915618	-49.253924	-166.775255
2.900000	-51.485904	-176.138396	-0.063283	-52.837646	-0.063283	-52.837646	-51.421949	-176.931131
2.950000	-54.023342	165.965002	-0.064559	-53.760462	-0.064559	-53.760462	-53.892482	165.116224
3.000000	-55.811960	135.525694	-0.065863	-54.684083	-0.065863	-54.684083	-55.595352	135.169192
3.050000	-54.965918	101.270057	-0.067198	-55.608527	-0.067198	-55.608527	-54.764640	101.653868
3.100000	-52.243592	76.294150	-0.068565	-56.533812	-0.068565	-56.533812	-52.120323	77.014721
3.150000	-49.425405	62.245827	-0.069966	-57.459957	-0.069966	-57.459957	-49.353582	62.924666
3.200000	-47.023412	54.035932	-0.071404	-58.386978	-0.071404	-58.386978	-46.977695	54.611166
3.250000	-45.005972	48.631161	-0.072879	-59.314893	-0.072879	-59.314893	-44.974272	49.118273
3.300000	-43.282111	44.704508	-0.074396	-60.243721	-0.074396	-60.243721	-43.258657	45.123875
3.350000	-41.779674	41.636510	-0.075955	-61.173478	-0.075955	-61.173478	-41.761462	42.003860
3.400000	-40.447496	39.107492	-0.077559	-62.104181	-0.077559	-62.104181	-40.432829	39.434166
3.450000	-39.249417	36.937660	-0.079211	-63.035848	-0.079211	-63.035848	-39.237264	37.231857
3.500000	-38.159365	35.018676	-0.080912	-63.968495	-0.080912	-63.968495	-38.149065	35.286428
3.550000	-37.158082	33.281547	-0.082666	-64.902138	-0.082666	-64.902138	-37.149194	33.527390
3.600000	-36.231011	31.680318	-0.084476	-65.836794	-0.084476	-65.836794	-36.223224	31.907735
3.650000	-35.366907	30.183227	-0.086343	-66.772477	-0.086343	-66.772477	-35.359999	30.394943
3.700000	-34.556920	28.767625	-0.088272	-67.709205	-0.088272	-67.709205	-34.550726	28.965807
3.750000	-33.793968	27.416933	-0.090264	-68.646990	-0.090264	-68.646990	-33.788365	27.603333
3.800000	-33.071415	26.120578	-0.092326	-69.585897	-0.092326	-69.585897	-33.066305	26.296681
3.850000	-32.385543	24.866585	-0.094458	-70.525892	-0.094458	-70.525892	-32.380852	25.033562
3.900000	-31.732389	23.647800	-0.096664	-71.466990	-0.096664	-71.466990	-31.728056	23.806634
3.950000	-31.108620	22.458546	-0.098946	-72.409203	-0.098946	-72.409203	-31.104596	22.610071
4.000000	-30.511407	21.294267	-0.101309	-73.352544	-0.101309	-73.352544	-30.507653	21.439195
4.050000	-29.938328	20.151261	-0.103755	-74.297026	-0.103755	-74.297026	-29.934810	20.290206
4.100000	-29.387293	19.026490	-0.106288	-75.242660	-0.106288	-75.242660	-29.383984	19.159982
4.150000	-28.856487	17.917435	-0.108912	-76.189457	-0.108912	-76.189457	-28.853364	18.045939
4.200000	-28.344324	16.821991	-0.111630	-77.137428	-0.111630	-77.137428	-28.341368	16.945914
4.250000	-27.849409	15.738384	-0.114445	-78.086583	-0.114445	-78.086583	-27.846601	15.858085
4.300000	-27.370506	14.665109	-0.117363	-79.036930	-0.117363	-79.036930	-27.367834	14.780906
4.350000	-26.906521	13.600877	-0.120387	-79.988478	-0.120387	-79.988478	-26.903971	13.713055
4.400000	-26.456476	12.544583	-0.123520	-80.941235	-0.123520	-80.941235	-26.454036	12.653395
4.450000	-26.019492	11.495270	-0.126767	-81.895208	-0.126767	-81.895208	-26.017154	11.600945
4.500000	-25.594782	10.452105	-0.130131	-82.850404	-0.130131	-82.850404	-25.592537	10.554848
4.550000	-25.181633	9.414361	-0.133618	-83.806828	-0.133618	-83.806828	-25.179474	9.514359
4.600000	-24.780079	8.381045	-0.137219	-84.764377	-0.137219	-84.764377	-24.777999	8.478452
4.650000	-24.388061	7.352391	-0.140962	-85.723284	-0.140962	-85.723284	-24.386053	7.447378
4.700000	-24.005847	6.327448	-0.144841	-86.683431	-0.144841	-86.683431	-24.003906	6.420155
4.750000	-23.632946	5.305778	-0.148858	-87.644821	-0.148858	-87.644821	-23.631068	5.396334
4.800000	-23.268910	4.286994	-0.153018	-88.607454	-0.153018	-88.607454	-23.267090	4.375516
4.850000	-22.913326	3.270746	-0.157326	-89.571333	-0.157326	-89.571333	-22.911561	3.357343
4.900000	-22.565814	2.256726	-0.161786	-90.536455	-0.161786	-90.536455	-22.564100	2.341497
4.950000	-22.226024	1.244655	-0.166403	-91.502820	-0.166403	-91.502820	-22.224358	1.327695
5.000000	-21.893632	0.234287	-0.171181	-92.470426	-0.171181	-92.470426	-21.892011	0.315680
5.050000	-21.568227	-0.774575	-0.176127	-93.439296	-0.176127	-93.439296	-21.566647	-0.694748
5.100000	-21.249649	-1.782165	-0.181244	-94.409400	-0.181244	-94.409400	-21.248109	-1.703829
5.150000	-20.937640	-2.788661	-0.186536	-95.380731	-0.186536	-95.380731	-20.936137	-2.711748
5.200000	-20.631956	-3.794223	-0.192007	-96.353284	-0.192007	-96.353284	-20.630489	-3.718668
5.250000	-20.332373	-4.798992	-0.197661	-97.327051	-0.197661	-97.327051	-20.330938	-4.724735
5.300000	-20.038677	-5.803096	-0.203504	-98.302025	-0.203504	-98.302025	-20.037274	-5.730081
5.350000	-19.750673	-6.806647	-0.209539	-99.278196	-0.209539	-99.278196	-19.749299	-6.734821
5.400000	-19.468173	-7.809748	-0.215772	-100.255553	-0.215772	-100.255553	-19.466828	-7.739061
5.450000	-19.191005	-8.812487	-0.222206	-101.234086	-0.222206	-101.234086	-19.189686	-8.742892
5.500000	-18.919003	-9.814942	-0.228847	-102.213782	-0.228847	-102.213782	-18.917711	-9.746396
5.550000	-18.652015	-10.817182	-0.235697	-103.194627	-0.235697	-103.194627	-18.650747	-10.749643
5.600000	-18.389895	-11.819267	-0.242763	-104.176607	-0.242763	-104.176607	-18.388650	-11.752695
5.650000	-18.132475	-12.821246	-0.250050	-105.159718	-0.250050	-105.159718	-18.131251	-12.755604
5.700000	-17.879628	-13.823164	-0.257563	-106.143943	-0.257563	-106.143943	-17.878426	-13.758417
5.750000	-17.631267	-14.825058	-0.265304	-107.129252	-0.265304	-107.129252	-17.630084	-14.761172
5.800000	-17.387274	-15.826957	-0.273277	-108.115627	-0.273277	-108.115627	-17.386110	-15.763901
5.850000	-17.147539	-16.828882	-0.281485	-109.103046	-0.281485	-109.103046	-17.146393	-16.766626
5.900000	-16.911956	-17.830851	-0.289934	-110.091489	-0.289934	-110.091489	-16.910828	-17.769366
5.950000	-16.680427	-18.832875	-0.298626	-111.080935	-0.298626	-111.080935	-16.679316	-18.772135
6.000000	-16.452857	-19.834961	-0.307566	-112.071359	-0.307566	-112.071359	-16.451761	-19.774938
6.050000	-16.229154	-20.837109	-0.316758	-113.062738	-0.316758	-113.062738	-16.228074	-20.777780
6.100000	-16.009233	-21.839317	-0.326204	-114.055047	-0.326204	-114.055047	-16.008167	-21.780658
6.150000	-15.793011	-22.841578	-0.335909	-115.048259	-0.335909	-115.048259	-15.791959	-22.783567
6.200000	-15.580410	-23.843882	-0.345875	-116.042348	-0.345875	-116.042348	-15.579371	-23.786497
6.250000	-15.371354	-24.846215	-0.356107	-117.037285	-0.356107	-117.037285	-15.370328	-24.789435
6.300000	-15.165740	-25.848558	-0.366612	-118.033059	-0.366612	-118.033059	-15.164727	-25.792365
6.350000	-14.963534	-26.850893	-0.377389	-119.029620	-0.377389	-119.029620	-14.962533	-26.795265
6.400000	-14.764669	-27.853194	-0.388440	-120.026939	-0.388440	-120.026939	-14.763679	-27.798116
6.450000	-14.569081	-28.855438	-0.399768	-121.024982	-0.399768	-121.024982	-14.568102	-28.800890
6.500000	-14.376707	-29.857597	-0.411376	-122.023718	-0.411376	-122.023718	-14.375739	-29.803563
6.550000	-14.187489	-30.859640	-0.423265	-123.023113	-0.423265	-123.023113	-14.186530	-30.806104
6.600000	-14.001369	-31.861537	-0.435439	-124.023132	-0.435439	-124.023132	-14.000420	-31.808484
6.650000	-13.818291	-32.863255	-0.447898	-125.023741	-0.447898	-125.023741	-13.817351	-32.810670
6.700000	-13.638130	-33.864735	-0.460673	-126.024955	-0.460673	-126.024955	-13.637199	-33.812602
6.750000	-13.460978	-34.865984	-0.473713	-127.026637	-0.473713	-127.026637	-13.460056	-34.814291
6.800000	-13.286715	-35.866947	-0.487045	-128.028798	-0.487045	-128.028798	-13.285802	-35.815680
6.850000	-13.115293	-36.867586	-0.500670	-129.031401	-0.500670	-129.031401	-13.114387	-36.816733
6.900000	-12.946663	-37.867865	-0.514588	-130.034406	-0.514588	-130.034406	-12.945765	-37.817412
6.950000	-12.780781	-38.867744	-0.528801	-131.037776	-0.528801	-131.037776	-12.779890	-38.817680
7.000000	-12.617602	-39.867185	-0.543310	-132.041471	-0.543310	-132.041471	-12.616718	-39.817498
7.050000	-12.457083	-40.866148	-0.558115	-133.045450	-0.558115	-133.045450	-12.456206	-40.816827
7.100000	-12.299203	-41.864645	-0.573193	-134.049658	-0.573193	-134.049658	-12.298332	-41.815679
7.150000	-12.143873	-42.862534	-0.588594	-135.054092	-0.588594	-135.054092	-12.143009	-42.813913
7.200000	-11.991083	-43.859829	-0.604291	-136.058688	-0.604291	-136.058688	-11.990224	-43.811542
7.250000	-11.840793	-44.856491	-0.620285	-137.063405	-0.620285	-137.063405	-11.839940	-44.808528
7.300000	-11.692966	-45.852482	-0.636574	-138.068202	-0.636574	-138.068202	-11.692119	-45.804833
7.350000	-11.547565	-46.847763	-0.653157	-139.073037	-0.653157	-139.073037	-11.546723	-46.800420
7.400000	-11.404555	-47.842300	-0.670035	-140.077869	-0.670035	-140.077869	-11.403719	-47.795252
7.450000	-11.263901	-48.836054	-0.687205	-141.082654	-0.687205	-141.082654	-11.263069	-48.789294
7.500000	-11.125569	-49.828991	-0.704667	-142.087353	-0.704667	-142.087353	-11.124742	-49.782509
7.550000	-10.989529	-50.821056	-0.722423	-143.091919	-0.722423	-143.091919	-10.988706	-50.774844
7.600000	-10.855747	-51.812234	-0.740467	-144.096312	-0.740467	-144.096312	-10.854928	-51.766284
7.650000	-10.724191	-52.802491	-0.758796	-145.100491	-0.758796	-145.100491	-10.723376	-52.756794
7.700000	-10.594830	-53.791796	-0.777408	-146.104415	-0.777408	-146.104415	-10.594019	-53.746345
7.750000	-10.467634	-54.780117	-0.796301	-147.108042	-0.796301	-147.108042	-10.466827	-54.734905
7.800000	-10.342575	-55.767425	-0.815471	-148.111333	-0.815471	-148.111333	-10.341771	-55.722443
7.850000	-10.219622	-56.753690	-0.834915	-149.114245	-0.834915	-149.114245	-10.218822	-56.708932
7.900000	-10.098748	-57.738886	-0.854631	-150.116740	-0.854631	-150.116740	-10.097951	-57.694344
7.950000	-9.979925	-58.722984	-0.874614	-151.118778	-0.874614	-151.118778	-9.979132	-58.678652
8.000000	-9.863128	-59.705959	-0.894861	-152.120320	-0.894861	-152.120320	-9.862337	-59.661830
8.050000	-9.748329	-60.687786	-0.915368	-153.121327	-0.915368	-153.121327	-9.747541	-60.643854
8.100000	-9.635503	-61.668442	-0.936131	-154.121762	-0.936131	-154.121762	-9.634718	-61.624700
8.150000	-9.524631	-62.647891	-0.957147	-155.121581	-0.957147	-155.121581	-9.523849	-62.604332
8.200000	-9.415691	-63.626110	-0.978411	-156.120745	-0.978411	-156.120745	-9.414911	-63.582727
8.250000	-9.308652	-64.603091	-0.999917	-157.119226	-0.999917	-157.119226	-9.307874	-64.559879
8.300000	-9.203492	-65.578815	-1.021660	-158.116989	-1.021660	-158.116989	-9.202716	-65.535768
8.350000	-9.100189	-66.553262	-1.043634	-159.114000	-1.043634	-159.114000	-9.099415	-66.510373
8.400000	-8.998720	-67.526414	-1.065834	-160.110226	-1.065834	-160.110226	-8.997948	-67.483678
8.450000	-8.899064	-68.498254	-1.088253	-161.105636	-1.088253	-161.105636	-8.898294	-68.455665
8.500000	-8.801201	-69.468764	-1.110887	-162.100197	-1.110887	-162.100197	-8.800433	-69.426316
8.550000	-8.705111	-70.437929	-1.133730	-163.093880	-1.133730	-163.093880	-8.704344	-70.395617
8.600000	-8.610774	-71.405733	-1.156774	-164.086656	-1.156774	-164.086656	-8.610008	-71.363551
8.650000	-8.518170	-72.372161	-1.180014	-165.078498	-1.180014	-165.078498	-8.517407	-72.330103
8.700000	-8.427283	-73.337197	-1.203443	-166.069377	-1.203443	-166.069377	-8.426520	-73.295258
8.750000	-8.338093	-74.300828	-1.227054	-167.059270	-1.227054	-167.059270	-8.337332	-74.259002
8.800000	-8.250601	-75.263009	-1.250843	-168.048130	-1.250843	-168.048130	-8.249841	-75.221290
8.850000	-8.164773	-76.223754	-1.274800	-169.035954	-1.274800	-169.035954	-8.164014	-76.182139
8.900000	-8.080593	-77.183052	-1.298917	-170.022721	-1.298917	-170.022721	-8.079835	-77.141533
8.950000	-7.998046	-78.140888	-1.323188	-171.008412	-1.323188	-171.008412	-7.997288	-78.099461
9.000000	-7.917161	-79.097167	-1.347609	-171.992946	-1.347609	-171.992946	-7.916404	-79.055826
9.050000	-7.837842	-80.052019	-1.372164	-172.976414	-1.372164	-172.976414	-7.837086	-80.010759
9.100000	-7.760111	-81.005367	-1.396850	-173.958752	-1.396850	-173.958752	-7.759355	-80.964183
9.150000	-7.683953	-81.957195	-1.421658	-174.939947	-1.421658	-174.939947	-7.683198	-81.916082
9.200000	-7.609356	-82.907489	-1.446581	-175.919983	-1.446581	-175.919983	-7.608601	-82.866441
9.250000	-7.536306	-83.856232	-1.471610	-176.898851	-1.471610	-176.898851	-7.535551	-83.815245
9.300000	-7.464790	-84.803410	-1.496737	-177.876540	-1.496737	-177.876540	-7.464036	-84.762478
9.350000	-7.394797	-85.749005	-1.521954	-178.853041	-1.521954	-178.853041	-7.394042	-85.708122
9.400000	-7.326314	-86.692999	-1.547253	-179.828347	-1.547253	-179.828347	-7.325559	-86.652161
9.450000	-7.259330	-87.635375	-1.572625	179.197547	-1.572625	179.197547	-7.258575	-87.594577
9.500000	-7.193833	-88.576113	-1.598062	178.224645	-1.598062	178.224645	-7.193078	-88.535349
9.550000	-7.129814	-89.515193	-1.623554	177.252949	-1.623554	177.252949	-7.129058	-89.474459
9.600000	-7.067261	-90.452595	-1.649094	176.282461	-1.649094	176.282461	-7.066504	-90.411885
9.650000	-7.006165	-91.388297	-1.674673	175.313179	-1.674673	175.313179	-7.005407	-91.347606
9.700000	-6.946516	-92.322274	-1.700281	174.345101	-1.700281	174.345101	-6.945757	-92.281597
9.750000	-6.888304	-93.254504	-1.725911	173.378222	-1.725911	173.378222	-6.887544	-93.213835
9.800000	-6.831520	-94.184959	-1.751553	172.412537	-1.751553	172.412537	-6.830759	-94.144294
9.850000	-6.776156	-95.113615	-1.777199	171.448039	-1.777199	171.448039	-6.775392	-95.072948
9.900000	-6.722201	-96.040442	-1.802839	170.484718	-1.802839	170.484718	-6.721436	-95.999769
9.950000	-6.669649	-96.965411	-1.828465	169.522563	-1.828465	169.522563	-6.668882	-96.924726
10.000000	-6.618491	-97.888492	-1.854068	168.561562	-1.854068	168.561562	-6.617721	-97.847790
