! freq	dB(S11)	phase(S11)	dB(S12)	phase(S12)	
!     	dB(S21)	phase(S21)	dB(S22)	phase(S22)	
!S-par simulation data
#  GHz  S  DB  R 50
0.000000	-0.000000	0.000000	-310.192254	0.000000	-310.192254	0.000000	-0.000000	0.000000
0.050000	-0.000105	-0.850060	-68.039200	88.677718	-68.039200	88.677718	-0.000105	-0.851533
0.100000	-0.000416	-1.699869	-62.067063	87.531401	-62.067063	87.531401	-0.000417	-1.702814
0.150000	-0.000921	-2.549192	-58.596200	86.570643	-58.596200	86.570643	-0.000924	-2.553608
0.200000	-0.001601	-3.397836	-56.139694	85.721945	-56.139694	85.721945	-0.001606	-3.403720
0.250000	-0.002443	-4.245577	-54.234572	84.926819	-54.234572	84.926819	-0.002451	-4.252925
0.300000	-0.003409	-5.092369	-52.676300	84.147589	-52.676300	84.147589	-0.003421	-5.101178
0.350000	-0.004482	-5.938091	-51.357698	83.371556	-51.357698	83.371556	-0.004497	-5.948356
0.400000	-0.005637	-6.782688	-50.214919	82.592446	-50.214919	82.592446	-0.005656	-6.794406
0.450000	-0.006853	-7.626137	-49.206877	81.808237	-49.206877	81.808237	-0.006876	-7.639304
0.500000	-0.008112	-8.468437	-48.305515	81.018719	-48.305515	81.018719	-0.008139	-8.483048
0.550000	-0.009396	-9.309604	-47.490792	80.224391	-47.490792	80.224391	-0.009427	-9.325655
0.600000	-0.010694	-10.149663	-46.747877	79.425972	-46.747877	79.425972	-0.010729	-10.167151
0.650000	-0.011994	-10.988645	-46.065483	78.624210	-46.065483	78.624210	-0.012034	-11.007565
0.700000	-0.013290	-11.826582	-45.434817	77.819796	-45.434817	77.819796	-0.013334	-11.846930
0.750000	-0.014576	-12.663503	-44.848894	77.013345	-44.848894	77.013345	-0.014623	-12.685277
0.800000	-0.015848	-13.499435	-44.302071	76.205395	-44.302071	76.205395	-0.015899	-13.522630
0.850000	-0.017104	-14.334400	-43.789725	75.396411	-43.789725	75.396411	-0.017159	-14.359012
0.900000	-0.018343	-15.168413	-43.308020	74.586798	-43.308020	74.586798	-0.018401	-15.194440
0.950000	-0.019565	-16.001485	-42.853739	73.776910	-42.853739	73.776910	-0.019627	-16.028923
1.000000	-0.020770	-16.833622	-42.424154	72.967058	-42.424154	72.967058	-0.020835	-16.862467
1.050000	-0.021959	-17.664824	-42.016936	72.157515	-42.016936	72.157515	-0.022028	-17.695073
1.100000	-0.023133	-18.495088	-41.630079	71.348527	-41.630079	71.348527	-0.023205	-18.526738
1.150000	-0.024293	-19.324407	-41.261840	70.540316	-41.261840	70.540316	-0.024369	-19.357454
1.200000	-0.025441	-20.152770	-40.910699	69.733082	-40.910699	69.733082	-0.025520	-20.187211
1.250000	-0.026578	-20.980164	-40.575320	68.927009	-40.575320	68.927009	-0.026660	-21.015994
1.300000	-0.027704	-21.806530	-40.254618	68.122331	-40.254618	68.122331	-0.027790	-21.843746
1.350000	-0.028822	-22.631893	-39.947450	67.319153	-39.947450	67.319153	-0.028911	-22.670490
1.400000	-0.029932	-23.456233	-39.652881	66.517623	-39.652881	66.517623	-0.030024	-23.496208
1.450000	-0.031036	-24.279530	-39.370075	65.717878	-39.370075	65.717878	-0.031131	-24.320879
1.500000	-0.032135	-25.101764	-39.098278	64.920048	-39.098278	64.920048	-0.032233	-25.144483
1.550000	-0.033229	-25.922913	-38.836810	64.124257	-38.836810	64.124257	-0.033330	-25.966998
1.600000	-0.034320	-26.742956	-38.585055	63.330624	-38.585055	63.330624	-0.034424	-26.788402
1.650000	-0.035407	-27.561869	-38.342455	62.539263	-38.342455	62.539263	-0.035514	-27.608672
1.700000	-0.036491	-28.379221	-38.109230	61.751162	-38.109230	61.751162	-0.036602	-28.427374
1.750000	-0.037575	-29.195964	-37.883161	60.964342	-37.883161	60.964342	-0.037688	-29.245466
1.800000	-0.038657	-30.011241	-37.665312	60.180725	-37.665312	60.180725	-0.038774	-30.062085
1.850000	-0.039739	-30.825470	-37.454528	59.399398	-37.454528	59.399398	-0.039858	-30.877653
1.900000	-0.040820	-31.638395	-37.250841	58.621029	-37.250841	58.621029	-0.040942	-31.691912
1.950000	-0.041901	-32.450015	-37.053879	57.845619	-37.053879	57.845619	-0.042026	-32.504861
2.000000	-0.042983	-33.260510	-36.863014	57.072844	-36.863014	57.072844	-0.043111	-33.316681
2.050000	-0.044065	-34.069430	-36.678624	56.303758	-36.678624	56.303758	-0.044197	-34.126918
2.100000	-0.045149	-34.877655	-36.499084	55.536334	-36.499084	55.536334	-0.045283	-34.936460
2.150000	-0.046234	-35.684080	-36.325766	54.773240	-36.325766	54.773240	-0.046372	-35.744193
2.200000	-0.047321	-36.489142	-36.157750	54.013475	-36.157750	54.013475	-0.047462	-36.550559
2.250000	-0.048411	-37.292821	-35.994817	53.257124	-35.994817	53.257124	-0.048554	-37.355537
2.300000	-0.049503	-38.095101	-35.836761	52.504269	-35.836761	52.504269	-0.049649	-38.159110
2.350000	-0.050597	-38.895961	-35.683389	51.754993	-35.683389	51.754993	-0.050747	-38.961258
2.400000	-0.051695	-39.695385	-35.534521	51.009375	-35.534521	51.009375	-0.051847	-39.761965
2.450000	-0.052796	-40.493354	-35.389985	50.267494	-35.389985	50.267494	-0.052951	-40.561212
2.500000	-0.053900	-41.289853	-35.249620	49.529430	-35.249620	49.529430	-0.054059	-41.358983
2.550000	-0.055009	-42.084800	-35.113351	48.795430	-35.113351	48.795430	-0.055170	-42.155196
2.600000	-0.056122	-42.878242	-34.980955	48.065405	-34.980955	48.065405	-0.056286	-42.949899
2.650000	-0.057240	-43.670165	-34.852294	47.339430	-34.852294	47.339430	-0.057407	-43.743077
2.700000	-0.058362	-44.460553	-34.727238	46.617578	-34.727238	46.617578	-0.058532	-44.534715
2.750000	-0.059489	-45.249393	-34.605664	45.899920	-34.605664	45.899920	-0.059663	-45.324799
2.800000	-0.060623	-46.036670	-34.487453	45.186530	-34.487453	45.186530	-0.060799	-46.113315
2.850000	-0.061761	-46.822371	-34.372494	44.477476	-34.372494	44.477476	-0.061941	-46.900249
2.900000	-0.062906	-47.606483	-34.260679	43.772829	-34.260679	43.772829	-0.063089	-47.685589
2.950000	-0.064058	-48.388993	-34.151906	43.072657	-34.151906	43.072657	-0.064243	-48.469322
3.000000	-0.065216	-49.169891	-34.046077	42.377027	-34.046077	42.377027	-0.065405	-49.251436
3.050000	-0.066382	-49.949164	-33.943098	41.686006	-33.943098	41.686006	-0.066574	-50.031920
3.100000	-0.067555	-50.726802	-33.842878	40.999659	-33.842878	40.999659	-0.067750	-50.810763
3.150000	-0.068736	-51.502793	-33.745331	40.318050	-33.745331	40.318050	-0.068934	-51.587954
3.200000	-0.069926	-52.277128	-33.650374	39.641242	-33.650374	39.641242	-0.070126	-52.363484
3.250000	-0.071124	-53.049798	-33.557926	38.969299	-33.557926	38.969299	-0.071328	-53.137343
3.300000	-0.072331	-53.820794	-33.467909	38.302282	-33.467909	38.302282	-0.072538	-53.909521
3.350000	-0.073549	-54.589811	-33.380496	37.641135	-33.380496	37.641135	-0.073759	-54.679715
3.400000	-0.074777	-55.357063	-33.295424	36.985254	-33.295424	36.985254	-0.074991	-55.448139
3.450000	-0.076012	-56.123426	-33.211895	36.332058	-33.211895	36.332058	-0.076228	-56.215670
3.500000	-0.077262	-56.887122	-33.131292	35.686919	-33.131292	35.686919	-0.077481	-56.980526
3.550000	-0.078516	-57.650220	-33.051890	35.043610	-33.051890	35.043610	-0.078739	-57.744781
3.600000	-0.079790	-58.410330	-32.975484	34.409454	-32.975484	34.409454	-0.080016	-58.506041
3.650000	-0.081066	-59.170140	-32.899965	33.776233	-32.899965	33.776233	-0.081296	-59.266998
3.700000	-0.082366	-59.926641	-32.827499	33.153294	-32.827499	33.153294	-0.082598	-60.024637
3.750000	-0.083665	-60.683142	-32.755633	32.530354	-32.755633	32.530354	-0.083901	-60.782276
3.800000	-0.084992	-61.436015	-32.686862	31.918851	-32.686862	31.918851	-0.085231	-61.536275
3.850000	-0.086319	-62.188887	-32.618631	31.307347	-32.618631	31.307347	-0.086561	-62.290274
3.900000	-0.087672	-62.938419	-32.553121	30.706519	-32.553121	30.706519	-0.087918	-63.040923
3.950000	-0.089028	-63.687647	-32.488299	30.106661	-32.488299	30.106661	-0.089277	-63.791267
4.000000	-0.090409	-64.433828	-32.425846	29.516670	-32.425846	29.516670	-0.090661	-64.538556
4.050000	-0.091796	-65.179400	-32.364215	28.928654	-32.364215	28.928654	-0.092051	-65.285233
4.100000	-0.093207	-65.922225	-32.304627	28.349655	-32.304627	28.349655	-0.093466	-66.029156
4.150000	-0.094626	-66.664134	-32.245977	27.773663	-32.245977	27.773663	-0.094889	-66.772160
4.200000	-0.096068	-67.403598	-32.189067	27.205799	-32.189067	27.205799	-0.096334	-67.512713
4.250000	-0.097522	-68.141841	-32.133196	26.641999	-32.133196	26.641999	-0.097791	-68.252041
4.300000	-0.098996	-68.877945	-32.078785	26.085400	-32.078785	26.085400	-0.099270	-68.989225
4.350000	-0.100487	-69.612522	-32.025495	25.533946	-32.025495	25.533946	-0.100763	-69.724878
4.400000	-0.101996	-70.345268	-31.973411	24.988732	-31.973411	24.988732	-0.102276	-70.458695
4.450000	-0.103524	-71.076184	-31.922512	24.449758	-31.922512	24.449758	-0.103808	-71.190678
4.500000	-0.105069	-71.805578	-31.872588	23.916034	-31.872588	23.916034	-0.105357	-71.921135
4.550000	-0.106637	-72.532842	-31.823893	23.389659	-31.823893	23.389659	-0.106929	-72.649456
4.600000	-0.108219	-73.258892	-31.775966	22.867515	-31.775966	22.867515	-0.108515	-73.376561
4.650000	-0.109829	-73.982516	-31.729291	22.353835	-31.729291	22.353835	-0.110129	-74.101233
4.700000	-0.111450	-74.705234	-31.683204	21.843348	-31.683204	21.843348	-0.111753	-74.824998
4.750000	-0.113104	-75.425234	-31.638370	21.342439	-31.638370	21.342439	-0.113411	-75.546038
4.800000	-0.114765	-76.144633	-31.593968	20.843666	-31.593968	20.843666	-0.115076	-76.266477
4.850000	-0.116465	-76.861030	-31.550798	20.355578	-31.550798	20.355578	-0.116780	-76.983906
4.900000	-0.118168	-77.577128	-31.507931	19.868560	-31.507931	19.868560	-0.118487	-77.701036
4.950000	-0.119914	-78.289943	-31.466251	19.393318	-31.466251	19.393318	-0.120238	-78.414876
5.000000	-0.121661	-79.002759	-31.424769	18.918076	-31.424769	18.918076	-0.121989	-79.128717
5.050000	-0.123457	-79.712022	-31.384406	18.455675	-31.384406	18.455675	-0.123788	-79.838997
5.100000	-0.125253	-80.421284	-31.344230	17.993275	-31.344230	17.993275	-0.125588	-80.549277
5.150000	-0.127095	-81.127317	-31.304949	17.542613	-31.304949	17.542613	-0.127435	-81.256321
5.200000	-0.128942	-81.833056	-31.265909	17.093019	-31.265909	17.093019	-0.129286	-81.963071
5.250000	-0.130833	-82.535887	-31.227567	16.654038	-31.227567	16.654038	-0.131181	-82.666908
5.300000	-0.132732	-83.238136	-31.189497	16.217180	-31.189497	16.217180	-0.133085	-83.370162
5.350000	-0.134673	-83.937796	-31.151952	15.789795	-31.151952	15.789795	-0.135030	-84.070822
5.400000	-0.136627	-84.636593	-31.114687	15.365567	-31.114687	15.365567	-0.136989	-84.770618
5.450000	-0.138618	-85.333115	-31.077799	14.949661	-31.077799	14.949661	-0.138985	-85.468134
5.500000	-0.140629	-86.028499	-31.041175	14.537917	-31.041175	14.537917	-0.141000	-86.164512
5.550000	-0.142673	-86.721917	-31.004807	14.133344	-31.004807	14.133344	-0.143048	-86.858920
5.600000	-0.144741	-87.413932	-30.968663	13.733894	-30.968663	13.733894	-0.145122	-87.551923
5.650000	-0.146840	-88.104285	-30.932679	13.340474	-30.932679	13.340474	-0.147225	-88.243262
5.700000	-0.148968	-88.792976	-30.896854	12.953084	-30.896854	12.953084	-0.149358	-88.932937
5.750000	-0.151122	-89.480302	-30.861122	12.570601	-30.861122	12.570601	-0.151517	-89.621246
5.800000	-0.153312	-90.165719	-30.825459	12.194988	-30.825459	12.194988	-0.153711	-90.307642
5.850000	-0.155523	-90.850061	-30.789847	11.823190	-30.789847	11.823190	-0.155927	-90.992963
5.900000	-0.157776	-91.532255	-30.754192	11.459021	-30.754192	11.459021	-0.158185	-91.676133
5.950000	-0.160046	-92.213657	-30.718573	11.097616	-30.718573	11.097616	-0.160460	-92.358511
6.000000	-0.162364	-92.892683	-30.682773	10.744504	-30.682773	10.744504	-0.162783	-93.038510
6.050000	-0.164693	-93.571191	-30.647022	10.393162	-30.647022	10.393162	-0.165118	-93.717990
6.100000	-0.167078	-94.247106	-30.610930	10.050668	-30.610930	10.050668	-0.167508	-94.394876
6.150000	-0.169469	-94.922767	-30.574925	9.709017	-30.574925	9.709017	-0.169904	-95.071507
6.200000	-0.171922	-95.595631	-30.538397	9.376643	-30.538397	9.376643	-0.172362	-95.745340
6.250000	-0.174376	-96.268495	-30.502023	9.044270	-30.502023	9.044270	-0.174821	-96.419173
6.300000	-0.176899	-96.938370	-30.464921	8.721465	-30.464921	8.721465	-0.177350	-97.090016
6.350000	-0.179422	-97.608246	-30.427978	8.398660	-30.427978	8.398660	-0.179879	-97.760859
6.400000	-0.182011	-98.275441	-30.390256	8.084069	-30.390256	8.084069	-0.182473	-98.429020
6.450000	-0.184607	-98.942393	-30.352613	7.770225	-30.352613	7.770225	-0.185074	-99.096939
6.500000	-0.187263	-99.606964	-30.314170	7.463296	-30.314170	7.463296	-0.187736	-99.762476
6.550000	-0.189932	-100.271059	-30.275704	7.157751	-30.275704	7.157751	-0.190411	-100.427537
6.600000	-0.192656	-100.933063	-30.236444	6.857893	-30.236444	6.857893	-0.193141	-101.090508
6.650000	-0.195400	-101.594371	-30.197040	6.559930	-30.197040	6.559930	-0.195891	-101.752782
6.700000	-0.198195	-102.253869	-30.156874	6.266515	-30.156874	6.266515	-0.198691	-102.413247
6.750000	-0.201015	-102.912461	-30.116426	5.975373	-30.116426	5.975373	-0.201517	-103.072807
6.800000	-0.203881	-103.569513	-30.075275	5.687737	-30.075275	5.687737	-0.204389	-103.730826
6.850000	-0.206779	-104.225464	-30.033685	5.402606	-30.033685	5.402606	-0.207294	-104.387746
6.900000	-0.209718	-104.880132	-29.991476	5.120057	-29.991476	5.120057	-0.210238	-105.043384
6.950000	-0.212696	-105.533518	-29.948659	4.840090	-29.948659	4.840090	-0.213223	-105.697740
7.000000	-0.215708	-106.185868	-29.905331	4.561907	-29.905331	4.561907	-0.216241	-106.351062
7.050000	-0.218768	-106.836766	-29.861212	4.286223	-29.861212	4.286223	-0.219307	-107.002933
7.100000	-0.221855	-107.486862	-29.816711	4.011665	-29.816711	4.011665	-0.222401	-107.654004
7.150000	-0.224998	-108.135354	-29.771229	3.739359	-29.771229	3.739359	-0.225550	-108.303472
7.200000	-0.228162	-108.783264	-29.725510	3.467666	-29.725510	3.467666	-0.228720	-108.952360
7.250000	-0.231389	-109.429431	-29.678616	3.197816	-29.678616	3.197816	-0.231953	-109.599507
7.300000	-0.234630	-110.075225	-29.631647	2.928220	-29.631647	2.928220	-0.235202	-110.246281
7.350000	-0.237943	-110.719152	-29.583304	2.659896	-29.583304	2.659896	-0.238521	-110.891193
7.400000	-0.241264	-111.362899	-29.535062	2.391622	-29.535062	2.391622	-0.241848	-111.535925
7.450000	-0.244664	-112.004671	-29.485249	2.123898	-29.485249	2.123898	-0.245255	-112.178686
7.500000	-0.248065	-112.646443	-29.435720	1.856174	-29.435720	1.856174	-0.248663	-112.821448
7.550000	-0.251554	-113.286149	-29.384429	1.588135	-29.384429	1.588135	-0.252158	-113.462150
7.600000	-0.255044	-113.925855	-29.333438	1.320097	-29.333438	1.320097	-0.255655	-114.102851
7.650000	-0.258615	-114.563750	-29.280845	1.050955	-29.280845	1.050955	-0.259234	-114.741747
7.700000	-0.262195	-115.201480	-29.228397	0.781712	-29.228397	0.781712	-0.262821	-115.380478
7.750000	-0.265851	-115.837639	-29.174524	0.510750	-29.174524	0.510750	-0.266483	-116.017645
7.800000	-0.269522	-116.473485	-29.120637	0.239446	-29.120637	0.239446	-0.270162	-116.654499
7.850000	-0.273263	-117.107987	-29.065512	-0.034016	-29.065512	-0.034016	-0.273910	-117.290016
7.900000	-0.277028	-117.742041	-29.010215	-0.308196	-29.010215	-0.308196	-0.277682	-117.925087
7.950000	-0.280855	-118.374966	-28.953877	-0.584800	-28.953877	-0.584800	-0.281516	-118.559033
8.000000	-0.284714	-119.007325	-28.897211	-0.862617	-28.897211	-0.862617	-0.285383	-119.192417
8.050000	-0.288628	-119.638752	-28.839706	-1.142963	-28.839706	-1.142963	-0.289305	-119.824873
8.100000	-0.292583	-120.269513	-28.781723	-1.425116	-28.781723	-1.425116	-0.293267	-120.456668
8.150000	-0.296586	-120.899525	-28.723103	-1.709753	-28.723103	-1.709753	-0.297277	-121.087718
8.200000	-0.300637	-121.528787	-28.663862	-1.996875	-28.663862	-1.996875	-0.301336	-121.718024
8.250000	-0.304730	-122.157467	-28.604185	-2.286299	-28.604185	-2.286299	-0.305436	-122.347751
8.300000	-0.308880	-122.785332	-28.543754	-2.578948	-28.543754	-2.578948	-0.309594	-122.976669
8.350000	-0.313063	-123.412765	-28.483085	-2.873598	-28.483085	-2.873598	-0.313784	-123.605159
8.400000	-0.317311	-124.039334	-28.421536	-3.172251	-28.421536	-3.172251	-0.318041	-124.232793
8.450000	-0.321586	-124.665605	-28.359941	-3.472506	-28.359941	-3.472506	-0.322324	-124.860133
8.500000	-0.325935	-125.290984	-28.297352	-3.777563	-28.297352	-3.777563	-0.326681	-125.486588
8.550000	-0.330303	-125.916182	-28.234901	-4.083740	-28.234901	-4.083740	-0.331056	-126.112865
8.600000	-0.334753	-126.540477	-28.171353	-4.395515	-28.171353	-4.395515	-0.335515	-126.738249
8.650000	-0.339214	-127.164691	-28.108116	-4.707869	-28.108116	-4.707869	-0.339984	-127.363552
8.700000	-0.343767	-127.788010	-28.043691	-5.026593	-28.043691	-5.026593	-0.344545	-127.987973
8.750000	-0.348323	-128.411329	-27.979740	-5.345317	-27.979740	-5.345317	-0.349108	-128.612395
8.800000	-0.352979	-129.033782	-27.914518	-5.671140	-27.914518	-5.671140	-0.353773	-129.235965
8.850000	-0.357638	-129.656236	-27.849781	-5.996963	-27.849781	-5.996963	-0.358440	-129.859535
8.900000	-0.362391	-130.277999	-27.783983	-6.329358	-27.783983	-6.329358	-0.363201	-130.482428
8.950000	-0.367154	-130.899700	-27.718540	-6.662350	-27.718540	-6.662350	-0.367973	-131.105259
9.000000	-0.372003	-131.520867	-27.652231	-7.001314	-27.652231	-7.001314	-0.372831	-131.727571
9.050000	-0.376872	-132.141928	-27.586155	-7.341471	-27.586155	-7.341471	-0.377708	-132.349778
9.100000	-0.381819	-132.762597	-27.519398	-7.686948	-27.519398	-7.686948	-0.382663	-132.971606
9.150000	-0.386794	-133.383136	-27.452759	-8.034197	-27.452759	-8.034197	-0.387647	-133.593307
9.200000	-0.391839	-134.003404	-27.385611	-8.386081	-27.385611	-8.386081	-0.392701	-134.214750
9.250000	-0.396921	-134.623537	-27.318474	-8.740283	-27.318474	-8.740283	-0.397791	-134.836063
9.300000	-0.402065	-135.243504	-27.250987	-9.098427	-27.250987	-9.098427	-0.402944	-135.457221
9.350000	-0.407255	-135.863353	-27.183407	-9.459387	-27.183407	-9.459387	-0.408142	-136.078267
9.400000	-0.412498	-136.483120	-27.115627	-9.823603	-27.115627	-9.823603	-0.413395	-136.699242
9.450000	-0.417796	-137.102806	-27.047654	-10.191075	-27.047654	-10.191075	-0.418701	-137.320145
9.500000	-0.423139	-137.722477	-26.979620	-10.561140	-26.979620	-10.561140	-0.424053	-137.941041
9.550000	-0.428545	-138.342125	-26.911295	-10.934834	-26.911295	-10.934834	-0.429469	-138.561926
9.600000	-0.433989	-138.961804	-26.843039	-11.310495	-26.843039	-11.310495	-0.434921	-139.182847
9.650000	-0.439504	-139.581541	-26.774393	-11.690089	-26.774393	-11.690089	-0.440446	-139.803841
9.700000	-0.445049	-140.201333	-26.705940	-12.071069	-26.705940	-12.071069	-0.445999	-140.424895
9.750000	-0.450673	-140.821289	-26.636996	-12.456209	-26.636996	-12.456209	-0.451633	-141.046129
9.800000	-0.456318	-141.441302	-26.568365	-12.842211	-26.568365	-12.842211	-0.457287	-141.667425
9.850000	-0.462053	-142.061607	-26.499134	-13.232524	-26.499134	-13.232524	-0.463030	-142.289030
9.900000	-0.467799	-142.681953	-26.430335	-13.623236	-26.430335	-13.623236	-0.468786	-142.910678
9.950000	-0.473643	-143.302741	-26.360820	-14.018335	-26.360820	-14.018335	-0.474639	-143.532789
10.000000	-0.479491	-143.923530	-26.291857	-14.413434	-26.291857	-14.413434	-0.480496	-144.154901
