! freq	dB(S11)	phase(S11)	dB(S12)	phase(S12)	
!     	dB(S21)	phase(S21)	dB(S22)	phase(S22)	
!S-par simulation data
#  GHz  S  DB  R 50
0.000000	-0.000000	0.000000	-325.342969	180.000000	-325.342969	180.000000	-0.000000	0.000000
0.050000	-0.000107	-0.868916	-70.052079	87.931012	-70.052079	87.931012	-0.000107	-0.868839
0.100000	-0.000423	-1.737575	-64.170921	86.761189	-64.170921	86.761189	-0.000423	-1.737420
0.150000	-0.000937	-2.605737	-60.740462	86.010973	-60.740462	86.010973	-0.000937	-2.605504
0.200000	-0.001629	-3.473202	-58.295407	85.337677	-58.295407	85.337677	-0.001629	-3.472890
0.250000	-0.002487	-4.339739	-56.390836	84.648026	-56.390836	84.648026	-0.002487	-4.339350
0.300000	-0.003471	-5.205301	-54.830480	83.929987	-54.830480	83.929987	-0.003471	-5.204835
0.350000	-0.004563	-6.069761	-53.509447	83.185755	-53.509447	83.185755	-0.004563	-6.069217
0.400000	-0.005740	-6.933062	-52.364721	82.420903	-52.364721	82.420903	-0.005740	-6.932440
0.450000	-0.006979	-7.795176	-51.355406	81.640446	-51.355406	81.640446	-0.006979	-7.794478
0.500000	-0.008261	-8.656102	-50.453427	80.848282	-50.453427	80.848282	-0.008261	-8.655326
0.550000	-0.009570	-9.515852	-49.638668	80.047338	-49.638668	80.047338	-0.009570	-9.514999
0.600000	-0.010892	-10.374450	-48.896222	79.239810	-48.896222	79.239810	-0.010891	-10.373520
0.650000	-0.012217	-11.231926	-48.214735	78.427359	-48.214735	78.427359	-0.012216	-11.230919
0.700000	-0.013536	-12.088311	-47.585360	77.611268	-47.585360	77.611268	-0.013535	-12.087227
0.750000	-0.014845	-12.943633	-47.001068	76.792537	-47.001068	76.792537	-0.014844	-12.942473
0.800000	-0.016139	-13.797917	-46.456185	75.971969	-46.456185	75.971969	-0.016138	-13.796681
0.850000	-0.017417	-14.651185	-45.946062	75.150212	-45.946062	75.150212	-0.017416	-14.649873
0.900000	-0.018677	-15.503451	-45.466843	74.327803	-45.466843	74.327803	-0.018676	-15.502063
0.950000	-0.019918	-16.354725	-45.015294	73.505196	-45.015294	73.505196	-0.019917	-16.353261
1.000000	-0.021142	-17.205012	-44.588677	72.682775	-44.588677	72.682775	-0.021141	-17.203472
1.050000	-0.022349	-18.054310	-44.184652	71.860876	-44.184652	71.860876	-0.022348	-18.052695
1.100000	-0.023540	-18.902616	-43.801205	71.039793	-43.801205	71.039793	-0.023539	-18.900926
1.150000	-0.024717	-19.749920	-43.436588	70.219790	-43.436588	70.219790	-0.024715	-19.748155
1.200000	-0.025880	-20.596211	-43.089276	69.401103	-43.089276	69.401103	-0.025878	-20.594371
1.250000	-0.027030	-21.441474	-42.757929	68.583949	-42.757929	68.583949	-0.027029	-21.439560
1.300000	-0.028170	-22.285646	-42.441481	67.768613	-42.441481	67.768613	-0.028168	-22.283657
1.350000	-0.029301	-23.128753	-42.138764	66.955212	-42.138764	66.955212	-0.029299	-23.126690
1.400000	-0.030423	-23.970773	-41.848841	66.143921	-41.848841	66.143921	-0.030421	-23.968636
1.450000	-0.031538	-24.811686	-41.570873	65.334905	-41.570873	65.334905	-0.031536	-24.809476
1.500000	-0.032648	-25.651470	-41.304105	64.528320	-41.304105	64.528320	-0.032645	-25.649186
1.550000	-0.033752	-26.490100	-41.047858	63.724317	-41.047858	63.724317	-0.033749	-26.487743
1.600000	-0.034851	-27.327554	-40.801513	62.923042	-40.801513	62.923042	-0.034849	-27.325124
1.650000	-0.035947	-28.163808	-40.564510	62.124635	-40.564510	62.124635	-0.035945	-28.161305
1.700000	-0.037040	-28.998402	-40.337244	61.330343	-40.337244	61.330343	-0.037037	-28.995826
1.750000	-0.038131	-29.832348	-40.117079	60.537666	-40.117079	60.537666	-0.038129	-29.829701
1.800000	-0.039221	-30.664736	-39.905434	59.749033	-39.905434	59.749033	-0.039218	-30.662017
1.850000	-0.040309	-31.496011	-39.700968	58.963290	-39.700968	58.963290	-0.040306	-31.493220
1.900000	-0.041396	-32.325899	-39.503812	58.181289	-39.503812	58.181289	-0.041394	-32.323036
1.950000	-0.042484	-33.154400	-39.313581	57.403030	-39.313581	57.403030	-0.042481	-33.151466
2.000000	-0.043571	-33.981704	-39.129571	56.628113	-39.129571	56.628113	-0.043568	-33.978700
2.050000	-0.044659	-34.807334	-38.952319	55.857874	-38.952319	55.857874	-0.044656	-34.804260
2.100000	-0.045748	-35.632227	-38.779874	55.089750	-38.779874	55.089750	-0.045745	-35.629082
2.150000	-0.046838	-36.455205	-38.613999	54.327137	-38.613999	54.327137	-0.046835	-36.451990
2.200000	-0.047930	-37.276734	-38.453605	53.568772	-38.453605	53.568772	-0.047927	-37.273450
2.250000	-0.049023	-38.096796	-38.298473	52.814774	-38.298473	52.814774	-0.049020	-38.093442
2.300000	-0.050119	-38.915368	-38.148397	52.065257	-38.148397	52.065257	-0.050116	-38.911946
2.350000	-0.051218	-39.732434	-38.003183	51.320336	-38.003183	51.320336	-0.051215	-39.728942
2.400000	-0.052319	-40.547972	-37.862648	50.580127	-37.862648	50.580127	-0.052316	-40.544412
2.450000	-0.053424	-41.361967	-37.726621	49.844743	-37.726621	49.844743	-0.053421	-41.358339
2.500000	-0.054532	-42.174399	-37.594938	49.114297	-37.594938	49.114297	-0.054529	-42.170703
2.550000	-0.055644	-42.985182	-37.467542	48.389126	-37.467542	48.389126	-0.055641	-42.981419
2.600000	-0.056761	-43.794368	-37.344188	47.669129	-37.344188	47.669129	-0.056757	-43.790538
2.650000	-0.057882	-44.601941	-37.224738	46.954416	-37.224738	46.954416	-0.057878	-44.598043
2.700000	-0.059007	-45.407884	-37.109059	46.245098	-37.109059	46.245098	-0.059004	-45.403920
2.750000	-0.060138	-46.212183	-36.997026	45.541285	-36.997026	45.541285	-0.060134	-46.208153
2.800000	-0.061275	-47.014824	-36.888518	44.843088	-36.888518	44.843088	-0.061271	-47.010728
2.850000	-0.062417	-47.815792	-36.783422	44.150615	-36.783422	44.150615	-0.062413	-47.811631
2.900000	-0.063566	-48.615075	-36.681626	43.463975	-36.681626	43.463975	-0.063562	-48.610849
2.950000	-0.064721	-49.412659	-36.583027	42.783277	-36.583027	42.783277	-0.064717	-49.408368
3.000000	-0.065883	-50.208532	-36.487523	42.108628	-36.487523	42.108628	-0.065879	-50.204176
3.050000	-0.067052	-51.002682	-36.395017	41.440135	-36.395017	41.440135	-0.067048	-50.998262
3.100000	-0.068230	-51.795098	-36.305416	40.777905	-36.305416	40.777905	-0.068225	-51.790614
3.150000	-0.069415	-52.585770	-36.218629	40.122043	-36.218629	40.122043	-0.069410	-52.581222
3.200000	-0.070608	-53.374685	-36.134570	39.472654	-36.134570	39.472654	-0.070604	-53.370075
3.250000	-0.071811	-54.161836	-36.053154	38.829844	-36.053154	38.829844	-0.071807	-54.157163
3.300000	-0.073023	-54.947213	-35.974300	38.193715	-35.974300	38.193715	-0.073018	-54.942477
3.350000	-0.074246	-55.730495	-35.898232	37.565582	-35.898232	37.565582	-0.074242	-55.725696
3.400000	-0.075480	-56.511907	-35.824640	36.944639	-35.824640	36.944639	-0.075475	-56.507047
3.450000	-0.076720	-57.292378	-35.752548	36.327382	-35.752548	36.327382	-0.076715	-57.287456
3.500000	-0.077976	-58.070025	-35.683676	35.721185	-35.683676	35.721185	-0.077971	-58.065042
3.550000	-0.079236	-58.847040	-35.615908	35.117518	-35.615908	35.117518	-0.079231	-58.841995
3.600000	-0.080517	-59.620893	-35.551458	34.526500	-35.551458	34.526500	-0.080512	-59.615788
3.650000	-0.081800	-60.394428	-35.487751	33.936782	-35.487751	33.936782	-0.081795	-60.389263
3.700000	-0.083107	-61.164464	-35.427438	33.361366	-35.427438	33.361366	-0.083102	-61.159239
3.750000	-0.084414	-61.934500	-35.367540	32.785950	-35.367540	32.785950	-0.084409	-61.929215
3.800000	-0.085749	-62.700700	-35.311089	32.226545	-35.311089	32.226545	-0.085743	-62.695356
3.850000	-0.087084	-63.466899	-35.255003	31.667141	-35.255003	31.667141	-0.087078	-63.461496
3.900000	-0.088446	-64.229569	-35.201906	31.122779	-35.201906	31.122779	-0.088440	-64.224107
3.950000	-0.089811	-64.991917	-35.149370	30.579784	-35.149370	30.579784	-0.089805	-64.986397
4.000000	-0.091202	-65.751047	-35.099397	30.050782	-35.099397	30.050782	-0.091196	-65.745469
4.050000	-0.092599	-66.509535	-35.050157	29.524578	-35.050157	29.524578	-0.092593	-66.503899
4.100000	-0.094020	-67.265121	-35.003083	29.011240	-35.003083	29.011240	-0.094015	-67.259428
4.150000	-0.095451	-68.019741	-34.956889	28.502190	-34.956889	28.502190	-0.095445	-68.013991
4.200000	-0.096905	-68.771782	-34.912495	28.004803	-34.912495	28.004803	-0.096899	-68.765975
4.250000	-0.098371	-69.522534	-34.869101	27.513248	-34.869101	27.513248	-0.098365	-69.516670
4.300000	-0.099858	-70.271030	-34.827174	27.032084	-34.827174	27.032084	-0.099852	-70.265110
4.350000	-0.101361	-71.017916	-34.786336	26.558340	-34.786336	26.558340	-0.101355	-71.011940
4.400000	-0.102884	-71.762873	-34.746663	26.093647	-34.746663	26.093647	-0.102878	-71.756841
4.450000	-0.104427	-72.505900	-34.708139	25.638002	-34.708139	25.638002	-0.104420	-72.499813
4.500000	-0.105986	-73.247324	-34.670512	25.190005	-34.670512	25.190005	-0.105980	-73.241182
4.550000	-0.107570	-73.986504	-34.634060	24.752713	-34.634060	24.752713	-0.107564	-73.980307
4.600000	-0.109168	-74.724407	-34.598271	24.321610	-34.598271	24.321610	-0.109162	-74.718155
4.650000	-0.110795	-75.459754	-34.563649	23.902885	-34.563649	23.902885	-0.110788	-75.453448
4.700000	-0.112433	-76.194148	-34.529494	23.488845	-34.529494	23.488845	-0.112426	-76.187788
4.750000	-0.114104	-76.925682	-34.496458	23.088857	-34.496458	23.088857	-0.114097	-76.919269
4.800000	-0.115784	-77.656585	-34.463730	22.692012	-34.463730	22.692012	-0.115777	-77.650118
4.850000	-0.117502	-78.384329	-34.432038	22.310881	-34.432038	22.310881	-0.117495	-78.377809
4.900000	-0.119224	-79.111759	-34.400533	21.931327	-34.400533	21.931327	-0.119217	-79.105186
4.950000	-0.120991	-79.835739	-34.369937	21.569114	-34.369937	21.569114	-0.120984	-79.829113
5.000000	-0.122758	-80.559719	-34.339449	21.206901	-34.339449	21.206901	-0.122751	-80.553041
5.050000	-0.124575	-81.279966	-34.309705	20.863604	-34.309705	20.863604	-0.124567	-81.273236
5.100000	-0.126392	-82.000213	-34.280061	20.520306	-34.280061	20.520306	-0.126384	-81.993430
5.150000	-0.128257	-82.717068	-34.250885	20.194279	-34.250885	20.194279	-0.128249	-82.710234
5.200000	-0.130126	-83.433616	-34.221840	19.869821	-34.221840	19.869821	-0.130118	-83.426730
5.250000	-0.132040	-84.147111	-34.193023	19.560934	-34.193023	19.560934	-0.132032	-84.140174
5.300000	-0.133963	-84.859996	-34.164328	19.255160	-34.164328	19.255160	-0.133955	-84.853008
5.350000	-0.135928	-85.570166	-34.135662	18.963217	-34.135662	18.963217	-0.135920	-85.563127
5.400000	-0.137907	-86.279429	-34.107069	18.675883	-34.107069	18.675883	-0.137899	-86.272340
5.450000	-0.139924	-86.986308	-34.078346	18.400617	-34.078346	18.400617	-0.139915	-86.979169
5.500000	-0.141960	-87.691995	-34.049606	18.131384	-34.049606	18.131384	-0.141952	-87.684805
5.550000	-0.144031	-88.395622	-34.020619	17.872451	-34.020619	17.872451	-0.144022	-88.388382
5.600000	-0.146126	-89.097778	-33.991485	17.620876	-33.991485	17.620876	-0.146117	-89.090488
5.650000	-0.148251	-89.798194	-33.962031	17.377853	-33.962031	17.377853	-0.148243	-89.790855
5.700000	-0.150407	-90.496871	-33.932258	17.143383	-33.932258	17.143383	-0.150399	-90.489482
5.750000	-0.152590	-91.194119	-33.902134	16.915762	-33.902134	16.915762	-0.152581	-91.186681
5.800000	-0.154808	-91.889369	-33.871482	16.697729	-33.871482	16.697729	-0.154799	-91.881882
5.850000	-0.157048	-92.583495	-33.840493	16.484913	-33.840493	16.484913	-0.157039	-92.575959
5.900000	-0.159331	-93.275374	-33.808726	16.282530	-33.808726	16.282530	-0.159322	-93.267789
5.950000	-0.161630	-93.966425	-33.776680	16.083832	-33.776680	16.083832	-0.161621	-93.958792
6.000000	-0.163979	-94.654993	-33.743572	15.896190	-33.743572	15.896190	-0.163969	-94.647311
6.050000	-0.166339	-95.343019	-33.710287	15.710833	-33.710287	15.710833	-0.166329	-95.335288
6.100000	-0.168754	-96.028336	-33.675619	15.536901	-33.675619	15.536901	-0.168745	-96.020558
6.150000	-0.171176	-96.713388	-33.640919	15.364015	-33.640919	15.364015	-0.171167	-96.705562
6.200000	-0.173661	-97.395520	-33.604488	15.202641	-33.604488	15.202641	-0.173651	-97.387646
6.250000	-0.176147	-98.077652	-33.568209	15.041267	-33.568209	15.041267	-0.176137	-98.069730
6.300000	-0.178702	-98.756666	-33.529823	14.891184	-33.529823	14.891184	-0.178692	-98.748696
6.350000	-0.181258	-99.435679	-33.491606	14.741101	-33.491606	14.741101	-0.181248	-99.427662
6.400000	-0.183880	-100.111897	-33.451300	14.600110	-33.451300	14.600110	-0.183869	-100.103833
6.450000	-0.186508	-100.787861	-33.410975	14.459944	-33.410975	14.459944	-0.186497	-100.779749
6.500000	-0.189197	-101.461344	-33.368625	14.326818	-33.368625	14.326818	-0.189186	-101.453185
6.550000	-0.191899	-102.134331	-33.326041	14.195099	-33.326041	14.195099	-0.191888	-102.126124
6.600000	-0.194657	-102.805140	-33.281544	14.068550	-33.281544	14.068550	-0.194646	-102.796886
6.650000	-0.197434	-103.475223	-33.236571	13.943723	-33.236571	13.943723	-0.197423	-103.466922
6.700000	-0.200262	-104.143421	-33.189842	13.822411	-33.189842	13.822411	-0.200251	-104.135074
6.750000	-0.203116	-104.810677	-33.142374	13.702856	-33.142374	13.702856	-0.203105	-104.802283
6.800000	-0.206016	-105.476330	-33.093347	13.585402	-33.093347	13.585402	-0.206005	-105.467889
6.850000	-0.208948	-106.140837	-33.043303	13.469448	-33.043303	13.469448	-0.208937	-106.132350
6.900000	-0.211920	-106.804011	-32.991933	13.354448	-32.991933	13.354448	-0.211909	-106.795478
6.950000	-0.214932	-107.465851	-32.939259	13.240400	-32.939259	13.240400	-0.214920	-107.457271
7.000000	-0.217978	-108.126614	-32.885521	13.126438	-32.885521	13.126438	-0.217966	-108.117987
7.050000	-0.221071	-108.785869	-32.830190	13.012595	-32.830190	13.012595	-0.221059	-108.777196
7.100000	-0.224192	-109.444290	-32.774081	12.898259	-32.774081	12.898259	-0.224180	-109.435571
7.150000	-0.227367	-110.101045	-32.716091	12.782938	-32.716091	12.782938	-0.227355	-110.092280
7.200000	-0.230564	-110.757197	-32.657629	12.666837	-32.657629	12.666837	-0.230552	-110.748385
7.250000	-0.233823	-111.411538	-32.597007	12.548397	-32.597007	12.548397	-0.233811	-111.402680
7.300000	-0.237098	-112.065492	-32.536231	12.429174	-32.536231	12.429174	-0.237086	-112.056588
7.350000	-0.240442	-112.717510	-32.473028	12.306038	-32.473028	12.306038	-0.240430	-112.708559
7.400000	-0.243795	-113.369341	-32.409995	12.182386	-32.409995	12.182386	-0.243783	-113.360344
7.450000	-0.247227	-114.019124	-32.344287	12.053062	-32.344287	12.053062	-0.247214	-114.010081
7.500000	-0.250659	-114.668907	-32.279072	11.923738	-32.279072	11.923738	-0.250647	-114.659818
7.550000	-0.254178	-115.316550	-32.210957	11.786840	-32.210957	11.786840	-0.254166	-115.307415
7.600000	-0.257698	-115.964192	-32.143372	11.649942	-32.143372	11.649942	-0.257686	-115.955011
7.650000	-0.261299	-116.609958	-32.073249	11.504942	-32.073249	11.504942	-0.261287	-116.600730
7.700000	-0.264909	-117.255554	-32.003411	11.359205	-32.003411	11.359205	-0.264896	-117.246280
7.750000	-0.268593	-117.899524	-31.931403	11.205162	-31.931403	11.205162	-0.268580	-117.890204
7.800000	-0.272293	-118.543169	-31.859447	11.049457	-31.859447	11.049457	-0.272280	-118.533802
7.850000	-0.276061	-119.185424	-31.785689	10.885539	-31.785689	10.885539	-0.276048	-119.176012
7.900000	-0.279852	-119.827217	-31.711762	10.718882	-31.711762	10.718882	-0.279840	-119.817758
7.950000	-0.283705	-120.467841	-31.636396	10.544371	-31.636396	10.544371	-0.283692	-120.458336
8.000000	-0.287590	-121.107881	-31.560656	10.365932	-31.560656	10.365932	-0.287577	-121.098329
8.050000	-0.291528	-121.746958	-31.483830	10.180228	-31.483830	10.180228	-0.291515	-121.737360
8.100000	-0.295507	-122.385347	-31.406444	9.989334	-31.406444	9.989334	-0.295494	-122.375702
8.150000	-0.299532	-123.022962	-31.328307	9.791954	-31.328307	9.791954	-0.299519	-123.013271
8.200000	-0.303606	-123.659803	-31.249445	9.588088	-31.249445	9.588088	-0.303592	-123.650065
8.250000	-0.307719	-124.296044	-31.170148	9.378666	-31.170148	9.378666	-0.307706	-124.286259
8.300000	-0.311888	-124.931442	-31.089981	9.161466	-31.089981	9.161466	-0.311875	-124.921611
8.350000	-0.316090	-125.566396	-31.009674	8.939751	-31.009674	8.939751	-0.316077	-125.556518
8.400000	-0.320357	-126.200459	-30.928372	8.709006	-30.928372	8.709006	-0.320343	-126.190534
8.450000	-0.324648	-126.834216	-30.847202	8.474856	-30.847202	8.474856	-0.324635	-126.824243
8.500000	-0.329012	-127.467052	-30.764931	8.230493	-30.764931	8.230493	-0.328999	-127.457032
8.550000	-0.333394	-128.099702	-30.683038	7.983870	-30.683038	7.983870	-0.333381	-128.089635
8.600000	-0.337857	-128.731422	-30.599957	7.725951	-30.599957	7.725951	-0.337844	-128.721308
8.650000	-0.342330	-129.363058	-30.517476	7.466917	-30.517476	7.466917	-0.342317	-129.352896
8.700000	-0.346893	-129.993773	-30.433734	7.195623	-30.433734	7.195623	-0.346879	-129.983564
8.750000	-0.351457	-130.624488	-30.350792	6.924328	-30.350792	6.924328	-0.351444	-130.614232
8.800000	-0.356120	-131.254314	-30.266530	6.639948	-30.266530	6.639948	-0.356107	-131.244010
8.850000	-0.360786	-131.884139	-30.183077	6.355567	-30.183077	6.355567	-0.360773	-131.873787
8.900000	-0.365542	-132.513254	-30.098590	6.059544	-30.098590	6.059544	-0.365529	-132.502854
8.950000	-0.370308	-133.142305	-30.014751	5.762463	-30.014751	5.762463	-0.370295	-133.131857
9.000000	-0.375158	-133.770809	-29.930135	5.455186	-29.930135	5.455186	-0.375145	-133.760313
9.050000	-0.380026	-134.399203	-29.846022	5.145870	-29.846022	5.145870	-0.380014	-134.388659
9.100000	-0.384970	-135.027195	-29.761363	4.827779	-29.761363	4.827779	-0.384958	-135.016602
9.150000	-0.389941	-135.655052	-29.677074	4.506763	-29.677074	4.506763	-0.389929	-135.644411
9.200000	-0.394980	-136.282633	-29.592446	4.178341	-29.592446	4.178341	-0.394967	-136.271943
9.250000	-0.400053	-136.910075	-29.508064	3.846216	-29.508064	3.846216	-0.400041	-136.899336
9.300000	-0.405187	-137.537347	-29.423528	3.507979	-29.423528	3.507979	-0.405175	-137.526559
9.350000	-0.410364	-138.164497	-29.339122	3.165378	-29.339122	3.165378	-0.410352	-138.153660
9.400000	-0.415593	-138.791564	-29.254728	2.817870	-29.254728	2.817870	-0.415582	-138.780678
9.450000	-0.420874	-139.418548	-29.170352	2.465456	-29.170352	2.465456	-0.420863	-139.407613
9.500000	-0.426199	-140.045516	-29.086137	2.109238	-29.086137	2.109238	-0.426188	-140.034531
9.550000	-0.431584	-140.672462	-29.001829	1.747695	-29.001829	1.747695	-0.431573	-140.661427
9.600000	-0.437004	-141.299438	-28.917820	1.383340	-28.917820	1.383340	-0.436994	-141.288353
9.650000	-0.442493	-141.926475	-28.833603	1.013361	-28.833603	1.013361	-0.442483	-141.915340
9.700000	-0.448010	-142.553568	-28.749815	0.641446	-28.749815	0.641446	-0.448000	-142.542382
9.750000	-0.453603	-143.180828	-28.665699	0.263724	-28.665699	0.263724	-0.453593	-143.169592
9.800000	-0.459216	-143.808147	-28.582137	-0.115175	-28.582137	-0.115175	-0.459206	-143.796861
9.850000	-0.464913	-144.435765	-28.498117	-0.499956	-28.498117	-0.499956	-0.464904	-144.424427
9.900000	-0.470622	-145.063423	-28.414774	-0.885269	-28.414774	-0.885269	-0.470613	-145.052035
9.950000	-0.476424	-145.691534	-28.330831	-1.276440	-28.330831	-1.276440	-0.476414	-145.680095
10.000000	-0.482229	-146.319645	-28.247692	-1.667610	-28.247692	-1.667610	-0.482220	-146.308155
