! freq	dB(S11)	phase(S11)	dB(S12)	phase(S12)	
!     	dB(S21)	phase(S21)	dB(S22)	phase(S22)	
!S-par simulation data
#  GHz  S  DB  R 50
0.000000	-0.000000	0.000000	-335.338438	0.000000	-335.338438	0.000000	-0.000000	0.000000
0.050000	-0.000105	-0.847626	-67.042741	88.936944	-67.042741	88.936944	-0.000105	-0.847626
0.100000	-0.000416	-1.695004	-61.039333	87.911230	-61.039333	87.911230	-0.000416	-1.695004
0.150000	-0.000920	-2.541901	-57.540763	86.941505	-57.540763	86.941505	-0.000920	-2.541901
0.200000	-0.001600	-3.388124	-55.066822	86.025784	-55.066822	86.025784	-0.001600	-3.388124
0.250000	-0.002442	-4.233452	-53.152974	85.154666	-53.152974	85.154666	-0.002442	-4.233452
0.300000	-0.003409	-5.077839	-51.591141	84.310584	-51.591141	84.310584	-0.003409	-5.077840
0.350000	-0.004482	-5.921166	-50.271763	83.484598	-50.271763	83.484598	-0.004482	-5.921166
0.400000	-0.005639	-6.763377	-49.129504	82.669012	-49.129504	82.669012	-0.005639	-6.763378
0.450000	-0.006857	-7.604451	-48.122463	81.858886	-48.122463	81.858886	-0.006858	-7.604451
0.500000	-0.008119	-8.444386	-47.222168	81.051245	-47.222168	81.051245	-0.008119	-8.444386
0.550000	-0.009407	-9.283199	-46.408376	80.244396	-46.408376	80.244396	-0.009407	-9.283199
0.600000	-0.010709	-10.120915	-45.666174	79.437444	-45.666174	79.437444	-0.010709	-10.120916
0.650000	-0.012014	-10.957567	-44.984245	78.629973	-44.984245	78.629973	-0.012014	-10.957567
0.700000	-0.013315	-11.793186	-44.353795	77.821853	-44.353795	77.821853	-0.013315	-11.793186
0.750000	-0.014607	-12.627803	-43.767852	77.013113	-43.767852	77.013113	-0.014607	-12.627804
0.800000	-0.015885	-13.461446	-43.220789	76.203872	-43.220789	76.203872	-0.015885	-13.461447
0.850000	-0.017148	-14.294137	-42.708000	75.394295	-42.708000	75.394295	-0.017148	-14.294138
0.900000	-0.018394	-15.125894	-42.225665	74.584569	-42.225665	74.584569	-0.018394	-15.125895
0.950000	-0.019623	-15.956728	-41.770579	73.774887	-41.770579	73.774887	-0.019623	-15.956729
1.000000	-0.020835	-16.786646	-41.340030	72.965439	-41.340030	72.965439	-0.020835	-16.786647
1.050000	-0.022032	-17.615650	-40.931698	72.156411	-40.931698	72.156411	-0.022032	-17.615651
1.100000	-0.023214	-18.443738	-40.543586	71.347980	-40.543586	71.347980	-0.023214	-18.443739
1.150000	-0.024383	-19.270903	-40.173959	70.540313	-40.173959	70.540313	-0.024383	-19.270904
1.200000	-0.025540	-20.097136	-39.821303	69.733569	-39.821303	69.733569	-0.025540	-20.097138
1.250000	-0.026685	-20.922426	-39.484289	68.927898	-39.484289	68.927898	-0.026685	-20.922427
1.300000	-0.027821	-21.746714	-39.161825	68.123501	-39.161825	68.123501	-0.027821	-21.746715
1.350000	-0.028948	-22.570026	-38.852783	67.320465	-38.852783	67.320465	-0.028948	-22.570027
1.400000	-0.030068	-23.392343	-38.556232	66.518917	-38.556232	66.518917	-0.030068	-23.392345
1.450000	-0.031182	-24.213647	-38.271338	65.718978	-38.271338	65.718978	-0.031182	-24.213649
1.500000	-0.032291	-25.033918	-37.997349	64.920762	-37.997349	64.920762	-0.032291	-25.033919
1.550000	-0.033396	-25.853135	-37.733589	64.124382	-37.733589	64.124382	-0.033396	-25.853136
1.600000	-0.034497	-26.671276	-37.479442	63.329941	-37.479442	63.329941	-0.034497	-26.671278
1.650000	-0.035596	-27.488322	-37.234352	62.537544	-37.234352	62.537544	-0.035596	-27.488324
1.700000	-0.036692	-28.303851	-36.998459	61.748077	-36.998459	61.748077	-0.036692	-28.303853
1.750000	-0.037787	-29.118790	-36.769741	60.959761	-36.769741	60.959761	-0.037787	-29.118792
1.800000	-0.038881	-29.932305	-36.549096	60.174324	-36.549096	60.174324	-0.038881	-29.932307
1.850000	-0.039975	-30.744804	-36.335455	59.390942	-36.335455	59.390942	-0.039975	-30.744806
1.900000	-0.041069	-31.556037	-36.128807	58.610218	-36.128807	58.610218	-0.041069	-31.556040
1.950000	-0.042164	-32.366005	-35.928785	57.832151	-35.928785	57.832151	-0.042164	-32.366007
2.000000	-0.043259	-33.174881	-35.734796	57.056448	-35.734796	57.056448	-0.043259	-33.174883
2.050000	-0.044355	-33.982229	-35.547144	56.284054	-35.547144	56.284054	-0.044355	-33.982231
2.100000	-0.045453	-34.788903	-35.364360	55.513149	-35.364360	55.513149	-0.045453	-34.788905
2.150000	-0.046552	-35.593831	-35.187631	54.746124	-35.187631	54.746124	-0.046552	-35.593834
2.200000	-0.047654	-36.397437	-35.016115	53.982079	-35.016115	53.982079	-0.047654	-36.397440
2.250000	-0.048759	-37.199704	-34.849593	53.221088	-34.849593	53.221088	-0.048759	-37.199707
2.300000	-0.049866	-38.000613	-34.687862	52.463221	-34.687862	52.463221	-0.049866	-38.000615
2.350000	-0.050976	-38.800146	-34.530727	51.708550	-34.530727	51.708550	-0.050976	-38.800149
2.400000	-0.052089	-39.598287	-34.378010	50.957142	-34.378010	50.957142	-0.052089	-39.598290
2.450000	-0.053206	-40.395018	-34.229539	50.209064	-34.229539	50.209064	-0.053206	-40.395021
2.500000	-0.054327	-41.190325	-34.085153	49.464384	-34.085153	49.464384	-0.054327	-41.190328
2.550000	-0.055452	-41.984127	-33.944770	48.723318	-33.944770	48.723318	-0.055453	-41.984130
2.600000	-0.056582	-42.776472	-33.808174	47.985782	-33.808174	47.985782	-0.056582	-42.776475
2.650000	-0.057717	-43.567344	-33.675230	47.251838	-33.675230	47.251838	-0.057717	-43.567348
2.700000	-0.058856	-44.356731	-33.545809	46.521548	-33.545809	46.521548	-0.058857	-44.356734
2.750000	-0.060002	-45.144617	-33.419786	45.794969	-33.419786	45.794969	-0.060002	-45.144621
2.800000	-0.061152	-45.930990	-33.297046	45.072161	-33.297046	45.072161	-0.061152	-45.930994
2.850000	-0.062309	-46.715838	-33.177476	44.353181	-33.177476	44.353181	-0.062309	-46.715842
2.900000	-0.063472	-47.499147	-33.060970	43.638084	-33.060970	43.638084	-0.063472	-47.499151
2.950000	-0.064642	-48.280907	-32.947426	42.926926	-32.947426	42.926926	-0.064642	-48.280910
3.000000	-0.065819	-49.061105	-32.836747	42.219760	-32.836747	42.219760	-0.065819	-49.061109
3.050000	-0.067003	-49.839731	-32.728840	41.516639	-32.728840	41.516639	-0.067003	-49.839735
3.100000	-0.068195	-50.616774	-32.623616	40.817614	-32.623616	40.817614	-0.068195	-50.616778
3.150000	-0.069395	-51.392226	-32.520989	40.122735	-32.520989	40.122735	-0.069395	-51.392230
3.200000	-0.070603	-52.166075	-32.420876	39.432052	-32.420876	39.432052	-0.070604	-52.166079
3.250000	-0.071821	-52.938314	-32.323198	38.745612	-32.323198	38.745612	-0.071821	-52.938318
3.300000	-0.073047	-53.708934	-32.227880	38.063462	-32.227880	38.063462	-0.073047	-53.708938
3.350000	-0.074285	-54.477641	-32.135061	37.386416	-32.135061	37.386416	-0.074285	-54.477646
3.400000	-0.075533	-55.244643	-32.044506	36.713942	-32.044506	36.713942	-0.075533	-55.244647
3.450000	-0.076786	-56.010785	-31.955511	36.043793	-31.955511	36.043793	-0.076787	-56.010790
3.500000	-0.078057	-56.774350	-31.869274	35.380619	-31.869274	35.380619	-0.078057	-56.774354
3.550000	-0.079331	-57.537337	-31.784285	34.719025	-31.784285	34.719025	-0.079331	-57.537342
3.600000	-0.080625	-58.297439	-31.702101	34.065327	-31.702101	34.065327	-0.080625	-58.297444
3.650000	-0.081921	-59.057250	-31.620880	33.412434	-31.620880	33.412434	-0.081921	-59.057256
3.700000	-0.083241	-59.813868	-31.542499	32.768380	-31.542499	32.768380	-0.083241	-59.813873
3.750000	-0.084561	-60.570485	-31.464819	32.124325	-31.464819	32.124325	-0.084561	-60.570490
3.800000	-0.085908	-61.323600	-31.390005	31.490068	-31.390005	31.490068	-0.085908	-61.323605
3.850000	-0.087255	-62.076715	-31.315830	30.855811	-31.315830	30.855811	-0.087255	-62.076721
3.900000	-0.088629	-62.826608	-31.244183	30.230665	-31.244183	30.230665	-0.088629	-62.826613
3.950000	-0.090005	-63.576207	-31.173294	29.606348	-31.173294	29.606348	-0.090005	-63.576213
4.000000	-0.091407	-64.322869	-31.104619	28.990422	-31.104619	28.990422	-0.091408	-64.322875
4.050000	-0.092815	-65.068944	-31.036809	28.376174	-31.036809	28.376174	-0.092815	-65.068950
4.100000	-0.094247	-65.812371	-30.970919	27.769567	-30.970919	27.769567	-0.094247	-65.812377
4.150000	-0.095687	-66.554915	-30.905988	27.165506	-30.905988	27.165506	-0.095687	-66.554921
4.200000	-0.097151	-67.295105	-30.842707	26.568306	-30.842707	26.568306	-0.097151	-67.295112
4.250000	-0.098626	-68.034119	-30.780463	25.974536	-30.780463	25.974536	-0.098626	-68.034125
4.300000	-0.100122	-68.771074	-30.719620	25.386822	-30.719620	25.386822	-0.100122	-68.771080
4.350000	-0.101633	-69.506559	-30.659880	24.803432	-30.659880	24.803432	-0.101634	-69.506565
4.400000	-0.103164	-70.240283	-30.601313	24.225271	-30.601313	24.225271	-0.103164	-70.240290
4.450000	-0.104714	-70.972246	-30.543898	23.652337	-30.543898	23.652337	-0.104714	-70.972253
4.500000	-0.106281	-71.702746	-30.487450	23.083783	-30.487450	23.083783	-0.106281	-71.702753
4.550000	-0.107871	-72.431199	-30.432188	22.521363	-30.432188	22.521363	-0.107871	-72.431206
4.600000	-0.109475	-73.158485	-30.377709	21.962461	-30.377709	21.962461	-0.109476	-73.158493
4.650000	-0.111108	-73.883441	-30.324432	21.410596	-30.324432	21.410596	-0.111108	-73.883449
4.700000	-0.112751	-74.607528	-30.271775	20.861377	-30.271775	20.861377	-0.112751	-74.607535
4.750000	-0.114427	-75.329005	-30.220320	20.320091	-30.220320	20.320091	-0.114428	-75.329013
4.800000	-0.116112	-76.049907	-30.169345	19.780569	-30.169345	19.780569	-0.116112	-76.049914
4.850000	-0.117834	-76.767928	-30.119551	19.249868	-30.119551	19.249868	-0.117834	-76.767936
4.900000	-0.119560	-77.485663	-30.070120	18.720046	-30.070120	18.720046	-0.119560	-77.485671
4.950000	-0.121330	-78.200253	-30.021833	18.199912	-30.021833	18.199912	-0.121330	-78.200262
5.000000	-0.123100	-78.914844	-29.973813	17.679777	-29.973813	17.679777	-0.123100	-78.914852
5.050000	-0.124919	-79.626032	-29.926880	17.170172	-29.926880	17.170172	-0.124919	-79.626041
5.100000	-0.126739	-80.337220	-29.880199	16.660567	-29.880199	16.660567	-0.126739	-80.337229
5.150000	-0.128605	-81.045320	-29.834412	16.160557	-29.834412	16.160557	-0.128605	-81.045329
5.200000	-0.130476	-81.753139	-29.788922	15.661419	-29.788922	15.661419	-0.130476	-81.753148
5.250000	-0.132391	-82.458180	-29.744154	15.170932	-29.744154	15.170932	-0.132391	-82.458189
5.300000	-0.134315	-83.162665	-29.699711	14.682174	-29.699711	14.682174	-0.134316	-83.162675
5.350000	-0.136281	-83.864680	-29.655838	14.201117	-29.655838	14.201117	-0.136281	-83.864689
5.400000	-0.138260	-84.565871	-29.612299	13.722627	-29.612299	13.722627	-0.138260	-84.565881
5.450000	-0.140277	-85.264894	-29.569200	13.250886	-29.569200	13.250886	-0.140277	-85.264904
5.500000	-0.142313	-85.962833	-29.526425	12.782519	-29.526425	12.782519	-0.142313	-85.962843
5.550000	-0.144383	-86.658901	-29.483983	12.319959	-29.483983	12.319959	-0.144383	-86.658911
5.600000	-0.146478	-87.353633	-29.441835	11.861544	-29.441835	11.861544	-0.146478	-87.353644
5.650000	-0.148603	-88.046787	-29.399933	11.408004	-29.399933	11.408004	-0.148603	-88.046797
5.700000	-0.150758	-88.738361	-29.358276	10.959337	-29.358276	10.959337	-0.150758	-88.738372
5.750000	-0.152939	-89.428641	-29.316802	10.514633	-29.316802	10.514633	-0.152939	-89.428652
5.800000	-0.155157	-90.117109	-29.275504	10.075476	-29.275504	10.075476	-0.155157	-90.117120
5.850000	-0.157396	-90.804560	-29.234347	9.639398	-29.234347	9.639398	-0.157396	-90.804571
5.900000	-0.159677	-91.489976	-29.193278	9.209478	-29.193278	9.209478	-0.159677	-91.489987
5.950000	-0.161975	-92.174643	-29.152330	8.781790	-29.152330	8.781790	-0.161976	-92.174655
6.000000	-0.164323	-92.857065	-29.111363	8.360798	-29.111363	8.360798	-0.164323	-92.857076
6.050000	-0.166682	-93.538997	-29.070521	7.941235	-29.070521	7.941235	-0.166682	-93.539009
6.100000	-0.169096	-94.218484	-29.029533	7.528824	-29.029533	7.528824	-0.169097	-94.218496
6.150000	-0.171518	-94.897732	-28.988694	7.117096	-28.988694	7.117096	-0.171518	-94.897744
6.200000	-0.174002	-95.574347	-28.947566	6.712882	-28.947566	6.712882	-0.174002	-95.574359
6.250000	-0.176487	-96.250962	-28.906632	6.308667	-28.906632	6.308667	-0.176487	-96.250975
6.300000	-0.179042	-96.924772	-28.865249	5.912226	-28.865249	5.912226	-0.179043	-96.924784
6.350000	-0.181598	-97.598581	-28.824061	5.515784	-28.824061	5.515784	-0.181599	-97.598594
6.400000	-0.184220	-98.269880	-28.782375	5.126045	-28.782375	5.126045	-0.184221	-98.269894
6.450000	-0.186849	-98.940951	-28.740826	4.736915	-28.740826	4.736915	-0.186850	-98.940965
6.500000	-0.189540	-99.609800	-28.698750	4.353462	-28.698750	4.353462	-0.189540	-99.609813
6.550000	-0.192243	-100.278203	-28.656734	3.971144	-28.656734	3.971144	-0.192244	-100.278217
6.600000	-0.195004	-100.944661	-28.614188	3.593531	-28.614188	3.593531	-0.195004	-100.944675
6.650000	-0.197784	-101.610471	-28.571607	3.217488	-28.571607	3.217488	-0.197784	-101.610485
6.700000	-0.200615	-102.274601	-28.528513	2.845245	-28.528513	2.845245	-0.200616	-102.274615
6.750000	-0.203473	-102.937891	-28.485274	2.474904	-28.485274	2.474904	-0.203473	-102.937906
6.800000	-0.206377	-103.599758	-28.441563	2.107536	-28.441563	2.107536	-0.206378	-103.599773
6.850000	-0.209315	-104.260607	-28.397582	1.742292	-28.397582	1.742292	-0.209315	-104.260622
6.900000	-0.212293	-104.920276	-28.353187	1.379279	-28.353187	1.379279	-0.212293	-104.920291
6.950000	-0.215312	-105.578764	-28.308387	1.018497	-28.308387	1.018497	-0.215312	-105.578780
7.000000	-0.218365	-106.236303	-28.263250	0.659298	-28.263250	0.659298	-0.218366	-106.236319
7.050000	-0.221467	-106.892513	-28.217560	0.302317	-28.217560	0.302317	-0.221468	-106.892530
7.100000	-0.224598	-107.547992	-28.171631	-0.053625	-28.171631	-0.053625	-0.224599	-107.548009
7.150000	-0.227785	-108.202009	-28.124991	-0.407489	-28.124991	-0.407489	-0.227785	-108.202025
7.200000	-0.230993	-108.855498	-28.078223	-0.760748	-28.078223	-0.760748	-0.230994	-108.855515
7.250000	-0.234266	-109.507408	-28.030582	-1.112194	-28.030582	-1.112194	-0.234267	-109.507425
7.300000	-0.237555	-110.158981	-27.982938	-1.463355	-27.982938	-1.463355	-0.237555	-110.158998
7.350000	-0.240916	-110.808873	-27.934253	-1.813093	-27.934253	-1.813093	-0.240916	-110.808890
7.400000	-0.244285	-111.458604	-27.885703	-2.162748	-27.885703	-2.162748	-0.244286	-111.458622
7.450000	-0.247735	-112.106569	-27.835942	-2.511492	-27.835942	-2.511492	-0.247736	-112.106587
7.500000	-0.251187	-112.754535	-27.786464	-2.860237	-27.786464	-2.860237	-0.251188	-112.754553
7.550000	-0.254729	-113.400667	-27.735604	-3.208702	-27.735604	-3.208702	-0.254729	-113.400685
7.600000	-0.258272	-114.046799	-27.685040	-3.557166	-27.685040	-3.557166	-0.258272	-114.046818
7.650000	-0.261898	-114.691339	-27.633211	-3.906017	-27.633211	-3.906017	-0.261899	-114.691358
7.700000	-0.265534	-115.335734	-27.581549	-4.254904	-27.581549	-4.254904	-0.265535	-115.335753
7.750000	-0.269247	-115.978762	-27.528754	-4.604715	-27.528754	-4.604715	-0.269248	-115.978782
7.800000	-0.272977	-116.621517	-27.475991	-4.954711	-27.475991	-4.954711	-0.272978	-116.621537
7.850000	-0.276778	-117.263117	-27.422238	-5.306036	-27.422238	-5.306036	-0.276779	-117.263137
7.900000	-0.280603	-117.904332	-27.368383	-5.657803	-27.368383	-5.657803	-0.280604	-117.904353
7.950000	-0.284493	-118.544588	-27.313689	-6.011172	-27.313689	-6.011172	-0.284494	-118.544609
8.000000	-0.288416	-119.184365	-27.258756	-6.365342	-27.258756	-6.365342	-0.288417	-119.184386
8.050000	-0.292396	-119.823364	-27.203143	-6.721259	-27.203143	-6.721259	-0.292397	-119.823385
8.100000	-0.296418	-120.461806	-27.147157	-7.078425	-27.147157	-7.078425	-0.296419	-120.461828
8.150000	-0.300489	-121.099635	-27.090655	-7.437363	-27.090655	-7.437363	-0.300490	-121.099657
8.200000	-0.304611	-121.736850	-27.033649	-7.798074	-27.033649	-7.798074	-0.304612	-121.736872
8.250000	-0.308775	-122.373597	-26.976292	-8.160470	-26.976292	-8.160470	-0.308776	-122.373620
8.300000	-0.312999	-123.009692	-26.918304	-8.525225	-26.918304	-8.525225	-0.312999	-123.009715
8.350000	-0.317257	-123.645450	-26.860130	-8.891476	-26.860130	-8.891476	-0.317258	-123.645474
8.400000	-0.321583	-124.280536	-26.801206	-9.260720	-26.801206	-9.260720	-0.321584	-124.280559
8.450000	-0.325936	-124.915397	-26.742257	-9.631182	-26.742257	-9.631182	-0.325937	-124.915420
8.500000	-0.330366	-125.549585	-26.682446	-10.005299	-26.682446	-10.005299	-0.330367	-125.549609
8.550000	-0.334815	-126.183643	-26.622768	-10.380283	-26.622768	-10.380283	-0.334816	-126.183667
8.600000	-0.339351	-126.817049	-26.562124	-10.759599	-26.562124	-10.759599	-0.339352	-126.817074
8.650000	-0.343898	-127.450400	-26.501766	-11.139369	-26.501766	-11.139369	-0.343898	-127.450425
8.700000	-0.348540	-128.083141	-26.440344	-11.524143	-26.440344	-11.524143	-0.348541	-128.083167
8.750000	-0.353185	-128.715882	-26.379353	-11.908917	-26.379353	-11.908917	-0.353186	-128.715908
8.800000	-0.357935	-129.348078	-26.317210	-12.299346	-26.317210	-12.299346	-0.357936	-129.348104
8.850000	-0.362688	-129.980273	-26.255509	-12.689774	-26.255509	-12.689774	-0.362689	-129.980300
8.900000	-0.367538	-130.612080	-26.192831	-13.085508	-26.192831	-13.085508	-0.367539	-130.612106
8.950000	-0.372400	-131.243851	-26.130474	-13.481724	-26.130474	-13.481724	-0.372401	-131.243878
9.000000	-0.377352	-131.875371	-26.067309	-13.882821	-26.067309	-13.882821	-0.377353	-131.875399
9.050000	-0.382324	-132.506842	-26.004351	-14.284895	-26.004351	-14.284895	-0.382325	-132.506870
9.100000	-0.387377	-133.138183	-25.940746	-14.691369	-25.940746	-14.691369	-0.387378	-133.138211
9.150000	-0.392461	-133.769480	-25.877239	-15.099310	-25.877239	-15.099310	-0.392462	-133.769508
9.200000	-0.397617	-134.400746	-25.813237	-15.511132	-25.813237	-15.511132	-0.397619	-134.400776
9.250000	-0.402813	-135.031998	-25.749228	-15.924895	-25.749228	-15.924895	-0.402814	-135.032028
9.300000	-0.408073	-135.663300	-25.684869	-16.341996	-25.684869	-16.341996	-0.408075	-135.663330
9.350000	-0.413382	-136.294639	-25.620402	-16.761483	-25.620402	-16.761483	-0.413383	-136.294669
9.400000	-0.418747	-136.926087	-25.555721	-17.183758	-25.555721	-17.183758	-0.418748	-136.926118
9.450000	-0.424169	-137.557645	-25.490834	-17.608823	-25.490834	-17.608823	-0.424170	-137.557677
9.500000	-0.429639	-138.189352	-25.425861	-18.036134	-25.425861	-18.036134	-0.429641	-138.189384
9.550000	-0.435176	-138.821268	-25.360584	-18.466590	-25.360584	-18.466590	-0.435177	-138.821300
9.600000	-0.440752	-139.453349	-25.295344	-18.898768	-25.295344	-18.898768	-0.440753	-139.453381
9.650000	-0.446404	-140.085760	-25.229701	-19.334392	-25.229701	-19.334392	-0.446405	-140.085793
9.700000	-0.452086	-140.718332	-25.164214	-19.771244	-25.164214	-19.771244	-0.452088	-140.718365
9.750000	-0.457854	-141.351382	-25.098220	-20.211784	-25.098220	-20.211784	-0.457855	-141.351416
9.800000	-0.463643	-141.984563	-25.032499	-20.653096	-25.032499	-20.653096	-0.463645	-141.984597
9.850000	-0.469527	-142.618397	-24.966162	-21.098275	-24.966162	-21.098275	-0.469528	-142.618431
9.900000	-0.475424	-143.252308	-24.900215	-21.543815	-24.900215	-21.543815	-0.475425	-143.252343
9.950000	-0.481424	-143.887074	-24.833533	-21.993340	-24.833533	-21.993340	-0.481425	-143.887110
10.000000	-0.487428	-144.521840	-24.767359	-22.442865	-24.767359	-22.442865	-0.487429	-144.521876
