! freq	dB(S11)	phase(S11)	dB(S12)	phase(S12)	
!     	dB(S21)	phase(S21)	dB(S22)	phase(S22)	
!S-par simulation data
#  GHz  S  DB  R 50
0.000000	-0.000000	0.000000	-324.350915	0.000000	-324.350915	0.000000	-0.000000	0.000000
0.050000	-0.000116	-0.950298	-60.921134	87.994635	-60.921134	87.994635	-0.000110	-0.876548
0.100000	-0.000458	-1.900329	-55.025360	86.695231	-55.025360	86.695231	-0.000436	-1.752839
0.150000	-0.001017	-2.849841	-51.595753	85.817790	-51.595753	85.817790	-0.000965	-2.628634
0.200000	-0.001771	-3.798622	-49.154829	85.058821	-49.154829	85.058821	-0.001679	-3.503732
0.250000	-0.002710	-4.746423	-47.253429	84.308266	-47.253429	84.308266	-0.002566	-4.377902
0.300000	-0.003793	-5.693185	-45.694663	83.538655	-45.694663	83.538655	-0.003586	-5.251094
0.350000	-0.005003	-6.638760	-44.373891	82.746987	-44.373891	82.746987	-0.004721	-6.123179
0.400000	-0.006314	-7.583074	-43.228369	81.935995	-43.228369	81.935995	-0.005948	-6.994097
0.450000	-0.007705	-8.526084	-42.217411	81.109477	-42.217411	81.109477	-0.007244	-7.863818
0.500000	-0.009153	-9.467772	-41.313087	80.270822	-41.313087	80.270822	-0.008590	-8.732337
0.550000	-0.010640	-10.408139	-40.495380	79.422755	-40.495380	79.422755	-0.009968	-9.599666
0.600000	-0.012152	-11.347200	-39.749449	78.567399	-39.749449	78.567399	-0.011367	-10.465826
0.650000	-0.013677	-12.284977	-39.063985	77.706399	-39.063985	77.706399	-0.012773	-11.330848
0.700000	-0.015204	-13.221496	-38.430171	76.841042	-38.430171	76.841042	-0.014181	-12.194759
0.750000	-0.016727	-14.156781	-37.841001	75.972339	-37.841001	75.972339	-0.015582	-13.057590
0.800000	-0.018241	-15.090857	-37.290815	75.101101	-37.290815	75.101101	-0.016975	-13.919366
0.850000	-0.019742	-16.023743	-36.774974	74.227981	-36.774974	74.227981	-0.018355	-14.780108
0.900000	-0.021228	-16.955455	-36.289632	73.353517	-36.289632	73.353517	-0.019722	-15.639831
0.950000	-0.022699	-17.886001	-35.831558	72.478155	-35.831558	72.478155	-0.021075	-16.498546
1.000000	-0.024154	-18.815386	-35.398020	71.602271	-35.398020	71.602271	-0.022414	-17.356257
1.050000	-0.025594	-19.743609	-34.986678	70.726184	-34.986678	70.726184	-0.023741	-18.212965
1.100000	-0.027020	-20.670667	-34.595521	69.850170	-34.595521	69.850170	-0.025056	-19.068665
1.150000	-0.028432	-21.596549	-34.222801	68.974469	-34.222801	68.974469	-0.026360	-19.923350
1.200000	-0.029832	-22.521243	-33.866992	68.099293	-33.866992	68.099293	-0.027655	-20.777008
1.250000	-0.031221	-23.444734	-33.526756	67.224828	-33.526756	67.224828	-0.028942	-21.629625
1.300000	-0.032601	-24.366948	-33.200979	66.351289	-33.200979	66.351289	-0.030221	-22.481137
1.350000	-0.033974	-25.287917	-32.888538	65.478794	-32.888538	65.478794	-0.031495	-23.331570
1.400000	-0.035339	-26.207619	-32.588497	64.607480	-32.588497	64.607480	-0.032765	-24.180904
1.450000	-0.036700	-27.126029	-32.300014	63.737471	-32.300014	63.737471	-0.034031	-25.029118
1.500000	-0.038056	-28.043124	-32.022336	62.868882	-32.022336	62.868882	-0.035295	-25.876189
1.550000	-0.039410	-28.958877	-31.754780	62.001821	-31.754780	62.001821	-0.036557	-26.722095
1.600000	-0.040761	-29.873263	-31.496727	61.136386	-31.496727	61.136386	-0.037818	-27.566811
1.650000	-0.042111	-30.786255	-31.247616	60.272671	-31.247616	60.272671	-0.039080	-28.410315
1.700000	-0.043461	-31.697827	-31.006935	59.410763	-31.006935	59.410763	-0.040342	-29.252582
1.750000	-0.044811	-32.607952	-30.774214	58.550743	-30.774214	58.550743	-0.041605	-30.093588
1.800000	-0.046162	-33.516606	-30.549023	57.692690	-30.549023	57.692690	-0.042869	-30.933311
1.850000	-0.047514	-34.423761	-30.330968	56.836676	-30.330968	56.836676	-0.044136	-31.771727
1.900000	-0.048869	-35.329393	-30.119683	55.982771	-30.119683	55.982771	-0.045405	-32.608812
1.950000	-0.050226	-36.233476	-29.914833	55.131041	-29.914833	55.131041	-0.046677	-33.444545
2.000000	-0.051586	-37.135986	-29.716104	54.281549	-29.716104	54.281549	-0.047953	-34.278901
2.050000	-0.052949	-38.036899	-29.523206	53.434355	-29.523206	53.434355	-0.049231	-35.111861
2.100000	-0.054316	-38.936192	-29.335872	52.589515	-29.335872	52.589515	-0.050513	-35.943401
2.150000	-0.055687	-39.833843	-29.153848	51.747085	-29.153848	51.747085	-0.051800	-36.773502
2.200000	-0.057062	-40.729829	-28.976902	50.907116	-28.976902	50.907116	-0.053090	-37.602143
2.250000	-0.058442	-41.624129	-28.804813	50.069657	-28.804813	50.069657	-0.054385	-38.429303
2.300000	-0.059827	-42.516723	-28.637376	49.234758	-28.637376	49.234758	-0.055684	-39.254964
2.350000	-0.061217	-43.407591	-28.474397	48.402462	-28.474397	48.402462	-0.056988	-40.079107
2.400000	-0.062612	-44.296714	-28.315697	47.572814	-28.315697	47.572814	-0.058297	-40.901712
2.450000	-0.064013	-45.184073	-28.161103	46.745855	-28.161103	46.745855	-0.059611	-41.722764
2.500000	-0.065421	-46.069652	-28.010454	45.921626	-28.010454	45.921626	-0.060931	-42.542244
2.550000	-0.066834	-46.953355	-27.863653	45.100285	-27.863653	45.100285	-0.062257	-43.360065
2.600000	-0.068254	-47.835243	-27.720500	44.281752	-27.720500	44.281752	-0.063588	-44.176281
2.650000	-0.069681	-48.715301	-27.580859	43.466059	-27.580859	43.466059	-0.064926	-44.990877
2.700000	-0.071115	-49.593515	-27.444601	42.653241	-27.444601	42.653241	-0.066270	-45.803836
2.750000	-0.072556	-50.469871	-27.311602	41.843329	-27.311602	41.843329	-0.067620	-46.615145
2.800000	-0.074005	-51.344357	-27.181748	41.036352	-27.181748	41.036352	-0.068977	-47.424791
2.850000	-0.075461	-52.216961	-27.054927	40.232340	-27.054927	40.232340	-0.070342	-48.232760
2.900000	-0.076926	-53.087671	-26.931033	39.431319	-26.931033	39.431319	-0.071713	-49.039039
2.950000	-0.078399	-53.956476	-26.809965	38.633316	-26.809965	38.633316	-0.073093	-49.843617
3.000000	-0.079881	-54.823368	-26.691628	37.838355	-26.691628	37.838355	-0.074480	-50.646482
3.050000	-0.081372	-55.688338	-26.575929	37.046459	-26.575929	37.046459	-0.075875	-51.447624
3.100000	-0.082873	-56.551376	-26.462782	36.257650	-26.462782	36.257650	-0.077279	-52.247031
3.150000	-0.084383	-57.412475	-26.352100	35.471949	-26.352100	35.471949	-0.078692	-53.044695
3.200000	-0.085904	-58.271630	-26.243805	34.689376	-26.243805	34.689376	-0.080113	-53.840605
3.250000	-0.087435	-59.128833	-26.137818	33.909949	-26.137818	33.909949	-0.081544	-54.634754
3.300000	-0.088977	-59.984079	-26.034065	33.133685	-26.034065	33.133685	-0.082985	-55.427134
3.350000	-0.090530	-60.837365	-25.932475	32.360601	-25.932475	32.360601	-0.084436	-56.217736
3.400000	-0.092095	-61.688685	-25.832979	31.590710	-25.832979	31.590710	-0.085897	-57.006553
3.450000	-0.093672	-62.538038	-25.735511	30.824028	-25.735511	30.824028	-0.087370	-57.793580
3.500000	-0.095262	-63.385420	-25.640008	30.060567	-25.640008	30.060567	-0.088853	-58.578809
3.550000	-0.096864	-64.230830	-25.546407	29.300339	-25.546407	29.300339	-0.090348	-59.362237
3.600000	-0.098480	-65.074266	-25.454650	28.543354	-25.454650	28.543354	-0.091854	-60.143857
3.650000	-0.100109	-65.915729	-25.364679	27.789622	-25.364679	27.789622	-0.093374	-60.923665
3.700000	-0.101753	-66.755219	-25.276439	27.039152	-25.276439	27.039152	-0.094905	-61.701658
3.750000	-0.103411	-67.592737	-25.189876	26.291951	-25.189876	26.291951	-0.096450	-62.477833
3.800000	-0.105084	-68.428198	-25.104973	25.548170	-25.104973	25.548170	-0.098009	-63.252106
3.850000	-0.106774	-69.261692	-25.021642	24.807670	-25.021642	24.807670	-0.099582	-64.024555
3.900000	-0.108479	-70.093222	-24.939837	24.070456	-24.939837	24.070456	-0.101169	-64.795179
3.950000	-0.110201	-70.922790	-24.859510	23.336533	-24.859510	23.336533	-0.102770	-65.563975
4.000000	-0.111940	-71.750403	-24.780615	22.605903	-24.780615	22.605903	-0.104387	-66.330944
4.050000	-0.113696	-72.576064	-24.703108	21.878566	-24.703108	21.878566	-0.106020	-67.096085
4.100000	-0.115470	-73.399780	-24.626945	21.154525	-24.626945	21.154525	-0.107668	-67.859398
4.150000	-0.117262	-74.221556	-24.552084	20.433778	-24.552084	20.433778	-0.109333	-68.620884
4.200000	-0.119073	-75.041401	-24.478485	19.716323	-24.478485	19.716323	-0.111015	-69.380544
4.250000	-0.120904	-75.859322	-24.406107	19.002160	-24.406107	19.002160	-0.112714	-70.138380
4.300000	-0.122754	-76.675326	-24.334912	18.291284	-24.334912	18.291284	-0.114431	-70.894395
4.350000	-0.124625	-77.489423	-24.264862	17.583690	-24.264862	17.583690	-0.116166	-71.648591
4.400000	-0.126516	-78.301622	-24.195920	16.879374	-24.195920	16.879374	-0.117920	-72.400970
4.450000	-0.128429	-79.111934	-24.128050	16.178330	-24.128050	16.178330	-0.119692	-73.151538
4.500000	-0.130364	-79.920368	-24.061217	15.480549	-24.061217	15.480549	-0.121485	-73.900297
4.550000	-0.132320	-80.726938	-23.995386	14.786023	-23.995386	14.786023	-0.123297	-74.647253
4.600000	-0.134304	-81.531334	-23.930602	14.095305	-23.930602	14.095305	-0.125133	-75.392099
4.650000	-0.136312	-82.333810	-23.866772	13.407962	-23.866772	13.407962	-0.126991	-76.135074
4.700000	-0.138333	-83.135337	-23.803629	12.722295	-23.803629	12.722295	-0.128861	-76.877119
4.750000	-0.140391	-83.934019	-23.741602	12.041659	-23.741602	12.041659	-0.130764	-77.616374
4.800000	-0.142459	-84.732079	-23.680149	11.362130	-23.680149	11.362130	-0.132675	-78.355014
4.850000	-0.144570	-85.527029	-23.619794	10.688138	-23.619794	10.688138	-0.134626	-79.090580
4.900000	-0.146686	-86.321675	-23.559917	10.014694	-23.559917	10.014694	-0.136581	-79.825841
4.950000	-0.148852	-87.112962	-23.501110	9.347274	-23.501110	9.347274	-0.138581	-80.557751
5.000000	-0.151019	-87.904248	-23.442699	8.679854	-23.442699	8.679854	-0.140581	-81.289661
5.050000	-0.153242	-88.691944	-23.385318	8.018921	-23.385318	8.018921	-0.142632	-82.017954
5.100000	-0.155466	-89.479640	-23.328315	7.357988	-23.328315	7.357988	-0.144684	-82.746246
5.150000	-0.157744	-90.264114	-23.272197	6.702915	-23.272197	6.702915	-0.146784	-83.471260
5.200000	-0.160027	-91.048296	-23.216487	6.048374	-23.216487	6.048374	-0.148889	-84.195976
5.250000	-0.162361	-91.829617	-23.161533	5.399071	-23.161533	5.399071	-0.151040	-84.917749
5.300000	-0.164706	-92.610367	-23.107004	4.750815	-23.107004	4.750815	-0.153201	-85.638934
5.350000	-0.167099	-93.388607	-23.053118	4.107183	-23.053118	4.107183	-0.155405	-86.357507
5.400000	-0.169508	-94.166011	-22.999664	3.465091	-22.999664	3.465091	-0.157623	-87.075209
5.450000	-0.171960	-94.941246	-22.946752	2.827021	-22.946752	2.827021	-0.159881	-87.790625
5.500000	-0.174436	-95.715396	-22.894269	2.190961	-22.894269	2.190961	-0.162159	-88.504896
5.550000	-0.176951	-96.487703	-22.842243	1.558334	-22.842243	1.558334	-0.164473	-89.217199
5.600000	-0.179494	-97.258694	-22.790629	0.928158	-22.790629	0.928158	-0.166813	-89.928096
5.650000	-0.182073	-98.028155	-22.739403	0.300845	-22.739403	0.300845	-0.169185	-90.637334
5.700000	-0.184688	-98.796087	-22.688561	-0.323607	-22.688561	-0.323607	-0.171589	-91.344914
5.750000	-0.187332	-99.562788	-22.638051	-0.945746	-22.638051	-0.945746	-0.174021	-92.051138
5.800000	-0.190020	-100.327765	-22.587885	-1.564649	-22.587885	-1.564649	-0.176491	-92.755463
5.850000	-0.192733	-101.091794	-22.538011	-2.181766	-22.538011	-2.181766	-0.178984	-93.458725
5.900000	-0.195495	-101.853925	-22.488430	-2.795311	-22.488430	-2.795311	-0.181522	-94.159860
5.950000	-0.198278	-102.615372	-22.439115	-3.407568	-22.439115	-3.407568	-0.184079	-94.860214
6.000000	-0.201118	-103.374769	-22.390030	-4.015961	-22.390030	-4.015961	-0.186687	-95.558227
6.050000	-0.203973	-104.133730	-22.341197	-4.623531	-22.341197	-4.623531	-0.189309	-96.255731
6.100000	-0.206893	-104.890509	-22.292522	-5.226993	-22.292522	-5.226993	-0.191991	-96.950691
6.150000	-0.209821	-105.647080	-22.244100	-5.830063	-22.244100	-5.830063	-0.194679	-97.645404
6.200000	-0.212824	-106.401363	-22.195752	-6.428830	-22.195752	-6.428830	-0.197436	-98.337386
6.250000	-0.215827	-107.155645	-22.147672	-7.027597	-22.147672	-7.027597	-0.200193	-99.029369
6.300000	-0.218914	-107.907555	-22.099571	-7.621922	-22.099571	-7.621922	-0.203026	-99.718449
6.350000	-0.222003	-108.659465	-22.051735	-8.216248	-22.051735	-8.216248	-0.205861	-100.407530
6.400000	-0.225170	-109.409318	-22.003834	-8.806748	-22.003834	-8.806748	-0.208767	-101.094022
6.450000	-0.228345	-110.158984	-21.956167	-9.396900	-21.956167	-9.396900	-0.211681	-101.780279
6.500000	-0.231593	-110.906890	-21.908404	-9.983810	-21.908404	-9.983810	-0.214663	-102.464251
6.550000	-0.234858	-111.654444	-21.860833	-10.570072	-21.860833	-10.570072	-0.217658	-103.147766
6.600000	-0.238190	-112.400517	-21.813150	-11.153641	-21.813150	-11.153641	-0.220716	-103.829287
6.650000	-0.241546	-113.146095	-21.765606	-11.736311	-21.765606	-11.736311	-0.223795	-104.510144
6.700000	-0.244965	-113.890449	-21.717947	-12.316796	-21.717947	-12.316796	-0.226932	-105.189287
6.750000	-0.248415	-114.634192	-21.670363	-12.896188	-21.670363	-12.896188	-0.230097	-105.867572
6.800000	-0.251921	-115.376947	-21.622675	-13.473858	-21.622675	-13.473858	-0.233314	-106.544409
6.850000	-0.255467	-116.118997	-21.574989	-14.050297	-21.574989	-14.050297	-0.236569	-107.220212
6.900000	-0.259063	-116.860275	-21.527222	-14.625429	-21.527222	-14.625429	-0.239868	-107.894818
6.950000	-0.262708	-117.600780	-21.479377	-15.199254	-21.479377	-15.199254	-0.243213	-108.568229
7.000000	-0.266395	-118.340705	-21.431485	-15.772136	-21.431485	-15.772136	-0.246597	-109.240682
7.050000	-0.270141	-119.079817	-21.383425	-16.343696	-21.383425	-16.343696	-0.250035	-109.911795
7.100000	-0.273923	-119.818517	-21.335363	-16.914622	-21.335363	-16.914622	-0.253505	-110.582173
7.150000	-0.277772	-120.556391	-21.287038	-17.484277	-21.287038	-17.484277	-0.257039	-111.251083
7.200000	-0.281650	-121.293995	-21.238767	-18.053548	-21.238767	-18.053548	-0.260597	-111.919467
7.250000	-0.285605	-122.030789	-21.190130	-18.621666	-21.190130	-18.621666	-0.264228	-112.586273
7.300000	-0.289580	-122.767431	-21.141613	-19.189590	-21.141613	-19.189590	-0.267877	-113.252744
7.350000	-0.293644	-123.503310	-21.092621	-19.756544	-21.092621	-19.756544	-0.271609	-113.917545
7.400000	-0.297719	-124.239125	-21.043825	-20.323433	-21.043825	-20.323433	-0.275350	-114.582187
7.450000	-0.301894	-124.974254	-20.994439	-20.889603	-20.994439	-20.889603	-0.279184	-115.245085
7.500000	-0.306072	-125.709382	-20.945333	-21.455773	-20.945333	-21.455773	-0.283020	-115.907984
7.550000	-0.310360	-126.443931	-20.895520	-22.021539	-20.895520	-22.021539	-0.286959	-116.569085
7.600000	-0.314650	-127.178481	-20.845991	-22.587306	-20.845991	-22.587306	-0.290900	-117.230185
7.650000	-0.319045	-127.912659	-20.795806	-23.153053	-20.795806	-23.153053	-0.294938	-117.889736
7.700000	-0.323452	-128.646804	-20.745825	-23.718798	-20.745825	-23.718798	-0.298986	-118.549145
7.750000	-0.327956	-129.380761	-20.695248	-24.284842	-20.695248	-24.284842	-0.303125	-119.207235
7.800000	-0.332481	-130.114680	-20.644789	-24.850947	-20.644789	-24.850947	-0.307283	-119.865062
7.850000	-0.337095	-130.848567	-20.593803	-25.417604	-20.593803	-25.417604	-0.311524	-120.521784
7.900000	-0.341741	-131.582443	-20.542844	-25.984445	-20.542844	-25.984445	-0.315795	-121.178138
7.950000	-0.346468	-132.316415	-20.491436	-26.552024	-20.491436	-26.552024	-0.320141	-121.833586
8.000000	-0.351238	-133.050435	-20.439959	-27.119973	-20.439959	-27.119973	-0.324527	-122.488581
8.050000	-0.356081	-133.784650	-20.388117	-27.688780	-20.388117	-27.688780	-0.328980	-123.142850
8.100000	-0.360976	-134.519006	-20.336107	-28.258200	-20.336107	-28.258200	-0.333483	-123.796601
8.150000	-0.365936	-135.253626	-20.283823	-28.828534	-20.283823	-28.828534	-0.338046	-124.449788
8.200000	-0.370961	-135.988513	-20.231271	-29.399781	-20.231271	-29.399781	-0.342669	-125.102410
8.250000	-0.376040	-136.723704	-20.178539	-29.971932	-20.178539	-29.971932	-0.347343	-125.754613
8.300000	-0.381196	-137.459321	-20.125436	-30.545349	-20.125436	-30.545349	-0.352088	-126.406227
8.350000	-0.386397	-138.195250	-20.072254	-31.119601	-20.072254	-31.119601	-0.356875	-127.057546
8.400000	-0.391687	-138.931803	-20.018595	-31.695520	-20.018595	-31.695520	-0.361745	-127.708272
8.450000	-0.397012	-139.668642	-19.964960	-32.272144	-19.964960	-32.272144	-0.366649	-128.358808
8.500000	-0.402438	-140.406340	-19.910744	-32.850883	-19.910744	-32.850883	-0.371646	-129.008771
8.550000	-0.407889	-141.144265	-19.856658	-33.430142	-19.856658	-33.430142	-0.376667	-129.658626
8.600000	-0.413455	-141.883323	-19.801884	-34.012004	-19.801884	-34.012004	-0.381794	-130.307950
8.650000	-0.419035	-142.622511	-19.747349	-34.594150	-19.747349	-34.594150	-0.386935	-130.957231
8.700000	-0.424742	-143.363147	-19.692019	-35.179423	-19.692019	-35.179423	-0.392194	-131.606043
8.750000	-0.430452	-144.103783	-19.637040	-35.764697	-19.637040	-35.764697	-0.397457	-132.254856
8.800000	-0.436304	-144.846222	-19.581158	-36.353654	-19.581158	-36.353654	-0.402852	-132.903286
8.850000	-0.442159	-145.588660	-19.525633	-36.942612	-19.525633	-36.942612	-0.408250	-133.551717
8.900000	-0.448146	-146.332962	-19.469309	-37.535183	-19.469309	-37.535183	-0.413771	-134.199919
8.950000	-0.454148	-147.077432	-19.413244	-38.128082	-19.413244	-38.128082	-0.419307	-134.848100
9.000000	-0.460272	-147.823792	-19.356485	-38.724468	-19.356485	-38.724468	-0.424957	-135.496185
9.050000	-0.466425	-148.570530	-19.299886	-39.321551	-19.299886	-39.321551	-0.430634	-136.144251
9.100000	-0.472689	-149.319148	-19.242699	-39.921943	-19.242699	-39.921943	-0.436415	-136.792333
9.150000	-0.478994	-150.068393	-19.185571	-40.523437	-19.185571	-40.523437	-0.442234	-137.440421
9.200000	-0.485400	-150.819473	-19.127964	-41.128014	-19.127964	-41.128014	-0.448148	-138.088615
9.250000	-0.491860	-151.571472	-19.070314	-41.734133	-19.070314	-41.734133	-0.454112	-138.736863
9.300000	-0.498411	-152.325223	-19.012295	-42.343066	-19.012295	-42.343066	-0.460162	-139.385288
9.350000	-0.505028	-153.080227	-18.954129	-42.954010	-18.954129	-42.954010	-0.466274	-140.033838
9.400000	-0.511726	-153.836863	-18.895704	-43.567462	-18.895704	-43.567462	-0.472462	-140.682611
9.450000	-0.518503	-154.595130	-18.837027	-44.183420	-18.837027	-44.183420	-0.478724	-141.331607
9.500000	-0.525349	-155.354867	-18.778203	-44.801543	-18.778203	-44.801543	-0.485051	-141.980850
9.550000	-0.532289	-156.116662	-18.719022	-45.422696	-18.719022	-45.422696	-0.491467	-142.630438
9.600000	-0.539273	-156.879394	-18.659916	-46.045183	-18.659916	-46.045183	-0.497924	-143.280206
9.650000	-0.546362	-157.644577	-18.600370	-46.671133	-18.600370	-46.671133	-0.504480	-143.930452
9.700000	-0.553531	-158.411663	-18.540603	-47.299704	-18.540603	-47.299704	-0.511111	-144.581099
9.750000	-0.560781	-159.180716	-18.480616	-47.930934	-18.480616	-47.930934	-0.517818	-145.232182
9.800000	-0.568112	-159.951802	-18.420410	-48.564859	-18.420410	-48.564859	-0.524602	-145.883736
9.850000	-0.575525	-160.724985	-18.359984	-49.201516	-18.359984	-49.201516	-0.531463	-146.535798
9.900000	-0.583020	-161.500331	-18.299341	-49.840941	-18.299341	-49.840941	-0.538402	-147.188404
9.950000	-0.590598	-162.277909	-18.238479	-50.483171	-18.238479	-50.483171	-0.545419	-147.841589
10.000000	-0.598259	-163.057786	-18.177399	-51.128243	-18.177399	-51.128243	-0.552515	-148.495390
