! freq	dB(S11)	phase(S11)	dB(S12)	phase(S12)	
!     	dB(S21)	phase(S21)	dB(S22)	phase(S22)	
!S-par simulation data
#  GHz  S  DB  R 50
0.000000	-0.000000	0.000000	-328.523898	0.000000	-328.523898	0.000000	-0.000000	0.000000
0.050000	-0.000115	-0.940780	-66.522535	88.901218	-66.522535	88.901218	-0.000104	-0.832571
0.100000	-0.000456	-1.881280	-60.519351	87.840783	-60.519351	87.840783	-0.000412	-1.664891
0.150000	-0.001009	-2.821243	-57.020955	86.837280	-57.020955	86.837280	-0.000912	-2.496731
0.200000	-0.001755	-3.760447	-54.547067	85.887939	-54.547067	85.887939	-0.001585	-3.327897
0.250000	-0.002681	-4.698640	-52.633183	84.982624	-52.633183	84.982624	-0.002418	-4.158171
0.300000	-0.003745	-5.635765	-51.071308	84.103533	-51.071308	84.103533	-0.003373	-4.987507
0.350000	-0.004928	-6.571676	-49.751936	83.241722	-49.751936	83.241722	-0.004432	-5.815790
0.400000	-0.006205	-7.506304	-48.609774	82.389652	-48.609774	82.389652	-0.005571	-6.642968
0.450000	-0.007552	-8.439611	-47.602940	81.542568	-47.602940	81.542568	-0.006770	-7.469022
0.500000	-0.008948	-9.371586	-46.702968	80.697659	-46.702968	80.697659	-0.008010	-8.293954
0.550000	-0.010374	-10.302234	-45.889614	79.853364	-45.889614	79.853364	-0.009274	-9.117781
0.600000	-0.011818	-11.231576	-45.147962	79.008882	-45.147962	79.008882	-0.010551	-9.940532
0.650000	-0.013266	-12.159634	-44.466690	78.163867	-44.466690	78.163867	-0.011830	-10.762238
0.700000	-0.014710	-13.086438	-43.837000	77.318236	-43.837000	77.318236	-0.013104	-11.582932
0.750000	-0.016144	-14.012012	-43.251913	76.472052	-43.251913	76.472052	-0.014369	-12.402644
0.800000	-0.017563	-14.936380	-42.705798	75.625458	-42.705798	75.625458	-0.015620	-13.221401
0.850000	-0.018965	-15.859560	-42.194045	74.778637	-42.194045	74.778637	-0.016856	-14.039225
0.900000	-0.020348	-16.781564	-41.712832	73.931789	-41.712832	73.931789	-0.018075	-14.856131
0.950000	-0.021711	-17.702398	-41.258952	73.085116	-41.258952	73.085116	-0.019278	-15.672131
1.000000	-0.023055	-18.622066	-40.829688	72.238818	-40.829688	72.238818	-0.020466	-16.487229
1.050000	-0.024381	-19.540562	-40.422720	71.393085	-40.422720	71.393085	-0.021638	-17.301427
1.100000	-0.025689	-20.457879	-40.036048	70.548100	-40.036048	70.548100	-0.022797	-18.114721
1.150000	-0.026982	-21.374004	-39.667936	69.704037	-39.667936	69.704037	-0.023943	-18.927104
1.200000	-0.028259	-22.288922	-39.316871	68.861058	-39.316871	68.861058	-0.025077	-19.738565
1.250000	-0.029523	-23.202614	-38.981519	68.019319	-38.981519	68.019319	-0.026202	-20.549093
1.300000	-0.030776	-24.115003	-38.660798	67.179033	-38.660798	67.179033	-0.027317	-21.358628
1.350000	-0.032017	-25.026119	-38.353570	66.340283	-38.353570	66.340283	-0.028424	-22.167196
1.400000	-0.033250	-25.935938	-38.058903	65.503202	-38.058903	65.503202	-0.029525	-22.974777
1.450000	-0.034475	-26.844432	-37.775961	64.667915	-37.775961	64.667915	-0.030620	-23.781353
1.500000	-0.035693	-27.751575	-37.503994	63.834542	-37.503994	63.834542	-0.031710	-24.586902
1.550000	-0.036906	-28.657340	-37.242322	63.003198	-37.242322	63.003198	-0.032797	-25.391404
1.600000	-0.038114	-29.561698	-36.990332	62.173993	-36.990332	62.173993	-0.033880	-26.194837
1.650000	-0.039318	-30.464621	-36.747463	61.347035	-36.747463	61.347035	-0.034961	-26.997181
1.700000	-0.040519	-31.366082	-36.513207	60.522427	-36.513207	60.522427	-0.036040	-27.798413
1.750000	-0.041717	-32.266051	-36.287097	59.700269	-36.287097	59.700269	-0.037118	-28.598512
1.800000	-0.042914	-33.164503	-36.068704	58.880657	-36.068704	58.880657	-0.038195	-29.397457
1.850000	-0.044109	-34.061408	-35.857635	58.063686	-35.857635	58.063686	-0.039271	-30.195225
1.900000	-0.045304	-34.956740	-35.653527	57.249447	-35.653527	57.249447	-0.040348	-30.991797
1.950000	-0.046499	-35.850472	-35.456044	56.438030	-35.456044	56.438030	-0.041425	-31.787151
2.000000	-0.047694	-36.742579	-35.264876	55.629521	-35.264876	55.629521	-0.042503	-32.581266
2.050000	-0.048890	-37.633035	-35.079734	54.824005	-35.079734	54.824005	-0.043581	-33.374123
2.100000	-0.050087	-38.521815	-34.900348	54.021566	-34.900348	54.021566	-0.044662	-34.165701
2.150000	-0.051285	-39.408895	-34.726469	53.222285	-34.726469	53.222285	-0.045744	-34.955982
2.200000	-0.052485	-40.294251	-34.557862	52.426241	-34.557862	52.426241	-0.046827	-35.744945
2.250000	-0.053687	-41.177861	-34.394308	51.633511	-34.394308	51.633511	-0.047913	-36.532572
2.300000	-0.054892	-42.059702	-34.235603	50.844173	-34.235603	50.844173	-0.049002	-37.318846
2.350000	-0.056100	-42.939753	-34.081552	50.058300	-34.081552	50.058300	-0.050093	-38.103748
2.400000	-0.057310	-43.817993	-33.931974	49.275967	-33.931974	49.275967	-0.051188	-38.887260
2.450000	-0.058525	-44.694402	-33.786698	48.497243	-33.786698	48.497243	-0.052285	-39.669367
2.500000	-0.059743	-45.568960	-33.645563	47.722201	-33.645563	47.722201	-0.053387	-40.450051
2.550000	-0.060965	-46.441568	-33.508492	46.951075	-33.508492	46.951075	-0.054492	-41.229233
2.600000	-0.062192	-47.312287	-33.375262	46.183772	-33.375262	46.183772	-0.055601	-42.006960
2.650000	-0.063424	-48.181101	-33.245737	45.420359	-33.245737	45.420359	-0.056715	-42.783216
2.700000	-0.064661	-49.047992	-33.119785	44.660900	-33.119785	44.660900	-0.057833	-43.557986
2.750000	-0.065903	-49.912947	-32.997284	43.905459	-32.997284	43.905459	-0.058957	-44.331257
2.800000	-0.067152	-50.775949	-32.878116	43.154098	-32.878116	43.154098	-0.060086	-45.103015
2.850000	-0.068406	-51.636985	-32.762168	42.406879	-32.762168	42.406879	-0.061220	-45.873247
2.900000	-0.069667	-52.496040	-32.649332	41.663860	-32.649332	41.663860	-0.062361	-46.641938
2.950000	-0.070936	-53.353103	-32.539508	40.925102	-32.539508	40.925102	-0.063507	-47.409079
3.000000	-0.072211	-54.208161	-32.432595	40.190660	-32.432595	40.190660	-0.064660	-48.174655
3.050000	-0.073494	-55.061203	-32.328501	39.460591	-32.328501	39.460591	-0.065821	-48.938656
3.100000	-0.074786	-55.912218	-32.227135	38.734949	-32.227135	38.734949	-0.066988	-49.701071
3.150000	-0.076086	-56.761197	-32.128411	38.013790	-32.128411	38.013790	-0.068163	-50.461889
3.200000	-0.077395	-57.608130	-32.032245	37.297164	-32.032245	37.297164	-0.069346	-51.221099
3.250000	-0.078713	-58.453008	-31.938558	36.585123	-31.938558	36.585123	-0.070537	-51.978693
3.300000	-0.080041	-59.295824	-31.847273	35.877716	-31.847273	35.877716	-0.071737	-52.734661
3.350000	-0.081379	-60.136570	-31.758314	35.174994	-31.758314	35.174994	-0.072946	-53.488994
3.400000	-0.082728	-60.975241	-31.671610	34.477002	-31.671610	34.477002	-0.074164	-54.241684
3.450000	-0.084088	-61.811830	-31.587093	33.783788	-31.587093	33.783788	-0.075392	-54.992722
3.500000	-0.085459	-62.646331	-31.504693	33.095395	-31.504693	33.095395	-0.076631	-55.742102
3.550000	-0.086842	-63.478741	-31.424348	32.411868	-31.424348	32.411868	-0.077879	-56.489816
3.600000	-0.088238	-64.309056	-31.345993	31.733249	-31.345993	31.733249	-0.079139	-57.235857
3.650000	-0.089646	-65.137272	-31.269568	31.059579	-31.269568	31.059579	-0.080410	-57.980220
3.700000	-0.091068	-65.963388	-31.195012	30.390898	-31.195012	30.390898	-0.081693	-58.722899
3.750000	-0.092504	-66.787400	-31.122269	29.727244	-31.122269	29.727244	-0.082988	-59.463888
3.800000	-0.093954	-67.609217	-31.051332	29.068876	-31.051332	29.068876	-0.084296	-60.203109
3.850000	-0.095419	-68.428929	-30.982094	28.415610	-30.982094	28.415610	-0.085616	-60.940630
3.900000	-0.096899	-69.246536	-30.914501	27.767481	-30.914501	27.767481	-0.086951	-61.676448
3.950000	-0.098395	-70.062039	-30.848503	27.124522	-30.848503	27.124522	-0.088298	-62.410560
4.000000	-0.099906	-70.875440	-30.784047	26.486763	-30.784047	26.486763	-0.089660	-63.142961
4.050000	-0.101435	-71.686740	-30.721085	25.854235	-30.721085	25.854235	-0.091037	-63.873650
4.100000	-0.102980	-72.495942	-30.659567	25.226964	-30.659567	25.226964	-0.092428	-64.602625
4.150000	-0.104542	-73.303049	-30.599447	24.604979	-30.599447	24.604979	-0.093835	-65.329882
4.200000	-0.106123	-74.108064	-30.540678	23.988304	-30.540678	23.988304	-0.095258	-66.055422
4.250000	-0.107722	-74.910993	-30.483214	23.376963	-30.483214	23.376963	-0.096697	-66.779243
4.300000	-0.109340	-75.711840	-30.427011	22.770977	-30.427011	22.770977	-0.098152	-67.501344
4.350000	-0.110977	-76.510610	-30.372024	22.170366	-30.372024	22.170366	-0.099625	-68.221726
4.400000	-0.112633	-77.307309	-30.318210	21.575149	-30.318210	21.575149	-0.101115	-68.940387
4.450000	-0.114310	-78.101944	-30.265527	20.985343	-30.265527	20.985343	-0.102622	-69.657330
4.500000	-0.116008	-78.894523	-30.213934	20.400961	-30.213934	20.400961	-0.104148	-70.372555
4.550000	-0.117727	-79.685052	-30.163388	19.822017	-30.163388	19.822017	-0.105693	-71.086064
4.600000	-0.119471	-80.473188	-30.113967	19.249471	-30.113967	19.249471	-0.107260	-71.797560
4.650000	-0.121238	-81.259204	-30.065541	18.682620	-30.065541	18.682620	-0.108847	-72.507270
4.700000	-0.123018	-82.044168	-30.017717	18.118622	-30.017717	18.118622	-0.110445	-73.216088
4.750000	-0.124832	-82.825978	-29.971149	17.563182	-29.971149	17.563182	-0.112075	-73.922234
4.800000	-0.126656	-83.607094	-29.925030	17.009644	-29.925030	17.009644	-0.113712	-74.627789
4.850000	-0.128520	-84.384743	-29.880155	16.465620	-29.880155	16.465620	-0.115385	-75.330386
4.900000	-0.130389	-85.162050	-29.835601	15.922547	-29.835601	15.922547	-0.117063	-76.032689
4.950000	-0.132305	-85.935589	-29.792258	15.389925	-29.792258	15.389925	-0.118782	-76.731757
5.000000	-0.134222	-86.709128	-29.749131	14.857304	-29.749131	14.857304	-0.120502	-77.430824
5.050000	-0.136191	-87.478611	-29.707163	14.336046	-29.707163	14.336046	-0.122269	-78.126383
5.100000	-0.138161	-88.248094	-29.665397	13.814788	-29.665397	13.814788	-0.124036	-78.821942
5.150000	-0.140181	-89.013913	-29.624580	13.303889	-29.624580	13.303889	-0.125848	-79.514308
5.200000	-0.142207	-89.779400	-29.584023	12.793932	-29.584023	12.793932	-0.127665	-80.206384
5.250000	-0.144279	-90.541608	-29.544227	12.293317	-29.544227	12.293317	-0.129524	-80.895580
5.300000	-0.146362	-91.303160	-29.504727	11.794571	-29.504727	11.794571	-0.131391	-81.584201
5.350000	-0.148488	-92.061812	-29.465824	11.304144	-29.465824	11.304144	-0.133299	-82.270253
5.400000	-0.150630	-92.819498	-29.427234	10.816490	-29.427234	10.816490	-0.135219	-82.955450
5.450000	-0.152812	-93.574652	-29.389099	10.336132	-29.389099	10.336132	-0.137176	-83.638386
5.500000	-0.155015	-94.328542	-29.351273	9.859421	-29.351273	9.859421	-0.139151	-84.320193
5.550000	-0.157254	-95.080260	-29.313783	9.388988	-29.313783	9.388988	-0.141160	-85.000044
5.600000	-0.159519	-95.830428	-29.276577	8.923040	-29.276577	8.923040	-0.143191	-85.678498
5.650000	-0.161817	-96.578774	-29.239611	8.462364	-29.239611	8.462364	-0.145252	-86.355295
5.700000	-0.164147	-97.325298	-29.202885	8.006961	-29.202885	8.006961	-0.147342	-87.030436
5.750000	-0.166505	-98.070338	-29.166326	7.555847	-29.166326	7.555847	-0.149458	-87.704215
5.800000	-0.168902	-98.813301	-29.129940	7.110738	-29.129940	7.110738	-0.151608	-88.376086
5.850000	-0.171321	-99.555105	-29.093674	6.668963	-29.093674	6.668963	-0.153778	-89.046881
5.900000	-0.173785	-100.294591	-29.057493	6.233857	-29.057493	6.233857	-0.155990	-89.715527
5.950000	-0.176268	-101.033231	-29.021406	5.801170	-29.021406	5.801170	-0.158218	-90.383379
6.000000	-0.178802	-101.769329	-28.985298	5.375737	-28.985298	5.375737	-0.160493	-91.048847
6.050000	-0.181349	-102.504878	-28.949280	4.951854	-28.949280	4.951854	-0.162779	-91.713795
6.100000	-0.183955	-103.237680	-28.913116	4.535723	-28.913116	4.535723	-0.165120	-92.376136
6.150000	-0.186568	-103.970215	-28.877062	4.120333	-28.877062	4.120333	-0.167466	-93.038222
6.200000	-0.189247	-104.699816	-28.840716	3.713091	-28.840716	3.713091	-0.169873	-93.697490
6.250000	-0.191927	-105.429416	-28.804521	3.305849	-28.804521	3.305849	-0.172281	-94.356757
6.300000	-0.194681	-106.155913	-28.767873	2.907041	-28.767873	2.907041	-0.174757	-95.013006
6.350000	-0.197436	-106.882410	-28.731379	2.508232	-28.731379	2.508232	-0.177234	-95.669255
6.400000	-0.200261	-107.606153	-28.694373	2.116697	-28.694373	2.116697	-0.179774	-96.322789
6.450000	-0.203092	-108.329647	-28.657465	1.725823	-28.657465	1.725823	-0.182321	-96.976077
6.500000	-0.205988	-109.050724	-28.620011	1.341112	-28.620011	1.341112	-0.184927	-97.626946
6.550000	-0.208898	-109.771318	-28.582579	0.957632	-28.582579	0.957632	-0.187546	-98.277331
6.600000	-0.211867	-110.489816	-28.544592	0.579263	-28.544592	0.579263	-0.190219	-98.925587
6.650000	-0.214857	-111.207617	-28.506533	0.202597	-28.506533	0.202597	-0.192912	-99.573132
6.700000	-0.217901	-111.923627	-28.467933	-0.169941	-28.467933	-0.169941	-0.195654	-100.218827
6.750000	-0.220972	-112.638743	-28.429151	-0.540414	-28.429151	-0.540414	-0.198422	-100.863597
6.800000	-0.224091	-113.352357	-28.389864	-0.907658	-28.389864	-0.907658	-0.201234	-101.506785
6.850000	-0.227245	-114.064900	-28.350272	-1.272595	-28.350272	-1.272595	-0.204079	-102.148844
6.900000	-0.230441	-114.776213	-28.310231	-1.635110	-28.310231	-1.635110	-0.206963	-102.789582
6.950000	-0.233679	-115.486297	-28.269749	-1.995201	-28.269749	-1.995201	-0.209886	-103.428999
7.000000	-0.236954	-116.195404	-28.228893	-2.353572	-28.228893	-2.353572	-0.212843	-104.067344
7.050000	-0.240278	-116.903145	-28.187449	-2.709535	-28.187449	-2.709535	-0.215846	-104.704189
7.100000	-0.243632	-117.610145	-28.145727	-3.064370	-28.145727	-3.064370	-0.218877	-105.340200
7.150000	-0.247043	-118.315663	-28.103259	-3.416947	-28.103259	-3.416947	-0.221962	-105.974544
7.200000	-0.250478	-119.020655	-28.060624	-3.768867	-28.060624	-3.768867	-0.225068	-106.608281
7.250000	-0.253978	-119.724071	-28.017082	-4.118817	-28.017082	-4.118817	-0.228237	-107.240197
7.300000	-0.257495	-120.427157	-27.973497	-4.468457	-27.973497	-4.468457	-0.231420	-107.871722
7.350000	-0.261086	-121.128595	-27.928840	-4.816550	-27.928840	-4.816550	-0.234673	-108.501287
7.400000	-0.264685	-121.829878	-27.884277	-5.164552	-27.884277	-5.164552	-0.237935	-109.130662
7.450000	-0.268368	-122.529463	-27.838474	-5.511561	-27.838474	-5.511561	-0.241275	-109.757952
7.500000	-0.272052	-123.229049	-27.792911	-5.858571	-27.792911	-5.858571	-0.244616	-110.385243
7.550000	-0.275827	-123.926911	-27.745943	-6.205265	-27.745943	-6.205265	-0.248043	-111.010337
7.600000	-0.279604	-124.624772	-27.699228	-6.551960	-27.699228	-6.551960	-0.251472	-111.635431
7.650000	-0.283466	-125.321174	-27.651228	-6.899060	-27.651228	-6.899060	-0.254982	-112.258587
7.700000	-0.287337	-126.017443	-27.603353	-7.246197	-27.603353	-7.246197	-0.258500	-112.881566
7.750000	-0.291287	-126.712495	-27.554327	-7.594317	-27.554327	-7.594317	-0.262093	-113.502851
7.800000	-0.295254	-127.407304	-27.505295	-7.942633	-27.505295	-7.942633	-0.265703	-114.123797
7.850000	-0.299292	-128.101120	-27.455256	-8.292365	-27.455256	-8.292365	-0.269380	-114.743281
7.900000	-0.303356	-128.794605	-27.405080	-8.642568	-27.405080	-8.642568	-0.273082	-115.362278
7.950000	-0.307485	-129.487298	-27.354050	-8.994476	-27.354050	-8.994476	-0.276845	-115.980032
8.000000	-0.311647	-130.179595	-27.302753	-9.347237	-27.302753	-9.347237	-0.280641	-116.597166
8.050000	-0.315866	-130.871282	-27.250762	-9.701856	-27.250762	-9.701856	-0.284491	-117.213262
8.100000	-0.320127	-131.562533	-27.198374	-10.057802	-27.198374	-10.057802	-0.288382	-117.828619
8.150000	-0.324439	-132.253330	-27.145456	-10.415628	-27.145456	-10.415628	-0.292320	-118.443132
8.200000	-0.328800	-132.943676	-27.092018	-10.775336	-27.092018	-10.775336	-0.296307	-119.056801
8.250000	-0.333204	-133.633704	-27.038213	-11.136827	-27.038213	-11.136827	-0.300335	-119.669804
8.300000	-0.337667	-134.323289	-26.983773	-11.500815	-26.983773	-11.500815	-0.304420	-120.281875
8.350000	-0.342165	-135.012670	-26.929126	-11.866383	-26.929126	-11.866383	-0.308538	-120.893445
8.400000	-0.346730	-135.701641	-26.873737	-12.235110	-26.873737	-12.235110	-0.312722	-121.504011
8.450000	-0.351323	-136.390496	-26.818297	-12.605120	-26.818297	-12.605120	-0.316931	-122.114224
8.500000	-0.355991	-137.079003	-26.762015	-12.978979	-26.762015	-12.978979	-0.321215	-122.723378
8.550000	-0.360679	-137.767457	-26.705834	-13.353747	-26.705834	-13.353747	-0.325517	-123.332312
8.600000	-0.365452	-138.455650	-26.648721	-13.733062	-26.648721	-13.733062	-0.329902	-123.940149
8.650000	-0.370236	-139.143830	-26.591853	-14.112853	-26.591853	-14.112853	-0.334298	-124.547885
8.700000	-0.375115	-139.831865	-26.533971	-14.497879	-26.533971	-14.497879	-0.338786	-125.154502
8.750000	-0.379996	-140.519899	-26.476472	-14.882905	-26.476472	-14.882905	-0.343276	-125.761119
8.800000	-0.384980	-141.207930	-26.417884	-15.273828	-26.417884	-15.273828	-0.347867	-126.366615
8.850000	-0.389967	-141.895962	-26.359689	-15.664752	-26.359689	-15.664752	-0.352461	-126.972111
8.900000	-0.395050	-142.584136	-26.300578	-16.061190	-26.300578	-16.061190	-0.357149	-127.576670
8.950000	-0.400143	-143.272323	-26.241749	-16.458129	-26.241749	-16.458129	-0.361848	-128.181144
9.000000	-0.405325	-143.960775	-26.182167	-16.860124	-26.182167	-16.860124	-0.366633	-128.784852
9.050000	-0.410526	-144.649280	-26.122763	-17.263131	-26.122763	-17.263131	-0.371437	-129.388407
9.100000	-0.415806	-145.338146	-26.062761	-17.670682	-26.062761	-17.670682	-0.376320	-129.991349
9.150000	-0.421116	-146.027132	-26.002838	-18.079748	-26.002838	-18.079748	-0.381231	-130.594087
9.200000	-0.426496	-146.716550	-25.942462	-18.492808	-25.942462	-18.492808	-0.386213	-131.196352
9.250000	-0.431914	-147.406184	-25.882073	-18.907865	-25.882073	-18.907865	-0.391231	-131.798379
9.300000	-0.437394	-148.096295	-25.821364	-19.326347	-25.821364	-19.326347	-0.396312	-132.400054
9.350000	-0.442920	-148.786747	-25.760554	-19.747277	-25.760554	-19.747277	-0.401439	-133.001478
9.400000	-0.448501	-149.477693	-25.699550	-20.171059	-25.699550	-20.171059	-0.406621	-133.602654
9.450000	-0.454137	-150.169134	-25.638358	-20.597694	-25.638358	-20.597694	-0.411857	-134.203583
9.500000	-0.459818	-150.861061	-25.577091	-21.026622	-25.577091	-21.026622	-0.417139	-134.804351
9.550000	-0.465563	-151.553666	-25.515550	-21.458758	-25.515550	-21.458758	-0.422484	-135.404895
9.600000	-0.471345	-152.246719	-25.454045	-21.892648	-25.454045	-21.892648	-0.427868	-136.005349
9.650000	-0.477199	-152.940667	-25.392180	-22.330046	-25.392180	-22.330046	-0.433324	-136.605621
9.700000	-0.483082	-153.634996	-25.330456	-22.768693	-25.330456	-22.768693	-0.438809	-137.205854
9.750000	-0.489045	-154.330467	-25.268282	-23.211087	-25.268282	-23.211087	-0.444375	-137.805969
9.800000	-0.495029	-155.026223	-25.206353	-23.654267	-25.206353	-23.654267	-0.449963	-138.406078
9.850000	-0.501100	-155.723401	-25.143879	-24.101373	-25.143879	-24.101373	-0.455641	-139.006153
9.900000	-0.507185	-156.420737	-25.081750	-24.548846	-25.081750	-24.548846	-0.461331	-139.606234
9.950000	-0.513365	-157.119810	-25.018973	-25.000366	-25.018973	-25.000366	-0.467120	-140.206387
10.000000	-0.519550	-157.818882	-24.956646	-25.451886	-24.956646	-25.451886	-0.472913	-140.806539
