! freq	dB(S11)	phase(S11)	dB(S12)	phase(S12)	
!     	dB(S21)	phase(S21)	dB(S22)	phase(S22)	
!S-par simulation data
#  GHz  S  DB  R 50
0.000000	-0.000000	0.000000	-351.660322	0.000000	-351.660322	0.000000	-0.000000	0.000000
0.050000	-0.000096	-0.755642	-79.777929	81.572395	-79.777929	81.572395	-0.000096	-0.755642
0.100000	-0.000380	-1.511053	-73.994261	84.457863	-73.994261	84.457863	-0.000380	-1.511053
0.150000	-0.000846	-2.265999	-70.522889	85.036200	-70.522889	85.036200	-0.000846	-2.265999
0.200000	-0.001463	-3.020343	-68.046229	84.991627	-68.046229	84.991627	-0.001463	-3.020343
0.250000	-0.002218	-3.773925	-66.122662	84.673994	-66.122662	84.673994	-0.002218	-3.773925
0.300000	-0.003098	-4.526549	-64.551971	84.209746	-64.551971	84.209746	-0.003098	-4.526549
0.350000	-0.004061	-5.278300	-63.225522	83.676573	-63.225522	83.676573	-0.004061	-5.278300
0.400000	-0.005098	-6.029005	-62.079049	83.091614	-62.079049	83.091614	-0.005098	-6.029005
0.450000	-0.006183	-6.778746	-61.070245	82.476296	-61.070245	82.476296	-0.006183	-6.778746
0.500000	-0.007303	-7.527492	-60.170599	81.838972	-60.170599	81.838972	-0.007303	-7.527492
0.550000	-0.008441	-8.275276	-59.359588	81.186396	-59.359588	81.186396	-0.008441	-8.275277
0.600000	-0.009587	-9.022132	-58.622068	80.522930	-58.622068	80.522930	-0.009587	-9.022132
0.650000	-0.010732	-9.768094	-57.946534	79.851645	-57.946534	79.851645	-0.010732	-9.768094
0.700000	-0.011870	-10.513199	-57.324037	79.174783	-57.324037	79.174783	-0.011870	-10.513200
0.750000	-0.012998	-11.257481	-56.747481	78.494034	-56.747481	78.494034	-0.012998	-11.257481
0.800000	-0.014111	-12.000966	-56.211144	77.810712	-56.211144	77.810712	-0.014111	-12.000966
0.850000	-0.015206	-12.743550	-55.711179	77.125848	-55.711179	77.125848	-0.015206	-12.743550
0.900000	-0.016285	-13.485346	-55.242987	76.440315	-55.242987	76.440315	-0.016285	-13.485347
0.950000	-0.017356	-14.226759	-54.801119	75.755058	-54.801119	75.755058	-0.017356	-14.226759
1.000000	-0.018403	-14.967019	-54.387431	75.070631	-54.387431	75.070631	-0.018403	-14.967019
1.050000	-0.019446	-15.707024	-53.994144	74.386770	-53.994144	74.386770	-0.019446	-15.707025
1.100000	-0.020466	-16.445757	-53.625511	73.705749	-53.625511	73.705749	-0.020466	-16.445757
1.150000	-0.021484	-17.184360	-53.272685	73.025167	-53.272685	73.025167	-0.021484	-17.184360
1.200000	-0.022482	-17.921542	-52.942076	72.349426	-52.942076	72.349426	-0.022482	-17.921543
1.250000	-0.023480	-18.658725	-52.623590	71.673684	-52.623590	71.673684	-0.023480	-18.658725
1.300000	-0.024464	-19.394718	-52.323232	71.002937	-52.323232	71.002937	-0.024464	-19.394719
1.350000	-0.025441	-20.129935	-52.037363	70.335872	-52.037363	70.335872	-0.025441	-20.129935
1.400000	-0.026412	-20.864360	-51.765054	69.672828	-51.765054	69.672828	-0.026412	-20.864360
1.450000	-0.027377	-21.597978	-51.505474	69.014140	-51.505474	69.014140	-0.027377	-21.597978
1.500000	-0.028339	-22.330774	-51.257877	68.360136	-51.257877	68.360136	-0.028339	-22.330774
1.550000	-0.029296	-23.062732	-51.021592	67.711143	-51.021592	67.711143	-0.029296	-23.062732
1.600000	-0.030250	-23.793833	-50.796010	67.067491	-50.796010	67.067491	-0.030250	-23.793833
1.650000	-0.031202	-24.524062	-50.580581	66.429507	-50.580581	66.429507	-0.031202	-24.524062
1.700000	-0.032151	-25.253083	-50.376390	65.799772	-50.376390	65.799772	-0.032151	-25.253083
1.750000	-0.033100	-25.981633	-50.179185	65.173285	-50.179185	65.173285	-0.033100	-25.981633
1.800000	-0.034047	-26.709050	-49.991782	64.555102	-49.991782	64.555102	-0.034047	-26.709049
1.850000	-0.034994	-27.435656	-49.812132	63.942851	-49.812132	63.942851	-0.034994	-27.435656
1.900000	-0.035941	-28.161253	-49.640752	63.338490	-49.640752	63.338490	-0.035941	-28.161252
1.950000	-0.036888	-28.885840	-49.477231	62.742018	-49.477231	62.742018	-0.036888	-28.885839
2.000000	-0.037835	-29.609555	-49.320566	62.152796	-49.320566	62.152796	-0.037835	-29.609555
2.050000	-0.038783	-30.332050	-49.171953	61.573721	-49.171953	61.573721	-0.038783	-30.332050
2.100000	-0.039732	-31.053824	-49.028881	61.001012	-49.028881	61.001012	-0.039732	-31.053824
2.150000	-0.040683	-31.774156	-48.894116	60.441035	-48.894116	60.441035	-0.040683	-31.774155
2.200000	-0.041635	-32.493930	-48.763668	59.886282	-48.763668	59.886282	-0.041635	-32.493929
2.250000	-0.042589	-33.212029	-48.641825	59.347200	-48.641825	59.347200	-0.042589	-33.212028
2.300000	-0.043545	-33.929746	-48.523153	58.811918	-48.523153	58.811918	-0.043545	-33.929744
2.350000	-0.044504	-34.645546	-48.413408	58.295634	-48.413408	58.295634	-0.044504	-34.645545
2.400000	-0.045465	-35.361150	-48.305763	57.781419	-48.305763	57.781419	-0.045465	-35.361149
2.450000	-0.046431	-36.074588	-48.207376	57.289953	-48.207376	57.289953	-0.046431	-36.074586
2.500000	-0.047397	-36.788026	-48.110092	56.798488	-48.110092	56.798488	-0.047397	-36.788024
2.550000	-0.048370	-37.499039	-48.022386	56.333986	-48.022386	56.333986	-0.048370	-37.499037
2.600000	-0.049344	-38.210053	-47.935558	55.869484	-47.935558	55.869484	-0.049344	-38.210051
2.650000	-0.050325	-38.918790	-47.857208	55.431787	-47.857208	55.431787	-0.050325	-38.918788
2.700000	-0.051307	-39.627320	-47.780245	54.996527	-47.780245	54.996527	-0.051307	-39.627318
2.750000	-0.052298	-40.333734	-47.710698	54.587652	-47.710698	54.587652	-0.052298	-40.333732
2.800000	-0.053290	-41.039725	-47.643040	54.184053	-47.643040	54.184053	-0.053290	-41.039723
2.850000	-0.054291	-41.743772	-47.581773	53.806125	-47.581773	53.806125	-0.054291	-41.743769
2.900000	-0.055295	-42.447170	-47.522879	53.436754	-47.522879	53.436754	-0.055295	-42.447167
2.950000	-0.056307	-43.148805	-47.469392	53.092010	-47.469392	53.092010	-0.056307	-43.148802
3.000000	-0.057324	-43.849559	-47.418724	52.759580	-47.418724	52.759580	-0.057324	-43.849556
3.050000	-0.058349	-44.548744	-47.372529	52.450369	-47.372529	52.450369	-0.058349	-44.548740
3.100000	-0.059379	-45.246806	-47.329547	52.157744	-47.329547	52.157744	-0.059379	-45.246802
3.150000	-0.060418	-45.943500	-47.290155	51.886523	-47.290155	51.886523	-0.060418	-45.943496
3.200000	-0.061464	-46.638825	-47.254304	51.636707	-47.254304	51.636707	-0.061464	-46.638821
3.250000	-0.062518	-47.332992	-47.221220	51.406034	-47.221220	51.406034	-0.062518	-47.332988
3.300000	-0.063582	-48.025537	-47.191915	51.202163	-47.191915	51.202163	-0.063582	-48.025533
3.350000	-0.064652	-48.717143	-47.164627	51.014687	-47.164627	51.014687	-0.064652	-48.717138
3.400000	-0.065734	-49.406868	-47.141246	50.860003	-47.141246	50.860003	-0.065734	-49.406863
3.450000	-0.066821	-50.095880	-47.119214	50.718446	-47.119214	50.718446	-0.066821	-50.095875
3.500000	-0.067924	-50.782749	-47.101084	50.616266	-47.101084	50.616266	-0.067924	-50.782743
3.550000	-0.069030	-51.469136	-47.083733	50.523394	-47.083733	50.523394	-0.069030	-51.469130
3.600000	-0.070155	-52.153113	-47.070115	50.477058	-47.070115	50.477058	-0.070155	-52.153107
3.650000	-0.071281	-52.836848	-47.056823	50.435651	-47.056823	50.435651	-0.071281	-52.836841
3.700000	-0.072429	-53.517903	-47.046903	50.448454	-47.046903	50.448454	-0.072429	-53.517896
3.750000	-0.073577	-54.198958	-47.036994	50.461256	-47.036994	50.461256	-0.073577	-54.198951
3.800000	-0.074750	-54.877062	-47.029870	50.536351	-47.029870	50.536351	-0.074750	-54.877055
3.850000	-0.075924	-55.555166	-47.022751	50.611445	-47.022751	50.611445	-0.075924	-55.555159
3.900000	-0.077121	-56.230542	-47.017272	50.746294	-47.017272	50.746294	-0.077121	-56.230534
3.950000	-0.078321	-56.905669	-47.011945	50.886575	-47.011945	50.886575	-0.078321	-56.905661
4.000000	-0.079544	-57.578296	-47.007187	51.083246	-47.007187	51.083246	-0.079544	-57.578288
4.050000	-0.080772	-58.250423	-47.002544	51.291195	-47.002544	51.291195	-0.080772	-58.250414
4.100000	-0.082023	-58.920286	-46.997497	51.551311	-46.997497	51.551311	-0.082023	-58.920276
4.150000	-0.083281	-59.589393	-46.992319	51.828815	-46.992319	51.828815	-0.083280	-59.589383
4.200000	-0.084559	-60.256475	-46.985894	52.153409	-46.985894	52.153409	-0.084559	-60.256465
4.250000	-0.085849	-60.922545	-46.978850	52.501548	-46.978850	52.501548	-0.085849	-60.922535
4.300000	-0.087158	-61.586835	-46.969879	52.890911	-46.969879	52.890911	-0.087158	-61.586824
4.350000	-0.088481	-62.249853	-46.959538	53.309719	-46.959538	53.309719	-0.088481	-62.249841
4.400000	-0.089821	-62.911339	-46.946787	53.763237	-46.946787	53.763237	-0.089821	-62.911327
4.450000	-0.091178	-63.571293	-46.931638	54.251463	-46.931638	54.251463	-0.091178	-63.571281
4.500000	-0.092551	-64.229966	-46.913832	54.767457	-46.913832	54.767457	-0.092551	-64.229954
4.550000	-0.093945	-64.886848	-46.892313	55.322326	-46.892313	55.322326	-0.093945	-64.886835
4.600000	-0.095351	-65.542702	-46.868157	55.897914	-46.868157	55.897914	-0.095351	-65.542689
4.650000	-0.096783	-66.196504	-46.838702	56.514937	-46.838702	56.514937	-0.096783	-66.196491
4.700000	-0.098225	-66.849536	-46.806922	57.145917	-46.806922	57.145917	-0.098225	-66.849521
4.750000	-0.099697	-67.500255	-46.768015	57.818768	-46.768015	57.818768	-0.099697	-67.500240
4.800000	-0.101176	-68.150460	-46.727403	58.499560	-46.727403	58.499560	-0.101176	-68.150444
4.850000	-0.102689	-68.798095	-46.677639	59.220059	-46.677639	59.220059	-0.102689	-68.798079
4.900000	-0.104205	-69.445473	-46.627098	59.943703	-46.627098	59.943703	-0.104205	-69.445457
4.950000	-0.105761	-70.090025	-46.565259	60.701939	-46.565259	60.701939	-0.105761	-70.090009
5.000000	-0.107317	-70.734578	-46.503857	61.460175	-46.503857	61.460175	-0.107317	-70.734561
5.050000	-0.108918	-71.376052	-46.428971	62.244768	-46.428971	62.244768	-0.108918	-71.376034
5.100000	-0.110518	-72.017526	-46.354726	63.029361	-46.354726	63.029361	-0.110518	-72.017508
5.150000	-0.112161	-72.656184	-46.267387	63.826710	-46.267387	63.826710	-0.112161	-72.656165
5.200000	-0.113808	-73.294586	-46.179684	64.625219	-46.179684	64.625219	-0.113808	-73.294567
5.250000	-0.115494	-73.930436	-46.079711	65.424505	-46.079711	65.424505	-0.115494	-73.930416
5.300000	-0.117188	-74.565776	-45.978279	66.223945	-45.978279	66.223945	-0.117188	-74.565755
5.350000	-0.118919	-75.198826	-45.865783	67.014370	-45.865783	67.014370	-0.118919	-75.198805
5.400000	-0.120663	-75.831114	-45.750704	67.801789	-45.750704	67.801789	-0.120663	-75.831093
5.450000	-0.122441	-76.461377	-45.626079	68.572960	-45.626079	68.572960	-0.122441	-76.461355
5.500000	-0.124235	-77.090628	-45.497774	69.336008	-45.497774	69.336008	-0.124235	-77.090605
5.550000	-0.126060	-77.718115	-45.361667	70.078283	-45.361667	70.078283	-0.126060	-77.718092
5.600000	-0.127907	-78.344344	-45.220865	70.805721	-45.220865	70.805721	-0.127907	-78.344320
5.650000	-0.129781	-78.969071	-45.074135	71.510485	-45.074135	71.510485	-0.129781	-78.969046
5.700000	-0.131682	-79.592296	-44.921811	72.192576	-44.921811	72.192576	-0.131682	-79.592271
5.750000	-0.133606	-80.214279	-44.765481	72.852447	-44.765481	72.852447	-0.133606	-80.214253
5.800000	-0.135563	-80.834521	-44.602801	73.481208	-44.602801	73.481208	-0.135563	-80.834495
5.850000	-0.137538	-81.453777	-44.438001	74.090149	-44.438001	74.090149	-0.137538	-81.453750
5.900000	-0.139552	-82.071060	-44.266248	74.659452	-44.266248	74.659452	-0.139552	-82.071032
5.950000	-0.141580	-82.687608	-44.094168	75.212816	-44.094168	75.212816	-0.141580	-82.687580
6.000000	-0.143652	-83.301955	-43.914681	75.718360	-43.914681	75.718360	-0.143652	-83.301926
6.050000	-0.145735	-83.915817	-43.736520	76.212845	-43.736520	76.212845	-0.145735	-83.915787
6.100000	-0.147867	-84.527255	-43.550638	76.652027	-43.550638	76.652027	-0.147867	-84.527224
6.150000	-0.150005	-85.138453	-43.367567	77.085588	-43.367567	77.085588	-0.150005	-85.138422
6.200000	-0.152198	-85.747011	-43.176587	77.457303	-43.176587	77.457303	-0.152198	-85.746979
6.250000	-0.154393	-86.355569	-42.989717	77.829018	-42.989717	77.829018	-0.154393	-86.355536
6.300000	-0.156650	-86.961278	-42.794859	78.133422	-42.794859	78.133422	-0.156650	-86.961244
6.350000	-0.158907	-87.566986	-42.604276	78.437826	-42.604276	78.437826	-0.158907	-87.566952
6.400000	-0.161223	-88.170112	-42.407606	78.681606	-42.407606	78.681606	-0.161223	-88.170077
6.450000	-0.163546	-88.773004	-42.214385	78.919874	-42.214385	78.919874	-0.163545	-88.772968
6.500000	-0.165922	-89.373576	-42.016779	79.104664	-42.016779	79.104664	-0.165922	-89.373539
6.550000	-0.168311	-89.973685	-41.821888	79.278758	-41.821888	79.278758	-0.168310	-89.973647
6.600000	-0.170749	-90.571733	-41.624114	79.406624	-41.624114	79.406624	-0.170749	-90.571695
6.650000	-0.173205	-91.169095	-41.428410	79.519082	-41.428410	79.519082	-0.173205	-91.169056
6.700000	-0.175714	-91.764353	-41.230182	79.586157	-41.230182	79.586157	-0.175714	-91.764313
6.750000	-0.178250	-92.358560	-41.033035	79.630540	-41.033035	79.630540	-0.178250	-92.358518
6.800000	-0.180787	-92.952766	-40.840264	79.674924	-40.840264	79.674924	-0.180787	-92.952724
6.850000	-0.183407	-93.543824	-40.642353	79.654823	-40.642353	79.654823	-0.183407	-93.543781
6.900000	-0.186038	-94.134489	-40.447710	79.626661	-40.447710	79.626661	-0.186038	-94.134445
6.950000	-0.188680	-94.724769	-40.256274	79.591100	-40.256274	79.591100	-0.188680	-94.724724
7.000000	-0.191407	-95.311966	-40.060663	79.496340	-40.060663	79.496340	-0.191407	-95.311921
7.050000	-0.194136	-95.899164	-39.869361	79.401580	-39.869361	79.401580	-0.194135	-95.899117
7.100000	-0.196897	-96.485232	-39.679352	79.286603	-39.679352	79.286603	-0.196897	-96.485184
7.150000	-0.199724	-97.069041	-39.487875	79.131193	-39.487875	79.131193	-0.199724	-97.068992
7.200000	-0.202552	-97.652849	-39.300528	78.975783	-39.300528	78.975783	-0.202552	-97.652799
7.250000	-0.205436	-98.234820	-39.112947	78.789892	-39.112947	78.789892	-0.205436	-98.234769
7.300000	-0.208365	-98.815321	-38.926053	78.579617	-38.926053	78.579617	-0.208365	-98.815269
7.350000	-0.211296	-99.395822	-38.743095	78.369342	-38.743095	78.369342	-0.211296	-99.395769
7.400000	-0.214306	-99.973816	-38.558703	78.120694	-38.558703	78.120694	-0.214306	-99.973762
7.450000	-0.217340	-100.551094	-38.376688	77.861081	-38.376688	77.861081	-0.217339	-100.551039
7.500000	-0.220374	-101.128371	-38.198409	77.601469	-38.198409	77.601469	-0.220374	-101.128315
7.550000	-0.223514	-101.702515	-38.017768	77.297734	-38.017768	77.297734	-0.223514	-101.702458
7.600000	-0.226655	-102.276658	-37.840808	76.993999	-37.840808	76.993999	-0.226655	-102.276600
7.650000	-0.229820	-102.850125	-37.666184	76.681545	-37.666184	76.681545	-0.229820	-102.850066
7.700000	-0.233069	-103.421225	-37.490891	76.338571	-37.490891	76.338571	-0.233069	-103.421164
7.750000	-0.236319	-103.992325	-37.319066	75.995597	-37.319066	75.995597	-0.236319	-103.992263
7.800000	-0.239618	-104.562114	-37.148443	75.637205	-37.148443	75.637205	-0.239618	-104.562051
7.850000	-0.242978	-105.130265	-36.978497	75.259540	-36.978497	75.259540	-0.242978	-105.130201
7.900000	-0.246339	-105.698416	-36.811812	74.881876	-36.811812	74.881876	-0.246339	-105.698351
7.950000	-0.249775	-106.264666	-36.645418	74.483900	-36.645418	74.483900	-0.249775	-106.264600
8.000000	-0.253249	-106.829966	-36.480755	74.075769	-36.480755	74.075769	-0.253249	-106.829899
8.050000	-0.256724	-107.395266	-36.319156	73.667638	-36.319156	73.667638	-0.256724	-107.395198
8.100000	-0.260299	-107.958121	-36.157114	73.235906	-36.157114	73.235906	-0.260299	-107.958051
8.150000	-0.263889	-108.520670	-35.997624	72.801224	-35.997624	72.801224	-0.263889	-108.520599
8.200000	-0.267492	-109.082925	-35.840622	72.363994	-35.840622	72.363994	-0.267492	-109.082852
8.250000	-0.271198	-109.642826	-35.683358	71.906386	-35.683358	71.906386	-0.271198	-109.642753
8.300000	-0.274905	-110.202728	-35.528891	71.448777	-35.528891	71.448777	-0.274905	-110.202653
8.350000	-0.278652	-110.761782	-35.376070	70.984645	-35.376070	70.984645	-0.278652	-110.761706
8.400000	-0.282477	-111.319142	-35.223824	70.507465	-35.223824	70.507465	-0.282477	-111.319065
8.450000	-0.286304	-111.876503	-35.074200	70.030284	-35.074200	70.030284	-0.286304	-111.876424
8.500000	-0.290197	-112.432512	-34.925510	69.543953	-34.925510	69.543953	-0.290197	-112.432432
8.550000	-0.294144	-112.987440	-34.778064	69.050301	-34.778064	69.050301	-0.294144	-112.987359
8.600000	-0.298092	-113.542368	-34.633079	68.556650	-34.633079	68.556650	-0.298092	-113.542285
8.650000	-0.302134	-114.095492	-34.488406	68.052413	-34.488406	68.052413	-0.302134	-114.095407
8.700000	-0.306204	-114.648100	-34.345522	67.545152	-34.345522	67.545152	-0.306204	-114.648014
8.750000	-0.310276	-115.200707	-34.204951	67.037892	-34.204951	67.037892	-0.310276	-115.200620
8.800000	-0.314469	-115.751110	-34.064129	66.519662	-34.064129	66.519662	-0.314469	-115.751021
8.850000	-0.318664	-116.301512	-33.925553	66.001432	-33.925553	66.001432	-0.318664	-116.301422
8.900000	-0.322888	-116.851450	-33.788619	65.481304	-33.788619	65.481304	-0.322888	-116.851358
8.950000	-0.327208	-117.399764	-33.651967	64.954533	-33.651967	64.954533	-0.327208	-117.399671
9.000000	-0.331530	-117.948078	-33.517431	64.427763	-33.517431	64.427763	-0.331529	-117.947983
9.050000	-0.335908	-118.495517	-33.383911	63.898186	-33.383911	63.898186	-0.335907	-118.495421
9.100000	-0.340355	-119.041863	-33.251136	63.365103	-33.251136	63.365103	-0.340355	-119.041765
9.150000	-0.344805	-119.588208	-33.120360	62.832020	-33.120360	62.832020	-0.344805	-119.588109
9.200000	-0.349339	-120.133324	-32.989989	62.296087	-32.989989	62.296087	-0.349339	-120.133224
9.250000	-0.353916	-120.677825	-32.860789	61.758729	-32.860789	61.758729	-0.353916	-120.677723
9.300000	-0.358496	-121.222326	-32.733483	61.221370	-32.733483	61.221370	-0.358495	-121.222222
9.350000	-0.363187	-121.765298	-32.605957	60.681861	-32.605957	60.681861	-0.363187	-121.765193
9.400000	-0.367895	-122.308080	-32.480022	60.142083	-32.480022	60.142083	-0.367895	-122.307973
9.450000	-0.372619	-122.850685	-32.355620	59.602223	-32.355620	59.602223	-0.372619	-122.850576
9.500000	-0.377456	-123.391876	-32.230866	59.061706	-32.230866	59.061706	-0.377456	-123.391765
9.550000	-0.382296	-123.933067	-32.107878	58.521188	-32.107878	58.521188	-0.382296	-123.932955
9.600000	-0.387180	-124.473772	-31.985775	57.980929	-31.985775	57.980929	-0.387180	-124.473658
9.650000	-0.392150	-125.013504	-31.863720	57.441186	-31.863720	57.441186	-0.392149	-125.013389
9.700000	-0.397122	-125.553237	-31.743357	56.901442	-31.743357	56.901442	-0.397122	-125.553119
9.750000	-0.402167	-126.092234	-31.623175	56.362880	-31.623175	56.362880	-0.402167	-126.092114
9.800000	-0.407270	-126.630642	-31.503480	55.825264	-31.503480	55.825264	-0.407270	-126.630521
9.850000	-0.412377	-127.169051	-31.385411	55.287647	-31.385411	55.287647	-0.412376	-127.168928
9.900000	-0.417583	-127.706537	-31.266746	54.752619	-31.266746	54.752619	-0.417583	-127.706412
9.950000	-0.422821	-128.243759	-31.149065	54.218329	-31.149065	54.218329	-0.422821	-128.243632
10.000000	-0.428062	-128.780982	-31.032957	53.684039	-31.032957	53.684039	-0.428061	-128.780853
