! freq	dB(S11)	phase(S11)	dB(S12)	phase(S12)	
!     	dB(S21)	phase(S21)	dB(S22)	phase(S22)	
!S-par simulation data
#  GHz  S  DB  R 50
0.000000	-89.149009	0.000000	-0.000303	0.000000	-0.000303	0.000000	-89.149009	0.000000
0.050000	-88.989199	10.430415	-0.000448	-0.897808	-0.000448	-0.897808	-88.988963	10.418662
0.100000	-88.479896	21.140427	-0.000875	-1.795252	-0.000875	-1.795252	-88.479149	21.115034
0.150000	-87.562546	31.998132	-0.001559	-2.692008	-0.001559	-2.692008	-87.561480	31.957247
0.200000	-86.222403	42.400985	-0.002464	-3.587835	-0.002464	-3.587835	-86.221562	42.345182
0.250000	-84.483267	51.529468	-0.003558	-4.482487	-0.003558	-4.482487	-84.483193	51.462532
0.300000	-82.525470	59.064703	-0.004782	-5.375984	-0.004782	-5.375984	-82.526330	58.991271
0.350000	-80.449656	64.918200	-0.006101	-6.268268	-0.006101	-6.268268	-80.451370	64.842469
0.400000	-78.350001	69.289313	-0.007478	-7.159387	-0.007478	-7.159387	-78.352363	69.214216
0.450000	-76.285002	72.462772	-0.008882	-8.049431	-0.008882	-8.049431	-76.287792	72.390051
0.500000	-74.286235	74.710866	-0.010288	-8.938520	-0.010288	-8.938520	-74.289269	74.641414
0.550000	-72.368334	76.257206	-0.011677	-9.826787	-0.011677	-9.826787	-72.371475	76.191388
0.600000	-70.536231	77.273174	-0.013037	-10.714367	-0.013037	-10.714367	-70.539382	77.211046
0.650000	-68.789617	77.886207	-0.014359	-11.601392	-0.014359	-11.601392	-68.792715	77.827657
0.700000	-67.125513	78.190117	-0.015639	-12.487982	-0.015639	-12.487982	-67.128515	78.134948
0.750000	-65.539688	78.254043	-0.016874	-13.374247	-0.016874	-13.374247	-65.542570	78.202019
0.800000	-64.027442	78.129309	-0.018067	-14.260284	-0.018067	-14.260284	-64.030189	78.080184
0.850000	-62.584013	77.854433	-0.019218	-15.146177	-0.019218	-15.146177	-62.586619	77.807962
0.900000	-61.204793	77.458685	-0.020330	-16.032000	-0.020330	-16.032000	-61.207258	77.414638
0.950000	-59.885428	76.964611	-0.021407	-16.917815	-0.021407	-16.917815	-59.887754	76.922775
1.000000	-58.621863	76.389814	-0.022453	-17.803675	-0.022453	-17.803675	-58.624056	76.349993
1.050000	-57.410348	75.748221	-0.023471	-18.689627	-0.023471	-18.689627	-57.412413	75.710237
1.100000	-56.247430	75.050985	-0.024465	-19.575710	-0.024465	-19.575710	-56.249375	75.014680
1.150000	-55.129936	74.307148	-0.025439	-20.461959	-0.025439	-20.461959	-55.131769	74.272377
1.200000	-54.054955	73.524112	-0.026395	-21.348402	-0.026395	-21.348402	-54.056683	73.490747
1.250000	-53.019813	72.707998	-0.027338	-22.235067	-0.027338	-22.235067	-53.021443	72.675923
1.300000	-52.018762	71.862891	-0.028269	-23.121988	-0.028269	-23.121988	-52.020301	71.832000
1.350000	-51.053305	70.994415	-0.029193	-24.009177	-0.029193	-24.009177	-51.054759	70.964617
1.400000	-50.121295	70.106114	-0.030111	-24.896652	-0.030111	-24.896652	-50.122671	70.077328
1.450000	-49.220759	69.201008	-0.031025	-25.784431	-0.031025	-25.784431	-49.222063	69.173160
1.500000	-48.349880	68.281678	-0.031939	-26.672532	-0.031939	-26.672532	-48.351118	68.254703
1.550000	-47.506983	67.350339	-0.032854	-27.560968	-0.032854	-27.560968	-47.508159	67.324178
1.600000	-46.690519	66.408899	-0.033771	-28.449757	-0.033771	-28.449757	-46.691639	66.383497
1.650000	-45.899056	65.459002	-0.034693	-29.338913	-0.034693	-29.338913	-45.900123	65.434311
1.700000	-45.131268	64.502070	-0.035621	-30.228450	-0.035621	-30.228450	-45.132287	64.478047
1.750000	-44.385923	63.539336	-0.036556	-31.118382	-0.036556	-31.118382	-44.386897	63.515939
1.800000	-43.661879	62.571864	-0.037500	-32.008723	-0.037500	-32.008723	-43.662810	62.549058
1.850000	-42.958070	61.600581	-0.038455	-32.899488	-0.038455	-32.899488	-42.958962	61.578331
1.900000	-42.273506	60.626288	-0.039422	-33.790691	-0.039422	-33.790691	-42.274362	60.604564
1.950000	-41.607263	59.649681	-0.040401	-34.682346	-0.040401	-34.682346	-41.608085	59.628454
2.000000	-40.958478	58.671361	-0.041395	-35.574466	-0.041395	-35.574466	-40.959269	58.650604
2.050000	-40.326345	57.691848	-0.042404	-36.467065	-0.042404	-36.467065	-40.327106	57.671538
2.100000	-39.710108	56.711594	-0.043431	-37.360159	-0.043431	-37.360159	-39.710841	56.691708
2.150000	-39.109060	55.730984	-0.044475	-38.253761	-0.044475	-38.253761	-39.109767	55.711500
2.200000	-38.522538	54.750352	-0.045539	-39.147886	-0.045539	-39.147886	-38.523220	54.731251
2.250000	-37.949918	53.769982	-0.046624	-40.042548	-0.046624	-40.042548	-37.950577	53.751245
2.300000	-37.390615	52.790115	-0.047730	-40.937761	-0.047730	-40.937761	-37.391252	52.771726
2.350000	-36.844078	51.810958	-0.048860	-41.833541	-0.048860	-41.833541	-36.844695	51.792899
2.400000	-36.309789	50.832680	-0.050015	-42.729901	-0.050015	-42.729901	-36.310386	50.814936
2.450000	-35.787259	49.855424	-0.051196	-43.626856	-0.051196	-43.626856	-35.787838	49.837981
2.500000	-35.276026	48.879308	-0.052405	-44.524422	-0.052405	-44.524422	-35.276587	48.862152
2.550000	-34.774883	47.904482	-0.053645	-45.422640	-0.053645	-45.422640	-34.775427	47.887599
2.600000	-34.284256	46.930967	-0.054915	-46.321499	-0.054915	-46.321499	-34.284785	46.914346
2.650000	-33.803752	45.958818	-0.056219	-47.221013	-0.056219	-47.221013	-33.804265	45.942447
2.700000	-33.332997	44.988073	-0.057556	-48.121197	-0.057556	-48.121197	-33.333496	44.971940
2.750000	-32.871638	44.018756	-0.058930	-49.022065	-0.058930	-49.022065	-32.872123	44.002852
2.800000	-32.419340	43.050879	-0.060341	-49.923633	-0.060341	-49.923633	-32.419812	43.035194
2.850000	-31.975786	42.084446	-0.061793	-50.825913	-0.061793	-50.825913	-31.976245	42.068969
2.900000	-31.540675	41.119448	-0.063286	-51.728921	-0.063286	-51.728921	-31.541123	41.104171
2.950000	-31.113722	40.155870	-0.064822	-52.632670	-0.064822	-52.632670	-31.114159	40.140784
3.000000	-30.694656	39.193687	-0.066405	-53.537175	-0.066405	-53.537175	-30.695081	39.178785
3.050000	-30.283218	38.232872	-0.068035	-54.442449	-0.068035	-54.442449	-30.283633	38.218145
3.100000	-29.879164	37.273389	-0.069716	-55.348506	-0.069716	-55.348506	-29.879570	37.258830
3.150000	-29.482261	36.315198	-0.071449	-56.255359	-0.071449	-56.255359	-29.482657	36.300799
3.200000	-29.092286	35.358255	-0.073237	-57.163021	-0.073237	-57.163021	-29.092673	35.344010
3.250000	-28.709029	34.402513	-0.075082	-58.071504	-0.075082	-58.071504	-28.709408	34.388415
3.300000	-28.332288	33.447920	-0.076987	-58.980822	-0.076987	-58.980822	-28.332658	33.433963
3.350000	-27.961871	32.494425	-0.078954	-59.890987	-0.078954	-59.890987	-27.962233	32.480602
3.400000	-27.597594	31.541970	-0.080986	-60.802011	-0.080986	-60.802011	-27.597949	31.528277
3.450000	-27.239284	30.590500	-0.083085	-61.713904	-0.083085	-61.713904	-27.239632	30.576930
3.500000	-26.886773	29.639956	-0.085255	-62.626679	-0.085255	-62.626679	-26.887113	29.626505
3.550000	-26.539901	28.690279	-0.087498	-63.540346	-0.087498	-63.540346	-26.540235	28.676941
3.600000	-26.198517	27.741409	-0.089816	-64.454916	-0.089816	-64.454916	-26.198845	27.728180
3.650000	-25.862476	26.793286	-0.092214	-65.370398	-0.092214	-65.370398	-25.862798	26.780161
3.700000	-25.531637	25.845849	-0.094694	-66.286802	-0.094694	-66.286802	-25.531954	25.832824
3.750000	-25.205869	24.899038	-0.097258	-67.204137	-0.097258	-67.204137	-25.206180	24.886108
3.800000	-24.884746	23.952815	-0.099915	-68.122454	-0.099915	-68.122454	-24.885051	23.939976
3.850000	-24.568463	23.007094	-0.102664	-69.041719	-0.102664	-69.041719	-24.568764	22.994342
3.900000	-24.256904	22.061815	-0.105507	-69.961939	-0.105507	-69.961939	-24.257200	22.049147
3.950000	-23.949956	21.116922	-0.108449	-70.883123	-0.108449	-70.883123	-23.950248	21.104334
4.000000	-23.647511	20.172358	-0.111492	-71.805276	-0.111492	-71.805276	-23.647798	20.159847
4.050000	-23.349465	19.228069	-0.114641	-72.728405	-0.114641	-72.728405	-23.349749	19.215630
4.100000	-23.055721	18.283999	-0.117898	-73.652513	-0.117898	-73.652513	-23.056000	18.271631
4.150000	-22.766182	17.340097	-0.121267	-74.577606	-0.121267	-74.577606	-22.766458	17.327796
4.200000	-22.480758	16.396313	-0.124752	-75.503688	-0.124752	-75.503688	-22.481030	16.384076
4.250000	-22.199361	15.452598	-0.128356	-76.430762	-0.128356	-76.430762	-22.199630	15.440422
4.300000	-21.921909	14.508905	-0.132084	-77.358831	-0.132084	-77.358831	-21.922175	14.496788
4.350000	-21.648321	13.565188	-0.135938	-78.287896	-0.135938	-78.287896	-21.648584	13.553127
4.400000	-21.379113	12.621420	-0.139905	-79.217828	-0.139905	-79.217828	-21.379373	12.609412
4.450000	-21.112956	11.677533	-0.144024	-80.148899	-0.144024	-80.148899	-21.113213	11.665576
4.500000	-20.850445	10.733500	-0.148282	-81.080968	-0.148282	-81.080968	-20.850700	10.721591
4.550000	-20.591511	9.789284	-0.152682	-82.014034	-0.152682	-82.014034	-20.591763	9.777421
4.600000	-20.336088	8.844850	-0.157227	-82.948095	-0.157227	-82.948095	-20.336338	8.833031
4.650000	-20.084114	7.900167	-0.161923	-83.883147	-0.161923	-83.883147	-20.084362	7.888389
4.700000	-19.835528	6.955205	-0.166771	-84.819189	-0.166771	-84.819189	-19.835773	6.943467
4.750000	-19.590270	6.009937	-0.171778	-85.756214	-0.171778	-85.756214	-19.590514	5.998237
4.800000	-19.348286	5.064340	-0.176945	-86.694220	-0.176945	-86.694220	-19.348528	5.052674
4.850000	-19.109521	4.118390	-0.182279	-87.633198	-0.182279	-87.633198	-19.109762	4.106758
4.900000	-18.873923	3.172068	-0.187781	-88.573143	-0.187781	-88.573143	-18.874162	3.160467
4.950000	-18.641442	2.225357	-0.193457	-89.514047	-0.193457	-89.514047	-18.641679	2.213786
5.000000	-18.412029	1.278242	-0.199309	-90.455901	-0.199309	-90.455901	-18.412265	1.266699
5.050000	-18.185577	0.330702	-0.205347	-91.398716	-0.205347	-91.398716	-18.185811	0.319185
5.100000	-17.962106	-0.617263	-0.211570	-92.342462	-0.211570	-92.342462	-17.962338	-0.628757
5.150000	-17.741573	-1.565662	-0.217982	-93.287126	-0.217982	-93.287126	-17.741804	-1.577133
5.200000	-17.523937	-2.514498	-0.224586	-94.232698	-0.224586	-94.232698	-17.524166	-2.525948
5.250000	-17.309156	-3.463773	-0.231388	-95.179163	-0.231388	-95.179163	-17.309384	-3.475205
5.300000	-17.097191	-4.413487	-0.238389	-96.126507	-0.238389	-96.126507	-17.097418	-4.424902
5.350000	-16.888005	-5.363637	-0.245595	-97.074717	-0.245595	-97.074717	-16.888231	-5.375036
5.400000	-16.681560	-6.314219	-0.253009	-98.023775	-0.253009	-98.023775	-16.681785	-6.325604
5.450000	-16.477822	-7.265224	-0.260634	-98.973667	-0.260634	-98.973667	-16.478046	-7.276597
5.500000	-16.276755	-8.216644	-0.268475	-99.924373	-0.268475	-99.924373	-16.276978	-8.228006
5.550000	-16.078326	-9.168466	-0.276534	-100.875875	-0.276534	-100.875875	-16.078548	-9.179819
5.600000	-15.882503	-10.120676	-0.284815	-101.828154	-0.284815	-101.828154	-15.882724	-10.132022
5.650000	-15.689235	-11.073262	-0.293325	-102.781198	-0.293325	-102.781198	-15.689455	-11.084603
5.700000	-15.498496	-12.026205	-0.302066	-103.734985	-0.302066	-103.734985	-15.498715	-12.037542
5.750000	-15.310273	-12.979481	-0.311039	-104.689484	-0.311039	-104.689484	-15.310492	-12.990815
5.800000	-15.124539	-13.933068	-0.320247	-105.644672	-0.320247	-105.644672	-15.124757	-13.944400
5.850000	-14.941265	-14.886941	-0.329694	-106.600526	-0.329694	-106.600526	-14.941482	-14.898274
5.900000	-14.760423	-15.841075	-0.339383	-107.557020	-0.339383	-107.557020	-14.760639	-15.852410
5.950000	-14.581986	-16.795442	-0.349316	-108.514130	-0.349316	-108.514130	-14.582201	-16.806781
6.000000	-14.405928	-17.750014	-0.359496	-109.471828	-0.359496	-109.471828	-14.406142	-17.761358
6.050000	-14.232222	-18.704760	-0.369927	-110.430088	-0.369927	-110.430088	-14.232437	-18.716110
6.100000	-14.060845	-19.659647	-0.380609	-111.388881	-0.380609	-111.388881	-14.061059	-19.671005
6.150000	-13.891771	-20.614643	-0.391547	-112.348180	-0.391547	-112.348180	-13.891984	-20.626011
6.200000	-13.724976	-21.569713	-0.402742	-113.307953	-0.402742	-113.307953	-13.725188	-21.581092
6.250000	-13.560436	-22.524822	-0.414196	-114.268172	-0.414196	-114.268172	-13.560648	-22.536213
6.300000	-13.398111	-23.479931	-0.425917	-115.228813	-0.425917	-115.228813	-13.398323	-23.491336
6.350000	-13.237998	-24.435003	-0.437902	-116.189835	-0.437902	-116.189835	-13.238209	-24.446423
6.400000	-13.080074	-25.389998	-0.450152	-117.151206	-0.450152	-117.151206	-13.080285	-25.401434
6.450000	-12.924317	-26.344877	-0.462669	-118.112892	-0.462669	-118.112892	-12.924528	-26.356332
6.500000	-12.770705	-27.299600	-0.475454	-119.074861	-0.475454	-119.074861	-12.770916	-27.311074
6.550000	-12.619217	-28.254127	-0.488508	-120.037077	-0.488508	-120.037077	-12.619427	-28.265622
6.600000	-12.469832	-29.208415	-0.501834	-120.999506	-0.501834	-120.999506	-12.470042	-29.219933
6.650000	-12.322528	-30.162424	-0.515431	-121.962113	-0.515431	-121.962113	-12.322737	-30.173965
6.700000	-12.177249	-31.116076	-0.529325	-122.924874	-0.529325	-122.924874	-12.177459	-31.127643
6.750000	-12.034048	-32.069391	-0.543471	-123.887726	-0.543471	-123.887726	-12.034258	-32.080984
6.800000	-11.892868	-33.022299	-0.557890	-124.850647	-0.557890	-124.850647	-11.893078	-33.033919
6.850000	-11.753690	-33.974757	-0.572583	-125.813600	-0.572583	-125.813600	-11.753900	-33.986407
6.900000	-11.616494	-34.926724	-0.587551	-126.776547	-0.587551	-126.776547	-11.616703	-34.938403
6.950000	-11.481260	-35.878156	-0.602792	-127.739451	-0.602792	-127.739451	-11.481470	-35.889867
7.000000	-11.347969	-36.829011	-0.618308	-128.702274	-0.618308	-128.702274	-11.348179	-36.840756
7.050000	-11.216602	-37.779248	-0.634096	-129.664978	-0.634096	-129.664978	-11.216813	-37.791027
7.100000	-11.087142	-38.728826	-0.650158	-130.627524	-0.650158	-130.627524	-11.087352	-38.740640
7.150000	-10.959567	-39.677702	-0.666491	-131.589874	-0.666491	-131.589874	-10.959778	-39.689553
7.200000	-10.833862	-40.625835	-0.683096	-132.551990	-0.683096	-132.551990	-10.834073	-40.637725
7.250000	-10.710007	-41.573187	-0.699970	-133.513832	-0.699970	-133.513832	-10.710218	-41.585116
7.300000	-10.587984	-42.519716	-0.717112	-134.475363	-0.717112	-134.475363	-10.588196	-42.531685
7.350000	-10.467776	-43.465383	-0.734521	-135.436544	-0.734521	-135.436544	-10.467988	-43.477394
7.400000	-10.349365	-44.410150	-0.752196	-136.397336	-0.752196	-136.397336	-10.349578	-44.422205
7.450000	-10.232733	-45.353979	-0.770133	-137.357701	-0.770133	-137.357701	-10.232947	-45.366078
7.500000	-10.117864	-46.296832	-0.788331	-138.317601	-0.788331	-138.317601	-10.118078	-46.308977
7.550000	-10.004753	-47.238628	-0.806797	-139.276973	-0.806797	-139.276973	-10.004968	-47.250819
7.600000	-9.893372	-48.179373	-0.825518	-140.235800	-0.825518	-140.235800	-9.893588	-48.191612
7.650000	-9.783706	-49.119033	-0.844492	-141.194045	-0.844492	-141.194045	-9.783922	-49.131321
7.700000	-9.675738	-50.057572	-0.863716	-142.151670	-0.863716	-142.151670	-9.675955	-50.069911
7.750000	-9.569451	-50.994959	-0.883186	-143.108639	-0.883186	-143.108639	-9.569668	-51.007349
7.800000	-9.464829	-51.931160	-0.902900	-144.064915	-0.902900	-144.064915	-9.465047	-51.943603
7.850000	-9.361856	-52.866144	-0.922853	-145.020463	-0.922853	-145.020463	-9.362076	-52.878641
7.900000	-9.260517	-53.799881	-0.943043	-145.975245	-0.943043	-145.975245	-9.260738	-53.812434
7.950000	-9.160796	-54.732341	-0.963464	-146.929229	-0.963464	-146.929229	-9.161018	-54.744950
8.000000	-9.062678	-55.663494	-0.984113	-147.882379	-0.984113	-147.882379	-9.062900	-55.676161
8.050000	-8.966147	-56.593313	-1.004985	-148.834661	-1.004985	-148.834661	-8.966371	-56.606038
8.100000	-8.871190	-57.521770	-1.026077	-149.786043	-1.026077	-149.786043	-8.871414	-57.534555
8.150000	-8.777790	-58.448838	-1.047383	-150.736491	-1.047383	-150.736491	-8.778016	-58.461685
8.200000	-8.685934	-59.374492	-1.068899	-151.685975	-1.068899	-151.685975	-8.686161	-59.387402
8.250000	-8.595608	-60.298707	-1.090619	-152.634463	-1.090619	-152.634463	-8.595836	-60.311680
8.300000	-8.506797	-61.221458	-1.112539	-153.581924	-1.112539	-153.581924	-8.507026	-61.234497
8.350000	-8.419488	-62.142722	-1.134653	-154.528331	-1.134653	-154.528331	-8.419718	-62.155827
8.400000	-8.333668	-63.062475	-1.156955	-155.473653	-1.156955	-155.473653	-8.333899	-63.075649
8.450000	-8.249323	-63.980696	-1.179440	-156.417865	-1.179440	-156.417865	-8.249555	-63.993939
8.500000	-8.166439	-64.897363	-1.202103	-157.360938	-1.202103	-157.360938	-8.166673	-64.910676
8.550000	-8.085005	-65.812454	-1.224936	-158.302847	-1.224936	-158.302847	-8.085240	-65.825840
8.600000	-8.005008	-66.725949	-1.247935	-159.243567	-1.247935	-159.243567	-8.005244	-66.739408
8.650000	-7.926436	-67.637828	-1.271093	-160.183075	-1.271093	-160.183075	-7.926673	-67.651362
8.700000	-7.849275	-68.548071	-1.294403	-161.121348	-1.294403	-161.121348	-7.849514	-68.561681
8.750000	-7.773515	-69.456657	-1.317859	-162.058365	-1.317859	-162.058365	-7.773755	-69.470346
8.800000	-7.699177	-70.363496	-1.341458	-162.994047	-1.341458	-162.994047	-7.699418	-70.377264
8.850000	-7.626218	-71.268639	-1.365189	-163.928432	-1.365189	-163.928432	-7.626460	-71.282489
8.900000	-7.554626	-72.172069	-1.389044	-164.861499	-1.389044	-164.861499	-7.554870	-72.186001
8.950000	-7.484391	-73.073767	-1.413018	-165.793234	-1.413018	-165.793234	-7.484636	-73.087783
9.000000	-7.415501	-73.973714	-1.437103	-166.723619	-1.437103	-166.723619	-7.415748	-73.987817
9.050000	-7.347947	-74.871893	-1.461292	-167.652640	-1.461292	-167.652640	-7.348195	-74.886084
9.100000	-7.281718	-75.768285	-1.485578	-168.580283	-1.485578	-168.580283	-7.281968	-75.782566
9.150000	-7.216804	-76.662872	-1.509953	-169.506537	-1.509953	-169.506537	-7.217055	-76.677245
9.200000	-7.153195	-77.555637	-1.534410	-170.431391	-1.534410	-170.431391	-7.153448	-77.570103
9.250000	-7.090882	-78.446560	-1.558941	-171.354834	-1.558941	-171.354834	-7.091136	-78.461121
9.300000	-7.029855	-79.335624	-1.583539	-172.276859	-1.583539	-172.276859	-7.030111	-79.350282
9.350000	-6.970104	-80.222809	-1.608196	-173.197457	-1.608196	-173.197457	-6.970362	-80.237566
9.400000	-6.911622	-81.108096	-1.632905	-174.116624	-1.632905	-174.116624	-6.911881	-81.122955
9.450000	-6.854399	-81.991467	-1.657657	-175.034355	-1.657657	-175.034355	-6.854660	-82.006429
9.500000	-6.798426	-82.872902	-1.682445	-175.950646	-1.682445	-175.950646	-6.798689	-82.887969
9.550000	-6.743695	-83.752381	-1.707261	-176.865495	-1.707261	-176.865495	-6.743960	-83.767555
9.600000	-6.690197	-84.629883	-1.732096	-177.778902	-1.732096	-177.778902	-6.690464	-84.645166
9.650000	-6.637925	-85.505388	-1.756944	-178.690867	-1.756944	-178.690867	-6.638194	-85.520783
9.700000	-6.586871	-86.378874	-1.781795	-179.601393	-1.781795	-179.601393	-6.587142	-86.394383
9.750000	-6.537026	-87.250320	-1.806643	179.489518	-1.806643	179.489518	-6.537300	-87.265945
9.800000	-6.488383	-88.119703	-1.831478	178.581860	-1.831478	178.581860	-6.488659	-88.135446
9.850000	-6.440935	-88.987000	-1.856294	177.675628	-1.856294	177.675628	-6.441213	-89.002864
9.900000	-6.394673	-89.852189	-1.881081	176.770814	-1.881081	176.770814	-6.394954	-89.868175
9.950000	-6.349591	-90.715244	-1.905832	175.867410	-1.905832	175.867410	-6.349875	-90.731356
10.000000	-6.305681	-91.576141	-1.930538	174.965406	-1.930538	174.965406	-6.305968	-91.592381
