! freq	dB(S11)	phase(S11)	dB(S12)	phase(S12)	
!     	dB(S21)	phase(S21)	dB(S22)	phase(S22)	
!S-par simulation data
#  GHz  S  DB  R 50
0.000000	-0.000000	0.000000	-314.591221	0.000000	-314.591221	0.000000	-0.000000	0.000000
0.050000	-0.000106	-0.854111	-64.636718	88.964962	-64.636718	88.964962	-0.000106	-0.854483
0.100000	-0.000419	-1.707972	-58.630166	87.958829	-58.630166	87.958829	-0.000420	-1.708715
0.150000	-0.000928	-2.561348	-55.127682	86.997078	-55.127682	86.997078	-0.000929	-2.562463
0.200000	-0.001614	-3.414045	-52.649980	86.079590	-52.649980	86.079590	-0.001615	-3.415531
0.250000	-0.002464	-4.265841	-50.732868	85.200138	-50.732868	85.200138	-0.002466	-4.267696
0.300000	-0.003440	-5.116687	-49.168417	84.344777	-49.168417	84.344777	-0.003442	-5.118911
0.350000	-0.004524	-5.966462	-47.846907	83.506211	-47.846907	83.506211	-0.004527	-5.969055
0.400000	-0.005693	-6.815111	-46.702874	82.677815	-46.702874	82.677815	-0.005697	-6.818072
0.450000	-0.006925	-7.662610	-45.694297	81.855152	-45.694297	81.855152	-0.006930	-7.665938
0.500000	-0.008201	-8.508958	-44.792613	81.035432	-44.792613	81.035432	-0.008207	-8.512651
0.550000	-0.009505	-9.354169	-43.977513	80.216991	-43.977513	80.216991	-0.009512	-9.358227
0.600000	-0.010823	-10.198268	-43.234037	79.398896	-43.234037	79.398896	-0.010831	-10.202690
0.650000	-0.012146	-11.041287	-42.550839	78.580667	-42.550839	78.580667	-0.012155	-11.046072
0.700000	-0.013466	-11.883257	-41.919100	77.762101	-41.919100	77.762101	-0.013476	-11.888404
0.750000	-0.014777	-12.724208	-41.331832	76.943163	-41.331832	76.943163	-0.014788	-12.729716
0.800000	-0.016075	-13.564166	-40.783397	76.123910	-40.783397	76.123910	-0.016087	-13.570034
0.850000	-0.017359	-14.403154	-40.269181	75.304458	-40.269181	75.304458	-0.017372	-14.409381
0.900000	-0.018627	-15.241188	-39.785358	74.484946	-39.785358	74.484946	-0.018641	-15.247774
0.950000	-0.019879	-16.078279	-39.328720	73.665527	-39.328720	73.665527	-0.019894	-16.085222
1.000000	-0.021115	-16.914434	-38.896549	72.846358	-38.896549	72.846358	-0.021131	-16.921733
1.050000	-0.022336	-17.749652	-38.486525	72.027593	-38.486525	72.027593	-0.022353	-17.757307
1.100000	-0.023544	-18.583931	-38.096646	71.209382	-38.096646	71.209382	-0.023561	-18.591941
1.150000	-0.024738	-19.417264	-37.725179	70.391867	-37.725179	70.391867	-0.024757	-19.425628
1.200000	-0.025922	-20.249641	-37.370607	69.575186	-37.370607	69.575186	-0.025941	-20.258359
1.250000	-0.027095	-21.081049	-37.031600	68.759467	-37.031600	68.759467	-0.027115	-21.090119
1.300000	-0.028259	-21.911429	-36.707055	67.944887	-36.707055	67.944887	-0.028279	-21.920850
1.350000	-0.029415	-22.740805	-36.395855	67.131518	-36.395855	67.131518	-0.029437	-22.750577
1.400000	-0.030566	-23.569159	-36.097066	66.319471	-36.097066	66.319471	-0.030588	-23.579280
1.450000	-0.031711	-24.396472	-35.809855	65.508850	-35.809855	65.508850	-0.031733	-24.406941
1.500000	-0.032851	-25.222721	-35.533470	64.699755	-35.533470	64.699755	-0.032875	-25.233538
1.550000	-0.033988	-26.047886	-35.267234	63.892281	-35.267234	63.892281	-0.034012	-26.059050
1.600000	-0.035123	-26.871945	-35.010532	63.086519	-35.010532	63.086519	-0.035148	-26.883454
1.650000	-0.036255	-27.694876	-34.762807	62.282557	-34.762807	62.282557	-0.036281	-27.706730
1.700000	-0.037386	-28.516246	-34.524119	61.481172	-34.524119	61.481172	-0.037412	-28.528443
1.750000	-0.038516	-29.337008	-34.292637	60.680798	-34.292637	60.680798	-0.038544	-29.349548
1.800000	-0.039647	-30.156305	-34.069097	59.882947	-34.069097	59.882947	-0.039675	-30.169187
1.850000	-0.040777	-30.974556	-33.852513	59.086899	-33.852513	59.086899	-0.040806	-30.987778
1.900000	-0.041909	-31.791503	-33.642831	58.293173	-33.642831	58.293173	-0.041938	-31.805064
1.950000	-0.043041	-32.607147	-33.439686	57.501769	-33.439686	57.501769	-0.043071	-32.621047
2.000000	-0.044175	-33.421667	-33.242525	56.712423	-33.242525	56.712423	-0.044206	-33.435904
2.050000	-0.045311	-34.234614	-33.051573	55.925960	-33.051573	55.925960	-0.045342	-34.249186
2.100000	-0.046448	-35.046867	-32.865517	55.140790	-32.865517	55.140790	-0.046480	-35.061774
2.150000	-0.047588	-35.857321	-32.685360	54.358988	-32.685360	54.358988	-0.047620	-35.872563
2.200000	-0.048730	-36.666415	-32.510339	53.579767	-32.510339	53.579767	-0.048764	-36.681989
2.250000	-0.049876	-37.474129	-32.340235	52.803186	-32.340235	52.803186	-0.049910	-37.490034
2.300000	-0.051025	-38.280445	-32.174844	52.029302	-32.174844	52.029302	-0.051060	-38.296680
2.350000	-0.052177	-39.085345	-32.013975	51.258171	-32.013975	51.258171	-0.052213	-39.101908
2.400000	-0.053333	-39.888810	-31.857447	50.489847	-31.857447	50.489847	-0.053369	-39.905702
2.450000	-0.054493	-40.690825	-31.705090	49.724382	-31.705090	49.724382	-0.054530	-40.708043
2.500000	-0.055657	-41.491373	-31.556745	48.961828	-31.556745	48.961828	-0.055695	-41.508916
2.550000	-0.056826	-42.290372	-31.412321	48.202366	-31.412321	48.202366	-0.056864	-42.308239
2.600000	-0.058000	-43.087870	-31.271611	47.445918	-31.271611	47.445918	-0.058039	-43.106060
2.650000	-0.059178	-43.883854	-31.134483	46.692530	-31.134483	46.692530	-0.059218	-43.902364
2.700000	-0.060363	-44.678307	-31.000806	45.942249	-31.000806	45.942249	-0.060403	-44.697138
2.750000	-0.061552	-45.471217	-30.870459	45.195118	-30.870459	45.195118	-0.061594	-45.490367
2.800000	-0.062748	-46.262570	-30.743326	44.451183	-30.743326	44.451183	-0.062790	-46.282037
2.850000	-0.063950	-47.052352	-30.619297	43.710484	-30.619297	43.710484	-0.063993	-47.072136
2.900000	-0.065158	-47.840552	-30.498266	42.973062	-30.498266	42.973062	-0.065202	-47.860650
2.950000	-0.066374	-48.627157	-30.380133	42.238958	-30.380133	42.238958	-0.066418	-48.647569
3.000000	-0.067596	-49.412156	-30.264801	41.508210	-30.264801	41.508210	-0.067641	-49.432881
3.050000	-0.068826	-50.195538	-30.152180	40.780856	-30.152180	40.780856	-0.068871	-50.216574
3.100000	-0.070063	-50.977293	-30.042182	40.056932	-30.042182	40.056932	-0.070110	-50.998638
3.150000	-0.071309	-51.757409	-29.934721	39.336473	-29.934721	39.336473	-0.071356	-51.779064
3.200000	-0.072563	-52.535879	-29.829719	38.619513	-29.829719	38.619513	-0.072611	-52.557841
3.250000	-0.073827	-53.312693	-29.727096	37.906086	-29.727096	37.906086	-0.073875	-53.334961
3.300000	-0.075099	-54.087842	-29.626779	37.196224	-29.626779	37.196224	-0.075148	-54.110415
3.350000	-0.076382	-54.861025	-29.528883	36.490591	-29.528883	36.490591	-0.076432	-54.883902
3.400000	-0.077676	-55.632455	-29.433195	35.788742	-29.433195	35.788742	-0.077727	-55.655634
3.450000	-0.078976	-56.403002	-29.339093	35.088811	-29.339093	35.088811	-0.079027	-56.426482
3.500000	-0.080292	-57.170900	-29.247618	34.394632	-29.247618	34.394632	-0.080344	-57.194680
3.550000	-0.081612	-57.938205	-29.157446	33.701750	-29.157446	33.701750	-0.081665	-57.962284
3.600000	-0.082951	-58.702545	-29.069929	33.015355	-29.069929	33.015355	-0.083005	-58.726922
3.650000	-0.084293	-59.466588	-28.983454	32.329617	-28.983454	32.329617	-0.084348	-59.491261
3.700000	-0.085658	-60.227349	-28.899656	31.651111	-28.899656	31.651111	-0.085713	-60.252318
3.750000	-0.087024	-60.988110	-28.816660	30.972604	-28.816660	30.972604	-0.087079	-61.013374
3.800000	-0.088416	-61.745276	-28.736357	30.302081	-28.736357	30.302081	-0.088472	-61.770831
3.850000	-0.089808	-62.502441	-28.656790	29.631558	-28.656790	29.631558	-0.089866	-62.528289
3.900000	-0.091227	-63.256297	-28.579617	28.968430	-28.579617	28.968430	-0.091285	-63.282436
3.950000	-0.092649	-64.009853	-28.503274	28.305974	-28.503274	28.305974	-0.092707	-64.036282
4.000000	-0.094095	-64.760395	-28.429044	27.650303	-28.429044	27.650303	-0.094155	-64.787112
4.050000	-0.095548	-65.510333	-28.355730	26.995989	-28.355730	26.995989	-0.095608	-65.537338
4.100000	-0.097024	-66.257555	-28.284267	26.347830	-28.284267	26.347830	-0.097085	-66.284846
4.150000	-0.098509	-67.003871	-28.213797	25.701723	-28.213797	25.701723	-0.098571	-67.031448
4.200000	-0.100016	-67.747772	-28.144935	25.061122	-28.144935	25.061122	-0.100079	-67.775633
4.250000	-0.101535	-68.490466	-28.077133	24.423274	-28.077133	24.423274	-0.101599	-68.518611
4.300000	-0.103076	-69.231049	-28.010715	23.790270	-28.010715	23.790270	-0.103140	-69.259476
4.350000	-0.104631	-69.970124	-27.945411	23.160726	-27.945411	23.160726	-0.104696	-69.998833
4.400000	-0.106205	-70.707394	-27.881287	22.535348	-27.881287	22.535348	-0.106271	-70.736383
4.450000	-0.107799	-71.442859	-27.818321	21.914139	-27.818321	21.914139	-0.107865	-71.472128
4.500000	-0.109409	-72.176824	-27.756347	21.296411	-27.756347	21.296411	-0.109476	-72.206372
4.550000	-0.111042	-72.908690	-27.695563	20.683557	-27.695563	20.683557	-0.111111	-72.938515
4.600000	-0.112689	-73.639361	-27.635603	20.073491	-27.635603	20.073491	-0.112759	-73.669463
4.650000	-0.114364	-74.367643	-27.576851	19.469001	-27.576851	19.469001	-0.114435	-74.398022
4.700000	-0.116051	-75.095035	-27.518773	18.866602	-27.518773	18.866602	-0.116122	-75.125689
4.750000	-0.117769	-75.819753	-27.461911	18.270473	-27.461911	18.270473	-0.117841	-75.850682
4.800000	-0.119496	-76.543882	-27.405588	17.675735	-27.405588	17.675735	-0.119569	-76.575085
4.850000	-0.121260	-77.265060	-27.350475	17.087951	-27.350475	17.087951	-0.121334	-77.296536
4.900000	-0.123029	-77.985946	-27.295788	16.500860	-27.295788	16.500860	-0.123104	-78.017694
4.950000	-0.124841	-78.703610	-27.242290	15.921391	-27.242290	15.921391	-0.124916	-78.735630
5.000000	-0.126653	-79.421275	-27.189119	15.341923	-27.189119	15.341923	-0.126729	-79.453566
5.050000	-0.128514	-80.135456	-27.137105	14.770725	-27.137105	14.770725	-0.128591	-80.168018
5.100000	-0.130375	-80.849638	-27.085401	14.199527	-27.085401	14.199527	-0.130454	-80.882469
5.150000	-0.132283	-81.560657	-27.034681	13.635858	-27.034681	13.635858	-0.132363	-81.593758
5.200000	-0.134196	-82.271389	-26.984318	13.072873	-26.984318	13.072873	-0.134276	-82.304759
5.250000	-0.136153	-82.979278	-26.934786	12.516671	-26.934786	12.516671	-0.136234	-83.012916
5.300000	-0.138118	-83.686599	-26.885642	11.961825	-26.885642	11.961825	-0.138201	-83.720505
5.350000	-0.140125	-84.391390	-26.837191	11.413015	-26.837191	11.413015	-0.140208	-84.425564
5.400000	-0.142146	-85.095340	-26.789147	10.866218	-26.789147	10.866218	-0.142230	-85.129780
5.450000	-0.144204	-85.797071	-26.741677	10.324715	-26.741677	10.324715	-0.144289	-85.831777
5.500000	-0.146282	-86.497693	-26.694618	9.785858	-26.694618	9.785858	-0.146368	-86.532665
5.550000	-0.148393	-87.196401	-26.648029	9.251561	-26.648029	9.251561	-0.148480	-87.231639
5.600000	-0.150529	-87.893743	-26.601842	8.720520	-26.601842	8.720520	-0.150617	-87.929247
5.650000	-0.152696	-88.589470	-26.556038	8.193315	-26.556038	8.193315	-0.152785	-88.625239
5.700000	-0.154893	-89.283581	-26.510612	7.669946	-26.510612	7.669946	-0.154983	-89.319615
5.750000	-0.157115	-89.976369	-26.465500	7.149704	-26.465500	7.149704	-0.157207	-90.012668
5.800000	-0.159374	-90.667305	-26.420728	6.633843	-26.420728	6.633843	-0.159467	-90.703868
5.850000	-0.161655	-91.357199	-26.376217	6.120422	-26.376217	6.120422	-0.161748	-91.394027
5.900000	-0.163978	-92.045014	-26.331995	5.611883	-26.331995	5.611883	-0.164073	-92.082106
5.950000	-0.166319	-92.732062	-26.287997	5.105123	-26.287997	5.105123	-0.166414	-92.769419
6.000000	-0.168708	-93.416815	-26.244221	4.603702	-26.244221	4.603702	-0.168805	-93.454435
6.050000	-0.171109	-94.101068	-26.200651	4.103428	-26.200651	4.103428	-0.171207	-94.138952
6.100000	-0.173567	-94.782820	-26.157223	3.608896	-26.157223	3.608896	-0.173666	-94.820969
6.150000	-0.176031	-95.464328	-26.113996	3.114918	-26.113996	3.114918	-0.176131	-95.502741
6.200000	-0.178558	-96.143145	-26.070820	2.627026	-26.070820	2.627026	-0.178659	-96.181822
6.250000	-0.181086	-96.821962	-26.027857	2.139134	-26.027857	2.139134	-0.181188	-96.860904
6.300000	-0.183685	-97.497911	-25.984839	1.657609	-25.984839	1.657609	-0.183788	-97.537117
6.350000	-0.186284	-98.173859	-25.942032	1.176084	-25.942032	1.176084	-0.186389	-98.213330
6.400000	-0.188951	-98.847242	-25.899112	0.700124	-25.899112	0.700124	-0.189057	-98.886978
6.450000	-0.191624	-99.520392	-25.856373	0.224669	-25.856373	0.224669	-0.191731	-99.560393
6.500000	-0.194359	-100.191269	-25.813478	-0.245992	-25.813478	-0.245992	-0.194468	-100.231536
6.550000	-0.197108	-100.861692	-25.770721	-0.715694	-25.770721	-0.715694	-0.197217	-100.902224
6.600000	-0.199914	-101.530126	-25.727782	-1.181339	-25.727782	-1.181339	-0.200025	-101.570924
6.650000	-0.202739	-102.197896	-25.684925	-1.645632	-25.684925	-1.645632	-0.202852	-102.238962
6.700000	-0.205617	-102.863950	-25.641876	-2.106561	-25.641876	-2.106561	-0.205731	-102.905283
6.750000	-0.208522	-103.529146	-25.598841	-2.565809	-25.598841	-2.565809	-0.208637	-103.570746
6.800000	-0.211474	-104.192885	-25.555621	-3.022338	-25.555621	-3.022338	-0.211590	-104.234754
6.850000	-0.214459	-104.855585	-25.512334	-3.476926	-25.512334	-3.476926	-0.214576	-104.897722
6.900000	-0.217486	-105.517077	-25.468885	-3.929387	-25.468885	-3.929387	-0.217604	-105.559484
6.950000	-0.220554	-106.177362	-25.425277	-4.379722	-25.425277	-4.379722	-0.220673	-106.220039
7.000000	-0.223657	-106.836676	-25.381543	-4.828462	-25.381543	-4.828462	-0.223778	-106.879624
7.050000	-0.226809	-107.494631	-25.337550	-5.274968	-25.337550	-5.274968	-0.226932	-107.537851
7.100000	-0.229991	-108.151837	-25.293482	-5.720346	-25.293482	-5.720346	-0.230115	-108.195329
7.150000	-0.233229	-108.807548	-25.249045	-6.163466	-25.249045	-6.163466	-0.233354	-108.851313
7.200000	-0.236490	-109.462719	-25.204596	-6.605854	-25.204596	-6.605854	-0.236617	-109.506758
7.250000	-0.239817	-110.116273	-25.159662	-7.046044	-25.159662	-7.046044	-0.239944	-110.160587
7.300000	-0.243159	-110.769482	-25.114791	-7.485823	-25.114791	-7.485823	-0.243288	-110.814072
7.350000	-0.246575	-111.420970	-25.069313	-7.923552	-25.069313	-7.923552	-0.246705	-111.465838
7.400000	-0.249999	-112.072294	-25.023982	-8.361114	-25.023982	-8.361114	-0.250132	-112.117439
7.450000	-0.253507	-112.721808	-24.977917	-8.796857	-24.977917	-8.796857	-0.253640	-112.767233
7.500000	-0.257016	-113.371323	-24.932095	-9.232600	-24.932095	-9.232600	-0.257151	-113.417027
7.550000	-0.260616	-114.018958	-24.885408	-9.666839	-24.885408	-9.666839	-0.260752	-114.064945
7.600000	-0.264218	-114.666594	-24.838971	-10.101078	-24.838971	-10.101078	-0.264356	-114.712862
7.650000	-0.267906	-115.312596	-24.791730	-10.534382	-24.791730	-10.534382	-0.268045	-115.359149
7.700000	-0.271602	-115.958449	-24.744649	-10.967600	-24.744649	-10.967600	-0.271743	-116.005287
7.750000	-0.275379	-116.602899	-24.696836	-11.400368	-24.696836	-11.400368	-0.275521	-116.650024
7.800000	-0.279172	-117.247069	-24.649089	-11.833047	-24.649089	-11.833047	-0.279316	-117.294481
7.850000	-0.283038	-117.890052	-24.600694	-12.265674	-24.600694	-12.265674	-0.283184	-117.937754
7.900000	-0.286930	-118.532638	-24.552265	-12.698285	-24.552265	-12.698285	-0.287077	-118.580631
7.950000	-0.290888	-119.174238	-24.503280	-13.131160	-24.503280	-13.131160	-0.291036	-119.222524
8.000000	-0.294879	-119.815345	-24.454159	-13.564165	-24.454159	-13.564165	-0.295029	-119.863925
8.050000	-0.298930	-120.455649	-24.404582	-13.997662	-24.404582	-13.997662	-0.299081	-120.504525
8.100000	-0.303023	-121.095380	-24.354766	-14.431508	-24.354766	-14.431508	-0.303176	-121.144554
8.150000	-0.307167	-121.734477	-24.304599	-14.865987	-24.304599	-14.865987	-0.307322	-121.783950
8.200000	-0.311364	-122.372940	-24.254090	-15.301100	-24.254090	-15.301100	-0.311520	-122.422714
8.250000	-0.315604	-123.010920	-24.203340	-15.736908	-24.203340	-15.736908	-0.315762	-123.060997
8.300000	-0.319905	-123.648223	-24.152145	-16.173688	-24.152145	-16.173688	-0.320064	-123.698606
8.350000	-0.324242	-124.285177	-24.100822	-16.611149	-24.100822	-16.611149	-0.324403	-124.335866
8.400000	-0.328649	-124.921432	-24.048953	-17.049970	-24.048953	-17.049970	-0.328812	-124.972430
8.450000	-0.333084	-125.557453	-23.997072	-17.489387	-23.997072	-17.489387	-0.333249	-125.608762
8.500000	-0.337599	-126.192772	-23.944546	-17.930590	-23.944546	-17.930590	-0.337765	-126.244395
8.550000	-0.342134	-126.827955	-23.892123	-18.372242	-23.892123	-18.372242	-0.342302	-126.879892
8.600000	-0.346758	-127.462454	-23.838960	-18.816133	-23.838960	-18.816133	-0.346928	-127.514710
8.650000	-0.351394	-128.096895	-23.786015	-19.260272	-23.786015	-19.260272	-0.351565	-128.149469
8.700000	-0.356129	-128.730691	-23.732238	-19.707121	-23.732238	-19.707121	-0.356302	-128.783589
8.750000	-0.360867	-129.364488	-23.678793	-20.153970	-23.678793	-20.153970	-0.361041	-129.417709
8.800000	-0.365714	-129.997701	-23.624428	-20.604006	-23.624428	-20.604006	-0.365890	-130.051251
8.850000	-0.370563	-130.630914	-23.570402	-21.054042	-23.570402	-21.054042	-0.370741	-130.684793
8.900000	-0.375515	-131.263705	-23.515580	-21.507172	-23.515580	-21.507172	-0.375695	-131.317917
8.950000	-0.380478	-131.896457	-23.460999	-21.960584	-23.460999	-21.960584	-0.380660	-131.951003
9.000000	-0.385536	-132.528928	-23.405745	-22.416932	-23.405745	-22.416932	-0.385719	-132.583813
9.050000	-0.390614	-133.161343	-23.350638	-22.873867	-23.350638	-22.873867	-0.390799	-133.216568
9.100000	-0.395778	-133.793599	-23.294976	-23.333525	-23.294976	-23.333525	-0.395964	-133.849169
9.150000	-0.400972	-134.425803	-23.239369	-23.794091	-23.239369	-23.794091	-0.401161	-134.481718
9.200000	-0.406244	-135.057953	-23.183324	-24.257122	-23.183324	-24.257122	-0.406434	-135.114218
9.250000	-0.411556	-135.690075	-23.127244	-24.721384	-23.127244	-24.721384	-0.411748	-135.746692
9.300000	-0.416936	-136.322226	-23.070837	-25.187820	-23.070837	-25.187820	-0.417130	-136.379198
9.350000	-0.422367	-136.954397	-23.014308	-25.655808	-23.014308	-25.655808	-0.422562	-137.011728
9.400000	-0.427857	-137.586660	-22.957561	-26.125654	-22.957561	-26.125654	-0.428054	-137.644353
9.450000	-0.433407	-138.219015	-22.900603	-26.597359	-22.900603	-26.597359	-0.433606	-138.277073
9.500000	-0.439008	-138.851502	-22.843534	-27.070595	-22.843534	-27.070595	-0.439209	-138.909929
9.550000	-0.444678	-139.484176	-22.786166	-27.545974	-22.786166	-27.545974	-0.444882	-139.542975
9.600000	-0.450391	-140.117003	-22.728790	-28.022555	-22.728790	-28.022555	-0.450596	-140.176176
9.650000	-0.456183	-140.750135	-22.671027	-28.501536	-22.671027	-28.501536	-0.456390	-140.809689
9.700000	-0.462008	-141.383418	-22.613356	-28.981394	-22.613356	-28.981394	-0.462217	-141.443353
9.750000	-0.467922	-142.017150	-22.555206	-29.463879	-22.555206	-29.463879	-0.468133	-142.077473
9.800000	-0.473860	-142.651007	-22.497249	-29.946927	-22.497249	-29.946927	-0.474073	-142.711718
9.850000	-0.479898	-143.285484	-22.438717	-30.432793	-22.438717	-30.432793	-0.480112	-143.346591
9.900000	-0.485949	-143.920036	-22.380479	-30.918929	-22.380479	-30.918929	-0.486166	-143.981539
9.950000	-0.492111	-144.555405	-22.321563	-31.408036	-22.321563	-31.408036	-0.492329	-144.617312
10.000000	-0.498277	-145.190775	-22.263044	-31.897143	-22.263044	-31.897143	-0.498497	-145.253086
