! freq	dB(S11)	phase(S11)	dB(S12)	phase(S12)	
!     	dB(S21)	phase(S21)	dB(S22)	phase(S22)	
!S-par simulation data
#  GHz  S  DB  R 50
0.000000	-0.000000	0.000000	-343.611773	180.000000	-343.611773	180.000000	-0.000000	0.000000
0.050000	-0.000098	-0.778917	-75.645109	85.347787	-75.645109	85.347787	-0.000098	-0.779152
0.100000	-0.000388	-1.557597	-69.900522	85.875265	-69.900522	85.875265	-0.000389	-1.558067
0.150000	-0.000864	-2.335802	-66.453764	85.851192	-66.453764	85.851192	-0.000864	-2.336508
0.200000	-0.001495	-3.113391	-63.986950	85.520434	-63.986950	85.520434	-0.001496	-3.114332
0.250000	-0.002267	-3.890199	-62.067302	85.030227	-62.067302	85.030227	-0.002268	-3.891374
0.300000	-0.003168	-4.666022	-60.497593	84.447843	-60.497593	84.447843	-0.003169	-4.667431
0.350000	-0.004155	-5.440945	-59.170687	83.820513	-59.170687	83.820513	-0.004156	-5.442587
0.400000	-0.005219	-6.214787	-58.022646	83.158836	-58.022646	83.158836	-0.005221	-6.216662
0.450000	-0.006333	-6.987629	-57.011547	82.476783	-57.011547	82.476783	-0.006336	-6.989737
0.500000	-0.007483	-7.759435	-56.108971	81.779886	-56.108971	81.779886	-0.007487	-7.761775
0.550000	-0.008654	-8.530236	-55.294484	81.072686	-55.294484	81.072686	-0.008658	-8.532808
0.600000	-0.009833	-9.300064	-54.552990	80.358148	-54.552990	80.358148	-0.009838	-9.302866
0.650000	-0.011013	-10.068952	-53.873011	79.638375	-53.873011	79.638375	-0.011018	-10.071985
0.700000	-0.012186	-10.836936	-53.245615	78.914915	-53.245615	78.914915	-0.012192	-10.840199
0.750000	-0.013348	-11.604047	-52.663716	78.188938	-52.663716	78.188938	-0.013354	-11.607539
0.800000	-0.014496	-12.370313	-52.121598	77.461359	-52.121598	77.461359	-0.014503	-12.374034
0.850000	-0.015625	-13.135618	-51.615205	76.732927	-51.615205	76.732927	-0.015633	-13.139567
0.900000	-0.016738	-13.900083	-51.140120	76.004228	-51.140120	76.004228	-0.016746	-13.904260
0.950000	-0.017843	-14.664137	-50.691449	75.275820	-50.691449	75.275820	-0.017851	-14.668540
1.000000	-0.018923	-15.426956	-50.269880	74.548287	-50.269880	74.548287	-0.018932	-15.431586
1.050000	-0.019999	-16.189501	-49.869010	73.821213	-49.869010	73.821213	-0.020008	-16.194358
1.100000	-0.021050	-16.950679	-49.491489	73.096436	-49.491489	73.096436	-0.021060	-16.955761
1.150000	-0.022100	-17.711718	-49.130286	72.371994	-49.130286	72.371994	-0.022110	-17.717026
1.200000	-0.023128	-18.471228	-48.789759	71.651248	-48.789759	71.651248	-0.023139	-18.476760
1.250000	-0.024157	-19.230737	-48.462079	70.930502	-48.462079	70.930502	-0.024168	-19.236494
1.300000	-0.025170	-19.988966	-48.151378	70.213470	-48.151378	70.213470	-0.025182	-19.994947
1.350000	-0.026177	-20.746356	-47.854684	69.499132	-47.854684	69.499132	-0.026189	-20.752561
1.400000	-0.027177	-21.502893	-47.571061	68.787706	-47.571061	68.787706	-0.027189	-21.509321
1.450000	-0.028171	-22.258560	-47.299671	68.079403	-47.299671	68.079403	-0.028184	-22.265210
1.500000	-0.029160	-23.013340	-47.039761	67.374429	-47.039761	67.374429	-0.029174	-23.020211
1.550000	-0.030146	-23.767214	-46.790652	66.672984	-46.790652	66.672984	-0.030159	-23.774307
1.600000	-0.031127	-24.520165	-46.551729	65.975266	-46.551729	65.975266	-0.031142	-24.527478
1.650000	-0.032107	-25.272173	-46.322432	65.281471	-46.322432	65.281471	-0.032121	-25.279707
1.700000	-0.033083	-26.022878	-46.103405	64.593314	-46.103405	64.593314	-0.033098	-26.030631
1.750000	-0.034059	-26.773075	-45.891429	63.907372	-45.891429	63.907372	-0.034074	-26.781047
1.800000	-0.035033	-27.522047	-45.688423	63.227006	-45.688423	63.227006	-0.035049	-27.530237
1.850000	-0.036007	-28.270144	-45.492792	62.550622	-45.492792	62.550622	-0.036023	-28.278552
1.900000	-0.036980	-29.017152	-45.304803	61.879439	-45.304803	61.879439	-0.036996	-29.025777
1.950000	-0.037953	-29.763069	-45.124063	61.213457	-45.124063	61.213457	-0.037970	-29.771911
2.000000	-0.038927	-30.508046	-44.949758	60.552163	-44.949758	60.552163	-0.038944	-30.517104
2.050000	-0.039901	-31.251705	-44.782660	59.897433	-44.782660	59.897433	-0.039919	-31.260978
2.100000	-0.040876	-31.994585	-44.620894	59.246743	-44.620894	59.246743	-0.040894	-32.004073
2.150000	-0.041853	-32.735909	-44.466361	58.604131	-44.466361	58.604131	-0.041871	-32.745611
2.200000	-0.042831	-33.476631	-44.316140	57.964769	-44.316140	57.964769	-0.042850	-33.486546
2.250000	-0.043811	-34.215545	-44.173229	57.335158	-44.173229	57.335158	-0.043831	-34.225673
2.300000	-0.044793	-34.954047	-44.033689	56.707864	-44.033689	56.707864	-0.044813	-34.964387
2.350000	-0.045779	-35.690481	-43.901568	56.092158	-43.901568	56.092158	-0.045799	-35.701032
2.400000	-0.046765	-36.426704	-43.771946	55.477687	-43.771946	55.477687	-0.046785	-36.437465
2.450000	-0.047757	-37.160590	-43.649874	54.876813	-43.649874	54.876813	-0.047778	-37.171561
2.500000	-0.048749	-37.894476	-43.529494	54.275939	-43.529494	54.275939	-0.048770	-37.905656
2.550000	-0.049748	-38.625749	-43.416808	53.690851	-43.416808	53.690851	-0.049770	-38.637137
2.600000	-0.050748	-39.357021	-43.305566	53.105762	-43.305566	53.105762	-0.050770	-39.368618
2.650000	-0.051755	-40.085841	-43.201163	52.536042	-43.201163	52.536042	-0.051778	-40.097644
2.700000	-0.052764	-40.814438	-43.098489	51.967720	-43.098489	51.967720	-0.052787	-40.826447
2.750000	-0.053780	-41.540756	-43.001843	51.414208	-43.001843	51.414208	-0.053804	-41.552970
2.800000	-0.054799	-42.266618	-42.907216	50.863659	-42.907216	50.863659	-0.054823	-42.279037
2.850000	-0.055826	-42.990387	-42.817844	50.327219	-42.817844	50.327219	-0.055850	-43.003009
2.900000	-0.056856	-43.713458	-42.730780	49.795481	-42.730780	49.795481	-0.056881	-43.726284
2.950000	-0.057895	-44.434633	-42.648238	49.276996	-42.648238	49.276996	-0.057920	-44.447661
3.000000	-0.058937	-45.154860	-42.568285	48.765136	-42.568285	48.765136	-0.058963	-45.168090
3.050000	-0.059989	-45.873399	-42.492160	48.265511	-42.492160	48.265511	-0.060015	-45.886830
3.100000	-0.061046	-46.590732	-42.418890	47.774624	-42.418890	47.774624	-0.061073	-46.604364
3.150000	-0.062112	-47.306596	-42.348793	47.294786	-42.348793	47.294786	-0.062138	-47.320426
3.200000	-0.063185	-48.020989	-42.281798	46.825995	-42.281798	46.825995	-0.063212	-48.035018
3.250000	-0.064265	-48.734139	-42.217361	46.366891	-42.217361	46.366891	-0.064293	-48.748366
3.300000	-0.065356	-49.445548	-42.156245	45.921346	-42.156245	45.921346	-0.065384	-49.459972
3.350000	-0.066453	-50.155949	-42.097117	45.483940	-42.097117	45.483940	-0.066482	-50.170570
3.400000	-0.067563	-50.864334	-42.041493	45.062812	-42.041493	45.062812	-0.067592	-50.879150
3.450000	-0.068678	-51.571954	-41.987334	44.648086	-41.987334	44.648086	-0.068707	-51.586965
3.500000	-0.069808	-52.277277	-41.936822	44.252566	-41.936822	44.252566	-0.069838	-52.292482
3.550000	-0.070943	-52.982085	-41.887298	43.861514	-41.887298	43.861514	-0.070973	-52.997484
3.600000	-0.072095	-53.684313	-41.841518	43.492804	-41.841518	43.492804	-0.072126	-53.699904
3.650000	-0.073250	-54.386280	-41.796302	43.126429	-41.796302	43.126429	-0.073281	-54.402064
3.700000	-0.074426	-55.085382	-41.754870	42.785737	-41.754870	42.785737	-0.074458	-55.101357
3.750000	-0.075603	-55.784484	-41.713635	42.445045	-41.713635	42.445045	-0.075635	-55.800650
3.800000	-0.076805	-56.480432	-41.676162	42.133574	-41.676162	42.133574	-0.076838	-56.496787
3.850000	-0.078007	-57.176381	-41.638850	41.822102	-41.638850	41.822102	-0.078040	-57.192925
3.900000	-0.079234	-57.869415	-41.604665	41.538502	-41.604665	41.538502	-0.079268	-57.886148
3.950000	-0.080463	-58.562185	-41.570884	41.257435	-41.570884	41.257435	-0.080497	-58.579105
4.000000	-0.081717	-59.252289	-41.539636	41.002665	-41.539636	41.002665	-0.081751	-59.269396
4.050000	-0.082975	-59.941859	-41.508978	40.753153	-41.508978	40.753153	-0.083010	-59.959152
4.100000	-0.084256	-60.629016	-41.480303	40.528131	-41.480303	40.528131	-0.084291	-60.646495
4.150000	-0.085544	-61.315369	-41.452346	40.311272	-41.452346	40.311272	-0.085580	-61.333033
4.200000	-0.086854	-61.999566	-41.425871	40.116862	-41.425871	40.116862	-0.086891	-62.017414
4.250000	-0.088175	-62.682686	-41.400171	39.933676	-41.400171	39.933676	-0.088212	-62.700718
4.300000	-0.089516	-63.363913	-41.375509	39.770669	-41.375509	39.770669	-0.089553	-63.382128
4.350000	-0.090871	-64.043789	-41.351603	39.622074	-41.351603	39.622074	-0.090909	-64.062186
4.400000	-0.092243	-64.722037	-41.328352	39.491166	-41.328352	39.491166	-0.092282	-64.740617
4.450000	-0.093633	-65.398659	-41.305751	39.377946	-41.305751	39.377946	-0.093672	-65.417420
4.500000	-0.095039	-66.073923	-41.283493	39.279720	-41.283493	39.279720	-0.095079	-66.092864
4.550000	-0.096467	-66.747286	-41.261687	39.202486	-41.261687	39.202486	-0.096507	-66.766407
4.600000	-0.097907	-67.419561	-41.239987	39.137381	-41.239987	39.137381	-0.097948	-67.438862
4.650000	-0.099374	-68.089662	-41.218441	39.096537	-41.218441	39.096537	-0.099415	-68.109141
4.700000	-0.100850	-68.758947	-41.196847	39.064827	-41.196847	39.064827	-0.100892	-68.778604
4.750000	-0.102357	-69.425786	-41.175004	39.060522	-41.175004	39.060522	-0.102399	-69.445621
4.800000	-0.103871	-70.092081	-41.153051	39.062283	-41.153051	39.062283	-0.103914	-70.112093
4.850000	-0.105420	-70.755661	-41.130333	39.094372	-41.130333	39.094372	-0.105464	-70.775850
4.900000	-0.106973	-71.418970	-41.107540	39.129452	-41.107540	39.129452	-0.107017	-71.439334
4.950000	-0.108566	-72.079296	-41.083351	39.197445	-41.083351	39.197445	-0.108611	-72.099836
5.000000	-0.110160	-72.739623	-41.059229	39.265438	-41.059229	39.265438	-0.110205	-72.760338
5.050000	-0.111798	-73.396705	-41.032964	39.368462	-41.032964	39.368462	-0.111844	-73.417595
5.100000	-0.113437	-74.053787	-41.006778	39.471485	-41.006778	39.471485	-0.113483	-74.074851
5.150000	-0.115119	-74.707905	-40.978064	39.605429	-40.978064	39.605429	-0.115166	-74.729143
5.200000	-0.116805	-75.361754	-40.949209	39.742183	-40.949209	39.742183	-0.116852	-75.383165
5.250000	-0.118531	-76.012920	-40.917548	39.905584	-40.917548	39.905584	-0.118580	-76.034504
5.300000	-0.120266	-76.663550	-40.885424	40.074314	-40.885424	40.074314	-0.120315	-76.685306
5.350000	-0.122038	-77.311778	-40.850332	40.265352	-40.850332	40.265352	-0.122088	-77.333706
5.400000	-0.123824	-77.959206	-40.814357	40.463825	-40.814357	40.463825	-0.123874	-77.981305
5.450000	-0.125644	-78.604511	-40.775373	40.680316	-40.775373	40.680316	-0.125694	-78.626782
5.500000	-0.127481	-79.248755	-40.734991	40.905815	-40.734991	40.905815	-0.127532	-79.271196
5.550000	-0.129349	-79.891155	-40.691685	41.145219	-40.691685	41.145219	-0.129402	-79.913767
5.600000	-0.131240	-80.532237	-40.646384	41.394554	-40.646384	41.394554	-0.131293	-80.555019
5.650000	-0.133159	-81.171751	-40.598369	41.653990	-40.598369	41.653990	-0.133213	-81.194703
5.700000	-0.135105	-81.809696	-40.547687	41.923525	-40.547687	41.923525	-0.135160	-81.832817
5.750000	-0.137075	-82.446344	-40.494625	42.199799	-40.494625	42.199799	-0.137130	-82.469635
5.800000	-0.139078	-83.081178	-40.438168	42.485505	-40.438168	42.485505	-0.139134	-83.104638
5.850000	-0.141101	-83.714984	-40.379781	42.775151	-40.379781	42.775151	-0.141158	-83.738613
5.900000	-0.143162	-84.346736	-40.317231	43.072673	-40.317231	43.072673	-0.143220	-84.370533
5.950000	-0.145239	-84.977725	-40.253307	43.372000	-40.253307	43.372000	-0.145297	-85.001690
6.000000	-0.147361	-85.606425	-40.184432	43.676745	-40.184432	43.676745	-0.147420	-85.630558
6.050000	-0.149493	-86.234622	-40.114831	43.981904	-40.114831	43.981904	-0.149552	-86.258923
6.100000	-0.151676	-86.860304	-40.039493	44.289138	-40.039493	44.289138	-0.151736	-86.884773
6.150000	-0.153865	-87.485737	-39.964147	44.596183	-39.964147	44.596183	-0.153926	-87.510374
6.200000	-0.156111	-88.108436	-39.882304	44.901146	-39.882304	44.901146	-0.156173	-88.133240
6.250000	-0.158358	-88.731135	-39.801225	45.206109	-39.801225	45.206109	-0.158420	-88.756107
6.300000	-0.160668	-89.350889	-39.712930	45.504124	-39.712930	45.504124	-0.160732	-89.376027
6.350000	-0.162980	-89.970642	-39.625524	45.802138	-39.625524	45.802138	-0.163044	-89.995948
6.400000	-0.165351	-90.587731	-39.531603	46.089668	-39.531603	46.089668	-0.165417	-90.613204
6.450000	-0.167729	-91.204578	-39.438023	46.376246	-39.438023	46.376246	-0.167795	-91.230218
6.500000	-0.170162	-91.819038	-39.338712	46.649792	-39.338712	46.649792	-0.170229	-91.844845
6.550000	-0.172608	-92.433020	-39.239194	46.920732	-39.239194	46.920732	-0.172676	-92.458994
6.600000	-0.175104	-93.044885	-39.134788	47.177072	-39.134788	47.177072	-0.175173	-93.071026
6.650000	-0.177619	-93.656045	-39.029641	47.428545	-39.029641	47.428545	-0.177688	-93.682353
6.700000	-0.180180	-94.265354	-38.920484	47.664777	-38.920484	47.664777	-0.180251	-94.291829
6.750000	-0.182765	-94.873737	-38.810082	47.893389	-38.810082	47.893389	-0.182837	-94.900379
6.800000	-0.185392	-95.480527	-38.696559	48.106966	-38.696559	48.106966	-0.185464	-95.507337
6.850000	-0.188049	-96.086180	-38.581323	48.309803	-38.581323	48.309803	-0.188123	-96.113157
6.900000	-0.190743	-96.690492	-38.463846	48.498548	-38.463846	48.498548	-0.190817	-96.717636
6.950000	-0.193474	-97.293463	-38.344236	48.673200	-38.344236	48.673200	-0.193549	-97.320774
7.000000	-0.196236	-97.895337	-38.223234	48.835317	-38.223234	48.835317	-0.196312	-97.922816
7.050000	-0.199041	-98.495676	-38.099732	48.979883	-38.099732	48.979883	-0.199119	-98.523323
7.100000	-0.201872	-99.095155	-37.975647	49.113954	-37.975647	49.113954	-0.201951	-99.122970
7.150000	-0.204754	-99.692914	-37.848747	49.227032	-37.848747	49.227032	-0.204834	-99.720898
7.200000	-0.207656	-100.290041	-37.722018	49.332005	-37.722018	49.332005	-0.207737	-100.318194
7.250000	-0.210616	-100.885273	-37.592215	49.412664	-37.592215	49.412664	-0.210697	-100.913595
7.300000	-0.213589	-101.480094	-37.463275	49.487837	-37.463275	49.487837	-0.213672	-101.508585
7.350000	-0.216628	-102.072854	-37.331055	49.535584	-37.331055	49.535584	-0.216712	-102.101515
7.400000	-0.219674	-102.665413	-37.200322	49.580580	-37.200322	49.580580	-0.219759	-102.694244
7.450000	-0.222793	-103.255759	-37.066155	49.595315	-37.066155	49.595315	-0.222879	-103.284759
7.500000	-0.225914	-103.846104	-36.934029	49.610051	-36.934029	49.610051	-0.226000	-103.875275
7.550000	-0.229114	-104.434091	-36.798361	49.592026	-36.798361	49.592026	-0.229202	-104.463434
7.600000	-0.232316	-105.022079	-36.664779	49.574000	-36.664779	49.574000	-0.232405	-105.051592
7.650000	-0.235593	-105.607960	-36.528467	49.526449	-36.528467	49.526449	-0.235683	-105.637645
7.700000	-0.238878	-106.193649	-36.393837	49.476212	-36.393837	49.476212	-0.238969	-106.223507
7.750000	-0.242233	-106.777474	-36.257214	49.399804	-36.257214	49.399804	-0.242325	-106.807505
7.800000	-0.245602	-107.360926	-36.121910	49.318161	-36.121910	49.318161	-0.245695	-107.391130
7.850000	-0.249035	-107.942746	-35.985277	49.213722	-35.985277	49.213722	-0.249129	-107.973125
7.900000	-0.252489	-108.524022	-35.849644	49.101684	-35.849644	49.101684	-0.252585	-108.554576
7.950000	-0.256001	-109.103891	-35.713273	48.970169	-35.713273	48.970169	-0.256098	-109.134620
8.000000	-0.259543	-109.683056	-35.577621	48.828916	-35.577621	48.828916	-0.259641	-109.713960
8.050000	-0.263135	-110.261027	-35.441753	48.671383	-35.441753	48.671383	-0.263235	-110.292107
8.100000	-0.266765	-110.838144	-35.306358	48.502223	-35.306358	48.502223	-0.266865	-110.869402
8.150000	-0.270438	-111.414272	-35.171204	48.319811	-35.171204	48.319811	-0.270540	-111.445708
8.200000	-0.274157	-111.989409	-35.036312	48.124148	-35.036312	48.124148	-0.274260	-112.021023
8.250000	-0.277913	-112.563749	-34.902056	47.918055	-34.902056	47.918055	-0.278017	-112.595542
8.300000	-0.281721	-113.136973	-34.767877	47.697359	-34.767877	47.697359	-0.281827	-113.168946
8.350000	-0.285560	-113.709582	-34.634675	47.468822	-34.634675	47.468822	-0.285667	-113.741736
8.400000	-0.289460	-114.280961	-34.501391	47.224603	-34.501391	47.224603	-0.289568	-114.313298
8.450000	-0.293383	-114.851897	-34.369377	46.974887	-34.369377	46.974887	-0.293492	-114.884416
8.500000	-0.297374	-115.421502	-34.237139	46.708676	-34.237139	46.708676	-0.297485	-115.454205
8.550000	-0.301383	-115.990824	-34.106420	46.439054	-34.106420	46.439054	-0.301495	-116.023710
8.600000	-0.305467	-116.558726	-33.975352	46.152381	-33.975352	46.152381	-0.305581	-116.591798
8.650000	-0.309561	-117.126493	-33.846015	45.864129	-33.846015	45.864129	-0.309676	-117.159751
8.700000	-0.313740	-117.692765	-33.716215	45.558511	-33.716215	45.558511	-0.313856	-117.726211
8.750000	-0.317920	-118.259037	-33.588327	45.252892	-33.588327	45.252892	-0.318038	-118.292671
8.800000	-0.322194	-118.823754	-33.459869	44.929816	-33.459869	44.929816	-0.322313	-118.857577
8.850000	-0.326469	-119.388470	-33.333284	44.606741	-33.333284	44.606741	-0.326590	-119.422484
8.900000	-0.330831	-119.951830	-33.206413	44.268995	-33.206413	44.268995	-0.330953	-119.986035
8.950000	-0.335202	-120.515065	-33.081181	43.929916	-33.081181	43.929916	-0.335326	-120.549463
9.000000	-0.339653	-121.077131	-32.955909	43.578674	-32.955909	43.578674	-0.339777	-121.111723
9.050000	-0.344120	-121.638963	-32.832059	43.224998	-32.832059	43.224998	-0.344247	-121.673750
9.100000	-0.348660	-122.199801	-32.708382	42.861393	-32.708382	42.861393	-0.348788	-122.234784
9.150000	-0.353225	-122.760307	-32.585926	42.494478	-32.585926	42.494478	-0.353354	-122.795487
9.200000	-0.357855	-123.319982	-32.463829	42.119603	-32.463829	42.119603	-0.357985	-123.355361
9.250000	-0.362518	-123.879242	-32.342760	41.740749	-32.342760	41.740749	-0.362650	-123.914821
9.300000	-0.367238	-124.437821	-32.222213	41.355653	-32.222213	41.355653	-0.367371	-124.473602
9.350000	-0.371999	-124.995915	-32.102511	40.966100	-32.102511	40.966100	-0.372134	-125.031898
9.400000	-0.376810	-125.553467	-31.983475	40.571787	-31.983475	40.571787	-0.376947	-125.589655
9.450000	-0.381671	-126.110477	-31.865102	40.172713	-31.865102	40.172713	-0.381809	-126.146871
9.500000	-0.386573	-126.667071	-31.747530	39.770136	-31.747530	39.770136	-0.386713	-126.703671
9.550000	-0.391533	-127.223081	-31.630435	39.362656	-31.630435	39.362656	-0.391675	-127.259890
9.600000	-0.396527	-127.778786	-31.514268	38.952723	-31.514268	38.952723	-0.396670	-127.815806
9.650000	-0.401587	-128.333881	-31.398390	38.537885	-31.398390	38.537885	-0.401732	-128.371113
9.700000	-0.406673	-128.888770	-31.283563	38.121454	-31.283563	38.121454	-0.406820	-128.926214
9.750000	-0.411834	-129.443036	-31.168828	37.700242	-31.168828	37.700242	-0.411982	-129.480696
9.800000	-0.417012	-129.997179	-31.055268	37.278121	-31.055268	37.278121	-0.417162	-130.035056
9.850000	-0.422273	-130.550706	-30.941591	36.851453	-30.941591	36.851453	-0.422424	-130.588801
9.900000	-0.427544	-131.104177	-30.829220	36.424402	-30.829220	36.424402	-0.427697	-131.142492
9.950000	-0.432905	-131.657053	-30.716508	35.993131	-30.716508	35.993131	-0.433060	-131.695590
10.000000	-0.438269	-132.209928	-30.605240	35.561860	-30.605240	35.561860	-0.438426	-132.248688
