! freq	dB(S11)	phase(S11)	dB(S12)	phase(S12)	
!     	dB(S21)	phase(S21)	dB(S22)	phase(S22)	
!S-par simulation data
#  GHz  S  DB  R 50
0.000000	-0.000000	0.000000	-305.682445	0.000000	-305.682445	0.000000	-0.000000	0.000000
0.050000	-0.000101	-0.808252	-72.367200	86.795073	-72.367200	86.795073	-0.000101	-0.808427
0.100000	-0.000401	-1.616260	-66.590897	86.213543	-66.590897	86.213543	-0.000401	-1.616609
0.150000	-0.000887	-2.423798	-63.167981	85.882128	-63.167981	85.882128	-0.000887	-2.424322
0.200000	-0.001540	-3.230680	-60.715313	85.431321	-60.715313	85.431321	-0.001540	-3.231378
0.250000	-0.002347	-4.036692	-58.803263	84.873102	-58.803263	84.873102	-0.002349	-4.037564
0.300000	-0.003273	-4.841795	-57.237504	84.252396	-57.237504	84.252396	-0.003274	-4.842840
0.350000	-0.004297	-5.645875	-55.912663	83.587790	-55.912663	83.587790	-0.004299	-5.647093
0.400000	-0.005399	-6.448888	-54.765261	82.893894	-54.765261	82.893894	-0.005401	-6.450278
0.450000	-0.006556	-7.250815	-53.754050	82.179857	-53.754050	82.179857	-0.006559	-7.252378
0.500000	-0.007751	-8.051663	-52.850719	81.451609	-52.850719	81.451609	-0.007754	-8.053397
0.550000	-0.008968	-8.851452	-52.034998	80.713138	-52.034998	80.713138	-0.008972	-8.853357
0.600000	-0.010196	-9.650209	-51.291876	79.967222	-51.291876	79.967222	-0.010200	-9.652285
0.650000	-0.011424	-10.447970	-50.609929	79.215863	-50.609929	79.215863	-0.011429	-10.450216
0.700000	-0.012646	-11.244768	-49.980261	78.460541	-49.980261	78.460541	-0.012652	-11.247184
0.750000	-0.013857	-12.040633	-49.395811	77.702386	-49.395811	77.702386	-0.013863	-12.043218
0.800000	-0.015054	-12.835593	-48.850879	76.942278	-48.850879	76.942278	-0.015060	-12.838348
0.850000	-0.016235	-13.629670	-48.340799	76.180923	-48.340799	76.180923	-0.016242	-13.632594
0.900000	-0.017399	-14.422881	-47.861702	75.418893	-47.861702	75.418893	-0.017406	-14.425974
0.950000	-0.018547	-15.215238	-47.410346	74.656667	-47.410346	74.656667	-0.018554	-15.218498
1.000000	-0.019678	-16.006745	-46.983985	73.894651	-46.983985	73.894651	-0.019686	-16.010174
1.050000	-0.020794	-16.797406	-46.580273	73.133194	-46.580273	73.133194	-0.020802	-16.801002
1.100000	-0.021895	-17.587217	-46.197193	72.372604	-46.197193	72.372604	-0.021904	-17.590981
1.150000	-0.022983	-18.376172	-45.832994	71.613154	-45.832994	71.613154	-0.022993	-18.380103
1.200000	-0.024060	-19.164263	-45.486148	70.855091	-45.486148	70.855091	-0.024070	-19.168360
1.250000	-0.025126	-19.951476	-45.155314	70.098640	-45.155314	70.098640	-0.025137	-19.955740
1.300000	-0.026183	-20.737760	-44.839429	69.344099	-44.839429	69.344099	-0.026194	-20.742190
1.350000	-0.027231	-21.523136	-44.537319	68.591590	-44.537319	68.591590	-0.027242	-21.527732
1.400000	-0.028272	-22.307587	-44.248050	67.841296	-44.248050	67.841296	-0.028284	-22.312348
1.450000	-0.029307	-23.091095	-43.970780	67.093391	-43.970780	67.093391	-0.029320	-23.096021
1.500000	-0.030337	-23.873641	-43.704756	66.348040	-43.704756	66.348040	-0.030350	-23.878732
1.550000	-0.031363	-24.655205	-43.449298	65.605404	-43.449298	65.605404	-0.031376	-24.660461
1.600000	-0.032385	-25.435768	-43.203787	64.865638	-43.203787	64.865638	-0.032399	-25.441188
1.650000	-0.033404	-26.215309	-42.967665	64.128895	-42.967665	64.128895	-0.033418	-26.220893
1.700000	-0.034421	-26.993437	-42.741360	63.396491	-42.741360	63.396491	-0.034435	-26.999184
1.750000	-0.035436	-27.771013	-42.522158	62.665792	-42.522158	62.665792	-0.035451	-27.776924
1.800000	-0.036450	-28.547263	-42.311545	61.939372	-42.311545	61.939372	-0.036465	-28.553336
1.850000	-0.037463	-29.322563	-42.108147	61.216008	-42.108147	61.216008	-0.037478	-29.328799
1.900000	-0.038476	-30.096683	-41.912113	60.496617	-41.912113	60.496617	-0.038491	-30.103081
1.950000	-0.039488	-30.869620	-41.723058	59.781198	-41.723058	59.781198	-0.039504	-30.876180
2.000000	-0.040501	-31.641538	-41.540264	59.069338	-41.540264	59.069338	-0.040518	-31.648259
2.050000	-0.041515	-32.412028	-41.364300	58.362462	-41.364300	58.362462	-0.041532	-32.418910
2.100000	-0.042529	-33.181674	-41.193594	57.658630	-41.193594	57.658630	-0.042547	-33.188717
2.150000	-0.043545	-33.949634	-41.029640	56.960889	-41.029640	56.960889	-0.043563	-33.956837
2.200000	-0.044562	-34.716941	-40.870026	56.265578	-40.870026	56.265578	-0.044581	-34.724305
2.250000	-0.045582	-35.482292	-40.717135	55.577561	-40.717135	55.577561	-0.045601	-35.489815
2.300000	-0.046603	-36.247195	-40.567744	54.891262	-40.567744	54.891262	-0.046622	-36.254877
2.350000	-0.047628	-37.009861	-40.425085	54.213556	-40.425085	54.213556	-0.047648	-37.017702
2.400000	-0.048654	-37.772297	-40.285151	53.536758	-40.285151	53.536758	-0.048674	-37.780297
2.450000	-0.049686	-38.532206	-40.151985	52.869952	-40.151985	52.869952	-0.049706	-38.540363
2.500000	-0.050717	-39.292115	-40.020831	52.203145	-40.020831	52.203145	-0.050738	-39.300430
2.550000	-0.051757	-40.049199	-39.896499	51.547828	-39.896499	51.547828	-0.051778	-40.057670
2.600000	-0.052796	-40.806282	-39.773923	50.892510	-39.773923	50.892510	-0.052818	-40.814911
2.650000	-0.053843	-41.560715	-39.657429	50.248266	-39.657429	50.248266	-0.053866	-41.569500
2.700000	-0.054892	-42.314908	-39.542869	49.605028	-39.542869	49.605028	-0.054914	-42.323849
2.750000	-0.055949	-43.066640	-39.433691	48.972352	-39.433691	48.972352	-0.055972	-43.075737
2.800000	-0.057007	-43.817880	-39.326638	48.341788	-39.326638	48.341788	-0.057031	-43.827132
2.850000	-0.058075	-44.566862	-39.224304	47.721177	-39.224304	47.721177	-0.058099	-44.576269
2.900000	-0.059145	-45.315092	-39.124289	47.103882	-39.124289	47.103882	-0.059170	-45.324654
2.950000	-0.060225	-46.061279	-39.028368	46.495833	-39.028368	46.495833	-0.060249	-46.070995
3.000000	-0.061308	-46.806444	-38.934959	45.892407	-38.934959	45.892407	-0.061333	-46.816313
3.050000	-0.062401	-47.549792	-38.845055	45.297421	-38.845055	45.297421	-0.062426	-47.559815
3.100000	-0.063499	-48.291842	-38.757850	44.708464	-38.757850	44.708464	-0.063525	-48.302018
3.150000	-0.064606	-49.032311	-38.673597	44.127042	-38.673597	44.127042	-0.064632	-49.042639
3.200000	-0.065720	-49.771198	-38.592220	43.553156	-38.592220	43.553156	-0.065747	-49.781679
3.250000	-0.066842	-50.508750	-38.513277	42.985800	-38.513277	42.985800	-0.066870	-50.519383
3.300000	-0.067975	-51.244432	-38.437373	42.427587	-38.437373	42.427587	-0.068003	-51.255216
3.350000	-0.069114	-51.979032	-38.363420	41.874800	-38.363420	41.874800	-0.069142	-51.989967
3.400000	-0.070266	-52.711468	-38.292654	41.332864	-38.292654	41.332864	-0.070295	-52.722555
3.450000	-0.071424	-53.443084	-38.223390	40.795147	-38.223390	40.795147	-0.071453	-53.454321
3.500000	-0.072597	-54.172239	-38.157440	40.270088	-38.157440	40.270088	-0.072627	-54.183626
3.550000	-0.073774	-54.900842	-38.092578	39.747941	-38.092578	39.747941	-0.073804	-54.912379
3.600000	-0.074970	-55.626683	-38.031134	39.240356	-38.031134	39.240356	-0.075001	-55.638369
3.650000	-0.076168	-56.352245	-37.970403	38.734277	-37.970403	38.734277	-0.076199	-56.364081
3.700000	-0.077389	-57.074744	-37.913164	38.244758	-37.913164	38.244758	-0.077420	-57.086728
3.750000	-0.078609	-57.797242	-37.856301	37.755239	-37.856301	37.755239	-0.078641	-57.809375
3.800000	-0.079856	-58.516372	-37.802975	37.284369	-37.802975	37.284369	-0.079889	-58.528654
3.850000	-0.081103	-59.235503	-37.749974	36.813498	-37.749974	36.813498	-0.081136	-59.247932
3.900000	-0.082375	-59.951526	-37.700024	36.360246	-37.700024	36.360246	-0.082409	-59.964103
3.950000	-0.083650	-60.667267	-37.650606	35.908595	-37.650606	35.908595	-0.083684	-60.679991
4.000000	-0.084950	-61.380168	-37.603780	35.473423	-37.603780	35.473423	-0.084984	-61.393039
4.050000	-0.086254	-62.092501	-37.557666	35.041547	-37.557666	35.041547	-0.086290	-62.105520
4.100000	-0.087582	-62.802268	-37.513719	34.624903	-37.513719	34.624903	-0.087618	-62.815433
4.150000	-0.088918	-63.511179	-37.470630	34.213336	-37.470630	34.213336	-0.088955	-63.524491
4.200000	-0.090276	-64.217802	-37.429318	33.815648	-37.429318	33.815648	-0.090313	-64.231259
4.250000	-0.091645	-64.923280	-37.388978	33.424898	-37.388978	33.424898	-0.091683	-64.936883
4.300000	-0.093035	-65.626751	-37.350057	33.046570	-37.350057	33.046570	-0.093073	-65.640501
4.350000	-0.094439	-66.328789	-37.312186	32.677113	-37.312186	32.677113	-0.094478	-66.342684
4.400000	-0.095861	-67.029105	-37.275416	32.318521	-37.275416	32.318521	-0.095901	-67.043145
4.450000	-0.097302	-67.727698	-37.239731	31.970793	-37.239731	31.970793	-0.097342	-67.741883
4.500000	-0.098759	-68.424856	-37.204868	31.632280	-37.204868	31.632280	-0.098799	-68.439186
4.550000	-0.100238	-69.120004	-37.171084	31.306668	-37.171084	31.306668	-0.100279	-69.134479
4.600000	-0.101730	-69.814004	-37.137883	30.988537	-37.137883	30.988537	-0.101772	-69.828624
4.650000	-0.103250	-70.505710	-37.105709	30.685369	-37.105709	30.685369	-0.103292	-70.520474
4.700000	-0.104780	-71.196556	-37.073924	30.387878	-37.073924	30.387878	-0.104822	-71.211465
4.750000	-0.106341	-71.884825	-37.043063	30.107415	-37.043063	30.107415	-0.106384	-71.899878
4.800000	-0.107909	-72.572523	-37.012445	29.830767	-37.012445	29.830767	-0.107953	-72.587720
4.850000	-0.109514	-73.257364	-36.982597	29.573190	-36.982597	29.573190	-0.109559	-73.272705
4.900000	-0.111123	-73.941921	-36.952893	29.317527	-36.952893	29.317527	-0.111168	-73.957406
4.950000	-0.112773	-74.623347	-36.923751	29.082924	-36.923751	29.082924	-0.112819	-74.638975
5.000000	-0.114423	-75.304773	-36.894706	28.848322	-36.894706	28.848322	-0.114470	-75.320545
5.050000	-0.116120	-75.982799	-36.865957	28.636676	-36.865957	28.636676	-0.116168	-75.998715
5.100000	-0.117817	-76.660825	-36.837303	28.425030	-36.837303	28.425030	-0.117866	-76.676885
5.150000	-0.119559	-77.335752	-36.808641	28.234304	-36.808641	28.234304	-0.119608	-77.351955
5.200000	-0.121305	-78.010396	-36.780063	28.045480	-36.780063	28.045480	-0.121355	-78.026743
5.250000	-0.123093	-78.682241	-36.751220	27.875452	-36.751220	27.875452	-0.123143	-78.698731
5.300000	-0.124890	-79.353525	-36.722400	27.709182	-36.722400	27.709182	-0.124941	-79.370159
5.350000	-0.126725	-80.022307	-36.693109	27.559517	-36.693109	27.559517	-0.126777	-80.039085
5.400000	-0.128574	-80.690255	-36.663728	27.415389	-36.663728	27.415389	-0.128626	-80.707176
5.450000	-0.130458	-81.355997	-36.633721	27.285640	-36.633721	27.285640	-0.130511	-81.373062
5.500000	-0.132360	-82.020636	-36.603457	27.163081	-36.603457	27.163081	-0.132415	-82.037845
5.550000	-0.134295	-82.683361	-36.572471	27.052674	-36.572471	27.052674	-0.134350	-82.700714
5.600000	-0.136253	-83.344721	-36.541006	26.950946	-36.541006	26.950946	-0.136309	-83.362218
5.650000	-0.138239	-84.004456	-36.508780	26.859176	-36.508780	26.859176	-0.138296	-84.022098
5.700000	-0.140254	-84.662568	-36.475800	26.777362	-36.475800	26.777362	-0.140312	-84.680354
5.750000	-0.142294	-85.319342	-36.442079	26.703388	-36.442079	26.703388	-0.142352	-85.337272
5.800000	-0.144367	-85.974242	-36.407280	26.640389	-36.407280	26.640389	-0.144426	-85.992316
5.850000	-0.146461	-86.628083	-36.371819	26.583232	-36.371819	26.583232	-0.146521	-86.646302
5.900000	-0.148595	-87.279808	-36.334907	26.537761	-36.334907	26.537761	-0.148656	-87.298172
5.950000	-0.150745	-87.930749	-36.297472	26.496304	-36.297472	26.496304	-0.150807	-87.949259
6.000000	-0.152941	-88.579339	-36.258168	26.466889	-36.258168	26.466889	-0.153004	-88.597994
6.050000	-0.155148	-89.227413	-36.218538	26.439876	-36.218538	26.439876	-0.155211	-89.246214
6.100000	-0.157407	-89.872910	-36.176584	26.424869	-36.176584	26.424869	-0.157472	-89.891857
6.150000	-0.159673	-90.518154	-36.134556	26.410912	-36.134556	26.410912	-0.159738	-90.537246
6.200000	-0.161997	-91.160602	-36.089716	26.408495	-36.089716	26.408495	-0.162064	-91.179841
6.250000	-0.164323	-91.803051	-36.045106	26.406079	-36.045106	26.406079	-0.164390	-91.822437
6.300000	-0.166714	-92.442498	-35.997172	26.414286	-35.997172	26.414286	-0.166783	-92.462031
6.350000	-0.169106	-93.081946	-35.949501	26.422492	-35.949501	26.422492	-0.169176	-93.101626
6.400000	-0.171560	-93.718686	-35.898613	26.438513	-35.898613	26.438513	-0.171631	-93.738515
6.450000	-0.174021	-94.355181	-35.847707	26.455244	-35.847707	26.455244	-0.174092	-94.375157
6.500000	-0.176539	-94.989258	-35.793759	26.477245	-35.793759	26.477245	-0.176611	-95.009383
6.550000	-0.179069	-95.622851	-35.739480	26.500300	-35.739480	26.500300	-0.179143	-95.643125
6.600000	-0.181652	-96.254308	-35.682393	26.526392	-35.682393	26.526392	-0.181727	-96.274731
6.650000	-0.184254	-96.885052	-35.624638	26.553495	-35.624638	26.553495	-0.184330	-96.905626
6.700000	-0.186904	-97.513935	-35.564366	26.581755	-35.564366	26.581755	-0.186981	-97.534659
6.750000	-0.189579	-98.141886	-35.503070	26.610592	-35.503070	26.610592	-0.189656	-98.162761
6.800000	-0.192296	-98.768241	-35.439596	26.639089	-35.439596	26.639089	-0.192375	-98.789267
6.850000	-0.195045	-99.393456	-35.374733	26.667341	-35.374733	26.667341	-0.195125	-99.414634
6.900000	-0.197832	-100.017332	-35.308072	26.694158	-35.308072	26.694158	-0.197913	-100.038663
6.950000	-0.200657	-100.639870	-35.239658	26.719540	-35.239658	26.719540	-0.200739	-100.661354
7.000000	-0.203514	-101.261317	-35.169855	26.742800	-35.169855	26.742800	-0.203597	-101.282954
7.050000	-0.206416	-101.881238	-35.097939	26.763092	-35.097939	26.763092	-0.206501	-101.903030
7.100000	-0.209344	-102.500307	-35.025068	26.780981	-35.025068	26.780981	-0.209430	-102.522254
7.150000	-0.212325	-103.117673	-34.949739	26.794067	-34.949739	26.794067	-0.212412	-103.139776
7.200000	-0.215327	-103.734417	-34.873901	26.804856	-34.873901	26.804856	-0.215415	-103.756676
7.250000	-0.218387	-104.349294	-34.795280	26.808754	-34.795280	26.808754	-0.218477	-104.371710
7.300000	-0.221463	-104.963766	-34.716600	26.810818	-34.716600	26.810818	-0.221554	-104.986340
7.350000	-0.224605	-105.576219	-34.634840	26.803708	-34.634840	26.803708	-0.224697	-105.598951
7.400000	-0.227755	-106.188475	-34.553465	26.795544	-34.553465	26.795544	-0.227849	-106.211366
7.450000	-0.230981	-106.798571	-34.468744	26.775788	-34.468744	26.775788	-0.231076	-106.821623
7.500000	-0.234207	-107.408667	-34.384840	26.756031	-34.384840	26.756031	-0.234304	-107.431879
7.550000	-0.237517	-108.016476	-34.297357	26.722192	-34.297357	26.722192	-0.237615	-108.039850
7.600000	-0.240828	-108.624286	-34.210747	26.688353	-34.210747	26.688353	-0.240927	-108.647821
7.650000	-0.244216	-109.230063	-34.121080	26.640481	-34.121080	26.640481	-0.244316	-109.253762
7.700000	-0.247612	-109.835656	-34.031977	26.591334	-34.031977	26.591334	-0.247714	-109.859519
7.750000	-0.251080	-110.439462	-33.940334	26.528590	-33.940334	26.528590	-0.251183	-110.463491
7.800000	-0.254563	-111.042911	-33.848967	26.463128	-33.848967	26.463128	-0.254668	-111.067106
7.850000	-0.258112	-111.644808	-33.755561	26.384839	-33.755561	26.384839	-0.258218	-111.669170
7.900000	-0.261684	-112.246187	-33.662163	26.302274	-33.662163	26.302274	-0.261791	-112.270717
7.950000	-0.265314	-112.846236	-33.567208	26.207925	-33.567208	26.207925	-0.265423	-112.870936
8.000000	-0.268975	-113.445621	-33.472018	26.107685	-33.472018	26.107685	-0.269086	-113.470491
8.050000	-0.272688	-114.043888	-33.375725	25.996920	-33.375725	25.996920	-0.272800	-114.068928
8.100000	-0.276440	-114.641355	-33.278981	25.878639	-33.278981	25.878639	-0.276553	-114.666568
8.150000	-0.280237	-115.237903	-33.181558	25.751252	-33.181558	25.751252	-0.280352	-115.263290
8.200000	-0.284080	-115.833532	-33.083491	25.614760	-33.083491	25.614760	-0.284197	-115.859093
8.250000	-0.287962	-116.428428	-32.985138	25.470685	-32.985138	25.470685	-0.288080	-116.454165
8.300000	-0.291898	-117.022298	-32.885974	25.315994	-32.885974	25.315994	-0.292018	-117.048212
8.350000	-0.295865	-117.615610	-32.786881	25.155296	-32.786881	25.155296	-0.295987	-117.641701
8.400000	-0.299895	-118.207803	-32.686835	24.982583	-32.686835	24.982583	-0.300019	-118.234074
8.450000	-0.303949	-118.799597	-32.587183	24.805447	-32.587183	24.805447	-0.304075	-118.826049
8.500000	-0.308074	-119.390196	-32.486455	24.615038	-32.486455	24.615038	-0.308201	-119.416830
8.550000	-0.312216	-119.980543	-32.386412	24.421757	-32.386412	24.421757	-0.312345	-120.007361
8.600000	-0.316436	-120.569633	-32.285190	24.214108	-32.285190	24.214108	-0.316567	-120.596635
8.650000	-0.320667	-121.158603	-32.184911	24.005071	-32.184911	24.005071	-0.320799	-121.185791
8.700000	-0.324984	-121.746269	-32.083364	23.780751	-32.083364	23.780751	-0.325118	-121.773645
8.750000	-0.329304	-122.333935	-31.982990	23.556431	-31.982990	23.556431	-0.329440	-122.361499
8.800000	-0.333719	-122.920264	-31.881272	23.316100	-31.881272	23.316100	-0.333857	-122.948020
8.850000	-0.338136	-123.506594	-31.780731	23.075770	-31.780731	23.075770	-0.338276	-123.534541
8.900000	-0.342642	-124.091780	-31.679175	22.821442	-31.679175	22.821442	-0.342783	-124.119921
8.950000	-0.347158	-124.676863	-31.578598	22.565841	-31.578598	22.565841	-0.347301	-124.705198
9.000000	-0.351755	-125.260982	-31.477301	22.298180	-31.477301	22.298180	-0.351901	-125.289514
9.050000	-0.356371	-125.844908	-31.376802	22.028106	-31.376802	22.028106	-0.356518	-125.873638
9.100000	-0.361060	-126.428036	-31.275847	21.747813	-31.275847	21.747813	-0.361209	-126.456966
9.150000	-0.365776	-127.010897	-31.175522	21.464112	-31.175522	21.464112	-0.365927	-127.040030
9.200000	-0.370558	-127.593112	-31.074974	21.171911	-31.074974	21.171911	-0.370711	-127.622448
9.250000	-0.375374	-128.175003	-30.974900	20.875458	-30.974900	20.875458	-0.375530	-128.204544
9.300000	-0.380249	-128.756384	-30.874812	20.572089	-30.874812	20.572089	-0.380407	-128.786131
9.350000	-0.385167	-129.337400	-30.775050	20.263778	-30.775050	20.263778	-0.385327	-129.367356
9.400000	-0.390136	-129.918026	-30.675461	19.949989	-30.675461	19.949989	-0.390298	-129.948193
9.450000	-0.395156	-130.498264	-30.576053	19.630721	-30.576053	19.630721	-0.395320	-130.528643
9.500000	-0.400219	-131.078218	-30.476989	19.307261	-30.476989	19.307261	-0.400385	-131.108812
9.550000	-0.405342	-131.657776	-30.377961	18.977933	-30.377961	18.977933	-0.405510	-131.688586
9.600000	-0.410499	-132.237141	-30.279434	18.645547	-30.279434	18.645547	-0.410669	-132.268169
9.650000	-0.415724	-132.816120	-30.180797	18.307044	-30.180797	18.307044	-0.415897	-132.847369
9.700000	-0.420977	-133.394979	-30.082810	17.966463	-30.082810	17.966463	-0.421151	-133.426450
9.750000	-0.426305	-133.973481	-29.984558	17.619650	-29.984558	17.619650	-0.426482	-134.005177
9.800000	-0.431652	-134.551920	-29.887101	17.271592	-29.887101	17.271592	-0.431832	-134.583842
9.850000	-0.437084	-135.130048	-29.789216	16.917309	-29.789216	16.917309	-0.437266	-135.162200
9.900000	-0.442527	-135.708154	-29.692268	16.562470	-29.692268	16.562470	-0.442711	-135.740536
9.950000	-0.448062	-136.286015	-29.594716	16.201523	-29.594716	16.201523	-0.448248	-136.318631
10.000000	-0.453600	-136.863876	-29.498248	15.840576	-29.498248	15.840576	-0.453789	-136.896727
