! freq	dB(S11)	phase(S11)	dB(S12)	phase(S12)	
!     	dB(S21)	phase(S21)	dB(S22)	phase(S22)	
!S-par simulation data
#  GHz  S  DB  R 50
0.000000	0.000000	0.000000	-268.101845	180.000000	-268.101845	180.000000	0.000000	0.000000
0.050000	-0.000487	-0.769926	-60.599106	88.232386	-60.599106	88.232386	-0.000748	-1.177956
0.100000	-0.001643	-1.536290	-54.556194	87.661770	-54.556194	87.661770	-0.002530	-2.350427
0.150000	-0.002984	-2.298647	-51.035695	86.841217	-51.035695	86.841217	-0.004601	-3.516660
0.200000	-0.004241	-3.058291	-48.543542	85.941556	-48.543542	85.941556	-0.006543	-4.678583
0.250000	-0.005382	-3.816705	-46.613538	85.009758	-46.613538	85.009758	-0.008300	-5.838468
0.300000	-0.006425	-4.574507	-45.039141	84.059080	-45.039141	84.059080	-0.009898	-6.997238
0.350000	-0.007408	-5.332050	-43.710095	83.097859	-43.710095	83.097859	-0.011394	-8.155417
0.400000	-0.008363	-6.089470	-42.560690	82.130978	-42.560690	82.130978	-0.012837	-9.313179
0.450000	-0.009311	-6.846778	-41.548815	81.161545	-41.548815	81.161545	-0.014259	-10.470484
0.500000	-0.010263	-7.603948	-40.645233	80.191846	-40.645233	80.191846	-0.015682	-11.627282
0.550000	-0.011226	-8.360918	-39.829351	79.223061	-39.829351	79.223061	-0.017114	-12.783450
0.600000	-0.012202	-9.117622	-39.085963	78.255965	-39.085963	78.255965	-0.018560	-13.938853
0.650000	-0.013190	-9.873986	-38.403523	77.291063	-38.403523	77.291063	-0.020021	-15.093355
0.700000	-0.014191	-10.629938	-37.773052	76.328671	-37.773052	76.328671	-0.021498	-16.246819
0.750000	-0.015203	-11.385377	-37.187567	75.369150	-37.187567	75.369150	-0.022991	-17.399035
0.800000	-0.016227	-12.140230	-36.641298	74.412587	-36.641298	74.412587	-0.024497	-18.549869
0.850000	-0.017261	-12.894447	-36.129483	73.458946	-36.129483	73.458946	-0.026014	-19.699229
0.900000	-0.018305	-13.648026	-35.648076	72.508011	-35.648076	72.508011	-0.027543	-20.847119
0.950000	-0.019358	-14.400881	-35.193941	71.559921	-35.193941	71.559921	-0.029080	-21.993356
1.000000	-0.020420	-15.152972	-34.764318	70.614629	-34.764318	70.614629	-0.030627	-23.137847
1.050000	-0.021491	-15.904263	-34.356850	69.672082	-34.356850	69.672082	-0.032182	-24.280511
1.100000	-0.022572	-16.654723	-33.969510	68.732224	-33.969510	68.732224	-0.033745	-25.421271
1.150000	-0.023662	-17.404326	-33.600540	67.794999	-33.600540	67.794999	-0.035314	-26.560058
1.200000	-0.024760	-18.153050	-33.248409	66.860356	-33.248409	66.860356	-0.036890	-27.696812
1.250000	-0.025868	-18.900874	-32.911774	65.928248	-32.911774	65.928248	-0.038472	-28.831474
1.300000	-0.026983	-19.647741	-32.589528	64.998742	-32.589528	64.998742	-0.040060	-29.963899
1.350000	-0.028106	-20.393675	-32.280539	64.071696	-32.280539	64.071696	-0.041652	-31.094129
1.400000	-0.029237	-21.138661	-31.983872	63.147084	-31.983872	63.147084	-0.043249	-32.222120
1.450000	-0.030374	-21.882687	-31.698690	62.224889	-31.698690	62.224889	-0.044849	-33.347833
1.500000	-0.031517	-22.625741	-31.424241	61.305099	-31.424241	61.305099	-0.046453	-34.471229
1.550000	-0.032667	-23.367810	-31.159848	60.387708	-31.159848	60.387708	-0.048060	-35.592271
1.600000	-0.033821	-24.108884	-30.904897	59.472718	-30.904897	59.472718	-0.049669	-36.710927
1.650000	-0.034981	-24.848950	-30.658830	58.560134	-30.658830	58.560134	-0.051280	-37.827163
1.700000	-0.036144	-25.587999	-30.421141	57.649968	-30.421141	57.649968	-0.052893	-38.940949
1.750000	-0.037312	-26.326018	-30.191366	56.742235	-30.191366	56.742235	-0.054507	-40.052256
1.800000	-0.038484	-27.062997	-29.969080	55.836953	-29.969080	55.836953	-0.056123	-41.161055
1.850000	-0.039659	-27.798923	-29.753891	54.934148	-29.753891	54.934148	-0.057740	-42.267320
1.900000	-0.040838	-28.533787	-29.545441	54.033843	-29.545441	54.033843	-0.059357	-43.371025
1.950000	-0.042020	-29.267576	-29.343397	53.136068	-29.343397	53.136068	-0.060976	-44.472144
2.000000	-0.043205	-30.000279	-29.147452	52.240853	-29.147452	52.240853	-0.062596	-45.570654
2.050000	-0.044393	-30.731885	-28.957319	51.348232	-28.957319	51.348232	-0.064216	-46.666533
2.100000	-0.045584	-31.462381	-28.772734	50.458238	-28.772734	50.458238	-0.065838	-47.759758
2.150000	-0.046777	-32.191756	-28.593450	49.570908	-28.593450	49.570908	-0.067462	-48.850308
2.200000	-0.047974	-32.919998	-28.419234	48.686278	-28.419234	48.686278	-0.069086	-49.938163
2.250000	-0.049174	-33.647095	-28.249872	47.804384	-28.249872	47.804384	-0.070713	-51.023306
2.300000	-0.050377	-34.373036	-28.085160	46.925265	-28.085160	46.925265	-0.072342	-52.105717
2.350000	-0.051583	-35.097808	-27.924908	46.048960	-27.924908	46.048960	-0.073973	-53.185380
2.400000	-0.052793	-35.821399	-27.768938	45.175505	-27.768938	45.175505	-0.075607	-54.262278
2.450000	-0.054007	-36.543797	-27.617081	44.304939	-27.617081	44.304939	-0.077245	-55.336399
2.500000	-0.055224	-37.264992	-27.469178	43.437300	-27.469178	43.437300	-0.078886	-56.407727
2.550000	-0.056446	-37.984916	-27.325136	42.572755	-27.325136	42.572755	-0.080531	-57.476127
2.600000	-0.057672	-38.703613	-27.184754	41.711214	-27.184754	41.711214	-0.082182	-58.541710
2.650000	-0.058902	-39.421068	-27.047896	40.852714	-27.047896	40.852714	-0.083837	-59.604466
2.700000	-0.060138	-40.137272	-26.914435	39.997288	-26.914435	39.997288	-0.085498	-60.664386
2.750000	-0.061378	-40.852214	-26.784250	39.144972	-26.784250	39.144972	-0.087166	-61.721462
2.800000	-0.062624	-41.565881	-26.657224	38.295799	-26.657224	38.295799	-0.088840	-62.775687
2.850000	-0.063876	-42.278263	-26.533246	37.449800	-26.533246	37.449800	-0.090522	-63.827056
2.900000	-0.065134	-42.989349	-26.412212	36.607007	-26.412212	36.607007	-0.092212	-64.875565
2.950000	-0.066398	-43.699130	-26.294022	35.767450	-26.294022	35.767450	-0.093910	-65.921212
3.000000	-0.067669	-44.407593	-26.178578	34.931156	-26.178578	34.931156	-0.095618	-66.963993
3.050000	-0.068947	-45.114730	-26.065789	34.098153	-26.065789	34.098153	-0.097335	-68.003910
3.100000	-0.070232	-45.820531	-25.955566	33.268467	-25.955566	33.268467	-0.099063	-69.040962
3.150000	-0.071524	-46.524986	-25.847826	32.442121	-25.847826	32.442121	-0.100801	-70.075152
3.200000	-0.072825	-47.228085	-25.742486	31.619139	-25.742486	31.619139	-0.102551	-71.106484
3.250000	-0.074134	-47.929820	-25.639469	30.799542	-25.639469	30.799542	-0.104313	-72.134961
3.300000	-0.075451	-48.630182	-25.538699	29.983349	-25.538699	29.983349	-0.106087	-73.160589
3.350000	-0.076778	-49.329162	-25.440105	29.170578	-25.440105	29.170578	-0.107875	-74.183376
3.400000	-0.078113	-50.026752	-25.343615	28.361246	-25.343615	28.361246	-0.109677	-75.203330
3.450000	-0.079458	-50.722945	-25.249164	27.555367	-25.249164	27.555367	-0.111493	-76.220460
3.500000	-0.080813	-51.417732	-25.156685	26.752955	-25.156685	26.752955	-0.113324	-77.234777
3.550000	-0.082178	-52.111107	-25.066118	25.954020	-25.066118	25.954020	-0.115170	-78.246293
3.600000	-0.083554	-52.803062	-24.977399	25.158573	-24.977399	25.158573	-0.117033	-79.255021
3.650000	-0.084941	-53.493591	-24.890472	24.366622	-24.890472	24.366622	-0.118912	-80.260976
3.700000	-0.086339	-54.182687	-24.805279	23.578172	-24.805279	23.578172	-0.120809	-81.264173
3.750000	-0.087749	-54.870345	-24.721765	22.793228	-24.721765	22.793228	-0.122723	-82.264629
3.800000	-0.089171	-55.556495	-24.639913	22.011947	-24.639913	22.011947	-0.124657	-83.262244
3.850000	-0.090605	-56.241196	-24.559633	21.234175	-24.559633	21.234175	-0.126610	-84.257156
3.900000	-0.092052	-56.924441	-24.480875	20.459913	-24.480875	20.459913	-0.128582	-85.249387
3.950000	-0.093512	-57.606226	-24.403590	19.689157	-24.403590	19.689157	-0.130574	-86.238957
4.000000	-0.094985	-58.286548	-24.327731	18.921904	-24.327731	18.921904	-0.132587	-87.225889
4.050000	-0.096472	-58.965401	-24.253251	18.158147	-24.253251	18.158147	-0.134621	-88.210208
4.100000	-0.097974	-59.642783	-24.180107	17.397878	-24.180107	17.397878	-0.136677	-89.191936
4.150000	-0.099489	-60.318690	-24.108254	16.641089	-24.108254	16.641089	-0.138755	-90.171101
4.200000	-0.101020	-60.993119	-24.037651	15.887767	-24.037651	15.887767	-0.140856	-91.147730
4.250000	-0.102565	-61.666067	-23.968255	15.137901	-23.968255	15.137901	-0.142980	-92.121849
4.300000	-0.104126	-62.337532	-23.900027	14.391476	-23.900027	14.391476	-0.145128	-93.093489
4.350000	-0.105703	-63.007513	-23.832927	13.648474	-23.832927	13.648474	-0.147300	-94.062680
4.400000	-0.107296	-63.676006	-23.766917	12.908880	-23.766917	12.908880	-0.149498	-95.029451
4.450000	-0.108906	-64.343011	-23.701960	12.172673	-23.701960	12.172673	-0.151720	-95.993836
4.500000	-0.110533	-65.008528	-23.638020	11.439833	-23.638020	11.439833	-0.153969	-96.955867
4.550000	-0.112178	-65.672554	-23.575061	10.710336	-23.575061	10.710336	-0.156244	-97.915578
4.600000	-0.113840	-66.335090	-23.513048	9.984159	-23.513048	9.984159	-0.158546	-98.873004
4.650000	-0.115520	-66.996136	-23.451948	9.261276	-23.451948	9.261276	-0.160876	-99.828181
4.700000	-0.117219	-67.655692	-23.391727	8.541660	-23.391727	8.541660	-0.163233	-100.781144
4.750000	-0.118937	-68.313759	-23.332354	7.825281	-23.332354	7.825281	-0.165620	-101.731933
4.800000	-0.120674	-68.970336	-23.273797	7.112110	-23.273797	7.112110	-0.168035	-102.680585
4.850000	-0.122432	-69.625426	-23.216025	6.402115	-23.216025	6.402115	-0.170479	-103.627139
4.900000	-0.124209	-70.279030	-23.159008	5.695262	-23.159008	5.695262	-0.172954	-104.571636
4.950000	-0.126007	-70.931150	-23.102716	4.991516	-23.102716	4.991516	-0.175459	-105.514117
5.000000	-0.127826	-71.581787	-23.047120	4.290843	-23.047120	4.290843	-0.177995	-106.454623
5.050000	-0.129668	-72.230880	-22.992207	3.593333	-22.992207	3.593333	-0.180564	-107.393115
5.100000	-0.131531	-72.878496	-22.937932	2.898815	-22.937932	2.898815	-0.183165	-108.329722
5.150000	-0.133417	-73.524637	-22.884269	2.207248	-22.884269	2.207248	-0.185799	-109.264490
5.200000	-0.135326	-74.169308	-22.831193	1.518589	-22.831193	1.518589	-0.188465	-110.197462
5.250000	-0.137258	-74.812511	-22.778676	0.832797	-22.778676	0.832797	-0.191166	-111.128686
5.300000	-0.139213	-75.454250	-22.726694	0.149825	-22.726694	0.149825	-0.193900	-112.058206
5.350000	-0.141193	-76.094530	-22.675222	-0.530371	-22.675222	-0.530371	-0.196669	-112.986071
5.400000	-0.143198	-76.733354	-22.624236	-1.207840	-22.624236	-1.207840	-0.199473	-113.912330
5.450000	-0.145228	-77.370728	-22.573712	-1.882628	-22.573712	-1.882628	-0.202312	-114.837029
5.500000	-0.147283	-78.006655	-22.523627	-2.554787	-22.523627	-2.554787	-0.205187	-115.760220
5.550000	-0.149364	-78.641141	-22.473957	-3.224367	-22.473957	-3.224367	-0.208099	-116.681953
5.600000	-0.151472	-79.274192	-22.424682	-3.891420	-22.424682	-3.891420	-0.211048	-117.602277
5.650000	-0.153607	-79.905812	-22.375778	-4.556000	-22.375778	-4.556000	-0.214034	-118.521246
5.700000	-0.155770	-80.536009	-22.327225	-5.218161	-22.327225	-5.218161	-0.217059	-119.438911
5.750000	-0.157960	-81.164787	-22.279002	-5.877959	-22.279002	-5.877959	-0.220121	-120.355325
5.800000	-0.160179	-81.792152	-22.231087	-6.535451	-22.231087	-6.535451	-0.223223	-121.270542
5.850000	-0.162433	-82.417871	-22.183461	-7.190323	-22.183461	-7.190323	-0.226371	-122.184434
5.900000	-0.164717	-83.042129	-22.136105	-7.842913	-22.136105	-7.842913	-0.229560	-123.097193
5.950000	-0.167017	-83.665665	-22.088994	-8.494418	-22.088994	-8.494418	-0.232772	-124.009436
6.000000	-0.169364	-84.287030	-22.042108	-9.142668	-22.042108	-9.142668	-0.236046	-124.920131
6.050000	-0.171723	-84.907919	-21.995455	-9.790239	-21.995455	-9.790239	-0.239336	-125.830524
6.100000	-0.174136	-85.526424	-21.948959	-10.434423	-21.948959	-10.434423	-0.242697	-126.739405
6.150000	-0.176555	-86.144693	-21.902695	-11.078292	-21.902695	-11.078292	-0.246067	-127.648156
6.200000	-0.179037	-86.760372	-21.856513	-11.718696	-21.856513	-11.718696	-0.249518	-128.555478
6.250000	-0.181518	-87.376051	-21.810575	-12.359100	-21.810575	-12.359100	-0.252970	-129.462801
6.300000	-0.184070	-87.988940	-21.764633	-12.996021	-21.764633	-12.996021	-0.256512	-130.368824
6.350000	-0.186622	-88.601829	-21.718933	-13.632942	-21.718933	-13.632942	-0.260055	-131.274848
6.400000	-0.189241	-89.212195	-21.673186	-14.266950	-21.673186	-14.266950	-0.263682	-132.179926
6.450000	-0.191866	-89.822332	-21.627654	-14.900693	-21.627654	-14.900693	-0.267319	-133.084918
6.500000	-0.194553	-90.430209	-21.582046	-15.532053	-21.582046	-15.532053	-0.271034	-133.989277
6.550000	-0.197254	-91.037633	-21.536614	-16.162935	-21.536614	-16.162935	-0.274766	-134.893509
6.600000	-0.200012	-91.643055	-21.491090	-16.791916	-21.491090	-16.791916	-0.278570	-135.797380
6.650000	-0.202790	-92.247809	-21.445694	-17.420263	-21.445694	-17.420263	-0.282399	-136.701130
6.700000	-0.205621	-92.850810	-21.400202	-18.047144	-21.400202	-18.047144	-0.286294	-137.604747
6.750000	-0.208480	-93.452936	-21.354781	-18.673292	-21.354781	-18.673292	-0.290223	-138.508299
6.800000	-0.211386	-94.053555	-21.309271	-19.298359	-21.309271	-19.298359	-0.294210	-139.411903
6.850000	-0.214327	-94.653097	-21.263766	-19.922654	-21.263766	-19.922654	-0.298240	-140.315544
6.900000	-0.217311	-95.251370	-21.218190	-20.546200	-21.218190	-20.546200	-0.302322	-141.219379
6.950000	-0.220337	-95.848375	-21.172544	-21.168997	-21.172544	-21.168997	-0.306455	-142.123405
7.000000	-0.223400	-96.444342	-21.126857	-21.791322	-21.126857	-21.791322	-0.310632	-143.027717
7.050000	-0.226514	-97.038856	-21.081018	-22.412987	-21.081018	-22.412987	-0.314871	-143.932428
7.100000	-0.229651	-97.632757	-21.035240	-23.034447	-21.035240	-23.034447	-0.319137	-144.837375
7.150000	-0.232846	-98.225081	-20.989235	-23.655414	-20.989235	-23.655414	-0.323472	-145.742958
7.200000	-0.236085	-98.816250	-20.943108	-24.276134	-20.943108	-24.276134	-0.327859	-146.649110
7.250000	-0.239369	-99.406275	-20.896849	-24.896695	-20.896849	-24.896695	-0.332298	-147.555902
7.300000	-0.242699	-99.995169	-20.850448	-25.517189	-20.850448	-25.517189	-0.336790	-148.463408
7.350000	-0.246074	-100.582942	-20.803894	-26.137705	-20.803894	-26.137705	-0.341336	-149.371699
7.400000	-0.249496	-101.169608	-20.757179	-26.758336	-20.757179	-26.758336	-0.345935	-150.280851
7.450000	-0.252965	-101.755177	-20.710292	-27.379175	-20.710292	-27.379175	-0.350588	-151.190937
7.500000	-0.256481	-102.339663	-20.663225	-28.000316	-20.663225	-28.000316	-0.355295	-152.102033
7.550000	-0.260048	-102.923031	-20.615949	-28.621875	-20.615949	-28.621875	-0.360060	-153.014265
7.600000	-0.263665	-103.505342	-20.568475	-29.243936	-20.568475	-29.243936	-0.364880	-153.927665
7.650000	-0.267330	-104.086607	-20.520796	-29.866595	-20.520796	-29.866595	-0.369755	-154.842311
7.700000	-0.271046	-104.666840	-20.472903	-30.489951	-20.472903	-30.489951	-0.374686	-155.758281
7.750000	-0.274813	-105.246053	-20.424790	-31.114101	-20.424790	-31.114101	-0.379674	-156.675654
7.800000	-0.278632	-105.824260	-20.376450	-31.739146	-20.376450	-31.739146	-0.384719	-157.594507
7.850000	-0.282502	-106.401473	-20.327877	-32.365185	-20.327877	-32.365185	-0.389820	-158.514921
7.900000	-0.286425	-106.977706	-20.279065	-32.992319	-20.279065	-32.992319	-0.394979	-159.436976
7.950000	-0.290401	-107.552971	-20.230009	-33.620649	-20.230009	-33.620649	-0.400195	-160.360754
8.000000	-0.294432	-108.127283	-20.180704	-34.250277	-20.180704	-34.250277	-0.405469	-161.286336
8.050000	-0.298517	-108.700655	-20.131146	-34.881306	-20.131146	-34.881306	-0.410801	-162.213805
8.100000	-0.302656	-109.273100	-20.081331	-35.513838	-20.081331	-35.513838	-0.416192	-163.143243
8.150000	-0.306852	-109.844633	-20.031256	-36.147976	-20.031256	-36.147976	-0.421642	-164.074734
8.200000	-0.311104	-110.415267	-19.980919	-36.783823	-19.980919	-36.783823	-0.427151	-165.008364
8.250000	-0.315413	-110.985016	-19.930318	-37.421483	-19.930318	-37.421483	-0.432718	-165.944216
8.300000	-0.319779	-111.553894	-19.879451	-38.061058	-19.879451	-38.061058	-0.438346	-166.882377
8.350000	-0.324204	-112.121916	-19.828318	-38.702651	-19.828318	-38.702651	-0.444032	-167.822932
8.400000	-0.328687	-112.689095	-19.776919	-39.346364	-19.776919	-39.346364	-0.449779	-168.765970
8.450000	-0.333229	-113.255447	-19.725255	-39.992299	-19.725255	-39.992299	-0.455585	-169.711578
8.500000	-0.337832	-113.820985	-19.673330	-40.640557	-19.673330	-40.640557	-0.461452	-170.659843
8.550000	-0.342495	-114.385725	-19.621144	-41.291237	-19.621144	-41.291237	-0.467379	-171.610856
8.600000	-0.347219	-114.949681	-19.568703	-41.944438	-19.568703	-41.944438	-0.473366	-172.564705
8.650000	-0.352004	-115.512868	-19.516012	-42.600257	-19.516012	-42.600257	-0.479413	-173.521482
8.700000	-0.356852	-116.075300	-19.463076	-43.258789	-19.463076	-43.258789	-0.485521	-174.481276
8.750000	-0.361763	-116.636994	-19.409905	-43.920127	-19.409905	-43.920127	-0.491689	-175.444180
8.800000	-0.366740	-117.197933	-19.356482	-44.584492	-19.356482	-44.584492	-0.497920	-176.410429
8.850000	-0.371781	-117.758165	-19.302843	-45.251848	-19.302843	-45.251848	-0.504211	-177.379981
8.900000	-0.376886	-118.317705	-19.249001	-45.922282	-19.249001	-45.922282	-0.510562	-178.352930
8.950000	-0.382056	-118.876568	-19.194970	-46.595873	-19.194970	-46.595873	-0.516974	-179.329368
9.000000	-0.387293	-119.434771	-19.140767	-47.272698	-19.140767	-47.272698	-0.523445	179.690608
9.050000	-0.392595	-119.992330	-19.086411	-47.952832	-19.086411	-47.952832	-0.529977	178.706905
9.100000	-0.397964	-120.549259	-19.031923	-48.636341	-19.031923	-48.636341	-0.536568	177.719427
9.150000	-0.403401	-121.105575	-18.977328	-49.323291	-18.977328	-49.323291	-0.543218	176.728076
9.200000	-0.408905	-121.661294	-18.922652	-50.013741	-18.922652	-50.013741	-0.549928	175.732758
9.250000	-0.414478	-122.216432	-18.867928	-50.707744	-18.867928	-50.707744	-0.556696	174.733375
9.300000	-0.420119	-122.771005	-18.813189	-51.405350	-18.813189	-51.405350	-0.563523	173.729829
9.350000	-0.425830	-123.325031	-18.758474	-52.106604	-18.758474	-52.106604	-0.570408	172.722022
9.400000	-0.431611	-123.878525	-18.703827	-52.811546	-18.703827	-52.811546	-0.577350	171.709857
9.450000	-0.437463	-124.431504	-18.649297	-53.520213	-18.649297	-53.520213	-0.584349	170.693234
9.500000	-0.443385	-124.983985	-18.594939	-54.232640	-18.594939	-54.232640	-0.591405	169.672056
9.550000	-0.449379	-125.535985	-18.540814	-54.948862	-18.540814	-54.948862	-0.598517	168.646222
9.600000	-0.455444	-126.087521	-18.486991	-55.668913	-18.486991	-55.668913	-0.605683	167.615633
9.650000	-0.461582	-126.638610	-18.433545	-56.392837	-18.433545	-56.392837	-0.612905	166.580191
9.700000	-0.467793	-127.189269	-18.380564	-57.120683	-18.380564	-57.120683	-0.620179	165.539794
9.750000	-0.474077	-127.739517	-18.328142	-57.852517	-18.328142	-57.852517	-0.627507	164.494344
9.800000	-0.480435	-128.289370	-18.276384	-58.588427	-18.276384	-58.588427	-0.634887	163.443740
9.850000	-0.486867	-128.838846	-18.225409	-59.328531	-18.225409	-59.328531	-0.642317	162.387883
9.900000	-0.493373	-129.387963	-18.175345	-60.072991	-18.175345	-60.072991	-0.649798	161.326673
9.950000	-0.499955	-129.936739	-18.126336	-60.822025	-18.126336	-60.822025	-0.657327	160.260011
10.000000	-0.506611	-130.485192	-18.078539	-61.575923	-18.078539	-61.575923	-0.664904	159.187796
