! freq	dB(S11)	phase(S11)	dB(S12)	phase(S12)	
!     	dB(S21)	phase(S21)	dB(S22)	phase(S22)	
!S-par simulation data
#  GHz  S  DB  R 50
0.000000	-88.811595	0.000000	-0.000315	0.000000	-0.000315	0.000000	-88.811595	0.000000
0.050000	-65.656134	85.014226	-0.000462	-0.861925	-0.000462	-0.861925	-65.655228	85.008237
0.100000	-59.650954	86.062435	-0.000896	-1.723457	-0.000896	-1.723457	-59.650150	86.049940
0.150000	-56.130892	85.786006	-0.001586	-2.584254	-0.001586	-2.584254	-56.130252	85.767404
0.200000	-53.630789	85.189650	-0.002494	-3.444068	-0.002494	-3.444068	-53.630356	85.165313
0.250000	-51.688713	84.471533	-0.003582	-4.302661	-0.003582	-4.302661	-51.688521	84.441883
0.300000	-50.098658	83.710069	-0.004789	-5.160076	-0.004789	-5.160076	-50.098714	83.675489
0.350000	-48.750113	82.929377	-0.006078	-6.016278	-0.006078	-6.016278	-48.750414	82.890246
0.400000	-47.576970	82.143755	-0.007412	-6.871341	-0.007412	-6.871341	-47.577503	82.100408
0.450000	-46.536467	81.360104	-0.008762	-7.725382	-0.008762	-7.725382	-46.537212	81.312825
0.500000	-45.599354	80.581508	-0.010104	-8.578536	-0.010104	-8.578536	-45.600288	80.530529
0.550000	-44.744761	79.808959	-0.011423	-9.430951	-0.011423	-9.430951	-44.745860	79.754462
0.600000	-43.957308	79.042287	-0.012709	-10.282766	-0.012709	-10.282766	-43.958546	78.984410
0.650000	-43.225355	78.280696	-0.013956	-11.134113	-0.013956	-11.134113	-43.226710	78.219544
0.700000	-42.539910	77.523088	-0.015162	-11.985112	-0.015162	-11.985112	-42.541363	77.458742
0.750000	-41.893902	76.768265	-0.016328	-12.835867	-0.016328	-12.835867	-41.895435	76.700787
0.800000	-41.281684	76.015043	-0.017456	-13.686466	-0.017456	-13.686466	-41.283283	75.944487
0.850000	-40.698691	75.262320	-0.018549	-14.536986	-0.018549	-14.536986	-40.700345	75.188732
0.900000	-40.141187	74.509107	-0.019611	-15.387492	-0.019611	-15.387492	-40.142888	74.432534
0.950000	-39.606087	73.754547	-0.020646	-16.238038	-0.020646	-16.238038	-39.607827	73.675038
1.000000	-39.090817	72.997911	-0.021659	-17.088671	-0.021659	-17.088671	-39.092592	72.915518
1.050000	-38.593216	72.238595	-0.022652	-17.939430	-0.022652	-17.939430	-38.595021	72.153375
1.100000	-38.111453	71.476107	-0.023630	-18.790348	-0.023630	-18.790348	-38.113286	71.388122
1.150000	-37.643966	70.710058	-0.024597	-19.641454	-0.024597	-19.641454	-37.645826	70.619373
1.200000	-37.189419	69.940147	-0.025556	-20.492774	-0.025556	-20.492774	-37.191304	69.846835
1.250000	-36.746658	69.166152	-0.026510	-21.344329	-0.026510	-21.344329	-36.748567	69.070287
1.300000	-36.314201	68.387727	-0.027461	-22.196152	-0.027461	-22.196152	-36.316133	68.289393
1.350000	-35.891673	67.604959	-0.028414	-23.048249	-0.028414	-23.048249	-35.893629	67.504239
1.400000	-35.478315	66.817802	-0.029370	-23.900639	-0.029370	-23.900639	-35.480294	66.714781
1.450000	-35.073460	66.026252	-0.030332	-24.753336	-0.030332	-24.753336	-35.075461	65.921017
1.500000	-34.676520	65.230337	-0.031301	-25.606356	-0.031301	-25.606356	-34.678543	65.122976
1.550000	-34.286975	64.430110	-0.032279	-26.459712	-0.032279	-26.459712	-34.289020	64.320712
1.600000	-33.904365	63.625649	-0.033269	-27.313418	-0.033269	-27.313418	-33.906431	63.514303
1.650000	-33.528279	62.817050	-0.034272	-28.167488	-0.034272	-28.167488	-33.530365	62.703844
1.700000	-33.158351	62.004424	-0.035290	-29.021936	-0.035290	-29.021936	-33.160456	61.889446
1.750000	-32.794253	61.187892	-0.036325	-29.876774	-0.036325	-29.876774	-32.796377	61.071228
1.800000	-32.435691	60.367585	-0.037377	-30.732016	-0.037377	-30.732016	-32.437833	60.249321
1.850000	-32.082401	59.543639	-0.038449	-31.587675	-0.038449	-31.587675	-32.084559	59.423859
1.900000	-31.734143	58.716198	-0.039541	-32.443763	-0.039541	-32.443763	-31.736317	58.594983
1.950000	-31.390702	57.885404	-0.040657	-33.300294	-0.040657	-33.300294	-31.392890	57.762834
2.000000	-31.051882	57.051404	-0.041796	-34.157281	-0.041796	-34.157281	-31.054083	56.927557
2.050000	-30.717503	56.214344	-0.042960	-35.014737	-0.042960	-35.014737	-30.719716	56.089295
2.100000	-30.387404	55.374367	-0.044151	-35.872674	-0.044151	-35.872674	-30.389628	55.248189
2.150000	-30.061436	54.531618	-0.045371	-36.731107	-0.045371	-36.731107	-30.063669	54.404381
2.200000	-29.739464	53.686234	-0.046621	-37.590047	-0.046621	-37.590047	-29.741705	53.558007
2.250000	-29.421361	52.838354	-0.047902	-38.449508	-0.047902	-38.449508	-29.423609	52.709202
2.300000	-29.107013	51.988110	-0.049217	-39.309503	-0.049217	-39.309503	-29.109266	51.858096
2.350000	-28.796314	51.135628	-0.050566	-40.170045	-0.050566	-40.170045	-28.798571	51.004813
2.400000	-28.489165	50.281034	-0.051952	-41.031147	-0.051952	-41.031147	-28.491425	50.149476
2.450000	-28.185474	49.424445	-0.053376	-41.892821	-0.053376	-41.892821	-28.187736	49.292199
2.500000	-27.885157	48.565974	-0.054839	-42.755080	-0.054839	-42.755080	-27.887420	48.433094
2.550000	-27.587838	47.705657	-0.056347	-43.617964	-0.056347	-43.617964	-27.590101	47.572195
2.600000	-27.293752	46.843677	-0.057898	-44.481460	-0.057898	-44.481460	-27.296013	46.709682
2.650000	-27.002830	45.980130	-0.059495	-45.345579	-0.059495	-45.345579	-27.005088	45.845648
2.700000	-26.715005	45.115105	-0.061140	-46.210335	-0.061140	-46.210335	-26.717261	44.980181
2.750000	-26.430217	44.248689	-0.062834	-47.075738	-0.062834	-47.075738	-26.432469	44.113364
2.800000	-26.148408	43.380961	-0.064580	-47.941802	-0.064580	-47.941802	-26.150655	43.245275
2.850000	-25.869523	42.511994	-0.066380	-48.808538	-0.066380	-48.808538	-25.871765	42.375986
2.900000	-25.593510	41.641859	-0.068237	-49.675957	-0.068237	-49.675957	-25.595745	41.505563
2.950000	-25.320319	40.770618	-0.070152	-50.544070	-0.070152	-50.544070	-25.322548	40.634070
3.000000	-25.049905	39.898330	-0.072127	-51.412890	-0.072127	-51.412890	-25.052127	39.761563
3.050000	-24.782223	39.025051	-0.074166	-52.282425	-0.074166	-52.282425	-24.784437	38.888096
3.100000	-24.517229	38.150830	-0.076270	-53.152687	-0.076270	-53.152687	-24.519435	38.013715
3.150000	-24.254885	37.275712	-0.078442	-54.023686	-0.078442	-54.023686	-24.257082	37.138466
3.200000	-23.995150	36.399739	-0.080684	-54.895431	-0.080684	-54.895431	-23.997339	36.262387
3.250000	-23.737989	35.522947	-0.083000	-55.767933	-0.083000	-55.767933	-23.740169	35.385515
3.300000	-23.483365	34.645370	-0.085391	-56.641201	-0.085391	-56.641201	-23.485536	34.507882
3.350000	-23.231246	33.767039	-0.087861	-57.515243	-0.087861	-57.515243	-23.233407	33.629516
3.400000	-22.981597	32.887979	-0.090413	-58.390067	-0.090413	-58.390067	-22.983749	32.750444
3.450000	-22.734389	32.008214	-0.093048	-59.265683	-0.093048	-59.265683	-22.736531	31.870686
3.500000	-22.489590	31.127764	-0.095770	-60.142097	-0.095770	-60.142097	-22.491723	30.990262
3.550000	-22.247173	30.246648	-0.098582	-61.019317	-0.098582	-61.019317	-22.249295	30.109190
3.600000	-22.007108	29.364881	-0.101487	-61.897350	-0.101487	-61.897350	-22.009221	29.227483
3.650000	-21.769369	28.482475	-0.104488	-62.776202	-0.104488	-62.776202	-21.771472	28.345153
3.700000	-21.533931	27.599441	-0.107587	-63.655878	-0.107587	-63.655878	-21.536024	27.462211
3.750000	-21.300768	26.715789	-0.110789	-64.536385	-0.110789	-64.536385	-21.302852	26.578663
3.800000	-21.069688	25.831498	-0.114100	-65.417765	-0.114100	-65.417765	-21.071762	25.694492
3.850000	-20.840845	24.946602	-0.117521	-66.299984	-0.117521	-66.299984	-20.842910	24.809728
3.900000	-20.614215	24.061105	-0.121053	-67.183047	-0.121053	-67.183047	-20.616270	23.924373
3.950000	-20.389776	23.175009	-0.124700	-68.066958	-0.124700	-68.066958	-20.391823	23.038431
4.000000	-20.167509	22.288317	-0.128466	-68.951718	-0.128466	-68.951718	-20.169546	22.151903
4.050000	-19.947391	21.401030	-0.132354	-69.837331	-0.132354	-69.837331	-19.949419	21.264789
4.100000	-19.729403	20.513148	-0.136368	-70.723798	-0.136368	-70.723798	-19.731423	20.377089
4.150000	-19.513527	19.624671	-0.140510	-71.611120	-0.140510	-71.611120	-19.515538	19.488803
4.200000	-19.299744	18.735599	-0.144785	-72.499296	-0.144785	-72.499296	-19.301746	18.599929
4.250000	-19.088035	17.845932	-0.149195	-73.388328	-0.149195	-73.388328	-19.090029	17.710467
4.300000	-18.878384	16.955669	-0.153745	-74.278214	-0.153745	-74.278214	-18.880370	16.820415
4.350000	-18.670774	16.064808	-0.158437	-75.168952	-0.158437	-75.168952	-18.672752	15.929772
4.400000	-18.465555	15.173429	-0.163257	-76.060431	-0.163257	-76.060431	-18.467525	15.038615
4.450000	-18.261939	14.281367	-0.168248	-76.952877	-0.168248	-76.952877	-18.263901	14.146782
4.500000	-18.060318	13.388707	-0.173392	-77.846167	-0.173392	-77.846167	-18.062273	13.254355
4.550000	-17.860678	12.495451	-0.178694	-78.740296	-0.178694	-78.740296	-17.862626	12.361336
4.600000	-17.663004	11.601600	-0.184156	-79.635261	-0.184156	-79.635261	-17.664945	11.467725
4.650000	-17.467283	10.707154	-0.189784	-80.531054	-0.189784	-80.531054	-17.469217	10.573524
4.700000	-17.273501	9.812118	-0.195580	-81.427670	-0.195580	-81.427670	-17.275428	9.678734
4.750000	-17.081645	8.916493	-0.201548	-82.325102	-0.201548	-82.325102	-17.083565	8.783359
4.800000	-16.891702	8.020285	-0.207691	-83.223341	-0.207691	-83.223341	-16.893616	7.887403
4.850000	-16.703659	7.123499	-0.214014	-84.122379	-0.214014	-84.122379	-16.705567	6.990870
4.900000	-16.517506	6.226141	-0.220520	-85.022207	-0.220520	-85.022207	-16.519407	6.093767
4.950000	-16.333229	5.328218	-0.227213	-85.922814	-0.227213	-85.922814	-16.335124	5.196100
5.000000	-16.150818	4.429738	-0.234096	-86.824189	-0.234096	-86.824189	-16.152707	4.297877
5.050000	-15.970220	3.530700	-0.241177	-87.726337	-0.241177	-87.726337	-15.972103	3.399096
5.100000	-15.791468	2.631126	-0.248455	-88.629228	-0.248455	-88.629228	-15.793346	2.499780
5.150000	-15.614552	1.731029	-0.255935	-89.532850	-0.255935	-89.532850	-15.616424	1.599940
5.200000	-15.439462	0.830420	-0.263619	-90.437187	-0.263619	-90.437187	-15.441328	0.699589
5.250000	-15.266185	-0.070684	-0.271512	-91.342226	-0.271512	-91.342226	-15.268046	-0.201259
5.300000	-15.094714	-0.972270	-0.279616	-92.247949	-0.279616	-92.247949	-15.096569	-1.102588
5.350000	-14.925038	-1.874319	-0.287935	-93.154342	-0.287935	-93.154342	-14.926888	-2.004382
5.400000	-14.757146	-2.776813	-0.296473	-94.061386	-0.296473	-94.061386	-14.758991	-2.906623
5.450000	-14.591030	-3.679734	-0.305232	-94.969063	-0.305232	-94.969063	-14.592870	-3.809292
5.500000	-14.426681	-4.583060	-0.314216	-95.877355	-0.314216	-95.877355	-14.428516	-4.712368
5.550000	-14.264088	-5.486770	-0.323428	-96.786241	-0.323428	-96.786241	-14.265919	-5.615830
5.600000	-14.103243	-6.390841	-0.332871	-97.695702	-0.332871	-97.695702	-14.105069	-6.519654
5.650000	-13.944125	-7.295251	-0.342551	-98.605721	-0.342551	-98.605721	-13.945946	-7.423820
5.700000	-13.786725	-8.199974	-0.352471	-99.516277	-0.352471	-99.516277	-13.788542	-8.328302
5.750000	-13.631049	-9.104980	-0.362631	-100.427339	-0.362631	-100.427339	-13.632861	-9.233070
5.800000	-13.477087	-10.010241	-0.373034	-101.338886	-0.373034	-101.338886	-13.478895	-10.138095
5.850000	-13.324831	-10.915729	-0.383683	-102.250891	-0.383683	-102.250891	-13.326635	-11.043350
5.900000	-13.174272	-11.821412	-0.394580	-103.163332	-0.394580	-103.163332	-13.176071	-11.948803
5.950000	-13.025401	-12.727261	-0.405729	-104.076180	-0.405729	-104.076180	-13.027196	-12.854425
6.000000	-12.878209	-13.633242	-0.417131	-104.989411	-0.417131	-104.989411	-12.880001	-13.760184
6.050000	-12.732689	-14.539325	-0.428789	-105.902997	-0.428789	-105.902997	-12.734477	-14.666046
6.100000	-12.588830	-15.445473	-0.440704	-106.816911	-0.440704	-106.816911	-12.590615	-15.571979
6.150000	-12.446626	-16.351654	-0.452881	-107.731123	-0.452881	-107.731123	-12.448406	-16.477947
6.200000	-12.306066	-17.257831	-0.465319	-108.645606	-0.465319	-108.645606	-12.307843	-17.383916
6.250000	-12.167142	-18.163969	-0.478021	-109.560329	-0.478021	-109.560329	-12.168916	-18.289849
6.300000	-12.029835	-19.070029	-0.490995	-110.475265	-0.490995	-110.475265	-12.031606	-19.195708
6.350000	-11.894149	-19.975973	-0.504237	-111.390379	-0.504237	-111.390379	-11.895916	-20.101456
6.400000	-11.760074	-20.881763	-0.517748	-112.305640	-0.517748	-112.305640	-11.761839	-21.007054
6.450000	-11.627603	-21.787362	-0.531529	-113.221015	-0.531529	-113.221015	-11.629365	-21.912465
6.500000	-11.496727	-22.692731	-0.545582	-114.136472	-0.545582	-114.136472	-11.498486	-22.817649
6.550000	-11.367436	-23.597829	-0.559908	-115.051978	-0.559908	-115.051978	-11.369193	-23.722568
6.600000	-11.239721	-24.502618	-0.574508	-115.967499	-0.574508	-115.967499	-11.241476	-24.627181
6.650000	-11.113575	-25.407057	-0.589382	-116.883003	-0.589382	-116.883003	-11.115327	-25.531449
6.700000	-10.988966	-26.311065	-0.604557	-117.798447	-0.604557	-117.798447	-10.990716	-26.435291
6.750000	-10.865929	-27.214675	-0.619985	-118.713807	-0.619985	-118.713807	-10.867677	-27.338740
6.800000	-10.744434	-28.117814	-0.635690	-119.629044	-0.635690	-119.629044	-10.746180	-28.241721
6.850000	-10.624471	-29.020440	-0.651672	-120.544125	-0.651672	-120.544125	-10.626215	-29.144195
6.900000	-10.506031	-29.922514	-0.667929	-121.459012	-0.667929	-121.459012	-10.507774	-30.046121
6.950000	-10.389104	-30.823996	-0.684464	-122.373671	-0.684464	-122.373671	-10.390846	-30.947458
7.000000	-10.273682	-31.724844	-0.701274	-123.288065	-0.701274	-123.288065	-10.275422	-31.848167
7.050000	-10.159755	-32.625018	-0.718361	-124.202159	-0.718361	-124.202159	-10.161494	-32.748207
7.100000	-10.047314	-33.524479	-0.735722	-125.115916	-0.735722	-125.115916	-10.049052	-33.647538
7.150000	-9.936349	-34.423186	-0.753358	-126.029301	-0.753358	-126.029301	-9.938086	-34.546120
7.200000	-9.826851	-35.321100	-0.771267	-126.942276	-0.771267	-126.942276	-9.828587	-35.443914
7.250000	-9.718810	-36.218182	-0.789449	-127.854806	-0.789449	-127.854806	-9.720546	-36.340881
7.300000	-9.612217	-37.114393	-0.807902	-128.766854	-0.807902	-128.766854	-9.613952	-37.236981
7.350000	-9.507062	-38.009694	-0.826625	-129.678384	-0.826625	-129.678384	-9.508797	-38.132176
7.400000	-9.403336	-38.904048	-0.845615	-130.589359	-0.845615	-130.589359	-9.405070	-39.026429
7.450000	-9.301029	-39.797416	-0.864872	-131.499744	-0.864872	-131.499744	-9.302763	-39.919701
7.500000	-9.200131	-40.689762	-0.884394	-132.409502	-0.884394	-132.409502	-9.201865	-40.811955
7.550000	-9.100645	-41.581001	-0.904187	-133.318568	-0.904187	-133.318568	-9.102379	-41.703107
7.600000	-9.002551	-42.471142	-0.924239	-134.226932	-0.924239	-134.226932	-9.004285	-42.593166
7.650000	-8.905839	-43.360148	-0.944549	-135.134559	-0.944549	-135.134559	-8.907574	-43.482096
7.700000	-8.810500	-44.247986	-0.965114	-136.041416	-0.965114	-136.041416	-8.812236	-44.369862
7.750000	-8.716524	-45.134621	-0.985930	-136.947466	-0.985930	-136.947466	-8.718260	-45.256430
7.800000	-8.623901	-46.020019	-1.006995	-137.852675	-1.006995	-137.852675	-8.625638	-46.141766
7.850000	-8.532622	-46.904148	-1.028305	-138.757010	-1.028305	-138.757010	-8.534360	-47.025837
7.900000	-8.442677	-47.786974	-1.049858	-139.660437	-1.049858	-139.660437	-8.444416	-47.908611
7.950000	-8.354056	-48.668466	-1.071650	-140.562924	-1.071650	-140.562924	-8.355796	-48.790056
8.000000	-8.266750	-49.548592	-1.093677	-141.464436	-1.093677	-141.464436	-8.268490	-49.670141
8.050000	-8.180749	-50.427323	-1.115935	-142.364943	-1.115935	-142.364943	-8.182490	-50.548835
8.100000	-8.096043	-51.304628	-1.138421	-143.264413	-1.138421	-143.264413	-8.097785	-51.426108
8.150000	-8.012623	-52.180478	-1.161131	-144.162815	-1.161131	-144.162815	-8.014367	-52.301932
8.200000	-7.930480	-53.054844	-1.184059	-145.060119	-1.184059	-145.060119	-7.932225	-53.176278
8.250000	-7.849604	-53.927699	-1.207203	-145.956296	-1.207203	-145.956296	-7.851351	-54.049117
8.300000	-7.769986	-54.799014	-1.230557	-146.851315	-1.230557	-146.851315	-7.771734	-54.920422
8.350000	-7.691617	-55.668764	-1.254117	-147.745150	-1.254117	-147.745150	-7.693366	-55.790167
8.400000	-7.614486	-56.536921	-1.277878	-148.637772	-1.277878	-148.637772	-7.616237	-56.658325
8.450000	-7.538586	-57.403460	-1.301835	-149.529155	-1.301835	-149.529155	-7.540339	-57.524871
8.500000	-7.463908	-58.268356	-1.325982	-150.419273	-1.325982	-150.419273	-7.465661	-58.389779
8.550000	-7.390441	-59.131584	-1.350316	-151.308100	-1.350316	-151.308100	-7.392196	-59.253026
8.600000	-7.318177	-59.993121	-1.374830	-152.195613	-1.374830	-152.195613	-7.319935	-60.114587
8.650000	-7.247108	-60.852943	-1.399519	-153.081788	-1.399519	-153.081788	-7.248867	-60.974439
8.700000	-7.177225	-61.711026	-1.424378	-153.966603	-1.424378	-153.966603	-7.178985	-61.832559
8.750000	-7.108518	-62.567349	-1.449400	-154.850034	-1.449400	-154.850034	-7.110281	-62.688924
8.800000	-7.041008	-63.421809	-1.474585	-155.732001	-1.474585	-155.732001	-7.042772	-63.543433
8.850000	-6.974658	-64.274463	-1.499920	-156.612543	-1.499920	-156.612543	-6.976424	-64.396143
8.900000	-6.909460	-65.125289	-1.525402	-157.491641	-1.525402	-157.491641	-6.911229	-65.247031
8.950000	-6.845406	-65.974266	-1.551023	-158.369278	-1.551023	-158.369278	-6.847177	-66.096076
9.000000	-6.782488	-66.821374	-1.576778	-159.245437	-1.576778	-159.245437	-6.784261	-66.943259
9.050000	-6.720697	-67.666591	-1.602659	-160.120101	-1.602659	-160.120101	-6.722472	-67.788558
9.100000	-6.660025	-68.509898	-1.628662	-160.993257	-1.628662	-160.993257	-6.661802	-68.631954
9.150000	-6.600464	-69.351276	-1.654780	-161.864890	-1.654780	-161.864890	-6.602244	-69.473428
9.200000	-6.542007	-70.190704	-1.681005	-162.734987	-1.681005	-162.734987	-6.543789	-70.312959
9.250000	-6.484645	-71.028163	-1.707332	-163.603537	-1.707332	-163.603537	-6.486430	-71.150528
9.300000	-6.428370	-71.863635	-1.733754	-164.470529	-1.733754	-164.470529	-6.430158	-71.986117
9.350000	-6.373176	-72.697099	-1.760264	-165.335953	-1.760264	-165.335953	-6.374967	-72.819707
9.400000	-6.319053	-73.528538	-1.786856	-166.199802	-1.786856	-166.199802	-6.320848	-73.651279
9.450000	-6.265996	-74.357933	-1.813523	-167.062066	-1.813523	-167.062066	-6.267794	-74.480813
9.500000	-6.213997	-75.185264	-1.840257	-167.922740	-1.840257	-167.922740	-6.215798	-75.308292
9.550000	-6.163047	-76.010514	-1.867053	-168.781819	-1.867053	-168.781819	-6.164852	-76.133698
9.600000	-6.113141	-76.833663	-1.893903	-169.639298	-1.893903	-169.639298	-6.114950	-76.957010
9.650000	-6.064271	-77.654693	-1.920801	-170.495173	-1.920801	-170.495173	-6.066084	-77.778212
9.700000	-6.016429	-78.473586	-1.947738	-171.349444	-1.947738	-171.349444	-6.018247	-78.597285
9.750000	-5.969609	-79.290322	-1.974709	-172.202109	-1.974709	-172.202109	-5.971432	-79.414209
9.800000	-5.923804	-80.104884	-2.001707	-173.053167	-2.001707	-173.053167	-5.925632	-80.228968
9.850000	-5.879007	-80.917253	-2.028724	-173.902621	-2.028724	-173.902621	-5.880841	-81.041541
9.900000	-5.835212	-81.727409	-2.055753	-174.750472	-2.055753	-174.750472	-5.837051	-81.851910
9.950000	-5.792411	-82.535334	-2.082787	-175.596724	-2.082787	-175.596724	-5.794256	-82.660057
10.000000	-5.750597	-83.341010	-2.109820	-176.441380	-2.109820	-176.441380	-5.752449	-83.465963
