! freq	dB(S11)	phase(S11)	dB(S12)	phase(S12)	
!     	dB(S21)	phase(S21)	dB(S22)	phase(S22)	
!S-par simulation data
#  GHz  S  DB  R 50
0.000000	-88.151609	0.000000	-0.000340	0.000000	-0.000340	0.000000	-88.151609	0.000000
0.050000	-68.940054	82.513356	-0.000490	-0.889795	-0.000490	-0.889795	-68.938836	82.521204
0.100000	-62.963084	84.538351	-0.000932	-1.779198	-0.000932	-1.779198	-62.961984	84.552831
0.150000	-59.454144	84.495657	-0.001637	-2.667863	-0.001637	-2.667863	-59.453239	84.517375
0.200000	-56.963254	83.964834	-0.002566	-3.555537	-0.002566	-3.555537	-56.962588	83.994241
0.250000	-55.029459	83.260588	-0.003684	-4.441972	-0.003684	-4.441972	-55.029061	83.298129
0.300000	-53.445778	82.504136	-0.004927	-5.327202	-0.004927	-5.327202	-53.445642	82.550162
0.350000	-52.101058	81.732054	-0.006258	-6.211183	-0.006258	-6.211183	-52.101166	81.786853
0.400000	-50.928527	80.963838	-0.007641	-7.093980	-0.007641	-7.093980	-50.928852	81.027603
0.450000	-49.884979	80.207053	-0.009042	-7.975702	-0.009042	-7.975702	-49.885486	80.279876
0.500000	-48.940928	79.463414	-0.010439	-8.856482	-0.010439	-8.856482	-48.941582	79.545295
0.550000	-48.075451	78.731764	-0.011814	-9.736467	-0.011814	-9.736467	-48.076213	78.822623
0.600000	-47.273243	78.009658	-0.013154	-10.615798	-0.013154	-10.615798	-47.274082	78.109348
0.650000	-46.522841	77.294222	-0.014455	-11.494611	-0.014455	-11.494611	-46.523726	77.402541
0.700000	-45.815487	76.582610	-0.015712	-12.373028	-0.015712	-12.373028	-45.816390	76.699317
0.750000	-45.144373	75.872238	-0.016925	-13.251160	-0.016925	-13.251160	-45.145273	75.997061
0.800000	-44.504133	75.160877	-0.018097	-14.129100	-0.018097	-14.129100	-44.505011	75.293523
0.850000	-43.890480	74.446675	-0.019229	-15.006930	-0.019229	-15.006930	-43.891320	74.586836
0.900000	-43.299949	73.728144	-0.020326	-15.884719	-0.020326	-15.884719	-43.300740	73.875503
0.950000	-42.729713	73.004119	-0.021392	-16.762526	-0.021392	-16.762526	-42.730445	73.158353
1.000000	-42.177443	72.273716	-0.022430	-17.640401	-0.022430	-17.640401	-42.178110	72.434501
1.050000	-41.641204	71.536291	-0.023445	-18.518385	-0.023445	-18.518385	-41.641800	71.703306
1.100000	-41.119376	70.791402	-0.024440	-19.396516	-0.024440	-19.396516	-41.119897	70.964325
1.150000	-40.610594	70.038768	-0.025420	-20.274824	-0.025420	-20.274824	-40.611039	70.217285
1.200000	-40.113700	69.278244	-0.026388	-21.153336	-0.026388	-21.153336	-40.114069	69.462045
1.250000	-39.627708	68.509792	-0.027347	-22.032077	-0.027347	-22.032077	-39.628000	68.698575
1.300000	-39.151063	67.733124	-0.028300	-22.911078	-0.028300	-22.911078	-39.151280	67.926584
1.350000	-38.683773	66.948711	-0.029251	-23.790348	-0.029251	-23.790348	-38.683917	67.146562
1.400000	-38.225208	66.156731	-0.030201	-24.669906	-0.030201	-24.669906	-38.225281	66.358697
1.450000	-37.774820	65.357400	-0.031154	-25.549767	-0.031154	-25.549767	-37.774824	65.563215
1.500000	-37.332130	64.550965	-0.032110	-26.429946	-0.032110	-26.429946	-37.332070	64.760372
1.550000	-36.896720	63.737696	-0.033074	-27.310458	-0.033074	-27.310458	-36.896598	63.950447
1.600000	-36.468220	62.917875	-0.034045	-28.191317	-0.034045	-28.191317	-36.468040	63.133734
1.650000	-36.046304	62.091797	-0.035027	-29.072536	-0.035027	-29.072536	-36.046069	62.310536
1.700000	-35.630682	61.259761	-0.036020	-29.954129	-0.036020	-29.954129	-35.630396	61.481163
1.750000	-35.221095	60.422069	-0.037026	-30.836110	-0.037026	-30.836110	-35.220762	60.645926
1.800000	-34.817313	59.579020	-0.038048	-31.718490	-0.038048	-31.718490	-34.816935	59.805133
1.850000	-34.419127	58.730910	-0.039086	-32.601284	-0.039086	-32.601284	-34.418709	58.959092
1.900000	-34.026350	57.878030	-0.040142	-33.484503	-0.040142	-33.484503	-34.025895	58.108100
1.950000	-33.638811	57.020663	-0.041218	-34.368162	-0.041218	-34.368162	-33.638322	57.252451
2.000000	-33.256356	56.159083	-0.042314	-35.252272	-0.042314	-35.252272	-33.255836	56.392427
2.050000	-32.878843	55.293556	-0.043433	-36.136848	-0.043433	-36.136848	-32.878295	55.528302
2.100000	-32.506141	54.424336	-0.044575	-37.021901	-0.044575	-37.021901	-32.505569	54.660340
2.150000	-32.138130	53.551668	-0.045743	-37.907445	-0.045743	-37.907445	-32.137535	53.788792
2.200000	-31.774699	52.675784	-0.046937	-38.793492	-0.046937	-38.793492	-31.774084	52.913900
2.250000	-31.415744	51.796907	-0.048160	-39.680057	-0.048160	-39.680057	-31.415111	52.035891
2.300000	-31.061167	50.915245	-0.049413	-40.567151	-0.049413	-40.567151	-31.060519	51.154983
2.350000	-30.710878	50.030999	-0.050696	-41.454788	-0.050696	-41.454788	-30.710217	50.271382
2.400000	-30.364791	49.144356	-0.052013	-42.342980	-0.052013	-42.342980	-30.364118	49.385281
2.450000	-30.022824	48.255491	-0.053365	-43.231741	-0.053365	-43.231741	-30.022141	48.496863
2.500000	-29.684901	47.364570	-0.054753	-44.121083	-0.054753	-44.121083	-29.684209	47.606299
2.550000	-29.350566	46.471672	-0.056181	-45.011046	-0.056181	-45.011046	-29.349867	46.713670
2.600000	-29.020151	45.577029	-0.057648	-45.901616	-0.057648	-45.901616	-29.019446	45.819218
2.650000	-28.693588	44.680773	-0.059158	-46.792807	-0.059158	-46.792807	-28.692878	44.923079
2.700000	-28.370813	43.783028	-0.060712	-47.684631	-0.060712	-47.684631	-28.370099	44.025382
2.750000	-28.051762	42.883907	-0.062311	-48.577099	-0.062311	-48.577099	-28.051045	43.126245
2.800000	-27.736377	41.983515	-0.063958	-49.470224	-0.063958	-49.470224	-27.735658	42.225777
2.850000	-27.424599	41.081950	-0.065655	-50.364018	-0.065655	-50.364018	-27.423877	41.324079
2.900000	-27.116371	40.179298	-0.067404	-51.258492	-0.067404	-51.258492	-27.115649	40.421243
2.950000	-26.811640	39.275641	-0.069207	-52.153658	-0.069207	-52.153658	-26.810917	39.517352
3.000000	-26.510353	38.371051	-0.071067	-53.049527	-0.071067	-53.049527	-26.509630	38.612485
3.050000	-26.212459	37.465597	-0.072985	-53.946110	-0.072985	-53.946110	-26.211736	37.706710
3.100000	-25.917908	36.559337	-0.074965	-54.843418	-0.074965	-54.843418	-25.917185	36.800091
3.150000	-25.626652	35.652325	-0.077008	-55.741460	-0.077008	-55.741460	-25.625930	35.892685
3.200000	-25.338645	34.744609	-0.079117	-56.640247	-0.079117	-56.640247	-25.337923	34.984541
3.250000	-25.053840	33.836232	-0.081295	-57.539788	-0.081295	-57.539788	-25.053119	34.075706
3.300000	-24.772194	32.927232	-0.083544	-58.440093	-0.083544	-58.440093	-24.771473	33.166219
3.350000	-24.493663	32.017642	-0.085866	-59.341171	-0.085866	-59.341171	-24.492943	32.256116
3.400000	-24.218205	31.107489	-0.088266	-60.243030	-0.088266	-60.243030	-24.217486	31.345427
3.450000	-23.945779	30.196800	-0.090745	-61.145678	-0.090745	-61.145678	-23.945060	30.434179
3.500000	-23.676345	29.285594	-0.093306	-62.049123	-0.093306	-62.049123	-23.675627	29.522396
3.550000	-23.409865	28.373890	-0.095952	-62.953373	-0.095952	-62.953373	-23.409147	28.610095
3.600000	-23.146300	27.461701	-0.098686	-63.858434	-0.098686	-63.858434	-23.145583	27.697294
3.650000	-22.885614	26.549039	-0.101511	-64.764312	-0.101511	-64.764312	-22.884897	26.784005
3.700000	-22.627771	25.635913	-0.104430	-65.671014	-0.104430	-65.671014	-22.627053	25.870239
3.750000	-22.372735	24.722330	-0.107446	-66.578544	-0.107446	-66.578544	-22.372017	24.956003
3.800000	-22.120277	23.808274	-0.110566	-67.486945	-0.110566	-67.486945	-22.119558	24.041285
3.850000	-21.870569	22.893770	-0.113791	-68.396183	-0.113791	-68.396183	-21.869850	23.126109
3.900000	-21.623580	21.978816	-0.117122	-69.306263	-0.117122	-69.306263	-21.622860	22.210475
3.950000	-21.379278	21.063414	-0.120564	-70.217188	-0.120564	-70.217188	-21.378557	21.294387
4.000000	-21.137631	20.147562	-0.124119	-71.128959	-0.124119	-71.128959	-21.136909	20.377842
4.050000	-20.898609	19.231258	-0.127791	-72.041580	-0.127791	-72.041580	-20.897886	19.460840
4.100000	-20.662184	18.314498	-0.131583	-72.955051	-0.131583	-72.955051	-20.661458	18.543379
4.150000	-20.428326	17.397279	-0.135498	-73.869373	-0.135498	-73.869373	-20.427598	17.625457
4.200000	-20.197007	16.479598	-0.139541	-74.784545	-0.139541	-74.784545	-20.196278	16.707069
4.250000	-19.968201	15.561450	-0.143714	-75.700567	-0.143714	-75.700567	-19.967470	15.788213
4.300000	-19.741881	14.642830	-0.148021	-76.617438	-0.148021	-76.617438	-19.741147	14.868885
4.350000	-19.518022	13.723736	-0.152465	-77.535155	-0.152465	-77.535155	-19.517286	13.949083
4.400000	-19.297012	12.804226	-0.157032	-78.453606	-0.157032	-78.453606	-19.296273	13.028864
4.450000	-19.077954	11.884165	-0.161763	-79.373016	-0.161763	-79.373016	-19.077212	12.108097
4.500000	-18.861285	10.963618	-0.166643	-80.293262	-0.166643	-80.293262	-18.860540	11.186846
4.550000	-18.646984	10.042583	-0.171673	-81.214339	-0.171673	-81.214339	-18.646236	10.265109
4.600000	-18.435027	9.121058	-0.176860	-82.136241	-0.176860	-82.136241	-18.434276	9.342885
4.650000	-18.225393	8.199042	-0.182205	-83.058961	-0.182205	-83.058961	-18.224639	8.420174
4.700000	-18.018061	7.276535	-0.187712	-83.982492	-0.187712	-83.982492	-18.017303	7.496975
4.750000	-17.813009	6.353537	-0.193385	-84.906826	-0.193385	-84.906826	-17.812248	6.573289
4.800000	-17.610218	5.430051	-0.199228	-85.831954	-0.199228	-85.831954	-17.609454	5.649120
4.850000	-17.409669	4.506078	-0.205244	-86.757866	-0.205244	-86.757866	-17.408900	4.724471
4.900000	-17.211341	3.581624	-0.211437	-87.684552	-0.211437	-87.684552	-17.210569	3.799345
4.950000	-17.015217	2.656694	-0.217809	-88.612001	-0.217809	-88.612001	-17.014441	2.873748
5.000000	-16.821277	1.731293	-0.224365	-89.540201	-0.224365	-89.540201	-16.820498	1.947688
5.050000	-16.629461	0.805421	-0.231112	-90.469153	-0.231112	-90.469153	-16.628678	1.021162
5.100000	-16.439799	-0.120905	-0.238050	-91.398830	-0.238050	-91.398830	-16.439012	0.094191
5.150000	-16.252273	-1.047672	-0.245181	-92.329214	-0.245181	-92.329214	-16.251482	-0.833216
5.200000	-16.066867	-1.974869	-0.252510	-93.260293	-0.252510	-93.260293	-16.066072	-1.761045
5.250000	-15.883564	-2.902483	-0.260039	-94.192048	-0.260039	-94.192048	-15.882766	-2.689283
5.300000	-15.702350	-3.830498	-0.267772	-95.124463	-0.267772	-95.124463	-15.701547	-3.617915
5.350000	-15.523207	-4.758899	-0.275712	-96.057521	-0.275712	-96.057521	-15.522400	-4.546925
5.400000	-15.346122	-5.687669	-0.283863	-96.991202	-0.283863	-96.991202	-15.345311	-5.476294
5.450000	-15.171078	-6.616787	-0.292226	-97.925487	-0.292226	-97.925487	-15.170263	-6.406005
5.500000	-14.998061	-7.546233	-0.300805	-98.860356	-0.300805	-98.860356	-14.997242	-7.336035
5.550000	-14.827058	-8.475987	-0.309604	-99.795788	-0.309604	-99.795788	-14.826234	-8.266363
5.600000	-14.658052	-9.406024	-0.318624	-100.731761	-0.318624	-100.731761	-14.657225	-9.196966
5.650000	-14.491019	-10.336323	-0.327872	-101.668257	-0.327872	-101.668257	-14.490187	-10.127821
5.700000	-14.325945	-11.266856	-0.337349	-102.605254	-0.337349	-102.605254	-14.325109	-11.058902
5.750000	-14.162831	-12.197594	-0.347057	-103.542719	-0.347057	-103.542719	-14.161991	-11.990179
5.800000	-14.001663	-13.128509	-0.356996	-104.480630	-0.356996	-104.480630	-14.000819	-12.921622
5.850000	-13.842428	-14.059570	-0.367171	-105.418960	-0.367171	-105.418960	-13.841580	-13.853203
5.900000	-13.685114	-14.990748	-0.377583	-106.357683	-0.377583	-106.357683	-13.684262	-14.784890
5.950000	-13.529706	-15.922009	-0.388235	-107.296771	-0.388235	-107.296771	-13.528850	-15.716652
6.000000	-13.376192	-16.853322	-0.399128	-108.236198	-0.399128	-108.236198	-13.375332	-16.648456
6.050000	-13.224560	-17.784652	-0.410264	-109.175934	-0.410264	-109.175934	-13.223695	-17.580267
6.100000	-13.074795	-18.715965	-0.421646	-110.115951	-0.421646	-110.115951	-13.073926	-18.512050
6.150000	-12.926887	-19.647224	-0.433275	-111.056218	-0.433275	-111.056218	-12.926013	-19.443771
6.200000	-12.780822	-20.578393	-0.445152	-111.996707	-0.445152	-111.996707	-12.779944	-20.375392
6.250000	-12.636587	-21.509435	-0.457279	-112.937385	-0.457279	-112.937385	-12.635705	-21.306875
6.300000	-12.494160	-22.440308	-0.469662	-113.878225	-0.469662	-113.878225	-12.493274	-22.238179
6.350000	-12.353542	-23.370975	-0.482299	-114.819190	-0.482299	-114.819190	-12.352650	-23.169268
6.400000	-12.214719	-24.301397	-0.495188	-115.760247	-0.495188	-115.760247	-12.213823	-24.100102
6.450000	-12.077679	-25.231535	-0.508332	-116.701365	-0.508332	-116.701365	-12.076778	-25.030641
6.500000	-11.942392	-26.161328	-0.521744	-117.642509	-0.521744	-117.642509	-11.941487	-25.960826
6.550000	-11.808881	-27.090770	-0.535401	-118.583644	-0.535401	-118.583644	-11.807971	-26.890649
6.600000	-11.677118	-28.019804	-0.549315	-119.524736	-0.549315	-119.524736	-11.676203	-27.820055
6.650000	-11.547089	-28.948391	-0.563485	-120.465752	-0.563485	-120.465752	-11.546169	-28.749003
6.700000	-11.418783	-29.876488	-0.577911	-121.406657	-0.577911	-121.406657	-11.417859	-29.677453
6.750000	-11.292188	-30.804056	-0.592593	-122.347415	-0.592593	-122.347415	-11.291258	-30.605363
6.800000	-11.167290	-31.731052	-0.607532	-123.287991	-0.607532	-123.287991	-11.166356	-31.532691
6.850000	-11.044079	-32.657435	-0.622726	-124.228350	-0.622726	-124.228350	-11.043139	-32.459397
6.900000	-10.922541	-33.583165	-0.638176	-125.168456	-0.638176	-125.168456	-10.921596	-33.385440
6.950000	-10.802665	-34.508201	-0.653880	-126.108273	-0.653880	-126.108273	-10.801715	-34.310779
7.000000	-10.684438	-35.432501	-0.669837	-127.047765	-0.669837	-127.047765	-10.683482	-35.235373
7.050000	-10.567848	-36.356026	-0.686047	-127.986897	-0.686047	-127.986897	-10.566887	-36.159182
7.100000	-10.452882	-37.278736	-0.702508	-128.925631	-0.702508	-128.925631	-10.451916	-37.082166
7.150000	-10.339529	-38.200591	-0.719219	-129.863932	-0.719219	-129.863932	-10.338557	-38.004285
7.200000	-10.227777	-39.121551	-0.736178	-130.801764	-0.736178	-130.801764	-10.226799	-38.925501
7.250000	-10.117613	-40.041579	-0.753383	-131.739091	-0.753383	-131.739091	-10.116629	-39.845775
7.300000	-10.009024	-40.960636	-0.770832	-132.675876	-0.770832	-132.675876	-10.008036	-40.765068
7.350000	-9.902000	-41.878684	-0.788524	-133.612085	-0.788524	-133.612085	-9.901006	-41.683343
7.400000	-9.796528	-42.795688	-0.806455	-134.547682	-0.806455	-134.547682	-9.795527	-42.600563
7.450000	-9.692595	-43.711609	-0.824624	-135.482631	-0.824624	-135.482631	-9.691589	-43.516693
7.500000	-9.590190	-44.626413	-0.843027	-136.416897	-0.843027	-136.416897	-9.589178	-44.431696
7.550000	-9.489317	-45.540014	-0.861671	-137.350412	-0.861671	-137.350412	-9.488299	-45.345485
7.600000	-9.389949	-46.452425	-0.880543	-138.283173	-0.880543	-138.283173	-9.388925	-46.258076
7.650000	-9.292075	-47.363615	-0.899640	-139.215145	-0.899640	-139.215145	-9.291045	-47.169435
7.700000	-9.195683	-48.273549	-0.918959	-140.146293	-0.918959	-140.146293	-9.194647	-48.079531
7.750000	-9.100762	-49.182196	-0.938496	-141.076586	-0.938496	-141.076586	-9.099720	-48.988330
7.800000	-9.007299	-50.089527	-0.958248	-142.005991	-0.958248	-142.005991	-9.006250	-49.895803
7.850000	-8.915282	-50.995510	-0.978210	-142.934475	-0.978210	-142.934475	-8.914228	-50.801919
7.900000	-8.824701	-51.900116	-0.998379	-143.862006	-0.998379	-143.862006	-8.823640	-51.706649
7.950000	-8.735543	-52.803317	-1.018751	-144.788555	-1.018751	-144.788555	-8.734476	-52.609965
8.000000	-8.647797	-53.705086	-1.039320	-145.714089	-1.039320	-145.714089	-8.646725	-53.511839
8.050000	-8.561452	-54.605395	-1.060083	-146.638580	-1.060083	-146.638580	-8.560374	-54.412244
8.100000	-8.476497	-55.504219	-1.081034	-147.561999	-1.081034	-147.561999	-8.475412	-55.311154
8.150000	-8.392920	-56.401532	-1.102170	-148.484316	-1.102170	-148.484316	-8.391830	-56.208545
8.200000	-8.310711	-57.297310	-1.123484	-149.405505	-1.123484	-149.405505	-8.309614	-57.104391
8.250000	-8.229858	-58.191529	-1.144973	-150.325539	-1.144973	-150.325539	-8.228756	-57.998669
8.300000	-8.150352	-59.084168	-1.166629	-151.244391	-1.166629	-151.244391	-8.149243	-58.891356
8.350000	-8.072180	-59.975202	-1.188450	-152.162036	-1.188450	-152.162036	-8.071066	-59.782429
8.400000	-7.995333	-60.864611	-1.210427	-153.078451	-1.210427	-153.078451	-7.994213	-60.671868
8.450000	-7.919801	-61.752374	-1.232557	-153.993610	-1.232557	-153.993610	-7.918675	-61.559651
8.500000	-7.845573	-62.638470	-1.254833	-154.907493	-1.254833	-154.907493	-7.844441	-62.445757
8.550000	-7.772639	-63.522881	-1.277249	-155.820076	-1.277249	-155.820076	-7.771501	-63.330168
8.600000	-7.700989	-64.405587	-1.299800	-156.731340	-1.299800	-156.731340	-7.699846	-64.212864
8.650000	-7.630614	-65.286569	-1.322478	-157.641264	-1.322478	-157.641264	-7.629465	-65.093827
8.700000	-7.561504	-66.165809	-1.345279	-158.549830	-1.345279	-158.549830	-7.560350	-65.973038
8.750000	-7.493650	-67.043291	-1.368195	-159.457020	-1.368195	-159.457020	-7.492490	-66.850479
8.800000	-7.427073	-67.918918	-1.391222	-160.362755	-1.391222	-160.362755	-7.425908	-67.726056
8.850000	-7.361735	-68.792751	-1.414350	-161.267081	-1.414350	-161.267081	-7.360564	-68.599827
8.900000	-7.297625	-69.664773	-1.437574	-162.169982	-1.437574	-162.169982	-7.296449	-69.471778
8.950000	-7.234736	-70.534968	-1.460887	-163.071445	-1.460887	-163.071445	-7.233554	-70.341890
9.000000	-7.173058	-71.403320	-1.484281	-163.971458	-1.484281	-163.971458	-7.171871	-71.210149
9.050000	-7.112583	-72.269814	-1.507750	-164.870009	-1.507750	-164.870009	-7.111390	-72.076539
9.100000	-7.053303	-73.134433	-1.531287	-165.767088	-1.531287	-165.767088	-7.052105	-72.941043
9.150000	-6.995209	-73.997163	-1.554885	-166.662687	-1.554885	-166.662687	-6.994005	-73.803647
9.200000	-6.938293	-74.857989	-1.578536	-167.556797	-1.578536	-167.556797	-6.937084	-74.664335
9.250000	-6.882548	-75.716895	-1.602234	-168.449411	-1.602234	-168.449411	-6.881333	-75.523092
9.300000	-6.827965	-76.573865	-1.625971	-169.340523	-1.625971	-169.340523	-6.826745	-76.379902
9.350000	-6.774538	-77.428885	-1.649740	-170.230130	-1.649740	-170.230130	-6.773311	-77.234750
9.400000	-6.722258	-78.281938	-1.673534	-171.118228	-1.673534	-171.118228	-6.721026	-78.087620
9.450000	-6.671119	-79.133010	-1.697345	-172.004815	-1.697345	-172.004815	-6.669880	-78.938496
9.500000	-6.621113	-79.982085	-1.721167	-172.889890	-1.721167	-172.889890	-6.619868	-79.787363
9.550000	-6.572233	-80.829146	-1.744991	-173.773452	-1.744991	-173.773452	-6.570982	-80.634205
9.600000	-6.524473	-81.674178	-1.768810	-174.655503	-1.768810	-174.655503	-6.523215	-81.479004
9.650000	-6.477825	-82.517163	-1.792617	-175.536047	-1.792617	-175.536047	-6.476561	-82.321745
9.700000	-6.432284	-83.358086	-1.816404	-176.415085	-1.816404	-176.415085	-6.431012	-83.162411
9.750000	-6.387842	-84.196928	-1.840163	-177.292624	-1.840163	-177.292624	-6.386563	-84.000984
9.800000	-6.344493	-85.033673	-1.863888	-178.168669	-1.863888	-178.168669	-6.343207	-84.837447
9.850000	-6.302232	-85.868302	-1.887570	-179.043228	-1.887570	-179.043228	-6.300937	-85.671781
9.900000	-6.261051	-86.700797	-1.911203	-179.916309	-1.911203	-179.916309	-6.259748	-86.503969
9.950000	-6.220945	-87.531139	-1.934777	179.212079	-1.934777	179.212079	-6.219633	-87.333990
10.000000	-6.181907	-88.359309	-1.958287	178.341924	-1.958287	178.341924	-6.180586	-88.161826
