! freq	dB(S11)	phase(S11)	dB(S12)	phase(S12)	
!     	dB(S21)	phase(S21)	dB(S22)	phase(S22)	
!S-par simulation data
#  GHz  S  DB  R 50
0.000000	-0.000000	0.000000	-308.786519	0.000000	-308.786519	0.000000	-0.000000	0.000000
0.050000	-0.000116	-0.962864	-61.984777	88.064531	-61.984777	88.064531	-0.000104	-0.818419
0.100000	-0.000461	-1.925457	-56.083633	86.801411	-56.083633	86.801411	-0.000413	-1.636591
0.150000	-0.001022	-2.887525	-52.650455	85.943245	-52.650455	85.943245	-0.000915	-2.454289
0.200000	-0.001779	-3.848851	-50.207483	85.200094	-50.207483	85.200094	-0.001590	-3.271322
0.250000	-0.002722	-4.809187	-48.304890	84.465866	-48.304890	84.465866	-0.002426	-4.087475
0.300000	-0.003810	-5.768468	-46.745386	83.713689	-46.745386	83.713689	-0.003385	-4.902706
0.350000	-0.005023	-6.726549	-45.424132	82.940502	-45.424132	82.940502	-0.004449	-5.716902
0.400000	-0.006338	-7.683354	-44.278280	82.148829	-44.278280	82.148829	-0.005595	-6.530014
0.450000	-0.007731	-8.638839	-43.267085	81.342273	-43.267085	81.342273	-0.006803	-7.342025
0.500000	-0.009181	-9.592987	-42.362585	80.524071	-42.362585	80.524071	-0.008052	-8.152938
0.550000	-0.010668	-10.545800	-41.544743	79.696831	-41.544743	79.696831	-0.009329	-8.962773
0.600000	-0.012180	-11.497292	-40.798706	78.862593	-40.798706	78.862593	-0.010620	-9.771559
0.650000	-0.013702	-12.447486	-40.113155	78.022937	-40.113155	78.022937	-0.011915	-10.579329
0.700000	-0.015225	-13.396407	-39.479270	77.179101	-39.479270	77.179101	-0.013209	-11.386117
0.750000	-0.016742	-14.344083	-38.890041	76.332060	-38.890041	76.332060	-0.014496	-12.191954
0.800000	-0.018249	-15.290536	-38.339806	75.482593	-38.339806	75.482593	-0.015772	-12.996866
0.850000	-0.019742	-16.235785	-37.823923	74.631333	-37.823923	74.631333	-0.017036	-13.800877
0.900000	-0.021219	-17.179847	-37.338545	73.778797	-37.338545	73.778797	-0.018286	-14.604002
0.950000	-0.022678	-18.122731	-36.880441	72.925417	-36.880441	72.925417	-0.019524	-15.406253
1.000000	-0.024121	-19.064441	-36.446877	72.071556	-36.446877	72.071556	-0.020748	-16.207637
1.050000	-0.025547	-20.004976	-36.035515	71.217523	-36.035515	71.217523	-0.021961	-17.008153
1.100000	-0.026957	-20.944332	-35.644341	70.363587	-35.644341	70.363587	-0.023163	-17.807801
1.150000	-0.028352	-21.882499	-35.271609	69.509979	-35.271609	69.509979	-0.024355	-18.606573
1.200000	-0.029735	-22.819464	-34.915794	68.656904	-34.915794	68.656904	-0.025539	-19.404459
1.250000	-0.031106	-23.755211	-34.575555	67.804547	-34.575555	67.804547	-0.026715	-20.201448
1.300000	-0.032465	-24.689667	-34.249780	66.953114	-34.249780	66.953114	-0.027885	-20.997484
1.350000	-0.033816	-25.622863	-33.937346	66.102722	-33.937346	66.102722	-0.029050	-21.792591
1.400000	-0.035160	-26.554777	-33.637316	65.253504	-33.637316	65.253504	-0.030212	-22.586751
1.450000	-0.036497	-27.485385	-33.348851	64.405582	-33.348851	64.405582	-0.031370	-23.379945
1.500000	-0.037829	-28.414661	-33.071195	63.559068	-33.071195	63.559068	-0.032527	-24.172154
1.550000	-0.039157	-29.342580	-32.803667	62.714069	-32.803667	62.714069	-0.033682	-24.963358
1.600000	-0.040483	-30.269116	-32.545649	61.870682	-32.545649	61.870682	-0.034836	-25.753537
1.650000	-0.041806	-31.194243	-32.296579	61.028999	-32.296579	61.028999	-0.035990	-26.542669
1.700000	-0.043127	-32.117932	-32.055945	60.189106	-32.055945	60.189106	-0.037145	-27.330735
1.750000	-0.044449	-33.040160	-31.823279	59.351084	-31.823279	59.351084	-0.038301	-28.117714
1.800000	-0.045770	-33.960898	-31.598151	58.515011	-31.598151	58.515011	-0.039458	-28.903585
1.850000	-0.047092	-34.880121	-31.380166	57.680959	-31.380166	57.680959	-0.040616	-29.688327
1.900000	-0.048415	-35.797804	-31.168959	56.848998	-31.168959	56.848998	-0.041777	-30.471921
1.950000	-0.049741	-36.713921	-30.964195	56.019195	-30.964195	56.019195	-0.042940	-31.254346
2.000000	-0.051068	-37.628448	-30.765561	55.191612	-30.765561	55.191612	-0.044106	-32.035584
2.050000	-0.052398	-38.541361	-30.572768	54.366310	-30.572768	54.366310	-0.045275	-32.815614
2.100000	-0.053732	-39.452637	-30.385547	53.543346	-30.385547	53.543346	-0.046447	-33.594417
2.150000	-0.055068	-40.362253	-30.203648	52.722776	-30.203648	52.722776	-0.047622	-34.371976
2.200000	-0.056409	-41.270187	-30.026835	51.904652	-30.026835	51.904652	-0.048801	-35.148271
2.250000	-0.057753	-42.176418	-29.854891	51.089026	-29.854891	51.089026	-0.049983	-35.923285
2.300000	-0.059103	-43.080925	-29.687609	50.275946	-29.687609	50.275946	-0.051170	-36.697001
2.350000	-0.060456	-43.983689	-29.524797	49.465459	-29.524797	49.465459	-0.052360	-37.469401
2.400000	-0.061815	-44.884691	-29.366275	48.657611	-29.366275	48.657611	-0.053555	-38.240469
2.450000	-0.063179	-45.783913	-29.211871	47.852443	-29.211871	47.852443	-0.054755	-39.010189
2.500000	-0.064549	-46.681337	-29.061425	47.049998	-29.061425	47.049998	-0.055959	-39.778544
2.550000	-0.065925	-47.576867	-28.914839	46.250438	-28.914839	46.250438	-0.057168	-40.545460
2.600000	-0.067307	-48.470566	-28.771915	45.453681	-28.771915	45.453681	-0.058383	-41.310981
2.650000	-0.068696	-49.362418	-28.632516	44.659766	-28.632516	44.659766	-0.059603	-42.075091
2.700000	-0.070091	-50.252409	-28.496513	43.868725	-28.496513	43.868725	-0.060829	-42.837778
2.750000	-0.071494	-51.140527	-28.363784	43.080594	-28.363784	43.080594	-0.062061	-43.599027
2.800000	-0.072904	-52.026758	-28.234213	42.295405	-28.234213	42.295405	-0.063298	-44.358826
2.850000	-0.074321	-52.911091	-28.107689	41.513187	-28.107689	41.513187	-0.064543	-45.117162
2.900000	-0.075747	-53.793515	-27.984107	40.733971	-27.984107	40.733971	-0.065793	-45.874022
2.950000	-0.077181	-54.674019	-27.863367	39.957786	-27.863367	39.957786	-0.067051	-46.629394
3.000000	-0.078624	-55.552595	-27.745372	39.184658	-27.745372	39.184658	-0.068316	-47.383269
3.050000	-0.080076	-56.429233	-27.630031	38.414612	-27.630031	38.414612	-0.069588	-48.135633
3.100000	-0.081538	-57.303926	-27.517256	37.647674	-27.517256	37.647674	-0.070868	-48.886477
3.150000	-0.083009	-58.176666	-27.406964	36.883868	-27.406964	36.883868	-0.072156	-49.635791
3.200000	-0.084491	-59.047448	-27.299074	36.123214	-27.299074	36.123214	-0.073453	-50.383565
3.250000	-0.085983	-59.916264	-27.193508	35.365735	-27.193508	35.365735	-0.074758	-51.129790
3.300000	-0.087486	-60.783112	-27.090193	34.611450	-27.090193	34.611450	-0.076072	-51.874456
3.350000	-0.089000	-61.647986	-26.989057	33.860379	-26.989057	33.860379	-0.077395	-52.617556
3.400000	-0.090526	-62.510883	-26.890032	33.112540	-26.890032	33.112540	-0.078728	-53.359081
3.450000	-0.092065	-63.371800	-26.793051	32.367948	-26.793051	32.367948	-0.080071	-54.099024
3.500000	-0.093616	-64.230736	-26.698052	31.626621	-26.698052	31.626621	-0.081424	-54.837378
3.550000	-0.095180	-65.087689	-26.604973	30.888572	-26.604973	30.888572	-0.082788	-55.574135
3.600000	-0.096758	-65.942658	-26.513755	30.153816	-26.513755	30.153816	-0.084162	-56.309290
3.650000	-0.098349	-66.795645	-26.424340	29.422365	-26.424340	29.422365	-0.085549	-57.042837
3.700000	-0.099955	-67.646649	-26.336674	28.694231	-26.336674	28.694231	-0.086946	-57.774770
3.750000	-0.101576	-68.495673	-26.250702	27.969425	-26.250702	27.969425	-0.088356	-58.505084
3.800000	-0.103213	-69.342633	-26.166408	27.248103	-26.166408	27.248103	-0.089779	-59.233703
3.850000	-0.104866	-70.187618	-26.083706	26.530127	-26.083706	26.530127	-0.091215	-59.960695
3.900000	-0.106535	-71.030632	-26.002546	25.815506	-26.002546	25.815506	-0.092664	-60.686054
3.950000	-0.108220	-71.871680	-25.922882	25.104246	-25.922882	25.104246	-0.094126	-61.409778
4.000000	-0.109923	-72.710766	-25.844667	24.396354	-25.844667	24.396354	-0.095603	-62.131863
4.050000	-0.111644	-73.547896	-25.767858	23.691833	-25.767858	23.691833	-0.097094	-62.852308
4.100000	-0.113382	-74.383077	-25.692411	22.990688	-25.692411	22.990688	-0.098600	-63.571109
4.150000	-0.115140	-75.216316	-25.618284	22.292922	-25.618284	22.292922	-0.100120	-64.288265
4.200000	-0.116916	-76.047621	-25.545436	21.598536	-25.545436	21.598536	-0.101657	-65.003776
4.250000	-0.118713	-76.876999	-25.473827	20.907531	-25.473827	20.907531	-0.103209	-65.717639
4.300000	-0.120529	-77.704461	-25.403418	20.219908	-25.403418	20.219908	-0.104778	-66.429854
4.350000	-0.122366	-78.530016	-25.334172	19.535664	-25.334172	19.535664	-0.106364	-67.140421
4.400000	-0.124224	-79.353673	-25.266051	18.854797	-25.266051	18.854797	-0.107966	-67.849340
4.450000	-0.126104	-80.175445	-25.199019	18.177305	-25.199019	18.177305	-0.109587	-68.556612
4.500000	-0.128006	-80.995342	-25.133041	17.503183	-25.133041	17.503183	-0.111225	-69.262237
4.550000	-0.129930	-81.813376	-25.068082	16.832425	-25.068082	16.832425	-0.112882	-69.966218
4.600000	-0.131877	-82.629561	-25.004109	16.165026	-25.004109	16.165026	-0.114557	-70.668555
4.650000	-0.133849	-83.443910	-24.941089	15.500978	-24.941089	15.500978	-0.116252	-71.369251
4.700000	-0.135844	-84.256436	-24.878989	14.840271	-24.878989	14.840271	-0.117967	-72.068308
4.750000	-0.137864	-85.067154	-24.817777	14.182897	-24.817777	14.182897	-0.119701	-72.765730
4.800000	-0.139909	-85.876079	-24.757423	13.528844	-24.757423	13.528844	-0.121456	-73.461518
4.850000	-0.141979	-86.683227	-24.697896	12.878100	-24.697896	12.878100	-0.123233	-74.155677
4.900000	-0.144076	-87.488614	-24.639166	12.230652	-24.639166	12.230652	-0.125030	-74.848211
4.950000	-0.146199	-88.292256	-24.581204	11.586485	-24.581204	11.586485	-0.126849	-75.539124
5.000000	-0.148350	-89.094172	-24.523981	10.945583	-24.523981	10.945583	-0.128691	-76.228420
5.050000	-0.150543	-89.893423	-24.467649	10.309754	-24.467649	10.309754	-0.130568	-76.915196
5.100000	-0.152738	-90.692675	-24.411680	9.673925	-24.411680	9.673925	-0.132446	-77.601973
5.150000	-0.154986	-91.488733	-24.356637	9.044231	-24.356637	9.044231	-0.134368	-78.285689
5.200000	-0.157240	-92.284502	-24.301993	8.415094	-24.301993	8.415094	-0.136295	-78.969127
5.250000	-0.159546	-93.077439	-24.248139	7.791454	-24.248139	7.791454	-0.138264	-79.649805
5.300000	-0.161862	-93.869810	-24.194706	7.168913	-24.194706	7.168913	-0.140242	-80.329930
5.350000	-0.164226	-94.659703	-24.141944	6.551235	-24.141944	6.551235	-0.142259	-81.007595
5.400000	-0.166606	-95.448768	-24.089615	5.935180	-24.089615	5.935180	-0.144290	-81.684438
5.450000	-0.169030	-96.235694	-24.037851	5.323365	-24.037851	5.323365	-0.146358	-82.359116
5.500000	-0.171477	-97.021551	-23.986520	4.713670	-23.986520	4.713670	-0.148444	-83.032710
5.550000	-0.173964	-97.805593	-23.935664	4.107606	-23.935664	4.107606	-0.150563	-83.704429
5.600000	-0.176479	-98.588340	-23.885227	3.504135	-23.885227	3.504135	-0.152706	-84.374810
5.650000	-0.179030	-99.369584	-23.835191	2.903699	-23.835191	2.903699	-0.154879	-85.043602
5.700000	-0.181616	-100.149326	-23.785550	2.306298	-23.785550	2.306298	-0.157081	-85.710807
5.750000	-0.184232	-100.927862	-23.736250	1.711356	-23.736250	1.711356	-0.159308	-86.376705
5.800000	-0.186891	-101.704709	-23.687308	1.119857	-23.687308	1.119857	-0.161572	-87.040775
5.850000	-0.189575	-102.480629	-23.638661	0.530263	-23.638661	0.530263	-0.163856	-87.703815
5.900000	-0.192309	-103.254695	-23.590326	-0.055520	-23.590326	-0.055520	-0.166182	-88.364793
5.950000	-0.195062	-104.028094	-23.542253	-0.639924	-23.542253	-0.639924	-0.168524	-89.025011
6.000000	-0.197874	-104.799495	-23.494432	-1.220191	-23.494432	-1.220191	-0.170915	-89.682944
6.050000	-0.200698	-105.570472	-23.446857	-1.799575	-23.446857	-1.799575	-0.173318	-90.340378
6.100000	-0.203589	-106.339331	-23.399464	-2.374544	-23.399464	-2.374544	-0.175776	-90.995315
6.150000	-0.206487	-107.107989	-23.352313	-2.949091	-23.352313	-2.949091	-0.178240	-91.650006
6.200000	-0.209459	-107.874432	-23.305262	-3.518998	-23.305262	-3.518998	-0.180767	-92.301996
6.250000	-0.212431	-108.640875	-23.258464	-4.088904	-23.258464	-4.088904	-0.183295	-92.953986
6.300000	-0.215487	-109.405031	-23.211673	-4.653999	-23.211673	-4.653999	-0.185893	-93.603084
6.350000	-0.218544	-110.169187	-23.165134	-5.219093	-23.165134	-5.219093	-0.188492	-94.252181
6.400000	-0.221678	-110.931371	-23.118552	-5.780024	-23.118552	-5.780024	-0.191157	-94.898678
6.450000	-0.224820	-111.693375	-23.072192	-6.340576	-23.072192	-6.340576	-0.193829	-95.544937
6.500000	-0.228035	-112.453701	-23.025756	-6.897581	-23.025756	-6.897581	-0.196563	-96.188880
6.550000	-0.231265	-113.213690	-22.979503	-7.453875	-22.979503	-7.453875	-0.199310	-96.832360
6.600000	-0.234563	-113.972276	-22.933152	-8.007203	-22.933152	-8.007203	-0.202115	-97.473799
6.650000	-0.237883	-114.730393	-22.886934	-8.559543	-22.886934	-8.559543	-0.204940	-98.114558
6.700000	-0.241264	-115.487359	-22.840611	-9.109456	-22.840611	-9.109456	-0.207817	-98.753544
6.750000	-0.244677	-116.243750	-22.794360	-9.658157	-22.794360	-9.658157	-0.210721	-99.391644
6.800000	-0.248144	-116.999220	-22.748012	-10.204930	-22.748012	-10.204930	-0.213672	-100.028230
6.850000	-0.251651	-117.754033	-22.701665	-10.750324	-22.701665	-10.750324	-0.216657	-100.663734
6.900000	-0.255207	-118.508135	-22.655239	-11.294239	-22.655239	-11.294239	-0.219684	-101.297974
6.950000	-0.258810	-119.261525	-22.608737	-11.836673	-22.608737	-11.836673	-0.222753	-101.930948
7.000000	-0.262455	-120.014387	-22.562187	-12.378024	-22.562187	-12.378024	-0.225858	-102.562897
7.050000	-0.266157	-120.766510	-22.515473	-12.917856	-22.515473	-12.917856	-0.229013	-103.193409
7.100000	-0.269893	-121.518265	-22.468754	-13.456945	-22.468754	-13.456945	-0.232197	-103.823123
7.150000	-0.273696	-122.269284	-22.421777	-13.994545	-22.421777	-13.994545	-0.235439	-104.451242
7.200000	-0.277526	-123.020068	-22.374849	-14.531682	-22.374849	-14.531682	-0.238705	-105.078780
7.250000	-0.281432	-123.770146	-22.327562	-15.067428	-22.327562	-15.067428	-0.242037	-105.704577
7.300000	-0.285356	-124.520097	-22.280386	-15.602930	-22.280386	-15.602930	-0.245386	-106.329999
7.350000	-0.289367	-125.269405	-22.232746	-16.137209	-22.232746	-16.137209	-0.248810	-106.953547
7.400000	-0.293388	-126.018663	-22.185289	-16.671399	-22.185289	-16.671399	-0.252244	-107.576913
7.450000	-0.297506	-126.767374	-22.137258	-17.204602	-22.137258	-17.204602	-0.255762	-108.198286
7.500000	-0.301626	-127.516084	-22.089490	-17.737805	-22.089490	-17.737805	-0.259282	-108.819658
7.550000	-0.305853	-128.264374	-22.041033	-18.270327	-22.041033	-18.270327	-0.262897	-109.438933
7.600000	-0.310083	-129.012664	-21.992845	-18.802849	-21.992845	-18.802849	-0.266513	-110.058207
7.650000	-0.314412	-129.760735	-21.944016	-19.335110	-21.944016	-19.335110	-0.270219	-110.675629
7.700000	-0.318753	-130.508786	-21.895378	-19.867347	-21.895378	-19.867347	-0.273934	-111.292883
7.750000	-0.323187	-131.256791	-21.846158	-20.399675	-21.846158	-20.399675	-0.277731	-111.908519
7.800000	-0.327642	-132.004788	-21.797046	-20.932022	-21.797046	-20.932022	-0.281547	-112.523832
7.850000	-0.332182	-132.752886	-21.747420	-21.464743	-21.747420	-21.464743	-0.285439	-113.137750
7.900000	-0.336752	-133.501018	-21.697813	-21.997589	-21.697813	-21.997589	-0.289357	-113.751202
7.950000	-0.341400	-134.249369	-21.647768	-22.531025	-21.647768	-22.531025	-0.293345	-114.363471
8.000000	-0.346089	-134.997829	-21.597651	-23.064756	-21.597651	-23.064756	-0.297368	-114.975146
8.050000	-0.350846	-135.746597	-21.547178	-23.599221	-21.547178	-23.599221	-0.301454	-115.585835
8.100000	-0.355654	-136.495585	-21.496540	-24.134212	-21.496540	-24.134212	-0.305584	-116.195818
8.150000	-0.360524	-137.244937	-21.445633	-24.670016	-21.445633	-24.670016	-0.309769	-116.804997
8.200000	-0.365454	-137.994653	-21.394465	-25.206633	-21.394465	-25.206633	-0.314009	-117.413373
8.250000	-0.370436	-138.744760	-21.343121	-25.744075	-21.343121	-25.744075	-0.318295	-118.021117
8.300000	-0.375491	-139.495412	-21.291418	-26.282670	-21.291418	-26.282670	-0.322646	-118.627973
8.350000	-0.380588	-140.246448	-21.239638	-26.822038	-21.239638	-26.822038	-0.327035	-119.234354
8.400000	-0.385769	-140.998248	-21.187400	-27.362950	-21.187400	-27.362950	-0.331500	-119.839780
8.450000	-0.390983	-141.750389	-21.135185	-27.904522	-21.135185	-27.904522	-0.335994	-120.444872
8.500000	-0.396292	-142.503552	-21.082414	-28.448074	-21.082414	-28.448074	-0.340574	-121.048959
8.550000	-0.401625	-143.256980	-21.029768	-28.992116	-21.029768	-28.992116	-0.345176	-121.652838
8.600000	-0.407064	-144.011728	-20.976470	-29.538611	-20.976470	-29.538611	-0.349873	-122.255678
8.650000	-0.412517	-144.766627	-20.923399	-30.085376	-20.923399	-30.085376	-0.354583	-122.858421
8.700000	-0.418088	-145.523185	-20.869580	-30.635101	-20.869580	-30.635101	-0.359400	-123.460108
8.750000	-0.423663	-146.279744	-20.816093	-31.184826	-20.816093	-31.184826	-0.364220	-124.061794
8.800000	-0.429369	-147.038344	-20.761763	-31.738049	-20.761763	-31.738049	-0.369160	-124.662422
8.850000	-0.435079	-147.796944	-20.707770	-32.291271	-20.707770	-32.291271	-0.374102	-125.263050
8.900000	-0.440910	-148.557631	-20.653037	-32.847927	-20.653037	-32.847927	-0.379155	-125.862797
8.950000	-0.446755	-149.318508	-20.598550	-33.404894	-20.598550	-33.404894	-0.384221	-126.462465
9.000000	-0.452714	-150.081484	-20.543427	-33.965172	-20.543427	-33.965172	-0.389390	-127.061413
9.050000	-0.458698	-150.844880	-20.488456	-34.526112	-20.488456	-34.526112	-0.394582	-127.660218
9.100000	-0.464784	-151.610351	-20.432954	-35.090188	-20.432954	-35.090188	-0.399869	-128.258451
9.150000	-0.470908	-152.376512	-20.377514	-35.655310	-20.377514	-35.655310	-0.405189	-128.856494
9.200000	-0.477125	-153.144686	-20.321645	-36.223345	-20.321645	-36.223345	-0.410595	-129.454098
9.250000	-0.483391	-153.913866	-20.265747	-36.792838	-20.265747	-36.792838	-0.416046	-130.051481
9.300000	-0.489740	-154.684957	-20.209525	-37.364980	-20.209525	-37.364980	-0.421572	-130.648540
9.350000	-0.496149	-155.457413	-20.153182	-37.939016	-20.153182	-37.939016	-0.427155	-131.245367
9.400000	-0.502630	-156.231639	-20.096618	-38.515400	-20.096618	-38.515400	-0.432804	-131.841969
9.450000	-0.509185	-157.007635	-20.039842	-39.094133	-20.039842	-39.094133	-0.438521	-132.438346
9.500000	-0.515801	-157.785219	-19.982950	-39.674882	-19.982950	-39.674882	-0.444294	-133.034580
9.550000	-0.522501	-158.565026	-19.925752	-40.258454	-19.925752	-40.258454	-0.450147	-133.630614
9.600000	-0.529253	-159.346194	-19.868541	-40.843679	-19.868541	-40.843679	-0.456046	-134.226571
9.650000	-0.536102	-160.130087	-19.810933	-41.432214	-19.810933	-41.432214	-0.462036	-134.822372
9.700000	-0.542990	-160.915073	-19.753413	-42.022019	-19.753413	-42.022019	-0.468064	-135.418142
9.750000	-0.549988	-161.703335	-19.695404	-42.615632	-19.695404	-42.615632	-0.474193	-136.013820
9.800000	-0.557015	-162.492373	-19.637585	-43.210108	-19.637585	-43.210108	-0.480350	-136.609497
9.850000	-0.564163	-163.285293	-19.579183	-43.808903	-19.579183	-43.808903	-0.486621	-137.205167
9.900000	-0.571329	-164.078625	-19.521072	-44.408138	-19.521072	-44.408138	-0.492908	-137.800846
9.950000	-0.578629	-164.876498	-19.462282	-45.012212	-19.462282	-45.012212	-0.499322	-138.396622
10.000000	-0.585934	-165.674371	-19.403888	-45.616286	-19.403888	-45.616286	-0.505741	-138.992398
