! freq	dB(S11)	phase(S11)	dB(S12)	phase(S12)	
!     	dB(S21)	phase(S21)	dB(S22)	phase(S22)	
!S-par simulation data
#  GHz  S  DB  R 50
0.000000	0.000000	0.000000	-299.578461	0.000000	-299.578461	0.000000	-0.000000	0.000000
0.050000	-0.000103	-0.820138	-70.432847	87.516093	-70.432847	87.516093	-0.000111	-0.901908
0.100000	-0.000408	-1.640028	-64.598395	86.391448	-64.598395	86.391448	-0.000438	-1.803549
0.150000	-0.000902	-2.459442	-61.184771	85.754048	-61.184771	85.754048	-0.000971	-2.704676
0.200000	-0.001567	-3.278189	-58.745283	85.160874	-58.745283	85.160874	-0.001688	-3.605078
0.250000	-0.002390	-4.096052	-56.842688	84.523271	-56.842688	84.523271	-0.002577	-4.504517
0.300000	-0.003332	-4.912991	-55.283204	83.842704	-55.283204	83.842704	-0.003599	-5.402937
0.350000	-0.004376	-5.728890	-53.962611	83.126606	-53.962611	83.126606	-0.004735	-6.300204
0.400000	-0.005499	-6.543702	-52.818163	82.384177	-52.818163	82.384177	-0.005959	-7.196253
0.450000	-0.006679	-7.357409	-51.809065	81.622461	-51.809065	81.622461	-0.007251	-8.091053
0.500000	-0.007898	-8.170015	-50.907285	80.846550	-50.907285	80.846550	-0.008588	-8.984594
0.550000	-0.009140	-8.981541	-50.092727	80.060107	-50.092727	80.060107	-0.009955	-9.876887
0.600000	-0.010394	-9.792015	-49.350493	79.265804	-49.350493	79.265804	-0.011336	-10.767953
0.650000	-0.011648	-10.601471	-48.669232	78.465625	-48.669232	78.465625	-0.012721	-11.657818
0.700000	-0.012897	-11.409942	-48.040100	77.661073	-48.040100	77.661073	-0.014102	-12.546511
0.750000	-0.014134	-12.217461	-47.456070	76.853312	-47.456070	76.853312	-0.015472	-13.434061
0.800000	-0.015358	-13.024055	-46.911468	76.043262	-46.911468	76.043262	-0.016827	-14.320491
0.850000	-0.016566	-13.829746	-46.401645	75.231660	-46.401645	75.231660	-0.018164	-15.205822
0.900000	-0.017756	-14.634551	-45.922745	74.419115	-45.922745	74.419115	-0.019483	-16.090067
0.950000	-0.018930	-15.438482	-45.471536	73.606131	-45.471536	73.606131	-0.020783	-16.973235
1.000000	-0.020088	-16.241544	-45.045279	72.793139	-45.045279	72.793139	-0.022064	-17.855330
1.050000	-0.021230	-17.043741	-44.641634	71.980508	-44.641634	71.980508	-0.023326	-18.736351
1.100000	-0.022357	-17.845068	-44.258587	71.168561	-44.258587	71.168561	-0.024572	-19.616290
1.150000	-0.023472	-18.645520	-43.894390	70.357586	-43.894390	70.357586	-0.025801	-20.495140
1.200000	-0.024574	-19.445088	-43.547519	69.547840	-43.547519	69.547840	-0.027016	-21.372886
1.250000	-0.025666	-20.243759	-43.216634	68.739558	-43.216634	68.739558	-0.028218	-22.249511
1.300000	-0.026748	-21.041480	-42.900670	67.933037	-42.900670	67.933037	-0.029408	-23.124948
1.350000	-0.027821	-21.838272	-42.598459	67.128411	-42.598459	67.128411	-0.030587	-23.999223
1.400000	-0.028888	-22.634120	-42.309062	66.325866	-42.309062	66.325866	-0.031757	-24.872315
1.450000	-0.029948	-23.429003	-42.031642	65.525577	-42.031642	65.525577	-0.032919	-25.744200
1.500000	-0.031004	-24.222903	-41.765445	64.727710	-41.765445	64.727710	-0.034074	-26.614854
1.550000	-0.032054	-25.015801	-41.509789	63.932425	-41.509789	63.932425	-0.035223	-27.484252
1.600000	-0.033102	-25.807676	-41.264057	63.139876	-41.264057	63.139876	-0.036367	-28.352368
1.650000	-0.034146	-26.598507	-41.027690	62.350211	-41.027690	62.350211	-0.037508	-29.219176
1.700000	-0.035188	-27.388274	-40.800175	61.563573	-40.800175	61.563573	-0.038644	-30.084652
1.750000	-0.036228	-28.176957	-40.581045	60.780104	-40.581045	60.780104	-0.039778	-30.948770
1.800000	-0.037267	-28.964535	-40.369871	59.999940	-40.369871	59.999940	-0.040910	-31.811503
1.850000	-0.038304	-29.750987	-40.166258	59.223216	-40.166258	59.223216	-0.042040	-32.672827
1.900000	-0.039342	-30.536293	-39.969844	58.450064	-39.969844	58.450064	-0.043169	-33.532717
1.950000	-0.040379	-31.320434	-39.780292	57.680614	-39.780292	57.680614	-0.044298	-34.391148
2.000000	-0.041417	-32.103390	-39.597289	56.914995	-39.597289	56.914995	-0.045427	-35.248097
2.050000	-0.042456	-32.885140	-39.420548	56.153334	-39.420548	56.153334	-0.046556	-36.103539
2.100000	-0.043495	-33.665668	-39.249798	55.395757	-39.249798	55.395757	-0.047685	-36.957451
2.150000	-0.044536	-34.444952	-39.084790	54.642387	-39.084790	54.642387	-0.048816	-37.809811
2.200000	-0.045578	-35.222976	-38.925287	53.893349	-38.925287	53.893349	-0.049949	-38.660596
2.250000	-0.046623	-35.999721	-38.771071	53.148764	-38.771071	53.148764	-0.051083	-39.509786
2.300000	-0.047669	-36.775170	-38.621935	52.408756	-38.621935	52.408756	-0.052219	-40.357358
2.350000	-0.048718	-37.549305	-38.477686	51.673445	-38.477686	51.673445	-0.053358	-41.203294
2.400000	-0.049770	-38.322109	-38.338141	50.942951	-38.338141	50.942951	-0.054500	-42.047572
2.450000	-0.050825	-39.093567	-38.203128	50.217394	-38.203128	50.217394	-0.055645	-42.890173
2.500000	-0.051883	-39.863663	-38.072485	49.496894	-38.072485	49.496894	-0.056793	-43.731080
2.550000	-0.052946	-40.632319	-37.946157	48.781800	-37.946157	48.781800	-0.057946	-44.570199
2.600000	-0.054012	-41.399580	-37.823896	48.072011	-37.823896	48.072011	-0.059102	-45.407586
2.650000	-0.055082	-42.165432	-37.705564	47.367645	-37.705564	47.367645	-0.060264	-46.243224
2.700000	-0.056158	-42.929860	-37.591030	46.668820	-37.591030	46.668820	-0.061430	-47.077098
2.750000	-0.057238	-43.692850	-37.480166	45.975652	-37.480166	45.975652	-0.062602	-47.909192
2.800000	-0.058323	-44.454389	-37.372853	45.288259	-37.372853	45.288259	-0.063779	-48.739490
2.850000	-0.059414	-45.214464	-37.268978	44.606756	-37.268978	44.606756	-0.064963	-49.567980
2.900000	-0.060511	-45.973061	-37.168429	43.931261	-37.168429	43.931261	-0.066152	-50.394647
2.950000	-0.061614	-46.730170	-37.071102	43.261888	-37.071102	43.261888	-0.067349	-51.219478
3.000000	-0.062724	-47.485777	-36.976895	42.598753	-36.976895	42.598753	-0.068553	-52.042461
3.050000	-0.063841	-48.239872	-36.885712	41.941972	-36.885712	41.941972	-0.069764	-52.863584
3.100000	-0.064965	-48.992444	-36.797459	41.291658	-36.797459	41.291658	-0.070983	-53.682836
3.150000	-0.066097	-49.743482	-36.712046	40.647925	-36.712046	40.647925	-0.072211	-54.500206
3.200000	-0.067237	-50.492976	-36.629385	40.010888	-36.629385	40.010888	-0.073447	-55.315683
3.250000	-0.068385	-51.240916	-36.549392	39.380659	-36.549392	39.380659	-0.074693	-56.129260
3.300000	-0.069542	-51.987293	-36.471985	38.757352	-36.471985	38.757352	-0.075948	-56.940926
3.350000	-0.070708	-52.732097	-36.397086	38.141077	-36.397086	38.141077	-0.077213	-57.750673
3.400000	-0.071884	-53.475322	-36.324616	37.531947	-36.324616	37.531947	-0.078489	-58.558495
3.450000	-0.073070	-54.216957	-36.254502	36.930072	-36.254502	36.930072	-0.079775	-59.364383
3.500000	-0.074266	-54.956997	-36.186669	36.335562	-36.186669	36.335562	-0.081073	-60.168331
3.550000	-0.075472	-55.695433	-36.121047	35.748527	-36.121047	35.748527	-0.082383	-60.970334
3.600000	-0.076690	-56.432258	-36.057565	35.169074	-36.057565	35.169074	-0.083704	-61.770385
3.650000	-0.077920	-57.167467	-35.996155	34.597311	-35.996155	34.597311	-0.085038	-62.568481
3.700000	-0.079161	-57.901053	-35.936751	34.033345	-35.936751	34.033345	-0.086386	-63.364616
3.750000	-0.080414	-58.633011	-35.879286	33.477281	-35.879286	33.477281	-0.087747	-64.158788
3.800000	-0.081688	-59.362409	-35.824524	32.933810	-35.824524	32.933810	-0.089129	-64.949879
3.850000	-0.082962	-60.091806	-35.770105	32.390339	-35.770105	32.390339	-0.090512	-65.740971
3.900000	-0.084261	-60.818061	-35.718727	31.862599	-35.718727	31.862599	-0.091923	-66.528291
3.950000	-0.085563	-61.544030	-35.667896	31.336288	-35.667896	31.336288	-0.093337	-67.315268
4.000000	-0.086890	-62.267128	-35.619668	30.824635	-35.619668	30.824635	-0.094779	-68.098813
4.050000	-0.088222	-62.989651	-35.572165	30.315913	-35.572165	30.315913	-0.096226	-68.881671
4.100000	-0.089578	-63.709582	-35.526858	29.820691	-35.526858	29.820691	-0.097699	-69.661440
4.150000	-0.090942	-64.428648	-35.482428	29.329969	-35.482428	29.329969	-0.099181	-70.440179
4.200000	-0.092329	-65.145403	-35.439818	28.851506	-35.439818	28.851506	-0.100687	-71.216176
4.250000	-0.093726	-65.861003	-35.398208	28.379172	-35.398208	28.379172	-0.102206	-71.990801
4.300000	-0.095144	-66.574578	-35.358074	27.917776	-35.358074	27.917776	-0.103748	-72.763033
4.350000	-0.096577	-67.286706	-35.319033	27.464194	-35.319033	27.464194	-0.105305	-73.533554
4.400000	-0.098029	-67.997098	-35.281158	27.020154	-35.281158	27.020154	-0.106883	-74.302031
4.450000	-0.099499	-68.705754	-35.244434	26.585656	-35.244434	26.585656	-0.108482	-75.068463
4.500000	-0.100985	-69.412963	-35.208601	26.159235	-35.208601	26.159235	-0.110098	-75.833199
4.550000	-0.102494	-70.118148	-35.173943	25.744119	-35.173943	25.744119	-0.111739	-76.595561
4.600000	-0.104017	-70.822177	-35.139938	25.335548	-35.139938	25.335548	-0.113395	-77.356573
4.650000	-0.105567	-71.523895	-35.107093	24.940069	-35.107093	24.940069	-0.115081	-78.114887
4.700000	-0.107128	-72.224750	-35.074701	24.549551	-35.074701	24.549551	-0.116779	-78.872197
4.750000	-0.108720	-72.923012	-35.043414	24.173916	-35.043414	24.173916	-0.118511	-79.626492
4.800000	-0.110320	-73.620699	-35.012419	23.801613	-35.012419	23.801613	-0.120252	-80.380122
4.850000	-0.111956	-74.315516	-34.982433	23.445972	-34.982433	23.445972	-0.122032	-81.130429
4.900000	-0.113597	-75.010047	-34.952620	23.092004	-34.952620	23.092004	-0.123818	-81.880407
4.950000	-0.115280	-75.701434	-34.923675	22.756445	-34.923675	22.756445	-0.125649	-82.626762
5.000000	-0.116962	-76.392820	-34.894826	22.420885	-34.894826	22.420885	-0.127480	-83.373118
5.050000	-0.118693	-77.080796	-34.866660	22.105420	-34.866660	22.105420	-0.129363	-84.115562
5.100000	-0.120423	-77.768772	-34.838586	21.789956	-34.838586	21.789956	-0.131246	-84.858006
5.150000	-0.122199	-78.453640	-34.810906	21.492850	-34.810906	21.492850	-0.133179	-85.596904
5.200000	-0.123979	-79.138226	-34.783343	21.197413	-34.783343	21.197413	-0.135116	-86.335480
5.250000	-0.125802	-79.820008	-34.755927	20.918535	-34.755927	20.918535	-0.137100	-87.070873
5.300000	-0.127633	-80.501229	-34.728610	20.642968	-34.728610	20.642968	-0.139093	-87.805629
5.350000	-0.129504	-81.179946	-34.701234	20.382109	-34.701234	20.382109	-0.141129	-88.537558
5.400000	-0.131389	-81.857830	-34.673896	20.126153	-34.673896	20.126153	-0.143180	-89.268545
5.450000	-0.133309	-82.533508	-34.646336	19.883025	-34.646336	19.883025	-0.145269	-89.997056
5.500000	-0.135248	-83.208084	-34.618711	19.646312	-34.618711	19.646312	-0.147379	-90.724329
5.550000	-0.137220	-83.880751	-34.590746	19.420541	-34.590746	19.420541	-0.149525	-91.449470
5.600000	-0.139216	-84.552053	-34.562568	19.202586	-34.562568	19.202586	-0.151696	-92.173087
5.650000	-0.141240	-85.221737	-34.533978	18.993704	-34.533978	18.993704	-0.153898	-92.894907
5.700000	-0.143293	-85.889801	-34.504982	18.793895	-34.504982	18.793895	-0.156131	-93.614929
5.750000	-0.145372	-86.556533	-34.475552	18.601337	-34.475552	18.601337	-0.158392	-94.333481
5.800000	-0.147485	-87.221398	-34.445479	18.418932	-34.445479	18.418932	-0.160690	-95.049974
5.850000	-0.149619	-87.885210	-34.414996	18.242034	-34.414996	18.242034	-0.163010	-95.765314
5.900000	-0.151793	-88.546918	-34.383594	18.076153	-34.383594	18.076153	-0.165374	-96.478345
5.950000	-0.153984	-89.207847	-34.351853	17.914147	-34.351853	17.914147	-0.167756	-97.190528
6.000000	-0.156221	-89.866440	-34.318878	17.763771	-34.318878	17.763771	-0.170187	-97.900169
6.050000	-0.158470	-90.524522	-34.285683	17.615787	-34.285683	17.615787	-0.172631	-98.609257
6.100000	-0.160772	-91.180047	-34.250902	17.479759	-34.250902	17.479759	-0.175132	-99.315580
6.150000	-0.163080	-91.835321	-34.216066	17.344820	-34.216066	17.344820	-0.177640	-100.021633
6.200000	-0.165449	-92.487826	-34.179261	17.221850	-34.179261	17.221850	-0.180212	-100.724716
6.250000	-0.167818	-93.140332	-34.142610	17.098879	-34.142610	17.098879	-0.182785	-101.427799
6.300000	-0.170254	-93.789870	-34.103579	16.987544	-34.103579	16.987544	-0.185429	-102.127721
6.350000	-0.172691	-94.439407	-34.064722	16.876209	-34.064722	16.876209	-0.188075	-102.827643
6.400000	-0.175191	-95.086272	-34.023515	16.774129	-34.023515	16.774129	-0.190787	-103.524742
6.450000	-0.177698	-95.732895	-33.982273	16.672889	-33.982273	16.672889	-0.193507	-104.221585
6.500000	-0.180263	-96.377134	-33.938764	16.578692	-33.938764	16.578692	-0.196288	-104.915932
6.550000	-0.182840	-97.020896	-33.894982	16.485904	-33.894982	16.485904	-0.199083	-105.609780
6.600000	-0.185472	-97.662556	-33.849067	16.398153	-33.849067	16.398153	-0.201936	-106.301448
6.650000	-0.188122	-98.303516	-33.802614	16.312081	-33.802614	16.312081	-0.204808	-106.992388
6.700000	-0.190821	-98.942647	-33.754209	16.229286	-33.754209	16.229286	-0.207732	-107.681450
6.750000	-0.193546	-99.580864	-33.704980	16.148130	-33.704980	16.148130	-0.210683	-108.369573
6.800000	-0.196314	-100.217516	-33.654026	16.068763	-33.654026	16.068763	-0.213680	-109.056105
6.850000	-0.199114	-100.853052	-33.601947	15.990674	-33.601947	15.990674	-0.216711	-109.741502
6.900000	-0.201953	-101.487278	-33.548405	15.913185	-33.548405	15.913185	-0.219782	-110.425582
6.950000	-0.204830	-102.120195	-33.493429	15.836295	-33.493429	15.836295	-0.222894	-111.108346
7.000000	-0.207740	-102.752049	-33.437286	15.759129	-33.437286	15.759129	-0.226041	-111.790054
7.050000	-0.210696	-103.382414	-33.379399	15.681576	-33.379399	15.681576	-0.229236	-112.470282
7.100000	-0.213679	-104.011950	-33.320665	15.603192	-33.320665	15.603192	-0.232460	-113.149698
7.150000	-0.216715	-104.639830	-33.259882	15.523145	-33.259882	15.523145	-0.235739	-113.827490
7.200000	-0.219772	-105.267105	-33.198589	15.442032	-33.198589	15.442032	-0.239040	-114.504697
7.250000	-0.222890	-105.892568	-33.134953	15.357718	-33.134953	15.357718	-0.242405	-115.180151
7.300000	-0.226022	-106.517640	-33.071158	15.272412	-33.071158	15.272412	-0.245785	-115.855234
7.350000	-0.229222	-107.140758	-33.004741	15.182144	-33.004741	15.182144	-0.249237	-116.528454
7.400000	-0.232431	-107.763687	-32.938519	15.091247	-32.938519	15.091247	-0.252697	-117.201498
7.450000	-0.235716	-108.384531	-32.869419	14.993442	-32.869419	14.993442	-0.256236	-117.872589
7.500000	-0.239002	-109.005376	-32.800865	14.895636	-32.800865	14.895636	-0.259778	-118.543681
7.550000	-0.242373	-109.624023	-32.729204	14.788838	-32.729204	14.788838	-0.263407	-119.212750
7.600000	-0.245745	-110.242669	-32.658129	14.682039	-32.658129	14.682039	-0.267037	-119.881819
7.650000	-0.249196	-110.859370	-32.584349	14.565796	-32.584349	14.565796	-0.270750	-120.549134
7.700000	-0.252655	-111.475893	-32.510894	14.448694	-32.510894	14.448694	-0.274471	-121.216290
7.750000	-0.256187	-112.090713	-32.435140	14.322043	-32.435140	14.322043	-0.278267	-121.881943
7.800000	-0.259735	-112.705192	-32.359463	14.193482	-32.359463	14.193482	-0.282080	-122.547296
7.850000	-0.263349	-113.318196	-32.281890	14.055587	-32.281890	14.055587	-0.285962	-123.211381
7.900000	-0.266986	-113.930709	-32.204162	13.914580	-32.204162	13.914580	-0.289868	-123.875044
7.950000	-0.270684	-114.541966	-32.124932	13.764732	-32.124932	13.764732	-0.293836	-124.537656
8.000000	-0.274412	-115.152594	-32.045332	13.610464	-32.045332	13.610464	-0.297836	-125.199743
8.050000	-0.278194	-115.762171	-31.964610	13.448084	-31.964610	13.448084	-0.301891	-125.860979
8.100000	-0.282015	-116.370996	-31.883326	13.279911	-31.883326	13.279911	-0.305986	-126.521607
8.150000	-0.285882	-116.978963	-31.801279	13.104550	-31.801279	13.104550	-0.310129	-127.181565
8.200000	-0.289796	-117.586071	-31.718500	12.922002	-31.718500	12.922002	-0.314320	-127.840853
8.250000	-0.293750	-118.192498	-31.635296	12.733338	-31.635296	12.733338	-0.318552	-128.499632
8.300000	-0.297758	-118.797973	-31.551210	12.536110	-31.551210	12.536110	-0.322840	-129.157699
8.350000	-0.301799	-119.402932	-31.467012	12.333940	-31.467012	12.333940	-0.327162	-129.815401
8.400000	-0.305903	-120.006862	-31.381805	12.121886	-31.381805	12.121886	-0.331548	-130.472370
8.450000	-0.310033	-120.610427	-31.296772	11.906127	-31.296772	11.906127	-0.335960	-131.129096
8.500000	-0.314234	-121.212900	-31.210623	11.679249	-31.210623	11.679249	-0.340445	-131.785092
8.550000	-0.318452	-121.815145	-31.124907	11.449924	-31.124907	11.449924	-0.344948	-132.440947
8.600000	-0.322750	-122.416252	-31.037986	11.208360	-31.037986	11.208360	-0.349532	-133.096095
8.650000	-0.327059	-123.017252	-30.951730	10.965594	-30.951730	10.965594	-0.354127	-133.751184
8.700000	-0.331456	-123.617084	-30.864197	10.709604	-30.864197	10.709604	-0.358812	-134.405613
8.750000	-0.335855	-124.216917	-30.777537	10.453614	-30.777537	10.453614	-0.363499	-135.060042
8.800000	-0.340352	-124.815568	-30.689539	10.183568	-30.689539	10.183568	-0.368284	-135.713882
8.850000	-0.344851	-125.414220	-30.602424	9.913521	-30.602424	9.913521	-0.373073	-136.367722
8.900000	-0.349440	-126.011877	-30.514269	9.631013	-30.514269	9.631013	-0.377952	-137.021143
8.950000	-0.354040	-126.609443	-30.426829	9.347372	-30.426829	9.347372	-0.382842	-137.674526
9.000000	-0.358722	-127.206186	-30.338619	9.052855	-30.338619	9.052855	-0.387815	-138.327641
9.050000	-0.363423	-127.802763	-30.250971	8.756161	-30.250971	8.756161	-0.392808	-138.980701
9.100000	-0.368199	-128.398674	-30.162794	8.450134	-30.162794	8.450134	-0.397875	-139.633622
9.150000	-0.373001	-128.994362	-30.075039	8.140995	-30.075039	8.140995	-0.402970	-140.286496
9.200000	-0.377872	-129.589523	-29.986969	7.823998	-29.986969	7.823998	-0.408133	-140.939338
9.250000	-0.382777	-130.184421	-29.899192	7.503071	-29.899192	7.503071	-0.413331	-141.592164
9.300000	-0.387742	-130.778918	-29.811292	7.175673	-29.811292	7.175673	-0.418588	-142.245044
9.350000	-0.392751	-131.373129	-29.723564	6.843654	-29.723564	6.843654	-0.423889	-142.897963
9.400000	-0.397812	-131.967047	-29.635884	6.506449	-29.635884	6.506449	-0.429242	-143.550999
9.450000	-0.402924	-132.560673	-29.548258	6.164058	-29.548258	6.164058	-0.434647	-144.204154
9.500000	-0.408081	-133.154100	-29.460835	5.817653	-29.460835	5.817653	-0.440095	-144.857467
9.550000	-0.413298	-133.747248	-29.373351	5.465627	-29.373351	5.465627	-0.445603	-145.511002
9.600000	-0.418550	-134.340273	-29.286210	5.110636	-29.286210	5.110636	-0.451147	-146.164713
9.650000	-0.423872	-134.933050	-29.198889	4.749714	-29.198889	4.749714	-0.456759	-146.818777
9.700000	-0.429221	-135.525761	-29.112045	4.386752	-29.112045	4.386752	-0.462398	-147.473010
9.750000	-0.434647	-136.118277	-29.024897	4.017669	-29.024897	4.017669	-0.468113	-148.127751
9.800000	-0.440093	-136.710767	-28.938353	3.647347	-28.938353	3.647347	-0.473847	-148.782631
9.850000	-0.445625	-137.303132	-28.851370	3.270826	-28.851370	3.270826	-0.479665	-149.438204
9.900000	-0.451168	-137.895494	-28.765119	2.893743	-28.765119	2.893743	-0.485495	-150.093858
9.950000	-0.456804	-138.487821	-28.678283	2.510484	-28.678283	2.510484	-0.491416	-150.750415
10.000000	-0.462445	-139.080149	-28.592306	2.127225	-28.592306	2.127225	-0.497340	-151.406973
