! freq	dB(S11)	phase(S11)	dB(S12)	phase(S12)	
!     	dB(S21)	phase(S21)	dB(S22)	phase(S22)	
!S-par simulation data
#  GHz  S  DB  R 50
0.000000	-94.127096	0.000000	-0.000171	0.000000	-0.000171	0.000000	-94.127096	0.000000
0.050000	-53.043055	-90.499541	-0.001599	-0.839410	-0.001599	-0.839410	-53.042034	-90.501727
0.100000	-47.034299	-91.728820	-0.004050	-1.665251	-0.004050	-1.665251	-47.033563	-91.731943
0.150000	-43.526862	-92.742518	-0.005933	-2.483184	-0.005933	-2.483184	-43.526398	-92.745453
0.200000	-41.041528	-93.682309	-0.007276	-3.299078	-0.007276	-3.299078	-41.041251	-93.684544
0.250000	-39.115470	-94.581968	-0.008298	-4.114804	-0.008298	-4.114804	-39.115308	-94.583400
0.300000	-37.542815	-95.459125	-0.009172	-4.930848	-0.009172	-4.930848	-37.542719	-95.459848
0.350000	-36.213917	-96.324547	-0.010002	-5.747213	-0.010002	-5.747213	-36.213860	-96.324692
0.400000	-35.064027	-97.181855	-0.010837	-6.563854	-0.010837	-6.563854	-35.063994	-97.181561
0.450000	-34.050807	-98.034828	-0.011704	-7.380640	-0.011704	-7.380640	-34.050789	-98.034186
0.500000	-33.146194	-98.884180	-0.012626	-8.197514	-0.012626	-8.197514	-33.146186	-98.883272
0.550000	-32.329332	-99.731318	-0.013605	-9.014397	-0.013605	-9.014397	-32.329331	-99.730195
0.600000	-31.585503	-100.576543	-0.014651	-9.831233	-0.014651	-9.831233	-31.585506	-100.575245
0.650000	-30.903085	-101.420326	-0.015763	-10.647978	-0.015763	-10.647978	-30.903092	-101.418879
0.700000	-30.273181	-102.262923	-0.016942	-11.464594	-0.016942	-11.464594	-30.273190	-102.261347
0.750000	-29.688890	-103.104458	-0.018192	-12.281038	-0.018192	-12.281038	-29.688900	-103.102765
0.800000	-29.144150	-103.945173	-0.019504	-13.097303	-0.019504	-13.097303	-29.144161	-103.943371
0.850000	-28.634826	-104.785021	-0.020886	-13.913328	-0.020886	-13.913328	-28.634837	-104.783117
0.900000	-28.156431	-105.624220	-0.022324	-14.729136	-0.022324	-14.729136	-28.156441	-105.622216
0.950000	-27.706261	-106.462696	-0.023826	-15.544666	-0.023826	-15.544666	-27.706271	-106.460595
1.000000	-27.281128	-107.300572	-0.025380	-16.359941	-0.025380	-16.359941	-27.281138	-107.298374
1.050000	-26.878925	-108.137822	-0.026987	-17.174929	-0.026987	-17.174929	-26.878934	-108.135527
1.100000	-26.497556	-108.974471	-0.028642	-17.989628	-0.028642	-17.989628	-26.497565	-108.972079
1.150000	-26.135145	-109.810553	-0.030340	-18.804047	-0.030340	-18.804047	-26.135152	-109.808061
1.200000	-25.790453	-110.646015	-0.032080	-19.618157	-0.032080	-19.618157	-25.790459	-110.643424
1.250000	-25.461649	-111.480951	-0.033854	-20.432004	-0.033854	-20.432004	-25.461655	-111.478259
1.300000	-25.148203	-112.315242	-0.035665	-21.245534	-0.035665	-21.245534	-25.148208	-112.312447
1.350000	-24.848397	-113.149013	-0.037502	-22.058814	-0.037502	-22.058814	-24.848401	-113.146114
1.400000	-24.561768	-113.982181	-0.039366	-22.871812	-0.039366	-22.871812	-24.561772	-113.979176
1.450000	-24.287173	-114.814806	-0.041252	-23.684566	-0.041252	-23.684566	-24.287176	-114.811693
1.500000	-24.023975	-115.646874	-0.043158	-24.497081	-0.043158	-24.497081	-24.023978	-115.643652
1.550000	-23.771546	-116.478386	-0.045082	-25.309365	-0.045082	-25.309365	-23.771548	-116.475053
1.600000	-23.529037	-117.309396	-0.047020	-26.121452	-0.047020	-26.121452	-23.529039	-117.305949
1.650000	-23.296294	-118.139848	-0.048972	-26.933331	-0.048972	-26.933331	-23.296295	-118.136287
1.700000	-23.072628	-118.969794	-0.050936	-27.745033	-0.050936	-27.745033	-23.072630	-118.966116
1.750000	-22.857332	-119.799293	-0.052909	-28.556585	-0.052909	-28.556585	-22.857333	-119.795497
1.800000	-22.650151	-120.628340	-0.054891	-29.367995	-0.054891	-29.367995	-22.650152	-120.624425
1.850000	-22.450696	-121.456962	-0.056881	-30.179277	-0.056881	-30.179277	-22.450697	-121.452924
1.900000	-22.258607	-122.285186	-0.058879	-30.990447	-0.058879	-30.990447	-22.258608	-122.281024
1.950000	-22.073555	-123.113043	-0.060883	-31.801519	-0.060883	-31.801519	-22.073556	-123.108755
2.000000	-21.895234	-123.940566	-0.062892	-32.612506	-0.062892	-32.612506	-21.895236	-123.936151
2.050000	-21.723365	-124.767791	-0.064908	-33.423420	-0.064908	-33.423420	-21.723366	-124.763246
2.100000	-21.557685	-125.594755	-0.066929	-34.234275	-0.066929	-34.234275	-21.557687	-125.590077
2.150000	-21.397956	-126.421495	-0.068955	-35.045080	-0.068955	-35.045080	-21.397957	-126.416684
2.200000	-21.243952	-127.248054	-0.070986	-35.855847	-0.070986	-35.855847	-21.243954	-127.243107
2.250000	-21.095467	-128.074474	-0.073021	-36.666584	-0.073021	-36.666584	-21.095469	-128.069388
2.300000	-20.952307	-128.900798	-0.075061	-37.477303	-0.075061	-37.477303	-20.952310	-128.895571
2.350000	-20.814293	-129.727070	-0.077104	-38.288010	-0.077104	-38.288010	-20.814296	-129.721701
2.400000	-20.681258	-130.553338	-0.079152	-39.098715	-0.079152	-39.098715	-20.681262	-130.547824
2.450000	-20.553046	-131.379649	-0.081202	-39.909426	-0.081202	-39.909426	-20.553050	-131.373987
2.500000	-20.429512	-132.206050	-0.083256	-40.720151	-0.083256	-40.720151	-20.429516	-132.200239
2.550000	-20.310644	-133.032600	-0.085312	-41.530899	-0.085312	-41.530899	-20.310649	-133.026635
2.600000	-20.196192	-133.859343	-0.087370	-42.341676	-0.087370	-42.341676	-20.196197	-133.853223
2.650000	-20.086037	-134.686330	-0.089429	-43.152491	-0.089429	-43.152491	-20.086043	-134.680053
2.700000	-19.980070	-135.513612	-0.091490	-43.963352	-0.091490	-43.963352	-19.980077	-135.507174
2.750000	-19.878188	-136.341240	-0.093551	-44.774266	-0.093551	-44.774266	-19.878195	-136.334638
2.800000	-19.780295	-137.169265	-0.095612	-45.585241	-0.095612	-45.585241	-19.780303	-137.162497
2.850000	-19.686301	-137.997738	-0.097672	-46.396286	-0.097672	-46.396286	-19.686310	-137.990802
2.900000	-19.596123	-138.826713	-0.099730	-47.207409	-0.099730	-47.207409	-19.596132	-138.819604
2.950000	-19.509683	-139.656240	-0.101787	-48.018618	-0.101787	-48.018618	-19.509693	-139.648956
3.000000	-19.426908	-140.486371	-0.103841	-48.829922	-0.103841	-48.829922	-19.426919	-140.478909
3.050000	-19.347731	-141.317159	-0.105891	-49.641331	-0.105891	-49.641331	-19.347742	-141.309515
3.100000	-19.272089	-142.148654	-0.107937	-50.452854	-0.107937	-50.452854	-19.272101	-142.140825
3.150000	-19.199924	-142.980910	-0.109979	-51.264501	-0.109979	-51.264501	-19.199936	-142.972892
3.200000	-19.131181	-143.813976	-0.112015	-52.076281	-0.112015	-52.076281	-19.131194	-143.805766
3.250000	-19.065810	-144.647906	-0.114046	-52.888205	-0.114046	-52.888205	-19.065824	-144.639500
3.300000	-19.003766	-145.482751	-0.116070	-53.700284	-0.116070	-53.700284	-19.003781	-145.474145
3.350000	-18.945005	-146.318561	-0.118086	-54.512528	-0.118086	-54.512528	-18.945021	-146.309751
3.400000	-18.889489	-147.155389	-0.120095	-55.324948	-0.120095	-55.324948	-18.889506	-147.146371
3.450000	-18.837182	-147.993285	-0.122096	-56.137557	-0.122096	-56.137557	-18.837200	-147.984055
3.500000	-18.788052	-148.832301	-0.124088	-56.950365	-0.124088	-56.950365	-18.788071	-148.822855
3.550000	-18.742069	-149.672488	-0.126070	-57.763385	-0.126070	-57.763385	-18.742088	-149.662821
3.600000	-18.699206	-150.513898	-0.128043	-58.576629	-0.128043	-58.576629	-18.699227	-150.504006
3.650000	-18.659441	-151.356583	-0.130005	-59.390109	-0.130005	-59.390109	-18.659463	-151.346459
3.700000	-18.622752	-152.200593	-0.131958	-60.203839	-0.131958	-60.203839	-18.622775	-152.190234
3.750000	-18.589121	-153.045982	-0.133899	-61.017830	-0.133899	-61.017830	-18.589145	-153.035382
3.800000	-18.558661	-153.892865	-0.135828	-61.832110	-0.135828	-61.832110	-18.558686	-153.882019
3.850000	-18.531232	-154.741238	-0.137747	-62.646679	-0.137747	-62.646679	-18.531258	-154.730139
3.900000	-18.506823	-155.591152	-0.139653	-63.461552	-0.139653	-63.461552	-18.506851	-155.579796
3.950000	-18.485426	-156.442664	-0.141549	-64.276741	-0.141549	-64.276741	-18.485456	-156.431043
4.000000	-18.467037	-157.295827	-0.143432	-65.092262	-0.143432	-65.092262	-18.467068	-157.283935
4.050000	-18.451651	-158.150699	-0.145304	-65.908127	-0.145304	-65.908127	-18.451684	-158.138530
4.100000	-18.439268	-159.007336	-0.147164	-66.724351	-0.147164	-66.724351	-18.439303	-158.994884
4.150000	-18.429890	-159.865799	-0.149012	-67.540948	-0.149012	-67.540948	-18.429927	-159.853055
4.200000	-18.423520	-160.726147	-0.150849	-68.357933	-0.150849	-68.357933	-18.423559	-160.713104
4.250000	-18.420165	-161.588442	-0.152675	-69.175320	-0.152675	-69.175320	-18.420206	-161.575093
4.300000	-18.419832	-162.452749	-0.154489	-69.993123	-0.154489	-69.993123	-18.419876	-162.439085
4.350000	-18.422533	-163.319134	-0.156293	-70.811356	-0.156293	-70.811356	-18.422579	-163.305147
4.400000	-18.428281	-164.187665	-0.158087	-71.630035	-0.158087	-71.630035	-18.428330	-164.173346
4.450000	-18.437091	-165.058414	-0.159871	-72.449173	-0.159871	-72.449173	-18.437142	-165.043754
4.500000	-18.448981	-165.931454	-0.161646	-73.268786	-0.161646	-73.268786	-18.449035	-165.916443
4.550000	-18.463971	-166.806864	-0.163412	-74.088887	-0.163412	-74.088887	-18.464029	-166.791492
4.600000	-18.482085	-167.684724	-0.165170	-74.909491	-0.165170	-74.909491	-18.482146	-167.668981
4.650000	-18.503346	-168.565118	-0.166920	-75.730614	-0.166920	-75.730614	-18.503411	-168.548993
4.700000	-18.527785	-169.448136	-0.168664	-76.552268	-0.168664	-76.552268	-18.527853	-169.431617
4.750000	-18.555430	-170.333871	-0.170401	-77.374468	-0.170401	-77.374468	-18.555503	-170.316946
4.800000	-18.586315	-171.222422	-0.172134	-78.197228	-0.172134	-78.197228	-18.586393	-171.205078
4.850000	-18.620478	-172.113891	-0.173863	-79.020563	-0.173863	-79.020563	-18.620560	-172.096116
4.900000	-18.657956	-173.008390	-0.175588	-79.844487	-0.175588	-79.844487	-18.658043	-172.990169
4.950000	-18.698792	-173.906034	-0.177312	-80.669013	-0.177312	-80.669013	-18.698885	-173.887353
5.000000	-18.743033	-174.806946	-0.179034	-81.494154	-0.179034	-81.494154	-18.743132	-174.787789
5.050000	-18.790866	-175.711411	-0.180757	-82.319953	-0.180757	-82.319953	-18.790971	-175.691763
5.100000	-18.842206	-176.619428	-0.182481	-83.146396	-0.182481	-83.146396	-18.842318	-176.599270
5.150000	-18.897109	-177.531146	-0.184208	-83.973496	-0.184208	-83.973496	-18.897228	-177.510461
5.200000	-18.955634	-178.446723	-0.185939	-84.801266	-0.185939	-84.801266	-18.955761	-178.425493
5.250000	-19.017846	-179.366329	-0.187676	-85.629718	-0.187676	-85.629718	-19.017981	-179.344534
5.300000	-19.083815	179.709853	-0.189420	-86.458866	-0.189420	-86.458866	-19.083958	179.732234
5.350000	-19.153611	178.781630	-0.191172	-87.288720	-0.191172	-87.288720	-19.153765	178.804619
5.400000	-19.227315	177.848794	-0.192934	-88.119294	-0.192934	-88.119294	-19.227478	177.872413
5.450000	-19.305008	176.911122	-0.194708	-88.950598	-0.194708	-88.950598	-19.305183	176.935395
5.500000	-19.386780	175.968373	-0.196495	-89.782645	-0.196495	-89.782645	-19.386966	175.993327
5.550000	-19.472725	175.020289	-0.198297	-90.615444	-0.198297	-90.615444	-19.472923	175.045951
5.600000	-19.562943	174.066594	-0.200116	-91.449007	-0.200116	-91.449007	-19.563155	174.092993
5.650000	-19.657542	173.106988	-0.201953	-92.283345	-0.201953	-92.283345	-19.657768	173.134153
5.700000	-19.756636	172.141148	-0.203811	-93.118467	-0.203811	-93.118467	-19.756878	172.169112
5.750000	-19.860347	171.168725	-0.205691	-93.954383	-0.205691	-93.954383	-19.860607	171.197522
5.800000	-19.968806	170.189340	-0.207595	-94.791102	-0.207595	-94.791102	-19.969084	170.219006
5.850000	-20.082151	169.202584	-0.209525	-95.628633	-0.209525	-95.628633	-20.082449	169.233157
5.900000	-20.200531	168.208011	-0.211484	-96.466986	-0.211484	-96.466986	-20.200850	168.239533
5.950000	-20.324104	167.205137	-0.213472	-97.306167	-0.213472	-97.306167	-20.324446	167.237652
6.000000	-20.453039	166.193436	-0.215493	-98.146185	-0.215493	-98.146185	-20.453407	166.226990
6.050000	-20.587520	165.172331	-0.217548	-98.987048	-0.217548	-98.987048	-20.587915	165.206974
6.100000	-20.727739	164.141194	-0.219639	-99.828762	-0.219639	-99.828762	-20.728164	164.176979
6.150000	-20.873905	163.099335	-0.221769	-100.671334	-0.221769	-100.671334	-20.874363	163.136319
6.200000	-21.026242	162.045999	-0.223940	-101.514769	-0.223940	-101.514769	-21.026735	162.084242
6.250000	-21.184989	160.980353	-0.226154	-102.359074	-0.226154	-102.359074	-21.185522	161.019921
6.300000	-21.350565	159.900857	-0.228415	-103.204292	-0.228415	-103.204292	-21.351141	159.941824
6.350000	-21.523088	158.807018	-0.230724	-104.050389	-0.230724	-104.050389	-21.523712	158.849461
6.400000	-21.702860	157.697697	-0.233083	-104.897371	-0.233083	-104.897371	-21.703535	157.741698
6.450000	-21.890201	156.571628	-0.235494	-105.745240	-0.235494	-105.745240	-21.890934	156.617275
6.500000	-22.085461	155.427399	-0.237959	-106.593999	-0.237959	-106.593999	-22.086258	155.474789
6.550000	-22.289016	154.263432	-0.240482	-107.443653	-0.240482	-107.443653	-22.289884	154.312669
6.600000	-22.501275	153.077958	-0.243063	-108.294202	-0.243063	-108.294202	-22.502221	153.129155
6.650000	-22.722680	151.868989	-0.245706	-109.145648	-0.245706	-109.145648	-22.723714	151.922269
6.700000	-22.953712	150.634278	-0.248413	-109.997993	-0.248413	-109.997993	-22.954844	150.689776
6.750000	-23.194892	149.371284	-0.251186	-110.851237	-0.251186	-110.851237	-23.196134	149.429146
6.800000	-23.446789	148.077118	-0.254028	-111.705381	-0.254028	-111.705381	-23.448154	148.137504
6.850000	-23.710021	146.748483	-0.256940	-112.560424	-0.256940	-112.560424	-23.711526	146.811569
6.900000	-23.985264	145.381603	-0.259926	-113.416365	-0.259926	-113.416365	-23.986927	145.447581
6.950000	-24.273255	143.972133	-0.262987	-114.273204	-0.262987	-114.273204	-24.275098	144.041215
7.000000	-24.574799	142.515051	-0.266126	-115.130937	-0.266126	-115.130937	-24.576846	142.587469
7.050000	-24.890776	141.004527	-0.269344	-115.989563	-0.269344	-115.989563	-24.893058	141.080538
7.100000	-25.221875	139.439822	-0.272638	-116.849001	-0.272638	-116.849001	-25.224426	139.519680
7.150000	-25.569741	137.800844	-0.276025	-117.709413	-0.276025	-117.709413	-25.572603	137.884889
7.200000	-25.935190	136.084140	-0.279498	-118.570707	-0.279498	-118.570707	-25.938414	136.172716
7.250000	-26.319460	134.278517	-0.283060	-119.432878	-0.283060	-119.432878	-26.323107	134.372001
7.300000	-26.723885	132.370616	-0.286714	-120.295923	-0.286714	-120.295923	-26.728029	132.469422
7.350000	-27.149888	130.344406	-0.290461	-121.159834	-0.290461	-121.159834	-27.154618	130.448985
7.400000	-27.598966	128.180535	-0.294303	-122.024606	-0.294303	-122.024606	-27.604393	128.291371
7.450000	-28.072654	125.855506	-0.298243	-122.890233	-0.298243	-122.890233	-28.078914	125.973114
7.500000	-28.572461	123.340643	-0.302282	-123.756707	-0.302282	-123.756707	-28.579724	123.465551
7.550000	-29.099643	120.594893	-0.306426	-124.624038	-0.306426	-124.624038	-29.108123	120.727628
7.600000	-29.655221	117.578432	-0.310673	-125.492202	-0.310673	-125.492202	-29.665184	117.719446
7.650000	-30.239532	114.237125	-0.315026	-126.361188	-0.315026	-126.361188	-30.251312	114.386724
7.700000	-30.851748	110.504501	-0.319486	-127.230987	-0.319486	-127.230987	-30.865763	110.662700
7.750000	-31.489079	106.299795	-0.324055	-128.101591	-0.324055	-128.101591	-31.505846	106.466090
7.800000	-32.145558	101.527055	-0.328735	-128.972989	-0.328735	-128.972989	-32.165700	101.700063
7.850000	-32.810285	96.077117	-0.333529	-129.845170	-0.333529	-129.845170	-32.834522	96.254055
7.900000	-33.465135	89.835754	-0.338436	-130.718125	-0.338436	-130.718125	-33.494224	90.011757
7.950000	-34.071355	82.610208	-0.343471	-131.591914	-0.343471	-131.591914	-34.105918	82.776618
8.000000	-34.606574	74.528780	-0.348613	-132.466387	-0.348613	-132.466387	-34.646895	74.675484
8.050000	-35.016253	65.574946	-0.353875	-133.341596	-0.353875	-133.341596	-35.061928	65.689242
8.100000	-35.252700	55.953569	-0.359257	-134.217531	-0.359257	-134.217531	-35.302394	56.023457
8.150000	-35.281940	46.014325	-0.364760	-135.094176	-0.364760	-135.094176	-35.333473	46.032183
8.200000	-35.096567	36.186463	-0.370387	-135.971521	-0.370387	-135.971521	-35.147417	36.151719
8.250000	-34.718862	26.870610	-0.376138	-136.849549	-0.376138	-136.849549	-34.766849	26.789605
8.300000	-34.191778	18.346374	-0.382014	-137.728249	-0.382014	-137.728249	-34.235510	18.229633
8.350000	-33.564437	10.740796	-0.388016	-138.607604	-0.388016	-138.607604	-33.603361	10.599635
8.400000	-32.880651	4.054522	-0.394146	-139.487601	-0.394146	-139.487601	-32.914832	3.898724
8.450000	-32.173834	-1.788428	-0.400404	-140.368224	-0.400404	-140.368224	-32.203680	-1.951478
8.500000	-31.466842	-6.896508	-0.406791	-141.249457	-0.406791	-141.249457	-31.492894	-7.061719
8.550000	-30.774029	-11.382548	-0.413308	-142.131287	-0.413308	-142.131287	-30.796836	-11.546637
8.600000	-30.103688	-15.349818	-0.419955	-143.013695	-0.419955	-143.013695	-30.123753	-15.510795
8.650000	-29.460098	-18.887021	-0.426733	-143.896667	-0.426733	-143.896667	-29.477855	-19.043762
8.700000	-28.845000	-22.067875	-0.433642	-144.780186	-0.433642	-144.780186	-28.860814	-22.219817
8.750000	-28.258599	-24.952637	-0.440683	-145.664236	-0.440683	-145.664236	-28.272773	-25.099570
8.800000	-27.699892	-27.581316	-0.447861	-146.548820	-0.447861	-146.548820	-27.712677	-27.723253
8.850000	-27.168175	-30.005302	-0.455172	-147.433899	-0.455172	-147.433899	-27.179775	-30.142383
8.900000	-26.661978	-32.255960	-0.462615	-148.319457	-0.462615	-148.319457	-26.672563	-32.388394
8.950000	-26.179765	-34.358936	-0.470190	-149.205475	-0.470190	-149.205475	-26.189474	-34.486965
9.000000	-25.720014	-36.335294	-0.477898	-150.091936	-0.477898	-150.091936	-25.728963	-36.459174
9.050000	-25.281264	-38.202430	-0.485737	-150.978823	-0.485737	-150.978823	-25.289552	-38.322418
9.100000	-24.862138	-39.974790	-0.493709	-151.866119	-0.493709	-151.866119	-24.869846	-40.091136
9.150000	-24.461354	-41.664433	-0.501811	-152.753805	-0.501811	-152.753805	-24.468551	-41.777377
9.200000	-24.077725	-43.281488	-0.510045	-153.641863	-0.510045	-153.641863	-24.084471	-43.391254
9.250000	-23.710161	-44.834499	-0.518408	-154.530277	-0.518408	-154.530277	-23.716506	-44.941299
9.300000	-23.357661	-46.330717	-0.526902	-155.419028	-0.526902	-155.419028	-23.363649	-46.434748
9.350000	-23.019307	-47.776322	-0.535524	-156.308099	-0.535524	-156.308099	-23.024975	-47.877768
9.400000	-22.694259	-49.176607	-0.544275	-157.197472	-0.544275	-157.197472	-22.699640	-49.275636
9.450000	-22.381746	-50.536125	-0.553152	-158.087129	-0.553152	-158.087129	-22.386870	-50.632893
9.500000	-22.081065	-51.858806	-0.562156	-158.977052	-0.562156	-158.977052	-22.085955	-51.953458
9.550000	-21.791565	-53.148058	-0.571285	-159.867225	-0.571285	-159.867225	-21.796245	-53.240729
9.600000	-21.512654	-54.406847	-0.580537	-160.757630	-0.580537	-160.757630	-21.517142	-54.497660
9.650000	-21.243783	-55.637761	-0.589912	-161.648249	-0.589912	-161.648249	-21.248097	-55.726831
9.700000	-20.984447	-56.843066	-0.599408	-162.539065	-0.599408	-162.539065	-20.988604	-56.930499
9.750000	-20.734183	-58.024752	-0.609023	-163.430062	-0.609023	-163.430062	-20.738195	-58.110646
9.800000	-20.492558	-59.184570	-0.618757	-164.321222	-0.618757	-164.321222	-20.496439	-59.269018
9.850000	-20.259175	-60.324068	-0.628606	-165.212529	-0.628606	-165.212529	-20.262936	-60.407154
9.900000	-20.033663	-61.444613	-0.638571	-166.103967	-0.638571	-166.103967	-20.037314	-61.526415
9.950000	-19.815680	-62.547417	-0.648647	-166.995519	-0.648647	-166.995519	-19.819231	-62.628009
10.000000	-19.604905	-63.633557	-0.658835	-167.887170	-0.658835	-167.887170	-19.608364	-63.713008
