! freq	dB(S11)	phase(S11)	dB(S12)	phase(S12)	
!     	dB(S21)	phase(S21)	dB(S22)	phase(S22)	
!S-par simulation data
#  GHz  S  DB  R 50
0.000000	-0.000000	0.000000	-336.160675	0.000000	-336.160675	0.000000	-0.000000	0.000000
0.050000	-0.000110	-0.896192	-68.803205	88.261364	-68.803205	88.261364	-0.000110	-0.896189
0.100000	-0.000436	-1.792119	-62.878436	87.002735	-62.878436	87.002735	-0.000436	-1.792113
0.150000	-0.000965	-2.687534	-59.435542	86.087999	-59.435542	86.087999	-0.000965	-2.687525
0.200000	-0.001677	-3.582229	-56.990640	85.298534	-56.990640	85.298534	-0.001677	-3.582217
0.250000	-0.002561	-4.475966	-55.089197	84.535560	-55.089197	84.535560	-0.002561	-4.475951
0.300000	-0.003576	-5.368693	-53.531844	83.765171	-53.531844	83.765171	-0.003576	-5.368675
0.350000	-0.004704	-6.260276	-52.213256	82.980674	-52.213256	82.980674	-0.004704	-6.260255
0.400000	-0.005920	-7.150653	-51.070397	82.181873	-51.070397	82.181873	-0.005920	-7.150628
0.450000	-0.007201	-8.039791	-50.062473	81.370830	-50.062473	81.370830	-0.007201	-8.039764
0.500000	-0.008528	-8.927686	-49.161520	80.549909	-49.161520	80.549909	-0.008528	-8.927655
0.550000	-0.009884	-9.814346	-48.347508	79.721213	-48.347508	79.721213	-0.009884	-9.814312
0.600000	-0.011254	-10.699793	-47.605595	78.886482	-47.605595	78.886482	-0.011254	-10.699756
0.650000	-0.012628	-11.584057	-46.924475	78.047122	-46.924475	78.047122	-0.012628	-11.584016
0.700000	-0.013997	-12.467164	-46.295334	77.204261	-46.295334	77.204261	-0.013997	-12.467121
0.750000	-0.015356	-13.349144	-45.711170	76.358815	-45.711170	76.358815	-0.015356	-13.349097
0.800000	-0.016700	-14.230021	-45.166325	75.511530	-45.166325	75.511530	-0.016700	-14.229971
0.850000	-0.018027	-15.109814	-44.656165	74.663023	-44.656165	74.663023	-0.018027	-15.109761
0.900000	-0.019336	-15.988537	-44.176844	73.813813	-44.176844	73.813813	-0.019336	-15.988481
0.950000	-0.020626	-16.866201	-43.725137	72.964338	-43.725137	72.964338	-0.020626	-16.866141
1.000000	-0.021898	-17.742807	-43.298310	72.114976	-43.298310	72.114976	-0.021898	-17.742744
1.050000	-0.023152	-18.618354	-42.894029	71.266058	-42.894029	71.266058	-0.023151	-18.618288
1.100000	-0.024389	-19.492837	-42.510284	70.417875	-42.510284	70.417875	-0.024389	-19.492768
1.150000	-0.025611	-20.366246	-42.145328	69.570685	-42.145328	69.570685	-0.025611	-20.366173
1.200000	-0.026818	-21.238567	-41.797639	68.724726	-41.797639	68.724726	-0.026818	-21.238491
1.250000	-0.028014	-22.109785	-41.465878	67.880211	-41.465878	67.880211	-0.028013	-22.109705
1.300000	-0.029197	-22.979831	-41.148979	67.037418	-41.148979	67.037418	-0.029197	-22.979747
1.350000	-0.030371	-23.848732	-40.845776	66.196467	-40.845776	66.196467	-0.030370	-23.848645
1.400000	-0.031535	-24.716466	-40.555333	65.357528	-40.555333	65.357528	-0.031535	-24.716376
1.450000	-0.032693	-25.583011	-40.276813	64.520764	-40.276813	64.520764	-0.032692	-25.582917
1.500000	-0.033843	-26.448342	-40.009460	63.686328	-40.009460	63.686328	-0.033843	-26.448244
1.550000	-0.034989	-27.312434	-39.752595	62.854366	-39.752595	62.854366	-0.034989	-27.312332
1.600000	-0.036129	-28.175262	-39.505600	62.025021	-39.505600	62.025021	-0.036129	-28.175157
1.650000	-0.037266	-29.036801	-39.267914	61.198428	-39.267914	61.198428	-0.037266	-29.036692
1.700000	-0.038400	-29.897026	-39.039026	60.374719	-39.039026	60.374719	-0.038399	-29.896913
1.750000	-0.039531	-30.755910	-38.818467	59.554022	-38.818467	59.554022	-0.039531	-30.755794
1.800000	-0.040660	-31.613430	-38.605810	58.736463	-38.605810	58.736463	-0.040660	-31.613310
1.850000	-0.041788	-32.469560	-38.400658	57.922163	-38.400658	57.922163	-0.041788	-32.469436
1.900000	-0.042915	-33.324275	-38.202648	57.111243	-38.202648	57.111243	-0.042915	-33.324147
1.950000	-0.044042	-34.177552	-38.011443	56.303819	-38.011443	56.303819	-0.044042	-34.177419
2.000000	-0.045169	-35.029365	-37.826730	55.500006	-37.826730	55.500006	-0.045168	-35.029229
2.050000	-0.046296	-35.879693	-37.648222	54.699919	-37.648222	54.699919	-0.046296	-35.879552
2.100000	-0.047424	-36.728511	-37.475646	53.903668	-37.475646	53.903668	-0.047424	-36.728366
2.150000	-0.048554	-37.575798	-37.308753	53.111365	-37.308753	53.111365	-0.048553	-37.575649
2.200000	-0.049684	-38.421532	-37.147307	52.323117	-37.147307	52.323117	-0.049684	-38.421378
2.250000	-0.050817	-39.265691	-36.991089	51.539033	-36.991089	51.539033	-0.050817	-39.265533
2.300000	-0.051953	-40.108254	-36.839890	50.759219	-36.839890	50.759219	-0.051952	-40.108092
2.350000	-0.053090	-40.949203	-36.693518	49.983780	-36.693518	49.983780	-0.053090	-40.949036
2.400000	-0.054231	-41.788516	-36.551790	49.212821	-36.551790	49.212821	-0.054231	-41.788344
2.450000	-0.055375	-42.626174	-36.414532	48.446444	-36.414532	48.446444	-0.055374	-42.625999
2.500000	-0.056522	-43.462161	-36.281584	47.684751	-36.281584	47.684751	-0.056522	-43.461980
2.550000	-0.057673	-44.296383	-36.152883	46.928056	-36.152883	46.928056	-0.057673	-44.296197
2.600000	-0.058829	-45.128895	-36.028188	46.176257	-36.028188	46.176257	-0.058829	-45.128705
2.650000	-0.059989	-45.959682	-35.907361	45.429451	-35.907361	45.429451	-0.059989	-45.959487
2.700000	-0.061154	-46.788728	-35.790269	44.687737	-35.790269	44.687737	-0.061154	-46.788528
2.750000	-0.062324	-47.616016	-35.676786	43.951213	-35.676786	43.951213	-0.062324	-47.615811
2.800000	-0.063500	-48.441533	-35.566793	43.219974	-35.566793	43.219974	-0.063500	-48.441323
2.850000	-0.064682	-49.265264	-35.460176	42.494117	-35.460176	42.494117	-0.064682	-49.265048
2.900000	-0.065870	-50.087195	-35.356824	41.773736	-35.356824	41.773736	-0.065870	-50.086975
2.950000	-0.067065	-50.907314	-35.256633	41.058925	-35.256633	41.058925	-0.067065	-50.907089
3.000000	-0.068267	-51.725609	-35.159502	40.349777	-35.159502	40.349777	-0.068267	-51.725378
3.050000	-0.069476	-52.542067	-35.065335	39.646383	-35.065335	39.646383	-0.069476	-52.541830
3.100000	-0.070693	-53.356677	-34.974039	38.948835	-34.974039	38.948835	-0.070693	-53.356434
3.150000	-0.071919	-54.169428	-34.885524	38.257222	-34.885524	38.257222	-0.071918	-54.169181
3.200000	-0.073153	-54.980312	-34.799704	37.571635	-34.799704	37.571635	-0.073152	-54.980058
3.250000	-0.074396	-55.789317	-34.716495	36.892160	-34.716495	36.892160	-0.074395	-55.789058
3.300000	-0.075648	-56.596436	-34.635818	36.218885	-34.635818	36.218885	-0.075647	-56.596170
3.350000	-0.076912	-57.401327	-34.557885	35.553015	-34.557885	35.553015	-0.076911	-57.401056
3.400000	-0.078187	-58.204233	-34.482397	34.893796	-34.482397	34.893796	-0.078186	-58.203956
3.450000	-0.079467	-59.006140	-34.408410	34.237977	-34.408410	34.237977	-0.079467	-59.005857
3.500000	-0.080765	-59.805050	-34.337583	33.592362	-34.337583	33.592362	-0.080764	-59.804760
3.550000	-0.082067	-60.603289	-34.267872	32.949073	-34.267872	32.949073	-0.082066	-60.602993
3.600000	-0.083389	-61.398176	-34.201415	32.317416	-34.201415	32.317416	-0.083389	-61.397874
3.650000	-0.084714	-62.192727	-34.135721	31.686950	-34.135721	31.686950	-0.084713	-62.192419
3.700000	-0.086063	-62.983572	-34.073356	31.069593	-34.073356	31.069593	-0.086062	-62.983257
3.750000	-0.087412	-63.774418	-34.011435	30.452236	-34.011435	30.452236	-0.087412	-63.774096
3.800000	-0.088790	-64.561205	-33.952896	29.849508	-33.952896	29.849508	-0.088789	-64.560877
3.850000	-0.090168	-65.347993	-33.894748	29.246781	-33.894748	29.246781	-0.090167	-65.347658
3.900000	-0.091574	-66.131051	-33.839543	28.657752	-33.839543	28.657752	-0.091573	-66.130709
3.950000	-0.092982	-66.913771	-33.784918	28.069968	-33.784918	28.069968	-0.092982	-66.913422
4.000000	-0.094418	-67.693096	-33.732827	27.494888	-33.732827	27.494888	-0.094417	-67.692740
4.050000	-0.095859	-68.471742	-33.681482	26.922348	-33.681482	26.922348	-0.095858	-68.471379
4.100000	-0.097325	-69.247332	-33.632289	26.361453	-33.632289	26.361453	-0.097325	-69.246962
4.150000	-0.098801	-70.021904	-33.583987	25.804439	-33.583987	25.804439	-0.098800	-70.021527
4.200000	-0.100300	-70.793763	-33.537486	25.257950	-33.537486	25.257950	-0.100299	-70.793378
4.250000	-0.101812	-71.564265	-33.491996	24.716724	-33.491996	24.716724	-0.101811	-71.563872
4.300000	-0.103346	-72.332398	-33.447984	24.184848	-33.447984	24.184848	-0.103345	-72.331997
4.350000	-0.104896	-73.098838	-33.405078	23.659650	-33.405078	23.659650	-0.104895	-73.098430
4.400000	-0.106466	-73.863255	-33.363359	23.142574	-33.363359	23.142574	-0.106465	-73.862839
4.450000	-0.108057	-74.625648	-33.322811	22.633620	-33.322811	22.633620	-0.108056	-74.625224
4.500000	-0.109664	-75.386361	-33.283191	22.131512	-33.283191	22.131512	-0.109663	-75.385929
4.550000	-0.111297	-76.144724	-33.244781	21.638989	-33.244781	21.638989	-0.111296	-76.144284
4.600000	-0.112944	-76.901750	-33.207070	21.151995	-33.207070	21.151995	-0.112943	-76.901302
4.650000	-0.114620	-77.656104	-33.170577	20.676059	-33.170577	20.676059	-0.114619	-77.655648
4.700000	-0.116308	-78.409463	-33.134586	20.204299	-33.134586	20.204299	-0.116307	-78.408998
4.750000	-0.118031	-79.159836	-33.099791	19.745071	-33.099791	19.745071	-0.118030	-79.159362
4.800000	-0.119761	-79.909550	-33.065335	19.288641	-33.065335	19.288641	-0.119760	-79.909067
4.850000	-0.121532	-80.655971	-33.032019	18.846201	-33.032019	18.846201	-0.121530	-80.655480
4.900000	-0.123306	-81.402065	-32.998914	18.405164	-32.998914	18.405164	-0.123305	-81.401565
4.950000	-0.125126	-82.144570	-32.966858	17.979550	-32.966858	17.979550	-0.125125	-82.144061
5.000000	-0.126946	-82.887074	-32.934920	17.553936	-32.934920	17.553936	-0.126945	-82.886556
5.050000	-0.128818	-83.625700	-32.903907	17.145134	-32.903907	17.145134	-0.128816	-83.625173
5.100000	-0.130690	-84.364326	-32.873004	16.736332	-32.873004	16.736332	-0.130688	-84.363789
5.150000	-0.132610	-85.099435	-32.842765	16.342880	-32.842765	16.342880	-0.132608	-85.098889
5.200000	-0.134535	-85.834225	-32.812682	15.950823	-32.812682	15.950823	-0.134534	-85.833669
5.250000	-0.136506	-86.565857	-32.783034	15.572613	-32.783034	15.572613	-0.136504	-86.565291
5.300000	-0.138486	-87.296856	-32.753553	15.197173	-32.753553	15.197173	-0.138485	-87.296281
5.350000	-0.140509	-88.025051	-32.724314	14.834051	-32.724314	14.834051	-0.140508	-88.024465
5.400000	-0.142547	-88.752310	-32.695219	14.475034	-32.695219	14.475034	-0.142545	-88.751714
5.450000	-0.144623	-89.477110	-32.666208	14.126789	-32.666208	14.126789	-0.144621	-89.476505
5.500000	-0.146719	-90.200682	-32.637285	13.783930	-32.637285	13.783930	-0.146717	-90.200066
5.550000	-0.148850	-90.922135	-32.608321	13.450296	-32.608321	13.450296	-0.148848	-90.921509
5.600000	-0.151007	-91.642076	-32.579356	13.123252	-32.579356	13.123252	-0.151005	-91.641439
5.650000	-0.153195	-92.360231	-32.550263	12.803903	-32.550263	12.803903	-0.153193	-92.359583
5.700000	-0.155413	-93.076600	-32.521044	12.492249	-32.521044	12.492249	-0.155411	-93.075941
5.750000	-0.157659	-93.791507	-32.491647	12.186795	-32.491647	12.186795	-0.157657	-93.790838
5.800000	-0.159942	-94.504368	-32.461965	11.890020	-32.461965	11.890020	-0.159940	-94.503687
5.850000	-0.162246	-95.216081	-32.432093	11.598004	-32.432093	11.598004	-0.162244	-95.215389
5.900000	-0.164595	-95.925499	-32.401743	11.315505	-32.401743	11.315505	-0.164593	-95.924796
5.950000	-0.166960	-96.634074	-32.371228	11.036402	-32.371228	11.036402	-0.166958	-96.633359
6.000000	-0.169376	-97.340119	-32.340011	10.767485	-32.340011	10.767485	-0.169374	-97.339392
6.050000	-0.171804	-98.045613	-32.308692	10.500699	-32.308692	10.500699	-0.171801	-98.044875
6.100000	-0.174288	-98.748356	-32.276417	10.244572	-32.276417	10.244572	-0.174286	-98.747606
6.150000	-0.176779	-99.450830	-32.244137	9.989438	-32.244137	9.989438	-0.176777	-99.450068
6.200000	-0.179334	-100.150346	-32.210620	9.745216	-32.210620	9.745216	-0.179332	-100.149571
6.250000	-0.181890	-100.849861	-32.177232	9.500995	-32.177232	9.500995	-0.181888	-100.849075
6.300000	-0.184518	-101.546227	-32.142300	9.267702	-32.142300	9.267702	-0.184515	-101.545428
6.350000	-0.187146	-102.242593	-32.107508	9.034408	-32.107508	9.034408	-0.187143	-102.241782
6.400000	-0.189841	-102.936145	-32.071156	8.810152	-32.071156	8.810152	-0.189838	-102.935321
6.450000	-0.192543	-103.629442	-32.034801	8.586718	-32.034801	8.586718	-0.192540	-103.628604
6.500000	-0.195307	-104.320248	-31.996910	8.370542	-31.996910	8.370542	-0.195304	-104.319398
6.550000	-0.198084	-105.010557	-31.958848	8.155818	-31.958848	8.155818	-0.198081	-105.009694
6.600000	-0.200918	-105.698689	-31.919313	7.946705	-31.919313	7.946705	-0.200915	-105.697812
6.650000	-0.203772	-106.386096	-31.879414	7.739463	-31.879414	7.739463	-0.203769	-106.385205
6.700000	-0.206678	-107.071626	-31.838144	7.536349	-31.838144	7.536349	-0.206675	-107.070721
6.750000	-0.209610	-107.756217	-31.796295	7.335298	-31.796295	7.335298	-0.209607	-107.755299
6.800000	-0.212589	-108.439219	-31.753213	7.137074	-31.753213	7.137074	-0.212586	-108.438287
6.850000	-0.215601	-109.121085	-31.709323	6.940870	-31.709323	6.940870	-0.215598	-109.120138
6.900000	-0.218654	-109.801634	-31.664366	6.746396	-31.664366	6.746396	-0.218651	-109.800673
6.950000	-0.221748	-110.480867	-31.618361	6.553654	-31.618361	6.553654	-0.221744	-110.479892
7.000000	-0.224876	-111.159042	-31.571486	6.361768	-31.571486	6.361768	-0.224872	-111.158051
7.050000	-0.228052	-111.835735	-31.523314	6.171080	-31.523314	6.171080	-0.228049	-111.834730
7.100000	-0.231257	-112.511614	-31.474492	5.980606	-31.474492	5.980606	-0.231253	-112.510594
7.150000	-0.234517	-113.185864	-31.424121	5.790560	-31.424121	5.790560	-0.234514	-113.184829
7.200000	-0.237800	-113.859529	-31.373341	5.600322	-31.373341	5.600322	-0.237796	-113.858478
7.250000	-0.241145	-114.531435	-31.320764	5.409513	-31.320764	5.409513	-0.241142	-114.530368
7.300000	-0.244507	-115.202966	-31.268029	5.218348	-31.268029	5.218348	-0.244503	-115.201884
7.350000	-0.247939	-115.872628	-31.213258	5.025403	-31.213258	5.025403	-0.247935	-115.871530
7.400000	-0.251381	-116.542111	-31.158592	4.832169	-31.158592	4.832169	-0.251377	-116.540997
7.450000	-0.254902	-117.209632	-31.101660	4.635761	-31.101660	4.635761	-0.254897	-117.208501
7.500000	-0.258424	-117.877152	-31.045100	4.439352	-31.045100	4.439352	-0.258420	-117.876005
7.550000	-0.262034	-118.542635	-30.986061	4.238217	-30.986061	4.238217	-0.262030	-118.541471
7.600000	-0.265646	-119.208118	-30.927421	4.037082	-30.927421	4.037082	-0.265642	-119.206937
7.650000	-0.269340	-119.871831	-30.866585	3.830529	-30.866585	3.830529	-0.269335	-119.870633
7.700000	-0.273043	-120.535384	-30.805938	3.623484	-30.805938	3.623484	-0.273038	-120.534168
7.750000	-0.276821	-121.197418	-30.743386	3.410606	-30.743386	3.410606	-0.276816	-121.196184
7.800000	-0.280615	-121.859148	-30.680821	3.196561	-30.680821	3.196561	-0.280611	-121.857897
7.850000	-0.284479	-122.519594	-30.616648	2.976528	-30.616648	2.976528	-0.284474	-122.518325
7.900000	-0.288367	-123.179612	-30.552267	2.754499	-30.552267	2.754499	-0.288362	-123.178325
7.950000	-0.292317	-123.838564	-30.486577	2.526568	-30.486577	2.526568	-0.292312	-123.837259
8.000000	-0.296299	-124.496983	-30.420495	2.295686	-30.420495	2.295686	-0.296294	-124.495659
8.050000	-0.300337	-125.154535	-30.353397	2.059205	-30.353397	2.059205	-0.300331	-125.153192
8.100000	-0.304414	-125.811468	-30.285739	1.818725	-30.285739	1.818725	-0.304409	-125.810106
8.150000	-0.308540	-126.467717	-30.217349	1.573137	-30.217349	1.573137	-0.308535	-126.466335
8.200000	-0.312714	-127.123280	-30.148248	1.322439	-30.148248	1.322439	-0.312709	-127.121879
8.250000	-0.316929	-127.778323	-30.078685	1.067281	-30.078685	1.067281	-0.316924	-127.776902
8.300000	-0.321201	-128.432635	-30.008277	0.805876	-30.008277	0.805876	-0.321195	-128.431194
8.350000	-0.325506	-129.086570	-29.937662	0.540782	-29.937662	0.540782	-0.325500	-129.085108
8.400000	-0.329876	-129.739750	-29.866085	0.268309	-29.866085	0.268309	-0.329870	-129.738268
8.450000	-0.334272	-130.392678	-29.794540	-0.006991	-29.794540	-0.006991	-0.334266	-130.391176
8.500000	-0.338742	-131.044849	-29.721932	-0.290769	-29.721932	-0.290769	-0.338735	-131.043325
8.550000	-0.343229	-131.696872	-29.649575	-0.576450	-29.649575	-0.576450	-0.343223	-131.695327
8.600000	-0.347799	-132.348156	-29.576072	-0.871650	-29.576072	-0.871650	-0.347793	-132.346589
8.650000	-0.352379	-132.999377	-29.503019	-1.167801	-29.503019	-1.167801	-0.352373	-132.997789
8.700000	-0.357050	-133.649901	-29.428752	-1.474425	-29.428752	-1.474425	-0.357043	-133.648290
8.750000	-0.361723	-134.300425	-29.355114	-1.781048	-29.355114	-1.781048	-0.361716	-134.298792
8.800000	-0.366496	-134.950315	-29.280206	-2.098994	-29.280206	-2.098994	-0.366489	-134.948660
8.850000	-0.371271	-135.600206	-29.205939	-2.416940	-29.205939	-2.416940	-0.371264	-135.598528
8.900000	-0.376138	-136.249636	-29.130656	-2.745085	-29.130656	-2.745085	-0.376131	-136.247934
8.950000	-0.381016	-136.899023	-29.055872	-3.074158	-29.055872	-3.074158	-0.381008	-136.897298
9.000000	-0.385978	-137.548101	-28.980304	-3.412267	-28.980304	-3.412267	-0.385970	-137.546352
9.050000	-0.390959	-138.197117	-28.905107	-3.752185	-28.905107	-3.752185	-0.390951	-138.195343
9.100000	-0.396016	-138.845954	-28.829336	-4.099970	-28.829336	-4.099970	-0.396008	-138.844156
9.150000	-0.401100	-139.494732	-28.753818	-4.450379	-28.753818	-4.450379	-0.401093	-139.492909
9.200000	-0.406254	-140.143442	-28.677916	-4.807504	-28.677916	-4.807504	-0.406245	-140.141594
9.250000	-0.411442	-140.792117	-28.602158	-5.167987	-28.602158	-5.167987	-0.411434	-140.790244
9.300000	-0.416691	-141.440814	-28.526186	-5.534074	-28.526186	-5.534074	-0.416683	-141.438915
9.350000	-0.421985	-142.089526	-28.450256	-5.904165	-28.450256	-5.904165	-0.421976	-142.087601
9.400000	-0.427330	-142.738325	-28.374265	-6.278807	-28.374265	-6.278807	-0.427322	-142.736374
9.450000	-0.432728	-143.387213	-28.298219	-6.658000	-28.298219	-6.658000	-0.432720	-143.385235
9.500000	-0.438171	-144.036233	-28.222250	-7.040762	-28.222250	-7.040762	-0.438162	-144.034228
9.550000	-0.443674	-144.685439	-28.146130	-7.428521	-28.146130	-7.428521	-0.443665	-144.683407
9.600000	-0.449213	-145.334800	-28.070214	-7.818950	-28.070214	-7.818950	-0.449204	-145.332740
9.650000	-0.454821	-145.984469	-27.994048	-8.214722	-27.994048	-8.214722	-0.454811	-145.982381
9.700000	-0.460457	-146.634292	-27.918205	-8.612356	-27.918205	-8.612356	-0.460447	-146.632175
9.750000	-0.466170	-147.284571	-27.842009	-9.015578	-27.842009	-9.015578	-0.466160	-147.282426
9.800000	-0.471903	-147.934978	-27.766249	-9.419947	-27.766249	-9.419947	-0.471893	-147.932804
9.850000	-0.477720	-148.586018	-27.690026	-9.830054	-27.690026	-9.830054	-0.477710	-148.583814
9.900000	-0.483550	-149.237134	-27.614351	-10.240690	-27.614351	-10.240690	-0.483540	-149.234900
9.950000	-0.489472	-149.889086	-27.538090	-10.657128	-27.538090	-10.657128	-0.489462	-149.886821
10.000000	-0.495398	-150.541038	-27.462492	-11.073566	-27.462492	-11.073566	-0.495388	-150.538743
