! freq	dB(S11)	phase(S11)	dB(S12)	phase(S12)	
!     	dB(S21)	phase(S21)	dB(S22)	phase(S22)	
!S-par simulation data
#  GHz  S  DB  R 50
0.000000	-0.000000	0.000000	-328.789915	0.000000	-328.789915	0.000000	-0.000000	0.000000
0.050000	-0.000104	-0.838313	-70.203738	87.981512	-70.203738	87.981512	-0.000103	-0.836360
0.100000	-0.000411	-1.676378	-64.320157	86.839814	-64.320157	86.839814	-0.000409	-1.672473
0.150000	-0.000909	-2.513963	-60.888726	86.114032	-60.888726	86.114032	-0.000905	-2.508109
0.200000	-0.001580	-3.350877	-58.443224	85.466992	-58.443224	85.466992	-0.001573	-3.343077
0.250000	-0.002411	-4.186899	-56.538302	84.805173	-56.538302	84.805173	-0.002400	-4.177158
0.300000	-0.003364	-5.021985	-54.977578	84.115749	-54.977578	84.115749	-0.003348	-5.010307
0.350000	-0.004421	-5.856015	-53.656118	83.400596	-53.656118	83.400596	-0.004400	-5.842407
0.400000	-0.005559	-6.688939	-52.510899	82.665077	-52.510899	82.665077	-0.005534	-6.673406
0.450000	-0.006756	-7.520734	-51.501020	81.914086	-51.501020	81.914086	-0.006726	-7.503281
0.500000	-0.007995	-8.351400	-50.598407	81.151452	-50.598407	81.151452	-0.007959	-8.332033
0.550000	-0.009258	-9.180954	-49.782944	80.380060	-49.782944	80.380060	-0.009217	-9.159678
0.600000	-0.010534	-10.009423	-49.039725	79.602075	-49.039725	79.602075	-0.010488	-9.986243
0.650000	-0.011812	-10.836837	-48.357395	78.819138	-48.357395	78.819138	-0.011760	-10.811758
0.700000	-0.013084	-11.663230	-47.727109	78.032513	-47.727109	78.032513	-0.013028	-11.636257
0.750000	-0.014346	-12.488631	-47.141837	77.243190	-47.141837	77.243190	-0.014285	-12.459769
0.800000	-0.015594	-13.313067	-46.595906	76.451957	-46.595906	76.451957	-0.015528	-13.282320
0.850000	-0.016826	-14.136560	-46.084666	75.659455	-46.084666	75.659455	-0.016755	-14.103932
0.900000	-0.018041	-14.959126	-45.604261	74.866211	-45.604261	74.866211	-0.017965	-14.924622
0.950000	-0.019238	-15.780777	-45.151459	74.072668	-45.151459	74.072668	-0.019157	-15.744401
1.000000	-0.020418	-16.601517	-44.723521	73.279203	-44.723521	73.279203	-0.020333	-16.563275
1.050000	-0.021583	-17.421350	-44.318106	72.486144	-44.318106	72.486144	-0.021493	-17.381244
1.100000	-0.022732	-18.240270	-43.933202	71.693777	-43.933202	71.693777	-0.022638	-18.198306
1.150000	-0.023867	-19.058272	-43.567060	70.902356	-43.567060	70.902356	-0.023769	-19.014455
1.200000	-0.024990	-19.875345	-43.218155	70.112112	-43.218155	70.112112	-0.024888	-19.829679
1.250000	-0.026102	-20.691478	-42.885147	69.323253	-42.885147	69.323253	-0.025996	-20.643968
1.300000	-0.027203	-21.506611	-42.566961	68.536048	-42.566961	68.536048	-0.027093	-21.457263
1.350000	-0.028296	-22.320771	-42.262439	67.750613	-42.262439	67.750613	-0.028182	-22.269588
1.400000	-0.029381	-23.133938	-41.970644	66.967116	-41.970644	66.967116	-0.029263	-23.080926
1.450000	-0.030460	-23.946092	-41.690736	66.185711	-41.690736	66.185711	-0.030337	-23.891257
1.500000	-0.031533	-24.757214	-41.421963	65.406549	-41.421963	65.406549	-0.031406	-24.700561
1.550000	-0.032601	-25.567283	-41.163642	64.629771	-41.163642	64.629771	-0.032471	-25.508818
1.600000	-0.033666	-26.376278	-40.915157	63.855515	-40.915157	63.855515	-0.033531	-26.316005
1.650000	-0.034727	-27.184176	-40.675947	63.083913	-40.675947	63.083913	-0.034589	-27.122103
1.700000	-0.035785	-27.990558	-40.446342	62.316120	-40.446342	62.316120	-0.035643	-27.926691
1.750000	-0.036842	-28.796349	-40.223864	61.549823	-40.223864	61.549823	-0.036696	-28.730692
1.800000	-0.037898	-29.600716	-40.009796	60.787273	-40.009796	60.787273	-0.037748	-29.533277
1.850000	-0.038953	-30.404066	-39.802869	60.027400	-39.802869	60.027400	-0.038799	-30.334849
1.900000	-0.040007	-31.206150	-39.603176	59.270995	-39.603176	59.270995	-0.039849	-31.135162
1.950000	-0.041061	-32.006966	-39.410337	58.518058	-39.410337	58.518058	-0.040899	-31.934214
2.000000	-0.042116	-32.806689	-39.223678	57.768217	-39.223678	57.768217	-0.041950	-32.732179
2.050000	-0.043171	-33.604882	-39.043674	57.022711	-39.043674	57.022711	-0.043002	-33.528621
2.100000	-0.044227	-34.402401	-38.868497	56.279164	-38.868497	56.279164	-0.044054	-34.324392
2.150000	-0.045285	-35.198169	-38.699765	55.540723	-38.699765	55.540723	-0.045108	-35.118423
2.200000	-0.046344	-35.992614	-38.536452	54.806216	-38.536452	54.806216	-0.046163	-35.911136
2.250000	-0.047405	-36.785716	-38.378339	54.075751	-38.378339	54.075751	-0.047221	-36.702513
2.300000	-0.048469	-37.577456	-38.225221	53.349435	-38.225221	53.349435	-0.048281	-37.492535
2.350000	-0.049536	-38.367817	-38.076903	52.627372	-38.076903	52.627372	-0.049343	-38.281185
2.400000	-0.050605	-39.156781	-37.933204	51.909668	-37.933204	51.909668	-0.050409	-39.068445
2.450000	-0.051677	-39.944331	-37.793952	51.196427	-37.793952	51.196427	-0.051477	-39.854299
2.500000	-0.052753	-40.730451	-37.658986	50.487751	-37.658986	50.487751	-0.052549	-40.638729
2.550000	-0.053834	-41.515061	-37.528242	49.783952	-37.528242	49.783952	-0.053626	-41.421656
2.600000	-0.054918	-42.298207	-37.401483	49.084932	-37.401483	49.084932	-0.054706	-42.203127
2.650000	-0.056007	-43.079874	-37.278571	48.390794	-37.278571	48.390794	-0.055791	-42.983126
2.700000	-0.057100	-43.860048	-37.159375	47.701637	-37.159375	47.701637	-0.056881	-43.761639
2.750000	-0.058199	-44.638714	-37.043770	47.017562	-37.043770	47.017562	-0.057975	-44.538652
2.800000	-0.059303	-45.415859	-36.931636	46.338668	-36.931636	46.338668	-0.059076	-45.314150
2.850000	-0.060413	-46.191468	-36.822862	45.665055	-36.822862	45.665055	-0.060182	-46.088121
2.900000	-0.061529	-46.965530	-36.717337	44.996821	-36.717337	44.996821	-0.061294	-46.860552
2.950000	-0.062651	-47.738032	-36.614957	44.334064	-36.614957	44.334064	-0.062412	-47.631429
3.000000	-0.063780	-48.508961	-36.515623	43.676881	-36.515623	43.676881	-0.063538	-48.400742
3.050000	-0.064917	-49.278307	-36.419240	43.025369	-36.419240	43.025369	-0.064670	-49.168478
3.100000	-0.066060	-50.046059	-36.325714	42.379624	-36.325714	42.379624	-0.065810	-49.934627
3.150000	-0.067212	-50.812204	-36.234957	41.739741	-36.234957	41.739741	-0.066958	-50.699178
3.200000	-0.068372	-51.576735	-36.146883	41.105815	-36.146883	41.105815	-0.068114	-51.462121
3.250000	-0.069541	-52.339640	-36.061410	40.477941	-36.061410	40.477941	-0.069279	-52.223446
3.300000	-0.070719	-53.100911	-35.978457	39.856212	-35.978457	39.856212	-0.070452	-52.983144
3.350000	-0.071907	-53.860250	-35.898231	39.241832	-35.898231	39.241832	-0.071637	-53.740919
3.400000	-0.073106	-54.617866	-35.820439	38.634060	-35.820439	38.634060	-0.072832	-54.496978
3.450000	-0.074311	-55.374613	-35.744163	38.029674	-35.744163	38.029674	-0.074032	-55.252172
3.500000	-0.075532	-56.128753	-35.671011	37.435446	-35.671011	37.435446	-0.075249	-56.004771
3.550000	-0.076756	-56.882310	-35.598999	36.843541	-35.598999	36.843541	-0.076470	-56.756788
3.600000	-0.078001	-57.632946	-35.530199	36.263245	-35.530199	36.263245	-0.077710	-57.505897
3.650000	-0.079248	-58.383287	-35.462192	35.684142	-35.462192	35.684142	-0.078953	-58.254713
3.700000	-0.080517	-59.130393	-35.397468	35.118158	-35.397468	35.118158	-0.080218	-59.000306
3.750000	-0.081787	-59.877498	-35.333222	34.552174	-35.333222	34.552174	-0.081484	-59.745900
3.800000	-0.083084	-60.621051	-35.272309	34.000868	-35.272309	34.000868	-0.082777	-60.487955
3.850000	-0.084381	-61.364604	-35.211819	33.449562	-35.211819	33.449562	-0.084069	-61.230010
3.900000	-0.085705	-62.104885	-35.154232	32.912037	-35.154232	32.912037	-0.085389	-61.968807
3.950000	-0.087031	-62.844868	-35.097249	32.375766	-35.097249	32.375766	-0.086710	-62.707306
4.000000	-0.088382	-63.581865	-35.042766	31.852307	-35.042766	31.852307	-0.088057	-63.442832
4.050000	-0.089739	-64.318265	-34.989047	31.331410	-34.989047	31.331410	-0.089409	-64.177762
4.100000	-0.091120	-65.051970	-34.937453	30.822289	-34.937453	30.822289	-0.090786	-64.910008
4.150000	-0.092509	-65.784776	-34.886759	30.317092	-34.886759	30.317092	-0.092171	-65.641358
4.200000	-0.093921	-66.515184	-34.837845	29.822566	-34.837845	29.822566	-0.093578	-66.370319
4.250000	-0.095345	-67.244391	-34.789944	29.333375	-34.789944	29.333375	-0.094997	-67.098084
4.300000	-0.096789	-67.971498	-34.743505	28.853686	-34.743505	28.853686	-0.096437	-67.823756
4.350000	-0.098249	-68.697105	-34.698167	28.380785	-34.698167	28.380785	-0.097892	-68.547933
4.400000	-0.099728	-69.420912	-34.654005	27.916158	-34.654005	27.916158	-0.099366	-69.270317
4.450000	-0.101225	-70.142919	-34.611001	27.459805	-34.611001	27.459805	-0.100859	-69.990908
4.500000	-0.102740	-70.863429	-34.568918	27.010443	-34.568918	27.010443	-0.102369	-70.710006
4.550000	-0.104277	-71.581843	-34.528024	26.570869	-34.528024	26.570869	-0.103902	-71.427016
4.600000	-0.105829	-72.299062	-34.487826	26.136953	-34.487826	26.136953	-0.105448	-72.142834
4.650000	-0.107408	-73.013891	-34.448816	25.714354	-34.448816	25.714354	-0.107022	-72.856271
4.700000	-0.108998	-73.727828	-34.410311	25.296039	-34.410311	25.296039	-0.108607	-73.568818
4.750000	-0.110620	-74.439086	-34.372961	24.890576	-34.372961	24.890576	-0.110225	-74.278694
4.800000	-0.112251	-75.149751	-34.335957	24.487987	-34.335957	24.487987	-0.111850	-74.987980
4.850000	-0.113918	-75.857454	-34.300041	24.099775	-34.300041	24.099775	-0.113513	-75.694312
4.900000	-0.115590	-76.564862	-34.264349	23.713007	-34.264349	23.713007	-0.115179	-76.400351
4.950000	-0.117305	-77.269029	-34.229641	23.342115	-34.229641	23.342115	-0.116889	-77.103158
5.000000	-0.119020	-77.973196	-34.195072	22.971224	-34.195072	22.971224	-0.118598	-77.805965
5.050000	-0.120784	-78.673851	-34.161347	22.617668	-34.161347	22.617668	-0.120356	-78.505270
5.100000	-0.122547	-79.374506	-34.127752	22.264113	-34.127752	22.264113	-0.122115	-79.204575
5.150000	-0.124357	-80.071966	-34.094741	21.926406	-34.094741	21.926406	-0.123919	-79.900693
5.200000	-0.126171	-80.769135	-34.061897	21.590141	-34.061897	21.590141	-0.125728	-80.596522
5.250000	-0.128029	-81.463423	-34.029409	21.268192	-34.029409	21.268192	-0.127580	-81.289477
5.300000	-0.129896	-82.157136	-33.997088	20.949105	-33.997088	20.949105	-0.129440	-81.981858
5.350000	-0.131803	-82.848282	-33.964932	20.642765	-33.964932	20.642765	-0.131342	-82.671678
5.400000	-0.133723	-83.538571	-33.932910	20.340673	-33.932910	20.340673	-0.133256	-83.360644
5.450000	-0.135681	-84.226602	-33.900896	20.049735	-33.900896	20.049735	-0.135208	-84.047357
5.500000	-0.137657	-84.913504	-33.868946	19.764375	-33.868946	19.764375	-0.137178	-84.732943
5.550000	-0.139667	-85.598452	-33.836887	19.488571	-33.836887	19.488571	-0.139182	-85.416579
5.600000	-0.141701	-86.282005	-33.804785	19.219592	-33.804785	19.219592	-0.141210	-86.098824
5.650000	-0.143764	-86.963904	-33.772494	18.958585	-33.772494	18.958585	-0.143267	-86.779418
5.700000	-0.145857	-87.644150	-33.740017	18.705549	-33.740017	18.705549	-0.145354	-87.458361
5.750000	-0.147976	-88.323036	-33.707310	18.458933	-33.707310	18.458933	-0.147466	-88.135948
5.800000	-0.150130	-89.000020	-33.674238	18.221304	-33.674238	18.221304	-0.149613	-88.811635
5.850000	-0.152305	-89.675931	-33.640936	17.988598	-33.640936	17.988598	-0.151782	-89.486252
5.900000	-0.154521	-90.349699	-33.607054	17.765740	-33.607054	17.765740	-0.153992	-90.158729
5.950000	-0.156754	-91.022675	-33.572981	17.546390	-33.572981	17.546390	-0.156218	-90.830416
6.000000	-0.159034	-91.693277	-33.538079	17.337565	-33.538079	17.337565	-0.158492	-91.499732
6.050000	-0.161326	-92.363361	-33.503066	17.130937	-33.503066	17.130937	-0.160777	-92.168530
6.100000	-0.163672	-93.030850	-33.466942	16.935302	-33.466942	16.935302	-0.163116	-92.834737
6.150000	-0.166025	-93.698085	-33.430825	16.740687	-33.430825	16.740687	-0.165462	-93.500690
6.200000	-0.168439	-94.362516	-33.393288	16.557295	-33.393288	16.557295	-0.167869	-94.163842
6.250000	-0.170853	-95.026947	-33.355913	16.373904	-33.355913	16.373904	-0.170276	-94.826994
6.300000	-0.173336	-95.688377	-33.316782	16.201710	-33.316782	16.201710	-0.172752	-95.487149
6.350000	-0.175820	-96.349808	-33.277826	16.029516	-33.277826	16.029516	-0.175229	-96.147303
6.400000	-0.178368	-97.008542	-33.237109	15.866540	-33.237109	15.866540	-0.177769	-96.804763
6.450000	-0.180922	-97.667032	-33.196408	15.704401	-33.196408	15.704401	-0.180316	-97.461978
6.500000	-0.183536	-98.323122	-33.153985	15.549615	-33.153985	15.549615	-0.182923	-98.116795
6.550000	-0.186163	-98.978733	-33.111389	15.396299	-33.111389	15.396299	-0.185542	-98.771133
6.600000	-0.188844	-99.632233	-33.067152	15.248618	-33.067152	15.248618	-0.188216	-99.423360
6.650000	-0.191544	-100.285029	-33.022528	15.102814	-33.022528	15.102814	-0.190908	-100.074884
6.700000	-0.194295	-100.935993	-32.976386	14.961100	-32.976386	14.961100	-0.193651	-100.724575
6.750000	-0.197071	-101.586041	-32.929620	14.821431	-32.929620	14.821431	-0.196419	-101.373351
6.800000	-0.199891	-102.234526	-32.881497	14.684504	-32.881497	14.684504	-0.199231	-102.020562
6.850000	-0.202744	-102.881895	-32.832497	14.549536	-32.832497	14.549536	-0.202076	-102.666657
6.900000	-0.205636	-103.527959	-32.782333	14.416184	-32.782333	14.416184	-0.204960	-103.311447
6.950000	-0.208567	-104.172719	-32.731028	14.284448	-32.731028	14.284448	-0.207883	-103.954931
7.000000	-0.211531	-104.816422	-32.678783	14.153439	-32.678783	14.153439	-0.210839	-104.597358
7.050000	-0.214542	-105.458646	-32.625123	14.023446	-32.625123	14.023446	-0.213842	-105.238304
7.100000	-0.217581	-106.100049	-32.570774	13.893537	-32.570774	13.893537	-0.216872	-105.878428
7.150000	-0.220673	-106.739811	-32.514735	13.763797	-32.514735	13.763797	-0.219956	-106.516910
7.200000	-0.223786	-107.378977	-32.458276	13.633751	-32.458276	13.633751	-0.223061	-107.154794
7.250000	-0.226961	-108.016354	-32.399856	13.502789	-32.399856	13.502789	-0.226227	-107.790886
7.300000	-0.230151	-108.653347	-32.341299	13.371385	-32.341299	13.371385	-0.229408	-108.426593
7.350000	-0.233411	-109.288418	-32.280519	13.237767	-32.280519	13.237767	-0.232659	-109.060374
7.400000	-0.236678	-109.923304	-32.219896	13.103814	-32.219896	13.103814	-0.235917	-109.693969
7.450000	-0.240023	-110.556148	-32.156797	12.966161	-32.156797	12.966161	-0.239253	-110.325519
7.500000	-0.243369	-111.188993	-32.094154	12.828509	-32.094154	12.828509	-0.242591	-110.957068
7.550000	-0.246801	-111.819694	-32.028800	12.685516	-32.028800	12.685516	-0.246013	-111.586467
7.600000	-0.250234	-112.450395	-31.963935	12.542524	-31.963935	12.542524	-0.249437	-112.215866
7.650000	-0.253747	-113.079207	-31.896674	12.393523	-31.896674	12.393523	-0.252941	-112.843371
7.700000	-0.257268	-113.707848	-31.829670	12.243976	-31.829670	12.243976	-0.256453	-113.470703
7.750000	-0.260863	-114.334844	-31.760594	12.088041	-31.760594	12.088041	-0.260039	-114.096383
7.800000	-0.264475	-114.961510	-31.691551	11.930829	-31.691551	11.930829	-0.263640	-114.721732
7.850000	-0.268153	-115.586761	-31.620765	11.767123	-31.620765	11.767123	-0.267309	-115.345660
7.900000	-0.271855	-116.211541	-31.549795	11.601252	-31.549795	11.601252	-0.271002	-115.969114
7.950000	-0.275618	-116.835122	-31.477413	11.429030	-31.477413	11.429030	-0.274755	-116.591363
8.000000	-0.279412	-117.458104	-31.404643	11.253632	-31.404643	11.253632	-0.278539	-117.213009
8.050000	-0.283261	-118.080090	-31.330785	11.072246	-31.330785	11.072246	-0.282378	-117.833654
8.100000	-0.287148	-118.701365	-31.256351	10.886584	-31.256351	10.886584	-0.286255	-118.453583
8.150000	-0.291083	-119.321833	-31.181142	10.695489	-31.181142	10.695489	-0.290180	-119.072700
8.200000	-0.295065	-119.941494	-31.105185	10.498962	-31.105185	10.498962	-0.294152	-119.691004
8.250000	-0.299087	-120.560522	-31.028755	10.297714	-31.028755	10.297714	-0.298164	-120.308669
8.300000	-0.303165	-121.178663	-30.951420	10.089856	-30.951420	10.089856	-0.302231	-120.925441
8.350000	-0.307276	-121.796330	-30.873898	9.878112	-30.873898	9.878112	-0.306332	-121.541734
8.400000	-0.311450	-122.413048	-30.795334	9.658593	-30.795334	9.658593	-0.310496	-122.157068
8.450000	-0.315650	-123.029434	-30.716848	9.436110	-30.716848	9.436110	-0.314685	-122.772068
8.500000	-0.319923	-123.644826	-30.637201	9.204732	-30.637201	9.204732	-0.318947	-123.386063
8.550000	-0.324213	-124.260013	-30.557878	8.971364	-30.557878	8.971364	-0.323226	-123.999851
8.600000	-0.328584	-124.874178	-30.477290	8.728050	-30.477290	8.728050	-0.327587	-124.612605
8.650000	-0.332965	-125.488250	-30.397253	8.483744	-30.397253	8.483744	-0.331957	-125.225264
8.700000	-0.337436	-126.101290	-30.315863	8.228536	-30.315863	8.228536	-0.336417	-125.836876
8.750000	-0.341909	-126.714331	-30.235228	7.973327	-30.235228	7.973327	-0.340879	-126.448489
8.800000	-0.346481	-127.326349	-30.153164	7.706373	-30.153164	7.706373	-0.345439	-127.059063
8.850000	-0.351055	-127.938368	-30.071869	7.439419	-30.071869	7.439419	-0.350002	-127.669637
8.900000	-0.355720	-128.549545	-29.989427	7.161923	-29.989427	7.161923	-0.354656	-128.279354
8.950000	-0.360395	-129.160647	-29.907589	6.883470	-29.907589	6.883470	-0.359320	-128.888993
9.000000	-0.365154	-129.771073	-29.824864	6.595709	-29.824864	6.595709	-0.364068	-129.497941
9.050000	-0.369932	-130.381363	-29.742593	6.306088	-29.742593	6.306088	-0.368834	-130.106751
9.100000	-0.374786	-130.991128	-29.659670	6.008396	-29.659670	6.008396	-0.373676	-130.715019
9.150000	-0.379666	-131.600717	-29.577061	5.708014	-29.577061	5.708014	-0.378546	-131.323107
9.200000	-0.384616	-132.209911	-29.494016	5.400771	-29.494016	5.400771	-0.383483	-131.930787
9.250000	-0.389600	-132.818908	-29.411155	5.090099	-29.411155	5.090099	-0.388456	-132.538263
9.300000	-0.394645	-133.427626	-29.328051	4.773729	-29.328051	4.773729	-0.393489	-133.145446
9.350000	-0.399734	-134.036144	-29.245009	4.453289	-29.245009	4.453289	-0.398566	-133.752421
9.400000	-0.404875	-134.644480	-29.161901	4.128247	-29.161901	4.128247	-0.403695	-134.359202
9.450000	-0.410069	-135.252633	-29.078737	3.798603	-29.078737	3.798603	-0.408877	-134.965789
9.500000	-0.415307	-135.860682	-28.995669	3.465371	-28.995669	3.465371	-0.414103	-135.572263
9.550000	-0.420606	-136.468586	-28.912427	3.127117	-28.912427	3.127117	-0.419390	-136.178577
9.600000	-0.425941	-137.076447	-28.829431	2.786198	-28.829431	2.786198	-0.424713	-136.784840
9.650000	-0.431346	-137.684221	-28.746143	2.439948	-28.746143	2.439948	-0.430105	-137.390999
9.700000	-0.436778	-138.291993	-28.663243	2.091856	-28.663243	2.091856	-0.435525	-137.997150
9.750000	-0.442288	-138.899757	-28.579927	1.738237	-28.579927	1.738237	-0.441023	-138.603273
9.800000	-0.447819	-139.507540	-28.497134	1.383495	-28.497134	1.383495	-0.446541	-139.209411
9.850000	-0.453435	-140.115417	-28.413795	1.023137	-28.413795	1.023137	-0.452144	-139.815620
9.900000	-0.459063	-140.723314	-28.331112	0.662268	-28.331112	0.662268	-0.457760	-140.421847
9.950000	-0.464785	-141.331428	-28.247741	0.295795	-28.247741	0.295795	-0.463469	-141.028266
10.000000	-0.470511	-141.939543	-28.165162	-0.070679	-28.165162	-0.070679	-0.469183	-141.634685
