! freq	dB(S11)	phase(S11)	dB(S12)	phase(S12)	
!     	dB(S21)	phase(S21)	dB(S22)	phase(S22)	
!S-par simulation data
#  GHz  S  DB  R 50
0.000000	-0.000000	0.000000	-330.758501	0.000000	-330.758501	0.000000	-0.000000	0.000000
0.050000	-0.000115	-0.935765	-65.107667	88.941757	-65.107667	88.941757	-0.000111	-0.904695
0.100000	-0.000455	-1.871253	-59.097010	87.899459	-59.097010	87.899459	-0.000441	-1.809123
0.150000	-0.001009	-2.806207	-55.589758	86.883649	-55.589758	86.883649	-0.000977	-2.713037
0.200000	-0.001754	-3.740409	-53.108102	85.897422	-53.108102	85.897422	-0.001699	-3.616228
0.250000	-0.002680	-4.673608	-51.188503	84.940361	-51.188503	84.940361	-0.002595	-4.518456
0.300000	-0.003745	-5.605747	-49.623043	84.004835	-49.623043	84.004835	-0.003625	-5.419666
0.350000	-0.004930	-6.536681	-48.301712	83.086582	-48.301712	83.086582	-0.004771	-6.319724
0.400000	-0.006209	-7.466342	-47.158721	82.180686	-47.158721	82.180686	-0.006007	-7.218565
0.450000	-0.007559	-8.394690	-46.151777	81.283255	-46.151777	81.283255	-0.007312	-8.116155
0.500000	-0.008959	-9.321714	-45.252118	80.391432	-45.252118	80.391432	-0.008664	-9.012488
0.550000	-0.010392	-10.247422	-44.439302	79.503232	-44.439302	79.503232	-0.010047	-9.907571
0.600000	-0.011842	-11.171830	-43.698288	78.617334	-43.698288	78.617334	-0.011447	-10.801427
0.650000	-0.013298	-12.094964	-43.017678	77.732894	-43.017678	77.732894	-0.012852	-11.694080
0.700000	-0.014751	-13.016851	-42.388632	76.849401	-42.388632	76.849401	-0.014254	-12.585562
0.750000	-0.016195	-13.937518	-41.804146	75.966570	-41.804146	75.966570	-0.015647	-13.475898
0.800000	-0.017625	-14.856987	-41.258579	75.084268	-41.258579	75.084268	-0.017027	-14.365113
0.850000	-0.019038	-15.775277	-40.747315	74.202463	-40.747315	74.202463	-0.018390	-15.253227
0.900000	-0.020434	-16.692401	-40.266533	73.321184	-40.266533	73.321184	-0.019737	-16.140253
0.950000	-0.021810	-17.608366	-39.813028	72.440506	-39.813028	72.440506	-0.021066	-17.026202
1.000000	-0.023169	-18.523175	-39.384086	71.560526	-39.384086	71.560526	-0.022377	-17.911076
1.050000	-0.024509	-19.436823	-38.977391	70.681358	-38.977391	70.681358	-0.023672	-18.794873
1.100000	-0.025833	-20.349305	-38.590946	69.803123	-38.590946	69.803123	-0.024951	-19.677588
1.150000	-0.027141	-21.260607	-38.223020	68.925947	-38.223020	68.925947	-0.026215	-20.559211
1.200000	-0.028436	-22.170716	-37.872101	68.049955	-37.872101	68.049955	-0.027466	-21.439728
1.250000	-0.029717	-23.079612	-37.536860	67.175273	-37.536860	67.175273	-0.028706	-22.319123
1.300000	-0.030987	-23.987220	-37.216217	66.302090	-37.216217	66.302090	-0.029934	-23.197328
1.350000	-0.032247	-24.893571	-36.909035	65.430471	-36.909035	65.430471	-0.031153	-24.074370
1.400000	-0.033498	-25.798640	-36.614386	64.560530	-36.614386	64.560530	-0.032365	-24.950226
1.450000	-0.034742	-26.702401	-36.331435	63.692381	-36.331435	63.692381	-0.033569	-25.824873
1.500000	-0.035980	-27.604828	-36.059434	62.826133	-36.059434	62.826133	-0.034768	-26.698288
1.550000	-0.037212	-28.505894	-35.797705	61.961894	-35.797705	61.961894	-0.035962	-27.570444
1.600000	-0.038440	-29.405571	-35.545634	61.099765	-35.545634	61.099765	-0.037152	-28.441317
1.650000	-0.039664	-30.303833	-35.302664	60.239849	-35.302664	60.239849	-0.038339	-29.310881
1.700000	-0.040886	-31.200651	-35.068286	59.382241	-35.068286	59.382241	-0.039524	-30.179111
1.750000	-0.042105	-32.095998	-34.842033	58.527037	-34.842033	58.527037	-0.040706	-31.045980
1.800000	-0.043323	-32.989847	-34.623479	57.674329	-34.623479	57.674329	-0.041888	-31.911464
1.850000	-0.044540	-33.882171	-34.412230	56.824207	-34.412230	56.824207	-0.043069	-32.775538
1.900000	-0.045757	-34.772943	-34.207924	55.976758	-34.207924	55.976758	-0.044249	-33.638175
1.950000	-0.046974	-35.662137	-34.010225	55.132068	-34.010225	55.132068	-0.045430	-34.499353
2.000000	-0.048191	-36.549728	-33.818823	54.290220	-33.818823	54.290220	-0.046612	-35.359048
2.050000	-0.049409	-37.435690	-33.633429	53.451294	-33.633429	53.451294	-0.047794	-36.217235
2.100000	-0.050628	-38.320000	-33.453775	52.615371	-33.453775	52.615371	-0.048978	-37.073891
2.150000	-0.051849	-39.202633	-33.279610	51.782528	-33.279610	51.782528	-0.050164	-37.928995
2.200000	-0.053072	-40.083566	-33.110700	50.952839	-33.110700	50.952839	-0.051352	-38.782524
2.250000	-0.054297	-40.962778	-32.946827	50.126380	-32.946827	50.126380	-0.052542	-39.634457
2.300000	-0.055525	-41.840245	-32.787784	49.303223	-32.787784	49.303223	-0.053734	-40.484774
2.350000	-0.056755	-42.715947	-32.633380	48.483437	-32.633380	48.483437	-0.054930	-41.333453
2.400000	-0.057989	-43.589864	-32.483432	47.667093	-32.483432	47.667093	-0.056129	-42.180477
2.450000	-0.059227	-44.461976	-32.337769	46.854257	-32.337769	46.854257	-0.057331	-43.025825
2.500000	-0.060468	-45.332264	-32.196230	46.044996	-32.196230	46.044996	-0.058537	-43.869480
2.550000	-0.061713	-46.200628	-32.058737	45.239534	-32.058737	45.239534	-0.059748	-44.711348
2.600000	-0.062964	-47.067131	-31.925067	44.437780	-31.925067	44.437780	-0.060963	-45.551487
2.650000	-0.064219	-47.931755	-31.795085	43.639794	-31.795085	43.639794	-0.062183	-46.389880
2.700000	-0.065479	-48.794486	-31.668660	42.845637	-31.668660	42.845637	-0.063407	-47.226511
2.750000	-0.066744	-49.655307	-31.545669	42.055366	-31.545669	42.055366	-0.064637	-48.061366
2.800000	-0.068016	-50.514203	-31.425992	41.269039	-31.425992	41.269039	-0.065873	-48.894429
2.850000	-0.069293	-51.371161	-31.309519	40.486710	-31.309519	40.486710	-0.067115	-49.725688
2.900000	-0.070577	-52.226168	-31.196141	39.708435	-31.196141	39.708435	-0.068363	-50.555128
2.950000	-0.071868	-53.079211	-31.085756	38.934265	-31.085756	38.934265	-0.069618	-51.382738
3.000000	-0.073167	-53.930279	-30.978267	38.164252	-30.978267	38.164252	-0.070880	-52.208505
3.050000	-0.074472	-54.779359	-30.873578	37.398447	-30.873578	37.398447	-0.072149	-53.032418
3.100000	-0.075786	-55.626443	-30.771601	36.636896	-30.771601	36.636896	-0.073426	-53.854466
3.150000	-0.077109	-56.471519	-30.672248	35.879648	-30.672248	35.879648	-0.074712	-54.674639
3.200000	-0.078440	-57.314579	-30.575437	35.126747	-30.575437	35.126747	-0.076006	-55.492928
3.250000	-0.079780	-58.155615	-30.481087	34.378239	-30.481087	34.378239	-0.077308	-56.309323
3.300000	-0.081130	-58.994619	-30.389121	33.634166	-30.389121	33.634166	-0.078621	-57.123816
3.350000	-0.082490	-59.831584	-30.299466	32.894569	-30.299466	32.894569	-0.079942	-57.936400
3.400000	-0.083860	-60.666504	-30.212049	32.159489	-30.212049	32.159489	-0.081274	-58.747068
3.450000	-0.085241	-61.499372	-30.126802	31.428964	-30.126802	31.428964	-0.082617	-59.555812
3.500000	-0.086634	-62.330184	-30.043657	30.703032	-30.043657	30.703032	-0.083970	-60.362627
3.550000	-0.088038	-63.158936	-29.962550	29.981728	-29.962550	29.981728	-0.085335	-61.167507
3.600000	-0.089455	-63.985624	-29.883418	29.265086	-29.883418	29.265086	-0.086712	-61.970449
3.650000	-0.090884	-64.810244	-29.806200	28.553140	-29.806200	28.553140	-0.088100	-62.771446
3.700000	-0.092326	-65.632794	-29.730838	27.845921	-29.730838	27.845921	-0.089502	-63.570497
3.750000	-0.093781	-66.453273	-29.657273	27.143460	-29.657273	27.143460	-0.090916	-64.367597
3.800000	-0.095251	-67.271590	-29.585499	26.445993	-29.585499	26.445993	-0.092345	-65.162660
3.850000	-0.096736	-68.087833	-29.515411	25.753342	-29.515411	25.753342	-0.093788	-65.955768
3.900000	-0.098236	-68.902003	-29.446957	25.065532	-29.446957	25.065532	-0.095245	-66.746920
3.950000	-0.099750	-69.714101	-29.380083	24.382586	-29.380083	24.382586	-0.096716	-67.536114
4.000000	-0.101281	-70.524128	-29.314742	23.704528	-29.314742	23.704528	-0.098204	-68.323352
4.050000	-0.102828	-71.332086	-29.250883	23.031378	-29.250883	23.031378	-0.099707	-69.108633
4.100000	-0.104392	-72.137978	-29.188459	22.363156	-29.188459	22.363156	-0.101226	-69.891958
4.150000	-0.105972	-72.941807	-29.127424	21.699879	-29.127424	21.699879	-0.102761	-70.673329
4.200000	-0.107577	-73.742862	-29.068041	21.043296	-29.068041	21.043296	-0.104320	-71.452069
4.250000	-0.109192	-74.542844	-29.009529	20.389308	-29.009529	20.389308	-0.105889	-72.229791
4.300000	-0.110829	-75.340334	-28.952451	19.741400	-28.952451	19.741400	-0.107479	-73.005144
4.350000	-0.112482	-76.136042	-28.896484	19.097834	-28.896484	19.097834	-0.109085	-73.778806
4.400000	-0.114156	-76.929627	-28.841712	18.459501	-28.841712	18.459501	-0.110711	-74.550446
4.450000	-0.115851	-77.721089	-28.788113	17.826401	-28.788113	17.826401	-0.112357	-75.320064
4.500000	-0.117563	-78.510793	-28.735492	17.197673	-28.735492	17.197673	-0.114020	-76.088007
4.550000	-0.119301	-79.298038	-28.684089	16.575066	-28.684089	16.575066	-0.115708	-76.853604
4.600000	-0.121054	-80.083890	-28.633469	15.955961	-28.633469	15.955961	-0.117410	-77.617869
4.650000	-0.122837	-80.866955	-28.584097	15.343857	-28.584097	15.343857	-0.119142	-78.379472
4.700000	-0.124632	-81.648985	-28.535334	14.734378	-28.535334	14.734378	-0.120885	-79.140083
4.750000	-0.126462	-82.427911	-28.487830	14.132772	-28.487830	14.132772	-0.122663	-79.897721
4.800000	-0.128301	-83.206155	-28.440785	13.532911	-28.440785	13.532911	-0.124448	-80.654704
4.850000	-0.130180	-83.980987	-28.394993	12.941779	-28.394993	12.941779	-0.126273	-81.408413
4.900000	-0.132064	-84.755482	-28.349532	12.351515	-28.349532	12.351515	-0.128103	-82.161798
4.950000	-0.133995	-85.526271	-28.305299	11.770812	-28.305299	11.770812	-0.129977	-82.911617
5.000000	-0.135926	-86.297060	-28.261290	11.190109	-28.261290	11.190109	-0.131852	-83.661436
5.050000	-0.137909	-87.063860	-28.218468	10.619773	-28.218468	10.619773	-0.133779	-84.407408
5.100000	-0.139893	-87.830660	-28.175855	10.049437	-28.175855	10.049437	-0.135705	-85.153380
5.150000	-0.141928	-88.593856	-28.134226	9.488527	-28.134226	9.488527	-0.137681	-85.895869
5.200000	-0.143967	-89.356726	-28.092866	8.928473	-28.092866	8.928473	-0.139661	-86.638042
5.250000	-0.146053	-90.116372	-28.052308	8.376900	-28.052308	8.376900	-0.141687	-87.377091
5.300000	-0.148149	-90.875374	-28.012060	7.827023	-28.012060	7.827023	-0.143723	-88.115515
5.350000	-0.150289	-91.631525	-27.972454	7.284681	-27.972454	7.284681	-0.145801	-88.851168
5.400000	-0.152444	-92.386727	-27.933179	6.744850	-27.933179	6.744850	-0.147894	-89.585898
5.450000	-0.154639	-93.139441	-27.894408	6.211613	-27.894408	6.211613	-0.150026	-90.318204
5.500000	-0.156855	-93.890912	-27.855973	5.681673	-27.855973	5.681673	-0.152178	-91.049298
5.550000	-0.159107	-94.640251	-27.817924	5.157397	-27.817924	5.157397	-0.154366	-91.778308
5.600000	-0.161386	-95.388067	-27.780195	4.637167	-27.780195	4.637167	-0.156579	-92.505828
5.650000	-0.163696	-96.134094	-27.742756	4.121687	-27.742756	4.121687	-0.158824	-93.231593
5.700000	-0.166039	-96.878332	-27.705603	3.610956	-27.705603	3.610956	-0.161100	-93.955604
5.750000	-0.168410	-97.621114	-27.668666	3.104085	-27.668666	3.104085	-0.163403	-94.678182
5.800000	-0.170819	-98.361856	-27.631964	2.602616	-27.631964	2.602616	-0.165744	-95.398753
5.850000	-0.173252	-99.101462	-27.595422	2.104144	-27.595422	2.104144	-0.168107	-96.118200
5.900000	-0.175729	-99.838794	-27.559046	1.611667	-27.559046	1.611667	-0.170515	-96.835402
5.950000	-0.178225	-100.575295	-27.522797	1.121362	-27.522797	1.121362	-0.172940	-97.551780
6.000000	-0.180772	-101.309305	-27.486626	0.637575	-27.486626	0.637575	-0.175416	-98.265687
6.050000	-0.183332	-102.042776	-27.450569	0.155181	-27.450569	0.155181	-0.177904	-98.979058
6.100000	-0.185951	-102.773555	-27.414485	-0.320250	-27.414485	-0.320250	-0.180450	-99.689749
6.150000	-0.188577	-103.504073	-27.378522	-0.795015	-27.378522	-0.795015	-0.183003	-100.400178
6.200000	-0.191270	-104.231716	-27.342411	-1.262459	-27.342411	-1.262459	-0.185621	-101.107733
6.250000	-0.193964	-104.959359	-27.306449	-1.729903	-27.306449	-1.729903	-0.188240	-101.815287
6.300000	-0.196732	-105.683964	-27.270199	-2.189764	-27.270199	-2.189764	-0.190931	-102.519789
6.350000	-0.199501	-106.408569	-27.234101	-2.649624	-27.234101	-2.649624	-0.193624	-103.224290
6.400000	-0.202340	-107.130481	-27.197653	-3.102935	-27.197653	-3.102935	-0.196385	-103.926073
6.450000	-0.205186	-107.852148	-27.161313	-3.555650	-27.161313	-3.555650	-0.199154	-104.627607
6.500000	-0.208097	-108.571454	-27.124584	-4.002806	-27.124584	-4.002806	-0.201986	-105.326744
6.550000	-0.211021	-109.290288	-27.087901	-4.448850	-27.087901	-4.448850	-0.204831	-106.025401
6.600000	-0.214006	-110.007075	-27.050810	-4.890271	-27.050810	-4.890271	-0.207736	-106.721968
6.650000	-0.217011	-110.723181	-27.013690	-5.330151	-27.013690	-5.330151	-0.210660	-107.417838
6.700000	-0.220071	-111.437541	-26.976163	-5.766283	-26.976163	-5.766283	-0.213638	-108.111913
6.750000	-0.223158	-112.151029	-26.938517	-6.200541	-26.938517	-6.200541	-0.216644	-108.805090
6.800000	-0.226294	-112.863054	-26.900484	-6.631854	-26.900484	-6.631854	-0.219697	-109.496753
6.850000	-0.229465	-113.574034	-26.862227	-7.061064	-26.862227	-7.061064	-0.222785	-110.187334
6.900000	-0.232679	-114.283818	-26.823624	-7.488050	-26.823624	-7.488050	-0.225915	-110.876665
6.950000	-0.235935	-114.992406	-26.784680	-7.912812	-26.784680	-7.912812	-0.229086	-111.564748
7.000000	-0.239228	-115.700046	-26.745449	-8.335984	-26.745449	-8.335984	-0.232294	-112.251832
7.050000	-0.242572	-116.406358	-26.705750	-8.756929	-26.705750	-8.756929	-0.235552	-112.937518
7.100000	-0.245945	-117.111951	-26.665837	-9.176819	-26.665837	-9.176819	-0.238839	-113.622439
7.150000	-0.249377	-117.816107	-26.625322	-9.594597	-26.625322	-9.594597	-0.242184	-114.305831
7.200000	-0.252832	-118.519754	-26.584682	-10.011751	-26.584682	-10.011751	-0.245552	-114.988676
7.250000	-0.256354	-119.221876	-26.543298	-10.427033	-26.543298	-10.427033	-0.248986	-115.669880
7.300000	-0.259893	-119.923679	-26.501892	-10.842011	-26.501892	-10.842011	-0.252436	-116.350737
7.350000	-0.263506	-120.623890	-26.459595	-11.255478	-26.459595	-11.255478	-0.255961	-117.029860
7.400000	-0.267129	-121.323952	-26.417390	-11.668850	-26.417390	-11.668850	-0.259494	-117.708819
7.450000	-0.270836	-122.022380	-26.374147	-12.081191	-26.374147	-12.081191	-0.263111	-118.385972
7.500000	-0.274544	-122.720807	-26.331118	-12.493532	-26.331118	-12.493532	-0.266729	-119.063124
7.550000	-0.278346	-123.417580	-26.286902	-12.905438	-26.286902	-12.905438	-0.270440	-119.738419
7.600000	-0.282149	-124.114353	-26.242911	-13.317343	-26.242911	-13.317343	-0.274152	-120.413713
7.650000	-0.286039	-124.809730	-26.197828	-13.729477	-26.197828	-13.729477	-0.277950	-121.087408
7.700000	-0.289938	-125.504979	-26.152859	-14.141631	-26.152859	-14.141631	-0.281757	-121.760958
7.750000	-0.293917	-126.199071	-26.106907	-14.554553	-26.106907	-14.554553	-0.285644	-122.433150
7.800000	-0.297914	-126.892931	-26.060955	-14.967627	-26.060955	-14.967627	-0.289548	-123.105072
7.850000	-0.301984	-127.585852	-26.014139	-15.381881	-26.014139	-15.381881	-0.293525	-123.775861
7.900000	-0.306080	-128.278458	-25.967207	-15.796526	-25.967207	-15.796526	-0.297527	-124.446273
7.950000	-0.310242	-128.970322	-25.919539	-16.212636	-25.919539	-16.212636	-0.301595	-125.115759
8.000000	-0.314438	-129.661814	-25.871640	-16.629476	-25.871640	-16.629476	-0.305697	-125.784781
8.050000	-0.318693	-130.352738	-25.823138	-17.047941	-25.823138	-17.047941	-0.309858	-126.453065
8.100000	-0.322990	-131.043255	-25.774292	-17.467566	-25.774292	-17.467566	-0.314061	-127.120820
8.150000	-0.327339	-131.733358	-25.724981	-17.888857	-25.724981	-17.888857	-0.318315	-127.788005
8.200000	-0.331740	-132.423044	-25.675216	-18.311814	-25.675216	-18.311814	-0.322621	-128.454618
8.250000	-0.336184	-133.112446	-25.625126	-18.736369	-25.625126	-18.736369	-0.326970	-129.120809
8.300000	-0.340688	-133.801447	-25.574476	-19.163160	-25.574476	-19.163160	-0.331379	-129.786407
8.350000	-0.345228	-134.490269	-25.523641	-19.591380	-25.523641	-19.591380	-0.335824	-130.451709
8.400000	-0.349838	-135.178733	-25.472148	-20.022455	-25.472148	-20.022455	-0.340339	-131.116420
8.450000	-0.354475	-135.867100	-25.420605	-20.454700	-25.420605	-20.454700	-0.344881	-131.780943
8.500000	-0.359191	-136.555177	-25.368314	-20.890454	-25.368314	-20.890454	-0.349501	-132.444898
8.550000	-0.363927	-137.243215	-25.316105	-21.327043	-25.316105	-21.327043	-0.354142	-133.108750
8.600000	-0.368750	-137.931058	-25.263064	-21.767809	-25.263064	-21.767809	-0.358870	-133.772083
8.650000	-0.373584	-138.618894	-25.210232	-22.209016	-25.210232	-22.209016	-0.363609	-134.435375
8.700000	-0.378516	-139.306658	-25.156492	-22.655070	-25.156492	-22.655070	-0.368446	-135.098221
8.750000	-0.383451	-139.994422	-25.103082	-23.101123	-25.103082	-23.101123	-0.373285	-135.761067
8.800000	-0.388491	-140.682265	-25.048694	-23.552677	-25.048694	-23.552677	-0.378231	-136.423562
8.850000	-0.393535	-141.370108	-24.994645	-24.004230	-24.994645	-24.004230	-0.383180	-137.086058
8.900000	-0.398678	-142.058171	-24.939767	-24.460964	-24.939767	-24.460964	-0.388229	-137.748361
8.950000	-0.403832	-142.746253	-24.885129	-24.918169	-24.885129	-24.918169	-0.393289	-138.410647
9.000000	-0.409076	-143.434672	-24.829804	-25.380162	-24.829804	-25.380162	-0.398439	-139.072876
9.050000	-0.414342	-144.123158	-24.774626	-25.843111	-24.774626	-25.843111	-0.403611	-139.735094
9.100000	-0.419689	-144.812070	-24.718896	-26.310398	-24.718896	-26.310398	-0.408866	-140.397369
9.150000	-0.425066	-145.501125	-24.663223	-26.779130	-24.663223	-26.779130	-0.414150	-141.059663
9.200000	-0.430517	-146.190671	-24.607125	-27.251707	-24.607125	-27.251707	-0.419509	-141.722105
9.250000	-0.436006	-146.880463	-24.550999	-27.726206	-24.550999	-27.726206	-0.424906	-142.384622
9.300000	-0.441561	-147.570786	-24.494566	-28.204034	-24.494566	-28.204034	-0.430370	-143.047357
9.350000	-0.447163	-148.261487	-24.438023	-28.684240	-24.438023	-28.684240	-0.435882	-143.710246
9.400000	-0.452822	-148.952730	-24.381284	-29.167249	-24.381284	-29.167249	-0.441451	-144.373397
9.450000	-0.458537	-149.644515	-24.324355	-29.653059	-24.324355	-29.653059	-0.447078	-145.036811
9.500000	-0.464301	-150.336825	-24.267334	-30.141148	-24.267334	-30.141148	-0.452753	-145.700507
9.550000	-0.470130	-151.029871	-24.210042	-30.632426	-24.210042	-30.632426	-0.458495	-146.364599
9.600000	-0.475998	-151.723397	-24.152757	-31.125473	-24.152757	-31.125473	-0.464276	-147.028969
9.650000	-0.481941	-152.417884	-24.095117	-31.622056	-24.095117	-31.622056	-0.470134	-147.693896
9.700000	-0.487915	-153.112777	-24.037581	-32.119920	-24.037581	-32.119920	-0.476023	-148.359071
9.750000	-0.493972	-153.808889	-23.979600	-32.621623	-23.979600	-32.621623	-0.481996	-149.024993
9.800000	-0.500050	-154.505303	-23.921818	-33.124147	-23.921818	-33.124147	-0.487992	-149.691108
9.850000	-0.506221	-155.203227	-23.863496	-33.630774	-23.863496	-33.630774	-0.494082	-150.358187
9.900000	-0.512405	-155.901317	-23.805468	-34.137794	-23.805468	-34.137794	-0.500185	-151.025376
9.950000	-0.518689	-156.601243	-23.746794	-34.649142	-23.746794	-34.649142	-0.506391	-151.693778
10.000000	-0.524977	-157.301169	-23.688514	-35.160490	-23.688514	-35.160490	-0.512601	-152.362179
