! freq	dB(S11)	phase(S11)	dB(S12)	phase(S12)	
!     	dB(S21)	phase(S21)	dB(S22)	phase(S22)	
!S-par simulation data
#  GHz  S  DB  R 50
0.000000	-96.321013	0.000000	-0.000133	0.000000	-0.000133	0.000000	-96.321013	0.000000
0.050000	-52.724384	-94.816049	-0.000221	-0.809299	-0.000221	-0.809299	-52.718251	-94.800267
0.100000	-46.788039	-93.733369	-0.000489	-1.618658	-0.000489	-1.618658	-46.786406	-93.730656
0.150000	-43.284485	-93.905816	-0.000939	-2.428182	-0.000939	-2.428182	-43.283766	-93.904094
0.200000	-40.794617	-94.414078	-0.001587	-3.238060	-0.001587	-3.238060	-40.794224	-94.412259
0.250000	-38.863309	-95.056345	-0.002497	-4.048674	-0.002497	-4.048674	-38.863067	-95.054219
0.300000	-37.286376	-95.768330	-0.003846	-4.860575	-0.003846	-4.860575	-37.286215	-95.765831
0.350000	-35.954440	-96.516837	-0.006094	-5.673509	-0.006094	-5.673509	-35.954328	-96.513944
0.400000	-34.802512	-97.290711	-0.010262	-6.478801	-0.010262	-6.478801	-34.802431	-97.287414
0.450000	-33.787929	-98.078303	-0.014026	-7.261746	-0.014026	-7.261746	-33.787868	-98.074600
0.500000	-32.882429	-98.877160	-0.013748	-8.045292	-0.013748	-8.045292	-32.882383	-98.873047
0.550000	-32.064942	-99.682552	-0.013183	-8.843399	-0.013183	-8.843399	-32.064905	-99.678030
0.600000	-31.320626	-100.493152	-0.013485	-9.646668	-0.013485	-9.646668	-31.320596	-100.488220
0.650000	-30.637766	-101.307255	-0.014331	-10.450309	-0.014331	-10.450309	-30.637741	-101.301913
0.700000	-30.007402	-102.123835	-0.015480	-11.253337	-0.015480	-11.253337	-30.007381	-102.118082
0.750000	-29.422585	-102.942259	-0.016825	-12.055581	-0.016825	-12.055581	-29.422565	-102.936095
0.800000	-28.877244	-103.761797	-0.018281	-12.857164	-0.018281	-12.857164	-28.877224	-103.755222
0.850000	-28.367195	-104.582188	-0.019830	-13.658043	-0.019830	-13.658043	-28.367175	-104.575200
0.900000	-27.887980	-105.402979	-0.021437	-14.458406	-0.021437	-14.458406	-27.887960	-105.395577
0.950000	-27.436855	-106.223976	-0.023096	-15.258220	-0.023096	-15.258220	-27.436834	-106.216159
1.000000	-27.010660	-107.044967	-0.024792	-16.057605	-0.024792	-16.057605	-27.010638	-107.036733
1.050000	-26.607270	-107.865792	-0.026523	-16.856573	-0.026523	-16.856573	-26.607246	-107.857140
1.100000	-26.224596	-108.686333	-0.028281	-17.655170	-0.028281	-17.655170	-26.224569	-108.677261
1.150000	-25.860770	-109.506508	-0.030064	-18.453447	-0.030064	-18.453447	-25.860741	-109.497014
1.200000	-25.514534	-110.326203	-0.031871	-19.251404	-0.031871	-19.251404	-25.514503	-110.316284
1.250000	-25.184096	-111.145434	-0.033697	-20.049111	-0.033697	-20.049111	-25.184063	-111.135089
1.300000	-24.868877	-111.964044	-0.035544	-20.846537	-0.035544	-20.846537	-24.868842	-111.953269
1.350000	-24.567210	-112.782123	-0.037409	-21.643757	-0.037409	-21.643757	-24.567172	-112.770915
1.400000	-24.278596	-113.599556	-0.039292	-22.440753	-0.039292	-22.440753	-24.278556	-113.587913
1.450000	-24.001917	-114.416390	-0.041193	-23.237563	-0.041193	-23.237563	-24.001875	-114.404308
1.500000	-23.736526	-115.232596	-0.043110	-24.034194	-0.043110	-24.034194	-23.736482	-115.220073
1.550000	-23.481793	-116.048164	-0.045044	-24.830655	-0.045044	-24.830655	-23.481747	-116.035195
1.600000	-23.236885	-116.863147	-0.046994	-25.626972	-0.046994	-25.626972	-23.236837	-116.849728
1.650000	-23.001615	-117.677476	-0.048961	-26.423134	-0.048961	-26.423134	-23.001565	-117.663604
1.700000	-22.775310	-118.491204	-0.050945	-27.219160	-0.050945	-27.219160	-22.775259	-118.476874
1.750000	-22.557280	-119.304400	-0.052943	-28.015071	-0.052943	-28.015071	-22.557227	-119.289608
1.800000	-22.347257	-120.117054	-0.054956	-28.810866	-0.054956	-28.810866	-22.347202	-120.101795
1.850000	-22.144849	-120.929194	-0.056984	-29.606552	-0.056984	-29.606552	-22.144793	-120.913463
1.900000	-21.949697	-121.740850	-0.059027	-30.402137	-0.059027	-30.402137	-21.949640	-121.724642
1.950000	-21.761469	-122.552057	-0.061083	-31.197627	-0.061083	-31.197627	-21.761411	-122.535367
2.000000	-21.579860	-123.362850	-0.063153	-31.993029	-0.063153	-31.993029	-21.579801	-123.345672
2.050000	-21.404587	-124.173267	-0.065237	-32.788348	-0.065237	-32.788348	-21.404528	-124.155596
2.100000	-21.235389	-124.983349	-0.067332	-33.583592	-0.067332	-33.583592	-21.235329	-124.965178
2.150000	-21.072022	-125.793138	-0.069440	-34.378765	-0.069440	-34.378765	-21.071963	-125.774461
2.200000	-20.914263	-126.602677	-0.071559	-35.173873	-0.071559	-35.173873	-20.914203	-126.583488
2.250000	-20.761902	-127.412010	-0.073689	-35.968923	-0.073689	-35.968923	-20.761842	-127.392303
2.300000	-20.614744	-128.221186	-0.075829	-36.763921	-0.075829	-36.763921	-20.614684	-128.200952
2.350000	-20.472608	-129.030249	-0.077978	-37.558871	-0.077978	-37.558871	-20.472548	-129.009482
2.400000	-20.335324	-129.839248	-0.080136	-38.353782	-0.080136	-38.353782	-20.335266	-129.817940
2.450000	-20.202737	-130.648231	-0.082302	-39.148658	-0.082302	-39.148658	-20.202678	-130.626376
2.500000	-20.074697	-131.457248	-0.084474	-39.943506	-0.084474	-39.943506	-20.074639	-131.434836
2.550000	-19.951179	-132.266353	-0.086653	-40.738333	-0.086653	-40.738333	-19.951122	-132.243377
2.600000	-19.831944	-133.075596	-0.088838	-41.533146	-0.088838	-41.533146	-19.831887	-133.052047
2.650000	-19.716869	-133.885025	-0.091027	-42.327952	-0.091027	-42.327952	-19.716814	-133.860895
2.700000	-19.605843	-134.694691	-0.093220	-43.122759	-0.093220	-43.122759	-19.605789	-134.669970
2.750000	-19.498761	-135.504644	-0.095416	-43.917574	-0.095416	-43.917574	-19.498707	-135.479323
2.800000	-19.395523	-136.314932	-0.097614	-44.712405	-0.097614	-44.712405	-19.395471	-136.289002
2.850000	-19.296038	-137.125606	-0.099813	-45.507259	-0.099813	-45.507259	-19.295987	-137.099057
2.900000	-19.200219	-137.936714	-0.102013	-46.302145	-0.102013	-46.302145	-19.200169	-137.909536
2.950000	-19.107984	-138.748305	-0.104212	-47.097072	-0.104212	-47.097072	-19.107936	-138.720488
3.000000	-19.019259	-139.560427	-0.106411	-47.892048	-0.106411	-47.892048	-19.019212	-139.531961
3.050000	-18.933972	-140.373128	-0.108607	-48.687081	-0.108607	-48.687081	-18.933927	-140.344002
3.100000	-18.852058	-141.186456	-0.110801	-49.482183	-0.110801	-49.482183	-18.852013	-141.156658
3.150000	-18.773453	-142.000457	-0.112992	-50.277360	-0.112992	-50.277360	-18.773410	-141.969975
3.200000	-18.698099	-142.815177	-0.115178	-51.072625	-0.115178	-51.072625	-18.698058	-142.784000
3.250000	-18.625944	-143.630662	-0.117359	-51.867985	-0.117359	-51.867985	-18.625905	-143.598778
3.300000	-18.556936	-144.446957	-0.119535	-52.663452	-0.119535	-52.663452	-18.556898	-144.414354
3.350000	-18.491027	-145.264107	-0.121705	-53.459036	-0.121705	-53.459036	-18.490992	-145.230771
3.400000	-18.428176	-146.082156	-0.123868	-54.254748	-0.123868	-54.254748	-18.428142	-146.048075
3.450000	-18.368339	-146.901148	-0.126024	-55.050598	-0.126024	-55.050598	-18.368307	-146.866307
3.500000	-18.311481	-147.721126	-0.128171	-55.846598	-0.128171	-55.846598	-18.311451	-147.685511
3.550000	-18.257565	-148.542133	-0.130310	-56.642758	-0.130310	-56.642758	-18.257538	-148.505730
3.600000	-18.206561	-149.364210	-0.132440	-57.439091	-0.132440	-57.439091	-18.206536	-149.327004
3.650000	-18.158437	-150.187402	-0.134561	-58.235608	-0.134561	-58.235608	-18.158414	-150.149377
3.700000	-18.113167	-151.011749	-0.136671	-59.032320	-0.136671	-59.032320	-18.113147	-150.972889
3.750000	-18.070727	-151.837293	-0.138771	-59.829240	-0.138771	-59.829240	-18.070710	-151.797582
3.800000	-18.031207	-152.664132	-0.140860	-60.626391	-0.140860	-60.626391	-18.031193	-152.623552
3.850000	-17.994474	-153.492256	-0.142938	-61.423775	-0.142938	-61.423775	-17.994463	-153.450788
3.900000	-17.960509	-154.321706	-0.145005	-62.221406	-0.145005	-62.221406	-17.960502	-154.279333
3.950000	-17.929298	-155.152525	-0.147060	-63.019295	-0.147060	-63.019295	-17.929294	-155.109227
4.000000	-17.900825	-155.984754	-0.149103	-63.817456	-0.149103	-63.817456	-17.900825	-155.940512
4.050000	-17.875078	-156.818437	-0.151135	-64.615902	-0.151135	-64.615902	-17.875083	-156.773231
4.100000	-17.852048	-157.653618	-0.153154	-65.414645	-0.153154	-65.414645	-17.852057	-157.607425
4.150000	-17.831726	-158.490340	-0.155162	-66.213699	-0.155162	-66.213699	-17.831740	-158.443139
4.200000	-17.814105	-159.328648	-0.157157	-67.013078	-0.157157	-67.013078	-17.814124	-159.280416
4.250000	-17.799181	-160.168588	-0.159141	-67.812794	-0.159141	-67.812794	-17.799206	-160.119302
4.300000	-17.786951	-161.010207	-0.161113	-68.612861	-0.161113	-68.612861	-17.786981	-160.959842
4.350000	-17.777413	-161.853553	-0.163073	-69.413292	-0.163073	-69.413292	-17.777450	-161.802084
4.400000	-17.770569	-162.698676	-0.165021	-70.214101	-0.165021	-70.214101	-17.770612	-162.646077
4.450000	-17.766419	-163.545628	-0.166959	-71.015302	-0.166959	-71.015302	-17.766470	-163.491870
4.500000	-17.764970	-164.394460	-0.168885	-71.816908	-0.168885	-71.816908	-17.765027	-164.339516
4.550000	-17.766225	-165.245229	-0.170801	-72.618932	-0.170801	-72.618932	-17.766291	-165.189068
4.600000	-17.770192	-166.097991	-0.172707	-73.421388	-0.172707	-73.421388	-17.770268	-166.040583
4.650000	-17.776882	-166.952806	-0.174603	-74.224291	-0.174603	-74.224291	-17.776967	-166.894118
4.700000	-17.786304	-167.809736	-0.176491	-75.027653	-0.176491	-75.027653	-17.786399	-167.749735
4.750000	-17.798472	-168.668846	-0.178369	-75.831487	-0.178369	-75.831487	-17.798578	-168.607497
4.800000	-17.813401	-169.530204	-0.180239	-76.635809	-0.180239	-76.635809	-17.813518	-169.467470
4.850000	-17.831106	-170.393880	-0.182103	-77.440630	-0.182103	-77.440630	-17.831235	-170.329725
4.900000	-17.851605	-171.259950	-0.183959	-78.245964	-0.183959	-78.245964	-17.851748	-171.194334
4.950000	-17.874921	-172.128493	-0.185810	-79.051825	-0.185810	-79.051825	-17.875077	-172.061374
5.000000	-17.901074	-172.999591	-0.187656	-79.858226	-0.187656	-79.858226	-17.901245	-172.930926
5.050000	-17.930210	-173.873450	-0.189497	-80.665204	-0.189497	-80.665204	-17.930397	-173.803193
5.100000	-17.962235	-174.750053	-0.191336	-81.472749	-0.191336	-81.472749	-17.962439	-174.678156
5.150000	-17.997177	-175.629496	-0.193172	-82.280874	-0.193172	-82.280874	-17.997401	-175.555912
5.200000	-18.035069	-176.511884	-0.195007	-83.089592	-0.195007	-83.089592	-18.035312	-176.436560
5.250000	-18.075942	-177.397326	-0.196843	-83.898915	-0.196843	-83.898915	-18.076206	-177.320209
5.300000	-18.119833	-178.285938	-0.198679	-84.708855	-0.198679	-84.708855	-18.120119	-178.206972
5.350000	-18.166779	-179.177842	-0.200518	-85.519425	-0.200518	-85.519425	-18.167090	-179.096969
5.400000	-18.216823	179.926831	-0.202361	-86.330637	-0.202361	-86.330637	-18.217159	-179.990328
5.450000	-18.270007	179.027943	-0.204208	-87.142502	-0.204208	-87.142502	-18.270370	179.112816
5.500000	-18.326378	178.125347	-0.206062	-87.955032	-0.206062	-87.955032	-18.326770	178.212320
5.550000	-18.385985	177.218888	-0.207923	-88.768239	-0.207923	-88.768239	-18.386409	177.308030
5.600000	-18.448882	176.308398	-0.209794	-89.582134	-0.209794	-89.582134	-18.449339	176.399785
5.650000	-18.515125	175.393703	-0.211675	-90.396727	-0.211675	-90.396727	-18.515618	175.487411
5.700000	-18.584773	174.474614	-0.213568	-91.212030	-0.213568	-91.212030	-18.585304	174.570724
5.750000	-18.657890	173.550930	-0.215475	-92.028052	-0.215475	-92.028052	-18.658462	173.649529
5.800000	-18.734544	172.622439	-0.217397	-92.844804	-0.217397	-92.844804	-18.735160	172.723615
5.850000	-18.814805	171.688910	-0.219336	-93.662296	-0.219336	-93.662296	-18.815468	171.792759
5.900000	-18.898750	170.750102	-0.221293	-94.480537	-0.221293	-94.480537	-18.899464	170.856722
5.950000	-18.986460	169.805752	-0.223271	-95.299536	-0.223271	-95.299536	-18.987228	169.915248
6.000000	-19.078019	168.855581	-0.225271	-96.119303	-0.225271	-96.119303	-19.078846	168.968064
6.050000	-19.173520	167.899289	-0.227294	-96.939845	-0.227294	-96.939845	-19.174410	168.014876
6.100000	-19.273058	166.936557	-0.229343	-97.761171	-0.229343	-97.761171	-19.274016	167.055369
6.150000	-19.376737	165.967037	-0.231420	-98.583290	-0.231420	-98.583290	-19.377768	166.089206
6.200000	-19.484664	164.990359	-0.233526	-99.406207	-0.233526	-99.406207	-19.485774	165.116022
6.250000	-19.596956	164.006122	-0.235664	-100.229932	-0.235664	-100.229932	-19.598151	164.135425
6.300000	-19.713865	163.013527	-0.237836	-101.054506	-0.237836	-101.054506	-19.715152	163.146630
6.350000	-19.835392	162.012429	-0.240044	-101.879900	-0.240044	-101.879900	-19.836780	162.149498
6.400000	-19.961677	161.002321	-0.242289	-102.706121	-0.242289	-102.706121	-19.963173	161.143529
6.450000	-20.092868	159.982649	-0.244573	-103.533173	-0.244573	-103.533173	-20.094481	160.128182
6.500000	-20.229121	158.952813	-0.246900	-104.361063	-0.246900	-104.361063	-20.230862	159.102869
6.550000	-20.370605	157.912161	-0.249269	-105.189795	-0.249269	-105.189795	-20.372485	158.066950
6.600000	-20.517497	156.859982	-0.251684	-106.019373	-0.251684	-106.019373	-20.519530	157.019729
6.650000	-20.669990	155.795501	-0.254147	-106.849801	-0.254147	-106.849801	-20.672188	155.960445
6.700000	-20.828285	154.717868	-0.256660	-107.681083	-0.256660	-107.681083	-20.830665	154.888266
6.750000	-20.992602	153.626154	-0.259225	-108.513222	-0.259225	-108.513222	-20.995179	153.802279
6.800000	-21.163171	152.519338	-0.261844	-109.346220	-0.261844	-109.346220	-21.165965	152.701483
6.850000	-21.340241	151.396295	-0.264519	-110.180080	-0.264519	-110.180080	-21.343274	151.584775
6.900000	-21.524078	150.255784	-0.267253	-111.014803	-0.267253	-111.014803	-21.527375	150.450938
6.950000	-21.714968	149.096434	-0.270047	-111.850391	-0.270047	-111.850391	-21.718554	149.298626
7.000000	-21.913215	147.916723	-0.272903	-112.686844	-0.272903	-112.686844	-21.917122	148.126344
7.050000	-22.119148	146.714962	-0.275824	-113.524163	-0.275824	-113.524163	-22.123409	146.932434
7.100000	-22.333118	145.489264	-0.278813	-114.362347	-0.278813	-114.362347	-22.337772	145.715043
7.150000	-22.555503	144.237523	-0.281870	-115.201396	-0.281870	-115.201396	-22.560595	144.472101
7.200000	-22.786711	142.957378	-0.284998	-116.041309	-0.284998	-116.041309	-22.792289	143.201287
7.250000	-23.027176	141.646172	-0.288200	-116.882085	-0.288200	-116.882085	-23.033299	141.899990
7.300000	-23.277370	140.300909	-0.291477	-117.723722	-0.291477	-117.723722	-23.284103	140.565261
7.350000	-23.537798	138.918200	-0.294831	-118.566216	-0.294831	-118.566216	-23.545216	139.193764
7.400000	-23.809002	137.494193	-0.298265	-119.409566	-0.298265	-119.409566	-23.817193	137.781707
7.450000	-24.091568	136.024502	-0.301780	-120.253768	-0.301780	-120.253768	-24.100631	136.324765
7.500000	-24.386120	134.504111	-0.305379	-121.098817	-0.305379	-121.098817	-24.396173	134.817991
7.550000	-24.693417	132.924486	-0.309067	-121.944747	-0.309067	-121.944747	-24.704597	133.252970
7.600000	-25.014061	131.281054	-0.312843	-122.791516	-0.312843	-122.791516	-25.026531	131.625170
7.650000	-25.348804	129.565957	-0.316708	-123.639117	-0.316708	-123.639117	-25.362751	129.926817
7.700000	-25.698434	127.770054	-0.320665	-124.487547	-0.320665	-124.487547	-25.714081	128.148854
7.750000	-26.063770	125.882661	-0.324715	-125.336798	-0.324715	-125.336798	-26.081381	126.280682
7.800000	-26.445647	123.891249	-0.328860	-126.186863	-0.328860	-126.186863	-26.465539	124.309847
7.850000	-26.844897	121.781069	-0.333101	-127.037737	-0.333101	-127.037737	-26.867446	122.221658
7.900000	-27.262313	119.534697	-0.337442	-127.889411	-0.337442	-127.889411	-27.287973	119.998722
7.950000	-27.698596	117.131501	-0.341883	-128.741877	-0.341883	-128.741877	-27.727913	117.620385
8.000000	-28.154276	114.547004	-0.346425	-129.595128	-0.346425	-129.595128	-28.187910	115.062062
8.050000	-28.629590	111.752165	-0.351071	-130.449154	-0.351071	-130.449154	-28.668340	112.294471
8.100000	-29.124309	108.712602	-0.355823	-131.303946	-0.355823	-131.303946	-29.169141	109.282778
8.150000	-29.637481	105.387828	-0.360681	-132.159496	-0.360681	-132.159496	-29.689554	105.985730
8.200000	-30.167063	101.730684	-0.365646	-133.015792	-0.365646	-133.015792	-30.227761	102.354933
8.250000	-30.709416	97.687265	-0.370721	-133.872826	-0.370721	-133.872826	-30.780356	98.334579
8.300000	-31.258621	93.197902	-0.375907	-134.730586	-0.375907	-134.730586	-31.341644	93.862175
8.350000	-31.805640	88.200062	-0.381205	-135.589061	-0.381205	-135.589061	-31.902730	88.871206
8.400000	-32.337379	82.634386	-0.386616	-136.448240	-0.386616	-136.448240	-32.450495	83.297035
8.450000	-32.835915	76.455180	-0.392141	-137.308111	-0.392141	-137.308111	-32.966661	77.087605
8.500000	-33.278339	69.646050	-0.397781	-138.168663	-0.397781	-138.168663	-33.427476	70.219959
8.550000	-33.637942	62.239241	-0.403537	-139.029884	-0.403537	-139.029884	-33.804771	62.721415
8.600000	-33.887390	54.333332	-0.409411	-139.891760	-0.409411	-139.891760	-34.069230	54.689918
8.650000	-34.003898	46.099717	-0.415402	-140.754279	-0.415402	-140.754279	-34.195972	46.302919
8.700000	-33.974983	37.767941	-0.421513	-141.617428	-0.421513	-141.617428	-34.170989	37.803005
8.750000	-33.802216	29.588262	-0.427742	-142.481194	-0.427742	-142.481194	-33.995506	29.457356
8.800000	-33.495742	21.807831	-0.434097	-143.345589	-0.434097	-143.345589	-33.680390	21.529789
8.850000	-33.087010	14.570203	-0.440572	-144.210571	-0.440572	-144.210571	-33.259175	14.172572
8.900000	-32.603883	7.951094	-0.447169	-145.076129	-0.447169	-145.076129	-32.761603	7.463635
8.950000	-32.072284	1.964098	-0.453887	-145.942246	-0.453887	-145.942246	-32.215116	1.414140
9.000000	-31.513694	-3.419424	-0.460726	-146.808909	-0.460726	-146.808909	-31.642210	-4.009247
9.050000	-30.944505	-8.251551	-0.467687	-147.676103	-0.467687	-147.676103	-31.059836	-8.863768
9.100000	-30.376460	-12.593829	-0.474770	-148.543814	-0.474770	-148.543814	-30.479969	-13.215632
9.150000	-29.817529	-16.508443	-0.481975	-149.412027	-0.481975	-149.412027	-29.910609	-17.130815
9.200000	-29.272838	-20.053427	-0.489302	-150.280728	-0.489302	-150.280728	-29.356804	-20.670246
9.250000	-28.745467	-23.280541	-0.496751	-151.149901	-0.496751	-151.149901	-28.821504	-23.887809
9.300000	-28.237075	-26.234735	-0.504321	-152.019532	-0.504321	-152.019532	-28.306225	-26.829969
9.350000	-27.748360	-28.954429	-0.512012	-152.889605	-0.512012	-152.889605	-27.811524	-29.536206
9.400000	-27.279384	-31.472173	-0.519824	-153.760106	-0.519824	-153.760106	-27.337337	-32.039801
9.450000	-26.829807	-33.815425	-0.527756	-154.631020	-0.527756	-154.631020	-26.883211	-34.368705
9.500000	-26.399037	-36.007314	-0.535808	-155.502331	-0.535808	-155.502331	-26.448457	-36.546375
9.550000	-25.986341	-38.067334	-0.543979	-156.374025	-0.543979	-156.374025	-26.032260	-38.592518
9.600000	-25.590910	-40.011943	-0.552267	-157.246087	-0.552267	-157.246087	-25.633742	-40.523724
9.650000	-25.211909	-41.855075	-0.560673	-158.118502	-0.560673	-158.118502	-25.252010	-42.354005
9.700000	-24.848507	-43.608564	-0.569195	-158.991256	-0.569195	-158.991256	-24.886182	-44.095235
9.750000	-24.499892	-45.282497	-0.577833	-159.864333	-0.577833	-159.864333	-24.535407	-45.757515
9.800000	-24.165287	-46.885502	-0.586584	-160.737720	-0.586584	-160.737720	-24.198871	-47.349468
9.850000	-23.843952	-48.424986	-0.595449	-161.611402	-0.595449	-161.611402	-23.875806	-48.878490
9.900000	-23.535190	-49.907333	-0.604425	-162.485364	-0.604425	-162.485364	-23.565489	-50.350942
9.950000	-23.238345	-51.338064	-0.613511	-163.359594	-0.613511	-163.359594	-23.267243	-51.772322
10.000000	-22.952804	-52.721972	-0.622706	-164.234076	-0.622706	-164.234076	-22.980437	-53.147394
