! freq	dB(S11)	phase(S11)	dB(S12)	phase(S12)	
!     	dB(S21)	phase(S21)	dB(S22)	phase(S22)	
!S-par simulation data
#  GHz  S  DB  R 50
0.000000	-0.000000	0.000000	-341.031813	0.000000	-341.031813	0.000000	-0.000000	0.000000
0.050000	-0.000102	-0.812299	-72.398949	86.659813	-72.398949	86.659813	-0.000102	-0.812293
0.100000	-0.000403	-1.624353	-66.636362	86.079310	-66.636362	86.079310	-0.000403	-1.624342
0.150000	-0.000891	-2.435938	-63.219318	85.768151	-63.219318	85.768151	-0.000891	-2.435921
0.200000	-0.001548	-3.246864	-60.769360	85.332474	-60.769360	85.332474	-0.001548	-3.246841
0.250000	-0.002361	-4.056918	-58.858745	84.783666	-58.858745	84.783666	-0.002361	-4.056890
0.300000	-0.003291	-4.866061	-57.293861	84.168851	-57.293861	84.168851	-0.003291	-4.866027
0.350000	-0.004323	-5.674177	-55.969612	83.507601	-55.969612	83.507601	-0.004323	-5.674138
0.400000	-0.005432	-6.481222	-54.822650	82.815334	-54.822650	82.815334	-0.005432	-6.481177
0.450000	-0.006598	-7.287177	-53.811795	82.101714	-53.811795	82.101714	-0.006598	-7.287127
0.500000	-0.007802	-8.092047	-52.908773	81.373008	-52.908773	81.373008	-0.007802	-8.091991
0.550000	-0.009029	-8.895851	-52.093334	80.633431	-52.093334	80.633431	-0.009029	-8.895790
0.600000	-0.010267	-9.698620	-51.350480	79.885920	-51.350480	79.885920	-0.010267	-9.698553
0.650000	-0.011506	-10.500385	-50.668796	79.132588	-50.668796	79.132588	-0.011506	-10.500313
0.700000	-0.012739	-11.301183	-50.039392	78.375000	-50.039392	78.375000	-0.012739	-11.301104
0.750000	-0.013961	-12.101042	-49.455210	77.614346	-49.455210	77.614346	-0.013961	-12.100959
0.800000	-0.015168	-12.899993	-48.910552	76.851555	-48.910552	76.851555	-0.015168	-12.899904
0.850000	-0.016360	-13.698056	-48.400756	76.087368	-48.400756	76.087368	-0.016360	-13.697962
0.900000	-0.017535	-14.495250	-47.921953	75.322388	-47.921953	75.322388	-0.017535	-14.495150
0.950000	-0.018693	-15.291586	-47.470902	74.557118	-47.470902	74.557118	-0.018693	-15.291480
1.000000	-0.019834	-16.087070	-47.044857	73.791982	-47.044857	73.791982	-0.019834	-16.086959
1.050000	-0.020960	-16.881705	-46.641475	73.027346	-46.641475	73.027346	-0.020960	-16.881589
1.100000	-0.022072	-17.675489	-46.258738	72.263532	-46.258738	72.263532	-0.022072	-17.675368
1.150000	-0.023170	-18.468416	-45.894895	71.500823	-45.894895	71.500823	-0.023170	-18.468289
1.200000	-0.024256	-19.260477	-45.548419	70.739477	-45.548419	70.739477	-0.024256	-19.260345
1.250000	-0.025332	-20.051660	-45.217969	69.979728	-45.217969	69.979728	-0.025332	-20.051523
1.300000	-0.026397	-20.841913	-44.902484	69.221881	-44.902484	69.221881	-0.026397	-20.841771
1.350000	-0.027455	-21.631258	-44.600790	68.466066	-44.600790	68.466066	-0.027455	-21.631110
1.400000	-0.028505	-22.419678	-44.311950	67.712470	-44.311950	67.712470	-0.028505	-22.419525
1.450000	-0.029549	-23.207155	-44.035125	66.961275	-44.035125	66.961275	-0.029549	-23.206997
1.500000	-0.030588	-23.993671	-43.769561	66.212650	-43.769561	66.212650	-0.030588	-23.993507
1.550000	-0.031622	-24.779205	-43.514577	65.466761	-43.514577	65.466761	-0.031622	-24.779037
1.600000	-0.032653	-25.563739	-43.269556	64.723767	-43.269556	64.723767	-0.032653	-25.563566
1.650000	-0.033681	-26.347252	-43.033938	63.983825	-43.033938	63.983825	-0.033680	-26.347074
1.700000	-0.034705	-27.129353	-42.808168	63.248269	-42.808168	63.248269	-0.034705	-27.129170
1.750000	-0.035729	-27.910904	-42.589495	62.514437	-42.589495	62.514437	-0.035729	-27.910715
1.800000	-0.036751	-28.691128	-42.379436	61.784935	-42.379436	61.784935	-0.036751	-28.690935
1.850000	-0.037772	-29.470405	-42.176602	61.058527	-42.176602	61.058527	-0.037772	-29.470207
1.900000	-0.038794	-30.248502	-41.981149	60.336142	-41.981149	60.336142	-0.038793	-30.248300
1.950000	-0.039814	-31.025420	-41.792692	59.617781	-41.792692	59.617781	-0.039814	-31.025212
2.000000	-0.040836	-31.801318	-41.610507	58.903029	-41.610507	58.903029	-0.040836	-31.801106
2.050000	-0.041858	-32.575791	-41.435176	58.193328	-41.435176	58.193328	-0.041858	-32.575574
2.100000	-0.042880	-33.349422	-41.265106	57.486717	-41.265106	57.486717	-0.042880	-33.349200
2.150000	-0.043905	-34.121368	-41.101819	56.786285	-41.101819	56.786285	-0.043905	-34.121142
2.200000	-0.044931	-34.892664	-40.942869	56.088320	-40.942869	56.088320	-0.044930	-34.892433
2.250000	-0.045959	-35.662006	-40.790679	55.397758	-40.790679	55.397758	-0.045959	-35.661770
2.300000	-0.046988	-36.430902	-40.641979	54.708941	-40.641979	54.708941	-0.046988	-36.430661
2.350000	-0.048022	-37.197564	-40.500056	54.028853	-40.500056	54.028853	-0.048022	-37.197319
2.400000	-0.049056	-37.963997	-40.360841	53.349687	-40.360841	53.349687	-0.049056	-37.963748
2.450000	-0.050096	-38.727907	-40.228445	52.680674	-40.228445	52.680674	-0.050096	-38.727654
2.500000	-0.051137	-39.491818	-40.098037	52.011661	-40.098037	52.011661	-0.051137	-39.491560
2.550000	-0.052185	-40.252909	-39.974510	51.354329	-39.974510	51.354329	-0.052185	-40.252647
2.600000	-0.053233	-41.014000	-39.852714	50.696997	-39.852714	50.696997	-0.053233	-41.013733
2.650000	-0.054289	-41.772447	-39.737050	50.050929	-39.737050	50.050929	-0.054289	-41.772176
2.700000	-0.055346	-42.530653	-39.623305	49.405884	-39.623305	49.405884	-0.055346	-42.530378
2.750000	-0.056412	-43.286405	-39.514985	48.771589	-39.514985	48.771589	-0.056412	-43.286126
2.800000	-0.057480	-44.041666	-39.408779	48.139443	-39.408779	48.139443	-0.057480	-44.041383
2.850000	-0.058556	-44.794676	-39.307329	47.517430	-39.307329	47.517430	-0.058556	-44.794388
2.900000	-0.059636	-45.546934	-39.208195	46.898796	-39.208195	46.898796	-0.059636	-45.546643
2.950000	-0.060724	-46.297155	-39.113184	46.289581	-39.113184	46.289581	-0.060724	-46.296860
3.000000	-0.061817	-47.046357	-39.020687	45.685075	-39.020687	45.685075	-0.061817	-47.046058
3.050000	-0.062919	-47.793747	-38.931719	45.089172	-38.931719	45.089172	-0.062919	-47.793444
3.100000	-0.064027	-48.539843	-38.845458	44.499414	-38.845458	44.499414	-0.064027	-48.539536
3.150000	-0.065143	-49.284362	-38.762164	43.917341	-38.762164	43.917341	-0.065143	-49.284052
3.200000	-0.066267	-50.027305	-38.681762	43.342954	-38.681762	43.342954	-0.066267	-50.026992
3.250000	-0.067399	-50.768917	-38.603802	42.775231	-38.603802	42.775231	-0.067399	-50.768600
3.300000	-0.068542	-51.508665	-38.528902	42.216837	-38.528902	42.216837	-0.068542	-51.508344
3.350000	-0.069691	-52.247334	-38.455956	41.663983	-38.455956	41.663983	-0.069691	-52.247010
3.400000	-0.070853	-52.983848	-38.386220	41.122209	-38.386220	41.122209	-0.070853	-52.983520
3.450000	-0.072020	-53.719544	-38.317984	40.584744	-38.317984	40.584744	-0.072020	-53.719212
3.500000	-0.073204	-54.452787	-38.253090	40.060212	-38.253090	40.060212	-0.073204	-54.452452
3.550000	-0.074391	-55.185481	-38.189278	39.538656	-38.189278	39.538656	-0.074391	-55.185142
3.600000	-0.075598	-55.915423	-38.128913	39.031986	-38.128913	39.031986	-0.075598	-55.915081
3.650000	-0.076806	-56.645087	-38.069250	38.526857	-38.069250	38.526857	-0.076806	-56.644743
3.700000	-0.078037	-57.371700	-38.013112	38.038666	-38.013112	38.038666	-0.078038	-57.371352
3.750000	-0.079269	-58.098313	-37.957334	37.550475	-37.957334	37.550475	-0.079269	-58.097962
3.800000	-0.080527	-58.821572	-37.905125	37.081371	-37.905125	37.081371	-0.080527	-58.821218
3.850000	-0.081785	-59.544831	-37.853229	36.612266	-37.853229	36.612266	-0.081785	-59.544474
3.900000	-0.083068	-60.264997	-37.804407	36.161205	-37.804407	36.161205	-0.083068	-60.264637
3.950000	-0.084354	-60.984882	-37.756108	35.711784	-37.756108	35.711784	-0.084354	-60.984519
4.000000	-0.085665	-61.701940	-37.710419	35.279249	-37.710419	35.279249	-0.085665	-61.701574
4.050000	-0.086982	-62.418433	-37.665434	34.850091	-37.665434	34.850091	-0.086982	-62.418064
4.100000	-0.088321	-63.132372	-37.622628	34.436551	-37.622628	34.436551	-0.088321	-63.132000
4.150000	-0.089669	-63.845459	-37.580677	34.028217	-37.580677	34.028217	-0.089669	-63.845085
4.200000	-0.091039	-64.556270	-37.540505	33.634120	-37.540505	33.634120	-0.091040	-64.555894
4.250000	-0.092421	-65.265942	-37.501304	33.247143	-37.501304	33.247143	-0.092421	-65.265563
4.300000	-0.093823	-65.973619	-37.463520	32.872915	-37.463520	32.872915	-0.093823	-65.973237
4.350000	-0.095239	-66.679869	-37.426784	32.507793	-37.426784	32.507793	-0.095239	-66.679485
4.400000	-0.096675	-67.384407	-37.391142	32.153828	-37.391142	32.153828	-0.096675	-67.384021
4.450000	-0.098128	-68.087232	-37.356582	31.811021	-37.356582	31.811021	-0.098128	-68.086844
4.500000	-0.099598	-68.788631	-37.322833	31.477680	-37.322833	31.477680	-0.099598	-68.788240
4.550000	-0.101090	-69.488032	-37.290155	31.157594	-37.290155	31.157594	-0.101091	-69.487639
4.600000	-0.102597	-70.186292	-37.258049	30.845196	-37.258049	30.845196	-0.102597	-70.185897
4.650000	-0.104129	-70.882272	-37.226955	30.548176	-37.226955	30.548176	-0.104130	-70.881874
4.700000	-0.105673	-71.577398	-37.196239	30.256992	-37.196239	30.256992	-0.105673	-71.576998
4.750000	-0.107248	-72.269963	-37.166425	29.983313	-37.166425	29.983313	-0.107249	-72.269562
4.800000	-0.108831	-72.961961	-37.136841	29.713556	-37.136841	29.713556	-0.108831	-72.961558
4.850000	-0.110450	-73.651123	-37.107997	29.463407	-37.107997	29.463407	-0.110451	-73.650718
4.900000	-0.112074	-74.340002	-37.079286	29.215226	-37.079286	29.215226	-0.112074	-74.339595
4.950000	-0.113739	-75.025772	-37.051093	28.988698	-37.051093	28.988698	-0.113739	-75.025364
5.000000	-0.115404	-75.711543	-37.022992	28.762170	-37.022992	28.762170	-0.115404	-75.711133
5.050000	-0.117116	-76.393940	-36.995129	28.559242	-36.995129	28.559242	-0.117117	-76.393528
5.100000	-0.118829	-77.076336	-36.967356	28.356313	-36.967356	28.356313	-0.118829	-77.075922
5.150000	-0.120587	-77.755657	-36.939509	28.174882	-36.939509	28.174882	-0.120587	-77.755242
5.200000	-0.122349	-78.434699	-36.911737	27.995406	-36.911737	27.995406	-0.122349	-78.434282
5.250000	-0.124153	-79.110963	-36.883631	27.835232	-36.883631	27.835232	-0.124153	-79.110545
5.300000	-0.125966	-79.786672	-36.855531	27.678919	-36.855531	27.678919	-0.125966	-79.786253
5.350000	-0.127818	-80.459901	-36.826887	27.539644	-36.826887	27.539644	-0.127818	-80.459480
5.400000	-0.129683	-81.132303	-36.798127	27.406049	-36.798127	27.406049	-0.129683	-81.131881
5.450000	-0.131585	-81.802519	-36.768670	27.287192	-36.768670	27.287192	-0.131585	-81.802096
5.500000	-0.133504	-82.471642	-36.738917	27.175703	-36.738917	27.175703	-0.133505	-82.471218
5.550000	-0.135457	-83.138870	-36.708372	27.076647	-36.708372	27.076647	-0.135457	-83.138445
5.600000	-0.137432	-83.804745	-36.677297	26.986471	-36.677297	26.986471	-0.137433	-83.804318
5.650000	-0.139437	-84.469012	-36.645394	26.906460	-36.645394	26.906460	-0.139437	-84.468585
5.700000	-0.141470	-85.131672	-36.612673	26.836614	-36.612673	26.836614	-0.141470	-85.131244
5.750000	-0.143528	-85.793008	-36.579150	26.774749	-36.579150	26.774749	-0.143528	-85.792579
5.800000	-0.145620	-86.452490	-36.544466	26.724057	-36.544466	26.724057	-0.145621	-86.452060
5.850000	-0.147733	-87.110925	-36.509069	26.679290	-36.509069	26.679290	-0.147734	-87.110494
5.900000	-0.149887	-87.767267	-36.472120	26.646376	-36.472120	26.646376	-0.149887	-87.766836
5.950000	-0.152056	-88.422834	-36.434609	26.617513	-36.434609	26.617513	-0.152056	-88.422402
6.000000	-0.154272	-89.076078	-36.395110	26.600806	-36.395110	26.600806	-0.154272	-89.075645
6.050000	-0.156499	-89.728812	-36.355258	26.586507	-36.355258	26.586507	-0.156499	-89.728379
6.100000	-0.158779	-90.379001	-36.312943	26.584249	-36.312943	26.584249	-0.158779	-90.378567
6.150000	-0.161065	-91.028938	-36.270544	26.583034	-36.270544	26.583034	-0.161065	-91.028504
6.200000	-0.163410	-91.676118	-36.225175	26.593292	-36.225175	26.593292	-0.163411	-91.675683
6.250000	-0.165757	-92.323297	-36.180042	26.603551	-36.180042	26.603551	-0.165757	-92.322862
6.300000	-0.168170	-92.967515	-36.131410	26.624238	-36.131410	26.624238	-0.168170	-92.967081
6.350000	-0.170583	-93.611734	-36.083048	26.644924	-36.083048	26.644924	-0.170584	-93.611299
6.400000	-0.173060	-94.253284	-36.031309	26.673133	-36.031309	26.673133	-0.173060	-94.252849
6.450000	-0.175542	-94.894592	-35.979547	26.702027	-35.979547	26.702027	-0.175543	-94.894157
6.500000	-0.178083	-95.533518	-35.924599	26.735823	-35.924599	26.735823	-0.178083	-95.533083
6.550000	-0.180636	-96.171968	-35.869302	26.770599	-35.869302	26.770599	-0.180636	-96.171533
6.600000	-0.183242	-96.808315	-35.811072	26.807993	-35.811072	26.807993	-0.183243	-96.807880
6.650000	-0.185867	-97.443961	-35.752144	26.846260	-35.752144	26.846260	-0.185868	-97.443526
6.700000	-0.188541	-98.077776	-35.690594	26.885237	-35.690594	26.885237	-0.188541	-98.077341
6.750000	-0.191239	-98.710675	-35.627980	26.924568	-35.627980	26.924568	-0.191240	-98.710241
6.800000	-0.193981	-99.342006	-35.563104	26.963110	-35.563104	26.963110	-0.193981	-99.341573
6.850000	-0.196754	-99.972217	-35.496789	27.001086	-35.496789	27.001086	-0.196755	-99.971784
6.900000	-0.199566	-100.601114	-35.428614	27.037197	-35.428614	27.037197	-0.199566	-100.600681
6.950000	-0.202415	-101.228697	-35.358625	27.071444	-35.358625	27.071444	-0.202416	-101.228265
7.000000	-0.205298	-101.855212	-35.287208	27.103182	-35.287208	27.103182	-0.205298	-101.854780
7.050000	-0.208225	-102.480229	-35.213614	27.131407	-35.213614	27.131407	-0.208226	-102.479798
7.100000	-0.211180	-103.104413	-35.139043	27.156900	-35.139043	27.156900	-0.211180	-103.103983
7.150000	-0.214187	-103.726930	-35.061946	27.176931	-35.061946	27.176931	-0.214187	-103.726500
7.200000	-0.217214	-104.348837	-34.984338	27.194408	-34.984338	27.194408	-0.217215	-104.348409
7.250000	-0.220302	-104.968918	-34.903878	27.204223	-34.903878	27.204223	-0.220303	-104.968491
7.300000	-0.223404	-105.588605	-34.823373	27.212028	-34.823373	27.212028	-0.223405	-105.588178
7.350000	-0.226574	-106.206318	-34.739720	27.209784	-34.739720	27.209784	-0.226574	-106.205892
7.400000	-0.229751	-106.823840	-34.656479	27.206398	-34.656479	27.206398	-0.229752	-106.823415
7.450000	-0.233005	-107.439255	-34.569828	27.190452	-34.569828	27.190452	-0.233005	-107.438832
7.500000	-0.236259	-108.054671	-34.484034	27.174506	-34.484034	27.174506	-0.236260	-108.054248
7.550000	-0.239597	-108.667859	-34.394603	27.143432	-34.394603	27.143432	-0.239598	-108.667438
7.600000	-0.242936	-109.281047	-34.306083	27.112359	-34.306083	27.112359	-0.242937	-109.280627
7.650000	-0.246354	-109.892260	-34.214472	27.066318	-34.214472	27.066318	-0.246355	-109.891842
7.700000	-0.249779	-110.503294	-34.123459	27.018916	-34.123459	27.018916	-0.249780	-110.502877
7.750000	-0.253277	-111.112594	-34.029890	26.957101	-34.029890	26.957101	-0.253278	-111.112179
7.800000	-0.256790	-111.721548	-33.936625	26.892403	-33.936625	26.892403	-0.256791	-111.721134
7.850000	-0.260368	-112.328999	-33.841321	26.814178	-33.841321	26.814178	-0.260369	-112.328586
7.900000	-0.263970	-112.935948	-33.746052	26.731445	-33.746052	26.731445	-0.263971	-112.935538
7.950000	-0.267631	-113.541613	-33.649238	26.636345	-33.649238	26.636345	-0.267632	-113.541204
8.000000	-0.271323	-114.146636	-33.552215	26.535061	-33.552215	26.535061	-0.271324	-114.146229
8.050000	-0.275067	-114.750582	-33.454111	26.422779	-33.454111	26.422779	-0.275068	-114.750176
8.100000	-0.278850	-115.353757	-33.355582	26.302643	-33.355582	26.302643	-0.278851	-115.353354
8.150000	-0.282679	-115.956049	-33.256404	26.173030	-33.256404	26.173030	-0.282680	-115.955648
8.200000	-0.286554	-116.557458	-33.156609	26.033939	-33.156609	26.033939	-0.286555	-116.557059
8.250000	-0.290468	-117.158165	-33.056562	25.886986	-33.056562	25.886986	-0.290469	-117.157768
8.300000	-0.294436	-117.757889	-32.955734	25.729024	-32.955734	25.729024	-0.294437	-117.757494
8.350000	-0.298437	-118.357079	-32.855014	25.564854	-32.855014	25.564854	-0.298438	-118.356686
8.400000	-0.302499	-118.955202	-32.753373	25.388270	-32.753373	25.388270	-0.302501	-118.954812
8.450000	-0.306587	-119.552946	-32.652164	25.207128	-32.652164	25.207128	-0.306588	-119.552558
8.500000	-0.310745	-120.149553	-32.549914	25.012317	-32.549914	25.012317	-0.310747	-120.149168
8.550000	-0.314921	-120.745923	-32.448386	24.814556	-32.448386	24.814556	-0.314922	-120.745540
8.600000	-0.319176	-121.341101	-32.345718	24.602043	-32.345718	24.602043	-0.319177	-121.340721
8.650000	-0.323440	-121.936168	-32.244028	24.388108	-32.244028	24.388108	-0.323442	-121.935790
8.700000	-0.327792	-122.530006	-32.141111	24.158527	-32.141111	24.158527	-0.327794	-122.529631
8.750000	-0.332146	-123.123843	-32.039400	23.928946	-32.039400	23.928946	-0.332148	-123.123471
8.800000	-0.336597	-123.716431	-31.936390	23.683021	-31.936390	23.683021	-0.336598	-123.716061
8.850000	-0.341049	-124.309018	-31.834586	23.437097	-31.834586	23.437097	-0.341051	-124.308652
8.900000	-0.345591	-124.900543	-31.731813	23.176921	-31.731813	23.176921	-0.345592	-124.900179
8.950000	-0.350143	-125.491971	-31.630049	22.915450	-31.630049	22.915450	-0.350144	-125.491611
9.000000	-0.354776	-126.082511	-31.527608	22.641734	-31.527608	22.641734	-0.354778	-126.082154
9.050000	-0.359428	-126.672873	-31.425994	22.365568	-31.425994	22.365568	-0.359429	-126.672519
9.100000	-0.364154	-127.262506	-31.323964	22.079053	-31.323964	22.079053	-0.364155	-127.262156
9.150000	-0.368906	-127.851897	-31.222595	21.789087	-31.222595	21.789087	-0.368908	-127.851550
9.200000	-0.373725	-128.440705	-31.121041	21.490534	-31.121041	21.490534	-0.373727	-128.440361
9.250000	-0.378579	-129.029220	-31.019991	21.187687	-31.019991	21.187687	-0.378581	-129.028880
9.300000	-0.383491	-129.617283	-30.918961	20.877872	-30.918961	20.877872	-0.383493	-129.616946
9.350000	-0.388447	-130.205022	-30.818287	20.563078	-30.818287	20.563078	-0.388449	-130.204689
9.400000	-0.393454	-130.792422	-30.717817	20.242778	-30.717817	20.242778	-0.393456	-130.792093
9.450000	-0.398512	-131.379484	-30.617558	19.916972	-30.617558	19.916972	-0.398514	-131.379159
9.500000	-0.403613	-131.966306	-30.517671	19.586965	-30.517671	19.586965	-0.403615	-131.965984
9.550000	-0.408774	-132.552791	-30.417850	19.251075	-30.417850	19.251075	-0.408776	-132.552474
9.600000	-0.413970	-133.139120	-30.318554	18.912128	-30.318554	18.912128	-0.413972	-133.138807
9.650000	-0.419234	-133.725133	-30.219177	18.567067	-30.219177	18.567067	-0.419236	-133.724824
9.700000	-0.424525	-134.311055	-30.120470	18.219935	-30.120470	18.219935	-0.424528	-134.310750
9.750000	-0.429893	-134.896701	-30.021528	17.866590	-30.021528	17.866590	-0.429895	-134.896401
9.800000	-0.435279	-135.482304	-29.923398	17.512007	-29.923398	17.512007	-0.435282	-135.482008
9.850000	-0.440751	-136.067690	-29.824867	17.151236	-29.824867	17.151236	-0.440753	-136.067398
9.900000	-0.446233	-136.653063	-29.727288	16.789916	-29.727288	16.789916	-0.446236	-136.652776
9.950000	-0.451808	-137.238298	-29.629132	16.422543	-29.629132	16.422543	-0.451810	-137.238015
10.000000	-0.457386	-137.823532	-29.532072	16.055170	-29.532072	16.055170	-0.457389	-137.823255
