! freq	dB(S11)	phase(S11)	dB(S12)	phase(S12)	
!     	dB(S21)	phase(S21)	dB(S22)	phase(S22)	
!S-par simulation data
#  GHz  S  DB  R 50
0.000000	-0.000000	0.000000	-340.075395	0.000000	-340.075395	0.000000	-0.000000	0.000000
0.050000	-0.000102	-0.814998	-67.758061	88.903956	-67.758061	88.903956	-0.000102	-0.814732
0.100000	-0.000403	-1.629753	-61.762728	87.876783	-61.762728	87.876783	-0.000403	-1.629220
0.150000	-0.000892	-2.444039	-58.272111	86.940928	-58.272111	86.940928	-0.000891	-2.443240
0.200000	-0.001549	-3.257667	-55.803542	86.079510	-55.803542	86.079510	-0.001548	-3.256603
0.250000	-0.002362	-4.070426	-53.892285	85.268663	-53.892285	85.268663	-0.002360	-4.069097
0.300000	-0.003295	-4.882273	-52.331130	84.482374	-52.331130	84.482374	-0.003292	-4.880680
0.350000	-0.004328	-5.693095	-51.011286	83.709249	-51.011286	83.709249	-0.004325	-5.691238
0.400000	-0.005440	-6.502843	-49.867978	82.941392	-49.867978	82.941392	-0.005436	-6.500724
0.450000	-0.006610	-7.311499	-48.859647	82.174663	-48.859647	82.174663	-0.006605	-7.309119
0.500000	-0.007819	-8.119068	-47.958004	81.407077	-47.958004	81.407077	-0.007813	-8.116426
0.550000	-0.009051	-8.925567	-47.142900	80.637814	-47.142900	80.637814	-0.009044	-8.922665
0.600000	-0.010295	-9.731025	-46.399461	79.866663	-46.399461	79.866663	-0.010287	-9.727864
0.650000	-0.011541	-10.535475	-45.716383	79.093717	-45.716383	79.093717	-0.011532	-10.532056
0.700000	-0.012781	-11.338950	-45.084871	78.319212	-45.084871	78.319212	-0.012772	-11.335273
0.750000	-0.014011	-12.141481	-44.497944	77.543440	-44.497944	77.543440	-0.014001	-12.137547
0.800000	-0.015228	-12.943095	-43.949964	76.766707	-43.949964	76.766707	-0.015217	-12.938905
0.850000	-0.016429	-13.743815	-43.436316	75.989308	-43.436316	75.989308	-0.016417	-13.739369
0.900000	-0.017614	-14.543657	-42.953170	75.211525	-42.953170	75.211525	-0.017601	-14.538956
0.950000	-0.018783	-15.342633	-42.497314	74.433616	-42.497314	74.433616	-0.018769	-15.337678
1.000000	-0.019935	-16.140750	-42.066026	73.655819	-42.066026	73.655819	-0.019921	-16.135541
1.050000	-0.021073	-16.938008	-41.656981	72.878352	-41.656981	72.878352	-0.021058	-16.932546
1.100000	-0.022197	-17.734406	-41.268174	72.101415	-41.268174	72.101415	-0.022181	-17.728692
1.150000	-0.023308	-18.529938	-40.897869	71.325190	-40.897869	71.325190	-0.023292	-18.523971
1.200000	-0.024408	-19.324594	-40.544547	70.549849	-40.544547	70.549849	-0.024391	-19.318376
1.250000	-0.025497	-20.118363	-40.206874	69.775548	-40.206874	69.775548	-0.025480	-20.111894
1.300000	-0.026578	-20.911190	-39.883755	69.002491	-39.883755	69.002491	-0.026559	-20.904471
1.350000	-0.027650	-21.703098	-39.574061	68.230770	-39.574061	68.230770	-0.027631	-21.696130
1.400000	-0.028716	-22.494070	-39.276858	67.460512	-39.276858	67.460512	-0.028697	-22.486853
1.450000	-0.029777	-23.284087	-38.991312	66.691839	-38.991312	66.691839	-0.029757	-23.276623
1.500000	-0.030833	-24.073131	-38.716670	65.924865	-38.716670	65.924865	-0.030812	-24.065419
1.550000	-0.031885	-24.861181	-38.452254	65.159699	-38.452254	65.159699	-0.031863	-24.853223
1.600000	-0.032934	-25.648218	-38.197448	64.396447	-38.197448	64.396447	-0.032911	-25.640014
1.650000	-0.033980	-26.434221	-37.951694	63.635210	-37.951694	63.635210	-0.033957	-26.425771
1.700000	-0.035025	-27.218792	-37.715117	62.876862	-37.715117	62.876862	-0.035001	-27.210099
1.750000	-0.036068	-28.002806	-37.485730	62.119648	-37.485730	62.119648	-0.036044	-27.993869
1.800000	-0.037111	-28.785475	-37.264402	61.365272	-37.264402	61.365272	-0.037086	-28.776296
1.850000	-0.038154	-29.567185	-37.050076	60.612922	-37.050076	60.612922	-0.038128	-29.557763
1.900000	-0.039197	-30.347698	-36.842736	59.863192	-36.842736	59.863192	-0.039170	-30.338036
1.950000	-0.040240	-31.127015	-36.642014	59.116080	-36.642014	59.116080	-0.040213	-31.117113
2.000000	-0.041284	-31.905300	-36.447324	58.371297	-36.447324	58.371297	-0.041256	-31.895158
2.050000	-0.042329	-32.682138	-36.258956	57.629775	-36.258956	57.629775	-0.042301	-32.671758
2.100000	-0.043375	-33.458123	-36.075767	56.890228	-36.075767	56.890228	-0.043347	-33.447505
2.150000	-0.044424	-34.232401	-35.898674	56.154632	-35.898674	56.154632	-0.044395	-34.221546
2.200000	-0.045474	-35.006018	-35.725990	55.420597	-35.725990	55.420597	-0.045444	-34.994927
2.250000	-0.046528	-35.777655	-35.559233	54.691248	-35.559233	54.691248	-0.046497	-35.766329
2.300000	-0.047582	-36.548839	-35.396186	53.962991	-35.396186	53.962991	-0.047551	-36.537278
2.350000	-0.048642	-37.317758	-35.238939	53.240196	-35.238939	53.240196	-0.048610	-37.305965
2.400000	-0.049702	-38.086445	-35.084766	52.517972	-35.084766	52.517972	-0.049669	-38.074419
2.450000	-0.050768	-38.852576	-34.936298	51.802027	-34.936298	51.802027	-0.050735	-38.840318
2.500000	-0.051835	-39.618706	-34.790326	51.086083	-34.790326	51.086083	-0.051801	-39.606218
2.550000	-0.052909	-40.381978	-34.649988	50.377274	-34.649988	50.377274	-0.052875	-40.369260
2.600000	-0.053984	-41.145250	-34.511881	49.668466	-34.511881	49.668466	-0.053949	-41.132303
2.650000	-0.055068	-41.905842	-34.378825	48.966449	-34.378825	48.966449	-0.055032	-41.892669
2.700000	-0.056152	-42.666191	-34.248034	48.265051	-34.248034	48.265051	-0.056115	-42.652790
2.750000	-0.057245	-43.424053	-34.121748	47.570048	-34.121748	47.570048	-0.057208	-43.410427
2.800000	-0.058340	-44.181417	-33.997777	46.876325	-33.997777	46.876325	-0.058302	-44.167566
2.850000	-0.059444	-44.936501	-33.877799	46.188549	-33.877799	46.188549	-0.059405	-44.922426
2.900000	-0.060551	-45.690824	-33.760196	45.502755	-33.760196	45.502755	-0.060512	-45.676526
2.950000	-0.061666	-46.443083	-33.646110	44.822412	-33.646110	44.822412	-0.061627	-46.428564
3.000000	-0.062787	-47.194311	-33.534462	44.144795	-33.534462	44.144795	-0.062746	-47.179571
3.050000	-0.063916	-47.943705	-33.425885	43.472084	-33.425885	43.472084	-0.063875	-47.928744
3.100000	-0.065051	-48.691788	-33.319815	42.802879	-33.319815	42.802879	-0.065009	-48.676608
3.150000	-0.066194	-49.438276	-33.216399	42.137994	-33.216399	42.137994	-0.066152	-49.422878
3.200000	-0.067345	-50.183168	-33.115558	41.477428	-33.115558	41.477428	-0.067302	-50.167553
3.250000	-0.068504	-50.926714	-33.016982	40.820553	-33.016982	40.820553	-0.068460	-50.910883
3.300000	-0.069673	-51.668374	-32.921046	40.168845	-32.921046	40.168845	-0.069629	-51.652327
3.350000	-0.070848	-52.408943	-32.827015	39.520159	-32.827015	39.520159	-0.070804	-52.392682
3.400000	-0.072037	-53.147332	-32.735685	38.877517	-32.735685	38.877517	-0.071991	-53.130858
3.450000	-0.073230	-53.884895	-32.645923	38.237192	-32.645923	38.237192	-0.073184	-53.868208
3.500000	-0.074440	-54.619978	-32.558917	37.603815	-32.558917	37.603815	-0.074393	-54.603081
3.550000	-0.075653	-55.354506	-32.473170	36.972014	-32.473170	36.972014	-0.075605	-55.337397
3.600000	-0.076885	-56.086253	-32.390224	36.348092	-32.390224	36.348092	-0.076836	-56.068935
3.650000	-0.078118	-56.817720	-32.308252	35.724972	-32.308252	35.724972	-0.078070	-56.800194
3.700000	-0.079374	-57.546105	-32.229118	35.110683	-32.229118	35.110683	-0.079325	-57.528371
3.750000	-0.080631	-58.274489	-32.150699	34.496393	-32.150699	34.496393	-0.080581	-58.256548
3.800000	-0.081912	-58.999488	-32.075142	33.891906	-32.075142	33.891906	-0.081862	-58.981341
3.850000	-0.083194	-59.724486	-32.000237	33.287418	-32.000237	33.287418	-0.083143	-59.706134
3.900000	-0.084502	-60.446362	-31.927861	32.692060	-31.927861	32.692060	-0.084450	-60.427806
3.950000	-0.085811	-61.167955	-31.856254	32.097532	-31.856254	32.097532	-0.085759	-61.149195
4.000000	-0.087145	-61.886696	-31.786863	31.511425	-31.786863	31.511425	-0.087092	-61.867735
4.050000	-0.088484	-62.604868	-31.718347	30.927002	-31.718347	30.927002	-0.088430	-62.585704
4.100000	-0.089846	-63.320464	-31.651756	30.350259	-31.651756	30.350259	-0.089791	-63.301100
4.150000	-0.091216	-64.035201	-31.586132	29.776076	-31.586132	29.776076	-0.091161	-64.015638
4.200000	-0.092608	-64.747644	-31.522165	29.208800	-31.522165	29.208800	-0.092552	-64.727882
4.250000	-0.094011	-65.458940	-31.459244	28.644978	-31.459244	28.644978	-0.093954	-65.438979
4.300000	-0.095433	-66.168225	-31.397732	28.087262	-31.397732	28.087262	-0.095376	-66.148067
4.350000	-0.096871	-66.876074	-31.337329	27.533908	-31.337329	27.533908	-0.096812	-66.855719
4.400000	-0.098326	-67.582198	-31.278109	26.985835	-31.278109	26.985835	-0.098267	-67.561648
4.450000	-0.099800	-68.286599	-31.220048	26.443043	-31.220048	26.443043	-0.099740	-68.265853
4.500000	-0.101289	-68.989563	-31.162963	25.904685	-31.162963	25.904685	-0.101229	-68.968623
4.550000	-0.102801	-69.690517	-31.107072	25.372533	-31.107072	25.372533	-0.102739	-69.669384
4.600000	-0.104326	-70.390324	-31.051973	24.843949	-31.051973	24.843949	-0.104264	-70.368999
4.650000	-0.105877	-71.087838	-30.998084	24.322498	-30.998084	24.322498	-0.105814	-71.066320
4.700000	-0.107439	-71.784493	-30.944824	23.803734	-30.944824	23.803734	-0.107376	-71.762784
4.750000	-0.109032	-72.478575	-30.892774	23.293029	-30.892774	23.293029	-0.108968	-72.456675
4.800000	-0.110632	-73.172086	-30.841212	22.784119	-30.841212	22.784119	-0.110567	-73.149997
4.850000	-0.112269	-73.862748	-30.790841	22.284183	-30.790841	22.284183	-0.112203	-73.840469
4.900000	-0.113909	-74.553126	-30.740841	21.785146	-30.740841	21.785146	-0.113842	-74.530659
4.950000	-0.115590	-75.240383	-30.691994	21.295985	-30.691994	21.295985	-0.115523	-75.217728
5.000000	-0.117272	-75.927641	-30.643420	20.806823	-30.643420	20.806823	-0.117204	-75.904798
5.050000	-0.119000	-76.611512	-30.595944	20.328419	-30.595944	20.328419	-0.118931	-76.588483
5.100000	-0.120729	-77.295384	-30.548725	19.850014	-30.548725	19.850014	-0.120659	-77.272169
5.150000	-0.122502	-77.976172	-30.502410	19.381431	-30.502410	19.381431	-0.122431	-77.952771
5.200000	-0.124279	-78.656679	-30.456399	18.913741	-30.456399	18.913741	-0.124208	-78.633094
5.250000	-0.126098	-79.334404	-30.411117	18.454925	-30.411117	18.454925	-0.126026	-79.310634
5.300000	-0.127925	-80.011572	-30.366168	17.997883	-30.366168	17.997883	-0.127852	-79.987618
5.350000	-0.129792	-80.686256	-30.321796	17.548758	-30.321796	17.548758	-0.129718	-80.662120
5.400000	-0.131672	-81.360113	-30.277764	17.102270	-30.277764	17.102270	-0.131597	-81.335793
5.450000	-0.133587	-82.031782	-30.234180	16.662738	-30.234180	16.662738	-0.133511	-82.007280
5.500000	-0.135520	-82.702357	-30.190925	16.226682	-30.190925	16.226682	-0.135444	-82.677673
5.550000	-0.137486	-83.371037	-30.148009	15.796623	-30.148009	15.796623	-0.137409	-83.346172
5.600000	-0.139475	-84.038365	-30.105392	15.370846	-30.105392	15.370846	-0.139397	-84.013318
5.650000	-0.141493	-84.704086	-30.063027	14.950115	-30.063027	14.950115	-0.141414	-84.678859
5.700000	-0.143540	-85.368202	-30.020911	14.534430	-30.020911	14.534430	-0.143459	-85.342795
5.750000	-0.145611	-86.030996	-29.978982	14.122859	-29.978982	14.122859	-0.145530	-86.005409
5.800000	-0.147716	-86.691939	-29.937233	13.717046	-29.937233	13.717046	-0.147634	-86.666172
5.850000	-0.149842	-87.351838	-29.895630	13.314440	-29.895630	13.314440	-0.149759	-87.325891
5.900000	-0.152008	-88.009649	-29.854117	12.918244	-29.854117	12.918244	-0.151924	-87.983524
5.950000	-0.154190	-88.666688	-29.812729	12.524379	-29.812729	12.524379	-0.154105	-88.640384
6.000000	-0.156419	-89.321412	-29.771322	12.137507	-29.771322	12.137507	-0.156333	-89.294930
6.050000	-0.158658	-89.975629	-29.730044	11.752134	-29.730044	11.752134	-0.158572	-89.948968
6.100000	-0.160951	-90.627311	-29.688619	11.374254	-29.688619	11.374254	-0.160863	-90.600473
6.150000	-0.163250	-91.278744	-29.647347	10.997093	-29.647347	10.997093	-0.163161	-91.251728
6.200000	-0.165609	-91.927434	-29.605782	10.627836	-29.605782	10.627836	-0.165519	-91.900241
6.250000	-0.167968	-92.576124	-29.564416	10.258579	-29.564416	10.258579	-0.167877	-92.548753
6.300000	-0.170394	-93.221873	-29.522594	9.897535	-29.522594	9.897535	-0.170302	-93.194325
6.350000	-0.172821	-93.867622	-29.480973	9.536490	-29.480973	9.536490	-0.172728	-93.839896
6.400000	-0.175310	-94.510723	-29.438845	9.182562	-29.438845	9.182562	-0.175216	-94.482821
6.450000	-0.177806	-95.153584	-29.396857	8.829280	-29.396857	8.829280	-0.177711	-95.125505
6.500000	-0.180361	-95.794085	-29.354335	8.482062	-29.354335	8.482062	-0.180265	-95.765828
6.550000	-0.182927	-96.434113	-29.311874	8.136055	-29.311874	8.136055	-0.182830	-96.405680
6.600000	-0.185548	-97.072061	-29.268875	7.795111	-29.268875	7.795111	-0.185450	-97.043450
6.650000	-0.188188	-97.709315	-29.225840	7.455853	-29.225840	7.455853	-0.188088	-97.680527
6.700000	-0.190876	-98.344759	-29.182284	7.120720	-29.182284	7.120720	-0.190776	-98.315794
6.750000	-0.193590	-98.979299	-29.138581	6.787649	-29.138581	6.787649	-0.193488	-98.950157
6.800000	-0.196347	-99.612290	-29.094396	6.457838	-29.094396	6.457838	-0.196245	-99.582971
6.850000	-0.199136	-100.244177	-29.049937	6.130357	-29.049937	6.130357	-0.199033	-100.214681
6.900000	-0.201964	-100.874769	-29.005056	5.805357	-29.005056	5.805357	-0.201860	-100.845095
6.950000	-0.204831	-101.504067	-28.959762	5.482839	-28.959762	5.482839	-0.204725	-101.474215
7.000000	-0.207731	-102.132313	-28.914125	5.162117	-28.914125	5.162117	-0.207624	-102.102284
7.050000	-0.210676	-102.759088	-28.867923	4.843908	-28.867923	4.843908	-0.210568	-102.728880
7.100000	-0.213649	-103.385045	-28.821477	4.526909	-28.821477	4.526909	-0.213540	-103.354658
7.150000	-0.216675	-104.009364	-28.774304	4.212333	-28.774304	4.212333	-0.216565	-103.978799
7.200000	-0.219723	-104.633087	-28.727002	3.898492	-28.727002	3.898492	-0.219611	-104.602343
7.250000	-0.222831	-105.255021	-28.678805	3.586855	-28.678805	3.586855	-0.222718	-105.224098
7.300000	-0.225954	-105.876569	-28.630606	3.275591	-28.630606	3.275591	-0.225839	-105.845467
7.350000	-0.229146	-106.496189	-28.581341	2.966189	-28.581341	2.966189	-0.229030	-106.464906
7.400000	-0.232346	-107.115622	-28.532215	2.656914	-28.532215	2.656914	-0.232229	-107.084159
7.450000	-0.235623	-107.733001	-28.481846	2.349037	-28.481846	2.349037	-0.235505	-107.701357
7.500000	-0.238901	-108.350380	-28.431768	2.041160	-28.431768	2.041160	-0.238782	-108.318555
7.550000	-0.242265	-108.965593	-28.380272	1.734099	-28.380272	1.734099	-0.242145	-108.933586
7.600000	-0.245630	-109.580807	-28.329079	1.427039	-28.329079	1.427039	-0.245509	-109.548618
7.650000	-0.249075	-110.194105	-28.276586	1.120087	-28.276586	1.120087	-0.248952	-110.161733
7.700000	-0.252529	-110.807229	-28.224264	0.813144	-28.224264	0.813144	-0.252404	-110.774674
7.750000	-0.256056	-111.418678	-28.170776	0.505731	-28.170776	0.505731	-0.255930	-111.385938
7.800000	-0.259599	-112.029792	-28.117321	0.198223	-28.117321	0.198223	-0.259472	-111.996868
7.850000	-0.263210	-112.639458	-28.062844	-0.110203	-28.062844	-0.110203	-0.263082	-112.606349
7.900000	-0.266845	-113.248642	-28.008261	-0.418936	-28.008261	-0.418936	-0.266715	-113.215346
7.950000	-0.270540	-113.856593	-27.952811	-0.728904	-27.952811	-0.728904	-0.270409	-113.823111
8.000000	-0.274267	-114.463929	-27.897114	-1.039490	-27.897114	-1.039490	-0.274134	-114.430259
8.050000	-0.278049	-115.070235	-27.840713	-1.351503	-27.840713	-1.351503	-0.277914	-115.036377
8.100000	-0.281870	-115.675805	-27.783924	-1.664534	-27.783924	-1.664534	-0.281734	-115.641759
8.150000	-0.285738	-116.280536	-27.726599	-1.979062	-27.726599	-1.979062	-0.285601	-116.246300
8.200000	-0.289655	-116.884428	-27.668749	-2.295086	-27.668749	-2.295086	-0.289516	-116.850001
8.250000	-0.293611	-117.487656	-27.610532	-2.612566	-27.610532	-2.612566	-0.293472	-117.453037
8.300000	-0.297625	-118.089955	-27.551659	-2.932082	-27.551659	-2.932082	-0.297483	-118.055144
8.350000	-0.301671	-118.691753	-27.492589	-3.252911	-27.492589	-3.252911	-0.301528	-118.656748
8.400000	-0.305782	-119.292549	-27.432736	-3.576364	-27.432736	-3.576364	-0.305638	-119.257349
8.450000	-0.309919	-119.892991	-27.372853	-3.900897	-27.372853	-3.900897	-0.309773	-119.857597
8.500000	-0.314129	-120.492373	-27.312069	-4.228673	-27.312069	-4.228673	-0.313982	-120.456782
8.550000	-0.318357	-121.091536	-27.251419	-4.557223	-27.251419	-4.557223	-0.318209	-121.055747
8.600000	-0.322668	-121.689597	-27.189756	-4.889647	-27.189756	-4.889647	-0.322518	-121.653609
8.650000	-0.326989	-122.287556	-27.128385	-5.222481	-27.128385	-5.222481	-0.326838	-122.251369
8.700000	-0.331402	-122.884390	-27.065898	-5.559815	-27.065898	-5.559815	-0.331249	-122.848002
8.750000	-0.335817	-123.481224	-27.003857	-5.897150	-27.003857	-5.897150	-0.335662	-123.444634
8.800000	-0.340332	-124.076926	-26.940601	-6.239593	-26.940601	-6.239593	-0.340176	-124.040132
8.850000	-0.344850	-124.672629	-26.877803	-6.582037	-26.877803	-6.582037	-0.344692	-124.635631
8.900000	-0.349461	-125.267383	-26.813971	-6.929286	-26.813971	-6.929286	-0.349301	-125.230178
8.950000	-0.354083	-125.862051	-26.750471	-7.276973	-26.750471	-7.276973	-0.353921	-125.824639
9.000000	-0.358790	-126.455939	-26.686113	-7.629089	-26.686113	-7.629089	-0.358627	-126.418318
9.050000	-0.363517	-127.049672	-26.621967	-7.982091	-26.621967	-7.982091	-0.363353	-127.011841
9.100000	-0.368322	-127.642779	-26.557129	-8.339089	-26.557129	-8.339089	-0.368156	-127.604736
9.150000	-0.373155	-128.235677	-26.492388	-8.697417	-26.492388	-8.697417	-0.372987	-128.197421
9.200000	-0.378059	-128.828087	-26.427116	-9.059267	-26.427116	-9.059267	-0.377889	-128.789617
9.250000	-0.382999	-129.420254	-26.361830	-9.422877	-26.361830	-9.422877	-0.382827	-129.381568
9.300000	-0.388001	-130.012055	-26.296164	-9.789509	-26.296164	-9.789509	-0.387828	-129.973151
9.350000	-0.393049	-130.603595	-26.230377	-10.158300	-26.230377	-10.158300	-0.392875	-130.564471
9.400000	-0.398152	-131.194875	-26.164355	-10.529607	-26.164355	-10.529607	-0.397975	-131.155530
9.450000	-0.403309	-131.785895	-26.098108	-10.903430	-26.098108	-10.903430	-0.403130	-131.746327
9.500000	-0.408512	-132.376743	-26.031762	-11.279270	-26.031762	-11.279270	-0.408332	-132.336951
9.550000	-0.413778	-132.967351	-25.965087	-11.657932	-25.965087	-11.657932	-0.413596	-132.927333
9.600000	-0.419082	-133.557860	-25.898446	-12.038130	-25.898446	-12.038130	-0.418899	-133.517613
9.650000	-0.424459	-134.148167	-25.831371	-12.421399	-25.831371	-12.421399	-0.424274	-134.107690
9.700000	-0.429865	-134.738428	-25.764456	-12.805754	-25.764456	-12.805754	-0.429678	-134.697719
9.750000	-0.435353	-135.328547	-25.697000	-13.193364	-25.697000	-13.193364	-0.435164	-135.287604
9.800000	-0.440861	-135.918655	-25.629829	-13.581649	-25.629829	-13.581649	-0.440670	-135.877477
9.850000	-0.446460	-136.508702	-25.562004	-13.973307	-25.562004	-13.973307	-0.446267	-136.467285
9.900000	-0.452071	-137.098752	-25.494587	-14.365277	-25.494587	-14.365277	-0.451877	-137.057096
9.950000	-0.457782	-137.688843	-25.426397	-14.760668	-25.426397	-14.760668	-0.457586	-137.646945
10.000000	-0.463497	-138.278935	-25.358738	-15.156059	-25.358738	-15.156059	-0.463299	-138.236793
