! freq	dB(S11)	phase(S11)	dB(S12)	phase(S12)	
!     	dB(S21)	phase(S21)	dB(S22)	phase(S22)	
!S-par simulation data
#  GHz  S  DB  R 50
0.000000	-0.000000	0.000000	-320.321130	0.000000	-320.321130	0.000000	-0.000000	0.000000
0.050000	-0.000124	-1.077795	-58.109941	88.276695	-58.109941	88.276695	-0.000116	-0.849412
0.100000	-0.000493	-2.155317	-52.172317	86.928914	-52.172317	86.928914	-0.000458	-1.698547
0.150000	-0.001096	-3.232310	-48.724774	85.893110	-48.724774	85.893110	-0.001013	-2.547151
0.200000	-0.001915	-4.308549	-46.279533	84.995745	-46.279533	84.995745	-0.001759	-3.395016
0.250000	-0.002942	-5.383765	-44.378629	84.141503	-44.378629	84.141503	-0.002680	-4.241907
0.300000	-0.004137	-6.457879	-42.821345	83.289015	-42.821345	83.289015	-0.003735	-5.087785
0.350000	-0.005483	-7.530716	-41.502095	82.427803	-41.502095	82.427803	-0.004903	-5.932531
0.400000	-0.006956	-8.602172	-40.357828	81.554981	-40.357828	81.554981	-0.006159	-6.776101
0.450000	-0.008533	-9.672173	-39.347815	80.671155	-39.347815	80.671155	-0.007480	-7.618484
0.500000	-0.010191	-10.740673	-38.444157	79.777915	-38.444157	79.777915	-0.008846	-8.459692
0.550000	-0.011911	-11.807647	-37.626883	78.876947	-37.626883	78.876947	-0.010243	-9.299749
0.600000	-0.013674	-12.873086	-36.881193	77.969762	-36.881193	77.969762	-0.011656	-10.138692
0.650000	-0.015467	-13.936993	-36.195810	77.057632	-36.195810	77.057632	-0.013078	-10.976558
0.700000	-0.017277	-14.999378	-35.561944	76.141611	-35.561944	76.141611	-0.014500	-11.813382
0.750000	-0.019095	-16.060257	-34.972609	75.222560	-34.972609	75.222560	-0.015919	-12.649198
0.800000	-0.020913	-17.119645	-34.422159	74.301191	-34.422159	74.301191	-0.017332	-13.484031
0.850000	-0.022725	-18.177556	-33.905967	73.378092	-33.905967	73.378092	-0.018737	-14.317902
0.900000	-0.024527	-19.234003	-33.420194	72.453753	-33.420194	72.453753	-0.020135	-15.150825
0.950000	-0.026318	-20.288993	-32.961619	71.528589	-32.961619	71.528589	-0.021525	-15.982808
1.000000	-0.028094	-21.342530	-32.527510	70.602953	-32.527510	70.602953	-0.022908	-16.813853
1.050000	-0.029857	-22.394616	-32.115536	69.677147	-32.115536	69.677147	-0.024285	-17.643957
1.100000	-0.031606	-23.445244	-31.723685	68.751434	-31.723685	68.751434	-0.025658	-18.473114
1.150000	-0.033341	-24.494407	-31.350214	67.826044	-31.350214	67.826044	-0.027027	-19.301313
1.200000	-0.035064	-25.542093	-30.993598	66.901181	-30.993598	66.901181	-0.028395	-20.128539
1.250000	-0.036775	-26.588285	-30.652499	65.977026	-30.652499	65.977026	-0.029761	-20.954776
1.300000	-0.038476	-27.632900	-30.325799	65.053785	-30.325799	65.053785	-0.031128	-21.779962
1.350000	-0.040169	-28.675979	-30.012381	64.131572	-30.012381	64.131572	-0.032497	-22.604119
1.400000	-0.041855	-29.717501	-29.711310	63.210519	-29.711310	63.210519	-0.033868	-23.427226
1.450000	-0.043535	-30.757440	-29.421744	62.290747	-29.421744	62.290747	-0.035241	-24.249261
1.500000	-0.045212	-31.795771	-29.142930	61.372366	-29.142930	61.372366	-0.036619	-25.070201
1.550000	-0.046885	-32.832465	-28.874183	60.455478	-28.874183	60.455478	-0.038001	-25.890023
1.600000	-0.048557	-33.867495	-28.614887	59.540179	-28.614887	59.540179	-0.039388	-26.708705
1.650000	-0.050229	-34.900833	-28.364479	58.626558	-28.364479	58.626558	-0.040781	-27.526222
1.700000	-0.051902	-35.932451	-28.122447	57.714696	-28.122447	57.714696	-0.042178	-28.342551
1.750000	-0.053577	-36.962320	-27.888320	56.804671	-27.888320	56.804671	-0.043582	-29.157670
1.800000	-0.055254	-37.990413	-27.661669	55.896556	-27.661669	55.896556	-0.044993	-29.971556
1.850000	-0.056936	-39.016702	-27.442097	54.990418	-27.442097	54.990418	-0.046409	-30.784186
1.900000	-0.058621	-40.041159	-27.229241	54.086322	-27.229241	54.086322	-0.047832	-31.595539
1.950000	-0.060312	-41.063758	-27.022761	53.184329	-27.022761	53.184329	-0.049262	-32.405592
2.000000	-0.062008	-42.084474	-26.822346	52.284495	-26.822346	52.284495	-0.050699	-33.214324
2.050000	-0.063711	-43.103282	-26.627706	51.386874	-26.627706	51.386874	-0.052142	-34.021715
2.100000	-0.065421	-44.120157	-26.438569	50.491518	-26.438569	50.491518	-0.053593	-34.827744
2.150000	-0.067138	-45.135077	-26.254685	49.598474	-26.254685	49.598474	-0.055051	-35.632391
2.200000	-0.068863	-46.148019	-26.075818	48.707787	-26.075818	48.707787	-0.056516	-36.435637
2.250000	-0.070596	-47.158962	-25.901749	47.819501	-25.901749	47.819501	-0.057988	-37.237463
2.300000	-0.072337	-48.167888	-25.732271	46.933657	-25.732271	46.933657	-0.059468	-38.037851
2.350000	-0.074088	-49.174776	-25.567190	46.050291	-25.567190	46.050291	-0.060955	-38.836783
2.400000	-0.075848	-50.179610	-25.406325	45.169441	-25.406325	45.169441	-0.062449	-39.634242
2.450000	-0.077617	-51.182374	-25.249504	44.291141	-25.249504	44.291141	-0.063951	-40.430210
2.500000	-0.079396	-52.183051	-25.096566	43.415421	-25.096566	43.415421	-0.065461	-41.224672
2.550000	-0.081186	-53.181536	-24.947405	42.542427	-24.947405	42.542427	-0.066979	-42.017545
2.600000	-0.082986	-54.177907	-24.801827	41.672075	-24.801827	41.672075	-0.068505	-42.808878
2.650000	-0.084797	-55.172153	-24.659697	40.804390	-24.659697	40.804390	-0.070040	-43.598659
2.700000	-0.086618	-56.164263	-24.520884	39.939397	-24.520884	39.939397	-0.071582	-44.386872
2.750000	-0.088451	-57.154230	-24.385265	39.077117	-24.385265	39.077117	-0.073133	-45.173503
2.800000	-0.090295	-58.142044	-24.252724	38.217573	-24.252724	38.217573	-0.074693	-45.958540
2.850000	-0.092152	-59.127700	-24.123148	37.360782	-24.123148	37.360782	-0.076261	-46.741971
2.900000	-0.094020	-60.111191	-23.996433	36.506763	-23.996433	36.506763	-0.077839	-47.523781
2.950000	-0.095900	-61.092515	-23.872476	35.655532	-23.872476	35.655532	-0.079426	-48.303961
3.000000	-0.097793	-62.071668	-23.751182	34.807103	-23.751182	34.807103	-0.081022	-49.082499
3.050000	-0.099699	-63.048649	-23.632457	33.961489	-23.632457	33.961489	-0.082628	-49.859385
3.100000	-0.101619	-64.023457	-23.516214	33.118703	-23.516214	33.118703	-0.084244	-50.634607
3.150000	-0.103552	-64.996092	-23.402369	32.278754	-23.402369	32.278754	-0.085870	-51.408157
3.200000	-0.105499	-65.966557	-23.290840	31.441651	-23.290840	31.441651	-0.087507	-52.180026
3.250000	-0.107460	-66.934854	-23.181550	30.607402	-23.181550	30.607402	-0.089155	-52.950204
3.300000	-0.109436	-67.900988	-23.074423	29.776013	-23.074423	29.776013	-0.090814	-53.718684
3.350000	-0.111428	-68.864964	-22.969390	28.947489	-22.969390	28.947489	-0.092485	-54.485458
3.400000	-0.113434	-69.826788	-22.866379	28.121834	-22.866379	28.121834	-0.094167	-55.250518
3.450000	-0.115457	-70.786468	-22.765327	27.299051	-22.765327	27.299051	-0.095861	-56.013858
3.500000	-0.117496	-71.744012	-22.666167	26.479141	-22.666167	26.479141	-0.097568	-56.775472
3.550000	-0.119552	-72.699430	-22.568840	25.662104	-22.568840	25.662104	-0.099288	-57.535354
3.600000	-0.121626	-73.652733	-22.473286	24.847939	-22.473286	24.847939	-0.101020	-58.293499
3.650000	-0.123717	-74.603933	-22.379447	24.036644	-22.379447	24.036644	-0.102767	-59.049901
3.700000	-0.125826	-75.553042	-22.287267	23.228215	-22.287267	23.228215	-0.104527	-59.804557
3.750000	-0.127954	-76.500074	-22.196695	22.422649	-22.196695	22.422649	-0.106302	-60.557462
3.800000	-0.130102	-77.444956	-22.107704	21.620063	-22.107704	21.620063	-0.108091	-61.308538
3.850000	-0.132270	-78.387793	-22.020216	20.820327	-22.020216	20.820327	-0.109897	-62.057856
3.900000	-0.134458	-79.328603	-21.934182	20.023433	-21.934182	20.023433	-0.111717	-62.805416
3.950000	-0.136668	-80.267405	-21.849556	19.229372	-21.849556	19.229372	-0.113554	-63.551214
4.000000	-0.138899	-81.204216	-21.766293	18.438134	-21.766293	18.438134	-0.115407	-64.295249
4.050000	-0.141151	-82.139058	-21.684347	17.649708	-21.684347	17.649708	-0.117276	-65.037521
4.100000	-0.143427	-83.071951	-21.603676	16.864083	-21.603676	16.864083	-0.119163	-65.778029
4.150000	-0.145726	-84.002918	-21.524238	16.081245	-21.524238	16.081245	-0.121068	-66.516773
4.200000	-0.148049	-84.931980	-21.445993	15.301180	-21.445993	15.301180	-0.122991	-67.253753
4.250000	-0.150396	-85.859163	-21.368902	14.523874	-21.368902	14.523874	-0.124932	-67.988969
4.300000	-0.152768	-86.784490	-21.292925	13.749310	-21.292925	13.749310	-0.126893	-68.722424
4.350000	-0.155166	-87.707988	-21.218027	12.977472	-21.218027	12.977472	-0.128873	-69.454119
4.400000	-0.157590	-88.629684	-21.144169	12.208342	-21.144169	12.208342	-0.130873	-70.184055
4.450000	-0.160042	-89.549604	-21.071317	11.441900	-21.071317	11.441900	-0.132894	-70.912236
4.500000	-0.162520	-90.467777	-20.999437	10.678126	-20.999437	10.678126	-0.134935	-71.638664
4.550000	-0.165028	-91.384234	-20.928494	9.917000	-20.928494	9.917000	-0.136998	-72.363344
4.600000	-0.167564	-92.299002	-20.858455	9.158500	-20.858455	9.158500	-0.139083	-73.086278
4.650000	-0.170130	-93.212115	-20.789290	8.402601	-20.789290	8.402601	-0.141190	-73.807471
4.700000	-0.172726	-94.123604	-20.720965	7.649281	-20.720965	7.649281	-0.143321	-74.526927
4.750000	-0.175353	-95.033501	-20.653451	6.898514	-20.653451	6.898514	-0.145474	-75.244652
4.800000	-0.178011	-95.941841	-20.586717	6.150274	-20.586717	6.150274	-0.147652	-75.960651
4.850000	-0.180702	-96.848658	-20.520734	5.404534	-20.520734	5.404534	-0.149855	-76.674929
4.900000	-0.183426	-97.753987	-20.455474	4.661264	-20.455474	4.661264	-0.152082	-77.387494
4.950000	-0.186184	-98.657865	-20.390908	3.920436	-20.390908	3.920436	-0.154335	-78.098352
5.000000	-0.188976	-99.560328	-20.327008	3.182018	-20.327008	3.182018	-0.156614	-78.807509
5.050000	-0.191804	-100.461357	-20.263756	2.446082	-20.263756	2.446082	-0.158922	-79.514900
5.100000	-0.194669	-101.361052	-20.201115	1.712489	-20.201115	1.712489	-0.161256	-80.220606
5.150000	-0.197570	-102.259452	-20.139060	0.981205	-20.139060	0.981205	-0.163619	-80.924637
5.200000	-0.200508	-103.156598	-20.077566	0.252194	-20.077566	0.252194	-0.166010	-81.626999
5.250000	-0.203485	-104.052532	-20.016607	-0.474580	-20.016607	-0.474580	-0.168430	-82.327703
5.300000	-0.206500	-104.947295	-19.956160	-1.199155	-19.956160	-1.199155	-0.170879	-83.026757
5.350000	-0.209554	-105.840931	-19.896200	-1.921570	-19.896200	-1.921570	-0.173359	-83.724171
5.400000	-0.212648	-106.733482	-19.836705	-2.641866	-19.836705	-2.641866	-0.175870	-84.419954
5.450000	-0.215784	-107.624995	-19.777650	-3.360084	-19.777650	-3.360084	-0.178412	-85.114118
5.500000	-0.218961	-108.515514	-19.719013	-4.076268	-19.719013	-4.076268	-0.180987	-85.806673
5.550000	-0.222180	-109.405086	-19.660772	-4.790460	-19.660772	-4.790460	-0.183594	-86.497630
5.600000	-0.225442	-110.293757	-19.602905	-5.502708	-19.602905	-5.502708	-0.186234	-87.186999
5.650000	-0.228748	-111.181576	-19.545392	-6.213059	-19.545392	-6.213059	-0.188909	-87.874793
5.700000	-0.232098	-112.068591	-19.488210	-6.921559	-19.488210	-6.921559	-0.191618	-88.561023
5.750000	-0.235493	-112.954851	-19.431339	-7.628261	-19.431339	-7.628261	-0.194363	-89.245702
5.800000	-0.238935	-113.840407	-19.374759	-8.333213	-19.374759	-8.333213	-0.197143	-89.928842
5.850000	-0.242423	-114.725311	-19.318451	-9.036470	-19.318451	-9.036470	-0.199960	-90.610456
5.900000	-0.245958	-115.609614	-19.262394	-9.738086	-19.262394	-9.738086	-0.202815	-91.290556
5.950000	-0.249542	-116.493368	-19.206569	-10.438115	-19.206569	-10.438115	-0.205707	-91.969157
6.000000	-0.253175	-117.376628	-19.150958	-11.136616	-19.150958	-11.136616	-0.208638	-92.646272
6.050000	-0.256857	-118.259449	-19.095543	-11.833646	-19.095543	-11.833646	-0.211609	-93.321914
6.100000	-0.260589	-119.141884	-19.040305	-12.529265	-19.040305	-12.529265	-0.214620	-93.996099
6.150000	-0.264373	-120.023992	-18.985227	-13.223536	-18.985227	-13.223536	-0.217671	-94.668840
6.200000	-0.268209	-120.905827	-18.930291	-13.916521	-18.930291	-13.916521	-0.220765	-95.340152
6.250000	-0.272097	-121.787450	-18.875480	-14.608284	-18.875480	-14.608284	-0.223900	-96.010050
6.300000	-0.276068	-122.668867	-18.820636	-15.298281	-18.820636	-15.298281	-0.227103	-96.677769
6.350000	-0.280041	-123.550284	-18.766136	-15.988277	-18.766136	-15.988277	-0.230307	-97.345488
6.400000	-0.284118	-124.431651	-18.711466	-16.676343	-18.711466	-16.676343	-0.233596	-98.010595
6.450000	-0.288206	-125.313013	-18.657091	-17.364234	-18.657091	-17.364234	-0.236893	-98.675465
6.500000	-0.292391	-126.194556	-18.602539	-18.050630	-18.602539	-18.050630	-0.240271	-99.338020
6.550000	-0.296597	-127.076135	-18.548225	-18.736728	-18.548225	-18.736728	-0.243665	-100.000111
6.600000	-0.300894	-127.958085	-18.493738	-19.421723	-18.493738	-19.421723	-0.247133	-100.660173
6.650000	-0.305222	-128.840159	-18.439421	-20.106351	-18.439421	-20.106351	-0.250628	-101.319558
6.700000	-0.309632	-129.722754	-18.384949	-20.790225	-18.384949	-20.790225	-0.254191	-101.977189
6.750000	-0.314085	-130.605610	-18.330571	-21.473721	-18.330571	-21.473721	-0.257789	-102.633942
6.800000	-0.318613	-131.489095	-18.276065	-22.156761	-18.276065	-22.156761	-0.261450	-103.289205
6.850000	-0.323195	-132.373030	-18.221570	-22.839474	-18.221570	-22.839474	-0.265156	-103.943404
6.900000	-0.327842	-133.257655	-18.166987	-23.521977	-18.166987	-23.521977	-0.268918	-104.596364
6.950000	-0.332556	-134.142972	-18.112321	-24.204268	-18.112321	-24.204268	-0.272735	-105.248086
7.000000	-0.337328	-135.028995	-18.057620	-24.886538	-18.057620	-24.886538	-0.276601	-105.898809
7.050000	-0.342178	-135.916007	-18.002735	-25.568777	-18.002735	-25.568777	-0.280534	-106.548134
7.100000	-0.347075	-136.803692	-17.947877	-26.251125	-17.947877	-26.251125	-0.284507	-107.196688
7.150000	-0.352065	-137.692723	-17.892728	-26.933691	-17.892728	-26.933691	-0.288559	-107.843698
7.200000	-0.357092	-138.582342	-17.837676	-27.616435	-17.837676	-27.616435	-0.292643	-108.490150
7.250000	-0.362225	-139.473723	-17.782222	-28.299715	-17.782222	-28.299715	-0.296818	-109.134929
7.300000	-0.367385	-140.365553	-17.726945	-28.983179	-17.726945	-28.983179	-0.301016	-109.779351
7.350000	-0.372666	-141.259627	-17.671148	-29.667566	-17.671148	-29.667566	-0.305319	-110.421983
7.400000	-0.377962	-142.153954	-17.615615	-30.352079	-17.615615	-30.352079	-0.309636	-111.064444
7.450000	-0.383394	-143.051070	-17.559440	-31.037972	-17.559440	-31.037972	-0.314071	-111.705017
7.500000	-0.388830	-143.948187	-17.503626	-31.723865	-17.503626	-31.723865	-0.318508	-112.345590
7.550000	-0.394380	-144.847811	-17.447330	-32.411138	-17.447330	-32.411138	-0.323047	-112.984673
7.600000	-0.400005	-145.749155	-17.390848	-33.099422	-17.390848	-33.099422	-0.327652	-113.622832
7.650000	-0.405708	-146.652304	-17.334175	-33.788810	-17.334175	-33.788810	-0.332324	-114.260089
7.700000	-0.411488	-147.557346	-17.277305	-34.479394	-17.277305	-34.479394	-0.337066	-114.896464
7.750000	-0.417347	-148.464369	-17.220233	-35.171267	-17.220233	-35.171267	-0.341877	-115.531977
7.800000	-0.423285	-149.373461	-17.162955	-35.864522	-17.162955	-35.864522	-0.346759	-116.166650
7.850000	-0.429304	-150.284714	-17.105466	-36.559252	-17.105466	-36.559252	-0.351714	-116.800503
7.900000	-0.435405	-151.198219	-17.047763	-37.255549	-17.047763	-37.255549	-0.356741	-117.433559
7.950000	-0.441588	-152.114069	-16.989842	-37.953506	-16.989842	-37.953506	-0.361843	-118.065839
8.000000	-0.447855	-153.032358	-16.931700	-38.653213	-16.931700	-38.653213	-0.367021	-118.697363
8.050000	-0.454207	-153.953182	-16.873335	-39.354764	-16.873335	-39.354764	-0.372275	-119.328154
8.100000	-0.460645	-154.876638	-16.814743	-40.058248	-16.814743	-40.058248	-0.377607	-119.958234
8.150000	-0.467170	-155.802824	-16.755923	-40.763757	-16.755923	-40.763757	-0.383019	-120.587625
8.200000	-0.473783	-156.731839	-16.696872	-41.471381	-16.696872	-41.471381	-0.388510	-121.216348
8.250000	-0.480485	-157.663783	-16.637590	-42.181210	-16.637590	-42.181210	-0.394083	-121.844426
8.300000	-0.487277	-158.598759	-16.578075	-42.893332	-16.578075	-42.893332	-0.399739	-122.471881
8.350000	-0.494161	-159.536869	-16.518326	-43.607837	-16.518326	-43.607837	-0.405480	-123.098735
8.400000	-0.501137	-160.478219	-16.458342	-44.324813	-16.458342	-44.324813	-0.411305	-123.725011
8.450000	-0.508207	-161.422915	-16.398123	-45.044347	-16.398123	-45.044347	-0.417217	-124.350732
8.500000	-0.515372	-162.371063	-16.337668	-45.766527	-16.337668	-45.766527	-0.423218	-124.975921
8.550000	-0.522633	-163.322772	-16.276978	-46.491439	-16.276978	-46.491439	-0.429307	-125.600600
8.600000	-0.529991	-164.278153	-16.216052	-47.219170	-16.216052	-47.219170	-0.435487	-126.224792
8.650000	-0.537448	-165.237316	-16.154891	-47.949804	-16.154891	-47.949804	-0.441760	-126.848520
8.700000	-0.545004	-166.200375	-16.093494	-48.683428	-16.093494	-48.683428	-0.448125	-127.471808
8.750000	-0.552661	-167.167444	-16.031864	-49.420126	-16.031864	-49.420126	-0.454586	-128.094678
8.800000	-0.560424	-168.138824	-15.969971	-50.160123	-15.969971	-50.160123	-0.461147	-128.717139
8.850000	-0.568290	-169.114456	-15.907845	-50.903372	-15.907845	-50.903372	-0.467806	-129.339231
8.900000	-0.576260	-170.094461	-15.845487	-51.649955	-15.845487	-51.649955	-0.474564	-129.960979
8.950000	-0.584337	-171.078957	-15.782898	-52.399958	-15.782898	-52.399958	-0.481422	-130.582406
9.000000	-0.592520	-172.068066	-15.720081	-53.153464	-15.720081	-53.153464	-0.488383	-131.203536
9.050000	-0.600812	-173.061911	-15.657035	-53.910556	-15.657035	-53.910556	-0.495448	-131.824393
9.100000	-0.609213	-174.060616	-15.593764	-54.671321	-15.593764	-54.671321	-0.502618	-132.445000
9.150000	-0.617724	-175.064306	-15.530267	-55.435841	-15.530267	-55.435841	-0.509895	-133.065382
9.200000	-0.626347	-176.073109	-15.466548	-56.204203	-15.466548	-56.204203	-0.517280	-133.685564
9.250000	-0.635084	-177.087152	-15.402607	-56.976492	-15.402607	-56.976492	-0.524775	-134.305568
9.300000	-0.643934	-178.106565	-15.338447	-57.752793	-15.338447	-57.752793	-0.532382	-134.925421
9.350000	-0.652900	-179.131479	-15.274069	-58.533194	-15.274069	-58.533194	-0.540101	-135.545145
9.400000	-0.661982	179.837975	-15.209476	-59.317783	-15.209476	-59.317783	-0.547936	-136.164766
9.450000	-0.671182	178.801662	-15.144670	-60.106649	-15.144670	-60.106649	-0.555887	-136.784308
9.500000	-0.680501	177.759449	-15.079654	-60.899880	-15.079654	-60.899880	-0.563957	-137.403796
9.550000	-0.689940	176.711200	-15.014428	-61.697568	-15.014428	-61.697568	-0.572146	-138.023255
9.600000	-0.699501	175.656777	-14.948997	-62.499807	-14.948997	-62.499807	-0.580456	-138.642710
9.650000	-0.709183	174.596044	-14.883363	-63.306688	-14.883363	-63.306688	-0.588891	-139.262185
9.700000	-0.718988	173.528860	-14.817528	-64.118309	-14.817528	-64.118309	-0.597450	-139.881705
9.750000	-0.728918	172.455086	-14.751495	-64.934766	-14.751495	-64.934766	-0.606136	-140.501297
9.800000	-0.738973	171.374581	-14.685269	-65.756158	-14.685269	-65.756158	-0.614950	-141.120984
9.850000	-0.749154	170.287203	-14.618851	-66.582587	-14.618851	-66.582587	-0.623895	-141.740793
9.900000	-0.759463	169.192809	-14.552246	-67.414155	-14.552246	-67.414155	-0.632973	-142.360748
9.950000	-0.769899	168.091257	-14.485457	-68.250968	-14.485457	-68.250968	-0.642184	-142.980876
10.000000	-0.780464	166.982401	-14.418488	-69.093134	-14.418488	-69.093134	-0.651531	-143.601201
