! freq	dB(S11)	phase(S11)	dB(S12)	phase(S12)	
!     	dB(S21)	phase(S21)	dB(S22)	phase(S22)	
!S-par simulation data
#  GHz  S  DB  R 50
0.000000	-0.000000	0.000000	-324.851571	0.000000	-324.851571	0.000000	0.000000	0.000000
0.050000	-0.000125	-1.035662	-64.378708	88.996005	-64.378708	88.996005	-0.000102	-0.801827
0.100000	-0.000496	-2.071020	-58.363651	87.998146	-58.363651	87.998146	-0.000406	-1.603409
0.150000	-0.001099	-3.105789	-54.850426	87.011267	-54.850426	87.011267	-0.000897	-2.404520
0.200000	-0.001913	-4.139724	-52.362510	86.038093	-52.362510	86.038093	-0.001558	-3.204971
0.250000	-0.002925	-5.172543	-50.437134	85.080466	-50.437134	85.080466	-0.002375	-4.004552
0.300000	-0.004091	-6.204174	-48.867030	84.136331	-48.867030	84.136331	-0.003311	-4.803223
0.350000	-0.005392	-7.234447	-47.542159	83.204762	-47.542159	83.204762	-0.004347	-5.600873
0.400000	-0.006799	-8.263273	-46.396626	82.283808	-46.396626	82.283808	-0.005462	-6.397460
0.450000	-0.008288	-9.290597	-45.387946	81.371481	-45.387946	81.371481	-0.006633	-7.192968
0.500000	-0.009835	-10.316393	-44.487155	80.465985	-44.487155	80.465985	-0.007843	-7.987405
0.550000	-0.011420	-11.340654	-43.673633	79.565806	-43.673633	79.565806	-0.009076	-8.780793
0.600000	-0.013028	-12.363390	-42.932197	78.669738	-42.932197	78.669738	-0.010322	-9.573162
0.650000	-0.014644	-13.384618	-42.251341	77.776856	-42.251341	77.776856	-0.011569	-10.364547
0.700000	-0.016259	-14.404357	-41.622145	76.886473	-41.622145	76.886473	-0.012812	-11.154982
0.750000	-0.017865	-15.422628	-41.037552	75.998096	-41.037552	75.998096	-0.014046	-11.944499
0.800000	-0.019456	-16.439450	-40.491882	75.111383	-40.491882	75.111383	-0.015268	-12.733125
0.850000	-0.021029	-17.454836	-39.980494	74.226111	-39.980494	74.226111	-0.016476	-13.520883
0.900000	-0.022582	-18.468795	-39.499548	73.342140	-39.499548	73.342140	-0.017670	-14.307790
0.950000	-0.024114	-19.481330	-39.045830	72.459398	-39.045830	72.459398	-0.018849	-15.093855
1.000000	-0.025625	-20.492438	-38.616620	71.577860	-38.616620	71.577860	-0.020014	-15.879086
1.050000	-0.027115	-21.502112	-38.209597	70.697537	-38.209597	70.697537	-0.021166	-16.663484
1.100000	-0.028586	-22.510338	-37.822763	69.818464	-37.822763	69.818464	-0.022306	-17.447046
1.150000	-0.030038	-23.517101	-37.454386	68.940695	-37.454386	68.940695	-0.023436	-18.229766
1.200000	-0.031473	-24.522378	-37.102956	68.064295	-37.102956	68.064295	-0.024556	-19.011634
1.250000	-0.032893	-25.526146	-36.767143	67.189339	-36.767143	67.189339	-0.025667	-19.792639
1.300000	-0.034298	-26.528311	-36.445864	66.315980	-36.445864	66.315980	-0.026772	-20.572728
1.350000	-0.035692	-27.528909	-36.137990	65.444239	-36.137990	65.444239	-0.027870	-21.351922
1.400000	-0.037074	-28.527910	-35.842591	64.574202	-35.842591	64.574202	-0.028963	-22.130206
1.450000	-0.038447	-29.525281	-35.558837	63.705959	-35.558837	63.705959	-0.030052	-22.907560
1.500000	-0.039813	-30.520991	-35.285979	62.839597	-35.285979	62.839597	-0.031138	-23.683967
1.550000	-0.041171	-31.515005	-35.023341	61.975203	-35.023341	61.975203	-0.032221	-24.459406
1.600000	-0.042523	-32.507291	-34.770310	61.112865	-34.770310	61.112865	-0.033302	-25.233859
1.650000	-0.043871	-33.497815	-34.526331	60.252668	-34.526331	60.252668	-0.034382	-26.007305
1.700000	-0.045215	-34.486544	-34.290895	59.394696	-34.290895	59.394696	-0.035461	-26.779724
1.750000	-0.046555	-35.473444	-34.063537	58.539034	-34.063537	58.539034	-0.036539	-27.551097
1.800000	-0.047894	-36.458483	-33.843831	57.685761	-33.843831	57.685761	-0.037618	-28.321404
1.850000	-0.049230	-37.441628	-33.631385	56.834958	-33.631385	56.834958	-0.038697	-29.090625
1.900000	-0.050566	-38.422849	-33.425836	55.986704	-33.425836	55.986704	-0.039777	-29.858741
1.950000	-0.051901	-39.402114	-33.226851	55.141074	-33.226851	55.141074	-0.040858	-30.625732
2.000000	-0.053237	-40.379394	-33.034120	54.298145	-33.034120	54.298145	-0.041940	-31.391579
2.050000	-0.054573	-41.354659	-32.847354	53.457989	-32.847354	53.457989	-0.043024	-32.156264
2.100000	-0.055910	-42.327881	-32.666285	52.620679	-32.666285	52.620679	-0.044109	-32.919768
2.150000	-0.057248	-43.299032	-32.490665	51.786284	-32.490665	51.786284	-0.045197	-33.682073
2.200000	-0.058588	-44.268087	-32.320259	50.954873	-32.320259	50.954873	-0.046287	-34.443162
2.250000	-0.059931	-45.235019	-32.154850	50.126513	-32.154850	50.126513	-0.047379	-35.203017
2.300000	-0.061276	-46.199806	-31.994231	49.301271	-31.994231	49.301271	-0.048475	-35.961621
2.350000	-0.062625	-47.162422	-31.838212	48.479209	-31.838212	48.479209	-0.049573	-36.718958
2.400000	-0.063976	-48.122845	-31.686610	47.660390	-31.686610	47.660390	-0.050675	-37.475010
2.450000	-0.065332	-49.081055	-31.539255	46.844875	-31.539255	46.844875	-0.051779	-38.229764
2.500000	-0.066691	-50.037031	-31.395987	46.032723	-31.395987	46.032723	-0.052888	-38.983202
2.550000	-0.068056	-50.990655	-31.256723	45.224144	-31.256723	45.224144	-0.054001	-39.735252
2.600000	-0.069425	-51.942005	-31.121247	44.419048	-31.121247	44.419048	-0.055117	-40.485956
2.650000	-0.070799	-52.891065	-30.989422	43.617490	-30.989422	43.617490	-0.056238	-41.235299
2.700000	-0.072179	-53.837819	-30.861119	42.819522	-30.861119	42.819522	-0.057364	-41.983268
2.750000	-0.073565	-54.782250	-30.736214	42.025197	-30.736214	42.025197	-0.058495	-42.729849
2.800000	-0.074957	-55.724347	-30.614590	41.234564	-30.614590	41.234564	-0.059631	-43.475030
2.850000	-0.076356	-56.664095	-30.496136	40.447674	-30.496136	40.447674	-0.060772	-44.218797
2.900000	-0.077762	-57.601482	-30.380744	39.664573	-30.380744	39.664573	-0.061919	-44.961139
2.950000	-0.079176	-58.536497	-30.268312	38.885308	-30.268312	38.885308	-0.063072	-45.702042
3.000000	-0.080598	-59.469131	-30.158743	38.109923	-30.158743	38.109923	-0.064231	-46.441496
3.050000	-0.082028	-60.399374	-30.051945	37.338461	-30.051945	37.338461	-0.065397	-47.179490
3.100000	-0.083467	-61.327218	-29.947826	36.570964	-29.947826	36.570964	-0.066570	-47.916013
3.150000	-0.084915	-62.252656	-29.846302	35.807472	-29.846302	35.807472	-0.067750	-48.651054
3.200000	-0.086373	-63.175682	-29.747290	35.048025	-29.747290	35.048025	-0.068938	-49.384603
3.250000	-0.087841	-64.096290	-29.650711	34.292660	-29.650711	34.292660	-0.070133	-50.116652
3.300000	-0.089319	-65.014477	-29.556488	33.541412	-29.556488	33.541412	-0.071337	-50.847190
3.350000	-0.090809	-65.930239	-29.464549	32.794317	-29.464549	32.794317	-0.072549	-51.576208
3.400000	-0.092310	-66.843573	-29.374821	32.051407	-29.374821	32.051407	-0.073770	-52.303699
3.450000	-0.093823	-67.754479	-29.287238	31.312716	-29.287238	31.312716	-0.075001	-53.029654
3.500000	-0.095349	-68.662955	-29.201732	30.578272	-29.201732	30.578272	-0.076241	-53.754066
3.550000	-0.096887	-69.569002	-29.118240	29.848105	-29.118240	29.848105	-0.077490	-54.476927
3.600000	-0.098439	-70.472621	-29.036701	29.122242	-29.036701	29.122242	-0.078751	-55.198231
3.650000	-0.100005	-71.373814	-28.957053	28.400710	-28.957053	28.400710	-0.080021	-55.917970
3.700000	-0.101585	-72.272584	-28.879240	27.683534	-28.879240	27.683534	-0.081303	-56.636140
3.750000	-0.103181	-73.168935	-28.803205	26.970736	-28.803205	26.970736	-0.082597	-57.352733
3.800000	-0.104792	-74.062766	-28.728939	26.262531	-28.728939	26.262531	-0.083902	-58.067676
3.850000	-0.106419	-74.954189	-28.656341	25.558748	-28.656341	25.558748	-0.085220	-58.781033
3.900000	-0.108063	-75.843210	-28.585360	24.859407	-28.585360	24.859407	-0.086550	-59.492798
3.950000	-0.109724	-76.729835	-28.515945	24.164524	-28.515945	24.164524	-0.087893	-60.202968
4.000000	-0.111402	-77.614074	-28.448048	23.474116	-28.448048	23.474116	-0.089250	-60.911538
4.050000	-0.113098	-78.495934	-28.381620	22.788198	-28.381620	22.788198	-0.090620	-61.618506
4.100000	-0.114813	-79.375426	-28.316616	22.106781	-28.316616	22.106781	-0.092005	-62.323869
4.150000	-0.116546	-80.252559	-28.252990	21.429878	-28.252990	21.429878	-0.093404	-63.027623
4.200000	-0.118299	-81.127345	-28.190698	20.757499	-28.190698	20.757499	-0.094818	-63.729767
4.250000	-0.120073	-81.999795	-28.129697	20.089653	-28.129697	20.089653	-0.096247	-64.430298
4.300000	-0.121866	-82.869923	-28.069943	19.426345	-28.069943	19.426345	-0.097691	-65.129215
4.350000	-0.123681	-83.737742	-28.011398	18.767583	-28.011398	18.767583	-0.099152	-65.826517
4.400000	-0.125517	-84.603264	-27.954018	18.113370	-27.954018	18.113370	-0.100630	-66.522203
4.450000	-0.127376	-85.466506	-27.897766	17.463708	-27.897766	17.463708	-0.102124	-67.216273
4.500000	-0.129256	-86.327483	-27.842602	16.818599	-27.842602	16.818599	-0.103635	-67.908726
4.550000	-0.131160	-87.186210	-27.788488	16.178042	-27.788488	16.178042	-0.105164	-68.599562
4.600000	-0.133088	-88.042705	-27.735387	15.542035	-27.735387	15.542035	-0.106712	-69.288783
4.650000	-0.135039	-88.896985	-27.683262	14.910573	-27.683262	14.910573	-0.108277	-69.976389
4.700000	-0.137015	-89.749068	-27.632077	14.283653	-27.632077	14.283653	-0.109862	-70.662381
4.750000	-0.139016	-90.598973	-27.581797	13.661265	-27.581797	13.661265	-0.111466	-71.346762
4.800000	-0.141043	-91.446719	-27.532388	13.043403	-27.532388	13.043403	-0.113090	-72.029532
4.850000	-0.143095	-92.292326	-27.483814	12.430054	-27.483814	12.430054	-0.114734	-72.710695
4.900000	-0.145174	-93.135815	-27.436042	11.821208	-27.436042	11.821208	-0.116398	-73.390253
4.950000	-0.147280	-93.977207	-27.389040	11.216849	-27.389040	11.216849	-0.118083	-74.068209
5.000000	-0.149413	-94.816524	-27.342775	10.616962	-27.342775	10.616962	-0.119790	-74.744566
5.050000	-0.151576	-95.653699	-27.297232	10.021723	-27.297232	10.021723	-0.121519	-75.419259
5.100000	-0.153767	-96.488847	-27.252361	9.430916	-27.252361	9.430916	-0.123271	-76.092361
5.150000	-0.155987	-97.321991	-27.208129	8.844521	-27.208129	8.844521	-0.125045	-76.763877
5.200000	-0.158236	-98.153155	-27.164506	8.262512	-27.164506	8.262512	-0.126842	-77.433811
5.250000	-0.160515	-98.982364	-27.121462	7.684865	-27.121462	7.684865	-0.128663	-78.102167
5.300000	-0.162824	-99.809643	-27.078965	7.111552	-27.078965	7.111552	-0.130507	-78.768953
5.350000	-0.165164	-100.635017	-27.036988	6.542542	-27.036988	6.542542	-0.132376	-79.434171
5.400000	-0.167536	-101.458514	-26.995501	5.977804	-26.995501	5.977804	-0.134270	-80.097830
5.450000	-0.169949	-102.279528	-26.954556	5.418759	-26.954556	5.418759	-0.136197	-80.759396
5.500000	-0.172380	-103.099586	-26.913932	4.861912	-26.913932	4.861912	-0.138138	-81.420154
5.550000	-0.174851	-103.917472	-26.873749	4.310111	-26.873749	4.310111	-0.140110	-82.079039
5.600000	-0.177350	-104.733806	-26.833929	3.761913	-26.833929	3.761913	-0.142106	-82.736586
5.650000	-0.179884	-105.548341	-26.794454	3.217945	-26.794454	3.217945	-0.144129	-83.392544
5.700000	-0.182454	-106.361077	-26.755320	2.678206	-26.755320	2.678206	-0.146181	-84.046912
5.750000	-0.185053	-107.172367	-26.716455	2.141903	-26.716455	2.141903	-0.148257	-84.699970
5.800000	-0.187694	-107.981634	-26.677892	1.610409	-26.677892	1.610409	-0.150366	-85.351193
5.850000	-0.190360	-108.789789	-26.639539	1.081585	-26.639539	1.081585	-0.152496	-86.001381
5.900000	-0.193076	-109.595721	-26.601434	0.558098	-26.601434	0.558098	-0.154665	-86.649495
5.950000	-0.195810	-110.400853	-26.563500	0.036548	-26.563500	0.036548	-0.156851	-87.296843
6.000000	-0.198601	-111.203588	-26.525744	-0.479193	-26.525744	-0.479193	-0.159082	-87.941888
6.050000	-0.201405	-112.005813	-26.488137	-0.993693	-26.488137	-0.993693	-0.161324	-88.586428
6.100000	-0.204273	-112.805493	-26.450623	-1.501979	-26.450623	-1.501979	-0.163619	-89.228445
6.150000	-0.207149	-113.604930	-26.413255	-2.009670	-26.413255	-2.009670	-0.165919	-89.870212
6.200000	-0.210097	-114.401700	-26.375880	-2.510816	-26.375880	-2.510816	-0.168280	-90.509244
6.250000	-0.213045	-115.198470	-26.338665	-3.011963	-26.338665	-3.011963	-0.170640	-91.148275
6.300000	-0.216074	-115.992479	-26.301328	-3.506313	-26.301328	-3.506313	-0.173067	-91.784366
6.350000	-0.219103	-116.786489	-26.264151	-4.000663	-26.264151	-4.000663	-0.175495	-92.420457
6.400000	-0.222207	-117.578109	-26.226788	-4.489124	-26.226788	-4.489124	-0.177986	-93.053897
6.450000	-0.225320	-118.369512	-26.189554	-4.977050	-26.189554	-4.977050	-0.180483	-93.687096
6.500000	-0.228501	-119.158872	-26.152088	-5.459956	-26.152088	-5.459956	-0.183038	-94.317926
6.550000	-0.231698	-119.947824	-26.114705	-5.941858	-26.114705	-5.941858	-0.185605	-94.948282
6.600000	-0.234958	-120.735058	-26.077063	-6.419563	-26.077063	-6.419563	-0.188227	-95.576545
6.650000	-0.238241	-121.521719	-26.039444	-6.895869	-26.039444	-6.895869	-0.190867	-96.204110
6.700000	-0.241581	-122.306962	-26.001556	-7.368749	-26.001556	-7.368749	-0.193557	-96.829849
6.750000	-0.244951	-123.091496	-25.963617	-7.839916	-25.963617	-7.839916	-0.196271	-97.454676
6.800000	-0.248373	-123.874886	-25.925418	-8.308368	-25.925418	-8.308368	-0.199030	-98.077938
6.850000	-0.251833	-124.657460	-25.887083	-8.774879	-25.887083	-8.774879	-0.201820	-98.700082
6.900000	-0.255337	-125.439138	-25.848512	-9.239318	-25.848512	-9.239318	-0.204650	-99.320913
6.950000	-0.258887	-126.219921	-25.809709	-9.701685	-25.809709	-9.701685	-0.207519	-99.940432
7.000000	-0.262476	-127.000030	-25.770709	-10.162545	-25.770709	-10.162545	-0.210420	-100.558881
7.050000	-0.266118	-127.779196	-25.731371	-10.621299	-25.731371	-10.621299	-0.213369	-101.175833
7.100000	-0.269792	-128.557881	-25.691892	-11.079033	-25.691892	-11.079033	-0.216344	-101.791949
7.150000	-0.273529	-129.335606	-25.651959	-11.534729	-25.651959	-11.534729	-0.219374	-102.406394
7.200000	-0.277289	-130.113016	-25.611955	-11.989803	-25.611955	-11.989803	-0.222425	-103.020229
7.250000	-0.281120	-130.889480	-25.571375	-12.443014	-25.571375	-12.443014	-0.225538	-103.632230
7.300000	-0.284969	-131.665764	-25.530805	-12.895909	-25.530805	-12.895909	-0.228665	-104.243834
7.350000	-0.288897	-132.441150	-25.489532	-13.347222	-25.489532	-13.347222	-0.231863	-104.853455
7.400000	-0.292834	-133.216461	-25.448361	-13.798428	-25.448361	-13.798428	-0.235069	-105.462883
7.450000	-0.296860	-133.990955	-25.406357	-14.248442	-25.406357	-14.248442	-0.238353	-106.070189
7.500000	-0.300888	-134.765449	-25.364557	-14.698456	-25.364557	-14.698456	-0.241639	-106.677494
7.550000	-0.305013	-135.539240	-25.321793	-15.147773	-25.321793	-15.147773	-0.245011	-107.282552
7.600000	-0.309140	-136.313031	-25.279239	-15.597091	-25.279239	-15.597091	-0.248385	-107.887609
7.650000	-0.313358	-137.086354	-25.235795	-16.046323	-25.235795	-16.046323	-0.251840	-108.490668
7.700000	-0.317586	-137.859635	-25.192467	-16.495547	-25.192467	-16.495547	-0.255304	-109.093546
7.750000	-0.321897	-138.632654	-25.148332	-16.945191	-25.148332	-16.945191	-0.258844	-109.694665
7.800000	-0.326227	-139.405620	-25.104217	-17.394919	-25.104217	-17.394919	-0.262399	-110.295433
7.850000	-0.330633	-140.178499	-25.059389	-17.845463	-25.059389	-17.845463	-0.266024	-110.894671
7.900000	-0.335066	-140.951349	-25.014482	-18.296280	-25.014482	-18.296280	-0.269673	-111.493400
7.950000	-0.339568	-141.724256	-24.968966	-18.748200	-24.968966	-18.748200	-0.273385	-112.090819
8.000000	-0.344106	-142.497193	-24.923270	-19.200672	-24.923270	-19.200672	-0.277129	-112.687582
8.050000	-0.348704	-143.270299	-24.877075	-19.654426	-24.877075	-19.654426	-0.280929	-113.283241
8.100000	-0.353347	-144.043527	-24.830600	-20.109094	-24.830600	-20.109094	-0.284770	-113.878113
8.150000	-0.358043	-144.817004	-24.783741	-20.565117	-24.783741	-20.565117	-0.288659	-114.472076
8.200000	-0.362793	-145.590732	-24.736505	-21.022493	-24.736505	-21.022493	-0.292598	-115.065132
8.250000	-0.367588	-146.364756	-24.689003	-21.481194	-24.689003	-21.481194	-0.296578	-115.657462
8.300000	-0.372445	-147.139196	-24.641031	-21.941751	-24.641031	-21.941751	-0.300617	-116.248779
8.350000	-0.377339	-147.913944	-24.592909	-22.403512	-24.592909	-22.403512	-0.304689	-116.839541
8.400000	-0.382304	-148.689311	-24.544231	-22.867681	-24.544231	-22.867681	-0.308829	-117.429197
8.450000	-0.387299	-149.464964	-24.495520	-23.332849	-24.495520	-23.332849	-0.312995	-118.018458
8.500000	-0.392373	-150.241477	-24.446171	-23.801015	-24.446171	-23.801015	-0.317237	-118.606532
8.550000	-0.397469	-151.018218	-24.396901	-24.269903	-24.396901	-24.269903	-0.321498	-119.194357
8.600000	-0.402654	-151.796098	-24.346919	-24.742399	-24.346919	-24.742399	-0.325844	-119.780932
8.650000	-0.407850	-152.574111	-24.297126	-25.215280	-24.297126	-25.215280	-0.330201	-120.367389
8.700000	-0.413146	-153.353585	-24.246553	-25.692387	-24.246553	-25.692387	-0.334652	-120.952548
8.750000	-0.418445	-154.133059	-24.196273	-26.169494	-24.196273	-26.169494	-0.339106	-121.537706
8.800000	-0.423852	-154.914356	-24.145152	-26.651439	-24.145152	-26.651439	-0.343664	-122.121530
8.850000	-0.429263	-155.695653	-24.094329	-27.133384	-24.094329	-27.133384	-0.348225	-122.705355
8.900000	-0.434773	-156.478833	-24.042794	-27.619919	-24.042794	-27.619919	-0.352883	-123.288037
8.950000	-0.440296	-157.262185	-23.991472	-28.106871	-23.991472	-28.106871	-0.357552	-123.870614
9.000000	-0.445910	-158.047447	-23.939561	-28.598095	-23.939561	-28.598095	-0.362311	-124.452224
9.050000	-0.451545	-158.833090	-23.887781	-29.090173	-23.887781	-29.090173	-0.367089	-125.033640
9.100000	-0.457262	-159.620632	-23.835527	-29.586143	-23.835527	-29.586143	-0.371949	-125.614252
9.150000	-0.463010	-160.408807	-23.783328	-30.083411	-23.783328	-30.083411	-0.376839	-126.194596
9.200000	-0.468832	-161.198833	-23.730764	-30.584151	-23.730764	-30.584151	-0.381802	-126.774284
9.250000	-0.474692	-161.989783	-23.678180	-31.086626	-23.678180	-31.086626	-0.386803	-127.353645
9.300000	-0.480618	-162.782497	-23.625335	-31.592124	-23.625335	-31.592124	-0.391869	-127.932486
9.350000	-0.486592	-163.576470	-23.572398	-32.099780	-23.572398	-32.099780	-0.396983	-128.510956
9.400000	-0.492622	-164.372080	-23.519296	-32.609993	-23.519296	-32.609993	-0.402154	-129.089026
9.450000	-0.498708	-165.169327	-23.466031	-33.122765	-23.466031	-33.122765	-0.407382	-129.666697
9.500000	-0.504842	-165.968044	-23.412690	-33.637627	-23.412690	-33.637627	-0.412659	-130.244074
9.550000	-0.511040	-166.768820	-23.359117	-34.155417	-23.359117	-34.155417	-0.418002	-130.821040
9.600000	-0.517278	-167.570858	-23.305553	-34.674839	-23.305553	-34.674839	-0.423384	-131.397804
9.650000	-0.523588	-168.375422	-23.251682	-35.197525	-23.251682	-35.197525	-0.428843	-131.974162
9.700000	-0.529929	-169.180998	-23.197903	-35.721400	-23.197903	-35.721400	-0.434333	-132.550392
9.750000	-0.536351	-169.989611	-23.143739	-36.248842	-23.143739	-36.248842	-0.439909	-133.126239
9.800000	-0.542794	-170.798945	-23.089749	-36.777052	-23.089749	-36.777052	-0.445506	-133.702018
9.850000	-0.549327	-171.611875	-23.035287	-37.309101	-23.035287	-37.309101	-0.451199	-134.277454
9.900000	-0.555872	-172.425187	-22.981082	-37.841520	-22.981082	-37.841520	-0.456905	-134.852864
9.950000	-0.562514	-173.242705	-22.926310	-38.378022	-22.926310	-38.378022	-0.462716	-135.427989
10.000000	-0.569160	-174.060222	-22.871881	-38.914524	-22.871881	-38.914524	-0.468531	-136.003115
