! freq	dB(S11)	phase(S11)	dB(S12)	phase(S12)	
!     	dB(S21)	phase(S21)	dB(S22)	phase(S22)	
!S-par simulation data
#  GHz  S  DB  R 50
0.000000	-0.000000	0.000000	-323.926936	0.000000	-323.926936	0.000000	-0.000000	0.000000
0.050000	-0.000113	-0.911870	-61.211418	88.025612	-61.211418	88.025612	-0.000113	-0.911553
0.100000	-0.000449	-1.823475	-55.311954	86.720163	-55.311954	86.720163	-0.000449	-1.822841
0.150000	-0.000995	-2.734567	-51.881588	85.830579	-51.881588	85.830579	-0.000994	-2.733617
0.200000	-0.001732	-3.644938	-49.441049	85.064848	-49.441049	85.064848	-0.001730	-3.643672
0.250000	-0.002647	-4.554347	-47.540255	84.312012	-47.540255	84.312012	-0.002645	-4.552767
0.300000	-0.003700	-5.462739	-45.982028	83.542220	-45.982028	83.542220	-0.003697	-5.460846
0.350000	-0.004874	-6.369977	-44.661714	82.751526	-44.661714	82.751526	-0.004870	-6.367772
0.400000	-0.006143	-7.275997	-43.516580	81.942067	-43.516580	81.942067	-0.006138	-7.273479
0.450000	-0.007485	-8.180762	-42.505961	81.117353	-42.505961	81.117353	-0.007479	-8.177935
0.500000	-0.008879	-9.084264	-41.601943	80.280630	-41.601943	80.280630	-0.008873	-9.081127
0.550000	-0.010308	-9.986511	-40.784522	79.434549	-40.784522	79.434549	-0.010301	-9.983065
0.600000	-0.011758	-10.887523	-40.038866	78.581199	-40.038866	78.581199	-0.011750	-10.883769
0.650000	-0.013217	-11.787326	-39.353673	77.722209	-39.353673	77.722209	-0.013208	-11.783266
0.700000	-0.014677	-12.685950	-38.720131	76.858856	-38.720131	76.858856	-0.014667	-12.681584
0.750000	-0.016130	-13.583423	-38.131238	75.992151	-38.131238	75.992151	-0.016120	-13.578751
0.800000	-0.017574	-14.479768	-37.581334	75.122902	-37.581334	75.122902	-0.017562	-14.474792
0.850000	-0.019005	-15.375008	-37.065785	74.251766	-37.065785	74.251766	-0.018992	-15.369727
0.900000	-0.020421	-16.269156	-36.580744	73.379281	-36.580744	73.379281	-0.020408	-16.263572
0.950000	-0.021822	-17.162223	-36.122983	72.505896	-36.122983	72.505896	-0.021808	-17.156336
1.000000	-0.023208	-18.054213	-35.689768	71.631987	-35.689768	71.631987	-0.023194	-18.048025
1.050000	-0.024580	-18.945126	-35.278763	70.757879	-35.278763	70.757879	-0.024565	-18.938636
1.100000	-0.025939	-19.834957	-34.887955	69.883847	-34.887955	69.883847	-0.025923	-19.828167
1.150000	-0.027286	-20.723696	-34.515598	69.010135	-34.515598	69.010135	-0.027269	-20.716606
1.200000	-0.028622	-21.611332	-34.160167	68.136956	-34.160167	68.136956	-0.028604	-21.603943
1.250000	-0.029948	-22.497848	-33.820323	67.264499	-33.820323	67.264499	-0.029930	-22.490161
1.300000	-0.031266	-23.383178	-33.494953	66.392980	-33.494953	66.392980	-0.031247	-23.375193
1.350000	-0.032577	-24.267348	-33.182935	65.522518	-33.182935	65.522518	-0.032557	-24.259067
1.400000	-0.033883	-25.150337	-32.883331	64.653253	-32.883331	64.653253	-0.033862	-25.141761
1.450000	-0.035184	-26.032123	-32.595301	63.785309	-32.595301	63.785309	-0.035163	-26.023253
1.500000	-0.036482	-26.912682	-32.318091	62.918805	-32.318091	62.918805	-0.036460	-26.903518
1.550000	-0.037777	-27.791990	-32.051018	62.053848	-32.051018	62.053848	-0.037755	-27.782532
1.600000	-0.039071	-28.670020	-31.793464	61.190539	-31.793464	61.190539	-0.039048	-28.660271
1.650000	-0.040364	-29.546749	-31.544868	60.328973	-31.544868	60.328973	-0.040340	-29.536709
1.700000	-0.041657	-30.422152	-31.304716	59.469238	-31.304716	59.469238	-0.041633	-30.411822
1.750000	-0.042951	-31.296202	-31.072541	58.611417	-31.072541	58.611417	-0.042925	-31.285583
1.800000	-0.044245	-32.168876	-30.847912	57.755589	-30.847912	57.755589	-0.044219	-32.157969
1.850000	-0.045541	-33.040148	-30.630435	56.901830	-30.630435	56.901830	-0.045514	-33.028955
1.900000	-0.046839	-33.909995	-30.419744	56.050209	-30.419744	56.050209	-0.046812	-33.898516
1.950000	-0.048140	-34.778391	-30.215504	55.200794	-30.215504	55.200794	-0.048111	-34.766628
2.000000	-0.049443	-35.645315	-30.017401	54.353650	-30.017401	54.353650	-0.049414	-35.633268
2.050000	-0.050749	-36.510743	-29.825146	53.508837	-29.825146	53.508837	-0.050719	-36.498413
2.100000	-0.052059	-37.374651	-29.638470	52.666414	-29.638470	52.666414	-0.052028	-37.362040
2.150000	-0.053372	-38.237020	-29.457122	51.826436	-29.457122	51.826436	-0.053341	-38.224129
2.200000	-0.054689	-39.097827	-29.280867	50.988958	-29.280867	50.988958	-0.054657	-39.084656
2.250000	-0.056011	-39.957051	-29.109486	50.154029	-29.109486	50.154029	-0.055978	-39.943603
2.300000	-0.057336	-40.814673	-28.942773	49.321700	-28.942773	49.321700	-0.057303	-40.800948
2.350000	-0.058667	-41.670673	-28.780537	48.492017	-28.780537	48.492017	-0.058633	-41.656672
2.400000	-0.060002	-42.525033	-28.622594	47.665025	-28.622594	47.665025	-0.059968	-42.510757
2.450000	-0.061343	-43.377734	-28.468775	46.840767	-28.468775	46.840767	-0.061308	-43.363185
2.500000	-0.062689	-44.228758	-28.318918	46.019284	-28.318918	46.019284	-0.062653	-44.213937
2.550000	-0.064041	-45.078016	-28.172927	45.200741	-28.172927	45.200741	-0.064004	-45.062923
2.600000	-0.065399	-45.925562	-28.030601	44.385053	-28.030601	44.385053	-0.065361	-45.910199
2.650000	-0.066763	-46.771383	-27.891804	43.572257	-27.891804	43.572257	-0.066725	-46.755751
2.700000	-0.068133	-47.615462	-27.756407	42.762387	-27.756407	42.762387	-0.068094	-47.599563
2.750000	-0.069510	-48.457787	-27.624287	41.955477	-27.624287	41.955477	-0.069470	-48.441621
2.800000	-0.070894	-49.298343	-27.495328	41.151558	-27.495328	41.151558	-0.070854	-49.281912
2.850000	-0.072285	-50.137118	-27.369418	40.350660	-27.369418	40.350660	-0.072244	-50.120423
2.900000	-0.073684	-50.974100	-27.246454	39.552812	-27.246454	39.552812	-0.073642	-50.957141
2.950000	-0.075091	-51.809276	-27.126332	38.758042	-27.126332	38.758042	-0.075048	-51.792056
3.000000	-0.076505	-52.642637	-27.008959	37.966374	-27.008959	37.966374	-0.076462	-52.625156
3.050000	-0.077928	-53.474172	-26.894241	37.177835	-26.894241	37.177835	-0.077884	-53.456431
3.100000	-0.079360	-54.303871	-26.782092	36.392448	-26.782092	36.392448	-0.079315	-54.285872
3.150000	-0.080801	-55.131725	-26.672426	35.610235	-26.672426	35.610235	-0.080755	-55.113469
3.200000	-0.082251	-55.957727	-26.565163	34.831218	-26.565163	34.831218	-0.082204	-55.939214
3.250000	-0.083711	-56.781868	-26.460226	34.055416	-26.460226	34.055416	-0.083663	-56.763100
3.300000	-0.085181	-57.604141	-26.357540	33.282849	-26.357540	33.282849	-0.085133	-57.585119
3.350000	-0.086661	-58.424540	-26.257035	32.513534	-26.257035	32.513534	-0.086612	-58.405265
3.400000	-0.088153	-59.243059	-26.158641	31.747488	-26.158641	31.747488	-0.088103	-59.223532
3.450000	-0.089655	-60.059693	-26.062292	30.984727	-26.062292	30.984727	-0.089605	-60.039915
3.500000	-0.091170	-60.874436	-25.967925	30.225266	-25.967925	30.225266	-0.091118	-60.854409
3.550000	-0.092696	-61.687286	-25.875478	29.469117	-25.875478	29.469117	-0.092644	-61.667011
3.600000	-0.094235	-62.498239	-25.784892	28.716293	-25.784892	28.716293	-0.094181	-62.477716
3.650000	-0.095786	-63.307291	-25.696110	27.966807	-25.696110	27.966807	-0.095732	-63.286522
3.700000	-0.097351	-64.114442	-25.609076	27.220667	-25.609076	27.220667	-0.097296	-64.093426
3.750000	-0.098929	-64.919688	-25.523736	26.477885	-25.523736	26.477885	-0.098873	-64.898428
3.800000	-0.100522	-65.722946	-25.440075	25.738615	-25.440075	25.738615	-0.100465	-65.701443
3.850000	-0.102130	-66.524300	-25.358004	25.002718	-25.358004	25.002718	-0.102072	-66.502554
3.900000	-0.103752	-67.323747	-25.277475	24.270200	-25.277475	24.270200	-0.103694	-67.301760
3.950000	-0.105390	-68.121291	-25.198442	23.541068	-25.198442	23.541068	-0.105331	-68.099063
4.000000	-0.107044	-68.916931	-25.120858	22.815326	-25.120858	22.815326	-0.106984	-68.894464
4.050000	-0.108714	-69.710671	-25.044678	22.092977	-25.044678	22.092977	-0.108653	-69.687964
4.100000	-0.110400	-70.502512	-24.969860	21.374024	-24.969860	21.374024	-0.110338	-70.479567
4.150000	-0.112104	-71.292457	-24.896362	20.658469	-24.896362	20.658469	-0.112041	-71.269275
4.200000	-0.113832	-72.079854	-24.824365	19.947492	-24.824365	19.947492	-0.113768	-72.056436
4.250000	-0.115569	-72.866265	-24.753298	19.238289	-24.753298	19.238289	-0.115504	-72.842612
4.300000	-0.117329	-73.650386	-24.683560	18.533219	-24.683560	18.533219	-0.117264	-73.626499
4.350000	-0.119106	-74.432872	-24.614912	17.831101	-24.614912	17.831101	-0.119039	-74.408751
4.400000	-0.120903	-75.213407	-24.547406	17.132519	-24.547406	17.132519	-0.120835	-75.189053
4.450000	-0.122720	-75.991991	-24.481021	16.437472	-24.481021	16.437472	-0.122651	-75.967405
4.500000	-0.124555	-76.768963	-24.415610	15.745362	-24.415610	15.745362	-0.124486	-76.744145
4.550000	-0.126416	-77.543676	-24.351341	15.057362	-24.351341	15.057362	-0.126345	-77.518628
4.600000	-0.128292	-78.317111	-24.287893	14.371701	-24.287893	14.371701	-0.128220	-78.291832
4.650000	-0.130197	-79.087987	-24.225598	13.690715	-24.225598	13.690715	-0.130124	-79.062480
4.700000	-0.132115	-79.857914	-24.163988	13.011472	-24.163988	13.011472	-0.132041	-79.832178
4.750000	-0.134068	-80.624993	-24.103530	12.337456	-24.103530	12.337456	-0.133993	-80.599029
4.800000	-0.136030	-81.391446	-24.043638	11.664594	-24.043638	11.664594	-0.135953	-81.365254
4.850000	-0.138032	-82.154770	-23.984888	10.997495	-23.984888	10.997495	-0.137954	-82.128351
4.900000	-0.140039	-82.917786	-23.926599	10.330968	-23.926599	10.330968	-0.139960	-82.891140
4.950000	-0.142093	-83.677403	-23.869430	9.670721	-23.869430	9.670721	-0.142013	-83.650532
5.000000	-0.144147	-84.437020	-23.812634	9.010475	-23.812634	9.010475	-0.144066	-84.409923
5.050000	-0.146254	-85.192983	-23.756924	8.357005	-23.756924	8.357005	-0.146172	-85.165661
5.100000	-0.148362	-85.948946	-23.701569	7.703535	-23.701569	7.703535	-0.148278	-85.921399
5.150000	-0.150520	-86.701610	-23.647147	7.056196	-23.647147	7.056196	-0.150435	-86.673839
5.200000	-0.152683	-87.453974	-23.593117	6.409415	-23.593117	6.409415	-0.152598	-87.425980
5.250000	-0.154895	-88.203389	-23.539884	5.768125	-23.539884	5.768125	-0.154808	-88.175172
5.300000	-0.157116	-88.952215	-23.487067	5.127933	-23.487067	5.127933	-0.157027	-88.923774
5.350000	-0.159381	-89.698435	-23.434925	4.492599	-23.434925	4.492599	-0.159292	-89.669772
5.400000	-0.161662	-90.443787	-23.383213	3.858884	-23.383213	3.858884	-0.161572	-90.414901
5.450000	-0.163985	-91.186868	-23.332070	3.229402	-23.332070	3.229402	-0.163892	-91.157759
5.500000	-0.166328	-91.928814	-23.281357	2.602038	-23.281357	2.602038	-0.166234	-91.899483
5.550000	-0.168708	-92.668814	-23.231122	1.978295	-23.231122	1.978295	-0.168613	-92.639261
5.600000	-0.171115	-93.407425	-23.181306	1.357141	-23.181306	1.357141	-0.171019	-93.377651
5.650000	-0.173555	-94.144407	-23.131892	0.739014	-23.131892	0.739014	-0.173458	-94.114411
5.700000	-0.176029	-94.879759	-23.082875	0.123916	-23.082875	0.123916	-0.175930	-94.849541
5.750000	-0.178531	-95.613787	-23.034198	-0.488731	-23.034198	-0.488731	-0.178431	-95.583347
5.800000	-0.181073	-96.345959	-22.985883	-1.097943	-22.985883	-1.097943	-0.180971	-96.315298
5.850000	-0.183639	-97.077099	-22.937862	-1.705256	-22.937862	-1.705256	-0.183535	-97.046216
5.900000	-0.186251	-97.806174	-22.890157	-2.308768	-22.890157	-2.308768	-0.186147	-97.775069
5.950000	-0.188882	-98.534496	-22.842712	-2.910906	-22.842712	-2.910906	-0.188776	-98.503169
6.000000	-0.191567	-99.260560	-22.795526	-3.508918	-22.795526	-3.508918	-0.191460	-99.229011
6.050000	-0.194266	-99.986136	-22.748582	-4.106051	-22.748582	-4.106051	-0.194157	-99.954365
6.100000	-0.197026	-100.709277	-22.701828	-4.698781	-22.701828	-4.698781	-0.196915	-100.677284
6.150000	-0.199793	-101.432182	-22.655312	-5.291092	-22.655312	-5.291092	-0.199681	-101.399967
6.200000	-0.202630	-102.152494	-22.608905	-5.878774	-22.608905	-5.878774	-0.202517	-102.120055
6.250000	-0.205468	-102.872805	-22.562746	-6.466456	-22.562746	-6.466456	-0.205353	-102.840143
6.300000	-0.208385	-103.590382	-22.516606	-7.049341	-22.516606	-7.049341	-0.208268	-103.557497
6.350000	-0.211302	-104.307959	-22.470711	-7.632225	-22.470711	-7.632225	-0.211184	-104.274850
6.400000	-0.214294	-105.023120	-22.424785	-8.210956	-22.424785	-8.210956	-0.214174	-104.989786
6.450000	-0.217293	-105.738061	-22.379077	-8.789309	-22.379077	-8.789309	-0.217171	-105.704503
6.500000	-0.220360	-106.450891	-22.333302	-9.364121	-22.333302	-9.364121	-0.220237	-106.417107
6.550000	-0.223443	-107.163298	-22.287707	-9.938225	-22.287707	-9.938225	-0.223318	-107.129289
6.600000	-0.226589	-107.873883	-22.242024	-10.509365	-22.242024	-10.509365	-0.226463	-107.839648
6.650000	-0.229758	-108.583862	-22.196471	-11.079518	-22.196471	-11.079518	-0.229629	-108.549399
6.700000	-0.232985	-109.292292	-22.150822	-11.647246	-22.150822	-11.647246	-0.232854	-109.257602
6.750000	-0.236241	-109.999948	-22.105246	-12.213761	-22.105246	-12.213761	-0.236109	-109.965030
6.800000	-0.239550	-110.706315	-22.059578	-12.778345	-22.059578	-12.778345	-0.239416	-110.671168
6.850000	-0.242897	-111.411760	-22.013914	-13.341550	-22.013914	-13.341550	-0.242761	-111.376384
6.900000	-0.246290	-112.116157	-21.968176	-13.903269	-21.968176	-13.903269	-0.246153	-112.080549
6.950000	-0.249729	-112.819504	-21.922367	-14.463502	-21.922367	-14.463502	-0.249590	-112.783666
7.000000	-0.253208	-113.522026	-21.876511	-15.022645	-21.876511	-15.022645	-0.253067	-113.485955
7.050000	-0.256742	-114.223391	-21.830500	-15.580260	-21.830500	-15.580260	-0.256599	-114.187088
7.100000	-0.260309	-114.924136	-21.784483	-16.137123	-21.784483	-16.137123	-0.260164	-114.887598
7.150000	-0.263940	-115.623639	-21.738219	-16.692481	-21.738219	-16.692481	-0.263793	-115.586866
7.200000	-0.267596	-116.322707	-21.692001	-17.247367	-21.692001	-17.247367	-0.267448	-116.285698
7.250000	-0.271326	-117.020468	-21.645435	-17.800839	-21.645435	-17.800839	-0.271176	-116.983222
7.300000	-0.275074	-117.717960	-21.598978	-18.354060	-21.598978	-18.354060	-0.274922	-117.680476
7.350000	-0.278906	-118.414105	-21.552070	-18.906023	-21.552070	-18.906023	-0.278751	-118.376381
7.400000	-0.282747	-119.110126	-21.505340	-19.457892	-21.505340	-19.457892	-0.282591	-119.072161
7.450000	-0.286683	-119.804781	-21.458050	-20.008729	-21.458050	-20.008729	-0.286524	-119.766574
7.500000	-0.290620	-120.499435	-21.411016	-20.559566	-21.411016	-20.559566	-0.290459	-120.460986
7.550000	-0.294661	-121.192730	-21.363311	-21.109661	-21.363311	-21.109661	-0.294498	-121.154036
7.600000	-0.298703	-121.886025	-21.315866	-21.659755	-21.315866	-21.659755	-0.298538	-121.847086
7.650000	-0.302844	-122.578195	-21.267795	-22.209523	-21.267795	-22.209523	-0.302677	-122.539008
7.700000	-0.306995	-123.270263	-21.219910	-22.759262	-21.219910	-22.759262	-0.306826	-123.230827
7.750000	-0.311237	-123.961420	-21.171455	-23.309023	-21.171455	-23.309023	-0.311065	-123.921733
7.800000	-0.315499	-124.652395	-21.123103	-23.858789	-21.123103	-23.858789	-0.315325	-124.612457
7.850000	-0.319844	-125.342655	-21.074247	-24.408859	-21.074247	-24.408859	-0.319668	-125.302463
7.900000	-0.324218	-126.032675	-21.025408	-24.959032	-21.025408	-24.959032	-0.324040	-125.992229
7.950000	-0.328668	-126.722154	-20.976138	-25.509725	-20.976138	-25.509725	-0.328488	-126.681450
8.000000	-0.333158	-127.411361	-20.926795	-26.060678	-20.926795	-26.060678	-0.332975	-127.370399
8.050000	-0.337715	-128.100178	-20.877100	-26.612299	-20.877100	-26.612299	-0.337530	-128.058955
8.100000	-0.342322	-128.788715	-20.827240	-27.164398	-20.827240	-27.164398	-0.342134	-128.747230
8.150000	-0.346988	-129.476990	-20.777113	-27.717248	-20.777113	-27.717248	-0.346798	-129.435242
8.200000	-0.351714	-130.165004	-20.726726	-28.270848	-20.726726	-28.270848	-0.351522	-130.122989
8.250000	-0.356491	-130.852861	-20.676163	-28.825216	-20.676163	-28.825216	-0.356297	-130.810578
8.300000	-0.361339	-131.540500	-20.625242	-29.380660	-20.625242	-29.380660	-0.361142	-131.497947
8.350000	-0.366229	-132.228064	-20.574240	-29.936830	-20.574240	-29.936830	-0.366030	-132.185240
8.400000	-0.371201	-132.915480	-20.522784	-30.494448	-20.522784	-30.494448	-0.370999	-132.872381
8.450000	-0.376206	-133.602879	-20.471343	-31.052689	-20.471343	-31.052689	-0.376002	-133.559505
8.500000	-0.381304	-134.290228	-20.419350	-31.612796	-20.419350	-31.612796	-0.381097	-134.246574
8.550000	-0.386426	-134.977592	-20.367473	-32.173368	-20.367473	-32.173368	-0.386216	-134.933657
8.600000	-0.391652	-135.665030	-20.314945	-32.736263	-20.314945	-32.736263	-0.391440	-135.620812
8.650000	-0.396892	-136.352490	-20.262636	-33.299414	-20.262636	-33.299414	-0.396677	-136.307987
8.700000	-0.402250	-137.040180	-20.209577	-33.865379	-20.209577	-33.865379	-0.402032	-136.995388
8.750000	-0.407610	-137.727870	-20.156841	-34.431344	-20.156841	-34.431344	-0.407390	-137.682789
8.800000	-0.413100	-138.415976	-20.103258	-35.000643	-20.103258	-35.000643	-0.412877	-138.370601
8.850000	-0.418593	-139.104082	-20.050003	-35.569943	-20.050003	-35.569943	-0.418368	-139.058412
8.900000	-0.424208	-139.792722	-19.996001	-36.142526	-19.996001	-36.142526	-0.423979	-139.746752
8.950000	-0.429836	-140.481410	-19.942235	-36.715408	-19.942235	-36.715408	-0.429605	-140.435141
9.000000	-0.435577	-141.170727	-19.887823	-37.291466	-19.887823	-37.291466	-0.435343	-141.124152
9.050000	-0.441342	-141.860169	-19.833554	-37.868160	-19.833554	-37.868160	-0.441106	-141.813289
9.100000	-0.447211	-142.550306	-19.778740	-38.447873	-19.778740	-38.447873	-0.446971	-142.503116
9.150000	-0.453116	-143.240676	-19.723978	-39.028593	-19.723978	-39.028593	-0.452873	-143.193173
9.200000	-0.459114	-143.931782	-19.668772	-39.612127	-19.668772	-39.612127	-0.458868	-143.883963
9.250000	-0.465160	-144.623256	-19.613524	-40.197069	-19.613524	-40.197069	-0.464912	-144.575120
9.300000	-0.471290	-145.315481	-19.557936	-40.784580	-19.557936	-40.784580	-0.471039	-145.267022
9.350000	-0.477480	-146.008241	-19.502212	-41.373927	-19.502212	-41.373927	-0.477226	-145.959457
9.400000	-0.483742	-146.701736	-19.446251	-41.965560	-19.446251	-41.965560	-0.483485	-146.652625
9.450000	-0.490078	-147.395967	-19.390060	-42.559479	-19.390060	-42.559479	-0.489818	-147.346524
9.500000	-0.496475	-148.090888	-19.333734	-43.155368	-19.333734	-43.155368	-0.496212	-148.041111
9.550000	-0.502958	-148.786778	-19.277082	-43.754015	-19.277082	-43.754015	-0.502692	-148.736661
9.600000	-0.509492	-149.483284	-19.220400	-44.354286	-19.220400	-44.354286	-0.509223	-149.432826
9.650000	-0.516124	-150.181024	-19.163296	-44.957805	-19.163296	-44.957805	-0.515851	-150.130221
9.700000	-0.522796	-150.879276	-19.106265	-45.562577	-19.106265	-45.562577	-0.522520	-150.828125
9.750000	-0.529579	-151.579063	-19.048713	-46.171104	-19.048713	-46.171104	-0.529300	-151.527558
9.800000	-0.536390	-152.279225	-18.991340	-46.780488	-18.991340	-46.780488	-0.536109	-152.227365
9.850000	-0.543326	-152.981259	-18.933345	-47.394153	-18.933345	-47.394153	-0.543041	-152.929038
9.900000	-0.550278	-153.683498	-18.875635	-48.008255	-18.875635	-48.008255	-0.549990	-153.630914
9.950000	-0.557368	-154.387984	-18.817201	-48.627179	-18.817201	-48.627179	-0.557077	-154.335031
10.000000	-0.564463	-155.092470	-18.759157	-49.246104	-18.759157	-49.246104	-0.564169	-155.039147
