! freq	dB(S11)	phase(S11)	dB(S12)	phase(S12)	
!     	dB(S21)	phase(S21)	dB(S22)	phase(S22)	
!S-par simulation data
#  GHz  S  DB  R 50
0.000000	-90.153501	0.000000	-0.000270	0.000000	-0.000270	0.000000	-90.153501	0.000000
0.050000	-65.571365	-87.346245	-0.000398	-0.898362	-0.000398	-0.898362	-65.613409	-87.812462
0.100000	-59.571420	-89.802967	-0.000777	-1.796428	-0.000777	-1.796428	-59.612072	-90.763324
0.150000	-56.066818	-91.122223	-0.001388	-2.693931	-0.001388	-2.693931	-56.105186	-92.576312
0.200000	-53.589348	-92.152281	-0.002200	-3.590665	-0.002200	-3.590665	-53.624867	-94.105471
0.250000	-51.678273	-93.056747	-0.003193	-4.486414	-0.003193	-4.486414	-51.710509	-95.516785
0.300000	-50.126190	-93.902602	-0.004314	-5.381176	-0.004314	-5.381176	-50.155057	-96.877400
0.350000	-48.823833	-94.709175	-0.005536	-6.274884	-0.005536	-6.274884	-48.849297	-98.207387
0.400000	-47.705596	-95.489265	-0.006827	-7.167556	-0.006827	-7.167556	-47.727700	-99.519857
0.450000	-46.729189	-96.250034	-0.008159	-8.059251	-0.008159	-8.059251	-46.748009	-100.822306
0.500000	-45.865775	-96.995776	-0.009508	-8.950058	-0.009508	-8.950058	-45.881387	-102.119468
0.550000	-45.094824	-97.729158	-0.010855	-9.840079	-0.010855	-9.840079	-45.107279	-103.414597
0.600000	-44.401217	-98.451847	-0.012187	-10.729426	-0.012187	-10.729426	-44.410533	-104.710113
0.650000	-43.773510	-99.164853	-0.013494	-11.618209	-0.013494	-11.618209	-43.779658	-106.007940
0.700000	-43.202843	-99.868740	-0.014770	-12.506537	-0.014770	-12.506537	-43.205746	-107.309707
0.750000	-42.682229	-100.563745	-0.016012	-13.394508	-0.016012	-13.394508	-42.681759	-108.616865
0.800000	-42.206068	-101.249868	-0.017216	-14.282214	-0.017216	-14.282214	-42.202047	-109.930770
0.850000	-41.769817	-101.926916	-0.018385	-15.169735	-0.018385	-15.169735	-41.762016	-111.252725
0.900000	-41.369749	-102.594545	-0.019520	-16.057143	-0.019520	-16.057143	-41.357884	-112.584029
0.950000	-41.002777	-103.252282	-0.020621	-16.944501	-0.020621	-16.944501	-40.986514	-113.925995
1.000000	-40.666332	-103.899531	-0.021692	-17.831864	-0.021692	-17.831864	-40.645279	-115.279979
1.050000	-40.358257	-104.535590	-0.022736	-18.719278	-0.022736	-18.719278	-40.331967	-116.647399
1.100000	-40.076742	-105.159645	-0.023755	-19.606788	-0.023755	-19.606788	-40.044707	-118.029752
1.150000	-39.820264	-105.770772	-0.024752	-20.494427	-0.024752	-20.494427	-39.781910	-119.428634
1.200000	-39.587538	-106.367928	-0.025730	-21.382230	-0.025730	-21.382230	-39.542220	-120.845758
1.250000	-39.377490	-106.949946	-0.026691	-22.270225	-0.026691	-22.270225	-39.324484	-122.282972
1.300000	-39.189983	-107.514735	-0.027639	-23.158447	-0.027639	-23.158447	-39.128423	-123.743349
1.350000	-39.023540	-108.061468	-0.028574	-24.046912	-0.028574	-24.046912	-38.952506	-125.228232
1.400000	-38.877567	-108.588482	-0.029500	-24.935641	-0.029500	-24.935641	-38.796027	-126.740050
1.450000	-38.751596	-109.093914	-0.030419	-25.824652	-0.030419	-25.824652	-38.658389	-128.281477
1.500000	-38.645275	-109.575668	-0.031332	-26.713965	-0.031332	-26.713965	-38.539093	-129.855466
1.550000	-38.558364	-110.031382	-0.032241	-27.603597	-0.032241	-27.603597	-38.437727	-131.465286
1.600000	-38.490722	-110.458385	-0.033147	-28.493564	-0.033147	-28.493564	-38.353953	-133.114573
1.650000	-38.442309	-110.853648	-0.034052	-29.383884	-0.034052	-29.383884	-38.287502	-134.807374
1.700000	-38.413180	-111.213721	-0.034957	-30.274571	-0.034957	-30.274571	-38.238161	-136.548216
1.750000	-38.403484	-111.534662	-0.035864	-31.165642	-0.035864	-31.165642	-38.205763	-138.342168
1.800000	-38.413464	-111.811944	-0.036772	-32.057112	-0.036772	-32.057112	-38.190181	-140.194923
1.850000	-38.443456	-112.040354	-0.037684	-32.948996	-0.037684	-32.948996	-38.191317	-142.112888
1.900000	-38.493891	-112.213851	-0.038601	-33.841310	-0.038601	-33.841310	-38.209083	-144.103285
1.950000	-38.565294	-112.325413	-0.039522	-34.734069	-0.039522	-34.734069	-38.243393	-146.174272
2.000000	-38.658289	-112.366831	-0.040450	-35.627290	-0.040450	-35.627290	-38.294139	-148.335069
2.050000	-38.773591	-112.328462	-0.041385	-36.520986	-0.041385	-36.520986	-38.361168	-150.596105
2.100000	-38.912007	-112.198926	-0.042328	-37.415176	-0.042328	-37.415176	-38.444247	-152.969172
2.150000	-39.074426	-111.964718	-0.043280	-38.309873	-0.043280	-38.309873	-38.543027	-155.467590
2.200000	-39.261804	-111.609733	-0.044241	-39.205095	-0.044241	-39.205095	-38.656984	-158.106362
2.250000	-39.475134	-111.114677	-0.045213	-40.100858	-0.045213	-40.100858	-38.785355	-160.902316
2.300000	-39.715398	-110.456322	-0.046196	-40.997178	-0.046196	-40.997178	-38.927048	-163.874201
2.350000	-39.983489	-109.606604	-0.047191	-41.894071	-0.047191	-41.894071	-39.080532	-167.042693
2.400000	-40.280085	-108.531521	-0.048200	-42.791556	-0.048200	-42.791556	-39.243701	-170.430255
2.450000	-40.605446	-107.189833	-0.049223	-43.689648	-0.049223	-43.689648	-39.413712	-174.060768
2.500000	-40.959112	-105.531613	-0.050262	-44.588365	-0.050262	-44.588365	-39.586797	-177.958802
2.550000	-41.339624	-103.476956	-0.051318	-45.487753	-0.051318	-45.487753	-39.757552	177.837938
2.600000	-41.742418	-100.966635	-0.052391	-46.387802	-0.052391	-46.387802	-39.919630	173.320159
2.650000	-42.160463	-97.916727	-0.053483	-47.288529	-0.053483	-47.288529	-40.065238	168.472783
2.700000	-42.582151	-94.235952	-0.054594	-48.189953	-0.054594	-48.189953	-40.185185	163.290322
2.750000	-42.989577	-89.835064	-0.055727	-49.092090	-0.055727	-49.092090	-40.269152	157.781123
2.800000	-43.356989	-84.645429	-0.056883	-49.994959	-0.056883	-49.994959	-40.306278	151.971406
2.850000	-43.650494	-78.648658	-0.058063	-50.898578	-0.058063	-50.898578	-40.286083	145.907959
2.900000	-43.830670	-71.912971	-0.059268	-51.802965	-0.059268	-51.802965	-40.199645	139.658182
2.950000	-43.859442	-64.620520	-0.060500	-52.708136	-0.060500	-52.708136	-40.040819	133.306559
3.000000	-43.710257	-57.062123	-0.061760	-53.614112	-0.061760	-53.614112	-39.807172	126.947562
3.050000	-43.377012	-49.586810	-0.063051	-54.520908	-0.063051	-54.520908	-39.500375	120.676303
3.100000	-42.876226	-42.523506	-0.064374	-55.428543	-0.064374	-55.428543	-39.125894	114.579071
3.150000	-42.240988	-36.113656	-0.065731	-56.337035	-0.065731	-56.337035	-38.692110	108.725960
3.200000	-41.510771	-30.483878	-0.067123	-57.246402	-0.067123	-57.246402	-38.209132	103.166913
3.250000	-40.722609	-25.658787	-0.068553	-58.156661	-0.068553	-58.156661	-37.687600	97.931329
3.300000	-39.906382	-21.594127	-0.070023	-59.067830	-0.070023	-59.067830	-37.137728	93.030385
3.350000	-39.083794	-18.210270	-0.071535	-59.979926	-0.071535	-59.979926	-36.568677	88.460863
3.400000	-38.269401	-15.416406	-0.073091	-60.892966	-0.073091	-60.892966	-35.988242	84.209329
3.450000	-37.472297	-13.124483	-0.074693	-61.806968	-0.074693	-61.806968	-35.402780	80.255920
3.500000	-36.697724	-11.255658	-0.076344	-62.721948	-0.076344	-62.721948	-34.817302	76.577384
3.550000	-35.948348	-9.742293	-0.078046	-63.637923	-0.078046	-63.637923	-34.235637	73.149285
3.600000	-35.225172	-8.527702	-0.079802	-64.554909	-0.079802	-64.554909	-33.660626	69.947487
3.650000	-34.528166	-7.564943	-0.081614	-65.472922	-0.081614	-65.472922	-33.094314	66.949064
3.700000	-33.856679	-6.815345	-0.083486	-66.391979	-0.083486	-66.391979	-32.538121	64.132792
3.750000	-33.209712	-6.247085	-0.085419	-67.312095	-0.085419	-67.312095	-31.992978	61.479362
3.800000	-32.585172	-5.839657	-0.087420	-68.233332	-0.087420	-68.233332	-31.458579	58.977011
3.850000	-31.982875	-5.564035	-0.089488	-69.155659	-0.089488	-69.155659	-30.936219	56.603426
3.900000	-31.401535	-5.402611	-0.091628	-70.079090	-0.091628	-70.079090	-30.425963	54.345082
3.950000	-30.839912	-5.340651	-0.093842	-71.003641	-0.093842	-71.003641	-29.927729	52.190010
4.000000	-30.296823	-5.365771	-0.096133	-71.929323	-0.096133	-71.929323	-29.441336	50.127625
4.050000	-29.771160	-5.467508	-0.098504	-72.856151	-0.098504	-72.856151	-28.966532	48.148575
4.100000	-29.261890	-5.636977	-0.100959	-73.784137	-0.100959	-73.784137	-28.503017	46.244593
4.150000	-28.768053	-5.866600	-0.103502	-74.713293	-0.103502	-74.713293	-28.050462	44.408367
4.200000	-28.288761	-6.149880	-0.106135	-75.643631	-0.106135	-75.643631	-27.608521	42.633418
4.250000	-27.823194	-6.481224	-0.108862	-76.575162	-0.108862	-76.575162	-27.176839	40.914001
4.300000	-27.370597	-6.855793	-0.111688	-77.507896	-0.111688	-77.507896	-26.755063	39.245010
4.350000	-26.930272	-7.269386	-0.114615	-78.441845	-0.114615	-78.441845	-26.342841	37.621897
4.400000	-26.501574	-7.718338	-0.117647	-79.377017	-0.117647	-79.377017	-25.939833	36.040610
4.450000	-26.083910	-8.199442	-0.120788	-80.313420	-0.120788	-80.313420	-25.545704	34.497523
4.500000	-25.676729	-8.709878	-0.124042	-81.251064	-0.124042	-81.251064	-25.160135	32.989391
4.550000	-25.279526	-9.247159	-0.127414	-82.189955	-0.127414	-82.189955	-24.782818	31.513300
4.600000	-24.892508	-9.807148	-0.130895	-83.129992	-0.130895	-83.129992	-24.414126	30.064322
4.650000	-24.513768	-10.392143	-0.134514	-84.071412	-0.134514	-84.071412	-24.052329	28.645169
4.700000	-24.143703	-10.998038	-0.138261	-85.014098	-0.138261	-85.014098	-23.697947	27.250887
4.750000	-23.781938	-11.623287	-0.142142	-85.958055	-0.142142	-85.958055	-23.350724	25.879556
4.800000	-23.428121	-12.266502	-0.146160	-86.903286	-0.146160	-86.903286	-23.010415	24.529436
4.850000	-23.081927	-12.926436	-0.150321	-87.849796	-0.150321	-87.849796	-22.676789	23.198949
4.900000	-22.743052	-13.601966	-0.154627	-88.797586	-0.154627	-88.797586	-22.349626	21.886658
4.950000	-22.411212	-14.292076	-0.159083	-89.746657	-0.159083	-89.746657	-22.028717	20.591255
5.000000	-22.086142	-14.995844	-0.163694	-90.697011	-0.163694	-90.697011	-21.713863	19.311546
5.050000	-21.767480	-15.712694	-0.168468	-91.648675	-0.168468	-91.648675	-21.404765	18.046734
5.100000	-21.455116	-16.441573	-0.173406	-92.601620	-0.173406	-92.601620	-21.101365	16.795486
5.150000	-21.148832	-17.181788	-0.178511	-93.555844	-0.178511	-93.555844	-20.803492	15.556893
5.200000	-20.848422	-17.932706	-0.183789	-94.511345	-0.183789	-94.511345	-20.510984	14.330121
5.250000	-20.553692	-18.693744	-0.189243	-95.468118	-0.189243	-95.468118	-20.223687	13.114403
5.300000	-20.264461	-19.464368	-0.194879	-96.426158	-0.194879	-96.426158	-19.941456	11.909034
5.350000	-19.980558	-20.244083	-0.200701	-97.385461	-0.200701	-97.385461	-19.664150	10.713367
5.400000	-19.701820	-21.032433	-0.206713	-98.346020	-0.206713	-98.346020	-19.391639	9.526804
5.450000	-19.428095	-21.828995	-0.212919	-99.307827	-0.212919	-99.307827	-19.123794	8.348793
5.500000	-19.159240	-22.633376	-0.219324	-100.270873	-0.219324	-100.270873	-18.860498	7.178827
5.550000	-18.895117	-23.445210	-0.225933	-101.235150	-0.225933	-101.235150	-18.601634	6.016436
5.600000	-18.635598	-24.264155	-0.232749	-102.200647	-0.232749	-102.200647	-18.347094	4.861186
5.650000	-18.380528	-25.089963	-0.239780	-103.167366	-0.239780	-103.167366	-18.096743	3.712746
5.700000	-18.129795	-25.922324	-0.247029	-104.135293	-0.247029	-104.135293	-17.850484	2.570733
5.750000	-17.883323	-26.760885	-0.254499	-105.104403	-0.254499	-105.104403	-17.608256	1.434734
5.800000	-17.641007	-27.605382	-0.262195	-106.074681	-0.262195	-106.074681	-17.369969	0.304433
5.850000	-17.402747	-28.455566	-0.270119	-107.046112	-0.270119	-107.046112	-17.135536	-0.820461
5.900000	-17.168449	-29.311201	-0.278277	-108.018680	-0.278277	-108.018680	-16.904872	-1.940220
5.950000	-16.938020	-30.172065	-0.286671	-108.992366	-0.286671	-108.992366	-16.677898	-3.055092
6.000000	-16.711376	-31.037944	-0.295307	-109.967154	-0.295307	-109.967154	-16.454538	-4.165309
6.050000	-16.488433	-31.908637	-0.304189	-110.943024	-0.304189	-110.943024	-16.234718	-5.271085
6.100000	-16.269112	-32.783951	-0.313319	-111.919956	-0.313319	-111.919956	-16.018367	-6.372617
6.150000	-16.053338	-33.663703	-0.322701	-112.897929	-0.322701	-112.897929	-15.805418	-7.470090
6.200000	-15.841038	-34.547716	-0.332340	-113.876920	-0.332340	-113.876920	-15.595806	-8.563670
6.250000	-15.632145	-35.435821	-0.342239	-114.856908	-0.342239	-114.856908	-15.389468	-9.653515
6.300000	-15.426557	-36.327937	-0.352407	-115.837888	-0.352407	-115.837888	-15.186310	-10.739694
6.350000	-15.224249	-37.223821	-0.362841	-116.819815	-0.362841	-116.819815	-14.986312	-11.822419
6.400000	-15.025158	-38.123321	-0.373545	-117.802662	-0.373545	-117.802662	-14.789418	-12.901813
6.450000	-14.829226	-39.026294	-0.384522	-118.786405	-0.384522	-118.786405	-14.595573	-13.977986
6.500000	-14.636396	-39.932599	-0.395775	-119.771014	-0.395775	-119.771014	-14.404724	-15.051043
6.550000	-14.446612	-40.842102	-0.407307	-120.756462	-0.407307	-120.756462	-14.216822	-16.121076
6.600000	-14.259823	-41.754671	-0.419120	-121.742721	-0.419120	-121.742721	-14.031817	-17.188173
6.650000	-14.075976	-42.670179	-0.431217	-122.729761	-0.431217	-122.729761	-13.849662	-18.252413
6.700000	-13.895023	-43.588504	-0.443600	-123.717551	-0.443600	-123.717551	-13.670311	-19.313868
6.750000	-13.716915	-44.509526	-0.456272	-124.706060	-0.456272	-124.706060	-13.493720	-20.372604
6.800000	-13.541607	-45.433130	-0.469234	-125.695258	-0.469234	-125.695258	-13.319845	-21.428681
6.850000	-13.369054	-46.359202	-0.482489	-126.685111	-0.482489	-126.685111	-13.148646	-22.482153
6.900000	-13.199206	-47.287658	-0.496041	-127.675594	-0.496041	-127.675594	-12.980073	-23.533043
6.950000	-13.032022	-48.218389	-0.509891	-128.666671	-0.509891	-128.666671	-12.814091	-24.581395
7.000000	-12.867469	-49.151265	-0.524039	-129.658302	-0.524039	-129.658302	-12.650668	-25.627278
7.050000	-12.705507	-50.086186	-0.538486	-130.650453	-0.538486	-130.650453	-12.489767	-26.670727
7.100000	-12.546097	-51.023055	-0.553231	-131.643089	-0.553231	-131.643089	-12.331351	-27.711774
7.150000	-12.389201	-51.961778	-0.568277	-132.636174	-0.568277	-132.636174	-12.175385	-28.750446
7.200000	-12.234783	-52.902262	-0.583624	-133.629673	-0.583624	-133.629673	-12.021834	-29.786769
7.250000	-12.082806	-53.844418	-0.599272	-134.623550	-0.599272	-134.623550	-11.870664	-30.820764
7.300000	-11.933235	-54.788161	-0.615222	-135.617769	-0.615222	-135.617769	-11.721843	-31.852451
7.350000	-11.786036	-55.733405	-0.631473	-136.612294	-0.631473	-136.612294	-11.575339	-32.881846
7.400000	-11.641176	-56.680070	-0.648025	-137.607087	-0.648025	-137.607087	-11.431119	-33.908963
7.450000	-11.498622	-57.628077	-0.664878	-138.602112	-0.664878	-138.602112	-11.289154	-34.933814
7.500000	-11.358343	-58.577351	-0.682032	-139.597333	-0.682032	-139.597333	-11.149414	-35.956409
7.550000	-11.220307	-59.527841	-0.699491	-140.592716	-0.699491	-140.592716	-11.011869	-36.976707
7.600000	-11.084485	-60.479449	-0.717249	-141.588218	-0.717249	-141.588218	-10.876493	-37.994763
7.650000	-10.950848	-61.432107	-0.735304	-142.583804	-0.735304	-142.583804	-10.743257	-39.010582
7.700000	-10.819365	-62.385751	-0.753654	-143.579437	-0.753654	-143.579437	-10.612134	-40.024168
7.750000	-10.690008	-63.340315	-0.772299	-144.575081	-0.772299	-144.575081	-10.483097	-41.035522
7.800000	-10.562749	-64.295741	-0.791236	-145.570699	-0.791236	-145.570699	-10.356120	-42.044646
7.850000	-10.437560	-65.251970	-0.810463	-146.566256	-0.810463	-146.566256	-10.231176	-43.051540
7.900000	-10.314414	-66.208947	-0.829978	-147.561716	-0.829978	-147.561716	-10.108240	-44.056203
7.950000	-10.193285	-67.166619	-0.849779	-148.557044	-0.849779	-148.557044	-9.987288	-45.058632
8.000000	-10.074146	-68.124936	-0.869862	-149.552206	-0.869862	-149.552206	-9.868295	-46.058826
8.050000	-9.956973	-69.083850	-0.890225	-150.547166	-0.890225	-150.547166	-9.751238	-47.056782
8.100000	-9.841740	-70.043316	-0.910864	-151.541892	-0.910864	-151.541892	-9.636093	-48.052496
8.150000	-9.728428	-71.003297	-0.931779	-152.536347	-0.931779	-152.536347	-9.522842	-49.045939
8.200000	-9.617014	-71.963751	-0.952965	-153.530498	-0.952965	-153.530498	-9.411463	-50.037107
8.250000	-9.507469	-72.924635	-0.974417	-154.524315	-0.974417	-154.524315	-9.301929	-51.026019
8.300000	-9.399772	-73.885914	-0.996131	-155.517768	-0.996131	-155.517768	-9.194221	-52.012670
8.350000	-9.293899	-74.847556	-1.018103	-156.510827	-1.018103	-156.510827	-9.088315	-52.997054
8.400000	-9.189829	-75.809530	-1.040327	-157.503462	-1.040327	-157.503462	-8.984191	-53.979166
8.450000	-9.087540	-76.771809	-1.062800	-158.495645	-1.062800	-158.495645	-8.881830	-54.958999
8.500000	-8.987012	-77.734367	-1.085517	-159.487349	-1.085517	-159.487349	-8.781210	-55.936548
8.550000	-8.888224	-78.697181	-1.108473	-160.478546	-1.108473	-160.478546	-8.682313	-56.911806
8.600000	-8.791156	-79.660231	-1.131662	-161.469212	-1.131662	-161.469212	-8.585120	-57.884766
8.650000	-8.695789	-80.623496	-1.155080	-162.459322	-1.155080	-162.459322	-8.489610	-58.855422
8.700000	-8.602105	-81.586961	-1.178722	-163.448853	-1.178722	-163.448853	-8.395766	-59.823767
8.750000	-8.510084	-82.550611	-1.202580	-164.437783	-1.202580	-164.437783	-8.303571	-60.789795
8.800000	-8.419724	-83.514437	-1.226654	-165.426076	-1.226654	-165.426076	-8.213020	-61.753447
8.850000	-8.330994	-84.478424	-1.250933	-166.413726	-1.250933	-166.413726	-8.124083	-62.714767
8.900000	-8.243877	-85.442563	-1.275411	-167.400716	-1.275411	-167.400716	-8.036742	-63.673748
8.950000	-8.158356	-86.406849	-1.300083	-168.387026	-1.300083	-168.387026	-7.950980	-64.630381
9.000000	-8.074416	-87.371274	-1.324942	-169.372643	-1.324942	-169.372643	-7.866783	-65.584661
9.050000	-7.992041	-88.335835	-1.349981	-170.357552	-1.349981	-170.357552	-7.784132	-66.536580
9.100000	-7.911218	-89.300531	-1.375194	-171.341739	-1.375194	-171.341739	-7.703013	-67.486128
9.150000	-7.831931	-90.265361	-1.400574	-172.325194	-1.400574	-172.325194	-7.623410	-68.433300
9.200000	-7.754249	-91.230337	-1.426122	-173.307833	-1.426122	-173.307833	-7.545386	-69.377852
9.250000	-7.678006	-92.195437	-1.451815	-174.289785	-1.451815	-174.289785	-7.468781	-70.320217
9.300000	-7.603262	-93.160676	-1.477655	-175.270978	-1.477655	-175.270978	-7.393647	-71.260181
9.350000	-7.530005	-94.126057	-1.503634	-176.251409	-1.503634	-176.251409	-7.319972	-72.197733
9.400000	-7.458222	-95.091584	-1.529745	-177.231072	-1.529745	-177.231072	-7.247740	-73.132865
9.450000	-7.387904	-96.057263	-1.555980	-178.209966	-1.555980	-178.209966	-7.176939	-74.065567
9.500000	-7.319039	-97.023100	-1.582333	-179.188089	-1.582333	-179.188089	-7.107554	-74.995831
9.550000	-7.251619	-97.989101	-1.608796	179.834556	-1.608796	179.834556	-7.039574	-75.923646
9.600000	-7.185635	-98.955273	-1.635361	178.857968	-1.635361	178.857968	-6.972985	-76.849002
9.650000	-7.121076	-99.921623	-1.662021	177.882141	-1.662021	177.882141	-6.907774	-77.771888
9.700000	-7.057937	-100.888158	-1.688769	176.907070	-1.688769	176.907070	-6.843929	-78.692294
9.750000	-6.996208	-101.854885	-1.715596	175.932747	-1.715596	175.932747	-6.781439	-79.610208
9.800000	-6.935884	-102.821810	-1.742495	174.959162	-1.742495	174.959162	-6.720291	-80.525618
9.850000	-6.876958	-103.788941	-1.769460	173.986305	-1.769460	173.986305	-6.660474	-81.438512
9.900000	-6.819423	-104.756284	-1.796481	173.014161	-1.796481	173.014161	-6.601976	-82.348878
9.950000	-6.763275	-105.723844	-1.823552	172.042717	-1.823552	172.042717	-6.544786	-83.256701
10.000000	-6.708509	-106.691627	-1.850664	171.071955	-1.850664	171.071955	-6.488893	-84.161969
