! freq	dB(S11)	phase(S11)	dB(S12)	phase(S12)	
!     	dB(S21)	phase(S21)	dB(S22)	phase(S22)	
!S-par simulation data
#  GHz  S  DB  R 50
0.000000	-0.000000	0.000000	-333.541701	180.000000	-333.541701	180.000000	-0.000000	0.000000
0.050000	-0.000101	-0.814807	-72.178174	87.025593	-72.178174	87.025593	-0.000101	-0.814883
0.100000	-0.000401	-1.629371	-66.382792	86.353035	-66.382792	86.353035	-0.000401	-1.629523
0.150000	-0.000887	-2.443466	-62.956317	85.962090	-62.956317	85.962090	-0.000887	-2.443694
0.200000	-0.001541	-3.256905	-60.502850	85.477677	-60.502850	85.477677	-0.001541	-3.257209
0.250000	-0.002350	-4.069474	-58.590589	84.897993	-58.590589	84.897993	-0.002350	-4.069855
0.300000	-0.003277	-4.881134	-57.024757	84.261020	-57.024757	84.261020	-0.003277	-4.881590
0.350000	-0.004305	-5.691769	-55.699888	83.583296	-55.699888	83.583296	-0.004305	-5.692302
0.400000	-0.005410	-6.501332	-54.552473	82.878160	-54.552473	82.878160	-0.005410	-6.501941
0.450000	-0.006572	-7.309806	-53.541252	82.154089	-53.541252	82.154089	-0.006571	-7.310491
0.500000	-0.007772	-8.117193	-52.637912	81.416626	-52.637912	81.416626	-0.007772	-8.117955
0.550000	-0.008995	-8.923513	-51.822180	80.669521	-51.822180	80.669521	-0.008995	-8.924351
0.600000	-0.010229	-9.728793	-51.079045	79.915401	-51.079045	79.915401	-0.010229	-9.729707
0.650000	-0.011465	-10.533067	-50.397084	79.156159	-50.397084	79.156159	-0.011465	-10.534057
0.700000	-0.012694	-11.336366	-49.767399	78.393204	-49.767399	78.393204	-0.012694	-11.337432
0.750000	-0.013913	-12.138723	-49.182930	77.627613	-49.182930	77.627613	-0.013913	-12.139865
0.800000	-0.015118	-12.940164	-48.637978	76.860228	-48.637978	76.860228	-0.015118	-12.941381
0.850000	-0.016307	-13.740710	-48.127876	76.091721	-48.127876	76.091721	-0.016307	-13.742003
0.900000	-0.017479	-14.540379	-47.648755	75.322645	-47.648755	75.322645	-0.017479	-14.541747
0.950000	-0.018634	-15.339182	-47.197373	74.553458	-47.197373	74.553458	-0.018635	-15.340625
1.000000	-0.019773	-16.137125	-46.770983	73.784553	-46.770983	73.784553	-0.019774	-16.138642
1.050000	-0.020897	-16.934209	-46.367242	73.016267	-46.367242	73.016267	-0.020897	-16.935801
1.100000	-0.022006	-17.730431	-45.984130	72.248897	-45.984130	72.248897	-0.022006	-17.732099
1.150000	-0.023102	-18.525787	-45.619897	71.482708	-45.619897	71.482708	-0.023102	-18.527529
1.200000	-0.024186	-19.320266	-45.273015	70.717942	-45.273015	70.717942	-0.024186	-19.322082
1.250000	-0.025259	-20.113856	-44.942143	69.954817	-44.942143	69.954817	-0.025259	-20.115747
1.300000	-0.026322	-20.906504	-44.626218	69.193626	-44.626218	69.193626	-0.026323	-20.908469
1.350000	-0.027377	-21.698232	-44.324067	68.434487	-44.324067	68.434487	-0.027378	-21.700271
1.400000	-0.028425	-22.489024	-44.034754	67.677578	-44.034754	67.677578	-0.028426	-22.491136
1.450000	-0.029467	-23.278859	-43.757438	66.923070	-43.757438	66.923070	-0.029467	-23.281045
1.500000	-0.030503	-24.067720	-43.491366	66.171125	-43.491366	66.171125	-0.030504	-24.069980
1.550000	-0.031535	-24.855587	-43.235858	65.421902	-43.235858	65.421902	-0.031536	-24.857920
1.600000	-0.032563	-25.642440	-42.990295	64.675553	-42.990295	64.675553	-0.032564	-25.644846
1.650000	-0.033589	-26.428258	-42.754118	63.932227	-42.754118	63.932227	-0.033589	-26.430737
1.700000	-0.034611	-27.212644	-42.527754	63.193239	-42.527754	63.193239	-0.034612	-27.215196
1.750000	-0.035632	-27.996473	-42.308493	62.455955	-42.308493	62.455955	-0.035633	-27.999097
1.800000	-0.036652	-28.778957	-42.097818	61.722943	-42.097818	61.722943	-0.036653	-28.781654
1.850000	-0.037671	-29.560481	-41.894356	60.992983	-41.894356	60.992983	-0.037671	-29.563250
1.900000	-0.038689	-30.340808	-41.698256	60.266986	-41.698256	60.266986	-0.038690	-30.343649
1.950000	-0.039707	-31.119939	-41.509131	59.544952	-41.509131	59.544952	-0.039708	-31.122852
2.000000	-0.040726	-31.898037	-41.326266	58.826466	-41.326266	58.826466	-0.040727	-31.901022
2.050000	-0.041746	-32.674690	-41.150227	58.112947	-41.150227	58.112947	-0.041746	-32.677746
2.100000	-0.042766	-33.450489	-40.979446	57.402463	-40.979446	57.402463	-0.042767	-33.453616
2.150000	-0.043788	-34.224580	-40.815410	56.698046	-40.815410	56.698046	-0.043789	-34.227779
2.200000	-0.044811	-34.998011	-40.655716	55.996050	-40.655716	55.996050	-0.044812	-35.001281
2.250000	-0.045837	-35.769461	-40.502738	55.301317	-40.502738	55.301317	-0.045838	-35.772802
2.300000	-0.046864	-36.540458	-40.353261	54.608294	-40.353261	54.608294	-0.046865	-36.543870
2.350000	-0.047895	-37.309191	-40.210508	53.923824	-40.210508	53.923824	-0.047896	-37.312673
2.400000	-0.048926	-38.077692	-40.070483	53.240258	-40.070483	53.240258	-0.048927	-38.081243
2.450000	-0.049964	-38.843635	-39.937218	52.566632	-39.937218	52.566632	-0.049965	-38.847256
2.500000	-0.051002	-39.609578	-39.805967	51.893006	-39.805967	51.893006	-0.051003	-39.613269
2.550000	-0.052047	-40.372662	-39.681529	51.230807	-39.681529	51.230807	-0.052048	-40.376422
2.600000	-0.053093	-41.135746	-39.558850	50.568607	-39.558850	50.568607	-0.053094	-41.139576
2.650000	-0.054147	-41.896149	-39.442244	49.917415	-39.442244	49.917415	-0.054148	-41.900048
2.700000	-0.055201	-42.656308	-39.327575	49.267224	-39.327575	49.267224	-0.055202	-42.660276
2.750000	-0.056265	-43.413979	-39.218280	48.627529	-39.218280	48.627529	-0.056266	-43.418016
2.800000	-0.057330	-44.171153	-39.111110	47.989932	-39.111110	47.989932	-0.057331	-44.175258
2.850000	-0.058404	-44.926043	-39.008655	47.362221	-39.008655	47.362221	-0.058405	-44.930216
2.900000	-0.059481	-45.680172	-38.908516	46.737806	-38.908516	46.737806	-0.059482	-45.684413
2.950000	-0.060567	-46.432236	-38.812468	46.122571	-38.812468	46.122571	-0.060568	-46.436544
3.000000	-0.061657	-47.183266	-38.718929	45.511926	-38.718929	45.511926	-0.061659	-47.187642
3.050000	-0.062757	-47.932460	-38.628893	44.909658	-38.628893	44.909658	-0.062758	-47.936904
3.100000	-0.063862	-48.680342	-38.541552	44.313375	-38.541552	44.313375	-0.063863	-48.684852
3.150000	-0.064976	-49.426626	-38.457161	43.724567	-38.457161	43.724567	-0.064977	-49.431203
3.200000	-0.066098	-50.171312	-38.375643	43.143236	-38.375643	43.143236	-0.066099	-50.175956
3.250000	-0.067228	-50.914649	-38.296557	42.568382	-38.296557	42.568382	-0.067229	-50.919359
3.300000	-0.068368	-51.656097	-38.220508	42.002596	-38.220508	42.002596	-0.068369	-51.660873
3.350000	-0.069514	-52.396451	-38.146407	41.442189	-38.146407	41.442189	-0.069516	-52.401294
3.400000	-0.070674	-53.134621	-38.075490	40.892539	-38.075490	40.892539	-0.070676	-53.139529
3.450000	-0.071840	-53.871962	-38.006075	40.347070	-38.006075	40.347070	-0.071841	-53.876936
3.500000	-0.073021	-54.606818	-37.939970	39.814145	-37.939970	39.814145	-0.073022	-54.611857
3.550000	-0.074206	-55.341117	-37.874955	39.284105	-37.874955	39.284105	-0.074208	-55.346221
3.600000	-0.075410	-56.072628	-37.813353	38.768490	-37.813353	38.768490	-0.075412	-56.077796
3.650000	-0.076617	-56.803858	-37.752465	38.254365	-37.752465	38.254365	-0.076619	-56.809091
3.700000	-0.077846	-57.531996	-37.695067	37.756639	-37.695067	37.756639	-0.077848	-57.537293
3.750000	-0.079076	-58.260133	-37.638045	37.258913	-37.638045	37.258913	-0.079077	-58.265495
3.800000	-0.080331	-58.984874	-37.584559	36.779645	-37.584559	36.779645	-0.080333	-58.990299
3.850000	-0.081587	-59.709614	-37.531401	36.300377	-37.531401	36.300377	-0.081589	-59.715103
3.900000	-0.082869	-60.431221	-37.481291	35.838542	-37.481291	35.838542	-0.082871	-60.436774
3.950000	-0.084153	-61.152542	-37.431716	35.378291	-37.431716	35.378291	-0.084155	-61.158159
4.000000	-0.085463	-61.871002	-37.384734	34.934339	-37.384734	34.934339	-0.085464	-61.876682
4.050000	-0.086777	-62.588889	-37.338466	34.493647	-37.338466	34.493647	-0.086779	-62.594632
4.100000	-0.088115	-63.304189	-37.294367	34.068015	-37.294367	34.068015	-0.088117	-63.309995
4.150000	-0.089461	-64.018627	-37.251130	33.647404	-37.251130	33.647404	-0.089463	-64.024496
4.200000	-0.090830	-64.730760	-37.209672	33.240510	-37.209672	33.240510	-0.090832	-64.736691
4.250000	-0.092209	-65.441740	-37.169191	32.840475	-37.169191	32.840475	-0.092211	-65.447733
4.300000	-0.093610	-66.150699	-37.130135	32.452714	-37.130135	32.452714	-0.093612	-66.156754
4.350000	-0.095025	-66.858214	-37.092133	32.073720	-37.092133	32.073720	-0.095027	-66.864332
4.400000	-0.096458	-67.563996	-37.055238	31.705458	-37.055238	31.705458	-0.096461	-67.570175
4.450000	-0.097911	-68.268045	-37.019436	31.347929	-37.019436	31.347929	-0.097913	-68.274285
4.500000	-0.099379	-68.970648	-36.984463	30.999502	-36.984463	30.999502	-0.099381	-68.976951
4.550000	-0.100870	-69.671230	-36.950579	30.663816	-36.950579	30.663816	-0.100872	-69.677594
4.600000	-0.102375	-70.370658	-36.917285	30.335518	-36.917285	30.335518	-0.102377	-70.377083
4.650000	-0.103906	-71.067778	-36.885031	30.021997	-36.885031	30.021997	-0.103909	-71.074263
4.700000	-0.105449	-71.764033	-36.853174	29.714081	-36.853174	29.714081	-0.105451	-71.770580
4.750000	-0.107023	-72.457698	-36.822260	29.422980	-36.822260	29.422980	-0.107026	-72.464306
4.800000	-0.108604	-73.150789	-36.791593	29.135645	-36.791593	29.135645	-0.108607	-73.157457
4.850000	-0.110223	-73.841010	-36.761721	28.867141	-36.761721	28.867141	-0.110225	-73.847738
4.900000	-0.111845	-74.530944	-36.731997	28.600528	-36.731997	28.600528	-0.111848	-74.537733
4.950000	-0.113509	-75.217735	-36.702865	28.354711	-36.702865	28.354711	-0.113512	-75.224584
5.000000	-0.115173	-75.904526	-36.673831	28.108893	-36.673831	28.108893	-0.115176	-75.911435
5.050000	-0.116885	-76.587903	-36.645133	27.885749	-36.645133	27.885749	-0.116888	-76.594873
5.100000	-0.118597	-77.271281	-36.616530	27.662605	-36.616530	27.662605	-0.118600	-77.278310
5.150000	-0.120354	-77.951549	-36.587960	27.460128	-36.587960	27.460128	-0.120357	-77.958638
5.200000	-0.122115	-78.631534	-36.559478	27.259530	-36.559478	27.259530	-0.122118	-78.638683
5.250000	-0.123918	-79.308711	-36.530774	27.077507	-36.530774	27.077507	-0.123922	-79.315919
5.300000	-0.125730	-79.985326	-36.502101	26.899199	-36.502101	26.899199	-0.125734	-79.992594
5.350000	-0.127582	-80.659434	-36.472999	26.737313	-36.472999	26.737313	-0.127586	-80.666761
5.400000	-0.129447	-81.332706	-36.443820	26.580900	-36.443820	26.580900	-0.129451	-81.340093
5.450000	-0.131348	-82.003768	-36.414058	26.438718	-36.414058	26.438718	-0.131352	-82.011214
5.500000	-0.133267	-82.673726	-36.384058	26.303652	-36.384058	26.303652	-0.133271	-82.681231
5.550000	-0.135219	-83.341769	-36.353376	26.180624	-36.353376	26.180624	-0.135223	-83.349333
5.600000	-0.137195	-84.008443	-36.322242	26.066193	-36.322242	26.066193	-0.137199	-84.016067
5.650000	-0.139199	-84.673494	-36.290383	25.961639	-36.290383	25.961639	-0.139203	-84.681177
5.700000	-0.141232	-85.336921	-36.257806	25.866962	-36.257806	25.866962	-0.141236	-85.344663
5.750000	-0.143290	-85.999010	-36.224520	25.780072	-36.224520	25.780072	-0.143294	-86.006811
5.800000	-0.145383	-86.659225	-36.190201	25.704086	-36.190201	25.704086	-0.145387	-86.667085
5.850000	-0.147496	-87.318384	-36.155245	25.633917	-36.155245	25.633917	-0.147500	-87.326303
5.900000	-0.149649	-87.975428	-36.118892	25.575380	-36.118892	25.575380	-0.149654	-87.983406
5.950000	-0.151818	-88.631690	-36.082035	25.520851	-36.082035	25.520851	-0.151823	-88.639727
6.000000	-0.154035	-89.285605	-36.043374	25.478342	-36.043374	25.478342	-0.154040	-89.293701
6.050000	-0.156262	-89.939006	-36.004398	25.438238	-36.004398	25.438238	-0.156267	-89.947160
6.100000	-0.158542	-90.589836	-35.963173	25.410160	-35.963173	25.410160	-0.158547	-90.598050
6.150000	-0.160829	-91.240413	-35.921875	25.383137	-35.921875	25.383137	-0.160834	-91.248686
6.200000	-0.163175	-91.888206	-35.877850	25.367728	-35.877850	25.367728	-0.163180	-91.896538
6.250000	-0.165522	-92.535998	-35.834048	25.352319	-35.834048	25.352319	-0.165527	-92.544389
6.300000	-0.167935	-93.180803	-35.787016	25.347669	-35.787016	25.347669	-0.167941	-93.189252
6.350000	-0.170350	-93.825607	-35.740237	25.343018	-35.740237	25.343018	-0.170355	-93.834116
6.400000	-0.172827	-94.467719	-35.690329	25.346359	-35.690329	25.346359	-0.172833	-94.476287
6.450000	-0.175310	-95.109586	-35.640400	25.350426	-35.640400	25.350426	-0.175316	-95.118213
6.500000	-0.177852	-95.749050	-35.587505	25.359970	-35.587505	25.359970	-0.177858	-95.757737
6.550000	-0.180406	-96.388034	-35.534284	25.370610	-35.534284	25.370610	-0.180412	-96.396780
6.600000	-0.183013	-97.024897	-35.478321	25.384514	-35.478321	25.384514	-0.183020	-97.033702
6.650000	-0.185639	-97.661053	-35.421701	25.399506	-35.421701	25.399506	-0.185646	-97.669918
6.700000	-0.188314	-98.295362	-35.362620	25.415888	-35.362620	25.415888	-0.188321	-98.304287
6.750000	-0.191014	-98.928748	-35.302532	25.432966	-35.302532	25.432966	-0.191020	-98.937733
6.800000	-0.193757	-99.560553	-35.240310	25.449935	-35.240310	25.449935	-0.193764	-99.569598
6.850000	-0.196532	-100.191229	-35.176724	25.466824	-35.176724	25.466824	-0.196539	-100.200334
6.900000	-0.199345	-100.820581	-35.111369	25.482496	-35.111369	25.482496	-0.199352	-100.829746
6.950000	-0.202196	-101.448608	-35.044291	25.496949	-35.044291	25.496949	-0.202203	-101.457834
7.000000	-0.205080	-102.075559	-34.975843	25.509475	-34.975843	25.509475	-0.205088	-102.084844
7.050000	-0.208009	-102.701001	-34.905317	25.519303	-34.905317	25.519303	-0.208017	-102.710347
7.100000	-0.210966	-103.325604	-34.833843	25.526892	-34.833843	25.526892	-0.210973	-103.335010
7.150000	-0.213974	-103.948526	-34.759948	25.530002	-34.759948	25.530002	-0.213982	-103.957994
7.200000	-0.217004	-104.570836	-34.685542	25.530941	-34.685542	25.530941	-0.217012	-104.580365
7.250000	-0.220094	-105.191306	-34.608393	25.525366	-34.608393	25.525366	-0.220102	-105.200897
7.300000	-0.223198	-105.811380	-34.531172	25.518041	-34.531172	25.518041	-0.223206	-105.821031
7.350000	-0.226370	-106.429467	-34.450911	25.501966	-34.450911	25.501966	-0.226379	-106.439180
7.400000	-0.229550	-107.047361	-34.371016	25.484879	-34.371016	25.484879	-0.229559	-107.057136
7.450000	-0.232806	-107.663135	-34.287815	25.456664	-34.287815	25.456664	-0.232815	-107.672972
7.500000	-0.236063	-108.278909	-34.205404	25.428450	-34.205404	25.428450	-0.236072	-108.288808
7.550000	-0.239403	-108.892443	-34.119455	25.386651	-34.119455	25.386651	-0.239413	-108.902405
7.600000	-0.242745	-109.505976	-34.034348	25.344852	-34.034348	25.344852	-0.242755	-109.516001
7.650000	-0.246165	-110.117524	-33.946215	25.289464	-33.946215	25.289464	-0.246175	-110.127612
7.700000	-0.249594	-110.728891	-33.858621	25.232840	-33.858621	25.232840	-0.249604	-110.739043
7.750000	-0.253094	-111.338516	-33.768507	25.163007	-33.768507	25.163007	-0.253104	-111.348731
7.800000	-0.256610	-111.947793	-33.678647	25.090532	-33.678647	25.090532	-0.256620	-111.958071
7.850000	-0.260192	-112.555559	-33.586759	25.005558	-33.586759	25.005558	-0.260202	-112.565902
7.900000	-0.263797	-113.162822	-33.494861	24.916419	-33.494861	24.916419	-0.263808	-113.173229
7.950000	-0.267462	-113.768795	-33.401408	24.815770	-33.401408	24.815770	-0.267472	-113.779267
8.000000	-0.271157	-114.374123	-33.307706	24.709366	-33.307706	24.709366	-0.271167	-114.384660
8.050000	-0.274905	-114.978369	-33.212897	24.592660	-33.212897	24.592660	-0.274916	-114.988972
8.100000	-0.278691	-115.581843	-33.117623	24.468595	-33.117623	24.468595	-0.278702	-115.592512
8.150000	-0.282524	-116.184431	-33.021660	24.335599	-33.021660	24.335599	-0.282535	-116.195166
8.200000	-0.286402	-116.786133	-32.925044	24.193672	-32.925044	24.193672	-0.286414	-116.796934
8.250000	-0.290321	-117.387131	-32.828126	24.044294	-32.828126	24.044294	-0.290332	-117.397999
8.300000	-0.294293	-117.987143	-32.730390	23.884485	-32.730390	23.884485	-0.294305	-117.998079
8.350000	-0.298298	-118.586622	-32.632706	23.718764	-32.632706	23.718764	-0.298310	-118.597625
8.400000	-0.302365	-119.185031	-32.534061	23.541217	-32.534061	23.541217	-0.302377	-119.196102
8.450000	-0.306457	-119.783061	-32.435790	23.359311	-32.435790	23.359311	-0.306469	-119.794200
8.500000	-0.310619	-120.379953	-32.336437	23.164322	-32.336437	23.164322	-0.310632	-120.391162
8.550000	-0.314800	-120.976607	-32.237745	22.966498	-32.237745	22.966498	-0.314812	-120.987885
8.600000	-0.319059	-121.572070	-32.137870	22.754494	-32.137870	22.754494	-0.319072	-121.583418
8.650000	-0.323328	-122.167422	-32.038911	22.541116	-32.038911	22.541116	-0.323342	-122.178840
8.700000	-0.327685	-122.761547	-31.938684	22.312636	-31.938684	22.312636	-0.327699	-122.773036
8.750000	-0.332045	-123.355671	-31.839600	22.084155	-31.839600	22.084155	-0.332058	-123.367231
8.800000	-0.336500	-123.948548	-31.739173	21.839834	-31.739173	21.839834	-0.336514	-123.960180
8.850000	-0.340958	-124.541425	-31.639893	21.595513	-31.639893	21.595513	-0.340972	-124.553129
8.900000	-0.345505	-125.133244	-31.539598	21.337327	-31.539598	21.337327	-0.345519	-125.145021
8.950000	-0.350062	-125.724966	-31.440256	21.077880	-31.440256	21.077880	-0.350077	-125.736816
9.000000	-0.354701	-126.315805	-31.340190	20.806477	-31.340190	20.806477	-0.354716	-126.327729
9.050000	-0.359359	-126.906468	-31.240899	20.532681	-31.240899	20.532681	-0.359374	-126.918466
9.100000	-0.364091	-127.496407	-31.141145	20.248743	-31.141145	20.248743	-0.364106	-127.508480
9.150000	-0.368849	-128.086106	-31.042001	19.961424	-31.042001	19.961424	-0.368864	-128.098254
9.200000	-0.373674	-128.675227	-30.942627	19.665661	-30.942627	19.665661	-0.373690	-128.687452
9.250000	-0.378534	-129.264060	-30.843709	19.365675	-30.843709	19.365675	-0.378550	-129.276362
9.300000	-0.383453	-129.852446	-30.744767	19.058813	-30.744767	19.058813	-0.383469	-129.864825
9.350000	-0.388415	-130.440513	-30.646136	18.747038	-30.646136	18.747038	-0.388431	-130.452970
9.400000	-0.393429	-131.028247	-30.547667	18.429812	-30.547667	18.429812	-0.393445	-131.040783
9.450000	-0.398493	-131.615649	-30.449367	18.107135	-30.449367	18.107135	-0.398510	-131.628264
9.500000	-0.403602	-132.202817	-30.351397	17.780283	-30.351397	17.780283	-0.403618	-132.215511
9.550000	-0.408770	-132.789657	-30.253454	17.447588	-30.253454	17.447588	-0.408786	-132.802432
9.600000	-0.413973	-133.376345	-30.155998	17.111844	-30.155998	17.111844	-0.413990	-133.389202
9.650000	-0.419244	-133.962729	-30.058424	16.770004	-30.058424	16.770004	-0.419261	-133.975667
9.700000	-0.424543	-134.549025	-29.961484	16.426091	-29.961484	16.426091	-0.424560	-134.562046
9.750000	-0.429918	-135.135058	-29.864275	16.075961	-29.864275	16.075961	-0.429936	-135.148163
9.800000	-0.435312	-135.721052	-29.767841	15.724588	-29.767841	15.724588	-0.435330	-135.734241
9.850000	-0.440791	-136.306844	-29.670979	15.366997	-29.670979	15.366997	-0.440809	-136.320118
9.900000	-0.446282	-136.892626	-29.575034	15.008852	-29.575034	15.008852	-0.446300	-136.905985
9.950000	-0.451865	-137.478288	-29.478486	14.644599	-29.478486	14.644599	-0.451883	-137.491735
10.000000	-0.457451	-138.063950	-29.383000	14.280347	-29.383000	14.280347	-0.457470	-138.077484
