! freq	dB(S11)	phase(S11)	dB(S12)	phase(S12)	
!     	dB(S21)	phase(S21)	dB(S22)	phase(S22)	
!S-par simulation data
#  GHz  S  DB  R 50
0.000000	-0.000000	0.000000	-335.124041	0.000000	-335.124041	0.000000	-0.000000	0.000000
0.050000	-0.000098	-0.781327	-72.717345	87.087265	-72.717345	87.087265	-0.000098	-0.781495
0.100000	-0.000389	-1.562417	-66.917829	86.457305	-66.917829	86.457305	-0.000389	-1.562753
0.150000	-0.000865	-2.343033	-63.488590	86.090793	-63.488590	86.090793	-0.000865	-2.343537
0.200000	-0.001497	-3.123032	-61.033743	85.633301	-61.033743	85.633301	-0.001497	-3.123703
0.250000	-0.002270	-3.902250	-59.120604	85.086112	-59.120604	85.086112	-0.002271	-3.903088
0.300000	-0.003172	-4.680482	-57.554084	84.473755	-57.554084	84.473755	-0.003173	-4.681487
0.350000	-0.004160	-5.457812	-56.228563	83.825942	-56.228563	83.825942	-0.004162	-5.458984
0.400000	-0.005226	-6.234060	-55.080629	83.149545	-55.080629	83.149545	-0.005228	-6.235398
0.450000	-0.006343	-7.009305	-54.068820	82.455450	-54.068820	82.455450	-0.006345	-7.010809
0.500000	-0.007496	-7.783512	-53.164890	81.748105	-53.164890	81.748105	-0.007499	-7.785181
0.550000	-0.008670	-8.556711	-52.348537	81.031344	-52.348537	81.031344	-0.008673	-8.558544
0.600000	-0.009852	-9.328933	-51.604744	80.307730	-51.604744	80.307730	-0.009856	-9.330931
0.650000	-0.011035	-10.100212	-50.922082	79.579115	-50.922082	79.579115	-0.011039	-10.102374
0.700000	-0.012212	-10.870582	-50.291651	78.846873	-50.291651	78.846873	-0.012216	-10.872908
0.750000	-0.013377	-11.640076	-49.706389	78.112055	-49.706389	78.112055	-0.013382	-11.642565
0.800000	-0.014529	-12.408721	-49.160595	77.375479	-49.160595	77.375479	-0.014534	-12.411373
0.850000	-0.015662	-13.176400	-48.650084	76.637765	-48.650084	76.637765	-0.015668	-13.179214
0.900000	-0.016779	-13.943235	-48.170567	75.899476	-48.170567	75.899476	-0.016784	-13.946212
0.950000	-0.017887	-14.709657	-47.717519	75.161278	-47.717519	75.161278	-0.017893	-14.712796
1.000000	-0.018971	-15.474838	-47.290869	74.423349	-47.290869	74.423349	-0.018977	-15.478138
1.050000	-0.020051	-16.239745	-46.885117	73.685710	-46.885117	73.685710	-0.020057	-16.243206
1.100000	-0.021106	-17.003277	-46.501874	72.949525	-46.501874	72.949525	-0.021113	-17.006898
1.150000	-0.022160	-17.766669	-46.135288	72.213576	-46.135288	72.213576	-0.022167	-17.770451
1.200000	-0.023192	-18.528525	-45.788400	71.480217	-45.788400	71.480217	-0.023199	-18.532467
1.250000	-0.024224	-19.290380	-45.454835	70.746858	-45.454835	70.746858	-0.024232	-19.294482
1.300000	-0.025242	-20.050948	-45.137531	70.016188	-45.137531	70.016188	-0.025250	-20.055209
1.350000	-0.026252	-20.810674	-44.833946	69.287495	-44.833946	69.287495	-0.026261	-20.815094
1.400000	-0.027256	-21.569542	-44.543142	68.560950	-44.543142	68.560950	-0.027265	-21.574120
1.450000	-0.028255	-22.327535	-44.264282	67.836718	-44.264282	67.836718	-0.028263	-22.332271
1.500000	-0.029248	-23.084636	-43.996609	67.114955	-43.996609	67.114955	-0.029257	-23.089530
1.550000	-0.030238	-23.840827	-43.739444	66.395812	-43.739444	66.395812	-0.030247	-23.845878
1.600000	-0.031224	-24.596090	-43.492168	65.679435	-43.492168	65.679435	-0.031234	-24.601297
1.650000	-0.032208	-25.350405	-43.254223	64.965966	-43.254223	64.965966	-0.032218	-25.355768
1.700000	-0.033189	-26.103409	-43.025981	64.256669	-43.025981	64.256669	-0.033200	-26.108927
1.750000	-0.034170	-26.855902	-42.804859	63.549009	-42.804859	63.549009	-0.034180	-26.861576
1.800000	-0.035149	-27.607164	-42.592232	62.845454	-42.592232	62.845454	-0.035160	-27.612992
1.850000	-0.036128	-28.357546	-42.386783	62.144831	-42.386783	62.144831	-0.036139	-28.363529
1.900000	-0.037106	-29.106832	-42.188631	61.448011	-42.188631	61.448011	-0.037118	-29.112968
1.950000	-0.038085	-29.855022	-41.997393	60.754996	-41.997393	60.754996	-0.038096	-29.861311
2.000000	-0.039064	-30.602265	-41.812376	60.065383	-41.812376	60.065383	-0.039076	-30.608707
2.050000	-0.040044	-31.348184	-41.634098	59.380534	-41.634098	59.380534	-0.040056	-31.354777
2.100000	-0.041024	-32.093319	-41.461064	58.698592	-41.461064	58.698592	-0.041037	-32.100064
2.150000	-0.042007	-32.836889	-41.294663	58.022464	-41.294663	58.022464	-0.042020	-32.843785
2.200000	-0.042990	-33.579852	-41.132616	57.348653	-41.132616	57.348653	-0.043004	-33.586899
2.250000	-0.043977	-34.320999	-40.977148	56.681794	-40.977148	56.681794	-0.043990	-34.328195
2.300000	-0.044964	-35.061730	-40.825217	56.016572	-40.825217	56.016572	-0.044978	-35.069075
2.350000	-0.045956	-35.800382	-40.679851	55.359529	-40.679851	55.359529	-0.045970	-35.807876
2.400000	-0.046948	-36.538821	-40.537272	54.703350	-40.537272	54.703350	-0.046962	-36.546463
2.450000	-0.047946	-37.274910	-40.401270	54.056670	-40.401270	54.056670	-0.047961	-37.282699
2.500000	-0.048944	-38.010999	-40.267366	53.409990	-40.267366	53.409990	-0.048959	-38.018936
2.550000	-0.049950	-38.744460	-40.140071	52.774219	-40.140071	52.774219	-0.049965	-38.752542
2.600000	-0.050955	-39.477921	-40.014615	52.138447	-40.014615	52.138447	-0.050971	-39.486149
2.650000	-0.051969	-40.208916	-39.895055	51.513178	-39.895055	51.513178	-0.051984	-40.217289
2.700000	-0.052984	-40.939686	-39.777488	50.888862	-39.777488	50.888862	-0.052999	-40.948204
2.750000	-0.054006	-41.668165	-39.665145	50.274551	-39.665145	50.274551	-0.054022	-41.676826
2.800000	-0.055031	-42.396186	-39.554958	49.662240	-39.554958	49.662240	-0.055047	-42.404990
2.850000	-0.056064	-43.122102	-39.449361	49.059345	-39.449361	49.059345	-0.056080	-43.131048
2.900000	-0.057100	-43.847317	-39.346088	48.459588	-39.346088	48.459588	-0.057117	-43.856405
2.950000	-0.058145	-44.570626	-39.246806	47.868568	-39.246806	47.868568	-0.058162	-44.579856
3.000000	-0.059193	-45.292982	-39.150019	47.281916	-39.150019	47.281916	-0.059211	-45.302352
3.050000	-0.060251	-46.013642	-39.056658	46.703231	-39.056658	46.703231	-0.060268	-46.023152
3.100000	-0.061314	-46.733090	-38.965958	46.130236	-38.965958	46.130236	-0.061331	-46.742739
3.150000	-0.062385	-47.451061	-38.878154	45.564346	-38.878154	45.564346	-0.062403	-47.460849
3.200000	-0.063464	-48.167554	-38.793169	45.005559	-38.793169	45.005559	-0.063482	-48.177480
3.250000	-0.064550	-48.882798	-38.710583	44.452923	-38.710583	44.452923	-0.064568	-48.892862
3.300000	-0.065646	-49.596294	-38.630962	43.908897	-38.630962	43.908897	-0.065665	-49.606494
3.350000	-0.066748	-50.308777	-38.553278	43.369975	-38.553278	43.369975	-0.066767	-50.319113
3.400000	-0.067863	-51.019234	-38.478690	42.841259	-38.478690	42.841259	-0.067883	-51.029706
3.450000	-0.068983	-51.728923	-38.405610	42.316508	-38.405610	42.316508	-0.069003	-51.739530
3.500000	-0.070119	-52.436306	-38.335738	41.803649	-38.335738	41.803649	-0.070139	-52.447046
3.550000	-0.071258	-53.143171	-38.266980	41.293524	-38.266980	41.293524	-0.071278	-53.154045
3.600000	-0.072415	-53.847445	-38.201521	40.797065	-38.201521	40.797065	-0.072436	-53.858452
3.650000	-0.073575	-54.551458	-38.136816	40.302018	-38.136816	40.302018	-0.073595	-54.562598
3.700000	-0.074756	-55.252594	-38.075476	39.822494	-38.075476	39.822494	-0.074776	-55.263865
3.750000	-0.075937	-55.953730	-38.014566	39.342971	-38.014566	39.342971	-0.075958	-55.965132
3.800000	-0.077143	-56.651700	-37.957060	38.880909	-37.957060	38.880909	-0.077164	-56.663232
3.850000	-0.078349	-57.349670	-37.899932	38.418847	-37.899932	38.418847	-0.078371	-57.361333
3.900000	-0.079580	-58.044717	-37.845745	37.973263	-37.845745	37.973263	-0.079602	-58.056508
3.950000	-0.080813	-58.739497	-37.792126	37.529177	-37.792126	37.529177	-0.080835	-58.751417
4.000000	-0.082070	-59.431603	-37.741015	37.100485	-37.741015	37.100485	-0.082093	-59.443650
4.050000	-0.083332	-60.123173	-37.690636	36.674873	-37.690636	36.674873	-0.083355	-60.135348
4.100000	-0.084616	-60.812322	-37.642362	36.263474	-37.642362	36.263474	-0.084639	-60.824624
4.150000	-0.085908	-61.500665	-37.594956	35.856813	-37.594956	35.856813	-0.085932	-61.513093
4.200000	-0.087222	-62.186846	-37.549284	35.463089	-37.549284	35.463089	-0.087245	-62.199399
4.250000	-0.088546	-62.871947	-37.504585	35.075832	-37.504585	35.075832	-0.088570	-62.884624
4.300000	-0.089889	-63.555149	-37.461282	34.700141	-37.461282	34.700141	-0.089913	-63.567951
4.350000	-0.091247	-64.236996	-37.419024	34.332711	-37.419024	34.332711	-0.091271	-64.249922
4.400000	-0.092622	-64.917213	-37.377858	33.975386	-37.377858	33.975386	-0.092647	-64.930261
4.450000	-0.094014	-65.595799	-37.337772	33.628166	-37.337772	33.628166	-0.094040	-65.608970
4.500000	-0.095423	-66.273023	-37.298513	33.289510	-37.298513	33.289510	-0.095448	-66.286316
4.550000	-0.096852	-66.948342	-37.260327	32.962841	-37.260327	32.962841	-0.096878	-66.961757
4.600000	-0.098295	-67.622572	-37.222743	32.643119	-37.222743	32.643119	-0.098321	-67.636107
4.650000	-0.099763	-68.294623	-37.186186	32.337289	-37.186186	32.337289	-0.099790	-68.308278
4.700000	-0.101242	-68.965856	-37.150044	32.036725	-37.150044	32.036725	-0.101269	-68.979631
4.750000	-0.102751	-69.634639	-37.114836	31.751959	-37.114836	31.751959	-0.102778	-69.648533
4.800000	-0.104266	-70.302878	-37.079903	31.470730	-37.079903	31.470730	-0.104294	-70.316891
4.850000	-0.105817	-70.968398	-37.045764	31.207182	-37.045764	31.207182	-0.105845	-70.982528
4.900000	-0.107371	-71.633646	-37.011803	30.945410	-37.011803	30.945410	-0.107399	-71.647894
4.950000	-0.108966	-72.295908	-36.978448	30.703154	-36.978448	30.703154	-0.108994	-72.310273
5.000000	-0.110560	-72.958170	-36.945221	30.460898	-36.945221	30.460898	-0.110589	-72.972652
5.050000	-0.112200	-73.617185	-36.912360	30.239915	-36.912360	30.239915	-0.112229	-73.631783
5.100000	-0.113839	-74.276199	-36.879624	30.018931	-36.879624	30.018931	-0.113869	-74.290913
5.150000	-0.115522	-74.932249	-36.846969	29.817334	-36.846969	29.817334	-0.115552	-74.947077
5.200000	-0.117209	-75.588028	-36.814433	29.617499	-36.814433	29.617499	-0.117239	-75.602971
5.250000	-0.118936	-76.241124	-36.781737	29.435089	-36.781737	29.435089	-0.118966	-76.256181
5.300000	-0.120671	-76.893683	-36.749108	29.256164	-36.749108	29.256164	-0.120702	-76.908854
5.350000	-0.122444	-77.543841	-36.716126	29.092648	-36.716126	29.092648	-0.122475	-77.559124
5.400000	-0.124230	-78.193197	-36.683110	28.934269	-36.683110	28.934269	-0.124261	-78.208594
5.450000	-0.126050	-78.840432	-36.649596	28.789253	-36.649596	28.789253	-0.126082	-78.855941
5.500000	-0.127887	-79.486607	-36.615899	28.650919	-36.615899	28.650919	-0.127920	-79.502227
5.550000	-0.129756	-80.130938	-36.581610	28.523901	-36.581610	28.523901	-0.129789	-80.146670
5.600000	-0.131647	-80.773952	-36.546941	28.404965	-36.546941	28.404965	-0.131680	-80.789796
5.650000	-0.133566	-81.415400	-36.511637	28.295330	-36.511637	28.295330	-0.133599	-81.431353
5.700000	-0.135512	-82.055280	-36.475707	28.194994	-36.475707	28.194994	-0.135546	-82.071344
5.750000	-0.137482	-82.693865	-36.439156	28.102010	-36.439156	28.102010	-0.137516	-82.710039
5.800000	-0.139485	-83.330638	-36.401685	28.019316	-36.401685	28.019316	-0.139519	-83.346922
5.850000	-0.141507	-83.966385	-36.363660	27.942131	-36.363660	27.942131	-0.141542	-83.982778
5.900000	-0.143569	-84.600081	-36.324377	27.875961	-36.324377	27.875961	-0.143604	-84.616583
5.950000	-0.145645	-85.233016	-36.284662	27.813603	-36.284662	27.813603	-0.145681	-85.249626
6.000000	-0.147766	-85.863667	-36.243309	27.762678	-36.243309	27.762678	-0.147802	-85.880385
6.050000	-0.149898	-86.493816	-36.201700	27.714055	-36.201700	27.714055	-0.149935	-86.510642
6.100000	-0.152081	-87.121456	-36.158036	27.676940	-36.158036	27.676940	-0.152118	-87.138389
6.150000	-0.154269	-87.748848	-36.114342	27.640844	-36.114342	27.640844	-0.154307	-87.765889
6.200000	-0.156515	-88.373514	-36.068144	27.615956	-36.068144	27.615956	-0.156553	-88.390662
6.250000	-0.158761	-88.998180	-36.022192	27.591067	-36.022192	27.591067	-0.158800	-89.015434
6.300000	-0.161072	-89.619910	-35.973262	27.576687	-35.973262	27.576687	-0.161110	-89.637271
6.350000	-0.163383	-90.241640	-35.924607	27.562306	-35.924607	27.562306	-0.163422	-90.259107
6.400000	-0.165754	-90.860717	-35.873061	27.555874	-35.873061	27.555874	-0.165794	-90.878289
6.450000	-0.168131	-91.479552	-35.821533	27.550163	-35.821533	27.550163	-0.168171	-91.497230
6.500000	-0.170564	-92.096010	-35.767262	27.550065	-35.767262	27.550065	-0.170605	-92.113793
6.550000	-0.173009	-92.711992	-35.712721	27.551089	-35.712721	27.551089	-0.173050	-92.729881
6.600000	-0.175506	-93.325868	-35.655640	27.555656	-35.655640	27.555656	-0.175547	-93.343862
6.650000	-0.178020	-93.939042	-35.597978	27.561404	-35.597978	27.561404	-0.178062	-93.957141
6.700000	-0.180581	-94.550375	-35.538029	27.568929	-35.538029	27.568929	-0.180624	-94.568579
6.750000	-0.183166	-95.160787	-35.477167	27.577343	-35.477167	27.577343	-0.183209	-95.179095
6.800000	-0.185793	-95.769617	-35.414319	27.586102	-35.414319	27.586102	-0.185837	-95.788029
6.850000	-0.188451	-96.377315	-35.350215	27.595107	-35.350215	27.595107	-0.188494	-96.395831
6.900000	-0.191145	-96.983681	-35.284465	27.603376	-35.284465	27.603376	-0.191189	-97.002302
6.950000	-0.193876	-97.588715	-35.217109	27.610909	-35.217109	27.610909	-0.193920	-97.607440
7.000000	-0.196638	-98.192661	-35.148479	27.616988	-35.148479	27.616988	-0.196683	-98.211489
7.050000	-0.199444	-98.795083	-35.077897	27.621029	-35.077897	27.621029	-0.199490	-98.814015
7.100000	-0.202276	-99.396651	-35.006435	27.623259	-35.006435	27.623259	-0.202322	-99.415687
7.150000	-0.205159	-99.996514	-34.932684	27.621863	-34.932684	27.621863	-0.205205	-100.015653
7.200000	-0.208061	-100.595750	-34.858464	27.618646	-34.858464	27.618646	-0.208108	-100.614993
7.250000	-0.211022	-101.193107	-34.781633	27.609968	-34.781633	27.609968	-0.211070	-101.212454
7.300000	-0.213997	-101.790057	-34.704751	27.599789	-34.704751	27.599789	-0.214045	-101.809507
7.350000	-0.217037	-102.384967	-34.624956	27.582109	-34.624956	27.582109	-0.217085	-102.404521
7.400000	-0.220084	-102.979677	-34.545528	27.563547	-34.545528	27.563547	-0.220133	-102.999334
7.450000	-0.223205	-103.572197	-34.462911	27.535295	-34.462911	27.535295	-0.223255	-103.591957
7.500000	-0.226327	-104.164716	-34.381073	27.507043	-34.381073	27.507043	-0.226377	-104.184580
7.550000	-0.229530	-104.754905	-34.295798	27.466813	-34.295798	27.466813	-0.229581	-104.774872
7.600000	-0.232734	-105.345093	-34.211353	27.426584	-34.211353	27.426584	-0.232785	-105.365165
7.650000	-0.236013	-105.933201	-34.123950	27.374251	-34.123950	27.374251	-0.236065	-105.953376
7.700000	-0.239301	-106.521120	-34.037078	27.320818	-34.037078	27.320818	-0.239353	-106.541399
7.750000	-0.242658	-107.107200	-33.947725	27.255517	-33.947725	27.255517	-0.242711	-107.127582
7.800000	-0.246030	-107.692911	-33.858620	27.187841	-33.858620	27.187841	-0.246084	-107.713397
7.850000	-0.249466	-108.277015	-33.767503	27.108850	-33.767503	27.108850	-0.249520	-108.297605
7.900000	-0.252925	-108.860583	-33.676370	27.026086	-33.676370	27.026086	-0.252979	-108.881277
7.950000	-0.256440	-109.442765	-33.583677	26.932826	-33.583677	26.932826	-0.256496	-109.463564
8.000000	-0.259986	-110.024255	-33.490724	26.834318	-33.490724	26.834318	-0.260042	-110.045158
8.050000	-0.263583	-110.604571	-33.396646	26.726354	-33.396646	26.726354	-0.263639	-110.625579
8.100000	-0.267217	-111.184048	-33.302085	26.611635	-33.302085	26.611635	-0.267274	-111.205161
8.150000	-0.270895	-111.762554	-33.206809	26.488668	-33.206809	26.488668	-0.270953	-111.783772
8.200000	-0.274619	-112.340089	-33.110851	26.357452	-33.110851	26.357452	-0.274677	-112.361411
8.250000	-0.278380	-112.916842	-33.014560	26.219315	-33.014560	26.219315	-0.278439	-112.938270
8.300000	-0.282195	-113.492502	-32.917411	26.071487	-32.917411	26.071487	-0.282254	-113.514036
8.350000	-0.286040	-114.067560	-32.820282	25.918136	-32.820282	25.918136	-0.286100	-114.089200
8.400000	-0.289946	-114.641417	-32.722142	25.753740	-32.722142	25.753740	-0.290007	-114.663163
8.450000	-0.293876	-115.214840	-32.624344	25.585249	-32.624344	25.585249	-0.293937	-115.236692
8.500000	-0.297875	-115.786965	-32.525401	25.404473	-32.525401	25.404473	-0.297937	-115.808924
8.550000	-0.301891	-116.358813	-32.427095	25.221021	-32.427095	25.221021	-0.301953	-116.380880
8.600000	-0.305984	-116.929280	-32.327527	25.024186	-32.327527	25.024186	-0.306047	-116.951454
8.650000	-0.310087	-117.499615	-32.228860	24.826049	-32.228860	24.826049	-0.310150	-117.521897
8.700000	-0.314274	-118.068499	-32.128832	24.613588	-32.128832	24.613588	-0.314338	-118.090889
8.750000	-0.318464	-118.637383	-32.029943	24.401128	-32.029943	24.401128	-0.318529	-118.659881
8.800000	-0.322747	-119.204760	-31.929605	24.173577	-31.929605	24.173577	-0.322813	-119.227366
8.850000	-0.327033	-119.772136	-31.830413	23.946026	-31.830413	23.946026	-0.327099	-119.794852
8.900000	-0.331406	-120.338203	-31.730105	23.705209	-31.730105	23.705209	-0.331472	-120.361029
8.950000	-0.335788	-120.904150	-31.630741	23.463186	-31.630741	23.463186	-0.335855	-120.927086
9.000000	-0.340250	-121.468972	-31.530562	23.209676	-31.530562	23.209676	-0.340318	-121.492019
9.050000	-0.344730	-122.033569	-31.431142	22.953869	-31.431142	22.953869	-0.344798	-122.056726
9.100000	-0.349282	-122.597214	-31.331178	22.688280	-31.331178	22.688280	-0.349351	-122.620482
9.150000	-0.353861	-123.160540	-31.231802	22.419431	-31.231802	22.419431	-0.353930	-123.183921
9.200000	-0.358504	-123.723075	-31.132124	22.142411	-31.132124	22.142411	-0.358574	-123.746568
9.250000	-0.363181	-124.285213	-31.032874	21.861306	-31.032874	21.861306	-0.363252	-124.308819
9.300000	-0.367916	-124.846707	-30.933542	21.573526	-30.933542	21.573526	-0.367988	-124.870427
9.350000	-0.372693	-125.407741	-30.834485	21.280979	-30.834485	21.280979	-0.372765	-125.431574
9.400000	-0.377520	-125.968264	-30.735545	20.983127	-30.735545	20.983127	-0.377593	-125.992212
9.450000	-0.382398	-126.528277	-30.636731	20.679970	-30.636731	20.679970	-0.382471	-126.552340
9.500000	-0.387317	-127.087900	-30.538216	20.372743	-30.538216	20.372743	-0.387391	-127.112079
9.550000	-0.392295	-127.646979	-30.439680	20.059819	-30.439680	20.059819	-0.392370	-127.671274
9.600000	-0.397308	-128.205775	-30.341611	19.743918	-30.341611	19.743918	-0.397383	-128.230187
9.650000	-0.402387	-128.764007	-30.243374	19.422066	-30.243374	19.422066	-0.402463	-128.788537
9.700000	-0.407493	-129.322049	-30.145762	19.098189	-30.145762	19.098189	-0.407570	-129.346698
9.750000	-0.412674	-129.879524	-30.047828	18.768241	-30.047828	18.768241	-0.412751	-129.904292
9.800000	-0.417874	-130.436888	-29.950671	18.437079	-29.950671	18.437079	-0.417952	-130.461775
9.850000	-0.423157	-130.993696	-29.853031	18.099851	-29.853031	18.099851	-0.423235	-131.018703
9.900000	-0.428451	-131.550456	-29.756319	17.762083	-29.756319	17.762083	-0.428530	-131.575585
9.950000	-0.433835	-132.106690	-29.658950	17.418369	-29.658950	17.418369	-0.433915	-132.131941
10.000000	-0.439223	-132.662924	-29.562662	17.074656	-29.562662	17.074656	-0.439304	-132.688298
