! freq	dB(S11)	phase(S11)	dB(S12)	phase(S12)	
!     	dB(S21)	phase(S21)	dB(S22)	phase(S22)	
!S-par simulation data
#  GHz  S  DB  R 50
0.000000	-92.199688	0.000000	-0.000213	0.000000	-0.000213	0.000000	-92.199688	0.000000
0.050000	-58.569947	-90.002479	-0.000311	-0.800631	-0.000311	-0.800631	-58.567891	-90.007822
0.100000	-52.580752	-91.739606	-0.000602	-1.601061	-0.000602	-1.601061	-52.579300	-91.747693
0.150000	-49.099045	-92.979538	-0.001074	-2.401107	-0.001074	-2.401107	-49.098244	-92.987928
0.200000	-46.642326	-94.030595	-0.001709	-3.200619	-0.001709	-3.200619	-46.642032	-94.037617
0.250000	-44.745131	-94.970836	-0.002494	-3.999437	-0.002494	-3.999437	-44.745162	-94.975756
0.300000	-43.198530	-95.853800	-0.003392	-4.797541	-0.003392	-4.797541	-43.198742	-95.856558
0.350000	-41.893557	-96.701023	-0.004387	-5.594863	-0.004387	-5.594863	-41.893852	-96.701797
0.400000	-40.765273	-97.528655	-0.005456	-6.391392	-0.005456	-6.391392	-40.765596	-97.527705
0.450000	-39.772154	-98.346224	-0.006578	-7.187148	-0.006578	-7.187148	-39.772472	-98.343798
0.500000	-38.886026	-99.159217	-0.007736	-7.982171	-0.007736	-7.982171	-38.886324	-99.155520
0.550000	-38.086880	-99.970712	-0.008914	-8.776517	-0.008914	-8.776517	-38.087150	-99.965907
0.600000	-37.359974	-100.782381	-0.010101	-9.570251	-0.010101	-9.570251	-37.360215	-100.776592
0.650000	-36.694122	-101.595082	-0.011286	-10.363442	-0.011286	-10.363442	-36.694333	-101.588399
0.700000	-36.080625	-102.409205	-0.012463	-11.156161	-0.012463	-11.156161	-36.080810	-102.401696
0.750000	-35.512585	-103.224877	-0.013628	-11.948473	-0.013628	-11.948473	-35.512745	-103.216592
0.800000	-34.984432	-104.042081	-0.014777	-12.740443	-0.014777	-12.740443	-34.984570	-104.033056
0.850000	-34.491606	-104.860725	-0.015910	-13.532129	-0.015910	-13.532129	-34.491725	-104.850985
0.900000	-34.030326	-105.680680	-0.017024	-14.323582	-0.017024	-14.323582	-34.030427	-105.670243
0.950000	-33.597419	-106.501806	-0.018121	-15.114849	-0.018121	-15.114849	-33.597506	-106.490684
1.000000	-33.190201	-107.323963	-0.019202	-15.905970	-0.019202	-15.905970	-33.190275	-107.312164
1.050000	-32.806377	-108.147021	-0.020266	-16.696983	-0.020266	-16.696983	-32.806441	-108.134548
1.100000	-32.443975	-108.970859	-0.021317	-17.487918	-0.021317	-17.487918	-32.444028	-108.957713
1.150000	-32.101281	-109.795370	-0.022356	-18.278802	-0.022356	-18.278802	-32.101327	-109.781550
1.200000	-31.776806	-110.620461	-0.023383	-19.069660	-0.023383	-19.069660	-31.776845	-110.605963
1.250000	-31.469239	-111.446053	-0.024401	-19.860511	-0.024401	-19.860511	-31.469273	-111.430871
1.300000	-31.177666	-112.272094	-0.025410	-20.651375	-0.025410	-20.651375	-31.177695	-112.256223
1.350000	-30.900829	-113.098512	-0.026413	-21.442267	-0.026413	-21.442267	-30.900855	-113.081943
1.400000	-30.637821	-113.925264	-0.027411	-22.233202	-0.027411	-22.233202	-30.637844	-113.907988
1.450000	-30.387833	-114.752320	-0.028405	-23.024192	-0.028405	-23.024192	-30.387853	-114.734327
1.500000	-30.150138	-115.579660	-0.029395	-23.815249	-0.029395	-23.815249	-30.150158	-115.560939
1.550000	-29.924088	-116.407271	-0.030384	-24.606381	-0.030384	-24.606381	-29.924106	-116.387810
1.600000	-29.709095	-117.235152	-0.031371	-25.397599	-0.031371	-25.397599	-29.709113	-117.214938
1.650000	-29.504631	-118.063309	-0.032358	-26.188912	-0.032358	-26.188912	-29.504650	-118.042328
1.700000	-29.310218	-118.891754	-0.033345	-26.980329	-0.033345	-26.980329	-29.310239	-118.869992
1.750000	-29.125425	-119.720509	-0.034332	-27.771856	-0.034332	-27.771856	-29.125447	-119.697951
1.800000	-28.949857	-120.549602	-0.035321	-28.563502	-0.035321	-28.563502	-28.949881	-120.526231
1.850000	-28.783161	-121.379067	-0.036311	-29.355275	-0.036311	-29.355275	-28.783187	-121.354866
1.900000	-28.625011	-122.208946	-0.037303	-30.147183	-0.037303	-30.147183	-28.625041	-122.183897
1.950000	-28.475116	-123.039287	-0.038297	-30.939232	-0.038297	-30.939232	-28.475149	-123.013370
2.000000	-28.333208	-123.870142	-0.039293	-31.731431	-0.039293	-31.731431	-28.333245	-123.843338
2.050000	-28.199046	-124.701572	-0.040292	-32.523787	-0.040292	-32.523787	-28.199087	-124.673860
2.100000	-28.072410	-125.533642	-0.041293	-33.316308	-0.041293	-33.316308	-28.072456	-125.504999
2.150000	-27.953103	-126.366424	-0.042297	-34.109002	-0.042297	-34.109002	-27.953153	-126.336826
2.200000	-27.840945	-127.199993	-0.043304	-34.901877	-0.043304	-34.901877	-27.841000	-127.169417
2.250000	-27.735775	-128.034434	-0.044314	-35.694940	-0.044314	-35.694940	-27.735837	-128.002853
2.300000	-27.637450	-128.869834	-0.045327	-36.488200	-0.045327	-36.488200	-27.637518	-128.837221
2.350000	-27.545842	-129.706288	-0.046343	-37.281666	-0.046343	-37.281666	-27.545917	-129.672615
2.400000	-27.460837	-130.543895	-0.047362	-38.075345	-0.047362	-38.075345	-27.460919	-130.509132
2.450000	-27.382337	-131.382764	-0.048384	-38.869248	-0.048384	-38.869248	-27.382427	-131.346879
2.500000	-27.310256	-132.223005	-0.049409	-39.663382	-0.049409	-39.663382	-27.310354	-132.185965
2.550000	-27.244776	-133.064810	-0.050438	-40.457768	-0.050438	-40.457768	-27.244883	-133.026579
2.600000	-27.185587	-133.908246	-0.051470	-41.252405	-0.051470	-41.252405	-27.185703	-133.868786
2.650000	-27.132641	-134.753447	-0.052505	-42.047302	-0.052505	-42.047302	-27.132767	-134.712720
2.700000	-27.085904	-135.600555	-0.053544	-42.842470	-0.053544	-42.842470	-27.086040	-135.558519
2.750000	-27.045351	-136.449721	-0.054587	-43.637917	-0.054587	-43.637917	-27.045499	-136.406333
2.800000	-27.010971	-137.301103	-0.055633	-44.433654	-0.055633	-44.433654	-27.011131	-137.256317
2.850000	-26.982764	-138.154871	-0.056684	-45.229691	-0.056684	-45.229691	-26.982937	-138.108638
2.900000	-26.960739	-139.011201	-0.057739	-46.026039	-0.057739	-46.026039	-26.960926	-138.963471
2.950000	-26.944921	-139.870285	-0.058798	-46.822706	-0.058798	-46.822706	-26.945123	-139.821002
3.000000	-26.935344	-140.732323	-0.059862	-47.619705	-0.059862	-47.619705	-26.935561	-140.681429
3.050000	-26.932053	-141.597530	-0.060931	-48.417045	-0.060931	-48.417045	-26.932288	-141.544964
3.100000	-26.935109	-142.466135	-0.062005	-49.214738	-0.062005	-49.214738	-26.935362	-142.411832
3.150000	-26.944582	-143.338383	-0.063085	-50.012794	-0.063085	-50.012794	-26.944854	-143.282273
3.200000	-26.960557	-144.214536	-0.064171	-50.811223	-0.064171	-50.811223	-26.960851	-144.156545
3.250000	-26.983133	-145.094876	-0.065264	-51.610038	-0.065264	-51.610038	-26.983450	-145.034925
3.300000	-27.012422	-145.979704	-0.066364	-52.409249	-0.066364	-52.409249	-27.012764	-145.917709
3.350000	-27.048553	-146.869349	-0.067471	-53.208867	-0.067471	-53.208867	-27.048922	-146.805220
3.400000	-27.091670	-147.764164	-0.068586	-54.008903	-0.068586	-54.008903	-27.092069	-147.697804
3.450000	-27.141935	-148.664532	-0.069711	-54.809369	-0.069711	-54.809369	-27.142366	-148.595837
3.500000	-27.199527	-149.570872	-0.070844	-55.610276	-0.070844	-55.610276	-27.199993	-149.499730
3.550000	-27.264647	-150.483636	-0.071988	-56.411635	-0.071988	-56.411635	-27.265150	-150.409930
3.600000	-27.337515	-151.403325	-0.073142	-57.213457	-0.073142	-57.213457	-27.338060	-151.326923
3.650000	-27.418375	-152.330484	-0.074308	-58.015754	-0.074308	-58.015754	-27.418966	-152.251248
3.700000	-27.507498	-153.265716	-0.075487	-58.818537	-0.075487	-58.818537	-27.508139	-153.183494
3.750000	-27.605180	-154.209684	-0.076678	-59.621817	-0.076678	-59.621817	-27.605877	-154.124314
3.800000	-27.712091	-155.163578	-0.077885	-60.425628	-0.077885	-60.425628	-27.712849	-155.074874
3.850000	-27.828262	-156.127850	-0.079107	-61.229959	-0.079107	-61.229959	-27.829089	-156.035617
3.900000	-27.954095	-157.103433	-0.080345	-62.034823	-0.080345	-62.034823	-27.954998	-157.007457
3.950000	-28.090030	-158.091370	-0.081600	-62.840229	-0.081600	-62.840229	-28.091017	-157.991421
4.000000	-28.236554	-159.092842	-0.082874	-63.646189	-0.082874	-63.646189	-28.237636	-158.988663
4.050000	-28.394207	-160.109180	-0.084168	-64.452713	-0.084168	-64.452713	-28.395394	-160.000492
4.100000	-28.563585	-161.141902	-0.085483	-65.259813	-0.085483	-65.259813	-28.564890	-161.028394
4.150000	-28.745352	-162.192740	-0.086819	-66.067500	-0.086819	-66.067500	-28.746791	-162.074070
4.200000	-28.940246	-163.263680	-0.088180	-66.875783	-0.088180	-66.875783	-28.941837	-163.139468
4.250000	-29.149091	-164.357017	-0.089565	-67.684673	-0.089565	-67.684673	-29.150855	-164.226840
4.300000	-29.372809	-165.475411	-0.090976	-68.494180	-0.090976	-68.494180	-29.374769	-165.338796
4.350000	-29.612433	-166.621968	-0.092415	-69.304316	-0.092415	-69.304316	-29.614619	-166.478384
4.400000	-29.869128	-167.800333	-0.093883	-70.115088	-0.093883	-70.115088	-29.871575	-167.649182
4.450000	-30.144211	-169.014817	-0.095381	-70.926509	-0.095381	-70.926509	-30.146959	-168.855423
4.500000	-30.439172	-170.270551	-0.096912	-71.738586	-0.096912	-71.738586	-30.442272	-170.102145
4.550000	-30.755713	-171.573692	-0.098478	-72.551330	-0.098478	-72.551330	-30.759225	-171.395396
4.600000	-31.095778	-172.931689	-0.100078	-73.364749	-0.100078	-73.364749	-31.099776	-172.742496
4.650000	-31.461601	-174.353635	-0.101717	-74.178853	-0.101717	-74.178853	-31.466179	-174.152383
4.700000	-31.855764	-175.850738	-0.103394	-74.993650	-0.103394	-74.993650	-31.861036	-175.636081
4.750000	-32.281260	-177.436965	-0.105112	-75.809149	-0.105112	-75.809149	-32.287374	-177.207330
4.800000	-32.741580	-179.129917	-0.106874	-76.625359	-0.106874	-76.625359	-32.748723	-178.883464
4.850000	-33.240810	179.047939	-0.108680	-77.442286	-0.108680	-77.442286	-33.249227	179.313379
4.900000	-33.783751	177.067528	-0.110533	-78.259940	-0.110533	-78.259940	-33.793765	177.354520
4.950000	-34.376052	174.890658	-0.112434	-79.078327	-0.112434	-79.078327	-34.388096	175.202242
5.000000	-35.024353	172.466344	-0.114387	-79.897454	-0.114387	-79.897454	-35.039018	172.806118
5.050000	-35.736728	169.706830	-0.116395	-80.717361	-0.116395	-80.717361	-35.754861	170.079232
5.100000	-36.521249	166.521717	-0.118458	-81.538022	-0.118458	-81.538022	-36.544042	166.931641
5.150000	-37.386981	162.766726	-0.120578	-82.359444	-0.120578	-82.359444	-37.416169	163.219407
5.200000	-38.341982	158.232403	-0.122758	-83.181631	-0.122758	-83.181631	-38.380137	158.732503
5.250000	-39.389416	152.611811	-0.125000	-84.004591	-0.125000	-84.004591	-39.440375	153.160876
5.300000	-40.518172	145.460894	-0.127307	-84.828326	-0.127307	-84.828326	-40.587537	146.051045
5.350000	-41.682249	136.181167	-0.129679	-85.652843	-0.129679	-85.652843	-41.777443	136.781314
5.400000	-42.763905	124.137684	-0.132120	-86.478146	-0.132120	-86.478146	-42.891972	124.671815
5.450000	-43.540863	109.136586	-0.134633	-87.304237	-0.134633	-87.304237	-43.701091	109.478497
5.500000	-43.745358	92.177455	-0.137219	-88.131122	-0.137219	-88.131122	-43.920707	92.215628
5.550000	-43.263870	75.410910	-0.139881	-88.958802	-0.139881	-88.958802	-43.427725	75.143799
5.600000	-42.248515	60.823534	-0.142621	-89.787280	-0.142621	-89.787280	-42.383790	60.353317
5.650000	-40.967239	49.179247	-0.145442	-90.616559	-0.145442	-90.616559	-41.072076	48.622976
5.700000	-39.625078	40.198849	-0.148347	-91.446641	-0.148347	-91.446641	-39.705106	39.631608
5.750000	-38.326762	33.254222	-0.151337	-92.277525	-0.151337	-92.277525	-38.388459	32.710625
5.800000	-37.111921	27.772827	-0.154416	-93.109214	-0.154416	-93.109214	-37.160416	27.264866
5.850000	-35.989081	23.332303	-0.157586	-93.941708	-0.157586	-93.941708	-36.028020	22.861812
5.900000	-34.954185	19.640460	-0.160849	-94.775006	-0.160849	-94.775006	-34.986092	19.205289
5.950000	-33.998964	16.497369	-0.164209	-95.609108	-0.164209	-95.609108	-34.025593	16.094093
6.000000	-33.114401	13.764885	-0.167667	-96.444012	-0.167667	-96.444012	-33.136987	13.389914
6.050000	-32.292042	11.345860	-0.171227	-97.279718	-0.171227	-97.279718	-32.311472	10.995859
6.100000	-31.524405	9.170607	-0.174890	-98.116222	-0.174890	-98.116222	-31.541328	8.842622
6.150000	-30.805030	7.188137	-0.178660	-98.953522	-0.178660	-98.953522	-30.819931	6.879612
6.200000	-30.128395	5.360443	-0.182539	-99.791615	-0.182539	-99.791615	-30.141642	5.069179
6.250000	-29.489792	3.658696	-0.186530	-100.630497	-0.186530	-100.630497	-29.501668	3.382809
6.300000	-28.884793	2.064384	-0.190640	-101.470198	-0.190640	-101.470198	-28.895524	1.802196
6.350000	-28.310441	0.555223	-0.194868	-102.310678	-0.194868	-102.310678	-28.320202	0.305358
6.400000	-27.763759	-0.882166	-0.199215	-103.151933	-0.199215	-103.151933	-27.772691	-1.120901
6.450000	-27.242175	-2.258553	-0.203684	-103.993956	-0.203684	-103.993956	-27.250393	-2.487193
6.500000	-26.743815	-3.585258	-0.208272	-104.836699	-0.208272	-104.836699	-26.751414	-3.804664
6.550000	-26.266059	-4.864426	-0.212992	-105.680229	-0.212992	-105.680229	-26.273117	-5.075434
6.600000	-25.807514	-6.104428	-0.217842	-106.524507	-0.217842	-106.524507	-25.814096	-6.307739
6.650000	-25.366679	-7.310245	-0.222824	-107.369524	-0.222824	-107.369524	-25.372842	-7.506478
6.700000	-24.942227	-8.486059	-0.227942	-108.215271	-0.227942	-108.215271	-24.948017	-8.675766
6.750000	-24.532980	-9.635409	-0.233196	-109.061739	-0.233196	-109.061739	-24.538436	-9.819080
6.800000	-24.137884	-10.761306	-0.238590	-109.908918	-0.238590	-109.908918	-24.143042	-10.939380
6.850000	-23.755999	-11.866329	-0.244127	-110.756797	-0.244127	-110.756797	-23.760888	-12.039202
6.900000	-23.386439	-12.952517	-0.249809	-111.605373	-0.249809	-111.605373	-23.391085	-13.120547
6.950000	-23.028448	-14.021846	-0.255639	-112.454634	-0.255639	-112.454634	-23.032875	-14.185358
7.000000	-22.681378	-15.076174	-0.261619	-113.304561	-0.261619	-113.304561	-22.685604	-15.235459
7.050000	-22.344601	-16.116948	-0.267750	-114.155140	-0.267750	-114.155140	-22.348644	-16.272268
7.100000	-22.017546	-17.145435	-0.274034	-115.006359	-0.274034	-115.006359	-22.021421	-17.297034
7.150000	-21.699693	-18.162753	-0.280474	-115.858204	-0.280474	-115.858204	-21.703414	-18.310851
7.200000	-21.390565	-19.169891	-0.287071	-116.710661	-0.287071	-116.710661	-21.394144	-19.314690
7.250000	-21.089725	-20.167725	-0.293828	-117.563714	-0.293828	-117.563714	-21.093174	-20.309412
7.300000	-20.796772	-21.157033	-0.300746	-118.417349	-0.300746	-118.417349	-20.800100	-21.295780
7.350000	-20.511336	-22.138513	-0.307827	-119.271550	-0.307827	-119.271550	-20.514552	-22.274477
7.400000	-20.233075	-23.112785	-0.315074	-120.126300	-0.315074	-120.126300	-20.236187	-23.246113
7.450000	-19.961674	-24.080407	-0.322487	-120.981584	-0.322487	-120.981584	-19.964689	-24.211235
7.500000	-19.696841	-25.041881	-0.330069	-121.837382	-0.330069	-121.837382	-19.699765	-25.170336
7.550000	-19.438255	-25.997485	-0.337827	-122.693694	-0.337827	-122.693694	-19.441095	-26.123687
7.600000	-19.185719	-26.947826	-0.345756	-123.550485	-0.345756	-123.550485	-19.188481	-27.071884
7.650000	-18.938999	-27.893268	-0.353857	-124.407735	-0.353857	-124.407735	-18.941686	-28.015285
7.700000	-18.697873	-28.834142	-0.362134	-125.265426	-0.362134	-125.265426	-18.700491	-28.954213
7.750000	-18.462137	-29.770748	-0.370585	-126.123538	-0.370585	-126.123538	-18.464689	-29.888962
7.800000	-18.231598	-30.703359	-0.379214	-126.982052	-0.379214	-126.982052	-18.234089	-30.819800
7.850000	-18.006077	-31.632223	-0.388020	-127.840946	-0.388020	-127.840946	-18.008510	-31.746969
7.900000	-17.785404	-32.557565	-0.397004	-128.700201	-0.397004	-128.700201	-17.787783	-32.670691
7.950000	-17.569422	-33.479591	-0.406168	-129.559796	-0.406168	-129.559796	-17.571749	-33.591166
8.000000	-17.357981	-34.398488	-0.415513	-130.419708	-0.415513	-130.419708	-17.360259	-34.508579
8.050000	-17.150941	-35.314427	-0.425038	-131.279917	-0.425038	-131.279917	-17.153173	-35.423096
8.100000	-16.948170	-36.227563	-0.434744	-132.140401	-0.434744	-132.140401	-16.950358	-36.334870
8.150000	-16.749543	-37.138039	-0.444632	-133.001138	-0.444632	-133.001138	-16.751689	-37.244039
8.200000	-16.554942	-38.045983	-0.454703	-133.862104	-0.454703	-133.862104	-16.557049	-38.150728
8.250000	-16.364256	-38.951512	-0.464955	-134.723278	-0.464955	-134.723278	-16.366326	-39.055054
8.300000	-16.177381	-39.854734	-0.475390	-135.584637	-0.475390	-135.584637	-16.179414	-39.957121
8.350000	-15.994215	-40.755745	-0.486007	-136.446157	-0.486007	-136.446157	-15.996215	-40.857022
8.400000	-15.814666	-41.654632	-0.496807	-137.307816	-0.496807	-137.307816	-15.816633	-41.754843
8.450000	-15.638642	-42.551475	-0.507788	-138.169589	-0.507788	-138.169589	-15.640578	-42.650661
8.500000	-15.466060	-43.446345	-0.518951	-139.031455	-0.518951	-139.031455	-15.467966	-43.544545
8.550000	-15.296835	-44.339385	-0.530287	-139.893387	-0.530287	-139.893387	-15.298713	-44.436636
8.600000	-15.130896	-45.230472	-0.541813	-140.755366	-0.541813	-140.755366	-15.132747	-45.326812
8.650000	-14.968168	-46.119757	-0.553518	-141.617365	-0.553518	-141.617365	-14.969994	-46.215220
8.700000	-14.808582	-47.007284	-0.565402	-142.479361	-0.565402	-142.479361	-14.810383	-47.101905
8.750000	-14.652072	-47.893093	-0.577464	-143.341330	-0.577464	-143.341330	-14.653849	-47.986902
8.800000	-14.498580	-48.777179	-0.589705	-144.203247	-0.589705	-144.203247	-14.500335	-48.870208
8.850000	-14.348042	-49.659607	-0.602121	-145.065088	-0.602121	-145.065088	-14.349776	-49.751886
8.900000	-14.200400	-50.540401	-0.614711	-145.926831	-0.614711	-145.926831	-14.202113	-50.631957
8.950000	-14.055598	-51.419577	-0.627473	-146.788451	-0.627473	-146.788451	-14.057292	-51.510437
9.000000	-13.913584	-52.297150	-0.640406	-147.649927	-0.640406	-147.649927	-13.915259	-52.387341
9.050000	-13.774307	-53.173128	-0.653507	-148.511233	-0.653507	-148.511233	-13.775964	-53.262675
9.100000	-13.637718	-54.047518	-0.666774	-149.372349	-0.666774	-149.372349	-13.639358	-54.136445
9.150000	-13.503771	-54.920320	-0.680206	-150.233251	-0.680206	-150.233251	-13.505395	-55.008652
9.200000	-13.372421	-55.791534	-0.693801	-151.093917	-0.693801	-151.093917	-13.374029	-55.879292
9.250000	-13.243625	-56.661153	-0.707555	-151.954324	-0.707555	-151.954324	-13.245219	-56.748359
9.300000	-13.117342	-57.529169	-0.721467	-152.814452	-0.721467	-152.814452	-13.118922	-57.615845
9.350000	-12.993532	-58.395570	-0.735534	-153.674278	-0.735534	-153.674278	-12.995099	-58.481736
9.400000	-12.872165	-59.260322	-0.749754	-154.533778	-0.749754	-154.533778	-12.873719	-59.345999
9.450000	-12.753205	-60.123409	-0.764125	-155.392930	-0.764125	-155.392930	-12.754748	-60.208615
9.500000	-12.636609	-60.984825	-0.778642	-156.251718	-0.778642	-156.251718	-12.638140	-61.069580
9.550000	-12.522342	-61.844549	-0.793303	-157.110122	-0.793303	-157.110122	-12.523863	-61.928869
9.600000	-12.410371	-62.702553	-0.808103	-157.968122	-0.808103	-157.968122	-12.411882	-62.786457
9.650000	-12.300664	-63.558810	-0.823039	-158.825700	-0.823039	-158.825700	-12.302166	-63.642315
9.700000	-12.193189	-64.413288	-0.838109	-159.682837	-0.838109	-159.682837	-12.194683	-64.496410
9.750000	-12.087916	-65.265954	-0.853307	-160.539516	-0.853307	-160.539516	-12.089403	-65.348709
9.800000	-11.984817	-66.116774	-0.868632	-161.395719	-0.868632	-161.395719	-11.986296	-66.199177
9.850000	-11.883861	-66.965709	-0.884078	-162.251430	-0.884078	-162.251430	-11.885335	-67.047776
9.900000	-11.785023	-67.812721	-0.899642	-163.106633	-0.899642	-163.106633	-11.786490	-67.894467
9.950000	-11.688273	-68.657769	-0.915320	-163.961312	-0.915320	-163.961312	-11.689736	-68.739207
10.000000	-11.593587	-69.500809	-0.931108	-164.815453	-0.931108	-164.815453	-11.595046	-69.581953
