! freq	dB(S11)	phase(S11)	dB(S12)	phase(S12)	
!     	dB(S21)	phase(S21)	dB(S22)	phase(S22)	
!S-par simulation data
#  GHz  S  DB  R 50
0.000000	0.000000	-0.000000	-298.190006	180.000000	-298.190006	180.000000	-0.000000	-0.000000
0.050000	-0.009013	-0.944046	-54.079586	88.932911	-54.079586	88.932911	-0.006963	-1.112034
0.100000	-0.009900	-1.859380	-48.060598	87.866242	-48.060598	87.866242	-0.010570	-2.274482
0.150000	-0.010318	-2.780151	-44.541472	86.800415	-44.541472	86.800415	-0.011937	-3.434528
0.200000	-0.010749	-3.702320	-42.046389	85.735795	-42.046389	85.735795	-0.012815	-4.591175
0.250000	-0.011260	-4.624883	-40.113035	84.672848	-40.113035	84.672848	-0.013602	-5.745505
0.300000	-0.011859	-5.547395	-38.535100	83.611748	-38.535100	83.611748	-0.014424	-6.898334
0.350000	-0.012553	-6.469653	-37.202783	82.552847	-37.202783	82.552847	-0.015319	-8.049829
0.400000	-0.013342	-7.391508	-36.050452	81.496396	-36.050452	81.496396	-0.016305	-9.200092
0.450000	-0.014223	-8.312845	-35.035758	80.442603	-35.035758	80.442603	-0.017387	-10.349141
0.500000	-0.015195	-9.233574	-34.129770	79.391636	-34.129770	79.391636	-0.018568	-11.496951
0.550000	-0.016254	-10.153612	-33.311840	78.343621	-33.311840	78.343621	-0.019845	-12.643472
0.600000	-0.017396	-11.072887	-32.566712	77.298648	-32.566712	77.298648	-0.021215	-13.788641
0.650000	-0.018619	-11.991333	-31.882793	76.256775	-31.882793	76.256775	-0.022673	-14.932392
0.700000	-0.019918	-12.908886	-31.251063	75.218025	-31.251063	75.218025	-0.024216	-16.074653
0.750000	-0.021289	-13.825490	-30.664366	74.182400	-30.664366	74.182400	-0.025839	-17.215354
0.800000	-0.022729	-14.741090	-30.116932	73.149880	-30.116932	73.149880	-0.027536	-18.354425
0.850000	-0.024233	-15.655636	-29.604036	72.120426	-29.604036	72.120426	-0.029303	-19.491797
0.900000	-0.025797	-16.569081	-29.121762	71.093989	-29.121762	71.093989	-0.031135	-20.627405
0.950000	-0.027419	-17.481378	-28.666831	70.070512	-28.666831	70.070512	-0.033027	-21.761186
1.000000	-0.029093	-18.392487	-28.236465	69.049930	-28.236465	69.049930	-0.034975	-22.893078
1.050000	-0.030817	-19.302367	-27.828295	68.032176	-27.828295	68.032176	-0.036973	-24.023025
1.100000	-0.032586	-20.210980	-27.440283	67.017186	-27.440283	67.017186	-0.039018	-25.150969
1.150000	-0.034399	-21.118292	-27.070662	66.004896	-27.070662	66.004896	-0.041105	-26.276860
1.200000	-0.036250	-22.024269	-26.717892	64.995246	-26.717892	64.995246	-0.043231	-27.400645
1.250000	-0.038138	-22.928878	-26.380622	63.988181	-26.380622	63.988181	-0.045393	-28.522278
1.300000	-0.040062	-23.832028	-26.057736	62.983759	-26.057736	62.983759	-0.047588	-29.641613
1.350000	-0.042016	-24.733749	-25.748100	61.981829	-25.748100	61.981829	-0.049812	-30.758702
1.400000	-0.043998	-25.634013	-25.450774	60.982354	-25.450774	60.982354	-0.052063	-31.873501
1.450000	-0.046007	-26.532795	-25.164918	59.985307	-25.164918	59.985307	-0.054337	-32.985972
1.500000	-0.048041	-27.430070	-24.889776	58.990667	-24.889776	58.990667	-0.056632	-34.096075
1.550000	-0.050096	-28.325813	-24.624669	57.998420	-24.624669	57.998420	-0.058948	-35.203773
1.600000	-0.052173	-29.220000	-24.368979	57.008557	-24.368979	57.008557	-0.061281	-36.309030
1.650000	-0.054269	-30.112610	-24.122149	56.021077	-24.122149	56.021077	-0.063630	-37.411813
1.700000	-0.056382	-31.003619	-23.883669	55.035982	-23.883669	55.035982	-0.065995	-38.512089
1.750000	-0.058512	-31.893008	-23.653075	54.053281	-23.653075	54.053281	-0.068374	-39.609824
1.800000	-0.060658	-32.780755	-23.429939	53.072987	-23.429939	53.072987	-0.070765	-40.704990
1.850000	-0.062819	-33.666841	-23.213872	52.095117	-23.213872	52.095117	-0.073168	-41.797556
1.900000	-0.064993	-34.551244	-23.004512	51.119691	-23.004512	51.119691	-0.075583	-42.887495
1.950000	-0.067180	-35.433947	-22.801526	50.146732	-22.801526	50.146732	-0.078009	-43.974778
2.000000	-0.069380	-36.314931	-22.604606	49.176267	-22.604606	49.176267	-0.080445	-45.059381
2.050000	-0.071592	-37.194178	-22.413466	48.208324	-22.413466	48.208324	-0.082890	-46.141277
2.100000	-0.073815	-38.071669	-22.227840	47.242934	-22.227840	47.242934	-0.085346	-47.220444
2.150000	-0.076050	-38.947387	-22.047479	46.280127	-22.047479	46.280127	-0.087811	-48.296859
2.200000	-0.078295	-39.821316	-21.872154	45.319936	-21.872154	45.319936	-0.090285	-49.370499
2.250000	-0.080551	-40.693439	-21.701645	44.362394	-21.701645	44.362394	-0.092769	-50.441344
2.300000	-0.082818	-41.563739	-21.535752	43.407536	-21.535752	43.407536	-0.095262	-51.509374
2.350000	-0.085095	-42.432201	-21.374282	42.455394	-21.374282	42.455394	-0.097765	-52.574573
2.400000	-0.087382	-43.298810	-21.217056	41.506003	-21.217056	41.506003	-0.100277	-53.636921
2.450000	-0.089680	-44.163551	-21.063906	40.559396	-21.063906	40.559396	-0.102799	-54.696404
2.500000	-0.091988	-45.026410	-20.914671	39.615604	-20.914671	39.615604	-0.105331	-55.753006
2.550000	-0.094307	-45.887289	-20.769255	38.674786	-20.769255	38.674786	-0.107873	-56.806587
2.600000	-0.096637	-46.746257	-20.627459	37.736849	-20.627459	37.736849	-0.110426	-57.857261
2.650000	-0.098978	-47.603301	-20.489147	36.801823	-20.489147	36.801823	-0.112990	-58.905016
2.700000	-0.101329	-48.458410	-20.354192	35.869737	-20.354192	35.869737	-0.115565	-59.949842
2.750000	-0.103691	-49.311570	-20.222470	34.940616	-20.222470	34.940616	-0.118151	-60.991731
2.800000	-0.106065	-50.162771	-20.093866	34.014488	-20.093866	34.014488	-0.120749	-62.030675
2.850000	-0.108450	-51.012001	-19.968268	33.091376	-19.968268	33.091376	-0.123359	-63.066668
2.900000	-0.110847	-51.859252	-19.845572	32.171301	-19.845572	32.171301	-0.125982	-64.099705
2.950000	-0.113256	-52.704512	-19.725675	31.254285	-19.725675	31.254285	-0.128617	-65.129783
3.000000	-0.115677	-53.547772	-19.608482	30.340347	-19.608482	30.340347	-0.131265	-66.156899
3.050000	-0.118111	-54.389025	-19.493900	29.429505	-19.493900	29.429505	-0.133927	-67.181051
3.100000	-0.120557	-55.228262	-19.381842	28.521772	-19.381842	28.521772	-0.136603	-68.202241
3.150000	-0.123017	-56.065476	-19.272221	27.617164	-19.272221	27.617164	-0.139293	-69.220469
3.200000	-0.125490	-56.900659	-19.164957	26.715692	-19.164957	26.715692	-0.141998	-70.235737
3.250000	-0.127976	-57.733806	-19.059973	25.817367	-19.059973	25.817367	-0.144717	-71.248050
3.300000	-0.130476	-58.564911	-18.957192	24.922197	-18.957192	24.922197	-0.147452	-72.257413
3.350000	-0.132991	-59.393968	-18.856543	24.030187	-18.856543	24.030187	-0.150204	-73.263831
3.400000	-0.135520	-60.220975	-18.757957	23.141345	-18.757957	23.141345	-0.152971	-74.267313
3.450000	-0.138064	-61.045925	-18.661366	22.255671	-18.661366	22.255671	-0.155755	-75.267867
3.500000	-0.140624	-61.868818	-18.566706	21.373169	-18.566706	21.373169	-0.158556	-76.265502
3.550000	-0.143199	-62.689649	-18.473916	20.493837	-18.473916	20.493837	-0.161375	-77.260231
3.600000	-0.145790	-63.508417	-18.382935	19.617673	-18.382935	19.617673	-0.164211	-78.252065
3.650000	-0.148397	-64.325120	-18.293706	18.744675	-18.293706	18.744675	-0.167066	-79.241018
3.700000	-0.151020	-65.139758	-18.206172	17.874837	-18.206172	17.874837	-0.169940	-80.227104
3.750000	-0.153661	-65.952331	-18.120280	17.008152	-18.120280	17.008152	-0.172833	-81.210339
3.800000	-0.156320	-66.762749	-18.036009	16.144749	-18.036009	16.144749	-0.175747	-82.190617
3.850000	-0.158997	-67.571103	-17.953276	15.284480	-17.953276	15.284480	-0.178681	-83.168081
3.900000	-0.161691	-68.377396	-17.872031	14.427333	-17.872031	14.427333	-0.181635	-84.142751
3.950000	-0.164405	-69.181628	-17.792227	13.573297	-17.792227	13.573297	-0.184611	-85.114645
4.000000	-0.167137	-69.983804	-17.713819	12.722357	-17.713819	12.722357	-0.187608	-86.083786
4.050000	-0.169888	-70.783927	-17.636761	11.874498	-17.636761	11.874498	-0.190627	-87.050195
4.100000	-0.172659	-71.582001	-17.561012	11.029703	-17.561012	11.029703	-0.193669	-88.013898
4.150000	-0.175451	-72.378031	-17.486528	10.187953	-17.486528	10.187953	-0.196734	-88.974917
4.200000	-0.178263	-73.172021	-17.413270	9.349231	-17.413270	9.349231	-0.199822	-89.933278
4.250000	-0.181096	-73.963978	-17.341199	8.513514	-17.341199	8.513514	-0.202935	-90.889009
4.300000	-0.183951	-74.753909	-17.270275	7.680782	-17.270275	7.680782	-0.206072	-91.842135
4.350000	-0.186827	-75.541819	-17.200463	6.851013	-17.200463	6.851013	-0.209234	-92.792687
4.400000	-0.189726	-76.327717	-17.131725	6.024182	-17.131725	6.024182	-0.212422	-93.740692
4.450000	-0.192648	-77.111611	-17.064028	5.200264	-17.064028	5.200264	-0.215636	-94.686182
4.500000	-0.195593	-77.893509	-16.997336	4.379234	-16.997336	4.379234	-0.218877	-95.629186
4.550000	-0.198562	-78.673420	-16.931617	3.561066	-16.931617	3.561066	-0.222145	-96.569738
4.600000	-0.201556	-79.451355	-16.866838	2.745731	-16.866838	2.745731	-0.225441	-97.507871
4.650000	-0.204574	-80.227322	-16.802968	1.933201	-16.802968	1.933201	-0.228766	-98.443617
4.700000	-0.207618	-81.001333	-16.739977	1.123446	-16.739977	1.123446	-0.232120	-99.377012
4.750000	-0.210688	-81.773400	-16.677834	0.316437	-16.677834	0.316437	-0.235503	-100.308091
4.800000	-0.213785	-82.543532	-16.616511	-0.487859	-16.616511	-0.487859	-0.238917	-101.236889
4.850000	-0.216908	-83.311743	-16.555979	-1.289473	-16.555979	-1.289473	-0.242361	-102.163445
4.900000	-0.220060	-84.078046	-16.496211	-2.088438	-16.496211	-2.088438	-0.245838	-103.087795
4.950000	-0.223240	-84.842452	-16.437181	-2.884788	-16.437181	-2.884788	-0.249346	-104.009979
5.000000	-0.226449	-85.604976	-16.378860	-3.678556	-16.378860	-3.678556	-0.252888	-104.930035
5.050000	-0.229689	-86.365551	-16.321237	-4.469670	-16.321237	-4.469670	-0.256464	-105.847915
5.100000	-0.232959	-87.124274	-16.264273	-5.258276	-16.264273	-5.258276	-0.260075	-106.763752
5.150000	-0.236260	-87.881158	-16.207943	-6.044413	-16.207943	-6.044413	-0.263721	-107.677587
5.200000	-0.239593	-88.636220	-16.152224	-6.828117	-16.152224	-6.828117	-0.267403	-108.589463
5.250000	-0.242959	-89.389475	-16.097092	-7.609425	-16.097092	-7.609425	-0.271121	-109.499422
5.300000	-0.246357	-90.140940	-16.042525	-8.388378	-16.042525	-8.388378	-0.274877	-110.407509
5.350000	-0.249790	-90.890630	-15.988500	-9.165014	-15.988500	-9.165014	-0.278670	-111.313766
5.400000	-0.253257	-91.638563	-15.934996	-9.939372	-15.934996	-9.939372	-0.282503	-112.218239
5.450000	-0.256759	-92.384755	-15.881991	-10.711495	-15.881991	-10.711495	-0.286375	-113.120973
5.500000	-0.260298	-93.129225	-15.829465	-11.481423	-15.829465	-11.481423	-0.290287	-114.022015
5.550000	-0.263874	-93.871991	-15.777398	-12.249197	-15.777398	-12.249197	-0.294240	-114.921410
5.600000	-0.267487	-94.613070	-15.725769	-13.014861	-15.725769	-13.014861	-0.298236	-115.819207
5.650000	-0.271140	-95.352481	-15.674560	-13.778458	-15.674560	-13.778458	-0.302274	-116.715453
5.700000	-0.274831	-96.090245	-15.623751	-14.540032	-15.623751	-14.540032	-0.306356	-117.610196
5.750000	-0.278563	-96.826379	-15.573323	-15.299627	-15.573323	-15.299627	-0.310482	-118.503485
5.800000	-0.282337	-97.560904	-15.523258	-16.057288	-15.523258	-16.057288	-0.314653	-119.395370
5.850000	-0.286153	-98.293839	-15.473539	-16.813062	-15.473539	-16.813062	-0.318871	-120.285900
5.900000	-0.290012	-99.025205	-15.424148	-17.566994	-15.424148	-17.566994	-0.323136	-121.175127
5.950000	-0.293914	-99.755023	-15.375067	-18.319133	-15.375067	-18.319133	-0.327449	-122.063102
6.000000	-0.297863	-100.483314	-15.326280	-19.069526	-15.326280	-19.069526	-0.331811	-122.949875
6.050000	-0.301857	-101.210098	-15.277771	-19.818221	-15.277771	-19.818221	-0.336223	-123.835500
6.100000	-0.305898	-101.935397	-15.229522	-20.565268	-15.229522	-20.565268	-0.340685	-124.720029
6.150000	-0.309987	-102.659234	-15.181519	-21.310718	-15.181519	-21.310718	-0.345200	-125.603516
6.200000	-0.314125	-103.381630	-15.133745	-22.054620	-15.133745	-22.054620	-0.349767	-126.486013
6.250000	-0.318314	-104.102607	-15.086186	-22.797027	-15.086186	-22.797027	-0.354387	-127.367575
6.300000	-0.322556	-104.822129	-15.038823	-23.537931	-15.038823	-23.537931	-0.359065	-128.248221
6.350000	-0.326851	-105.540279	-14.991643	-24.277450	-14.991643	-24.277450	-0.363799	-129.128047
6.400000	-0.331199	-106.257082	-14.944632	-25.015640	-14.944632	-25.015640	-0.368589	-130.007108
6.450000	-0.335601	-106.972561	-14.897776	-25.752553	-14.897776	-25.752553	-0.373437	-130.885462
6.500000	-0.340060	-107.686739	-14.851061	-26.488248	-14.851061	-26.488248	-0.378344	-131.763164
6.550000	-0.344576	-108.399639	-14.804474	-27.222781	-14.804474	-27.222781	-0.383310	-132.640272
6.600000	-0.349150	-109.111287	-14.758001	-27.956210	-14.758001	-27.956210	-0.388338	-133.516843
6.650000	-0.353784	-109.821707	-14.711628	-28.688593	-14.711628	-28.688593	-0.393427	-134.392935
6.700000	-0.358478	-110.530922	-14.665344	-29.419992	-14.665344	-29.419992	-0.398580	-135.268608
6.750000	-0.363234	-111.238958	-14.619135	-30.150467	-14.619135	-30.150467	-0.403797	-136.143919
6.800000	-0.368054	-111.945840	-14.572989	-30.880080	-14.572989	-30.880080	-0.409079	-137.018929
6.850000	-0.372938	-112.651593	-14.526894	-31.608894	-14.526894	-31.608894	-0.414427	-137.893697
6.900000	-0.377887	-113.356242	-14.480839	-32.336975	-14.480839	-32.336975	-0.419843	-138.768284
6.950000	-0.382904	-114.059813	-14.434811	-33.064388	-14.434811	-33.064388	-0.425328	-139.642750
7.000000	-0.387990	-114.762331	-14.388800	-33.791200	-14.388800	-33.791200	-0.430882	-140.517157
7.050000	-0.393145	-115.463823	-14.342795	-34.517479	-14.342795	-34.517479	-0.436508	-141.391568
7.100000	-0.398371	-116.164314	-14.296784	-35.243295	-14.296784	-35.243295	-0.442205	-142.266043
7.150000	-0.403670	-116.863832	-14.250758	-35.968719	-14.250758	-35.968719	-0.447976	-143.140645
7.200000	-0.409043	-117.562402	-14.204706	-36.693823	-14.204706	-36.693823	-0.453821	-144.015439
7.250000	-0.414491	-118.260051	-14.158618	-37.418680	-14.158618	-37.418680	-0.459741	-144.890487
7.300000	-0.420017	-118.956806	-14.112485	-38.143366	-14.112485	-38.143366	-0.465739	-145.765854
7.350000	-0.425620	-119.652694	-14.066298	-38.867957	-14.066298	-38.867957	-0.471814	-146.641604
7.400000	-0.431303	-120.347743	-14.020049	-39.592531	-14.020049	-39.592531	-0.477969	-147.517802
7.450000	-0.437067	-121.041979	-13.973727	-40.317167	-13.973727	-40.317167	-0.484204	-148.394514
7.500000	-0.442914	-121.735430	-13.927326	-41.041945	-13.927326	-41.041945	-0.490521	-149.271805
7.550000	-0.448849	-122.428092	-13.880823	-41.766962	-13.880823	-41.766962	-0.496924	-150.149773
7.600000	-0.454869	-123.120028	-13.834225	-42.492294	-13.834225	-42.492294	-0.503411	-151.028461
7.650000	-0.460977	-123.811264	-13.787524	-43.218025	-13.787524	-43.218025	-0.509984	-151.907935
7.700000	-0.467173	-124.501831	-13.740716	-43.944243	-13.740716	-43.944243	-0.516644	-152.788264
7.750000	-0.473460	-125.191755	-13.693793	-44.671032	-13.693793	-44.671032	-0.523391	-153.669515
7.800000	-0.479839	-125.881065	-13.646751	-45.398481	-13.646751	-45.398481	-0.530228	-154.551758
7.850000	-0.486311	-126.569791	-13.599585	-46.126679	-13.599585	-46.126679	-0.537155	-155.435062
7.900000	-0.492878	-127.257960	-13.552291	-46.855712	-13.552291	-46.855712	-0.544174	-156.319497
7.950000	-0.499541	-127.945601	-13.504865	-47.585672	-13.504865	-47.585672	-0.551287	-157.205133
8.000000	-0.506303	-128.632745	-13.457304	-48.316647	-13.457304	-48.316647	-0.558493	-158.092041
8.050000	-0.513165	-129.319419	-13.409606	-49.048725	-13.409606	-49.048725	-0.565795	-158.980293
8.100000	-0.520128	-130.005654	-13.361768	-49.781995	-13.361768	-49.781995	-0.573194	-159.869959
8.150000	-0.527193	-130.691479	-13.313791	-50.516545	-13.313791	-50.516545	-0.580691	-160.761113
8.200000	-0.534363	-131.376924	-13.265673	-51.252459	-13.265673	-51.252459	-0.588287	-161.653828
8.250000	-0.541640	-132.062018	-13.217414	-51.989823	-13.217414	-51.989823	-0.595984	-162.548175
8.300000	-0.549023	-132.746791	-13.169016	-52.728719	-13.169016	-52.728719	-0.603783	-163.444230
8.350000	-0.556516	-133.431274	-13.120480	-53.469225	-13.120480	-53.469225	-0.611685	-164.342066
8.400000	-0.564120	-134.115496	-13.071807	-54.211417	-13.071807	-54.211417	-0.619691	-165.241759
8.450000	-0.571836	-134.799488	-13.023001	-54.955368	-13.023001	-54.955368	-0.627804	-166.143383
8.500000	-0.579666	-135.483281	-12.974064	-55.701145	-12.974064	-55.701145	-0.636023	-167.047014
8.550000	-0.587611	-136.166906	-12.925001	-56.448812	-12.925001	-56.448812	-0.644350	-167.952729
8.600000	-0.595673	-136.850392	-12.875813	-57.198425	-12.875813	-57.198425	-0.652787	-168.860604
8.650000	-0.603854	-137.533771	-12.826507	-57.950037	-12.826507	-57.950037	-0.661334	-169.770716
8.700000	-0.612154	-138.217074	-12.777085	-58.703693	-12.777085	-58.703693	-0.669993	-170.683144
8.750000	-0.620577	-138.900332	-12.727552	-59.459431	-12.727552	-59.459431	-0.678765	-171.597965
8.800000	-0.629127	-139.583578	-12.677896	-60.217379	-12.677896	-60.217379	-0.687656	-172.515370
8.850000	-0.637802	-140.266845	-12.628136	-60.977468	-12.628136	-60.977468	-0.696662	-173.435332
8.900000	-0.646602	-140.950163	-12.578275	-61.739718	-12.578275	-61.739718	-0.705785	-174.357934
8.950000	-0.655531	-141.633566	-12.528316	-62.504139	-12.528316	-62.504139	-0.715025	-175.283254
9.000000	-0.664588	-142.317085	-12.478261	-63.270737	-12.478261	-63.270737	-0.724384	-176.211372
9.050000	-0.673775	-143.000752	-12.428109	-64.039513	-12.428109	-64.039513	-0.733863	-177.142372
9.100000	-0.683094	-143.684599	-12.377860	-64.810464	-12.377860	-64.810464	-0.743463	-178.076333
9.150000	-0.692546	-144.368659	-12.327510	-65.583581	-12.327510	-65.583581	-0.753185	-179.013338
9.200000	-0.702132	-145.052963	-12.277057	-66.358857	-12.277057	-66.358857	-0.763030	-179.953470
9.250000	-0.711853	-145.737545	-12.226494	-67.136284	-12.226494	-67.136284	-0.772998	179.103190
9.300000	-0.721711	-146.422436	-12.175815	-67.915853	-12.175815	-67.915853	-0.783091	178.156556
9.350000	-0.731707	-147.107670	-12.125009	-68.697561	-12.125009	-68.697561	-0.793311	177.206546
9.400000	-0.741841	-147.793279	-12.074067	-69.481410	-12.074067	-69.481410	-0.803656	176.253076
9.450000	-0.752116	-148.479297	-12.022975	-70.267407	-12.022975	-70.267407	-0.814129	175.296061
9.500000	-0.762531	-149.165757	-11.971720	-71.055569	-11.971720	-71.055569	-0.824730	174.335416
9.550000	-0.773089	-149.852691	-11.920286	-71.845924	-11.920286	-71.845924	-0.835460	173.371055
9.600000	-0.783789	-150.540133	-11.868656	-72.638512	-11.868656	-72.638512	-0.846319	172.402895
9.650000	-0.794633	-151.228117	-11.816812	-73.433385	-11.816812	-73.433385	-0.857308	171.430848
9.700000	-0.805621	-151.916675	-11.764735	-74.230613	-11.764735	-74.230613	-0.868429	170.454828
9.750000	-0.816755	-152.605842	-11.712407	-75.030279	-11.712407	-75.030279	-0.879680	169.474750
9.800000	-0.828035	-153.295652	-11.659807	-75.832482	-11.659807	-75.832482	-0.891063	168.490527
9.850000	-0.839461	-153.986137	-11.606916	-76.637340	-11.606916	-76.637340	-0.902578	167.502071
9.900000	-0.851035	-154.677332	-11.553716	-77.444985	-11.553716	-77.444985	-0.914225	166.509296
9.950000	-0.862756	-155.369271	-11.500188	-78.255568	-11.500188	-78.255568	-0.926004	165.512114
10.000000	-0.874624	-156.061988	-11.446313	-79.069253	-11.446313	-79.069253	-0.937917	164.510440
