! freq	dB(S11)	phase(S11)	dB(S12)	phase(S12)	
!     	dB(S21)	phase(S21)	dB(S22)	phase(S22)	
!S-par simulation data
#  GHz  S  DB  R 50
0.000000	-92.252181	0.000000	-0.000212	0.000000	-0.000212	0.000000	-92.252181	0.000000
0.050000	-58.901344	-89.733569	-0.000335	-0.883192	-0.000335	-0.883192	-58.901317	-89.733491
0.100000	-52.883462	-91.327233	-0.000699	-1.766119	-0.000699	-1.766119	-52.883436	-91.327074
0.150000	-49.364211	-92.501751	-0.001287	-2.648541	-0.001287	-2.648541	-49.364187	-92.501516
0.200000	-46.869239	-93.565767	-0.002075	-3.530265	-0.002075	-3.530265	-46.869218	-93.565461
0.250000	-44.936817	-94.578233	-0.003045	-4.411087	-0.003045	-4.411087	-44.936798	-94.577860
0.300000	-43.360952	-95.564393	-0.004149	-5.290992	-0.004149	-5.290992	-43.360935	-95.563957
0.350000	-42.032164	-96.531773	-0.005365	-6.169901	-0.005365	-6.169901	-42.032150	-96.531277
0.400000	-40.885043	-97.485957	-0.006661	-7.047816	-0.006661	-7.047816	-40.885030	-97.485403
0.450000	-39.877393	-98.430532	-0.008014	-7.924773	-0.008014	-7.924773	-39.877381	-98.429920
0.500000	-38.980385	-99.367994	-0.009399	-8.800835	-0.009399	-8.800835	-38.980375	-99.367325
0.550000	-38.173438	-100.300154	-0.010798	-9.676086	-0.010798	-9.676086	-38.173429	-100.299429
0.600000	-37.441339	-101.228351	-0.012198	-10.550615	-0.012198	-10.550615	-37.441331	-101.227568
0.650000	-36.772523	-102.153580	-0.013587	-11.424517	-0.013587	-11.424517	-36.772516	-102.152739
0.700000	-36.157990	-103.076587	-0.014959	-12.297886	-0.014959	-12.297886	-36.157983	-103.075687
0.750000	-35.590602	-103.997926	-0.016307	-13.170808	-0.016307	-13.170808	-35.590597	-103.996966
0.800000	-35.064604	-104.918015	-0.017630	-14.043367	-0.017630	-14.043367	-35.064599	-104.916995
0.850000	-34.575286	-105.837166	-0.018927	-14.915634	-0.018927	-14.915634	-34.575281	-105.836084
0.900000	-34.118750	-106.755615	-0.020197	-15.787675	-0.020197	-15.787675	-34.118746	-106.754469
0.950000	-33.691735	-107.673539	-0.021442	-16.659549	-0.021442	-16.659549	-33.691730	-107.672330
1.000000	-33.291482	-108.591077	-0.022662	-17.531305	-0.022662	-17.531305	-33.291478	-108.589802
1.050000	-32.915643	-109.508333	-0.023861	-18.402988	-0.023861	-18.402988	-32.915640	-109.506992
1.100000	-32.562204	-110.425393	-0.025039	-19.274636	-0.025039	-19.274636	-32.562201	-110.423985
1.150000	-32.229422	-111.342325	-0.026200	-20.146282	-0.026200	-20.146282	-32.229419	-111.340847
1.200000	-31.915783	-112.259187	-0.027344	-21.017955	-0.027344	-21.017955	-31.915781	-112.257639
1.250000	-31.619966	-113.176029	-0.028475	-21.889680	-0.028475	-21.889680	-31.619964	-113.174409
1.300000	-31.341121	-114.092902	-0.029594	-22.761484	-0.029594	-22.761484	-31.341119	-114.091208
1.350000	-31.077916	-115.009849	-0.030702	-23.633385	-0.030702	-23.633385	-31.077914	-115.008080
1.400000	-30.829445	-115.926915	-0.031802	-24.505399	-0.031802	-24.505399	-30.829444	-115.925069
1.450000	-30.594906	-116.844143	-0.032895	-25.377543	-0.032895	-25.377543	-30.594905	-116.842219
1.500000	-30.373584	-117.761580	-0.033983	-26.249831	-0.033983	-26.249831	-30.373583	-117.759577
1.550000	-30.164844	-118.679276	-0.035065	-27.122276	-0.035065	-27.122276	-30.164843	-118.677190
1.600000	-29.968116	-119.597282	-0.036144	-27.994893	-0.036144	-27.994893	-29.968115	-119.595111
1.650000	-29.782892	-120.515654	-0.037221	-28.867693	-0.037221	-28.867693	-29.782892	-120.513397
1.700000	-29.608720	-121.434453	-0.038295	-29.740688	-0.038295	-29.740688	-29.608720	-121.432107
1.750000	-29.445192	-122.353744	-0.039368	-30.613890	-0.039368	-30.613890	-29.445192	-122.351308
1.800000	-29.291946	-123.273598	-0.040441	-31.487311	-0.040441	-31.487311	-29.291947	-123.271068
1.850000	-29.148659	-124.194091	-0.041512	-32.360961	-0.041512	-32.360961	-29.148660	-124.191465
1.900000	-29.015043	-125.115306	-0.042584	-33.234851	-0.042584	-33.234851	-29.015045	-125.112580
1.950000	-28.890844	-126.037330	-0.043656	-34.108995	-0.043656	-34.108995	-28.890846	-126.034503
2.000000	-28.775837	-126.960261	-0.044729	-34.983402	-0.044729	-34.983402	-28.775841	-126.957329
2.050000	-28.669827	-127.884202	-0.045803	-35.858085	-0.045803	-35.858085	-28.669831	-127.881161
2.100000	-28.572644	-128.809262	-0.046878	-36.733056	-0.046878	-36.733056	-28.572648	-128.806110
2.150000	-28.484142	-129.735563	-0.047954	-37.608326	-0.047954	-37.608326	-28.484147	-129.732295
2.200000	-28.404201	-130.663233	-0.049032	-38.483908	-0.049032	-38.483908	-28.404206	-130.659845
2.250000	-28.332721	-131.592410	-0.050111	-39.359814	-0.050111	-39.359814	-28.332727	-131.588898
2.300000	-28.269626	-132.523244	-0.051192	-40.236057	-0.051192	-40.236057	-28.269634	-132.519603
2.350000	-28.214861	-133.455894	-0.052275	-41.112650	-0.052275	-41.112650	-28.214869	-133.452121
2.400000	-28.168390	-134.390535	-0.053360	-41.989606	-0.053360	-41.989606	-28.168399	-134.386623
2.450000	-28.130199	-135.327351	-0.054447	-42.866938	-0.054447	-42.866938	-28.130208	-135.323295
2.500000	-28.100293	-136.266545	-0.055536	-43.744661	-0.055536	-43.744661	-28.100304	-136.262340
2.550000	-28.079063	-137.208458	-0.056629	-44.622806	-0.056629	-44.622806	-28.079075	-137.204096
2.600000	-28.066202	-138.153223	-0.057724	-45.501371	-0.057724	-45.501371	-28.066215	-138.148698
2.650000	-28.061780	-139.101099	-0.058823	-46.380369	-0.058823	-46.380369	-28.061795	-139.096404
2.700000	-28.065889	-140.052366	-0.059925	-47.259816	-0.059925	-47.259816	-28.065905	-140.047494
2.750000	-28.078644	-141.007329	-0.061032	-48.139727	-0.061032	-48.139727	-28.078662	-141.002270
2.800000	-28.100184	-141.966320	-0.062142	-49.020115	-0.062142	-49.020115	-28.100204	-141.961066
2.850000	-28.130675	-142.929703	-0.063258	-49.900997	-0.063258	-49.900997	-28.130696	-142.924245
2.900000	-28.170307	-143.897878	-0.064378	-50.782387	-0.064378	-50.782387	-28.170331	-143.892204
2.950000	-28.219303	-144.871283	-0.065505	-51.664302	-0.065505	-51.664302	-28.219329	-144.865383
3.000000	-28.277914	-145.850402	-0.066638	-52.546756	-0.066638	-52.546756	-28.277942	-145.844263
3.050000	-28.346427	-146.835770	-0.067779	-53.429766	-0.067779	-53.429766	-28.346458	-146.829379
3.100000	-28.425165	-147.827983	-0.068927	-54.313346	-0.068927	-54.313346	-28.425199	-147.821326
3.150000	-28.514493	-148.827704	-0.070084	-55.197514	-0.070084	-55.197514	-28.514531	-148.820764
3.200000	-28.614820	-149.835674	-0.071250	-56.082284	-0.071250	-56.082284	-28.614862	-149.828433
3.250000	-28.726606	-150.852726	-0.072427	-56.967674	-0.072427	-56.967674	-28.726653	-150.845166
3.300000	-28.850367	-151.879800	-0.073615	-57.853699	-0.073615	-57.853699	-28.850418	-151.871900
3.350000	-28.986679	-152.917963	-0.074815	-58.740374	-0.074815	-58.740374	-28.986736	-152.909698
3.400000	-29.136194	-153.968426	-0.076030	-59.627717	-0.076030	-59.627717	-29.136257	-153.959772
3.450000	-29.299641	-155.032578	-0.077259	-60.515743	-0.077259	-60.515743	-29.299712	-155.023506
3.500000	-29.477843	-156.112019	-0.078503	-61.404468	-0.078503	-61.404468	-29.477921	-156.102496
3.550000	-29.671726	-157.208597	-0.079766	-62.293908	-0.079766	-62.293908	-29.671814	-157.198588
3.600000	-29.882343	-158.324467	-0.081047	-63.184079	-0.081047	-63.184079	-29.882441	-158.313931
3.650000	-30.110885	-159.462153	-0.082348	-64.074997	-0.082348	-64.074997	-30.110996	-159.451045
3.700000	-30.358714	-160.624636	-0.083670	-64.966677	-0.083670	-64.966677	-30.358840	-160.612903
3.750000	-30.627386	-161.815458	-0.085016	-65.859136	-0.085016	-65.859136	-30.627528	-161.803041
3.800000	-30.919303	-163.040532	-0.086388	-66.752423	-0.086388	-66.752423	-30.919466	-163.027359
3.850000	-31.235970	-164.303917	-0.087787	-67.646520	-0.087787	-67.646520	-31.236156	-164.289909
3.900000	-31.579798	-165.612099	-0.089215	-68.541442	-0.089215	-68.541442	-31.580013	-165.597162
3.950000	-31.953613	-166.973123	-0.090674	-69.437205	-0.090674	-69.437205	-31.953862	-166.957149
4.000000	-32.360744	-168.397084	-0.092165	-70.333821	-0.092165	-70.333821	-32.361035	-168.379943
4.050000	-32.805146	-169.896829	-0.093690	-71.231307	-0.093690	-71.231307	-32.805489	-169.878366
4.100000	-33.291558	-171.488950	-0.095253	-72.129676	-0.095253	-72.129676	-33.291966	-171.468979
4.150000	-33.825709	-173.195249	-0.096854	-73.028941	-0.096854	-73.028941	-33.826199	-173.173542
4.200000	-34.414594	-175.044924	-0.098497	-73.929117	-0.098497	-73.929117	-34.415189	-175.021203
4.250000	-35.066835	-177.077945	-0.100184	-74.830217	-0.100184	-74.830217	-35.067569	-177.051860
4.300000	-35.793165	-179.350403	-0.101916	-75.732253	-0.101916	-75.732253	-35.794086	-179.321517
4.350000	-36.607049	178.056705	-0.103697	-76.635238	-0.103697	-76.635238	-36.608226	178.088950
4.400000	-37.525422	175.022542	-0.105530	-77.539184	-0.105530	-77.539184	-37.526964	175.058855
4.450000	-38.569377	171.360049	-0.107415	-78.444102	-0.107415	-78.444102	-38.571455	171.401319
4.500000	-39.764056	166.767759	-0.109358	-79.350005	-0.109358	-79.350005	-39.766955	166.815036
4.550000	-41.135111	160.740652	-0.111359	-80.256902	-0.111359	-80.256902	-41.139324	160.794911
4.600000	-42.692822	152.415306	-0.113423	-81.164804	-0.113423	-81.164804	-42.699205	152.476436
4.650000	-44.376899	140.392305	-0.115551	-82.073722	-0.115551	-82.073722	-44.386828	140.455822
4.700000	-45.912639	123.007781	-0.117747	-82.983664	-0.117747	-82.983664	-45.927481	123.058542
4.750000	-46.663983	100.190454	-0.120014	-83.894640	-0.120014	-83.894640	-46.682529	100.203448
4.800000	-46.054423	76.181762	-0.122354	-84.806657	-0.122354	-84.806657	-46.071478	76.147602
4.850000	-44.416977	56.947051	-0.124772	-85.719724	-0.124772	-85.719724	-44.429312	56.888959
4.900000	-42.493321	43.703427	-0.127269	-86.633848	-0.127269	-86.633848	-42.501647	43.642591
4.950000	-40.662357	34.676135	-0.129850	-87.549035	-0.129850	-87.549035	-40.668097	34.620001
5.000000	-39.018363	28.232130	-0.132518	-88.465292	-0.132518	-88.465292	-39.022495	28.181962
5.050000	-37.555717	23.418462	-0.135279	-89.382670	-0.135279	-89.382670	-37.558823	23.373735
5.100000	-36.252941	19.590615	-0.138134	-90.301129	-0.138134	-90.301129	-36.255361	19.550509
5.150000	-35.082632	16.428928	-0.141085	-91.220672	-0.141085	-91.220672	-35.084575	16.392684
5.200000	-34.021979	13.734064	-0.144137	-92.141302	-0.144137	-92.141302	-34.023578	13.701047
5.250000	-33.054010	11.362162	-0.147287	-93.062962	-0.147287	-93.062962	-33.055351	11.331883
5.300000	-32.161842	9.257863	-0.150549	-93.985763	-0.150549	-93.985763	-32.162988	9.229884
5.350000	-31.335231	7.344893	-0.153921	-94.909656	-0.153921	-94.909656	-31.336225	7.318883
5.400000	-30.565006	5.580653	-0.157408	-95.834643	-0.157408	-95.834643	-30.565879	5.556343
5.450000	-29.843748	3.934129	-0.161012	-96.760724	-0.161012	-96.760724	-29.844523	3.911300
5.500000	-29.165389	2.382243	-0.164738	-97.687898	-0.164738	-97.687898	-29.166083	2.360712
5.550000	-28.524916	0.907490	-0.168589	-98.616162	-0.168589	-98.616162	-28.525544	0.887107
5.600000	-27.918149	-0.503634	-0.172568	-99.545514	-0.172568	-99.545514	-27.918720	-0.522995
5.650000	-27.341468	-1.861223	-0.176681	-100.475963	-0.176681	-100.475963	-27.341991	-1.879672
5.700000	-26.791908	-3.173897	-0.180931	-101.407505	-0.180931	-101.407505	-26.792390	-3.191526
5.750000	-26.267018	-4.448882	-0.185321	-102.340122	-0.185321	-102.340122	-26.267464	-4.465769
5.800000	-25.764592	-5.691590	-0.189854	-103.273809	-0.189854	-103.273809	-25.765007	-5.707803
5.850000	-25.282716	-6.906466	-0.194533	-104.208558	-0.194533	-104.208558	-25.283105	-6.922064
5.900000	-24.819721	-8.097193	-0.199363	-105.144364	-0.199363	-105.144364	-24.820086	-8.112229
5.950000	-24.374142	-9.266846	-0.204347	-106.081216	-0.204347	-106.081216	-24.374485	-9.281365
6.000000	-23.944685	-10.418012	-0.209488	-107.019107	-0.209488	-107.019107	-23.945010	-10.432054
6.050000	-23.530206	-11.552878	-0.214791	-107.958025	-0.214791	-107.958025	-23.530514	-11.566480
6.100000	-23.129684	-12.673311	-0.220257	-108.897961	-0.220257	-108.897961	-23.129977	-12.686505
6.150000	-22.742207	-13.780905	-0.225891	-109.838902	-0.225891	-109.838902	-22.742486	-13.793720
6.200000	-22.366954	-14.877036	-0.231697	-110.780835	-0.231697	-110.780835	-22.367220	-14.889498
6.250000	-22.003187	-15.962892	-0.237677	-111.723748	-0.237677	-111.723748	-22.003443	-15.975024
6.300000	-21.650159	-17.039324	-0.243839	-112.667647	-0.243839	-112.667647	-21.650404	-17.051147
6.350000	-21.307353	-18.107447	-0.250182	-113.612494	-0.250182	-113.612494	-21.307589	-18.118982
6.400000	-20.974217	-19.168042	-0.256710	-114.558275	-0.256710	-114.558275	-20.974445	-19.179306
6.450000	-20.650248	-20.221796	-0.263425	-115.504971	-0.263425	-115.504971	-20.650467	-20.232804
6.500000	-20.334982	-21.269312	-0.270330	-116.452567	-0.270330	-116.452567	-20.335195	-21.280080
6.550000	-20.027998	-22.311125	-0.277429	-117.401042	-0.277429	-117.401042	-20.028203	-22.321667
6.600000	-19.728905	-23.347709	-0.284725	-118.350377	-0.284725	-118.350377	-19.729104	-23.358037
6.650000	-19.437343	-24.379485	-0.292219	-119.300553	-0.292219	-119.300553	-19.437537	-24.389610
6.700000	-19.152981	-25.406827	-0.299916	-120.251548	-0.299916	-120.251548	-19.153170	-25.416759
6.750000	-18.875512	-26.430070	-0.307816	-121.203341	-0.307816	-121.203341	-18.875695	-26.439820
6.800000	-18.604650	-27.449512	-0.315924	-122.155909	-0.315924	-122.155909	-18.604828	-27.459089
6.850000	-18.340129	-28.465421	-0.324242	-123.109229	-0.324242	-123.109229	-18.340304	-28.474834
6.900000	-18.081685	-29.478005	-0.332773	-124.063285	-0.332773	-124.063285	-18.081856	-29.487260
6.950000	-17.829092	-30.487484	-0.341520	-125.018051	-0.341520	-125.018051	-17.829259	-30.496590
7.000000	-17.582152	-31.494087	-0.350483	-125.973493	-0.350483	-125.973493	-17.582315	-31.503052
7.050000	-17.340664	-32.497989	-0.359664	-126.929586	-0.359664	-126.929586	-17.340824	-32.506818
7.100000	-17.104335	-33.499139	-0.369083	-127.886355	-0.369083	-127.886355	-17.104492	-33.507839
7.150000	-16.873214	-34.498127	-0.378702	-128.843660	-0.378702	-128.843660	-16.873369	-34.506703
7.200000	-16.647009	-35.494835	-0.388545	-129.801535	-0.388545	-129.801535	-16.647161	-35.503293
7.250000	-16.425561	-36.489380	-0.398611	-130.759950	-0.398611	-130.759950	-16.425711	-36.497724
7.300000	-16.208759	-37.481950	-0.408894	-131.718857	-0.408894	-131.718857	-16.208905	-37.490186
7.350000	-15.996379	-38.472449	-0.419415	-132.678272	-0.419415	-132.678272	-15.996524	-38.480581
7.400000	-15.788340	-39.461072	-0.430163	-133.638140	-0.430163	-133.638140	-15.788482	-39.469105
7.450000	-15.584515	-40.447899	-0.441139	-134.598428	-0.441139	-134.598428	-15.584656	-40.455835
7.500000	-15.384787	-41.432998	-0.452344	-135.559107	-0.452344	-135.559107	-15.384926	-41.440843
7.550000	-15.189034	-42.416400	-0.463783	-136.520151	-0.463783	-136.520151	-15.189171	-42.424156
7.600000	-14.997163	-43.398198	-0.475451	-137.481522	-0.475451	-137.481522	-14.997298	-43.405870
7.650000	-14.809071	-44.378446	-0.487349	-138.443186	-0.487349	-138.443186	-14.809204	-44.386037
7.700000	-14.624663	-45.357191	-0.499476	-139.405112	-0.499476	-139.405112	-14.624795	-45.364704
7.750000	-14.443847	-46.334474	-0.511833	-140.367267	-0.511833	-140.367267	-14.443978	-46.341912
7.800000	-14.266537	-47.310335	-0.524418	-141.329619	-0.524418	-141.329619	-14.266667	-47.317700
7.850000	-14.092650	-48.284807	-0.537231	-142.292135	-0.537231	-142.292135	-14.092778	-48.292103
7.900000	-13.922107	-49.257922	-0.550272	-143.254781	-0.550272	-143.254781	-13.922234	-49.265152
7.950000	-13.754832	-50.229708	-0.563539	-144.217525	-0.563539	-144.217525	-13.754958	-50.236873
8.000000	-13.590753	-51.200189	-0.577031	-145.180333	-0.577031	-145.180333	-13.590878	-51.207292
8.050000	-13.429803	-52.169386	-0.590747	-146.143173	-0.590747	-146.143173	-13.429927	-52.176430
8.100000	-13.271915	-53.137320	-0.604686	-147.106011	-0.604686	-147.106011	-13.272038	-53.144307
8.150000	-13.117029	-54.103993	-0.618847	-148.068814	-0.618847	-148.068814	-13.117151	-54.110925
8.200000	-12.965087	-55.069420	-0.633229	-149.031548	-0.633229	-149.031548	-12.965208	-55.076299
8.250000	-12.816030	-56.033625	-0.647827	-149.994180	-0.647827	-149.994180	-12.816150	-56.040454
8.300000	-12.669802	-56.996620	-0.662639	-150.956678	-0.662639	-150.956678	-12.669922	-57.003399
8.350000	-12.526351	-57.958411	-0.677663	-151.919010	-0.677663	-151.919010	-12.526470	-57.965143
8.400000	-12.385627	-58.919004	-0.692896	-152.881144	-0.692896	-152.881144	-12.385745	-58.925691
8.450000	-12.247580	-59.878403	-0.708335	-153.843048	-0.708335	-153.843048	-12.247698	-59.885046
8.500000	-12.112165	-60.836609	-0.723976	-154.804691	-0.723976	-154.804691	-12.112282	-60.843211
8.550000	-11.979338	-61.793622	-0.739818	-155.766042	-0.739818	-155.766042	-11.979454	-61.800184
8.600000	-11.849054	-62.749442	-0.755856	-156.727071	-0.755856	-156.727071	-11.849170	-62.755965
8.650000	-11.721275	-63.704063	-0.772086	-157.687749	-0.772086	-157.687749	-11.721390	-63.710550
8.700000	-11.595959	-64.657481	-0.788506	-158.648045	-0.788506	-158.648045	-11.596074	-64.663933
8.750000	-11.473070	-65.609689	-0.805110	-159.607932	-0.805110	-159.607932	-11.473184	-65.616107
8.800000	-11.352586	-66.560652	-0.821898	-160.567371	-0.821898	-160.567371	-11.352700	-66.567037
8.850000	-11.234459	-67.510384	-0.838862	-161.526344	-0.838862	-161.526344	-11.234573	-67.516739
8.900000	-11.118655	-68.458874	-0.855998	-162.484823	-0.855998	-162.484823	-11.118768	-68.465200
8.950000	-11.005141	-69.406108	-0.873301	-163.442784	-0.873301	-163.442784	-11.005253	-69.412406
9.000000	-10.893886	-70.352071	-0.890767	-164.400201	-0.890767	-164.400201	-10.893998	-70.358341
9.050000	-10.784860	-71.296744	-0.908389	-165.357050	-0.908389	-165.357050	-10.784972	-71.302989
9.100000	-10.678035	-72.240109	-0.926163	-166.313307	-0.926163	-166.313307	-10.678146	-72.246330
9.150000	-10.573381	-73.182145	-0.944084	-167.268950	-0.944084	-167.268950	-10.573493	-73.188343
9.200000	-10.470873	-74.122829	-0.962146	-168.223958	-0.962146	-168.223958	-10.470985	-74.129006
9.250000	-10.370485	-75.062137	-0.980343	-169.178309	-0.980343	-169.178309	-10.370596	-75.068294
9.300000	-10.272190	-76.000044	-0.998670	-170.131985	-0.998670	-170.131985	-10.272302	-76.006181
9.350000	-10.175966	-76.936521	-1.017121	-171.084967	-1.017121	-171.084967	-10.176078	-76.942640
9.400000	-10.081800	-77.871523	-1.035690	-172.037228	-1.035690	-172.037228	-10.081911	-77.877625
9.450000	-9.989669	-78.805017	-1.054372	-172.988753	-1.054372	-172.988753	-9.989780	-78.811104
9.500000	-9.899541	-79.736987	-1.073158	-173.939534	-1.073158	-173.939534	-9.899652	-79.743059
9.550000	-9.811394	-80.667397	-1.092043	-174.889557	-1.092043	-174.889557	-9.811506	-80.673456
9.600000	-9.725304	-81.596068	-1.111023	-175.838740	-1.111023	-175.838740	-9.725416	-81.602115
9.650000	-9.641048	-82.523263	-1.130084	-176.787216	-1.130084	-176.787216	-9.641160	-82.529298
9.700000	-9.558712	-83.448784	-1.149224	-177.734900	-1.149224	-177.734900	-9.558825	-83.454809
9.750000	-9.478278	-84.372590	-1.168435	-178.681781	-1.168435	-178.681781	-9.478391	-84.378605
9.800000	-9.399726	-85.294637	-1.187711	-179.627853	-1.187711	-179.627853	-9.399840	-85.300645
9.850000	-9.323039	-86.214882	-1.207044	179.426893	-1.207044	179.426893	-9.323153	-86.220882
9.900000	-9.248199	-87.133277	-1.226428	178.482460	-1.226428	178.482460	-9.248314	-87.139271
9.950000	-9.175188	-88.049774	-1.245855	177.538854	-1.245855	177.538854	-9.175304	-88.055762
10.000000	-9.103991	-88.964324	-1.265318	176.596076	-1.265318	176.596076	-9.104106	-88.970308
