! freq	dB(S11)	phase(S11)	dB(S12)	phase(S12)	
!     	dB(S21)	phase(S21)	dB(S22)	phase(S22)	
!S-par simulation data
#  GHz  S  DB  R 50
0.000000	-0.000000	-0.000000	-332.716869	180.000000	-332.716869	180.000000	-0.000000	-0.000000
0.050000	-0.000112	-0.898910	-59.558156	87.566670	-59.558156	87.566670	-0.000114	-0.915724
0.100000	-0.000442	-1.797563	-53.711779	86.394021	-53.711779	86.394021	-0.000453	-1.831183
0.150000	-0.000981	-2.695719	-50.291831	85.686144	-50.291831	85.686144	-0.001004	-2.746129
0.200000	-0.001707	-3.593175	-47.848469	85.024825	-47.848469	85.024825	-0.001748	-3.660353
0.250000	-0.002611	-4.489699	-45.942736	84.323482	-45.942736	84.323482	-0.002673	-4.573614
0.300000	-0.003652	-5.385236	-44.380281	83.582025	-44.380281	83.582025	-0.003738	-5.485856
0.350000	-0.004814	-6.279653	-43.056587	82.807053	-43.056587	82.807053	-0.004926	-6.396941
0.400000	-0.006071	-7.172885	-41.908782	82.007052	-41.908782	82.007052	-0.006212	-7.306802
0.450000	-0.007403	-8.064899	-40.896011	81.188592	-40.896011	81.188592	-0.007573	-8.215404
0.500000	-0.008789	-8.955685	-39.990205	80.356441	-39.990205	80.356441	-0.008989	-9.122736
0.550000	-0.010211	-9.845251	-39.171249	79.514034	-39.171249	79.514034	-0.010443	-10.028804
0.600000	-0.011657	-10.733616	-38.424230	78.663873	-38.424230	78.663873	-0.011919	-10.933628
0.650000	-0.013114	-11.620806	-37.737791	77.807812	-37.737791	77.807812	-0.013408	-11.837234
0.700000	-0.014575	-12.506850	-37.103080	76.947249	-37.103080	76.947249	-0.014899	-12.739649
0.750000	-0.016033	-13.391775	-36.513066	76.083260	-36.513066	76.083260	-0.016387	-13.640900
0.800000	-0.017483	-14.275606	-35.962069	75.216687	-35.962069	75.216687	-0.017867	-14.541011
0.850000	-0.018924	-15.158364	-35.445439	74.348202	-35.445439	74.348202	-0.019336	-15.440003
0.900000	-0.020352	-16.040064	-34.959317	73.478348	-34.959317	73.478348	-0.020794	-16.337888
0.950000	-0.021769	-16.920716	-34.500466	72.607573	-34.500466	72.607573	-0.022238	-17.234677
1.000000	-0.023173	-17.800326	-34.066146	71.736249	-34.066146	71.736249	-0.023670	-18.130374
1.050000	-0.024565	-18.678893	-33.654014	70.864693	-33.654014	70.864693	-0.025089	-19.024976
1.100000	-0.025946	-19.556413	-33.262056	69.993174	-33.262056	69.993174	-0.026498	-19.918478
1.150000	-0.027319	-20.432878	-32.888519	69.121927	-32.888519	69.121927	-0.027896	-20.810871
1.200000	-0.028682	-21.308277	-32.531878	68.251155	-32.531878	68.251155	-0.029286	-21.702141
1.250000	-0.030039	-22.182595	-32.190791	67.381040	-32.190791	67.381040	-0.030669	-22.592273
1.300000	-0.031390	-23.055765	-31.864138	66.511786	-31.864138	66.511786	-0.032045	-23.481196
1.350000	-0.032736	-23.927817	-31.550801	65.643509	-31.550801	65.643509	-0.033417	-24.368939
1.400000	-0.034080	-24.798728	-31.249841	64.776337	-31.249841	64.776337	-0.034785	-25.255480
1.450000	-0.035421	-25.668478	-30.960419	63.910390	-30.960419	63.910390	-0.036150	-26.140795
1.500000	-0.036761	-26.537043	-30.681777	63.045777	-30.681777	63.045777	-0.037515	-27.024859
1.550000	-0.038100	-27.404399	-30.413233	62.182599	-30.413233	62.182599	-0.038878	-27.907648
1.600000	-0.039441	-28.270523	-30.154169	61.320950	-30.154169	61.320950	-0.040242	-28.789136
1.650000	-0.040783	-29.135390	-29.904024	60.460918	-29.904024	60.460918	-0.041608	-29.669297
1.700000	-0.042126	-29.998975	-29.662284	59.602584	-29.662284	59.602584	-0.042974	-30.548106
1.750000	-0.043473	-30.861255	-29.428481	58.746026	-29.428481	58.746026	-0.044344	-31.425537
1.800000	-0.044822	-31.722204	-29.202184	57.891315	-29.202184	57.891315	-0.045716	-32.301563
1.850000	-0.046175	-32.581800	-28.983000	57.038520	-28.983000	57.038520	-0.047091	-33.176161
1.900000	-0.047532	-33.440018	-28.770562	56.187706	-28.770562	56.187706	-0.048470	-34.049305
1.950000	-0.048893	-34.296835	-28.564535	55.338933	-28.564535	55.338933	-0.049853	-34.920970
2.000000	-0.050258	-35.152228	-28.364606	54.492261	-28.364606	54.492261	-0.051240	-35.791133
2.050000	-0.051629	-36.006175	-28.170487	53.647744	-28.170487	53.647744	-0.052632	-36.659769
2.100000	-0.053005	-36.858653	-27.981907	52.805435	-27.981907	52.805435	-0.054029	-37.526857
2.150000	-0.054386	-37.709642	-27.798617	51.965383	-27.798617	51.965383	-0.055432	-38.392374
2.200000	-0.055772	-38.559121	-27.620383	51.127638	-27.620383	51.127638	-0.056839	-39.256297
2.250000	-0.057165	-39.407069	-27.446984	50.292243	-27.446984	50.292243	-0.058252	-40.118607
2.300000	-0.058563	-40.253468	-27.278216	49.459243	-27.278216	49.459243	-0.059671	-40.979282
2.350000	-0.059968	-41.098297	-27.113888	48.628680	-27.113888	48.628680	-0.061096	-41.838302
2.400000	-0.061378	-41.941538	-26.953816	47.800591	-26.953816	47.800591	-0.062527	-42.695649
2.450000	-0.062796	-42.783175	-26.797833	46.975016	-26.797833	46.975016	-0.063965	-43.551304
2.500000	-0.064220	-43.623189	-26.645776	46.151990	-26.645776	46.151990	-0.065408	-44.405249
2.550000	-0.065651	-44.461492	-26.497545	45.331662	-26.497545	45.331662	-0.066859	-45.257392
2.600000	-0.067089	-45.298139	-26.352944	44.513952	-26.352944	44.513952	-0.068317	-46.107789
2.650000	-0.068535	-46.133115	-26.211839	43.698893	-26.211839	43.698893	-0.069783	-46.956426
2.700000	-0.069988	-46.966406	-26.074101	42.886513	-26.074101	42.886513	-0.071255	-47.803287
2.750000	-0.071449	-47.797997	-25.939607	42.076840	-25.939607	42.076840	-0.072735	-48.648359
2.800000	-0.072917	-48.627875	-25.808242	41.269901	-25.808242	41.269901	-0.074223	-49.491627
2.850000	-0.074394	-49.456028	-25.679895	40.465722	-25.679895	40.465722	-0.075719	-50.333078
2.900000	-0.075879	-50.282444	-25.554462	39.664326	-25.554462	39.664326	-0.077223	-51.172701
2.950000	-0.077373	-51.107111	-25.431843	38.865736	-25.431843	38.865736	-0.078736	-52.010483
3.000000	-0.078875	-51.930019	-25.311943	38.069974	-25.311943	38.069974	-0.080258	-52.846413
3.050000	-0.080387	-52.751157	-25.194670	37.277060	-25.194670	37.277060	-0.081788	-53.680482
3.100000	-0.081908	-53.570517	-25.079937	36.487013	-25.079937	36.487013	-0.083329	-54.512679
3.150000	-0.083438	-54.388088	-24.967661	35.699851	-24.967661	35.699851	-0.084878	-55.342995
3.200000	-0.084979	-55.203864	-24.857762	34.915591	-24.857762	34.915591	-0.086438	-56.171422
3.250000	-0.086530	-56.017835	-24.750164	34.134250	-24.750164	34.134250	-0.088008	-56.997952
3.300000	-0.088091	-56.829996	-24.644793	33.355842	-24.644793	33.355842	-0.089589	-57.822578
3.350000	-0.089664	-57.640339	-24.541578	32.580380	-24.541578	32.580380	-0.091181	-58.645294
3.400000	-0.091247	-58.448859	-24.440452	31.807878	-24.440452	31.807878	-0.092784	-59.466094
3.450000	-0.092843	-59.255551	-24.341350	31.038347	-24.341350	31.038347	-0.094398	-60.284972
3.500000	-0.094450	-60.060409	-24.244209	30.271799	-24.244209	30.271799	-0.096025	-61.101923
3.550000	-0.096069	-60.863430	-24.148968	29.508243	-24.148968	29.508243	-0.097664	-61.916945
3.600000	-0.097701	-61.664610	-24.055569	28.747688	-24.055569	28.747688	-0.099316	-62.730033
3.650000	-0.099346	-62.463947	-23.963956	27.990143	-23.963956	27.990143	-0.100981	-63.541185
3.700000	-0.101005	-63.261437	-23.874075	27.235614	-23.874075	27.235614	-0.102659	-64.350398
3.750000	-0.102677	-64.057078	-23.785872	26.484109	-23.785872	26.484109	-0.104351	-65.157672
3.800000	-0.104364	-64.850790	-23.699330	25.735764	-23.699330	25.735764	-0.106059	-65.962920
3.850000	-0.106066	-65.642652	-23.614365	24.990453	-23.614365	24.990453	-0.107781	-66.766226
3.900000	-0.107783	-66.432664	-23.530929	24.248179	-23.530929	24.248179	-0.109518	-67.567591
3.950000	-0.109515	-67.220826	-23.448978	23.508945	-23.448978	23.508945	-0.111271	-68.367017
4.000000	-0.111264	-68.007139	-23.368466	22.772754	-23.368466	22.772754	-0.113040	-69.164503
4.050000	-0.113028	-68.791606	-23.289349	22.039606	-23.289349	22.039606	-0.114825	-69.960053
4.100000	-0.114810	-69.574227	-23.211586	21.309502	-23.211586	21.309502	-0.116628	-70.753668
4.150000	-0.116608	-70.355005	-23.135136	20.582442	-23.135136	20.582442	-0.118447	-71.545352
4.200000	-0.118430	-71.133307	-23.060164	19.859481	-23.060164	19.859481	-0.120291	-72.334441
4.250000	-0.120262	-71.910650	-22.986143	19.138106	-22.986143	19.138106	-0.122145	-73.122525
4.300000	-0.122117	-72.685766	-22.913438	18.420428	-22.913438	18.420428	-0.124021	-73.908276
4.350000	-0.123988	-73.459291	-22.841826	17.705389	-22.841826	17.705389	-0.125914	-74.692362
4.400000	-0.125879	-74.230918	-22.771355	16.993508	-22.771355	16.993508	-0.127827	-75.474460
4.450000	-0.127791	-75.000647	-22.702004	16.284786	-22.702004	16.284786	-0.129761	-76.254572
4.500000	-0.129721	-75.768807	-22.633634	15.578683	-22.633634	15.578683	-0.131714	-77.033040
4.550000	-0.131676	-76.534768	-22.566400	14.876250	-22.566400	14.876250	-0.133691	-77.809208
4.600000	-0.133646	-77.299484	-22.500005	14.175900	-22.500005	14.175900	-0.135684	-78.584073
4.650000	-0.135647	-78.061709	-22.434754	13.479720	-22.434754	13.479720	-0.137707	-79.356332
4.700000	-0.137659	-78.823009	-22.370213	12.785093	-22.370213	12.785093	-0.139743	-80.127624
4.750000	-0.139706	-79.581533	-22.306814	12.095124	-22.306814	12.095124	-0.141814	-80.896015
4.800000	-0.141762	-80.339448	-22.244011	11.406181	-22.244011	11.406181	-0.143893	-81.663767
4.850000	-0.143859	-81.094312	-22.182340	10.722370	-22.182340	10.722370	-0.146013	-82.428332
4.900000	-0.145960	-81.848876	-22.121167	10.039068	-22.121167	10.039068	-0.148139	-83.192582
4.950000	-0.148109	-82.600125	-22.061104	9.361355	-22.061104	9.361355	-0.150311	-83.953370
5.000000	-0.150257	-83.351374	-22.001454	8.683643	-22.001454	8.683643	-0.152484	-84.714157
5.050000	-0.152459	-84.099056	-21.942885	8.011960	-21.942885	8.011960	-0.154710	-85.471220
5.100000	-0.154662	-84.846739	-21.884708	7.340277	-21.884708	7.340277	-0.156937	-86.228283
5.150000	-0.156915	-85.591200	-21.827470	6.674048	-21.827470	6.674048	-0.159216	-86.981984
5.200000	-0.159174	-86.335369	-21.770658	6.008315	-21.770658	6.008315	-0.161499	-87.735379
5.250000	-0.161480	-87.076657	-21.714657	5.347466	-21.714657	5.347466	-0.163830	-88.485768
5.300000	-0.163796	-87.817368	-21.659104	4.687594	-21.659104	4.687594	-0.166172	-89.235556
5.350000	-0.166158	-88.555532	-21.604249	4.032043	-21.604249	4.032043	-0.168559	-89.982686
5.400000	-0.168535	-89.292846	-21.549852	3.377933	-21.549852	3.377933	-0.170961	-90.728931
5.450000	-0.170953	-90.027939	-21.496055	2.727590	-21.496055	2.727590	-0.173405	-91.472860
5.500000	-0.173392	-90.761921	-21.442717	2.079131	-21.442717	2.079131	-0.175871	-92.215630
5.550000	-0.175869	-91.493999	-21.389892	1.433897	-21.389892	1.433897	-0.178374	-92.956415
5.600000	-0.178374	-92.224716	-21.337519	0.790968	-21.337519	0.790968	-0.180904	-93.695783
5.650000	-0.180912	-92.953837	-21.285584	0.150737	-21.285584	0.150737	-0.183468	-94.433488
5.700000	-0.183483	-93.681361	-21.234083	-0.486796	-21.234083	-0.486796	-0.186066	-95.169529
5.750000	-0.186083	-94.407586	-21.182960	-1.122141	-21.182960	-1.122141	-0.188693	-95.904217
5.800000	-0.188724	-95.131991	-21.132241	-1.754423	-21.132241	-1.754423	-0.191361	-96.637011
5.850000	-0.191389	-95.855383	-21.081853	-2.385007	-21.081853	-2.385007	-0.194052	-97.368749
5.900000	-0.194102	-96.576749	-21.031830	-3.012196	-21.031830	-3.012196	-0.196792	-98.098378
5.950000	-0.196833	-97.297375	-20.982105	-3.638155	-20.982105	-3.638155	-0.199551	-98.827237
6.000000	-0.199620	-98.015781	-20.932695	-4.260421	-20.932695	-4.260421	-0.202365	-99.553786
6.050000	-0.202420	-98.733709	-20.883560	-4.881898	-20.883560	-4.881898	-0.205192	-100.279838
6.100000	-0.205284	-99.449242	-20.834683	-5.499425	-20.834683	-5.499425	-0.208082	-101.003397
6.150000	-0.208154	-100.164543	-20.786071	-6.116574	-20.786071	-6.116574	-0.210980	-101.726716
6.200000	-0.211096	-100.877290	-20.737647	-6.729559	-20.737647	-6.729559	-0.213950	-102.447378
6.250000	-0.214039	-101.590037	-20.689493	-7.342544	-20.689493	-7.342544	-0.216921	-103.168040
6.300000	-0.217063	-102.300089	-20.641449	-7.951197	-20.641449	-7.951197	-0.219972	-103.885899
6.350000	-0.220087	-103.010141	-20.593669	-8.559849	-20.593669	-8.559849	-0.223024	-104.603759
6.400000	-0.223188	-103.717809	-20.545952	-9.164734	-20.545952	-9.164734	-0.226152	-105.319140
6.450000	-0.226296	-104.425260	-20.498476	-9.769276	-20.498476	-9.769276	-0.229288	-106.034296
6.500000	-0.229475	-105.130624	-20.451026	-10.370588	-20.451026	-10.370588	-0.232495	-106.747283
6.550000	-0.232670	-105.835572	-20.403787	-10.971255	-20.403787	-10.971255	-0.235718	-107.459836
6.600000	-0.235930	-106.538716	-20.356548	-11.569201	-20.356548	-11.569201	-0.239006	-108.170516
6.650000	-0.239214	-107.241259	-20.309479	-12.166239	-20.309479	-12.166239	-0.242317	-108.880571
6.700000	-0.242557	-107.942269	-20.262398	-12.761032	-20.262398	-12.761032	-0.245688	-109.589031
6.750000	-0.245932	-108.642511	-20.215439	-13.354701	-20.215439	-13.354701	-0.249091	-110.296695
6.800000	-0.249360	-109.341472	-20.168466	-13.946562	-20.168466	-13.946562	-0.252547	-111.003027
6.850000	-0.252829	-110.039519	-20.121556	-14.537131	-20.121556	-14.537131	-0.256043	-111.708409
6.900000	-0.256345	-110.736522	-20.074643	-15.126291	-20.074643	-15.126291	-0.259587	-112.412706
6.950000	-0.259909	-111.432481	-20.027727	-15.714040	-20.027727	-15.714040	-0.263179	-113.115919
7.000000	-0.263515	-112.127617	-19.980829	-16.300735	-19.980829	-16.300735	-0.266813	-113.818275
7.050000	-0.267178	-112.821601	-19.933855	-16.885954	-19.933855	-16.885954	-0.270503	-114.519434
7.100000	-0.270876	-113.514963	-19.886930	-17.470427	-19.886930	-17.470427	-0.274229	-115.219947
7.150000	-0.274641	-114.207084	-19.839849	-18.053411	-19.839849	-18.053411	-0.278021	-115.919169
7.200000	-0.278432	-114.898769	-19.792857	-18.635913	-19.792857	-18.635913	-0.281839	-116.617937
7.250000	-0.282301	-115.589144	-19.745623	-19.216966	-19.745623	-19.216966	-0.285735	-117.315344
7.300000	-0.286189	-116.279248	-19.698527	-19.797749	-19.698527	-19.797749	-0.289650	-118.012468
7.350000	-0.290164	-116.967997	-19.651099	-20.377180	-19.651099	-20.377180	-0.293652	-118.708181
7.400000	-0.294151	-117.656620	-19.603866	-20.956502	-19.603866	-20.956502	-0.297665	-119.403764
7.450000	-0.298236	-118.343864	-19.556204	-21.534624	-19.556204	-21.534624	-0.301776	-120.097910
7.500000	-0.302322	-119.031108	-19.508802	-22.112746	-19.508802	-22.112746	-0.305889	-120.792056
7.550000	-0.306519	-119.716972	-19.460872	-22.689874	-19.460872	-22.689874	-0.310112	-121.484762
7.600000	-0.310718	-120.402836	-19.413204	-23.267002	-19.413204	-23.267002	-0.314337	-122.177469
7.650000	-0.315021	-121.087551	-19.365042	-23.843508	-19.365042	-23.843508	-0.318665	-122.868976
7.700000	-0.319335	-121.772162	-19.317077	-24.419959	-19.317077	-24.419959	-0.323004	-123.560374
7.750000	-0.323745	-122.455836	-19.268661	-24.996108	-19.268661	-24.996108	-0.327439	-124.250792
7.800000	-0.328177	-123.139324	-19.220371	-25.572196	-19.220371	-25.572196	-0.331896	-124.941015
7.850000	-0.332697	-123.822069	-19.171680	-26.148249	-19.171680	-26.148249	-0.336441	-125.630457
7.900000	-0.337249	-124.504566	-19.123039	-26.724289	-19.123039	-26.724289	-0.341017	-126.319640
7.950000	-0.341883	-125.186492	-19.074057	-27.300505	-19.074057	-27.300505	-0.345673	-127.008221
8.000000	-0.346558	-125.868134	-19.025044	-27.876809	-19.025044	-27.876809	-0.350372	-127.696503
8.050000	-0.351306	-126.549357	-18.975753	-28.453445	-18.975753	-28.453445	-0.355143	-128.384340
8.100000	-0.356107	-127.230281	-18.926349	-29.030317	-18.926349	-29.030317	-0.359967	-129.071860
8.150000	-0.360973	-127.910916	-18.876739	-29.607624	-18.876739	-29.607624	-0.364855	-129.759072
8.200000	-0.365903	-128.591264	-18.826927	-30.185366	-18.826927	-30.185366	-0.369806	-130.445976
8.250000	-0.370889	-129.271430	-18.776985	-30.763593	-18.776985	-30.763593	-0.374813	-131.132683
8.300000	-0.375951	-129.951344	-18.726752	-31.342498	-18.726752	-31.342498	-0.379895	-131.819115
8.350000	-0.381058	-130.631162	-18.676470	-31.921885	-18.676470	-31.921885	-0.385023	-132.505440
8.400000	-0.386255	-131.310789	-18.625805	-32.502239	-18.625805	-32.502239	-0.390239	-133.191551
8.450000	-0.391487	-131.990382	-18.575175	-33.083023	-18.575175	-33.083023	-0.395491	-133.877618
8.500000	-0.396822	-132.669871	-18.524069	-33.665103	-18.524069	-33.665103	-0.400843	-134.563557
8.550000	-0.402181	-133.349362	-18.473086	-34.247514	-18.473086	-34.247514	-0.406221	-135.249494
8.600000	-0.407656	-134.028865	-18.421532	-34.831588	-18.421532	-34.831588	-0.411712	-135.935417
8.650000	-0.413146	-134.708383	-18.370192	-35.415850	-18.370192	-35.415850	-0.417218	-136.621351
8.700000	-0.418764	-135.388055	-18.318184	-36.002177	-18.318184	-36.002177	-0.422851	-137.307415
8.750000	-0.424386	-136.067728	-18.266485	-36.588504	-18.266485	-36.588504	-0.428488	-137.993478
8.800000	-0.430150	-136.747728	-18.214019	-37.177335	-18.214019	-37.177335	-0.434267	-138.679842
8.850000	-0.435919	-137.427728	-18.161868	-37.766165	-18.161868	-37.766165	-0.440048	-139.366206
8.900000	-0.441821	-138.108176	-18.109033	-38.357510	-18.109033	-38.357510	-0.445963	-140.052994
8.950000	-0.447739	-138.788665	-18.056427	-38.949083	-18.056427	-38.949083	-0.451892	-140.739821
9.000000	-0.453781	-139.469698	-18.003223	-39.543136	-18.003223	-39.543136	-0.457945	-141.427173
9.050000	-0.459852	-140.150840	-17.950161	-40.137683	-17.950161	-40.137683	-0.464025	-142.114629
9.100000	-0.466037	-140.832598	-17.896590	-40.734628	-17.896590	-40.734628	-0.470219	-142.802683
9.150000	-0.472264	-141.514561	-17.843071	-41.332373	-17.843071	-41.332373	-0.476453	-143.490937
9.200000	-0.478594	-142.197186	-17.789134	-41.932390	-17.789134	-41.932390	-0.482789	-144.179838
9.250000	-0.484979	-142.880141	-17.735159	-42.533545	-17.735159	-42.533545	-0.489180	-144.869061
9.300000	-0.491457	-143.563777	-17.680857	-43.136809	-17.680857	-43.136809	-0.495662	-145.558953
9.350000	-0.498004	-144.247899	-17.626425	-43.741580	-17.626425	-43.741580	-0.502212	-146.249322
9.400000	-0.504633	-144.932694	-17.571762	-44.348258	-17.571762	-44.348258	-0.508842	-146.940353
9.450000	-0.511344	-145.618161	-17.516874	-44.956846	-17.516874	-44.956846	-0.515554	-147.632045
9.500000	-0.518126	-146.304264	-17.461852	-45.567103	-17.461852	-45.567103	-0.522335	-148.324365
9.550000	-0.525005	-146.991258	-17.406509	-46.179700	-17.406509	-46.179700	-0.529211	-149.017563
9.600000	-0.531930	-147.678673	-17.351227	-46.793340	-17.351227	-46.793340	-0.536132	-149.711176
9.650000	-0.538963	-148.367191	-17.295550	-47.409689	-17.295550	-47.409689	-0.543160	-150.405879
9.700000	-0.546078	-149.056587	-17.239671	-48.028106	-17.239671	-48.028106	-0.550269	-151.101450
9.750000	-0.553278	-149.746904	-17.183591	-48.648635	-17.183591	-48.648635	-0.557460	-151.797930
9.800000	-0.560562	-150.438186	-17.127309	-49.271316	-17.127309	-49.271316	-0.564734	-152.495366
9.850000	-0.567931	-151.130479	-17.070827	-49.896191	-17.070827	-49.896191	-0.572091	-153.193800
9.900000	-0.575385	-151.823827	-17.014143	-50.523304	-17.014143	-50.523304	-0.579532	-153.893279
9.950000	-0.582926	-152.518276	-16.957259	-51.152694	-16.957259	-51.152694	-0.587057	-154.593846
10.000000	-0.590554	-153.213872	-16.900174	-51.784405	-16.900174	-51.784405	-0.594668	-155.295549
