! freq	dB(S11)	phase(S11)	dB(S12)	phase(S12)	
!     	dB(S21)	phase(S21)	dB(S22)	phase(S22)	
!S-par simulation data
#  GHz  S  DB  R 50
0.000000	-0.000000	0.000000	-329.409419	0.000000	-329.409419	0.000000	-0.000000	0.000000
0.050000	-0.000102	-0.800397	-66.441478	88.953799	-66.441478	88.953799	-0.000114	-0.932310
0.100000	-0.000402	-1.600550	-60.434506	87.933699	-60.434506	87.933699	-0.000451	-1.864348
0.150000	-0.000890	-2.400234	-56.931830	86.954710	-56.931830	86.954710	-0.001000	-2.795859
0.200000	-0.001546	-3.199261	-54.454432	86.018233	-54.454432	86.018233	-0.001740	-3.726628
0.250000	-0.002356	-3.997421	-52.538193	85.119906	-52.538193	85.119906	-0.002658	-4.656406
0.300000	-0.003285	-4.794673	-50.974993	84.246935	-50.974993	84.246935	-0.003715	-5.585137
0.350000	-0.004313	-5.590907	-49.655003	83.392439	-49.655003	83.392439	-0.004890	-6.512679
0.400000	-0.005418	-6.386079	-48.512648	82.549762	-48.512648	82.549762	-0.006160	-7.438962
0.450000	-0.006580	-7.180174	-47.505838	81.714216	-47.505838	81.714216	-0.007501	-8.363949
0.500000	-0.007779	-7.973197	-46.605969	80.882716	-46.605969	80.882716	-0.008891	-9.287628
0.550000	-0.009002	-8.765170	-45.792718	80.053332	-45.792718	80.053332	-0.010314	-10.210007
0.600000	-0.010235	-9.556123	-45.051119	79.224916	-45.051119	79.224916	-0.011753	-11.131104
0.650000	-0.011470	-10.346091	-44.369830	78.396827	-44.369830	78.396827	-0.013199	-12.050944
0.700000	-0.012699	-11.135107	-43.740041	77.568749	-43.740041	77.568749	-0.014642	-12.969556
0.750000	-0.013919	-11.923202	-43.154769	76.740566	-43.154769	76.740566	-0.016074	-13.886967
0.800000	-0.015126	-12.710405	-42.608384	75.912284	-42.608384	75.912284	-0.017493	-14.803201
0.850000	-0.016318	-13.496736	-42.096281	75.083982	-42.096281	75.083982	-0.018895	-15.718277
0.900000	-0.017494	-14.282213	-41.614638	74.255783	-41.614638	74.255783	-0.020278	-16.632210
0.950000	-0.018656	-15.066847	-41.160254	73.427828	-41.160254	73.427828	-0.021642	-17.545008
1.000000	-0.019802	-15.850644	-40.730416	72.600273	-40.730416	72.600273	-0.022987	-18.456675
1.050000	-0.020934	-16.633605	-40.322806	71.773272	-40.322806	71.773272	-0.024314	-19.367210
1.100000	-0.022053	-17.415728	-39.935429	70.946981	-39.935429	70.946981	-0.025624	-20.276606
1.150000	-0.023161	-18.197007	-39.566551	70.121551	-39.566551	70.121551	-0.026917	-21.184854
1.200000	-0.024258	-18.977432	-39.214661	69.297128	-39.214661	69.297128	-0.028196	-22.091938
1.250000	-0.025346	-19.756991	-38.878429	68.473854	-38.878429	68.473854	-0.029462	-22.997842
1.300000	-0.026426	-20.535632	-38.556768	67.651924	-38.556768	67.651924	-0.030715	-23.902495
1.350000	-0.027498	-21.313377	-38.248548	66.831416	-38.248548	66.831416	-0.031958	-24.805925
1.400000	-0.028565	-22.090208	-37.952839	66.012455	-37.952839	66.012455	-0.033193	-25.708110
1.450000	-0.029626	-22.866109	-37.668805	65.195157	-37.668805	65.195157	-0.034419	-26.609025
1.500000	-0.030684	-23.641059	-37.395699	64.379636	-37.395699	64.379636	-0.035639	-27.508645
1.550000	-0.031738	-24.415039	-37.132841	63.566001	-37.132841	63.566001	-0.036853	-28.406943
1.600000	-0.032789	-25.188031	-36.879620	62.754356	-36.879620	62.754356	-0.038062	-29.303895
1.650000	-0.033839	-25.960013	-36.635476	61.944804	-36.635476	61.944804	-0.039268	-30.199473
1.700000	-0.034887	-26.730967	-36.399900	61.137443	-36.399900	61.137443	-0.040470	-31.093650
1.750000	-0.035933	-27.500871	-36.172428	60.332366	-36.172428	60.332366	-0.041671	-31.986400
1.800000	-0.036980	-28.269707	-35.952631	59.529667	-35.952631	59.529667	-0.042869	-32.877698
1.850000	-0.038026	-29.037453	-35.740118	58.729435	-35.740118	58.729435	-0.044067	-33.767516
1.900000	-0.039072	-29.804091	-35.534525	57.931756	-35.534525	57.931756	-0.045264	-34.655829
1.950000	-0.040119	-30.569602	-35.335517	57.136716	-35.335517	57.136716	-0.046461	-35.542612
2.000000	-0.041166	-31.333965	-35.142786	56.344396	-35.142786	56.344396	-0.047659	-36.427840
2.050000	-0.042215	-32.097162	-34.956041	55.554878	-34.956041	55.554878	-0.048857	-37.311490
2.100000	-0.043265	-32.859174	-34.775016	54.768240	-34.775016	54.768240	-0.050057	-38.193536
2.150000	-0.044317	-33.619984	-34.599461	53.984558	-34.599461	53.984558	-0.051258	-39.073957
2.200000	-0.045371	-34.379573	-34.429142	53.203908	-34.429142	53.203908	-0.052461	-39.952730
2.250000	-0.046427	-35.137923	-34.263840	52.426363	-34.263840	52.426363	-0.053667	-40.829833
2.300000	-0.047485	-35.895018	-34.103351	51.651995	-34.103351	51.651995	-0.054875	-41.705245
2.350000	-0.048546	-36.650841	-33.947483	50.880874	-33.947483	50.880874	-0.056086	-42.578946
2.400000	-0.049610	-37.405375	-33.796054	50.113069	-33.796054	50.113069	-0.057301	-43.450916
2.450000	-0.050677	-38.158604	-33.648895	49.348648	-33.648895	49.348648	-0.058520	-44.321136
2.500000	-0.051748	-38.910513	-33.505844	48.587676	-33.505844	48.587676	-0.059742	-45.189587
2.550000	-0.052823	-39.661026	-33.366820	47.830374	-33.366820	47.830374	-0.060969	-46.056173
2.600000	-0.053901	-40.410188	-33.231608	47.076655	-33.231608	47.076655	-0.062200	-46.920955
2.650000	-0.054984	-41.157983	-33.100070	46.326581	-33.100070	46.326581	-0.063437	-47.783917
2.700000	-0.056071	-41.904397	-32.972076	45.580212	-32.972076	45.580212	-0.064679	-48.645042
2.750000	-0.057163	-42.649416	-32.847505	44.837609	-32.847505	44.837609	-0.065927	-49.504315
2.800000	-0.058261	-43.393028	-32.726238	44.098828	-32.726238	44.098828	-0.067181	-50.361724
2.850000	-0.059363	-44.135218	-32.608164	43.363928	-32.608164	43.363928	-0.068441	-51.217254
2.900000	-0.060471	-44.875975	-32.493176	42.632963	-32.493176	42.632963	-0.069708	-52.070893
2.950000	-0.061586	-45.615287	-32.381174	41.905988	-32.381174	41.905988	-0.070982	-52.922629
3.000000	-0.062706	-46.353141	-32.272058	41.183057	-32.272058	41.183057	-0.072264	-53.772451
3.050000	-0.063833	-47.089526	-32.165738	40.464222	-32.165738	40.464222	-0.073553	-54.620347
3.100000	-0.064967	-47.824431	-32.062122	39.749533	-32.062122	39.749533	-0.074851	-55.466307
3.150000	-0.066109	-48.557846	-31.961126	39.039041	-31.961126	39.039041	-0.076158	-56.310324
3.200000	-0.067257	-49.289759	-31.862666	38.332794	-31.862666	38.332794	-0.077474	-57.152387
3.250000	-0.068414	-50.020162	-31.766665	37.630839	-31.766665	37.630839	-0.078799	-57.992490
3.300000	-0.069579	-50.749045	-31.673045	36.933223	-31.673045	36.933223	-0.080134	-58.830624
3.350000	-0.070753	-51.476399	-31.581733	36.239991	-31.581733	36.239991	-0.081479	-59.666783
3.400000	-0.071936	-52.202214	-31.492659	35.551187	-31.492659	35.551187	-0.082835	-60.500962
3.450000	-0.073127	-52.926484	-31.405753	34.866853	-31.405753	34.866853	-0.084203	-61.333154
3.500000	-0.074329	-53.649199	-31.320950	34.187031	-31.320950	34.187031	-0.085582	-62.163356
3.550000	-0.075541	-54.370352	-31.238186	33.511761	-31.238186	33.511761	-0.086973	-62.991563
3.600000	-0.076763	-55.089936	-31.157398	32.841082	-31.157398	32.841082	-0.088377	-63.817772
3.650000	-0.077995	-55.807945	-31.078527	32.175033	-31.078527	32.175033	-0.089793	-64.641980
3.700000	-0.079239	-56.524372	-31.001514	31.513649	-31.001514	31.513649	-0.091223	-65.464185
3.750000	-0.080495	-57.239210	-30.926302	30.856967	-30.926302	30.856967	-0.092667	-66.284386
3.800000	-0.081762	-57.952386	-30.852884	30.205227	-30.852884	30.205227	-0.094126	-67.102495
3.850000	-0.083042	-58.663962	-30.781157	29.558259	-30.781157	29.558259	-0.095600	-67.918599
3.900000	-0.084335	-59.373934	-30.711068	28.916094	-30.711068	28.916094	-0.097089	-68.732698
3.950000	-0.085641	-60.082297	-30.642566	28.278760	-30.642566	28.278760	-0.098593	-69.544793
4.000000	-0.086960	-60.789048	-30.575603	27.646289	-30.575603	27.646289	-0.100114	-70.354887
4.050000	-0.088293	-61.494183	-30.510129	27.018706	-30.510129	27.018706	-0.101652	-71.162981
4.100000	-0.089640	-62.197698	-30.446097	26.396038	-30.446097	26.396038	-0.103206	-71.969078
4.150000	-0.091002	-62.899591	-30.383461	25.778309	-30.383461	25.778309	-0.104779	-72.773182
4.200000	-0.092379	-63.599859	-30.322176	25.165543	-30.322176	25.165543	-0.106369	-73.575298
4.250000	-0.093771	-64.298500	-30.262198	24.557762	-30.262198	24.557762	-0.107978	-74.375428
4.300000	-0.095179	-64.995512	-30.203482	23.954985	-30.203482	23.954985	-0.109606	-75.173580
4.350000	-0.096603	-65.690894	-30.145986	23.357231	-30.145986	23.357231	-0.111253	-75.969759
4.400000	-0.098044	-66.384644	-30.089669	22.764517	-30.089669	22.764517	-0.112920	-76.763970
4.450000	-0.099501	-67.076762	-30.034489	22.176860	-30.034489	22.176860	-0.114608	-77.556222
4.500000	-0.100976	-67.767248	-29.980406	21.594272	-29.980406	21.594272	-0.116317	-78.346520
4.550000	-0.102469	-68.456102	-29.927381	21.016766	-29.927381	21.016766	-0.118047	-79.134875
4.600000	-0.103983	-69.143039	-29.875488	20.445240	-29.875488	20.445240	-0.119802	-79.920959
4.650000	-0.105516	-69.828275	-29.824602	19.879037	-29.824602	19.879037	-0.121581	-80.705033
4.700000	-0.107060	-70.512661	-29.774340	19.315501	-29.774340	19.315501	-0.123372	-81.488111
4.750000	-0.108633	-71.194496	-29.725341	18.759964	-29.725341	18.759964	-0.125199	-82.268200
4.800000	-0.110213	-71.875767	-29.676815	18.206207	-29.676815	18.206207	-0.127034	-83.047633
4.850000	-0.111829	-72.554210	-29.629545	17.661347	-29.629545	17.661347	-0.128911	-83.823784
4.900000	-0.113448	-73.232373	-29.582621	17.117376	-29.582621	17.117376	-0.130793	-84.599611
4.950000	-0.115106	-73.907436	-29.536927	16.583182	-29.536927	16.583182	-0.132722	-85.371876
5.000000	-0.116765	-74.582499	-29.491472	16.048988	-29.491472	16.048988	-0.134651	-86.144141
5.050000	-0.118469	-75.254195	-29.447203	15.525431	-29.447203	15.525431	-0.136634	-86.912576
5.100000	-0.120174	-75.925891	-29.403159	15.001874	-29.403159	15.001874	-0.138618	-87.681011
5.150000	-0.121921	-76.594518	-29.360099	14.488019	-29.360099	14.488019	-0.140652	-88.445990
5.200000	-0.123672	-77.262864	-29.317320	13.975046	-29.317320	13.975046	-0.142692	-89.210656
5.250000	-0.125464	-77.928437	-29.275344	13.470831	-29.275344	13.470831	-0.144780	-89.972233
5.300000	-0.127264	-78.593454	-29.233687	12.968368	-29.233687	12.968368	-0.146877	-90.733194
5.350000	-0.129102	-79.255991	-29.192673	12.473711	-29.192673	12.473711	-0.149020	-91.491427
5.400000	-0.130952	-79.917701	-29.151999	11.981656	-29.151999	11.981656	-0.151177	-92.248752
5.450000	-0.132838	-80.577224	-29.111827	11.496456	-29.111827	11.496456	-0.153376	-93.003700
5.500000	-0.134740	-81.235653	-29.071997	11.014683	-29.071997	11.014683	-0.155595	-93.757461
5.550000	-0.136674	-81.892184	-29.032552	10.538817	-29.032552	10.538817	-0.157851	-94.509189
5.600000	-0.138631	-82.547359	-28.993430	10.067171	-28.993430	10.067171	-0.160134	-95.259463
5.650000	-0.140616	-83.200923	-28.954597	9.600496	-28.954597	9.600496	-0.162450	-96.008034
5.700000	-0.142628	-83.852876	-28.916050	9.138791	-28.916050	9.138791	-0.164799	-96.754903
5.750000	-0.144664	-84.503499	-28.877718	8.681138	-28.877718	8.681138	-0.167176	-97.500387
5.800000	-0.146734	-85.152262	-28.839615	8.229158	-28.839615	8.229158	-0.169592	-98.243933
5.850000	-0.148823	-85.799974	-28.801674	7.780336	-28.801674	7.780336	-0.172031	-98.986401
5.900000	-0.150952	-86.445582	-28.763888	7.337830	-28.763888	7.337830	-0.174517	-99.726713
5.950000	-0.153096	-87.090412	-28.726231	6.897621	-28.726231	6.897621	-0.177020	-100.466240
6.000000	-0.155286	-87.732904	-28.688636	6.464303	-28.688636	6.464303	-0.179577	-101.203409
6.050000	-0.157486	-88.374884	-28.651160	6.032464	-28.651160	6.032464	-0.182146	-101.940069
6.100000	-0.159738	-89.014300	-28.613633	5.608015	-28.613633	5.608015	-0.184775	-102.674190
6.150000	-0.161996	-89.653464	-28.576236	5.184275	-28.576236	5.184275	-0.187411	-103.408065
6.200000	-0.164312	-90.289847	-28.538659	4.768336	-28.538659	4.768336	-0.190115	-104.139235
6.250000	-0.166629	-90.926229	-28.501244	4.352396	-28.501244	4.352396	-0.192820	-104.870404
6.300000	-0.169010	-91.559623	-28.463501	3.944571	-28.463501	3.944571	-0.195601	-105.598725
6.350000	-0.171393	-92.193016	-28.425922	3.536745	-28.425922	3.536745	-0.198382	-106.327046
6.400000	-0.173837	-92.823713	-28.387954	3.135960	-28.387954	3.135960	-0.201234	-107.052850
6.450000	-0.176287	-93.454164	-28.350102	2.735814	-28.350102	2.735814	-0.204094	-107.778425
6.500000	-0.178795	-94.082203	-28.311821	2.341676	-28.311821	2.341676	-0.207020	-108.501803
6.550000	-0.181314	-94.709760	-28.273591	1.948739	-28.273591	1.948739	-0.209959	-109.224740
6.600000	-0.183886	-95.335185	-28.234915	1.560826	-28.234915	1.560826	-0.212959	-109.945783
6.650000	-0.186477	-95.959900	-28.196207	1.174588	-28.196207	1.174588	-0.215981	-110.666193
6.700000	-0.189115	-96.582753	-28.157057	0.792453	-28.157057	0.792453	-0.219057	-111.384995
6.750000	-0.191778	-97.204677	-28.117778	0.412370	-28.117778	0.412370	-0.222162	-112.102991
6.800000	-0.194484	-97.825004	-28.078082	0.035540	-28.078082	0.035540	-0.225316	-112.819648
6.850000	-0.197221	-98.444192	-28.038145	-0.338968	-28.038145	-0.338968	-0.228505	-113.535347
6.900000	-0.199996	-99.062039	-27.997837	-0.710992	-27.997837	-0.710992	-0.231738	-114.249957
6.950000	-0.202809	-99.678546	-27.957162	-1.080534	-27.957162	-1.080534	-0.235015	-114.963477
7.000000	-0.205654	-100.293961	-27.916179	-1.448272	-27.916179	-1.448272	-0.238328	-115.676141
7.050000	-0.208544	-100.907846	-27.874695	-1.813485	-27.874695	-1.813485	-0.241693	-116.387606
7.100000	-0.211461	-101.520878	-27.832984	-2.177476	-27.832984	-2.177476	-0.245088	-117.098426
7.150000	-0.214430	-102.132201	-27.790627	-2.539022	-27.790627	-2.539022	-0.248542	-117.807959
7.200000	-0.217420	-102.742898	-27.748140	-2.899822	-27.748140	-2.899822	-0.252020	-118.517041
7.250000	-0.220470	-103.351720	-27.704855	-3.258382	-27.704855	-3.258382	-0.255566	-119.224770
7.300000	-0.223535	-103.960135	-27.661550	-3.616560	-27.661550	-3.616560	-0.259129	-119.932220
7.350000	-0.226667	-104.566519	-27.617292	-3.972827	-27.617292	-3.972827	-0.262768	-120.638275
7.400000	-0.229807	-105.172705	-27.573136	-4.328962	-27.573136	-4.328962	-0.266416	-121.344202
7.450000	-0.233022	-105.776715	-27.527868	-4.683638	-27.527868	-4.683638	-0.270150	-122.048717
7.500000	-0.236239	-106.380725	-27.482835	-5.038314	-27.482835	-5.038314	-0.273885	-122.753232
7.550000	-0.239540	-106.982427	-27.436532	-5.392100	-27.436532	-5.392100	-0.277715	-123.456342
7.600000	-0.242843	-107.584129	-27.390475	-5.745886	-27.390475	-5.745886	-0.281547	-124.159452
7.650000	-0.246223	-108.183778	-27.343249	-6.099493	-27.343249	-6.099493	-0.285467	-124.861402
7.700000	-0.249612	-108.783240	-27.296150	-6.453084	-27.296150	-6.453084	-0.289396	-125.563246
7.750000	-0.253074	-109.380893	-27.248000	-6.807081	-27.248000	-6.807081	-0.293407	-126.264153
7.800000	-0.256551	-109.978185	-27.199854	-7.161159	-27.199854	-7.161159	-0.297435	-126.964873
7.850000	-0.260095	-110.573900	-27.150784	-7.516097	-27.150784	-7.516097	-0.301538	-127.664857
7.900000	-0.263662	-111.169091	-27.101595	-7.871322	-27.101595	-7.871322	-0.305667	-128.364595
7.950000	-0.267289	-111.762929	-27.051619	-8.227734	-27.051619	-8.227734	-0.309863	-129.063778
8.000000	-0.270947	-112.356092	-27.001398	-8.584739	-27.001398	-8.584739	-0.314095	-129.762683
8.050000	-0.274659	-112.948113	-26.950534	-8.943131	-26.950534	-8.943131	-0.318386	-130.461189
8.100000	-0.278410	-113.539320	-26.899303	-9.302513	-26.899303	-9.302513	-0.322720	-131.159409
8.150000	-0.282207	-114.129587	-26.847576	-9.663362	-26.847576	-9.663362	-0.327107	-131.857364
8.200000	-0.286052	-114.718913	-26.795363	-10.025676	-26.795363	-10.025676	-0.331546	-132.555053
8.250000	-0.289936	-115.307488	-26.742804	-10.389425	-26.742804	-10.389425	-0.336029	-133.252584
8.300000	-0.293876	-115.895010	-26.689646	-10.755180	-26.689646	-10.755180	-0.340575	-133.949897
8.350000	-0.297849	-116.481957	-26.636290	-11.122235	-26.636290	-11.122235	-0.345156	-134.647136
8.400000	-0.301885	-117.067752	-26.582227	-11.491886	-26.582227	-11.491886	-0.349809	-135.344230
8.450000	-0.305947	-117.653136	-26.528115	-11.862612	-26.528115	-11.862612	-0.354489	-136.041309
8.500000	-0.310081	-118.237284	-26.473194	-12.236559	-26.473194	-12.236559	-0.359250	-136.738346
8.550000	-0.314233	-118.821170	-26.418367	-12.611278	-26.418367	-12.611278	-0.364031	-137.435400
8.600000	-0.318466	-119.403751	-26.362639	-12.989859	-26.362639	-12.989859	-0.368901	-138.132543
8.650000	-0.322709	-119.986208	-26.307143	-13.368850	-26.307143	-13.368850	-0.373783	-138.829710
8.700000	-0.327042	-120.567302	-26.250661	-13.752343	-26.250661	-13.752343	-0.378764	-139.527127
8.750000	-0.331378	-121.148397	-26.194543	-14.135836	-26.194543	-14.135836	-0.383747	-140.224544
8.800000	-0.335812	-121.728090	-26.137361	-14.524456	-26.137361	-14.524456	-0.388840	-140.922406
8.850000	-0.340249	-122.307782	-26.080552	-14.913076	-26.080552	-14.913076	-0.393935	-141.620268
8.900000	-0.344778	-122.886266	-26.022841	-15.306536	-26.022841	-15.306536	-0.399132	-142.318696
8.950000	-0.349317	-123.464641	-25.965395	-15.700436	-25.965395	-15.700436	-0.404340	-143.017175
9.000000	-0.353941	-124.041988	-25.907201	-16.098813	-25.907201	-16.098813	-0.409641	-143.716317
9.050000	-0.358583	-124.619131	-25.849170	-16.498085	-25.849170	-16.498085	-0.414963	-144.415591
9.100000	-0.363303	-125.195415	-25.790538	-16.901413	-25.790538	-16.901413	-0.420369	-145.115596
9.150000	-0.368050	-125.771413	-25.731973	-17.306092	-25.731973	-17.306092	-0.425805	-145.815844
9.200000	-0.372867	-126.346707	-25.672946	-17.714362	-25.672946	-17.714362	-0.431317	-146.516864
9.250000	-0.377720	-126.921650	-25.613892	-18.124428	-25.613892	-18.124428	-0.436869	-147.218271
9.300000	-0.382634	-127.496029	-25.554508	-18.537595	-25.554508	-18.537595	-0.442487	-147.920462
9.350000	-0.387592	-128.070006	-25.495008	-18.952976	-25.495008	-18.952976	-0.448154	-148.623213
9.400000	-0.392605	-128.643547	-25.435300	-19.370958	-25.435300	-19.370958	-0.453880	-149.326732
9.450000	-0.397670	-129.216651	-25.375391	-19.791539	-25.375391	-19.791539	-0.459663	-150.031019
9.500000	-0.402782	-129.789430	-25.315390	-20.214223	-25.315390	-20.214223	-0.465496	-150.736027
9.550000	-0.407955	-130.361754	-25.255102	-20.639849	-25.255102	-20.639849	-0.471396	-151.442044
9.600000	-0.413166	-130.933850	-25.194832	-21.067094	-25.194832	-21.067094	-0.477337	-152.148703
9.650000	-0.418448	-131.505489	-25.134188	-21.497575	-25.134188	-21.497575	-0.483354	-152.856647
9.700000	-0.423758	-132.076982	-25.073668	-21.929216	-25.073668	-21.929216	-0.489403	-153.565124
9.750000	-0.429149	-132.648033	-25.012684	-22.364336	-25.012684	-22.364336	-0.495538	-154.275198
9.800000	-0.434560	-133.219003	-24.951928	-22.800189	-24.951928	-22.800189	-0.501695	-154.985662
9.850000	-0.440060	-133.789565	-24.890613	-23.239710	-24.890613	-23.239710	-0.507947	-155.698072
9.900000	-0.445573	-134.360095	-24.829628	-23.679576	-24.829628	-23.679576	-0.514212	-156.410693
9.950000	-0.451183	-134.930268	-24.767981	-24.123244	-24.767981	-24.123244	-0.520581	-157.125649
10.000000	-0.456796	-135.500440	-24.706769	-24.566912	-24.706769	-24.566912	-0.526955	-157.840604
