! freq	dB(S11)	phase(S11)	dB(S12)	phase(S12)	
!     	dB(S21)	phase(S21)	dB(S22)	phase(S22)	
!S-par simulation data
#  GHz  S  DB  R 50
0.000000	-0.000000	0.000000	-297.992264	0.000000	-297.992264	0.000000	-0.000000	0.000000
0.050000	-0.000101	-0.813110	-73.507834	86.178143	-73.507834	86.178143	-0.000101	-0.813193
0.100000	-0.000400	-1.625977	-67.758494	86.007002	-67.758494	86.007002	-0.000400	-1.626143
0.150000	-0.000884	-2.438377	-64.328046	85.809572	-64.328046	85.809572	-0.000885	-2.438626
0.200000	-0.001536	-3.250123	-61.869527	85.399974	-61.869527	85.399974	-0.001536	-3.250454
0.250000	-0.002343	-4.061003	-59.954177	84.854080	-59.954177	84.854080	-0.002343	-4.061417
0.300000	-0.003267	-4.870975	-58.386643	84.237109	-58.386643	84.237109	-0.003267	-4.871472
0.350000	-0.004291	-5.679926	-57.060951	83.572338	-57.060951	83.572338	-0.004291	-5.680506
0.400000	-0.005392	-6.487811	-55.913286	82.876642	-55.913286	82.876642	-0.005392	-6.488473
0.450000	-0.006549	-7.294610	-54.902217	82.160098	-54.902217	82.160098	-0.006550	-7.295354
0.500000	-0.007745	-8.100328	-53.999326	81.429052	-53.999326	81.429052	-0.007746	-8.101154
0.550000	-0.008964	-8.904984	-53.184278	80.687694	-53.184278	80.687694	-0.008964	-8.905892
0.600000	-0.010193	-9.708606	-52.442025	79.938909	-52.442025	79.938909	-0.010194	-9.709595
0.650000	-0.011423	-10.511226	-51.761116	79.184755	-51.761116	79.184755	-0.011424	-10.512297
0.700000	-0.012647	-11.312879	-51.132639	78.426752	-51.132639	78.426752	-0.012649	-11.314031
0.750000	-0.013861	-12.113594	-50.549520	77.666052	-50.549520	77.666052	-0.013862	-12.114828
0.800000	-0.015060	-12.913400	-50.006053	76.903553	-50.006053	76.903553	-0.015062	-12.914715
0.850000	-0.016244	-13.712317	-49.497565	76.139975	-49.497565	76.139975	-0.016245	-13.713713
0.900000	-0.017410	-14.510363	-49.020183	75.375903	-49.020183	75.375903	-0.017412	-14.511839
0.950000	-0.018560	-15.307550	-48.570663	74.611828	-48.570663	74.611828	-0.018562	-15.309106
1.000000	-0.019694	-16.103882	-48.146257	73.848168	-48.146257	73.848168	-0.019696	-16.105519
1.050000	-0.020812	-16.899363	-47.744619	73.085285	-47.744619	73.085285	-0.020814	-16.901079
1.100000	-0.021915	-17.693989	-47.363728	72.323498	-47.363728	72.323498	-0.021918	-17.695785
1.150000	-0.023006	-18.487755	-47.001836	71.563094	-47.001836	71.563094	-0.023008	-18.489630
1.200000	-0.024084	-19.280651	-46.657412	70.804333	-46.657412	70.804333	-0.024087	-19.282606
1.250000	-0.025152	-20.072666	-46.329117	70.047455	-46.329117	70.047455	-0.025154	-20.074700
1.300000	-0.026209	-20.863747	-46.015901	69.292784	-46.015901	69.292784	-0.026212	-20.865859
1.350000	-0.027259	-21.653915	-45.716578	68.540448	-45.716578	68.540448	-0.027262	-21.656106
1.400000	-0.028301	-22.443154	-45.430211	67.790645	-45.430211	67.790645	-0.028304	-22.445423
1.450000	-0.029337	-23.231445	-45.155962	67.043565	-45.155962	67.043565	-0.029340	-23.233792
1.500000	-0.030368	-24.018770	-44.893077	66.299392	-44.893077	66.299392	-0.030371	-24.021195
1.550000	-0.031394	-24.805109	-44.640875	65.558304	-44.640875	65.558304	-0.031397	-24.807612
1.600000	-0.032416	-25.590443	-44.398741	64.820477	-44.398741	64.820477	-0.032420	-25.593023
1.650000	-0.033436	-26.374750	-44.166115	64.086080	-44.166115	64.086080	-0.033440	-26.377408
1.700000	-0.034452	-27.157638	-43.943534	63.356614	-43.943534	63.356614	-0.034456	-27.160372
1.750000	-0.035468	-27.939973	-43.728026	62.629083	-43.728026	62.629083	-0.035472	-27.942784
1.800000	-0.036482	-28.720974	-43.521300	61.906418	-43.521300	61.906418	-0.036486	-28.723861
1.850000	-0.037494	-29.501024	-43.321867	61.187229	-43.321867	61.187229	-0.037499	-29.503987
1.900000	-0.038507	-30.279887	-43.129937	60.472567	-43.129937	60.472567	-0.038511	-30.282926
1.950000	-0.039520	-31.057563	-42.945119	59.762431	-42.945119	59.762431	-0.039524	-31.060678
2.000000	-0.040532	-31.834216	-42.766647	59.056363	-42.766647	59.056363	-0.040537	-31.837406
2.050000	-0.041546	-32.609435	-42.595194	58.355990	-42.595194	58.355990	-0.041550	-32.612699
2.100000	-0.042560	-33.383807	-42.429032	57.659107	-42.429032	57.659107	-0.042565	-33.387146
2.150000	-0.043576	-34.156486	-42.269861	56.969205	-42.269861	56.969205	-0.043581	-34.159900
2.200000	-0.044593	-34.928510	-42.115014	56.282100	-42.115014	56.282100	-0.044598	-34.931998
2.250000	-0.045613	-35.698570	-41.967181	55.603385	-41.967181	55.603385	-0.045618	-35.702131
2.300000	-0.046634	-36.468181	-41.822779	54.926654	-41.822779	54.926654	-0.046639	-36.471816
2.350000	-0.047659	-37.235546	-41.685451	54.259847	-41.685451	54.259847	-0.047665	-37.239253
2.400000	-0.048685	-38.002680	-41.550731	53.594094	-41.550731	53.594094	-0.048691	-38.006461
2.450000	-0.049717	-38.767278	-41.423168	52.939925	-41.423168	52.939925	-0.049722	-38.771131
2.500000	-0.050749	-39.531876	-41.297451	52.285757	-41.297451	52.285757	-0.050754	-39.535801
2.550000	-0.051788	-40.293637	-41.178991	51.644968	-41.178991	51.644968	-0.051794	-40.297634
2.600000	-0.052828	-41.055399	-41.062124	51.004179	-41.062124	51.004179	-0.052834	-41.059467
2.650000	-0.053876	-41.814502	-40.951716	50.376342	-40.951716	50.376342	-0.053882	-41.818640
2.700000	-0.054925	-42.573362	-40.843134	49.749682	-40.843134	49.749682	-0.054931	-42.577572
2.750000	-0.055983	-43.329754	-40.740254	49.135433	-40.740254	49.135433	-0.055989	-43.334034
2.800000	-0.057042	-44.085652	-40.639440	48.523666	-40.639440	48.523666	-0.057048	-44.090002
2.850000	-0.058111	-44.839284	-40.543612	47.923649	-40.543612	47.923649	-0.058117	-44.843704
2.900000	-0.059182	-45.592162	-40.450091	47.327548	-40.450091	47.327548	-0.059189	-45.596651
2.950000	-0.060263	-46.342989	-40.360877	46.742415	-40.360877	46.742415	-0.060269	-46.347547
3.000000	-0.061348	-47.092792	-40.274209	46.162766	-40.274209	46.162766	-0.061354	-47.097419
3.050000	-0.062442	-47.840772	-40.191206	45.593179	-40.191206	45.593179	-0.062448	-47.845467
3.100000	-0.063542	-48.587450	-40.110976	45.030778	-40.110976	45.030778	-0.063548	-48.592212
3.150000	-0.064650	-49.332541	-40.033809	44.477405	-40.033809	44.477405	-0.064657	-49.337371
3.200000	-0.065767	-50.076047	-39.959629	43.933058	-39.959629	43.933058	-0.065774	-50.080944
3.250000	-0.066891	-50.818213	-39.887945	43.396575	-39.887945	43.396575	-0.066898	-50.823177
3.300000	-0.068026	-51.558504	-39.819442	42.871099	-39.819442	42.871099	-0.068033	-51.563534
3.350000	-0.069168	-52.297709	-39.752910	42.352188	-39.752910	42.352188	-0.069175	-52.302806
3.400000	-0.070323	-53.034745	-39.689729	41.846405	-39.689729	41.846405	-0.070330	-53.039908
3.450000	-0.071483	-53.770959	-39.628031	41.345753	-39.628031	41.345753	-0.071491	-53.776187
3.500000	-0.072660	-54.504705	-39.569827	40.860491	-39.569827	40.860491	-0.072667	-54.509997
3.550000	-0.073840	-55.237897	-39.512661	40.378788	-39.512661	40.378788	-0.073848	-55.243254
3.600000	-0.075040	-55.968321	-39.459096	39.914877	-39.459096	39.914877	-0.075048	-55.973742
3.650000	-0.076242	-56.698465	-39.406167	39.452814	-39.406167	39.452814	-0.076250	-56.703951
3.700000	-0.077467	-57.425538	-39.356912	39.011080	-39.356912	39.011080	-0.077475	-57.431087
3.750000	-0.078692	-58.152611	-39.307934	38.569347	-39.307934	38.569347	-0.078700	-58.158224
3.800000	-0.079943	-58.876309	-39.262657	38.150611	-39.262657	38.150611	-0.079951	-58.881984
3.850000	-0.081195	-59.600006	-39.217616	37.731876	-39.217616	37.731876	-0.081203	-59.605744
3.900000	-0.082472	-60.320591	-39.175723	37.334962	-39.175723	37.334962	-0.082481	-60.326391
3.950000	-0.083752	-61.040892	-39.134296	36.940032	-39.134296	36.940032	-0.083761	-61.046754
4.000000	-0.085058	-61.758348	-39.095500	36.565595	-39.095500	36.565595	-0.085066	-61.764272
4.050000	-0.086368	-62.475236	-39.057362	36.195256	-39.057362	36.195256	-0.086377	-62.481220
4.100000	-0.087702	-63.189552	-39.021375	35.843928	-39.021375	35.843928	-0.087711	-63.195598
4.150000	-0.089045	-63.903012	-38.986195	35.498938	-38.986195	35.498938	-0.089054	-63.909118
4.200000	-0.090409	-64.614180	-38.952728	35.171324	-38.952728	35.171324	-0.090419	-64.620346
4.250000	-0.091786	-65.324201	-38.920170	34.852398	-38.920170	34.852398	-0.091795	-65.330427
4.300000	-0.093182	-66.032213	-38.888928	34.549064	-38.888928	34.549064	-0.093192	-66.038499
4.350000	-0.094594	-66.738790	-38.858648	34.256868	-38.858648	34.256868	-0.094604	-66.745134
4.400000	-0.096024	-67.443642	-38.829333	33.978333	-38.829333	33.978333	-0.096034	-67.450046
4.450000	-0.097473	-68.146771	-38.800975	33.713462	-38.800975	33.713462	-0.097483	-68.153233
4.500000	-0.098938	-68.848462	-38.773283	33.460190	-38.773283	33.460190	-0.098948	-68.854983
4.550000	-0.100426	-69.548143	-38.746480	33.223158	-38.746480	33.223158	-0.100436	-69.554721
4.600000	-0.101928	-70.246675	-38.720100	32.995542	-38.720100	32.995542	-0.101938	-70.253310
4.650000	-0.103457	-70.942910	-38.694476	32.786761	-38.694476	32.786761	-0.103467	-70.949603
4.700000	-0.104996	-71.638286	-38.669088	32.585114	-38.669088	32.585114	-0.105007	-71.645036
4.750000	-0.106567	-72.331083	-38.644253	32.404872	-38.644253	32.404872	-0.106578	-72.337889
4.800000	-0.108146	-73.023309	-38.619531	32.229412	-38.619531	32.229412	-0.108157	-73.030172
4.850000	-0.109762	-73.712678	-38.595084	32.077857	-38.595084	32.077857	-0.109773	-73.719597
4.900000	-0.111381	-74.401763	-38.570693	31.928690	-38.570693	31.928690	-0.111393	-74.408737
4.950000	-0.113043	-75.087717	-38.546224	31.805799	-38.546224	31.805799	-0.113054	-75.094746
5.000000	-0.114705	-75.773671	-38.521823	31.682909	-38.521823	31.682909	-0.114716	-75.780756
5.050000	-0.116414	-76.456226	-38.496908	31.588471	-38.496908	31.588471	-0.116426	-76.463366
5.100000	-0.118124	-77.138781	-38.472065	31.494033	-38.472065	31.494033	-0.118135	-77.145976
5.150000	-0.119878	-77.818238	-38.446362	31.425286	-38.446362	31.425286	-0.119890	-77.825487
5.200000	-0.121637	-78.497414	-38.420650	31.358875	-38.420650	31.358875	-0.121649	-78.504717
5.250000	-0.123438	-79.173792	-38.393799	31.315265	-38.393799	31.315265	-0.123451	-79.181149
5.300000	-0.125249	-79.849610	-38.366789	31.276216	-38.366789	31.276216	-0.125261	-79.857021
5.350000	-0.127098	-80.522929	-38.338432	31.256997	-38.338432	31.256997	-0.127111	-80.530393
5.400000	-0.128961	-81.195415	-38.309693	31.244388	-38.309693	31.244388	-0.128974	-81.202932
5.450000	-0.130860	-81.865699	-38.279476	31.248609	-38.279476	31.248609	-0.130873	-81.873268
5.500000	-0.132778	-82.534881	-38.248582	31.261245	-38.248582	31.261245	-0.132790	-82.542503
5.550000	-0.134728	-83.202153	-38.216160	31.287741	-38.216160	31.287741	-0.134741	-83.209827
5.600000	-0.136701	-83.868061	-38.182695	31.324138	-38.182695	31.324138	-0.136714	-83.875788
5.650000	-0.138704	-84.532349	-38.147735	31.371528	-38.147735	31.371528	-0.138717	-84.540128
5.700000	-0.140735	-85.195017	-38.111299	31.429910	-38.111299	31.429910	-0.140749	-85.202848
5.750000	-0.142791	-85.856351	-38.073485	31.496593	-38.073485	31.496593	-0.142805	-85.864232
5.800000	-0.144882	-86.515814	-38.033701	31.574896	-38.033701	31.574896	-0.144896	-86.523747
5.850000	-0.146993	-87.174223	-37.992738	31.659057	-37.992738	31.659057	-0.147007	-87.182207
5.900000	-0.149145	-87.830521	-37.949259	31.754935	-37.949259	31.754935	-0.149159	-87.838556
5.950000	-0.151313	-88.486039	-37.904880	31.854556	-37.904880	31.854556	-0.151327	-88.494124
6.000000	-0.153527	-89.139212	-37.857395	31.965406	-37.857395	31.965406	-0.153542	-89.147348
6.050000	-0.155753	-89.791872	-37.809365	32.078279	-37.809365	32.078279	-0.155768	-89.800058
6.100000	-0.158031	-90.441965	-37.757606	32.201269	-37.757606	32.201269	-0.158046	-90.450201
6.150000	-0.160316	-91.091804	-37.705725	32.325018	-37.705725	32.325018	-0.160331	-91.100090
6.200000	-0.162660	-91.738861	-37.649472	32.457127	-37.649472	32.457127	-0.162676	-91.747197
6.250000	-0.165006	-92.385918	-37.593582	32.589235	-37.593582	32.589235	-0.165021	-92.394303
6.300000	-0.167417	-93.029987	-37.532671	32.727300	-37.532671	32.727300	-0.167433	-93.038422
6.350000	-0.169830	-93.674056	-37.472184	32.865366	-37.472184	32.865366	-0.169846	-93.682540
6.400000	-0.172305	-94.315433	-37.406977	33.005915	-37.406977	33.005915	-0.172322	-94.323966
6.450000	-0.174787	-94.956565	-37.341793	33.146689	-37.341793	33.146689	-0.174803	-94.965146
6.500000	-0.177326	-95.595292	-37.272274	33.286993	-37.272274	33.286993	-0.177343	-95.603923
6.550000	-0.179878	-96.233539	-37.202350	33.427202	-37.202350	33.427202	-0.179895	-96.242218
6.600000	-0.182484	-96.869662	-37.128549	33.564558	-37.128549	33.564558	-0.182501	-96.878390
6.650000	-0.185108	-97.505078	-37.053904	33.700963	-37.053904	33.700963	-0.185125	-97.513855
6.700000	-0.187781	-98.138645	-36.975898	33.832734	-36.975898	33.832734	-0.187798	-98.147469
6.750000	-0.190478	-98.771286	-36.896606	33.962190	-36.896606	33.962190	-0.190496	-98.780159
6.800000	-0.193219	-99.402343	-36.814516	34.085846	-36.814516	34.085846	-0.193237	-99.411264
6.850000	-0.195991	-100.032269	-36.730708	34.205361	-36.730708	34.205361	-0.196010	-100.041238
6.900000	-0.198802	-100.660866	-36.644696	34.318510	-36.644696	34.318510	-0.198821	-100.669883
6.950000	-0.201651	-101.288136	-36.556552	34.425295	-36.556552	34.425295	-0.201670	-101.297201
7.000000	-0.204532	-101.914325	-36.466815	34.525718	-36.466815	34.525718	-0.204551	-101.923438
7.050000	-0.207459	-102.539001	-36.374561	34.617233	-36.374561	34.617233	-0.207478	-102.548161
7.100000	-0.210412	-103.162833	-36.281326	34.702904	-36.281326	34.702904	-0.210432	-103.172042
7.150000	-0.213418	-103.784980	-36.185226	34.776890	-36.185226	34.776890	-0.213438	-103.794236
7.200000	-0.216445	-104.406510	-36.088748	34.846005	-36.088748	34.846005	-0.216464	-104.415813
7.250000	-0.219531	-105.026192	-35.989095	34.900507	-35.989095	34.900507	-0.219551	-105.035543
7.300000	-0.222632	-105.645474	-35.889649	34.951490	-35.889649	34.951490	-0.222652	-105.654873
7.350000	-0.225801	-106.262760	-35.786761	34.984876	-35.786761	34.984876	-0.225821	-106.272206
7.400000	-0.228977	-106.879851	-35.684632	35.016393	-35.684632	35.016393	-0.228998	-106.889345
7.450000	-0.232229	-107.494809	-35.578843	35.027354	-35.578843	35.027354	-0.232250	-107.504350
7.500000	-0.235482	-108.109766	-35.474328	35.038315	-35.474328	35.038315	-0.235503	-108.119355
7.550000	-0.238818	-108.722467	-35.365981	35.025863	-35.365981	35.025863	-0.238840	-108.732103
7.600000	-0.242156	-109.335168	-35.258970	35.013411	-35.258970	35.013411	-0.242178	-109.344851
7.650000	-0.245571	-109.945866	-35.148818	34.978874	-35.148818	34.978874	-0.245593	-109.955597
7.700000	-0.248995	-110.556382	-35.039648	34.942331	-35.039648	34.942331	-0.249017	-110.566161
7.750000	-0.252490	-111.165140	-34.927992	34.885388	-34.927992	34.885388	-0.252513	-111.174966
7.800000	-0.256001	-111.773546	-34.816996	34.824366	-34.816996	34.824366	-0.256024	-111.783419
7.850000	-0.259578	-112.380425	-34.704127	34.744896	-34.704127	34.744896	-0.259601	-112.390346
7.900000	-0.263177	-112.986796	-34.591629	34.659278	-34.591629	34.659278	-0.263200	-112.996764
7.950000	-0.266836	-113.591861	-34.477823	34.557347	-34.477823	34.557347	-0.266859	-113.601877
8.000000	-0.270525	-114.196274	-34.364134	34.447260	-34.364134	34.447260	-0.270548	-114.206338
8.050000	-0.274266	-114.799590	-34.249651	34.323100	-34.249651	34.323100	-0.274290	-114.809702
8.100000	-0.278046	-115.402124	-34.135063	34.188889	-34.135063	34.188889	-0.278070	-115.412283
8.150000	-0.281872	-116.003758	-34.020146	34.042882	-34.020146	34.042882	-0.281896	-116.013965
8.200000	-0.285743	-116.604492	-33.904933	33.885079	-33.904933	33.885079	-0.285768	-116.614748
8.250000	-0.289654	-117.204511	-33.789807	33.717736	-33.789807	33.717736	-0.289679	-117.214815
8.300000	-0.293619	-117.803528	-33.674220	33.537038	-33.674220	33.537038	-0.293644	-117.813880
8.350000	-0.297615	-118.402000	-33.559087	33.348984	-33.559087	33.348984	-0.297641	-118.412401
8.400000	-0.301674	-118.999383	-33.443356	33.146220	-33.443356	33.146220	-0.301700	-119.009832
8.450000	-0.305757	-119.596378	-33.328399	32.938173	-33.328399	32.938173	-0.305783	-119.606876
8.500000	-0.309911	-120.192212	-33.212729	32.714282	-33.212729	32.714282	-0.309937	-120.202758
8.550000	-0.314082	-120.787801	-33.098112	32.487039	-33.098112	32.487039	-0.314108	-120.798396
8.600000	-0.318331	-121.382171	-32.982682	32.243045	-32.982682	32.243045	-0.318358	-121.392815
8.650000	-0.322591	-121.976426	-32.868547	31.997466	-32.868547	31.997466	-0.322618	-121.987119
8.700000	-0.326937	-122.569421	-32.753514	31.734458	-32.753514	31.734458	-0.326964	-122.580163
8.750000	-0.331286	-123.162415	-32.639985	31.471449	-32.639985	31.471449	-0.331313	-123.173207
8.800000	-0.335730	-123.754123	-32.525481	31.190559	-32.525481	31.190559	-0.335758	-123.764965
8.850000	-0.340176	-124.345831	-32.412468	30.909669	-32.412468	30.909669	-0.340204	-124.356723
8.900000	-0.344711	-124.936444	-32.298797	30.613450	-32.298797	30.613450	-0.344739	-124.947385
8.950000	-0.349256	-125.526957	-32.186406	30.315837	-32.186406	30.315837	-0.349285	-125.537948
9.000000	-0.353882	-126.116550	-32.073635	30.005265	-32.073635	30.005265	-0.353911	-126.127592
9.050000	-0.358526	-126.705960	-31.961950	29.692101	-31.961950	29.692101	-0.358555	-126.717053
9.100000	-0.363244	-127.294613	-31.850127	29.368151	-31.850127	29.368151	-0.363274	-127.305756
9.150000	-0.367989	-127.883013	-31.739214	29.040605	-31.739214	29.040605	-0.368018	-127.894208
9.200000	-0.372799	-128.470805	-31.628373	28.704241	-31.628373	28.704241	-0.372829	-128.482051
9.250000	-0.377644	-129.058292	-31.518274	28.363468	-31.518274	28.363468	-0.377674	-129.069590
9.300000	-0.382547	-129.645303	-31.408434	28.015640	-31.408434	28.015640	-0.382578	-129.656652
9.350000	-0.387493	-130.231973	-31.299175	27.662772	-31.299175	27.662772	-0.387524	-130.243375
9.400000	-0.392490	-130.818285	-31.190341	27.304408	-31.190341	27.304408	-0.392521	-130.829740
9.450000	-0.397538	-131.404239	-31.081930	26.940547	-31.081930	26.940547	-0.397569	-131.415746
9.500000	-0.402629	-131.989935	-30.974093	26.572548	-30.974093	26.572548	-0.402660	-132.001495
9.550000	-0.407778	-132.575271	-30.866521	26.198755	-30.866521	26.198755	-0.407810	-132.586885
9.600000	-0.412963	-133.160436	-30.759661	25.821992	-30.759661	25.821992	-0.412995	-133.172104
9.650000	-0.418215	-133.745258	-30.652905	25.439286	-30.652905	25.439286	-0.418247	-133.756979
9.700000	-0.423494	-134.329978	-30.546992	25.054596	-30.546992	25.054596	-0.423526	-134.341753
9.750000	-0.428849	-134.914389	-30.441012	24.663948	-30.441012	24.663948	-0.428881	-134.926219
9.800000	-0.434222	-135.498750	-30.336005	24.272129	-30.336005	24.272129	-0.434255	-135.510635
9.850000	-0.439680	-136.082857	-30.230749	23.874457	-30.230749	23.874457	-0.439713	-136.094797
9.900000	-0.445148	-136.666947	-30.126598	23.476271	-30.126598	23.476271	-0.445181	-136.678943
9.950000	-0.450708	-137.250858	-30.022002	23.072438	-30.022002	23.072438	-0.450742	-137.262910
10.000000	-0.456272	-137.834768	-29.918650	22.668604	-29.918650	22.668604	-0.456305	-137.846877
