! freq	dB(S11)	phase(S11)	dB(S12)	phase(S12)	
!     	dB(S21)	phase(S21)	dB(S22)	phase(S22)	
!S-par simulation data
#  GHz  S  DB  R 50
0.000000	-0.000000	0.000000	-316.209608	180.000000	-316.209608	180.000000	-0.000000	0.000000
0.050000	-0.000109	-0.887749	-65.213056	89.010434	-65.213056	89.010434	-0.000109	-0.887459
0.100000	-0.000433	-1.775238	-59.199199	88.029588	-59.199199	88.029588	-0.000433	-1.774658
0.150000	-0.000960	-2.662227	-55.687636	87.063969	-55.687636	87.063969	-0.000959	-2.661357
0.200000	-0.001670	-3.548511	-53.201497	86.116668	-53.201497	86.116668	-0.001669	-3.547352
0.250000	-0.002551	-4.433857	-51.277779	85.189184	-51.277779	85.189184	-0.002549	-4.432410
0.300000	-0.003563	-5.318215	-49.708989	84.277970	-49.708989	84.277970	-0.003560	-5.316480
0.350000	-0.004688	-6.201452	-48.385062	83.381136	-48.385062	83.381136	-0.004685	-6.199430
0.400000	-0.005904	-7.083508	-47.240109	82.495766	-47.240109	82.495766	-0.005900	-7.081200
0.450000	-0.007185	-7.964353	-46.231690	81.619178	-46.231690	81.619178	-0.007181	-7.961760
0.500000	-0.008514	-8.843981	-45.330895	80.749134	-45.330895	80.749134	-0.008509	-8.841103
0.550000	-0.009874	-9.722403	-44.517165	79.883881	-44.517165	79.883881	-0.009867	-9.719241
0.600000	-0.011249	-10.599641	-43.775361	79.022110	-43.775361	79.022110	-0.011242	-10.596196
0.650000	-0.012630	-11.475725	-43.094019	78.162879	-43.094019	78.162879	-0.012622	-11.471997
0.700000	-0.014008	-12.350683	-42.464250	77.305530	-42.464250	77.305530	-0.013999	-12.346673
0.750000	-0.015378	-13.224545	-41.879017	76.449624	-41.879017	76.449624	-0.015368	-13.220254
0.800000	-0.016734	-14.097338	-41.332656	75.594881	-41.332656	75.594881	-0.016723	-14.092766
0.850000	-0.018075	-14.969081	-40.820539	74.741135	-40.820539	74.741135	-0.018063	-14.964230
0.900000	-0.019398	-15.839791	-40.338833	73.888306	-40.338833	73.888306	-0.019386	-15.834661
0.950000	-0.020705	-16.709479	-39.884330	73.036369	-39.884330	73.036369	-0.020692	-16.704070
1.000000	-0.021995	-17.578149	-39.454312	72.185343	-39.454312	72.185343	-0.021981	-17.572462
1.050000	-0.023268	-18.445803	-39.046461	71.335272	-39.046461	71.335272	-0.023254	-18.439838
1.100000	-0.024526	-19.312435	-38.658780	70.486222	-38.658780	70.486222	-0.024511	-19.306193
1.150000	-0.025770	-20.178039	-38.289540	69.638272	-38.289540	69.638272	-0.025754	-20.171520
1.200000	-0.027001	-21.042601	-37.937228	68.791507	-37.937228	68.791507	-0.026984	-21.035807
1.250000	-0.028220	-21.906109	-37.600516	67.946018	-37.600516	67.946018	-0.028203	-21.899040
1.300000	-0.029429	-22.768498	-37.278318	67.101964	-37.278318	67.101964	-0.029412	-22.761154
1.350000	-0.030630	-23.629795	-36.969507	66.259385	-36.969507	66.259385	-0.030611	-23.622177
1.400000	-0.031822	-24.489980	-36.673154	65.418375	-36.673154	65.418375	-0.031803	-24.482088
1.450000	-0.033009	-25.349031	-36.388428	64.579030	-36.388428	64.579030	-0.032989	-25.340866
1.500000	-0.034190	-26.206925	-36.114581	63.741443	-36.114581	63.741443	-0.034169	-26.198488
1.550000	-0.035366	-27.063640	-35.850937	62.905705	-35.850937	62.905705	-0.035345	-27.054931
1.600000	-0.036539	-27.919152	-35.596883	62.071907	-35.596883	62.071907	-0.036517	-27.910172
1.650000	-0.037709	-28.773437	-35.351863	61.240137	-35.351863	61.240137	-0.037687	-28.764187
1.700000	-0.038877	-29.626471	-35.115369	60.410482	-35.115369	60.410482	-0.038854	-29.616952
1.750000	-0.040044	-30.478231	-34.886935	59.583027	-34.886935	59.583027	-0.040020	-30.468443
1.800000	-0.041209	-31.328693	-34.666137	58.757854	-34.666137	58.757854	-0.041185	-31.318636
1.850000	-0.042375	-32.177833	-34.452581	57.935044	-34.452581	57.935044	-0.042350	-32.167509
1.900000	-0.043540	-33.025628	-34.245907	57.114677	-34.245907	57.114677	-0.043515	-33.015037
1.950000	-0.044706	-33.872055	-34.045780	56.296830	-34.045780	56.296830	-0.044680	-33.861197
2.000000	-0.045873	-34.717091	-33.851890	55.481580	-33.851890	55.481580	-0.045846	-34.705969
2.050000	-0.047041	-35.560716	-33.663950	54.668999	-33.663950	54.668999	-0.047013	-35.549328
2.100000	-0.048211	-36.402906	-33.481692	53.859160	-33.481692	53.859160	-0.048183	-36.391254
2.150000	-0.049383	-37.243640	-33.304867	53.052136	-33.304867	53.052136	-0.049354	-37.231725
2.200000	-0.050557	-38.082899	-33.133243	52.247993	-33.133243	52.247993	-0.050527	-38.070722
2.250000	-0.051733	-38.920662	-32.966600	51.446802	-32.966600	51.446802	-0.051703	-38.908223
2.300000	-0.052913	-39.756910	-32.804735	50.648627	-32.804735	50.648627	-0.052882	-39.744210
2.350000	-0.054096	-40.591623	-32.647455	49.853535	-32.647455	49.853535	-0.054064	-40.578662
2.400000	-0.055282	-41.424784	-32.494580	49.061587	-32.494580	49.061587	-0.055250	-41.411563
2.450000	-0.056472	-42.256373	-32.345940	48.272847	-32.345940	48.272847	-0.056440	-42.242894
2.500000	-0.057666	-43.086375	-32.201374	47.487375	-32.201374	47.487375	-0.057633	-43.072637
2.550000	-0.058865	-43.914701	-32.060799	46.705378	-32.060799	46.705378	-0.058831	-43.900706
2.600000	-0.060068	-44.741405	-31.924000	45.926772	-31.924000	45.926772	-0.060034	-44.727153
2.650000	-0.061276	-45.566471	-31.790843	45.151612	-31.790843	45.151612	-0.061241	-45.551964
2.700000	-0.062490	-46.389884	-31.661197	44.379954	-31.661197	44.379954	-0.062454	-46.375122
2.750000	-0.063709	-47.211630	-31.534940	43.611852	-31.534940	43.611852	-0.063673	-47.196614
2.800000	-0.064934	-48.031696	-31.411955	42.847358	-31.411955	42.847358	-0.064897	-48.016425
2.850000	-0.066165	-48.850067	-31.292130	42.086524	-31.292130	42.086524	-0.066127	-48.834544
2.900000	-0.067403	-49.666732	-31.175360	41.329399	-31.175360	41.329399	-0.067365	-49.650956
2.950000	-0.068648	-50.481678	-31.061542	40.576032	-31.061542	40.576032	-0.068609	-50.465651
3.000000	-0.069900	-51.294893	-30.950580	39.826469	-30.950580	39.826469	-0.069860	-51.278616
3.050000	-0.071159	-52.106368	-30.842382	39.080758	-30.842382	39.080758	-0.071118	-52.089840
3.100000	-0.072426	-52.916091	-30.736856	38.338943	-30.736856	38.338943	-0.072385	-52.899314
3.150000	-0.073702	-53.724053	-30.633920	37.601067	-30.633920	37.601067	-0.073660	-53.707027
3.200000	-0.074986	-54.530245	-30.533489	36.867172	-30.533489	36.867172	-0.074944	-54.512971
3.250000	-0.076280	-55.334657	-30.435486	36.137299	-30.435486	36.137299	-0.076236	-55.317136
3.300000	-0.077582	-56.137282	-30.339835	35.411488	-30.339835	35.411488	-0.077538	-56.119514
3.350000	-0.078897	-56.937799	-30.246674	34.690501	-30.246674	34.690501	-0.078852	-56.919785
3.400000	-0.080222	-57.736435	-30.155769	33.973831	-30.155769	33.973831	-0.080176	-57.718176
3.450000	-0.081552	-58.534125	-30.066424	33.259352	-30.066424	33.259352	-0.081506	-58.515621
3.500000	-0.082900	-59.328978	-29.979824	32.551446	-29.979824	32.551446	-0.082853	-59.310230
3.550000	-0.084252	-60.123197	-29.894476	31.845023	-29.894476	31.845023	-0.084204	-60.104205
3.600000	-0.085624	-60.914245	-29.811919	31.146021	-29.811919	31.146021	-0.085576	-60.895010
3.650000	-0.086999	-61.704974	-29.730329	30.447772	-29.730329	30.447772	-0.086950	-61.685496
3.700000	-0.088397	-62.492199	-29.651568	29.757805	-29.651568	29.757805	-0.088348	-62.472479
3.750000	-0.089796	-63.279423	-29.573515	29.067838	-29.573515	29.067838	-0.089746	-63.259463
3.800000	-0.091223	-64.062812	-29.498315	28.387023	-29.498315	28.387023	-0.091172	-64.042611
3.850000	-0.092650	-64.846201	-29.423762	27.706209	-29.423762	27.706209	-0.092598	-64.825760
3.900000	-0.094105	-65.626067	-29.351731	27.033881	-29.351731	27.033881	-0.094052	-65.605386
3.950000	-0.095562	-66.405613	-29.280463	26.362325	-29.280463	26.362325	-0.095508	-66.384692
4.000000	-0.097045	-67.181953	-29.211408	25.698561	-29.211408	25.698561	-0.096991	-67.160793
4.050000	-0.098534	-67.957652	-29.143222	25.036355	-29.143222	25.036355	-0.098479	-67.936254
4.100000	-0.100049	-68.730467	-29.076961	24.381223	-29.076961	24.381223	-0.099993	-68.708831
4.150000	-0.101572	-69.502322	-29.011662	23.728448	-29.011662	23.728448	-0.101515	-69.480448
4.200000	-0.103119	-70.271617	-28.948022	23.082006	-28.948022	23.082006	-0.103061	-70.249505
4.250000	-0.104677	-71.039632	-28.885425	22.438729	-28.885425	22.438729	-0.104619	-71.017284
4.300000	-0.106258	-71.805415	-28.824240	21.801024	-28.824240	21.801024	-0.106199	-71.782830
4.350000	-0.107855	-72.569602	-28.764167	21.167299	-28.764167	21.167299	-0.107795	-72.546781
4.400000	-0.109471	-73.331884	-28.705280	20.538369	-28.705280	20.538369	-0.109410	-73.308827
4.450000	-0.111107	-74.092259	-28.647559	19.914234	-28.647559	19.914234	-0.111046	-74.068966
4.500000	-0.112761	-74.851053	-28.590820	19.294107	-28.590820	19.294107	-0.112699	-74.827525
4.550000	-0.114439	-75.607635	-28.535285	18.679589	-28.535285	18.679589	-0.114376	-75.583872
4.600000	-0.116132	-76.362961	-28.480549	18.068279	-28.480549	18.068279	-0.116067	-76.338963
4.650000	-0.117853	-77.115774	-28.427042	17.463388	-28.427042	17.463388	-0.117788	-77.091541
4.700000	-0.119586	-77.867652	-28.374170	16.860903	-28.374170	16.860903	-0.119520	-77.843184
4.750000	-0.121353	-78.616724	-28.322535	16.265634	-28.322535	16.265634	-0.121286	-78.592022
4.800000	-0.123128	-79.365178	-28.271393	15.671965	-28.271393	15.671965	-0.123060	-79.340242
4.850000	-0.124943	-80.110542	-28.221481	15.086297	-28.221481	15.086297	-0.124874	-80.085371
4.900000	-0.126761	-80.855599	-28.171939	14.501426	-28.171939	14.501426	-0.126692	-80.830194
4.950000	-0.128625	-81.597291	-28.123604	13.925322	-28.123604	13.925322	-0.128554	-81.571651
5.000000	-0.130489	-82.338982	-28.075537	13.349217	-28.075537	13.349217	-0.130418	-82.313108
5.050000	-0.132405	-83.077041	-28.028637	12.782622	-28.028637	12.782622	-0.132332	-83.050933
5.100000	-0.134320	-83.815100	-27.981989	12.216026	-27.981989	12.216026	-0.134246	-83.788758
5.150000	-0.136284	-84.549870	-27.936320	11.658078	-27.936320	11.658078	-0.136209	-84.523293
5.200000	-0.138253	-85.284341	-27.890956	11.100916	-27.890956	11.100916	-0.138177	-85.257529
5.250000	-0.140267	-86.015861	-27.846400	10.551539	-27.846400	10.551539	-0.140190	-85.988815
5.300000	-0.142291	-86.746791	-27.802186	10.003719	-27.802186	10.003719	-0.142213	-86.719510
5.350000	-0.144358	-87.475105	-27.758630	9.462819	-27.758630	9.462819	-0.144279	-87.447589
5.400000	-0.146439	-88.202546	-27.715435	8.924226	-27.715435	8.924226	-0.146359	-88.174795
5.450000	-0.148559	-88.927698	-27.672769	8.391695	-27.672769	8.391695	-0.148478	-88.899711
5.500000	-0.150699	-89.651705	-27.630467	7.862193	-27.630467	7.862193	-0.150616	-89.623482
5.550000	-0.152874	-90.373742	-27.588581	7.337903	-27.588581	7.337903	-0.152791	-90.345283
5.600000	-0.155075	-91.094373	-27.547047	6.817335	-27.547047	6.817335	-0.154990	-91.065678
5.650000	-0.157307	-91.813347	-27.505838	6.301143	-27.505838	6.301143	-0.157221	-91.784415
5.700000	-0.159570	-92.530664	-27.464949	5.789326	-27.464949	5.789326	-0.159483	-92.501494
5.750000	-0.161861	-93.246627	-27.424313	5.281069	-27.424313	5.281069	-0.161773	-93.217220
5.800000	-0.164189	-93.960695	-27.383951	4.777795	-27.383951	4.777795	-0.164100	-93.931049
5.850000	-0.166539	-94.673702	-27.343789	4.277291	-27.343789	4.277291	-0.166449	-94.643817
5.900000	-0.168934	-95.384588	-27.303837	3.782327	-27.303837	3.782327	-0.168842	-95.354464
5.950000	-0.171346	-96.094697	-27.264051	3.289375	-27.264051	3.289375	-0.171253	-96.064333
6.000000	-0.173808	-96.802474	-27.224395	2.802458	-27.224395	2.802458	-0.173714	-96.771869
6.050000	-0.176283	-97.509744	-27.184890	2.316835	-27.184890	2.316835	-0.176188	-97.478898
6.100000	-0.178816	-98.214485	-27.145419	1.837676	-27.145419	1.837676	-0.178719	-98.183397
6.150000	-0.181356	-98.918979	-27.106104	1.359137	-27.106104	1.359137	-0.181258	-98.887649
6.200000	-0.183960	-99.620761	-27.066711	0.887417	-27.066711	0.887417	-0.183861	-99.589187
6.250000	-0.186566	-100.322543	-27.027497	0.415697	-27.027497	0.415697	-0.186465	-100.290725
6.300000	-0.189244	-101.021446	-26.988077	-0.048934	-26.988077	-0.048934	-0.189142	-100.989383
6.350000	-0.191924	-101.720349	-26.948836	-0.513565	-26.948836	-0.513565	-0.191820	-101.688040
6.400000	-0.194672	-102.416690	-26.909331	-0.972046	-26.909331	-0.972046	-0.194567	-102.384133
6.450000	-0.197427	-103.112797	-26.869964	-1.429968	-26.869964	-1.429968	-0.197320	-103.079993
6.500000	-0.200245	-103.806646	-26.830293	-1.882641	-26.830293	-1.882641	-0.200137	-103.773593
6.550000	-0.203077	-104.500043	-26.790705	-2.334264	-26.790705	-2.334264	-0.202968	-104.466740
6.600000	-0.205969	-105.191473	-26.750791	-2.781494	-26.750791	-2.781494	-0.205858	-105.157919
6.650000	-0.208880	-105.882247	-26.710892	-3.227259	-26.710892	-3.227259	-0.208768	-105.848441
6.700000	-0.211845	-106.571334	-26.670664	-3.669433	-26.670664	-3.669433	-0.211731	-106.537275
6.750000	-0.214837	-107.259577	-26.630367	-4.109811	-26.630367	-4.109811	-0.214722	-107.225263
6.800000	-0.217877	-107.946397	-26.589758	-4.547338	-26.589758	-4.547338	-0.217760	-107.911828
6.850000	-0.220952	-108.632202	-26.548983	-4.982828	-26.548983	-4.982828	-0.220834	-108.597375
6.900000	-0.224069	-109.316835	-26.507929	-5.416137	-26.507929	-5.416137	-0.223949	-109.281750
6.950000	-0.227228	-110.000297	-26.466601	-5.847264	-26.466601	-5.847264	-0.227107	-109.964952
7.000000	-0.230424	-110.682823	-26.425044	-6.276804	-26.425044	-6.276804	-0.230300	-110.647217
7.050000	-0.233669	-111.364040	-26.383095	-6.704120	-26.383095	-6.704120	-0.233544	-111.328172
7.100000	-0.236944	-112.044542	-26.340984	-7.130356	-26.340984	-7.130356	-0.236817	-112.008410
7.150000	-0.240277	-112.723616	-26.298352	-7.554433	-26.298352	-7.554433	-0.240149	-112.687217
7.200000	-0.243633	-113.402178	-26.255638	-7.977848	-26.255638	-7.977848	-0.243503	-113.365513
7.250000	-0.247055	-114.079210	-26.212269	-8.399276	-26.212269	-8.399276	-0.246924	-114.042276
7.300000	-0.250494	-114.755920	-26.168912	-8.820363	-26.168912	-8.820363	-0.250361	-114.718715
7.350000	-0.254008	-115.431016	-26.124760	-9.239747	-26.124760	-9.239747	-0.253873	-115.393538
7.400000	-0.257530	-116.105959	-26.080725	-9.659011	-26.080725	-9.659011	-0.257393	-116.068208
7.450000	-0.261136	-116.779227	-26.035750	-10.076965	-26.035750	-10.076965	-0.260998	-116.741199
7.500000	-0.264744	-117.452495	-25.991008	-10.494918	-25.991008	-10.494918	-0.264604	-117.414190
7.550000	-0.268445	-118.124044	-25.945181	-10.912059	-25.945181	-10.912059	-0.268303	-118.085459
7.600000	-0.272147	-118.795593	-25.899595	-11.329200	-25.899595	-11.329200	-0.272003	-118.756727
7.650000	-0.275936	-119.465670	-25.853008	-11.746161	-25.853008	-11.746161	-0.275790	-119.426519
7.700000	-0.279735	-120.135612	-25.806557	-12.163106	-25.806557	-12.163106	-0.279587	-120.096176
7.750000	-0.283613	-120.804312	-25.759202	-12.580394	-25.759202	-12.580394	-0.283463	-120.764587
7.800000	-0.287509	-121.472762	-25.711874	-12.997750	-25.711874	-12.997750	-0.287358	-121.432748
7.850000	-0.291479	-122.140181	-25.663748	-13.415862	-25.663748	-13.415862	-0.291325	-122.099874
7.900000	-0.295474	-122.807257	-25.615539	-13.834224	-25.615539	-13.834224	-0.295318	-122.766655
7.950000	-0.299536	-123.473494	-25.566648	-14.253639	-25.566648	-14.253639	-0.299378	-123.432595
8.000000	-0.303632	-124.139313	-25.517560	-14.673581	-25.517560	-14.673581	-0.303472	-124.098115
8.050000	-0.307787	-124.804469	-25.467915	-15.094762	-25.467915	-15.094762	-0.307625	-124.762969
8.100000	-0.311985	-125.469152	-25.417960	-15.516828	-25.417960	-15.516828	-0.311821	-125.427348
8.150000	-0.316235	-126.133330	-25.367576	-15.940213	-25.367576	-15.940213	-0.316069	-126.091218
8.200000	-0.320537	-126.797001	-25.316774	-16.364915	-25.316774	-16.364915	-0.320368	-126.754579
8.250000	-0.324883	-127.460303	-25.265674	-16.790914	-25.265674	-16.790914	-0.324712	-127.417569
8.300000	-0.329289	-128.123088	-25.214048	-17.218725	-25.214048	-17.218725	-0.329117	-128.080039
8.350000	-0.333733	-128.785620	-25.162257	-17.647716	-25.162257	-17.647716	-0.333558	-128.742253
8.400000	-0.338246	-129.447646	-25.109840	-18.079065	-25.109840	-18.079065	-0.338069	-129.403959
8.450000	-0.342787	-130.109516	-25.057389	-18.511392	-25.057389	-18.511392	-0.342608	-130.065505
8.500000	-0.347409	-130.770915	-25.004215	-18.946655	-25.004215	-18.946655	-0.347227	-130.726576
8.550000	-0.352050	-131.432231	-24.951137	-19.382625	-24.951137	-19.382625	-0.351866	-131.387564
8.600000	-0.356780	-132.093134	-24.897246	-19.822129	-24.897246	-19.822129	-0.356594	-132.048133
8.650000	-0.361522	-132.754007	-24.843576	-20.262009	-24.843576	-20.262009	-0.361333	-132.708672
8.700000	-0.366362	-133.414550	-24.789011	-20.706022	-24.789011	-20.706022	-0.366171	-133.368874
8.750000	-0.371206	-134.075094	-24.734787	-21.150036	-24.734787	-21.150036	-0.371012	-134.029076
8.800000	-0.376158	-134.735414	-24.679591	-21.598772	-24.679591	-21.598772	-0.375962	-134.689049
8.850000	-0.381113	-135.395735	-24.624744	-22.047509	-24.624744	-22.047509	-0.380915	-135.349022
8.900000	-0.386169	-136.055980	-24.569067	-22.500717	-24.569067	-22.500717	-0.385968	-136.008912
8.950000	-0.391237	-136.716218	-24.513640	-22.954331	-24.513640	-22.954331	-0.391034	-136.668795
9.000000	-0.396398	-137.376506	-24.457521	-23.412093	-24.457521	-23.412093	-0.396192	-137.328722
9.050000	-0.401580	-138.036804	-24.401554	-23.870684	-24.401554	-23.870684	-0.401371	-137.988657
9.100000	-0.406846	-138.697256	-24.345028	-24.333042	-24.345028	-24.333042	-0.406635	-138.648740
9.150000	-0.412143	-139.357759	-24.288563	-24.796655	-24.288563	-24.796655	-0.411929	-139.308873
9.200000	-0.417516	-140.018498	-24.231662	-25.263612	-24.231662	-25.263612	-0.417300	-139.969235
9.250000	-0.422928	-140.679354	-24.174733	-25.732240	-24.174733	-25.732240	-0.422710	-140.629713
9.300000	-0.428409	-141.340505	-24.117487	-26.203763	-24.117487	-26.203763	-0.428187	-141.290479
9.350000	-0.433938	-142.001865	-24.060126	-26.677353	-24.060126	-26.677353	-0.433714	-141.951451
9.400000	-0.439526	-142.663553	-24.002559	-27.153376	-24.002559	-27.153376	-0.439299	-142.612748
9.450000	-0.445173	-143.325570	-23.944792	-27.631833	-23.944792	-27.631833	-0.444943	-143.274368
9.500000	-0.450870	-143.987926	-23.886924	-28.112262	-23.886924	-28.112262	-0.450637	-143.936324
9.550000	-0.456635	-144.650757	-23.828768	-28.595454	-23.828768	-28.595454	-0.456399	-144.598748
9.600000	-0.462441	-145.313911	-23.770615	-29.080170	-23.770615	-29.080170	-0.462203	-145.261494
9.650000	-0.468324	-145.977714	-23.712083	-29.567936	-23.712083	-29.567936	-0.468084	-145.924881
9.700000	-0.474240	-146.641800	-23.653653	-30.056800	-23.653653	-30.056800	-0.473996	-146.588549
9.750000	-0.480243	-147.306738	-23.594748	-30.548958	-23.594748	-30.548958	-0.479996	-147.253061
9.800000	-0.486269	-147.971892	-23.536044	-31.041814	-23.536044	-31.041814	-0.486019	-147.917788
9.850000	-0.492392	-148.638129	-23.476762	-31.538163	-23.476762	-31.538163	-0.492139	-148.583589
9.900000	-0.498528	-149.304489	-23.417781	-32.034844	-23.417781	-32.034844	-0.498272	-149.249512
9.950000	-0.504770	-149.972194	-23.358108	-32.535178	-23.358108	-32.535178	-0.504512	-149.916771
10.000000	-0.511017	-150.639900	-23.298841	-33.035512	-23.298841	-33.035512	-0.510755	-150.584031
