! freq	dB(S11)	phase(S11)	dB(S12)	phase(S12)	
!     	dB(S21)	phase(S21)	dB(S22)	phase(S22)	
!S-par simulation data
#  GHz  S  DB  R 50
0.000000	-0.000000	0.000000	-330.570567	0.000000	-330.570567	0.000000	-0.000000	0.000000
0.050000	-0.000116	-0.941520	-63.565617	89.004624	-63.565617	89.004624	-0.000116	-0.942110
0.100000	-0.000459	-1.882762	-57.548546	88.011901	-57.548546	88.011901	-0.000460	-1.883941
0.150000	-0.001017	-2.823466	-54.032370	87.024126	-54.032370	87.024126	-0.001018	-2.825235
0.200000	-0.001770	-3.763414	-51.541030	86.042929	-51.541030	86.042929	-0.001771	-3.765771
0.250000	-0.002704	-4.702352	-49.612069	85.069850	-49.612069	85.069850	-0.002707	-4.705296
0.300000	-0.003779	-5.640222	-48.038695	84.104556	-48.038695	84.104556	-0.003782	-5.643752
0.350000	-0.004975	-6.576879	-46.710976	83.147254	-46.710976	83.147254	-0.004980	-6.580995
0.400000	-0.006266	-7.512253	-45.563102	82.197474	-45.563102	82.197474	-0.006273	-7.516952
0.450000	-0.007631	-8.446306	-44.552596	81.254523	-44.552596	81.254523	-0.007638	-8.451587
0.500000	-0.009046	-9.379024	-43.650449	80.317613	-43.650449	80.317613	-0.009055	-9.384885
0.550000	-0.010495	-10.310414	-42.835980	79.385951	-42.835980	79.385951	-0.010505	-10.316854
0.600000	-0.011962	-11.240493	-42.093930	78.458795	-42.093930	78.458795	-0.011974	-11.247511
0.650000	-0.013436	-12.169286	-41.412727	77.535495	-41.412727	77.535495	-0.013450	-12.176881
0.700000	-0.014909	-13.096820	-40.783389	76.615497	-40.783389	76.615497	-0.014924	-13.104990
0.750000	-0.016373	-14.023122	-40.198807	75.698349	-40.198807	75.698349	-0.016389	-14.031864
0.800000	-0.017824	-14.948212	-39.653260	74.783690	-39.653260	74.783690	-0.017841	-14.957527
0.850000	-0.019259	-15.872110	-39.142076	73.871244	-39.142076	73.871244	-0.019278	-15.881996
0.900000	-0.020677	-16.794828	-38.661390	72.960804	-38.661390	72.960804	-0.020697	-16.805284
0.950000	-0.022077	-17.716373	-38.207968	72.052220	-38.207968	72.052220	-0.022099	-17.727397
1.000000	-0.023459	-18.636746	-37.779076	71.145394	-37.779076	71.145394	-0.023482	-18.648337
1.050000	-0.024824	-19.555944	-37.372383	70.240263	-37.372383	70.240263	-0.024849	-19.568101
1.100000	-0.026174	-20.473960	-36.985885	69.336798	-36.985885	69.336798	-0.026200	-20.486681
1.150000	-0.027508	-21.390780	-36.617844	68.434995	-36.617844	68.434995	-0.027535	-21.404064
1.200000	-0.028830	-22.306389	-36.266744	67.534867	-36.266744	67.534867	-0.028858	-22.320235
1.250000	-0.030139	-23.220769	-35.931256	66.636445	-35.931256	66.636445	-0.030169	-23.235175
1.300000	-0.031437	-24.133842	-35.610295	65.739848	-35.610295	65.739848	-0.031468	-24.148808
1.350000	-0.032727	-25.045640	-35.302729	64.845054	-35.302729	64.845054	-0.032758	-25.061163
1.400000	-0.034008	-25.956137	-35.007631	63.952122	-35.007631	63.952122	-0.034041	-25.972216
1.450000	-0.035283	-26.865306	-34.724167	63.061115	-34.724167	63.061115	-0.035317	-26.881940
1.500000	-0.036551	-27.773122	-34.451591	62.172101	-34.451591	62.172101	-0.036587	-27.790310
1.550000	-0.037816	-28.679557	-34.189227	61.285149	-34.189227	61.285149	-0.037852	-28.697296
1.600000	-0.039076	-29.584583	-33.936463	60.400330	-33.936463	60.400330	-0.039114	-29.602872
1.650000	-0.040334	-30.488172	-33.692744	59.517717	-33.692744	59.517717	-0.040372	-30.507010
1.700000	-0.041589	-31.390295	-33.457561	58.637384	-33.457561	58.637384	-0.041629	-31.409681
1.750000	-0.042843	-32.290926	-33.230451	57.759405	-33.230451	57.759405	-0.042884	-32.310857
1.800000	-0.044095	-33.190037	-33.010988	56.883853	-33.010988	56.883853	-0.044138	-33.210511
1.850000	-0.045348	-34.087599	-32.798780	56.010800	-32.798780	56.010800	-0.045391	-34.108616
1.900000	-0.046600	-34.983587	-32.593466	55.140320	-32.593466	55.140320	-0.046644	-35.005144
1.950000	-0.047853	-35.877973	-32.394713	54.272485	-32.394713	54.272485	-0.047898	-35.900070
2.000000	-0.049107	-36.770733	-32.202210	53.407366	-32.202210	53.407366	-0.049153	-36.793367
2.050000	-0.050362	-37.661841	-32.015671	52.545032	-32.015671	52.545032	-0.050410	-37.685010
2.100000	-0.051619	-38.551271	-31.834828	51.685553	-31.834828	51.685553	-0.051668	-38.574975
2.150000	-0.052878	-39.439001	-31.659431	50.828997	-31.659431	50.828997	-0.052927	-39.463237
2.200000	-0.054139	-40.325006	-31.489248	49.975431	-31.489248	49.975431	-0.054189	-40.349772
2.250000	-0.055402	-41.209265	-31.324061	49.124919	-31.324061	49.124919	-0.055454	-41.234560
2.300000	-0.056669	-42.091754	-31.163665	48.277527	-31.163665	48.277527	-0.056722	-42.117576
2.350000	-0.057938	-42.972454	-31.007868	47.433317	-31.007868	47.433317	-0.057993	-42.998801
2.400000	-0.059212	-43.851343	-30.856488	46.592351	-30.856488	46.592351	-0.059267	-43.878213
2.450000	-0.060489	-44.728401	-30.709357	45.754690	-30.709357	45.754690	-0.060545	-44.755792
2.500000	-0.061770	-45.603609	-30.566312	44.920392	-30.566312	44.920392	-0.061827	-45.631521
2.550000	-0.063055	-46.476867	-30.427273	44.089666	-30.427273	44.089666	-0.063114	-46.505297
2.600000	-0.064345	-47.348238	-30.292022	43.262422	-30.292022	43.262422	-0.064405	-47.377184
2.650000	-0.065641	-48.217706	-30.160424	42.438715	-30.160424	42.438715	-0.065701	-48.247166
2.700000	-0.066941	-49.085253	-30.032348	41.618598	-30.032348	41.618598	-0.067003	-49.115226
2.750000	-0.068247	-49.950864	-29.907672	40.802122	-29.907672	40.802122	-0.068310	-49.981348
2.800000	-0.069559	-50.814526	-29.786278	39.989339	-29.786278	39.989339	-0.069623	-50.845519
2.850000	-0.070877	-51.676224	-29.668055	39.180296	-29.668055	39.180296	-0.070943	-51.707724
2.900000	-0.072202	-52.535944	-29.552894	38.375041	-29.552894	38.375041	-0.072268	-52.567950
2.950000	-0.073534	-53.393675	-29.440696	37.573620	-29.440696	37.573620	-0.073601	-53.426185
3.000000	-0.074872	-54.249405	-29.331361	36.776078	-29.331361	36.776078	-0.074941	-54.282417
3.050000	-0.076219	-55.103122	-29.224797	35.982458	-29.224797	35.982458	-0.076289	-55.136634
3.100000	-0.077574	-55.954816	-29.120914	35.192801	-29.120914	35.192801	-0.077645	-55.988828
3.150000	-0.078936	-56.804478	-29.019626	34.407147	-29.019626	34.407147	-0.079009	-56.838987
3.200000	-0.080308	-57.652099	-28.920850	33.625534	-28.920850	33.625534	-0.080382	-57.687103
3.250000	-0.081689	-58.497670	-28.824508	32.848000	-28.824508	32.848000	-0.081764	-58.533168
3.300000	-0.083079	-59.341185	-28.730523	32.074580	-28.730523	32.074580	-0.083155	-59.377174
3.350000	-0.084480	-60.182635	-28.638821	31.305309	-28.638821	31.305309	-0.084557	-60.219115
3.400000	-0.085890	-61.022015	-28.549331	30.540218	-28.549331	30.540218	-0.085969	-61.058984
3.450000	-0.087312	-61.859319	-28.461984	29.779339	-28.461984	29.779339	-0.087391	-61.896776
3.500000	-0.088745	-62.694543	-28.376716	29.022702	-28.376716	29.022702	-0.088825	-62.732486
3.550000	-0.090189	-63.527683	-28.293460	28.270333	-28.293460	28.270333	-0.090271	-63.566109
3.600000	-0.091645	-64.358734	-28.212156	27.522260	-28.212156	27.522260	-0.091729	-64.397643
3.650000	-0.093114	-65.187694	-28.132744	26.778508	-28.132744	26.778508	-0.093199	-65.227084
3.700000	-0.094596	-66.014561	-28.055165	26.039100	-28.055165	26.039100	-0.094682	-66.054431
3.750000	-0.096091	-66.839333	-27.979363	25.304058	-27.979363	25.304058	-0.096178	-66.879682
3.800000	-0.097601	-67.661918	-27.905329	24.573594	-27.905329	24.573594	-0.097689	-67.702744
3.850000	-0.099125	-68.482407	-27.832962	23.847537	-27.832962	23.847537	-0.099214	-68.523709
3.900000	-0.100663	-69.300801	-27.762210	23.125904	-27.762210	23.125904	-0.100754	-69.342577
3.950000	-0.102217	-70.117100	-27.693023	22.408710	-27.693023	22.408710	-0.102310	-70.159349
4.000000	-0.103787	-70.931306	-27.625351	21.695970	-27.625351	21.695970	-0.103880	-70.974027
4.050000	-0.105373	-71.743422	-27.559148	20.987696	-27.559148	20.987696	-0.105468	-71.786613
4.100000	-0.106975	-72.553450	-27.494366	20.283899	-27.494366	20.283899	-0.107071	-72.597111
4.150000	-0.108594	-73.361394	-27.430960	19.584589	-27.430960	19.584589	-0.108692	-73.405523
4.200000	-0.110231	-74.167258	-27.368886	18.889773	-27.368886	18.889773	-0.110330	-74.211854
4.250000	-0.111886	-74.971046	-27.308101	18.199459	-27.308101	18.199459	-0.111987	-75.016108
4.300000	-0.113560	-75.772764	-27.248562	17.513650	-27.248562	17.513650	-0.113662	-75.818291
4.350000	-0.115252	-76.572417	-27.190228	16.832350	-27.190228	16.832350	-0.115356	-76.618408
4.400000	-0.116964	-77.370012	-27.133058	16.155561	-27.133058	16.155561	-0.117069	-77.416466
4.450000	-0.118696	-78.165556	-27.077014	15.483282	-27.077014	15.483282	-0.118802	-78.212472
4.500000	-0.120447	-78.959055	-27.022055	14.815513	-27.022055	14.815513	-0.120555	-79.006433
4.550000	-0.122220	-79.750520	-26.968145	14.152251	-26.968145	14.152251	-0.122330	-79.798358
4.600000	-0.124018	-80.539607	-26.915358	13.494271	-26.915358	13.494271	-0.124129	-80.587904
4.650000	-0.125838	-81.326588	-26.863571	12.840981	-26.863571	12.840981	-0.125951	-81.375345
4.700000	-0.127671	-82.112525	-26.812412	12.190029	-26.812412	12.190029	-0.127785	-82.161740
4.750000	-0.129538	-82.895331	-26.762508	11.546089	-26.762508	11.546089	-0.129654	-82.945004
4.800000	-0.131414	-83.677449	-26.713085	10.903699	-26.713085	10.903699	-0.131531	-83.727579
4.850000	-0.133331	-84.456126	-26.664916	10.269057	-26.664916	10.269057	-0.133450	-84.506712
4.900000	-0.135252	-85.234464	-26.617102	9.635185	-26.617102	9.635185	-0.135372	-85.285506
4.950000	-0.137220	-86.009065	-26.570526	9.009774	-26.570526	9.009774	-0.137342	-86.060562
5.000000	-0.139188	-86.783665	-26.524199	8.384363	-26.524199	8.384363	-0.139311	-86.835618
5.050000	-0.141208	-87.554244	-26.479077	7.768101	-26.479077	7.768101	-0.141334	-87.606652
5.100000	-0.143230	-88.324824	-26.434189	7.151839	-26.434189	7.151839	-0.143356	-88.377686
5.150000	-0.145301	-89.091773	-26.390317	6.543871	-26.390317	6.543871	-0.145429	-89.145089
5.200000	-0.147377	-89.858392	-26.346736	5.936657	-26.346736	5.936657	-0.147507	-89.912162
5.250000	-0.149500	-90.621763	-26.304000	5.336886	-26.304000	5.336886	-0.149633	-90.675987
5.300000	-0.151634	-91.384486	-26.261598	4.738604	-26.261598	4.738604	-0.151768	-91.439163
5.350000	-0.153811	-92.144337	-26.219888	4.146920	-26.219888	4.146920	-0.153947	-92.199468
5.400000	-0.156003	-92.903232	-26.178540	3.557436	-26.178540	3.557436	-0.156141	-92.958817
5.450000	-0.158236	-93.659622	-26.137751	2.973714	-26.137751	2.973714	-0.158375	-93.715661
5.500000	-0.160489	-94.414761	-26.097334	2.392874	-26.097334	2.392874	-0.160631	-94.471253
5.550000	-0.162779	-95.167753	-26.057362	1.816976	-26.057362	1.816976	-0.162922	-95.224700
5.600000	-0.165096	-95.919212	-26.017757	1.244608	-26.017757	1.244608	-0.165241	-95.976613
5.650000	-0.167444	-96.668871	-25.978503	0.676379	-25.978503	0.676379	-0.167591	-96.726726
5.700000	-0.169825	-97.416730	-25.939594	0.112290	-25.939594	0.112290	-0.169974	-97.475040
5.750000	-0.172234	-98.163123	-25.900959	-0.448439	-25.900959	-0.448439	-0.172385	-98.221888
5.800000	-0.174682	-98.907465	-25.862635	-1.004462	-25.862635	-1.004462	-0.174835	-98.966686
5.850000	-0.177153	-99.650663	-25.824524	-1.557876	-25.824524	-1.557876	-0.177308	-99.710341
5.900000	-0.179670	-100.391575	-25.786672	-2.106070	-25.786672	-2.106070	-0.179826	-100.451709
5.950000	-0.182204	-101.131651	-25.748995	-2.652372	-25.748995	-2.652372	-0.182363	-101.192242
6.000000	-0.184791	-101.869222	-25.711508	-3.192996	-25.711508	-3.192996	-0.184952	-101.930271
6.050000	-0.187391	-102.606251	-25.674173	-3.732405	-25.674173	-3.732405	-0.187554	-102.667760
6.100000	-0.190050	-103.340574	-25.636948	-4.265741	-25.636948	-4.265741	-0.190215	-103.402543
6.150000	-0.192717	-104.074635	-25.599869	-4.798496	-25.599869	-4.798496	-0.192884	-104.137064
6.200000	-0.195450	-104.805807	-25.562804	-5.324853	-25.562804	-5.324853	-0.195620	-104.868697
6.250000	-0.198185	-105.536979	-25.525897	-5.851210	-25.525897	-5.851210	-0.198357	-105.600331
6.300000	-0.200995	-106.265099	-25.488893	-6.370920	-25.488893	-6.370920	-0.201169	-106.328915
6.350000	-0.203806	-106.993218	-25.452047	-6.890631	-25.452047	-6.890631	-0.203982	-107.057499
6.400000	-0.206687	-107.718633	-25.415039	-7.404580	-25.415039	-7.404580	-0.206865	-107.783380
6.450000	-0.209576	-108.443803	-25.378160	-7.918004	-25.378160	-7.918004	-0.209756	-108.509016
6.500000	-0.212530	-109.166601	-25.341072	-8.426513	-25.341072	-8.426513	-0.212713	-109.232283
6.550000	-0.215499	-109.888925	-25.304070	-8.934038	-25.304070	-8.934038	-0.215684	-109.955076
6.600000	-0.218528	-110.609196	-25.266830	-9.437448	-25.266830	-9.437448	-0.218715	-110.675818
6.650000	-0.221578	-111.328782	-25.229618	-9.939486	-25.229618	-9.939486	-0.221767	-111.395877
6.700000	-0.224683	-112.046616	-25.192157	-10.438161	-25.192157	-10.438161	-0.224875	-112.114186
6.750000	-0.227816	-112.763575	-25.154654	-10.935153	-25.154654	-10.935153	-0.228011	-112.831620
6.800000	-0.230999	-113.479067	-25.116907	-11.429474	-25.116907	-11.429474	-0.231196	-113.547590
6.850000	-0.234218	-114.193511	-25.079035	-11.921886	-25.079035	-11.921886	-0.234417	-114.262513
6.900000	-0.237479	-114.906756	-25.040941	-12.412254	-25.040941	-12.412254	-0.237681	-114.976239
6.950000	-0.240785	-115.618801	-25.002628	-12.900579	-25.002628	-12.900579	-0.240989	-115.688767
7.000000	-0.244127	-116.329895	-24.964131	-13.387414	-24.964131	-13.387414	-0.244333	-116.400346
7.050000	-0.247521	-117.039659	-24.925311	-13.872165	-24.925311	-13.872165	-0.247730	-117.110597
7.100000	-0.250945	-117.748703	-24.886358	-14.355903	-24.886358	-14.355903	-0.251156	-117.820130
7.150000	-0.254429	-118.456306	-24.846971	-14.837618	-24.846971	-14.837618	-0.254643	-118.528224
7.200000	-0.257937	-119.163400	-24.807516	-15.318712	-24.807516	-15.318712	-0.258153	-119.235811
7.250000	-0.261513	-119.868965	-24.767507	-15.797946	-24.767507	-15.797946	-0.261732	-119.941873
7.300000	-0.265105	-120.574212	-24.727508	-16.276862	-24.727508	-16.276862	-0.265327	-120.647616
7.350000	-0.268774	-121.277864	-24.686831	-16.754187	-24.686831	-16.754187	-0.268999	-121.351770
7.400000	-0.272453	-121.981368	-24.646252	-17.231401	-24.646252	-17.231401	-0.272680	-122.055776
7.450000	-0.276218	-122.683235	-24.604866	-17.707399	-24.604866	-17.707399	-0.276447	-122.758150
7.500000	-0.279984	-123.385103	-24.563677	-18.183398	-24.563677	-18.183398	-0.280216	-123.460524
7.550000	-0.283845	-124.085315	-24.521552	-18.658659	-24.521552	-18.658659	-0.284080	-124.161248
7.600000	-0.287708	-124.785526	-24.479629	-19.133920	-24.479629	-19.133920	-0.287946	-124.861972
7.650000	-0.291660	-125.484342	-24.436838	-19.609048	-24.436838	-19.609048	-0.291900	-125.561306
7.700000	-0.295622	-126.183031	-24.394160	-20.084164	-24.394160	-20.084164	-0.295865	-126.260513
7.750000	-0.299665	-126.880562	-24.350692	-20.559647	-24.350692	-20.559647	-0.299911	-126.958568
7.800000	-0.303727	-127.577862	-24.307242	-21.035203	-24.307242	-21.035203	-0.303975	-127.656393
7.850000	-0.307864	-128.274223	-24.263093	-21.511522	-24.263093	-21.511522	-0.308115	-128.353284
7.900000	-0.312027	-128.970271	-24.218863	-21.988094	-24.218863	-21.988094	-0.312280	-129.049863
7.950000	-0.316258	-129.665577	-24.174035	-22.465717	-24.174035	-22.465717	-0.316514	-129.745705
8.000000	-0.320524	-130.360512	-24.129027	-22.943865	-24.129027	-22.943865	-0.320783	-130.441178
8.050000	-0.324850	-131.054880	-24.083527	-23.423242	-24.083527	-23.423242	-0.325112	-131.136088
8.100000	-0.329221	-131.748843	-24.037749	-23.903499	-24.037749	-23.903499	-0.329486	-131.830597
8.150000	-0.333644	-132.442392	-23.991590	-24.385061	-23.991590	-24.385061	-0.333912	-132.524695
8.200000	-0.338121	-133.135527	-23.945057	-24.867930	-23.945057	-24.867930	-0.338391	-133.218384
8.250000	-0.342642	-133.828378	-23.898257	-25.352081	-23.898257	-25.352081	-0.342915	-133.911791
8.300000	-0.347225	-134.520831	-23.850992	-25.838026	-23.850992	-25.838026	-0.347502	-134.604804
8.350000	-0.351846	-135.213106	-23.803574	-26.325139	-23.803574	-26.325139	-0.352125	-135.297643
8.400000	-0.356538	-135.905024	-23.755603	-26.814584	-23.755603	-26.814584	-0.356820	-135.990131
8.450000	-0.361259	-136.596847	-23.707595	-27.304998	-23.707595	-27.304998	-0.361544	-136.682525
8.500000	-0.366061	-137.288382	-23.658952	-27.798316	-23.658952	-27.798316	-0.366349	-137.374638
8.550000	-0.370883	-137.979879	-23.610382	-28.292334	-23.610382	-28.292334	-0.371174	-138.066715
8.600000	-0.375796	-138.671184	-23.561102	-28.789846	-23.561102	-28.789846	-0.376090	-138.758606
8.650000	-0.380721	-139.362482	-23.512004	-29.287729	-23.512004	-29.287729	-0.381018	-139.450492
8.700000	-0.385746	-140.053712	-23.462126	-29.789700	-23.462126	-29.789700	-0.386046	-140.142318
8.750000	-0.390775	-140.744941	-23.412533	-30.291670	-23.412533	-30.291670	-0.391077	-140.834144
8.800000	-0.395913	-141.436253	-23.362096	-30.798306	-23.362096	-30.798306	-0.396219	-141.526062
8.850000	-0.401055	-142.127566	-23.311950	-31.304942	-23.311950	-31.304942	-0.401363	-142.217980
8.900000	-0.406299	-142.819101	-23.261085	-31.815992	-23.261085	-31.815992	-0.406610	-142.910131
8.950000	-0.411555	-143.510656	-23.210425	-32.327444	-23.210425	-32.327444	-0.411869	-143.602302
9.000000	-0.416905	-144.202549	-23.159164	-32.842985	-23.159164	-32.842985	-0.417222	-144.294820
9.050000	-0.422277	-144.894511	-23.108026	-33.359345	-23.108026	-33.359345	-0.422597	-144.987408
9.100000	-0.427734	-145.586900	-23.056400	-33.879416	-23.056400	-33.879416	-0.428057	-145.680432
9.150000	-0.433222	-146.279433	-23.004817	-34.400724	-23.004817	-34.400724	-0.433548	-146.373602
9.200000	-0.438787	-146.972459	-22.952851	-34.925325	-22.952851	-34.925325	-0.439116	-147.067273
9.250000	-0.444392	-147.665731	-22.900851	-35.451572	-22.900851	-35.451572	-0.444724	-147.761193
9.300000	-0.450066	-148.359534	-22.848567	-35.980669	-22.848567	-35.980669	-0.450401	-148.455652
9.350000	-0.455789	-149.053717	-22.796173	-36.511803	-22.796173	-36.511803	-0.456127	-149.150495
9.400000	-0.461571	-149.748442	-22.743587	-37.045335	-22.743587	-37.045335	-0.461912	-149.845885
9.450000	-0.467413	-150.443709	-22.690814	-37.581266	-22.690814	-37.581266	-0.467757	-150.541824
9.500000	-0.473305	-151.139501	-22.637938	-38.119146	-22.637938	-38.119146	-0.473652	-151.238293
9.550000	-0.479266	-151.836028	-22.584792	-38.659756	-22.584792	-38.659756	-0.479615	-151.935505
9.600000	-0.485268	-152.533036	-22.531629	-39.201881	-22.531629	-39.201881	-0.485620	-152.633201
9.650000	-0.491348	-153.231003	-22.478110	-39.747033	-22.478110	-39.747033	-0.491703	-153.331866
9.700000	-0.497461	-153.929376	-22.424658	-40.293284	-22.424658	-40.293284	-0.497818	-154.030939
9.750000	-0.503661	-154.628966	-22.370754	-40.842831	-22.370754	-40.842831	-0.504021	-154.731239
9.800000	-0.509883	-155.328857	-22.317004	-41.393085	-22.317004	-41.393085	-0.510247	-155.431843
9.850000	-0.516203	-156.030255	-22.262695	-41.946875	-22.262695	-41.946875	-0.516569	-156.133964
9.900000	-0.522537	-156.731819	-22.208630	-42.501008	-22.208630	-42.501008	-0.522906	-156.836253
9.950000	-0.528977	-157.435214	-22.153884	-43.058901	-22.153884	-43.058901	-0.529348	-157.540385
10.000000	-0.535421	-158.138608	-22.099482	-43.616795	-22.099482	-43.616795	-0.535795	-158.244517
