! freq	dB(S11)	phase(S11)	dB(S12)	phase(S12)	
!     	dB(S21)	phase(S21)	dB(S22)	phase(S22)	
!S-par simulation data
#  GHz  S  DB  R 50
0.000000	0.000000	0.000000	-319.572841	180.000000	-319.572841	180.000000	-0.000000	0.000000
0.050000	-0.000107	-0.866417	-66.836133	88.878522	-66.836133	88.878522	-0.000107	-0.866882
0.100000	-0.000424	-1.732576	-60.838035	87.814568	-60.838035	87.814568	-0.000424	-1.733506
0.150000	-0.000938	-2.598241	-57.344794	86.829689	-57.344794	86.829689	-0.000939	-2.599635
0.200000	-0.001631	-3.463211	-54.874541	85.912486	-54.874541	85.912486	-0.001633	-3.465067
0.250000	-0.002489	-4.327257	-52.962561	85.043922	-52.962561	85.043922	-0.002492	-4.329575
0.300000	-0.003475	-5.190331	-51.401339	84.200580	-51.401339	84.200580	-0.003478	-5.193110
0.350000	-0.004569	-6.052308	-50.081845	83.371750	-50.081845	83.371750	-0.004574	-6.055545
0.400000	-0.005748	-6.913129	-48.939141	82.549577	-48.939141	82.549577	-0.005754	-6.916824
0.450000	-0.006990	-7.772769	-47.931569	81.729700	-47.931569	81.729700	-0.006997	-7.776921
0.500000	-0.008276	-8.631225	-47.030789	80.909874	-47.030789	80.909874	-0.008284	-8.635831
0.550000	-0.009589	-9.488510	-46.216625	80.089060	-46.216625	80.089060	-0.009598	-9.493570
0.600000	-0.010916	-10.344648	-45.474188	79.266877	-45.474188	79.266877	-0.010926	-10.350161
0.650000	-0.012246	-11.199670	-44.792172	78.443298	-44.792172	78.443298	-0.012258	-11.205634
0.700000	-0.013572	-12.053604	-44.161778	77.618472	-44.161778	77.618472	-0.013585	-12.060019
0.750000	-0.014889	-12.906481	-43.576025	76.792629	-43.576025	76.792629	-0.014903	-12.913345
0.800000	-0.016191	-13.758326	-43.029279	75.966033	-43.029279	75.966033	-0.016206	-13.765638
0.850000	-0.017478	-14.609159	-42.516924	75.138952	-42.516924	75.138952	-0.017494	-14.616918
0.900000	-0.018747	-15.458995	-42.035131	74.311646	-42.035131	74.311646	-0.018764	-15.467201
0.950000	-0.020000	-16.307844	-41.580689	73.484362	-41.580689	73.484362	-0.020018	-16.316495
1.000000	-0.021235	-17.155711	-41.150879	72.657329	-41.150879	72.657329	-0.021254	-17.164806
1.050000	-0.022454	-18.002594	-40.743376	71.830761	-40.743376	71.830761	-0.022474	-18.012133
1.100000	-0.023658	-18.848491	-40.356176	71.004855	-40.356176	71.004855	-0.023679	-18.858471
1.150000	-0.024849	-19.693391	-39.987542	70.179794	-39.987542	70.179794	-0.024870	-19.703812
1.200000	-0.026026	-20.537283	-39.635957	69.355749	-39.635957	69.355749	-0.026049	-20.548144
1.250000	-0.027193	-21.380153	-39.300088	68.532880	-39.300088	68.532880	-0.027216	-21.391453
1.300000	-0.028349	-22.221938	-38.978848	67.711400	-38.978848	67.711400	-0.028373	-22.233675
1.350000	-0.029496	-23.062663	-38.671099	66.891397	-38.671099	66.891397	-0.029521	-23.074836
1.400000	-0.030636	-23.902308	-38.375909	66.073003	-38.375909	66.073003	-0.030662	-23.914915
1.450000	-0.031769	-24.740851	-38.092441	65.256343	-38.092441	65.256343	-0.031796	-24.753892
1.500000	-0.032897	-25.578271	-37.819944	64.441537	-37.819944	64.441537	-0.032925	-25.591744
1.550000	-0.034020	-26.414544	-37.557739	63.628698	-37.557739	63.628698	-0.034049	-26.428447
1.600000	-0.035140	-27.249647	-37.305211	62.817937	-37.305211	62.817937	-0.035170	-27.263980
1.650000	-0.036257	-28.083557	-37.061800	62.009358	-37.061800	62.009358	-0.036287	-28.098317
1.700000	-0.037370	-28.915816	-36.827702	61.203904	-36.827702	61.203904	-0.037402	-28.931001
1.750000	-0.038483	-29.747431	-36.600764	60.399677	-36.600764	60.399677	-0.038515	-29.763042
1.800000	-0.039595	-30.577496	-36.381993	59.598512	-36.381993	59.598512	-0.039628	-30.593530
1.850000	-0.040705	-31.406454	-36.170264	58.799536	-36.170264	58.799536	-0.040739	-31.422909
1.900000	-0.041816	-32.234033	-35.965595	58.003381	-35.965595	58.003381	-0.041851	-32.250908
1.950000	-0.042927	-33.060233	-35.767614	57.210050	-35.767614	57.210050	-0.042962	-33.077527
2.000000	-0.044038	-33.885244	-35.575707	56.419226	-35.575707	56.419226	-0.044074	-33.902954
2.050000	-0.045150	-34.708589	-35.390224	55.631913	-35.390224	55.631913	-0.045187	-34.726714
2.100000	-0.046263	-35.531201	-35.209597	54.846180	-35.209597	54.846180	-0.046301	-35.549740
2.150000	-0.047378	-36.351909	-35.035133	54.064561	-35.035133	54.064561	-0.047417	-36.370860
2.200000	-0.048495	-37.171178	-34.865938	53.286100	-34.865938	53.286100	-0.048535	-37.190539
2.250000	-0.049614	-37.988987	-34.701793	52.510876	-34.701793	52.510876	-0.049655	-38.008756
2.300000	-0.050735	-38.805316	-34.542494	51.738964	-34.542494	51.738964	-0.050777	-38.825491
2.350000	-0.051860	-39.620146	-34.387848	50.970438	-34.387848	50.970438	-0.051902	-39.640726
2.400000	-0.052987	-40.433460	-34.237674	50.205370	-34.237674	50.205370	-0.053030	-40.454443
2.450000	-0.054118	-41.245238	-34.091800	49.443833	-34.091800	49.443833	-0.054162	-41.266622
2.500000	-0.055252	-42.055463	-33.950067	48.685896	-33.950067	48.685896	-0.055297	-42.077247
2.550000	-0.056391	-42.864050	-33.812396	47.931791	-33.812396	47.931791	-0.056436	-42.886231
2.600000	-0.057533	-43.671049	-33.678568	47.181428	-33.678568	47.181428	-0.057580	-43.693626
2.650000	-0.058681	-44.476445	-33.548444	46.434875	-33.548444	46.434875	-0.058728	-44.499416
2.700000	-0.059833	-45.280221	-33.421896	45.692197	-33.421896	45.692197	-0.059881	-45.303585
2.750000	-0.060990	-46.082365	-33.298800	44.953457	-33.298800	44.953457	-0.061040	-46.106118
2.800000	-0.062153	-46.882860	-33.179039	44.218718	-33.179039	44.218718	-0.062204	-46.907002
2.850000	-0.063322	-47.681694	-33.062500	43.488043	-33.062500	43.488043	-0.063373	-47.706223
2.900000	-0.064497	-48.478854	-32.949078	42.761490	-32.949078	42.761490	-0.064549	-48.503767
2.950000	-0.065679	-49.274325	-32.838670	42.039121	-32.838670	42.039121	-0.065732	-49.299622
3.000000	-0.066867	-50.068098	-32.731179	41.320994	-32.731179	41.320994	-0.066921	-50.093775
3.050000	-0.068063	-50.860159	-32.626511	40.607165	-32.626511	40.607165	-0.068117	-50.886215
3.100000	-0.069266	-51.650497	-32.524576	39.897691	-32.524576	39.897691	-0.069321	-51.676931
3.150000	-0.070477	-52.439103	-32.425288	39.192627	-32.425288	39.192627	-0.070533	-52.465913
3.200000	-0.071696	-53.225965	-32.328565	38.492026	-32.328565	38.492026	-0.071754	-53.253149
3.250000	-0.072925	-54.011075	-32.234328	37.795942	-32.234328	37.795942	-0.072983	-54.038631
3.300000	-0.074162	-54.794424	-32.142499	37.104426	-32.142499	37.104426	-0.074221	-54.822350
3.350000	-0.075410	-55.575692	-32.053240	36.418347	-32.053240	36.418347	-0.075470	-55.603986
3.400000	-0.076669	-56.355104	-31.966299	35.737140	-31.966299	35.737140	-0.076730	-56.383764
3.450000	-0.077933	-57.133582	-31.880907	35.058413	-31.880907	35.058413	-0.077995	-57.162608
3.500000	-0.079213	-57.909257	-31.798390	34.387124	-31.798390	34.387124	-0.079276	-57.938645
3.550000	-0.080498	-58.684304	-31.717091	33.717522	-31.717091	33.717522	-0.080562	-58.714054
3.600000	-0.081802	-59.456214	-31.638731	33.056351	-31.638731	33.056351	-0.081867	-59.486322
3.650000	-0.083109	-60.227808	-31.561284	32.396038	-31.561284	32.396038	-0.083174	-60.258274
3.700000	-0.084439	-60.995929	-31.486829	31.745172	-31.486829	31.745172	-0.084505	-61.026751
3.750000	-0.085769	-61.764051	-31.413007	31.094305	-31.413007	31.094305	-0.085836	-61.795227
3.800000	-0.087126	-62.528366	-31.342218	30.453920	-31.342218	30.453920	-0.087194	-62.559894
3.850000	-0.088483	-63.292681	-31.272002	29.813535	-31.272002	29.813535	-0.088552	-63.324561
3.900000	-0.089867	-64.053494	-31.204459	29.182908	-31.204459	29.182908	-0.089937	-64.085722
3.950000	-0.091253	-64.813989	-31.137628	28.553169	-31.137628	28.553169	-0.091325	-64.846565
4.000000	-0.092665	-65.571292	-31.073134	27.932429	-31.073134	27.932429	-0.092738	-65.604213
4.050000	-0.094083	-66.327957	-31.009478	27.313489	-31.009478	27.313489	-0.094156	-66.361223
4.100000	-0.095525	-67.081747	-30.947844	26.702753	-30.947844	26.702753	-0.095599	-67.115354
4.150000	-0.096975	-67.834577	-30.887161	26.094752	-30.887161	26.094752	-0.097051	-67.868526
4.200000	-0.098448	-68.584851	-30.828208	25.494129	-30.828208	25.494129	-0.098525	-68.619139
4.250000	-0.099933	-69.333846	-30.770303	24.897194	-30.770303	24.897194	-0.100011	-69.368472
4.300000	-0.101440	-70.080607	-30.713860	24.306781	-30.713860	24.306781	-0.101518	-70.115568
4.350000	-0.102961	-70.825770	-30.658547	23.721025	-30.658547	23.721025	-0.103041	-70.861066
4.400000	-0.104502	-71.569022	-30.604449	23.140908	-30.604449	23.140908	-0.104583	-71.604651
4.450000	-0.106062	-72.310362	-30.551546	22.566430	-30.551546	22.566430	-0.106144	-72.346323
4.500000	-0.107639	-73.050113	-30.499634	21.996686	-30.499634	21.996686	-0.107722	-73.086405
4.550000	-0.109239	-73.787641	-30.448965	21.433567	-30.448965	21.433567	-0.109323	-73.824261
4.600000	-0.110853	-74.523903	-30.399086	20.874258	-30.399086	20.874258	-0.110939	-74.560851
4.650000	-0.112496	-75.257635	-30.350479	20.322565	-30.350479	20.322565	-0.112582	-75.294908
4.700000	-0.114149	-75.990423	-30.302485	19.773741	-30.302485	19.773741	-0.114237	-76.028021
4.750000	-0.115836	-76.720378	-30.255774	19.233521	-30.255774	19.233521	-0.115925	-76.758300
4.800000	-0.117530	-77.449708	-30.209521	18.695218	-30.209521	18.695218	-0.117620	-77.487952
4.850000	-0.119262	-78.175911	-30.164542	18.166499	-30.164542	18.166499	-0.119353	-78.214475
4.900000	-0.120999	-78.901804	-30.119889	17.638739	-30.119889	17.638739	-0.121091	-78.940688
4.950000	-0.122778	-79.624281	-30.076482	17.121528	-30.076482	17.121528	-0.122872	-79.663484
5.000000	-0.124559	-80.346759	-30.033292	16.604316	-30.033292	16.604316	-0.124654	-80.386279
5.050000	-0.126388	-81.065543	-29.991300	16.098598	-29.991300	16.098598	-0.126485	-81.105378
5.100000	-0.128218	-81.784326	-29.949511	15.592879	-29.949511	15.592879	-0.128316	-81.824477
5.150000	-0.130095	-82.499755	-29.908707	15.097658	-29.908707	15.097658	-0.130194	-82.540220
5.200000	-0.131976	-83.214879	-29.868166	14.603392	-29.868166	14.603392	-0.132076	-83.255657
5.250000	-0.133901	-83.926986	-29.828421	14.118614	-29.828421	14.118614	-0.134003	-83.968075
5.300000	-0.135836	-84.638489	-29.788978	13.635734	-29.788978	13.635734	-0.135939	-84.679889
5.350000	-0.137811	-85.347307	-29.750162	13.161322	-29.750162	13.161322	-0.137916	-85.389016
5.400000	-0.139801	-86.055229	-29.711669	12.689734	-29.711669	12.689734	-0.139907	-86.097248
5.450000	-0.141828	-86.760796	-29.673658	12.225590	-29.673658	12.225590	-0.141935	-86.803123
5.500000	-0.143874	-87.465184	-29.635968	11.765169	-29.635968	11.765169	-0.143983	-87.507818
5.550000	-0.145955	-88.167537	-29.598637	11.311171	-29.598637	11.311171	-0.146065	-88.210478
5.600000	-0.148059	-88.868438	-29.561607	10.861760	-29.561607	10.861760	-0.148171	-88.911684
5.650000	-0.150194	-89.567621	-29.524836	10.417759	-29.524836	10.417759	-0.150307	-89.611172
5.700000	-0.152360	-90.265085	-29.488323	9.979167	-29.488323	9.979167	-0.152474	-90.308941
5.750000	-0.154551	-90.961141	-29.451994	9.544988	-29.451994	9.544988	-0.154667	-91.005300
5.800000	-0.156778	-91.655223	-29.415858	9.116988	-29.415858	9.116988	-0.156896	-91.699685
5.850000	-0.159027	-92.348197	-29.379854	8.692429	-29.379854	8.692429	-0.159146	-92.392961
5.900000	-0.161318	-93.038954	-29.343959	8.274753	-29.343959	8.274753	-0.161439	-93.084020
5.950000	-0.163626	-93.728895	-29.308165	7.859582	-29.308165	7.859582	-0.163749	-93.774263
6.000000	-0.165983	-94.416387	-29.272377	7.451925	-29.272377	7.451925	-0.166107	-94.462055
6.050000	-0.168352	-95.103346	-29.236683	7.045879	-29.236683	7.045879	-0.168477	-95.149314
6.100000	-0.170776	-95.787635	-29.200871	6.647893	-29.200871	6.647893	-0.170903	-95.833903
6.150000	-0.173206	-96.471662	-29.165168	6.250680	-29.165168	6.250680	-0.173335	-96.518230
6.200000	-0.175699	-97.152814	-29.129204	5.861973	-29.129204	5.861973	-0.175830	-97.199680
6.250000	-0.178193	-97.833965	-29.093388	5.473267	-29.093388	5.473267	-0.178325	-97.881131
6.300000	-0.180757	-98.512046	-29.057148	5.093406	-29.057148	5.093406	-0.180891	-98.559511
6.350000	-0.183322	-99.190128	-29.021059	4.713545	-29.021059	4.713545	-0.183458	-99.237891
6.400000	-0.185952	-99.865459	-28.984484	4.341355	-28.984484	4.341355	-0.186090	-99.913521
6.450000	-0.188590	-100.540541	-28.948005	3.969862	-28.948005	3.969862	-0.188729	-100.588901
6.500000	-0.191288	-101.213183	-28.911001	3.604907	-28.911001	3.604907	-0.191429	-101.261841
6.550000	-0.193999	-101.885338	-28.874020	3.241260	-28.874020	3.241260	-0.194142	-101.934294
6.600000	-0.196767	-102.555353	-28.836499	2.883074	-28.836499	2.883074	-0.196911	-102.604607
6.650000	-0.199554	-103.224656	-28.798909	2.526709	-28.798909	2.526709	-0.199700	-103.274208
6.700000	-0.202392	-103.892109	-28.760789	2.174795	-28.760789	2.174795	-0.202540	-103.941959
6.750000	-0.205257	-104.558636	-28.722492	1.825107	-28.722492	1.825107	-0.205406	-104.608785
6.800000	-0.208167	-105.223592	-28.683696	1.478940	-28.683696	1.478940	-0.208319	-105.274039
6.850000	-0.211110	-105.887424	-28.644599	1.135286	-28.644599	1.135286	-0.211264	-105.938170
6.900000	-0.214094	-106.549950	-28.605057	0.794311	-28.605057	0.794311	-0.214250	-106.600994
6.950000	-0.217118	-107.211169	-28.565077	0.456014	-28.565077	0.456014	-0.217276	-107.262513
7.000000	-0.220176	-107.871334	-28.524725	0.119653	-28.524725	0.119653	-0.220336	-107.922977
7.050000	-0.223283	-108.530023	-28.483787	-0.213995	-28.483787	-0.213995	-0.223444	-108.581966
7.100000	-0.226417	-109.187898	-28.442570	-0.546339	-28.442570	-0.546339	-0.226581	-109.240141
7.150000	-0.229607	-109.844143	-28.400610	-0.876073	-28.400610	-0.876073	-0.229772	-109.896688
7.200000	-0.232819	-110.499800	-28.358479	-1.205017	-28.358479	-1.205017	-0.232986	-110.552645
7.250000	-0.236094	-111.153689	-28.315440	-1.531589	-28.315440	-1.531589	-0.236263	-111.206837
7.300000	-0.239384	-111.807201	-28.272355	-1.857762	-28.272355	-1.857762	-0.239556	-111.860651
7.350000	-0.242746	-112.458825	-28.228194	-2.181939	-28.228194	-2.181939	-0.242920	-112.512578
7.400000	-0.246117	-113.110267	-28.184122	-2.505980	-28.184122	-2.505980	-0.246292	-113.164324
7.450000	-0.249567	-113.759717	-28.138805	-2.828532	-28.138805	-2.828532	-0.249745	-113.814079
7.500000	-0.253018	-114.409166	-28.093723	-3.151084	-28.093723	-3.151084	-0.253199	-114.463833
7.550000	-0.256558	-115.056535	-28.047227	-3.472781	-28.047227	-3.472781	-0.256741	-115.111509
7.600000	-0.260099	-115.703905	-28.000978	-3.794478	-28.000978	-3.794478	-0.260284	-115.759185
7.650000	-0.263723	-116.349455	-27.953432	-4.116086	-27.953432	-4.116086	-0.263910	-116.405043
7.700000	-0.267356	-116.994839	-27.906006	-4.437685	-27.906006	-4.437685	-0.267545	-117.050736
7.750000	-0.271064	-117.638651	-27.857413	-4.759820	-27.857413	-4.759820	-0.271256	-117.694859
7.800000	-0.274789	-118.282148	-27.808808	-5.082062	-27.808808	-5.082062	-0.274983	-118.338667
7.850000	-0.278584	-118.924305	-27.759181	-5.405320	-27.759181	-5.405320	-0.278780	-118.981136
7.900000	-0.282403	-119.566015	-27.709408	-5.728916	-27.709408	-5.728916	-0.282602	-119.623158
7.950000	-0.286286	-120.206600	-27.658765	-6.053866	-27.658765	-6.053866	-0.286486	-120.264058
8.000000	-0.290200	-120.846623	-27.607843	-6.379494	-27.607843	-6.379494	-0.290403	-120.904397
8.050000	-0.294171	-121.485723	-27.556211	-6.706676	-27.556211	-6.706676	-0.294376	-121.543814
8.100000	-0.298182	-122.124162	-27.504170	-7.034968	-27.504170	-7.034968	-0.298390	-122.182572
8.150000	-0.302242	-122.761863	-27.451581	-7.364884	-27.451581	-7.364884	-0.302452	-122.820592
8.200000	-0.306351	-123.398824	-27.398457	-7.696425	-27.398457	-7.696425	-0.306564	-123.457875
8.250000	-0.310502	-124.035213	-27.344951	-8.029539	-27.344951	-8.029539	-0.310717	-124.094587
8.300000	-0.314710	-124.670803	-27.290789	-8.364855	-27.290789	-8.364855	-0.314927	-124.730501
8.350000	-0.318952	-125.305971	-27.236408	-8.701586	-27.236408	-8.701586	-0.319172	-125.365994
8.400000	-0.323261	-125.940297	-27.181259	-9.041146	-27.181259	-9.041146	-0.323483	-126.000648
8.450000	-0.327596	-126.574335	-27.126050	-9.381867	-27.126050	-9.381867	-0.327821	-126.635015
8.500000	-0.332006	-127.207508	-27.069971	-9.726070	-27.069971	-9.726070	-0.332234	-127.268519
8.550000	-0.336435	-127.840508	-27.013985	-10.071104	-27.013985	-10.071104	-0.336665	-127.901851
8.600000	-0.340947	-128.472640	-26.957034	-10.420286	-26.957034	-10.420286	-0.341180	-128.534319
8.650000	-0.345471	-129.104696	-26.900324	-10.769905	-26.900324	-10.769905	-0.345706	-129.166710
8.700000	-0.350087	-129.735902	-26.842563	-11.124329	-26.842563	-11.124329	-0.350325	-129.798255
8.750000	-0.354706	-130.367108	-26.785183	-11.478753	-26.785183	-11.478753	-0.354946	-130.429801
8.800000	-0.359427	-130.997504	-26.726673	-11.838615	-26.726673	-11.838615	-0.359670	-131.060540
8.850000	-0.364150	-131.627899	-26.668555	-12.198477	-26.668555	-12.198477	-0.364396	-131.691279
8.900000	-0.368968	-132.257660	-26.609481	-12.563439	-26.609481	-12.563439	-0.369217	-132.321388
8.950000	-0.373798	-132.887363	-26.550686	-12.928865	-26.550686	-12.928865	-0.374049	-132.951439
9.000000	-0.378714	-133.516589	-26.491101	-13.298979	-26.491101	-13.298979	-0.378968	-133.581017
9.050000	-0.383649	-134.145720	-26.431686	-13.670031	-26.431686	-13.670031	-0.383906	-134.210500
9.100000	-0.388664	-134.774513	-26.371640	-14.045300	-26.371640	-14.045300	-0.388924	-134.839650
9.150000	-0.393707	-135.403193	-26.311663	-14.421975	-26.311663	-14.421975	-0.393969	-135.468687
9.200000	-0.398821	-136.031655	-26.251201	-14.802358	-26.251201	-14.802358	-0.399086	-136.097511
9.250000	-0.403972	-136.660009	-26.190712	-15.184596	-26.190712	-15.184596	-0.404240	-136.726227
9.300000	-0.409186	-137.288245	-26.129878	-15.570014	-26.129878	-15.570014	-0.409457	-137.354830
9.350000	-0.414446	-137.916398	-26.068924	-15.957702	-26.068924	-15.957702	-0.414720	-137.983351
9.400000	-0.419761	-138.544515	-26.007754	-16.348034	-26.007754	-16.348034	-0.420037	-138.611839
9.450000	-0.425130	-139.172595	-25.946374	-16.741012	-25.946374	-16.741012	-0.425409	-139.240293
9.500000	-0.430545	-139.800700	-25.884901	-17.136109	-25.884901	-17.136109	-0.430827	-139.868775
9.550000	-0.436024	-140.428839	-25.823129	-17.534173	-25.823129	-17.534173	-0.436309	-140.497293
9.600000	-0.441541	-141.057041	-25.761378	-17.933854	-25.761378	-17.933854	-0.441829	-141.125878
9.650000	-0.447130	-141.685371	-25.699239	-18.336769	-25.699239	-18.336769	-0.447421	-141.754593
9.700000	-0.452748	-142.313781	-25.637232	-18.740830	-25.637232	-18.740830	-0.453042	-142.383392
9.750000	-0.458448	-142.942437	-25.574742	-19.148330	-25.574742	-19.148330	-0.458745	-143.012439
9.800000	-0.464168	-143.571169	-25.512493	-19.556547	-25.512493	-19.556547	-0.464468	-143.641565
9.850000	-0.469979	-144.200287	-25.449662	-19.968346	-25.449662	-19.968346	-0.470281	-144.271083
9.900000	-0.475801	-144.829456	-25.387178	-20.380478	-25.387178	-20.380478	-0.476107	-144.900651
9.950000	-0.481722	-145.459177	-25.324005	-20.796275	-25.324005	-20.796275	-0.482030	-145.530779
10.000000	-0.487647	-146.088898	-25.261288	-21.212072	-25.261288	-21.212072	-0.487958	-146.160906
