! freq	dB(S11)	phase(S11)	dB(S12)	phase(S12)	
!     	dB(S21)	phase(S21)	dB(S22)	phase(S22)	
!S-par simulation data
#  GHz  S  DB  R 50
0.000000	-90.261810	0.000000	-0.000267	0.000000	-0.000267	0.000000	-90.261810	0.000000
0.050000	-64.347527	-87.977257	-0.000403	-0.878072	-0.000403	-0.878072	-64.350442	-87.987320
0.100000	-58.340677	-90.341177	-0.000806	-1.755816	-0.000806	-1.755816	-58.343627	-90.362765
0.150000	-54.829281	-91.733411	-0.001453	-2.632938	-0.001453	-2.632938	-54.832280	-91.766191
0.200000	-52.343361	-92.883440	-0.002314	-3.509211	-0.002314	-3.509211	-52.346424	-92.927320
0.250000	-50.421811	-93.932906	-0.003361	-4.384403	-0.003361	-4.384403	-50.424956	-93.987840
0.300000	-48.857944	-94.939001	-0.004539	-5.258517	-0.004539	-5.258517	-48.861182	-95.004968
0.350000	-47.542391	-95.918682	-0.005819	-6.131483	-0.005819	-6.131483	-47.545732	-95.995672
0.400000	-46.409654	-96.882890	-0.007165	-7.003328	-0.007165	-7.003328	-46.413108	-96.970907
0.450000	-45.417514	-97.837697	-0.008548	-7.874119	-0.008548	-7.874119	-45.421086	-97.936763
0.500000	-44.537170	-98.786744	-0.009944	-8.743954	-0.009944	-8.743954	-44.540864	-98.896895
0.550000	-43.748103	-99.732334	-0.011333	-9.612944	-0.011333	-9.612944	-43.751923	-99.853629
0.600000	-43.035191	-100.675981	-0.012703	-10.481207	-0.012703	-10.481207	-43.039137	-100.808500
0.650000	-42.386969	-101.618705	-0.014043	-11.348860	-0.014043	-11.348860	-42.391041	-101.762554
0.700000	-41.794551	-102.561208	-0.015347	-12.216013	-0.015347	-12.216013	-41.798746	-102.716515
0.750000	-41.250910	-103.503971	-0.016614	-13.082767	-0.016614	-13.082767	-41.255226	-103.670894
0.800000	-40.750403	-104.447331	-0.017841	-13.949213	-0.017841	-13.949213	-40.754837	-104.626053
0.850000	-40.288433	-105.391517	-0.019031	-14.815429	-0.019031	-14.815429	-40.292982	-105.582252
0.900000	-39.861213	-106.336690	-0.020184	-15.681487	-0.020184	-15.681487	-39.865872	-106.539680
0.950000	-39.465589	-107.282961	-0.021303	-16.547444	-0.021303	-16.547444	-39.470355	-107.498477
1.000000	-39.098913	-108.230409	-0.022391	-17.413352	-0.022391	-17.413352	-39.103782	-108.458755
1.050000	-38.758946	-109.179093	-0.023451	-18.279256	-0.023451	-18.279256	-38.763915	-109.420602
1.100000	-38.443783	-110.129062	-0.024485	-19.145193	-0.024485	-19.145193	-38.448848	-110.384102
1.150000	-38.151796	-111.080362	-0.025498	-20.011194	-0.025498	-20.011194	-38.156953	-111.349335
1.200000	-37.881588	-112.033043	-0.026491	-20.877289	-0.026491	-20.877289	-37.886834	-112.316386
1.250000	-37.631959	-112.987163	-0.027468	-21.743500	-0.027468	-21.743500	-37.637291	-113.285351
1.300000	-37.402445	-113.942859	-0.028431	-22.609857	-0.028431	-22.609857	-37.407860	-114.256433
1.350000	-37.191604	-114.900155	-0.029382	-23.476372	-0.029382	-23.476372	-37.197098	-115.229678
1.400000	-36.998677	-115.859155	-0.030323	-24.343063	-0.030323	-24.343063	-37.004247	-116.205236
1.450000	-36.823017	-116.819984	-0.031256	-25.209945	-0.031256	-25.209945	-36.828660	-117.183284
1.500000	-36.664078	-117.782789	-0.032184	-26.077031	-0.032184	-26.077031	-36.669790	-118.164023
1.550000	-36.521408	-118.747743	-0.033107	-26.944334	-0.033107	-26.944334	-36.527184	-119.147688
1.600000	-36.394635	-119.715047	-0.034027	-27.811869	-0.034027	-27.811869	-36.400472	-120.134546
1.650000	-36.283468	-120.684935	-0.034945	-28.679645	-0.034945	-28.679645	-36.289359	-121.124902
1.700000	-36.187689	-121.657673	-0.035862	-29.547676	-0.035862	-29.547676	-36.193628	-122.119106
1.750000	-36.107150	-122.633567	-0.036780	-30.415973	-0.036780	-30.415973	-36.113129	-123.117551
1.800000	-36.041773	-123.612966	-0.037698	-31.284546	-0.037698	-31.284546	-36.047784	-124.120686
1.850000	-35.991546	-124.596267	-0.038619	-32.153407	-0.038619	-32.153407	-35.997578	-125.129020
1.900000	-35.956528	-125.583922	-0.039542	-33.022568	-0.039542	-33.022568	-35.962567	-126.143130
1.950000	-35.936843	-126.576447	-0.040469	-33.892039	-0.040469	-33.892039	-35.942876	-127.163671
2.000000	-35.932692	-127.574426	-0.041400	-34.761833	-0.041400	-34.761833	-35.938699	-128.191387
2.050000	-35.944347	-128.578529	-0.042336	-35.631960	-0.042336	-35.631960	-35.950306	-129.227126
2.100000	-35.972162	-129.589519	-0.043278	-36.502431	-0.043278	-36.502431	-35.978048	-130.271856
2.150000	-36.016580	-130.608274	-0.044225	-37.373260	-0.044225	-37.373260	-36.022359	-131.326689
2.200000	-36.078134	-131.635802	-0.045180	-38.244457	-0.045180	-38.244457	-36.083770	-132.392899
2.250000	-36.157467	-132.673269	-0.046141	-39.116035	-0.046141	-39.116035	-36.162912	-133.471962
2.300000	-36.255338	-133.722028	-0.047111	-39.988005	-0.047111	-39.988005	-36.260535	-134.565590
2.350000	-36.372638	-134.783658	-0.048089	-40.860381	-0.048089	-40.860381	-36.377519	-135.675777
2.400000	-36.510414	-135.860013	-0.049077	-41.733173	-0.049077	-41.733173	-36.514893	-136.804868
2.450000	-36.669888	-136.953281	-0.050074	-42.606396	-0.050074	-42.606396	-36.673861	-137.955626
2.500000	-36.852490	-138.066066	-0.051082	-43.480062	-0.051082	-43.480062	-36.855824	-139.131342
2.550000	-37.060811	-139.202656	-0.052102	-44.354203	-0.052102	-44.354203	-37.063338	-140.337443
2.600000	-37.295969	-140.366092	-0.053134	-45.228814	-0.053134	-45.228814	-37.297478	-141.577749
2.650000	-37.560290	-141.561137	-0.054179	-46.103908	-0.054179	-46.103908	-37.560512	-142.858266
2.700000	-37.856529	-142.793701	-0.055237	-46.979497	-0.055237	-46.979497	-37.855121	-144.186433
2.750000	-38.187973	-144.071198	-0.056311	-47.855596	-0.056311	-47.855596	-38.184483	-145.571572
2.800000	-38.558568	-145.403062	-0.057400	-48.732216	-0.057400	-48.732216	-38.552402	-147.025522
2.850000	-38.973098	-146.801489	-0.058505	-49.609372	-0.058505	-49.609372	-38.963456	-148.563550
2.900000	-39.437414	-148.282516	-0.059628	-50.487077	-0.059628	-50.487077	-39.423205	-150.205669
2.950000	-39.958766	-149.867668	-0.060770	-51.365344	-0.060770	-51.365344	-39.938470	-151.978629
3.000000	-40.546247	-151.586501	-0.061931	-52.244186	-0.061931	-52.244186	-40.517695	-153.918964
3.050000	-41.211431	-153.480701	-0.063113	-53.123616	-0.063113	-53.123616	-41.171450	-156.077828
3.100000	-41.969295	-155.610933	-0.064317	-54.003648	-0.064317	-54.003648	-41.913090	-158.528930
3.150000	-42.839551	-158.068825	-0.065545	-54.884296	-0.065545	-54.884296	-42.759601	-161.382047
3.200000	-43.848560	-160.999047	-0.066797	-55.765571	-0.066797	-55.765571	-43.732550	-164.806997
3.250000	-45.031939	-164.642531	-0.068076	-56.647487	-0.068076	-56.647487	-44.858646	-169.077925
3.300000	-46.437256	-169.426732	-0.069382	-57.530058	-0.069382	-57.530058	-46.167976	-174.657421
3.350000	-48.122400	-176.164819	-0.070717	-58.413295	-0.070717	-58.413295	-47.682754	177.647069
3.400000	-50.126180	173.516035	-0.072083	-59.297211	-0.072083	-59.297211	-49.372399	166.453306
3.450000	-52.309386	156.643473	-0.073481	-60.181820	-0.073481	-60.181820	-51.016015	149.855223
3.500000	-53.882764	130.479118	-0.074913	-61.067133	-0.074913	-61.067133	-51.987727	127.042422
3.550000	-53.431365	99.158989	-0.076380	-61.953162	-0.076380	-61.953162	-51.536137	101.707603
3.600000	-51.192767	75.013731	-0.077885	-62.839920	-0.077885	-62.839920	-49.856134	80.876727
3.650000	-48.663460	60.529119	-0.079430	-63.727417	-0.079430	-63.727417	-47.798299	66.696513
3.700000	-46.413671	51.656925	-0.081015	-64.615667	-0.081015	-64.615667	-45.831614	57.244428
3.750000	-44.485612	45.708164	-0.082644	-65.504679	-0.082644	-65.504679	-44.070518	50.627580
3.800000	-42.819256	41.416440	-0.084320	-66.394499	-0.084320	-66.394499	-42.507327	45.759097
3.850000	-41.361513	38.059919	-0.086043	-67.285104	-0.086043	-67.285104	-41.117280	41.928406
3.900000	-40.066888	35.308713	-0.087817	-68.176505	-0.087817	-68.176505	-39.869300	38.789807
3.950000	-38.902114	32.968623	-0.089642	-69.068712	-0.089642	-69.068712	-38.738009	36.131210
4.000000	-37.842670	30.919148	-0.091521	-69.961734	-0.091521	-69.961734	-37.703433	33.817102
4.050000	-36.870172	29.082042	-0.093456	-70.855580	-0.093456	-70.855580	-36.749939	31.757596
4.100000	-35.970576	27.404491	-0.095451	-71.750261	-0.095451	-71.750261	-35.865220	29.891047
4.150000	-35.132955	25.849647	-0.097506	-72.645783	-0.097506	-72.645783	-35.039486	28.173922
4.200000	-34.348666	24.391063	-0.099626	-73.542156	-0.099626	-73.542156	-34.264860	26.574677
4.250000	-33.610762	23.009286	-0.101811	-74.439387	-0.101811	-74.439387	-33.534933	25.069935
4.300000	-32.913586	21.689700	-0.104065	-75.337483	-0.104065	-75.337483	-32.844430	23.642024
4.350000	-32.252473	20.421118	-0.106391	-76.236452	-0.106391	-76.236452	-32.188964	22.277350
4.400000	-31.623535	19.194832	-0.108791	-77.136299	-0.108791	-77.136299	-31.564853	20.965289
4.450000	-31.023496	18.003969	-0.111267	-78.037030	-0.111267	-78.037030	-30.968979	19.697424
4.500000	-30.449572	16.843030	-0.113823	-78.938651	-0.113823	-78.938651	-30.398678	18.467004
4.550000	-29.899379	15.707565	-0.116461	-79.841167	-0.116461	-79.841167	-29.851660	17.268550
4.600000	-29.370859	14.593935	-0.119184	-80.744582	-0.119184	-80.744582	-29.325940	16.097572
4.650000	-28.862223	13.499135	-0.121995	-81.648900	-0.121995	-81.648900	-28.819790	14.950355
4.700000	-28.371907	12.420663	-0.124897	-82.554124	-0.124897	-82.554124	-28.331692	13.823803
4.750000	-27.898536	11.356419	-0.127893	-83.460256	-0.127893	-83.460256	-27.860310	12.715310
4.800000	-27.440893	10.304628	-0.130985	-84.367300	-0.130985	-84.367300	-27.404460	11.622673
4.850000	-26.997899	9.263781	-0.134177	-85.275256	-0.134177	-85.275256	-26.963088	10.544015
4.900000	-26.568589	8.232585	-0.137471	-86.184126	-0.137471	-86.184126	-26.535252	9.477728
4.950000	-26.152099	7.209928	-0.140871	-87.093909	-0.140871	-87.093909	-26.120106	8.422426
5.000000	-25.747653	6.194851	-0.144380	-88.004605	-0.144380	-88.004605	-25.716890	7.376911
5.050000	-25.354263	5.186777	-0.148005	-88.916254	-0.148005	-88.916254	-25.324628	6.340477
5.100000	-24.971608	4.184663	-0.151745	-89.828813	-0.151745	-89.828813	-24.943012	5.311807
5.150000	-24.599108	3.187883	-0.155604	-90.742280	-0.155604	-90.742280	-24.571472	4.290115
5.200000	-24.236235	2.195886	-0.159583	-91.656652	-0.159583	-91.656652	-24.209487	3.274711
5.250000	-23.882796	1.207971	-0.163680	-92.571877	-0.163680	-92.571877	-23.856871	2.264699
5.300000	-23.537806	0.224127	-0.167909	-93.488038	-0.167909	-93.488038	-23.512647	1.260091
5.350000	-23.201103	-0.756222	-0.172268	-94.405091	-0.172268	-94.405091	-23.176657	0.260151
5.400000	-22.872312	-1.733412	-0.176761	-95.323030	-0.176761	-95.323030	-22.848533	-0.735549
5.450000	-22.551089	-2.707745	-0.181390	-96.241849	-0.181390	-96.241849	-22.527933	-1.727388
5.500000	-22.237112	-3.679486	-0.186158	-97.161540	-0.186158	-97.161540	-22.214540	-2.715705
5.550000	-21.930086	-4.648874	-0.191069	-98.082096	-0.191069	-98.082096	-21.908061	-3.700804
5.600000	-21.629733	-5.616120	-0.196125	-99.003508	-0.196125	-99.003508	-21.608223	-4.682955
5.650000	-21.335760	-6.581393	-0.201331	-99.925775	-0.201331	-99.925775	-21.314735	-5.662374
5.700000	-21.047933	-7.544867	-0.206690	-100.848888	-0.206690	-100.848888	-21.027364	-6.639284
5.750000	-20.766068	-8.506712	-0.212203	-101.772825	-0.212203	-101.772825	-20.745930	-7.613907
5.800000	-20.489956	-9.467059	-0.217873	-102.697576	-0.217873	-102.697576	-20.470225	-8.586418
5.850000	-20.219401	-10.426027	-0.223703	-103.623127	-0.223703	-103.623127	-20.200055	-9.556970
5.900000	-19.954219	-11.383719	-0.229696	-104.549467	-0.229696	-104.549467	-19.935237	-10.525702
5.950000	-19.694236	-12.340230	-0.235854	-105.476581	-0.235854	-105.476581	-19.675599	-11.492739
6.000000	-19.439290	-13.295640	-0.242180	-106.404454	-0.242180	-106.404454	-19.420980	-12.458192
6.050000	-19.189227	-14.250023	-0.248677	-107.333072	-0.248677	-107.333072	-19.171227	-13.422159
6.100000	-18.943901	-15.203442	-0.255347	-108.262418	-0.255347	-108.262418	-18.926196	-14.384729
6.150000	-18.703177	-16.155953	-0.262193	-109.192476	-0.262193	-109.192476	-18.685751	-15.345982
6.200000	-18.466924	-17.107604	-0.269216	-110.123228	-0.269216	-110.123228	-18.449764	-16.305986
6.250000	-18.235019	-18.058437	-0.276420	-111.054656	-0.276420	-111.054656	-18.218111	-17.264805
6.300000	-18.007308	-19.008473	-0.283810	-111.986756	-0.283810	-111.986756	-17.990641	-18.222468
6.350000	-17.783724	-19.957760	-0.291385	-112.919493	-0.291385	-112.919493	-17.767285	-19.179049
6.400000	-17.564160	-20.906324	-0.299147	-113.852848	-0.299147	-113.852848	-17.547939	-20.134590
6.450000	-17.348517	-21.854185	-0.307098	-114.786798	-0.307098	-114.786798	-17.332502	-21.089128
6.500000	-17.136698	-22.801362	-0.315239	-115.721324	-0.315239	-115.721324	-17.120880	-22.042693
6.550000	-16.928613	-23.747868	-0.323573	-116.656403	-0.323573	-116.656403	-16.912982	-22.995312
6.600000	-16.724174	-24.693714	-0.332101	-117.592012	-0.332101	-117.592012	-16.708722	-23.947009
6.650000	-16.523300	-25.638908	-0.340825	-118.528129	-0.340825	-118.528129	-16.508017	-24.897803
6.700000	-16.325810	-26.583392	-0.349764	-119.464775	-0.349764	-119.464775	-16.310689	-25.847624
6.750000	-16.131826	-27.527288	-0.358885	-120.401836	-0.358885	-120.401836	-16.116857	-26.796648
6.800000	-15.941178	-28.470541	-0.368207	-121.339332	-0.368207	-121.339332	-15.926355	-27.744808
6.850000	-15.753797	-29.413149	-0.377728	-122.277237	-0.377728	-122.277237	-15.739113	-28.692112
6.900000	-15.569615	-30.355110	-0.387452	-123.215524	-0.387452	-123.215524	-15.555063	-29.638566
6.950000	-15.388570	-31.296420	-0.397378	-124.154168	-0.397378	-124.154168	-15.374143	-30.584174
7.000000	-15.210598	-32.237074	-0.407507	-125.093142	-0.407507	-125.093142	-15.196290	-31.528937
7.050000	-15.035640	-33.177064	-0.417840	-126.032419	-0.417840	-126.032419	-15.021445	-32.472857
7.100000	-14.863639	-34.116384	-0.428377	-126.971972	-0.428377	-126.971972	-14.849552	-33.415932
7.150000	-14.694540	-35.055025	-0.439119	-127.911772	-0.439119	-127.911772	-14.680555	-34.358161
7.200000	-14.528291	-35.992978	-0.450065	-128.851792	-0.450065	-128.851792	-14.514402	-35.299541
7.250000	-14.364840	-36.930234	-0.461216	-129.792003	-0.461216	-129.792003	-14.351042	-36.240067
7.300000	-14.204138	-37.866782	-0.472571	-130.732377	-0.472571	-130.732377	-14.190427	-37.179734
7.350000	-14.046137	-38.802613	-0.484130	-131.672885	-0.484130	-131.672885	-14.032508	-38.118538
7.400000	-13.890792	-39.737714	-0.495893	-132.613497	-0.495893	-132.613497	-13.877242	-39.056471
7.450000	-13.738060	-40.672075	-0.507858	-133.554185	-0.507858	-133.554185	-13.724583	-39.993528
7.500000	-13.587896	-41.605685	-0.520026	-134.494918	-0.520026	-134.494918	-13.574489	-40.929700
7.550000	-13.440262	-42.538499	-0.532403	-135.435668	-0.532403	-135.435668	-13.426920	-41.864942
7.600000	-13.295120	-43.470536	-0.544979	-136.376402	-0.544979	-136.376402	-13.281841	-42.799282
7.650000	-13.152433	-44.401786	-0.557754	-137.317091	-0.557754	-137.317091	-13.139212	-43.732714
7.700000	-13.012162	-45.332236	-0.570726	-138.257705	-0.570726	-138.257705	-12.998997	-44.665227
7.750000	-12.874262	-46.261920	-0.583884	-139.198221	-0.583884	-139.198221	-12.861150	-45.596864
7.800000	-12.738713	-47.190745	-0.597244	-140.138601	-0.597244	-140.138601	-12.725651	-46.527525
7.850000	-12.605477	-48.118734	-0.610795	-141.078817	-0.610795	-141.078817	-12.592461	-47.457240
7.900000	-12.474520	-49.045876	-0.624536	-142.018843	-0.624536	-142.018843	-12.461548	-48.386000
7.950000	-12.345811	-49.972158	-0.638464	-142.958647	-0.638464	-142.958647	-12.332881	-49.313794
8.000000	-12.219319	-50.897568	-0.652576	-143.898202	-0.652576	-143.898202	-12.206429	-50.240611
8.050000	-12.095017	-51.822093	-0.666871	-144.837479	-0.666871	-144.837479	-12.082164	-51.166442
8.100000	-11.972875	-52.745721	-0.681345	-145.776450	-0.681345	-145.776450	-11.960057	-52.091275
8.150000	-11.852871	-53.668428	-0.695997	-146.715083	-0.695997	-146.715083	-11.840087	-53.015087
8.200000	-11.734981	-54.590201	-0.710823	-147.653349	-0.710823	-147.653349	-11.722227	-53.937868
8.250000	-11.619173	-55.511037	-0.725820	-148.591225	-0.725820	-148.591225	-11.606449	-54.859614
8.300000	-11.505424	-56.430921	-0.740982	-149.528685	-0.740982	-149.528685	-11.492727	-55.780314
8.350000	-11.393709	-57.349840	-0.756307	-150.465701	-0.756307	-150.465701	-11.381037	-56.699954
8.400000	-11.284005	-58.267780	-0.771790	-151.402249	-0.771790	-151.402249	-11.271358	-57.618521
8.450000	-11.176290	-59.184724	-0.787429	-152.338304	-0.787429	-152.338304	-11.163665	-58.536000
8.500000	-11.070543	-60.100659	-0.803217	-153.273840	-0.803217	-153.273840	-11.057939	-59.452377
8.550000	-10.966743	-61.015567	-0.819152	-154.208834	-0.819152	-154.208834	-10.954158	-60.367636
8.600000	-10.864871	-61.929432	-0.835229	-155.143262	-0.835229	-155.143262	-10.852303	-61.281761
8.650000	-10.764905	-62.842236	-0.851443	-156.077102	-0.851443	-156.077102	-10.752354	-62.194733
8.700000	-10.666829	-63.753961	-0.867790	-157.010332	-0.867790	-157.010332	-10.654292	-63.106536
8.750000	-10.570625	-64.664589	-0.884264	-157.942932	-0.884264	-157.942932	-10.558100	-64.017151
8.800000	-10.476292	-65.574073	-0.900863	-158.874864	-0.900863	-158.874864	-10.463778	-64.926530
8.850000	-10.383797	-66.482418	-0.917578	-159.806126	-0.917578	-159.806126	-10.371292	-65.834679
8.900000	-10.293124	-67.389601	-0.934406	-160.736696	-0.934406	-160.736696	-10.280626	-66.741575
8.950000	-10.204258	-68.295598	-0.951339	-161.666558	-0.951339	-161.666558	-10.191765	-67.647195
9.000000	-10.117232	-69.200320	-0.968377	-162.595655	-0.968377	-162.595655	-10.104743	-68.551443
9.050000	-10.031944	-70.103858	-0.985507	-163.524041	-0.985507	-163.524041	-10.019456	-69.454421
9.100000	-9.948420	-71.006134	-1.002725	-164.451671	-1.002725	-164.451671	-9.935930	-70.356046
9.150000	-9.866645	-71.907120	-1.020027	-165.378531	-1.020027	-165.378531	-9.854151	-71.256289
9.200000	-9.786606	-72.806786	-1.037405	-166.304607	-1.037405	-166.304607	-9.774105	-72.155120
9.250000	-9.708290	-73.705101	-1.054854	-167.229887	-1.054854	-167.229887	-9.695780	-73.052509
9.300000	-9.631685	-74.602033	-1.072368	-168.154362	-1.072368	-168.154362	-9.619163	-73.948422
9.350000	-9.556779	-75.497548	-1.089939	-169.078020	-1.089939	-169.078020	-9.544241	-74.842826
9.400000	-9.483560	-76.391611	-1.107562	-170.000854	-1.107562	-170.000854	-9.471002	-75.735686
9.450000	-9.412017	-77.284185	-1.125230	-170.922855	-1.125230	-170.922855	-9.399436	-76.626964
9.500000	-9.342138	-78.175231	-1.142936	-171.844017	-1.142936	-171.844017	-9.329531	-77.516621
9.550000	-9.273914	-79.064709	-1.160673	-172.764336	-1.160673	-172.764336	-9.261275	-78.404618
9.600000	-9.207334	-79.952578	-1.178434	-173.683806	-1.178434	-173.683806	-9.194659	-79.290912
9.650000	-9.142386	-80.838794	-1.196213	-174.602426	-1.196213	-174.602426	-9.129671	-80.175460
9.700000	-9.079062	-81.723312	-1.214002	-175.520193	-1.214002	-175.520193	-9.066301	-81.058217
9.750000	-9.017352	-82.606085	-1.231795	-176.437107	-1.231795	-176.437107	-9.004539	-81.939136
9.800000	-8.957246	-83.487065	-1.249583	-177.353169	-1.249583	-177.353169	-8.944375	-82.818170
9.850000	-8.898733	-84.366202	-1.267361	-178.268381	-1.267361	-178.268381	-8.885800	-83.695269
9.900000	-8.841806	-85.243444	-1.285119	-179.182746	-1.285119	-179.182746	-8.828803	-84.570380
9.950000	-8.786455	-86.118738	-1.302852	179.903730	-1.302852	179.903730	-8.773374	-85.443452
10.000000	-8.732670	-86.992029	-1.320552	178.991042	-1.320552	178.991042	-8.719506	-86.314429
