! freq	dB(S11)	phase(S11)	dB(S12)	phase(S12)	
!     	dB(S21)	phase(S21)	dB(S22)	phase(S22)	
!S-par simulation data
#  GHz  S  DB  R 50
0.000000	-88.117963	0.000000	-0.000341	0.000000	-0.000341	0.000000	-88.117963	0.000000
0.050000	-76.150122	73.527246	-0.000485	-0.907001	-0.000485	-0.907001	-76.306193	75.123647
0.100000	-70.320289	79.026746	-0.000907	-1.813643	-0.000907	-1.813643	-70.478919	82.612774
0.150000	-66.800604	79.791732	-0.001584	-2.719610	-0.001584	-2.719610	-66.951760	85.257818
0.200000	-64.262792	79.348274	-0.002479	-3.624661	-0.002479	-3.624661	-64.402304	86.632970
0.250000	-62.260575	78.413640	-0.003562	-4.528559	-0.003562	-4.528559	-62.384756	87.454247
0.300000	-60.597021	77.280653	-0.004772	-5.431323	-0.004772	-5.431323	-60.703622	88.014732
0.350000	-59.162298	76.039949	-0.006078	-6.332897	-0.006078	-6.332897	-59.249172	88.396157
0.400000	-57.891817	74.750092	-0.007442	-7.233328	-0.007442	-7.233328	-57.957284	88.650956
0.450000	-56.743975	73.444067	-0.008832	-8.132710	-0.008832	-8.132710	-56.786820	88.807010
0.500000	-55.690498	72.141699	-0.010226	-9.031160	-0.010226	-9.031160	-55.709954	88.880293
0.550000	-54.711378	70.855298	-0.011603	-9.928812	-0.011603	-9.928812	-54.707099	88.880568
0.600000	-53.792016	69.592512	-0.012952	-10.825800	-0.012952	-10.825800	-53.764045	88.814202
0.650000	-52.921501	68.357921	-0.014265	-11.722255	-0.014265	-11.722255	-52.870224	88.685655
0.700000	-52.091526	67.153991	-0.015537	-12.618297	-0.015537	-12.618297	-52.017625	88.498313
0.750000	-51.295671	65.981695	-0.016766	-13.514037	-0.016766	-13.514037	-51.200076	88.254960
0.800000	-50.528921	64.840938	-0.017954	-14.409572	-0.017954	-14.409572	-50.412759	87.958055
0.850000	-49.787319	63.730870	-0.019101	-15.304986	-0.019101	-15.304986	-49.651865	87.609891
0.900000	-49.067719	62.650111	-0.020212	-16.200352	-0.020212	-16.200352	-48.914356	87.212690
0.950000	-48.367609	61.596931	-0.021289	-17.095733	-0.021289	-17.095733	-48.197781	86.768649
1.000000	-47.684967	60.569382	-0.022336	-17.991184	-0.022336	-17.991184	-47.500152	86.279958
1.050000	-47.018164	59.565403	-0.023358	-18.886752	-0.023358	-18.886752	-46.819836	85.748813
1.100000	-46.365874	58.582899	-0.024357	-19.782476	-0.024357	-19.782476	-46.155485	85.177410
1.150000	-45.727019	57.619801	-0.025338	-20.678391	-0.025338	-20.678391	-45.505977	84.567935
1.200000	-45.100715	56.674107	-0.026304	-21.574529	-0.026304	-21.574529	-44.870367	83.922557
1.250000	-44.486231	55.743913	-0.027258	-22.470916	-0.027258	-22.470916	-44.247856	83.243415
1.300000	-43.881632	54.827950	-0.028203	-23.367589	-0.028203	-23.367589	-43.636443	82.531327
1.350000	-43.287823	53.923907	-0.029142	-24.264559	-0.029142	-24.264559	-43.036946	81.789800
1.400000	-42.704372	53.030278	-0.030078	-25.161847	-0.030078	-25.161847	-42.448847	81.020816
1.450000	-42.130908	52.145696	-0.031014	-26.059471	-0.031014	-26.059471	-41.871690	80.226285
1.500000	-41.567109	51.268920	-0.031951	-26.957448	-0.031951	-26.957448	-41.305069	79.408048
1.550000	-41.012692	50.398837	-0.032891	-27.855795	-0.032891	-27.855795	-40.748621	78.567869
1.600000	-40.467402	49.534450	-0.033837	-28.754528	-0.033837	-28.754528	-40.202016	77.707433
1.650000	-39.931010	48.674872	-0.034791	-29.653663	-0.034791	-29.653663	-39.664952	76.828342
1.700000	-39.403305	47.819318	-0.035754	-30.553216	-0.035754	-30.553216	-39.137151	75.932119
1.750000	-38.884091	46.967093	-0.036728	-31.453201	-0.036728	-31.453201	-38.618354	75.020204
1.800000	-38.373184	46.117586	-0.037714	-32.353633	-0.037714	-32.353633	-38.108320	74.093956
1.850000	-37.870408	45.270264	-0.038714	-33.254527	-0.038714	-33.254527	-37.606821	73.154656
1.900000	-37.375595	44.424658	-0.039730	-34.155898	-0.039730	-34.155898	-37.113640	72.203506
1.950000	-36.888585	43.580361	-0.040763	-35.057761	-0.040763	-35.057761	-36.628571	71.241632
2.000000	-36.409220	42.737020	-0.041814	-35.960130	-0.041814	-35.960130	-36.151418	70.270087
2.050000	-35.937347	41.894328	-0.042886	-36.863021	-0.042886	-36.863021	-35.681991	69.289855
2.100000	-35.472817	41.052021	-0.043979	-37.766448	-0.043979	-37.766448	-35.220107	68.301849
2.150000	-35.015484	40.209870	-0.045094	-38.670426	-0.045094	-38.670426	-34.765592	67.306920
2.200000	-34.565204	39.367679	-0.046235	-39.574970	-0.046235	-39.574970	-34.318273	66.305855
2.250000	-34.121838	38.525279	-0.047401	-40.480095	-0.047401	-40.480095	-33.877987	65.299385
2.300000	-33.685246	37.682527	-0.048595	-41.385816	-0.048595	-41.385816	-33.444572	64.288182
2.350000	-33.255292	36.839300	-0.049818	-42.292148	-0.049818	-42.292148	-33.017872	63.272865
2.400000	-32.831843	35.995492	-0.051071	-43.199107	-0.051071	-43.199107	-32.597735	62.254005
2.450000	-32.414767	35.151013	-0.052357	-44.106706	-0.052357	-44.106706	-32.184015	61.232124
2.500000	-32.003935	34.305788	-0.053678	-45.014962	-0.053678	-45.014962	-31.776566	60.207701
2.550000	-31.598672	33.459713	-0.055036	-45.923919	-0.055036	-45.923919	-31.374714	59.181098
2.600000	-31.199439	32.612767	-0.056431	-46.833564	-0.056431	-46.833564	-30.978893	58.152818
2.650000	-30.806110	31.764903	-0.057867	-47.743911	-0.057867	-47.743911	-30.588967	57.123216
2.700000	-30.418565	30.916082	-0.059344	-48.654976	-0.059344	-48.654976	-30.204804	56.092612
2.750000	-30.036684	30.066269	-0.060866	-49.566772	-0.060866	-49.566772	-29.826277	55.061297
2.800000	-29.660350	29.215434	-0.062433	-50.479315	-0.062433	-50.479315	-29.453262	54.029530
2.850000	-29.289450	28.363552	-0.064048	-51.392618	-0.064048	-51.392618	-29.085637	52.997544
2.900000	-28.923873	27.510599	-0.065714	-52.306696	-0.065714	-52.306696	-28.723285	51.965545
2.950000	-28.563509	26.656555	-0.067432	-53.221563	-0.067432	-53.221563	-28.366091	50.933716
3.000000	-28.208253	25.801402	-0.069205	-54.137233	-0.069205	-54.137233	-28.013945	49.902219
3.050000	-27.858000	24.945123	-0.071035	-55.053720	-0.071035	-55.053720	-27.666738	48.871194
3.100000	-27.512651	24.087701	-0.072925	-55.971036	-0.072925	-55.971036	-27.324366	47.840764
3.150000	-27.172106	23.229122	-0.074878	-56.889194	-0.074878	-56.889194	-26.986726	46.811033
3.200000	-26.836270	22.369371	-0.076895	-57.808208	-0.076895	-57.808208	-26.653721	45.782090
3.250000	-26.505049	21.508435	-0.078981	-58.728089	-0.078981	-58.728089	-26.325254	44.754009
3.300000	-26.178352	20.646300	-0.081137	-59.648850	-0.081137	-59.648850	-26.001234	43.726852
3.350000	-25.856091	19.782952	-0.083366	-60.570503	-0.083366	-60.570503	-25.681568	42.700668
3.400000	-25.538181	18.918378	-0.085672	-61.493058	-0.085672	-61.493058	-25.366172	41.675494
3.450000	-25.224537	18.052565	-0.088057	-62.416527	-0.088057	-62.416527	-25.054960	40.651360
3.500000	-24.915078	17.185499	-0.090524	-63.340920	-0.090524	-63.340920	-24.747851	39.628283
3.550000	-24.609726	16.317167	-0.093077	-64.266246	-0.093077	-64.266246	-24.444765	38.606275
3.600000	-24.308404	15.447555	-0.095719	-65.192516	-0.095719	-65.192516	-24.145627	37.585339
3.650000	-24.011037	14.576649	-0.098452	-66.119739	-0.098452	-66.119739	-23.850361	36.565473
3.700000	-23.717553	13.704437	-0.101281	-67.047922	-0.101281	-67.047922	-23.558898	35.546668
3.750000	-23.427883	12.830903	-0.104209	-67.977074	-0.104209	-67.977074	-23.271166	34.528911
3.800000	-23.141715	11.955977	-0.107243	-68.907246	-0.107243	-68.907246	-22.986858	33.512229
3.850000	-22.859241	11.079702	-0.110383	-69.838401	-0.110383	-69.838401	-22.706165	32.496552
3.900000	-22.580397	10.202066	-0.113632	-70.770545	-0.113632	-70.770545	-22.429025	31.481856
3.950000	-22.305121	9.323054	-0.116995	-71.703685	-0.116995	-71.703685	-22.155377	30.468115
4.000000	-22.033352	8.442655	-0.120474	-72.637826	-0.120474	-72.637826	-21.885161	29.455297
4.050000	-21.765032	7.560857	-0.124074	-73.572970	-0.124074	-73.572970	-21.618321	28.443371
4.100000	-21.500103	6.677647	-0.127799	-74.509122	-0.127799	-74.509122	-21.354803	27.432306
4.150000	-21.238511	5.793014	-0.131651	-75.446284	-0.131651	-75.446284	-21.094553	26.422067
4.200000	-20.980628	4.907090	-0.135622	-76.384360	-0.135622	-76.384360	-20.837945	25.412546
4.250000	-20.725584	4.019598	-0.139740	-77.323538	-0.139740	-77.323538	-20.584112	24.403853
4.300000	-20.473719	3.130655	-0.143998	-78.263731	-0.143998	-78.263731	-20.333397	23.395886
4.350000	-20.224986	2.240252	-0.148400	-79.204938	-0.148400	-79.204938	-20.085754	22.388611
4.400000	-19.979296	1.348365	-0.152951	-80.147170	-0.152951	-80.147170	-19.841097	21.382001
4.450000	-19.736607	0.454989	-0.157655	-81.090424	-0.157655	-81.090424	-19.599387	20.376023
4.500000	-19.496920	-0.439866	-0.162515	-82.034687	-0.162515	-82.034687	-19.360626	19.370640
4.550000	-19.260192	-1.336204	-0.167536	-82.979955	-0.167536	-82.979955	-19.124774	18.365821
4.600000	-19.026381	-2.234027	-0.172720	-83.926225	-0.172720	-83.926225	-18.891791	17.361539
4.650000	-18.795448	-3.133338	-0.178072	-84.873490	-0.178072	-84.873490	-18.661640	16.357766
4.700000	-18.567355	-4.034135	-0.183597	-85.821745	-0.183597	-85.821745	-18.434286	15.354478
4.750000	-18.342064	-4.936419	-0.189298	-86.770983	-0.189298	-86.770983	-18.209693	14.351652
4.800000	-18.119539	-5.840185	-0.195180	-87.721196	-0.195180	-87.721196	-17.987827	13.349266
4.850000	-17.899745	-6.745430	-0.201246	-88.672376	-0.201246	-88.672376	-17.768656	12.347302
4.900000	-17.682649	-7.652148	-0.207501	-89.624511	-0.207501	-89.624511	-17.552148	11.345742
4.950000	-17.468218	-8.560332	-0.213948	-90.577593	-0.213948	-90.577593	-17.338272	10.344572
5.000000	-17.256420	-9.469973	-0.220592	-91.531609	-0.220592	-91.531609	-17.126997	9.343779
5.050000	-17.047172	-10.381090	-0.227442	-92.486566	-0.227442	-92.486566	-16.918244	8.343360
5.100000	-16.840501	-11.293640	-0.234496	-93.442432	-0.234496	-93.442432	-16.712041	7.343299
5.150000	-16.636379	-12.207610	-0.241759	-94.399190	-0.241759	-94.399190	-16.508359	6.343590
5.200000	-16.434776	-13.122982	-0.249236	-95.356826	-0.249236	-95.356826	-16.307173	5.344230
5.250000	-16.235665	-14.039739	-0.256929	-96.315324	-0.256929	-96.315324	-16.108456	4.345217
5.300000	-16.039021	-14.957862	-0.264842	-97.274666	-0.264842	-97.274666	-15.912184	3.346553
5.350000	-15.844817	-15.877330	-0.272980	-98.234833	-0.272980	-98.234833	-15.718332	2.348241
5.400000	-15.653028	-16.798119	-0.281346	-99.195808	-0.281346	-99.195808	-15.526876	1.350286
5.450000	-15.463630	-17.720206	-0.289944	-100.157569	-0.289944	-100.157569	-15.337792	0.352697
5.500000	-15.276600	-18.643563	-0.298777	-101.120095	-0.298777	-101.120095	-15.151059	-0.644518
5.550000	-15.091913	-19.568163	-0.307848	-102.083364	-0.307848	-102.083364	-14.966653	-1.641346
5.600000	-14.909549	-20.493975	-0.317162	-103.047354	-0.317162	-103.047354	-14.784553	-2.637773
5.650000	-14.729469	-21.420982	-0.326725	-104.012048	-0.326725	-104.012048	-14.604722	-3.633780
5.700000	-14.551655	-22.349148	-0.336539	-104.977419	-0.336539	-104.977419	-14.427142	-4.629346
5.750000	-14.376101	-23.278426	-0.346604	-105.943435	-0.346604	-105.943435	-14.251808	-5.624458
5.800000	-14.202787	-24.208779	-0.356925	-106.910070	-0.356925	-106.910070	-14.078701	-6.619094
5.850000	-14.031694	-25.140171	-0.367505	-107.877295	-0.367505	-107.877295	-13.907799	-7.613231
5.900000	-13.862800	-26.072561	-0.378345	-108.845082	-0.378345	-108.845082	-13.739085	-8.606843
5.950000	-13.696087	-27.005908	-0.389448	-109.813402	-0.389448	-109.813402	-13.572538	-9.599905
6.000000	-13.531536	-27.940172	-0.400818	-110.782225	-0.400818	-110.782225	-13.408139	-10.592390
6.050000	-13.369128	-28.875308	-0.412456	-111.751521	-0.412456	-111.751521	-13.245870	-11.584267
6.100000	-13.208845	-29.811272	-0.424366	-112.721257	-0.424366	-112.721257	-13.085713	-12.575507
6.150000	-13.050668	-30.748018	-0.436548	-113.691402	-0.436548	-113.691402	-12.927648	-13.566079
6.200000	-12.894580	-31.685500	-0.449006	-114.661921	-0.449006	-114.661921	-12.771659	-14.555949
6.250000	-12.740563	-32.623670	-0.461741	-115.632783	-0.461741	-115.632783	-12.617727	-15.545085
6.300000	-12.588587	-33.562492	-0.474760	-116.603957	-0.474760	-116.603957	-12.465823	-16.533434
6.350000	-12.438650	-34.501902	-0.488059	-117.575402	-0.488059	-117.575402	-12.315942	-17.520977
6.400000	-12.290735	-35.441849	-0.501640	-118.547082	-0.501640	-118.547082	-12.168069	-18.507678
6.450000	-12.144824	-36.382282	-0.515505	-119.518960	-0.515505	-119.518960	-12.022187	-19.493501
6.500000	-12.000901	-37.323151	-0.529653	-120.491001	-0.529653	-120.491001	-11.878277	-20.478408
6.550000	-11.858950	-38.264403	-0.544086	-121.463165	-0.544086	-121.463165	-11.736323	-21.462361
6.600000	-11.718953	-39.205986	-0.558805	-122.435417	-0.558805	-122.435417	-11.596309	-22.445322
6.650000	-11.580895	-40.147848	-0.573810	-123.407717	-0.573810	-123.407717	-11.458217	-23.427253
6.700000	-11.444738	-41.089953	-0.589127	-124.380025	-0.589127	-124.380025	-11.322009	-24.408008
6.750000	-11.310510	-42.032209	-0.604708	-125.352301	-0.604708	-125.352301	-11.187715	-25.387746
6.800000	-11.178172	-42.974585	-0.620576	-126.324508	-0.620576	-126.324508	-11.055296	-26.366338
6.850000	-11.047708	-43.917026	-0.636730	-127.296607	-0.636730	-127.296607	-10.924734	-27.343742
6.900000	-10.919102	-44.859481	-0.653170	-128.268556	-0.653170	-128.268556	-10.796013	-28.319922
6.950000	-10.792338	-45.801897	-0.669896	-129.240318	-0.669896	-129.240318	-10.669119	-29.294838
7.000000	-10.667401	-46.744223	-0.686906	-130.211850	-0.686906	-130.211850	-10.544033	-30.268451
7.050000	-10.544273	-47.686407	-0.704200	-131.183114	-0.704200	-131.183114	-10.420742	-31.240724
7.100000	-10.422941	-48.628397	-0.721776	-132.154069	-0.721776	-132.154069	-10.299228	-32.211617
7.150000	-10.303387	-49.570143	-0.739633	-133.124674	-0.739633	-133.124674	-10.179477	-33.181093
7.200000	-10.185596	-50.511597	-0.757769	-134.094889	-0.757769	-134.094889	-10.061473	-34.149115
7.250000	-10.069552	-51.452708	-0.776183	-135.064674	-0.776183	-135.064674	-9.945199	-35.115646
7.300000	-9.955229	-52.393448	-0.794863	-136.034011	-0.794863	-136.034011	-9.830632	-36.080717
7.350000	-9.842635	-53.333728	-0.813828	-137.002811	-0.813828	-137.002811	-9.717777	-37.044140
7.400000	-9.731742	-54.273522	-0.833064	-137.971060	-0.833064	-137.971060	-9.606608	-38.005962
7.450000	-9.622535	-55.212787	-0.852568	-138.938719	-0.852568	-138.938719	-9.497110	-38.966148
7.500000	-9.514998	-56.151476	-0.872337	-139.905748	-0.872337	-139.905748	-9.389269	-39.924664
7.550000	-9.409125	-57.089534	-0.892373	-140.872093	-0.892373	-140.872093	-9.283076	-40.881438
7.600000	-9.304893	-58.026931	-0.912668	-141.837729	-0.912668	-141.837729	-9.178511	-41.836473
7.650000	-9.202286	-58.963626	-0.933218	-142.802618	-0.933218	-142.802618	-9.075559	-42.789736
7.700000	-9.101290	-59.899580	-0.954019	-143.766723	-0.954019	-143.766723	-8.974206	-43.741196
7.750000	-9.001889	-60.834756	-0.975069	-144.730006	-0.975069	-144.730006	-8.874437	-44.690820
7.800000	-8.904070	-61.769115	-0.996362	-145.692431	-0.996362	-145.692431	-8.776237	-45.638578
7.850000	-8.807816	-62.702624	-1.017894	-146.653962	-1.017894	-146.653962	-8.679594	-46.584439
7.900000	-8.713113	-63.635249	-1.039662	-147.614563	-1.039662	-147.614563	-8.584492	-47.528374
7.950000	-8.620000	-64.566864	-1.061676	-148.574103	-1.061676	-148.574103	-8.490969	-48.470160
8.000000	-8.528364	-65.497609	-1.083901	-149.532728	-1.083901	-149.532728	-8.398917	-49.410131
8.050000	-8.438236	-66.427375	-1.106347	-150.490321	-1.106347	-150.490321	-8.308366	-50.348090
8.100000	-8.349602	-67.356135	-1.129007	-151.446850	-1.129007	-151.446850	-8.219303	-51.284010
8.150000	-8.262449	-68.283862	-1.151878	-152.402283	-1.151878	-152.402283	-8.131713	-52.217863
8.200000	-8.176761	-69.210529	-1.174953	-153.356589	-1.174953	-153.356589	-8.045585	-53.149625
8.250000	-8.092527	-70.136114	-1.198227	-154.309740	-1.198227	-154.309740	-7.960904	-54.079268
8.300000	-8.009732	-71.060592	-1.221695	-155.261706	-1.221695	-155.261706	-7.877659	-55.006769
8.350000	-7.928362	-71.983943	-1.245349	-156.212458	-1.245349	-156.212458	-7.795836	-55.932101
8.400000	-7.848406	-72.906147	-1.269184	-157.161971	-1.269184	-157.161971	-7.715423	-56.855242
8.450000	-7.769850	-73.827185	-1.293194	-158.110219	-1.293194	-158.110219	-7.636407	-57.776168
8.500000	-7.692682	-74.747039	-1.317373	-159.057175	-1.317373	-159.057175	-7.558777	-58.694854
8.550000	-7.616888	-75.665693	-1.341713	-160.002818	-1.341713	-160.002818	-7.482519	-59.611278
8.600000	-7.542458	-76.583132	-1.366208	-160.947124	-1.366208	-160.947124	-7.407623	-60.525418
8.650000	-7.469379	-77.499341	-1.390852	-161.890071	-1.390852	-161.890071	-7.334076	-61.437251
8.700000	-7.397640	-78.414308	-1.415637	-162.831639	-1.415637	-162.831639	-7.261867	-62.346755
8.750000	-7.327229	-79.328020	-1.440557	-163.771810	-1.440557	-163.771810	-7.190984	-63.253909
8.800000	-7.258168	-80.240411	-1.465605	-164.710502	-1.465605	-164.710502	-7.121448	-64.158587
8.850000	-7.190414	-81.151525	-1.490773	-165.647759	-1.490773	-165.647759	-7.053217	-65.060870
8.900000	-7.123957	-82.061353	-1.516053	-166.583566	-1.516053	-166.583566	-6.986280	-65.960737
8.950000	-7.058785	-82.969887	-1.541438	-167.517910	-1.541438	-167.517910	-6.920625	-66.858167
9.000000	-6.994890	-83.877118	-1.566919	-168.450776	-1.566919	-168.450776	-6.856241	-67.753140
9.050000	-6.932260	-84.783039	-1.592489	-169.382154	-1.592489	-169.382154	-6.793119	-68.645635
9.100000	-6.870888	-85.687643	-1.618141	-170.312033	-1.618141	-170.312033	-6.731246	-69.535632
9.150000	-6.810762	-86.590925	-1.643867	-171.240403	-1.643867	-171.240403	-6.670613	-70.423109
9.200000	-6.751875	-87.492877	-1.669659	-172.167258	-1.669659	-172.167258	-6.611210	-71.308048
9.250000	-6.694218	-88.393496	-1.695508	-173.092590	-1.695508	-173.092590	-6.553026	-72.190427
9.300000	-6.637782	-89.292774	-1.721408	-174.016395	-1.721408	-174.016395	-6.496052	-73.070227
9.350000	-6.582560	-90.190708	-1.747350	-174.938668	-1.747350	-174.938668	-6.440276	-73.947426
9.400000	-6.528543	-91.087291	-1.773326	-175.859407	-1.773326	-175.859407	-6.385690	-74.822005
9.450000	-6.475724	-91.982520	-1.799327	-176.778611	-1.799327	-176.778611	-6.332284	-75.693943
9.500000	-6.424095	-92.876387	-1.825347	-177.696280	-1.825347	-177.696280	-6.280047	-76.563220
9.550000	-6.373651	-93.768889	-1.851376	-178.612416	-1.851376	-178.612416	-6.228971	-77.429815
9.600000	-6.324383	-94.660020	-1.877406	-179.527021	-1.877406	-179.527021	-6.179046	-78.293708
9.650000	-6.276286	-95.549773	-1.903430	179.559900	-1.903430	179.559900	-6.130263	-79.154877
9.700000	-6.229353	-96.438142	-1.929439	178.648341	-1.929439	178.648341	-6.082612	-80.013302
9.750000	-6.183580	-97.325121	-1.955424	177.738297	-1.955424	177.738297	-6.036085	-80.868963
9.800000	-6.138959	-98.210703	-1.981378	176.829758	-1.981378	176.829758	-5.990671	-81.721837
9.850000	-6.095485	-99.094878	-2.007292	175.922715	-2.007292	175.922715	-5.946362	-82.571904
9.900000	-6.053154	-99.977640	-2.033158	175.017157	-2.033158	175.017157	-5.903150	-83.419143
9.950000	-6.011961	-100.858978	-2.058967	174.113071	-2.058967	174.113071	-5.861024	-84.263531
10.000000	-5.971900	-101.738883	-2.084712	173.210444	-2.084712	173.210444	-5.819977	-85.105048
