! freq	dB(S11)	phase(S11)	dB(S12)	phase(S12)	
!     	dB(S21)	phase(S21)	dB(S22)	phase(S22)	
!S-par simulation data
#  GHz  S  DB  R 50
0.000000	-0.000000	0.000000	-321.945292	0.000000	-321.945292	0.000000	-0.000000	0.000000
0.050000	-0.000114	-0.927002	-62.567478	88.988299	-62.567478	88.988299	-0.000114	-0.927411
0.100000	-0.000453	-1.853731	-56.552301	87.982785	-56.552301	87.982785	-0.000453	-1.854549
0.150000	-0.001003	-2.779934	-53.038867	86.988306	-53.038867	86.988306	-0.001004	-2.781160
0.200000	-0.001745	-3.705395	-50.550643	86.007534	-50.550643	86.007534	-0.001747	-3.707029
0.250000	-0.002667	-4.629868	-48.624841	85.042217	-48.624841	85.042217	-0.002669	-4.631909
0.300000	-0.003726	-5.553297	-47.054220	84.090212	-47.054220	84.090212	-0.003730	-5.555743
0.350000	-0.004906	-6.475539	-45.728740	83.150522	-45.728740	83.150522	-0.004910	-6.478390
0.400000	-0.006180	-7.396527	-44.582516	82.221153	-44.582516	82.221153	-0.006186	-7.399781
0.450000	-0.007526	-8.316226	-43.573075	81.300108	-43.573075	81.300108	-0.007533	-8.319882
0.500000	-0.008923	-9.234623	-42.671461	80.385601	-42.671461	80.385601	-0.008931	-9.238680
0.550000	-0.010353	-10.151727	-41.857063	79.476143	-41.857063	79.476143	-0.010362	-10.156183
0.600000	-0.011802	-11.067555	-41.114700	78.570559	-41.114700	78.570559	-0.011813	-11.072410
0.650000	-0.013258	-11.982133	-40.432872	77.667953	-40.432872	77.667953	-0.013270	-11.987386
0.700000	-0.014713	-12.895489	-39.802658	76.767667	-39.802658	76.767667	-0.014727	-12.901138
0.750000	-0.016161	-13.807650	-39.217001	75.869232	-39.217001	75.869232	-0.016175	-13.813693
0.800000	-0.017596	-14.718637	-38.670221	74.972328	-38.670221	74.972328	-0.017612	-14.725074
0.850000	-0.019017	-15.628469	-38.157678	74.076743	-38.157678	74.076743	-0.019034	-15.635299
0.900000	-0.020422	-16.537160	-37.675529	73.182351	-37.675529	73.182351	-0.020440	-16.544382
0.950000	-0.021810	-17.444718	-37.220558	72.289089	-37.220558	72.289089	-0.021830	-17.452331
1.000000	-0.023182	-18.351144	-36.790045	71.396935	-36.790045	71.396935	-0.023203	-18.359146
1.050000	-0.024538	-19.256435	-36.381668	70.505903	-36.381668	70.505903	-0.024560	-19.264826
1.100000	-0.025879	-20.160585	-35.993427	69.616030	-35.993427	69.616030	-0.025902	-20.169363
1.150000	-0.027207	-21.063581	-35.623589	68.727367	-35.623589	68.727367	-0.027231	-21.072746
1.200000	-0.028522	-21.965410	-35.270642	67.839980	-35.270642	67.839980	-0.028548	-21.974960
1.250000	-0.029827	-22.866053	-34.933258	66.953939	-34.933258	66.953939	-0.029853	-22.875988
1.300000	-0.031122	-23.765437	-34.610342	66.069388	-34.610342	66.069388	-0.031149	-23.775754
1.350000	-0.032409	-24.663590	-34.300772	65.186348	-34.300772	65.186348	-0.032437	-24.674289
1.400000	-0.033689	-25.560488	-34.003620	64.304901	-34.003620	64.304901	-0.033719	-25.571569
1.450000	-0.034964	-26.456108	-33.718053	63.425129	-33.718053	63.425129	-0.034994	-26.467567
1.500000	-0.036234	-27.350422	-33.443322	62.547114	-33.443322	62.547114	-0.036265	-27.362260
1.550000	-0.037500	-28.243404	-33.178750	61.670937	-33.178750	61.670937	-0.037532	-28.255619
1.600000	-0.038763	-29.135027	-32.923726	60.796677	-32.923726	60.796677	-0.038797	-29.147618
1.650000	-0.040025	-30.025265	-32.677691	59.924415	-32.677691	59.924415	-0.040059	-30.038230
1.700000	-0.041285	-30.914089	-32.440137	59.054225	-32.440137	59.054225	-0.041320	-30.927427
1.750000	-0.042544	-31.801473	-32.210600	58.186185	-32.210600	58.186185	-0.042581	-31.815183
1.800000	-0.043804	-32.687390	-31.988652	57.320368	-31.988652	57.320368	-0.043841	-32.701471
1.850000	-0.045063	-33.571814	-31.773901	56.456845	-31.773901	56.456845	-0.045102	-33.586263
1.900000	-0.046324	-34.454718	-31.565985	55.595688	-31.565985	55.595688	-0.046364	-34.469535
1.950000	-0.047586	-35.336076	-31.364570	54.736965	-31.364570	54.736965	-0.047627	-35.351260
2.000000	-0.048850	-36.215865	-31.169345	53.880742	-31.169345	53.880742	-0.048891	-36.231414
2.050000	-0.050115	-37.094058	-30.980022	53.027085	-30.980022	53.027085	-0.050158	-37.109971
2.100000	-0.051383	-37.970633	-30.796335	52.176056	-30.796335	52.176056	-0.051427	-37.986907
2.150000	-0.052654	-38.845564	-30.618032	51.327718	-30.618032	51.327718	-0.052699	-38.862200
2.200000	-0.053928	-39.718831	-30.444880	50.482131	-30.444880	50.482131	-0.053973	-39.735826
2.250000	-0.055205	-40.590410	-30.276662	49.639352	-30.276662	49.639352	-0.055251	-40.607763
2.300000	-0.056485	-41.460281	-30.113172	48.799438	-30.113172	48.799438	-0.056533	-41.477990
2.350000	-0.057769	-42.328421	-29.954218	47.962445	-29.954218	47.962445	-0.057818	-42.346485
2.400000	-0.059057	-43.194812	-29.799620	47.128426	-29.799620	47.128426	-0.059107	-43.213230
2.450000	-0.060349	-44.059434	-29.649207	46.297432	-29.649207	46.297432	-0.060400	-44.078203
2.500000	-0.061646	-44.922268	-29.502818	45.469514	-29.502818	45.469514	-0.061698	-44.941388
2.550000	-0.062948	-45.783216	-29.360365	44.644860	-29.360365	44.644860	-0.063001	-45.802685
2.600000	-0.064255	-46.642340	-29.221639	43.823381	-29.221639	43.823381	-0.064309	-46.662156
2.650000	-0.065567	-47.499622	-29.086503	43.005125	-29.086503	43.005125	-0.065622	-47.519785
2.700000	-0.066885	-48.355047	-28.954830	42.190135	-28.954830	42.190135	-0.066941	-48.375554
2.750000	-0.068209	-49.208600	-28.826495	41.378453	-28.826495	41.378453	-0.068266	-49.229450
2.800000	-0.069539	-50.060266	-28.701382	40.570122	-28.701382	40.570122	-0.069597	-50.081458
2.850000	-0.070876	-50.910031	-28.579379	39.765180	-28.579379	39.765180	-0.070934	-50.931563
2.900000	-0.072219	-51.757883	-28.460381	38.963666	-28.460381	38.963666	-0.072279	-51.779753
2.950000	-0.073570	-52.603809	-28.344287	38.165618	-28.344287	38.165618	-0.073630	-52.626016
3.000000	-0.074928	-53.447796	-28.230999	37.371070	-28.230999	37.371070	-0.074989	-53.470339
3.050000	-0.076294	-54.289835	-28.120426	36.580058	-28.120426	36.580058	-0.076356	-54.312712
3.100000	-0.077668	-55.129915	-28.012477	35.792613	-28.012477	35.792613	-0.077731	-55.153124
3.150000	-0.079050	-55.968025	-27.907069	35.008767	-27.907069	35.008767	-0.079115	-55.991566
3.200000	-0.080441	-56.804158	-27.804120	34.228550	-27.804120	34.228550	-0.080507	-56.828029
3.250000	-0.081842	-57.638304	-27.703551	33.451992	-27.703551	33.451992	-0.081909	-57.662504
3.300000	-0.083252	-58.470457	-27.605288	32.679118	-27.605288	32.679118	-0.083320	-58.494983
3.350000	-0.084672	-59.300608	-27.509257	31.909957	-27.509257	31.909957	-0.084741	-59.325459
3.400000	-0.086103	-60.128751	-27.415388	31.144531	-27.415388	31.144531	-0.086173	-60.153927
3.450000	-0.087544	-60.954882	-27.323616	30.382865	-27.323616	30.382865	-0.087615	-60.980380
3.500000	-0.088997	-61.778993	-27.233874	29.624981	-27.233874	29.624981	-0.089069	-61.804813
3.550000	-0.090461	-62.601082	-27.146099	28.870898	-27.146099	28.870898	-0.090534	-62.627222
3.600000	-0.091937	-63.421144	-27.060232	28.120638	-27.060232	28.120638	-0.092011	-63.447603
3.650000	-0.093426	-64.239176	-26.976213	27.374217	-26.976213	27.374217	-0.093501	-64.265953
3.700000	-0.094927	-65.055176	-26.893987	26.631654	-26.893987	26.631654	-0.095003	-65.082268
3.750000	-0.096442	-65.869141	-26.813497	25.892962	-26.813497	25.892962	-0.096519	-65.896548
3.800000	-0.097971	-66.680981	-26.734731	25.158327	-26.734731	25.158327	-0.098049	-66.708702
3.850000	-0.099514	-67.490785	-26.657594	24.427593	-26.657594	24.427593	-0.099593	-67.518817
3.900000	-0.101072	-68.298551	-26.582038	23.700770	-26.582038	23.700770	-0.101152	-68.326895
3.950000	-0.102644	-69.104282	-26.508012	22.977870	-26.508012	22.977870	-0.102726	-69.132935
4.000000	-0.104233	-69.907977	-26.435470	22.258901	-26.435470	22.258901	-0.104316	-69.936939
4.050000	-0.105837	-70.709638	-26.364366	21.543871	-26.364366	21.543871	-0.105921	-70.738908
4.100000	-0.107458	-71.509269	-26.294653	20.832787	-26.294653	20.832787	-0.107543	-71.538845
4.150000	-0.109095	-72.306871	-26.226290	20.125652	-26.226290	20.125652	-0.109181	-72.336752
4.200000	-0.110756	-73.101745	-26.159494	19.423848	-26.159494	19.423848	-0.110844	-73.131930
4.250000	-0.112427	-73.895564	-26.093602	18.724109	-26.093602	18.724109	-0.112515	-73.926052
4.300000	-0.114119	-74.686931	-26.029086	18.029187	-26.029086	18.029187	-0.114209	-74.717721
4.350000	-0.115828	-75.476546	-25.965670	17.337707	-25.965670	17.337707	-0.115919	-75.507638
4.400000	-0.117557	-76.264071	-25.903421	16.650354	-25.903421	16.650354	-0.117649	-76.295463
4.450000	-0.119306	-77.049507	-25.842318	15.967127	-25.842318	15.967127	-0.119399	-77.081198
4.500000	-0.121073	-77.833213	-25.782193	15.287333	-25.782193	15.287333	-0.121168	-77.865202
4.550000	-0.122864	-78.614498	-25.723248	14.612343	-25.723248	14.612343	-0.122960	-78.646784
4.600000	-0.124671	-79.394411	-25.665110	13.940088	-25.665110	13.940088	-0.124768	-79.426994
4.650000	-0.126507	-80.171580	-25.608172	13.273304	-25.608172	13.273304	-0.126605	-80.204458
4.700000	-0.128355	-80.947729	-25.551890	12.608560	-25.551890	12.608560	-0.128454	-80.980903
4.750000	-0.130237	-81.720821	-25.496817	11.949940	-25.496817	11.949940	-0.130338	-81.754288
4.800000	-0.132128	-82.493239	-25.442265	11.292671	-25.442265	11.292671	-0.132230	-82.527000
4.850000	-0.134059	-83.262296	-25.388919	10.642159	-25.388919	10.642159	-0.134162	-83.296349
4.900000	-0.135994	-84.031021	-25.335977	9.992317	-25.335977	9.992317	-0.136099	-84.065366
4.950000	-0.137976	-84.796090	-25.284223	9.349845	-25.284223	9.349845	-0.138082	-84.830727
5.000000	-0.139958	-85.561160	-25.232775	8.707373	-25.232775	8.707373	-0.140065	-85.596087
5.050000	-0.141991	-86.322295	-25.182485	8.072861	-25.182485	8.072861	-0.142101	-86.357512
5.100000	-0.144026	-87.083430	-25.132484	7.438349	-25.132484	7.438349	-0.144136	-87.118937
5.150000	-0.146110	-87.841009	-25.083468	6.811045	-25.083468	6.811045	-0.146222	-87.876805
5.200000	-0.148199	-88.598265	-25.034791	6.184397	-25.034791	6.184397	-0.148312	-88.634350
5.250000	-0.150335	-89.352339	-24.986945	5.564211	-24.986945	5.564211	-0.150449	-89.388711
5.300000	-0.152480	-90.105776	-24.939472	4.945318	-24.939472	4.945318	-0.152596	-90.142437
5.350000	-0.154669	-90.856397	-24.892692	4.332148	-24.892692	4.332148	-0.154787	-90.893345
5.400000	-0.156873	-91.606079	-24.846308	3.720886	-24.846308	3.720886	-0.156993	-91.643314
5.450000	-0.159118	-92.353303	-24.800497	3.114618	-24.800497	3.114618	-0.159238	-92.390825
5.500000	-0.161382	-93.099298	-24.755090	2.510849	-24.755090	2.510849	-0.161505	-93.137107
5.550000	-0.163683	-93.843184	-24.710152	1.911359	-24.710152	1.911359	-0.163807	-93.881279
5.600000	-0.166011	-94.585563	-24.665611	1.314926	-24.665611	1.314926	-0.166136	-94.623944
5.650000	-0.168370	-95.326172	-24.621453	0.722077	-24.621453	0.722077	-0.168497	-95.364839
5.700000	-0.170762	-96.065010	-24.577674	0.132810	-24.577674	0.132810	-0.170890	-96.103964
5.750000	-0.173181	-96.802406	-24.534206	-0.453548	-24.534206	-0.453548	-0.173312	-96.841645
5.800000	-0.175640	-97.537782	-24.491085	-1.035836	-24.491085	-1.035836	-0.175771	-97.577307
5.850000	-0.178121	-98.272031	-24.448221	-1.615867	-24.448221	-1.615867	-0.178254	-98.311843
5.900000	-0.180648	-99.004026	-24.405657	-2.191382	-24.405657	-2.191382	-0.180783	-99.044124
5.950000	-0.183193	-99.735198	-24.363313	-2.765261	-24.363313	-2.765261	-0.183329	-99.775582
6.000000	-0.185790	-100.463897	-24.321210	-3.334227	-24.321210	-3.334227	-0.185928	-100.504568
6.050000	-0.188400	-101.192062	-24.279303	-3.902142	-24.279303	-3.902142	-0.188540	-101.233020
6.100000	-0.191069	-101.917555	-24.237566	-4.464802	-24.237566	-4.464802	-0.191211	-101.958799
6.150000	-0.193746	-102.642787	-24.196018	-5.026959	-24.196018	-5.026959	-0.193889	-102.684318
6.200000	-0.196490	-103.365163	-24.154555	-5.583574	-24.154555	-5.583574	-0.196635	-103.406982
6.250000	-0.199235	-104.087539	-24.113290	-6.140189	-24.113290	-6.140189	-0.199382	-104.129645
6.300000	-0.202055	-104.806892	-24.072013	-6.691041	-24.072013	-6.691041	-0.202204	-104.849288
6.350000	-0.204876	-105.526246	-24.030932	-7.241892	-24.030932	-7.241892	-0.205027	-105.568930
6.400000	-0.207769	-106.242918	-23.989781	-7.787736	-23.989781	-7.787736	-0.207921	-106.285892
6.450000	-0.210668	-106.959346	-23.948801	-8.333125	-23.948801	-8.333125	-0.210822	-107.002610
6.500000	-0.213634	-107.673420	-23.907707	-8.874230	-23.907707	-8.874230	-0.213790	-107.716974
6.550000	-0.216613	-108.387023	-23.866745	-9.414477	-23.866745	-9.414477	-0.216771	-108.430868
6.600000	-0.219654	-109.098584	-23.825643	-9.951125	-23.825643	-9.951125	-0.219814	-109.142721
6.650000	-0.222716	-109.809464	-23.784623	-10.486572	-23.784623	-10.486572	-0.222877	-109.853894
6.700000	-0.225833	-110.518599	-23.743450	-11.019060	-23.743450	-11.019060	-0.225997	-110.563323
6.750000	-0.228979	-111.226861	-23.702298	-11.550068	-23.702298	-11.550068	-0.229144	-111.271879
6.800000	-0.232175	-111.933660	-23.660995	-12.078708	-23.660995	-12.078708	-0.232342	-111.978973
6.850000	-0.235406	-112.639412	-23.619641	-12.605657	-23.619641	-12.605657	-0.235576	-112.685021
6.900000	-0.238682	-113.343965	-23.578153	-13.130775	-23.578153	-13.130775	-0.238853	-113.389871
6.950000	-0.242001	-114.047317	-23.536532	-13.654063	-23.536532	-13.654063	-0.242174	-114.093522
7.000000	-0.245358	-114.749717	-23.494806	-14.175999	-23.494806	-14.175999	-0.245534	-114.796221
7.050000	-0.248768	-115.450783	-23.452857	-14.696042	-23.452857	-14.696042	-0.248945	-115.497587
7.100000	-0.252208	-116.151125	-23.410846	-15.215148	-23.410846	-15.215148	-0.252387	-116.198230
7.150000	-0.255708	-116.850019	-23.368512	-15.732378	-23.368512	-15.732378	-0.255889	-116.897428
7.200000	-0.259233	-117.548400	-23.326171	-16.249016	-23.326171	-16.249016	-0.259416	-117.596112
7.250000	-0.262827	-118.245240	-23.283401	-16.763879	-23.283401	-16.763879	-0.263012	-118.293258
7.300000	-0.266438	-118.941758	-23.240690	-17.278423	-23.240690	-17.278423	-0.266625	-118.990082
7.350000	-0.270127	-119.636664	-23.197438	-17.791375	-23.197438	-17.791375	-0.270317	-119.685297
7.400000	-0.273826	-120.331419	-23.154321	-18.304207	-23.154321	-18.304207	-0.274017	-120.380361
7.450000	-0.277612	-121.024513	-23.110548	-18.815715	-23.110548	-18.815715	-0.277806	-121.073767
7.500000	-0.281400	-121.717607	-23.066994	-19.327223	-23.066994	-19.327223	-0.281596	-121.767173
7.550000	-0.285285	-122.409014	-23.022664	-19.837759	-23.022664	-19.837759	-0.285483	-122.458895
7.600000	-0.289171	-123.100421	-22.978559	-20.348295	-22.978559	-20.348295	-0.289372	-123.150617
7.650000	-0.293149	-123.790398	-22.933730	-20.858375	-22.933730	-20.858375	-0.293352	-123.840913
7.700000	-0.297136	-124.480245	-22.889046	-21.368413	-22.889046	-21.368413	-0.297341	-124.531078
7.750000	-0.301208	-125.168899	-22.843702	-21.878431	-22.843702	-21.878431	-0.301415	-125.220054
7.800000	-0.305298	-125.857314	-22.798417	-22.388444	-22.798417	-22.388444	-0.305507	-125.908792
7.850000	-0.309465	-126.544755	-22.752546	-22.898790	-22.752546	-22.898790	-0.309677	-126.596559
7.900000	-0.313659	-127.231871	-22.706644	-23.409247	-22.706644	-23.409247	-0.313873	-127.284002
7.950000	-0.317923	-127.918209	-22.660239	-23.920303	-22.660239	-23.920303	-0.318140	-127.970670
8.000000	-0.322224	-128.604159	-22.613710	-24.431659	-22.613710	-24.431659	-0.322442	-128.656951
8.050000	-0.326586	-129.289508	-22.566767	-24.943799	-22.566767	-24.943799	-0.326807	-129.342634
8.100000	-0.330994	-129.974428	-22.519607	-25.456499	-22.519607	-25.456499	-0.331217	-130.027889
8.150000	-0.335456	-130.658902	-22.472129	-25.970082	-22.472129	-25.970082	-0.335682	-130.712701
8.200000	-0.339973	-131.342930	-22.424339	-26.484548	-22.424339	-26.484548	-0.340202	-131.397070
8.250000	-0.344537	-132.026645	-22.376331	-26.999918	-22.376331	-26.999918	-0.344768	-132.081128
8.300000	-0.349165	-132.709922	-22.327918	-27.516551	-22.327918	-27.516551	-0.349398	-132.764751
8.350000	-0.353832	-133.392997	-22.279389	-28.034031	-22.279389	-28.034031	-0.354067	-133.448173
8.400000	-0.358573	-134.075666	-22.230366	-28.553204	-22.230366	-28.553204	-0.358810	-134.131193
8.450000	-0.363343	-134.758219	-22.181329	-29.073098	-22.181329	-29.073098	-0.363583	-134.814098
8.500000	-0.368198	-135.440425	-22.131710	-29.595151	-22.131710	-29.595151	-0.368441	-135.496661
8.550000	-0.373074	-136.122578	-22.082182	-30.117736	-22.082182	-30.117736	-0.373319	-136.179172
8.600000	-0.378045	-136.804469	-22.031987	-30.642975	-22.031987	-30.642975	-0.378293	-136.861425
8.650000	-0.383028	-137.486347	-21.981985	-31.168501	-21.981985	-31.168501	-0.383278	-137.543665
8.700000	-0.388116	-138.168072	-21.931236	-31.697193	-21.931236	-31.697193	-0.388368	-138.225760
8.750000	-0.393206	-138.849798	-21.880782	-32.225885	-21.880782	-32.225885	-0.393462	-138.907854
8.800000	-0.398413	-139.531512	-21.829503	-32.758256	-21.829503	-32.758256	-0.398671	-139.589942
8.850000	-0.403623	-140.213225	-21.778525	-33.290627	-21.778525	-33.290627	-0.403883	-140.272031
8.900000	-0.408940	-140.895069	-21.726833	-33.826541	-21.726833	-33.826541	-0.409203	-140.954256
8.950000	-0.414270	-141.576925	-21.675356	-34.362777	-21.675356	-34.362777	-0.414536	-141.636493
9.000000	-0.419699	-142.259032	-21.623275	-34.902351	-21.623275	-34.902351	-0.419967	-142.318987
9.050000	-0.425151	-142.941188	-21.571324	-35.442594	-21.571324	-35.442594	-0.425422	-143.001532
9.100000	-0.430693	-143.623690	-21.518874	-35.985918	-21.518874	-35.985918	-0.430966	-143.684427
9.150000	-0.436267	-144.306306	-21.466473	-36.530268	-21.466473	-36.530268	-0.436543	-144.367440
9.200000	-0.441923	-144.989339	-21.413676	-37.077398	-21.413676	-37.077398	-0.442202	-145.050873
9.250000	-0.447622	-145.672579	-21.360845	-37.625917	-21.360845	-37.625917	-0.447903	-145.734517
9.300000	-0.453393	-146.356280	-21.307718	-38.176880	-21.307718	-38.176880	-0.453677	-146.418625
9.350000	-0.459217	-147.040309	-21.254478	-38.729589	-21.254478	-38.729589	-0.459504	-147.103066
9.400000	-0.465104	-147.724818	-21.201037	-39.284387	-21.201037	-39.284387	-0.465393	-147.787989
9.450000	-0.471054	-148.409805	-21.147401	-39.841274	-21.147401	-39.841274	-0.471346	-148.473396
9.500000	-0.477058	-149.095263	-21.093658	-40.399884	-21.093658	-40.399884	-0.477353	-149.159276
9.550000	-0.483136	-149.781379	-21.039637	-40.960905	-21.039637	-40.960905	-0.483433	-149.845820
9.600000	-0.489257	-150.467930	-20.985599	-41.523280	-20.985599	-41.523280	-0.489558	-150.532801
9.650000	-0.495463	-151.155350	-20.931198	-42.088366	-20.931198	-42.088366	-0.495766	-151.220657
9.700000	-0.501704	-151.843140	-20.876869	-42.654444	-20.876869	-42.654444	-0.502009	-151.908886
9.750000	-0.508039	-152.532040	-20.822086	-43.223503	-20.822086	-43.223503	-0.508347	-152.598232
9.800000	-0.514398	-153.221218	-20.767466	-43.793207	-20.767466	-43.793207	-0.514709	-153.287856
9.850000	-0.520863	-153.911780	-20.712292	-44.366134	-20.712292	-44.366134	-0.521176	-153.978873
9.900000	-0.527342	-154.602496	-20.657375	-44.939375	-20.657375	-44.939375	-0.527658	-154.670045
9.950000	-0.533937	-155.294903	-20.601795	-45.516057	-20.601795	-45.516057	-0.534256	-155.362916
10.000000	-0.540537	-155.987310	-20.546569	-46.092739	-20.546569	-46.092739	-0.540858	-156.055788
