! freq	dB(S11)	phase(S11)	dB(S12)	phase(S12)	
!     	dB(S21)	phase(S21)	dB(S22)	phase(S22)	
!S-par simulation data
#  GHz  S  DB  R 50
0.000000	-0.000000	0.000000	-337.643560	0.000000	-337.643560	0.000000	-0.000000	0.000000
0.050000	-0.000106	-0.865782	-70.392645	88.028369	-70.392645	88.028369	-0.000101	-0.798315
0.100000	-0.000421	-1.731309	-64.504272	86.892344	-64.504272	86.892344	-0.000398	-1.596387
0.150000	-0.000933	-2.596341	-61.070730	86.162231	-61.070730	86.162231	-0.000881	-2.393992
0.200000	-0.001622	-3.460680	-58.624389	85.512561	-58.624389	85.512561	-0.001530	-3.190944
0.250000	-0.002475	-4.324097	-56.719121	84.850569	-56.719121	84.850569	-0.002333	-3.987032
0.300000	-0.003455	-5.186545	-55.158237	84.162452	-55.158237	84.162452	-0.003251	-4.782219
0.350000	-0.004542	-6.047896	-53.836707	83.449624	-53.836707	83.449624	-0.004268	-5.576393
0.400000	-0.005714	-6.908095	-52.691465	82.717089	-52.691465	82.717089	-0.005360	-6.369511
0.450000	-0.006947	-7.767114	-51.681591	81.969531	-51.681591	81.969531	-0.006508	-7.161557
0.500000	-0.008224	-8.624951	-50.779000	81.210645	-50.779000	81.210645	-0.007692	-7.952539
0.550000	-0.009527	-9.481619	-49.963572	80.443232	-49.963572	80.443232	-0.008898	-8.742477
0.600000	-0.010843	-10.337143	-49.220397	79.669403	-49.220397	79.669403	-0.010114	-9.531403
0.650000	-0.012162	-11.191551	-48.538121	78.890759	-48.538121	78.890759	-0.011330	-10.319349
0.700000	-0.013475	-12.044874	-47.907895	78.108539	-47.907895	78.108539	-0.012540	-11.106350
0.750000	-0.014778	-12.897142	-47.322690	77.323713	-47.322690	77.323713	-0.013740	-11.892437
0.800000	-0.016067	-13.748380	-46.776832	76.537056	-46.776832	76.537056	-0.014925	-12.677638
0.850000	-0.017339	-14.598608	-46.265670	75.749197	-46.265670	75.749197	-0.016095	-13.461975
0.900000	-0.018593	-15.447841	-45.785349	74.960656	-45.785349	74.960656	-0.017249	-14.245464
0.950000	-0.019829	-16.296090	-45.332635	74.171870	-45.332635	74.171870	-0.018386	-15.028118
1.000000	-0.021047	-17.143360	-44.904791	73.383212	-44.904791	73.383212	-0.019507	-15.809941
1.050000	-0.022248	-17.989649	-44.499475	72.595005	-44.499475	72.595005	-0.020614	-16.590937
1.100000	-0.023433	-18.834954	-44.114674	71.807533	-44.114674	71.807533	-0.021707	-17.371101
1.150000	-0.024604	-19.679266	-43.748639	71.021048	-43.748639	71.021048	-0.022787	-18.150429
1.200000	-0.025761	-20.522573	-43.399846	70.235778	-43.399846	70.235778	-0.023856	-18.928910
1.250000	-0.026906	-21.364861	-43.066954	69.451931	-43.066954	69.451931	-0.024916	-19.706535
1.300000	-0.028041	-22.206068	-42.748889	68.669776	-42.748889	68.669776	-0.025965	-20.483250
1.350000	-0.029165	-23.046219	-42.444492	67.889428	-42.444492	67.889428	-0.027008	-21.259077
1.400000	-0.030282	-23.885293	-42.152826	67.111052	-42.152826	67.111052	-0.028043	-22.033999
1.450000	-0.031392	-24.723270	-41.873052	66.334803	-41.873052	66.334803	-0.029073	-22.807999
1.500000	-0.032495	-25.560127	-41.604415	65.560830	-41.604415	65.560830	-0.030098	-23.581058
1.550000	-0.033594	-26.395842	-41.346234	64.789276	-41.346234	64.789276	-0.031119	-24.353156
1.600000	-0.034688	-27.230391	-41.097893	64.020278	-41.097893	64.020278	-0.032137	-25.124276
1.650000	-0.035778	-28.063751	-40.858831	63.253968	-40.858831	63.253968	-0.033151	-25.894395
1.700000	-0.036865	-28.895465	-40.629382	62.491513	-40.629382	62.491513	-0.034164	-26.663132
1.750000	-0.037951	-29.726538	-40.407057	61.730571	-40.407057	61.730571	-0.035175	-27.431330
1.800000	-0.039035	-30.556066	-40.193149	60.973418	-40.193149	60.973418	-0.036185	-28.198229
1.850000	-0.040118	-31.384490	-39.986383	60.218971	-39.986383	60.218971	-0.037195	-28.964200
1.900000	-0.041200	-32.211540	-39.786856	59.468028	-39.786856	59.468028	-0.038204	-29.729015
1.950000	-0.042282	-33.037216	-39.594186	58.720589	-39.594186	58.720589	-0.039213	-30.492675
2.000000	-0.043364	-33.861705	-39.407696	57.976277	-39.407696	57.976277	-0.040223	-31.255336
2.050000	-0.044447	-34.684534	-39.227869	57.236342	-39.227869	57.236342	-0.041233	-32.016601
2.100000	-0.045531	-35.506633	-39.052867	56.498384	-39.052867	56.498384	-0.042244	-32.777249
2.150000	-0.046616	-36.326833	-38.884316	55.765579	-38.884316	55.765579	-0.043257	-33.536300
2.200000	-0.047702	-37.145598	-38.721188	55.036744	-38.721188	55.036744	-0.044271	-34.294141
2.250000	-0.048791	-37.962906	-38.563262	54.311988	-38.563262	54.311988	-0.045287	-35.050754
2.300000	-0.049882	-38.778739	-38.410334	53.591417	-38.410334	53.591417	-0.046306	-35.806123
2.350000	-0.050976	-39.593077	-38.262209	52.875136	-38.262209	52.875136	-0.047326	-36.560231
2.400000	-0.052072	-40.405901	-38.118707	52.163251	-38.118707	52.163251	-0.048350	-37.313061
2.450000	-0.053172	-41.217194	-37.979655	51.455866	-37.979655	51.455866	-0.049377	-38.064597
2.500000	-0.054275	-42.026937	-37.844891	50.753085	-37.844891	50.753085	-0.050406	-38.814823
2.550000	-0.055383	-42.835045	-37.714353	50.055221	-37.714353	50.055221	-0.051440	-39.563667
2.600000	-0.056494	-43.641569	-37.587803	49.362176	-37.587803	49.362176	-0.052477	-40.311169
2.650000	-0.057610	-44.446492	-37.465103	48.674052	-37.465103	48.674052	-0.053519	-41.057315
2.700000	-0.058731	-45.249800	-37.346121	47.990950	-37.346121	47.990950	-0.054565	-41.802091
2.750000	-0.059858	-46.051476	-37.230734	47.312971	-37.230734	47.312971	-0.055616	-42.545484
2.800000	-0.060990	-46.851508	-37.118822	46.640215	-37.118822	46.640215	-0.056672	-43.287479
2.850000	-0.062127	-47.649880	-37.010271	45.972782	-37.010271	45.972782	-0.057733	-44.028064
2.900000	-0.063271	-48.446580	-36.904972	45.310772	-36.904972	45.310772	-0.058800	-44.767227
2.950000	-0.064422	-49.241594	-36.802823	44.654283	-36.802823	44.654283	-0.059874	-45.504954
3.000000	-0.065579	-50.034911	-36.703722	44.003413	-36.703722	44.003413	-0.060953	-46.241234
3.050000	-0.066744	-50.826518	-36.607574	43.358261	-36.607574	43.358261	-0.062039	-46.976056
3.100000	-0.067917	-51.616404	-36.514287	42.718922	-36.514287	42.718922	-0.063133	-47.709407
3.150000	-0.069098	-52.404559	-36.423772	42.085494	-36.423772	42.085494	-0.064233	-48.441279
3.200000	-0.070287	-53.190972	-36.335943	41.458073	-36.335943	41.458073	-0.065342	-49.171660
3.250000	-0.071485	-53.975633	-36.250717	40.836753	-36.250717	40.836753	-0.066458	-49.900539
3.300000	-0.072692	-54.758533	-36.168016	40.221630	-36.168016	40.221630	-0.067583	-50.627909
3.350000	-0.073911	-55.539353	-36.088045	39.613920	-36.088045	39.613920	-0.068718	-51.353491
3.400000	-0.075141	-56.318318	-36.010511	39.012874	-36.010511	39.012874	-0.069863	-52.077479
3.450000	-0.076376	-57.096348	-35.934494	38.415243	-35.934494	38.415243	-0.071013	-52.800661
3.500000	-0.077627	-57.871574	-35.861607	37.827860	-35.861607	37.827860	-0.072179	-53.521428
3.550000	-0.078883	-58.646173	-35.789858	37.242820	-35.789858	37.242820	-0.073348	-54.241653
3.600000	-0.080159	-59.417633	-35.721329	36.669495	-35.721329	36.669495	-0.074535	-54.959166
3.650000	-0.081438	-60.188777	-35.653591	36.097373	-35.653591	36.097373	-0.075725	-55.676405
3.700000	-0.082740	-60.956446	-35.589144	35.538492	-35.589144	35.538492	-0.076936	-56.390635
3.750000	-0.084042	-61.724115	-35.525172	34.979611	-35.525172	34.979611	-0.078148	-57.104865
3.800000	-0.085372	-62.487974	-35.464542	34.435549	-35.464542	34.435549	-0.079384	-57.815786
3.850000	-0.086702	-63.251833	-35.404332	33.891488	-35.404332	33.891488	-0.080621	-58.526707
3.900000	-0.088060	-64.012186	-35.347033	33.361344	-35.347033	33.361344	-0.081883	-59.234573
3.950000	-0.089420	-64.772219	-35.290335	32.832465	-35.290335	32.832465	-0.083147	-59.942161
4.000000	-0.090806	-65.529057	-35.236144	32.316531	-35.236144	32.316531	-0.084435	-60.646957
4.050000	-0.092198	-66.285255	-35.182714	31.803186	-35.182714	31.803186	-0.085728	-61.351195
4.100000	-0.093615	-67.038571	-35.131415	31.301741	-35.131415	31.301741	-0.087044	-62.052907
4.150000	-0.095040	-67.790927	-35.081015	30.804262	-35.081015	30.804262	-0.088367	-62.753777
4.200000	-0.096489	-68.540720	-35.032399	30.317572	-35.032399	30.317572	-0.089712	-63.452395
4.250000	-0.097949	-69.289232	-34.984795	29.836276	-34.984795	29.836276	-0.091068	-64.149886
4.300000	-0.099432	-70.035503	-34.938657	29.364590	-34.938657	29.364590	-0.092443	-64.845401
4.350000	-0.100929	-70.780173	-34.893618	28.899770	-34.893618	28.899770	-0.093833	-65.539504
4.400000	-0.102447	-71.522926	-34.849756	28.443321	-34.849756	28.443321	-0.095240	-66.231909
4.450000	-0.103984	-72.263760	-34.807055	27.995244	-34.807055	27.995244	-0.096665	-66.922618
4.500000	-0.105538	-73.003002	-34.765272	27.554244	-34.765272	27.554244	-0.098106	-67.611911
4.550000	-0.107116	-73.740012	-34.724679	27.123151	-34.724679	27.123151	-0.099569	-68.299223
4.600000	-0.108708	-74.475752	-34.684780	26.697788	-34.684780	26.697788	-0.101045	-68.985403
4.650000	-0.110329	-75.208951	-34.646070	26.283884	-34.646070	26.283884	-0.102547	-69.669319
4.700000	-0.111961	-75.941203	-34.607861	25.874321	-34.607861	25.874321	-0.104059	-70.352387
4.750000	-0.113626	-76.670611	-34.570807	25.477775	-34.570807	25.477775	-0.105601	-71.032911
4.800000	-0.115300	-77.399390	-34.534096	25.084144	-34.534096	25.084144	-0.107151	-71.712871
4.850000	-0.117012	-78.125028	-34.498470	24.705082	-34.498470	24.705082	-0.108736	-72.390010
4.900000	-0.118728	-78.850354	-34.463065	24.327483	-34.463065	24.327483	-0.110325	-73.066868
4.950000	-0.120488	-79.572248	-34.428640	23.965979	-34.428640	23.965979	-0.111954	-73.740631
5.000000	-0.122249	-80.294142	-34.394351	23.604476	-34.394351	23.604476	-0.113584	-74.414395
5.050000	-0.124059	-81.012322	-34.360897	23.260553	-34.360897	23.260553	-0.115259	-75.084797
5.100000	-0.125869	-81.730502	-34.327572	22.916629	-34.327572	22.916629	-0.116935	-75.755199
5.150000	-0.127727	-82.445307	-34.294821	22.588784	-34.294821	22.588784	-0.118654	-76.422534
5.200000	-0.129590	-83.159806	-34.262233	22.262400	-34.262233	22.262400	-0.120377	-77.089589
5.250000	-0.131496	-83.871267	-34.229990	21.950541	-34.229990	21.950541	-0.122141	-77.753872
5.300000	-0.133413	-84.582121	-34.197911	21.641588	-34.197911	21.641588	-0.123913	-78.417600
5.350000	-0.135370	-85.290271	-34.165983	21.345571	-34.165983	21.345571	-0.125723	-79.078849
5.400000	-0.137341	-85.997520	-34.134183	21.053866	-34.134183	21.053866	-0.127547	-79.739271
5.450000	-0.139351	-86.702394	-34.102378	20.773483	-34.102378	20.773483	-0.129405	-80.397506
5.500000	-0.141380	-87.406081	-34.070629	20.498761	-34.070629	20.498761	-0.131281	-81.054647
5.550000	-0.143442	-88.107718	-34.038756	20.233740	-34.038756	20.233740	-0.133188	-81.709889
5.600000	-0.145530	-88.807889	-34.006830	19.975649	-34.006830	19.975649	-0.135119	-82.363774
5.650000	-0.147648	-89.506328	-33.974701	19.725651	-33.974701	19.725651	-0.137077	-83.016047
5.700000	-0.149796	-90.203033	-33.942371	19.483746	-33.942371	19.483746	-0.139063	-83.666708
5.750000	-0.151969	-90.898316	-33.909799	19.248357	-33.909799	19.248357	-0.141073	-84.316038
5.800000	-0.154180	-91.591608	-33.876844	19.022093	-33.876844	19.022093	-0.143117	-84.963504
5.850000	-0.156411	-92.283779	-33.843646	18.800826	-33.843646	18.800826	-0.145180	-85.609918
5.900000	-0.158685	-92.973712	-33.809846	18.589556	-33.809846	18.589556	-0.147283	-86.254226
5.950000	-0.160976	-93.662820	-33.775845	18.381846	-33.775845	18.381846	-0.149402	-86.897753
6.000000	-0.163316	-94.349452	-33.740988	18.184816	-33.740988	18.184816	-0.151565	-87.538938
6.050000	-0.165667	-95.035544	-33.706012	17.990018	-33.706012	17.990018	-0.153740	-88.179609
6.100000	-0.168074	-95.718936	-33.669893	17.806371	-33.669893	17.806371	-0.155966	-88.817711
6.150000	-0.170487	-96.402064	-33.633776	17.623759	-33.633776	17.623759	-0.158198	-89.455559
6.200000	-0.172962	-97.082279	-33.596201	17.452529	-33.596201	17.452529	-0.160488	-90.090618
6.250000	-0.175438	-97.762495	-33.558788	17.281299	-33.558788	17.281299	-0.162779	-90.725678
6.300000	-0.177984	-98.439599	-33.519573	17.121418	-33.519573	17.121418	-0.165134	-91.357738
6.350000	-0.180531	-99.116704	-33.480535	16.961537	-33.480535	16.961537	-0.167491	-91.989798
6.400000	-0.183143	-99.791020	-33.439693	16.810990	-33.439693	16.810990	-0.169908	-92.619151
6.450000	-0.185761	-100.465082	-33.398864	16.661292	-33.398864	16.661292	-0.172332	-93.248258
6.500000	-0.188440	-101.136667	-33.356272	16.519032	-33.356272	16.519032	-0.174812	-93.874943
6.550000	-0.191132	-101.807758	-33.313500	16.378260	-33.313500	16.378260	-0.177304	-94.501144
6.600000	-0.193880	-102.476674	-33.269051	16.243179	-33.269051	16.243179	-0.179849	-95.125203
6.650000	-0.196647	-103.144866	-33.224203	16.109995	-33.224203	16.109995	-0.182412	-95.748547
6.700000	-0.199465	-103.811175	-33.177805	15.980934	-33.177805	15.980934	-0.185022	-96.370021
6.750000	-0.202308	-104.476544	-33.130767	15.853934	-33.130767	15.853934	-0.187656	-96.990560
6.800000	-0.205197	-105.140310	-33.082344	15.729691	-33.082344	15.729691	-0.190333	-97.609494
6.850000	-0.208119	-105.802933	-33.033025	15.607417	-33.033025	15.607417	-0.193041	-98.227281
6.900000	-0.211080	-106.464222	-32.982519	15.486758	-32.982519	15.486758	-0.195786	-98.843719
6.950000	-0.214081	-107.124178	-32.930849	15.367714	-32.930849	15.367714	-0.198569	-99.458809
7.000000	-0.217116	-107.783057	-32.878220	15.249385	-32.878220	15.249385	-0.201383	-100.072800
7.050000	-0.220198	-108.440429	-32.824151	15.132058	-32.824151	15.132058	-0.204242	-100.685249
7.100000	-0.223307	-109.096967	-32.769378	15.014799	-32.769378	15.014799	-0.207127	-101.296839
7.150000	-0.226471	-109.751838	-32.712886	14.897676	-32.712886	14.897676	-0.210064	-101.906707
7.200000	-0.229657	-110.406105	-32.655967	14.780231	-32.655967	14.780231	-0.213021	-102.515945
7.250000	-0.232905	-111.058561	-32.597053	14.661819	-32.597053	14.661819	-0.216037	-103.123292
7.300000	-0.236168	-111.710629	-32.538002	14.542951	-32.538002	14.542951	-0.219067	-103.730229
7.350000	-0.239501	-112.360758	-32.476690	14.421799	-32.476690	14.421799	-0.222163	-104.335116
7.400000	-0.242842	-113.010700	-32.415539	14.300303	-32.415539	14.300303	-0.225267	-104.939803
7.450000	-0.246261	-113.658591	-32.351876	14.175019	-32.351876	14.175019	-0.228446	-105.542294
7.500000	-0.249681	-114.306482	-32.288675	14.049734	-32.288675	14.049734	-0.231625	-106.144785
7.550000	-0.253188	-114.952227	-32.222726	13.919002	-32.222726	13.919002	-0.234887	-106.744944
7.600000	-0.256697	-115.597971	-32.157275	13.788270	-32.157275	13.788270	-0.238150	-107.345104
7.650000	-0.260285	-116.241834	-32.089394	13.651425	-32.089394	13.651425	-0.241490	-107.943187
7.700000	-0.263882	-116.885525	-32.021776	13.514025	-32.021776	13.514025	-0.244837	-108.541081
7.750000	-0.267554	-117.527586	-31.952061	13.370139	-31.952061	13.370139	-0.248256	-109.137145
7.800000	-0.271241	-118.169319	-31.882381	13.224957	-31.882381	13.224957	-0.251690	-109.732843
7.850000	-0.274996	-118.809657	-31.810938	13.073194	-31.810938	13.073194	-0.255188	-110.326945
7.900000	-0.278775	-119.449530	-31.739313	12.919238	-31.739313	12.919238	-0.258709	-110.920515
7.950000	-0.282615	-120.088228	-31.666260	12.758855	-31.666260	12.758855	-0.262289	-111.512714
8.000000	-0.286487	-120.726339	-31.592818	12.595259	-31.592818	12.595259	-0.265899	-112.104227
8.050000	-0.290413	-121.363480	-31.518278	12.425614	-31.518278	12.425614	-0.269561	-112.694583
8.100000	-0.294378	-121.999929	-31.443159	12.251649	-31.443159	12.251649	-0.273260	-113.284112
8.150000	-0.298390	-122.635598	-31.367260	12.072203	-31.367260	12.072203	-0.277005	-113.872686
8.200000	-0.302450	-123.270487	-31.290609	11.887276	-31.290609	11.887276	-0.280796	-114.460304
8.250000	-0.306551	-123.904769	-31.213482	11.697593	-31.213482	11.697593	-0.284625	-115.047158
8.300000	-0.310706	-124.538203	-31.135446	11.501252	-31.135446	11.501252	-0.288507	-115.632941
8.350000	-0.314895	-125.171187	-31.057224	11.300999	-31.057224	11.300999	-0.292422	-116.218138
8.400000	-0.319148	-125.803270	-30.977954	11.092926	-30.977954	11.092926	-0.296398	-116.802162
8.450000	-0.323426	-126.435043	-30.898768	10.881873	-30.898768	10.881873	-0.300398	-117.385766
8.500000	-0.327777	-127.065885	-30.818412	10.661882	-30.818412	10.661882	-0.304468	-117.968109
8.550000	-0.332145	-127.696537	-30.738389	10.439894	-30.738389	10.439894	-0.308556	-118.550185
8.600000	-0.336594	-128.326246	-30.657093	10.207925	-30.657093	10.207925	-0.312721	-119.130927
8.650000	-0.341053	-128.955869	-30.576357	9.974963	-30.576357	9.974963	-0.316896	-119.711541
8.700000	-0.345602	-129.584555	-30.494259	9.731074	-30.494259	9.731074	-0.321158	-120.290762
8.750000	-0.350153	-130.213241	-30.412930	9.487185	-30.412930	9.487185	-0.325422	-120.869982
8.800000	-0.354802	-130.841018	-30.330162	9.231541	-30.330162	9.231541	-0.329781	-121.447764
8.850000	-0.359454	-131.468796	-30.248175	8.975897	-30.248175	8.975897	-0.334143	-122.025546
8.900000	-0.364196	-132.095845	-30.165034	8.709718	-30.165034	8.709718	-0.338592	-122.602085
8.950000	-0.368948	-132.722827	-30.082509	8.442581	-30.082509	8.442581	-0.343051	-123.178511
9.000000	-0.373784	-133.349245	-29.999092	8.166158	-29.999092	8.166158	-0.347592	-123.753879
9.050000	-0.378638	-133.975550	-29.916138	7.887877	-29.916138	7.887877	-0.352150	-124.329035
9.100000	-0.383568	-134.601436	-29.832531	7.601555	-29.832531	7.601555	-0.356782	-124.903303
9.150000	-0.388525	-135.227181	-29.749246	7.312554	-29.749246	7.312554	-0.361441	-125.477275
9.200000	-0.393549	-135.852634	-29.665525	7.016730	-29.665525	7.016730	-0.366165	-126.050517
9.250000	-0.398609	-136.477941	-29.581994	6.717495	-29.581994	6.717495	-0.370924	-126.623393
9.300000	-0.403728	-137.103063	-29.498224	6.412604	-29.498224	6.412604	-0.375741	-127.195682
9.350000	-0.408892	-137.728053	-29.414520	6.103674	-29.414520	6.103674	-0.380601	-127.767551
9.400000	-0.414106	-138.352947	-29.330755	5.790187	-29.330755	5.790187	-0.385512	-128.338963
9.450000	-0.419373	-138.977745	-29.246937	5.472142	-29.246937	5.472142	-0.390474	-128.909916
9.500000	-0.424684	-139.602516	-29.163222	5.150553	-29.163222	5.150553	-0.395478	-129.480527
9.550000	-0.430055	-140.227248	-29.079336	4.824004	-29.079336	4.824004	-0.400542	-130.050658
9.600000	-0.435461	-140.852001	-28.995704	4.494830	-28.995704	4.494830	-0.405641	-130.620545
9.650000	-0.440936	-141.476796	-28.911782	4.160407	-28.911782	4.160407	-0.410808	-131.189946
9.700000	-0.446439	-142.101640	-28.828256	3.824177	-28.828256	3.824177	-0.416002	-131.759189
9.750000	-0.452018	-142.726629	-28.744317	3.482524	-28.744317	3.482524	-0.421271	-132.327957
9.800000	-0.457617	-143.351672	-28.660910	3.139775	-28.660910	3.139775	-0.426560	-132.896635
9.850000	-0.463300	-143.976987	-28.576959	2.791539	-28.576959	2.791539	-0.431932	-133.464866
9.900000	-0.468995	-144.602341	-28.493675	2.442809	-28.493675	2.442809	-0.437317	-134.033061
9.950000	-0.474782	-145.228118	-28.409704	2.088634	-28.409704	2.088634	-0.442793	-134.600855
10.000000	-0.480573	-145.853895	-28.326537	1.734459	-28.326537	1.734459	-0.448272	-135.168649
