! freq	dB(S11)	phase(S11)	dB(S12)	phase(S12)	
!     	dB(S21)	phase(S21)	dB(S22)	phase(S22)	
!S-par simulation data
#  GHz  S  DB  R 50
0.000000	-0.000000	0.000000	-334.899032	0.000000	-334.899032	0.000000	-0.000000	0.000000
0.050000	-0.000106	-0.854392	-67.005499	88.905194	-67.005499	88.905194	-0.000106	-0.854394
0.100000	-0.000418	-1.708531	-61.006289	87.865286	-61.006289	87.865286	-0.000418	-1.708535
0.150000	-0.000926	-2.562182	-57.511583	86.900594	-57.511583	86.900594	-0.000926	-2.562189
0.200000	-0.001609	-3.415150	-55.039822	85.999988	-55.039822	85.999988	-0.001609	-3.415158
0.250000	-0.002456	-4.267208	-53.126432	85.145205	-53.126432	85.145205	-0.002456	-4.267219
0.300000	-0.003428	-5.118312	-51.564006	84.314049	-51.564006	84.314049	-0.003428	-5.118325
0.350000	-0.004507	-5.968337	-50.243487	83.496412	-50.243487	83.496412	-0.004507	-5.968352
0.400000	-0.005670	-6.817229	-49.099910	82.684923	-49.099910	82.684923	-0.005670	-6.817246
0.450000	-0.006894	-7.664963	-48.091586	81.875511	-48.091586	81.875511	-0.006894	-7.664982
0.500000	-0.008161	-8.511538	-47.190144	81.066096	-47.190144	81.066096	-0.008161	-8.511559
0.550000	-0.009455	-9.356968	-46.375386	80.255726	-46.375386	80.255726	-0.009455	-9.356992
0.600000	-0.010762	-10.201279	-45.632403	79.444064	-45.632403	79.444064	-0.010762	-10.201304
0.650000	-0.012072	-11.044500	-44.949874	78.631098	-44.949874	78.631098	-0.012072	-11.044527
0.700000	-0.013379	-11.886663	-44.318990	77.816978	-44.318990	77.816978	-0.013379	-11.886692
0.750000	-0.014675	-12.727797	-43.732760	77.001931	-43.732760	77.001931	-0.014675	-12.727828
0.800000	-0.015958	-13.567928	-43.185543	76.186210	-43.185543	76.186210	-0.015958	-13.567961
0.850000	-0.017225	-14.407076	-42.672719	75.370073	-42.672719	75.370073	-0.017225	-14.407112
0.900000	-0.018475	-15.245259	-42.190455	74.553771	-42.190455	74.553771	-0.018475	-15.245296
0.950000	-0.019708	-16.082485	-41.735538	73.737538	-41.735538	73.737538	-0.019708	-16.082524
1.000000	-0.020925	-16.918760	-41.305243	72.921594	-41.305243	72.921594	-0.020925	-16.918801
1.050000	-0.022126	-17.754084	-40.897245	72.106143	-40.897245	72.106143	-0.022126	-17.754127
1.100000	-0.023312	-18.588453	-40.509540	71.291374	-40.509540	71.291374	-0.023312	-18.588499
1.150000	-0.024484	-19.421860	-40.140389	70.477463	-40.140389	70.477463	-0.024484	-19.421907
1.200000	-0.025645	-20.254293	-39.788272	69.664573	-39.788272	69.664573	-0.025645	-20.254342
1.250000	-0.026794	-21.085738	-39.451857	68.852856	-39.451857	68.852856	-0.026794	-21.085790
1.300000	-0.027933	-21.916136	-39.130054	68.042520	-39.130054	68.042520	-0.027933	-21.916189
1.350000	-0.029064	-22.745511	-38.821727	67.233647	-38.821727	67.233647	-0.029064	-22.745566
1.400000	-0.030187	-23.573843	-38.525943	66.426364	-38.525943	66.426364	-0.030187	-23.573900
1.450000	-0.031304	-24.401112	-38.241866	65.620792	-38.241866	65.620792	-0.031304	-24.401171
1.500000	-0.032416	-25.227297	-37.968743	64.817045	-37.968743	64.817045	-0.032416	-25.227357
1.550000	-0.033524	-26.052375	-37.705896	64.015234	-37.705896	64.015234	-0.033524	-26.052438
1.600000	-0.034628	-26.876324	-37.452709	63.215464	-37.452709	63.215464	-0.034628	-26.876389
1.650000	-0.035729	-27.699122	-37.208624	62.417836	-37.208624	62.417836	-0.035729	-27.699189
1.700000	-0.036828	-28.520327	-36.973816	61.623275	-36.973816	61.623275	-0.036828	-28.520396
1.750000	-0.037925	-29.340911	-36.746177	60.829916	-36.746177	60.829916	-0.037925	-29.340982
1.800000	-0.039022	-30.160000	-36.526678	60.039559	-36.526678	60.039559	-0.039022	-30.160072
1.850000	-0.040118	-30.978020	-36.314211	59.251346	-36.314211	59.251346	-0.040118	-30.978094
1.900000	-0.041213	-31.794709	-36.108785	58.465898	-36.108785	58.465898	-0.041213	-31.794785
1.950000	-0.042309	-32.610068	-35.910030	57.683213	-35.910030	57.683213	-0.042309	-32.610146
2.000000	-0.043406	-33.424279	-35.717338	56.902983	-35.717338	56.902983	-0.043406	-33.424358
2.050000	-0.044503	-34.236883	-35.531045	56.126190	-35.531045	56.126190	-0.044503	-34.236964
2.100000	-0.045602	-35.048779	-35.349615	55.350942	-35.349615	55.350942	-0.045602	-35.048862
2.150000	-0.046702	-35.858838	-35.174314	54.579720	-35.174314	54.579720	-0.046702	-35.858923
2.200000	-0.047805	-36.667508	-35.004268	53.811589	-35.004268	53.811589	-0.047805	-36.667594
2.250000	-0.048909	-37.474768	-34.839257	53.046623	-34.839257	53.046623	-0.048909	-37.474856
2.300000	-0.050017	-38.280600	-34.679076	52.284897	-34.679076	52.284897	-0.050017	-38.280689
2.350000	-0.051127	-39.084984	-34.523533	51.526483	-34.523533	51.526483	-0.051127	-39.085076
2.400000	-0.052240	-39.887904	-34.372448	50.771451	-34.372448	50.771451	-0.052240	-39.887997
2.450000	-0.053356	-40.689342	-34.225649	50.019873	-34.225649	50.019873	-0.053356	-40.689436
2.500000	-0.054477	-41.489280	-34.082976	49.271815	-34.082976	49.271815	-0.054477	-41.489376
2.550000	-0.055601	-42.287635	-33.944349	48.527505	-33.944349	48.527505	-0.055601	-42.287733
2.600000	-0.056730	-43.084457	-33.809551	47.786856	-33.809551	47.786856	-0.056730	-43.084556
2.650000	-0.057863	-43.879729	-33.678444	47.049932	-33.678444	47.049932	-0.057863	-43.879830
2.700000	-0.059001	-44.673438	-33.550900	46.316797	-33.550900	46.316797	-0.059001	-44.673540
2.750000	-0.060145	-45.465568	-33.426794	45.587515	-33.426794	45.587515	-0.060144	-45.465672
2.800000	-0.061293	-46.256106	-33.306010	44.862146	-33.306010	44.862146	-0.061293	-46.256211
2.850000	-0.062448	-47.045037	-33.188437	44.140751	-33.188437	44.140751	-0.062448	-47.045144
2.900000	-0.063609	-47.832350	-33.073968	43.423390	-33.073968	43.423390	-0.063609	-47.832458
2.950000	-0.064777	-48.618031	-32.962500	42.710120	-32.962500	42.710120	-0.064777	-48.618140
3.000000	-0.065951	-49.402069	-32.853938	42.000999	-32.853938	42.000999	-0.065951	-49.402179
3.050000	-0.067132	-50.184451	-32.748187	41.296084	-32.748187	41.296084	-0.067132	-50.184564
3.100000	-0.068321	-50.965168	-32.645158	40.595429	-32.645158	40.595429	-0.068321	-50.965282
3.150000	-0.069518	-51.744208	-32.544765	39.899088	-32.544765	39.899088	-0.069518	-51.744323
3.200000	-0.070724	-52.521562	-32.446926	39.207114	-32.446926	39.207114	-0.070724	-52.521678
3.250000	-0.071937	-53.297220	-32.351562	38.519560	-32.351562	38.519560	-0.071937	-53.297337
3.300000	-0.073160	-54.071172	-32.258596	37.836476	-32.258596	37.836476	-0.073160	-54.071291
3.350000	-0.074394	-54.843111	-32.168185	37.158711	-32.168185	37.158711	-0.074394	-54.843231
3.400000	-0.075638	-55.613253	-32.080080	36.485715	-32.080080	36.485715	-0.075638	-55.613374
3.450000	-0.076888	-56.382490	-31.993531	35.815146	-31.993531	35.815146	-0.076888	-56.382613
3.500000	-0.078154	-57.149012	-31.909829	35.151857	-31.909829	35.151857	-0.078154	-57.149136
3.550000	-0.079424	-57.914927	-31.827357	34.490219	-31.827357	34.490219	-0.079424	-57.915051
3.600000	-0.080714	-58.677801	-31.747793	33.836833	-31.747793	33.836833	-0.080714	-58.677927
3.650000	-0.082006	-59.440369	-31.669157	33.184287	-31.669157	33.184287	-0.082005	-59.440496
3.700000	-0.083320	-60.199571	-31.593479	32.540989	-31.593479	32.540989	-0.083320	-60.199700
3.750000	-0.084635	-60.958774	-31.518455	31.897691	-31.518455	31.897691	-0.084635	-60.958903
3.800000	-0.085977	-61.714286	-31.446427	31.264654	-31.446427	31.264654	-0.085977	-61.714416
3.850000	-0.087319	-62.469798	-31.374991	30.631617	-31.374991	30.631617	-0.087319	-62.469929
3.900000	-0.088688	-63.221913	-31.306197	30.008135	-31.306197	30.008135	-0.088688	-63.222045
3.950000	-0.090059	-63.973719	-31.238130	29.385523	-31.238130	29.385523	-0.090059	-63.973852
4.000000	-0.091455	-64.722428	-31.172375	28.771722	-31.172375	28.771722	-0.091455	-64.722562
4.050000	-0.092857	-65.470518	-31.107468	28.159685	-31.107468	28.159685	-0.092857	-65.470653
4.100000	-0.094283	-66.215816	-31.044564	27.555682	-31.044564	27.555682	-0.094283	-66.215952
4.150000	-0.095717	-66.960183	-30.982616	26.954357	-30.982616	26.954357	-0.095717	-66.960320
4.200000	-0.097174	-67.702067	-30.922385	26.360258	-30.922385	26.360258	-0.097174	-67.702205
4.250000	-0.098643	-68.442709	-30.863204	25.769772	-30.863204	25.769772	-0.098643	-68.442848
4.300000	-0.100133	-69.181179	-30.805476	25.185674	-30.805476	25.185674	-0.100132	-69.181319
4.350000	-0.101638	-69.918098	-30.748875	24.606138	-30.748875	24.606138	-0.101637	-69.918239
4.400000	-0.103161	-70.653159	-30.693486	24.032126	-30.693486	24.032126	-0.103161	-70.653301
4.450000	-0.104704	-71.386361	-30.639287	23.463637	-30.639287	23.463637	-0.104704	-71.386503
4.500000	-0.106264	-72.118018	-30.586079	22.899786	-30.586079	22.899786	-0.106264	-72.118161
4.550000	-0.107847	-72.847513	-30.534106	22.342426	-30.534106	22.342426	-0.107846	-72.847657
4.600000	-0.109444	-73.575776	-30.482927	21.788798	-30.482927	21.788798	-0.109443	-73.575921
4.650000	-0.111068	-74.301578	-30.433011	21.242632	-30.433011	21.242632	-0.111068	-74.301723
4.700000	-0.112704	-75.026460	-30.383714	20.699276	-30.383714	20.699276	-0.112703	-75.026606
4.750000	-0.114372	-75.748585	-30.335690	20.164351	-30.335690	20.164351	-0.114371	-75.748731
4.800000	-0.116048	-76.470101	-30.288132	19.631304	-30.288132	19.631304	-0.116047	-76.470248
4.850000	-0.117761	-77.188571	-30.241838	19.107648	-30.241838	19.107648	-0.117761	-77.188719
4.900000	-0.119479	-77.906739	-30.195879	18.584932	-30.195879	18.584932	-0.119478	-77.906888
4.950000	-0.121240	-78.621580	-30.151156	18.072552	-30.151156	18.072552	-0.121239	-78.621729
5.000000	-0.123001	-79.336420	-30.106662	17.560173	-30.106662	17.560173	-0.123000	-79.336570
5.050000	-0.124811	-80.047660	-30.063355	17.059056	-30.063355	17.059056	-0.124810	-80.047810
5.100000	-0.126621	-80.758899	-30.020262	16.557939	-30.020262	16.557939	-0.126620	-80.759050
5.150000	-0.128477	-81.466866	-29.978148	16.067110	-29.978148	16.067110	-0.128477	-81.467018
5.200000	-0.130339	-82.174536	-29.936306	15.577217	-29.936306	15.577217	-0.130338	-82.174688
5.250000	-0.132243	-82.879261	-29.895255	15.096624	-29.895255	15.096624	-0.132243	-82.879414
5.300000	-0.134157	-83.583397	-29.854516	14.617890	-29.854516	14.617890	-0.134156	-83.583550
5.350000	-0.136112	-84.284912	-29.814403	14.147458	-29.814403	14.147458	-0.136111	-84.285065
5.400000	-0.138080	-84.985552	-29.774619	13.679793	-29.774619	13.679793	-0.138079	-84.985706
5.450000	-0.140086	-85.683891	-29.735319	13.219427	-29.735319	13.219427	-0.140085	-85.684045
5.500000	-0.142110	-86.381078	-29.696347	12.762710	-29.696347	12.762710	-0.142110	-86.381232
5.550000	-0.144169	-87.076276	-29.657738	12.312291	-29.657738	12.312291	-0.144168	-87.076431
5.600000	-0.146252	-87.770055	-29.619435	11.866369	-29.619435	11.866369	-0.146251	-87.770210
5.650000	-0.148364	-88.462153	-29.581399	11.425752	-29.581399	11.425752	-0.148364	-88.462309
5.700000	-0.150507	-89.152571	-29.543626	10.990441	-29.543626	10.990441	-0.150506	-89.152727
5.750000	-0.152675	-89.841610	-29.506044	10.559458	-29.506044	10.559458	-0.152675	-89.841766
5.800000	-0.154880	-90.528718	-29.468663	10.134535	-29.468663	10.134535	-0.154879	-90.528875
5.850000	-0.157105	-91.214741	-29.431421	9.712989	-29.431421	9.712989	-0.157104	-91.214898
5.900000	-0.159373	-91.898593	-29.394296	9.298197	-29.394296	9.298197	-0.159372	-91.898751
5.950000	-0.161657	-92.581646	-29.357282	8.885863	-29.357282	8.885863	-0.161656	-92.581803
6.000000	-0.163990	-93.262299	-29.320283	8.480904	-29.320283	8.480904	-0.163989	-93.262457
6.050000	-0.166334	-93.942429	-29.283387	8.077528	-29.283387	8.077528	-0.166333	-93.942587
6.100000	-0.168734	-94.619942	-29.246383	7.682065	-29.246383	7.682065	-0.168733	-94.620100
6.150000	-0.171140	-95.297198	-29.209498	7.287362	-29.209498	7.287362	-0.171139	-95.297357
6.200000	-0.173608	-95.971633	-29.172364	6.901017	-29.172364	6.901017	-0.173607	-95.971792
6.250000	-0.176077	-96.646068	-29.135388	6.514672	-29.135388	6.514672	-0.176076	-96.646227
6.300000	-0.178615	-97.317489	-29.098003	6.137023	-29.098003	6.137023	-0.178614	-97.317648
6.350000	-0.181154	-97.988910	-29.060777	5.759374	-29.060777	5.759374	-0.181153	-97.989069
6.400000	-0.183759	-98.657630	-29.023081	5.389272	-29.023081	5.389272	-0.183758	-98.657789
6.450000	-0.186370	-99.326105	-28.985490	5.019856	-28.985490	5.019856	-0.186369	-99.326264
6.500000	-0.189042	-99.992181	-28.947391	4.656880	-28.947391	4.656880	-0.189041	-99.992340
6.550000	-0.191727	-100.657778	-28.909325	4.295191	-28.909325	4.295191	-0.191725	-100.657937
6.600000	-0.194468	-101.321271	-28.870736	3.938888	-28.870736	3.938888	-0.194466	-101.321430
6.650000	-0.197228	-101.984062	-28.832089	3.584381	-28.832089	3.584381	-0.197226	-101.984221
6.700000	-0.200039	-102.645031	-28.792929	3.234269	-28.792929	3.234269	-0.200037	-102.645191
6.750000	-0.202876	-103.305091	-28.753603	2.886356	-28.753603	2.886356	-0.202875	-103.305250
6.800000	-0.205759	-103.963600	-28.713795	2.541926	-28.713795	2.541926	-0.205757	-103.963760
6.850000	-0.208675	-104.621004	-28.673700	2.199984	-28.673700	2.199984	-0.208673	-104.621163
6.900000	-0.211631	-105.277119	-28.633176	1.860699	-28.633176	1.860699	-0.211629	-105.277278
6.950000	-0.214627	-105.931944	-28.592228	1.524070	-28.592228	1.524070	-0.214625	-105.932104
7.000000	-0.217657	-106.585730	-28.550923	1.189370	-28.550923	1.189370	-0.217655	-106.585889
7.050000	-0.220735	-107.238059	-28.509048	0.857368	-28.509048	0.857368	-0.220733	-107.238218
7.100000	-0.223841	-107.889583	-28.466907	0.526670	-28.466907	0.526670	-0.223839	-107.889742
7.150000	-0.227002	-108.539497	-28.424040	0.198582	-28.424040	0.198582	-0.227000	-108.539657
7.200000	-0.230185	-109.188829	-28.381014	-0.128710	-28.381014	-0.128710	-0.230183	-109.188988
7.250000	-0.233431	-109.836414	-28.337099	-0.453616	-28.337099	-0.453616	-0.233429	-109.836573
7.300000	-0.236692	-110.483624	-28.293148	-0.778115	-28.293148	-0.778115	-0.236690	-110.483783
7.350000	-0.240025	-111.128965	-28.248139	-1.100583	-28.248139	-1.100583	-0.240023	-111.129124
7.400000	-0.243366	-111.774126	-28.203229	-1.422911	-28.203229	-1.422911	-0.243364	-111.774285
7.450000	-0.246787	-112.417312	-28.157092	-1.743693	-28.157092	-1.743693	-0.246784	-112.417471
7.500000	-0.250209	-113.060498	-28.111199	-2.064475	-28.111199	-2.064475	-0.250206	-113.060656
7.550000	-0.253719	-113.701619	-28.063910	-2.384321	-28.063910	-2.384321	-0.253716	-113.701777
7.600000	-0.257231	-114.342740	-28.016877	-2.704166	-28.016877	-2.704166	-0.257228	-114.342898
7.650000	-0.260824	-114.982054	-27.968561	-3.023831	-27.968561	-3.023831	-0.260822	-114.982211
7.700000	-0.264427	-115.621203	-27.920375	-3.343480	-27.920375	-3.343480	-0.264424	-115.621360
7.750000	-0.268106	-116.258786	-27.871036	-3.663568	-27.871036	-3.663568	-0.268103	-116.258944
7.800000	-0.271801	-116.896057	-27.821693	-3.983743	-27.821693	-3.983743	-0.271798	-116.896214
7.850000	-0.275565	-117.531991	-27.771339	-4.304836	-27.771339	-4.304836	-0.275562	-117.532148
7.900000	-0.279354	-118.167479	-27.720849	-4.626235	-27.720849	-4.626235	-0.279351	-118.167636
7.950000	-0.283206	-118.801845	-27.669498	-4.948893	-27.669498	-4.948893	-0.283203	-118.802002
8.000000	-0.287090	-119.435649	-27.617876	-5.272180	-27.617876	-5.272180	-0.287087	-119.435806
8.050000	-0.291031	-120.068529	-27.565552	-5.596932	-27.565552	-5.596932	-0.291028	-120.068685
8.100000	-0.295012	-120.700749	-27.512825	-5.922731	-27.512825	-5.922731	-0.295008	-120.700905
8.150000	-0.299041	-121.332227	-27.459558	-6.250073	-27.459558	-6.250073	-0.299038	-121.332383
8.200000	-0.303120	-121.962964	-27.405761	-6.578959	-27.405761	-6.578959	-0.303117	-121.963119
8.250000	-0.307241	-122.593126	-27.351587	-6.909348	-27.351587	-6.909348	-0.307237	-122.593281
8.300000	-0.311419	-123.222483	-27.296763	-7.241843	-27.296763	-7.241843	-0.311415	-123.222637
8.350000	-0.315631	-123.851415	-27.241723	-7.575696	-27.241723	-7.575696	-0.315627	-123.851570
8.400000	-0.319909	-124.479498	-27.185918	-7.912264	-27.185918	-7.912264	-0.319906	-124.479652
8.450000	-0.324214	-125.107289	-27.130057	-8.249950	-27.130057	-8.249950	-0.324210	-125.107443
8.500000	-0.328594	-125.734205	-27.073325	-8.590991	-27.073325	-8.590991	-0.328590	-125.734358
8.550000	-0.332993	-126.360944	-27.016692	-8.932833	-27.016692	-8.932833	-0.332989	-126.361098
8.600000	-0.337476	-126.986802	-26.959089	-9.278683	-26.959089	-9.278683	-0.337472	-126.986955
8.650000	-0.341969	-127.612581	-26.901734	-9.624955	-26.901734	-9.624955	-0.341965	-127.612733
8.700000	-0.346556	-128.237491	-26.843320	-9.975879	-26.843320	-9.975879	-0.346552	-128.237643
8.750000	-0.351145	-128.862402	-26.785296	-10.326804	-26.785296	-10.326804	-0.351141	-128.862554
8.800000	-0.355837	-129.486478	-26.726129	-10.683004	-26.726129	-10.683004	-0.355832	-129.486629
8.850000	-0.360531	-130.110554	-26.667363	-11.039204	-26.667363	-11.039204	-0.360526	-130.110705
8.900000	-0.365320	-130.733970	-26.607629	-11.400362	-26.607629	-11.400362	-0.365316	-130.734122
8.950000	-0.370120	-131.357327	-26.548181	-11.761970	-26.548181	-11.761970	-0.370116	-131.357478
9.000000	-0.375008	-131.980181	-26.487931	-12.128142	-26.487931	-12.128142	-0.375003	-131.980332
9.050000	-0.379915	-132.602935	-26.427856	-12.495226	-26.427856	-12.495226	-0.379910	-132.603085
9.100000	-0.384902	-133.225326	-26.367138	-12.866421	-26.367138	-12.866421	-0.384897	-133.225476
9.150000	-0.389917	-133.847596	-26.306492	-13.238987	-26.306492	-13.238987	-0.389912	-133.847746
9.200000	-0.395003	-134.469624	-26.245352	-13.615173	-26.245352	-13.615173	-0.394998	-134.469773
9.250000	-0.400127	-135.091531	-26.184185	-13.993169	-26.184185	-13.993169	-0.400121	-135.091680
9.300000	-0.405313	-135.713298	-26.122664	-14.374270	-26.122664	-14.374270	-0.405308	-135.713447
9.350000	-0.410546	-136.334965	-26.061021	-14.757590	-26.061021	-14.757590	-0.410541	-136.335114
9.400000	-0.415834	-136.956575	-25.999156	-15.143496	-25.999156	-15.143496	-0.415829	-136.956723
9.450000	-0.421177	-137.578127	-25.937076	-15.531988	-25.937076	-15.531988	-0.421172	-137.578275
9.500000	-0.426567	-138.199684	-25.874899	-15.922553	-25.874899	-15.922553	-0.426561	-138.199832
9.550000	-0.432020	-138.821249	-25.812415	-16.316021	-25.812415	-16.316021	-0.432014	-138.821397
9.600000	-0.437512	-139.442862	-25.749951	-16.711072	-25.749951	-16.711072	-0.437506	-139.443009
9.650000	-0.443076	-140.064569	-25.687088	-17.109287	-25.687088	-17.109287	-0.443070	-140.064716
9.700000	-0.448670	-140.686345	-25.624359	-17.508624	-25.624359	-17.508624	-0.448664	-140.686492
9.750000	-0.454346	-141.308327	-25.561133	-17.911326	-25.561133	-17.911326	-0.454340	-141.308473
9.800000	-0.460043	-141.930377	-25.498153	-18.314729	-25.498153	-18.314729	-0.460037	-141.930523
9.850000	-0.465831	-142.552767	-25.434573	-18.721636	-25.434573	-18.721636	-0.465824	-142.552914
9.900000	-0.471631	-143.175204	-25.371350	-19.128870	-25.371350	-19.128870	-0.471624	-143.175350
9.950000	-0.477530	-143.798141	-25.307417	-19.539685	-25.307417	-19.539685	-0.477523	-143.798286
10.000000	-0.483433	-144.421077	-25.243951	-19.950500	-25.243951	-19.950500	-0.483426	-144.421223
