! freq	dB(S11)	phase(S11)	dB(S12)	phase(S12)	
!     	dB(S21)	phase(S21)	dB(S22)	phase(S22)	
!S-par simulation data
#  GHz  S  DB  R 50
0.000000	0.000000	-0.000000	-269.075866	180.000000	-269.075866	180.000000	0.000000	-0.000000
0.050000	-0.000118	-0.895460	-56.438909	88.498854	-56.438909	88.498854	-0.000124	-1.013091
0.100000	-0.000467	-1.790656	-50.473661	87.202691	-50.473661	87.202691	-0.000491	-2.025914
0.150000	-0.001036	-2.685343	-47.009324	86.120623	-47.009324	86.120623	-0.001090	-3.038217
0.200000	-0.001804	-3.579313	-44.557440	85.166239	-44.557440	85.166239	-0.001903	-4.049781
0.250000	-0.002760	-4.472330	-42.655064	84.271922	-42.655064	84.271922	-0.002921	-5.060350
0.300000	-0.003863	-5.364340	-41.098096	83.394863	-41.098096	83.394863	-0.004102	-6.069853
0.350000	-0.005095	-6.255210	-39.779731	82.520762	-39.779731	82.520762	-0.005431	-7.078129
0.400000	-0.006431	-7.144877	-38.636380	81.642647	-38.636380	81.642647	-0.006883	-8.085089
0.450000	-0.007849	-8.033309	-37.627132	80.758328	-37.627132	80.758328	-0.008434	-9.090674
0.500000	-0.009329	-8.920499	-36.724041	79.867624	-36.724041	79.867624	-0.010063	-10.094850
0.550000	-0.010853	-9.806458	-35.907139	78.971126	-35.907139	78.971126	-0.011751	-11.097605
0.600000	-0.012407	-10.691206	-35.161646	78.069657	-35.161646	78.069657	-0.013481	-12.098942
0.650000	-0.013981	-11.574773	-34.476308	77.164059	-34.476308	77.164059	-0.015240	-13.098874
0.700000	-0.015566	-12.457186	-33.842355	76.255099	-33.842355	76.255099	-0.017018	-14.097418
0.750000	-0.017156	-13.338476	-33.252817	75.343456	-33.252817	75.343456	-0.018805	-15.094595
0.800000	-0.018746	-14.218666	-32.702062	74.429716	-32.702062	74.429716	-0.020595	-16.090425
0.850000	-0.020334	-15.097777	-32.185476	73.514379	-32.185476	73.514379	-0.022383	-17.084925
0.900000	-0.021919	-15.975824	-31.699228	72.597877	-31.699228	72.597877	-0.024168	-18.078109
0.950000	-0.023500	-16.852816	-31.240103	71.680581	-31.240103	71.680581	-0.025946	-19.069985
1.000000	-0.025077	-17.728758	-30.805378	70.762811	-30.805378	70.762811	-0.027717	-20.060560
1.050000	-0.026651	-18.603649	-30.392723	69.844847	-30.392723	69.844847	-0.029481	-21.049831
1.100000	-0.028222	-19.477483	-30.000133	68.926932	-30.000133	68.926932	-0.031238	-22.037796
1.150000	-0.029793	-20.350251	-29.625867	68.009284	-29.625867	68.009284	-0.032989	-23.024445
1.200000	-0.031364	-21.221941	-29.268403	67.092094	-29.268403	67.092094	-0.034736	-24.009766
1.250000	-0.032936	-22.092536	-28.926406	66.175533	-28.926406	66.175533	-0.036479	-24.993743
1.300000	-0.034510	-22.961970	-28.598754	65.259797	-28.598754	65.259797	-0.038220	-25.976297
1.350000	-0.036089	-23.830269	-28.284337	64.344996	-28.284337	64.344996	-0.039959	-26.957467
1.400000	-0.037672	-24.697413	-27.982222	63.431257	-27.982222	63.431257	-0.041700	-27.937227
1.450000	-0.039261	-25.563378	-27.691569	62.518695	-27.691569	62.518695	-0.043442	-28.915556
1.500000	-0.040856	-26.428140	-27.411623	61.607415	-27.411623	61.607415	-0.045186	-29.892425
1.550000	-0.042459	-27.291677	-27.141705	60.697517	-27.141705	60.697517	-0.046935	-30.867810
1.600000	-0.044070	-28.153961	-26.881196	59.789091	-26.881196	59.789091	-0.048689	-31.841684
1.650000	-0.045690	-29.014970	-26.629536	58.882222	-26.629536	58.882222	-0.050449	-32.814017
1.700000	-0.047319	-29.874678	-26.386213	57.976988	-26.386213	57.976988	-0.052216	-33.784784
1.750000	-0.048957	-30.733060	-26.150757	57.073464	-26.150757	57.073464	-0.053990	-34.753957
1.800000	-0.050605	-31.590092	-25.922741	56.171718	-25.922741	56.171718	-0.055772	-35.721509
1.850000	-0.052264	-32.445749	-25.701767	55.271816	-25.701767	55.271816	-0.057564	-36.687412
1.900000	-0.053932	-33.300008	-25.487473	54.373819	-25.487473	54.373819	-0.059364	-37.651641
1.950000	-0.055612	-34.152845	-25.279521	53.477784	-25.279521	53.477784	-0.061174	-38.614169
2.000000	-0.057302	-35.004238	-25.077600	52.583765	-25.077600	52.583765	-0.062995	-39.574972
2.050000	-0.059003	-35.854163	-24.881419	51.691813	-24.881419	51.691813	-0.064826	-40.534024
2.100000	-0.060714	-36.702599	-24.690710	50.801976	-24.690710	50.801976	-0.066667	-41.491303
2.150000	-0.062437	-37.549525	-24.505221	49.914300	-24.505221	49.914300	-0.068520	-42.446785
2.200000	-0.064171	-38.394919	-24.324718	49.028827	-24.324718	49.028827	-0.070384	-43.400448
2.250000	-0.065916	-39.238762	-24.148982	48.145598	-24.148982	48.145598	-0.072260	-44.352272
2.300000	-0.067673	-40.081035	-23.977807	47.264650	-23.977807	47.264650	-0.074147	-45.302235
2.350000	-0.069440	-40.921719	-23.811001	46.386019	-23.811001	46.386019	-0.076046	-46.250319
2.400000	-0.071219	-41.760795	-23.648381	45.509739	-23.648381	45.509739	-0.077958	-47.196506
2.450000	-0.073009	-42.598246	-23.489778	44.635841	-23.489778	44.635841	-0.079881	-48.140778
2.500000	-0.074811	-43.434055	-23.335030	43.764355	-23.335030	43.764355	-0.081817	-49.083119
2.550000	-0.076624	-44.268134	-23.184029	42.895416	-23.184029	42.895416	-0.083765	-50.023428
2.600000	-0.078449	-45.100538	-23.036587	42.028944	-23.036587	42.028944	-0.085727	-50.961775
2.650000	-0.080286	-45.931253	-22.892566	41.164964	-22.892566	41.164964	-0.087701	-51.898148
2.700000	-0.082134	-46.760264	-22.751839	40.303498	-22.751839	40.303498	-0.089688	-52.832533
2.750000	-0.083994	-47.587558	-22.614283	39.444566	-22.614283	39.444566	-0.091687	-53.764920
2.800000	-0.085865	-48.413122	-22.479782	38.588187	-22.479782	38.588187	-0.093701	-54.695298
2.850000	-0.087749	-49.236945	-22.348225	37.734380	-22.348225	37.734380	-0.095727	-55.623659
2.900000	-0.089645	-50.059014	-22.219508	36.883159	-22.219508	36.883159	-0.097767	-56.549995
2.950000	-0.091553	-50.879319	-22.093529	36.034541	-22.093529	36.034541	-0.099821	-57.474297
3.000000	-0.093473	-51.697850	-21.970193	35.188537	-21.970193	35.188537	-0.101889	-58.396560
3.050000	-0.095407	-52.514596	-21.849409	34.345159	-21.849409	34.345159	-0.103971	-59.316779
3.100000	-0.097353	-53.329550	-21.731089	33.504419	-21.731089	33.504419	-0.106067	-60.234949
3.150000	-0.099312	-54.142702	-21.615150	32.666326	-21.615150	32.666326	-0.108178	-61.151068
3.200000	-0.101284	-54.954046	-21.501512	31.830887	-21.501512	31.830887	-0.110305	-62.065132
3.250000	-0.103270	-55.763573	-21.390097	30.998110	-21.390097	30.998110	-0.112446	-62.977141
3.300000	-0.105270	-56.571278	-21.280833	30.168000	-21.280833	30.168000	-0.114603	-63.887093
3.350000	-0.107284	-57.377154	-21.173648	29.340562	-21.173648	29.340562	-0.116776	-64.794990
3.400000	-0.109312	-58.181196	-21.068474	28.515799	-21.068474	28.515799	-0.118965	-65.700833
3.450000	-0.111355	-58.983399	-20.965247	27.693714	-20.965247	27.693714	-0.121170	-66.604624
3.500000	-0.113413	-59.783760	-20.863903	26.874307	-20.863903	26.874307	-0.123393	-67.506366
3.550000	-0.115486	-60.582275	-20.764382	26.057579	-20.764382	26.057579	-0.125633	-68.406063
3.600000	-0.117575	-61.378941	-20.666626	25.243530	-20.666626	25.243530	-0.127890	-69.303721
3.650000	-0.119680	-62.173755	-20.570577	24.432157	-20.570577	24.432157	-0.130166	-70.199344
3.700000	-0.121801	-62.966716	-20.476182	23.623459	-20.476182	23.623459	-0.132460	-71.092940
3.750000	-0.123940	-63.757822	-20.383389	22.817430	-20.383389	22.817430	-0.134774	-71.984517
3.800000	-0.126096	-64.546992	-20.292170	22.014183	-20.292170	22.014183	-0.137107	-72.873995
3.850000	-0.128270	-65.334307	-20.202452	21.213595	-20.202452	21.213595	-0.139461	-73.761472
3.900000	-0.130461	-66.119767	-20.114186	20.415661	-20.114186	20.415661	-0.141835	-74.646957
3.950000	-0.132672	-66.903374	-20.027327	19.620372	-20.027327	19.620372	-0.144230	-75.530463
4.000000	-0.134901	-67.685129	-19.941830	18.827720	-19.941830	18.827720	-0.146647	-76.412000
4.050000	-0.137150	-68.465033	-19.857652	18.037697	-19.857652	18.037697	-0.149086	-77.291582
4.100000	-0.139419	-69.243091	-19.774751	17.250293	-19.774751	17.250293	-0.151547	-78.169221
4.150000	-0.141708	-70.019304	-19.693086	16.465497	-19.693086	16.465497	-0.154032	-79.044932
4.200000	-0.144017	-70.793677	-19.612619	15.683296	-19.612619	15.683296	-0.156540	-79.918730
4.250000	-0.146348	-71.566215	-19.533310	14.903680	-19.533310	14.903680	-0.159072	-80.790630
4.300000	-0.148701	-72.336921	-19.455122	14.126634	-19.455122	14.126634	-0.161630	-81.660649
4.350000	-0.151077	-73.105801	-19.378020	13.352145	-19.378020	13.352145	-0.164212	-82.528804
4.400000	-0.153475	-73.872862	-19.301968	12.580199	-19.301968	12.580199	-0.166821	-83.395114
4.450000	-0.155897	-74.638108	-19.226931	11.810778	-19.226931	11.810778	-0.169457	-84.259596
4.500000	-0.158342	-75.401548	-19.152876	11.043867	-19.152876	11.043867	-0.172120	-85.122271
4.550000	-0.160812	-76.163188	-19.079771	10.279450	-19.079771	10.279450	-0.174811	-85.983159
4.600000	-0.163308	-76.923037	-19.007583	9.517507	-19.007583	9.517507	-0.177530	-86.842280
4.650000	-0.165829	-77.681102	-18.936282	8.758020	-18.936282	8.758020	-0.180279	-87.699656
4.700000	-0.168376	-78.437392	-18.865837	8.000969	-18.865837	8.000969	-0.183057	-88.555309
4.750000	-0.170950	-79.191916	-18.796219	7.246335	-18.796219	7.246335	-0.185866	-89.409263
4.800000	-0.173551	-79.944685	-18.727398	6.494094	-18.727398	6.494094	-0.188707	-90.261542
4.850000	-0.176180	-80.695708	-18.659347	5.744227	-18.659347	5.744227	-0.191579	-91.112168
4.900000	-0.178838	-81.444996	-18.592037	4.996708	-18.592037	4.996708	-0.194484	-91.961169
4.950000	-0.181526	-82.192560	-18.525442	4.251516	-18.525442	4.251516	-0.197422	-92.808569
5.000000	-0.184243	-82.938412	-18.459536	3.508623	-18.459536	3.508623	-0.200395	-93.654396
5.050000	-0.186992	-83.682490	-18.394299	2.768104	-18.394299	2.768104	-0.203403	-94.498610
5.100000	-0.189773	-84.424881	-18.329697	2.029830	-18.329697	2.029830	-0.206448	-95.341307
5.150000	-0.192585	-85.165598	-18.265705	1.293775	-18.265705	1.293775	-0.209528	-96.182516
5.200000	-0.195430	-85.904654	-18.202301	0.559909	-18.202301	0.559909	-0.212646	-97.022268
5.250000	-0.198308	-86.642063	-18.139458	-0.171797	-18.139458	-0.171797	-0.215801	-97.860590
5.300000	-0.201220	-87.377840	-18.077155	-0.901374	-18.077155	-0.901374	-0.218995	-98.697514
5.350000	-0.204167	-88.111998	-18.015368	-1.628853	-18.015368	-1.628853	-0.222228	-99.533072
5.400000	-0.207149	-88.844553	-17.954075	-2.354267	-17.954075	-2.354267	-0.225501	-100.367294
5.450000	-0.210180	-89.574975	-17.893261	-3.076961	-17.893261	-3.076961	-0.228829	-101.199776
5.500000	-0.213231	-90.304574	-17.832886	-3.798606	-17.832886	-3.798606	-0.232179	-102.031591
5.550000	-0.216327	-91.032288	-17.772935	-4.517883	-17.772935	-4.517883	-0.235582	-102.861918
5.600000	-0.219457	-91.758654	-17.713400	-5.235469	-17.713400	-5.235469	-0.239021	-103.691182
5.650000	-0.222627	-92.483440	-17.654244	-5.951108	-17.654244	-5.951108	-0.242507	-104.519249
5.700000	-0.225839	-93.206647	-17.595461	-6.664801	-17.595461	-6.664801	-0.246039	-105.346117
5.750000	-0.229087	-93.928570	-17.537023	-7.376945	-17.537023	-7.376945	-0.249611	-106.172052
5.800000	-0.232384	-94.648695	-17.478908	-8.086921	-17.478908	-8.086921	-0.253240	-106.996681
5.850000	-0.235712	-95.367819	-17.421118	-8.795722	-17.421118	-8.795722	-0.256902	-107.820619
5.900000	-0.239098	-96.084943	-17.363589	-9.502170	-17.363589	-9.502170	-0.260630	-108.643174
5.950000	-0.242509	-96.801337	-17.306377	-10.207785	-17.306377	-10.207785	-0.264385	-109.465253
6.000000	-0.245988	-97.515543	-17.249356	-10.910904	-17.249356	-10.910904	-0.268217	-110.285904
6.050000	-0.249485	-98.229277	-17.192655	-11.613503	-17.192655	-11.613503	-0.272067	-111.106266
6.100000	-0.253060	-98.940652	-17.136065	-12.313503	-17.136065	-12.313503	-0.276007	-111.925188
6.150000	-0.256646	-99.651799	-17.079811	-13.013261	-17.079811	-13.013261	-0.279957	-112.743981
6.200000	-0.260322	-100.360434	-17.023581	-13.710364	-17.023581	-13.710364	-0.284007	-113.561355
6.250000	-0.264000	-101.069069	-16.967713	-14.407467	-16.967713	-14.407467	-0.288060	-114.378729
6.300000	-0.267781	-101.775056	-16.911772	-15.101907	-16.911772	-15.101907	-0.292226	-115.194743
6.350000	-0.271563	-102.481043	-16.856189	-15.796346	-16.856189	-15.796346	-0.296393	-116.010756
6.400000	-0.275443	-103.184692	-16.800511	-16.488568	-16.800511	-16.488568	-0.300669	-116.825699
6.450000	-0.279334	-103.888128	-16.745147	-17.180588	-16.745147	-17.180588	-0.304957	-117.640545
6.500000	-0.283317	-104.589520	-16.689678	-17.870805	-16.689678	-17.870805	-0.309346	-118.454583
6.550000	-0.287320	-105.290504	-16.634470	-18.560662	-16.634470	-18.560662	-0.313757	-119.268460
6.600000	-0.291410	-105.989724	-16.579159	-19.249095	-16.579159	-19.249095	-0.318263	-120.081763
6.650000	-0.295530	-106.688357	-16.524047	-19.937054	-16.524047	-19.937054	-0.322803	-120.894875
6.700000	-0.299731	-107.385493	-16.468843	-20.623932	-16.468843	-20.623932	-0.327430	-121.707617
6.750000	-0.303972	-108.081879	-16.413769	-21.310269	-16.413769	-21.310269	-0.332102	-122.520174
6.800000	-0.308287	-108.777018	-16.358626	-21.995827	-16.358626	-21.995827	-0.336853	-123.332534
6.850000	-0.312654	-109.471265	-16.303537	-22.680828	-16.303537	-22.680828	-0.341663	-124.144754
6.900000	-0.317087	-110.164498	-16.248412	-23.365307	-16.248412	-23.365307	-0.346543	-124.956915
6.950000	-0.321586	-110.856716	-16.193254	-24.049266	-16.193254	-24.049266	-0.351494	-125.769019
7.000000	-0.326141	-111.548135	-16.138106	-24.732916	-16.138106	-24.732916	-0.356506	-126.581169
7.050000	-0.330775	-112.238436	-16.082833	-25.416133	-16.082833	-25.416133	-0.361604	-127.393386
7.100000	-0.335457	-112.928137	-16.027622	-26.099206	-16.027622	-26.099206	-0.366754	-128.205718
7.150000	-0.340231	-113.616635	-15.972188	-26.781990	-15.972188	-26.781990	-0.372003	-129.018282
7.200000	-0.345044	-114.304713	-15.916878	-27.464745	-15.916878	-27.464745	-0.377293	-129.830993
7.250000	-0.349965	-114.991527	-15.861242	-28.147409	-15.861242	-28.147409	-0.382700	-130.644146
7.300000	-0.354912	-115.678080	-15.805800	-28.830107	-15.805800	-28.830107	-0.388135	-131.457439
7.350000	-0.359984	-116.363328	-15.749922	-29.512970	-15.749922	-29.512970	-0.393704	-132.271428
7.400000	-0.365072	-117.048457	-15.694317	-30.195876	-15.694317	-30.195876	-0.399290	-133.085509
7.450000	-0.370301	-117.732263	-15.638160	-30.879257	-15.638160	-30.879257	-0.405026	-133.900589
7.500000	-0.375533	-118.416068	-15.582364	-31.562639	-15.582364	-31.562639	-0.410766	-134.715669
7.550000	-0.380925	-119.098556	-15.525897	-32.246863	-15.525897	-32.246863	-0.416676	-135.532102
7.600000	-0.386320	-119.781043	-15.469794	-32.931087	-15.469794	-32.931087	-0.422590	-136.348534
7.650000	-0.391867	-120.462438	-15.413074	-33.616380	-15.413074	-33.616380	-0.428664	-137.166452
7.700000	-0.397431	-121.143733	-15.356634	-34.301770	-15.356634	-34.301770	-0.434758	-137.984504
7.750000	-0.403139	-121.824144	-15.299640	-34.988402	-15.299640	-34.988402	-0.441002	-138.804136
7.800000	-0.408878	-122.504377	-15.242836	-35.675283	-15.242836	-35.675283	-0.447281	-139.624084
7.850000	-0.414751	-123.183912	-15.185549	-36.363523	-15.185549	-36.363523	-0.453702	-140.445665
7.900000	-0.420672	-123.863214	-15.128356	-37.052217	-15.128356	-37.052217	-0.460173	-141.267791
7.950000	-0.426686	-124.542107	-15.070956	-37.741952	-15.070956	-37.741952	-0.466742	-142.091126
8.000000	-0.432806	-125.220566	-15.013277	-38.432925	-15.013277	-38.432925	-0.473423	-142.915883
8.050000	-0.439019	-125.898696	-14.955407	-39.125045	-14.955407	-39.125045	-0.480202	-143.741936
8.100000	-0.445327	-126.576528	-14.897344	-39.818384	-14.897344	-39.818384	-0.487081	-144.569355
8.150000	-0.451731	-127.254093	-14.839084	-40.513015	-14.839084	-40.513015	-0.494060	-145.398211
8.200000	-0.458233	-127.931423	-14.780623	-41.209012	-14.780623	-41.209012	-0.501143	-146.228573
8.250000	-0.464834	-128.608551	-14.721957	-41.906446	-14.721957	-41.906446	-0.508329	-147.060514
8.300000	-0.471536	-129.285510	-14.663082	-42.605389	-14.663082	-42.605389	-0.515622	-147.894106
8.350000	-0.478342	-129.962330	-14.603997	-43.305914	-14.603997	-43.305914	-0.523023	-148.729423
8.400000	-0.485252	-130.639047	-14.544697	-44.008091	-14.544697	-44.008091	-0.530533	-149.566539
8.450000	-0.492269	-131.315692	-14.485180	-44.711992	-14.485180	-44.711992	-0.538155	-150.405531
8.500000	-0.499395	-131.992300	-14.425443	-45.417689	-14.425443	-45.417689	-0.545890	-151.246474
8.550000	-0.506630	-132.668903	-14.365484	-46.125252	-14.365484	-46.125252	-0.553739	-152.089445
8.600000	-0.513978	-133.345536	-14.305300	-46.834753	-14.305300	-46.834753	-0.561706	-152.934524
8.650000	-0.521440	-134.022233	-14.244888	-47.546263	-14.244888	-47.546263	-0.569792	-153.781788
8.700000	-0.529018	-134.699029	-14.184247	-48.259853	-14.184247	-48.259853	-0.577998	-154.631320
8.750000	-0.536714	-135.375957	-14.123375	-48.975595	-14.123375	-48.975595	-0.586327	-155.483199
8.800000	-0.544535	-136.053062	-14.062239	-49.693658	-14.062239	-49.693658	-0.594786	-156.337617
8.850000	-0.552479	-136.730373	-14.000868	-50.414022	-14.000868	-50.414022	-0.603371	-157.194557
8.900000	-0.560547	-137.407926	-13.939258	-51.136759	-13.939258	-51.136759	-0.612086	-158.054102
8.950000	-0.568741	-138.085757	-13.877409	-51.861940	-13.877409	-51.861940	-0.620932	-158.916338
9.000000	-0.577064	-138.763900	-13.815319	-52.589639	-13.815319	-52.589639	-0.629911	-159.781352
9.050000	-0.585518	-139.442393	-13.752985	-53.319929	-13.752985	-53.319929	-0.639025	-160.649231
9.100000	-0.594106	-140.121272	-13.690407	-54.052883	-13.690407	-54.052883	-0.648277	-161.520063
9.150000	-0.602828	-140.800573	-13.627583	-54.788576	-13.627583	-54.788576	-0.657668	-162.393940
9.200000	-0.611689	-141.480333	-13.564511	-55.527084	-13.564511	-55.527084	-0.667202	-163.270950
9.250000	-0.620689	-142.160590	-13.501191	-56.268482	-13.501191	-56.268482	-0.676880	-164.151187
9.300000	-0.629832	-142.841381	-13.437621	-57.012848	-13.437621	-57.012848	-0.686704	-165.034743
9.350000	-0.639120	-143.522744	-13.373800	-57.760260	-13.373800	-57.760260	-0.696678	-165.921713
9.400000	-0.648556	-144.204716	-13.309726	-58.510798	-13.309726	-58.510798	-0.706802	-166.812191
9.450000	-0.658141	-144.887337	-13.245399	-59.264542	-13.245399	-59.264542	-0.717081	-167.706275
9.500000	-0.667878	-145.570643	-13.180818	-60.021574	-13.180818	-60.021574	-0.727515	-168.604061
9.550000	-0.677771	-146.254674	-13.115982	-60.781978	-13.115982	-60.781978	-0.738109	-169.505648
9.600000	-0.687821	-146.939470	-13.050891	-61.545838	-13.050891	-61.545838	-0.748863	-170.411136
9.650000	-0.698032	-147.625068	-12.985544	-62.313241	-12.985544	-62.313241	-0.759781	-171.320627
9.700000	-0.708405	-148.311510	-12.919940	-63.084276	-12.919940	-63.084276	-0.770864	-172.234221
9.750000	-0.718945	-148.998834	-12.854079	-63.859032	-12.854079	-63.859032	-0.782117	-173.152022
9.800000	-0.729653	-149.687080	-12.787962	-64.637601	-12.787962	-64.637601	-0.793541	-174.074134
9.850000	-0.740532	-150.376289	-12.721588	-65.420078	-12.721588	-65.420078	-0.805139	-175.000663
9.900000	-0.751586	-151.066502	-12.654957	-66.206557	-12.654957	-66.206557	-0.816913	-175.931715
9.950000	-0.762817	-151.757759	-12.588070	-66.997139	-12.588070	-66.997139	-0.828866	-176.867398
10.000000	-0.774228	-152.450101	-12.520928	-67.791922	-12.520928	-67.791922	-0.841001	-177.807821
