! freq	dB(S11)	phase(S11)	dB(S12)	phase(S12)	
!     	dB(S21)	phase(S21)	dB(S22)	phase(S22)	
!S-par simulation data
#  GHz  S  DB  R 50
0.000000	-0.000000	0.000000	-341.464224	180.000000	-341.464224	180.000000	-0.000000	0.000000
0.050000	-0.000104	-0.831759	-69.966304	88.013143	-69.966304	88.013143	-0.000104	-0.831656
0.100000	-0.000410	-1.663269	-64.079464	86.844449	-64.079464	86.844449	-0.000410	-1.663064
0.150000	-0.000908	-2.494300	-60.649686	86.099046	-60.649686	86.099046	-0.000908	-2.493993
0.200000	-0.001578	-3.324659	-58.206490	85.447690	-58.206490	85.447690	-0.001577	-3.324250
0.250000	-0.002407	-4.154128	-56.303377	84.789477	-56.303377	84.789477	-0.002406	-4.153617
0.300000	-0.003358	-4.982662	-54.743889	84.106286	-54.743889	84.106286	-0.003357	-4.982050
0.350000	-0.004412	-5.810144	-53.423258	83.398359	-53.423258	83.398359	-0.004411	-5.809431
0.400000	-0.005546	-6.636524	-52.278582	82.670236	-52.278582	82.670236	-0.005545	-6.635710
0.450000	-0.006740	-7.461780	-51.269047	81.926504	-51.269047	81.926504	-0.006738	-7.460865
0.500000	-0.007974	-8.285914	-50.366634	81.170891	-50.366634	81.170891	-0.007972	-8.284899
0.550000	-0.009232	-9.108944	-49.551265	80.406261	-49.551265	80.406261	-0.009229	-9.107828
0.600000	-0.010502	-9.930896	-48.808059	79.634791	-48.808059	79.634791	-0.010499	-9.929681
0.650000	-0.011774	-10.751804	-48.125677	78.858146	-48.125677	78.858146	-0.011771	-10.750489
0.700000	-0.013040	-11.571698	-47.495285	78.077611	-47.495285	78.077611	-0.013037	-11.570285
0.750000	-0.014296	-12.390611	-46.909863	77.294200	-46.909863	77.294200	-0.014292	-12.389098
0.800000	-0.015538	-13.208569	-46.363742	76.508718	-46.363742	76.508718	-0.015534	-13.206957
0.850000	-0.016764	-14.025593	-45.852278	75.721822	-45.852278	75.721822	-0.016759	-14.023883
0.900000	-0.017973	-14.841701	-45.371618	74.934053	-45.371618	74.934053	-0.017968	-14.839892
0.950000	-0.019164	-15.656902	-44.918531	74.145865	-44.918531	74.145865	-0.019159	-15.654995
1.000000	-0.020339	-16.471204	-44.490280	73.357644	-44.490280	73.357644	-0.020334	-16.469199
1.050000	-0.021498	-17.284607	-44.084528	72.569723	-44.084528	72.569723	-0.021493	-17.282504
1.100000	-0.022643	-18.097108	-43.699261	71.782395	-43.699261	71.782395	-0.022637	-18.094907
1.150000	-0.023773	-18.908700	-43.332732	70.995918	-43.332732	70.995918	-0.023767	-18.906402
1.200000	-0.024892	-19.719374	-42.983416	70.210526	-42.983416	70.210526	-0.024885	-19.716978
1.250000	-0.025999	-20.529116	-42.649975	69.426428	-42.649975	69.426428	-0.025992	-20.526624
1.300000	-0.027096	-21.337871	-42.331332	68.643893	-42.331332	68.643893	-0.027089	-21.335281
1.350000	-0.028185	-22.145661	-42.026330	67.863040	-42.026330	67.863040	-0.028178	-22.142975
1.400000	-0.029266	-22.952469	-41.734032	67.084036	-41.734032	67.084036	-0.029259	-22.949687
1.450000	-0.030341	-23.758275	-41.453602	66.307038	-41.453602	66.307038	-0.030333	-23.755396
1.500000	-0.031411	-24.563060	-41.184283	65.532193	-41.184283	65.532193	-0.031403	-24.560085
1.550000	-0.032476	-25.366802	-40.925396	64.759642	-40.925396	64.759642	-0.032467	-25.363731
1.600000	-0.033537	-26.169481	-40.676324	63.989522	-40.676324	63.989522	-0.033528	-26.166314
1.650000	-0.034595	-26.971075	-40.436506	63.221963	-40.436506	63.221963	-0.034586	-26.967813
1.700000	-0.035650	-27.771168	-40.206253	62.458083	-40.206253	62.458083	-0.035641	-27.767811
1.750000	-0.036704	-28.570676	-39.983132	61.695648	-39.983132	61.695648	-0.036695	-28.567224
1.800000	-0.037756	-29.368775	-39.768390	60.936836	-39.768390	60.936836	-0.037747	-29.365228
1.850000	-0.038808	-30.165867	-39.560775	60.180613	-39.560775	60.180613	-0.038798	-30.162226
1.900000	-0.039859	-30.961706	-39.360370	59.427746	-39.360370	59.427746	-0.039849	-30.957970
1.950000	-0.040910	-31.756290	-39.166798	58.678234	-39.166798	58.678234	-0.040900	-31.752460
2.000000	-0.041962	-32.549793	-38.979391	57.931718	-38.979391	57.931718	-0.041952	-32.545869
2.050000	-0.043014	-33.341780	-38.798609	57.189398	-38.798609	57.189398	-0.043004	-33.337763
2.100000	-0.044067	-34.133101	-38.622659	56.448972	-38.622659	56.448972	-0.044056	-34.128989
2.150000	-0.045122	-34.922689	-38.453115	55.713487	-38.453115	55.713487	-0.045110	-34.918485
2.200000	-0.046178	-35.710966	-38.288971	54.981809	-38.288971	54.981809	-0.046166	-35.706669
2.250000	-0.047236	-36.497914	-38.130008	54.254040	-38.130008	54.254040	-0.047224	-36.493524
2.300000	-0.048296	-37.283514	-37.976019	53.530284	-37.976019	53.530284	-0.048285	-37.279032
2.350000	-0.049359	-38.067749	-37.826813	52.810641	-37.826813	52.810641	-0.049347	-38.063175
2.400000	-0.050425	-38.850601	-37.682207	52.095211	-37.682207	52.095211	-0.050413	-38.845934
2.450000	-0.051494	-39.632053	-37.542029	51.384095	-37.542029	51.384095	-0.051482	-39.627295
2.500000	-0.052567	-40.412089	-37.406119	50.677390	-37.406119	50.677390	-0.052554	-40.407239
2.550000	-0.053643	-41.190629	-37.274411	49.975395	-37.274411	49.975395	-0.053630	-41.185688
2.600000	-0.054724	-41.967720	-37.146671	49.278016	-37.146671	49.278016	-0.054711	-41.962688
2.650000	-0.055809	-42.743346	-37.022761	48.585348	-37.022761	48.585348	-0.055796	-42.738223
2.700000	-0.056899	-43.517494	-36.902549	47.897488	-36.902549	47.897488	-0.056885	-43.512280
2.750000	-0.057993	-44.290147	-36.785913	47.214531	-36.785913	47.214531	-0.057979	-44.284844
2.800000	-0.059093	-45.061294	-36.672732	46.536572	-36.672732	46.536572	-0.059079	-45.055900
2.850000	-0.060199	-45.830920	-36.562894	45.863704	-36.562894	45.863704	-0.060185	-45.825437
2.900000	-0.061311	-46.599013	-36.456292	45.196020	-36.456292	45.196020	-0.061296	-46.593440
2.950000	-0.062429	-47.365560	-36.352820	44.533613	-36.352820	44.533613	-0.062414	-47.359898
3.000000	-0.063554	-48.130550	-36.252380	43.876576	-36.252380	43.876576	-0.063539	-48.124798
3.050000	-0.064686	-48.893970	-36.154877	43.225000	-36.154877	43.225000	-0.064670	-48.888129
3.100000	-0.065825	-49.655809	-36.060219	42.578975	-36.060219	42.578975	-0.065809	-49.649880
3.150000	-0.066972	-50.416057	-35.968319	41.938591	-35.968319	41.938591	-0.066956	-50.410040
3.200000	-0.068127	-51.174704	-35.879090	41.303939	-35.879090	41.303939	-0.068111	-51.168599
3.250000	-0.069291	-51.931740	-35.792451	40.675106	-35.792451	40.675106	-0.069274	-51.925547
3.300000	-0.070463	-52.687155	-35.708323	40.052182	-35.708323	40.052182	-0.070447	-52.680874
3.350000	-0.071647	-53.440656	-35.626907	39.436321	-35.626907	39.436321	-0.071630	-53.434287
3.400000	-0.072840	-54.192446	-35.547915	38.826809	-35.547915	38.826809	-0.072823	-54.185991
3.450000	-0.074039	-54.943376	-35.470448	38.220550	-35.470448	38.220550	-0.074022	-54.936833
3.500000	-0.075255	-55.691720	-35.396082	37.624047	-35.396082	37.624047	-0.075237	-55.685090
3.550000	-0.076474	-56.439485	-35.322867	37.029772	-35.322867	37.029772	-0.076456	-56.432768
3.600000	-0.077712	-57.184352	-35.252842	36.446643	-35.252842	36.446643	-0.077694	-57.177549
3.650000	-0.078953	-57.928927	-35.183626	35.864658	-35.183626	35.864658	-0.078934	-57.922037
3.700000	-0.080216	-58.670290	-35.117670	35.295259	-35.117670	35.295259	-0.080197	-58.663315
3.750000	-0.081480	-59.411653	-35.052212	34.725860	-35.052212	34.725860	-0.081461	-59.404592
3.800000	-0.082770	-60.149491	-34.990067	34.170538	-34.990067	34.170538	-0.082751	-60.142344
3.850000	-0.084060	-60.887328	-34.928363	33.615216	-34.928363	33.615216	-0.084041	-60.880096
3.900000	-0.085376	-61.621917	-34.869552	33.073105	-34.869552	33.073105	-0.085357	-61.614599
3.950000	-0.086695	-62.356210	-34.811359	32.532195	-34.811359	32.532195	-0.086675	-62.348807
4.000000	-0.088039	-63.087537	-34.755664	32.003564	-34.755664	32.003564	-0.088019	-63.080049
4.050000	-0.089389	-63.818271	-34.700744	31.477388	-34.700744	31.477388	-0.089368	-63.810698
4.100000	-0.090762	-64.546327	-34.647956	30.962494	-34.647956	30.962494	-0.090741	-64.538670
4.150000	-0.092143	-65.273491	-34.596079	30.451361	-34.596079	30.451361	-0.092122	-65.265750
4.200000	-0.093547	-65.998271	-34.545993	29.950449	-34.545993	29.950449	-0.093526	-65.990446
4.250000	-0.094962	-66.721859	-34.496933	29.454647	-34.496933	29.454647	-0.094941	-66.713949
4.300000	-0.096398	-67.443359	-34.449352	28.967948	-34.449352	28.967948	-0.096376	-67.435365
4.350000	-0.097849	-68.163367	-34.402886	28.487750	-34.402886	28.487750	-0.097827	-68.155289
4.400000	-0.099319	-68.881585	-34.357616	28.015478	-34.357616	28.015478	-0.099297	-68.873423
4.450000	-0.100807	-69.598014	-34.313525	27.551132	-34.313525	27.551132	-0.100785	-69.589769
4.500000	-0.102312	-70.312954	-34.270376	27.093484	-34.270376	27.093484	-0.102289	-70.304625
4.550000	-0.103840	-71.025809	-34.228442	26.645213	-34.228442	26.645213	-0.103817	-71.017396
4.600000	-0.105382	-71.737474	-34.187227	26.202366	-34.187227	26.202366	-0.105358	-71.728978
4.650000	-0.106951	-72.446762	-34.147235	25.770364	-34.147235	25.770364	-0.106927	-72.438183
4.700000	-0.108530	-73.155161	-34.107769	25.342470	-34.107769	25.342470	-0.108506	-73.146499
4.750000	-0.110142	-73.860894	-34.069503	24.926899	-34.069503	24.926899	-0.110118	-73.852148
4.800000	-0.111762	-74.566036	-34.031603	24.514086	-34.031603	24.514086	-0.111737	-74.557208
4.850000	-0.113418	-75.268229	-33.994849	24.115068	-33.994849	24.115068	-0.113393	-75.259317
4.900000	-0.115079	-75.970128	-33.958332	23.717436	-33.958332	23.717436	-0.115053	-75.961133
4.950000	-0.116782	-76.668798	-33.922874	23.335051	-33.922874	23.335051	-0.116756	-76.659720
5.000000	-0.118485	-77.367468	-33.887561	22.952666	-33.887561	22.952666	-0.118458	-77.358308
5.050000	-0.120236	-78.062638	-33.853184	22.586948	-33.853184	22.586948	-0.120209	-78.053395
5.100000	-0.121987	-78.757809	-33.818942	22.221230	-33.818942	22.221230	-0.121960	-78.748482
5.150000	-0.123784	-79.449793	-33.785380	21.870772	-33.785380	21.870772	-0.123757	-79.440384
5.200000	-0.125586	-80.141487	-33.751997	21.521700	-33.751997	21.521700	-0.125558	-80.131996
5.250000	-0.127430	-80.830309	-33.719068	21.186435	-33.719068	21.186435	-0.127402	-80.820735
5.300000	-0.129283	-81.518557	-33.686329	20.853930	-33.686329	20.853930	-0.129255	-81.508899
5.350000	-0.131176	-82.204242	-33.653851	20.533744	-33.653851	20.533744	-0.131147	-82.194501
5.400000	-0.133083	-82.889073	-33.621541	20.217663	-33.621541	20.217663	-0.133053	-82.879249
5.450000	-0.135026	-83.571649	-33.589334	19.912389	-33.589334	19.912389	-0.134996	-83.561743
5.500000	-0.136988	-84.253098	-33.557238	19.612518	-33.557238	19.612518	-0.136958	-84.243109
5.550000	-0.138982	-84.932595	-33.525123	19.321932	-33.525123	19.321932	-0.138952	-84.922523
5.600000	-0.141001	-85.610699	-33.493027	19.037980	-33.493027	19.037980	-0.140970	-85.600544
5.650000	-0.143049	-86.287150	-33.460826	18.761800	-33.460826	18.761800	-0.143018	-86.276912
5.700000	-0.145126	-86.961949	-33.428519	18.493394	-33.428519	18.493394	-0.145095	-86.951627
5.750000	-0.147229	-87.635388	-33.396055	18.231274	-33.396055	18.231274	-0.147197	-87.624983
5.800000	-0.149366	-88.306924	-33.363327	17.977955	-33.363327	17.977955	-0.149334	-88.296436
5.850000	-0.151525	-88.977388	-33.330429	17.729482	-33.330429	17.729482	-0.151492	-88.966816
5.900000	-0.153724	-89.645707	-33.297073	17.490702	-33.297073	17.490702	-0.153691	-89.635051
5.950000	-0.155940	-90.313233	-33.263572	17.255395	-33.263572	17.255395	-0.155906	-90.302494
6.000000	-0.158203	-90.978383	-33.229386	17.030509	-33.229386	17.030509	-0.158169	-90.967560
6.050000	-0.160477	-91.643013	-33.195118	16.807816	-33.195118	16.807816	-0.160443	-91.632106
6.100000	-0.162806	-92.305044	-33.159908	16.596086	-33.159908	16.596086	-0.162771	-92.294052
6.150000	-0.165140	-92.966820	-33.124715	16.385383	-33.124715	16.385383	-0.165105	-92.955744
6.200000	-0.167535	-93.625785	-33.088294	16.185975	-33.088294	16.185975	-0.167500	-93.614624
6.250000	-0.169931	-94.284750	-33.052025	15.986567	-33.052025	15.986567	-0.169895	-94.273505
6.300000	-0.172395	-94.940705	-33.014215	15.798551	-33.014215	15.798551	-0.172358	-94.929374
6.350000	-0.174859	-95.596660	-32.976569	15.610536	-32.976569	15.610536	-0.174822	-95.585244
6.400000	-0.177388	-96.249908	-32.937361	15.432028	-32.937361	15.432028	-0.177350	-96.238407
6.450000	-0.179922	-96.902910	-32.898174	15.254384	-32.898174	15.254384	-0.179884	-96.891323
6.500000	-0.182516	-97.553501	-32.857447	15.084462	-32.857447	15.084462	-0.182478	-97.541829
6.550000	-0.185123	-98.203611	-32.816569	14.916084	-32.816569	14.916084	-0.185084	-98.191852
6.600000	-0.187784	-98.851597	-32.774212	14.753767	-32.774212	14.753767	-0.187744	-98.839752
6.650000	-0.190463	-99.498876	-32.731507	14.593470	-32.731507	14.593470	-0.190423	-99.486943
6.700000	-0.193193	-100.144310	-32.687424	14.437726	-32.687424	14.437726	-0.193152	-100.132291
6.750000	-0.195947	-100.788822	-32.642773	14.284257	-32.642773	14.284257	-0.195906	-100.776716
6.800000	-0.198746	-101.431759	-32.596880	14.134007	-32.596880	14.134007	-0.198705	-101.419565
6.850000	-0.201577	-102.073572	-32.550184	13.986055	-32.550184	13.986055	-0.201535	-102.061289
6.900000	-0.204447	-102.714068	-32.502415	13.840186	-32.502415	13.840186	-0.204405	-102.701697
6.950000	-0.207356	-103.353248	-32.453592	13.696399	-32.453592	13.696399	-0.207313	-103.340789
7.000000	-0.210298	-103.991362	-32.403896	13.553770	-32.403896	13.553770	-0.210255	-103.978813
7.050000	-0.213287	-104.627981	-32.352886	13.412765	-32.352886	13.412765	-0.213243	-104.615343
7.100000	-0.216302	-105.263770	-32.301227	13.272223	-32.301227	13.272223	-0.216258	-105.251042
7.150000	-0.219372	-105.897900	-32.247992	13.132606	-32.247992	13.132606	-0.219326	-105.885082
7.200000	-0.222462	-106.531427	-32.194353	12.992990	-32.194353	12.992990	-0.222416	-106.518518
7.250000	-0.225614	-107.163142	-32.138874	12.853375	-32.138874	12.853375	-0.225567	-107.150142
7.300000	-0.228780	-107.794467	-32.083253	12.713532	-32.083253	12.713532	-0.228733	-107.781375
7.350000	-0.232016	-108.423843	-32.025534	12.572555	-32.025534	12.572555	-0.231968	-108.410659
7.400000	-0.235259	-109.053031	-31.967947	12.431353	-31.967947	12.431353	-0.235211	-109.039755
7.450000	-0.238580	-109.680146	-31.908013	12.287690	-31.908013	12.287690	-0.238531	-109.666776
7.500000	-0.241902	-110.307261	-31.848490	12.144027	-31.848490	12.144027	-0.241852	-110.293798
7.550000	-0.245309	-110.932194	-31.786386	11.996414	-31.786386	11.996414	-0.245259	-110.918637
7.600000	-0.248718	-111.557128	-31.724723	11.848801	-31.724723	11.848801	-0.248667	-111.543477
7.650000	-0.252206	-112.180136	-31.660763	11.696477	-31.660763	11.696477	-0.252154	-112.166389
7.700000	-0.255702	-112.802969	-31.597024	11.543724	-31.597024	11.543724	-0.255650	-112.789127
7.750000	-0.259272	-113.424121	-31.531284	11.385771	-31.531284	11.385771	-0.259220	-113.410183
7.800000	-0.262858	-114.044937	-31.465549	11.226777	-31.465549	11.226777	-0.262805	-114.030902
7.850000	-0.266511	-114.664304	-31.398118	11.062351	-31.398118	11.062351	-0.266458	-114.650172
7.900000	-0.270188	-115.283188	-31.330483	10.896114	-31.330483	10.896114	-0.270134	-115.268957
7.950000	-0.273925	-115.900841	-31.261459	10.724456	-31.261459	10.724456	-0.273870	-115.886512
8.000000	-0.277694	-116.517879	-31.192031	10.550088	-31.192031	10.550088	-0.277638	-116.503450
8.050000	-0.281516	-117.133891	-31.121519	10.370525	-31.121519	10.370525	-0.281460	-117.119362
8.100000	-0.285378	-117.749171	-31.050417	10.187252	-31.050417	10.187252	-0.285321	-117.734542
8.150000	-0.289287	-118.363617	-30.978529	9.999203	-30.978529	9.999203	-0.289229	-118.348886
8.200000	-0.293243	-118.977228	-30.905879	9.806379	-30.905879	9.806379	-0.293184	-118.962396
8.250000	-0.297239	-119.590183	-30.832731	9.609357	-30.832731	9.609357	-0.297179	-119.575248
8.300000	-0.301290	-120.202219	-30.758665	9.406459	-30.758665	9.406459	-0.301230	-120.187180
8.350000	-0.305374	-120.813759	-30.684374	9.200072	-30.684374	9.200072	-0.305313	-120.798617
8.400000	-0.309522	-121.424311	-30.609026	8.986705	-30.609026	8.986705	-0.309461	-121.409064
8.450000	-0.313696	-122.034516	-30.533712	8.770653	-30.533712	8.770653	-0.313633	-122.019163
8.500000	-0.317941	-122.643679	-30.457218	8.546546	-30.457218	8.546546	-0.317878	-122.628219
8.550000	-0.322205	-123.252627	-30.380998	8.320623	-30.380998	8.320623	-0.322141	-123.237060
8.600000	-0.326549	-123.860498	-30.303491	8.085624	-30.303491	8.085624	-0.326485	-123.844823
8.650000	-0.330904	-124.468270	-30.226481	7.849714	-30.226481	7.849714	-0.330838	-124.452485
8.700000	-0.335348	-125.074947	-30.148090	7.603785	-30.148090	7.603785	-0.335282	-125.059052
8.750000	-0.339794	-125.681624	-30.070400	7.357855	-30.070400	7.357855	-0.339727	-125.665619
8.800000	-0.344339	-126.287208	-29.991249	7.101063	-29.991249	7.101063	-0.344271	-126.271090
8.850000	-0.348886	-126.892791	-29.912813	6.844271	-29.912813	6.844271	-0.348817	-126.876561
8.900000	-0.353524	-127.497464	-29.833191	6.577673	-29.833191	6.577673	-0.353454	-127.481120
8.950000	-0.358172	-128.102055	-29.754123	6.310183	-29.754123	6.310183	-0.358102	-128.085596
9.000000	-0.362904	-128.705905	-29.674124	6.033989	-29.674124	6.033989	-0.362833	-128.689330
9.050000	-0.367655	-129.309606	-29.594528	5.756054	-29.594528	5.756054	-0.367583	-129.292916
9.100000	-0.372482	-129.912720	-29.514236	5.470532	-29.514236	5.470532	-0.372409	-129.895911
9.150000	-0.377336	-130.515637	-29.434209	5.182482	-29.434209	5.182482	-0.377263	-130.498711
9.200000	-0.382258	-131.118104	-29.353698	4.887951	-29.353698	4.887951	-0.382184	-131.101057
9.250000	-0.387216	-131.720345	-29.273325	4.590180	-29.273325	4.590180	-0.387141	-131.703177
9.300000	-0.392234	-132.322254	-29.192662	4.287004	-29.192662	4.287004	-0.392158	-132.304964
9.350000	-0.397297	-132.923927	-29.112015	3.979966	-29.112015	3.979966	-0.397219	-132.906514
9.400000	-0.402411	-133.525370	-29.031255	3.668543	-29.031255	3.668543	-0.402333	-133.507834
9.450000	-0.407578	-134.126586	-28.950394	3.352735	-28.950394	3.352735	-0.407499	-134.108924
9.500000	-0.412790	-134.727657	-28.869585	3.033495	-28.869585	3.033495	-0.412710	-134.709869
9.550000	-0.418062	-135.328528	-28.788559	2.709450	-28.788559	2.709450	-0.417981	-135.310612
9.600000	-0.423371	-135.929322	-28.707736	2.382846	-28.707736	2.382846	-0.423289	-135.911277
9.650000	-0.428749	-136.529962	-28.626580	2.051123	-28.626580	2.051123	-0.428667	-136.511787
9.700000	-0.434156	-137.130574	-28.545770	1.717625	-28.545770	1.717625	-0.434072	-137.112268
9.750000	-0.439640	-137.731101	-28.464506	1.378800	-28.464506	1.378800	-0.439555	-137.712662
9.800000	-0.445144	-138.331629	-28.383727	1.038889	-28.383727	1.038889	-0.445058	-138.313056
9.850000	-0.450734	-138.932162	-28.302365	0.693546	-28.302365	0.693546	-0.450648	-138.913453
9.900000	-0.456337	-139.532705	-28.221623	0.347710	-28.221623	0.347710	-0.456249	-139.513860
9.950000	-0.462033	-140.133364	-28.140161	-0.003565	-28.140161	-0.003565	-0.461945	-140.114381
10.000000	-0.467733	-140.734024	-28.059456	-0.354840	-28.059456	-0.354840	-0.467644	-140.714901
