! freq	dB(S11)	phase(S11)	dB(S12)	phase(S12)	
!     	dB(S21)	phase(S21)	dB(S22)	phase(S22)	
!S-par simulation data
#  GHz  S  DB  R 50
0.000000	-93.442758	0.000000	-0.000185	0.000000	-0.000185	0.000000	-93.442758	0.000000
0.050000	-56.928355	-90.238236	-0.000289	-0.825389	-0.000289	-0.825389	-56.928759	-90.239662
0.100000	-50.893623	-91.731380	-0.000599	-1.650573	-0.000599	-1.650573	-50.893941	-91.734013
0.150000	-47.353018	-92.876794	-0.001103	-2.475362	-0.001103	-2.475362	-47.353241	-92.880264
0.200000	-44.836074	-93.892782	-0.001781	-3.299602	-0.001781	-3.299602	-44.836219	-93.896826
0.250000	-42.882958	-94.831622	-0.002623	-4.123126	-0.002623	-4.123126	-42.883051	-94.836109
0.300000	-41.289234	-95.729082	-0.003589	-4.945910	-0.003589	-4.945910	-41.289297	-95.733989
0.350000	-39.944896	-96.599675	-0.004664	-5.767880	-0.004664	-5.767880	-39.944945	-96.605020
0.400000	-38.784050	-97.454728	-0.005823	-6.589021	-0.005823	-6.589021	-38.784096	-97.460547
0.450000	-37.763941	-98.301186	-0.007046	-7.409349	-0.007046	-7.409349	-37.763988	-98.307519
0.500000	-36.855231	-99.143208	-0.008314	-8.228900	-0.008314	-8.228900	-36.855283	-99.150088
0.550000	-36.036927	-99.983226	-0.009611	-9.047729	-0.009611	-9.047729	-36.036987	-99.990683
0.600000	-35.293497	-100.822625	-0.010924	-9.865898	-0.010924	-9.865898	-35.293565	-100.830683
0.650000	-34.613136	-101.662163	-0.012244	-10.683476	-0.012244	-10.683476	-34.613211	-101.670840
0.700000	-33.986664	-102.502221	-0.013562	-11.500533	-0.013562	-11.500533	-33.986747	-102.511533
0.750000	-33.406807	-103.342965	-0.014874	-12.317137	-0.014874	-12.317137	-33.406898	-103.352924
0.800000	-32.867707	-104.184433	-0.016176	-13.133350	-0.016176	-13.133350	-32.867805	-104.195049
0.850000	-32.364575	-105.026592	-0.017466	-13.949233	-0.017466	-13.949233	-32.364680	-105.037875
0.900000	-31.893449	-105.869373	-0.018743	-14.764838	-0.018743	-14.764838	-31.893561	-105.881331
0.950000	-31.451015	-106.712688	-0.020008	-15.580212	-0.020008	-15.580212	-31.451133	-106.725329
1.000000	-31.034470	-107.556447	-0.021259	-16.395398	-0.021259	-16.395398	-31.034594	-107.569778
1.050000	-30.641426	-108.400558	-0.022500	-17.210431	-0.022500	-17.210431	-30.641557	-108.414586
1.100000	-30.269833	-109.244937	-0.023730	-18.025344	-0.023730	-18.025344	-30.269969	-109.259670
1.150000	-29.917914	-110.089508	-0.024952	-18.840164	-0.024952	-18.840164	-29.918056	-110.104951
1.200000	-29.584123	-110.934200	-0.026165	-19.654916	-0.026165	-19.654916	-29.584270	-110.950362
1.250000	-29.267103	-111.778956	-0.027373	-20.469620	-0.027373	-20.469620	-29.267255	-111.795844
1.300000	-28.965861	-112.623723	-0.028577	-21.284293	-0.028577	-21.284293	-28.966018	-112.641345
1.350000	-28.679140	-113.468457	-0.029776	-22.098953	-0.029776	-22.098953	-28.679302	-113.486822
1.400000	-28.406001	-114.313128	-0.030974	-22.913614	-0.030974	-22.913614	-28.406168	-114.332243
1.450000	-28.145604	-115.157710	-0.032171	-23.728288	-0.032171	-23.728288	-28.145775	-115.177584
1.500000	-27.897199	-116.002186	-0.033367	-24.542986	-0.033367	-24.542986	-27.897374	-116.022830
1.550000	-27.660108	-116.846546	-0.034564	-25.357717	-0.034564	-25.357717	-27.660287	-116.867969
1.600000	-27.433722	-117.690789	-0.035762	-26.172490	-0.035762	-26.172490	-27.433906	-117.713001
1.650000	-27.217491	-118.534916	-0.036963	-26.987314	-0.036963	-26.987314	-27.217678	-118.557928
1.700000	-27.010914	-119.378936	-0.038165	-27.802197	-0.038165	-27.802197	-27.011105	-119.402761
1.750000	-26.813536	-120.222865	-0.039370	-28.617146	-0.039370	-28.617146	-26.813730	-120.247514
1.800000	-26.624944	-121.066723	-0.040578	-29.432169	-0.040578	-29.432169	-26.625141	-121.092208
1.850000	-26.444759	-121.910534	-0.041790	-30.247273	-0.041790	-30.247273	-26.444960	-121.936869
1.900000	-26.272638	-122.754329	-0.043005	-31.062464	-0.043005	-31.062464	-26.272842	-122.781529
1.950000	-26.108264	-123.598142	-0.044223	-31.877750	-0.044223	-31.877750	-26.108470	-123.626222
2.000000	-25.951348	-124.442013	-0.045444	-32.693138	-0.045444	-32.693138	-25.951557	-124.470988
2.050000	-25.801626	-125.285985	-0.046669	-33.508635	-0.046669	-33.508635	-25.801836	-125.315871
2.100000	-25.658852	-126.130106	-0.047898	-34.324248	-0.047898	-34.324248	-25.659065	-126.160920
2.150000	-25.522805	-126.974426	-0.049129	-35.139985	-0.049129	-35.139985	-25.523020	-127.006187
2.200000	-25.393280	-127.819002	-0.050364	-35.955853	-0.050364	-35.955853	-25.393497	-127.851728
2.250000	-25.270089	-128.663891	-0.051602	-36.771861	-0.051602	-36.771861	-25.270307	-128.697602
2.300000	-25.153059	-129.509157	-0.052842	-37.588014	-0.052842	-37.588014	-25.153278	-129.543874
2.350000	-25.042032	-130.354865	-0.054085	-38.404323	-0.054085	-38.404323	-25.042252	-130.390610
2.400000	-24.936865	-131.201085	-0.055331	-39.220795	-0.055331	-39.220795	-24.937086	-131.237880
2.450000	-24.837425	-132.047890	-0.056578	-40.037439	-0.056578	-40.037439	-24.837646	-132.085759
2.500000	-24.743593	-132.895354	-0.057828	-40.854263	-0.057828	-40.854263	-24.743814	-132.934323
2.550000	-24.655457	-133.743594	-0.059079	-41.671285	-0.059079	-41.671285	-24.655679	-133.783690
2.600000	-24.572723	-134.592664	-0.060333	-42.488507	-0.060333	-42.488507	-24.572944	-134.633914
2.650000	-24.495301	-135.442650	-0.061587	-43.305937	-0.061587	-43.305937	-24.495522	-135.485083
2.700000	-24.423113	-136.293642	-0.062843	-44.123586	-0.062843	-44.123586	-24.423333	-136.337288
2.750000	-24.356089	-137.145731	-0.064100	-44.941463	-0.064100	-44.941463	-24.356307	-137.190622
2.800000	-24.294166	-137.999015	-0.065358	-45.759578	-0.065358	-45.759578	-24.294383	-138.045184
2.850000	-24.237293	-138.853593	-0.066617	-46.577942	-0.066617	-46.577942	-24.237507	-138.901075
2.900000	-24.185422	-139.709568	-0.067877	-47.396564	-0.067877	-47.396564	-24.185635	-139.758399
2.950000	-24.138518	-140.567047	-0.069138	-48.215455	-0.069138	-48.215455	-24.138728	-140.617265
3.000000	-24.096550	-141.426140	-0.070400	-49.034627	-0.070400	-49.034627	-24.096757	-141.477786
3.050000	-24.059496	-142.286964	-0.071662	-49.854089	-0.071662	-49.854089	-24.059699	-142.340079
3.100000	-24.027339	-143.149636	-0.072926	-50.673852	-0.072926	-50.673852	-24.027539	-143.204265
3.150000	-24.000073	-144.014282	-0.074190	-51.493929	-0.074190	-51.493929	-24.000268	-144.070471
3.200000	-23.977697	-144.881030	-0.075456	-52.314330	-0.075456	-52.314330	-23.977887	-144.938828
3.250000	-23.960216	-145.750013	-0.076723	-53.135066	-0.076723	-53.135066	-23.960400	-145.809472
3.300000	-23.947645	-146.621373	-0.077992	-53.956149	-0.077992	-53.956149	-23.947823	-146.682546
3.350000	-23.940003	-147.495255	-0.079263	-54.777591	-0.079263	-54.777591	-23.940174	-147.558200
3.400000	-23.937319	-148.371812	-0.080535	-55.599403	-0.080535	-55.599403	-23.937482	-148.436589
3.450000	-23.939628	-149.251205	-0.081810	-56.421596	-0.081810	-56.421596	-23.939783	-149.317876
3.500000	-23.946974	-150.133602	-0.083089	-57.244184	-0.083089	-57.244184	-23.947118	-150.202235
3.550000	-23.959406	-151.019180	-0.084370	-58.067177	-0.084370	-58.067177	-23.959540	-151.089845
3.600000	-23.976984	-151.908126	-0.085655	-58.890587	-0.085655	-58.890587	-23.977106	-151.980898
3.650000	-23.999775	-152.800638	-0.086944	-59.714427	-0.086944	-59.714427	-23.999884	-152.875596
3.700000	-24.027854	-153.696925	-0.088239	-60.538708	-0.088239	-60.538708	-24.027949	-153.774153
3.750000	-24.061307	-154.597210	-0.089538	-61.363443	-0.089538	-61.363443	-24.061385	-154.676797
3.800000	-24.100461	-155.501926	-0.090845	-62.188663	-0.090845	-62.188663	-24.100522	-155.583971
3.850000	-24.145193	-156.411156	-0.092158	-63.014362	-0.092158	-63.014362	-24.145233	-156.495760
3.900000	-24.195616	-157.325172	-0.093479	-63.840550	-0.093479	-63.840550	-24.195635	-157.412442
3.950000	-24.251858	-158.244270	-0.094808	-64.667241	-0.094808	-64.667241	-24.251852	-158.334321
4.000000	-24.314058	-159.168767	-0.096147	-65.494445	-0.096147	-65.494445	-24.314025	-159.261721
4.050000	-24.382365	-160.099005	-0.097496	-66.322175	-0.097496	-66.322175	-24.382302	-160.194994
4.100000	-24.456945	-161.035357	-0.098857	-67.150442	-0.098857	-67.150442	-24.456849	-161.134519
4.150000	-24.537978	-161.978225	-0.100230	-67.979257	-0.100230	-67.979257	-24.537845	-162.080711
4.200000	-24.625660	-162.928051	-0.101616	-68.808633	-0.101616	-68.808633	-24.625485	-163.034021
4.250000	-24.720202	-163.885314	-0.103017	-69.638579	-0.103017	-69.638579	-24.719982	-163.994943
4.300000	-24.821838	-164.850543	-0.104434	-70.469109	-0.104434	-70.469109	-24.821567	-164.964016
4.350000	-24.930819	-165.824318	-0.105868	-71.300232	-0.105868	-71.300232	-24.930491	-165.941836
4.400000	-25.047421	-166.807279	-0.107320	-72.131960	-0.107320	-72.131960	-25.047028	-166.929059
4.450000	-25.171942	-167.800134	-0.108791	-72.964303	-0.108791	-72.964303	-25.171478	-167.926411
4.500000	-25.304709	-168.803670	-0.110284	-73.797272	-0.110284	-73.797272	-25.304166	-168.934699
4.550000	-25.446079	-169.818763	-0.111799	-74.630877	-0.111799	-74.630877	-25.445447	-169.954820
4.600000	-25.596443	-170.846392	-0.113338	-75.465128	-0.113338	-75.465128	-25.595709	-170.987780
4.650000	-25.756225	-171.887656	-0.114902	-76.300036	-0.114902	-76.300036	-25.755379	-172.034703
4.700000	-25.925896	-172.943792	-0.116493	-77.135611	-0.116493	-77.135611	-25.924922	-173.096859
4.750000	-26.105970	-174.016197	-0.118113	-77.971861	-0.118113	-77.971861	-26.104850	-174.175680
4.800000	-26.297011	-175.106458	-0.119763	-78.808795	-0.119763	-78.808795	-26.295728	-175.272791
4.850000	-26.499647	-176.216383	-0.121445	-79.646424	-0.121445	-79.646424	-26.498177	-176.390045
4.900000	-26.714566	-177.348039	-0.123161	-80.484755	-0.123161	-80.484755	-26.712884	-177.529560
4.950000	-26.942537	-178.503805	-0.124912	-81.323798	-0.124912	-81.323798	-26.940611	-178.693771
5.000000	-27.184409	-179.686425	-0.126700	-82.163560	-0.126700	-82.163560	-27.182204	-179.885493
5.050000	-27.441474	179.099423	-0.128530	-83.004080	-0.128530	-83.004080	-27.438946	178.890490
5.100000	-27.714465	177.851094	-0.130401	-83.845336	-0.130401	-83.845336	-27.711563	177.631468
5.150000	-28.004575	176.564098	-0.132315	-84.687335	-0.132315	-84.687335	-28.001237	176.332848
5.200000	-28.313145	175.233110	-0.134275	-85.530082	-0.134275	-85.530082	-28.309298	174.989184
5.250000	-28.641689	173.851772	-0.136281	-86.373585	-0.136281	-86.373585	-28.637242	173.593977
5.300000	-28.991923	172.412434	-0.138338	-87.217849	-0.138338	-87.217849	-28.986768	172.139411
5.350000	-29.365799	170.905818	-0.140445	-88.062881	-0.140445	-88.062881	-29.359800	170.616009
5.400000	-29.765546	169.320561	-0.142607	-88.908686	-0.142607	-88.908686	-29.758534	169.012181
5.450000	-30.193712	167.642624	-0.144824	-89.755267	-0.144824	-89.755267	-30.185474	167.313612
5.500000	-30.653221	165.854466	-0.147099	-90.602631	-0.147099	-90.602631	-30.643488	165.502438
5.550000	-31.147433	163.933927	-0.149434	-91.450781	-0.149434	-91.450781	-31.135858	163.556120
5.600000	-31.680205	161.852665	-0.151832	-92.299721	-0.151832	-92.299721	-31.666333	161.445875
5.650000	-32.255946	159.573949	-0.154295	-93.149453	-0.154295	-93.149453	-32.239179	159.134470
5.700000	-32.879649	157.049506	-0.156825	-93.999982	-0.156825	-93.999982	-32.859181	156.573093
5.750000	-33.556844	154.214970	-0.159424	-94.851308	-0.159424	-94.851308	-33.531582	153.696853
5.800000	-34.293400	150.983274	-0.162095	-95.703433	-0.162095	-95.703433	-34.261829	150.418325
5.850000	-35.094950	147.235102	-0.164839	-96.556360	-0.164839	-96.556360	-35.054952	146.618325
5.900000	-35.965569	142.805458	-0.167661	-97.410089	-0.167661	-97.410089	-35.914154	142.133198
5.950000	-36.904861	137.466201	-0.170561	-98.264621	-0.170561	-98.264621	-36.837823	136.738838
6.000000	-37.901936	130.908093	-0.173542	-99.119955	-0.173542	-99.119955	-37.813522	130.135616
6.050000	-38.923852	122.737713	-0.176607	-99.976090	-0.176607	-99.976090	-38.806831	121.949986
6.100000	-39.896762	112.532399	-0.179757	-100.833026	-0.179757	-100.833026	-39.743937	111.794104
6.150000	-40.686180	100.035662	-0.182996	-101.690761	-0.182996	-101.690761	-40.495049	99.456563
6.200000	-41.107151	85.549004	-0.186326	-102.549293	-0.186326	-102.549293	-40.887328	85.261002
6.250000	-41.010476	70.270818	-0.189748	-103.408619	-0.189748	-103.408619	-40.785519	70.348906
6.300000	-40.384446	55.998579	-0.193271	-104.268771	-0.193271	-104.268771	-40.180163	56.391392
6.350000	-39.418062	43.842196	-0.196891	-105.129709	-0.196891	-105.129709	-39.246348	44.430169
6.400000	-38.293890	33.976134	-0.200612	-105.991430	-0.200612	-105.991430	-38.154773	34.653170
6.450000	-37.136717	26.085304	-0.204436	-106.853928	-0.204436	-106.853928	-37.025027	26.783912
6.500000	-36.012313	19.739067	-0.208365	-107.717199	-0.208365	-107.717199	-35.922107	20.423588
6.550000	-34.948851	14.555184	-0.212401	-108.581235	-0.212401	-108.581235	-34.875069	15.209459
6.600000	-33.954808	10.238365	-0.216547	-109.446032	-0.216547	-109.446032	-33.893558	10.856654
6.650000	-33.029472	6.572006	-0.220804	-110.311582	-0.220804	-110.311582	-32.977865	7.153694
6.700000	-32.170415	3.361418	-0.225165	-111.177804	-0.225165	-111.177804	-32.126351	3.907958
6.750000	-31.367383	0.574976	-0.229652	-112.044828	-0.229652	-112.044828	-31.329252	1.089210
6.800000	-30.616926	-1.914706	-0.234257	-112.912582	-0.234257	-112.912582	-30.583549	-1.429864
6.850000	-29.913537	-4.168905	-0.238983	-113.781054	-0.238983	-113.781054	-29.884021	-3.710633
6.900000	-29.252171	-6.232019	-0.243833	-114.650244	-0.243833	-114.650244	-29.225830	-5.797686
6.950000	-28.628521	-8.140070	-0.248809	-115.520141	-0.248809	-115.520141	-28.604819	-7.727316
7.000000	-28.038887	-9.921842	-0.253912	-116.390725	-0.253912	-116.390725	-28.017405	-9.528590
7.050000	-27.479948	-11.598333	-0.259144	-117.261987	-0.259144	-117.261987	-27.460350	-11.222746
7.100000	-26.948809	-13.186231	-0.264506	-118.133913	-0.264506	-118.133913	-26.930825	-12.826688
7.150000	-26.442952	-14.698946	-0.270001	-119.006492	-0.270001	-119.006492	-26.426360	-14.354017
7.200000	-25.960170	-16.147363	-0.275630	-119.879711	-0.275630	-119.879711	-25.944789	-15.815782
7.250000	-25.498531	-17.540399	-0.281395	-120.753556	-0.281395	-120.753556	-25.484210	-17.221044
7.300000	-25.056176	-18.883692	-0.287304	-121.628040	-0.287304	-121.628040	-25.042787	-18.575530
7.350000	-24.631963	-20.187438	-0.293344	-122.503089	-0.293344	-122.503089	-24.619401	-19.889631
7.400000	-24.224342	-21.454335	-0.299525	-123.378721	-0.299525	-123.378721	-24.212516	-21.166087
7.450000	-23.832127	-22.688760	-0.305848	-124.254922	-0.305848	-124.254922	-23.820959	-22.409359
7.500000	-23.454258	-23.894437	-0.312315	-125.131676	-0.312315	-125.131676	-23.443681	-23.623240
7.550000	-23.089688	-25.073561	-0.318932	-126.008989	-0.318932	-126.008989	-23.079644	-24.809970
7.600000	-22.737676	-26.230062	-0.325696	-126.886821	-0.325696	-126.886821	-22.728116	-25.973557
7.650000	-22.397451	-27.366259	-0.332606	-127.765155	-0.332606	-127.765155	-22.388329	-27.116369
7.700000	-22.068312	-28.484167	-0.339665	-128.643973	-0.339665	-128.643973	-22.059590	-28.240465
7.750000	-21.749624	-29.585548	-0.346873	-129.523258	-0.346873	-129.523258	-21.741269	-29.347643
7.800000	-21.440810	-30.671945	-0.354231	-130.402991	-0.354231	-130.402991	-21.432791	-30.439479
7.850000	-21.141344	-31.744718	-0.361739	-131.283154	-0.361739	-131.283154	-21.133635	-31.517363
7.900000	-20.850744	-32.805065	-0.369398	-132.163729	-0.369398	-132.163729	-20.843320	-32.582519
7.950000	-20.568569	-33.854047	-0.377209	-133.044696	-0.377209	-133.044696	-20.561410	-33.636033
8.000000	-20.294414	-34.892609	-0.385173	-133.926037	-0.385173	-133.926037	-20.287500	-34.678869
8.050000	-20.027907	-35.921590	-0.393289	-134.807731	-0.393289	-134.807731	-20.021220	-35.711887
8.100000	-19.768703	-36.941738	-0.401557	-135.689758	-0.401557	-135.689758	-19.762228	-36.735852
8.150000	-19.516542	-37.954708	-0.409960	-136.572062	-0.409960	-136.572062	-19.510265	-37.752458
8.200000	-19.271000	-38.958984	-0.418535	-137.454702	-0.418535	-137.454702	-19.264907	-38.760151
8.250000	-19.031880	-39.956256	-0.427264	-138.337616	-0.427264	-138.337616	-19.025960	-39.760663
8.300000	-18.798930	-40.947005	-0.436144	-139.220781	-0.436144	-139.220781	-18.793173	-40.754486
8.350000	-18.571914	-41.931665	-0.445177	-140.104178	-0.445177	-140.104178	-18.566309	-41.742063
8.400000	-18.350613	-42.910625	-0.454361	-140.987786	-0.454361	-140.987786	-18.345151	-42.723796
8.450000	-18.134822	-43.884236	-0.463697	-141.871584	-0.463697	-141.871584	-18.129495	-43.700043
8.500000	-17.924350	-44.852816	-0.473182	-142.755550	-0.473182	-142.755550	-17.919151	-44.671130
8.550000	-17.719019	-45.816650	-0.482817	-143.639665	-0.482817	-143.639665	-17.713941	-45.637349
8.600000	-17.518661	-46.775994	-0.492600	-144.523907	-0.492600	-144.523907	-17.513696	-46.598964
8.650000	-17.323120	-47.731079	-0.502531	-145.408254	-0.502531	-145.408254	-17.318262	-47.556211
8.700000	-17.132247	-48.682113	-0.512607	-146.292688	-0.512607	-146.292688	-17.127492	-48.509305
8.750000	-16.945905	-49.629282	-0.522829	-147.177185	-0.522829	-147.177185	-16.941246	-49.458436
8.800000	-16.763976	-50.572674	-0.533196	-148.061727	-0.533196	-148.061727	-16.759408	-50.403697
8.850000	-16.586326	-51.512522	-0.543705	-148.946291	-0.543705	-148.946291	-16.581844	-51.345325
8.900000	-16.412840	-52.448955	-0.554353	-149.830857	-0.554353	-149.830857	-16.408441	-52.283455
8.950000	-16.243408	-53.382088	-0.565140	-150.715405	-0.565140	-150.715405	-16.239087	-53.218207
9.000000	-16.077927	-54.312024	-0.576062	-151.599915	-0.576062	-151.599915	-16.073680	-54.149685
9.050000	-15.916299	-55.238849	-0.587119	-152.484367	-0.587119	-152.484367	-15.912122	-55.077981
9.100000	-15.758431	-56.162640	-0.598306	-153.368741	-0.598306	-153.368741	-15.754320	-56.003174
9.150000	-15.604234	-57.083461	-0.609623	-154.253019	-0.609623	-154.253019	-15.600187	-56.925330
9.200000	-15.453626	-58.001366	-0.621067	-155.137181	-0.621067	-155.137181	-15.449638	-57.844508
9.250000	-15.306526	-58.916399	-0.632634	-156.021209	-0.632634	-156.021209	-15.302595	-58.760752
9.300000	-15.162858	-59.828595	-0.644323	-156.905086	-0.644323	-156.905086	-15.158981	-59.674102
9.350000	-15.022551	-60.737980	-0.656130	-157.788792	-0.656130	-157.788792	-15.018725	-60.584585
9.400000	-14.885548	-61.644542	-0.668053	-158.672310	-0.668053	-158.672310	-14.881769	-61.492191
9.450000	-14.751784	-62.548291	-0.680089	-159.555620	-0.680089	-159.555620	-14.748050	-62.396932
9.500000	-14.621184	-63.449260	-0.692235	-160.438710	-0.692235	-160.438710	-14.617492	-63.298844
9.550000	-14.493688	-64.347446	-0.704485	-161.321564	-0.704485	-161.321564	-14.490036	-64.197925
9.600000	-14.369238	-65.242837	-0.716837	-162.204166	-0.716837	-162.204166	-14.365623	-65.094167
9.650000	-14.247778	-66.135419	-0.729288	-163.086501	-0.729288	-163.086501	-14.244197	-65.987555
9.700000	-14.129255	-67.025170	-0.741833	-163.968556	-0.741833	-163.968556	-14.125706	-66.878069
9.750000	-14.013617	-67.912062	-0.754469	-164.850317	-0.754469	-164.850317	-14.010097	-67.765684
9.800000	-13.900814	-68.796064	-0.767191	-165.731772	-0.767191	-165.731772	-13.897321	-68.650370
9.850000	-13.790799	-69.677141	-0.779996	-166.612908	-0.779996	-166.612908	-13.787331	-69.532092
9.900000	-13.683524	-70.555251	-0.792879	-167.493714	-0.792879	-167.493714	-13.680078	-70.410812
9.950000	-13.578945	-71.430351	-0.805836	-168.374180	-0.805836	-168.374180	-13.575520	-71.286486
10.000000	-13.477019	-72.302393	-0.818863	-169.254295	-0.818863	-169.254295	-13.473611	-72.159068
