! freq	dB(S11)	phase(S11)	dB(S12)	phase(S12)	
!     	dB(S21)	phase(S21)	dB(S22)	phase(S22)	
!S-par simulation data
#  GHz  S  DB  R 50
0.000000	-0.000000	0.000000	-311.436242	0.000000	-311.436242	0.000000	-0.000000	0.000000
0.050000	-0.000110	-0.828269	-57.894647	88.106849	-57.894647	88.106849	-0.000135	-1.135042
0.100000	-0.000436	-1.656284	-51.976173	86.721957	-51.976173	86.721957	-0.000536	-2.269767
0.150000	-0.000965	-2.483814	-48.538854	85.707571	-48.538854	85.707571	-0.001191	-3.403875
0.200000	-0.001678	-3.310662	-46.097514	84.831358	-46.097514	84.831358	-0.002078	-4.537107
0.250000	-0.002562	-4.136609	-44.197831	83.985974	-44.197831	83.985974	-0.003189	-5.669152
0.300000	-0.003578	-4.961613	-42.640951	83.133508	-42.640951	83.133508	-0.004476	-6.799921
0.350000	-0.004708	-5.785556	-41.321890	82.266186	-41.321890	82.266186	-0.005922	-7.929214
0.400000	-0.005928	-6.608390	-40.177836	81.383456	-40.177836	81.383456	-0.007500	-9.056912
0.450000	-0.007216	-7.430097	-39.168138	80.487373	-39.168138	80.487373	-0.009182	-10.182931
0.500000	-0.008554	-8.250681	-38.264920	79.580399	-38.264920	79.580399	-0.010946	-11.307218
0.550000	-0.009926	-9.070161	-37.448207	78.664755	-37.448207	78.664755	-0.012769	-12.429742
0.600000	-0.011319	-9.888568	-36.703197	77.742285	-36.703197	77.742285	-0.014632	-13.550489
0.650000	-0.012724	-10.705935	-36.018604	76.814479	-36.018604	76.814479	-0.016522	-14.669458
0.700000	-0.014133	-11.522294	-35.385631	75.882532	-35.385631	75.882532	-0.018424	-15.786653
0.750000	-0.015542	-12.337678	-34.797287	74.947409	-34.797287	74.947409	-0.020329	-16.902082
0.800000	-0.016946	-13.152114	-34.247922	74.009889	-34.247922	74.009889	-0.022231	-18.015753
0.850000	-0.018345	-13.965624	-33.732904	73.070614	-33.732904	73.070614	-0.024123	-19.127672
0.900000	-0.019736	-14.778223	-33.248391	72.130114	-33.248391	72.130114	-0.026002	-20.237839
0.950000	-0.021121	-15.589923	-32.791158	71.188834	-32.791158	71.188834	-0.027866	-21.346253
1.000000	-0.022499	-16.400729	-32.358474	70.247152	-32.358474	70.247152	-0.029715	-22.452906
1.050000	-0.023871	-17.210642	-31.948003	69.305390	-31.948003	69.305390	-0.031547	-23.557786
1.100000	-0.025239	-18.019658	-31.557734	68.363828	-31.557734	68.363828	-0.033363	-24.660874
1.150000	-0.026602	-18.827769	-31.185919	67.422711	-31.185919	67.422711	-0.035164	-25.762151
1.200000	-0.027964	-19.634966	-30.831035	66.482254	-30.831035	66.482254	-0.036952	-26.861590
1.250000	-0.029324	-20.441236	-30.491742	65.542649	-30.491742	65.542649	-0.038727	-27.959162
1.300000	-0.030684	-21.246521	-30.166929	64.604120	-30.166929	64.604120	-0.040491	-29.054754
1.350000	-0.032044	-22.050844	-29.855471	63.666785	-29.855471	63.666785	-0.042245	-30.148411
1.400000	-0.033407	-22.854188	-29.556429	62.730782	-29.556429	62.730782	-0.043992	-31.240097
1.450000	-0.034772	-23.656532	-29.268963	61.796240	-29.268963	61.796240	-0.045732	-32.329777
1.500000	-0.036140	-24.457857	-28.992317	60.863276	-28.992317	60.863276	-0.047468	-33.417411
1.550000	-0.037512	-25.258143	-28.725807	59.932000	-28.725807	59.932000	-0.049200	-34.502961
1.600000	-0.038889	-26.057367	-28.468814	59.002512	-28.468814	59.002512	-0.050929	-35.586388
1.650000	-0.040270	-26.855509	-28.220776	58.074907	-28.220776	58.074907	-0.052658	-36.667653
1.700000	-0.041657	-27.652549	-27.981179	57.149272	-27.981179	57.149272	-0.054386	-37.746718
1.750000	-0.043049	-28.448463	-27.749553	56.225691	-27.749553	56.225691	-0.056115	-38.823544
1.800000	-0.044447	-29.243233	-27.525467	55.304240	-27.525467	55.304240	-0.057845	-39.898094
1.850000	-0.045852	-30.036837	-27.308525	54.384993	-27.308525	54.384993	-0.059577	-40.970331
1.900000	-0.047262	-30.829254	-27.098360	53.468017	-27.098360	53.468017	-0.061313	-42.040219
1.950000	-0.048679	-31.620464	-26.894635	52.553378	-26.894635	52.553378	-0.063052	-43.107723
2.000000	-0.050102	-32.410448	-26.697036	51.641136	-26.697036	51.641136	-0.064795	-44.172810
2.050000	-0.051532	-33.199186	-26.505273	50.731350	-26.505273	50.731350	-0.066542	-45.235446
2.100000	-0.052969	-33.986660	-26.319074	49.824074	-26.319074	49.824074	-0.068295	-46.295600
2.150000	-0.054413	-34.772850	-26.138188	48.919358	-26.138188	48.919358	-0.070053	-47.353243
2.200000	-0.055863	-35.557738	-25.962378	48.017253	-25.962378	48.017253	-0.071817	-48.408345
2.250000	-0.057320	-36.341308	-25.791425	47.117804	-25.791425	47.117804	-0.073586	-49.460880
2.300000	-0.058784	-37.123541	-25.625121	46.221055	-25.625121	46.221055	-0.075363	-50.510821
2.350000	-0.060256	-37.904421	-25.463272	45.327046	-25.463272	45.327046	-0.077146	-51.558143
2.400000	-0.061734	-38.683932	-25.305696	44.435817	-25.305696	44.435817	-0.078936	-52.602825
2.450000	-0.063219	-39.462058	-25.152221	43.547403	-25.152221	43.547403	-0.080733	-53.644844
2.500000	-0.064711	-40.238784	-25.002685	42.661840	-25.002685	42.661840	-0.082538	-54.684180
2.550000	-0.066211	-41.014032	-24.856989	41.779287	-24.856989	41.779287	-0.084351	-55.720696
2.600000	-0.067719	-41.787849	-24.714932	40.899650	-24.714932	40.899650	-0.086172	-56.754492
2.650000	-0.069234	-42.560222	-24.576377	40.022956	-24.576377	40.022956	-0.088001	-57.785553
2.700000	-0.070756	-43.331137	-24.441194	39.149233	-24.441194	39.149233	-0.089839	-58.813864
2.750000	-0.072286	-44.100582	-24.309259	38.278505	-24.309259	38.278505	-0.091686	-59.839412
2.800000	-0.073824	-44.868543	-24.180455	37.410795	-24.180455	37.410795	-0.093541	-60.862187
2.850000	-0.075370	-45.635009	-24.054670	36.546124	-24.054670	36.546124	-0.095407	-61.882179
2.900000	-0.076924	-46.399968	-23.931798	35.684511	-23.931798	35.684511	-0.097281	-62.899380
2.950000	-0.078486	-47.163410	-23.811737	34.825976	-23.811737	34.825976	-0.099166	-63.913782
3.000000	-0.080057	-47.925324	-23.694390	33.970533	-23.694390	33.970533	-0.101061	-64.925380
3.050000	-0.081636	-48.685699	-23.579666	33.118198	-23.579666	33.118198	-0.102967	-65.934170
3.100000	-0.083225	-49.444527	-23.467475	32.268985	-23.467475	32.268985	-0.104883	-66.940149
3.150000	-0.084823	-50.201798	-23.357732	31.422906	-23.357732	31.422906	-0.106811	-67.943315
3.200000	-0.086429	-50.957502	-23.250357	30.579972	-23.250357	30.579972	-0.108751	-68.943669
3.250000	-0.088046	-51.711633	-23.145271	29.740192	-23.145271	29.740192	-0.110702	-69.941211
3.300000	-0.089673	-52.464182	-23.042400	28.903574	-23.042400	28.903574	-0.112666	-70.935944
3.350000	-0.091309	-53.215142	-22.941672	28.070125	-22.941672	28.070125	-0.114643	-71.927871
3.400000	-0.092956	-53.964505	-22.843018	27.239851	-22.843018	27.239851	-0.116633	-72.916998
3.450000	-0.094614	-54.712265	-22.746371	26.412756	-22.746371	26.412756	-0.118636	-73.903330
3.500000	-0.096283	-55.458417	-22.651668	25.588843	-22.651668	25.588843	-0.120654	-74.886875
3.550000	-0.097963	-56.202954	-22.558846	24.768115	-22.558846	24.768115	-0.122686	-75.867642
3.600000	-0.099655	-56.945871	-22.467847	23.950573	-22.467847	23.950573	-0.124733	-76.845640
3.650000	-0.101359	-57.687164	-22.378612	23.136216	-22.378612	23.136216	-0.126796	-77.820879
3.700000	-0.103075	-58.426828	-22.291087	22.325043	-22.291087	22.325043	-0.128874	-78.793373
3.750000	-0.104804	-59.164859	-22.205218	21.517052	-22.205218	21.517052	-0.130969	-79.763133
3.800000	-0.106547	-59.901183	-22.120985	20.712377	-22.120985	20.712377	-0.133082	-80.730057
3.850000	-0.108303	-60.635868	-22.038305	19.910876	-22.038305	19.910876	-0.135212	-81.694279
3.900000	-0.110073	-61.368910	-21.957128	19.112544	-21.957128	19.112544	-0.137360	-82.655816
3.950000	-0.111857	-62.100308	-21.877408	18.317373	-21.877408	18.317373	-0.139526	-83.614684
4.000000	-0.113656	-62.830060	-21.799099	17.525356	-21.799099	17.525356	-0.141711	-84.570903
4.050000	-0.115470	-63.558165	-21.722157	16.736485	-21.722157	16.736485	-0.143917	-85.524492
4.100000	-0.117299	-64.284622	-21.646538	15.950750	-21.646538	15.950750	-0.146142	-86.475471
4.150000	-0.119144	-65.009430	-21.572201	15.168142	-21.572201	15.168142	-0.148388	-87.423862
4.200000	-0.121005	-65.732589	-21.499107	14.388648	-21.499107	14.388648	-0.150655	-88.369688
4.250000	-0.122884	-66.454100	-21.427214	13.612256	-21.427214	13.612256	-0.152943	-89.312971
4.300000	-0.124779	-67.173963	-21.356485	12.838954	-21.356485	12.838954	-0.155255	-90.253737
4.350000	-0.126692	-67.892180	-21.286883	12.068727	-21.286883	12.068727	-0.157589	-91.192009
4.400000	-0.128623	-68.608751	-21.218370	11.301560	-21.218370	11.301560	-0.159946	-92.127815
4.450000	-0.130572	-69.323679	-21.150913	10.537437	-21.150913	10.537437	-0.162328	-93.061181
4.500000	-0.132541	-70.036967	-21.084476	9.776341	-21.084476	9.776341	-0.164734	-93.992135
4.550000	-0.134529	-70.748616	-21.019025	9.018255	-21.019025	9.018255	-0.167166	-94.920705
4.600000	-0.136536	-71.458630	-20.954528	8.263159	-20.954528	8.263159	-0.169623	-95.846922
4.650000	-0.138564	-72.167012	-20.890953	7.511033	-20.890953	7.511033	-0.172106	-96.770815
4.700000	-0.140613	-72.873766	-20.828267	6.761858	-20.828267	6.761858	-0.174617	-97.692415
4.750000	-0.142684	-73.578897	-20.766442	6.015611	-20.766442	6.015611	-0.177155	-98.611755
4.800000	-0.144776	-74.282408	-20.705446	5.272270	-20.705446	5.272270	-0.179721	-99.528866
4.850000	-0.146891	-74.984305	-20.645251	4.531810	-20.645251	4.531810	-0.182316	-100.443782
4.900000	-0.149028	-75.684593	-20.585827	3.794208	-20.585827	3.794208	-0.184941	-101.356538
4.950000	-0.151189	-76.383278	-20.527147	3.059437	-20.527147	3.059437	-0.187595	-102.267168
5.000000	-0.153374	-77.080365	-20.469184	2.327471	-20.469184	2.327471	-0.190280	-103.175707
5.050000	-0.155584	-77.775793	-20.411922	1.598401	-20.411922	1.598401	-0.192997	-104.082105
5.100000	-0.157819	-78.469637	-20.355322	0.872077	-20.355322	0.872077	-0.195746	-104.986490
5.150000	-0.160080	-79.161904	-20.299358	0.148468	-20.299358	0.148468	-0.198527	-105.888898
5.200000	-0.162367	-79.852601	-20.244004	-0.572457	-20.244004	-0.572457	-0.201341	-106.789369
5.250000	-0.164681	-80.541737	-20.189236	-1.290730	-20.189236	-1.290730	-0.204189	-107.687941
5.300000	-0.167021	-81.229320	-20.135029	-2.006385	-20.135029	-2.006385	-0.207070	-108.584654
5.350000	-0.169390	-81.915357	-20.081360	-2.719456	-20.081360	-2.719456	-0.209987	-109.479550
5.400000	-0.171787	-82.599859	-20.028204	-3.429979	-20.028204	-3.429979	-0.212938	-110.372668
5.450000	-0.174212	-83.282832	-19.975540	-4.137992	-19.975540	-4.137992	-0.215926	-111.264050
5.500000	-0.176667	-83.964288	-19.923344	-4.843532	-19.923344	-4.843532	-0.218950	-112.153738
5.550000	-0.179152	-84.644235	-19.871595	-5.546639	-19.871595	-5.546639	-0.222011	-113.041776
5.600000	-0.181668	-85.322683	-19.820271	-6.247354	-19.820271	-6.247354	-0.225109	-113.928207
5.650000	-0.184215	-85.999643	-19.769350	-6.945719	-19.769350	-6.945719	-0.228246	-114.813074
5.700000	-0.186794	-86.675126	-19.718811	-7.641777	-19.718811	-7.641777	-0.231421	-115.696423
5.750000	-0.189405	-87.349141	-19.668635	-8.335572	-19.668635	-8.335572	-0.234636	-116.578298
5.800000	-0.192049	-88.021701	-19.618800	-9.027151	-19.618800	-9.027151	-0.237891	-117.458746
5.850000	-0.194733	-88.692568	-19.569289	-9.716198	-19.569289	-9.716198	-0.241193	-118.337587
5.900000	-0.197452	-89.361940	-19.520082	-10.403035	-19.520082	-10.403035	-0.244538	-119.215036
5.950000	-0.200191	-90.030576	-19.471149	-11.088812	-19.471149	-11.088812	-0.247905	-120.091833
6.000000	-0.202984	-90.697003	-19.422481	-11.771410	-19.422481	-11.771410	-0.251338	-120.966675
6.050000	-0.205790	-91.362948	-19.374072	-12.453341	-19.374072	-12.453341	-0.254787	-121.841116
6.100000	-0.208660	-92.026484	-19.325866	-13.131934	-19.325866	-13.131934	-0.258310	-122.713562
6.150000	-0.211536	-92.689783	-19.277914	-13.810213	-19.277914	-13.810213	-0.261841	-123.585826
6.200000	-0.214485	-93.350485	-19.230094	-14.485045	-19.230094	-14.485045	-0.265457	-124.456093
6.250000	-0.217435	-94.011187	-19.182535	-15.159876	-19.182535	-15.159876	-0.269074	-125.326360
6.300000	-0.220466	-94.669114	-19.135029	-15.831204	-19.135029	-15.831204	-0.272785	-126.194671
6.350000	-0.223498	-95.327041	-19.087781	-16.502531	-19.087781	-16.502531	-0.276497	-127.062982
6.400000	-0.226607	-95.982482	-19.040541	-17.170894	-19.040541	-17.170894	-0.280298	-127.929708
6.450000	-0.229724	-96.637696	-18.993535	-17.838987	-18.993535	-17.838987	-0.284108	-128.796290
6.500000	-0.232913	-97.290703	-18.946507	-18.504619	-18.946507	-18.504619	-0.288001	-129.661624
6.550000	-0.236118	-97.943268	-18.899678	-19.169759	-18.899678	-19.169759	-0.291911	-130.526709
6.600000	-0.239391	-98.593895	-18.852808	-19.832905	-18.852808	-19.832905	-0.295898	-131.390848
6.650000	-0.242687	-99.243877	-18.806094	-20.495385	-18.806094	-20.495385	-0.299911	-132.254672
6.700000	-0.246046	-99.892182	-18.759332	-21.156295	-18.759332	-21.156295	-0.303994	-133.117816
6.750000	-0.249436	-100.539648	-18.712674	-21.816419	-18.712674	-21.816419	-0.308112	-133.980620
6.800000	-0.252882	-101.185688	-18.665974	-22.475353	-18.665974	-22.475353	-0.312293	-134.842972
6.850000	-0.256370	-101.830708	-18.619317	-23.133437	-18.619317	-23.133437	-0.316520	-135.705002
6.900000	-0.259907	-102.474542	-18.572633	-23.790661	-18.572633	-23.790661	-0.320801	-136.566771
6.950000	-0.263495	-103.117188	-18.525925	-24.447027	-18.525925	-24.447027	-0.325137	-137.428277
7.000000	-0.267126	-103.758876	-18.479216	-25.102817	-18.479216	-25.102817	-0.329521	-138.289671
7.050000	-0.270818	-104.399222	-18.432409	-25.757798	-18.432409	-25.757798	-0.333971	-139.150909
7.100000	-0.274545	-105.038826	-18.385637	-26.412431	-18.385637	-26.412431	-0.338459	-140.012143
7.150000	-0.278344	-105.676946	-18.338686	-27.066367	-18.338686	-27.066367	-0.343024	-140.873371
7.200000	-0.282170	-106.314530	-18.291815	-27.720128	-18.291815	-27.720128	-0.347619	-141.734663
7.250000	-0.286079	-106.950502	-18.244679	-28.373365	-18.244679	-28.373365	-0.352301	-142.596146
7.300000	-0.290007	-107.586129	-18.197675	-29.026543	-18.197675	-29.026543	-0.357006	-143.457717
7.350000	-0.294029	-108.220032	-18.150317	-29.679431	-18.150317	-29.679431	-0.361808	-144.319724
7.400000	-0.298062	-108.853769	-18.103151	-30.332320	-18.103151	-30.332320	-0.366624	-145.181797
7.450000	-0.302201	-109.485683	-18.055536	-30.985213	-18.055536	-30.985213	-0.371549	-146.044601
7.500000	-0.306342	-110.117597	-18.008181	-31.638106	-18.008181	-31.638106	-0.376478	-146.907406
7.550000	-0.310601	-110.747604	-17.960279	-32.291361	-17.960279	-32.291361	-0.381529	-147.771286
7.600000	-0.314863	-111.377611	-17.912640	-32.944616	-17.912640	-32.944616	-0.386583	-148.635166
7.650000	-0.319236	-112.005946	-17.864495	-33.598529	-17.864495	-33.598529	-0.391752	-149.500291
7.700000	-0.323621	-112.634129	-17.816545	-34.252501	-17.816545	-34.252501	-0.396934	-150.365530
7.750000	-0.328111	-113.260864	-17.768138	-34.907369	-17.768138	-34.907369	-0.402223	-151.232141
7.800000	-0.332624	-113.887309	-17.719855	-35.562415	-17.719855	-35.562415	-0.407536	-152.099026
7.850000	-0.337234	-114.512516	-17.671169	-36.218532	-17.671169	-36.218532	-0.412948	-152.967366
7.900000	-0.341878	-115.137309	-17.622533	-36.875006	-17.622533	-36.875006	-0.418394	-153.836190
7.950000	-0.346590	-115.761314	-17.573712	-37.532339	-17.573712	-37.532339	-0.423908	-154.706108
8.000000	-0.351377	-116.384449	-17.524646	-38.190712	-17.524646	-38.190712	-0.429498	-155.577318
8.050000	-0.356230	-117.006869	-17.475410	-38.850071	-17.475410	-38.850071	-0.435155	-156.449717
8.100000	-0.361151	-117.628596	-17.425999	-39.510493	-17.425999	-39.510493	-0.440878	-157.323373
8.150000	-0.366139	-118.249649	-17.376412	-40.172057	-17.376412	-40.172057	-0.446669	-158.198358
8.200000	-0.371196	-118.870051	-17.326646	-40.834840	-17.326646	-40.834840	-0.452527	-159.074742
8.250000	-0.376322	-119.489822	-17.276700	-41.498919	-17.276700	-41.498919	-0.458455	-159.952598
8.300000	-0.381520	-120.108983	-17.226572	-42.164368	-17.226572	-42.164368	-0.464451	-160.831996
8.350000	-0.386788	-120.727556	-17.176262	-42.831264	-17.176262	-42.831264	-0.470518	-161.713010
8.400000	-0.392129	-121.345564	-17.125768	-43.499680	-17.125768	-43.499680	-0.476655	-162.595712
8.450000	-0.397543	-121.963027	-17.075089	-44.169691	-17.075089	-44.169691	-0.482862	-163.480178
8.500000	-0.403031	-122.579968	-17.024225	-44.841367	-17.024225	-44.841367	-0.489142	-164.366480
8.550000	-0.408594	-123.196408	-16.973176	-45.514781	-16.973176	-45.514781	-0.495493	-165.254693
8.600000	-0.414233	-123.812371	-16.921942	-46.190004	-16.921942	-46.190004	-0.501917	-166.144893
8.650000	-0.419949	-124.427878	-16.870523	-46.867106	-16.870523	-46.867106	-0.508415	-167.037156
8.700000	-0.425743	-125.042953	-16.818918	-47.546157	-16.818918	-47.546157	-0.514986	-167.931558
8.750000	-0.431615	-125.657617	-16.767130	-48.227223	-16.767130	-48.227223	-0.521632	-168.828176
8.800000	-0.437571	-126.271879	-16.715136	-48.910467	-16.715136	-48.910467	-0.528355	-169.727191
8.850000	-0.443607	-126.885779	-16.662958	-49.595869	-16.662958	-49.595869	-0.535155	-170.628584
8.900000	-0.449724	-127.499341	-16.610599	-50.283492	-16.610599	-50.283492	-0.542030	-171.532434
8.950000	-0.455924	-128.112588	-16.558059	-50.973404	-16.558059	-50.973404	-0.548982	-172.438821
9.000000	-0.462208	-128.725543	-16.505338	-51.665669	-16.505338	-51.665669	-0.556011	-173.347823
9.050000	-0.468576	-129.338231	-16.452439	-52.360351	-16.452439	-52.360351	-0.563117	-174.259521
9.100000	-0.475030	-129.950676	-16.399363	-53.057512	-16.399363	-53.057512	-0.570302	-175.173995
9.150000	-0.481570	-130.562901	-16.346111	-53.757217	-16.346111	-53.757217	-0.577565	-176.091327
9.200000	-0.488197	-131.174930	-16.292684	-54.459528	-16.292684	-54.459528	-0.584908	-177.011597
9.250000	-0.494913	-131.786789	-16.239085	-55.164506	-16.239085	-55.164506	-0.592330	-177.934889
9.300000	-0.501718	-132.398502	-16.185315	-55.872214	-16.185315	-55.872214	-0.599832	-178.861283
9.350000	-0.508613	-133.010094	-16.131376	-56.582713	-16.131376	-56.582713	-0.607414	-179.790864
9.400000	-0.515600	-133.621589	-16.077269	-57.296065	-16.077269	-57.296065	-0.615078	179.276285
9.450000	-0.522679	-134.233013	-16.022998	-58.012331	-16.022998	-58.012331	-0.622822	178.340082
9.500000	-0.529851	-134.844392	-15.968562	-58.731571	-15.968562	-58.731571	-0.630648	177.400441
9.550000	-0.537118	-135.455750	-15.913966	-59.453848	-15.913966	-59.453848	-0.638556	176.457278
9.600000	-0.544480	-136.067113	-15.859210	-60.179222	-15.859210	-60.179222	-0.646547	175.510509
9.650000	-0.551938	-136.678508	-15.804296	-60.907755	-15.804296	-60.907755	-0.654620	174.560048
9.700000	-0.559493	-137.289960	-15.749228	-61.639509	-15.749228	-61.639509	-0.662775	173.605810
9.750000	-0.567147	-137.901496	-15.694007	-62.374546	-15.694007	-62.374546	-0.671014	172.647709
9.800000	-0.574901	-138.513142	-15.638636	-63.112929	-15.638636	-63.112929	-0.679336	171.685659
9.850000	-0.582754	-139.124925	-15.583117	-63.854719	-15.583117	-63.854719	-0.687742	170.719574
9.900000	-0.590710	-139.736872	-15.527452	-64.599982	-15.527452	-64.599982	-0.696232	169.749367
9.950000	-0.598767	-140.349009	-15.471644	-65.348780	-15.471644	-65.348780	-0.704805	168.774952
10.000000	-0.606928	-140.961364	-15.415696	-66.101180	-15.415696	-66.101180	-0.713462	167.796242
