! freq	dB(S11)	phase(S11)	dB(S12)	phase(S12)	
!     	dB(S21)	phase(S21)	dB(S22)	phase(S22)	
!S-par simulation data
#  GHz  S  DB  R 50
0.000000	-92.479172	0.000000	-0.000206	0.000000	-0.000206	0.000000	-92.479173	0.000000
0.050000	-68.649572	-87.418531	-0.000312	-0.829963	-0.000312	-0.829963	-68.649504	-87.418677
0.100000	-62.659668	-90.400299	-0.000624	-1.659685	-0.000624	-1.659685	-62.659615	-90.400518
0.150000	-59.167653	-92.127740	-0.001128	-2.488951	-0.001128	-2.488951	-59.167622	-92.127997
0.200000	-56.705636	-93.522096	-0.001800	-3.317590	-0.001800	-3.317590	-56.705631	-93.522344
0.250000	-54.812605	-94.760092	-0.002624	-4.145422	-0.002624	-4.145422	-54.812627	-94.760280
0.300000	-53.279419	-95.918303	-0.003556	-4.972441	-0.003556	-4.972441	-53.279465	-95.918391
0.350000	-51.996611	-97.020061	-0.004575	-5.798584	-0.004575	-5.798584	-51.996680	-97.020019
0.400000	-50.898180	-98.082923	-0.005654	-6.623860	-0.005654	-6.623860	-50.898269	-98.082729
0.450000	-49.941630	-99.118327	-0.006772	-7.448312	-0.006772	-7.448312	-49.941736	-99.117966
0.500000	-49.098057	-100.134301	-0.007907	-8.272004	-0.007907	-8.272004	-49.098177	-100.133764
0.550000	-48.346963	-101.136704	-0.009045	-9.095016	-0.009045	-9.095016	-48.347096	-101.135986
0.600000	-47.673321	-102.129893	-0.010172	-9.917435	-0.010172	-9.917435	-47.673466	-102.128991
0.650000	-47.065814	-103.117153	-0.011282	-10.739349	-0.011282	-10.739349	-47.065969	-103.116065
0.700000	-46.515727	-104.100988	-0.012367	-11.560846	-0.012367	-11.560846	-46.515891	-104.099712
0.750000	-46.016225	-105.083339	-0.013425	-12.382004	-0.013425	-12.382004	-46.016398	-105.081875
0.800000	-45.561865	-106.065741	-0.014454	-13.202898	-0.014454	-13.202898	-45.562046	-106.064086
0.850000	-45.151731	-107.049963	-0.015449	-14.023576	-0.015449	-14.023576	-45.151921	-107.048113
0.900000	-44.779319	-108.036657	-0.016414	-14.844112	-0.016414	-14.844112	-44.779517	-108.034609
0.950000	-44.432320	-109.025379	-0.017366	-15.664619	-0.017366	-15.664619	-44.432527	-109.023131
1.000000	-44.127881	-110.020189	-0.018277	-16.485043	-0.018277	-16.485043	-44.128097	-110.017733
1.050000	-43.840679	-111.016929	-0.019181	-17.305475	-0.019181	-17.305475	-43.840903	-111.014263
1.100000	-43.596292	-112.023320	-0.020049	-18.125952	-0.020049	-18.125952	-43.596527	-112.020432
1.150000	-43.362166	-113.030977	-0.020914	-18.946444	-0.020914	-18.946444	-43.362410	-113.027866
1.200000	-43.172559	-114.052557	-0.021748	-19.767097	-0.021748	-19.767097	-43.172814	-114.049204
1.250000	-42.987002	-115.074136	-0.022582	-20.587750	-0.022582	-20.587750	-42.987269	-115.070542
1.300000	-42.837569	-116.109671	-0.023396	-21.408596	-0.023396	-21.408596	-42.837848	-116.105818
1.350000	-42.711975	-117.155656	-0.024201	-22.229591	-0.024201	-22.229591	-42.712269	-117.151531
1.400000	-42.609924	-118.213376	-0.024997	-23.050751	-0.024997	-23.050751	-42.610233	-118.208963
1.450000	-42.531286	-119.284292	-0.025788	-23.872091	-0.025788	-23.872091	-42.531611	-119.279575
1.500000	-42.476093	-120.370082	-0.026574	-24.693624	-0.026574	-24.693624	-42.476436	-120.365043
1.550000	-42.444541	-121.472685	-0.027356	-25.515363	-0.027356	-25.515363	-42.444904	-121.467302
1.600000	-42.436996	-122.594357	-0.028137	-26.337320	-0.028137	-26.337320	-42.437381	-122.588605
1.650000	-42.454000	-123.737737	-0.028917	-27.159507	-0.028917	-27.159507	-42.454411	-123.731589
1.700000	-42.496290	-124.905935	-0.029697	-27.981935	-0.029697	-27.981935	-42.496728	-124.899362
1.750000	-42.564811	-126.102647	-0.030479	-28.804615	-0.030479	-28.804615	-42.565280	-126.095612
1.800000	-42.660745	-127.332286	-0.031263	-29.627557	-0.031263	-29.627557	-42.661249	-127.324751
1.850000	-42.785543	-128.600179	-0.032051	-30.450772	-0.032051	-30.450772	-42.786086	-128.592097
1.900000	-42.940964	-129.912803	-0.032843	-31.274270	-0.032843	-31.274270	-42.941553	-129.904121
1.950000	-43.129135	-131.278112	-0.033640	-32.098062	-0.033640	-32.098062	-43.129775	-131.268771
2.000000	-43.352612	-132.705983	-0.034443	-32.922157	-0.034443	-32.922157	-43.353314	-132.695911
2.050000	-43.614474	-134.208819	-0.035253	-33.746567	-0.035253	-33.746567	-43.615247	-134.197934
2.100000	-43.918431	-135.802403	-0.036070	-34.571302	-0.036070	-34.571302	-43.919288	-135.790608
2.150000	-44.268969	-137.507108	-0.036896	-35.396372	-0.036896	-35.396372	-44.269927	-137.494290
2.200000	-44.671535	-139.349660	-0.037730	-36.221788	-0.037730	-36.221788	-44.672617	-139.335681
2.250000	-45.132775	-141.365744	-0.038574	-37.047560	-0.038574	-37.047560	-45.134010	-141.350444
2.300000	-45.660828	-143.603975	-0.039428	-37.873699	-0.039428	-37.873699	-45.662254	-143.587161
2.350000	-46.265679	-146.132064	-0.040294	-38.700217	-0.040294	-38.700217	-46.267352	-146.113511
2.400000	-46.959545	-149.046659	-0.041172	-39.527123	-0.041172	-39.527123	-46.961541	-149.026107
2.450000	-47.757149	-152.489432	-0.042062	-40.354429	-0.042062	-40.354429	-47.759580	-152.466599
2.500000	-48.675477	-156.673919	-0.042966	-41.182147	-0.042966	-41.182147	-48.678511	-156.648551
2.550000	-49.731675	-162.003788	-0.043886	-42.010305	-0.043886	-42.010305	-49.735575	-161.975812
2.600000	-50.930464	-169.010891	-0.044820	-42.838897	-0.044820	-42.838897	-50.935627	-168.980890
2.650000	-52.241662	-178.581115	-0.045771	-43.667935	-0.045771	-43.667935	-52.248651	-178.551479
2.700000	-53.530603	168.087832	-0.046739	-44.497430	-0.046739	-44.497430	-53.539973	168.110569
2.750000	-54.451478	150.224163	-0.047725	-45.327393	-0.047725	-45.327393	-54.462941	150.228267
2.800000	-54.514938	129.426069	-0.048731	-46.157836	-0.048731	-46.157836	-54.526394	129.403757
2.850000	-53.575263	109.714900	-0.049757	-46.988769	-0.049757	-46.988769	-53.584354	109.673002
2.900000	-52.012194	93.943775	-0.050804	-47.820205	-0.050804	-47.820205	-52.018410	93.894998
2.950000	-50.266887	82.363193	-0.051874	-48.652154	-0.051874	-48.652154	-50.270921	82.315793
3.000000	-48.573286	73.964069	-0.052967	-49.484628	-0.052967	-49.484628	-48.575909	73.920970
3.050000	-47.008732	67.709412	-0.054086	-50.317639	-0.054086	-50.317639	-47.010472	67.670939
3.100000	-45.583341	62.872611	-0.055230	-51.151196	-0.055230	-51.151196	-45.584519	62.838271
3.150000	-44.285355	58.991043	-0.056402	-51.985313	-0.056402	-51.985313	-44.286166	58.960199
3.200000	-43.098183	55.772420	-0.057603	-52.819999	-0.057603	-52.819999	-43.098747	55.744493
3.250000	-42.005944	53.028153	-0.058835	-53.655267	-0.058835	-53.655267	-42.006336	53.002663
3.300000	-40.994934	50.632981	-0.060098	-54.491126	-0.060098	-54.491126	-40.995204	50.609540
3.350000	-40.053742	48.501205	-0.061394	-55.327587	-0.061394	-55.327587	-40.053923	48.479503
3.400000	-39.172967	46.572544	-0.062725	-56.164662	-0.062725	-56.164662	-39.173082	46.552333
3.450000	-38.344871	44.803523	-0.064093	-57.002361	-0.064093	-57.002361	-38.344937	44.784599
3.500000	-37.563051	43.162074	-0.065499	-57.840695	-0.065499	-57.840695	-37.563080	43.144273
3.550000	-36.822181	41.624067	-0.066944	-58.679672	-0.066944	-58.679672	-36.822180	41.607253
3.600000	-36.117792	40.171021	-0.068432	-59.519305	-0.068432	-59.519305	-36.117770	40.155080
3.650000	-35.446112	38.788552	-0.069962	-60.359602	-0.069962	-60.359602	-35.446071	38.773389
3.700000	-34.803927	37.465305	-0.071538	-61.200573	-0.071538	-61.200573	-34.803873	37.450839
3.750000	-34.188484	36.192201	-0.073162	-62.042228	-0.073162	-62.042228	-34.188420	36.178363
3.800000	-33.596696	34.963476	-0.074836	-62.884607	-0.074836	-62.884607	-33.596623	34.950205
3.850000	-33.027299	33.771106	-0.076562	-63.727688	-0.076562	-63.727688	-33.027219	33.758351
3.900000	-32.478479	32.610248	-0.078342	-64.571481	-0.078342	-64.571481	-32.478394	32.597965
3.950000	-31.948643	31.476860	-0.080177	-65.415994	-0.080177	-65.415994	-31.948554	31.465009
4.000000	-31.436385	30.367537	-0.082071	-66.261235	-0.082071	-66.261235	-31.436293	30.356085
4.050000	-30.940460	29.279396	-0.084024	-67.107212	-0.084024	-67.107212	-30.940366	29.268312
4.100000	-30.459756	28.209978	-0.086039	-67.953932	-0.086039	-67.953932	-30.459661	28.199235
4.150000	-29.993281	27.157172	-0.088119	-68.801403	-0.088119	-68.801403	-29.993184	27.146746
4.200000	-29.540142	26.119155	-0.090266	-69.649631	-0.090266	-69.649631	-29.540044	26.109025
4.250000	-29.099535	25.094349	-0.092483	-70.498624	-0.092483	-70.498624	-29.099437	25.084496
4.300000	-28.670732	24.081377	-0.094771	-71.348387	-0.094771	-71.348387	-28.670634	24.071782
4.350000	-28.253074	23.079032	-0.097134	-72.198925	-0.097134	-72.198925	-28.252975	23.069680
4.400000	-27.845958	22.086256	-0.099574	-73.050245	-0.099574	-73.050245	-27.845859	22.077131
4.450000	-27.448835	21.102111	-0.102093	-73.902351	-0.102093	-73.902351	-27.448737	21.093201
4.500000	-27.061204	20.125770	-0.104695	-74.755249	-0.104695	-74.755249	-27.061107	20.117063
4.550000	-26.682604	19.156497	-0.107381	-75.608941	-0.107381	-75.608941	-26.682507	19.147981
4.600000	-26.312609	18.193634	-0.110155	-76.463431	-0.110155	-76.463431	-26.312512	18.185300
4.650000	-25.950829	17.236595	-0.113019	-77.318724	-0.113019	-77.318724	-25.950733	17.228433
4.700000	-25.596902	16.284854	-0.115975	-78.174821	-0.115975	-78.174821	-25.596806	16.276855
4.750000	-25.250492	15.337937	-0.119028	-79.031725	-0.119028	-79.031725	-25.250398	15.330093
4.800000	-24.911291	14.395419	-0.122179	-79.889438	-0.122179	-79.889438	-24.911197	14.387724
4.850000	-24.579007	13.456917	-0.125432	-80.747961	-0.125432	-80.747961	-24.578914	13.449362
4.900000	-24.253374	12.522082	-0.128789	-81.607295	-0.128789	-81.607295	-24.253281	12.514662
4.950000	-23.934138	11.590601	-0.132253	-82.467439	-0.132253	-82.467439	-23.934047	11.583310
5.000000	-23.621067	10.662188	-0.135828	-83.328394	-0.135828	-83.328394	-23.620977	10.655020
5.050000	-23.313727	9.736697	-0.139520	-84.190194	-0.139520	-84.190194	-23.313637	9.729645
5.100000	-23.012143	8.813760	-0.143329	-85.052802	-0.143329	-85.052802	-23.012054	8.806822
5.150000	-22.716121	7.893168	-0.147257	-85.916217	-0.147257	-85.916217	-22.716033	7.886338
5.200000	-22.425479	6.974729	-0.151307	-86.780435	-0.151307	-86.780435	-22.425392	6.968002
5.250000	-22.140045	6.058266	-0.155483	-87.645453	-0.155483	-87.645453	-22.139959	6.051639
5.300000	-21.859658	5.143621	-0.159787	-88.511268	-0.159787	-88.511268	-21.859572	5.137090
5.350000	-21.584165	4.230649	-0.164222	-89.377875	-0.164222	-89.377875	-21.584080	4.224210
5.400000	-21.313421	3.319217	-0.168792	-90.245269	-0.168792	-90.245269	-21.313337	3.312867
5.450000	-21.047637	2.409074	-0.173485	-91.113368	-0.173485	-91.113368	-21.047553	2.402810
5.500000	-20.786014	1.500369	-0.178331	-91.982311	-0.178331	-91.982311	-20.785931	1.494187
5.550000	-20.528751	0.592874	-0.183319	-92.852023	-0.183319	-92.852023	-20.528668	0.586773
5.600000	-20.275731	-0.313499	-0.188454	-93.722495	-0.188454	-93.722495	-20.275649	-0.319524
5.650000	-20.026813	-1.218824	-0.193740	-94.593728	-0.193740	-94.593728	-20.026732	-1.224775
5.700000	-19.781896	-2.123177	-0.199180	-95.465714	-0.199180	-95.465714	-19.781816	-2.129056
5.750000	-19.540914	-3.026637	-0.204775	-96.338433	-0.204775	-96.338433	-19.540834	-3.032446
5.800000	-19.303772	-3.929262	-0.210528	-97.211876	-0.210528	-97.211876	-19.303693	-3.935004
5.850000	-19.070379	-4.831108	-0.216443	-98.086033	-0.216443	-98.086033	-19.070300	-4.836784
5.900000	-18.840649	-5.732222	-0.222521	-98.960891	-0.222521	-98.960891	-18.840571	-5.737836
5.950000	-18.614500	-6.632649	-0.228766	-99.836439	-0.228766	-99.836439	-18.614422	-6.638201
6.000000	-18.391852	-7.532426	-0.235181	-100.712664	-0.235181	-100.712664	-18.391774	-7.537919
6.050000	-18.172630	-8.431587	-0.241768	-101.589552	-0.241768	-101.589552	-18.172553	-8.437022
6.100000	-17.956761	-9.330162	-0.248530	-102.467090	-0.248530	-102.467090	-17.956684	-9.335541
6.150000	-17.744177	-10.228176	-0.255470	-103.345263	-0.255470	-103.345263	-17.744100	-10.233502
6.200000	-17.534810	-11.125653	-0.262590	-104.224055	-0.262590	-104.224055	-17.534734	-11.130925
6.250000	-17.328598	-12.022610	-0.269893	-105.103451	-0.269893	-105.103451	-17.328522	-12.027831
6.300000	-17.125442	-12.919052	-0.277386	-105.983446	-0.277386	-105.983446	-17.125367	-12.924224
6.350000	-16.925325	-13.815004	-0.285067	-106.864009	-0.285067	-106.864009	-16.925250	-13.820128
6.400000	-16.728188	-14.710476	-0.292938	-107.745124	-0.292938	-107.745124	-16.728114	-14.715553
6.450000	-16.533978	-15.605476	-0.301002	-108.626770	-0.301002	-108.626770	-16.533904	-15.610506
6.500000	-16.342641	-16.500007	-0.309260	-109.508930	-0.309260	-109.508930	-16.342567	-16.504994
6.550000	-16.154127	-17.394074	-0.317716	-110.391583	-0.317716	-110.391583	-16.154053	-17.399017
6.600000	-15.968387	-18.287679	-0.326371	-111.274709	-0.326371	-111.274709	-15.968314	-18.292579
6.650000	-15.785374	-19.180819	-0.335228	-112.158287	-0.335228	-112.158287	-15.785301	-19.185679
6.700000	-15.604939	-20.073448	-0.344306	-113.042336	-0.344306	-113.042336	-15.604866	-20.078267
6.750000	-15.427240	-20.965647	-0.353573	-113.926755	-0.353573	-113.926755	-15.427167	-20.970427
6.800000	-15.252137	-21.857370	-0.363047	-114.811559	-0.363047	-114.811559	-15.252064	-21.862113
6.850000	-15.079589	-22.748612	-0.372729	-115.696726	-0.372729	-115.696726	-15.079516	-22.753318
6.900000	-14.909555	-23.639365	-0.382621	-116.582231	-0.382621	-116.582231	-14.909483	-23.644034
6.950000	-14.741998	-24.529619	-0.392725	-117.468051	-0.392725	-117.468051	-14.741926	-24.534253
7.000000	-14.576880	-25.419365	-0.403041	-118.354161	-0.403041	-118.354161	-14.576807	-25.423964
7.050000	-14.414164	-26.308593	-0.413571	-119.240535	-0.413571	-119.240535	-14.414092	-26.313158
7.100000	-14.253816	-27.197289	-0.424317	-120.127149	-0.424317	-120.127149	-14.253744	-27.201822
7.150000	-14.095801	-28.085444	-0.435279	-121.013977	-0.435279	-121.013977	-14.095729	-28.089944
7.200000	-13.940087	-28.973042	-0.446457	-121.900991	-0.446457	-121.900991	-13.940015	-28.977511
7.250000	-13.786641	-29.860071	-0.457854	-122.788166	-0.457854	-122.788166	-13.786569	-29.864509
7.300000	-13.635432	-30.746516	-0.469469	-123.675475	-0.469469	-123.675475	-13.635360	-30.750924
7.350000	-13.486430	-31.632363	-0.481304	-124.562889	-0.481304	-124.562889	-13.486358	-31.636742
7.400000	-13.339606	-32.517596	-0.493358	-125.450382	-0.493358	-125.450382	-13.339534	-32.521946
7.450000	-13.194931	-33.402199	-0.505631	-126.337926	-0.505631	-126.337926	-13.194859	-33.406521
7.500000	-13.052378	-34.286157	-0.518125	-127.225492	-0.518125	-127.225492	-13.052306	-34.290451
7.550000	-12.911911	-35.169423	-0.530847	-128.113049	-0.530847	-128.113049	-12.911839	-35.173690
7.600000	-12.773516	-36.052008	-0.543789	-129.000570	-0.543789	-129.000570	-12.773444	-36.056249
7.650000	-12.637168	-36.933895	-0.556951	-129.888024	-0.556951	-129.888024	-12.637096	-36.938111
7.700000	-12.502840	-37.815067	-0.570331	-130.775382	-0.570331	-130.775382	-12.502768	-37.819258
7.750000	-12.370509	-38.695506	-0.583931	-131.662616	-0.583931	-131.662616	-12.370437	-38.699672
7.800000	-12.240152	-39.575194	-0.597748	-132.549697	-0.597748	-132.549697	-12.240079	-39.579336
7.850000	-12.111744	-40.454112	-0.611782	-133.436594	-0.611782	-133.436594	-12.111671	-40.458230
7.900000	-11.985264	-41.332243	-0.626032	-134.323280	-0.626032	-134.323280	-11.985191	-41.336337
7.950000	-11.860690	-42.209566	-0.640497	-135.209723	-0.640497	-135.209723	-11.860617	-42.213638
8.000000	-11.738001	-43.086064	-0.655175	-136.095896	-0.655175	-136.095896	-11.737928	-43.090113
8.050000	-11.617175	-43.961716	-0.670066	-136.981768	-0.670066	-136.981768	-11.617102	-43.965744
8.100000	-11.498194	-44.836504	-0.685167	-137.867312	-0.685167	-137.867312	-11.498120	-44.840510
8.150000	-11.381036	-45.710408	-0.700478	-138.752496	-0.700478	-138.752496	-11.380962	-45.714393
8.200000	-11.265683	-46.583407	-0.715996	-139.637294	-0.715996	-139.637294	-11.265609	-46.587371
8.250000	-11.152117	-47.455482	-0.731718	-140.521676	-0.731718	-140.521676	-11.152042	-47.459426
8.300000	-11.040318	-48.326611	-0.747644	-141.405613	-0.747644	-141.405613	-11.040243	-48.330535
8.350000	-10.930270	-49.196775	-0.763771	-142.289077	-0.763771	-142.289077	-10.930195	-49.200679
8.400000	-10.821955	-50.065951	-0.780095	-143.172040	-0.780095	-143.172040	-10.821879	-50.069837
8.450000	-10.715356	-50.934120	-0.796616	-144.054475	-0.796616	-144.054475	-10.715280	-50.937986
8.500000	-10.610456	-51.801258	-0.813329	-144.936354	-0.813329	-144.936354	-10.610380	-51.805106
8.550000	-10.507241	-52.667343	-0.830233	-145.817649	-0.830233	-145.817649	-10.507164	-52.671173
8.600000	-10.405693	-53.532354	-0.847324	-146.698335	-0.847324	-146.698335	-10.405616	-53.536166
8.650000	-10.305798	-54.396268	-0.864598	-147.578385	-0.864598	-147.578385	-10.305721	-54.400062
8.700000	-10.207541	-55.259060	-0.882054	-148.457772	-0.882054	-148.457772	-10.207464	-55.262838
8.750000	-10.110907	-56.120709	-0.899686	-149.336473	-0.899686	-149.336473	-10.110829	-56.124469
8.800000	-10.015908	-56.981137	-0.917498	-150.214429	-0.917498	-150.214429	-10.015829	-56.984880
8.850000	-9.922505	-57.840369	-0.935480	-151.091646	-0.935480	-151.091646	-9.922426	-57.844097
8.900000	-9.830686	-58.698382	-0.953628	-151.968102	-0.953628	-151.968102	-9.830607	-58.702093
8.950000	-9.740438	-59.555148	-0.971937	-152.843771	-0.971937	-152.843771	-9.740358	-59.558844
9.000000	-9.651746	-60.410643	-0.990404	-153.718633	-0.990404	-153.718633	-9.651665	-60.414323
9.050000	-9.564599	-61.264839	-1.009024	-154.592664	-1.009024	-154.592664	-9.564518	-61.268504
9.100000	-9.478983	-62.117710	-1.027794	-155.465844	-1.027794	-155.465844	-9.478902	-62.121360
9.150000	-9.394888	-62.969228	-1.046708	-156.338153	-1.046708	-156.338153	-9.394805	-62.972863
9.200000	-9.312300	-63.819364	-1.065763	-157.209570	-1.065763	-157.209570	-9.312217	-63.822984
9.250000	-9.231208	-64.668090	-1.084953	-158.080076	-1.084953	-158.080076	-9.231124	-64.671696
9.300000	-9.151600	-65.515376	-1.104273	-158.949652	-1.104273	-158.949652	-9.151516	-65.518968
9.350000	-9.073466	-66.361192	-1.123719	-159.818282	-1.123719	-159.818282	-9.073381	-66.364770
9.400000	-8.996794	-67.205508	-1.143286	-160.685949	-1.143286	-160.685949	-8.996709	-67.209073
9.450000	-8.921573	-68.048292	-1.162968	-161.552636	-1.162968	-161.552636	-8.921487	-68.051844
9.500000	-8.847793	-68.889513	-1.182760	-162.418328	-1.182760	-162.418328	-8.847706	-68.893052
9.550000	-8.775443	-69.729138	-1.202658	-163.283011	-1.202658	-163.283011	-8.775356	-69.732664
9.600000	-8.704513	-70.567134	-1.222655	-164.146671	-1.222655	-164.146671	-8.704425	-70.570647
9.650000	-8.634993	-71.403467	-1.242746	-165.009296	-1.242746	-165.009296	-8.634903	-71.406967
9.700000	-8.566871	-72.238102	-1.262925	-165.870875	-1.262925	-165.870875	-8.566781	-72.241590
9.750000	-8.500140	-73.071005	-1.283187	-166.731396	-1.283187	-166.731396	-8.500049	-73.074481
9.800000	-8.434788	-73.902140	-1.303526	-167.590849	-1.303526	-167.590849	-8.434696	-73.905604
9.850000	-8.370806	-74.731470	-1.323937	-168.449227	-1.323937	-168.449227	-8.370713	-74.734923
9.900000	-8.308184	-75.558959	-1.344412	-169.306520	-1.344412	-169.306520	-8.308090	-75.562401
9.950000	-8.246913	-76.384569	-1.364947	-170.162722	-1.364947	-170.162722	-8.246819	-76.388000
10.000000	-8.186984	-77.208262	-1.385536	-171.017828	-1.385536	-171.017828	-8.186888	-77.211682
