! freq	dB(S11)	phase(S11)	dB(S12)	phase(S12)	
!     	dB(S21)	phase(S21)	dB(S22)	phase(S22)	
!S-par simulation data
#  GHz  S  DB  R 50
0.000000	-0.000000	0.000000	-346.851002	0.000000	-346.851002	0.000000	-0.000000	0.000000
0.050000	-0.000099	-0.784675	-75.199234	85.392004	-75.199234	85.392004	-0.000099	-0.784645
0.100000	-0.000391	-1.569112	-69.460465	85.846026	-69.460465	85.846026	-0.000391	-1.569053
0.150000	-0.000869	-2.353072	-66.017048	85.811666	-66.017048	85.811666	-0.000869	-2.352984
0.200000	-0.001505	-3.136412	-63.551674	85.477576	-63.551674	85.477576	-0.001505	-3.136295
0.250000	-0.002282	-3.918967	-61.632688	84.984566	-61.632688	84.984566	-0.002282	-3.918820
0.300000	-0.003189	-4.700530	-60.063267	84.398898	-60.063267	84.398898	-0.003189	-4.700354
0.350000	-0.004182	-5.481186	-58.736467	83.767848	-58.736467	83.767848	-0.004182	-5.480981
0.400000	-0.005254	-6.260754	-57.588406	83.102032	-57.588406	83.102032	-0.005254	-6.260520
0.450000	-0.006377	-7.039313	-56.577210	82.415543	-56.577210	82.415543	-0.006377	-7.039050
0.500000	-0.007537	-7.816827	-55.674475	81.713960	-55.674475	81.713960	-0.007536	-7.816536
0.550000	-0.008717	-8.593327	-54.859779	81.001875	-54.859779	81.001875	-0.008716	-8.593007
0.600000	-0.009906	-9.368844	-54.118034	80.282287	-54.118034	80.282287	-0.009905	-9.368496
0.650000	-0.011096	-10.143412	-53.437767	79.557324	-53.437767	79.557324	-0.011095	-10.143035
0.700000	-0.012279	-10.917065	-52.810048	78.828549	-52.810048	78.828549	-0.012278	-10.916660
0.750000	-0.013450	-11.689836	-52.227792	78.097144	-52.227792	78.097144	-0.013450	-11.689403
0.800000	-0.014608	-12.461752	-51.685286	77.364033	-51.685286	77.364033	-0.014607	-12.461291
0.850000	-0.015748	-13.232696	-51.178461	76.629954	-51.178461	76.629954	-0.015747	-13.232206
0.900000	-0.016871	-14.002789	-50.702912	75.895509	-50.702912	75.895509	-0.016869	-14.002272
0.950000	-0.017985	-14.772467	-50.253782	75.161307	-50.253782	75.161307	-0.017984	-14.771921
1.000000	-0.019075	-15.540895	-49.831682	74.427833	-49.831682	74.427833	-0.019073	-15.540321
1.050000	-0.020159	-16.309046	-49.430302	73.694787	-49.430302	73.694787	-0.020158	-16.308444
1.100000	-0.021220	-17.075813	-49.052184	72.963874	-49.052184	72.963874	-0.021219	-17.075184
1.150000	-0.022279	-17.842439	-48.690419	72.233279	-48.690419	72.233279	-0.022278	-17.841782
1.200000	-0.023316	-18.607518	-48.349229	71.506192	-48.349229	71.506192	-0.023315	-18.606833
1.250000	-0.024353	-19.372597	-48.020936	70.779105	-48.020936	70.779105	-0.024352	-19.371884
1.300000	-0.025376	-20.136379	-47.709547	70.055569	-47.709547	70.055569	-0.025374	-20.135639
1.350000	-0.026391	-20.899314	-47.412136	69.334619	-47.412136	69.334619	-0.026389	-20.898546
1.400000	-0.027399	-21.661385	-47.127765	68.616469	-47.127765	68.616469	-0.027398	-21.660590
1.450000	-0.028402	-22.422576	-46.855598	67.901324	-46.855598	67.901324	-0.028400	-22.421753
1.500000	-0.029399	-23.182869	-46.594880	67.189386	-46.594880	67.189386	-0.029398	-23.182019
1.550000	-0.030393	-23.942246	-46.344933	66.480849	-46.344933	66.480849	-0.030391	-23.941369
1.600000	-0.031383	-24.700688	-46.105141	65.775906	-46.105141	65.775906	-0.031381	-24.699784
1.650000	-0.032370	-25.458177	-45.874945	65.074746	-45.874945	65.074746	-0.032368	-25.457247
1.700000	-0.033355	-26.214348	-45.654960	64.379027	-45.654960	64.379027	-0.033353	-26.213390
1.750000	-0.034338	-26.970004	-45.442032	63.685445	-45.442032	63.685445	-0.034336	-26.969020
1.800000	-0.035321	-27.724422	-45.238025	62.997242	-45.238025	62.997242	-0.035319	-27.723411
1.850000	-0.036302	-28.477955	-45.041372	62.312881	-45.041372	62.312881	-0.036300	-28.476918
1.900000	-0.037284	-29.230386	-44.852326	61.633537	-44.852326	61.633537	-0.037281	-29.229322
1.950000	-0.038265	-29.981714	-44.670493	60.959208	-44.670493	60.959208	-0.038263	-29.980624
2.000000	-0.039246	-30.732091	-44.495073	60.289400	-44.495073	60.289400	-0.039244	-30.730974
2.050000	-0.040229	-31.481135	-44.326811	59.625919	-44.326811	59.625919	-0.040226	-31.479992
2.100000	-0.041212	-32.229392	-44.163871	58.966330	-44.163871	58.966330	-0.041209	-32.228223
2.150000	-0.042197	-32.976074	-44.008102	58.314523	-44.008102	58.314523	-0.042194	-32.974880
2.200000	-0.043182	-33.722148	-43.856649	57.665844	-43.856649	57.665844	-0.043180	-33.720928
2.250000	-0.044171	-34.466395	-43.712430	57.026552	-43.712430	57.026552	-0.044168	-34.465149
2.300000	-0.045161	-35.210223	-43.571598	56.389488	-43.571598	56.389488	-0.045158	-35.208952
2.350000	-0.046154	-35.951963	-43.438096	55.763568	-43.438096	55.763568	-0.046152	-35.950666
2.400000	-0.047149	-36.693487	-43.307122	55.138835	-43.307122	55.138835	-0.047146	-36.692165
2.450000	-0.048149	-37.432650	-43.183598	54.527165	-43.183598	54.527165	-0.048146	-37.431304
2.500000	-0.049149	-38.171814	-43.061806	53.915494	-43.061806	53.915494	-0.049146	-38.170442
2.550000	-0.050156	-38.908335	-42.947596	53.318972	-42.947596	53.318972	-0.050154	-38.906938
2.600000	-0.051164	-39.644857	-42.834869	52.722450	-42.834869	52.722450	-0.051161	-39.643435
2.650000	-0.052180	-40.378899	-42.728885	52.140658	-42.728885	52.140658	-0.052177	-40.377454
2.700000	-0.053197	-41.112717	-42.624655	51.560206	-42.624655	51.560206	-0.053194	-41.111247
2.750000	-0.054222	-41.844232	-42.526371	50.993933	-42.526371	50.993933	-0.054219	-41.842737
2.800000	-0.055249	-42.575286	-42.430118	50.430495	-42.430118	50.430495	-0.055245	-42.573767
2.850000	-0.056284	-43.304226	-42.339054	49.880546	-42.339054	49.880546	-0.056281	-43.302683
2.900000	-0.057323	-44.032460	-42.250297	49.335093	-42.250297	49.335093	-0.057319	-44.030894
2.950000	-0.058370	-44.758780	-42.166010	48.802292	-42.166010	48.802292	-0.058366	-44.757190
3.000000	-0.059421	-45.484143	-42.084301	48.275817	-42.084301	48.275817	-0.059418	-45.482528
3.050000	-0.060481	-46.207801	-42.006380	47.761006	-42.006380	47.761006	-0.060478	-46.206163
3.100000	-0.061548	-46.930241	-41.931295	47.254527	-41.931295	47.254527	-0.061544	-46.928580
3.150000	-0.062622	-47.651198	-41.859356	46.758567	-41.859356	46.758567	-0.062618	-47.649513
3.200000	-0.063704	-48.370670	-41.790491	46.273125	-41.790491	46.273125	-0.063700	-48.368962
3.250000	-0.064793	-49.088887	-41.724171	45.796891	-41.724171	45.796891	-0.064789	-49.087156
3.300000	-0.065893	-49.805347	-41.661138	45.333549	-41.661138	45.333549	-0.065889	-49.803593
3.350000	-0.066999	-50.520790	-41.600090	44.877933	-41.600090	44.877933	-0.066995	-50.519014
3.400000	-0.068118	-51.234198	-41.542511	44.437770	-41.542511	44.437770	-0.068114	-51.232400
3.450000	-0.069242	-51.946835	-41.486402	44.003677	-41.486402	44.003677	-0.069238	-51.945013
3.500000	-0.070382	-52.657154	-41.433906	43.587791	-41.433906	43.587791	-0.070378	-52.655311
3.550000	-0.071526	-53.366954	-41.382412	43.176135	-41.382412	43.176135	-0.071521	-53.365088
3.600000	-0.072688	-54.074152	-41.334632	42.785631	-41.334632	42.785631	-0.072684	-54.072264
3.650000	-0.073852	-54.781087	-41.287434	42.397334	-41.287434	42.397334	-0.073848	-54.779178
3.700000	-0.075038	-55.485133	-41.244000	42.033322	-41.244000	42.033322	-0.075034	-55.483201
3.750000	-0.076225	-56.189178	-41.200783	41.669309	-41.200783	41.669309	-0.076220	-56.187225
3.800000	-0.077437	-56.890045	-41.161324	41.332892	-41.161324	41.332892	-0.077432	-56.888070
3.850000	-0.078649	-57.590911	-41.122044	40.996475	-41.122044	40.996475	-0.078644	-57.588915
3.900000	-0.079886	-58.288841	-41.085909	40.686351	-41.085909	40.686351	-0.079881	-58.286825
3.950000	-0.081125	-58.986505	-41.050192	40.378618	-41.050192	40.378618	-0.081121	-58.984467
4.000000	-0.082389	-59.681482	-41.017047	40.095671	-41.017047	40.095671	-0.082384	-59.679423
4.050000	-0.083658	-60.375922	-40.984510	39.817681	-40.984510	39.817681	-0.083653	-60.373842
4.100000	-0.084949	-61.067931	-40.954013	39.562758	-40.954013	39.562758	-0.084945	-61.065831
4.150000	-0.086249	-61.759130	-40.924260	39.315525	-40.924260	39.315525	-0.086244	-61.757009
4.200000	-0.087570	-62.448160	-40.896062	39.089430	-40.896062	39.089430	-0.087565	-62.446018
4.250000	-0.088902	-63.136104	-40.868679	38.873903	-40.868679	38.873903	-0.088897	-63.133942
4.300000	-0.090254	-63.822143	-40.842419	38.677376	-40.842419	38.677376	-0.090248	-63.819961
4.350000	-0.091620	-64.506822	-40.816975	38.494419	-40.816975	38.494419	-0.091614	-64.504620
4.400000	-0.093004	-65.189863	-40.792280	38.328121	-40.792280	38.328121	-0.092998	-65.187642
4.450000	-0.094406	-65.871268	-40.768326	38.178483	-40.768326	38.178483	-0.094400	-65.869027
4.500000	-0.095823	-66.551307	-40.744810	38.042980	-40.744810	38.042980	-0.095818	-66.549046
4.550000	-0.097263	-67.229434	-40.721875	37.927268	-40.721875	37.927268	-0.097257	-67.227153
4.600000	-0.098716	-67.906467	-40.699137	37.823007	-40.699137	37.823007	-0.098710	-67.904167
4.650000	-0.100194	-68.581314	-40.676730	37.741650	-40.676730	37.741650	-0.100189	-68.578994
4.700000	-0.101684	-69.255341	-40.654356	37.668938	-40.654356	37.668938	-0.101678	-69.253002
4.750000	-0.103203	-69.926909	-40.631965	37.622156	-40.631965	37.622156	-0.103197	-69.924551
4.800000	-0.104730	-70.597931	-40.609527	37.581131	-40.609527	37.581131	-0.104724	-70.595554
4.850000	-0.106293	-71.266224	-40.586623	37.568892	-40.586623	37.568892	-0.106286	-71.263829
4.900000	-0.107859	-71.934246	-40.563681	37.559504	-40.563681	37.559504	-0.107853	-71.931832
4.950000	-0.109465	-72.599272	-40.539718	37.581487	-40.539718	37.581487	-0.109459	-72.596839
5.000000	-0.111072	-73.264298	-40.515821	37.603469	-40.515821	37.603469	-0.111066	-73.261847
5.050000	-0.112725	-73.926068	-40.490242	37.659025	-40.490242	37.659025	-0.112718	-73.923598
5.100000	-0.114377	-74.587837	-40.464737	37.714580	-40.464737	37.714580	-0.114371	-74.585349
5.150000	-0.116074	-75.246632	-40.437172	37.799981	-40.437172	37.799981	-0.116067	-75.244126
5.200000	-0.117774	-75.905156	-40.409501	37.888096	-40.409501	37.888096	-0.117767	-75.902632
5.250000	-0.119515	-76.560990	-40.379485	38.002171	-40.379485	38.002171	-0.119508	-76.558448
5.300000	-0.121265	-77.216286	-40.349089	38.121438	-40.349089	38.121438	-0.121258	-77.213726
5.350000	-0.123052	-77.869174	-40.316167	38.262699	-40.316167	38.262699	-0.123045	-77.866596
5.400000	-0.124853	-78.521259	-40.282497	38.411291	-40.282497	38.411291	-0.124846	-78.518664
5.450000	-0.126688	-79.171217	-40.246231	38.577930	-40.246231	38.577930	-0.126681	-79.168605
5.500000	-0.128542	-79.820112	-40.208758	38.753592	-40.208758	38.753592	-0.128534	-79.817482
5.550000	-0.130426	-80.467160	-40.168731	38.943477	-40.168731	38.943477	-0.130419	-80.464513
5.600000	-0.132333	-81.112889	-40.126958	39.143521	-40.126958	39.143521	-0.132326	-81.110224
5.650000	-0.134268	-81.757047	-40.082787	39.354205	-40.082787	39.354205	-0.134261	-81.754365
5.700000	-0.136231	-82.399634	-40.036256	39.575530	-40.036256	39.575530	-0.136224	-82.396935
5.750000	-0.138218	-83.040925	-39.987597	39.804269	-39.987597	39.804269	-0.138210	-83.038208
5.800000	-0.140239	-83.680399	-39.935903	40.043390	-39.935903	40.043390	-0.140231	-83.677666
5.850000	-0.142279	-84.318847	-39.882460	40.287171	-39.882460	40.287171	-0.142271	-84.316097
5.900000	-0.144358	-84.955240	-39.825262	40.540271	-39.825262	40.540271	-0.144350	-84.952473
5.950000	-0.146453	-85.590870	-39.766794	40.795846	-39.766794	40.795846	-0.146444	-85.588086
6.000000	-0.148592	-86.224213	-39.703822	41.058842	-39.703822	41.058842	-0.148584	-86.221413
6.050000	-0.150743	-86.857054	-39.640148	41.322775	-39.640148	41.322775	-0.150734	-86.854237
6.100000	-0.152945	-87.487383	-39.571211	41.591397	-39.571211	41.591397	-0.152936	-87.484549
6.150000	-0.155152	-88.117463	-39.502216	41.860123	-39.502216	41.860123	-0.155144	-88.114614
6.200000	-0.157418	-88.744815	-39.427209	42.130002	-39.427209	42.130002	-0.157409	-88.741949
6.250000	-0.159684	-89.372166	-39.352844	42.399881	-39.352844	42.399881	-0.159675	-89.369284
6.300000	-0.162015	-89.996580	-39.271748	42.666650	-39.271748	42.666650	-0.162006	-89.993682
6.350000	-0.164346	-90.620994	-39.191402	42.933419	-39.191402	42.933419	-0.164337	-90.618079
6.400000	-0.166738	-91.242752	-39.104915	43.193421	-39.104915	43.193421	-0.166729	-91.239821
6.450000	-0.169136	-91.864269	-39.018662	43.452809	-39.018662	43.452809	-0.169126	-91.861322
6.500000	-0.171590	-92.483408	-38.926946	43.702644	-38.926946	43.702644	-0.171581	-92.480445
6.550000	-0.174057	-93.102071	-38.834940	43.950568	-38.834940	43.950568	-0.174047	-93.099093
6.600000	-0.176575	-93.718629	-38.738217	44.187039	-38.738217	44.187039	-0.176565	-93.715634
6.650000	-0.179111	-94.334484	-38.640688	44.419692	-38.640688	44.419692	-0.179101	-94.331473
6.700000	-0.181694	-94.948498	-38.539231	44.639853	-38.539231	44.639853	-0.181684	-94.945472
6.750000	-0.184301	-95.561592	-38.436471	44.853768	-38.436471	44.853768	-0.184291	-95.558550
6.800000	-0.186951	-96.173104	-38.330597	45.054964	-38.330597	45.054964	-0.186941	-96.170046
6.850000	-0.189631	-96.783486	-38.222955	45.247075	-38.222955	45.247075	-0.189620	-96.780412
6.900000	-0.192348	-97.392536	-38.113017	45.426968	-38.113017	45.426968	-0.192337	-97.389447
6.950000	-0.195102	-98.000256	-38.000885	45.594643	-38.000885	45.594643	-0.195091	-97.997152
7.000000	-0.197887	-98.606889	-37.887260	45.751228	-37.887260	45.751228	-0.197877	-98.603769
7.050000	-0.200717	-99.211999	-37.771065	45.892290	-37.771065	45.892290	-0.200706	-99.208864
7.100000	-0.203573	-99.816258	-37.654147	46.023908	-37.654147	46.023908	-0.203562	-99.813107
7.150000	-0.206479	-100.418813	-37.534333	46.136639	-37.534333	46.136639	-0.206468	-100.415647
7.200000	-0.209406	-101.020744	-37.414526	46.241971	-37.414526	46.241971	-0.209395	-101.017561
7.250000	-0.212391	-101.620799	-37.291549	46.325105	-37.291549	46.325105	-0.212380	-101.617601
7.300000	-0.215390	-102.220447	-37.169257	46.403165	-37.169257	46.403165	-0.215378	-102.217234
7.350000	-0.218454	-102.818060	-37.043574	46.455860	-37.043574	46.455860	-0.218443	-102.814832
7.400000	-0.221527	-103.415474	-36.919194	46.505982	-36.919194	46.505982	-0.221515	-103.412230
7.450000	-0.224672	-104.010704	-36.791255	46.527795	-36.791255	46.527795	-0.224661	-104.007444
7.500000	-0.227819	-104.605933	-36.665172	46.549608	-36.665172	46.549608	-0.227807	-104.602658
7.550000	-0.231047	-105.198839	-36.535409	46.540454	-36.535409	46.540454	-0.231035	-105.195548
7.600000	-0.234276	-105.791744	-36.407557	46.531300	-36.407557	46.531300	-0.234264	-105.788439
7.650000	-0.237581	-106.382577	-36.276821	46.493975	-36.276821	46.493975	-0.237569	-106.379256
7.700000	-0.240894	-106.973221	-36.147600	46.454089	-36.147600	46.454089	-0.240882	-106.969884
7.750000	-0.244277	-107.562034	-36.016227	46.389019	-36.016227	46.389019	-0.244264	-107.558681
7.800000	-0.247675	-108.150479	-35.886014	46.318913	-35.886014	46.318913	-0.247662	-108.147112
7.850000	-0.251137	-108.737325	-35.754313	46.226701	-35.754313	46.226701	-0.251124	-108.733942
7.900000	-0.254621	-109.323637	-35.623458	46.127121	-35.623458	46.127121	-0.254608	-109.320239
7.950000	-0.258163	-109.908571	-35.491709	46.008519	-35.491709	46.008519	-0.258149	-109.905157
8.000000	-0.261734	-110.492816	-35.360532	45.880407	-35.360532	45.880407	-0.261721	-110.489386
8.050000	-0.265357	-111.075894	-35.228989	45.736292	-35.228989	45.736292	-0.265343	-111.072449
8.100000	-0.269017	-111.658139	-35.097778	45.580747	-35.097778	45.580747	-0.269003	-111.654678
8.150000	-0.272722	-112.239418	-34.966668	45.412097	-34.966668	45.412097	-0.272708	-112.235941
8.200000	-0.276471	-112.819732	-34.835682	45.230342	-34.835682	45.230342	-0.276457	-112.816239
8.250000	-0.280259	-113.399270	-34.705203	45.038213	-34.705203	45.038213	-0.280245	-113.395762
8.300000	-0.284100	-113.977723	-34.574669	44.831563	-34.574669	44.831563	-0.284085	-113.974199
8.350000	-0.287971	-114.555579	-34.444994	44.617073	-34.444994	44.617073	-0.287957	-114.552040
8.400000	-0.291903	-115.132243	-34.315109	44.386907	-34.315109	44.386907	-0.291889	-115.128687
8.450000	-0.295860	-115.708478	-34.186386	44.151217	-34.186386	44.151217	-0.295845	-115.704906
8.500000	-0.299885	-116.283426	-34.057320	43.898956	-34.057320	43.898956	-0.299870	-116.279838
8.550000	-0.303927	-116.858100	-33.929673	43.643253	-33.929673	43.643253	-0.303912	-116.854496
8.600000	-0.308046	-117.431405	-33.801565	43.370339	-33.801565	43.370339	-0.308031	-117.427786
8.650000	-0.312174	-118.004581	-33.675098	43.095825	-33.675098	43.095825	-0.312159	-118.000945
8.700000	-0.316388	-118.576320	-33.548061	42.803703	-33.548061	42.803703	-0.316372	-118.572668
8.750000	-0.320603	-119.148060	-33.422855	42.511581	-33.422855	42.511581	-0.320588	-119.144392
8.800000	-0.324913	-119.718311	-33.296980	42.201684	-33.296980	42.201684	-0.324897	-119.714626
8.850000	-0.329224	-120.288562	-33.172902	41.891788	-33.172902	41.891788	-0.329208	-120.284861
8.900000	-0.333622	-120.857520	-33.048450	41.566890	-33.048450	41.566890	-0.333606	-120.853802
8.950000	-0.338030	-121.426360	-32.925565	41.240629	-32.925565	41.240629	-0.338014	-121.422626
9.000000	-0.342517	-121.994091	-32.802560	40.901878	-32.802560	40.901878	-0.342501	-121.990340
9.050000	-0.347023	-122.561601	-32.680911	40.560628	-32.680911	40.560628	-0.347006	-122.557833
9.100000	-0.351600	-123.128174	-32.559363	40.209138	-32.559363	40.209138	-0.351583	-123.124389
9.150000	-0.356203	-123.694434	-32.438974	39.854235	-32.438974	39.854235	-0.356186	-123.690632
9.200000	-0.360871	-124.259916	-32.318878	39.491087	-32.318878	39.491087	-0.360854	-124.256098
9.250000	-0.365573	-124.825010	-32.199754	39.123816	-32.199754	39.123816	-0.365556	-124.821174
9.300000	-0.370332	-125.389472	-32.081093	38.750050	-32.081093	38.750050	-0.370315	-125.385618
9.350000	-0.375134	-125.953482	-31.963223	38.371645	-31.963223	38.371645	-0.375116	-125.949612
9.400000	-0.379985	-126.516995	-31.845967	37.988260	-31.845967	37.988260	-0.379967	-126.513107
9.450000	-0.384886	-127.080008	-31.729324	37.599896	-31.729324	37.599896	-0.384868	-127.076103
9.500000	-0.389829	-127.642643	-31.613434	37.207847	-31.613434	37.207847	-0.389811	-127.638719
9.550000	-0.394830	-128.204746	-31.497977	36.810640	-31.497977	36.810640	-0.394812	-128.200805
9.600000	-0.399865	-128.766576	-31.383403	36.410837	-31.383403	36.410837	-0.399847	-128.762617
9.650000	-0.404967	-129.327858	-31.269078	36.005842	-31.269078	36.005842	-0.404949	-129.323881
9.700000	-0.410096	-129.888958	-31.155762	35.599147	-31.155762	35.599147	-0.410077	-129.884962
9.750000	-0.415298	-130.449508	-31.042502	35.187353	-31.042502	35.187353	-0.415280	-130.445494
9.800000	-0.420520	-131.009953	-30.930379	34.774581	-30.930379	34.774581	-0.420501	-131.005920
9.850000	-0.425824	-131.569864	-30.818106	34.356916	-30.818106	34.356916	-0.425805	-131.565813
9.900000	-0.431139	-132.129730	-30.707103	33.938835	-30.707103	33.938835	-0.431120	-132.125660
9.950000	-0.436544	-132.689095	-30.595729	33.516162	-30.595729	33.516162	-0.436525	-132.685006
10.000000	-0.441953	-133.248460	-30.485766	33.093490	-30.485766	33.093490	-0.441933	-133.244352
