! freq	dB(S11)	phase(S11)	dB(S12)	phase(S12)	
!     	dB(S21)	phase(S21)	dB(S22)	phase(S22)	
!S-par simulation data
#  GHz  S  DB  R 50
0.000000	-0.000000	0.000000	-326.246178	0.000000	-326.246178	0.000000	-0.000000	0.000000
0.050000	-0.000101	-0.807725	-70.351284	88.107805	-70.351284	88.107805	-0.000101	-0.807777
0.100000	-0.000402	-1.615206	-64.456231	86.979003	-64.456231	86.979003	-0.000402	-1.615309
0.150000	-0.000889	-2.422218	-61.021281	86.249431	-61.021281	86.249431	-0.000889	-2.422372
0.200000	-0.001543	-3.228572	-58.575151	85.610227	-58.575151	85.610227	-0.001544	-3.228777
0.250000	-0.002353	-4.034057	-56.670263	84.965560	-56.670263	84.965560	-0.002354	-4.034313
0.300000	-0.003281	-4.838632	-55.109584	84.297729	-55.109584	84.297729	-0.003281	-4.838938
0.350000	-0.004308	-5.642185	-53.788066	83.606759	-53.788066	83.606759	-0.004309	-5.642541
0.400000	-0.005412	-6.444670	-52.642664	82.896824	-52.642664	82.896824	-0.005413	-6.445076
0.450000	-0.006573	-7.246070	-51.632488	82.172205	-51.632488	82.172205	-0.006574	-7.246526
0.500000	-0.007772	-8.046390	-50.729472	81.436400	-50.729472	81.436400	-0.007773	-8.046896
0.550000	-0.008993	-8.845652	-49.913515	80.692106	-49.913515	80.692106	-0.008994	-8.846207
0.600000	-0.010224	-9.643883	-49.169717	79.941377	-49.169717	79.941377	-0.010226	-9.644489
0.650000	-0.011456	-10.441119	-48.486730	79.185782	-48.486730	79.185782	-0.011458	-10.441774
0.700000	-0.012683	-11.237392	-47.855712	78.426541	-47.855712	78.426541	-0.012685	-11.238096
0.750000	-0.013898	-12.032735	-47.269638	77.664611	-47.269638	77.664611	-0.013900	-12.033488
0.800000	-0.015100	-12.827175	-46.722836	76.900756	-46.722836	76.900756	-0.015102	-12.827977
0.850000	-0.016286	-13.620734	-46.210659	76.135600	-46.210659	76.135600	-0.016288	-13.621585
0.900000	-0.017455	-14.413429	-45.729252	75.369655	-45.729252	75.369655	-0.017457	-14.414329
0.950000	-0.018607	-15.205272	-45.275383	74.603354	-45.275383	74.603354	-0.018609	-15.206221
1.000000	-0.019744	-15.996268	-44.846315	73.837062	-44.846315	73.837062	-0.019746	-15.997267
1.050000	-0.020865	-16.786421	-44.439707	73.071099	-44.439707	73.071099	-0.020867	-16.787468
1.100000	-0.021972	-17.575728	-44.053547	72.305742	-44.053547	72.305742	-0.021974	-17.576823
1.150000	-0.023066	-18.364182	-43.686087	71.541237	-43.686087	71.541237	-0.023069	-18.365326
1.200000	-0.024149	-19.151774	-43.335802	70.777808	-43.335802	70.777808	-0.024151	-19.152967
1.250000	-0.025221	-19.938494	-43.001352	70.015655	-43.001352	70.015655	-0.025223	-19.939735
1.300000	-0.026283	-20.724287	-42.681656	69.255036	-42.681656	69.255036	-0.026286	-20.725577
1.350000	-0.027338	-21.509176	-42.375562	68.496063	-42.375562	68.496063	-0.027341	-21.510514
1.400000	-0.028386	-22.293145	-42.082133	67.738896	-42.082133	67.738896	-0.028389	-22.294531
1.450000	-0.029428	-23.076174	-41.800530	66.983685	-41.800530	66.983685	-0.029431	-23.077608
1.500000	-0.030465	-23.858246	-41.530000	66.230570	-41.530000	66.230570	-0.030468	-23.859728
1.550000	-0.031498	-24.639341	-41.269862	65.479688	-41.269862	65.479688	-0.031502	-24.640871
1.600000	-0.032528	-25.419439	-41.019499	64.731168	-41.019499	64.731168	-0.032531	-25.421016
1.650000	-0.033555	-26.198520	-40.778350	63.985134	-40.778350	63.985134	-0.033558	-26.200144
1.700000	-0.034579	-26.976193	-40.546687	63.242671	-40.546687	63.242671	-0.034582	-26.977864
1.750000	-0.035602	-27.753318	-40.322172	62.501610	-40.322172	62.501610	-0.035605	-27.755037
1.800000	-0.036624	-28.529121	-40.105968	61.764061	-40.105968	61.764061	-0.036628	-28.530887
1.850000	-0.037645	-29.303980	-39.896868	61.029020	-39.896868	61.029020	-0.037649	-29.305793
1.900000	-0.038666	-30.077664	-39.694934	60.297229	-39.694934	60.297229	-0.038670	-30.079523
1.950000	-0.039687	-30.850170	-39.499787	59.568686	-39.499787	59.568686	-0.039691	-30.852076
2.000000	-0.040709	-31.621662	-39.310780	58.843043	-39.310780	58.843043	-0.040713	-31.623614
2.050000	-0.041731	-32.391732	-39.128336	58.121459	-39.128336	58.121459	-0.041736	-32.393730
2.100000	-0.042755	-33.160962	-38.951104	57.402342	-38.951104	57.402342	-0.042759	-33.163006
2.150000	-0.043780	-33.928514	-38.780279	56.688160	-38.780279	56.688160	-0.043784	-33.930604
2.200000	-0.044806	-34.695416	-38.613826	55.975938	-38.613826	55.975938	-0.044811	-34.697552
2.250000	-0.045836	-35.460371	-38.453675	55.269594	-38.453675	55.269594	-0.045840	-35.462552
2.300000	-0.046866	-36.224880	-38.297130	54.564626	-38.297130	54.564626	-0.046871	-36.227106
2.350000	-0.047901	-36.987162	-38.146825	53.866543	-38.146825	53.866543	-0.047905	-36.989434
2.400000	-0.048936	-37.749216	-37.999423	53.169184	-37.999423	53.169184	-0.048941	-37.751532
2.450000	-0.049977	-38.508754	-37.858228	52.479779	-37.858228	52.479779	-0.049982	-38.511116
2.500000	-0.051018	-39.268293	-37.719292	51.790374	-37.719292	51.790374	-0.051023	-39.270699
2.550000	-0.052067	-40.025019	-37.586552	51.110056	-37.586552	51.110056	-0.052072	-40.027469
2.600000	-0.053116	-40.781745	-37.455810	50.429739	-37.455810	50.429739	-0.053122	-40.784240
2.650000	-0.054173	-41.535834	-37.330606	49.758121	-37.330606	49.758121	-0.054179	-41.538373
2.700000	-0.055231	-42.289683	-37.207503	49.087294	-37.207503	49.087294	-0.055237	-42.292266
2.750000	-0.056298	-43.041085	-37.089318	48.424706	-37.089318	48.424706	-0.056304	-43.043711
2.800000	-0.057367	-43.791996	-36.973351	47.763767	-36.973351	47.763767	-0.057372	-43.794666
2.850000	-0.058444	-44.540661	-36.861719	47.110537	-36.861719	47.110537	-0.058449	-44.543375
2.900000	-0.059524	-45.288578	-36.752427	46.459877	-36.752427	46.459877	-0.059530	-45.291335
2.950000	-0.060613	-46.034461	-36.646924	45.816326	-36.646924	45.816326	-0.060619	-46.037261
3.000000	-0.061706	-46.779329	-36.543887	45.176331	-36.543887	45.176331	-0.061712	-46.782172
3.050000	-0.062808	-47.522388	-36.444125	44.542779	-36.444125	44.542779	-0.062814	-47.525274
3.100000	-0.063916	-48.264156	-36.346955	43.913829	-36.346955	43.913829	-0.063922	-48.267085
3.150000	-0.065032	-49.004352	-36.252577	43.290588	-36.252577	43.290588	-0.065038	-49.007322
3.200000	-0.066156	-49.742974	-36.160914	42.673058	-36.160914	42.673058	-0.066162	-49.745987
3.250000	-0.067287	-50.480269	-36.071592	42.060439	-36.071592	42.060439	-0.067294	-50.483323
3.300000	-0.068429	-51.215703	-35.985098	41.454696	-35.985098	41.454696	-0.068435	-51.218799
3.350000	-0.069577	-51.950061	-35.900526	40.853002	-35.900526	40.853002	-0.069584	-51.953199
3.400000	-0.070738	-52.682268	-35.818887	40.259408	-35.818887	40.259408	-0.070745	-52.685447
3.450000	-0.071904	-53.413658	-35.738780	39.668940	-35.738780	39.668940	-0.071911	-53.416880
3.500000	-0.073086	-54.142602	-35.661699	39.087849	-35.661699	39.087849	-0.073093	-54.145864
3.550000	-0.074272	-54.870996	-35.585789	38.508899	-35.585789	38.508899	-0.074279	-54.874299
3.600000	-0.075476	-55.596644	-35.512984	37.940657	-35.512984	37.940657	-0.075484	-55.599988
3.650000	-0.076683	-56.322016	-35.441020	37.373514	-35.441020	37.373514	-0.076690	-56.325401
3.700000	-0.077912	-57.044341	-35.372222	36.818458	-35.372222	36.818458	-0.077919	-57.047766
3.750000	-0.079140	-57.766666	-35.303965	36.263403	-35.303965	36.263403	-0.079148	-57.770131
3.800000	-0.080395	-58.485643	-35.238918	35.721860	-35.238918	35.721860	-0.080403	-58.489148
3.850000	-0.081650	-59.204620	-35.174353	35.180317	-35.174353	35.180317	-0.081658	-59.208166
3.900000	-0.082930	-59.920508	-35.112595	34.651450	-35.112595	34.651450	-0.082938	-59.924094
3.950000	-0.084212	-60.636116	-35.051484	34.123735	-35.051484	34.123735	-0.084220	-60.639742
4.000000	-0.085519	-61.348902	-34.992800	33.607796	-34.992800	33.607796	-0.085527	-61.352567
4.050000	-0.086831	-62.061124	-34.934907	33.094212	-34.934907	33.094212	-0.086839	-62.064828
4.100000	-0.088166	-62.770795	-34.879089	32.591441	-34.879089	32.591441	-0.088174	-62.774538
4.150000	-0.089508	-63.479615	-34.824187	32.092275	-34.824187	32.092275	-0.089517	-63.483398
4.200000	-0.090873	-64.186162	-34.771035	31.602901	-34.771035	31.602901	-0.090882	-64.189983
4.250000	-0.092249	-64.891572	-34.718903	31.118424	-34.718903	31.118424	-0.092258	-64.895432
4.300000	-0.093645	-65.594988	-34.668220	30.642661	-34.668220	30.642661	-0.093654	-65.598887
4.350000	-0.095055	-66.296980	-34.618640	30.173123	-34.618640	30.173123	-0.095064	-66.300917
4.400000	-0.096483	-66.997262	-34.570236	29.711170	-34.570236	29.711170	-0.096493	-67.001237
4.450000	-0.097930	-67.695832	-34.522992	29.256800	-34.522992	29.256800	-0.097939	-67.699845
4.500000	-0.099392	-68.392977	-34.476682	28.808837	-34.476682	28.808837	-0.099402	-68.397028
4.550000	-0.100877	-69.088126	-34.431562	28.369840	-34.431562	28.369840	-0.100887	-69.092215
4.600000	-0.102375	-69.782135	-34.387161	27.936026	-34.387161	27.936026	-0.102385	-69.786262
4.650000	-0.103899	-70.473865	-34.343953	27.512577	-34.343953	27.512577	-0.103909	-70.478030
4.700000	-0.105434	-71.164743	-34.301281	27.093052	-34.301281	27.093052	-0.105444	-71.168945
4.750000	-0.107000	-71.853061	-34.259777	26.685294	-34.259777	26.685294	-0.107010	-71.857300
4.800000	-0.108573	-72.540812	-34.218655	26.280169	-34.218655	26.280169	-0.108584	-72.545088
4.850000	-0.110182	-73.225728	-34.178645	25.888209	-34.178645	25.888209	-0.110193	-73.230041
4.900000	-0.111796	-73.910361	-34.138896	25.497571	-34.138896	25.497571	-0.111806	-73.914711
4.950000	-0.113450	-74.591887	-34.100172	25.121475	-34.100172	25.121475	-0.113461	-74.596274
5.000000	-0.115104	-75.273413	-34.061619	24.745379	-34.061619	24.745379	-0.115115	-75.277837
5.050000	-0.116805	-75.951565	-34.023972	24.385166	-34.023972	24.385166	-0.116816	-75.956026
5.100000	-0.118506	-76.629717	-33.986488	24.024954	-33.986488	24.024954	-0.118518	-76.634214
5.150000	-0.120251	-77.304793	-33.949663	23.679274	-33.949663	23.679274	-0.120263	-77.309327
5.200000	-0.122001	-77.979590	-33.913040	23.334915	-33.913040	23.334915	-0.122013	-77.984160
5.250000	-0.123792	-78.651610	-33.876863	23.003696	-33.876863	23.003696	-0.123804	-78.656216
5.300000	-0.125592	-79.323073	-33.840895	22.675105	-33.840895	22.675105	-0.125604	-79.327716
5.350000	-0.127430	-79.992056	-33.805190	22.358230	-33.805190	22.358230	-0.127442	-79.996734
5.400000	-0.129282	-80.660211	-33.769670	22.045261	-33.769670	22.045261	-0.129294	-80.664925
5.450000	-0.131169	-81.326179	-33.734264	21.742564	-33.734264	21.742564	-0.131182	-81.330929
5.500000	-0.133074	-81.991053	-33.698987	21.445003	-33.698987	21.445003	-0.133087	-81.995839
5.550000	-0.135011	-82.654030	-33.663708	21.156265	-33.663708	21.156265	-0.135024	-82.658852
5.600000	-0.136972	-83.315653	-33.628470	20.873829	-33.628470	20.873829	-0.136985	-83.320511
5.650000	-0.138960	-83.975667	-33.593148	20.598777	-33.593148	20.598777	-0.138974	-83.980561
5.700000	-0.140977	-84.634072	-33.557744	20.331107	-33.557744	20.331107	-0.140991	-84.639001
5.750000	-0.143019	-85.291151	-33.522211	20.069406	-33.522211	20.069406	-0.143033	-85.296116
5.800000	-0.145095	-85.946374	-33.486443	19.816062	-33.486443	19.816062	-0.145109	-85.951374
5.850000	-0.147191	-86.600548	-33.450535	19.567320	-33.450535	19.567320	-0.147205	-86.605583
5.900000	-0.149327	-87.252626	-33.414206	19.327779	-33.414206	19.327779	-0.149341	-87.257696
5.950000	-0.151478	-87.903928	-33.377763	19.091538	-33.377763	19.091538	-0.151493	-87.909033
6.000000	-0.153676	-88.552901	-33.340680	18.865192	-33.340680	18.865192	-0.153691	-88.558042
6.050000	-0.155885	-89.201365	-33.303546	18.640930	-33.303546	18.640930	-0.155900	-89.206541
6.100000	-0.158146	-89.847277	-33.265525	18.427082	-33.265525	18.427082	-0.158161	-89.852488
6.150000	-0.160413	-90.492938	-33.227549	18.214211	-33.227549	18.214211	-0.160428	-90.498184
6.200000	-0.162739	-91.135834	-33.188412	18.012078	-33.188412	18.012078	-0.162755	-91.141115
6.250000	-0.165066	-91.778730	-33.149450	17.809944	-33.149450	17.809944	-0.165082	-91.784047
6.300000	-0.167459	-92.418657	-33.109028	17.618655	-33.109028	17.618655	-0.167475	-92.424009
6.350000	-0.169853	-93.058584	-33.068793	17.427365	-33.068793	17.427365	-0.169869	-93.063971
6.400000	-0.172309	-93.695835	-33.027081	17.245141	-33.027081	17.245141	-0.172325	-93.701257
6.450000	-0.174771	-94.332842	-32.985417	17.063741	-32.985417	17.063741	-0.174787	-94.338300
6.500000	-0.177291	-94.967460	-32.942296	16.889722	-32.942296	16.889722	-0.177307	-94.972953
6.550000	-0.179822	-95.601600	-32.899059	16.717180	-32.899059	16.717180	-0.179839	-95.607128
6.600000	-0.182407	-96.233630	-32.854425	16.550453	-32.854425	16.550453	-0.182425	-96.239193
6.650000	-0.185011	-96.864956	-32.809486	16.385664	-32.809486	16.385664	-0.185028	-96.870554
6.700000	-0.187663	-97.494444	-32.763246	16.225266	-32.763246	16.225266	-0.187680	-97.500077
6.750000	-0.190339	-98.123012	-32.716489	16.067064	-32.716489	16.067064	-0.190357	-98.128680
6.800000	-0.193059	-98.750004	-32.668563	15.911993	-32.668563	15.911993	-0.193077	-98.755708
6.850000	-0.195810	-99.375872	-32.619892	15.759158	-32.619892	15.759158	-0.195828	-99.381610
6.900000	-0.198599	-100.000419	-32.570214	15.608376	-32.570214	15.608376	-0.198617	-100.006193
6.950000	-0.201426	-100.623646	-32.519548	15.459648	-32.519548	15.459648	-0.201444	-100.629455
7.000000	-0.204285	-101.245798	-32.468067	15.312094	-32.468067	15.312094	-0.204304	-101.251642
7.050000	-0.207190	-101.866445	-32.415347	15.166185	-32.415347	15.166185	-0.207209	-101.872325
7.100000	-0.210121	-102.486254	-32.362027	15.020783	-32.362027	15.020783	-0.210140	-102.492170
7.150000	-0.213104	-103.104385	-32.307210	14.876394	-32.307210	14.876394	-0.213124	-103.110337
7.200000	-0.216109	-103.721904	-32.252030	14.732060	-32.252030	14.732060	-0.216129	-103.727891
7.250000	-0.219173	-104.337584	-32.195095	14.587894	-32.195095	14.587894	-0.219193	-104.343607
7.300000	-0.222251	-104.952867	-32.138051	14.443552	-32.138051	14.443552	-0.222272	-104.958926
7.350000	-0.225397	-105.566163	-32.078995	14.298333	-32.078995	14.298333	-0.225418	-105.572258
7.400000	-0.228551	-106.179267	-32.020096	14.152921	-32.020096	14.152921	-0.228572	-106.185397
7.450000	-0.231781	-106.790247	-31.958938	14.005405	-31.958938	14.005405	-0.231802	-106.796414
7.500000	-0.235011	-107.401228	-31.898208	13.857889	-31.898208	13.857889	-0.235033	-107.407431
7.550000	-0.238325	-108.009963	-31.834984	13.706886	-31.834984	13.706886	-0.238347	-108.016202
7.600000	-0.241641	-108.618698	-31.772217	13.555882	-31.772217	13.555882	-0.241663	-108.624974
7.650000	-0.245034	-109.225440	-31.707225	13.400649	-31.707225	13.400649	-0.245057	-109.231753
7.700000	-0.248436	-109.832001	-31.642475	13.245031	-31.642475	13.245031	-0.248458	-109.838351
7.750000	-0.251909	-110.436812	-31.575784	13.084695	-31.575784	13.084695	-0.251932	-110.443198
7.800000	-0.255399	-111.041273	-31.509120	12.923415	-31.509120	12.923415	-0.255422	-111.047696
7.850000	-0.258954	-111.644215	-31.440808	12.757169	-31.440808	12.757169	-0.258977	-111.650675
7.900000	-0.262532	-112.246651	-31.372315	12.589269	-31.372315	12.589269	-0.262555	-112.253148
7.950000	-0.266169	-112.847787	-31.302469	12.416384	-31.302469	12.416384	-0.266193	-112.854322
8.000000	-0.269837	-113.448274	-31.232243	12.241005	-31.232243	12.241005	-0.269861	-113.454847
8.050000	-0.273558	-114.047670	-31.160959	12.060826	-31.160959	12.060826	-0.273583	-114.054280
8.100000	-0.277318	-114.646286	-31.089107	11.877219	-31.089107	11.877219	-0.277343	-114.652934
8.150000	-0.281123	-115.244007	-31.016487	11.689178	-31.016487	11.689178	-0.281149	-115.250693
8.200000	-0.284975	-115.840832	-30.943123	11.496703	-30.943123	11.496703	-0.285001	-115.847557
8.250000	-0.288867	-116.436945	-30.869272	11.300317	-30.869272	11.300317	-0.288893	-116.443708
8.300000	-0.292813	-117.032061	-30.794516	11.098453	-30.794516	11.098453	-0.292839	-117.038862
8.350000	-0.296791	-117.626634	-30.719545	10.893326	-30.719545	10.893326	-0.296817	-117.633474
8.400000	-0.300831	-118.220123	-30.643521	10.681669	-30.643521	10.681669	-0.300858	-118.227002
8.450000	-0.304897	-118.813226	-30.567538	10.467492	-30.567538	10.467492	-0.304924	-118.820144
8.500000	-0.309034	-119.405172	-30.490373	10.245753	-30.490373	10.245753	-0.309061	-119.412130
8.550000	-0.313188	-119.996875	-30.413488	10.022304	-30.413488	10.022304	-0.313216	-120.003873
8.600000	-0.317422	-120.587364	-30.335305	9.790307	-30.335305	9.790307	-0.317450	-120.594402
8.650000	-0.321665	-121.177740	-30.257627	9.557449	-30.257627	9.557449	-0.321694	-121.184817
8.700000	-0.325997	-121.766859	-30.178548	9.315126	-30.178548	9.315126	-0.326026	-121.773978
8.750000	-0.330331	-122.355979	-30.100182	9.072803	-30.100182	9.072803	-0.330360	-122.363138
8.800000	-0.334762	-122.943819	-30.020323	8.820187	-30.020323	8.820187	-0.334791	-122.951019
8.850000	-0.339195	-123.531658	-29.941192	8.567572	-29.941192	8.567572	-0.339225	-123.538899
8.900000	-0.343718	-124.118407	-29.860843	8.305640	-29.860843	8.305640	-0.343748	-124.125689
8.950000	-0.348251	-124.705057	-29.781056	8.042861	-29.781056	8.042861	-0.348282	-124.712381
9.000000	-0.352867	-125.290792	-29.700305	7.771792	-29.700305	7.771792	-0.352898	-125.298158
9.050000	-0.357501	-125.876344	-29.619964	7.499064	-29.619964	7.499064	-0.357532	-125.883752
9.100000	-0.362210	-126.461143	-29.538894	7.219093	-29.538894	7.219093	-0.362241	-126.468593
9.150000	-0.366945	-127.045691	-29.458090	6.936708	-29.458090	6.936708	-0.366977	-127.053184
9.200000	-0.371749	-127.629633	-29.376775	6.648125	-29.376775	6.648125	-0.371781	-127.637170
9.250000	-0.376587	-128.213273	-29.295591	6.356442	-29.295591	6.356442	-0.376620	-128.220853
9.300000	-0.381485	-128.796439	-29.214096	6.059580	-29.214096	6.059580	-0.381518	-128.804063
9.350000	-0.386426	-129.379267	-29.132605	5.759017	-29.132605	5.759017	-0.386460	-129.386935
9.400000	-0.391419	-129.961739	-29.050986	5.454248	-29.050986	5.454248	-0.391453	-129.969452
9.450000	-0.396464	-130.543855	-28.969249	5.145271	-28.969249	5.145271	-0.396499	-130.551612
9.500000	-0.401553	-131.125716	-28.887552	4.833000	-28.887552	4.833000	-0.401588	-131.133518
9.550000	-0.406703	-131.707220	-28.805618	4.516115	-28.805618	4.516115	-0.406738	-131.715068
9.600000	-0.411888	-132.288554	-28.723882	4.196773	-28.723882	4.196773	-0.411923	-132.296448
9.650000	-0.417142	-132.869549	-28.641787	3.872516	-28.641787	3.872516	-0.417178	-132.877489
9.700000	-0.422424	-133.450442	-28.560042	3.546555	-28.560042	3.546555	-0.422460	-133.458428
9.750000	-0.427783	-134.031032	-28.477811	3.215484	-28.477811	3.215484	-0.427819	-134.039065
9.800000	-0.433162	-134.611572	-28.396075	2.883372	-28.396075	2.883372	-0.433199	-134.619652
9.850000	-0.438626	-135.191862	-28.313723	2.546057	-28.313723	2.546057	-0.438663	-135.199990
9.900000	-0.444102	-135.772137	-28.232005	2.208270	-28.232005	2.208270	-0.444140	-135.780313
9.950000	-0.449672	-136.352237	-28.149532	1.865290	-28.149532	1.865290	-0.449710	-136.360462
10.000000	-0.455246	-136.932337	-28.067835	1.522311	-28.067835	1.522311	-0.455284	-136.940610
