! freq	dB(S11)	phase(S11)	dB(S12)	phase(S12)	
!     	dB(S21)	phase(S21)	dB(S22)	phase(S22)	
!S-par simulation data
#  GHz  S  DB  R 50
0.000000	-0.000000	0.000000	-348.859637	0.000000	-348.859637	0.000000	-0.000000	0.000000
0.050000	-0.000100	-0.783846	-65.640187	88.959296	-65.640187	88.959296	-0.000120	-1.010144
0.100000	-0.000397	-1.567451	-59.629854	87.935409	-59.629854	87.935409	-0.000477	-2.020002
0.150000	-0.000879	-2.350592	-56.123016	86.939348	-56.123016	86.939348	-0.001057	-3.029305
0.200000	-0.001526	-3.133086	-53.641757	85.974189	-53.641757	85.974189	-0.001842	-4.037824
0.250000	-0.002326	-3.914725	-51.722471	85.039276	-51.722471	85.039276	-0.002818	-5.045291
0.300000	-0.003241	-4.695473	-50.157203	84.126517	-50.157203	84.126517	-0.003944	-6.051637
0.350000	-0.004254	-5.475223	-48.835944	83.231390	-48.835944	83.231390	-0.005201	-7.056703
0.400000	-0.005342	-6.253933	-47.692916	82.348766	-47.692916	82.348766	-0.006563	-8.060402
0.450000	-0.006484	-7.031592	-46.685841	81.474620	-46.685841	81.474620	-0.008005	-9.062684
0.500000	-0.007664	-7.808209	-45.785968	80.606022	-45.785968	80.606022	-0.009506	-10.063522
0.550000	-0.008865	-8.583806	-44.972870	79.740953	-44.972870	79.740953	-0.011046	-11.062913
0.600000	-0.010076	-9.358415	-44.231512	78.878077	-44.231512	78.878077	-0.012608	-12.060867
0.650000	-0.011289	-10.132072	-43.550504	78.016548	-43.550504	78.016548	-0.014180	-13.057401
0.700000	-0.012497	-10.904811	-42.921011	77.155858	-42.921011	77.155858	-0.015752	-14.052539
0.750000	-0.013695	-11.676665	-42.336032	76.295727	-42.336032	76.295727	-0.017315	-15.046304
0.800000	-0.014880	-12.447660	-41.789928	75.436029	-41.789928	75.436029	-0.018865	-16.038716
0.850000	-0.016052	-13.217819	-41.278088	74.576734	-41.278088	74.576734	-0.020397	-17.029793
0.900000	-0.017208	-13.987160	-40.796689	73.717879	-40.796689	73.717879	-0.021910	-18.019548
0.950000	-0.018350	-14.755692	-40.342528	72.859539	-40.342528	72.859539	-0.023401	-19.007987
1.000000	-0.019478	-15.523424	-39.912892	72.001816	-39.912892	72.001816	-0.024872	-19.995114
1.050000	-0.020593	-16.290356	-39.505465	71.144824	-39.505465	71.144824	-0.026322	-20.980924
1.100000	-0.021696	-17.056486	-39.118252	70.288685	-39.118252	70.288685	-0.027753	-21.965410
1.150000	-0.022788	-17.821809	-38.749521	69.433526	-38.749521	69.433526	-0.029165	-22.948560
1.200000	-0.023870	-18.586316	-38.397760	68.579473	-38.397760	68.579473	-0.030560	-23.930357
1.250000	-0.024944	-19.349995	-38.061642	67.726648	-38.061642	67.726648	-0.031940	-24.910784
1.300000	-0.026010	-20.112796	-37.740080	66.875240	-37.740080	66.875240	-0.033305	-25.889756
1.350000	-0.027070	-20.874741	-37.431944	66.025312	-37.431944	66.025312	-0.034657	-26.867309
1.400000	-0.028124	-21.635813	-37.136305	65.176980	-37.136305	65.176980	-0.035999	-27.843417
1.450000	-0.029175	-22.395995	-36.852329	64.330354	-36.852329	64.330354	-0.037331	-28.818053
1.500000	-0.030221	-23.155269	-36.579267	63.485543	-36.579267	63.485543	-0.038654	-29.791187
1.550000	-0.031265	-23.913616	-36.316443	62.642651	-36.316443	62.642651	-0.039971	-30.762792
1.600000	-0.032307	-24.671018	-36.063241	61.801778	-36.063241	61.801778	-0.041282	-31.732838
1.650000	-0.033347	-25.427456	-35.819106	60.963024	-35.819106	60.963024	-0.042588	-32.701295
1.700000	-0.034386	-26.182910	-35.583527	60.126483	-35.583527	60.126483	-0.043889	-33.668134
1.750000	-0.035424	-26.937362	-35.356039	59.292248	-35.356039	59.292248	-0.045188	-34.633325
1.800000	-0.036462	-27.690792	-35.136215	58.460408	-35.136215	58.460408	-0.046485	-35.596840
1.850000	-0.037500	-28.443182	-34.923662	57.631050	-34.923662	57.631050	-0.047780	-36.558648
1.900000	-0.038538	-29.194513	-34.718017	56.804260	-34.718017	56.804260	-0.049073	-37.518723
1.950000	-0.039578	-29.944765	-34.518946	55.980120	-34.518946	55.980120	-0.050367	-38.477036
2.000000	-0.040618	-30.693922	-34.326137	55.158710	-34.326137	55.158710	-0.051661	-39.433561
2.050000	-0.041659	-31.441964	-34.139303	54.340110	-34.139303	54.340110	-0.052956	-40.388271
2.100000	-0.042703	-32.188874	-33.958175	53.524395	-33.958175	53.524395	-0.054252	-41.341140
2.150000	-0.043748	-32.934635	-33.782502	52.711641	-33.782502	52.711641	-0.055549	-42.292145
2.200000	-0.044795	-33.679229	-33.612052	51.901919	-33.612052	51.901919	-0.056849	-43.241260
2.250000	-0.045844	-34.422639	-33.446605	51.095302	-33.446605	51.095302	-0.058152	-44.188464
2.300000	-0.046896	-35.164850	-33.285956	50.291859	-33.285956	50.291859	-0.059457	-45.133734
2.350000	-0.047950	-35.905844	-33.129912	49.491657	-33.129912	49.491657	-0.060766	-46.077048
2.400000	-0.049008	-36.645606	-32.978292	48.694763	-32.978292	48.694763	-0.062078	-47.018387
2.450000	-0.050069	-37.384121	-32.830925	47.901242	-32.830925	47.901242	-0.063395	-47.957731
2.500000	-0.051133	-38.121373	-32.687649	47.111156	-32.687649	47.111156	-0.064716	-48.895062
2.550000	-0.052201	-38.857291	-32.548384	46.324723	-32.548384	46.324723	-0.066042	-49.830272
2.600000	-0.053273	-39.591916	-32.412911	45.541852	-32.412911	45.541852	-0.067373	-50.763434
2.650000	-0.054349	-40.325234	-32.281094	44.762602	-32.281094	44.762602	-0.068710	-51.694531
2.700000	-0.055430	-41.057232	-32.152803	43.987031	-32.152803	43.987031	-0.070053	-52.623549
2.750000	-0.056515	-41.787895	-32.027915	43.215193	-32.027915	43.215193	-0.071402	-53.550474
2.800000	-0.057605	-42.517210	-31.906311	42.447144	-31.906311	42.447144	-0.072758	-54.475294
2.850000	-0.058701	-43.245166	-31.787880	41.682935	-31.787880	41.682935	-0.074121	-55.397996
2.900000	-0.059802	-43.971750	-31.672515	40.922619	-31.672515	40.922619	-0.075492	-56.318570
2.950000	-0.060909	-44.696950	-31.560113	40.166245	-31.560113	40.166245	-0.076871	-57.237006
3.000000	-0.062023	-45.420754	-31.450576	39.413861	-31.450576	39.413861	-0.078258	-58.153295
3.050000	-0.063142	-46.143152	-31.343812	38.665516	-31.343812	38.665516	-0.079653	-59.067428
3.100000	-0.064269	-46.864132	-31.239729	37.921255	-31.239729	37.921255	-0.081058	-59.979398
3.150000	-0.065402	-47.583684	-31.138242	37.181123	-31.138242	37.181123	-0.082473	-60.889199
3.200000	-0.066543	-48.301798	-31.039269	36.445162	-31.039269	36.445162	-0.083897	-61.796826
3.250000	-0.067692	-49.018464	-30.942729	35.713415	-30.942729	35.713415	-0.085332	-62.702273
3.300000	-0.068848	-49.733673	-30.848545	34.985921	-30.848545	34.985921	-0.086778	-63.605537
3.350000	-0.070013	-50.447415	-30.756644	34.262719	-30.756644	34.262719	-0.088236	-64.506616
3.400000	-0.071187	-51.159682	-30.666955	33.543848	-30.666955	33.543848	-0.089705	-65.405506
3.450000	-0.072370	-51.870466	-30.579408	32.829343	-30.579408	32.829343	-0.091187	-66.302208
3.500000	-0.073562	-52.579758	-30.493937	32.119239	-30.493937	32.119239	-0.092681	-67.196720
3.550000	-0.074764	-53.287551	-30.410478	31.413570	-30.410478	31.413570	-0.094189	-68.089043
3.600000	-0.075976	-53.993839	-30.328968	30.712367	-30.328968	30.712367	-0.095711	-68.979179
3.650000	-0.077199	-54.698612	-30.249346	30.015661	-30.249346	30.015661	-0.097246	-69.867129
3.700000	-0.078432	-55.401867	-30.171554	29.323481	-30.171554	29.323481	-0.098797	-70.752897
3.750000	-0.079677	-56.103595	-30.095536	28.635855	-30.095536	28.635855	-0.100363	-71.636487
3.800000	-0.080934	-56.803725	-30.021280	27.953009	-30.021280	27.953009	-0.101945	-72.517808
3.850000	-0.082202	-57.502317	-29.948686	27.274770	-29.948686	27.274770	-0.103544	-73.396961
3.900000	-0.083483	-58.199367	-29.877701	26.601161	-29.877701	26.601161	-0.105160	-74.273952
3.950000	-0.084777	-58.894869	-29.808274	25.932203	-29.808274	25.932203	-0.106793	-75.148788
4.000000	-0.086084	-59.588820	-29.740356	25.267917	-29.740356	25.267917	-0.108443	-76.021477
4.050000	-0.087404	-60.281215	-29.673897	24.608322	-29.673897	24.608322	-0.110113	-76.892027
4.100000	-0.088738	-60.972051	-29.608851	23.953433	-29.608851	23.953433	-0.111801	-77.760449
4.150000	-0.090086	-61.661324	-29.545171	23.303267	-29.545171	23.303267	-0.113508	-78.626751
4.200000	-0.091449	-62.349031	-29.482812	22.657837	-29.482812	22.657837	-0.115235	-79.490945
4.250000	-0.092827	-63.035171	-29.421729	22.017156	-29.421729	22.017156	-0.116983	-80.353042
4.300000	-0.094221	-63.719739	-29.361880	21.381235	-29.361880	21.381235	-0.118752	-81.213054
4.350000	-0.095630	-64.402736	-29.303221	20.750082	-29.303221	20.750082	-0.120542	-82.070994
4.400000	-0.097055	-65.084159	-29.245711	20.123705	-29.245711	20.123705	-0.122354	-82.926876
4.450000	-0.098496	-65.764007	-29.189309	19.502109	-29.189309	19.502109	-0.124188	-83.780715
4.500000	-0.099955	-66.442278	-29.133976	18.885298	-29.133976	18.885298	-0.126046	-84.632524
4.550000	-0.101431	-67.118973	-29.079670	18.273275	-29.079670	18.273275	-0.127927	-85.482320
4.600000	-0.102925	-67.794092	-29.026355	17.666039	-29.026355	17.666039	-0.129832	-86.330119
4.650000	-0.104436	-68.467634	-28.973992	17.063588	-28.973992	17.063588	-0.131761	-87.175939
4.700000	-0.105967	-69.139599	-28.922543	16.465920	-28.922543	16.465920	-0.133716	-88.019795
4.750000	-0.107516	-69.809989	-28.871972	15.873029	-28.871972	15.873029	-0.135695	-88.861708
4.800000	-0.109084	-70.478805	-28.822242	15.284908	-28.822242	15.284908	-0.137701	-89.701696
4.850000	-0.110672	-71.146048	-28.773317	14.701546	-28.773317	14.701546	-0.139734	-90.539778
4.900000	-0.112280	-71.811719	-28.725163	14.122933	-28.725163	14.122933	-0.141793	-91.375975
4.950000	-0.113909	-72.475821	-28.677745	13.549054	-28.677745	13.549054	-0.143880	-92.210307
5.000000	-0.115558	-73.138357	-28.631027	12.979894	-28.631027	12.979894	-0.145995	-93.042796
5.050000	-0.117230	-73.799260	-28.584994	12.415639	-28.584994	12.415639	-0.148140	-93.873385
5.100000	-0.118923	-74.458602	-28.539593	11.856061	-28.539593	11.856061	-0.150313	-94.702178
5.150000	-0.120638	-75.116386	-28.494790	11.301139	-28.494790	11.301139	-0.152516	-95.529198
5.200000	-0.122376	-75.772616	-28.450553	10.750846	-28.450553	10.750846	-0.154749	-96.354468
5.250000	-0.124137	-76.427296	-28.406851	10.205155	-28.406851	10.205155	-0.157012	-97.178013
5.300000	-0.125921	-77.080430	-28.363650	9.664035	-28.363650	9.664035	-0.159307	-97.999857
5.350000	-0.127728	-77.732022	-28.320920	9.127453	-28.320920	9.127453	-0.161632	-98.820027
5.400000	-0.129560	-78.382077	-28.278629	8.595372	-28.278629	8.595372	-0.163990	-99.638548
5.450000	-0.131425	-79.030070	-28.236806	8.069287	-28.236806	8.069287	-0.166391	-100.454896
5.500000	-0.133303	-79.677265	-28.195281	7.545516	-28.195281	7.545516	-0.168809	-101.270407
5.550000	-0.135211	-80.322611	-28.154125	7.027050	-28.154125	7.027050	-0.171268	-102.084024
5.600000	-0.137142	-80.966637	-28.113284	6.512374	-28.113284	6.512374	-0.173756	-102.896288
5.650000	-0.139100	-81.609092	-28.072724	6.002135	-28.072724	6.002135	-0.176279	-103.706992
5.700000	-0.141086	-82.249974	-28.032441	5.496334	-28.032441	5.496334	-0.178839	-104.516135
5.750000	-0.143095	-82.889560	-27.992371	4.994126	-27.992371	4.994126	-0.181429	-105.324031
5.800000	-0.145137	-83.527329	-27.952521	4.496952	-27.952521	4.496952	-0.184062	-106.130182
5.850000	-0.147199	-84.164070	-27.912838	4.002560	-27.912838	4.002560	-0.186721	-106.935381
5.900000	-0.149299	-84.798756	-27.873301	3.513734	-27.873301	3.513734	-0.189429	-107.738675
5.950000	-0.151415	-85.432679	-27.833904	3.026917	-27.833904	3.026917	-0.192158	-108.541289
6.000000	-0.153575	-86.064316	-27.794562	2.546131	-27.794562	2.546131	-0.194944	-109.341865
6.050000	-0.155747	-86.695450	-27.755353	2.066627	-27.755353	2.066627	-0.197743	-110.142012
6.100000	-0.157969	-87.324073	-27.716092	1.593539	-27.716092	1.593539	-0.200608	-110.940013
6.150000	-0.160197	-87.952447	-27.676975	1.121060	-27.676975	1.121060	-0.203481	-111.737812
6.200000	-0.162482	-88.578094	-27.637684	0.655296	-27.637684	0.655296	-0.206427	-112.533386
6.250000	-0.164768	-89.203741	-27.598569	0.189531	-27.598569	0.189531	-0.209374	-113.328960
6.300000	-0.167119	-89.826451	-27.559140	-0.269317	-27.559140	-0.269317	-0.212403	-114.122260
6.350000	-0.169471	-90.449162	-27.519889	-0.728165	-27.519889	-0.728165	-0.215433	-114.915559
6.400000	-0.171883	-91.069219	-27.480270	-1.181078	-27.480270	-1.181078	-0.218540	-115.706917
6.450000	-0.174302	-91.689035	-27.440781	-1.633451	-27.440781	-1.633451	-0.221655	-116.498098
6.500000	-0.176777	-92.306476	-27.400891	-2.080824	-27.400891	-2.080824	-0.224840	-117.287647
6.550000	-0.179264	-92.923441	-27.361067	-2.527197	-27.361067	-2.527197	-0.228042	-118.076870
6.600000	-0.181804	-93.538302	-27.320829	-2.969450	-27.320829	-2.969450	-0.231308	-118.864749
6.650000	-0.184361	-94.152463	-27.280578	-3.410330	-27.280578	-3.410330	-0.234597	-119.652179
6.700000	-0.186967	-94.764784	-27.239920	-3.847908	-27.239920	-3.847908	-0.237946	-120.438526
6.750000	-0.189597	-95.376187	-27.199157	-4.283836	-27.199157	-4.283836	-0.241325	-121.224331
6.800000	-0.192269	-95.986009	-27.158012	-4.717206	-27.158012	-4.717206	-0.244757	-122.009291
6.850000	-0.194973	-96.594703	-27.116656	-5.148750	-27.116656	-5.148750	-0.248228	-122.793645
6.900000	-0.197714	-97.202068	-27.074963	-5.578401	-27.074963	-5.578401	-0.251745	-123.577362
6.950000	-0.200494	-97.808104	-27.032940	-6.006160	-27.032940	-6.006160	-0.255309	-124.360443
7.000000	-0.203305	-98.413055	-26.990644	-6.432601	-26.990644	-6.432601	-0.258912	-125.143068
7.050000	-0.206162	-99.016486	-26.947888	-6.857198	-26.947888	-6.857198	-0.262571	-125.925055
7.100000	-0.209045	-99.619067	-26.904938	-7.280955	-26.904938	-7.280955	-0.266262	-126.706740
7.150000	-0.211980	-100.219947	-26.861392	-7.703033	-26.861392	-7.703033	-0.270017	-127.487819
7.200000	-0.214936	-100.820204	-26.817743	-8.124648	-26.817743	-8.124648	-0.273797	-128.268719
7.250000	-0.217952	-101.418589	-26.773357	-8.544871	-26.773357	-8.544871	-0.277650	-129.049081
7.300000	-0.220983	-102.016568	-26.728972	-8.964897	-26.728972	-8.964897	-0.281521	-129.829355
7.350000	-0.224081	-102.612515	-26.683703	-9.383939	-26.683703	-9.383939	-0.285473	-130.609192
7.400000	-0.227188	-103.208264	-26.638553	-9.802939	-26.638553	-9.802939	-0.289435	-131.389001
7.450000	-0.230370	-103.801832	-26.592369	-10.221482	-26.592369	-10.221482	-0.293489	-132.168511
7.500000	-0.233553	-104.395400	-26.546429	-10.640025	-26.546429	-10.640025	-0.297544	-132.948021
7.550000	-0.236821	-104.986649	-26.499306	-11.058753	-26.499306	-11.058753	-0.301700	-133.727406
7.600000	-0.240090	-105.577898	-26.452438	-11.477480	-26.452438	-11.477480	-0.305857	-134.506792
7.650000	-0.243438	-106.167078	-26.404484	-11.896999	-26.404484	-11.896999	-0.310109	-135.286251
7.700000	-0.246795	-106.756070	-26.356672	-12.316590	-26.356672	-12.316590	-0.314371	-136.065718
7.750000	-0.250224	-107.343233	-26.307887	-12.737455	-26.307887	-12.737455	-0.318719	-136.845428
7.800000	-0.253669	-107.930031	-26.259127	-13.158576	-26.259127	-13.158576	-0.323086	-137.625187
7.850000	-0.257182	-108.515231	-26.209515	-13.581331	-26.209515	-13.581331	-0.327532	-138.405326
7.900000	-0.260717	-109.099899	-26.159812	-14.004630	-26.159812	-14.004630	-0.332006	-139.185591
7.950000	-0.264314	-109.683191	-26.109387	-14.429798	-26.109387	-14.429798	-0.336551	-139.966341
8.000000	-0.267941	-110.265796	-26.058753	-14.855899	-26.058753	-14.855899	-0.341133	-140.747334
8.050000	-0.271623	-110.847235	-26.007532	-15.283981	-26.007532	-15.283981	-0.345778	-141.528880
8.100000	-0.275344	-111.427842	-25.955988	-15.713477	-25.955988	-15.713477	-0.350470	-142.310823
8.150000	-0.279113	-112.007485	-25.903997	-16.144947	-25.903997	-16.144947	-0.355216	-143.093354
8.200000	-0.282929	-112.586164	-25.851570	-16.578392	-25.851570	-16.578392	-0.360018	-143.876476
8.250000	-0.286786	-113.164069	-25.798839	-17.013694	-25.798839	-17.013694	-0.364867	-144.660185
8.300000	-0.290699	-113.740889	-25.745565	-17.451597	-25.745565	-17.451597	-0.369781	-145.444719
8.350000	-0.294644	-114.317114	-25.692128	-17.891140	-25.692128	-17.891140	-0.374733	-146.229802
8.400000	-0.298655	-114.892147	-25.638048	-18.333963	-25.638048	-18.333963	-0.379759	-147.015985
8.450000	-0.302692	-115.466751	-25.583943	-18.778119	-25.583943	-18.778119	-0.384816	-147.802641
8.500000	-0.306802	-116.040068	-25.529102	-19.226271	-25.529102	-19.226271	-0.389956	-148.590717
8.550000	-0.310930	-116.613112	-25.474372	-19.675370	-25.474372	-19.675370	-0.395118	-149.379150
8.600000	-0.315141	-117.184788	-25.418820	-20.129204	-25.418820	-20.129204	-0.400373	-150.169367
8.650000	-0.319362	-117.756334	-25.363507	-20.583536	-25.363507	-20.583536	-0.405641	-150.959783
8.700000	-0.323675	-118.326443	-25.307296	-21.043347	-25.307296	-21.043347	-0.411012	-151.752392
8.750000	-0.327990	-118.896552	-25.251446	-21.503157	-25.251446	-21.503157	-0.416386	-152.545002
8.800000	-0.332406	-119.465171	-25.194629	-21.969179	-25.194629	-21.969179	-0.421873	-153.340263
8.850000	-0.336825	-120.033790	-25.138181	-22.435201	-25.138181	-22.435201	-0.427364	-154.135524
8.900000	-0.341338	-120.601114	-25.080918	-22.907079	-25.080918	-22.907079	-0.432960	-154.933456
8.950000	-0.345862	-121.168320	-25.023924	-23.379490	-25.023924	-23.379490	-0.438568	-155.731631
9.000000	-0.350472	-121.734414	-24.966262	-23.857324	-24.966262	-23.857324	-0.444272	-156.532458
9.050000	-0.355102	-122.300285	-24.908774	-24.336243	-24.908774	-24.336243	-0.449999	-157.333816
9.100000	-0.359811	-122.865216	-24.850755	-24.820091	-24.850755	-24.820091	-0.455812	-158.137767
9.150000	-0.364548	-123.429834	-24.792820	-25.305582	-24.792820	-25.305582	-0.461657	-158.942581
9.200000	-0.369356	-123.993670	-24.734485	-25.795465	-24.734485	-25.795465	-0.467579	-159.749886
9.250000	-0.374201	-124.557115	-24.676149	-26.287542	-24.676149	-26.287542	-0.473543	-160.558437
9.300000	-0.379110	-125.119924	-24.617534	-26.783443	-24.617534	-26.783443	-0.479575	-161.369333
9.350000	-0.384065	-125.682280	-24.558838	-27.282075	-24.558838	-27.282075	-0.485658	-162.181904
9.400000	-0.389075	-126.244132	-24.499975	-27.783947	-24.499975	-27.783947	-0.491800	-162.996631
9.450000	-0.394141	-126.805482	-24.440953	-28.289059	-24.440953	-28.289059	-0.498001	-163.813515
9.500000	-0.399253	-127.366449	-24.381870	-28.796827	-24.381870	-28.796827	-0.504253	-164.632318
9.550000	-0.404430	-127.926879	-24.322549	-29.308312	-24.322549	-29.308312	-0.510574	-165.453809
9.600000	-0.409646	-128.487031	-24.263268	-29.821876	-24.263268	-29.821876	-0.516935	-166.276936
9.650000	-0.414935	-129.046628	-24.203670	-30.339597	-24.203670	-30.339597	-0.523375	-167.103338
9.700000	-0.420254	-129.606039	-24.144207	-30.858839	-24.144207	-30.858839	-0.529846	-167.931043
9.750000	-0.425657	-130.164892	-24.084344	-31.382641	-24.084344	-31.382641	-0.536403	-168.762663
9.800000	-0.431081	-130.723636	-24.024711	-31.907429	-24.024711	-31.907429	-0.542983	-169.595204
9.850000	-0.436598	-131.281835	-23.964589	-32.437142	-23.964589	-32.437142	-0.549657	-170.432356
9.900000	-0.442127	-131.839987	-23.904789	-32.967332	-23.904789	-32.967332	-0.556346	-171.269995
9.950000	-0.447759	-132.397623	-23.844404	-33.502780	-23.844404	-33.502780	-0.563136	-172.112998
10.000000	-0.453394	-132.955259	-23.784436	-34.038227	-23.784436	-34.038227	-0.569932	-172.956001
