! freq	dB(S11)	phase(S11)	dB(S12)	phase(S12)	
!     	dB(S21)	phase(S21)	dB(S22)	phase(S22)	
!S-par simulation data
#  GHz  S  DB  R 50
0.000000	-0.000000	0.000000	-290.693867	180.000000	-290.693867	180.000000	-0.000000	0.000000
0.050000	-0.000107	-0.870209	-69.454416	88.434649	-69.454416	88.434649	-0.000098	-0.777892
0.100000	-0.000422	-1.740163	-63.517476	87.278202	-63.517476	87.278202	-0.000389	-1.555546
0.150000	-0.000935	-2.609624	-60.065992	86.425520	-60.065992	86.425520	-0.000861	-2.332745
0.200000	-0.001626	-3.478393	-57.615897	85.689065	-57.615897	85.689065	-0.001494	-3.109308
0.250000	-0.002482	-4.346242	-55.711140	84.980103	-55.711140	84.980103	-0.002277	-3.885030
0.300000	-0.003466	-5.213120	-54.151424	84.266346	-54.151424	84.266346	-0.003172	-4.659876
0.350000	-0.004558	-6.078902	-52.830936	83.540961	-52.830936	83.540961	-0.004162	-5.433741
0.400000	-0.005736	-6.943529	-51.686390	82.803223	-51.686390	82.803223	-0.005226	-6.206585
0.450000	-0.006977	-7.806972	-50.676860	82.054708	-50.676860	82.054708	-0.006342	-6.978395
0.500000	-0.008262	-8.669227	-49.774304	81.297399	-49.774304	81.297399	-0.007493	-7.749180
0.550000	-0.009575	-9.530307	-48.958649	80.533117	-48.958649	80.533117	-0.008665	-8.518965
0.600000	-0.010901	-10.390235	-48.215025	79.763391	-48.215025	79.763391	-0.009846	-9.287779
0.650000	-0.012231	-11.249040	-47.532107	78.989468	-47.532107	78.989468	-0.011027	-10.055658
0.700000	-0.013557	-12.106752	-46.901070	78.212355	-46.901070	78.212355	-0.012202	-10.822637
0.750000	-0.014872	-12.963399	-46.314903	77.432871	-46.314903	77.432871	-0.013367	-11.588748
0.800000	-0.016172	-13.819009	-45.767943	76.651686	-45.767943	76.651686	-0.014517	-12.354018
0.850000	-0.017457	-14.673601	-45.255552	75.869356	-45.255552	75.869356	-0.015653	-13.118470
0.900000	-0.018723	-15.527191	-44.773881	75.086347	-44.773881	75.086347	-0.016773	-13.882120
0.950000	-0.019971	-16.379790	-44.319702	74.303053	-44.319702	74.303053	-0.017878	-14.644981
1.000000	-0.021201	-17.231402	-43.890281	73.519815	-43.890281	73.519815	-0.018967	-15.407059
1.050000	-0.022414	-18.082028	-43.483282	72.736929	-43.483282	72.736929	-0.020043	-16.168356
1.100000	-0.023612	-18.931664	-43.096693	71.954655	-43.096693	71.954655	-0.021105	-16.928871
1.150000	-0.024794	-19.780303	-42.728768	71.173228	-42.728768	71.173228	-0.022156	-17.688597
1.200000	-0.025963	-20.627931	-42.377984	70.392857	-42.377984	70.392857	-0.023196	-18.447528
1.250000	-0.027119	-21.474536	-42.043002	69.613734	-42.043002	69.613734	-0.024227	-19.205652
1.300000	-0.028265	-22.320055	-41.722738	68.836104	-41.722738	68.836104	-0.025250	-19.962920
1.350000	-0.029401	-23.164514	-41.416044	68.060074	-41.416044	68.060074	-0.026265	-20.719354
1.400000	-0.030528	-24.007893	-41.121984	67.285796	-41.121984	67.285796	-0.027275	-21.474936
1.450000	-0.031649	-24.850170	-40.839720	66.513413	-40.839720	66.513413	-0.028279	-22.229651
1.500000	-0.032763	-25.691324	-40.568497	65.743059	-40.568497	65.743059	-0.029279	-22.983481
1.550000	-0.033873	-26.531332	-40.307636	64.974864	-40.307636	64.974864	-0.030275	-23.736408
1.600000	-0.034978	-27.370170	-40.056519	64.208950	-40.056519	64.208950	-0.031269	-24.488415
1.650000	-0.036079	-28.207816	-39.814586	63.445437	-39.814586	63.445437	-0.032260	-25.239481
1.700000	-0.037177	-29.043811	-39.582083	62.685368	-39.582083	62.685368	-0.033249	-25.989247
1.750000	-0.038274	-29.879164	-39.356733	61.926650	-39.356733	61.926650	-0.034237	-26.738507
1.800000	-0.039370	-30.712967	-39.139648	61.171314	-39.139648	61.171314	-0.035225	-27.486545
1.850000	-0.040464	-31.545663	-38.929647	60.418393	-38.929647	60.418393	-0.036212	-28.233711
1.900000	-0.041557	-32.376982	-38.726776	59.668597	-38.726776	59.668597	-0.037199	-28.979789
1.950000	-0.042651	-33.206922	-38.530662	58.921924	-38.530662	58.921924	-0.038186	-29.724780
2.000000	-0.043745	-34.035673	-38.340664	58.178035	-38.340664	58.178035	-0.039174	-30.468833
2.050000	-0.044840	-34.862760	-38.157184	57.438041	-38.157184	57.438041	-0.040163	-31.211571
2.100000	-0.045935	-35.689114	-37.978551	56.699805	-37.978551	56.699805	-0.041152	-31.953731
2.150000	-0.047032	-36.513566	-37.806192	55.966146	-37.806192	55.966146	-0.042144	-32.694387
2.200000	-0.048131	-37.336578	-37.639162	55.236010	-37.639162	55.236010	-0.043137	-33.433904
2.250000	-0.049232	-38.158131	-37.477244	54.509487	-37.477244	54.509487	-0.044132	-34.172267
2.300000	-0.050336	-38.978206	-37.320230	53.786669	-37.320230	53.786669	-0.045130	-34.909458
2.350000	-0.051442	-39.796782	-37.167929	53.067643	-37.167929	53.067643	-0.046130	-35.645461
2.400000	-0.052551	-40.613842	-37.020159	52.352499	-37.020159	52.352499	-0.047132	-36.380262
2.450000	-0.053664	-41.429367	-36.876749	51.641323	-36.876749	51.641323	-0.048138	-37.113845
2.500000	-0.054781	-42.243340	-36.737537	50.934201	-36.737537	50.934201	-0.049147	-37.846194
2.550000	-0.055901	-43.055676	-36.602452	50.231403	-36.602452	50.231403	-0.050160	-38.577240
2.600000	-0.057026	-43.866424	-36.471266	49.532836	-36.471266	49.532836	-0.051177	-39.307022
2.650000	-0.058156	-44.675570	-36.343842	48.838584	-36.343842	48.838584	-0.052198	-40.035527
2.700000	-0.059291	-45.483098	-36.220049	48.148729	-36.220049	48.148729	-0.053223	-40.762741
2.750000	-0.060431	-46.288994	-36.099765	47.463353	-36.099765	47.463353	-0.054253	-41.488650
2.800000	-0.061577	-47.093242	-35.982870	46.782537	-35.982870	46.782537	-0.055288	-42.213242
2.850000	-0.062728	-47.895831	-35.869252	46.106361	-35.869252	46.106361	-0.056328	-42.936504
2.900000	-0.063886	-48.696745	-35.758803	45.434905	-35.758803	45.434905	-0.057374	-43.658424
2.950000	-0.065051	-49.495974	-35.651421	44.768245	-35.651421	44.768245	-0.058426	-44.378989
3.000000	-0.066223	-50.293504	-35.547006	44.106461	-35.547006	44.106461	-0.059484	-45.098189
3.050000	-0.067402	-51.089325	-35.445465	43.449629	-35.445465	43.449629	-0.060549	-45.816011
3.100000	-0.068589	-51.883424	-35.346707	42.797825	-35.346707	42.797825	-0.061620	-46.532446
3.150000	-0.069785	-52.675793	-35.250644	42.151124	-35.250644	42.151124	-0.062699	-47.247482
3.200000	-0.070989	-53.466420	-35.157192	41.509600	-35.157192	41.509600	-0.063785	-47.961110
3.250000	-0.072201	-54.255297	-35.066271	40.873327	-35.066271	40.873327	-0.064879	-48.673319
3.300000	-0.073423	-55.042414	-34.977801	40.242378	-34.977801	40.242378	-0.065981	-49.384101
3.350000	-0.074657	-55.827454	-34.891963	39.617783	-34.891963	39.617783	-0.067094	-50.093192
3.400000	-0.075901	-56.610640	-34.808486	38.998894	-34.808486	38.998894	-0.068216	-50.800775
3.450000	-0.077151	-57.392894	-34.726546	38.382921	-34.726546	38.382921	-0.069342	-51.507595
3.500000	-0.078418	-58.172348	-34.647575	37.775695	-34.647575	37.775695	-0.070484	-52.212129
3.550000	-0.079689	-58.951176	-34.569791	37.170461	-34.569791	37.170461	-0.071629	-52.916150
3.600000	-0.080980	-59.726872	-34.495050	36.575193	-34.495050	36.575193	-0.072792	-53.617602
3.650000	-0.082274	-60.502253	-34.421173	35.980944	-34.421173	35.980944	-0.073957	-54.318796
3.700000	-0.083591	-61.274168	-34.350397	35.397917	-34.350397	35.397917	-0.075143	-55.017136
3.750000	-0.084909	-62.046083	-34.280194	34.814889	-34.280194	34.814889	-0.076329	-55.715477
3.800000	-0.086255	-62.814200	-34.213132	34.244377	-34.213132	34.244377	-0.077540	-56.410679
3.850000	-0.087600	-63.582317	-34.146585	33.673864	-34.146585	33.673864	-0.078751	-57.105880
3.900000	-0.088974	-64.346940	-34.082791	33.115063	-34.082791	33.115063	-0.079985	-57.798183
3.950000	-0.090349	-65.111246	-34.019665	32.557327	-34.019665	32.557327	-0.081222	-58.490222
4.000000	-0.091751	-65.872369	-33.958930	32.010445	-33.958930	32.010445	-0.082482	-59.179608
4.050000	-0.093159	-66.632856	-33.899000	31.465734	-33.899000	31.465734	-0.083747	-59.868463
4.100000	-0.094592	-67.390474	-33.841121	30.930967	-33.841121	30.930967	-0.085034	-60.554918
4.150000	-0.096033	-68.147137	-33.784168	30.399514	-33.784168	30.399514	-0.086329	-61.240572
4.200000	-0.097498	-68.901252	-33.728953	29.877047	-33.728953	29.877047	-0.087644	-61.924083
4.250000	-0.098975	-69.654092	-33.674764	29.359071	-33.674764	29.359071	-0.088970	-62.606522
4.300000	-0.100474	-70.404705	-33.622024	28.849075	-33.622024	28.849075	-0.090315	-63.287078
4.350000	-0.101988	-71.153727	-33.570392	28.344778	-33.570392	28.344778	-0.091673	-63.966290
4.400000	-0.103522	-71.900845	-33.519947	27.847409	-33.519947	27.847409	-0.093049	-64.643885
4.450000	-0.105076	-72.646058	-33.470668	27.356971	-33.470668	27.356971	-0.094442	-65.319862
4.500000	-0.106647	-73.389689	-33.422339	26.872373	-33.422339	26.872373	-0.095850	-65.994489
4.550000	-0.108242	-74.131107	-33.375213	26.395952	-33.375213	26.395952	-0.097279	-66.667225
4.600000	-0.109852	-74.871264	-33.328828	25.924248	-33.328828	25.924248	-0.098721	-67.338881
4.650000	-0.111490	-75.608903	-33.283658	25.461979	-33.283658	25.461979	-0.100188	-68.008375
4.700000	-0.113140	-76.345602	-33.239048	25.003274	-33.239048	25.003274	-0.101665	-68.677058
4.750000	-0.114823	-77.079483	-33.195639	24.555264	-33.195639	24.555264	-0.103172	-69.343310
4.800000	-0.116514	-77.812742	-33.152636	24.109643	-33.152636	24.109643	-0.104686	-70.009022
4.850000	-0.118245	-78.542891	-33.110795	23.675969	-33.110795	23.675969	-0.106233	-70.672035
4.900000	-0.119979	-79.272732	-33.069236	23.243493	-33.069236	23.243493	-0.107785	-71.334779
4.950000	-0.121758	-79.999177	-33.028770	22.824198	-33.028770	22.824198	-0.109376	-71.994560
5.000000	-0.123537	-80.725623	-32.988493	22.404903	-32.988493	22.404903	-0.110967	-72.654341
5.050000	-0.125366	-81.448398	-32.949213	21.999994	-32.949213	21.999994	-0.112602	-73.310899
5.100000	-0.127196	-82.171173	-32.910110	21.595084	-32.910110	21.595084	-0.114237	-73.967458
5.150000	-0.129074	-82.890617	-32.871773	21.203330	-32.871773	21.203330	-0.115915	-74.621072
5.200000	-0.130956	-83.609758	-32.833658	20.812771	-32.833658	20.812771	-0.117597	-75.274419
5.250000	-0.132883	-84.325903	-32.796103	20.434105	-32.796103	20.434105	-0.119318	-75.925102
5.300000	-0.134819	-85.041450	-32.758789	20.057818	-32.758789	20.057818	-0.121047	-76.575252
5.350000	-0.136797	-85.754333	-32.721858	19.692138	-32.721858	19.692138	-0.122814	-77.223017
5.400000	-0.138789	-86.466328	-32.685159	19.329995	-32.685159	19.329995	-0.124593	-77.869988
5.450000	-0.140820	-87.175987	-32.648697	18.977160	-32.648697	18.977160	-0.126406	-78.514852
5.500000	-0.142870	-87.884478	-32.612428	18.628980	-32.612428	18.628980	-0.128236	-79.158662
5.550000	-0.144955	-88.590954	-32.576279	18.288807	-32.576279	18.288807	-0.130097	-79.800643
5.600000	-0.147064	-89.295990	-32.540258	17.954353	-32.540258	17.954353	-0.131980	-80.441315
5.650000	-0.149204	-89.999326	-32.504270	17.626614	-32.504270	17.626614	-0.133890	-81.080431
5.700000	-0.151375	-90.700961	-32.468315	17.305590	-32.468315	17.305590	-0.135828	-81.717991
5.750000	-0.153572	-91.401202	-32.432338	16.990011	-32.432338	16.990011	-0.137789	-82.354265
5.800000	-0.155806	-92.099491	-32.396271	16.682055	-32.396271	16.682055	-0.139782	-82.988738
5.850000	-0.158062	-92.796685	-32.360156	16.378314	-32.360156	16.378314	-0.141795	-83.622192
5.900000	-0.160360	-93.491689	-32.323801	16.083000	-32.323801	16.083000	-0.143847	-84.253608
5.950000	-0.162676	-94.185886	-32.287405	15.790723	-32.287405	15.790723	-0.145913	-84.884268
6.000000	-0.165040	-94.877666	-32.250590	15.507554	-32.250590	15.507554	-0.148024	-85.512658
6.050000	-0.167417	-95.568919	-32.213773	15.226316	-32.213773	15.226316	-0.150145	-86.140550
6.100000	-0.169850	-96.257539	-32.176332	14.954727	-32.176332	14.954727	-0.152316	-86.765948
6.150000	-0.172289	-96.945902	-32.138958	14.684049	-32.138958	14.684049	-0.154494	-87.391100
6.200000	-0.174792	-97.631430	-32.100729	14.423401	-32.100729	14.423401	-0.156728	-88.013541
6.250000	-0.177295	-98.316959	-32.062668	14.162752	-32.062668	14.162752	-0.158962	-88.635983
6.300000	-0.179869	-98.999467	-32.023498	13.912336	-32.023498	13.912336	-0.161261	-89.255506
6.350000	-0.182444	-99.681974	-31.984504	13.661920	-31.984504	13.661920	-0.163559	-89.875029
6.400000	-0.185085	-100.361779	-31.944369	13.420170	-31.944369	13.420170	-0.165918	-90.491913
6.450000	-0.187733	-101.041339	-31.904299	13.179207	-31.904299	13.179207	-0.168283	-91.108557
6.500000	-0.190442	-101.718504	-31.863088	12.945419	-31.863088	12.945419	-0.170703	-91.722837
6.550000	-0.193165	-102.395191	-31.821808	12.713065	-31.821808	12.713065	-0.173135	-92.336643
6.600000	-0.195944	-103.069781	-31.779420	12.486488	-31.779420	12.486488	-0.175618	-92.948355
6.650000	-0.198743	-103.743673	-31.736807	12.261836	-31.736807	12.261836	-0.178119	-93.559368
6.700000	-0.201593	-104.415755	-31.693152	12.041676	-31.693152	12.041676	-0.180667	-94.168548
6.750000	-0.204469	-105.086932	-31.649094	11.823762	-31.649094	11.823762	-0.183238	-94.776813
6.800000	-0.207392	-105.756574	-31.604091	11.609187	-31.604091	11.609187	-0.185851	-95.383502
6.850000	-0.210348	-106.425120	-31.558490	11.396998	-31.558490	11.396998	-0.188494	-95.989065
6.900000	-0.213344	-107.092392	-31.512069	11.187143	-31.512069	11.187143	-0.191174	-96.593302
6.950000	-0.216380	-107.758390	-31.464842	10.979624	-31.464842	10.979624	-0.193891	-97.196213
7.000000	-0.219452	-108.423364	-31.416945	10.773598	-31.416945	10.773598	-0.196639	-97.798039
7.050000	-0.222571	-109.086903	-31.368024	10.569664	-31.368024	10.569664	-0.199431	-98.398348
7.100000	-0.225718	-109.749651	-31.318606	10.366557	-31.318606	10.366557	-0.202248	-98.997807
7.150000	-0.228921	-110.410820	-31.267937	10.165102	-31.267937	10.165102	-0.205117	-99.595567
7.200000	-0.232146	-111.071419	-31.216965	9.963990	-31.216965	9.963990	-0.208005	-100.192702
7.250000	-0.235434	-111.730309	-31.164512	9.763902	-31.164512	9.763902	-0.210951	-100.787965
7.300000	-0.238737	-112.388834	-31.111965	9.563858	-31.111965	9.563858	-0.213911	-101.382822
7.350000	-0.242112	-113.045539	-31.057709	9.364028	-31.057709	9.364028	-0.216937	-101.975645
7.400000	-0.245496	-113.702069	-31.003581	9.164129	-31.003581	9.164129	-0.219970	-102.568269
7.450000	-0.248959	-114.356685	-30.947517	8.963467	-30.947517	8.963467	-0.223076	-103.158708
7.500000	-0.252424	-115.011300	-30.891813	8.762805	-30.891813	8.762805	-0.226184	-103.749147
7.550000	-0.255976	-115.663924	-30.833955	8.560249	-30.833955	8.560249	-0.229373	-104.337260
7.600000	-0.259530	-116.316548	-30.776480	8.357693	-30.776480	8.357693	-0.232562	-104.925374
7.650000	-0.263167	-116.967438	-30.717069	8.152468	-30.717069	8.152468	-0.235828	-105.511410
7.700000	-0.266812	-117.618170	-30.657852	7.947001	-30.657852	7.947001	-0.239101	-106.097258
7.750000	-0.270533	-118.267411	-30.596931	7.738307	-30.596931	7.738307	-0.242445	-106.681269
7.800000	-0.274271	-118.916354	-30.536016	7.528967	-30.536016	7.528967	-0.245803	-107.264913
7.850000	-0.278077	-119.564032	-30.473639	7.316050	-30.473639	7.316050	-0.249226	-107.846950
7.900000	-0.281909	-120.211289	-30.411083	7.101941	-30.411083	7.101941	-0.252671	-108.428452
7.950000	-0.285802	-120.857493	-30.347313	6.884106	-30.347313	6.884106	-0.256174	-109.008568
8.000000	-0.289728	-121.503169	-30.283184	6.664408	-30.283184	6.664408	-0.259706	-109.587992
8.050000	-0.293710	-122.147988	-30.218093	6.441021	-30.218093	6.441021	-0.263290	-110.166242
8.100000	-0.297733	-122.792192	-30.152470	6.214999	-30.152470	6.214999	-0.266912	-110.743654
8.150000	-0.301803	-123.435716	-30.086135	5.985492	-30.086135	5.985492	-0.270578	-111.320093
8.200000	-0.305923	-124.078559	-30.019108	5.752502	-30.019108	5.752502	-0.274290	-111.895558
8.250000	-0.310084	-124.720881	-29.951612	5.516379	-29.951612	5.516379	-0.278040	-112.470242
8.300000	-0.314302	-125.362473	-29.883274	5.275872	-29.883274	5.275872	-0.281843	-113.043830
8.350000	-0.318554	-126.003687	-29.814704	5.032710	-29.814704	5.032710	-0.285677	-113.616816
8.400000	-0.322872	-126.644143	-29.745155	4.784237	-29.745155	4.784237	-0.289572	-114.188596
8.450000	-0.327216	-127.284344	-29.675602	4.533685	-29.675602	4.533685	-0.293492	-114.759942
8.500000	-0.331634	-127.923780	-29.604945	4.276897	-29.604945	4.276897	-0.297481	-115.329985
8.550000	-0.336071	-128.563066	-29.534499	4.018682	-29.534499	4.018682	-0.301488	-115.899750
8.600000	-0.340591	-129.201600	-29.462838	3.753329	-29.462838	3.753329	-0.305571	-116.468128
8.650000	-0.345122	-129.840068	-29.391590	3.487250	-29.391590	3.487250	-0.309665	-117.036373
8.700000	-0.349744	-130.477819	-29.319028	3.213181	-29.319028	3.213181	-0.313845	-117.603158
8.750000	-0.354370	-131.115571	-29.247068	2.939112	-29.247068	2.939112	-0.318026	-118.169944
8.800000	-0.359096	-131.752662	-29.173707	2.656268	-29.173707	2.656268	-0.322303	-118.735212
8.850000	-0.363825	-132.389754	-29.100960	2.373424	-29.100960	2.373424	-0.326581	-119.300481
8.900000	-0.368648	-133.026354	-29.027056	2.082564	-29.027056	2.082564	-0.330948	-119.864428
8.950000	-0.373482	-133.662910	-28.953618	1.790975	-28.953618	1.790975	-0.335324	-120.428255
9.000000	-0.378402	-134.299125	-28.879253	1.492192	-28.879253	1.492192	-0.339781	-120.990946
9.050000	-0.383341	-134.935272	-28.805212	1.191971	-28.805212	1.191971	-0.344256	-121.553410
9.100000	-0.388358	-135.571208	-28.730458	0.885416	-28.730458	0.885416	-0.348805	-122.114910
9.150000	-0.393403	-136.207075	-28.655899	0.576749	-28.655899	0.576749	-0.353379	-122.676089
9.200000	-0.398519	-136.842842	-28.580824	0.262623	-28.580824	0.262623	-0.358020	-123.236465
9.250000	-0.403671	-137.478559	-28.505821	-0.054233	-28.505821	-0.054233	-0.362695	-123.796439
9.300000	-0.408885	-138.114267	-28.430483	-0.375682	-28.430483	-0.375682	-0.367428	-124.355758
9.350000	-0.414145	-138.749969	-28.355102	-0.700413	-28.355102	-0.700413	-0.372205	-124.914609
9.400000	-0.419458	-139.385730	-28.279556	-1.028898	-28.279556	-1.028898	-0.377031	-125.472940
9.450000	-0.424826	-140.021552	-28.203853	-1.361138	-28.203853	-1.361138	-0.381909	-126.030752
9.500000	-0.430239	-140.657481	-28.128142	-1.696337	-28.128142	-1.696337	-0.386830	-126.588165
9.550000	-0.435715	-141.293561	-28.052164	-2.035677	-28.052164	-2.035677	-0.391810	-127.145021
9.600000	-0.441228	-141.929773	-27.976323	-2.377238	-27.976323	-2.377238	-0.396826	-127.701587
9.650000	-0.446813	-142.566252	-27.900106	-2.723237	-27.900106	-2.723237	-0.401908	-128.257573
9.700000	-0.452427	-143.202866	-27.824165	-3.070784	-27.824165	-3.070784	-0.407019	-128.813364
9.750000	-0.458120	-143.839887	-27.747732	-3.422973	-27.747732	-3.422973	-0.412205	-129.368569
9.800000	-0.463835	-144.477023	-27.671709	-3.776113	-27.671709	-3.776113	-0.417411	-129.923658
9.850000	-0.469637	-145.114733	-27.595075	-4.134005	-27.595075	-4.134005	-0.422701	-130.478170
9.900000	-0.475452	-145.752512	-27.518982	-4.492331	-27.518982	-4.492331	-0.428002	-131.032632
9.950000	-0.481364	-146.391059	-27.442148	-4.855428	-27.442148	-4.855428	-0.433396	-131.586542
10.000000	-0.487280	-147.029606	-27.365988	-5.218525	-27.365988	-5.218525	-0.438793	-132.140452
