! freq	dB(S11)	phase(S11)	dB(S12)	phase(S12)	
!     	dB(S21)	phase(S21)	dB(S22)	phase(S22)	
!S-par simulation data
#  GHz  S  DB  R 50
0.000000	-94.791452	0.000000	-0.000158	0.000000	-0.000158	0.000000	-94.791452	0.000000
0.050000	-53.887449	-90.818948	-0.001226	-0.823778	-0.001226	-0.823778	-53.886952	-90.823404
0.100000	-47.921411	-92.102915	-0.003330	-1.637923	-0.003330	-1.637923	-47.921388	-92.107117
0.150000	-44.439238	-93.030475	-0.005210	-2.444433	-0.005210	-2.444433	-44.439347	-93.033662
0.200000	-41.965482	-93.872240	-0.006651	-3.247986	-0.006651	-3.247986	-41.965595	-93.874917
0.250000	-40.044253	-94.693650	-0.007754	-4.050701	-0.007754	-4.050701	-40.044340	-94.696246
0.300000	-38.473540	-95.513453	-0.008660	-4.853418	-0.008660	-4.853418	-38.473599	-95.516209
0.350000	-37.145522	-96.335817	-0.009480	-5.656361	-0.009480	-5.656361	-37.145557	-96.338844
0.400000	-35.996121	-97.161237	-0.010266	-6.459581	-0.010266	-6.459581	-35.996138	-97.164604
0.450000	-34.983306	-97.988595	-0.011058	-7.262992	-0.011058	-7.262992	-34.983310	-97.992333
0.500000	-34.079137	-98.817480	-0.011882	-8.066567	-0.011882	-8.066567	-34.079129	-98.821611
0.550000	-33.262770	-99.647097	-0.012745	-8.870223	-0.012745	-8.870223	-33.262755	-99.651632
0.600000	-32.519516	-100.477096	-0.013662	-9.673917	-0.013662	-9.673917	-32.519494	-100.482044
0.650000	-31.837742	-101.307164	-0.014634	-10.477597	-0.014634	-10.477597	-31.837715	-101.312532
0.700000	-31.208548	-102.137100	-0.015665	-11.281221	-0.015665	-11.281221	-31.208517	-102.142892
0.750000	-30.625040	-102.966754	-0.016761	-12.084745	-0.016761	-12.084745	-30.625005	-102.972974
0.800000	-30.081134	-103.796068	-0.017912	-12.888147	-0.017912	-12.888147	-30.081097	-103.802721
0.850000	-29.573116	-104.624852	-0.019137	-13.691345	-0.019137	-13.691345	-29.573077	-104.631941
0.900000	-29.095349	-105.453307	-0.020402	-14.494411	-0.020402	-14.494411	-29.095308	-105.460835
0.950000	-28.646660	-106.281092	-0.021740	-15.297192	-0.021740	-15.297192	-28.646617	-106.289062
1.000000	-28.222753	-107.108417	-0.023121	-16.099766	-0.023121	-16.099766	-28.222709	-107.116833
1.050000	-27.821253	-107.935275	-0.024544	-16.902129	-0.024544	-16.902129	-27.821207	-107.944140
1.100000	-27.441153	-108.761476	-0.026019	-17.704188	-0.026019	-17.704188	-27.441106	-108.770795
1.150000	-27.080462	-109.587049	-0.027537	-18.505954	-0.027537	-18.505954	-27.080414	-109.596824
1.200000	-26.736864	-110.412121	-0.029083	-19.307490	-0.029083	-19.307490	-26.736815	-110.422357
1.250000	-26.409001	-111.236691	-0.030658	-20.108795	-0.030658	-20.108795	-26.408950	-111.247390
1.300000	-26.097467	-112.060432	-0.032270	-20.909735	-0.032270	-20.909735	-26.097416	-112.071600
1.350000	-25.799438	-112.883668	-0.033900	-21.710465	-0.033900	-21.710465	-25.799386	-112.895309
1.400000	-25.513712	-113.706447	-0.035546	-22.511008	-0.035546	-22.511008	-25.513658	-113.718563
1.450000	-25.240770	-114.528535	-0.037211	-23.311285	-0.037211	-23.311285	-25.240715	-114.541133
1.500000	-24.979291	-115.350045	-0.038889	-24.111355	-0.038889	-24.111355	-24.979234	-115.363129
1.550000	-24.728649	-116.170981	-0.040578	-24.911235	-0.040578	-24.911235	-24.728591	-116.184556
1.600000	-24.487984	-116.991400	-0.042275	-25.710955	-0.042275	-25.710955	-24.487925	-117.005470
1.650000	-24.257164	-117.811249	-0.043980	-26.510516	-0.043980	-26.510516	-24.257103	-117.825822
1.700000	-24.035493	-118.630585	-0.045691	-27.309946	-0.045691	-27.309946	-24.035430	-118.645665
1.750000	-23.822249	-119.449473	-0.047407	-28.109273	-0.047407	-28.109273	-23.822183	-119.465065
1.800000	-23.617188	-120.267911	-0.049127	-28.908508	-0.049127	-28.908508	-23.617121	-120.284022
1.850000	-23.419922	-121.085930	-0.050851	-29.707666	-0.050851	-29.707666	-23.419853	-121.102567
1.900000	-23.230093	-121.903564	-0.052579	-30.506762	-0.052579	-30.506762	-23.230022	-121.920732
1.950000	-23.047372	-122.720848	-0.054311	-31.305812	-0.054311	-31.305812	-23.047298	-122.738555
2.000000	-22.871455	-123.537821	-0.056045	-32.104827	-0.056045	-32.104827	-22.871379	-123.556073
2.050000	-22.702063	-124.354523	-0.057784	-32.903819	-0.057784	-32.903819	-22.701985	-124.373328
2.100000	-22.538938	-125.170996	-0.059526	-33.702801	-0.059526	-33.702801	-22.538857	-125.190362
2.150000	-22.381839	-125.987285	-0.061272	-34.501781	-0.061272	-34.501781	-22.381755	-126.007219
2.200000	-22.230545	-126.803435	-0.063021	-35.300770	-0.063021	-35.300770	-22.230458	-126.823946
2.250000	-22.084850	-127.619495	-0.064773	-36.099776	-0.064773	-36.099776	-22.084760	-127.640591
2.300000	-21.944563	-128.435513	-0.066530	-36.898808	-0.066530	-36.898808	-21.944470	-128.457202
2.350000	-21.809507	-129.251539	-0.068290	-37.697872	-0.068290	-37.697872	-21.809411	-129.273831
2.400000	-21.679517	-130.067624	-0.070053	-38.496978	-0.070053	-38.496978	-21.679417	-130.090528
2.450000	-21.554438	-130.883822	-0.071819	-39.296133	-0.071819	-39.296133	-21.554335	-130.907348
2.500000	-21.434128	-131.700185	-0.073588	-40.095343	-0.073588	-40.095343	-21.434022	-131.724342
2.550000	-21.318587	-132.516779	-0.075360	-40.894618	-0.075360	-40.894618	-21.318477	-132.541579
2.600000	-21.207558	-133.333653	-0.077134	-41.693965	-0.077134	-41.693965	-21.207444	-133.359106
2.650000	-21.100926	-134.150861	-0.078910	-42.493389	-0.078910	-42.493389	-21.100808	-134.176979
2.700000	-20.998584	-134.968459	-0.080688	-43.292899	-0.080688	-43.292899	-20.998461	-134.995254
2.750000	-20.900431	-135.786504	-0.082467	-44.092502	-0.082467	-44.092502	-20.900305	-135.813986
2.800000	-20.806376	-136.605052	-0.084247	-44.892205	-0.084247	-44.892205	-20.806245	-136.633235
2.850000	-20.716331	-137.424159	-0.086027	-45.692017	-0.086027	-45.692017	-20.716196	-137.453055
2.900000	-20.630218	-138.243883	-0.087806	-46.491946	-0.087806	-46.491946	-20.630077	-138.273506
2.950000	-20.547960	-139.064280	-0.089585	-47.291999	-0.089585	-47.291999	-20.547815	-139.094643
3.000000	-20.469489	-139.885408	-0.091363	-48.092186	-0.091363	-48.092186	-20.469339	-139.916526
3.050000	-20.394742	-140.707324	-0.093139	-48.892516	-0.093139	-48.892516	-20.394587	-140.739210
3.100000	-20.323660	-141.530085	-0.094914	-49.692997	-0.094914	-49.692997	-20.323500	-141.562756
3.150000	-20.256188	-142.353748	-0.096685	-50.493638	-0.096685	-50.493638	-20.256022	-142.387219
3.200000	-20.192277	-143.178371	-0.098454	-51.294451	-0.098454	-51.294451	-20.192105	-143.212658
3.250000	-20.131881	-144.004011	-0.100219	-52.095444	-0.100219	-52.095444	-20.131703	-144.039131
3.300000	-20.074958	-144.830725	-0.101981	-52.896627	-0.101981	-52.896627	-20.074774	-144.866696
3.350000	-20.021471	-145.658572	-0.103738	-53.698012	-0.103738	-53.698012	-20.021280	-145.695411
3.400000	-19.971386	-146.487608	-0.105491	-54.499608	-0.105491	-54.499608	-19.971188	-146.525335
3.450000	-19.924672	-147.317892	-0.107239	-55.301426	-0.107239	-55.301426	-19.924467	-147.356526
3.500000	-19.881302	-148.149482	-0.108982	-56.103477	-0.108982	-56.103477	-19.881090	-148.189044
3.550000	-19.841253	-148.982437	-0.110720	-56.905774	-0.110720	-56.905774	-19.841033	-149.022946
3.600000	-19.804504	-149.816815	-0.112452	-57.708326	-0.112452	-57.708326	-19.804277	-149.858295
3.650000	-19.771038	-150.652676	-0.114178	-58.511147	-0.114178	-58.511147	-19.770802	-150.695149
3.700000	-19.740841	-151.490081	-0.115898	-59.314247	-0.115898	-59.314247	-19.740596	-151.533570
3.750000	-19.713901	-152.329090	-0.117612	-60.117639	-0.117612	-60.117639	-19.713647	-152.373620
3.800000	-19.690348	-153.169842	-0.119320	-60.921348	-0.119320	-60.921348	-19.690085	-153.215438
3.850000	-19.670040	-154.012328	-0.121021	-61.725375	-0.121021	-61.725375	-19.669767	-154.059019
3.900000	-19.652974	-154.856614	-0.122716	-62.529731	-0.122716	-62.529731	-19.652690	-154.904426
3.950000	-19.639151	-155.702766	-0.124406	-63.334430	-0.124406	-63.334430	-19.638855	-155.751728
4.000000	-19.628572	-156.550851	-0.126089	-64.139484	-0.126089	-64.139484	-19.628265	-156.600993
4.050000	-19.621245	-157.400939	-0.127767	-64.944905	-0.127767	-64.944905	-19.620925	-157.452292
4.100000	-19.617177	-158.253101	-0.129439	-65.750708	-0.129439	-65.750708	-19.616844	-158.305698
4.150000	-19.616380	-159.107411	-0.131106	-66.556904	-0.131106	-66.556904	-19.616034	-159.161285
4.200000	-19.618868	-159.963945	-0.132768	-67.363506	-0.132768	-67.363506	-19.618507	-160.019132
4.250000	-19.624658	-160.822782	-0.134425	-68.170528	-0.134425	-68.170528	-19.624282	-160.879319
4.300000	-19.633770	-161.684006	-0.136079	-68.977983	-0.136079	-68.977983	-19.633378	-161.741932
4.350000	-19.646227	-162.547702	-0.137729	-69.785883	-0.137729	-69.785883	-19.645818	-162.607056
4.400000	-19.662054	-163.413960	-0.139376	-70.594242	-0.139376	-70.594242	-19.661628	-163.474785
4.450000	-19.681281	-164.282875	-0.141020	-71.403073	-0.141020	-71.403073	-19.680836	-164.345215
4.500000	-19.703940	-165.154545	-0.142663	-72.212388	-0.142663	-72.212388	-19.703474	-165.218446
4.550000	-19.730065	-166.029074	-0.144304	-73.022201	-0.144304	-73.022201	-19.729578	-166.094585
4.600000	-19.759696	-166.906573	-0.145945	-73.832525	-0.145945	-73.832525	-19.759187	-166.973743
4.650000	-19.792874	-167.787157	-0.147587	-74.643372	-0.147587	-74.643372	-19.792341	-167.856040
4.700000	-19.829645	-168.670949	-0.149230	-75.454756	-0.149230	-75.454756	-19.829086	-168.741601
4.750000	-19.870059	-169.558079	-0.150875	-76.266688	-0.150875	-76.266688	-19.869473	-169.630558
4.800000	-19.914168	-170.448685	-0.152524	-77.079182	-0.152524	-77.079182	-19.913553	-170.523053
4.850000	-19.962031	-171.342915	-0.154176	-77.892249	-0.154176	-77.892249	-19.961385	-171.419236
4.900000	-20.013708	-172.240925	-0.155834	-78.705903	-0.155834	-78.705903	-20.013029	-172.319267
4.950000	-20.069267	-173.142883	-0.157499	-79.520156	-0.157499	-79.520156	-20.068553	-173.223317
5.000000	-20.128778	-174.048966	-0.159171	-80.335018	-0.159171	-80.335018	-20.128026	-174.131568
5.050000	-20.192474	-174.959565	-0.160853	-81.150531	-0.160853	-81.150531	-20.191683	-175.044418
5.100000	-20.260281	-175.874708	-0.162545	-81.966678	-0.162545	-81.966678	-20.259447	-175.961895
5.150000	-20.332288	-176.794616	-0.164248	-82.783471	-0.164248	-82.783471	-20.331408	-176.884226
5.200000	-20.408586	-177.719529	-0.165965	-83.600922	-0.165965	-83.600922	-20.407657	-177.811658
5.250000	-20.489275	-178.649707	-0.167696	-84.419042	-0.167696	-84.419042	-20.488294	-178.744452
5.300000	-20.574463	-179.585426	-0.169443	-85.237840	-0.169443	-85.237840	-20.573425	-179.682893
5.350000	-20.664262	179.473011	-0.171208	-86.057328	-0.171208	-86.057328	-20.663163	179.372710
5.400000	-20.758794	178.525279	-0.172991	-86.877516	-0.172991	-86.877516	-20.757631	178.422027
5.450000	-20.858190	177.571026	-0.174796	-87.698414	-0.174796	-87.698414	-20.856956	177.464695
5.500000	-20.962588	176.609867	-0.176623	-88.520031	-0.176623	-88.520031	-20.961278	176.500325
5.550000	-21.072138	175.641386	-0.178474	-89.342377	-0.178474	-89.342377	-21.070746	175.528491
5.600000	-21.186999	174.665131	-0.180350	-90.165461	-0.180350	-90.165461	-21.185518	174.548730
5.650000	-21.307341	173.680604	-0.182255	-90.989292	-0.182255	-90.989292	-21.305765	173.560537
5.700000	-21.433349	172.687266	-0.184189	-91.813877	-0.184189	-91.813877	-21.431668	172.563359
5.750000	-21.565218	171.684524	-0.186154	-92.639225	-0.186154	-92.639225	-21.563424	171.556593
5.800000	-21.703159	170.671729	-0.188153	-93.465344	-0.188153	-93.465344	-21.701242	170.539575
5.850000	-21.847400	169.648165	-0.190187	-94.292242	-0.190187	-94.292242	-21.845349	169.511577
5.900000	-21.998184	168.613046	-0.192258	-95.119924	-0.192258	-95.119924	-21.995987	168.471796
5.950000	-22.155775	167.565502	-0.194369	-95.948398	-0.194369	-95.948398	-22.153419	167.419345
6.000000	-22.320456	166.504573	-0.196520	-96.777670	-0.196520	-96.777670	-22.317925	166.353244
6.050000	-22.492534	165.429191	-0.198715	-97.607745	-0.198715	-97.607745	-22.489810	165.272406
6.100000	-22.672340	164.338169	-0.200955	-98.438629	-0.200955	-98.438629	-22.669404	164.175620
6.150000	-22.860231	163.230184	-0.203243	-99.270328	-0.203243	-99.270328	-22.857062	163.061538
6.200000	-23.056598	162.103756	-0.205580	-100.102845	-0.205580	-100.102845	-23.053171	161.928652
6.250000	-23.261861	160.957225	-0.207969	-100.936185	-0.207969	-100.936185	-23.258149	160.775271
6.300000	-23.476667	159.787667	-0.210414	-101.770387	-0.210414	-101.770387	-23.472636	159.598415
6.350000	-23.701330	158.593806	-0.212916	-102.605420	-0.212916	-102.605420	-23.696945	158.396788
6.400000	-23.936394	157.373206	-0.215476	-103.441285	-0.215476	-103.441285	-23.931612	157.167908
6.450000	-24.182455	156.123090	-0.218097	-104.277985	-0.218097	-104.277985	-24.177228	155.908952
6.500000	-24.440162	154.840283	-0.220780	-105.115521	-0.220780	-105.115521	-24.434435	154.616687
6.550000	-24.710228	153.521136	-0.223529	-105.953896	-0.223529	-105.953896	-24.703936	153.287407
6.600000	-24.993434	152.161440	-0.226345	-106.793110	-0.226345	-106.793110	-24.986502	151.916832
6.650000	-25.290639	150.756317	-0.229231	-107.633163	-0.229231	-107.633163	-25.282978	150.500008
6.700000	-25.602786	149.300079	-0.232188	-108.474056	-0.232188	-108.474056	-25.594293	149.031161
6.750000	-25.930913	147.786067	-0.235220	-109.315787	-0.235220	-109.315787	-25.921464	147.503536
6.800000	-26.276162	146.206434	-0.238327	-110.158356	-0.238327	-110.158356	-26.265609	145.909181
6.850000	-26.639785	144.551884	-0.241514	-111.001762	-0.241514	-111.001762	-26.627953	144.238680
6.900000	-27.023160	142.811333	-0.244780	-111.846001	-0.244780	-111.846001	-27.009836	142.480821
6.950000	-27.427790	140.971481	-0.248130	-112.691073	-0.248130	-112.691073	-27.412715	140.622168
7.000000	-27.855306	139.016263	-0.251565	-113.536972	-0.251565	-113.536972	-27.838165	138.646511
7.050000	-28.307466	136.926143	-0.255087	-114.383698	-0.255087	-114.383698	-28.287867	136.534174
7.100000	-28.786121	134.677200	-0.258698	-115.231244	-0.258698	-115.231244	-28.763584	134.261112
7.150000	-29.293178	132.239954	-0.262400	-116.079607	-0.262400	-116.079607	-29.267097	131.797766
7.200000	-29.830496	129.577851	-0.266196	-116.928782	-0.266196	-116.928782	-29.800114	129.107585
7.250000	-30.399722	126.645341	-0.270088	-117.778763	-0.270088	-117.778763	-30.364081	126.145189
7.300000	-31.002542	123.404101	-0.274073	-118.629510	-0.274073	-118.629510	-30.960451	122.872710
7.350000	-31.638105	119.744388	-0.278163	-119.481095	-0.278163	-119.481095	-31.588004	119.181286
7.400000	-32.305070	115.596072	-0.282355	-120.333467	-0.282355	-120.333467	-32.245031	115.002651
7.450000	-32.998489	110.850194	-0.286650	-121.186618	-0.286650	-121.186618	-32.926139	110.231008
7.500000	-33.708135	105.377785	-0.291051	-122.040541	-0.291051	-122.040541	-33.620675	104.742626
7.550000	-34.413591	99.014005	-0.295561	-122.895244	-0.295561	-122.895244	-34.307992	98.381447
7.600000	-35.084744	91.640054	-0.300180	-123.750702	-0.300180	-123.750702	-34.958322	91.040046
7.650000	-35.675856	83.175345	-0.304911	-124.606904	-0.304911	-124.606904	-35.527341	82.651034
7.700000	-36.128103	73.663455	-0.309754	-125.463842	-0.309754	-125.463842	-35.959148	73.267493
7.750000	-36.367059	63.313390	-0.314718	-126.321545	-0.314718	-126.321545	-36.183948	63.097741
7.800000	-36.371954	52.660413	-0.319793	-127.179930	-0.319793	-127.179930	-36.183810	52.650148
7.850000	-36.128434	42.208634	-0.324985	-128.039019	-0.324985	-128.039019	-35.945635	42.398789
7.900000	-35.670159	32.436616	-0.330296	-128.898801	-0.330296	-128.898801	-35.500951	32.794102
7.950000	-35.054339	23.640916	-0.335728	-129.759262	-0.335728	-129.759262	-34.903238	24.119343
8.000000	-34.341184	15.920717	-0.341281	-130.620393	-0.341281	-130.620393	-34.209275	16.474850
8.050000	-33.580465	9.232287	-0.346958	-131.482179	-0.346958	-131.482179	-33.466628	9.825924
8.100000	-32.807463	3.458181	-0.352759	-132.344608	-0.352759	-132.344608	-32.709566	4.065801
8.150000	-32.044588	-1.541256	-0.358686	-133.207666	-0.358686	-133.207666	-31.960256	-0.936099
8.200000	-31.304786	-5.899640	-0.364739	-134.071341	-0.364739	-134.071341	-31.231796	-5.306783
8.250000	-30.594748	-9.733037	-0.370919	-134.935618	-0.370919	-134.935618	-30.531172	-9.157898
8.300000	-29.917274	-13.137542	-0.377229	-135.800483	-0.377229	-135.800483	-29.861508	-12.582734
8.350000	-29.272874	-16.190863	-0.383668	-136.665922	-0.383668	-136.665922	-29.223604	-15.657282
8.400000	-28.660764	-18.955203	-0.390237	-137.531919	-0.390237	-137.531919	-28.616926	-18.442732
8.450000	-28.079481	-21.480222	-0.396937	-138.398460	-0.396937	-138.398460	-28.040212	-20.988174
8.500000	-27.527248	-23.805646	-0.403768	-139.265529	-0.403768	-139.265529	-27.491848	-23.333030
8.550000	-27.002184	-25.963390	-0.410732	-140.133111	-0.410732	-140.133111	-26.970082	-25.509076
8.600000	-26.502429	-27.979242	-0.417829	-141.001189	-0.417829	-141.001189	-26.473156	-27.542062
8.650000	-26.026202	-29.874178	-0.425058	-141.869749	-0.425058	-141.869749	-25.999373	-29.452980
8.700000	-25.571836	-31.665372	-0.432421	-142.738773	-0.432421	-142.738773	-25.547129	-31.259050
8.750000	-25.137791	-33.366980	-0.439918	-143.608246	-0.439918	-143.608246	-25.114939	-32.974497
8.800000	-24.722595	-34.987828	-0.447553	-144.478168	-0.447553	-144.478168	-24.701371	-34.608174
8.850000	-24.325052	-36.541384	-0.455323	-145.348504	-0.455323	-145.348504	-24.305264	-36.173672
8.900000	-23.943977	-38.035718	-0.463226	-146.219236	-0.463226	-146.219236	-23.925465	-37.679127
8.950000	-23.578297	-39.477665	-0.471263	-147.090348	-0.471263	-147.090348	-23.560921	-39.131441
9.000000	-23.227046	-40.875385	-0.479426	-147.961804	-0.479426	-147.961804	-23.210689	-40.538871
9.050000	-22.889301	-42.229336	-0.487727	-148.833621	-0.487727	-148.833621	-22.873856	-41.901865
9.100000	-22.564272	-43.545927	-0.496162	-149.705768	-0.496162	-149.705768	-22.549652	-43.226914
9.150000	-22.251225	-44.828863	-0.504728	-150.578226	-0.504728	-150.578226	-22.237349	-44.517770
9.200000	-21.949486	-46.081353	-0.513425	-151.450978	-0.513425	-151.450978	-21.936285	-45.777687
9.250000	-21.658439	-47.306187	-0.522254	-152.324008	-0.522254	-152.324008	-21.645853	-47.009494
9.300000	-21.377520	-48.505802	-0.531212	-153.197297	-0.531212	-153.197297	-21.365495	-48.215661
9.350000	-21.106212	-49.682325	-0.540300	-154.070830	-0.540300	-154.070830	-21.094700	-49.398350
9.400000	-20.844049	-50.837416	-0.549517	-154.944590	-0.549517	-154.944590	-20.833007	-50.559245
9.450000	-20.590596	-51.972768	-0.558862	-155.818561	-0.558862	-155.818561	-20.579985	-51.700068
9.500000	-20.345436	-53.090050	-0.568333	-156.692723	-0.568333	-156.692723	-20.335223	-52.822515
9.550000	-20.108195	-54.190536	-0.577929	-157.567059	-0.577929	-157.567059	-20.098348	-53.927882
9.600000	-19.878525	-55.275353	-0.587647	-158.441553	-0.587647	-158.441553	-19.869015	-55.017315
9.650000	-19.656102	-56.345502	-0.597488	-159.316187	-0.597488	-159.316187	-19.646905	-56.091835
9.700000	-19.440627	-57.401874	-0.607449	-160.190947	-0.607449	-160.190947	-19.431720	-57.152349
9.750000	-19.231820	-58.445260	-0.617529	-161.065814	-0.617529	-161.065814	-19.223182	-58.199663
9.800000	-19.029420	-59.476367	-0.627726	-161.940774	-0.627726	-161.940774	-19.021031	-59.234497
9.850000	-18.833183	-60.495823	-0.638037	-162.815810	-0.638037	-162.815810	-18.825026	-60.257493
9.900000	-18.642881	-61.504191	-0.648463	-163.690908	-0.648463	-163.690908	-18.634939	-61.269226
9.950000	-18.458299	-62.501971	-0.658999	-164.566051	-0.658999	-164.566051	-18.450557	-62.270207
10.000000	-18.279236	-63.489613	-0.669645	-165.441225	-0.669645	-165.441225	-18.271680	-63.260894
