! freq	dB(S11)	phase(S11)	dB(S12)	phase(S12)	
!     	dB(S21)	phase(S21)	dB(S22)	phase(S22)	
!S-par simulation data
#  GHz  S  DB  R 50
0.000000	0.000000	-0.000000	-232.014155	180.000000	-232.014155	180.000000	0.000000	0.000000
0.050000	-0.000110	-0.889850	-62.350304	88.680450	-62.350304	88.680450	-0.000110	-0.889983
0.100000	-0.000435	-1.779442	-56.372332	87.507725	-56.372332	87.507725	-0.000435	-1.779708
0.150000	-0.000963	-2.668534	-52.896893	86.498453	-52.896893	86.498453	-0.000963	-2.668933
0.200000	-0.001675	-3.556924	-50.437701	85.595043	-50.437701	85.595043	-0.001675	-3.557457
0.250000	-0.002560	-4.444379	-48.531035	84.746677	-48.531035	84.746677	-0.002560	-4.445045
0.300000	-0.003577	-5.330847	-46.971674	83.917070	-46.971674	83.917070	-0.003577	-5.331646
0.350000	-0.004710	-6.216195	-45.652082	83.093215	-45.652082	83.093215	-0.004709	-6.217128
0.400000	-0.005933	-7.100363	-44.508235	82.268121	-44.508235	82.268121	-0.005933	-7.101429
0.450000	-0.007225	-7.983318	-43.498972	81.439152	-43.498972	81.439152	-0.007225	-7.984518
0.500000	-0.008566	-8.865052	-42.596204	80.605654	-42.596204	80.605654	-0.008566	-8.866386
0.550000	-0.009940	-9.745577	-41.779878	79.767826	-41.779878	79.767826	-0.009940	-9.747044
0.600000	-0.011331	-10.624912	-41.035164	78.926185	-41.035164	78.926185	-0.011331	-10.626512
0.650000	-0.012730	-11.503085	-40.350775	78.081339	-40.350775	78.081339	-0.012731	-11.504818
0.700000	-0.014128	-12.380124	-39.717920	77.233884	-39.717920	77.233884	-0.014129	-12.381990
0.750000	-0.015520	-13.256059	-39.129617	76.384363	-39.129617	76.384363	-0.015521	-13.258057
0.800000	-0.016900	-14.130913	-38.580224	75.533261	-38.580224	75.533261	-0.016901	-14.133043
0.850000	-0.018267	-15.004707	-38.065120	74.681003	-38.065120	74.681003	-0.018268	-15.006968
0.900000	-0.019619	-15.877456	-37.580470	73.827959	-37.580470	73.827959	-0.019620	-15.879848
0.950000	-0.020955	-16.749169	-37.123058	72.974453	-37.123058	72.974453	-0.020956	-16.751692
1.000000	-0.022276	-17.619851	-36.690157	72.120770	-36.690157	72.120770	-0.022278	-17.622504
1.050000	-0.023582	-18.489501	-36.279438	71.267160	-36.279438	71.267160	-0.023584	-18.492285
1.100000	-0.024875	-19.358116	-35.888893	70.413846	-35.888893	70.413846	-0.024877	-19.361029
1.150000	-0.026156	-20.225685	-35.516782	69.561028	-35.516782	69.561028	-0.026158	-20.228728
1.200000	-0.027425	-21.092197	-35.161582	68.708885	-35.161582	68.708885	-0.027428	-21.095369
1.250000	-0.028685	-21.957637	-34.821959	67.857579	-34.821959	67.857579	-0.028688	-21.960938
1.300000	-0.029936	-22.821939	-34.496804	67.007307	-34.496804	67.007307	-0.029939	-22.825368
1.350000	-0.031180	-23.685130	-34.184995	66.158167	-34.184995	66.158167	-0.031183	-23.688687
1.400000	-0.032418	-24.547190	-33.885598	65.310284	-33.885598	65.310284	-0.032421	-24.550875
1.450000	-0.033651	-25.408096	-33.597775	64.463773	-33.597775	64.463773	-0.033654	-25.411908
1.500000	-0.034880	-26.267824	-33.320772	63.618740	-33.320772	63.618740	-0.034884	-26.271763
1.550000	-0.036107	-27.126352	-33.053909	62.775288	-33.053909	62.775288	-0.036111	-27.130418
1.600000	-0.037331	-27.983654	-32.796570	61.933511	-32.796570	61.933511	-0.037335	-27.987846
1.650000	-0.038554	-28.839708	-32.548193	61.093498	-32.548193	61.093498	-0.038558	-28.844026
1.700000	-0.039777	-29.694487	-32.308268	60.255334	-32.308268	60.255334	-0.039781	-29.698931
1.750000	-0.040999	-30.547968	-32.076326	59.419100	-32.076326	59.419100	-0.041004	-30.552537
1.800000	-0.042222	-31.400126	-31.851940	58.584872	-31.851940	58.584872	-0.042227	-31.404820
1.850000	-0.043446	-32.250938	-31.634715	57.752724	-31.634715	57.752724	-0.043451	-32.255756
1.900000	-0.044672	-33.100379	-31.424287	56.922725	-31.424287	56.922725	-0.044676	-33.105322
1.950000	-0.045899	-33.948426	-31.220320	56.094943	-31.220320	56.094943	-0.045904	-33.953493
2.000000	-0.047129	-34.795057	-31.022503	55.269441	-31.022503	55.269441	-0.047134	-34.800246
2.050000	-0.048361	-35.640248	-30.830547	54.446282	-30.830547	54.446282	-0.048366	-35.645560
2.100000	-0.049595	-36.483977	-30.644184	53.625525	-30.644184	53.625525	-0.049601	-36.489412
2.150000	-0.050833	-37.326223	-30.463162	52.807226	-30.463162	52.807226	-0.050839	-37.331781
2.200000	-0.052075	-38.166966	-30.287249	51.991441	-30.287249	51.991441	-0.052080	-38.172645
2.250000	-0.053320	-39.006184	-30.116224	51.178223	-30.116224	51.178223	-0.053326	-39.011984
2.300000	-0.054569	-39.843857	-29.949884	50.367622	-29.949884	50.367622	-0.054575	-39.849778
2.350000	-0.055822	-40.679967	-29.788036	49.559688	-29.788036	49.559688	-0.055828	-40.686009
2.400000	-0.057080	-41.514494	-29.630500	48.754468	-29.630500	48.754468	-0.057086	-41.520656
2.450000	-0.058342	-42.347421	-29.477104	47.952007	-29.477104	47.952007	-0.058348	-42.353703
2.500000	-0.059609	-43.178730	-29.327688	47.152351	-29.327688	47.152351	-0.059615	-43.185131
2.550000	-0.060881	-44.008332	-29.182158	46.355668	-29.182158	46.355668	-0.060888	-44.014852
2.600000	-0.062159	-44.836282	-29.040312	45.561875	-29.040312	45.561875	-0.062166	-44.842920
2.650000	-0.063442	-45.662562	-28.902014	44.771013	-28.902014	44.771013	-0.063449	-45.669319
2.700000	-0.064732	-46.487160	-28.767134	43.983119	-28.767134	43.983119	-0.064739	-46.494034
2.750000	-0.066027	-47.310060	-28.635552	43.198231	-28.635552	43.198231	-0.066034	-47.317051
2.800000	-0.067329	-48.131248	-28.507151	42.416382	-28.507151	42.416382	-0.067336	-48.138356
2.850000	-0.068638	-48.950711	-28.381820	41.637608	-28.381820	41.637608	-0.068645	-48.957935
2.900000	-0.069954	-49.768436	-28.259453	40.861941	-28.259453	40.861941	-0.069961	-49.775776
2.950000	-0.071277	-50.584412	-28.139952	40.089412	-28.139952	40.089412	-0.071284	-50.591867
3.000000	-0.072607	-51.398627	-28.023218	39.320052	-28.023218	39.320052	-0.072615	-51.406197
3.050000	-0.073946	-52.211069	-27.909162	38.553889	-27.909162	38.553889	-0.073954	-52.218754
3.100000	-0.075293	-53.021729	-27.797694	37.790950	-27.797694	37.790950	-0.075301	-53.029529
3.150000	-0.076648	-53.830597	-27.688732	37.031264	-27.688732	37.031264	-0.076657	-53.838510
3.200000	-0.078013	-54.637664	-27.582195	36.274854	-27.582195	36.274854	-0.078021	-54.645691
3.250000	-0.079386	-55.442922	-27.478004	35.521746	-27.478004	35.521746	-0.079395	-55.451061
3.300000	-0.080769	-56.246361	-27.376087	34.771962	-27.376087	34.771962	-0.080778	-56.254613
3.350000	-0.082164	-57.047656	-27.276547	34.026114	-27.276547	34.026114	-0.082173	-57.056020
3.400000	-0.083570	-57.847039	-27.179179	33.283780	-27.179179	33.283780	-0.083579	-57.855515
3.450000	-0.084982	-58.645461	-27.083401	32.543221	-27.083401	32.543221	-0.084991	-58.654048
3.500000	-0.086411	-59.440999	-26.990179	31.807987	-26.990179	31.807987	-0.086420	-59.449697
3.550000	-0.087844	-60.235893	-26.898273	31.073949	-26.898273	31.073949	-0.087853	-60.244701
3.600000	-0.089297	-61.027564	-26.808944	30.345891	-26.808944	30.345891	-0.089307	-61.036482
3.650000	-0.090753	-61.818911	-26.720680	29.618438	-26.720680	29.618438	-0.090763	-61.827940
3.700000	-0.092232	-62.606699	-26.635008	28.897623	-26.635008	28.897623	-0.092243	-62.615837
3.750000	-0.093712	-63.394486	-26.550172	28.176809	-26.550172	28.176809	-0.093723	-63.403733
3.800000	-0.095220	-64.178379	-26.467934	27.463296	-26.467934	27.463296	-0.095231	-64.187735
3.850000	-0.096728	-64.962272	-26.386467	26.749783	-26.386467	26.749783	-0.096740	-64.971736
3.900000	-0.098264	-65.742588	-26.307313	26.043007	-26.307313	26.043007	-0.098275	-65.752160
3.950000	-0.099802	-66.522579	-26.229013	25.336844	-26.229013	25.336844	-0.099814	-66.532259
4.000000	-0.101366	-67.299318	-26.152759	24.636837	-26.152759	24.636837	-0.101378	-67.309105
4.050000	-0.102936	-68.075405	-26.077436	23.938062	-26.077436	23.938062	-0.102949	-68.085300
4.100000	-0.104531	-68.848568	-26.003911	23.244851	-26.003911	23.244851	-0.104544	-68.858569
4.150000	-0.106135	-69.620756	-25.931383	22.553495	-25.931383	22.553495	-0.106148	-69.630864
4.200000	-0.107762	-70.390349	-25.860423	21.867099	-25.860423	21.867099	-0.107775	-70.400563
4.250000	-0.109401	-71.158645	-25.790519	21.183182	-25.790519	21.183182	-0.109415	-71.168964
4.300000	-0.111062	-71.924677	-25.721971	20.503612	-25.721971	20.503612	-0.111076	-71.935102
4.350000	-0.112739	-72.689093	-25.654527	19.827146	-25.654527	19.827146	-0.112753	-72.699623
4.400000	-0.114436	-73.451577	-25.588245	19.154407	-25.588245	19.154407	-0.114450	-73.462212
4.450000	-0.116152	-74.212130	-25.523104	18.485394	-25.523104	18.485394	-0.116166	-74.222870
4.500000	-0.117885	-74.971082	-25.458950	17.819483	-25.458950	17.819483	-0.117900	-74.981927
4.550000	-0.119643	-75.727793	-25.395964	17.157915	-25.395964	17.157915	-0.119658	-75.738743
4.600000	-0.121415	-76.483233	-25.333804	16.498823	-25.333804	16.498823	-0.121430	-76.494286
4.650000	-0.123216	-77.236129	-25.272829	15.844682	-25.272829	15.844682	-0.123232	-77.247286
4.700000	-0.125028	-77.988078	-25.212538	15.192391	-25.212538	15.192391	-0.125045	-77.999339
4.750000	-0.126875	-78.737188	-25.153436	14.545649	-25.153436	14.545649	-0.126891	-78.748553
4.800000	-0.128729	-79.485673	-25.094893	13.900133	-25.094893	13.900133	-0.128746	-79.497141
4.850000	-0.130623	-80.231032	-25.037532	13.260751	-25.037532	13.260751	-0.130640	-80.242604
4.900000	-0.132521	-80.976081	-24.980620	12.621977	-24.980620	12.621977	-0.132538	-80.987756
4.950000	-0.134463	-81.717727	-24.924872	11.989904	-24.924872	11.989904	-0.134481	-81.729505
5.000000	-0.136407	-82.459373	-24.869479	11.357831	-24.869479	11.357831	-0.136425	-82.471254
5.050000	-0.138401	-83.197348	-24.815221	10.733005	-24.815221	10.733005	-0.138420	-83.209332
5.100000	-0.140395	-83.935323	-24.761300	10.108179	-24.761300	10.108179	-0.140415	-83.947409
5.150000	-0.142439	-84.669976	-24.708353	9.489929	-24.708353	9.489929	-0.142458	-84.682165
5.200000	-0.144486	-85.404326	-24.655786	8.872276	-24.655786	8.872276	-0.144507	-85.416618
5.250000	-0.146580	-86.135698	-24.604049	8.260529	-24.604049	8.260529	-0.146601	-86.148092
5.300000	-0.148683	-86.866474	-24.552721	7.649963	-24.552721	7.649963	-0.148704	-86.878970
5.350000	-0.150829	-87.594609	-24.502096	7.044636	-24.502096	7.044636	-0.150851	-87.607208
5.400000	-0.152990	-88.321864	-24.451897	6.441056	-24.451897	6.441056	-0.153012	-88.334565
5.450000	-0.155190	-89.046809	-24.402288	5.842058	-24.402288	5.842058	-0.155212	-89.059613
5.500000	-0.157409	-89.770600	-24.353111	5.245350	-24.353111	5.245350	-0.157432	-89.783506
5.550000	-0.159665	-90.492406	-24.304427	4.652576	-24.304427	4.652576	-0.159688	-90.505414
5.600000	-0.161946	-91.212794	-24.256167	4.062611	-24.256167	4.062611	-0.161970	-91.225905
5.650000	-0.164259	-91.931512	-24.208318	3.475946	-24.208318	3.475946	-0.164283	-91.944725
5.700000	-0.166603	-92.648561	-24.160875	2.892581	-24.160875	2.892581	-0.166628	-92.661877
5.750000	-0.168975	-93.364246	-24.113776	2.311899	-24.113776	2.311899	-0.169000	-93.377665
5.800000	-0.171385	-94.078023	-24.067050	1.734974	-24.067050	1.734974	-0.171411	-94.091545
5.850000	-0.173817	-94.790733	-24.020617	1.160136	-24.020617	1.160136	-0.173844	-94.804357
5.900000	-0.176294	-95.501308	-23.974514	0.589475	-23.974514	0.589475	-0.176321	-95.515036
5.950000	-0.178789	-96.211102	-23.928665	0.020332	-23.928665	0.020332	-0.178817	-96.224933
6.000000	-0.181336	-96.918551	-23.883091	-0.544258	-23.883091	-0.544258	-0.181364	-96.932485
6.050000	-0.183894	-97.625490	-23.837750	-1.107870	-23.837750	-1.107870	-0.183923	-97.639528
6.100000	-0.186512	-98.329888	-23.792615	-1.666598	-23.792615	-1.666598	-0.186541	-98.344030
6.150000	-0.189137	-99.034038	-23.747705	-2.224857	-23.747705	-2.224857	-0.189166	-99.048284
6.200000	-0.191828	-99.735465	-23.702923	-2.777950	-23.702923	-2.777950	-0.191858	-99.749815
6.250000	-0.194520	-100.436891	-23.658371	-3.331043	-23.658371	-3.331043	-0.194551	-100.451346
6.300000	-0.197286	-101.135430	-23.613858	-3.878747	-23.613858	-3.878747	-0.197318	-101.149989
6.350000	-0.200053	-101.833968	-23.569572	-4.426451	-23.569572	-4.426451	-0.200086	-101.848632
6.400000	-0.202891	-102.529937	-23.525268	-4.969455	-23.525268	-4.969455	-0.202924	-102.544707
6.450000	-0.205736	-103.225672	-23.481168	-5.512031	-23.481168	-5.512031	-0.205769	-103.240547
6.500000	-0.208646	-103.919145	-23.437009	-6.050568	-23.437009	-6.050568	-0.208680	-103.934127
6.550000	-0.211570	-104.612166	-23.393017	-6.588298	-23.393017	-6.588298	-0.211605	-104.627253
6.600000	-0.214554	-105.303218	-23.348941	-7.122615	-23.348941	-7.122615	-0.214590	-105.318413
6.650000	-0.217560	-105.993615	-23.304985	-7.655794	-23.304985	-7.655794	-0.217596	-106.008917
6.700000	-0.220621	-106.682325	-23.260932	-8.186150	-23.260932	-8.186150	-0.220658	-106.697734
6.750000	-0.223710	-107.370191	-23.216941	-8.715093	-23.216941	-8.715093	-0.223747	-107.385708
6.800000	-0.226848	-108.056637	-23.172855	-9.241758	-23.172855	-9.241758	-0.226886	-108.072263
6.850000	-0.230022	-108.742069	-23.128764	-9.766796	-23.128764	-9.766796	-0.230062	-108.757804
6.900000	-0.233240	-109.426333	-23.084591	-10.290053	-23.084591	-10.290053	-0.233280	-109.442177
6.950000	-0.236502	-110.109430	-23.040338	-10.811530	-23.040338	-10.811530	-0.236543	-110.125383
7.000000	-0.239801	-110.791595	-22.996030	-11.331672	-22.996030	-11.331672	-0.239843	-110.807659
7.050000	-0.243152	-111.472456	-22.951556	-11.849947	-22.951556	-11.849947	-0.243195	-111.488632
7.100000	-0.246534	-112.152608	-22.907065	-12.367277	-22.907065	-12.367277	-0.246577	-112.168894
7.150000	-0.249977	-112.831338	-22.862317	-12.882720	-22.862317	-12.882720	-0.250021	-112.847737
7.200000	-0.253444	-113.509563	-22.817602	-13.397550	-22.817602	-13.397550	-0.253488	-113.526074
7.250000	-0.256980	-114.186268	-22.772529	-13.910542	-22.772529	-13.910542	-0.257025	-114.202893
7.300000	-0.260532	-114.862654	-22.727550	-14.423191	-22.727550	-14.423191	-0.260579	-114.879393
7.350000	-0.264164	-115.537443	-22.682109	-14.934122	-22.682109	-14.934122	-0.264211	-115.554297
7.400000	-0.267804	-116.212082	-22.636831	-15.444915	-22.636831	-15.444915	-0.267852	-116.229050
7.450000	-0.271533	-116.885064	-22.590981	-15.954182	-22.590981	-15.954182	-0.271582	-116.902149
7.500000	-0.275263	-117.558047	-22.545372	-16.463449	-22.545372	-16.463449	-0.275313	-117.575249
7.550000	-0.279092	-118.229337	-22.499078	-16.971451	-22.499078	-16.971451	-0.279142	-118.246657
7.600000	-0.282921	-118.900627	-22.453030	-17.479453	-22.453030	-17.479453	-0.282973	-118.918065
7.650000	-0.286843	-119.570471	-22.406342	-17.986663	-22.406342	-17.986663	-0.286895	-119.588028
7.700000	-0.290774	-120.240183	-22.359824	-18.493801	-22.359824	-18.493801	-0.290827	-120.257860
7.750000	-0.294790	-120.908680	-22.312722	-19.000552	-22.312722	-19.000552	-0.294844	-120.926477
7.800000	-0.298824	-121.576932	-22.265709	-19.507226	-22.265709	-19.507226	-0.298880	-121.594852
7.850000	-0.302937	-122.244180	-22.218178	-20.013848	-22.218178	-20.013848	-0.302993	-122.262222
7.900000	-0.307077	-122.911093	-22.170649	-20.520453	-22.170649	-20.520453	-0.307134	-122.929259
7.950000	-0.311288	-123.577195	-22.122676	-21.027270	-22.122676	-21.027270	-0.311346	-123.595485
8.000000	-0.315535	-124.242891	-22.074616	-21.534194	-22.074616	-21.534194	-0.315594	-124.261306
8.050000	-0.319845	-124.907949	-22.026192	-22.041525	-22.026192	-22.041525	-0.319905	-124.926492
8.100000	-0.324202	-125.572553	-21.977590	-22.549147	-21.977590	-22.549147	-0.324263	-125.591223
8.150000	-0.328614	-126.236674	-21.928709	-23.057300	-21.928709	-23.057300	-0.328676	-126.255472
8.200000	-0.333081	-126.900312	-21.879557	-23.565985	-21.879557	-23.565985	-0.333144	-126.919240
8.250000	-0.337596	-127.563602	-21.830218	-24.075258	-21.830218	-24.075258	-0.337661	-127.582660
8.300000	-0.342177	-128.226404	-21.780513	-24.585357	-21.780513	-24.585357	-0.342242	-128.245595
8.350000	-0.346797	-128.888972	-21.730716	-25.096037	-21.730716	-25.096037	-0.346863	-128.908295
8.400000	-0.351492	-129.551071	-21.680458	-25.607882	-21.680458	-25.607882	-0.351560	-129.570529
8.450000	-0.356218	-130.213027	-21.630207	-26.120241	-21.630207	-26.120241	-0.356287	-130.232620
8.500000	-0.361031	-130.874557	-21.579400	-26.634146	-21.579400	-26.634146	-0.361100	-130.894286
8.550000	-0.365865	-131.536014	-21.528700	-27.148442	-21.528700	-27.148442	-0.365935	-131.555881
8.600000	-0.370796	-132.197111	-21.477352	-27.664697	-21.477352	-27.664697	-0.370868	-132.217118
8.650000	-0.375739	-132.858183	-21.426210	-28.181171	-21.426210	-28.181171	-0.375812	-132.878330
8.700000	-0.380791	-133.518987	-21.374329	-28.700046	-21.374329	-28.700046	-0.380865	-133.539277
8.750000	-0.385845	-134.179791	-21.322757	-29.218921	-21.322757	-29.218921	-0.385920	-134.200223
8.800000	-0.391019	-134.840444	-21.270354	-29.740659	-21.270354	-29.740659	-0.391095	-134.861021
8.850000	-0.396196	-135.501097	-21.218266	-30.262397	-21.218266	-30.262397	-0.396273	-135.521820
8.900000	-0.401484	-136.161744	-21.165450	-30.786962	-21.165450	-30.786962	-0.401563	-136.182615
8.950000	-0.406785	-136.822391	-21.112860	-31.311783	-21.112860	-31.311783	-0.406865	-136.843410
9.000000	-0.412188	-137.483155	-21.059644	-31.839335	-21.059644	-31.839335	-0.412270	-137.504325
9.050000	-0.417615	-138.143943	-21.006564	-32.367433	-21.006564	-32.367433	-0.417698	-138.165265
9.100000	-0.423136	-138.804949	-20.952961	-32.898115	-20.952961	-32.898115	-0.423220	-138.826425
9.150000	-0.428690	-139.466027	-20.899406	-33.429658	-20.899406	-33.429658	-0.428775	-139.487659
9.200000	-0.434329	-140.127402	-20.845430	-33.963595	-20.845430	-33.963595	-0.434416	-140.149191
9.250000	-0.440013	-140.788925	-20.791414	-34.498728	-20.791414	-34.498728	-0.440100	-140.810873
9.300000	-0.445772	-141.450798	-20.737077	-35.036025	-20.737077	-35.036025	-0.445861	-141.472907
9.350000	-0.451586	-142.112921	-20.682614	-35.574868	-20.682614	-35.574868	-0.451676	-142.135192
9.400000	-0.457467	-142.775423	-20.627929	-36.115616	-20.627929	-36.115616	-0.457558	-142.797858
9.450000	-0.463413	-143.438305	-20.573030	-36.658267	-20.573030	-36.658267	-0.463506	-143.460906
9.500000	-0.469416	-144.101571	-20.518009	-37.202537	-20.518009	-37.202537	-0.469510	-144.124340
9.550000	-0.475496	-144.765373	-20.462686	-37.749074	-20.462686	-37.749074	-0.475591	-144.788312
9.600000	-0.481623	-145.429538	-20.407339	-38.296925	-20.407339	-38.296925	-0.481719	-145.452648
9.650000	-0.487838	-146.094427	-20.351600	-38.847406	-20.351600	-38.847406	-0.487936	-146.117711
9.700000	-0.494089	-146.759629	-20.295935	-39.398882	-20.295935	-39.398882	-0.494189	-146.783089
9.750000	-0.500441	-147.425772	-20.239787	-39.953348	-20.239787	-39.953348	-0.500542	-147.449410
9.800000	-0.506818	-148.092153	-20.183811	-40.508483	-20.183811	-40.508483	-0.506921	-148.115970
9.850000	-0.513308	-148.759722	-20.127259	-41.066962	-20.127259	-41.066962	-0.513411	-148.783722
9.900000	-0.519812	-149.427425	-20.070977	-41.625776	-20.070977	-41.625776	-0.519917	-149.451608
9.950000	-0.526440	-150.096595	-20.014021	-42.188284	-20.014021	-42.188284	-0.526547	-150.120966
10.000000	-0.533073	-150.765766	-19.957436	-42.750792	-19.957436	-42.750792	-0.533181	-150.790325
