! freq	dB(S11)	phase(S11)	dB(S12)	phase(S12)	
!     	dB(S21)	phase(S21)	dB(S22)	phase(S22)	
!S-par simulation data
#  GHz  S  DB  R 50
0.000000	-0.000000	0.000000	-326.600315	0.000000	-326.600315	0.000000	-0.000000	0.000000
0.050000	-0.000129	-1.078590	-63.168408	88.885535	-63.168408	88.885535	-0.000100	-0.765634
0.100000	-0.000513	-2.156866	-57.162438	87.799966	-57.162438	87.799966	-0.000395	-1.531029
0.150000	-0.001137	-3.234530	-53.661004	86.759478	-53.661004	86.759478	-0.000872	-2.295966
0.200000	-0.001980	-4.311329	-51.184766	85.764978	-51.184766	85.764978	-0.001514	-3.060265
0.250000	-0.003031	-5.386966	-49.269459	84.811081	-49.269459	84.811081	-0.002307	-3.823723
0.300000	-0.004243	-6.461362	-47.706909	83.883686	-47.706909	83.883686	-0.003213	-4.586307
0.350000	-0.005596	-7.534333	-46.387331	82.975283	-46.387331	82.975283	-0.004216	-5.347914
0.400000	-0.007064	-8.605781	-45.245194	82.078785	-45.245194	82.078785	-0.005292	-6.108508
0.450000	-0.008619	-9.675640	-44.238454	81.189296	-44.238454	81.189296	-0.006422	-6.868081
0.500000	-0.010237	-10.743874	-43.338540	80.303649	-43.338540	80.303649	-0.007588	-7.626644
0.550000	-0.011899	-11.810471	-42.525154	79.419897	-42.525154	79.419897	-0.008776	-8.384224
0.600000	-0.013586	-12.875431	-41.783351	78.536905	-41.783351	78.536905	-0.009975	-9.140855
0.650000	-0.015285	-13.938766	-41.101798	77.654058	-41.101798	77.654058	-0.011175	-9.896572
0.700000	-0.016985	-15.000493	-40.471692	76.771067	-40.471692	76.771067	-0.012372	-10.651412
0.750000	-0.018677	-16.060626	-39.886058	75.887839	-39.886058	75.887839	-0.013559	-11.405408
0.800000	-0.020355	-17.119181	-39.339269	75.004404	-39.339269	75.004404	-0.014736	-12.158588
0.850000	-0.022016	-18.176170	-38.826720	74.120859	-38.826720	74.120859	-0.015900	-12.910974
0.900000	-0.023656	-19.231596	-38.344593	73.237339	-38.344593	73.237339	-0.017052	-13.662583
0.950000	-0.025275	-20.285462	-37.889685	72.353999	-37.889685	72.353999	-0.018190	-14.413427
1.000000	-0.026872	-21.337763	-37.459284	71.471001	-37.459284	71.471001	-0.019317	-15.163512
1.050000	-0.028448	-22.388487	-37.051073	70.588507	-37.051073	70.588507	-0.020433	-15.912842
1.100000	-0.030003	-23.437620	-36.663055	69.706678	-36.663055	69.706678	-0.021538	-16.661413
1.150000	-0.031539	-24.485142	-36.293496	68.825667	-36.293496	68.825667	-0.022635	-17.409221
1.200000	-0.033057	-25.531030	-35.940884	67.945622	-35.940884	67.945622	-0.023724	-18.156257
1.250000	-0.034559	-26.575258	-35.603888	67.066683	-35.603888	67.066683	-0.024806	-18.902511
1.300000	-0.036045	-27.617721	-35.281417	66.189044	-35.281417	66.189044	-0.025883	-19.647936
1.350000	-0.037519	-28.658459	-34.972342	65.312783	-34.972342	65.312783	-0.026955	-20.392551
1.400000	-0.038981	-29.697439	-34.675733	64.438021	-34.675733	64.438021	-0.028024	-21.136340
1.450000	-0.040433	-30.734627	-34.390755	63.564870	-34.390755	63.564870	-0.029090	-21.879289
1.500000	-0.041876	-31.769987	-34.116656	62.693440	-34.116656	62.693440	-0.030154	-22.621379
1.550000	-0.043312	-32.803483	-33.852759	61.823834	-33.852759	61.823834	-0.031217	-23.362594
1.600000	-0.044741	-33.835079	-33.598448	60.956152	-33.598448	60.956152	-0.032279	-24.102915
1.650000	-0.046166	-34.864739	-33.353165	60.090487	-33.353165	60.090487	-0.033340	-24.842326
1.700000	-0.047586	-35.892426	-33.116399	59.226932	-33.116399	59.226932	-0.034402	-25.580807
1.750000	-0.049002	-36.918106	-32.887684	58.365572	-32.887684	58.365572	-0.035464	-26.318340
1.800000	-0.050416	-37.941742	-32.666591	57.506491	-32.666591	57.506491	-0.036527	-27.054909
1.850000	-0.051829	-38.963301	-32.452727	56.649770	-32.452727	56.649770	-0.037592	-27.790495
1.900000	-0.053240	-39.982748	-32.245728	55.795486	-32.245728	55.795486	-0.038657	-28.525080
1.950000	-0.054650	-41.000051	-32.045259	54.943713	-32.045259	54.943713	-0.039725	-29.258646
2.000000	-0.056061	-42.015179	-31.851008	54.094524	-31.851008	54.094524	-0.040794	-29.991178
2.050000	-0.057472	-43.028099	-31.662686	53.247988	-31.662686	53.247988	-0.041866	-30.722657
2.100000	-0.058884	-44.038782	-31.480024	52.404171	-31.480024	52.404171	-0.042940	-31.453066
2.150000	-0.060298	-45.047199	-31.302772	51.563139	-31.302772	51.563139	-0.044016	-32.182390
2.200000	-0.061714	-46.053323	-31.130695	50.724953	-31.130695	50.724953	-0.045095	-32.910613
2.250000	-0.063132	-47.057127	-30.963574	49.889674	-30.963574	49.889674	-0.046177	-33.637718
2.300000	-0.064553	-48.058586	-30.801204	49.057361	-30.801204	49.057361	-0.047262	-34.363689
2.350000	-0.065978	-49.057674	-30.643391	48.228069	-30.643391	48.228069	-0.048350	-35.088513
2.400000	-0.067405	-50.054370	-30.489954	47.401853	-30.489954	47.401853	-0.049442	-35.812173
2.450000	-0.068837	-51.048651	-30.340723	46.578766	-30.340723	46.578766	-0.050537	-36.534655
2.500000	-0.070273	-52.040497	-30.195535	45.758859	-30.195535	45.758859	-0.051637	-37.255945
2.550000	-0.071714	-53.029780	-30.054303	44.942324	-30.054303	44.942324	-0.052740	-37.975975
2.600000	-0.073160	-54.016588	-29.916817	44.129069	-29.916817	44.129069	-0.053848	-38.694785
2.650000	-0.074611	-55.000905	-29.782940	43.319140	-29.782940	43.319140	-0.054960	-39.412361
2.700000	-0.076069	-55.982714	-29.652541	42.512581	-29.652541	42.512581	-0.056076	-40.128689
2.750000	-0.077532	-56.962001	-29.525497	41.709435	-29.525497	41.709435	-0.057198	-40.843757
2.800000	-0.079002	-57.938753	-29.401692	40.909742	-29.401692	40.909742	-0.058324	-41.557554
2.850000	-0.080479	-58.912957	-29.281013	40.113542	-29.281013	40.113542	-0.059456	-42.270066
2.900000	-0.081964	-59.884602	-29.163355	39.320873	-29.163355	39.320873	-0.060594	-42.981282
2.950000	-0.083456	-60.853678	-29.048615	38.531771	-29.048615	38.531771	-0.061737	-43.691191
3.000000	-0.084956	-61.820177	-28.936696	37.746271	-28.936696	37.746271	-0.062887	-44.399782
3.050000	-0.086466	-62.784091	-28.827506	36.964406	-28.827506	36.964406	-0.064043	-45.107044
3.100000	-0.087984	-63.745412	-28.720956	36.186210	-28.720956	36.186210	-0.065206	-45.812967
3.150000	-0.089512	-64.704137	-28.616960	35.411713	-28.616960	35.411713	-0.066375	-46.517541
3.200000	-0.091050	-65.660261	-28.515436	34.640943	-28.515436	34.640943	-0.067552	-47.220755
3.250000	-0.092598	-66.613779	-28.416307	33.873930	-28.416307	33.873930	-0.068736	-47.922602
3.300000	-0.094157	-67.564691	-28.319497	33.110701	-28.319497	33.110701	-0.069929	-48.623071
3.350000	-0.095728	-68.512994	-28.224932	32.351279	-28.224932	32.351279	-0.071129	-49.322153
3.400000	-0.097310	-69.458689	-28.132543	31.595691	-28.132543	31.595691	-0.072338	-50.019841
3.450000	-0.098905	-70.401778	-28.042263	30.843957	-28.042263	30.843957	-0.073555	-50.716127
3.500000	-0.100513	-71.342260	-27.954026	30.096101	-27.954026	30.096101	-0.074782	-51.411002
3.550000	-0.102134	-72.280141	-27.867769	29.352142	-27.867769	29.352142	-0.076018	-52.104459
3.600000	-0.103769	-73.215423	-27.783432	28.612100	-27.783432	28.612100	-0.077264	-52.796491
3.650000	-0.105418	-74.148112	-27.700957	27.875992	-27.700957	27.875992	-0.078520	-53.487092
3.700000	-0.107082	-75.078214	-27.620285	27.143834	-27.620285	27.143834	-0.079786	-54.176254
3.750000	-0.108761	-76.005735	-27.541362	26.415642	-27.541362	26.415642	-0.081063	-54.863972
3.800000	-0.110457	-76.930572	-27.464178	25.691604	-27.464178	25.691604	-0.082352	-55.550177
3.850000	-0.112169	-77.852846	-27.388635	24.971560	-27.388635	24.971560	-0.083652	-56.234926
3.900000	-0.113899	-78.772567	-27.314684	24.255520	-27.314684	24.255520	-0.084964	-56.918214
3.950000	-0.115646	-79.689745	-27.242276	23.543496	-27.242276	23.543496	-0.086288	-57.600035
4.000000	-0.117410	-80.604393	-27.171364	22.835496	-27.171364	22.835496	-0.087625	-58.280387
4.050000	-0.119194	-81.516522	-27.101900	22.131528	-27.101900	22.131528	-0.088975	-58.959264
4.100000	-0.120996	-82.426146	-27.033841	21.431598	-27.033841	21.431598	-0.090338	-59.636663
4.150000	-0.122818	-83.333279	-26.967142	20.735712	-26.967142	20.735712	-0.091714	-60.312580
4.200000	-0.124660	-84.237937	-26.901761	20.043873	-26.901761	20.043873	-0.093105	-60.987013
4.250000	-0.126522	-85.140134	-26.837655	19.356084	-26.837655	19.356084	-0.094510	-61.659958
4.300000	-0.128406	-86.039888	-26.774786	18.672347	-26.774786	18.672347	-0.095930	-62.331413
4.350000	-0.130311	-86.937216	-26.713112	17.992662	-26.713112	17.992662	-0.097365	-63.001375
4.400000	-0.132239	-87.832137	-26.652595	17.317028	-26.652595	17.317028	-0.098816	-63.669843
4.450000	-0.134189	-88.724668	-26.593197	16.645441	-26.593197	16.645441	-0.100283	-64.336816
4.500000	-0.136162	-89.614831	-26.534881	15.977900	-26.534881	15.977900	-0.101765	-65.002291
4.550000	-0.138159	-90.502646	-26.477611	15.314398	-26.477611	15.314398	-0.103265	-65.666268
4.600000	-0.140181	-91.388134	-26.421352	14.654929	-26.421352	14.654929	-0.104782	-66.328747
4.650000	-0.142227	-92.271316	-26.366067	13.999487	-26.366067	13.999487	-0.106316	-66.989727
4.700000	-0.144298	-93.152216	-26.311724	13.348061	-26.311724	13.348061	-0.107868	-67.649208
4.750000	-0.146395	-94.030857	-26.258289	12.700641	-26.258289	12.700641	-0.109438	-68.307190
4.800000	-0.148518	-94.907263	-26.205729	12.057216	-26.205729	12.057216	-0.111027	-68.963673
4.850000	-0.150668	-95.781459	-26.154011	11.417771	-26.154011	11.417771	-0.112635	-69.618660
4.900000	-0.152846	-96.653469	-26.103105	10.782294	-26.103105	10.782294	-0.114262	-70.272150
4.950000	-0.155051	-97.523321	-26.052979	10.150767	-26.052979	10.150767	-0.115910	-70.924146
5.000000	-0.157284	-98.391041	-26.003602	9.523172	-26.003602	9.523172	-0.117577	-71.574648
5.050000	-0.159547	-99.256566	-25.954963	8.899660	-25.954963	8.899660	-0.119266	-72.223595
5.100000	-0.161840	-100.120017	-25.907012	8.280038	-25.907012	8.280038	-0.120976	-72.871053
5.150000	-0.164162	-100.981422	-25.859719	7.664284	-25.859719	7.664284	-0.122708	-73.517025
5.200000	-0.166515	-101.840811	-25.813057	7.052374	-25.813057	7.052374	-0.124462	-74.161514
5.250000	-0.168898	-102.698213	-25.766997	6.444282	-25.766997	6.444282	-0.126237	-74.804524
5.300000	-0.171312	-103.553659	-25.721511	5.839979	-25.721511	5.839979	-0.128036	-75.446057
5.350000	-0.173758	-104.407180	-25.676572	5.239437	-25.676572	5.239437	-0.129858	-76.086117
5.400000	-0.176236	-105.258807	-25.632153	4.642624	-25.632153	4.642624	-0.131703	-76.724709
5.450000	-0.178758	-106.107941	-25.588312	4.050777	-25.588312	4.050777	-0.133581	-77.361328
5.500000	-0.181298	-106.956114	-25.544823	3.460846	-25.544823	3.460846	-0.135471	-77.997185
5.550000	-0.183878	-107.802118	-25.501814	2.875308	-25.501814	2.875308	-0.137392	-78.631273
5.600000	-0.186488	-108.646573	-25.459206	2.292908	-25.459206	2.292908	-0.139335	-79.264096
5.650000	-0.189133	-109.489242	-25.416986	1.714185	-25.416986	1.714185	-0.141304	-79.895415
5.700000	-0.191815	-110.330126	-25.375151	1.139139	-25.375151	1.139139	-0.143301	-80.525228
5.750000	-0.194528	-111.169587	-25.333629	0.567076	-25.333629	0.567076	-0.145321	-81.153798
5.800000	-0.197283	-112.007055	-25.292462	-0.000812	-25.292462	-0.000812	-0.147373	-81.780626
5.850000	-0.200065	-112.843436	-25.251550	-0.566386	-25.251550	-0.566386	-0.149445	-82.406467
5.900000	-0.202896	-113.677645	-25.210950	-1.127331	-25.210950	-1.127331	-0.151554	-83.030337
5.950000	-0.205748	-114.511080	-25.170562	-1.686600	-25.170562	-1.686600	-0.153679	-83.653474
6.000000	-0.208657	-115.342193	-25.130430	-2.240838	-25.130430	-2.240838	-0.155849	-84.274414
6.050000	-0.211581	-116.172818	-25.090483	-2.794001	-25.090483	-2.794001	-0.158028	-84.894871
6.100000	-0.214570	-117.001001	-25.050723	-3.341788	-25.050723	-3.341788	-0.160259	-85.512913
6.150000	-0.217566	-117.828954	-25.011137	-3.889061	-25.011137	-3.889061	-0.162495	-86.130716
6.200000	-0.220637	-118.654378	-24.971656	-4.430674	-24.971656	-4.430674	-0.164789	-86.745893
6.250000	-0.223708	-119.479802	-24.932354	-4.972287	-24.932354	-4.972287	-0.167083	-87.361070
6.300000	-0.226862	-120.302642	-24.893064	-5.508025	-24.893064	-5.508025	-0.169442	-87.973417
6.350000	-0.230016	-121.125481	-24.853950	-6.043763	-24.853950	-6.043763	-0.171801	-88.585764
6.400000	-0.233248	-121.946116	-24.814785	-6.574410	-24.814785	-6.574410	-0.174221	-89.195551
6.450000	-0.236487	-122.766549	-24.775775	-7.104593	-24.775775	-7.104593	-0.176647	-89.805105
6.500000	-0.239798	-123.585130	-24.736665	-7.630433	-24.736665	-7.630433	-0.179130	-90.412364
6.550000	-0.243124	-124.403340	-24.697677	-8.155404	-24.697677	-8.155404	-0.181625	-91.019164
6.600000	-0.246516	-125.220021	-24.658558	-8.676739	-24.658558	-8.676739	-0.184173	-91.623928
6.650000	-0.249930	-126.036193	-24.619513	-9.196862	-24.619513	-9.196862	-0.186738	-92.228014
6.700000	-0.253404	-126.851134	-24.580322	-9.714009	-24.580322	-9.714009	-0.189352	-92.830319
6.750000	-0.256909	-127.665458	-24.541148	-10.229669	-24.541148	-10.229669	-0.191990	-93.431733
6.800000	-0.260466	-128.478817	-24.501827	-10.742962	-24.501827	-10.742962	-0.194671	-94.031615
6.850000	-0.264062	-129.291487	-24.462454	-11.254564	-24.462454	-11.254564	-0.197384	-94.630401
6.900000	-0.267704	-130.103427	-24.422947	-11.764350	-24.422947	-11.764350	-0.200134	-95.227897
6.950000	-0.271393	-130.914639	-24.383311	-12.272319	-24.383311	-12.272319	-0.202923	-95.824101
7.000000	-0.275121	-131.725327	-24.343568	-12.778959	-24.343568	-12.778959	-0.205745	-96.419248
7.050000	-0.278905	-132.535282	-24.303608	-13.283738	-24.303608	-13.283738	-0.208612	-97.012917
7.100000	-0.282721	-133.344885	-24.263581	-13.787607	-24.263581	-13.787607	-0.211505	-97.605756
7.150000	-0.286601	-134.153786	-24.223243	-14.289654	-24.223243	-14.289654	-0.214452	-98.196938
7.200000	-0.290505	-134.962476	-24.182891	-14.791137	-24.182891	-14.791137	-0.217420	-98.787510
7.250000	-0.294483	-135.770531	-24.142126	-15.290925	-24.142126	-15.290925	-0.220449	-99.376254
7.300000	-0.298477	-136.578480	-24.101409	-15.790418	-24.101409	-15.790418	-0.223492	-99.964601
7.350000	-0.302554	-137.385901	-24.060174	-16.288431	-24.060174	-16.288431	-0.226605	-100.550959
7.400000	-0.306640	-138.193286	-24.019059	-16.786336	-24.019059	-16.786336	-0.229725	-101.137123
7.450000	-0.310816	-139.000286	-23.977316	-17.283066	-23.977316	-17.283066	-0.232923	-101.721149
7.500000	-0.314995	-139.807286	-23.935774	-17.779795	-23.935774	-17.779795	-0.236122	-102.305174
7.550000	-0.319273	-140.614083	-23.893493	-18.275737	-23.893493	-18.275737	-0.239408	-102.886920
7.600000	-0.323554	-141.420880	-23.851417	-18.771680	-23.851417	-18.771680	-0.242694	-103.468666
7.650000	-0.327927	-142.227695	-23.808654	-19.267357	-23.808654	-19.267357	-0.246061	-104.048374
7.700000	-0.332311	-143.034511	-23.766020	-19.763011	-23.766020	-19.763011	-0.249437	-104.627897
7.750000	-0.336780	-143.841530	-23.722762	-20.258838	-23.722762	-20.258838	-0.252888	-105.205614
7.800000	-0.341268	-144.648589	-23.679552	-20.754699	-23.679552	-20.754699	-0.256355	-105.782969
7.850000	-0.345834	-145.456003	-23.635790	-21.251082	-23.635790	-21.251082	-0.259890	-106.358743
7.900000	-0.350427	-146.263535	-23.591992	-21.747639	-23.591992	-21.747639	-0.263450	-106.933989
7.950000	-0.355091	-147.071537	-23.547721	-22.244980	-23.547721	-22.244980	-0.267072	-107.507869
8.000000	-0.359792	-147.879773	-23.503330	-22.742712	-23.503330	-22.742712	-0.270726	-108.081065
8.050000	-0.364555	-148.688557	-23.458551	-23.241399	-23.458551	-23.241399	-0.274436	-108.653101
8.100000	-0.369363	-149.497733	-23.413566	-23.740769	-23.413566	-23.740769	-0.278187	-109.224308
8.150000	-0.374226	-150.307498	-23.368285	-24.241179	-23.368285	-24.241179	-0.281987	-109.794551
8.200000	-0.379144	-151.117853	-23.322713	-24.742631	-23.322713	-24.742631	-0.285835	-110.363831
8.250000	-0.384107	-151.928800	-23.276938	-25.245126	-23.276938	-25.245126	-0.289726	-110.932333
8.300000	-0.389134	-152.740577	-23.230789	-25.749081	-23.230789	-25.749081	-0.293674	-111.499747
8.350000	-0.394200	-153.552910	-23.184534	-26.254002	-23.184534	-26.254002	-0.297657	-112.066560
8.400000	-0.399338	-154.366354	-23.137825	-26.760854	-23.137825	-26.760854	-0.301706	-112.632173
8.450000	-0.404505	-155.180279	-23.091105	-27.268522	-23.091105	-27.268522	-0.305783	-113.197352
8.500000	-0.409755	-155.995642	-23.043857	-27.778636	-23.043857	-27.778636	-0.309936	-113.761230
8.550000	-0.415026	-156.811367	-22.996692	-28.289349	-22.996692	-28.289349	-0.314107	-114.324828
8.600000	-0.420388	-157.628902	-22.948928	-28.803056	-22.948928	-28.803056	-0.318365	-114.887036
8.650000	-0.425762	-158.446640	-22.901341	-29.317087	-22.901341	-29.317087	-0.322633	-115.449110
8.700000	-0.431238	-159.266605	-22.853089	-29.834683	-22.853089	-29.834683	-0.326996	-116.009716
8.750000	-0.436716	-160.086571	-22.805103	-30.352279	-22.805103	-30.352279	-0.331362	-116.570321
8.800000	-0.442305	-160.909227	-22.756392	-30.874023	-22.756392	-30.874023	-0.335834	-117.129394
8.850000	-0.447897	-161.731884	-22.707953	-31.395767	-22.707953	-31.395767	-0.340307	-117.688466
8.900000	-0.453591	-162.557250	-22.658895	-31.921516	-22.658895	-31.921516	-0.344879	-118.246197
8.950000	-0.459298	-163.382863	-22.610032	-32.447629	-22.610032	-32.447629	-0.349463	-118.803806
9.000000	-0.465097	-164.211164	-22.560655	-32.977536	-22.560655	-32.977536	-0.354136	-119.360254
9.050000	-0.470918	-165.040003	-22.511401	-33.508202	-22.511401	-33.508202	-0.358830	-119.916471
9.100000	-0.476822	-165.871465	-22.461733	-34.042392	-22.461733	-34.042392	-0.363607	-120.471697
9.150000	-0.482758	-166.703801	-22.412118	-34.577756	-22.412118	-34.577756	-0.368414	-121.026594
9.200000	-0.488750	-167.538002	-22.362334	-35.115517	-22.362334	-35.115517	-0.373276	-121.580861
9.250000	-0.494807	-168.374358	-22.312333	-35.655992	-22.312333	-35.655992	-0.378203	-122.134435
9.300000	-0.500919	-169.212631	-22.262196	-36.198801	-22.262196	-36.198801	-0.383185	-122.687441
9.350000	-0.507085	-170.052885	-22.211931	-36.743957	-22.211931	-36.743957	-0.388222	-123.239895
9.400000	-0.513307	-170.895185	-22.161542	-37.291470	-22.161542	-37.291470	-0.393315	-123.791815
9.450000	-0.519583	-171.739598	-22.111037	-37.841346	-22.111037	-37.841346	-0.398464	-124.343219
9.500000	-0.525914	-172.586188	-22.060421	-38.393589	-22.060421	-38.393589	-0.403669	-124.894125
9.550000	-0.532299	-173.435022	-22.009699	-38.948198	-22.009699	-38.948198	-0.408930	-125.444549
9.600000	-0.538739	-174.286167	-21.958874	-39.505172	-21.958874	-39.505172	-0.414248	-125.994511
9.650000	-0.545233	-175.139690	-21.907953	-40.064506	-21.907953	-40.064506	-0.419624	-126.544028
9.700000	-0.551781	-175.995659	-21.856938	-40.626193	-21.856938	-40.626193	-0.425056	-127.093119
9.750000	-0.558382	-176.854141	-21.805832	-41.190224	-21.805832	-41.190224	-0.430546	-127.641802
9.800000	-0.565038	-177.715204	-21.754639	-41.756588	-21.754639	-41.756588	-0.436094	-128.190095
9.850000	-0.571746	-178.578917	-21.703361	-42.325273	-21.703361	-42.325273	-0.441700	-128.738018
9.900000	-0.578507	-179.445350	-21.651999	-42.896265	-21.651999	-42.896265	-0.447364	-129.285589
9.950000	-0.585321	179.685429	-21.600555	-43.469550	-21.600555	-43.469550	-0.453087	-129.832827
10.000000	-0.592187	178.813350	-21.549029	-44.045112	-21.549029	-44.045112	-0.458868	-130.379752
