! freq	dB(S11)	phase(S11)	dB(S12)	phase(S12)	
!     	dB(S21)	phase(S21)	dB(S22)	phase(S22)	
!S-par simulation data
#  GHz  S  DB  R 50
0.000000	-0.000000	0.000000	-370.870512	180.000000	-370.870512	180.000000	-0.000000	0.000000
0.050000	-0.000135	-1.248981	-72.933704	-143.988999	-72.933704	-143.988999	-0.000135	-1.248732
0.100000	-0.000537	-2.497647	-71.109077	-168.940019	-71.109077	-168.940019	-0.000537	-2.497149
0.150000	-0.001194	-3.745700	-70.718159	176.398922	-70.718159	176.398922	-0.001194	-3.744952
0.200000	-0.002086	-4.992877	-70.639713	165.439518	-70.639713	165.439518	-0.002086	-4.991880
0.250000	-0.003205	-6.238860	-70.684147	156.322597	-70.684147	156.322597	-0.003205	-6.237614
0.300000	-0.004507	-7.483550	-70.787725	148.169070	-70.787725	148.169070	-0.004506	-7.482055
0.350000	-0.005973	-8.726732	-70.936001	140.737414	-70.936001	140.737414	-0.005972	-8.724988
0.400000	-0.007576	-9.968271	-71.120506	133.866787	-71.120506	133.866787	-0.007575	-9.966280
0.450000	-0.009290	-11.208069	-71.337536	127.471773	-71.337536	127.471773	-0.009289	-11.205830
0.500000	-0.011090	-12.446055	-71.585699	121.503927	-71.585699	121.503927	-0.011088	-12.443570
0.550000	-0.012951	-13.682186	-71.864978	115.934522	-71.864978	115.934522	-0.012949	-13.679455
0.600000	-0.014855	-14.916438	-72.176340	110.746437	-72.176340	110.746437	-0.014851	-14.913461
0.650000	-0.016782	-16.148801	-72.521594	105.930435	-72.521594	105.930435	-0.016778	-16.145581
0.700000	-0.018719	-17.379278	-72.903345	101.483761	-72.903345	101.483761	-0.018715	-17.375815
0.750000	-0.020654	-18.607875	-73.325029	97.410171	-73.325029	97.410171	-0.020648	-18.604172
0.800000	-0.022576	-19.834605	-73.790990	93.721046	-73.790990	93.721046	-0.022570	-19.830662
0.850000	-0.024480	-21.059477	-74.306587	90.437577	-74.306587	90.437577	-0.024473	-21.055295
0.900000	-0.026359	-22.282501	-74.878334	87.594311	-74.878334	87.594311	-0.026351	-22.278083
0.950000	-0.028210	-23.503684	-75.514031	85.244650	-75.514031	85.244650	-0.028201	-23.499030
1.000000	-0.030031	-24.723027	-76.222813	83.469379	-76.222813	83.469379	-0.030022	-24.718140
1.050000	-0.031822	-25.940529	-77.014928	82.389977	-77.014928	82.389977	-0.031812	-25.935410
1.100000	-0.033582	-27.156185	-77.900784	82.189437	-77.900784	82.189437	-0.033571	-27.150835
1.150000	-0.035311	-28.369983	-78.888121	83.144126	-78.888121	83.144126	-0.035299	-28.364405
1.200000	-0.037012	-29.581909	-79.974661	85.668683	-79.974661	85.668683	-0.036999	-29.576104
1.250000	-0.038685	-30.791946	-81.130404	90.363495	-81.130404	90.363495	-0.038671	-30.785916
1.300000	-0.040331	-31.999988	-82.243170	98.154130	-82.243170	98.154130	-0.040317	-31.993734
1.350000	-0.041953	-33.206092	-83.087236	109.449007	-83.087236	109.449007	-0.041939	-33.199617
1.400000	-0.043555	-34.410234	-83.336905	123.444407	-83.336905	123.444407	-0.043539	-34.403539
1.450000	-0.045137	-35.612383	-82.812218	137.600416	-82.812218	137.600416	-0.045121	-35.605470
1.500000	-0.046701	-36.812511	-81.674770	149.423409	-81.674770	149.423409	-0.046685	-36.805382
1.550000	-0.048251	-38.010588	-80.241220	158.052776	-80.241220	158.052776	-0.048233	-38.003244
1.600000	-0.049787	-39.206581	-78.746994	163.856202	-78.746994	163.856202	-0.049769	-39.199024
1.650000	-0.051311	-40.400460	-77.306554	167.551809	-77.306554	167.551809	-0.051293	-40.392692
1.700000	-0.052826	-41.592192	-75.960134	169.770260	-75.960134	169.770260	-0.052808	-41.584216
1.750000	-0.054334	-42.781748	-74.714312	170.965535	-74.714312	170.965535	-0.054315	-42.773564
1.800000	-0.055835	-43.969095	-73.562879	171.445225	-73.562879	171.445225	-0.055815	-43.960706
1.850000	-0.057331	-45.154204	-72.495809	171.415820	-72.495809	171.415820	-0.057311	-45.145612
1.900000	-0.058823	-46.337046	-71.502770	171.017429	-71.502770	171.017429	-0.058803	-46.328252
1.950000	-0.060314	-47.517592	-70.574345	170.346815	-70.574345	170.346815	-0.060293	-47.508599
2.000000	-0.061804	-48.695815	-69.702357	169.472112	-69.702357	169.472112	-0.061783	-48.686626
2.050000	-0.063294	-49.871690	-68.879839	168.442203	-68.879839	168.442203	-0.063272	-49.862306
2.100000	-0.064785	-51.045193	-68.100894	167.292765	-68.100894	167.292765	-0.064764	-51.035615
2.150000	-0.066279	-52.216299	-67.360538	166.050240	-67.360538	166.050240	-0.066257	-52.206531
2.200000	-0.067776	-53.384989	-66.654545	164.734494	-66.654545	164.734494	-0.067753	-53.375031
2.250000	-0.069277	-54.551241	-65.979318	163.360626	-65.979318	163.360626	-0.069254	-54.541097
2.300000	-0.070783	-55.715039	-65.331782	161.940233	-65.331782	161.940233	-0.070760	-55.704710
2.350000	-0.072294	-56.876365	-64.709292	160.482291	-64.709292	160.482291	-0.072271	-56.865854
2.400000	-0.073812	-58.035205	-64.109563	158.993806	-64.109563	158.993806	-0.073788	-58.024514
2.450000	-0.075337	-59.191547	-63.530612	157.480272	-63.530612	157.480272	-0.075313	-59.180678
2.500000	-0.076869	-60.345378	-62.970708	155.946019	-62.970708	155.946019	-0.076845	-60.334333
2.550000	-0.078411	-61.496580	-62.427610	154.393847	-62.427610	154.393847	-0.078386	-61.485362
2.600000	-0.079960	-62.645255	-61.900768	152.827285	-61.900768	152.827285	-0.079936	-62.633866
2.650000	-0.081520	-63.791397	-61.388997	151.248427	-61.388997	151.248427	-0.081495	-63.779840
2.700000	-0.083089	-64.935003	-60.891247	149.658934	-60.891247	149.658934	-0.083064	-64.923280
2.750000	-0.084669	-66.076072	-60.406584	148.060130	-60.406584	148.060130	-0.084644	-66.064185
2.800000	-0.086260	-67.214604	-59.934176	146.453058	-59.934176	146.453058	-0.086234	-67.202555
2.850000	-0.087862	-68.350600	-59.473277	144.838546	-59.473277	144.838546	-0.087836	-68.338393
2.900000	-0.089476	-69.484064	-59.023220	143.217239	-59.023220	143.217239	-0.089450	-69.471701
2.950000	-0.091103	-70.615003	-58.583406	141.589641	-58.583406	141.589641	-0.091077	-70.602486
3.000000	-0.092743	-71.743424	-58.153294	139.956143	-58.153294	139.956143	-0.092716	-71.730755
3.050000	-0.094396	-72.869337	-57.732399	138.317043	-57.732399	138.317043	-0.094369	-72.856519
3.100000	-0.096063	-73.992751	-57.320281	136.672567	-57.320281	136.672567	-0.096035	-73.979787
3.150000	-0.097744	-75.113682	-56.916541	135.022886	-56.916541	135.022886	-0.097717	-75.100573
3.200000	-0.099440	-76.232142	-56.520821	133.368128	-56.520821	133.368128	-0.099413	-76.218892
3.250000	-0.101152	-77.348149	-56.132793	131.708388	-56.132793	131.708388	-0.101124	-77.334760
3.300000	-0.102880	-78.461720	-55.752163	130.043739	-55.752163	130.043739	-0.102851	-78.448195
3.350000	-0.104624	-79.572876	-55.378660	128.374240	-55.378660	128.374240	-0.104595	-79.559218
3.400000	-0.106385	-80.681638	-55.012042	126.699941	-55.012042	126.699941	-0.106356	-80.667849
3.450000	-0.108163	-81.788030	-54.652085	125.020890	-54.652085	125.020890	-0.108134	-81.774112
3.500000	-0.109959	-82.892075	-54.298588	123.337138	-54.298588	123.337138	-0.109930	-82.878032
3.550000	-0.111774	-83.993802	-53.951366	121.648740	-53.951366	121.648740	-0.111745	-83.979635
3.600000	-0.113608	-85.093237	-53.610251	119.955764	-53.610251	119.955764	-0.113578	-85.078950
3.650000	-0.115462	-86.190410	-53.275090	118.258289	-53.275090	118.258289	-0.115432	-86.176006
3.700000	-0.117336	-87.285354	-52.945742	116.556410	-52.945742	116.556410	-0.117306	-87.270835
3.750000	-0.119231	-88.378100	-52.622080	114.850239	-52.622080	114.850239	-0.119200	-88.363468
3.800000	-0.121148	-89.468590	-52.303725	113.139733	-52.303725	113.139733	-0.121117	-89.453849
3.850000	-0.123087	-90.556956	-51.990854	111.425234	-51.990854	111.425234	-0.123057	-90.542109
3.900000	-0.125050	-91.643236	-51.683366	109.706917	-51.683366	109.706917	-0.125019	-91.628285
3.950000	-0.127035	-92.727468	-51.381167	107.984980	-51.381167	107.984980	-0.127004	-92.712417
4.000000	-0.129045	-93.809693	-51.084169	106.259645	-51.084169	106.259645	-0.129013	-93.794543
4.050000	-0.131079	-94.889953	-50.792291	104.531153	-50.792291	104.531153	-0.131048	-94.874707
4.100000	-0.133139	-95.968290	-50.505454	102.799769	-50.505454	102.799769	-0.133107	-95.952952
4.150000	-0.135225	-97.044749	-50.223584	101.065782	-50.223584	101.065782	-0.135193	-97.029322
4.200000	-0.137337	-98.119376	-49.946611	99.329498	-49.946611	99.329498	-0.137305	-98.103862
4.250000	-0.139477	-99.192219	-49.674466	97.591246	-49.674466	97.591246	-0.139445	-99.176621
4.300000	-0.141645	-100.263325	-49.407082	95.851374	-49.407082	95.851374	-0.141613	-100.247646
4.350000	-0.143842	-101.332745	-49.144392	94.110248	-49.144392	94.110248	-0.143810	-101.316988
4.400000	-0.146068	-102.400529	-48.886331	92.368248	-48.886331	92.368248	-0.146036	-102.384697
4.450000	-0.148325	-103.466730	-48.632834	90.625773	-48.632834	90.625773	-0.148293	-103.450826
4.500000	-0.150612	-104.531402	-48.383835	88.883230	-48.383835	88.883230	-0.150581	-104.515429
4.550000	-0.152932	-105.594599	-48.139266	87.141041	-48.139266	87.141041	-0.152900	-105.578560
4.600000	-0.155283	-106.656378	-47.899060	85.399635	-47.899060	85.399635	-0.155252	-106.640276
4.650000	-0.157668	-107.716795	-47.663147	83.659446	-47.663147	83.659446	-0.157637	-107.700633
4.700000	-0.160087	-108.775910	-47.431455	81.920917	-47.431455	81.920917	-0.160056	-108.759691
4.750000	-0.162540	-109.833781	-47.203910	80.184487	-47.203910	80.184487	-0.162510	-109.817508
4.800000	-0.165029	-110.890469	-46.980436	78.450599	-46.980436	78.450599	-0.164998	-110.874146
4.850000	-0.167553	-111.946037	-46.760954	76.719690	-46.760954	76.719690	-0.167523	-111.929666
4.900000	-0.170115	-113.000547	-46.545382	74.992195	-46.545382	74.992195	-0.170085	-112.984131
4.950000	-0.172713	-114.054064	-46.333637	73.268537	-46.333637	73.268537	-0.172684	-114.037607
5.000000	-0.175350	-115.106652	-46.125630	71.549133	-46.125630	71.549133	-0.175321	-115.090157
5.050000	-0.178027	-116.158345	-45.921220	69.834603	-45.921220	69.834603	-0.177999	-116.141815
5.100000	-0.180744	-117.209249	-45.720372	68.125149	-45.720372	68.125149	-0.180716	-117.192688
5.150000	-0.183501	-118.259434	-45.522988	66.421137	-45.522988	66.421137	-0.183474	-118.242845
5.200000	-0.186299	-119.308970	-45.328966	64.722913	-45.328966	64.722913	-0.186272	-119.292355
5.250000	-0.189138	-120.357927	-45.138206	63.030805	-45.138206	63.030805	-0.189112	-120.341291
5.300000	-0.192019	-121.406377	-44.950600	61.345112	-44.950600	61.345112	-0.191994	-121.389723
5.350000	-0.194944	-122.454395	-44.766042	59.666110	-44.766042	59.666110	-0.194919	-122.437725
5.400000	-0.197911	-123.502052	-44.584419	57.994049	-44.584419	57.994049	-0.197887	-123.485372
5.450000	-0.200922	-124.549425	-44.405621	56.329147	-44.405621	56.329147	-0.200899	-124.532737
5.500000	-0.203978	-125.596591	-44.229531	54.671593	-44.229531	54.671593	-0.203955	-125.579898
5.550000	-0.207078	-126.643625	-44.056034	53.021543	-44.056034	53.021543	-0.207056	-126.626931
5.600000	-0.210224	-127.690607	-43.885010	51.379122	-43.885010	51.379122	-0.210203	-127.673915
5.650000	-0.213415	-128.737616	-43.716340	49.744418	-43.716340	49.744418	-0.213395	-128.720930
5.700000	-0.216653	-129.784732	-43.549902	48.117483	-43.549902	48.117483	-0.216634	-129.768055
5.750000	-0.219938	-130.832036	-43.385573	46.498333	-43.385573	46.498333	-0.219920	-130.815373
5.800000	-0.223269	-131.879612	-43.223229	44.886944	-43.223229	44.886944	-0.223252	-131.862965
5.850000	-0.226648	-132.927542	-43.062744	43.283253	-43.062744	43.283253	-0.226632	-132.910916
5.900000	-0.230074	-133.975911	-42.903993	41.687154	-42.903993	41.687154	-0.230059	-133.959309
5.950000	-0.233548	-135.024804	-42.746847	40.098500	-42.746847	40.098500	-0.233534	-135.008230
6.000000	-0.237070	-136.074309	-42.591179	38.517098	-42.591179	38.517098	-0.237057	-136.057766
6.050000	-0.240640	-137.124512	-42.436859	36.942708	-42.436859	36.942708	-0.240628	-137.108004
6.100000	-0.244259	-138.175502	-42.283759	35.375040	-42.283759	35.375040	-0.244248	-138.159033
6.150000	-0.247926	-139.227368	-42.131748	33.813755	-42.131748	33.813755	-0.247916	-139.210942
6.200000	-0.251641	-140.280202	-41.980695	32.258458	-41.980695	32.258458	-0.251632	-140.263823
6.250000	-0.255405	-141.334094	-41.830469	30.708695	-41.830469	30.708695	-0.255397	-141.317765
6.300000	-0.259219	-142.389192	-41.680851	29.164139	-41.680851	29.164139	-0.259212	-142.372917
6.350000	-0.263081	-143.445542	-41.531786	27.623958	-41.531786	27.623958	-0.263074	-143.429326
6.400000	-0.266990	-144.503241	-41.383142	26.087484	-41.383142	26.087484	-0.266985	-144.487087
6.450000	-0.270947	-145.562383	-41.234785	24.553968	-41.234785	24.553968	-0.270943	-145.546294
6.500000	-0.274952	-146.623064	-41.086583	23.022573	-41.086583	23.022573	-0.274948	-146.607045
6.550000	-0.279003	-147.685382	-40.938406	21.492364	-40.938406	21.492364	-0.279000	-147.669437
6.600000	-0.283100	-148.749436	-40.790123	19.962297	-40.790123	19.962297	-0.283098	-148.733567
6.650000	-0.287243	-149.815324	-40.641608	18.431205	-40.641608	18.431205	-0.287242	-149.799536
6.700000	-0.291432	-150.883146	-40.492736	16.897789	-40.492736	16.897789	-0.291430	-150.867443
6.750000	-0.295664	-151.953003	-40.343389	15.360596	-40.343389	15.360596	-0.295664	-151.937388
6.800000	-0.299941	-153.024996	-40.193454	13.818006	-40.193454	13.818006	-0.299941	-153.009474
6.850000	-0.304260	-154.099229	-40.042830	12.268209	-40.042830	12.268209	-0.304260	-154.083802
6.900000	-0.308622	-155.175804	-39.891427	10.709183	-39.891427	10.709183	-0.308622	-155.160477
6.950000	-0.313025	-156.254825	-39.739174	9.138674	-39.739174	9.138674	-0.313025	-156.239600
7.000000	-0.317468	-157.336396	-39.586022	7.554166	-39.586022	7.554166	-0.317469	-157.321278
7.050000	-0.321950	-158.420623	-39.431956	5.952863	-39.431956	5.952863	-0.321951	-158.405615
7.100000	-0.326471	-159.507611	-39.276997	4.331664	-39.276997	4.331664	-0.326472	-159.492716
7.150000	-0.331029	-160.597467	-39.121220	2.687144	-39.121220	2.687144	-0.331029	-160.582689
7.200000	-0.335623	-161.690298	-38.964766	1.015548	-38.964766	1.015548	-0.335623	-161.675639
7.250000	-0.340251	-162.786211	-38.807859	-0.687203	-38.807859	-0.687203	-0.340251	-162.771675
7.300000	-0.344914	-163.885313	-38.650828	-2.425485	-38.650828	-2.425485	-0.344914	-163.870904
7.350000	-0.349609	-164.987715	-38.494132	-4.203909	-38.494132	-4.203909	-0.349609	-164.973435
7.400000	-0.354336	-166.093523	-38.338383	-6.027215	-38.338383	-6.027215	-0.354335	-166.079376
7.450000	-0.359093	-167.202847	-38.184382	-7.900098	-38.184382	-7.900098	-0.359093	-167.188836
7.500000	-0.363880	-168.315798	-38.033143	-9.826964	-38.033143	-9.826964	-0.363880	-168.301926
7.550000	-0.368697	-169.432652	-37.886061	-11.814205	-37.886061	-11.814205	-0.368697	-169.418923
7.600000	-0.373542	-170.553364	-37.744685	-13.861908	-37.744685	-13.861908	-0.373542	-170.539781
7.650000	-0.378414	-171.678044	-37.610815	-15.970693	-37.610815	-15.970693	-0.378414	-171.664611
7.700000	-0.383313	-172.806806	-37.486458	-18.138682	-37.486458	-18.138682	-0.383314	-172.793525
7.750000	-0.388238	-173.939761	-37.373747	-20.360796	-37.373747	-20.360796	-0.388241	-173.926638
7.800000	-0.393190	-175.077023	-37.274813	-22.628151	-37.274813	-22.628151	-0.393194	-175.064062
7.850000	-0.398170	-176.218709	-37.191603	-24.927705	-37.191603	-24.927705	-0.398175	-176.205915
7.900000	-0.403176	-177.364935	-37.125669	-27.242320	-37.125669	-27.242320	-0.403184	-177.352312
7.950000	-0.408211	-178.515819	-37.077940	-29.551393	-37.077940	-29.551393	-0.408221	-178.503374
8.000000	-0.413274	-179.671483	-37.048529	-31.832098	-37.048529	-31.832098	-0.413287	-179.659221
8.050000	-0.418369	179.167952	-37.036609	-34.061175	-37.036609	-34.061175	-0.418385	179.180023
8.100000	-0.423495	178.002358	-37.040404	-36.217017	-37.040404	-36.217017	-0.423515	178.014232
8.150000	-0.428656	176.831607	-37.057294	-38.281711	-37.057294	-38.281711	-0.428680	176.843275
8.200000	-0.433854	175.655565	-37.084046	-40.242673	-37.084046	-40.242673	-0.433882	175.667019
8.250000	-0.439090	174.474097	-37.117105	-42.093578	-37.117105	-42.093578	-0.439123	174.485327
8.300000	-0.444368	173.287059	-37.152917	-43.834467	-37.152917	-43.834467	-0.444406	173.298055
8.350000	-0.449691	172.094305	-37.188215	-45.471096	-37.188215	-45.471096	-0.449733	172.105057
8.400000	-0.455060	170.895683	-37.220236	-47.013743	-37.220236	-47.013743	-0.455108	170.906180
8.450000	-0.460480	169.691036	-37.246841	-48.475730	-37.246841	-48.475730	-0.460533	169.701266
8.500000	-0.465952	168.480200	-37.266551	-49.871948	-37.266551	-49.871948	-0.466009	168.490152
8.550000	-0.471479	167.263006	-37.278512	-51.217575	-37.278512	-51.217575	-0.471541	167.272670
8.600000	-0.477063	166.039279	-37.282411	-52.527083	-37.282411	-52.527083	-0.477128	166.048643
8.650000	-0.482705	164.808840	-37.278367	-53.813579	-37.278367	-53.813579	-0.482773	164.817893
8.700000	-0.488407	163.571503	-37.266826	-55.088444	-37.266826	-55.088444	-0.488477	163.580234
8.750000	-0.494167	162.327078	-37.248452	-56.361199	-37.248452	-56.361199	-0.494239	162.335478
8.800000	-0.499988	161.075045	-37.223825	-57.640069	-37.223825	-57.640069	-0.500060	161.083105
8.850000	-0.505865	159.815516	-37.194119	-58.930954	-37.194119	-58.930954	-0.505937	159.823229
8.900000	-0.511796	158.548292	-37.160224	-60.238225	-37.160224	-60.238225	-0.511866	158.555651
8.950000	-0.517777	157.273173	-37.123007	-61.565030	-37.123007	-61.565030	-0.517844	157.280172
9.000000	-0.523802	155.989959	-37.083300	-62.913497	-37.083300	-62.913497	-0.523865	155.996593
9.050000	-0.529866	154.698451	-37.041877	-64.284921	-37.041877	-64.284921	-0.529925	154.704717
9.100000	-0.535962	153.398452	-36.999457	-65.679926	-36.999457	-65.679926	-0.536016	153.404348
9.150000	-0.542082	152.089769	-36.956697	-67.098597	-36.956697	-67.098597	-0.542131	152.095293
9.200000	-0.548218	150.772212	-36.914194	-68.540596	-36.914194	-68.540596	-0.548261	150.777362
9.250000	-0.554359	149.445595	-36.872489	-70.005248	-36.872489	-70.005248	-0.554396	149.450370
9.300000	-0.560497	148.109739	-36.832069	-71.491618	-36.832069	-71.491618	-0.560528	148.114136
9.350000	-0.566619	146.764467	-36.793368	-72.998567	-36.793368	-72.998567	-0.566645	146.768487
9.400000	-0.572716	145.409613	-36.756777	-74.524794	-36.756777	-74.524794	-0.572736	145.413252
9.450000	-0.578775	144.045014	-36.722644	-76.068879	-36.722644	-76.068879	-0.578792	144.048270
9.500000	-0.584786	142.670514	-36.691276	-77.629305	-36.691276	-77.629305	-0.584799	142.673382
9.550000	-0.590735	141.285963	-36.662945	-79.204485	-36.662945	-79.204485	-0.590746	141.288439
9.600000	-0.596611	139.891219	-36.637888	-80.792777	-36.637888	-80.792777	-0.596622	139.893297
9.650000	-0.602403	138.486147	-36.616313	-82.392502	-36.616313	-82.392502	-0.602414	138.487819
9.700000	-0.608098	137.070617	-36.598397	-84.001955	-36.598397	-84.001955	-0.608111	137.071874
9.750000	-0.613685	135.644506	-36.584289	-85.619417	-36.584289	-85.619417	-0.613701	135.645338
9.800000	-0.619151	134.207699	-36.574113	-87.243164	-36.574113	-87.243164	-0.619173	134.208093
9.850000	-0.624486	132.760085	-36.567969	-88.871479	-36.567969	-88.871479	-0.624515	132.760028
9.900000	-0.629679	131.301563	-36.565932	-90.502655	-36.565932	-90.502655	-0.629717	131.301038
9.950000	-0.634717	129.832034	-36.568057	-92.135009	-36.568057	-92.135009	-0.634766	129.831026
10.000000	-0.639591	128.351411	-36.574376	-93.766884	-36.574376	-93.766884	-0.639652	128.349901
