! freq	dB(S11)	phase(S11)	dB(S12)	phase(S12)	
!     	dB(S21)	phase(S21)	dB(S22)	phase(S22)	
!S-par simulation data
#  GHz  S  DB  R 50
0.000000	-81.261518	0.000000	-0.000751	0.000000	-0.000751	0.000000	-81.261518	0.000000
0.050000	-38.630412	-90.770981	-0.010540	-3.407157	-0.010540	-3.407157	-38.630409	-91.354779
0.100000	-32.774031	-95.241041	-0.016643	-6.767841	-0.016643	-6.767841	-32.776720	-96.230979
0.150000	-29.332748	-98.946119	-0.023494	-10.124263	-0.023494	-10.124263	-29.334749	-100.448714
0.200000	-26.899995	-102.345211	-0.031418	-13.474114	-0.031418	-13.474114	-26.901474	-104.376225
0.250000	-25.023677	-105.601730	-0.040311	-16.818132	-0.040311	-16.818132	-25.025447	-108.162462
0.300000	-23.501494	-108.784707	-0.050121	-20.157226	-0.050121	-20.157226	-23.503557	-111.874764
0.350000	-22.226268	-111.923214	-0.060825	-23.491788	-0.060825	-23.491788	-22.227192	-115.552820
0.400000	-21.133849	-115.030840	-0.072361	-26.822031	-0.072361	-26.822031	-21.133423	-119.226005
0.450000	-20.182542	-118.113581	-0.084639	-30.148102	-0.084639	-30.148102	-20.181732	-122.896144
0.500000	-19.344946	-121.172620	-0.097597	-33.469870	-0.097597	-33.469870	-19.344179	-126.563883
0.550000	-18.600482	-124.208927	-0.111127	-36.787464	-0.111127	-36.787464	-18.599783	-130.233119
0.600000	-17.934152	-127.222281	-0.125134	-40.100960	-0.125134	-40.100960	-17.933445	-133.907070
0.650000	-17.335294	-130.211183	-0.139534	-43.410331	-0.139534	-43.410331	-17.334490	-137.588692
0.700000	-16.794074	-133.175824	-0.154221	-46.715904	-0.154221	-46.715904	-16.793118	-141.279977
0.750000	-16.304409	-136.113909	-0.169114	-50.017693	-0.169114	-50.017693	-16.303287	-144.983796
0.800000	-15.859865	-139.025121	-0.184116	-53.316072	-0.184116	-53.316072	-15.858608	-148.702158
0.850000	-15.455830	-141.908047	-0.199143	-56.611315	-0.199143	-56.611315	-15.454510	-152.437604
0.900000	-15.088589	-144.760946	-0.214110	-59.903746	-0.214110	-59.903746	-15.087315	-156.193030
0.950000	-14.755354	-147.581320	-0.228925	-63.193732	-0.228925	-63.193732	-14.754268	-159.972072
1.000000	-14.452042	-150.369611	-0.243523	-66.481891	-0.243523	-66.481891	-14.451302	-163.776202
1.050000	-14.176779	-153.123125	-0.257824	-69.768682	-0.257824	-69.768682	-14.176563	-167.609299
1.100000	-13.927431	-155.839965	-0.271757	-73.054694	-0.271757	-73.054694	-13.927933	-171.474767
1.150000	-13.702120	-158.518089	-0.285259	-76.340571	-0.285259	-76.340571	-13.703548	-175.376219
1.200000	-13.499174	-161.155304	-0.298272	-79.627010	-0.298272	-79.627010	-13.501752	-179.317488
1.250000	-13.317086	-163.749253	-0.310744	-82.914757	-0.310744	-82.914757	-13.321054	176.697358
1.300000	-13.154805	-166.296358	-0.322620	-86.204666	-0.322620	-86.204666	-13.160450	172.662858
1.350000	-13.010655	-168.794834	-0.333879	-89.497543	-0.333879	-89.497543	-13.018324	168.575386
1.400000	-12.883305	-171.241532	-0.344496	-92.794255	-0.344496	-92.794255	-12.893513	164.430114
1.450000	-12.771282	-173.631087	-0.354457	-96.095694	-0.354457	-96.095694	-12.784916	160.221959
1.500000	-12.674037	-175.950473	-0.363760	-99.402777	-0.363760	-99.402777	-12.691467	155.945593
1.550000	-12.593307	-178.206047	-0.372412	-102.716431	-0.372412	-102.716431	-12.612123	151.595456
1.600000	-12.525445	179.589975	-0.380432	-106.037591	-0.380432	-106.037591	-12.545837	147.165779
1.650000	-12.468266	177.453779	-0.387850	-109.367191	-0.387850	-109.367191	-12.491543	142.650622
1.700000	-12.421237	175.392695	-0.394707	-112.706152	-0.394707	-112.706152	-12.448137	138.043926
1.750000	-12.383403	173.410591	-0.401058	-116.055379	-0.401058	-116.055379	-12.414452	133.339580
1.800000	-12.353563	171.511167	-0.406968	-119.415749	-0.406968	-119.415749	-12.389247	128.531517
1.850000	-12.330376	169.698068	-0.412515	-122.788100	-0.412515	-122.788100	-12.371184	123.613833
1.900000	-12.312410	167.975707	-0.417789	-126.173377	-0.417789	-126.173377	-12.358857	118.579629
1.950000	-12.298014	166.347106	-0.422898	-129.572349	-0.422898	-129.572349	-12.350631	113.423666
2.000000	-12.285401	164.813492	-0.427968	-132.985575	-0.427968	-132.985575	-12.344725	108.142892
2.050000	-12.272713	163.376112	-0.433134	-136.413712	-0.433134	-136.413712	-12.339280	102.734006
2.100000	-12.257979	162.034990	-0.438548	-139.857404	-0.438548	-139.857404	-12.332305	97.194996
2.150000	-12.239132	160.788656	-0.444372	-143.317298	-0.444372	-143.317298	-12.321694	91.525446
2.200000	-12.214042	159.633879	-0.450768	-146.794055	-0.450768	-146.794055	-12.305254	85.726846
2.250000	-12.180564	158.565431	-0.457896	-150.288323	-0.457896	-150.288323	-12.280749	79.802879
2.300000	-12.136594	157.575914	-0.465898	-153.800676	-0.465898	-153.800676	-12.245954	73.759657
2.350000	-12.080139	156.655672	-0.474907	-157.331534	-0.474907	-157.331534	-12.198734	67.605871
2.400000	-12.009391	155.792820	-0.485052	-160.881127	-0.485052	-160.881127	-12.137115	61.352826
2.450000	-11.922812	154.973409	-0.496463	-164.449489	-0.496463	-164.449489	-12.059381	55.014327
2.500000	-11.819201	154.181743	-0.509280	-168.036501	-0.509280	-168.036501	-11.964150	48.606401
2.550000	-11.697322	153.400644	-0.523686	-171.642319	-0.523686	-171.642319	-11.850002	42.146177
2.600000	-11.557245	152.611753	-0.539800	-175.266209	-0.539800	-175.266209	-11.716864	35.654229
2.650000	-11.399114	151.797293	-0.557767	-178.907771	-0.557767	-178.907771	-11.564763	29.150052
2.700000	-11.223533	150.940112	-0.577731	177.433464	-0.577731	177.433464	-11.394228	22.652853
2.750000	-11.031524	150.024293	-0.599822	173.758029	-0.599822	173.758029	-11.206253	16.180851
2.800000	-10.824479	149.035663	-0.624160	170.066522	-0.624160	170.066522	-11.002245	9.750667
2.850000	-10.604080	147.962186	-0.650849	166.359599	-0.650849	166.359599	-10.783943	3.376849
2.900000	-10.372219	146.794195	-0.679980	162.637970	-0.679980	162.637970	-10.553334	-2.928450
2.950000	-10.130918	145.524490	-0.711622	158.902385	-0.711622	158.902385	-10.312557	-9.155634
3.000000	-9.882250	144.148304	-0.745827	155.153627	-0.745827	155.153627	-10.063822	-15.297671
3.050000	-9.628269	142.663156	-0.782625	151.392495	-0.782625	151.392495	-9.809330	-21.349986
3.100000	-9.370961	141.068636	-0.822024	147.619788	-0.822024	147.619788	-9.551212	-27.310267
3.150000	-9.112112	139.365002	-0.864035	143.836177	-0.864035	143.836177	-9.291397	-33.177227
3.200000	-8.853503	137.555319	-0.908617	140.042429	-0.908617	140.042429	-9.031805	-38.952407
3.250000	-8.596790	135.644991	-0.955678	136.239340	-0.955678	136.239340	-8.774215	-44.639808
3.300000	-8.343357	133.639192	-1.005128	132.427505	-1.005128	132.427505	-8.520125	-50.243618
3.350000	-8.094460	131.546232	-1.056802	128.607640	-1.056802	128.607640	-8.270879	-55.771119
3.400000	-7.851022	129.367174	-1.110678	124.779610	-1.110678	124.779610	-8.027511	-61.223617
3.450000	-7.614025	127.111690	-1.166528	120.943879	-1.166528	120.943879	-7.791074	-66.610333
3.500000	-7.384213	124.786695	-1.224168	117.100460	-1.224168	117.100460	-7.562388	-71.938468
3.550000	-7.162197	122.399183	-1.283389	113.249148	-1.283389	113.249148	-7.342135	-77.215719
3.600000	-6.948473	119.956143	-1.343965	109.389497	-1.343965	109.389497	-7.130879	-82.450248
3.650000	-6.743431	117.464501	-1.405647	105.520783	-1.405647	105.520783	-6.929081	-87.650683
3.700000	-6.547369	114.931080	-1.468173	101.641975	-1.468173	101.641975	-6.737114	-92.826144
3.750000	-6.360507	112.362582	-1.531261	97.751698	-1.531261	97.751698	-6.555281	-97.986299
3.800000	-6.183088	109.765272	-1.594614	93.847963	-1.594614	93.847963	-6.383935	-103.141537
3.850000	-6.015128	107.146123	-1.657929	89.928725	-1.657929	89.928725	-6.223183	-108.303146
3.900000	-5.856670	104.511509	-1.720897	85.991290	-1.720897	85.991290	-6.073193	-113.483059
3.950000	-5.707711	101.867760	-1.783209	82.032428	-1.783209	82.032428	-5.934106	-118.694241
4.000000	-5.568211	99.221208	-1.844561	78.048307	-1.844561	78.048307	-5.806056	-123.950882
4.050000	-5.438092	96.578254	-1.904654	74.034426	-1.904654	74.034426	-5.689170	-129.268633
4.100000	-5.317239	93.945440	-1.963211	69.985523	-1.963211	69.985523	-5.583580	-134.664877
4.150000	-5.205497	91.329544	-2.019980	65.895483	-2.019980	65.895483	-5.489421	-140.159059
4.200000	-5.102733	88.737986	-2.074726	61.756682	-2.074726	61.756682	-5.406945	-145.774478
4.250000	-5.008637	86.178380	-2.127303	57.560981	-2.127303	57.560981	-5.336255	-151.535946
4.300000	-4.922810	83.658781	-2.177652	53.299139	-2.177652	53.299139	-5.277438	-157.471314
4.350000	-4.844770	81.188069	-2.225810	48.960269	-2.225810	48.960269	-5.230602	-163.613122
4.400000	-4.773867	78.775946	-2.271960	44.531889	-2.271960	44.531889	-5.195793	-169.998741
4.450000	-4.709222	76.433019	-2.316479	39.999729	-2.316479	39.999729	-5.172936	-176.671172
4.500000	-4.649634	74.170794	-2.360010	35.347536	-2.360010	35.347536	-5.161745	176.320109
4.550000	-4.593478	72.001536	-2.403536	30.556891	-2.403536	30.556891	-5.161591	168.918337
4.600000	-4.538545	69.938439	-2.448515	25.606198	-2.448515	25.606198	-5.171347	161.056263
4.650000	-4.481812	67.994460	-2.497054	20.471011	-2.497054	20.471011	-5.189007	152.656928
4.700000	-4.419377	66.178720	-2.551994	15.127532	-2.551994	15.127532	-5.211233	143.644410
4.750000	-4.346489	64.495408	-2.617010	9.551887	-2.617010	9.551887	-5.233183	133.943238
4.800000	-4.256833	62.945686	-2.697425	3.710974	-2.697425	3.710974	-5.247720	123.453629
4.850000	-4.143348	61.514873	-2.799938	-2.421879	-2.799938	-2.421879	-5.244932	112.102958
4.900000	-3.998816	60.170902	-2.932889	-8.868662	-2.932889	-8.868662	-5.212443	99.847781
4.950000	-3.816643	58.861568	-3.106673	-15.645865	-3.106673	-15.645865	-5.136037	86.684638
5.000000	-3.592529	57.513178	-3.333659	-22.758117	-3.333659	-22.758117	-5.001828	72.675108
5.050000	-3.325888	56.034241	-3.628418	-30.194726	-3.628418	-30.194726	-4.799165	57.956350
5.100000	-3.022374	54.331693	-4.005618	-37.917164	-4.005618	-37.917164	-4.526319	42.754300
5.150000	-2.692943	52.326833	-4.480107	-45.863031	-4.480107	-45.863031	-4.191502	27.343222
5.200000	-2.352795	49.972859	-5.065152	-53.943862	-5.065152	-53.943862	-3.812716	12.014156
5.250000	-2.018744	47.263084	-5.771434	-62.049669	-5.771434	-62.049669	-3.413792	-2.961010
5.300000	-1.706146	44.236306	-6.604900	-70.058663	-6.604900	-70.058663	-3.019439	-17.365746
5.350000	-1.426205	40.959618	-7.568114	-77.851167	-7.568114	-77.851167	-2.649649	-31.048411
5.400000	-1.185136	37.513188	-8.661160	-85.318974	-8.661160	-85.318974	-2.317585	-43.919719
5.450000	-0.984650	33.975684	-9.883187	-92.368635	-9.883187	-92.368635	-2.029713	-55.940462
5.500000	-0.822631	30.415029	-11.235157	-98.925940	-11.235157	-98.925940	-1.786718	-67.120264
5.550000	-0.694801	26.882250	-12.722923	-104.926316	-12.722923	-104.926316	-1.585602	-77.498681
5.600000	-0.596100	23.412205	-14.359534	-110.296717	-14.359534	-110.296717	-1.421617	-87.130434
5.650000	-0.521311	20.025915	-16.169752	-114.933882	-16.169752	-114.933882	-1.289266	-96.082135
5.700000	-0.465718	16.734177	-18.194914	-118.653339	-18.194914	-118.653339	-1.183265	-104.421384
5.750000	-0.425150	13.539835	-20.504832	-121.099249	-20.504832	-121.099249	-1.098704	-112.218556
5.800000	-0.396142	10.440487	-23.215672	-121.520569	-23.215672	-121.520569	-1.031339	-119.541616
5.850000	-0.376186	7.433807	-26.486762	-117.930344	-26.486762	-117.930344	-0.978060	-126.440003
5.900000	-0.362918	4.511424	-30.432555	-105.302620	-30.432555	-105.302620	-0.935729	-132.978209
5.950000	-0.354890	1.669987	-33.544524	-72.673926	-33.544524	-72.673926	-0.902464	-139.191099
6.000000	-0.350648	-1.099787	-32.305636	-35.441428	-32.305636	-35.441428	-0.876181	-145.131847
6.050000	-0.349333	-3.801801	-29.310485	-18.451594	-29.310485	-18.451594	-0.855676	-150.828953
6.100000	-0.350191	-6.441424	-26.887637	-12.620185	-26.887637	-12.620185	-0.839828	-156.314258
6.150000	-0.352551	-9.028029	-25.064960	-10.990976	-25.064960	-10.990976	-0.827485	-161.629513
6.200000	-0.356110	-11.562361	-23.669391	-11.442783	-23.669391	-11.442783	-0.818215	-166.786867
6.250000	-0.360532	-14.048701	-22.571721	-12.917090	-22.571721	-12.917090	-0.811435	-171.809359
6.300000	-0.365549	-16.492964	-21.683202	-14.941080	-21.683202	-14.941080	-0.806601	-176.722280
6.350000	-0.370999	-18.898257	-20.950459	-17.303429	-20.950459	-17.303429	-0.803387	178.458376
6.400000	-0.376773	-21.264950	-20.341373	-19.891564	-20.341373	-19.891564	-0.801605	173.722827
6.450000	-0.382755	-23.597855	-19.825848	-22.617538	-19.825848	-22.617538	-0.800943	169.052279
6.500000	-0.388877	-25.899897	-19.384587	-25.437379	-19.384587	-25.437379	-0.801210	164.433837
6.550000	-0.395093	-28.172827	-19.004537	-28.325073	-19.004537	-28.325073	-0.802275	159.857437
6.600000	-0.401368	-30.416833	-18.677478	-31.265048	-18.677478	-31.265048	-0.804072	155.314685
6.650000	-0.407676	-32.635983	-18.392316	-34.241558	-18.392316	-34.241558	-0.806477	150.793726
6.700000	-0.414000	-34.831709	-18.143150	-37.247817	-18.143150	-37.247817	-0.809475	146.287298
6.750000	-0.420331	-37.004955	-17.925711	-40.279714	-17.925711	-40.279714	-0.812956	141.789462
6.800000	-0.426662	-39.157430	-17.735724	-43.333949	-17.735724	-43.333949	-0.816474	137.292854
6.850000	-0.432990	-41.290524	-17.569985	-46.408796	-17.569985	-46.408796	-0.820026	132.788299
6.900000	-0.439314	-43.405378	-17.426108	-49.503625	-17.426108	-49.503625	-0.823851	128.269957
6.950000	-0.445634	-45.503300	-17.301986	-52.618213	-17.301986	-52.618213	-0.827931	123.733148
7.000000	-0.451953	-47.585704	-17.195778	-55.752547	-17.195778	-55.752547	-0.832198	119.173461
7.050000	-0.458272	-49.653774	-17.106188	-58.907088	-17.106188	-58.907088	-0.836600	114.586603
7.100000	-0.464592	-51.708671	-17.032209	-62.082462	-17.032209	-62.082462	-0.841094	109.968679
7.150000	-0.470917	-53.751541	-16.973081	-65.279370	-16.973081	-65.279370	-0.845648	105.316218
7.200000	-0.477248	-55.783524	-16.928256	-68.498540	-16.928256	-68.498540	-0.850230	100.626187
7.250000	-0.483587	-57.805761	-16.897378	-71.740671	-16.897378	-71.740671	-0.854815	95.895982
7.300000	-0.489935	-59.819405	-16.880257	-75.006395	-16.880257	-75.006395	-0.859381	91.123442
7.350000	-0.496295	-61.825624	-16.876860	-78.296249	-16.876860	-78.296249	-0.863907	86.306844
7.400000	-0.502669	-63.825615	-16.887295	-81.610641	-16.887295	-81.610641	-0.868375	81.444910
7.450000	-0.509059	-65.820607	-16.911809	-84.949833	-16.911809	-84.949833	-0.872772	76.536811
7.500000	-0.515470	-67.811873	-16.950776	-88.313917	-16.950776	-88.313917	-0.877086	71.582166
7.550000	-0.521908	-69.800712	-17.005033	-91.703330	-17.005033	-91.703330	-0.881307	66.580043
7.600000	-0.528381	-71.788588	-17.074911	-95.117218	-17.074911	-95.117218	-0.885435	61.531998
7.650000	-0.534901	-73.776942	-17.161188	-98.555053	-17.161188	-98.555053	-0.889470	56.439003
7.700000	-0.541486	-75.767285	-17.264789	-102.016073	-17.264789	-102.016073	-0.893418	51.302451
7.750000	-0.548155	-77.761196	-17.386798	-105.499275	-17.386798	-105.499275	-0.897290	46.124126
7.800000	-0.554937	-79.760332	-17.528478	-109.003396	-17.528478	-109.003396	-0.901103	40.906183
7.850000	-0.561863	-81.766428	-17.691298	-112.526895	-17.691298	-112.526895	-0.904879	35.651105
7.900000	-0.568974	-83.781302	-17.876969	-116.067930	-17.876969	-116.067930	-0.908646	30.361661
7.950000	-0.576316	-85.806868	-18.087492	-119.624324	-18.087492	-119.624324	-0.912440	25.040861
8.000000	-0.583940	-87.845139	-18.325218	-123.193510	-18.325218	-123.193510	-0.916302	19.691894
8.050000	-0.591905	-89.898246	-18.592938	-126.772453	-18.592938	-126.772453	-0.920280	14.318066
8.100000	-0.600277	-91.968451	-18.893994	-130.357540	-18.893994	-130.357540	-0.924429	8.922732
8.150000	-0.609135	-94.058408	-19.232727	-133.944352	-19.232727	-133.944352	-0.928813	3.509063
8.200000	-0.618564	-96.170799	-19.614169	-137.527245	-19.614169	-137.527245	-0.933505	-1.919605
8.250000	-0.628650	-98.308211	-20.044234	-141.099194	-20.044234	-141.099194	-0.938577	-7.360037
8.300000	-0.639498	-100.473671	-20.530750	-144.650982	-20.530750	-144.650982	-0.944114	-12.809459
8.350000	-0.651197	-102.669458	-21.082658	-148.171449	-21.082658	-148.171449	-0.950189	-18.265306
8.400000	-0.663941	-104.901180	-21.715499	-151.640450	-21.715499	-151.640450	-0.956937	-23.725888
8.450000	-0.677855	-107.171730	-22.445985	-155.032639	-22.445985	-155.032639	-0.964453	-29.189470
8.500000	-0.693157	-109.486514	-23.300312	-158.303105	-23.300312	-158.303105	-0.972880	-34.655146
8.550000	-0.709998	-111.848403	-24.312035	-161.387023	-24.312035	-161.387023	-0.982318	-40.122549
8.600000	-0.728648	-114.263499	-25.536354	-164.163698	-25.536354	-164.163698	-0.992935	-45.592127
8.650000	-0.749318	-116.735425	-27.056241	-166.420680	-27.056241	-166.420680	-1.004857	-51.064937
8.700000	-0.772451	-119.273771	-29.025428	-167.623977	-29.025428	-167.623977	-1.018355	-56.543184
8.750000	-0.798391	-121.884210	-31.725362	-166.447586	-31.725362	-166.447586	-1.033631	-62.029742
8.800000	-0.827598	-124.574578	-35.726873	-158.160507	-35.726873	-158.160507	-1.050958	-67.528540
8.850000	-0.860619	-127.353632	-40.881661	-120.632526	-40.881661	-120.632526	-1.070662	-73.044566
8.900000	-0.898103	-130.231181	-37.845268	-60.528284	-37.845268	-60.528284	-1.093138	-78.583942
8.950000	-0.940908	-133.219787	-32.328212	-43.708203	-32.328212	-43.708203	-1.118918	-84.154502
9.000000	-0.989953	-136.331263	-28.466343	-40.607379	-28.466343	-40.607379	-1.148585	-89.764840
9.050000	-1.046366	-139.579198	-25.561988	-41.443275	-25.561988	-41.443275	-1.182870	-95.424893
9.100000	-1.111549	-142.979492	-23.212931	-43.936897	-23.212931	-43.936897	-1.222705	-101.146184
9.150000	-1.187217	-146.550100	-21.217613	-47.326404	-21.217613	-47.326404	-1.269252	-106.941732
9.200000	-1.275485	-150.311267	-19.464435	-51.298265	-19.464435	-51.298265	-1.323972	-112.826073
9.250000	-1.378963	-154.285752	-17.886151	-55.708227	-17.886151	-55.708227	-1.388694	-118.815203
9.300000	-1.500884	-158.498994	-16.439725	-60.487764	-16.439725	-60.487764	-1.465707	-124.926430
9.350000	-1.645249	-162.979192	-15.096564	-65.606654	-15.096564	-65.606654	-1.557864	-131.178066
9.400000	-1.816425	-167.750659	-13.839413	-71.049109	-13.839413	-71.049109	-1.668278	-137.585366
9.450000	-2.021830	-172.862222	-12.650461	-76.834043	-12.650461	-76.834043	-1.802244	-144.175139
9.500000	-2.268177	-178.340427	-11.524923	-82.961444	-11.524923	-82.961444	-1.964511	-150.959622
9.550000	-2.564344	175.778952	-10.458699	-89.442687	-10.458699	-89.442687	-2.161286	-157.952202
9.600000	-2.920736	169.460673	-9.450855	-96.287256	-9.450855	-96.287256	-2.399731	-165.160605
9.650000	-3.349203	162.671344	-8.503077	-103.498841	-8.503077	-103.498841	-2.687804	-172.584158
9.700000	-3.862710	155.380227	-7.619084	-111.071429	-7.619084	-111.071429	-3.033916	179.789192
9.750000	-4.474730	147.558656	-6.803935	-118.985791	-6.803935	-118.985791	-3.446317	171.985687
9.800000	-5.199161	139.168159	-6.063504	-127.211094	-6.063504	-127.211094	-3.932874	164.046629
9.850000	-6.045879	130.190731	-5.402519	-135.688124	-5.402519	-135.688124	-4.496776	156.034978
9.900000	-7.025116	120.580562	-4.825269	-144.357713	-4.825269	-144.357713	-5.139311	148.023830
9.950000	-8.136208	110.354217	-4.337634	-153.132685	-4.337634	-153.132685	-5.853476	140.103113
10.000000	-9.323026	99.601765	-3.927816	-161.723762	-3.927816	-161.723762	-6.621665	132.358177
