! freq	dB(S11)	phase(S11)	dB(S12)	phase(S12)	
!     	dB(S21)	phase(S21)	dB(S22)	phase(S22)	
!S-par simulation data
#  GHz  S  DB  R 50
0.000000	-87.081858	0.000000	-0.000384	0.000000	-0.000384	0.000000	-87.081858	0.000000
0.050000	-33.088082	-92.732898	-0.004655	-2.910066	-0.004655	-2.910066	-33.092504	-93.125149
0.100000	-27.089765	-95.611832	-0.016303	-5.808883	-0.016303	-5.808883	-27.093709	-96.399244
0.150000	-23.601480	-98.410555	-0.033191	-8.690986	-0.033191	-8.690986	-23.605115	-99.596321
0.200000	-21.144979	-101.155507	-0.053800	-11.555952	-0.053800	-11.555952	-21.148715	-102.741293
0.250000	-19.255349	-103.858652	-0.077415	-14.405596	-0.077415	-14.405596	-19.259561	-105.844416
0.300000	-17.725816	-106.528591	-0.103902	-17.240895	-0.103902	-17.240895	-17.730717	-108.913499
0.350000	-16.446260	-109.171601	-0.133281	-20.061885	-0.133281	-20.061885	-16.451898	-111.954890
0.400000	-15.350805	-111.791775	-0.165529	-22.868095	-0.165529	-22.868095	-15.357110	-114.973228
0.450000	-14.397542	-114.390662	-0.200646	-25.658254	-0.200646	-25.658254	-14.404387	-117.970763
0.500000	-13.557366	-116.969124	-0.238497	-28.431378	-0.238497	-28.431378	-13.564604	-120.949040
0.550000	-12.809723	-119.526952	-0.278941	-31.186260	-0.278941	-31.186260	-12.817216	-123.908459
0.600000	-12.139494	-122.063397	-0.321806	-33.921649	-0.321806	-33.921649	-12.147125	-126.848830
0.650000	-11.534761	-124.577982	-0.366850	-36.636841	-0.366850	-36.636841	-11.542446	-129.770123
0.700000	-10.986643	-127.069583	-0.413864	-39.330741	-0.413864	-39.330741	-10.994331	-132.671710
0.750000	-10.487677	-129.537593	-0.462581	-42.002875	-0.462581	-42.002875	-10.495354	-135.553405
0.800000	-10.031896	-131.981313	-0.512748	-44.652788	-0.512748	-44.652788	-10.039581	-138.414963
0.850000	-9.614596	-134.399760	-0.564113	-47.279861	-0.564113	-47.279861	-9.622341	-141.255959
0.900000	-9.231390	-136.792802	-0.616403	-49.884309	-0.616403	-49.884309	-9.239266	-144.076707
0.950000	-8.878962	-139.159737	-0.669366	-52.465880	-0.669366	-52.465880	-8.887052	-146.877112
1.000000	-8.554431	-141.500090	-0.722747	-55.024557	-0.722747	-55.024557	-8.562818	-149.657300
1.050000	-8.255140	-143.813912	-0.776298	-57.560755	-0.776298	-57.560755	-8.263892	-152.417810
1.100000	-7.978899	-146.101229	-0.829780	-60.074822	-0.829780	-60.074822	-7.988058	-155.159138
1.150000	-7.723801	-148.362263	-0.882967	-62.567208	-0.882967	-62.567208	-7.733379	-157.881903
1.200000	-7.488168	-150.597423	-0.935641	-65.038459	-0.935641	-65.038459	-7.498152	-160.586832
1.250000	-7.270513	-152.807275	-0.987594	-67.489205	-0.987594	-67.489205	-7.280867	-163.274754
1.300000	-7.069688	-154.992105	-1.038609	-69.919842	-1.038609	-69.919842	-7.080367	-165.946344
1.350000	-6.884301	-157.153074	-1.088520	-72.331479	-1.088520	-72.331479	-6.895260	-168.602885
1.400000	-6.713276	-159.290959	-1.137157	-74.724946	-1.137157	-74.724946	-6.724478	-171.245455
1.450000	-6.555640	-161.406542	-1.184360	-77.101120	-1.184360	-77.101120	-6.567062	-173.875192
1.500000	-6.410518	-163.500598	-1.229982	-79.460920	-1.229982	-79.460920	-6.422151	-176.493287
1.550000	-6.277116	-165.573892	-1.273889	-81.805295	-1.273889	-81.805295	-6.288966	-179.100978
1.600000	-6.154720	-167.627176	-1.315955	-84.135222	-1.315955	-84.135222	-6.166807	178.300462
1.650000	-6.042685	-169.661189	-1.356067	-86.451699	-1.356067	-86.451699	-6.055042	175.709725
1.700000	-5.940432	-171.676660	-1.394121	-88.755740	-1.394121	-88.755740	-5.953098	173.125478
1.750000	-5.847437	-173.674305	-1.430020	-91.048374	-1.430020	-91.048374	-5.860458	170.546365
1.800000	-5.763229	-175.654830	-1.463678	-93.330648	-1.463678	-93.330648	-5.776658	167.971013
1.850000	-5.687384	-177.618925	-1.495013	-95.603631	-1.495013	-95.603631	-5.701276	165.398031
1.900000	-5.619601	-179.567099	-1.523925	-97.868355	-1.523925	-97.868355	-5.634012	162.826012
1.950000	-5.559531	178.499974	-1.550347	-100.126029	-1.550347	-100.126029	-5.574521	160.253491
2.000000	-5.506791	176.581491	-1.574256	-102.377983	-1.574256	-102.377983	-5.522416	157.679033
2.050000	-5.461109	174.676850	-1.595628	-104.625514	-1.595628	-104.625514	-5.477429	155.101201
2.100000	-5.422245	172.785478	-1.614467	-106.869905	-1.614467	-106.869905	-5.439319	152.518550
2.150000	-5.389987	170.906832	-1.630806	-109.112310	-1.630806	-109.112310	-5.407873	149.929625
2.200000	-5.364147	169.040409	-1.644692	-111.353683	-1.644692	-111.353683	-5.382905	147.332962
2.250000	-5.344562	167.185742	-1.656162	-113.594803	-1.656162	-113.594803	-5.364254	144.727085
2.300000	-5.331093	165.342408	-1.665238	-115.836378	-1.665238	-115.836378	-5.351780	142.110511
2.350000	-5.323619	163.510031	-1.671927	-118.079147	-1.671927	-118.079147	-5.345367	139.481741
2.400000	-5.322040	161.688284	-1.676234	-120.323921	-1.676234	-120.323921	-5.344916	136.839269
2.450000	-5.326273	159.876892	-1.678171	-122.571575	-1.678171	-122.571575	-5.350348	134.181572
2.500000	-5.336253	158.075638	-1.677757	-124.823017	-1.677757	-124.823017	-5.361603	131.507114
2.550000	-5.352051	156.284580	-1.674977	-127.079282	-1.674977	-127.079282	-5.378758	128.813910
2.600000	-5.373509	154.503411	-1.669924	-129.341187	-1.669924	-129.341187	-5.401658	126.100754
2.650000	-5.400605	152.732113	-1.662651	-131.609605	-1.662651	-131.609605	-5.430289	123.366058
2.700000	-5.433331	150.970742	-1.653218	-133.885381	-1.653218	-133.885381	-5.464651	120.608216
2.750000	-5.471690	149.219434	-1.641692	-136.169325	-1.641692	-136.169325	-5.504754	117.825596
2.800000	-5.515695	147.478407	-1.628149	-138.462216	-1.628149	-138.462216	-5.550622	115.016548
2.850000	-5.565370	145.747969	-1.612669	-140.764795	-1.612669	-140.764795	-5.602289	112.179391
2.900000	-5.620748	144.028521	-1.595337	-143.077767	-1.595337	-143.077767	-5.659800	109.312420
2.950000	-5.681869	142.320566	-1.576245	-145.401801	-1.576245	-145.401801	-5.723207	106.413898
3.000000	-5.748777	140.624713	-1.555489	-147.737526	-1.555489	-147.737526	-5.792573	103.482055
3.050000	-5.821526	138.941683	-1.533172	-150.085529	-1.533172	-150.085529	-5.867963	100.515086
3.100000	-5.900171	137.272316	-1.509400	-152.446358	-1.509400	-152.446358	-5.949453	97.511147
3.150000	-5.984825	135.617752	-1.484268	-154.820665	-1.484268	-154.820665	-6.037177	94.467907
3.200000	-6.075546	133.979132	-1.457895	-157.208919	-1.457895	-157.208919	-6.131215	91.383368
3.250000	-6.172333	132.357548	-1.430414	-159.611380	-1.430414	-159.611380	-6.231589	88.255966
3.300000	-6.275241	130.754396	-1.401948	-162.028404	-1.401948	-162.028404	-6.338380	85.083664
3.350000	-6.384457	129.171859	-1.372597	-164.460732	-1.372597	-164.460732	-6.451810	81.862937
3.400000	-6.499536	127.609379	-1.342570	-166.907057	-1.342570	-166.907057	-6.571444	78.596726
3.450000	-6.621237	126.072416	-1.311879	-169.369948	-1.311879	-169.369948	-6.698111	75.274908
3.500000	-6.748959	124.559723	-1.280746	-171.847465	-1.280746	-171.847465	-6.831215	71.902256
3.550000	-6.883042	123.075576	-1.249258	-174.340883	-1.249258	-174.340883	-6.971158	68.472177
3.600000	-7.023385	121.621823	-1.217556	-176.849921	-1.217556	-176.849921	-7.117881	64.983322
3.650000	-7.169791	120.199810	-1.185781	-179.373938	-1.185781	-179.373938	-7.271220	61.435482
3.700000	-7.322539	118.815627	-1.154050	178.085675	-1.154050	178.085675	-7.431544	57.819995
3.750000	-7.481006	117.466400	-1.122489	175.531444	-1.122489	175.531444	-7.598227	54.144275
3.800000	-7.645675	116.163852	-1.091255	172.960386	-1.091255	172.960386	-7.771901	50.391042
3.850000	-7.815776	114.902132	-1.060420	170.375955	-1.060420	170.375955	-7.951772	46.572347
3.900000	-7.991358	113.689720	-1.030138	167.776775	-1.030138	167.776775	-8.138007	42.676995
3.950000	-8.172079	112.529746	-1.000520	165.163398	-1.000520	165.163398	-8.330335	38.702622
4.000000	-8.357540	111.425050	-0.971670	162.536487	-0.971670	162.536487	-8.528426	34.647297
4.050000	-8.547302	110.379182	-0.943688	159.896545	-0.943688	159.896545	-8.731916	30.508011
4.100000	-8.740849	109.395657	-0.916669	157.244124	-0.916669	157.244124	-8.940367	26.281783
4.150000	-8.937580	108.477895	-0.890700	154.579819	-0.890700	154.579819	-9.153254	21.965711
4.200000	-9.136781	107.629838	-0.865871	151.904165	-0.865871	151.904165	-9.369936	17.556109
4.250000	-9.337664	106.854179	-0.842248	149.217898	-0.842248	149.217898	-9.589685	13.050825
4.300000	-9.539362	106.153173	-0.819887	146.521774	-0.819887	146.521774	-9.811682	8.448065
4.350000	-9.740910	105.528917	-0.798839	143.816517	-0.798839	143.816517	-10.034997	3.745996
4.400000	-9.941254	104.982890	-0.779145	141.102868	-0.779145	141.102868	-10.258586	-1.056686
4.450000	-10.139102	104.517344	-0.760863	138.381453	-0.760863	138.381453	-10.481146	-5.962579
4.500000	-10.333294	104.131331	-0.744001	135.653118	-0.744001	135.653118	-10.701464	-10.970505
4.550000	-10.523357	103.817337	-0.728455	132.919105	-0.728455	132.919105	-10.918980	-16.071156
4.600000	-10.706323	103.586291	-0.714469	130.179185	-0.714469	130.179185	-11.130589	-21.279400
4.650000	-10.882946	103.420449	-0.701765	127.435073	-0.701765	127.435073	-11.336905	-26.573192
4.700000	-11.049988	103.327069	-0.690564	124.686746	-0.690564	124.686746	-11.534399	-31.963599
4.750000	-11.208264	103.290037	-0.680622	121.935453	-0.680622	121.935453	-11.723722	-37.430746
4.800000	-11.355154	103.309300	-0.672065	119.181489	-0.672065	119.181489	-11.901851	-42.976788
4.850000	-11.490308	103.373849	-0.664790	116.425616	-0.664790	116.425616	-12.068133	-48.589017
4.900000	-11.612995	103.474355	-0.658746	113.668424	-0.658746	113.668424	-12.221482	-54.257031
4.950000	-11.722697	103.600758	-0.653873	110.910457	-0.653873	110.910457	-12.361016	-59.969341
5.000000	-11.819125	103.742531	-0.650107	108.152211	-0.650107	108.152211	-12.486096	-65.713627
5.050000	-11.901981	103.888855	-0.647396	105.394146	-0.647396	105.394146	-12.596062	-71.477169
5.100000	-11.971738	104.028868	-0.645644	102.636658	-0.645644	102.636658	-12.691146	-77.246387
5.150000	-12.028835	104.152437	-0.644774	99.880085	-0.644774	99.880085	-12.771567	-83.008551
5.200000	-12.073929	104.250135	-0.644705	97.124712	-0.644705	97.124712	-12.837822	-88.751544
5.250000	-12.107860	104.313454	-0.645353	94.370764	-0.645353	94.370764	-12.890661	-94.464192
5.300000	-12.131622	104.334980	-0.646634	91.618414	-0.646634	91.618414	-12.931055	-100.136527
5.350000	-12.146328	104.308505	-0.648464	88.867776	-0.648464	88.867776	-12.960151	-105.760004
5.400000	-12.153172	104.229082	-0.650759	86.118913	-0.650759	86.118913	-12.979231	-111.327620
5.450000	-12.153393	104.093031	-0.653434	83.371831	-0.653434	83.371831	-12.989666	-116.833977
5.500000	-12.148245	103.897904	-0.656409	80.626486	-0.656409	80.626486	-12.992873	-122.275276
5.550000	-12.138967	103.642403	-0.659605	77.882785	-0.659605	77.882785	-12.990279	-127.649250
5.600000	-12.126764	103.326293	-0.662944	75.140587	-0.662944	75.140587	-12.983281	-132.955065
5.650000	-12.112775	102.949651	-0.666354	72.399716	-0.666354	72.399716	-12.973211	-138.192464
5.700000	-12.098117	102.514096	-0.669764	69.659935	-0.669764	69.659935	-12.961384	-143.363155
5.750000	-12.083808	102.022577	-0.673110	66.920959	-0.673110	66.920959	-12.949018	-148.470548
5.800000	-12.070764	101.477982	-0.676330	64.182481	-0.676330	64.182481	-12.937202	-153.518151
5.850000	-12.059818	100.883694	-0.679373	61.444162	-0.679373	61.444162	-12.926923	-158.510172
5.900000	-12.051720	100.243500	-0.682188	58.705633	-0.682188	58.705633	-12.919070	-163.451395
5.950000	-12.047136	99.561518	-0.684733	55.966499	-0.684733	55.966499	-12.914433	-168.347070
6.000000	-12.046656	98.842138	-0.686970	53.226342	-0.686970	53.226342	-12.913705	-173.202822
6.050000	-12.050794	98.089970	-0.688870	50.484724	-0.688870	50.484724	-12.917487	-178.024579
6.100000	-12.059991	97.309810	-0.690406	47.741192	-0.690406	47.741192	-12.926295	177.181491
6.150000	-12.074621	96.506608	-0.691561	44.995280	-0.691561	44.995280	-12.940559	172.409025
6.200000	-12.094995	95.685458	-0.692323	42.246511	-0.692323	42.246511	-12.960635	167.651502
6.250000	-12.121357	94.851580	-0.692686	39.494404	-0.692686	39.494404	-12.986800	162.902270
6.300000	-12.154027	94.010285	-0.692641	36.738378	-0.692641	36.738378	-13.019397	158.154433
6.350000	-12.192995	93.167332	-0.692205	33.978021	-0.692205	33.978021	-13.058425	153.400928
6.400000	-12.238317	92.328326	-0.691393	31.212851	-0.691393	31.212851	-13.103940	148.634781
6.450000	-12.289986	91.499007	-0.690222	28.442393	-0.690222	28.442393	-13.155928	143.848928
6.500000	-12.347929	90.685251	-0.688719	25.666182	-0.688719	25.666182	-13.214297	139.036221
6.550000	-12.411997	89.893068	-0.686916	22.883763	-0.686916	22.883763	-13.278877	134.189440
6.600000	-12.481966	89.128607	-0.684849	20.094698	-0.684849	20.094698	-13.349411	129.301301
6.650000	-12.557522	88.398139	-0.682560	17.298565	-0.682560	17.298565	-13.425547	124.364480
6.700000	-12.638256	87.708036	-0.680097	14.494962	-0.680097	14.494962	-13.506833	119.371645
6.750000	-12.723654	87.064741	-0.677512	11.683510	-0.677512	11.683510	-13.592703	114.315502
6.800000	-12.813081	86.474717	-0.674863	8.863854	-0.674863	8.863854	-13.682467	109.188855
6.850000	-12.905769	85.944370	-0.672208	6.035664	-0.672208	6.035664	-13.775300	103.984695
6.900000	-13.000812	85.480742	-0.669616	3.198543	-0.669616	3.198543	-13.870227	98.695324
6.950000	-13.097096	85.090002	-0.667155	0.352212	-0.667155	0.352212	-13.966074	93.314273
7.000000	-13.193363	84.776929	-0.664898	-2.503470	-0.664898	-2.503470	-14.061523	87.836848
7.050000	-13.288190	84.546362	-0.662917	-5.368705	-0.662917	-5.368705	-14.155096	82.258279
7.100000	-13.379978	84.402248	-0.661290	-8.243663	-0.661290	-8.243663	-14.245147	76.574878
7.150000	-13.466954	84.347366	-0.660093	-11.128476	-0.660093	-11.128476	-14.329873	70.784306
7.200000	-13.547189	84.383037	-0.659406	-14.023245	-0.659406	-14.023245	-14.407330	64.885863
7.250000	-13.618622	84.508815	-0.659308	-16.928030	-0.659308	-16.928030	-14.475465	58.880771
7.300000	-13.679101	84.722197	-0.659880	-19.842857	-0.659880	-19.842857	-14.532164	52.772433
7.350000	-13.726437	85.018362	-0.661202	-22.767718	-0.661202	-22.767718	-14.575311	46.566649
7.400000	-13.758475	85.389990	-0.663352	-25.702567	-0.663352	-25.702567	-14.602853	40.271741
7.450000	-13.773176	85.827179	-0.666409	-28.647324	-0.666409	-28.647324	-14.612891	33.898569
7.500000	-13.768703	86.317505	-0.670450	-31.601876	-0.670450	-31.601876	-14.603756	27.460401
7.550000	-13.743031	86.846688	-0.675573	-34.566282	-0.675573	-34.566282	-14.573623	20.971954
7.600000	-13.695432	87.396809	-0.681829	-37.540151	-0.681829	-37.540151	-14.521968	14.451830
7.650000	-13.625208	87.949800	-0.689286	-40.523275	-0.689286	-40.523275	-14.448296	7.918271
7.700000	-13.532146	88.486951	-0.698011	-43.515423	-0.698011	-43.515423	-14.352587	1.389910
7.750000	-13.416536	88.989630	-0.708065	-46.516335	-0.708065	-46.516335	-14.235292	-5.114924
7.800000	-13.279144	89.440004	-0.719506	-49.525734	-0.719506	-49.525734	-14.097307	-11.578867
7.850000	-13.121173	89.821681	-0.732388	-52.543321	-0.732388	-52.543321	-13.939920	-17.986100
7.900000	-12.944187	90.120235	-0.746759	-55.568786	-0.746759	-55.568786	-13.764736	-24.322796
7.950000	-12.750031	90.323568	-0.762665	-58.601802	-0.762665	-58.601802	-13.573596	-30.577418
8.000000	-12.540735	90.422111	-0.780146	-61.642035	-0.780146	-61.642035	-13.368494	-36.740863
8.050000	-12.318433	90.408865	-0.799236	-64.689147	-0.799236	-64.689147	-13.151487	-42.806457
8.100000	-12.085274	90.279298	-0.819967	-67.742794	-0.819967	-67.742794	-12.924634	-48.769840
8.150000	-11.843215	90.029859	-0.842380	-70.802699	-0.842380	-70.802699	-12.689789	-54.627619
8.200000	-11.594306	89.660341	-0.866497	-73.868514	-0.866497	-73.868514	-12.448884	-60.379433
8.250000	-11.340570	89.173572	-0.892316	-76.939844	-0.892316	-76.939844	-12.203804	-66.027666
8.300000	-11.083698	88.572437	-0.919848	-80.016369	-0.919848	-80.016369	-11.956116	-71.574813
8.350000	-10.825433	87.863947	-0.949055	-83.097653	-0.949055	-83.097653	-11.707425	-77.027060
8.400000	-10.566579	87.046153	-0.980038	-86.183701	-0.980038	-86.183701	-11.458478	-82.382709
8.450000	-10.308593	86.127945	-1.012746	-89.274082	-1.012746	-89.274082	-11.210601	-87.649689
8.500000	-10.052458	85.114932	-1.047173	-92.368552	-1.047173	-92.368552	-10.964683	-92.833064
8.550000	-9.799004	84.012896	-1.083314	-95.466888	-1.083314	-95.466888	-10.721464	-97.938087
8.600000	-9.548915	82.827659	-1.121161	-98.568893	-1.121161	-98.568893	-10.481550	-102.970084
8.650000	-9.302750	81.564979	-1.160702	-101.674396	-1.160702	-101.674396	-10.245428	-107.934357
8.700000	-9.060956	80.230474	-1.201925	-104.783257	-1.201925	-104.783257	-10.013475	-112.836119
8.750000	-8.823880	78.829566	-1.244816	-107.895363	-1.244816	-107.895363	-9.785975	-117.680438
8.800000	-8.591771	77.366628	-1.289384	-111.010676	-1.289384	-111.010676	-9.563120	-122.471511
8.850000	-8.364842	75.847537	-1.335591	-114.129100	-1.335591	-114.129100	-9.345062	-127.214839
8.900000	-8.143214	74.276928	-1.383425	-117.250615	-1.383425	-117.250615	-9.131870	-131.914863
8.950000	-7.926958	72.659156	-1.432873	-120.375232	-1.432873	-120.375232	-8.923563	-136.575784
9.000000	-7.716096	70.998294	-1.483924	-123.502991	-1.483924	-123.502991	-8.720118	-141.201560
9.050000	-7.510616	69.298139	-1.536569	-126.633962	-1.536569	-126.633962	-8.521478	-145.795901
9.100000	-7.310473	67.562222	-1.590801	-129.768242	-1.590801	-129.768242	-8.327555	-150.362267
9.150000	-7.115597	65.793815	-1.646617	-132.905958	-1.646617	-132.905958	-8.138241	-154.903872
9.200000	-6.925908	63.995692	-1.704028	-136.047295	-1.704028	-136.047295	-7.953415	-159.423498
9.250000	-6.741295	62.170842	-1.763030	-139.192415	-1.763030	-139.192415	-7.772939	-163.924018
9.300000	-6.561632	60.321978	-1.823626	-142.341497	-1.823626	-142.341497	-7.596661	-168.408002
9.350000	-6.386787	58.451464	-1.885829	-145.494756	-1.885829	-145.494756	-7.424432	-172.877671
9.400000	-6.216620	56.561478	-1.949656	-148.652425	-1.949656	-148.652425	-7.256098	-177.335005
9.450000	-6.050985	54.654016	-2.015130	-151.814752	-2.015130	-151.814752	-7.091508	178.218260
9.500000	-5.889735	52.730913	-2.082280	-154.981993	-2.082280	-154.981993	-6.930518	173.780626
9.550000	-5.732716	50.793848	-2.151140	-158.154416	-2.151140	-158.154416	-6.772987	169.350835
9.600000	-5.579783	48.844309	-2.221760	-161.332317	-2.221760	-161.332317	-6.618788	164.927901
9.650000	-5.430787	46.883678	-2.294193	-164.516001	-2.294193	-164.516001	-6.467805	160.511062
9.700000	-5.285564	44.913358	-2.368482	-167.705683	-2.368482	-167.705683	-6.319925	156.099724
9.750000	-5.143959	42.934524	-2.444692	-170.901623	-2.444692	-170.901623	-6.175056	151.693597
9.800000	-5.005824	40.948250	-2.522893	-174.104068	-2.522893	-174.104068	-6.033121	147.292622
9.850000	-4.871008	38.955518	-2.603161	-177.313250	-2.603161	-177.313250	-5.894056	142.896974
9.900000	-4.739366	36.957226	-2.685582	179.470623	-2.685582	179.470623	-5.757816	138.507055
9.950000	-4.610753	34.954196	-2.770250	176.247370	-2.770250	176.247370	-5.624371	134.123489
10.000000	-4.485026	32.947184	-2.857265	173.016839	-2.857265	173.016839	-5.493706	129.747117
