! freq	dB(S11)	phase(S11)	dB(S12)	phase(S12)	
!     	dB(S21)	phase(S21)	dB(S22)	phase(S22)	
!S-par simulation data
#  GHz  S  DB  R 50
0.000000	-91.052702	0.000000	-0.000243	0.000000	-0.000243	0.000000	-91.052702	0.000000
0.050000	-29.357001	-93.423611	-0.008578	-3.228137	-0.008578	-3.228137	-29.356190	-93.426016
0.100000	-23.377667	-96.840120	-0.030532	-6.424566	-0.030532	-6.424566	-23.377876	-96.841543
0.150000	-19.913536	-100.135348	-0.062002	-9.586996	-0.062002	-9.586996	-19.914581	-100.133574
0.200000	-17.481803	-103.335942	-0.101371	-12.722744	-0.101371	-12.722744	-17.483252	-103.331528
0.250000	-15.617187	-106.468361	-0.148443	-15.834205	-0.148443	-15.834205	-15.618699	-106.463161
0.300000	-14.113295	-109.550722	-0.203241	-18.919538	-0.203241	-18.919538	-14.114673	-109.546498
0.350000	-12.860612	-112.592289	-0.265647	-21.975259	-0.265647	-21.975259	-12.861763	-112.590220
0.400000	-11.793946	-115.596447	-0.335376	-24.997608	-0.335376	-24.997608	-11.794837	-115.597139
0.450000	-10.871189	-118.563402	-0.412018	-27.983084	-0.412018	-27.983084	-10.871816	-118.567050
0.500000	-10.063431	-121.491892	-0.495071	-30.928637	-0.495071	-30.928637	-10.063812	-121.498436
0.550000	-9.349872	-124.380142	-0.583978	-33.831729	-0.583978	-33.831729	-9.350032	-124.389382
0.600000	-8.714980	-127.226351	-0.678149	-36.690324	-0.678149	-36.690324	-8.714950	-127.238022
0.650000	-8.146794	-130.028955	-0.776977	-39.502888	-0.776977	-39.502888	-8.146604	-130.042773
0.700000	-7.635903	-132.786663	-0.879855	-42.268286	-0.879855	-42.268286	-7.635585	-132.802351
0.750000	-7.174612	-135.498800	-0.986170	-44.986062	-0.986170	-44.986062	-7.174196	-135.516103
0.800000	-6.756686	-138.164905	-1.095339	-47.655980	-1.095339	-47.655980	-6.756199	-138.183595
0.850000	-6.376983	-140.784754	-1.206803	-50.278034	-1.206803	-50.278034	-6.376451	-140.804631
0.900000	-6.031168	-143.358441	-1.320021	-52.852528	-1.320021	-52.852528	-6.030611	-143.379336
0.950000	-5.715564	-145.886298	-1.434478	-55.379986	-1.434478	-55.379986	-5.715003	-145.908066
1.000000	-5.426748	-148.369655	-1.549704	-57.861934	-1.549704	-57.861934	-5.426200	-148.392180
1.050000	-5.162043	-150.809224	-1.665259	-60.299235	-1.665259	-60.299235	-5.161520	-150.832409
1.100000	-4.919043	-153.206101	-1.780734	-62.693135	-1.780734	-62.693135	-4.918557	-153.229870
1.150000	-4.695639	-155.561519	-1.895755	-65.044998	-1.895755	-65.044998	-4.695201	-155.585815
1.200000	-4.489979	-157.876822	-2.009977	-67.356285	-2.009977	-67.356285	-4.489596	-157.901599
1.250000	-4.300424	-160.153431	-2.123089	-69.628528	-2.123089	-69.628528	-4.300102	-160.178661
1.300000	-4.125666	-162.392315	-2.234762	-71.862789	-2.234762	-71.862789	-4.125409	-162.417979
1.350000	-3.964247	-164.595561	-2.344780	-74.061250	-2.344780	-74.061250	-3.964057	-164.621652
1.400000	-3.815014	-166.764719	-2.452913	-76.225537	-2.452913	-76.225537	-3.814894	-166.791237
1.450000	-3.676938	-168.901348	-2.558959	-78.357283	-2.558959	-78.357283	-3.676888	-168.928302
1.500000	-3.549095	-171.007004	-2.662734	-80.458110	-2.662734	-80.458110	-3.549116	-171.034410
1.550000	-3.430658	-173.083233	-2.764078	-82.529622	-2.764078	-82.529622	-3.430749	-173.111111
1.600000	-3.320880	-175.131561	-2.862849	-84.573400	-2.862849	-84.573400	-3.321038	-175.159938
1.650000	-3.219089	-177.153491	-2.958922	-86.590993	-2.958922	-86.590993	-3.219313	-177.182395
1.700000	-3.124868	-179.149731	-3.052063	-88.583165	-3.052063	-88.583165	-3.125155	-179.179197
1.750000	-3.037297	178.876790	-3.142416	-90.552868	-3.142416	-90.552868	-3.037644	178.846728
1.800000	-2.956061	176.925393	-3.229789	-92.500825	-3.229789	-92.500825	-2.956464	176.894697
1.850000	-2.880709	174.994716	-3.314114	-94.428433	-3.314114	-94.428433	-2.881165	174.963346
1.900000	-2.810886	173.083632	-3.395290	-96.336851	-3.395290	-96.336851	-2.811391	173.051547
1.950000	-2.746213	171.190818	-3.473272	-98.227433	-3.473272	-98.227433	-2.746762	171.157976
2.000000	-2.686303	169.314825	-3.548062	-100.101649	-3.548062	-100.101649	-2.686892	169.281182
2.050000	-2.630851	167.454452	-3.619632	-101.960722	-3.619632	-101.960722	-2.631477	167.419966
2.100000	-2.579583	165.608542	-3.687956	-103.805832	-3.687956	-103.805832	-2.580240	165.573170
2.150000	-2.532247	163.775973	-3.753019	-105.638120	-3.753019	-105.638120	-2.532931	163.739672
2.200000	-2.488615	161.955663	-3.814810	-107.458687	-3.814810	-107.458687	-2.489322	161.918389
2.250000	-2.448478	160.146564	-3.873323	-109.268597	-3.873323	-109.268597	-2.449204	160.108276
2.300000	-2.411649	158.347666	-3.928557	-111.068876	-3.928557	-111.068876	-2.412389	158.308323
2.350000	-2.377954	156.557992	-3.980515	-112.860519	-3.980515	-112.860519	-2.378705	156.517551
2.400000	-2.347238	154.776596	-4.029204	-114.644483	-4.029204	-114.644483	-2.347994	154.735018
2.450000	-2.319357	153.002565	-4.074634	-116.421695	-4.074634	-116.421695	-2.320117	152.959811
2.500000	-2.294185	151.235016	-4.116821	-118.193054	-4.116821	-118.193054	-2.294943	151.191047
2.550000	-2.271655	149.473196	-4.155706	-119.959337	-4.155706	-119.959337	-2.272409	149.427975
2.600000	-2.251607	147.716139	-4.191384	-121.721511	-4.191384	-121.721511	-2.252352	147.669629
2.650000	-2.233945	145.963045	-4.223877	-123.480388	-4.223877	-123.480388	-2.234679	145.915210
2.700000	-2.218583	144.213138	-4.253208	-125.236758	-4.253208	-125.236758	-2.219303	144.163945
2.750000	-2.205445	142.465666	-4.279402	-126.991385	-4.279402	-126.991385	-2.206148	142.415082
2.800000	-2.194462	140.719900	-4.302488	-128.745011	-4.302488	-128.745011	-2.195146	140.667893
2.850000	-2.185574	138.975131	-4.322494	-130.498360	-4.322494	-130.498360	-2.186237	138.921670
2.900000	-2.178727	137.230670	-4.339451	-132.252133	-4.339451	-132.252133	-2.179366	137.175727
2.950000	-2.173872	135.485850	-4.353391	-134.007016	-4.353391	-134.007016	-2.174487	135.429395
3.000000	-2.170971	133.740019	-4.364348	-135.763673	-4.364348	-135.763673	-2.171558	133.682024
3.050000	-2.169986	131.992544	-4.372357	-137.522757	-4.372357	-137.522757	-2.170547	131.932983
3.100000	-2.170890	130.242808	-4.377454	-139.284899	-4.377454	-139.284899	-2.171422	130.181655
3.150000	-2.173678	128.490174	-4.379647	-141.050768	-4.379647	-141.050768	-2.174181	128.427405
3.200000	-2.178331	126.734037	-4.378975	-142.820987	-4.378975	-142.820987	-2.178804	126.669627
3.250000	-2.184813	124.973859	-4.375512	-144.596107	-4.375512	-144.596107	-2.185257	124.907786
3.300000	-2.193117	123.209086	-4.369297	-146.376707	-4.369297	-146.376707	-2.193532	123.141326
3.350000	-2.203237	121.439177	-4.360375	-148.163351	-4.360375	-148.163351	-2.203623	121.369709
3.400000	-2.215173	119.663603	-4.348790	-149.956594	-4.348790	-149.956594	-2.215530	119.592407
3.450000	-2.228927	117.881851	-4.334587	-151.756977	-4.334587	-151.756977	-2.229257	117.808906
3.500000	-2.244508	116.093420	-4.317813	-153.565032	-4.317813	-153.565032	-2.244812	116.018706
3.550000	-2.261928	114.297820	-4.298518	-155.381278	-4.298518	-155.381278	-2.262206	114.221319
3.600000	-2.281200	112.494577	-4.276751	-157.206226	-4.276751	-157.206226	-2.281456	112.416268
3.650000	-2.302346	110.683225	-4.252564	-159.040375	-4.252564	-159.040375	-2.302579	110.603090
3.700000	-2.325386	108.863316	-4.226009	-160.884212	-4.226009	-160.884212	-2.325600	108.781336
3.750000	-2.350347	107.034410	-4.197142	-162.738217	-4.197142	-162.738217	-2.350544	106.950567
3.800000	-2.377301	105.195867	-4.165968	-164.603099	-4.165968	-164.603099	-2.377482	105.110142
3.850000	-2.406241	103.347473	-4.132598	-166.479092	-4.132598	-166.479092	-2.406409	103.259847
3.900000	-2.437203	101.488828	-4.097091	-168.366643	-4.097091	-168.366643	-2.437362	101.399283
3.950000	-2.470229	99.619548	-4.059509	-170.266184	-4.059509	-170.266184	-2.470380	99.528065
4.000000	-2.505362	97.739263	-4.019916	-172.178140	-4.019916	-172.178140	-2.505508	97.645822
4.050000	-2.542649	95.847616	-3.978376	-174.102918	-3.978376	-174.102918	-2.542793	95.752199
4.100000	-2.582141	93.944268	-3.934957	-176.040918	-3.934957	-176.040918	-2.582286	93.846853
4.150000	-2.623892	92.028893	-3.889728	-177.992525	-3.889728	-177.992525	-2.624041	91.929460
4.200000	-2.667959	90.101182	-3.842759	-179.958108	-3.842759	-179.958108	-2.668115	89.999709
4.250000	-2.714404	88.160843	-3.794124	178.061976	-3.794124	178.061976	-2.714570	88.057309
4.300000	-2.763289	86.207602	-3.743897	176.067385	-3.743897	176.067385	-2.763469	86.101982
4.350000	-2.814684	84.241204	-3.692155	174.057794	-3.692155	174.057794	-2.814879	84.133475
4.400000	-2.868682	82.261264	-3.638959	172.032725	-3.638959	172.032725	-2.868896	82.151399
4.450000	-2.925359	80.267560	-3.584392	169.991878	-3.584392	169.991878	-2.925596	80.155533
4.500000	-2.984769	78.260045	-3.528554	167.935148	-3.528554	167.935148	-2.985030	78.145829
4.550000	-3.046990	76.238549	-3.471531	165.862285	-3.471531	165.862285	-3.047279	76.122113
4.600000	-3.112107	74.202925	-3.413408	163.773057	-3.413408	163.773057	-3.112427	74.084238
4.650000	-3.180206	72.153050	-3.354273	161.667257	-3.354273	161.667257	-3.180559	72.032081
4.700000	-3.251377	70.088829	-3.294217	159.544697	-3.294217	159.544697	-3.251765	69.965542
4.750000	-3.325712	68.010192	-3.233328	157.405216	-3.233328	157.405216	-3.326138	67.884551
4.800000	-3.403307	65.917097	-3.171700	155.248674	-3.171700	155.248674	-3.403772	65.789064
4.850000	-3.484259	63.809532	-3.109425	153.074961	-3.109425	153.074961	-3.484767	63.679066
4.900000	-3.568672	61.687514	-3.046598	150.883989	-3.046598	150.883989	-3.569223	61.554573
4.950000	-3.656647	59.551092	-2.983313	148.675700	-2.983313	148.675700	-3.657243	59.415632
5.000000	-3.748292	57.400347	-2.919667	146.450063	-2.919667	146.450063	-3.748936	57.262321
5.050000	-3.843778	55.235090	-2.855740	144.206699	-2.855740	144.206699	-3.844469	55.094447
5.100000	-3.943155	53.055783	-2.791648	141.946016	-2.791648	141.946016	-3.943895	52.912472
5.150000	-4.046538	50.862615	-2.727486	139.668071	-2.727486	139.668071	-4.047328	50.716581
5.200000	-4.154042	48.655809	-2.663351	137.372954	-2.663351	137.372954	-4.154883	48.506995
5.250000	-4.265787	46.435627	-2.599336	135.060786	-2.599336	135.060786	-4.266680	46.283973
5.300000	-4.381892	44.202369	-2.535535	132.731716	-2.535535	132.731716	-4.382837	44.047813
5.350000	-4.502480	41.956373	-2.472043	130.385925	-2.472043	130.385925	-4.503477	41.798851
5.400000	-4.627677	39.698017	-2.408950	128.023625	-2.408950	128.023625	-4.628726	39.537462
5.450000	-4.757607	37.427720	-2.346346	125.645056	-2.346346	125.645056	-4.758709	37.264061
5.500000	-4.892402	35.145941	-2.284319	123.250489	-2.284319	123.250489	-4.893555	34.979106
5.550000	-5.032189	32.853180	-2.222953	120.840223	-2.222953	120.840223	-5.033395	32.683092
5.600000	-5.177104	30.549977	-2.162331	118.414584	-2.162331	118.414584	-5.178361	30.376559
5.650000	-5.327310	28.236816	-2.102538	115.973769	-2.102538	115.973769	-5.328618	28.059987
5.700000	-5.482942	25.914345	-2.043654	113.518170	-2.043654	113.518170	-5.484301	25.734020
5.750000	-5.644110	23.583341	-1.985748	111.048355	-1.985748	111.048355	-5.645519	23.399435
5.800000	-5.810955	21.244517	-1.928887	108.564754	-1.928887	108.564754	-5.812414	21.056941
5.850000	-5.983623	18.898627	-1.873139	106.067815	-1.873139	106.067815	-5.985131	18.707291
5.900000	-6.162260	16.546471	-1.818563	103.558008	-1.818563	103.558008	-6.163817	16.351281
5.950000	-6.347019	14.188891	-1.765218	101.035818	-1.765218	101.035818	-6.348626	13.989752
6.000000	-6.538056	11.826773	-1.713155	98.501747	-1.713155	98.501747	-6.539712	11.623587
6.050000	-6.735533	9.461049	-1.662422	95.956311	-1.662422	95.956311	-6.737238	9.253715
6.100000	-6.939616	7.092696	-1.613063	93.400036	-1.613063	93.400036	-6.941371	6.881112
6.150000	-7.150478	4.722740	-1.565117	90.833458	-1.565117	90.833458	-7.152284	4.506800
6.200000	-7.368300	2.352256	-1.518617	88.257121	-1.518617	88.257121	-7.370158	2.131853
6.250000	-7.593272	-0.017628	-1.473593	85.671573	-1.473593	85.671573	-7.595184	-0.242604
6.300000	-7.825619	-2.385661	-1.430097	83.077188	-1.430097	83.077188	-7.827586	-2.615327
6.350000	-8.065516	-4.750608	-1.388122	80.474720	-1.388122	80.474720	-8.067541	-4.985080
6.400000	-8.313188	-7.111157	-1.347683	77.864717	-1.347683	77.864717	-8.315275	-7.350554
6.450000	-8.568872	-9.465923	-1.308789	75.247726	-1.308789	75.247726	-8.571025	-9.710370
6.500000	-8.832823	-11.813443	-1.271446	72.624287	-1.271446	72.624287	-8.835048	-12.063067
6.550000	-9.105317	-14.152163	-1.235656	69.994932	-1.235656	69.994932	-9.107619	-14.407098
6.600000	-9.386650	-16.480431	-1.201414	67.360184	-1.201414	67.360184	-9.389036	-16.740815
6.650000	-9.677143	-18.796480	-1.168714	64.720556	-1.168714	64.720556	-9.679622	-19.062458
6.700000	-9.977148	-21.098410	-1.137546	62.076546	-1.137546	62.076546	-9.979730	-21.370134
6.750000	-10.287046	-23.384170	-1.107895	59.428639	-1.107895	59.428639	-10.289744	-23.661801
6.800000	-10.607257	-25.651532	-1.079742	56.777305	-1.079742	56.777305	-10.610085	-25.935241
6.850000	-10.938242	-27.898063	-1.053068	54.122996	-1.053068	54.122996	-10.941216	-28.188032
6.900000	-11.280486	-30.120797	-1.027862	51.466125	-1.027862	51.466125	-11.283626	-30.417223
6.950000	-11.634537	-32.316657	-1.004097	48.807122	-1.004097	48.807122	-11.637866	-32.619752
7.000000	-12.001035	-34.482564	-0.981730	46.146408	-0.981730	46.146408	-12.004580	-34.792557
7.050000	-12.380667	-36.614772	-0.960729	43.484362	-0.960729	43.484362	-12.384460	-36.931912
7.100000	-12.774201	-38.709037	-0.941060	40.821337	-0.941060	40.821337	-12.778279	-39.033596
7.150000	-13.182487	-40.760514	-0.922690	38.157669	-0.922690	38.157669	-13.186895	-41.092790
7.200000	-13.606480	-42.763631	-0.905581	35.493672	-0.905581	35.493672	-13.611270	-43.103954
7.250000	-14.047243	-44.711925	-0.889697	32.829640	-0.889697	32.829640	-14.052476	-45.060658
7.300000	-14.505967	-46.597844	-0.875000	30.165845	-0.875000	30.165845	-14.511718	-46.955390
7.350000	-14.983986	-48.412486	-0.861450	27.502541	-0.861450	27.502541	-14.990342	-48.779290
7.400000	-15.482792	-50.145270	-0.849009	24.839959	-0.849009	24.839959	-15.489860	-50.521827
7.450000	-16.004057	-51.783517	-0.837637	22.178315	-0.837637	22.178315	-16.011965	-52.170372
7.500000	-16.549645	-53.311894	-0.827295	19.517802	-0.827295	19.517802	-16.558549	-53.709646
7.550000	-17.121390	-54.708365	-0.817964	16.858630	-0.817964	16.858630	-17.131484	-55.117681
7.600000	-17.721738	-55.951904	-0.809582	14.200931	-0.809582	14.200931	-17.733259	-56.373484
7.650000	-18.353143	-57.013372	-0.802113	11.544848	-0.802113	11.544848	-18.366387	-57.447938
7.700000	-19.018196	-57.856150	-0.795517	8.890507	-0.795517	8.890507	-19.033533	-58.304409
7.750000	-19.719510	-58.433817	-0.789757	6.238019	-0.789757	6.238019	-19.737408	-58.896388
7.800000	-20.459492	-58.687093	-0.784798	3.587481	-0.784798	3.587481	-20.480545	-59.164364
7.850000	-21.239908	-58.539871	-0.780604	0.938978	-0.780604	0.938978	-21.264872	-59.031755
7.900000	-22.061094	-57.894341	-0.777141	-1.707418	-0.777141	-1.707418	-22.090929	-58.399858
7.950000	-22.920565	-56.625636	-0.774375	-4.351644	-0.774375	-4.351644	-22.956470	-57.142195
8.000000	-23.810628	-54.577602	-0.772273	-6.993651	-0.772273	-6.993651	-23.854050	-55.099836
8.050000	-24.714556	-51.563991	-0.770806	-9.633395	-0.770806	-9.633395	-24.767107	-52.082025
8.100000	-25.601044	-47.384519	-0.769942	-12.270844	-0.769942	-12.270844	-25.664218	-47.881776
8.150000	-26.415721	-41.857212	-0.769658	-14.905946	-0.769658	-14.905946	-26.490198	-42.308370
8.200000	-27.081278	-34.952917	-0.769926	-17.538682	-0.769926	-17.538682	-27.165809	-35.325803
8.250000	-27.512364	-26.935159	-0.770713	-20.169065	-0.770713	-20.169065	-27.602869	-27.200349
8.300000	-27.641733	-18.383035	-0.771991	-22.797088	-0.771991	-22.797088	-27.731700	-18.527907
8.350000	-27.448693	-10.095254	-0.773750	-25.422682	-0.773750	-25.422682	-27.531322	-10.133211
8.400000	-27.009928	-2.640467	-0.775919	-28.046091	-0.775919	-28.046091	-27.081250	-2.599836
8.450000	-26.371786	3.427588	-0.778543	-30.666958	-0.778543	-30.666958	-26.430335	3.509751
8.500000	-25.643060	8.213021	-0.781543	-33.285611	-0.781543	-33.285611	-25.689835	8.310725
8.550000	-24.874774	11.737010	-0.784927	-35.901885	-0.784927	-35.901885	-24.911618	11.832024
8.600000	-24.108516	14.214075	-0.788666	-38.515843	-0.788666	-38.515843	-24.137386	14.296347
8.650000	-23.368389	15.874709	-0.792728	-41.127597	-0.792728	-41.127597	-23.390988	15.939685
8.700000	-22.662413	16.816326	-0.797122	-43.736955	-0.797122	-43.736955	-22.680159	16.862215
8.750000	-21.997832	17.268590	-0.801783	-46.344292	-0.801783	-46.344292	-22.011776	17.295394
8.800000	-21.373252	17.240292	-0.806750	-48.949174	-0.806750	-48.949174	-21.384273	17.248941
8.850000	-20.788605	16.901102	-0.811947	-51.552102	-0.811947	-51.552102	-20.797319	16.892693
8.900000	-20.241320	16.274573	-0.817387	-54.152870	-0.817387	-54.152870	-20.248232	16.250448
8.950000	-19.728946	15.416631	-0.823046	-56.751547	-0.823046	-56.751547	-19.734447	15.378103
9.000000	-19.248880	14.371291	-0.828903	-59.348218	-0.828903	-59.348218	-19.253274	14.319579
9.050000	-18.798627	13.170039	-0.834940	-61.942942	-0.834940	-61.942942	-18.802154	13.106256
9.100000	-18.375867	11.838006	-0.841139	-64.535786	-0.841139	-64.535786	-18.378722	11.763156
9.150000	-17.978491	10.395425	-0.847482	-67.126825	-0.847482	-67.126825	-17.980827	10.310403
9.200000	-17.604660	8.857949	-0.853951	-69.716123	-0.853951	-69.716123	-17.606603	8.763558
9.250000	-17.252645	7.239691	-0.860528	-72.303781	-0.860528	-72.303781	-17.254297	7.136631
9.300000	-16.920900	5.552113	-0.867196	-74.889909	-0.867196	-74.889909	-16.922339	5.441000
9.350000	-16.608076	3.804386	-0.873937	-77.474616	-0.873937	-77.474616	-16.609365	3.685758
9.400000	-16.312980	2.004204	-0.880735	-80.058023	-0.880735	-80.058023	-16.314168	1.878530
9.450000	-16.034555	0.158073	-0.887573	-82.640264	-0.887573	-82.640264	-16.035677	0.025757
9.500000	-15.771867	-1.728465	-0.894435	-85.221484	-0.894435	-85.221484	-15.772945	-1.867076
9.550000	-15.524089	-3.650649	-0.901307	-87.801840	-0.901307	-87.801840	-15.525134	-3.795265
9.600000	-15.290528	-5.604495	-0.908174	-90.381504	-0.908174	-90.381504	-15.291542	-5.754880
9.650000	-15.070582	-7.586479	-0.915022	-92.960663	-0.915022	-92.960663	-15.071554	-7.742448
9.700000	-14.863611	-9.593151	-0.921839	-95.539525	-0.921839	-95.539525	-14.864520	-9.754572
9.750000	-14.669116	-11.621713	-0.928615	-98.118310	-0.928615	-98.118310	-14.669932	-11.788508
9.800000	-14.486663	-13.669653	-0.935339	-100.697251	-0.935339	-100.697251	-14.487341	-13.841800
9.850000	-14.315867	-15.734698	-0.942005	-103.276598	-0.942005	-103.276598	-14.316356	-15.912227
9.900000	-14.156397	-17.814762	-0.948606	-105.856619	-0.948606	-105.856619	-14.156630	-17.997766
9.950000	-14.007961	-19.907915	-0.955139	-108.437599	-0.955139	-108.437599	-14.007863	-20.096551
10.000000	-13.870310	-22.012353	-0.961602	-111.019839	-0.961602	-111.019839	-13.869792	-22.206845
