! freq	dB(S11)	phase(S11)	dB(S12)	phase(S12)	
!     	dB(S21)	phase(S21)	dB(S22)	phase(S22)	
!S-par simulation data
#  GHz  S  DB  R 50
0.000000	-0.000000	-0.000000	-366.640745	180.000000	-366.640745	180.000000	-0.000000	-0.000000
0.050000	-0.003919	-3.673173	-89.704156	87.813876	-89.704156	87.813876	-0.000979	-0.920489
0.100000	-0.010868	-7.309811	-83.729666	85.557462	-83.729666	85.557462	-0.002560	-1.832084
0.150000	-0.016729	-10.924730	-80.257500	83.291068	-80.257500	83.291068	-0.003879	-2.739450
0.200000	-0.021384	-14.532019	-77.812680	81.042044	-77.812680	81.042044	-0.005009	-3.645381
0.250000	-0.025498	-18.136355	-75.937099	78.814707	-75.937099	78.814707	-0.006074	-4.550528
0.300000	-0.029559	-21.738223	-74.424801	76.607893	-74.424801	76.607893	-0.007133	-5.455019
0.350000	-0.033765	-25.336721	-73.167185	74.422684	-73.167185	74.422684	-0.008204	-6.358857
0.400000	-0.038171	-28.930576	-72.100991	72.262342	-72.100991	72.262342	-0.009291	-7.262033
0.450000	-0.042733	-32.519051	-71.183489	70.129201	-71.183489	70.129201	-0.010396	-8.164591
0.500000	-0.047377	-36.101743	-70.385600	68.026073	-70.385600	68.026073	-0.011517	-9.066572
0.550000	-0.052039	-39.678330	-69.687539	65.957030	-69.687539	65.957030	-0.012654	-9.967988
0.600000	-0.056671	-43.248715	-69.074352	63.926092	-69.074352	63.926092	-0.013805	-10.868851
0.650000	-0.061246	-46.812766	-68.535101	61.938145	-68.535101	61.938145	-0.014966	-11.769149
0.700000	-0.065756	-50.370390	-68.061012	59.998141	-68.061012	59.998141	-0.016133	-12.668859
0.750000	-0.070200	-53.921518	-67.644773	58.110882	-67.644773	58.110882	-0.017303	-13.567951
0.800000	-0.074582	-57.465969	-67.280819	56.282166	-67.280819	56.282166	-0.018470	-14.466374
0.850000	-0.078907	-61.003750	-66.963624	54.516325	-66.963624	54.516325	-0.019632	-15.364091
0.900000	-0.083174	-64.534226	-66.691531	52.824667	-66.691531	52.824667	-0.020787	-16.260991
0.950000	-0.087385	-68.057433	-66.460250	51.213012	-66.460250	51.213012	-0.021933	-17.157032
1.000000	-0.091540	-71.573207	-66.267058	49.690175	-66.267058	49.690175	-0.023072	-18.052154
1.050000	-0.095638	-75.081421	-66.109566	48.265997	-66.109566	48.265997	-0.024204	-18.946301
1.100000	-0.099677	-78.581987	-65.985610	46.951455	-65.985610	46.951455	-0.025330	-19.839426
1.150000	-0.103656	-82.074860	-65.893163	45.758787	-65.893163	45.758787	-0.026453	-20.731487
1.200000	-0.107572	-85.560043	-65.830241	44.701595	-65.830241	44.701595	-0.027574	-21.622450
1.250000	-0.111427	-89.037580	-65.794810	43.794934	-65.794810	43.794934	-0.028694	-22.512287
1.300000	-0.115214	-92.507063	-65.786221	43.067932	-65.786221	43.067932	-0.029814	-23.400896
1.350000	-0.118945	-95.969815	-65.798282	42.509680	-65.798282	42.509680	-0.030936	-24.288445
1.400000	-0.122612	-99.424878	-65.831451	42.169253	-65.831451	42.169253	-0.032061	-25.174740
1.450000	-0.126221	-102.873159	-65.880544	42.046188	-65.880544	42.046188	-0.033189	-26.059886
1.500000	-0.129774	-106.314643	-65.942000	42.169717	-65.942000	42.169717	-0.034320	-26.943837
1.550000	-0.133270	-109.749487	-66.011021	42.564118	-66.011021	42.564118	-0.035457	-27.826583
1.600000	-0.136718	-113.178492	-66.081426	43.224941	-66.081426	43.224941	-0.036599	-28.708246
1.650000	-0.140112	-116.601191	-66.145717	44.203119	-66.145717	44.203119	-0.037753	-29.588761
1.700000	-0.143464	-120.018835	-66.197208	45.457268	-66.197208	45.457268	-0.038925	-30.468476
1.750000	-0.146771	-123.431235	-66.225783	47.011934	-66.225783	47.011934	-0.040146	-31.347821
1.800000	-0.150038	-126.838943	-66.222520	48.838844	-66.222520	48.838844	-0.041561	-32.228759
1.850000	-0.153267	-130.242362	-66.178305	50.902598	-66.178305	50.902598	-0.045357	-33.120011
1.900000	-0.156460	-133.641866	-66.084428	53.152601	-66.084428	53.152601	-0.045164	-33.931628
1.950000	-0.159620	-137.037882	-65.934556	55.519621	-65.934556	55.519621	-0.044572	-34.821688
2.000000	-0.162749	-140.430865	-65.725962	57.924386	-65.725962	57.924386	-0.045608	-35.696860
2.050000	-0.165849	-143.821222	-65.458580	60.286534	-65.458580	60.286534	-0.046734	-36.567723
2.100000	-0.168921	-147.209355	-65.135506	62.529910	-65.135506	62.529910	-0.047877	-37.436148
2.150000	-0.171966	-150.595651	-64.762502	64.588933	-64.762502	64.588933	-0.049025	-38.302649
2.200000	-0.174986	-153.980486	-64.347190	66.412822	-64.347190	66.412822	-0.050177	-39.167415
2.250000	-0.177981	-157.364217	-63.898139	67.967202	-63.898139	67.967202	-0.051330	-40.030527
2.300000	-0.180952	-160.747180	-63.424041	69.233382	-63.424041	69.233382	-0.052486	-40.892019
2.350000	-0.183900	-164.129688	-62.933082	70.206076	-62.933082	70.206076	-0.053645	-41.751906
2.400000	-0.186824	-167.512031	-62.432553	70.890376	-62.432553	70.890376	-0.054806	-42.610191
2.450000	-0.189724	-170.894467	-61.928666	71.298686	-61.928666	71.298686	-0.055970	-43.466871
2.500000	-0.192600	-174.277226	-61.426532	71.448026	-61.426532	71.448026	-0.057138	-44.321941
2.550000	-0.195452	-177.660517	-60.929826	71.353146	-60.929826	71.353146	-0.058311	-45.175356
2.600000	-0.198278	178.955508	-60.442285	71.040067	-60.442285	71.040067	-0.059487	-46.027141
2.650000	-0.201079	175.570728	-59.966291	70.528911	-59.966291	70.528911	-0.060669	-46.877287
2.700000	-0.203854	172.185061	-59.503605	69.838900	-59.503605	69.838900	-0.061855	-47.725782
2.750000	-0.206601	168.798465	-59.055496	68.987998	-59.055496	68.987998	-0.063048	-48.572616
2.800000	-0.209319	165.410940	-58.622843	67.992740	-58.622843	67.992740	-0.064246	-49.417778
2.850000	-0.212008	162.022529	-58.206230	66.868195	-58.206230	66.868195	-0.065451	-50.261258
2.900000	-0.214666	158.633318	-57.806012	65.628004	-57.806012	65.628004	-0.066663	-51.103045
2.950000	-0.217291	155.243440	-57.422378	64.284468	-57.422378	64.284468	-0.067883	-51.943129
3.000000	-0.219882	151.853069	-57.055389	62.848659	-57.055389	62.848659	-0.069111	-52.781500
3.050000	-0.222437	148.462428	-56.705018	61.330537	-56.705018	61.330537	-0.070347	-53.618150
3.100000	-0.224956	145.071783	-56.371174	59.739074	-56.371174	59.739074	-0.071593	-54.453070
3.150000	-0.227436	141.681453	-56.053783	58.081740	-56.053783	58.081740	-0.072847	-55.286231
3.200000	-0.229876	138.291807	-55.752716	56.366086	-55.752716	56.366086	-0.074112	-56.117627
3.250000	-0.232274	134.903244	-55.467748	54.599434	-55.467748	54.599434	-0.075388	-56.947268
3.300000	-0.234629	131.516209	-55.198692	52.787820	-55.198692	52.787820	-0.076674	-57.775147
3.350000	-0.236941	128.131185	-54.945363	50.936778	-54.945363	50.936778	-0.077972	-58.601258
3.400000	-0.239207	124.748699	-54.707585	49.051412	-54.707585	49.051412	-0.079281	-59.425596
3.450000	-0.241427	121.369309	-54.485187	47.136455	-54.485187	47.136455	-0.080603	-60.248154
3.500000	-0.243599	117.993612	-54.278014	45.196322	-54.278014	45.196322	-0.081938	-61.068929
3.550000	-0.245724	114.622236	-54.085924	43.235160	-54.085924	43.235160	-0.083286	-61.887914
3.600000	-0.247800	111.255837	-53.908790	41.256888	-53.908790	41.256888	-0.084648	-62.705108
3.650000	-0.249828	107.895100	-53.746506	39.265239	-53.746506	39.265239	-0.086025	-63.520506
3.700000	-0.251808	104.540731	-53.598980	37.263793	-53.598980	37.263793	-0.087416	-64.334107
3.750000	-0.253739	101.193456	-53.466141	35.256009	-53.466141	35.256009	-0.088822	-65.145907
3.800000	-0.255621	97.854207	-53.348224	33.245272	-53.348224	33.245272	-0.090244	-65.955865
3.850000	-0.257457	94.523586	-53.244927	31.235025	-53.244927	31.235025	-0.091683	-66.764021
3.900000	-0.259247	91.202356	-53.156236	29.228547	-53.156236	29.228547	-0.093138	-67.570374
3.950000	-0.260993	87.891289	-53.082162	27.229110	-53.082162	27.229110	-0.094610	-68.374923
4.000000	-0.262698	84.591152	-53.022737	25.240016	-53.022737	25.240016	-0.096100	-69.177670
4.050000	-0.264363	81.302713	-52.978017	23.264619	-52.978017	23.264619	-0.097608	-69.978614
4.100000	-0.265990	78.026730	-52.948081	21.306361	-52.948081	21.306361	-0.099135	-70.777759
4.150000	-0.267584	74.763953	-52.933037	19.368805	-52.933037	19.368805	-0.100680	-71.575107
4.200000	-0.269147	71.515114	-52.933016	17.455673	-52.933016	17.455673	-0.102245	-72.370659
4.250000	-0.270683	68.280928	-52.948181	15.570883	-52.948181	15.570883	-0.103830	-73.164420
4.300000	-0.272197	65.062089	-52.978720	13.718603	-52.978720	13.718603	-0.105436	-73.956393
4.350000	-0.273692	61.859264	-53.024853	11.903301	-53.024853	11.903301	-0.107062	-74.746583
4.400000	-0.275173	58.673280	-53.087001	10.130323	-53.087001	10.130323	-0.108709	-75.534974
4.450000	-0.276646	55.504764	-53.165445	8.405136	-53.165445	8.405136	-0.110379	-76.321574
4.500000	-0.278116	52.354105	-53.260329	6.733118	-53.260329	6.733118	-0.112071	-77.106406
4.550000	-0.279588	49.221836	-53.371992	5.120736	-53.371992	5.120736	-0.113786	-77.889477
4.600000	-0.281069	46.108451	-53.500805	3.575209	-53.500805	3.575209	-0.115523	-78.670795
4.650000	-0.282564	43.014402	-53.647159	2.104653	-53.647159	2.104653	-0.117285	-79.450367
4.700000	-0.284080	39.940096	-53.811465	0.718246	-53.811465	0.718246	-0.119070	-80.228200
4.750000	-0.285625	36.885898	-53.994137	-0.573566	-53.994137	-0.573566	-0.120880	-81.004303
4.800000	-0.287203	33.852124	-54.195581	-1.758836	-54.195581	-1.758836	-0.122714	-81.778685
4.850000	-0.288823	30.839042	-54.416171	-2.823839	-54.416171	-2.823839	-0.124574	-82.551355
4.900000	-0.290491	27.846873	-54.656207	-3.752749	-54.656207	-3.752749	-0.126460	-83.322323
4.950000	-0.292215	24.875787	-54.915877	-4.527268	-54.915877	-4.527268	-0.128372	-84.091600
5.000000	-0.294003	21.925903	-55.195174	-5.126212	-55.195174	-5.126212	-0.130311	-84.859195
5.050000	-0.295862	18.997755	-55.493965	-5.520065	-55.493965	-5.520065	-0.132278	-85.625085
5.100000	-0.297801	16.090896	-55.811238	-5.684061	-55.811238	-5.684061	-0.134272	-86.389317
5.150000	-0.299827	13.205290	-56.145579	-5.585470	-56.145579	-5.585470	-0.136294	-87.151903
5.200000	-0.301947	10.340848	-56.494668	-5.187259	-56.494668	-5.187259	-0.138345	-87.912857
5.250000	-0.304169	7.497431	-56.854922	-4.448374	-56.854922	-4.448374	-0.140424	-88.672190
5.300000	-0.306503	4.674850	-57.221057	-3.324805	-57.221057	-3.324805	-0.142533	-89.429917
5.350000	-0.308956	1.872862	-57.585578	-1.771905	-57.585578	-1.771905	-0.144672	-90.186051
5.400000	-0.311536	-0.908826	-57.938253	0.251400	-57.938253	0.251400	-0.146841	-90.940606
5.450000	-0.314253	-3.670558	-58.265725	2.775915	-58.265725	2.775915	-0.149040	-91.693598
5.500000	-0.317115	-6.412730	-58.551495	5.812780	-58.551495	5.812780	-0.151271	-92.445041
5.550000	-0.320132	-9.135787	-58.776621	9.342188	-58.776621	9.342188	-0.153533	-93.194950
5.600000	-0.323312	-11.840229	-58.921441	13.302829	-58.921441	13.302829	-0.155827	-93.943342
5.650000	-0.326667	-14.526415	-58.967160	17.588348	-58.967160	17.588348	-0.158154	-94.690216
5.700000	-0.330208	-17.194969	-58.901412	22.042560	-58.901412	22.042560	-0.160514	-95.435590
5.750000	-0.333942	-19.846748	-58.721702	26.487018	-58.721702	26.487018	-0.162908	-96.179497
5.800000	-0.337881	-22.482463	-58.433577	30.750595	-58.433577	30.750595	-0.165334	-96.921954
5.850000	-0.342055	-25.101636	-58.041901	34.652257	-58.041901	34.652257	-0.167798	-97.662857
5.900000	-0.346435	-27.707808	-57.583565	38.170585	-57.583565	38.170585	-0.170293	-98.402486
5.950000	-0.351054	-30.300375	-57.067324	41.216574	-57.067324	41.216574	-0.172823	-99.140719
6.000000	-0.355925	-32.880274	-56.511484	43.774817	-56.511484	43.774817	-0.175389	-99.877576
6.050000	-0.361062	-35.448511	-55.931771	45.859361	-55.931771	45.859361	-0.177990	-100.613075
6.100000	-0.366479	-38.006152	-55.340760	47.502654	-55.340760	47.502654	-0.180627	-101.347236
6.150000	-0.372191	-40.554334	-54.747954	48.746421	-54.747954	48.746421	-0.183301	-102.080079
6.200000	-0.378216	-43.094270	-54.160209	49.635259	-54.160209	49.635259	-0.186011	-102.811624
6.250000	-0.384570	-45.627246	-53.582256	50.212671	-53.582256	50.212671	-0.188759	-103.541891
6.300000	-0.391289	-48.154460	-53.016296	50.508833	-53.016296	50.508833	-0.191547	-104.270849
6.350000	-0.398380	-50.677689	-52.465409	50.572791	-52.465409	50.572791	-0.194372	-104.998574
6.400000	-0.405865	-53.198505	-51.930565	50.435714	-51.930565	50.435714	-0.197236	-105.725086
6.450000	-0.413768	-55.718585	-51.412152	50.124680	-51.412152	50.124680	-0.200139	-106.450410
6.500000	-0.422093	-58.239600	-50.910817	49.670486	-50.910817	49.670486	-0.203079	-107.174628
6.550000	-0.430911	-60.763555	-50.424989	49.078651	-50.424989	49.078651	-0.206061	-107.897650
6.600000	-0.440236	-63.292490	-49.954811	48.373435	-49.954811	48.373435	-0.209083	-108.619549
6.650000	-0.450102	-65.828612	-49.499711	47.569749	-49.499711	47.569749	-0.212145	-109.340349
6.700000	-0.460551	-68.374296	-49.059048	46.680415	-49.059048	46.680415	-0.215248	-110.060073
6.750000	-0.471624	-70.932103	-48.632147	45.716486	-48.632147	45.716486	-0.218392	-110.778746
6.800000	-0.483370	-73.504803	-48.218323	44.687505	-48.218323	44.687505	-0.221578	-111.496390
6.850000	-0.495842	-76.095399	-47.816888	43.601732	-47.816888	43.601732	-0.224806	-112.213031
6.900000	-0.509110	-78.707424	-47.427104	42.465870	-47.427104	42.465870	-0.228077	-112.928683
6.950000	-0.523241	-81.344563	-47.048324	41.286341	-47.048324	41.286341	-0.231390	-113.643373
7.000000	-0.538303	-84.010496	-46.679973	40.069074	-46.679973	40.069074	-0.234747	-114.357135
7.050000	-0.554380	-86.709504	-46.321432	38.818784	-46.321432	38.818784	-0.238147	-115.069996
7.100000	-0.571568	-89.446296	-45.972102	37.539595	-45.972102	37.539595	-0.241591	-115.781982
7.150000	-0.589974	-92.226060	-45.631402	36.235122	-45.631402	36.235122	-0.245079	-116.493119
7.200000	-0.609719	-95.054531	-45.298773	34.908527	-45.298773	34.908527	-0.248612	-117.203433
7.250000	-0.630940	-97.938072	-44.973669	33.562572	-44.973669	33.562572	-0.252189	-117.912953
7.300000	-0.653795	-100.883760	-44.655559	32.199658	-44.655559	32.199658	-0.255811	-118.621705
7.350000	-0.678461	-103.899488	-44.343922	30.821851	-44.343922	30.821851	-0.259479	-119.329718
7.400000	-0.705142	-106.994096	-44.038244	29.430909	-44.038244	29.430909	-0.263192	-120.037018
7.450000	-0.734070	-110.177503	-43.738017	28.028288	-43.738017	28.028288	-0.266952	-120.743635
7.500000	-0.765511	-113.460884	-43.442733	26.615149	-43.442733	26.615149	-0.270758	-121.449599
7.550000	-0.799834	-116.859636	-43.151759	25.192149	-43.151759	25.192149	-0.274612	-122.154924
7.600000	-0.837341	-120.386025	-42.864691	23.760030	-42.864691	23.760030	-0.278513	-122.859656
7.650000	-0.878434	-124.056451	-42.581005	22.318947	-42.581005	22.318947	-0.282461	-123.563825
7.700000	-0.923574	-127.889608	-42.300169	20.868658	-42.300169	20.868658	-0.286458	-124.267460
7.750000	-0.973288	-131.906847	-42.021639	19.408459	-42.021639	19.408459	-0.290504	-124.970593
7.800000	-1.028173	-136.132596	-41.744865	17.937107	-41.744865	17.937107	-0.294600	-125.673252
7.850000	-1.088719	-140.586792	-41.469535	16.453188	-41.469535	16.453188	-0.298744	-126.375479
7.900000	-1.156054	-145.318115	-41.194585	14.953129	-41.194585	14.953129	-0.302941	-127.077274
7.950000	-1.230802	-150.355022	-40.919752	13.433832	-40.919752	13.433832	-0.307188	-127.778681
8.000000	-1.313829	-155.739522	-40.644550	11.890678	-40.644550	11.890678	-0.311486	-128.479728
8.050000	-1.406003	-161.519358	-40.368573	10.317827	-40.368573	10.317827	-0.315835	-129.180448
8.100000	-1.508124	-167.748345	-40.091548	8.708068	-40.091548	8.708068	-0.320235	-129.880873
8.150000	-1.620851	-174.489469	-39.813348	7.052433	-39.813348	7.052433	-0.324686	-130.581038
8.200000	-1.744383	178.190870	-39.534208	5.340638	-39.534208	5.340638	-0.329187	-131.280977
8.250000	-1.878167	170.226632	-39.254835	3.561625	-39.254835	3.561625	-0.333740	-131.980729
8.300000	-2.020585	161.549287	-38.976428	1.703503	-38.976428	1.703503	-0.338345	-132.680327
8.350000	-2.168418	152.101637	-38.700873	-0.244588	-38.700873	-0.244588	-0.343001	-133.379810
8.400000	-2.316232	141.824144	-38.430739	-2.293769	-38.430739	-2.293769	-0.347710	-134.079210
8.450000	-2.456033	130.710384	-38.169479	-4.448234	-38.169479	-4.448234	-0.352473	-134.778566
8.500000	-2.577452	118.791873	-37.921074	-6.706621	-37.921074	-6.706621	-0.357289	-135.477914
8.550000	-2.668652	106.161757	-37.689765	-9.058915	-37.689765	-9.058915	-0.362159	-136.177291
8.600000	-2.718197	92.984347	-37.479598	-11.485188	-37.479598	-11.485188	-0.367084	-136.876734
8.650000	-2.718600	79.495805	-37.293480	-13.955317	-37.293480	-13.955317	-0.372063	-137.576283
8.700000	-2.668031	65.969341	-37.132846	-16.433269	-37.132846	-16.433269	-0.377099	-138.275975
8.750000	-2.571336	52.682575	-36.997263	-18.881081	-36.997263	-18.881081	-0.382190	-138.975851
8.800000	-2.438588	39.884395	-36.884597	-21.263365	-36.884597	-21.263365	-0.387338	-139.675951
8.850000	-2.283091	27.755154	-36.790959	-23.553473	-36.790959	-23.553473	-0.392542	-140.376316
8.900000	-2.117548	16.405642	-36.711832	-25.734878	-36.711832	-25.734878	-0.397804	-141.076987
8.950000	-1.952439	5.893816	-36.642671	-27.799836	-36.642671	-27.799836	-0.403125	-141.778009
9.000000	-1.795242	-3.790165	-36.579151	-29.751843	-36.579151	-29.751843	-0.408503	-142.479424
9.050000	-1.650403	-12.682720	-36.517813	-31.599559	-36.517813	-31.599559	-0.413940	-143.181275
9.100000	-1.520249	-20.829272	-36.456015	-33.353906	-36.456015	-33.353906	-0.419437	-143.883612
9.150000	-1.405202	-28.301154	-36.391937	-35.029321	-36.391937	-35.029321	-0.424994	-144.586481
9.200000	-1.304697	-35.167678	-36.324484	-36.639416	-36.324484	-36.639416	-0.430611	-145.289924
9.250000	-1.217789	-41.487903	-36.253035	-38.195850	-36.253035	-38.195850	-0.436290	-145.994000
9.300000	-1.143083	-47.325378	-36.177432	-39.709586	-36.177432	-39.709586	-0.442029	-146.698755
9.350000	-1.079117	-52.738023	-36.097796	-41.189718	-36.097796	-41.189718	-0.447830	-147.404238
9.400000	-1.024634	-57.771740	-36.014348	-42.643152	-36.014348	-42.643152	-0.453692	-148.110508
9.450000	-0.978476	-62.466960	-35.927393	-44.075370	-35.927393	-44.075370	-0.459618	-148.817634
9.500000	-0.939348	-66.870414	-35.837435	-45.491158	-35.837435	-45.491158	-0.465605	-149.525649
9.550000	-0.906334	-71.013842	-35.744852	-46.893550	-35.744852	-46.893550	-0.471654	-150.234615
9.600000	-0.878613	-74.926255	-35.650024	-48.284768	-35.650024	-48.284768	-0.477765	-150.944592
9.650000	-0.855477	-78.633045	-35.553304	-49.666306	-35.553304	-49.666306	-0.483937	-151.655641
9.700000	-0.836350	-82.155031	-35.454986	-51.038992	-35.454986	-51.038992	-0.490170	-152.367835
9.750000	-0.820755	-85.509562	-35.355316	-52.403110	-35.355316	-52.403110	-0.496465	-153.081263
9.800000	-0.808156	-88.718236	-35.254598	-53.758893	-35.254598	-53.758893	-0.502818	-153.795961
9.850000	-0.798180	-91.795930	-35.153029	-55.106048	-35.153029	-55.106048	-0.509229	-154.511998
9.900000	-0.790509	-94.755763	-35.050772	-56.444031	-35.050772	-56.444031	-0.515695	-155.229443
9.950000	-0.784871	-97.609332	-34.947955	-57.772093	-34.947955	-57.772093	-0.522215	-155.948366
10.000000	-0.781031	-100.366917	-34.844672	-59.089313	-34.844672	-59.089313	-0.528785	-156.668841
