! freq	dB(S11)	phase(S11)	dB(S12)	phase(S12)	
!     	dB(S21)	phase(S21)	dB(S22)	phase(S22)	
!S-par simulation data
#  GHz  S  DB  R 50
0.000000	-0.000000	-0.000000	-333.703535	180.000000	-333.703535	180.000000	-0.000000	-0.000000
0.050000	-0.000105	-0.762581	-108.504256	87.322758	-108.504256	87.322758	-0.000105	-0.762567
0.100000	-0.000416	-1.524889	-102.688180	86.905556	-102.688180	86.905556	-0.000414	-1.524864
0.150000	-0.000921	-2.286659	-99.263533	86.586491	-99.263533	86.586491	-0.000917	-2.286625
0.200000	-0.001586	-3.047738	-96.833332	86.163388	-96.833332	86.163388	-0.001581	-3.047701
0.250000	-0.002391	-3.807959	-94.960387	85.670592	-94.960387	85.670592	-0.002384	-3.807924
0.300000	-0.003319	-4.567127	-93.449868	85.143101	-93.449868	85.143101	-0.003309	-4.567098
0.350000	-0.004323	-5.325357	-92.189813	84.608828	-92.189813	84.608828	-0.004312	-5.325338
0.400000	-0.005393	-6.082493	-91.120699	84.082320	-91.120699	84.082320	-0.005381	-6.082485
0.450000	-0.006501	-6.838644	-90.198121	83.575270	-90.198121	83.575270	-0.006489	-6.838649
0.500000	-0.007633	-7.593802	-89.395076	83.098312	-89.395076	83.098312	-0.007620	-7.593820
0.550000	-0.008774	-8.348020	-88.691072	82.660483	-88.691072	82.660483	-0.008762	-8.348050
0.600000	-0.009916	-9.101347	-88.071172	82.270648	-88.071172	82.270648	-0.009905	-9.101387
0.650000	-0.011051	-9.853830	-87.524037	81.937805	-87.524037	81.937805	-0.011041	-9.853878
0.700000	-0.012175	-10.605510	-87.040847	81.671396	-87.040847	81.671396	-0.012166	-10.605565
0.750000	-0.013285	-11.356425	-86.614581	81.481553	-86.614581	81.481553	-0.013277	-11.356484
0.800000	-0.014381	-12.106602	-86.239523	81.379310	-86.239523	81.379310	-0.014374	-12.106664
0.850000	-0.015459	-12.855944	-85.916389	81.398297	-85.916389	81.398297	-0.015453	-12.856007
0.900000	-0.016521	-13.604555	-85.636564	81.535798	-85.636564	81.535798	-0.016517	-13.604618
0.950000	-0.017578	-14.352808	-85.380709	81.746770	-85.380709	81.746770	-0.017574	-14.352871
1.000000	-0.018614	-15.099985	-85.176747	82.178154	-85.176747	82.178154	-0.018611	-15.100046
1.050000	-0.019646	-15.846923	-84.986319	82.672059	-84.986319	82.672059	-0.019645	-15.846981
1.100000	-0.020661	-16.592661	-84.843439	83.478563	-84.843439	83.478563	-0.020660	-16.592716
1.150000	-0.021674	-17.338276	-84.706188	84.324184	-84.706188	84.324184	-0.021673	-17.338329
1.200000	-0.022671	-18.082543	-84.607060	85.600094	-84.607060	85.600094	-0.022671	-18.082593
1.250000	-0.023669	-18.826811	-84.509051	86.876003	-84.509051	86.876003	-0.023669	-18.826857
1.300000	-0.024657	-19.569945	-84.429138	88.565323	-84.429138	88.565323	-0.024657	-19.569989
1.350000	-0.025639	-20.312338	-84.352062	90.546789	-84.352062	90.546789	-0.025640	-20.312379
1.400000	-0.026617	-21.053974	-84.269765	92.834398	-84.269765	92.834398	-0.026618	-21.054013
1.450000	-0.027592	-21.794840	-84.173034	95.433577	-84.173034	95.433577	-0.027592	-21.794877
1.500000	-0.028563	-22.534921	-84.051720	98.337496	-84.051720	98.337496	-0.028563	-22.534956
1.550000	-0.029531	-23.274200	-83.895222	101.523527	-83.895222	101.523527	-0.029532	-23.274235
1.600000	-0.030498	-24.012663	-83.693265	104.950759	-83.693265	104.950759	-0.030498	-24.012697
1.650000	-0.031462	-24.750294	-83.436901	108.559668	-83.436901	108.559668	-0.031462	-24.750328
1.700000	-0.032425	-25.486776	-83.091035	112.270662	-83.091035	112.270662	-0.032425	-25.486809
1.750000	-0.033387	-26.222810	-82.720891	116.007707	-82.720891	116.007707	-0.033386	-26.222844
1.800000	-0.034348	-26.957767	-82.265483	119.621774	-82.265483	119.621774	-0.034347	-26.957802
1.850000	-0.035308	-27.691955	-81.765197	123.148001	-81.765197	123.148001	-0.035308	-27.691991
1.900000	-0.036269	-28.425188	-81.206339	126.419442	-81.206339	126.419442	-0.036268	-28.425224
1.950000	-0.037230	-29.157464	-80.601251	129.436099	-80.601251	129.436099	-0.037229	-29.157502
2.000000	-0.038191	-29.888917	-79.970832	132.181315	-79.970832	132.181315	-0.038190	-29.888956
2.050000	-0.039153	-30.619217	-79.299088	134.546515	-79.299088	134.546515	-0.039152	-30.619258
2.100000	-0.040115	-31.348837	-78.631044	136.693253	-78.631044	136.693253	-0.040114	-31.348880
2.150000	-0.041080	-32.077098	-77.928393	138.403068	-77.928393	138.403068	-0.041078	-32.077144
2.200000	-0.042045	-32.804835	-77.250154	139.966930	-77.250154	139.966930	-0.042044	-32.804882
2.250000	-0.043013	-33.530997	-76.542851	141.092931	-76.542851	141.092931	-0.043012	-33.531046
2.300000	-0.043982	-34.256799	-75.872948	142.137492	-75.872948	142.137492	-0.043981	-34.256851
2.350000	-0.044955	-34.980803	-75.177476	142.774859	-75.177476	142.774859	-0.044954	-34.980858
2.400000	-0.045929	-35.704623	-74.526809	143.379109	-74.526809	143.379109	-0.045928	-35.704680
2.450000	-0.046908	-36.426413	-73.852287	143.619071	-73.852287	143.619071	-0.046907	-36.426473
2.500000	-0.047888	-37.148204	-73.226393	143.859034	-73.226393	143.859034	-0.047887	-37.148266
2.550000	-0.048876	-37.867727	-72.577146	143.778733	-72.577146	143.778733	-0.048875	-37.867792
2.600000	-0.049863	-38.587250	-71.973070	143.698431	-71.973070	143.698431	-0.049862	-38.587318
2.650000	-0.050859	-39.304649	-71.355668	143.380977	-71.355668	143.380977	-0.050858	-39.304719
2.700000	-0.051856	-40.021854	-70.774792	143.041963	-70.774792	143.041963	-0.051855	-40.021927
2.750000	-0.052862	-40.737086	-70.187878	142.527128	-70.187878	142.527128	-0.052861	-40.737163
2.800000	-0.053869	-41.451925	-69.630177	141.977129	-69.630177	141.977129	-0.053869	-41.452004
2.850000	-0.054886	-42.164955	-69.071848	141.296221	-69.071848	141.296221	-0.054885	-42.165037
2.900000	-0.055906	-42.877382	-68.536520	140.571676	-68.536520	140.571676	-0.055905	-42.877467
2.950000	-0.056935	-43.588173	-68.004665	139.749094	-68.004665	139.749094	-0.056934	-43.588261
3.000000	-0.057968	-44.298147	-67.490504	138.877493	-67.490504	138.877493	-0.057968	-44.298238
3.050000	-0.059011	-45.006668	-66.982982	137.932014	-66.982982	137.932014	-0.059011	-45.006761
3.100000	-0.060060	-45.714150	-66.488577	136.933765	-66.488577	136.933765	-0.060060	-45.714247
3.150000	-0.061117	-46.420371	-66.003307	135.879544	-66.003307	135.879544	-0.061117	-46.420470
3.200000	-0.062183	-47.125328	-65.527155	134.769350	-65.527155	134.769350	-0.062183	-47.125431
3.250000	-0.063257	-47.829222	-65.062147	133.616646	-65.062147	133.616646	-0.063257	-47.829328
3.300000	-0.064341	-48.531626	-64.602698	132.404427	-64.602698	132.404427	-0.064341	-48.531735
3.350000	-0.065431	-49.233243	-64.156941	131.162719	-64.156941	131.162719	-0.065432	-49.233355
3.400000	-0.066534	-49.933286	-63.715081	129.862033	-63.715081	129.862033	-0.066535	-49.933401
3.450000	-0.067647	-50.632040	-63.280072	128.514239	-63.280072	128.514239	-0.067648	-50.632158
3.500000	-0.068768	-51.329924	-62.856477	127.134675	-62.856477	127.134675	-0.068769	-51.330046
3.550000	-0.069905	-52.025943	-62.432455	125.686209	-62.432455	125.686209	-0.069906	-52.026069
3.600000	-0.071047	-52.721391	-62.022096	124.216140	-62.022096	124.216140	-0.071048	-52.721520
3.650000	-0.072207	-53.414944	-61.610327	122.672637	-61.610327	122.672637	-0.072208	-53.415076
3.700000	-0.073375	-54.107658	-61.208001	121.093676	-61.208001	121.093676	-0.073376	-54.107794
3.750000	-0.074556	-54.799053	-60.809678	119.458998	-60.809678	119.458998	-0.074557	-54.799193
3.800000	-0.075752	-55.489052	-60.413153	117.757270	-60.413153	117.757270	-0.075753	-55.489195
3.850000	-0.076956	-56.178308	-60.025974	116.019878	-60.025974	116.019878	-0.076957	-56.178456
3.900000	-0.078182	-56.865636	-59.632316	114.172423	-59.632316	114.172423	-0.078183	-56.865787
3.950000	-0.079415	-57.552419	-59.248595	112.288652	-59.248595	112.288652	-0.079416	-57.552574
4.000000	-0.080669	-58.237525	-58.858817	110.285469	-58.858817	110.285469	-0.080670	-58.237685
4.050000	-0.081935	-58.921764	-58.471438	108.200602	-58.471438	108.200602	-0.081936	-58.921927
4.100000	-0.083217	-59.604917	-58.083451	106.013629	-58.083451	106.013629	-0.083218	-59.605086
4.150000	-0.084521	-60.286796	-57.684579	103.655726	-57.684579	103.655726	-0.084522	-60.286969
4.200000	-0.085834	-60.968150	-57.292418	101.227440	-57.292418	101.227440	-0.085835	-60.968327
4.250000	-0.087183	-61.648002	-56.868642	98.477426	-56.868642	98.477426	-0.087184	-61.648185
4.300000	-0.088545	-62.327555	-56.445961	95.605696	-56.445961	95.605696	-0.088546	-62.327742
4.350000	-0.089943	-63.006273	-55.989674	92.369917	-55.989674	92.369917	-0.089944	-63.006466
4.400000	-0.091366	-63.684825	-55.518254	88.883498	-55.518254	88.883498	-0.091367	-63.685023
4.450000	-0.092844	-64.363348	-54.990364	84.860918	-54.990364	84.860918	-0.092844	-64.363551
4.500000	-0.094391	-65.042519	-54.395847	80.227055	-54.395847	80.227055	-0.094392	-65.042729
4.550000	-0.096055	-65.723340	-53.697755	74.746609	-53.697755	74.746609	-0.096056	-65.723556
4.600000	-0.097947	-66.407845	-52.820407	67.990797	-52.820407	67.990797	-0.097948	-66.408069
4.650000	-0.100297	-67.099215	-51.674785	59.473955	-51.674785	59.473955	-0.100298	-67.099448
4.700000	-0.103880	-67.805482	-50.028471	48.010804	-50.028471	48.010804	-0.103881	-67.805726
4.750000	-0.111821	-68.546051	-47.419523	31.000078	-47.419523	31.000078	-0.111823	-68.546312
4.800000	-0.143040	-69.346829	-42.963430	-0.743729	-42.963430	-0.743729	-0.143045	-69.347120
4.850000	-0.210684	-69.501778	-39.805052	-81.096438	-39.805052	-81.096438	-0.210700	-69.502018
4.900000	-0.138059	-69.982036	-45.459428	-142.851238	-45.459428	-142.851238	-0.138067	-69.982241
4.950000	-0.120557	-70.737223	-49.253764	-171.556955	-49.253764	-171.556955	-0.120561	-70.737444
5.000000	-0.116427	-71.448586	-51.196508	169.160340	-51.196508	169.160340	-0.116430	-71.448818
5.050000	-0.115657	-72.135491	-52.128988	154.967053	-52.128988	154.967053	-0.115659	-72.135734
5.100000	-0.116057	-72.809708	-52.543789	144.133438	-52.543789	144.133438	-0.116059	-72.809958
5.150000	-0.116994	-73.476223	-52.680677	135.643779	-52.680677	135.643779	-0.116996	-73.476481
5.200000	-0.118219	-74.137518	-52.665417	128.802348	-52.665417	128.802348	-0.118222	-74.137784
5.250000	-0.119626	-74.794768	-52.561438	123.186117	-52.561438	123.186117	-0.119628	-74.795040
5.300000	-0.121142	-75.449120	-52.412129	118.365366	-52.412129	118.365366	-0.121144	-75.449399
5.350000	-0.122743	-76.100887	-52.233561	114.176725	-52.233561	114.176725	-0.122745	-76.101173
5.400000	-0.124411	-76.750396	-52.037680	110.466136	-52.037680	110.466136	-0.124413	-76.750688
5.450000	-0.126149	-77.397233	-51.828322	107.215368	-51.828322	107.215368	-0.126151	-77.397531
5.500000	-0.127913	-78.043066	-51.617901	104.127563	-51.617901	104.127563	-0.127916	-78.043371
5.550000	-0.129727	-78.686798	-51.403530	101.297901	-51.403530	101.297901	-0.129730	-78.687109
5.600000	-0.131577	-79.329028	-51.188102	98.652628	-51.188102	98.652628	-0.131579	-79.329345
5.650000	-0.133464	-79.969608	-50.972876	96.152170	-50.972876	96.152170	-0.133466	-79.969932
5.700000	-0.135389	-80.608539	-50.757964	93.796528	-50.757964	93.796528	-0.135391	-80.608869
5.750000	-0.137342	-81.246175	-50.545111	91.523804	-50.545111	91.523804	-0.137345	-81.246511
5.800000	-0.139337	-81.881996	-50.333073	89.367167	-50.333073	89.367167	-0.139339	-81.882339
5.850000	-0.141354	-82.516824	-50.124033	87.257942	-50.124033	87.257942	-0.141357	-82.517173
5.900000	-0.143416	-83.149665	-49.915890	85.243542	-49.915890	85.243542	-0.143419	-83.150021
5.950000	-0.145496	-83.781785	-49.711277	83.255399	-49.711277	83.255399	-0.145498	-83.782147
6.000000	-0.147625	-84.411741	-49.507445	81.346026	-49.507445	81.346026	-0.147628	-84.412109
6.050000	-0.149766	-85.041229	-49.307482	79.449936	-49.307482	79.449936	-0.149769	-85.041604
6.100000	-0.151964	-85.668377	-49.108088	77.620262	-49.108088	77.620262	-0.151967	-85.668757
6.150000	-0.154167	-86.295295	-48.912799	75.795747	-48.912799	75.795747	-0.154170	-86.295682
6.200000	-0.156432	-86.919699	-48.717831	74.027981	-48.717831	74.027981	-0.156435	-86.920092
6.250000	-0.158698	-87.544102	-48.527144	72.260216	-48.527144	72.260216	-0.158701	-87.544502
6.300000	-0.161032	-88.165819	-48.336522	70.541524	-48.336522	70.541524	-0.161036	-88.166225
6.350000	-0.163367	-88.787536	-48.149994	68.822832	-48.149994	68.822832	-0.163371	-88.787948
6.400000	-0.165766	-89.406839	-47.963926	67.140441	-47.963926	67.140441	-0.165770	-89.407257
6.450000	-0.168172	-90.025923	-47.781453	65.461351	-47.781453	65.461351	-0.168176	-90.026347
6.500000	-0.170637	-90.642855	-47.599775	63.809321	-47.599775	63.809321	-0.170641	-90.643285
6.550000	-0.173114	-91.259356	-47.421240	62.162703	-47.421240	62.162703	-0.173118	-91.259793
6.600000	-0.175646	-91.873958	-47.243788	60.536346	-47.243788	60.536346	-0.175650	-91.874402
6.650000	-0.178196	-92.487928	-47.069069	58.916742	-47.069069	58.916742	-0.178201	-92.488377
6.700000	-0.180796	-93.100241	-46.895687	57.312319	-46.895687	57.312319	-0.180801	-93.100697
6.750000	-0.183422	-93.711727	-46.724664	55.715488	-46.724664	55.715488	-0.183426	-93.712190
6.800000	-0.186091	-94.321794	-46.555199	54.129992	-46.555199	54.129992	-0.186096	-94.322262
6.850000	-0.188792	-94.930846	-46.387755	52.552593	-46.387755	52.552593	-0.188797	-94.931321
6.900000	-0.191533	-95.538706	-46.222064	50.983579	-46.222064	50.983579	-0.191538	-95.539187
6.950000	-0.194312	-96.145374	-46.058087	49.422952	-46.058087	49.422952	-0.194317	-96.145861
7.000000	-0.197124	-96.751069	-45.896034	47.868421	-45.896034	47.868421	-0.197129	-96.751562
7.050000	-0.199983	-97.355403	-45.735416	46.322424	-45.735416	46.322424	-0.199988	-97.355903
7.100000	-0.202869	-97.958976	-45.576871	44.780723	-45.576871	44.780723	-0.202874	-97.959482
7.150000	-0.205808	-98.561027	-45.419510	43.247616	-45.419510	43.247616	-0.205813	-98.561539
7.200000	-0.208768	-99.162520	-45.264351	41.717374	-45.264351	41.717374	-0.208774	-99.163039
7.250000	-0.211790	-99.762340	-45.110151	40.195730	-45.110151	40.195730	-0.211796	-99.762865
7.300000	-0.214827	-100.361797	-44.958263	38.675800	-44.958263	38.675800	-0.214833	-100.362328
7.350000	-0.217933	-100.959439	-44.807129	37.164441	-44.807129	37.164441	-0.217939	-100.959977
7.400000	-0.221047	-101.556905	-44.658402	35.653856	-44.658402	35.653856	-0.221053	-101.557449
7.450000	-0.224238	-102.152423	-44.510248	34.151800	-44.510248	34.151800	-0.224244	-102.152974
7.500000	-0.227431	-102.747941	-44.364579	32.649745	-44.364579	32.649745	-0.227437	-102.748499
7.550000	-0.230709	-103.341391	-44.219321	31.156170	-44.219321	31.156170	-0.230716	-103.341955
7.600000	-0.233989	-103.934841	-44.076451	29.662595	-44.076451	29.662595	-0.233996	-103.935412
7.650000	-0.237349	-104.526447	-43.934167	28.176159	-43.934167	28.176159	-0.237356	-104.527024
7.700000	-0.240718	-105.117885	-43.794022	26.690371	-43.794022	26.690371	-0.240724	-105.118468
7.750000	-0.244161	-105.707694	-43.654618	25.210580	-43.654618	25.210580	-0.244167	-105.708284
7.800000	-0.247620	-106.297177	-43.517124	23.731989	-43.517124	23.731989	-0.247626	-106.297774
7.850000	-0.251147	-106.885238	-43.380510	22.258415	-43.380510	22.258415	-0.251153	-106.885843
7.900000	-0.254697	-107.472825	-43.245598	20.786515	-43.245598	20.786515	-0.254704	-107.473437
7.950000	-0.258309	-108.059189	-43.111690	19.318783	-43.111690	19.318783	-0.258316	-108.059807
8.000000	-0.261953	-108.644940	-42.979293	17.853137	-42.979293	17.853137	-0.261960	-108.645566
8.050000	-0.265652	-109.229656	-42.848008	16.390917	-42.848008	16.390917	-0.265658	-109.230290
8.100000	-0.269390	-109.813633	-42.718063	14.931144	-42.718063	14.931144	-0.269397	-109.814274
8.150000	-0.273176	-110.396753	-42.589324	13.474141	-42.589324	13.474141	-0.273183	-110.397401
8.200000	-0.277011	-110.979017	-42.461768	12.019908	-42.461768	12.019908	-0.277017	-110.979673
8.250000	-0.280886	-111.560594	-42.335501	10.567859	-42.335501	10.567859	-0.280892	-111.561258
8.300000	-0.284817	-112.141209	-42.210276	9.118870	-42.210276	9.118870	-0.284824	-112.141881
8.350000	-0.288782	-112.721295	-42.086410	7.671539	-42.086410	7.671539	-0.288789	-112.721977
8.400000	-0.292813	-113.300326	-41.963458	6.227527	-41.963458	6.227527	-0.292820	-113.301016
8.450000	-0.296869	-113.878977	-41.841925	4.784699	-41.841925	4.784699	-0.296876	-113.879676
8.500000	-0.300999	-114.456490	-41.721192	3.345423	-41.721192	3.345423	-0.301006	-114.457197
8.550000	-0.305147	-115.033760	-41.601928	1.906900	-41.601928	1.906900	-0.305155	-115.034477
8.600000	-0.309379	-115.609822	-41.483361	0.472138	-41.483361	0.472138	-0.309386	-115.610548
8.650000	-0.313620	-116.185768	-41.366303	-0.962264	-41.366303	-0.962264	-0.313628	-116.186504
8.700000	-0.317954	-116.760447	-41.249852	-2.392717	-41.249852	-2.392717	-0.317962	-116.761193
8.750000	-0.322290	-117.335125	-41.134942	-3.823171	-41.134942	-3.823171	-0.322297	-117.335881
8.800000	-0.326727	-117.908491	-41.020558	-5.249511	-41.020558	-5.249511	-0.326735	-117.909258
8.850000	-0.331167	-118.481857	-40.907662	-6.675851	-40.907662	-6.675851	-0.331174	-118.482635
8.900000	-0.335700	-119.054084	-40.795377	-8.098591	-40.795377	-8.098591	-0.335708	-119.054873
8.950000	-0.340244	-119.626208	-40.684450	-9.521003	-40.684450	-9.521003	-0.340252	-119.627009
9.000000	-0.344874	-120.197357	-40.574210	-10.940293	-40.574210	-10.940293	-0.344882	-120.198170
9.050000	-0.349524	-120.768312	-40.465210	-12.358957	-40.465210	-12.358957	-0.349532	-120.769136
9.100000	-0.354252	-121.338444	-40.356963	-13.774943	-40.356963	-13.774943	-0.354261	-121.339281
9.150000	-0.359009	-121.908302	-40.249852	-15.190035	-40.249852	-15.190035	-0.359017	-121.909152
9.200000	-0.363836	-122.477479	-40.143550	-16.602861	-40.143550	-16.602861	-0.363844	-122.478343
9.250000	-0.368699	-123.046316	-40.038288	-18.014554	-40.038288	-18.014554	-0.368708	-123.047194
9.300000	-0.373626	-123.614601	-39.933885	-19.424365	-39.933885	-19.424365	-0.373635	-123.615494
9.350000	-0.378597	-124.182493	-39.830437	-20.832832	-39.830437	-20.832832	-0.378607	-124.183401
9.400000	-0.383624	-124.749951	-39.727889	-22.239772	-39.727889	-22.239772	-0.383634	-124.750874
9.450000	-0.388705	-125.316975	-39.626223	-23.645185	-39.626223	-23.645185	-0.388715	-125.317914
9.500000	-0.393832	-125.883671	-39.525490	-25.049398	-39.525490	-25.049398	-0.393843	-125.884627
9.550000	-0.399022	-126.449907	-39.425574	-26.451931	-39.425574	-26.451931	-0.399034	-126.450880
9.600000	-0.404251	-127.015907	-39.326617	-27.853563	-39.326617	-27.853563	-0.404262	-127.016897
9.650000	-0.409551	-127.581435	-39.228423	-29.253392	-39.228423	-29.253392	-0.409564	-127.582444
9.700000	-0.414881	-128.146806	-39.131206	-30.652591	-39.131206	-30.652591	-0.414894	-128.147834
9.750000	-0.420293	-128.711708	-39.034709	-32.049896	-39.034709	-32.049896	-0.420306	-128.712756
9.800000	-0.425725	-129.276519	-38.939201	-33.446810	-38.939201	-33.446810	-0.425739	-129.277587
9.850000	-0.431247	-129.840878	-38.844377	-34.841771	-38.844377	-34.841771	-0.431262	-129.841968
9.900000	-0.436782	-130.405200	-38.750546	-36.236552	-38.750546	-36.236552	-0.436797	-130.406311
9.950000	-0.442415	-130.969101	-38.657376	-37.629354	-38.657376	-37.629354	-0.442432	-130.970235
10.000000	-0.448052	-131.533003	-38.565195	-39.022155	-38.565195	-39.022155	-0.448070	-131.534160
