! freq	dB(S11)	phase(S11)	dB(S12)	phase(S12)	
!     	dB(S21)	phase(S21)	dB(S22)	phase(S22)	
!S-par simulation data
#  GHz  S  DB  R 50
0.000000	-81.887910	0.000000	-0.000699	0.000000	-0.000699	0.000000	-81.887910	0.000000
0.050000	-42.016997	-91.361857	-0.005732	-2.977881	-0.005732	-2.977881	-42.018077	-91.316638
0.100000	-36.125795	-94.828820	-0.012687	-5.912931	-0.012687	-5.912931	-36.125047	-94.683810
0.150000	-32.675250	-98.198932	-0.018498	-8.834456	-0.018498	-8.834456	-32.674839	-97.969146
0.200000	-30.231788	-101.455634	-0.024116	-11.752214	-0.024116	-11.752214	-30.231603	-101.146977
0.250000	-28.350150	-104.628415	-0.029999	-14.666768	-0.029999	-14.666768	-28.350031	-104.242873
0.300000	-26.829104	-107.746918	-0.036252	-17.577955	-0.036252	-17.577955	-26.828995	-107.284923
0.350000	-25.559589	-110.827661	-0.042837	-20.485858	-0.042837	-20.485858	-25.559496	-110.289059
0.400000	-24.476881	-113.879409	-0.049711	-23.390580	-0.049711	-23.390580	-24.476838	-113.263727
0.450000	-23.541562	-116.906651	-0.056842	-26.292041	-0.056842	-26.292041	-23.541614	-116.213132
0.500000	-22.722926	-119.915702	-0.064165	-29.190645	-0.064165	-29.190645	-22.723112	-119.143493
0.550000	-22.000386	-122.909776	-0.071635	-32.086541	-0.071635	-32.086541	-22.000732	-122.057953
0.600000	-21.359570	-125.891070	-0.079212	-34.979769	-0.079212	-34.979769	-21.360095	-124.958633
0.650000	-20.790557	-128.861257	-0.086848	-37.870290	-0.086848	-37.870290	-20.791272	-127.847113
0.700000	-20.282635	-131.822748	-0.094491	-40.758358	-0.094491	-40.758358	-20.283540	-130.725846
0.750000	-19.828932	-134.776826	-0.102091	-43.644040	-0.102091	-43.644040	-19.830026	-133.596076
0.800000	-19.425428	-137.724317	-0.109592	-46.527304	-0.109592	-46.527304	-19.426708	-136.458523
0.850000	-19.067172	-140.666418	-0.116940	-49.408316	-0.116940	-49.408316	-19.068632	-139.314335
0.900000	-18.750218	-143.604071	-0.124086	-52.287248	-0.124086	-52.287248	-18.751856	-142.164385
0.950000	-18.471838	-146.538041	-0.130979	-55.164266	-0.130979	-55.164266	-18.473652	-145.009325
1.000000	-18.229677	-149.469059	-0.137572	-58.039586	-0.137572	-58.039586	-18.231670	-147.849756
1.050000	-18.021834	-152.397812	-0.143820	-60.913468	-0.143820	-60.913468	-18.024013	-150.686212
1.100000	-17.846789	-155.324957	-0.149684	-63.786210	-0.149684	-63.786210	-17.849162	-153.519174
1.150000	-17.703351	-158.251135	-0.155127	-66.658150	-0.155127	-66.658150	-17.705934	-156.349080
1.200000	-17.590627	-161.176982	-0.160121	-69.529667	-0.160121	-69.529667	-17.593437	-159.176328
1.250000	-17.507992	-164.103128	-0.164638	-72.401171	-0.164638	-72.401171	-17.511051	-162.001283
1.300000	-17.455712	-167.030248	-0.168648	-75.273125	-0.168648	-75.273125	-17.459046	-164.824242
1.350000	-17.433030	-169.958982	-0.172149	-78.146002	-0.172149	-78.146002	-17.436667	-167.645548
1.400000	-17.440057	-172.889990	-0.175132	-81.020294	-0.175132	-81.020294	-17.444029	-170.465453
1.450000	-17.477151	-175.823947	-0.177597	-83.896507	-0.177597	-83.896507	-17.481493	-173.284161
1.500000	-17.544926	-178.761548	-0.179550	-86.775161	-0.179550	-86.775161	-17.549677	-176.101820
1.550000	-17.644275	178.296488	-0.181002	-89.656780	-0.181002	-89.656780	-17.649477	-178.918501
1.600000	-17.776397	175.349413	-0.181973	-92.541884	-0.181973	-92.541884	-17.782095	178.265814
1.650000	-17.942836	172.396445	-0.182490	-95.430992	-0.182490	-95.430992	-17.949081	175.451257
1.700000	-18.145543	169.436751	-0.182584	-98.324606	-0.182584	-98.324606	-18.152390	172.638108
1.750000	-18.386943	166.469435	-0.182297	-101.223215	-0.182297	-101.223215	-18.394453	169.826834
1.800000	-18.670037	163.493515	-0.181673	-104.127282	-0.181673	-104.127282	-18.678279	167.018148
1.850000	-18.998537	160.507889	-0.180767	-107.037245	-0.180767	-107.037245	-19.007593	164.213083
1.900000	-19.377449	157.511149	-0.179635	-109.953582	-0.179635	-109.953582	-19.387411	161.413184
1.950000	-19.812571	154.501715	-0.178344	-112.876670	-0.178344	-112.876670	-19.823551	158.620609
2.000000	-20.310797	151.477799	-0.176967	-115.806763	-0.176967	-115.806763	-20.322927	155.838267
2.050000	-20.881446	148.436934	-0.175580	-118.744138	-0.175580	-118.744138	-20.894890	153.070368
2.100000	-21.536664	145.375789	-0.174260	-121.689021	-0.174260	-121.689021	-21.551625	150.322986
2.150000	-22.292631	142.289653	-0.173091	-124.641585	-0.173091	-124.641585	-22.309369	147.605104
2.200000	-23.171514	139.171511	-0.172157	-127.601948	-0.172157	-127.601948	-23.190362	144.930473
2.250000	-24.204778	136.010312	-0.171545	-130.570170	-0.171545	-130.570170	-24.226170	142.321109
2.300000	-25.439155	132.787404	-0.171343	-133.546249	-0.171343	-133.546249	-25.463649	139.814445
2.350000	-26.948367	129.468511	-0.171639	-136.530122	-0.171639	-136.530122	-26.976654	137.479494
2.400000	-28.858852	125.982927	-0.172519	-139.521668	-0.172519	-139.521668	-28.891568	135.458689
2.450000	-31.415946	122.158079	-0.174069	-142.520701	-0.174069	-142.520701	-31.452394	134.099341
2.500000	-35.203389	117.441591	-0.176370	-145.526975	-0.176370	-145.526975	-35.231425	134.508575
2.550000	-42.336836	108.055200	-0.179522	-148.540328	-0.179522	-148.540328	-42.141636	143.972546
2.600000	-49.134480	-21.982576	-0.183579	-151.560239	-0.183579	-151.560239	-47.067548	-111.894033
2.650000	-37.737815	-60.358637	-0.188611	-154.586291	-0.188611	-154.586291	-37.416115	-76.573616
2.700000	-32.588646	-66.499124	-0.194678	-157.618017	-0.194678	-157.618017	-32.445418	-73.779667
2.750000	-29.322293	-70.705929	-0.201832	-160.654906	-0.201832	-160.654906	-29.232110	-74.554005
2.800000	-26.920372	-74.376746	-0.210120	-163.696409	-0.210120	-163.696409	-26.854583	-76.366785
2.850000	-25.018377	-77.823341	-0.219578	-166.741944	-0.219578	-166.741944	-24.966355	-78.625024
2.900000	-23.443900	-81.155570	-0.230233	-169.790901	-0.230233	-169.790901	-23.400627	-81.115488
2.950000	-22.101655	-84.421962	-0.242102	-172.842649	-0.242102	-172.842649	-22.064388	-83.742301
3.000000	-20.933391	-87.647127	-0.255193	-175.896547	-0.255193	-175.896547	-20.900476	-86.455762
3.050000	-19.900874	-90.844746	-0.269504	-178.951945	-0.269504	-178.951945	-19.871239	-89.227377
3.100000	-18.977637	-94.022927	-0.285021	177.991806	-0.285021	177.991806	-18.950552	-92.039523
3.150000	-18.144623	-97.186578	-0.301734	174.935349	-0.301734	174.935349	-18.119568	-94.880841
3.200000	-17.387641	-100.338983	-0.319608	171.879328	-0.319608	171.879328	-17.364234	-97.743146
3.250000	-16.695745	-103.482349	-0.338587	168.824346	-0.338587	168.824346	-16.673699	-100.620484
3.300000	-16.060364	-106.618039	-0.358619	165.770974	-0.358619	165.770974	-16.039458	-103.508635
3.350000	-15.474647	-109.746970	-0.379644	162.719744	-0.379644	162.719744	-15.454707	-106.404356
3.400000	-14.933020	-112.869761	-0.401593	159.671152	-0.401593	159.671152	-14.913908	-109.305099
3.450000	-14.430882	-115.986835	-0.424390	156.625645	-0.424390	156.625645	-14.412486	-112.208827
3.500000	-13.964385	-119.098489	-0.447953	153.583621	-0.447953	153.583621	-13.946612	-115.113891
3.550000	-13.530271	-122.204943	-0.472195	150.545424	-0.472195	150.545424	-13.513046	-118.018944
3.600000	-13.125753	-125.306371	-0.497023	147.511342	-0.497023	147.511342	-13.109011	-120.922888
3.650000	-12.748422	-128.402932	-0.522342	144.481603	-0.522342	144.481603	-12.732109	-123.824822
3.700000	-12.396182	-131.494786	-0.548052	141.456377	-0.548052	141.456377	-12.380251	-126.724022
3.750000	-12.067188	-134.582108	-0.574055	138.435769	-0.574055	138.435769	-12.051599	-129.619912
3.800000	-11.760028	-137.665007	-0.600247	135.419927	-0.600247	135.419927	-11.744745	-132.511958
3.850000	-11.473032	-140.743818	-0.626523	132.408731	-0.626523	132.408731	-11.458023	-135.399915
3.900000	-11.204894	-143.818814	-0.652783	129.402100	-0.652783	129.402100	-11.190130	-138.283572
3.950000	-10.954439	-146.890308	-0.678928	126.399896	-0.678928	126.399896	-10.939895	-141.162816
4.000000	-10.720601	-149.958658	-0.704860	123.401924	-0.704860	123.401924	-10.706255	-144.037623
4.050000	-10.502411	-153.024265	-0.730488	120.407933	-0.730488	120.407933	-10.488240	-146.908055
4.100000	-10.298981	-156.087577	-0.755721	117.417623	-0.755721	117.417623	-10.284968	-149.774249
4.150000	-10.109496	-159.149081	-0.780473	114.430643	-0.780473	114.430643	-10.095625	-152.636414
4.200000	-9.933206	-162.209307	-0.804666	111.446597	-0.804666	111.446597	-9.919461	-155.494825
4.250000	-9.769414	-165.268827	-0.828224	108.465046	-0.828224	108.465046	-9.755783	-158.349821
4.300000	-9.617474	-168.328246	-0.851077	105.485511	-0.851077	105.485511	-9.603948	-161.201794
4.350000	-9.476784	-171.388204	-0.873164	102.507480	-0.873164	102.507480	-9.463354	-164.051189
4.400000	-9.346870	-174.449395	-0.894416	99.530412	-0.894416	99.530412	-9.333530	-166.898483
4.450000	-9.227195	-177.512539	-0.914784	96.553711	-0.914784	96.553711	-9.213942	-169.744229
4.500000	-9.117165	179.421655	-0.934235	93.576768	-0.934235	93.576768	-9.103999	-172.589028
4.550000	-9.016307	176.352446	-0.952733	90.598962	-0.952733	90.598962	-9.003230	-175.433490
4.600000	-8.924170	173.279081	-0.970251	87.619655	-0.970251	87.619655	-8.911188	-178.278256
4.650000	-8.840324	170.200798	-0.986767	84.638195	-0.986767	84.638195	-8.827445	178.876006
4.700000	-8.764358	167.116829	-1.002269	81.653922	-1.002269	81.653922	-8.751592	176.028605
4.750000	-8.695874	164.026408	-1.016751	78.666164	-1.016751	78.666164	-8.683235	173.178830
4.800000	-8.634487	160.928774	-1.030214	75.674252	-1.030214	75.674252	-8.621993	170.325954
4.850000	-8.579823	157.823177	-1.042666	72.677510	-1.042666	72.677510	-8.567494	167.469235
4.900000	-8.531516	154.708884	-1.054125	69.675269	-1.054125	69.675269	-8.519373	164.607920
4.950000	-8.489202	151.585181	-1.064612	66.666863	-1.064612	66.666863	-8.477272	161.741247
5.000000	-8.452526	148.451383	-1.074158	63.651636	-1.074158	63.651636	-8.440836	158.868447
5.050000	-8.421235	145.306587	-1.082781	60.628764	-1.082781	60.628764	-8.409816	155.988579
5.100000	-8.394853	142.150401	-1.090544	57.597765	-1.090544	57.597765	-8.383736	153.100998
5.150000	-8.373019	138.982255	-1.097498	54.558024	-1.097498	54.558024	-8.362238	150.204923
5.200000	-8.355368	135.801627	-1.103700	51.508944	-1.103700	51.508944	-8.344959	147.299574
5.250000	-8.341722	132.607332	-1.109175	48.449391	-1.109175	48.449391	-8.331722	144.383594
5.300000	-8.331331	129.400230	-1.114060	45.379781	-1.114060	45.379781	-8.321775	141.457181
5.350000	-8.323977	126.179424	-1.118396	42.299166	-1.118396	42.299166	-8.314900	138.519129
5.400000	-8.319259	122.944638	-1.122262	39.207042	-1.122262	39.207042	-8.310697	135.568654
5.450000	-8.316768	119.695667	-1.125739	36.102936	-1.125739	36.102936	-8.308756	132.604972
5.500000	-8.316079	116.432380	-1.128915	32.986401	-1.128915	32.986401	-8.308649	129.627296
5.550000	-8.316755	113.154723	-1.131880	29.857020	-1.131880	29.857020	-8.309939	126.634840
5.600000	-8.318345	109.862718	-1.134729	26.714405	-1.134729	26.714405	-8.312172	123.626812
5.650000	-8.320385	106.556464	-1.137559	23.558197	-1.137559	23.558197	-8.314881	120.602421
5.700000	-8.322397	103.236137	-1.140470	20.388069	-1.140470	20.388069	-8.317585	117.560872
5.750000	-8.323890	99.901988	-1.143567	17.203722	-1.143567	17.203722	-8.319790	114.501366
5.800000	-8.324364	96.554337	-1.146954	14.004884	-1.146954	14.004884	-8.320990	111.423106
5.850000	-8.323307	93.193572	-1.150741	10.791314	-1.150741	10.791314	-8.320671	108.325293
5.900000	-8.320203	89.820139	-1.155035	7.562796	-1.155035	7.562796	-8.318312	105.207130
5.950000	-8.314530	86.434537	-1.159951	4.319139	-1.159951	4.319139	-8.313386	102.067827
6.000000	-8.305767	83.037305	-1.165600	1.060178	-1.165600	1.060178	-8.305367	98.906604
6.050000	-8.293395	79.629017	-1.172099	-2.214231	-1.172099	-2.214231	-8.293732	95.722697
6.100000	-8.276905	76.210265	-1.179565	-5.504210	-1.179565	-5.504210	-8.277966	92.515363
6.150000	-8.255801	72.781648	-1.188118	-8.809863	-1.188118	-8.809863	-8.257568	89.283886
6.200000	-8.229605	69.343759	-1.197879	-12.131275	-1.197879	-12.131275	-8.232055	86.027592
6.250000	-8.197865	65.897170	-1.208973	-15.468513	-1.208973	-15.468513	-8.200968	82.745851
6.300000	-8.159870	62.442088	-1.221596	-18.822323	-1.221596	-18.822323	-8.163590	79.436935
6.350000	-8.115484	58.979372	-1.235821	-22.192051	-1.235821	-22.192051	-8.119779	76.101454
6.400000	-8.064366	55.509441	-1.251783	-25.577718	-1.251783	-25.577718	-8.069190	72.738992
6.450000	-8.006226	52.032637	-1.269623	-28.979328	-1.269623	-28.979328	-8.011525	69.349219
6.500000	-7.941254	48.549573	-1.289372	-32.396006	-1.289372	-32.396006	-7.946971	65.933405
6.550000	-7.868515	45.059775	-1.311375	-35.829281	-1.311375	-35.829281	-7.874581	62.488718
6.600000	-7.788218	41.563607	-1.335705	-39.278416	-1.335705	-39.278416	-7.794561	59.016325
6.650000	-7.700304	38.061042	-1.362527	-42.743341	-1.362527	-42.743341	-7.706845	55.516309
6.700000	-7.604783	34.551948	-1.392016	-46.223967	-1.392016	-46.223967	-7.611435	51.988862
6.750000	-7.501727	31.036095	-1.424354	-49.720177	-1.424354	-49.720177	-7.508399	48.434282
6.800000	-7.391274	27.513147	-1.459733	-53.231825	-1.459733	-53.231825	-7.397870	44.852965
6.850000	-7.273626	23.982672	-1.498361	-56.758735	-1.498361	-56.758735	-7.280045	41.245397
6.900000	-7.148952	20.444047	-1.540491	-60.300861	-1.540491	-60.300861	-7.155087	37.611865
6.950000	-7.017574	16.896621	-1.586363	-63.857951	-1.586363	-63.857951	-7.023317	33.953003
7.000000	-6.879956	13.339753	-1.636191	-67.429563	-1.636191	-67.429563	-6.885198	30.269733
7.050000	-6.736512	9.772611	-1.690245	-71.015387	-1.690245	-71.015387	-6.741144	26.562696
7.100000	-6.587691	6.194246	-1.748816	-74.615085	-1.748816	-74.615085	-6.591609	22.832488
7.150000	-6.433974	2.603577	-1.812223	-78.228295	-1.812223	-78.228295	-6.437073	19.079621
7.200000	-6.275857	-1.000647	-1.880820	-81.854644	-1.880820	-81.854644	-6.278042	15.304466
7.250000	-6.113852	-4.619890	-1.955003	-85.493754	-1.955003	-85.493754	-6.115032	11.507176
7.300000	-5.948470	-8.255895	-2.035224	-89.145262	-2.035224	-89.145262	-5.948565	7.687606
7.350000	-5.780218	-11.910781	-2.122004	-92.808834	-2.122004	-92.808834	-5.779155	3.845198
7.400000	-5.609586	-15.587174	-2.215963	-96.484188	-2.215963	-96.484188	-5.607307	-0.021172
7.450000	-5.437042	-19.288391	-2.317848	-100.171109	-2.317848	-100.171109	-5.433499	-3.913390
7.500000	-5.263023	-23.018697	-2.428584	-103.869471	-2.428584	-103.869471	-5.258183	-7.834372
7.550000	-5.087623	-26.786836	-2.550070	-107.580064	-2.550070	-107.580064	-5.081463	-11.791395
7.600000	-4.911859	-30.594551	-2.682485	-111.301188	-2.682485	-111.301188	-4.904382	-15.785404
7.650000	-4.735805	-34.453780	-2.828333	-115.033401	-2.828333	-115.033401	-4.727025	-19.827219
7.700000	-4.559654	-38.380906	-2.990945	-118.776662	-2.990945	-118.776662	-4.549605	-23.932120
7.750000	-4.383891	-42.396498	-3.174427	-122.529111	-3.174427	-122.529111	-4.372630	-28.119851
7.800000	-4.209252	-46.528964	-3.384559	-126.285817	-3.384559	-126.285817	-4.196871	-32.418218
7.850000	-4.037017	-50.820174	-3.630077	-130.035121	-3.630077	-130.035121	-4.023645	-36.868625
7.900000	-3.869769	-55.334281	-3.924722	-133.749508	-3.924722	-133.749508	-3.855596	-41.534878
7.950000	-3.713441	-60.177989	-4.291776	-137.359629	-4.291776	-137.359629	-3.698766	-46.523421
8.000000	-3.582387	-65.521345	-4.769079	-140.684598	-4.769079	-140.684598	-3.567696	-52.004402
8.050000	-3.509146	-71.605839	-5.410095	-143.277954	-5.410095	-143.277954	-3.495259	-58.219840
8.100000	-3.584469	-78.835384	-6.274325	-143.813162	-6.274325	-143.813162	-3.573012	-65.573559
8.150000	-4.044435	-87.424238	-7.160914	-139.128078	-7.160914	-139.128078	-4.038865	-74.276575
8.200000	-5.386525	-95.419091	-6.822361	-128.475317	-6.822361	-128.475317	-5.393981	-82.349609
8.250000	-7.608925	-93.616492	-4.835151	-125.789676	-4.835151	-125.789676	-7.632075	-80.482042
8.300000	-8.141425	-80.005699	-3.410620	-133.590599	-3.410620	-133.590599	-8.145498	-66.742055
8.350000	-6.945661	-73.701396	-2.936218	-142.724224	-2.936218	-142.724224	-6.925510	-60.505993
8.400000	-5.864402	-74.449118	-2.901185	-150.324544	-2.901185	-150.324544	-5.834262	-61.350204
8.450000	-5.131046	-77.501974	-3.020663	-156.545643	-3.020663	-156.545643	-5.096504	-64.473852
8.500000	-4.629024	-81.180139	-3.190008	-161.843382	-3.190008	-161.843382	-4.591957	-68.199165
8.550000	-4.267073	-84.979747	-3.371875	-166.543980	-3.371875	-166.543980	-4.228181	-72.026950
8.600000	-3.989493	-88.756849	-3.553632	-170.865288	-3.553632	-170.865288	-3.949066	-75.816974
8.650000	-3.769458	-92.471779	-3.730814	-174.914368	-3.730814	-174.914368	-3.727639	-79.530796
8.700000	-3.589328	-96.117950	-3.902017	-178.767986	-3.902017	-178.767986	-3.546193	-83.162857
8.750000	-3.438204	-99.699905	-4.067019	177.523965	-4.067019	177.523965	-3.393801	-86.718333
8.800000	-3.309382	-103.224109	-4.225811	173.929701	-4.225811	173.929701	-3.263746	-90.203844
8.850000	-3.197673	-106.699699	-4.378873	170.423029	-4.378873	170.423029	-3.150839	-93.629050
8.900000	-3.099837	-110.133777	-4.526457	166.987158	-4.526457	166.987158	-3.051842	-97.001218
8.950000	-3.013536	-113.532675	-4.668760	163.609447	-4.668760	163.609447	-2.964422	-100.326779
9.000000	-2.937034	-116.902019	-4.805917	160.280063	-4.805917	160.280063	-2.886848	-103.611402
9.050000	-2.869013	-120.246840	-4.938007	156.991117	-4.938007	156.991117	-2.817811	-106.860120
9.100000	-2.808448	-123.571696	-5.065059	153.736076	-5.065059	153.736076	-2.756292	-110.077459
9.150000	-2.754530	-126.880780	-5.187064	150.509371	-5.187064	150.509371	-2.701492	-113.267542
9.200000	-2.706609	-130.178007	-5.303976	147.306111	-5.303976	147.306111	-2.652768	-116.434185
9.250000	-2.664157	-133.467082	-5.415725	144.121888	-5.415725	144.121888	-2.609600	-119.580967
9.300000	-2.626741	-136.751559	-5.522220	140.952629	-5.522220	140.952629	-2.571561	-122.711287
9.350000	-2.594003	-140.034884	-5.623353	137.794486	-5.623353	137.794486	-2.538301	-125.828407
9.400000	-2.565692	-143.320486	-5.718935	134.643792	-5.718935	134.643792	-2.509575	-128.935421
9.450000	-2.541557	-146.611799	-5.808837	131.496795	-5.808837	131.496795	-2.485138	-132.035526
9.500000	-2.521354	-149.912088	-5.892999	128.349800	-5.892999	128.349800	-2.464747	-135.131874
9.550000	-2.504925	-153.224628	-5.971283	125.199169	-5.971283	125.199169	-2.448245	-138.227476
9.600000	-2.492144	-156.552691	-6.043558	122.041192	-6.043558	122.041192	-2.435507	-141.325327
9.650000	-2.482915	-159.899550	-6.109690	118.872059	-6.109690	118.872059	-2.426437	-144.428415
9.700000	-2.477174	-163.268481	-6.169556	115.687823	-6.169556	115.687823	-2.420964	-147.539727
9.750000	-2.474880	-166.662768	-6.223042	112.484369	-6.223042	112.484369	-2.419043	-150.662257
9.800000	-2.476019	-170.085695	-6.270045	109.257384	-6.270045	109.257384	-2.420652	-153.799008
9.850000	-2.480600	-173.540541	-6.310483	106.002329	-6.310483	106.002329	-2.425789	-156.952994
9.900000	-2.488656	-177.030573	-6.344296	102.714405	-6.344296	102.714405	-2.434474	-160.127244
9.950000	-2.500239	179.440964	-6.371453	99.388527	-6.371453	99.388527	-2.446747	-163.324794
10.000000	-2.515424	175.870867	-6.391958	96.019293	-6.391958	96.019293	-2.462665	-166.548692
