! freq	dB(S11)	phase(S11)	dB(S12)	phase(S12)	
!     	dB(S21)	phase(S21)	dB(S22)	phase(S22)	
!S-par simulation data
#  GHz  S  DB  R 50
0.000000	-80.355158	0.000000	-0.000834	0.000000	-0.000834	0.000000	-80.355158	0.000000
0.050000	-45.024939	-76.522731	-0.018578	-3.091170	-0.018578	-3.091170	-44.974484	-75.829609
0.100000	-39.330327	-87.472130	-0.024951	-6.136038	-0.024951	-6.136038	-39.274794	-86.020272
0.150000	-35.974360	-93.996836	-0.029592	-9.171115	-0.029592	-9.171115	-35.916429	-91.780446
0.200000	-33.581976	-99.253411	-0.033784	-12.205316	-0.033784	-12.205316	-33.523514	-96.265259
0.250000	-31.731288	-103.850980	-0.038015	-15.239141	-0.038015	-15.239141	-31.673519	-100.086543
0.300000	-30.230109	-108.098031	-0.042413	-18.272346	-0.042413	-18.272346	-30.173717	-103.552924
0.350000	-28.973365	-112.134225	-0.046963	-21.304926	-0.046963	-21.304926	-28.918711	-106.803327
0.400000	-27.898323	-116.029356	-0.051634	-24.337015	-0.051634	-24.337015	-27.845620	-109.906467
0.450000	-26.966481	-119.822017	-0.056402	-27.368830	-0.056402	-27.368830	-26.915900	-112.899005
0.500000	-26.148113	-123.549484	-0.061235	-30.400660	-0.061235	-30.400660	-26.099729	-115.817396
0.550000	-25.423218	-127.230411	-0.066116	-33.432741	-0.066116	-33.432741	-25.377078	-118.679054
0.600000	-24.777766	-130.877394	-0.071034	-36.465309	-0.071034	-36.465309	-24.733921	-121.494935
0.650000	-24.201996	-134.500063	-0.075978	-39.498642	-0.075978	-39.498642	-24.160506	-124.272398
0.700000	-23.685591	-138.107629	-0.080937	-42.532911	-0.080937	-42.532911	-23.646496	-127.019987
0.750000	-23.221810	-141.705558	-0.085898	-45.568325	-0.085898	-45.568325	-23.185154	-129.741615
0.800000	-22.806565	-145.298293	-0.090848	-48.605179	-0.090848	-48.605179	-22.772418	-132.439050
0.850000	-22.435722	-148.890187	-0.095772	-51.643757	-0.095772	-51.643757	-22.404163	-135.114389
0.900000	-22.102709	-152.484255	-0.100657	-54.684086	-0.100657	-54.684086	-22.073791	-137.771290
0.950000	-21.808721	-156.084178	-0.105479	-57.726776	-0.105479	-57.726776	-21.782552	-140.407452
1.000000	-21.547818	-159.691821	-0.110228	-60.771803	-0.110228	-60.771803	-21.524478	-143.025877
1.050000	-21.319958	-163.310467	-0.114879	-63.819670	-0.114879	-63.819670	-21.299555	-145.625194
1.100000	-21.122921	-166.942389	-0.119416	-66.870641	-0.119416	-66.870641	-21.105567	-148.205547
1.150000	-20.954335	-170.589502	-0.123825	-69.924918	-0.123825	-69.924918	-20.940141	-150.767195
1.200000	-20.815479	-174.255999	-0.128077	-72.983191	-0.128077	-72.983191	-20.804589	-153.307484
1.250000	-20.701495	-177.941419	-0.132179	-76.045193	-0.132179	-76.045193	-20.694030	-155.828646
1.300000	-20.617009	178.346635	-0.136082	-79.112202	-0.136082	-79.112202	-20.613152	-158.324787
1.350000	-20.556069	174.610452	-0.139816	-82.183603	-0.139816	-82.183603	-20.555972	-160.799266
1.400000	-20.522152	170.842527	-0.143343	-85.260525	-0.143343	-85.260525	-20.526026	-163.246498
1.450000	-20.512550	167.042395	-0.146683	-88.342824	-0.146683	-88.342824	-20.520611	-165.666933
1.500000	-20.528096	163.204881	-0.149831	-91.431105	-0.149831	-91.431105	-20.540606	-168.056974
1.550000	-20.569271	159.324972	-0.152793	-94.525887	-0.152793	-94.525887	-20.586538	-170.413083
1.600000	-20.634278	155.401382	-0.155595	-97.627082	-0.155595	-97.627082	-20.656641	-172.734565
1.650000	-20.726728	151.422121	-0.158233	-100.736091	-0.158233	-100.736091	-20.754628	-175.012079
1.700000	-20.843174	147.389526	-0.160748	-103.852235	-0.160748	-103.852235	-20.877071	-177.247408
1.750000	-20.986679	143.291063	-0.163147	-106.976777	-0.163147	-106.976777	-21.027149	-179.430335
1.800000	-21.157223	139.120591	-0.165453	-110.109996	-0.165453	-110.109996	-21.204921	178.444622
1.850000	-21.355653	134.869087	-0.167688	-113.252396	-0.167688	-113.252396	-21.411340	176.385612
1.900000	-21.583249	130.524870	-0.169871	-116.404591	-0.169871	-116.404591	-21.647805	174.403429
1.950000	-21.841204	126.074977	-0.172023	-119.567095	-0.172023	-119.567095	-21.915644	172.510523
2.000000	-22.130662	121.505346	-0.174167	-122.740293	-0.174167	-122.740293	-22.216148	170.720903
2.050000	-22.453229	116.797801	-0.176325	-125.924665	-0.176325	-125.924665	-22.551098	169.052852
2.100000	-22.810718	111.930179	-0.178518	-129.120680	-0.178518	-129.120680	-22.922507	167.529081
2.150000	-23.205131	106.875183	-0.180772	-132.328803	-0.180772	-132.328803	-23.332606	166.178018
2.200000	-23.638622	101.598861	-0.183109	-135.549491	-0.183109	-135.549491	-23.783800	165.035552
2.250000	-24.113397	96.058596	-0.185555	-138.783199	-0.185555	-138.783199	-24.278563	164.147349
2.300000	-24.631534	90.200455	-0.188135	-142.030381	-0.188135	-142.030381	-24.819223	163.571955
2.350000	-25.194635	83.955752	-0.190876	-145.291490	-0.190876	-145.291490	-25.407547	163.384837
2.400000	-25.803196	77.236773	-0.193803	-148.566986	-0.193803	-148.566986	-26.043989	163.683466
2.450000	-26.455511	69.931854	-0.196942	-151.857334	-0.196942	-151.857334	-26.726327	164.593107
2.500000	-27.145782	61.900842	-0.200317	-155.163012	-0.200317	-155.163012	-27.447311	166.271928
2.550000	-27.859729	52.949782	-0.203960	-158.484864	-0.203960	-158.484864	-28.189191	168.937283
2.600000	-28.572073	42.902905	-0.207890	-161.823066	-0.207890	-161.823066	-28.920544	172.783159
2.650000	-29.239374	31.584587	-0.212129	-165.178149	-0.212129	-165.178149	-29.587830	177.986360
2.700000	-29.796493	18.911951	-0.216700	-168.550667	-0.216700	-168.550667	-30.113029	-175.414170
2.750000	-30.161815	5.011270	-0.221625	-171.941209	-0.221625	-171.941209	-30.404764	-167.657119
2.800000	-30.259309	-9.688750	-0.226926	-175.350392	-0.226926	-175.350392	-30.390285	-159.329848
2.850000	-30.052363	-24.504106	-0.232622	-178.778880	-0.232622	-178.778880	-30.053379	-151.234658
2.900000	-29.563998	-38.719861	-0.238736	177.772625	-0.238736	177.772625	-29.443920	-144.087285
2.950000	-28.863425	-51.838585	-0.245288	174.303366	-0.245288	174.303366	-28.648864	-138.287092
3.000000	-28.032592	-63.670465	-0.252299	170.812533	-0.252299	170.812533	-27.754001	-133.906785
3.050000	-27.140301	-74.261343	-0.259794	167.299255	-0.259794	167.299255	-26.823355	-130.818458
3.100000	-26.233721	-83.773407	-0.267795	163.762593	-0.267795	163.762593	-25.897007	-128.820000
3.150000	-25.340293	-92.390143	-0.276338	160.201257	-0.276338	160.201257	-24.996309	-127.716345
3.200000	-24.475164	-100.293205	-0.285454	156.614116	-0.285454	156.614116	-24.131897	-127.328856
3.250000	-23.645296	-107.637867	-0.295171	153.000253	-0.295171	153.000253	-23.307722	-127.510827
3.300000	-22.852115	-114.540340	-0.305530	149.358389	-0.305530	149.358389	-22.523372	-128.155912
3.350000	-22.094496	-121.091610	-0.316579	145.687150	-0.316579	145.687150	-21.776589	-129.182707
3.400000	-21.370013	-127.362406	-0.328372	141.985049	-0.328372	141.985049	-21.064259	-130.529267
3.450000	-20.676512	-133.413588	-0.340944	138.251604	-0.340944	138.251604	-20.383727	-132.140890
3.500000	-20.008910	-139.274227	-0.354429	134.482729	-0.354429	134.482729	-19.729868	-133.999398
3.550000	-19.365073	-144.986212	-0.368886	130.677802	-0.368886	130.677802	-19.100296	-136.067781
3.600000	-18.741962	-150.575779	-0.384416	126.834829	-0.384416	126.834829	-18.491893	-138.326106
3.650000	-18.136736	-156.063741	-0.401140	122.951666	-0.401140	122.951666	-17.901771	-140.759654
3.700000	-17.546779	-161.466738	-0.419200	119.026013	-0.419200	119.026013	-17.327279	-143.357791
3.750000	-16.969701	-166.798202	-0.438759	115.055404	-0.438759	115.055404	-16.765998	-146.113106
3.800000	-16.403036	-172.068566	-0.460029	111.036648	-0.460029	111.036648	-16.215454	-149.022369
3.850000	-15.845118	-177.287687	-0.483218	106.967399	-0.483218	106.967399	-15.673917	-152.081110
3.900000	-15.294209	177.536708	-0.508589	102.844635	-0.508589	102.844635	-15.139598	-155.288156
3.950000	-14.748774	172.397859	-0.536445	98.665136	-0.536445	98.665136	-14.610901	-158.643582
4.000000	-14.207478	167.289650	-0.567137	94.425480	-0.567137	94.425480	-14.086421	-162.148426
4.050000	-13.669178	162.206353	-0.601077	90.122047	-0.601077	90.122047	-13.564934	-165.804444
4.100000	-13.132666	157.142519	-0.638772	85.750435	-0.638772	85.750435	-13.045156	-169.615173
4.150000	-12.597348	152.092398	-0.680762	81.306950	-0.680762	81.306950	-12.526384	-173.582404
4.200000	-12.062960	147.050213	-0.727644	76.788118	-0.727644	76.788118	-12.008235	-177.707431
4.250000	-11.528679	142.010081	-0.780229	72.188503	-0.780229	72.188503	-11.489803	178.004692
4.300000	-10.994623	136.965697	-0.839331	67.504348	-0.839331	67.504348	-10.971086	173.552696
4.350000	-10.460780	131.910478	-0.905951	62.731016	-0.905951	62.731016	-10.451970	168.933870
4.400000	-9.927499	126.837611	-0.981206	57.864299	-0.981206	57.864299	-9.932703	164.146609
4.450000	-9.395333	121.740084	-1.066376	52.900101	-1.066376	52.900101	-9.413746	159.189764
4.500000	-8.865174	116.610990	-1.162876	47.835003	-1.162876	47.835003	-8.895906	154.063450
4.550000	-8.337768	111.443016	-1.272472	42.664671	-1.272472	42.664671	-8.379863	148.766390
4.600000	-7.814860	106.230310	-1.396800	37.388264	-1.396800	37.388264	-7.867300	143.302821
4.650000	-7.297717	100.966574	-1.538034	32.003160	-1.538034	32.003160	-7.359446	137.673898
4.700000	-6.788335	95.647408	-1.698283	26.510008	-1.698283	26.510008	-6.858268	131.885401
4.750000	-6.288848	90.269884	-1.879799	20.910994	-1.879799	20.910994	-6.365893	125.944706
4.800000	-5.801274	84.831752	-2.085335	15.208345	-2.085335	15.208345	-5.884340	119.858595
4.850000	-5.328250	79.334845	-2.317105	9.409776	-2.317105	9.409776	-5.416273	113.640686
4.900000	-4.872094	73.781925	-2.577867	3.522883	-2.577867	3.522883	-4.964041	107.303433
4.950000	-4.435272	68.179231	-2.870061	-2.440826	-2.870061	-2.440826	-4.530157	100.863595
5.000000	-4.020050	62.535939	-3.195817	-8.466963	-3.195817	-8.466963	-4.116951	94.340712
5.050000	-3.628581	56.863049	-3.557620	-14.539994	-3.557620	-14.539994	-3.726625	87.754804
5.100000	-3.262568	51.175099	-3.956857	-20.640468	-3.956857	-20.640468	-3.360964	81.130132
5.150000	-2.923305	45.487933	-4.394814	-26.748217	-4.394814	-26.748217	-3.021335	74.491091
5.200000	-2.611606	39.818651	-4.872306	-32.842149	-4.872306	-32.842149	-2.708630	67.862689
5.250000	-2.327776	34.184875	-5.389661	-38.901006	-5.389661	-38.901006	-2.423225	61.269773
5.300000	-2.071604	28.603989	-5.946724	-44.904150	-5.946724	-44.904150	-2.164985	54.736241
5.350000	-1.842401	23.092423	-6.542897	-50.832298	-6.542897	-50.832298	-1.933290	48.284322
5.400000	-1.639054	17.665027	-7.177211	-56.668156	-7.177211	-56.668156	-1.727090	41.933957
5.450000	-1.460292	12.335649	-7.848222	-62.395738	-7.848222	-62.395738	-1.545174	35.703648
5.500000	-1.304278	7.114422	-8.554403	-68.003342	-8.554403	-68.003342	-1.385762	29.607231
5.550000	-1.169021	2.008743	-9.294287	-73.482472	-9.294287	-73.482472	-1.246914	23.655112
5.600000	-1.052553	-2.975952	-10.066368	-78.826990	-10.066368	-78.826990	-1.126706	17.855272
5.650000	-0.952905	-7.836505	-10.869240	-84.033497	-10.869240	-84.033497	-1.023209	12.212904
5.700000	-0.868168	-12.571794	-11.701669	-89.101116	-11.701669	-89.101116	-0.934546	6.730701
5.750000	-0.796534	-17.182445	-12.562649	-94.031250	-12.562649	-94.031250	-0.858937	1.409197
5.800000	-0.736327	-21.670526	-13.451440	-98.827333	-13.451440	-98.827333	-0.794729	-3.752879
5.850000	-0.686538	-26.032021	-14.363069	-103.486984	-14.363069	-103.486984	-0.740932	-8.748668
5.900000	-0.644454	-30.289504	-15.308755	-108.036769	-15.308755	-108.036769	-0.694853	-13.606520
5.950000	-0.610255	-34.427527	-16.275468	-112.464300	-16.275468	-112.464300	-0.656678	-18.304302
6.000000	-0.581965	-38.465897	-17.274327	-116.794536	-17.274327	-116.794536	-0.624443	-22.867093
6.050000	-0.559116	-42.402037	-18.299939	-121.031957	-18.299939	-121.031957	-0.597683	-27.289806
6.100000	-0.540817	-46.243348	-19.354827	-125.192333	-19.354827	-125.192333	-0.575515	-31.581036
6.150000	-0.526235	-49.998859	-20.444763	-129.294902	-20.444763	-129.294902	-0.557104	-35.751790
6.200000	-0.515132	-53.665759	-21.560989	-133.355137	-21.560989	-133.355137	-0.542214	-39.796479
6.250000	-0.506563	-57.261746	-22.723041	-137.400989	-22.723041	-137.400989	-0.529896	-43.738878
6.300000	-0.500654	-60.776154	-23.907617	-141.464047	-23.907617	-141.464047	-0.520276	-47.561822
6.350000	-0.496582	-64.229104	-25.142975	-145.576433	-25.142975	-145.576433	-0.512525	-51.293312
6.400000	-0.494365	-67.615195	-26.410466	-149.798755	-26.410466	-149.798755	-0.506657	-54.923631
6.450000	-0.493606	-70.944952	-27.723893	-154.181726	-27.723893	-154.181726	-0.502268	-58.467139
6.500000	-0.494168	-74.220619	-29.076775	-158.815046	-29.076775	-158.815046	-0.499216	-61.925591
6.550000	-0.495916	-77.445467	-30.459722	-163.809804	-30.459722	-163.809804	-0.497358	-65.302364
6.600000	-0.498638	-80.627231	-31.877771	-169.262674	-31.877771	-169.262674	-0.496475	-68.608150
6.650000	-0.502362	-83.764026	-33.279143	-175.404936	-33.279143	-175.404936	-0.496587	-71.837742
6.700000	-0.506853	-86.866546	-34.670025	177.732430	-34.670025	177.732430	-0.497451	-75.007373
6.750000	-0.512205	-89.931608	-35.937781	169.881960	-35.937781	169.881960	-0.499150	-78.108961
6.800000	-0.518241	-92.968487	-37.056467	161.232282	-37.056467	161.232282	-0.501499	-81.157044
6.850000	-0.524986	-95.978236	-37.913825	151.994064	-37.913825	151.994064	-0.504513	-84.150978
6.900000	-0.532466	-98.962922	-38.413613	142.773345	-38.413613	142.773345	-0.508204	-87.091383
6.950000	-0.540615	-101.928077	-38.571661	134.290434	-38.571661	134.290434	-0.512499	-89.986369
7.000000	-0.549440	-104.876921	-38.421245	127.084571	-38.421245	127.084571	-0.517389	-92.839335
7.050000	-0.558952	-107.812674	-38.023177	121.413261	-38.023177	121.413261	-0.522878	-95.653609
7.100000	-0.569177	-110.738570	-37.439265	117.257056	-37.439265	117.257056	-0.528976	-98.432457
7.150000	-0.580146	-113.657878	-36.718262	114.412985	-36.718262	114.412985	-0.535700	-101.179105
7.200000	-0.591960	-116.573941	-35.883330	112.643420	-35.883330	112.643420	-0.543124	-103.895016
7.250000	-0.604666	-119.490735	-34.962666	111.593499	-34.962666	111.593499	-0.551281	-106.584377
7.300000	-0.618296	-122.411932	-33.983121	110.959442	-33.983121	110.959442	-0.560186	-109.251786
7.350000	-0.632931	-125.341205	-32.960557	110.535517	-32.960557	110.535517	-0.569900	-111.900475
7.400000	-0.648669	-128.282393	-31.908962	110.167426	-31.908962	110.167426	-0.580498	-114.533726
7.450000	-0.665625	-131.239530	-30.840411	109.747132	-30.840411	109.747132	-0.592067	-117.154894
7.500000	-0.683935	-134.216884	-29.764869	109.204404	-29.764869	109.204404	-0.604713	-119.767432
7.550000	-0.703901	-137.221507	-28.679231	108.481460	-28.679231	108.481460	-0.618674	-122.374718
7.600000	-0.725633	-140.257158	-27.599410	107.568108	-27.599410	107.568108	-0.634038	-124.981361
7.650000	-0.749374	-143.329419	-26.529440	106.458168	-26.529440	106.458168	-0.650999	-127.591505
7.700000	-0.775414	-146.444362	-25.471776	105.152619	-25.471776	105.152619	-0.669790	-130.209544
7.750000	-0.804100	-149.608633	-24.427642	103.656026	-24.427642	103.656026	-0.690693	-132.840169
7.800000	-0.835849	-152.829543	-23.397338	101.974181	-23.397338	101.974181	-0.714047	-135.488419
7.850000	-0.871168	-156.115179	-22.380496	100.112593	-22.380496	100.112593	-0.740265	-138.159735
7.900000	-0.910667	-159.474528	-21.376288	98.075560	-21.376288	98.075560	-0.769850	-140.860020
7.950000	-0.954565	-162.908540	-20.393398	95.882418	-20.393398	95.882418	-0.802983	-143.591683
8.000000	-1.004662	-166.444213	-19.411967	93.501933	-19.411967	93.501933	-0.841143	-146.368492
8.050000	-1.061676	-170.087046	-18.439424	90.947253	-18.439424	90.947253	-0.884927	-149.195153
8.100000	-1.126987	-173.851228	-17.474425	88.213968	-17.474425	88.213968	-0.935478	-152.080040
8.150000	-1.202435	-177.754497	-16.514627	85.292880	-16.514627	85.292880	-0.994319	-155.033131
8.200000	-1.290250	178.184278	-15.558935	82.173694	-15.558935	82.173694	-1.063296	-158.064691
8.250000	-1.393067	173.945831	-14.607616	78.845450	-14.607616	78.845450	-1.144583	-161.184642
8.300000	-1.514346	169.506689	-13.660210	75.292155	-13.660210	75.292155	-1.241029	-164.404163
8.350000	-1.658119	164.844114	-12.718150	71.498601	-12.718150	71.498601	-1.355923	-167.732827
8.400000	-1.830248	159.925199	-11.780431	67.439064	-11.780431	67.439064	-1.494029	-171.183197
8.450000	-2.038875	154.708681	-10.846114	63.080488	-10.846114	63.080488	-1.661908	-174.768229
8.500000	-2.291781	149.171593	-9.921827	58.408853	-9.921827	58.408853	-1.865628	-178.487933
8.550000	-2.600357	143.277425	-9.011039	53.397589	-9.011039	53.397589	-2.113942	177.658220
8.600000	-2.982913	136.964653	-8.114974	47.999666	-8.114974	47.999666	-2.420722	173.675021
8.650000	-3.455953	130.214541	-7.244777	42.211433	-7.244777	42.211433	-2.797291	169.598390
8.700000	-4.042987	122.995647	-6.409157	36.022410	-6.409157	36.022410	-3.258927	165.482735
8.750000	-4.779535	115.253619	-5.616964	29.414004	-5.616964	29.414004	-3.827038	161.424880
8.800000	-5.703771	106.971927	-4.881133	22.416027	-4.881133	22.416027	-4.519002	157.579094
8.850000	-6.871291	98.103000	-4.213996	15.065104	-4.213996	15.065104	-5.353737	154.190322
8.900000	-8.353524	88.585232	-3.626277	7.437006	-3.626277	7.437006	-6.340338	151.594422
8.950000	-10.260698	78.230977	-3.126202	-0.376931	-3.126202	-0.376931	-7.472518	150.268102
9.000000	-12.774951	66.514358	-2.717795	-8.265970	-2.717795	-8.265970	-8.707234	150.813090
9.050000	-16.246784	51.825131	-2.398897	-16.116245	-2.398897	-16.116245	-9.941437	153.800208
9.100000	-21.361192	27.158606	-2.164408	-23.820904	-2.164408	-23.820904	-10.983061	159.510332
9.150000	-26.021232	-37.406893	-2.004154	-31.292151	-2.004154	-31.292151	-11.603959	167.219503
9.200000	-21.793398	-98.363553	-1.903072	-38.484914	-1.903072	-38.484914	-11.717831	175.209180
9.250000	-17.536810	-121.115775	-1.851405	-45.349123	-1.851405	-45.349123	-11.389154	-178.246180
9.300000	-14.828834	-134.327460	-1.835044	-51.886333	-1.835044	-51.886333	-10.835951	-173.841191
9.350000	-12.983929	-144.365975	-1.842998	-58.109005	-1.842998	-58.109005	-10.224731	-171.411882
9.400000	-11.666753	-152.858239	-1.866756	-64.028857	-1.866756	-64.028857	-9.647733	-170.548414
9.450000	-10.698131	-160.457047	-1.898832	-69.674412	-1.898832	-69.674412	-9.145762	-170.784318
9.500000	-9.971331	-167.481639	-1.933515	-75.083880	-1.933515	-75.083880	-8.727846	-171.747423
9.550000	-9.425809	-174.091451	-1.966785	-80.285370	-1.966785	-80.285370	-8.392591	-173.207416
9.600000	-9.023736	179.611735	-1.995494	-85.304080	-1.995494	-85.304080	-8.135663	-175.005804
9.650000	-8.732024	173.536109	-2.017848	-90.176538	-2.017848	-90.176538	-7.946651	-177.014512
9.700000	-8.531775	167.624696	-2.032636	-94.927541	-2.032636	-94.927541	-7.818886	-179.158245
9.750000	-8.414606	161.838002	-2.038591	-99.573102	-2.038591	-99.573102	-7.750538	178.614886
9.800000	-8.364107	156.126797	-2.036360	-104.141972	-2.036360	-104.141972	-7.732046	176.356470
9.850000	-8.375728	150.463703	-2.026106	-108.647893	-2.026106	-108.647893	-7.760858	174.101342
9.900000	-8.441219	144.818400	-2.009016	-113.109468	-2.009016	-113.109468	-7.829138	171.874608
9.950000	-8.559723	139.154627	-1.985551	-117.539692	-1.985551	-117.539692	-7.936041	169.651795
10.000000	-8.719363	133.420822	-1.957539	-121.957164	-1.957539	-121.957164	-8.084770	167.416385
