! freq	dB(S11)	phase(S11)	dB(S12)	phase(S12)	
!     	dB(S21)	phase(S21)	dB(S22)	phase(S22)	
!S-par simulation data
#  GHz  S  DB  R 50
0.000000	-81.486737	0.000000	-0.000732	0.000000	-0.000732	0.000000	-81.486737	0.000000
0.050000	-41.604237	-90.718026	-0.006023	-3.081540	-0.006023	-3.081540	-41.605510	-90.398650
0.100000	-35.730107	-94.949897	-0.013492	-6.117998	-0.013492	-6.117998	-35.728147	-94.489299
0.150000	-32.276012	-98.624667	-0.019757	-9.139802	-0.019757	-9.139802	-32.272608	-97.952906
0.200000	-29.837371	-102.082389	-0.025796	-12.157818	-0.025796	-12.157818	-29.833682	-101.187747
0.250000	-27.967149	-105.425027	-0.032121	-15.172753	-0.032121	-15.172753	-27.963526	-104.302843
0.300000	-26.462353	-108.705027	-0.038849	-18.184239	-0.038849	-18.184239	-26.458851	-107.352777
0.350000	-25.212547	-111.946130	-0.045924	-21.192186	-0.045924	-21.192186	-25.209150	-110.361907
0.400000	-24.150923	-115.161811	-0.053260	-24.196767	-0.053260	-24.196767	-24.147615	-113.343819
0.450000	-23.240550	-118.356696	-0.060809	-27.197610	-0.060809	-27.197610	-23.237334	-116.302538
0.500000	-22.450410	-121.537577	-0.068477	-30.195135	-0.068477	-30.195135	-22.447300	-119.244447
0.550000	-21.760127	-124.707842	-0.076197	-33.189549	-0.076197	-33.189549	-21.757144	-122.172301
0.600000	-21.154930	-127.869847	-0.083906	-36.181053	-0.083906	-36.181053	-21.152097	-125.087726
0.650000	-20.624422	-131.025273	-0.091539	-39.169819	-0.091539	-39.169819	-20.621757	-127.991498
0.700000	-20.159973	-134.175625	-0.099036	-42.156114	-0.099036	-42.156114	-20.157489	-130.884238
0.750000	-19.754578	-137.322198	-0.106337	-45.140248	-0.106337	-45.140248	-19.752282	-133.766357
0.800000	-19.403155	-140.466131	-0.113384	-48.122537	-0.113384	-48.122537	-19.401052	-136.637961
0.850000	-19.103156	-143.608552	-0.120105	-51.103302	-0.120105	-51.103302	-19.101250	-139.498663
0.900000	-18.849639	-146.750761	-0.126461	-54.083036	-0.126461	-54.083036	-18.847935	-142.348929
0.950000	-18.641004	-149.894053	-0.132394	-57.062183	-0.132394	-57.062183	-18.639509	-145.188442
1.000000	-18.475576	-153.039889	-0.137854	-60.041265	-0.137854	-60.041265	-18.474302	-148.017019
1.050000	-18.352238	-156.189894	-0.142800	-63.020853	-0.142800	-63.020853	-18.351200	-150.834389
1.100000	-18.270384	-159.345880	-0.147197	-66.001565	-0.147197	-66.001565	-18.269598	-153.640151
1.150000	-18.229892	-162.509877	-0.151016	-68.984058	-0.151016	-68.984058	-18.229378	-156.433713
1.200000	-18.231128	-165.684169	-0.154238	-71.969026	-0.154238	-71.969026	-18.230902	-159.214219
1.250000	-18.274960	-168.871347	-0.156856	-74.957192	-0.156856	-74.957192	-18.275036	-161.980449
1.300000	-18.363772	-172.074802	-0.158856	-77.949404	-0.158856	-77.949404	-18.364156	-164.730289
1.350000	-18.498677	-175.297741	-0.160265	-80.946356	-0.160265	-80.946356	-18.499366	-167.461628
1.400000	-18.682426	-178.544293	-0.161107	-83.948812	-0.161107	-83.948812	-18.683404	-170.171143
1.450000	-18.918631	178.180555	-0.161421	-86.957537	-0.161421	-86.957537	-18.919859	-172.854291
1.500000	-19.211965	174.870624	-0.161254	-89.973283	-0.161254	-89.973283	-19.213379	-175.504856
1.550000	-19.568457	171.518065	-0.160669	-92.996778	-0.160669	-92.996778	-19.569948	-178.114277
1.600000	-19.995906	168.112602	-0.159740	-96.028723	-0.159740	-96.028723	-19.997298	179.329374
1.650000	-20.504492	164.640347	-0.158556	-99.069775	-0.158556	-99.069775	-20.505507	176.842993
1.700000	-21.107709	161.081848	-0.157215	-102.120541	-0.157215	-102.120541	-21.107890	174.451062
1.750000	-21.823809	157.408735	-0.155831	-105.181570	-0.155831	-105.181570	-21.822392	172.190119
1.800000	-22.678164	153.577664	-0.154526	-108.253340	-0.154526	-108.253340	-22.673817	170.116794
1.850000	-23.707304	149.518654	-0.153436	-111.336253	-0.153436	-111.336253	-23.697592	168.323164
1.900000	-24.967002	145.105853	-0.152711	-114.430723	-0.152711	-114.430723	-24.947098	166.974766
1.950000	-26.545568	140.098003	-0.152508	-117.536979	-0.152508	-117.536979	-26.504934	166.387224
2.000000	-28.594791	133.978204	-0.152985	-120.655052	-0.152985	-120.655052	-28.507147	167.225294
2.050000	-31.405421	125.372378	-0.154309	-123.784966	-0.154309	-123.784966	-31.189996	171.184451
2.100000	-35.564414	109.377917	-0.156650	-126.926636	-0.156650	-126.926636	-34.888173	-176.377513
2.150000	-40.842758	63.133419	-0.160177	-130.079865	-0.160177	-130.079865	-38.533487	-139.151796
2.200000	-37.605148	-4.129591	-0.165062	-133.244371	-0.165062	-133.244371	-36.122732	-91.143812
2.250000	-32.290273	-27.756480	-0.171478	-136.419767	-0.171478	-136.419767	-31.705409	-72.642676
2.300000	-28.642416	-38.380226	-0.179610	-139.605604	-0.179610	-139.605604	-28.331802	-66.816159
2.350000	-25.961538	-45.396140	-0.189515	-142.800709	-0.189515	-142.800709	-25.762419	-65.179081
2.400000	-23.848135	-50.884702	-0.201372	-146.004543	-0.201372	-146.004543	-23.704835	-65.435076
2.450000	-22.105406	-55.625426	-0.215300	-149.216162	-0.215300	-149.216162	-21.994314	-66.652084
2.500000	-20.623600	-59.946771	-0.231403	-152.434509	-0.231403	-152.434509	-20.532972	-68.420852
2.550000	-19.335700	-64.007508	-0.249804	-155.658483	-0.249804	-155.658483	-19.258989	-70.538194
2.600000	-18.198755	-67.899818	-0.270534	-158.886712	-0.270534	-158.886712	-18.132018	-72.882873
2.650000	-17.182927	-71.674528	-0.293638	-162.117855	-0.293638	-162.117855	-17.123622	-75.386162
2.700000	-16.266884	-75.363362	-0.319138	-165.350510	-0.319138	-165.350510	-16.213292	-78.003622
2.750000	-15.434850	-78.986911	-0.347034	-168.583233	-0.347034	-168.583233	-15.385759	-80.705065
2.800000	-14.674819	-82.558927	-0.377302	-171.814557	-0.377302	-171.814557	-14.629350	-83.469109
2.850000	-13.977466	-86.088503	-0.409908	-175.042979	-0.409908	-175.042979	-13.934960	-86.280338
2.900000	-13.335362	-89.582410	-0.444767	-178.267040	-0.444767	-178.267040	-13.295314	-89.126494
2.950000	-12.742462	-93.045250	-0.481773	178.514664	-0.481773	178.514664	-12.704479	-91.998275
3.000000	-12.193796	-96.480185	-0.520802	175.303493	-0.520802	175.303493	-12.157564	-94.888372
3.050000	-11.685288	-99.889256	-0.561721	172.100811	-0.561721	172.100811	-11.650555	-97.790915
3.100000	-11.213232	-103.274574	-0.604329	168.907603	-0.604329	168.907603	-11.179791	-100.700888
3.150000	-10.774854	-106.636707	-0.648472	165.725205	-0.648472	165.725205	-10.742531	-103.614397
3.200000	-10.367584	-109.976523	-0.693938	162.554619	-0.693938	162.554619	-10.336233	-106.527975
3.250000	-9.989048	-113.294914	-0.740487	159.396563	-0.740487	159.396563	-9.958547	-109.438802
3.300000	-9.637257	-116.592417	-0.787882	156.251732	-0.787882	156.251732	-9.607499	-112.344564
3.350000	-9.310450	-119.869516	-0.835873	153.120672	-0.835873	153.120672	-9.281342	-115.243354
3.400000	-9.007061	-123.126694	-0.884199	150.003775	-0.884199	150.003775	-8.978524	-118.133625
3.450000	-8.725692	-126.364462	-0.932593	146.901278	-0.932593	146.901278	-8.697653	-121.014151
3.500000	-8.465090	-129.583391	-0.980783	143.813255	-0.980783	143.813255	-8.437486	-123.884003
3.550000	-8.224128	-132.784125	-1.028491	140.739620	-1.028491	140.739620	-8.196901	-126.742518
3.600000	-8.001795	-135.967399	-1.075441	137.680128	-1.075441	137.680128	-7.974893	-129.589284
3.650000	-7.797180	-139.134049	-1.121355	134.634373	-1.121355	134.634373	-7.770557	-132.424116
3.700000	-7.609469	-142.285018	-1.165959	131.601792	-1.165959	131.601792	-7.583081	-135.247047
3.750000	-7.437933	-145.421360	-1.208982	128.581670	-1.208982	128.581670	-7.411740	-138.058307
3.800000	-7.282194	-148.543982	-1.250110	125.573368	-1.250110	125.573368	-7.256158	-140.858081
3.850000	-7.141413	-151.654493	-1.289126	122.575593	-1.289126	122.575593	-7.115499	-143.647226
3.900000	-7.015093	-154.754301	-1.325779	119.587179	-1.325779	119.587179	-6.989268	-146.426505
3.950000	-6.902813	-157.844928	-1.359833	116.606824	-1.359833	116.606824	-6.877047	-149.196829
4.000000	-6.804222	-160.928008	-1.391058	113.633089	-1.391058	113.633089	-6.778483	-151.959253
4.050000	-6.719040	-164.005287	-1.419238	110.664408	-1.419238	110.664408	-6.693299	-154.714957
4.100000	-6.647058	-167.078620	-1.444170	107.699082	-1.444170	107.699082	-6.621286	-157.465245
4.150000	-6.588140	-170.149970	-1.465664	104.735293	-1.465664	104.735293	-6.562308	-160.211531
4.200000	-6.542224	-173.221406	-1.483544	101.771097	-1.483544	101.771097	-6.516302	-162.955330
4.250000	-6.509327	-176.295102	-1.497652	98.804430	-1.497652	98.804430	-6.483285	-165.698253
4.300000	-6.489546	-179.373335	-1.507845	95.833109	-1.507845	95.833109	-6.463351	-168.441989
4.350000	-6.483066	177.541520	-1.513997	92.854836	-1.513997	92.854836	-6.456684	-171.188304
4.400000	-6.490314	174.446852	-1.515959	89.867063	-1.515959	89.867063	-6.463707	-173.939092
4.450000	-6.511685	171.339998	-1.513642	86.867167	-1.513642	86.867167	-6.484809	-176.696292
4.500000	-6.547523	168.218385	-1.507031	83.852597	-1.507031	83.852597	-6.520331	-179.461760
4.550000	-6.598445	165.079246	-1.496088	80.820586	-1.496088	80.820586	-6.570882	177.762586
4.600000	-6.665204	161.919732	-1.480803	77.768256	-1.480803	77.768256	-6.637206	174.974843
4.650000	-6.748708	158.736912	-1.461194	74.692622	-1.461194	74.692622	-6.720198	172.173152
4.700000	-6.850041	155.527788	-1.437311	71.590595	-1.437311	71.590595	-6.820927	169.355734
4.750000	-6.970485	152.289302	-1.409235	68.458989	-1.409235	68.458989	-6.940658	166.520942
4.800000	-7.111559	149.018358	-1.377088	65.294528	-1.377088	65.294528	-7.080883	163.667321
4.850000	-7.275048	145.711838	-1.341030	62.093858	-1.341030	62.093858	-7.243358	160.793691
4.900000	-7.463061	142.366637	-1.301268	58.853563	-1.301268	58.853563	-7.430149	157.899253
4.950000	-7.678085	138.979695	-1.258054	55.570181	-1.258054	55.570181	-7.643690	154.983730
5.000000	-7.923063	135.548050	-1.211694	52.240234	-1.211694	52.240234	-7.886855	152.047551
5.050000	-8.202094	132.067809	-1.162494	48.859083	-1.162494	48.859083	-8.163640	149.091749
5.100000	-8.518861	128.537414	-1.110955	45.424326	-1.110955	45.424326	-8.477601	146.119582
5.150000	-8.878421	124.954707	-1.057568	41.932646	-1.057568	41.932646	-8.833618	143.135701
5.200000	-9.286930	121.318062	-1.002895	38.380882	-1.002895	38.380882	-9.237592	140.147300
5.250000	-9.751959	117.626601	-0.947564	34.766094	-0.947564	34.766094	-9.696729	137.165160
5.300000	-10.282964	113.880501	-0.892277	31.085632	-0.892277	31.085632	-10.219945	134.205189
5.350000	-10.891965	110.081450	-0.837804	27.337225	-0.837804	27.337225	-10.818432	131.290833
5.400000	-11.594575	106.233353	-0.784983	23.519070	-0.784983	23.519070	-11.506495	128.456954
5.450000	-12.411641	102.343494	-0.734715	19.629925	-0.734715	19.629925	-12.302815	125.756364
5.500000	-13.371954	98.424589	-0.687951	15.669214	-0.687951	15.669214	-13.232400	123.271436
5.550000	-14.517029	94.498730	-0.645685	11.637124	-0.645685	11.637124	-14.329713	121.135999
5.600000	-15.910187	90.605722	-0.608935	7.534692	-0.608935	7.534692	-15.643771	119.579678
5.650000	-17.656451	86.826021	-0.578805	3.363181	-0.578805	3.363181	-17.246639	119.045706
5.700000	-19.947008	83.346142	-0.556328	-0.874314	-0.556328	-0.874314	-19.241671	120.454472
5.750000	-23.194481	80.702451	-0.542385	-5.173000	-0.542385	-5.173000	-21.753466	125.902378
5.800000	-28.607007	81.492863	-0.537842	-9.527828	-0.537842	-9.527828	-24.705776	140.561845
5.850000	-39.541940	147.710068	-0.543451	-13.932797	-0.543451	-13.932797	-26.566731	171.019398
5.900000	-30.093621	-132.536226	-0.559822	-18.381065	-0.559822	-18.381065	-24.931278	-157.118864
5.950000	-23.756745	-129.437660	-0.587022	-22.864191	-0.587022	-22.864191	-21.868022	-140.423183
6.000000	-20.091116	-132.018642	-0.626092	-27.376324	-0.626092	-27.376324	-19.138998	-134.499752
6.050000	-17.525608	-135.691416	-0.676624	-31.907768	-0.676624	-31.907768	-16.951300	-133.033138
6.100000	-15.565594	-139.794930	-0.738405	-36.450186	-0.738405	-36.450186	-15.178367	-133.726158
6.150000	-13.993263	-144.107416	-0.810987	-40.995507	-0.810987	-40.995507	-13.712179	-135.588276
6.200000	-12.693255	-148.530701	-0.893692	-45.536188	-0.893692	-45.536188	-12.478465	-138.139581
6.250000	-11.596932	-153.012829	-0.985620	-50.065482	-0.985620	-50.065482	-11.426625	-141.122093
6.300000	-10.660459	-157.522852	-1.085730	-54.577426	-1.085730	-54.577426	-10.521698	-144.387130
6.350000	-9.853040	-162.040433	-1.192639	-59.067698	-1.192639	-59.067698	-9.737739	-147.837675
6.400000	-9.152884	-166.552393	-1.304901	-63.533262	-1.304901	-63.533262	-9.055730	-151.413333
6.450000	-8.543800	-171.050013	-1.420937	-67.972630	-1.420937	-67.972630	-8.461176	-155.073496
6.500000	-8.013433	-175.527920	-1.539059	-72.385963	-1.539059	-72.385963	-7.942820	-158.790580
6.550000	-7.552191	-179.983469	-1.657493	-76.775174	-1.657493	-76.775174	-7.491805	-162.546073
6.600000	-7.154070	175.584432	-1.774201	-81.143454	-1.774201	-81.143454	-7.102639	-166.328861
6.650000	-6.810373	171.172311	-1.887553	-85.497863	-1.887553	-85.497863	-6.767016	-170.130772
6.700000	-6.517872	166.777088	-1.995511	-89.845484	-1.995511	-89.845484	-6.481988	-173.950152
6.750000	-6.273554	162.393079	-2.096014	-94.196406	-2.096014	-94.196406	-6.244774	-177.788204
6.800000	-6.074891	158.012566	-2.187118	-98.563081	-2.187118	-98.563081	-6.053045	178.350984
6.850000	-5.920881	153.626138	-2.266780	-102.960652	-2.266780	-102.960652	-5.905984	174.460251
6.900000	-5.812544	149.221958	-2.332650	-107.408694	-2.332650	-107.408694	-5.804808	170.528684
6.950000	-5.751735	144.786034	-2.382545	-111.930665	-2.382545	-111.930665	-5.751589	166.542662
7.000000	-5.741284	140.303315	-2.414634	-116.552995	-2.414634	-116.552995	-5.749403	162.486855
7.050000	-5.787111	135.756749	-2.426908	-121.308846	-2.426908	-121.308846	-5.804505	158.342363
7.100000	-5.898353	131.128289	-2.417531	-126.238710	-2.417531	-126.238710	-5.926498	154.087746
7.150000	-6.088161	126.401360	-2.385184	-131.390502	-2.385184	-131.390502	-6.129213	149.701110
7.200000	-6.379577	121.560581	-2.328428	-136.833008	-2.328428	-136.833008	-6.436860	145.156999
7.250000	-6.804456	116.609041	-2.247833	-142.643675	-2.247833	-142.643675	-6.883211	140.443532
7.300000	-7.410755	111.589075	-2.146279	-148.912534	-2.146279	-148.912534	-7.519702	135.578883
7.350000	-8.277957	106.635972	-2.029809	-155.754171	-2.029809	-155.754171	-8.433022	130.654853
7.400000	-9.541922	102.139832	-1.910254	-163.307663	-1.910254	-163.307663	-9.776178	125.979540
7.450000	-11.437662	99.229676	-1.808462	-171.714591	-1.808462	-171.714591	-11.832939	122.536014
7.500000	-14.365844	101.630620	-1.757346	178.895575	-1.757346	178.895575	-15.185063	123.981252
7.550000	-18.209124	123.521357	-1.805047	168.446622	-1.805047	168.446622	-20.303230	149.154813
7.600000	-17.068826	169.296259	-2.010794	157.003415	-2.010794	157.003415	-18.216448	-151.904935
7.650000	-12.181699	-175.278301	-2.434624	144.821261	-2.434624	144.821261	-12.374620	-139.104789
7.700000	-8.574991	-177.320358	-3.117185	132.355251	-3.117185	132.355251	-8.583098	-142.993198
7.750000	-6.139489	175.567472	-4.060121	120.150484	-4.060121	120.150484	-6.101742	-150.899628
7.800000	-4.491082	167.059894	-5.228099	108.671311	-5.228099	108.671311	-4.441133	-159.714370
7.850000	-3.373645	158.532063	-6.563454	98.190509	-6.563454	98.190509	-3.321935	-168.302960
7.900000	-2.611539	150.517051	-8.008742	88.767979	-8.008742	88.767979	-2.561753	-176.241662
7.950000	-2.086790	143.175191	-9.519225	80.331589	-9.519225	80.331589	-2.040290	176.575701
8.000000	-1.722060	136.511272	-11.061220	72.756511	-11.061220	72.756511	-1.679310	170.124515
8.050000	-1.464221	130.453497	-12.616715	65.886322	-12.616715	65.886322	-1.425298	164.314687
8.100000	-1.278556	124.912488	-14.177878	59.573152	-14.177878	59.573152	-1.243373	159.045351
8.150000	-1.143083	119.810838	-15.737562	53.693896	-15.737562	53.693896	-1.111489	154.231769
8.200000	-1.042525	115.074417	-17.295813	48.133514	-17.295813	48.133514	-1.014341	149.794462
8.250000	-0.966431	110.638065	-18.858552	42.788478	-18.858552	42.788478	-0.941476	145.664373
8.300000	-0.908031	106.452694	-20.429341	37.568683	-20.429341	37.568683	-0.886129	141.789647
8.350000	-0.862623	102.478237	-22.012226	32.387472	-22.012226	32.387472	-0.843604	138.128083
8.400000	-0.826896	98.682038	-23.611119	27.156927	-23.611119	27.156927	-0.810600	134.645343
8.450000	-0.798537	95.038537	-25.226640	21.780975	-25.226640	21.780975	-0.784809	131.314489
8.500000	-0.775885	91.527354	-26.854594	16.146022	-26.854594	16.146022	-0.764576	128.113946
8.550000	-0.757786	88.133637	-28.478088	10.102251	-28.478088	10.102251	-0.748747	125.027704
8.600000	-0.742764	84.826772	-30.136154	3.582562	-30.136154	3.582562	-0.735871	122.024870
8.650000	-0.730510	81.603949	-31.786122	-3.586412	-31.786122	-3.586412	-0.725632	119.101686
8.700000	-0.720509	78.454646	-33.397585	-11.533523	-33.397585	-11.533523	-0.717517	116.247008
8.750000	-0.712369	75.369936	-34.923430	-20.328497	-34.923430	-20.328497	-0.711140	113.451351
8.800000	-0.705887	72.345662	-36.272850	-29.944079	-36.272850	-29.944079	-0.706289	110.709611
8.850000	-0.700721	69.371041	-37.407279	-40.005660	-37.407279	-40.005660	-0.702630	108.010943
8.900000	-0.696703	66.440500	-38.282394	-49.979160	-38.282394	-49.979160	-0.699999	105.349363
8.950000	-0.693707	63.549149	-38.892112	-59.233427	-38.892112	-59.233427	-0.698269	102.719605
9.000000	-0.691636	60.692665	-39.268808	-67.221060	-39.268808	-67.221060	-0.697341	100.116999
9.050000	-0.690416	57.867193	-39.464338	-73.600222	-39.464338	-73.600222	-0.697145	97.537366
9.100000	-0.689997	55.069259	-39.527084	-78.245244	-39.527084	-78.245244	-0.697626	94.976939
9.150000	-0.690341	52.295711	-39.488088	-81.190475	-39.488088	-81.190475	-0.698748	92.432291
9.200000	-0.691427	49.543649	-39.358122	-82.571881	-39.358122	-82.571881	-0.700487	89.900275
9.250000	-0.693243	46.810384	-39.131841	-82.595000	-39.131841	-82.595000	-0.702832	87.377973
9.300000	-0.695790	44.093391	-38.795407	-81.523633	-38.795407	-81.523633	-0.705780	84.862654
9.350000	-0.699077	41.390269	-38.335241	-79.670225	-38.335241	-79.670225	-0.709340	82.351734
9.400000	-0.703152	38.699028	-37.739584	-77.368624	-37.739584	-77.368624	-0.713552	79.842722
9.450000	-0.708045	36.017202	-37.014402	-74.968853	-37.014402	-74.968853	-0.718443	77.333003
9.500000	-0.713769	33.342182	-36.183871	-72.740924	-36.183871	-72.740924	-0.724029	74.820188
9.550000	-0.720372	30.671746	-35.272359	-70.859635	-35.272359	-70.859635	-0.730353	72.301964
9.600000	-0.727913	28.003639	-34.304797	-69.420870	-34.304797	-69.420870	-0.737469	69.776013
9.650000	-0.736462	25.335550	-33.302939	-68.458283	-33.302939	-68.458283	-0.745443	67.239984
9.700000	-0.746102	22.665082	-32.283653	-67.964405	-32.283653	-67.964405	-0.754350	64.691466
9.750000	-0.756927	19.989725	-31.258745	-67.909230	-31.258745	-67.909230	-0.764278	62.127963
9.800000	-0.769052	17.306823	-30.235607	-68.253642	-30.235607	-68.253642	-0.775329	59.546865
9.850000	-0.782607	14.613544	-29.218118	-68.957881	-29.218118	-68.957881	-0.787622	56.945413
9.900000	-0.797745	11.906845	-28.207504	-69.986326	-28.207504	-69.986326	-0.801296	54.320672
9.950000	-0.814642	9.183431	-27.203039	-71.309936	-27.203039	-71.309936	-0.816508	51.669490
10.000000	-0.833507	6.439712	-26.202555	-72.907426	-26.202555	-72.907426	-0.833443	48.988457
