! freq	dB(S11)	phase(S11)	dB(S12)	phase(S12)	
!     	dB(S21)	phase(S21)	dB(S22)	phase(S22)	
!S-par simulation data
#  GHz  S  DB  R 50
0.000000	-145.566498	0.000000	0.000001	0.000000	0.000000	0.000000	-145.566498	0.000000
0.050000	-36.477407	-94.195328	-0.007956	-3.590270	-0.007956	-3.590270	-36.425065	-92.403643
0.100000	-30.508134	-98.414295	-0.016900	-7.128990	-0.016900	-7.128990	-30.493794	-95.295035
0.150000	-27.059436	-102.816826	-0.026602	-10.658307	-0.026602	-10.658307	-27.037295	-98.228340
0.200000	-24.623856	-107.333686	-0.037911	-14.179401	-0.037911	-14.179401	-24.596354	-101.107434
0.250000	-22.741792	-111.804362	-0.050771	-17.692188	-0.050771	-17.692188	-22.716634	-103.936366
0.300000	-21.218135	-116.211433	-0.065071	-21.197051	-0.065071	-21.197051	-21.195718	-106.725732
0.350000	-19.946493	-120.577371	-0.080719	-24.694318	-0.080719	-24.694318	-19.925127	-109.483098
0.400000	-18.861774	-124.919494	-0.097628	-28.184028	-0.097628	-28.184028	-18.839948	-112.213023
0.450000	-17.921783	-129.248430	-0.115711	-31.665916	-0.115711	-31.665916	-17.898536	-114.917699
0.500000	-17.097213	-133.571166	-0.134844	-35.139742	-0.134844	-35.139742	-17.072122	-117.598363
0.550000	-16.367029	-137.892073	-0.154884	-38.605275	-0.154884	-38.605275	-16.340123	-120.255397
0.600000	-15.715728	-142.213576	-0.175678	-42.062316	-0.175678	-42.062316	-15.687393	-122.888562
0.650000	-15.131556	-146.536626	-0.197067	-45.510765	-0.197067	-45.510765	-15.102395	-125.497321
0.700000	-14.605485	-150.861438	-0.218883	-48.950632	-0.218883	-48.950632	-14.576122	-128.080978
0.750000	-14.130510	-155.188483	-0.240960	-52.382051	-0.240960	-52.382051	-14.101399	-130.638761
0.800000	-13.701065	-159.519145	-0.263134	-55.805272	-0.263134	-55.805272	-13.672408	-133.169869
0.850000	-13.313303	-163.855999	-0.285234	-59.220411	-0.285234	-59.220411	-13.285076	-135.672556
0.900000	-12.962134	-168.201451	-0.307117	-62.628388	-0.307117	-62.628388	-12.934183	-138.147618
0.950000	-12.644740	-172.558465	-0.328634	-66.029596	-0.328634	-66.029596	-12.616855	-140.593684
1.000000	-12.358250	-176.929778	-0.349650	-69.424700	-0.349650	-69.424700	-12.330216	-143.010041
1.050000	-12.100176	178.681985	-0.370040	-72.814446	-0.370040	-72.814446	-12.071793	-145.395998
1.100000	-11.868352	174.274271	-0.389689	-76.199652	-0.389689	-76.199652	-11.839440	-147.750882
1.150000	-11.660883	169.844541	-0.408493	-79.581198	-0.408493	-79.581198	-11.631281	-150.074031
1.200000	-11.476103	165.390230	-0.426363	-82.960017	-0.426363	-82.960017	-11.445664	-152.364784
1.250000	-11.312543	160.908722	-0.443220	-86.337089	-0.443220	-86.337089	-11.281123	-154.622471
1.300000	-11.169254	156.396625	-0.458973	-89.713437	-0.458973	-89.713437	-11.136710	-156.845663
1.350000	-11.044677	151.851779	-0.473592	-93.090144	-0.473592	-93.090144	-11.010869	-159.034373
1.400000	-10.937756	147.271376	-0.487038	-96.468272	-0.487038	-96.468272	-10.902537	-161.187873
1.450000	-10.847528	142.652557	-0.499284	-99.848895	-0.499284	-99.848895	-10.810743	-163.305407
1.500000	-10.773115	137.992432	-0.510318	-103.233083	-0.510318	-103.233083	-10.734599	-165.386192
1.550000	-10.713702	133.288091	-0.520137	-106.621904	-0.520137	-106.621904	-10.673279	-167.429418
1.600000	-10.668531	128.536631	-0.528753	-110.016405	-0.528753	-110.016405	-10.626012	-169.434260
1.650000	-10.636889	123.735176	-0.536186	-113.417614	-0.536186	-113.417614	-10.592070	-171.399880
1.700000	-10.617880	118.881923	-0.542491	-116.826362	-0.542491	-116.826362	-10.570544	-173.326194
1.750000	-10.611923	113.968976	-0.547612	-120.244433	-0.547612	-120.244433	-10.561818	-175.208654
1.800000	-10.616679	109.002024	-0.551758	-123.671392	-0.551758	-123.671392	-10.563569	-177.052496
1.850000	-10.632838	103.971770	-0.554871	-127.109237	-0.554871	-127.109237	-10.576441	-178.852188
1.900000	-10.659166	98.879543	-0.557076	-130.558136	-0.557076	-130.558136	-10.599201	179.390374
1.950000	-10.695055	93.723363	-0.558447	-134.018814	-0.558447	-134.018814	-10.631222	177.675600
2.000000	-10.740424	88.497736	-0.559020	-137.492643	-0.559020	-137.492643	-10.672395	176.006223
2.050000	-10.793676	83.209144	-0.558963	-140.978712	-0.558963	-140.978712	-10.721143	174.377173
2.100000	-10.855535	77.844795	-0.558260	-144.479900	-0.558260	-144.479900	-10.778133	172.795627
2.150000	-10.923998	72.417587	-0.557110	-147.993991	-0.557110	-147.993991	-10.841410	171.252612
2.200000	-10.999555	66.915652	-0.555532	-151.523931	-0.555532	-151.523931	-10.911420	169.754264
2.250000	-11.080824	61.349023	-0.553668	-155.068139	-0.553668	-155.068139	-10.986819	168.293477
2.300000	-11.167600	55.713869	-0.551582	-158.628216	-0.551582	-158.628216	-11.067398	166.871091
2.350000	-11.259237	50.013570	-0.549347	-162.204269	-0.549347	-162.204269	-11.152538	165.483665
2.400000	-11.355077	44.253395	-0.547017	-165.796040	-0.547017	-165.796040	-11.241613	164.126582
2.450000	-11.454949	38.431179	-0.544614	-169.405388	-0.544614	-169.405388	-11.334477	162.798621
2.500000	-11.558083	32.559858	-0.542167	-173.029915	-0.542167	-173.029915	-11.430414	161.491359
2.550000	-11.664548	26.635957	-0.539679	-176.672444	-0.539679	-176.672444	-11.529540	160.202955
2.600000	-11.774018	20.669235	-0.537163	179.668151	-0.537163	179.668151	-11.631589	158.925763
2.650000	-11.886472	14.666247	-0.534622	175.991789	-0.534622	175.991789	-11.736603	157.653186
2.700000	-12.002055	8.634137	-0.532054	172.298334	-0.532054	172.298334	-11.844792	156.378096
2.750000	-12.121097	2.580553	-0.529445	168.587580	-0.529445	168.587580	-11.956555	155.092899
2.800000	-12.244140	-3.486459	-0.526774	164.859234	-0.526774	164.859234	-12.072500	153.789627
2.850000	-12.371951	-9.558559	-0.524006	161.112909	-0.524006	161.112909	-12.193462	152.460017
2.900000	-12.505550	-15.627216	-0.521099	157.348108	-0.521099	157.348108	-12.320524	151.095595
2.950000	-12.646224	-21.683796	-0.518000	153.564212	-0.518000	153.564212	-12.455036	149.687755
3.000000	-12.795549	-27.719627	-0.514653	149.760468	-0.514653	149.760468	-12.598634	148.227809
3.050000	-12.955416	-33.726029	-0.510995	145.935976	-0.510995	145.935976	-12.753270	146.707020
3.100000	-13.128057	-39.694287	-0.506961	142.089675	-0.506961	142.089675	-12.921236	145.116599
3.150000	-13.316233	-45.614955	-0.502486	138.220063	-0.502486	138.220063	-13.105375	143.446698
3.200000	-13.523064	-51.478582	-0.497509	134.325666	-0.497509	134.325666	-13.308895	141.687901
3.250000	-13.751966	-57.275915	-0.491988	130.405106	-0.491988	130.405106	-13.535313	139.831551
3.300000	-14.007055	-62.996135	-0.485888	126.456554	-0.485888	126.456554	-13.788898	137.867469
3.350000	-14.293395	-68.625677	-0.479185	122.477659	-0.479185	122.477659	-14.074945	135.783128
3.400000	-14.615966	-74.152012	-0.471902	118.467033	-0.471902	118.467033	-14.398712	133.569089
3.450000	-14.981088	-79.557942	-0.464070	114.422587	-0.464070	114.422587	-14.766953	131.211905
3.500000	-15.399656	-84.805621	-0.455713	110.338613	-0.455713	110.338613	-15.191461	128.678793
3.550000	-15.879391	-89.868494	-0.446975	106.214732	-0.446975	106.214732	-15.680948	125.955054
3.600000	-16.431853	-94.701044	-0.438000	102.048520	-0.438000	102.048520	-16.248672	123.010351
3.650000	-17.073079	-99.228992	-0.428974	97.836076	-0.428974	97.836076	-16.913631	119.794021
3.700000	-17.825655	-103.312015	-0.420176	93.571181	-0.420176	93.571181	-17.704174	116.210086
3.750000	-18.710505	-106.798931	-0.411919	89.253962	-0.411919	89.253962	-18.650174	112.163449
3.800000	-19.758517	-109.416214	-0.404566	84.881146	-0.404566	84.881146	-19.800366	107.466610
3.850000	-21.007969	-110.610014	-0.398641	80.446331	-0.398641	80.446331	-21.233009	101.712046
3.900000	-22.481088	-109.398981	-0.394739	75.946042	-0.394739	75.946042	-23.061150	94.059853
3.950000	-24.133956	-104.275863	-0.393401	71.379733	-0.393401	71.379733	-25.444134	82.708228
4.000000	-25.696841	-93.093740	-0.395309	66.744440	-0.395309	66.744440	-28.502925	63.105656
4.050000	-26.260072	-74.844769	-0.401629	62.031475	-0.401629	62.031475	-30.854988	23.947417
4.100000	-25.204604	-56.618165	-0.413065	57.242971	-0.413065	57.242971	-29.076591	-20.241912
4.150000	-23.161528	-44.627547	-0.430510	52.378117	-0.430510	52.378117	-25.435069	-46.647424
4.200000	-20.945009	-39.212182	-0.455120	47.434356	-0.455120	47.434356	-22.250496	-60.858331
4.250000	-18.892237	-38.199312	-0.488629	42.406362	-0.488629	42.406362	-19.680978	-70.135407
4.300000	-17.082691	-39.582598	-0.531662	37.300526	-0.531662	37.300526	-17.575487	-77.422190
4.350000	-15.488551	-42.481044	-0.585411	32.118111	-0.585411	32.118111	-15.798219	-83.668532
4.400000	-14.073281	-46.395663	-0.651541	26.858823	-0.651541	26.858823	-14.261862	-89.329699
4.450000	-12.808693	-50.994045	-0.731381	21.526365	-0.731381	21.526365	-12.912508	-94.663003
4.500000	-11.671966	-56.076497	-0.826134	16.125874	-0.826134	16.125874	-11.713635	-99.805714
4.550000	-10.645408	-61.511313	-0.936737	10.664195	-0.936737	10.664195	-10.639743	-104.837356
4.600000	-9.714582	-67.219018	-1.064556	5.147013	-1.064556	5.147013	-9.671723	-109.802140
4.650000	-8.868730	-73.130666	-1.210009	-0.416378	-1.210009	-0.416378	-8.795864	-114.729058
4.700000	-8.098954	-79.206103	-1.374367	-6.019008	-1.374367	-6.019008	-8.001351	-119.632914
4.750000	-7.397896	-85.403142	-1.557529	-11.650654	-1.557529	-11.650654	-7.279535	-124.522981
4.800000	-6.759718	-91.695673	-1.760243	-17.303108	-1.760243	-17.303108	-6.623695	-129.402678
4.850000	-6.179468	-98.058607	-1.982645	-22.967219	-1.982645	-22.967219	-6.028265	-134.272894
4.900000	-5.651160	-104.467699	-2.223589	-28.634467	-2.223589	-28.634467	-5.486806	-139.133783
4.950000	-5.171746	-110.909130	-2.483654	-34.297756	-2.483654	-34.297756	-4.995974	-143.983553
5.000000	-4.737590	-117.367049	-2.762248	-39.950157	-2.762248	-39.950157	-4.551927	-148.821111
5.050000	-4.344059	-123.828663	-3.058290	-45.587288	-3.058290	-45.587288	-4.149867	-153.646865
5.100000	-3.987770	-130.284490	-3.371199	-51.205818	-3.371199	-51.205818	-3.786311	-158.461710
5.150000	-3.667127	-136.725066	-3.700495	-56.802177	-3.700495	-56.802177	-3.459675	-163.267537
5.200000	-3.377696	-143.144677	-4.045056	-62.377518	-4.045056	-62.377518	-3.165484	-168.069424
5.250000	-3.117080	-149.538097	-4.404231	-67.932917	-4.404231	-67.932917	-2.901398	-172.873648
5.300000	-2.882672	-155.901646	-4.777338	-73.471630	-4.777338	-73.471630	-2.664904	-177.689021
5.350000	-2.672027	-162.232835	-5.163814	-78.998759	-5.163814	-78.998759	-2.453702	177.473106
5.400000	-2.482872	-168.530157	-5.563246	-84.521296	-5.563246	-84.521296	-2.265718	172.598562
5.450000	-2.313096	-174.792900	-5.975418	-90.048210	-5.975418	-90.048210	-2.099113	167.670017
5.500000	-2.160924	178.979468	-6.400239	-95.590963	-6.400239	-95.590963	-1.952501	162.665238
5.550000	-2.024403	172.786239	-6.838073	-101.163186	-6.838073	-101.163186	-1.824380	157.559114
5.600000	-1.901824	166.626540	-7.289634	-106.781017	-7.289634	-106.781017	-1.713617	152.321582
5.650000	-1.791671	160.499436	-7.756057	-112.463756	-7.756057	-112.463756	-1.619445	146.916196
5.700000	-1.692550	154.403870	-8.239056	-118.234386	-8.239056	-118.234386	-1.541425	141.299056
5.750000	-1.603185	148.338743	-8.741111	-124.120341	-8.741111	-124.120341	-1.479491	135.417001
5.800000	-1.522400	142.302960	-9.265723	-130.154489	-9.265723	-130.154489	-1.434013	129.205244
5.850000	-1.449116	136.295464	-9.817802	-136.376346	-9.817802	-136.376346	-1.405871	122.584336
5.900000	-1.382338	130.315245	-10.404231	-142.833538	-10.404231	-142.833538	-1.396558	115.456304
5.950000	-1.321147	124.361332	-11.034713	-149.583409	-11.034713	-149.583409	-1.408275	107.699888
6.000000	-1.264674	118.432633	-11.722960	-156.692385	-11.722960	-156.692385	-1.443864	99.169827
6.050000	-1.212190	112.528510	-12.488866	-164.246600	-12.488866	-164.246600	-1.507383	89.670578
6.100000	-1.162956	106.647959	-13.361662	-172.344771	-13.361662	-172.344771	-1.603193	78.965599
6.150000	-1.116362	100.783708	-14.382448	178.936440	-14.382448	178.936440	-1.734611	66.840774
6.200000	-1.072544	94.930808	-15.615263	169.483951	-15.615263	169.483951	-1.904040	52.968228
6.250000	-1.031888	89.084646	-17.152270	159.244790	-17.152270	159.244790	-2.105241	37.122683
6.300000	-0.995676	83.241808	-19.137929	148.202662	-19.137929	148.202662	-2.319794	19.136184
6.350000	-0.965752	77.404203	-21.805353	136.460725	-21.805353	136.460725	-2.511867	-0.816882
6.400000	-0.944111	71.582574	-25.613945	124.181119	-25.613945	124.181119	-2.634867	-22.194351
6.450000	-0.931860	65.796020	-31.861421	111.333334	-31.861421	111.333334	-2.650921	-44.038445
6.500000	-0.928445	60.066082	-52.885986	78.732517	-52.885986	78.732517	-2.554530	-65.203354
6.550000	-0.931803	54.407972	-35.482935	-87.601696	-35.482935	-87.601696	-2.375865	-84.760984
6.600000	-0.939472	48.827888	-30.148544	-98.891351	-30.148544	-98.891351	-2.157912	-102.212293
6.650000	-0.949366	43.323009	-27.719017	-108.492130	-27.719017	-108.492130	-1.936209	-117.500269
6.700000	-0.960205	37.888929	-26.460706	-116.992577	-26.460706	-116.992577	-1.731555	-130.750576
6.750000	-0.971341	32.518644	-25.831685	-124.573826	-25.831685	-124.573826	-1.552508	-142.245960
6.800000	-0.982598	27.205983	-25.592220	-131.357392	-25.592220	-131.357392	-1.400081	-152.278482
6.850000	-0.994053	21.946150	-25.617018	-137.437872	-25.617018	-137.437872	-1.272025	-161.103889
6.900000	-1.005898	16.735198	-25.832869	-142.890623	-25.832869	-142.890623	-1.164957	-168.938844
6.950000	-1.018379	11.570227	-26.195626	-147.764775	-26.195626	-147.764775	-1.075594	-175.952664
7.000000	-1.031711	6.446495	-26.673204	-152.115871	-26.673204	-152.115871	-1.000373	177.688285
7.050000	-1.046207	1.363144	-27.250762	-155.927280	-27.250762	-155.927280	-0.937405	171.904255
7.100000	-1.062033	-3.685941	-27.911954	-159.228385	-27.911954	-159.228385	-0.883857	166.568650
7.150000	-1.079407	-8.704515	-28.649971	-161.995879	-28.649971	-161.995879	-0.838132	161.613162
7.200000	-1.098670	-13.695649	-29.458816	-164.147898	-29.458816	-164.147898	-0.799219	156.996736
7.250000	-1.120056	-18.665651	-30.331225	-165.612590	-30.331225	-165.612590	-0.765797	152.660151
7.300000	-1.143765	-23.621228	-31.260708	-166.304006	-31.260708	-166.304006	-0.736827	148.555584
7.350000	-1.170084	-28.568948	-32.236253	-166.084834	-32.236253	-166.084834	-0.711638	144.652377
7.400000	-1.199634	-33.517277	-33.226686	-164.672571	-33.226686	-164.672571	-0.689898	140.937539
7.450000	-1.232612	-38.476127	-34.198380	-161.960396	-34.198380	-161.960396	-0.670856	137.373084
7.500000	-1.269470	-43.455840	-35.092816	-157.835144	-35.092816	-157.835144	-0.654132	133.940315
7.550000	-1.310884	-48.469500	-35.821765	-152.296804	-35.821765	-152.296804	-0.639462	130.626411
7.600000	-1.357853	-53.535381	-36.278199	-145.679853	-36.278199	-145.679853	-0.626632	127.420975
7.650000	-1.410954	-58.668276	-36.424619	-138.762807	-36.424619	-138.762807	-0.615297	124.305077
7.700000	-1.471262	-63.888112	-36.266337	-132.316578	-36.266337	-132.316578	-0.605280	121.269155
7.750000	-1.540656	-69.226450	-35.855546	-127.053594	-35.855546	-127.053594	-0.596482	118.308227
7.800000	-1.621026	-74.715532	-35.294220	-123.280446	-35.294220	-123.280446	-0.588735	115.412717
7.850000	-1.714412	-80.387935	-34.668734	-120.946333	-34.668734	-120.946333	-0.581883	112.573619
7.900000	-1.823869	-86.288838	-34.034523	-119.927661	-34.034523	-119.927661	-0.575829	109.785353
7.950000	-1.955531	-92.506766	-33.429417	-120.146892	-33.429417	-120.146892	-0.570536	107.046347
8.000000	-2.114380	-99.104807	-32.879599	-121.362807	-32.879599	-121.362807	-0.565864	104.348223
8.050000	-2.308512	-106.182279	-32.400372	-123.472914	-32.400372	-123.472914	-0.561731	101.686752
8.100000	-2.550717	-113.891064	-32.008072	-126.445044	-32.008072	-126.445044	-0.558074	99.059086
8.150000	-2.860924	-122.458725	-31.726376	-130.296018	-31.726376	-130.296018	-0.554820	96.462307
8.200000	-3.266017	-132.169870	-31.586130	-135.066153	-31.586130	-135.066153	-0.551873	93.892681
8.250000	-3.809075	-143.482456	-31.642935	-140.874456	-31.642935	-140.874456	-0.549140	91.347261
8.300000	-4.554503	-157.105089	-31.993155	-147.892569	-31.993155	-147.892569	-0.546521	88.822931
8.350000	-5.591796	-174.190337	-32.812661	-156.322345	-32.812661	-156.322345	-0.543939	86.316204
8.400000	-7.017109	163.021271	-34.485771	-166.380421	-34.485771	-166.380421	-0.541403	83.823581
8.450000	-8.713198	130.762172	-37.958101	-177.925704	-37.958101	-177.925704	-0.539135	81.340830
8.500000	-9.688749	86.033159	-47.802957	172.418255	-47.802957	172.418255	-0.537685	78.865035
8.550000	-8.612978	38.461068	-43.907176	-32.573555	-43.907176	-32.573555	-0.537764	76.396649
8.600000	-6.567610	1.171810	-35.230884	-45.151895	-35.230884	-45.151895	-0.539715	73.939856
8.650000	-4.869774	-26.556371	-31.220464	-58.628908	-31.220464	-58.628908	-0.543151	71.498587
8.700000	-3.727335	-48.220518	-28.830775	-70.907912	-28.830775	-70.907912	-0.547387	69.073355
8.750000	-3.011585	-65.994133	-27.252202	-81.752590	-27.252202	-81.752590	-0.551921	66.661889
8.800000	-2.581811	-81.184240	-26.128816	-91.327246	-26.128816	-91.327246	-0.556554	64.261341
8.850000	-2.337085	-94.680895	-25.274782	-99.915915	-25.274782	-99.915915	-0.561276	61.869296
8.900000	-2.213235	-107.115806	-24.587421	-107.798225	-24.587421	-107.798225	-0.566149	59.484014
8.950000	-2.172809	-118.933512	-24.009926	-115.196800	-24.009926	-115.196800	-0.571250	57.104436
9.000000	-2.192353	-130.479737	-23.509279	-122.293929	-23.509279	-122.293929	-0.576644	54.729856
9.050000	-2.256920	-142.031006	-23.066944	-129.234791	-23.066944	-129.234791	-0.582378	52.359833
9.100000	-2.356115	-153.816730	-22.673588	-136.134852	-22.673588	-136.134852	-0.588476	49.994107
9.150000	-2.481394	-166.030557	-22.326211	-143.085058	-22.326211	-143.085058	-0.594935	47.632544
9.200000	-2.624047	-178.839248	-22.026938	-150.155884	-22.026938	-150.155884	-0.601721	45.275107
9.250000	-2.773144	167.640262	-21.781162	-157.393610	-21.781162	-157.393610	-0.608764	42.921677
9.300000	-2.915062	153.352458	-21.596798	-164.818531	-21.596798	-164.818531	-0.615958	40.572011
9.350000	-3.033524	138.319266	-21.483462	-172.423979	-21.483462	-172.423979	-0.623171	38.225643
9.400000	-3.111399	122.662975	-21.450919	179.826223	-21.450919	179.826223	-0.630265	35.881771
9.450000	-3.134429	106.611931	-21.507460	171.996774	-21.507460	171.996774	-0.637117	33.539226
9.500000	-3.095815	90.472046	-21.658324	164.175527	-21.658324	164.175527	-0.643657	31.196530
9.550000	-2.996758	74.601730	-21.904508	156.464276	-21.904508	156.464276	-0.649886	28.852061
9.600000	-2.849891	59.332262	-22.243404	148.971902	-22.243404	148.971902	-0.655887	26.504177
9.650000	-2.673540	44.880843	-22.663653	141.778082	-22.663653	141.778082	-0.661814	24.151772
9.700000	-2.483991	31.422037	-23.156211	134.961547	-23.156211	134.961547	-0.667843	21.793865
9.750000	-2.296071	19.012060	-23.707481	128.567178	-23.707481	128.567178	-0.674158	19.430069
9.800000	-2.119714	7.639269	-24.304225	122.616621	-24.304225	122.616621	-0.680918	17.060355
9.850000	-1.960475	-2.754458	-24.934196	117.111091	-24.934196	117.111091	-0.688242	14.684946
9.900000	-1.820748	-12.242304	-25.586422	112.041808	-25.586422	112.041808	-0.696221	12.304116
9.950000	-1.700573	-20.916669	-26.251803	107.386188	-26.251803	107.386188	-0.704906	9.918159
10.000000	-1.595890	-28.797356	-26.832742	102.965967	-26.832742	102.965967	-0.714850	7.594684
