! freq	dB(S11)	phase(S11)	dB(S12)	phase(S12)	
!     	dB(S21)	phase(S21)	dB(S22)	phase(S22)	
!S-par simulation data
#  GHz  S  DB  R 50
0.000000	-0.000000	0.000000	-284.230198	0.000000	-284.230198	0.000000	-0.000000	0.000000
0.050000	-0.002730	-2.060984	-83.100532	87.911749	-83.100532	87.911749	-0.002723	-2.060388
0.100000	-0.006022	-4.099193	-77.090361	85.892577	-77.090361	85.892577	-0.005976	-4.098504
0.150000	-0.008702	-6.130501	-73.587800	83.863389	-73.587800	83.863389	-0.008699	-6.129447
0.200000	-0.011146	-8.158484	-71.115114	81.836562	-71.115114	81.836562	-0.011165	-8.156603
0.250000	-0.013451	-10.183803	-69.209920	79.816102	-69.209920	79.816102	-0.013447	-10.180913
0.300000	-0.015663	-12.206533	-67.669359	77.806433	-67.669359	77.806433	-0.015602	-12.202645
0.350000	-0.017843	-14.227270	-66.378716	75.807720	-66.378716	75.807720	-0.017712	-14.222433
0.400000	-0.020018	-16.245758	-65.274189	73.822924	-65.274189	73.822924	-0.019815	-16.240018
0.450000	-0.022216	-18.261798	-64.313439	71.854170	-64.313439	71.854170	-0.021942	-18.255186
0.500000	-0.024455	-20.274854	-63.469463	69.905441	-63.469463	69.905441	-0.024116	-20.267383
0.550000	-0.026741	-22.284781	-62.720124	67.977889	-62.720124	67.977889	-0.026343	-22.276453
0.600000	-0.029077	-24.291349	-62.049650	66.073216	-62.049650	66.073216	-0.028624	-24.282158
0.650000	-0.031461	-26.294268	-61.446438	64.193612	-61.446438	64.193612	-0.030957	-26.284206
0.700000	-0.033889	-28.293261	-60.901451	62.341311	-60.901451	62.341311	-0.033336	-28.282314
0.750000	-0.036356	-30.288067	-60.407505	60.518598	-60.407505	60.518598	-0.035756	-30.276220
0.800000	-0.038857	-32.278326	-59.959259	58.728668	-59.959259	58.728668	-0.038210	-32.265562
0.850000	-0.041387	-34.263469	-59.553179	56.976581	-59.553179	56.976581	-0.040691	-34.249767
0.900000	-0.043937	-36.243705	-59.183458	55.261870	-59.183458	55.261870	-0.043190	-36.229041
0.950000	-0.046499	-38.218842	-58.846726	53.587134	-58.846726	53.587134	-0.045700	-38.203193
1.000000	-0.049069	-40.188709	-58.540100	51.955068	-58.540100	51.955068	-0.048213	-40.172047
1.050000	-0.051641	-42.153145	-58.261078	50.368468	-58.261078	50.368468	-0.050724	-42.135442
1.100000	-0.054209	-44.112006	-58.007467	48.830235	-58.007467	48.830235	-0.053227	-44.093232
1.150000	-0.056768	-46.064730	-57.778508	47.347410	-57.778508	47.347410	-0.055715	-46.044849
1.200000	-0.059314	-48.011358	-57.571841	45.922006	-57.571841	45.922006	-0.058184	-47.990336
1.250000	-0.061842	-49.952033	-57.385141	44.555083	-57.385141	44.555083	-0.060631	-49.929833
1.300000	-0.064352	-51.886659	-57.216915	43.250042	-57.216915	43.250042	-0.063052	-51.863247
1.350000	-0.066839	-53.815155	-57.065759	42.010392	-57.065759	42.010392	-0.065446	-53.790492
1.400000	-0.069302	-55.737447	-56.930331	40.839736	-56.930331	40.839736	-0.067809	-55.711495
1.450000	-0.071739	-57.653433	-56.809398	39.742224	-56.809398	39.742224	-0.070140	-57.626154
1.500000	-0.074146	-59.562394	-56.702767	38.730001	-56.702767	38.730001	-0.072434	-59.533745
1.550000	-0.076526	-61.464982	-56.607760	37.798685	-56.607760	37.798685	-0.074695	-61.434924
1.600000	-0.078878	-63.361163	-56.523046	36.951940	-56.523046	36.951940	-0.076921	-63.329658
1.650000	-0.081202	-65.250912	-56.447255	36.193300	-56.447255	36.193300	-0.079113	-65.217920
1.700000	-0.083496	-67.133831	-56.379289	35.531650	-56.379289	35.531650	-0.081270	-67.099311
1.750000	-0.085765	-69.010379	-56.317103	34.963414	-56.317103	34.963414	-0.083394	-68.974294
1.800000	-0.088006	-70.880367	-56.259274	34.493845	-56.259274	34.493845	-0.085485	-70.842677
1.850000	-0.090223	-72.743802	-56.204077	34.124865	-56.204077	34.124865	-0.087545	-72.704469
1.900000	-0.092415	-74.600701	-56.149703	33.857555	-56.149703	33.857555	-0.089575	-74.559687
1.950000	-0.094585	-76.451090	-56.094261	33.691956	-56.094261	33.691956	-0.091577	-76.408356
2.000000	-0.096734	-78.295000	-56.035794	33.626870	-56.035794	33.626870	-0.093551	-78.250510
2.050000	-0.098863	-80.132472	-55.972302	33.659660	-55.972302	33.659660	-0.095501	-80.086189
2.100000	-0.100975	-81.963555	-55.901775	33.786081	-55.901775	33.786081	-0.097427	-81.915443
2.150000	-0.103071	-83.788303	-55.822232	34.000133	-55.822232	34.000133	-0.099332	-83.738326
2.200000	-0.105153	-85.606781	-55.731771	34.293988	-55.731771	34.293988	-0.101218	-85.554904
2.250000	-0.107223	-87.419059	-55.628624	34.657979	-55.628624	34.657979	-0.103087	-87.365245
2.300000	-0.109283	-89.225214	-55.511213	35.080687	-55.511213	35.080687	-0.104941	-89.169430
2.350000	-0.111335	-91.025330	-55.378212	35.549128	-55.378212	35.549128	-0.106781	-90.967542
2.400000	-0.113381	-92.819500	-55.228591	36.049034	-55.228591	36.049034	-0.108611	-92.759674
2.450000	-0.115423	-94.607820	-55.061659	36.565231	-55.061659	36.565231	-0.110431	-94.545923
2.500000	-0.117462	-96.390396	-54.877091	37.082083	-54.877091	37.082083	-0.112244	-96.326395
2.550000	-0.119500	-98.167098	-54.673959	37.582600	-54.673959	37.582600	-0.114052	-98.100960
2.600000	-0.121541	-99.938295	-54.453632	38.051747	-54.453632	38.051747	-0.115857	-99.869987
2.650000	-0.123584	-101.704111	-54.216883	38.475535	-54.216883	38.475535	-0.117662	-101.633602
2.700000	-0.125633	-103.464675	-53.964772	38.841342	-53.964772	38.841342	-0.119467	-103.391933
2.750000	-0.127688	-105.220122	-53.698581	39.138180	-53.698581	39.138180	-0.121274	-105.145117
2.800000	-0.129752	-106.970595	-53.419764	39.356848	-53.419764	39.356848	-0.123086	-106.893295
2.850000	-0.131826	-108.716238	-53.129878	39.489995	-53.129878	39.489995	-0.124904	-108.636613
2.900000	-0.133911	-110.457204	-52.830533	39.532088	-52.830533	39.532088	-0.126730	-110.375224
2.950000	-0.136010	-112.193648	-52.523339	39.479318	-52.523339	39.479318	-0.128564	-112.109284
3.000000	-0.138123	-113.925733	-52.209865	39.329439	-52.209865	39.329439	-0.130410	-113.838954
3.050000	-0.140252	-115.653624	-51.891606	39.081594	-51.891606	39.081594	-0.132268	-115.564401
3.100000	-0.142398	-117.377491	-51.569963	38.736104	-51.569963	38.736104	-0.134139	-117.285795
3.150000	-0.144562	-119.097510	-51.246223	38.294272	-51.246223	38.294272	-0.136025	-119.003311
3.200000	-0.146746	-120.813860	-50.921554	37.758185	-50.921554	37.758185	-0.137928	-120.717129
3.250000	-0.148951	-122.526723	-50.597000	37.130536	-50.597000	37.130536	-0.139847	-122.427432
3.300000	-0.151178	-124.236286	-50.273485	36.414461	-50.273485	36.414461	-0.141786	-124.134406
3.350000	-0.153427	-125.942741	-49.951815	35.613406	-49.951815	35.613406	-0.143743	-125.838242
3.400000	-0.155701	-127.646280	-49.632688	34.731009	-49.632688	34.731009	-0.145722	-127.539135
3.450000	-0.157999	-129.347102	-49.316700	33.771001	-49.316700	33.771001	-0.147722	-129.237282
3.500000	-0.160323	-131.045407	-49.004355	32.737133	-49.004355	32.737133	-0.149744	-130.932883
3.550000	-0.162673	-132.741400	-48.696076	31.633113	-48.696076	31.633113	-0.151789	-132.626144
3.600000	-0.165050	-134.435287	-48.392208	30.462560	-48.392208	30.462560	-0.153859	-134.317271
3.650000	-0.167456	-136.127278	-48.093033	29.228970	-48.093033	29.228970	-0.155953	-136.006473
3.700000	-0.169889	-137.817584	-47.798776	27.935691	-47.798776	27.935691	-0.158073	-137.693963
3.750000	-0.172352	-139.506422	-47.509612	26.585908	-47.509612	26.585908	-0.160219	-139.379956
3.800000	-0.174846	-141.193964	-47.225506	25.180434	-47.225506	25.180434	-0.162393	-141.064624
3.850000	-0.177370	-142.880494	-46.946752	23.724529	-46.946752	23.724529	-0.164594	-142.748251
3.900000	-0.179924	-144.566233	-46.673406	22.220811	-46.673406	22.220811	-0.166822	-144.431060
3.950000	-0.182509	-146.251407	-46.405498	20.671720	-46.405498	20.671720	-0.169078	-146.113275
4.000000	-0.185125	-147.936239	-46.143033	19.079519	-46.143033	19.079519	-0.171363	-147.795120
4.050000	-0.187773	-149.620958	-45.885999	17.446298	-45.885999	17.446298	-0.173677	-149.476824
4.100000	-0.190452	-151.305793	-45.634365	15.773983	-45.634365	15.773983	-0.176019	-151.158616
4.150000	-0.193164	-152.990973	-45.388087	14.064340	-45.388087	14.064340	-0.178390	-152.840726
4.200000	-0.195907	-154.676731	-45.147111	12.318984	-45.147111	12.318984	-0.180791	-154.523385
4.250000	-0.198682	-156.363300	-44.911371	10.539383	-44.911371	10.539383	-0.183221	-156.206827
4.300000	-0.201490	-158.050912	-44.680795	8.726868	-44.680795	8.726868	-0.185680	-157.891285
4.350000	-0.204329	-159.739804	-44.455302	6.882636	-44.455302	6.882636	-0.188169	-159.576994
4.400000	-0.207201	-161.430209	-44.234807	5.007762	-44.234807	5.007762	-0.190687	-161.264189
4.450000	-0.210104	-163.122365	-44.019222	3.103199	-44.019222	3.103199	-0.193234	-162.953108
4.500000	-0.213039	-164.816508	-43.808453	1.169787	-43.808453	1.169787	-0.195811	-164.643986
4.550000	-0.216006	-166.512875	-43.602404	-0.791742	-43.602404	-0.791742	-0.198416	-166.337060
4.600000	-0.219003	-168.211702	-43.400977	-2.780759	-43.400977	-2.780759	-0.201051	-168.032569
4.650000	-0.222032	-169.913228	-43.204071	-4.796734	-43.204071	-4.796734	-0.203714	-169.730748
4.700000	-0.225091	-171.617688	-43.011583	-6.839231	-43.011583	-6.839231	-0.206405	-171.431835
4.750000	-0.228181	-173.325320	-42.823410	-8.907905	-42.823410	-8.907905	-0.209124	-173.136067
4.800000	-0.231300	-175.036359	-42.639446	-11.002499	-42.639446	-11.002499	-0.211871	-174.843681
4.850000	-0.234449	-176.751042	-42.459583	-13.122838	-42.459583	-13.122838	-0.214645	-176.554913
4.900000	-0.237627	-178.469602	-42.283713	-15.268831	-42.283713	-15.268831	-0.217445	-178.269997
4.950000	-0.240833	179.807725	-42.111723	-17.440465	-42.111723	-17.440465	-0.220272	-179.989169
5.000000	-0.244066	178.080707	-41.943500	-19.637805	-41.943500	-19.637805	-0.223125	178.287340
5.050000	-0.247328	176.348903	-41.778950	-21.862124	-41.778950	-21.862124	-0.226004	176.559086
5.100000	-0.250616	174.612272	-41.617931	-24.112531	-41.617931	-24.112531	-0.228907	174.826030
5.150000	-0.253930	172.870586	-41.460319	-26.389322	-41.460319	-26.389322	-0.231834	173.087940
5.200000	-0.257269	171.123618	-41.305985	-28.692870	-41.305985	-28.692870	-0.234785	171.344592
5.250000	-0.260632	169.371146	-41.154793	-31.023616	-41.154793	-31.023616	-0.237759	169.595759
5.300000	-0.264019	167.612946	-41.006603	-33.382076	-41.006603	-33.382076	-0.240754	167.841220
5.350000	-0.267428	165.848800	-40.861266	-35.768835	-40.861266	-35.768835	-0.243771	166.080753
5.400000	-0.270858	164.078491	-40.718625	-38.184555	-40.718625	-38.184555	-0.246809	164.314142
5.450000	-0.274310	162.301806	-40.578515	-40.629966	-40.578515	-40.629966	-0.249866	162.541172
5.500000	-0.277782	160.518533	-40.440756	-43.105874	-40.440756	-43.105874	-0.252943	160.761632
5.550000	-0.281273	158.728466	-40.305159	-45.613159	-40.305159	-45.613159	-0.256039	158.975311
5.600000	-0.284782	156.931401	-40.171520	-48.152775	-40.171520	-48.152775	-0.259152	157.182006
5.650000	-0.288309	155.127137	-40.039617	-50.725751	-40.039617	-50.725751	-0.262282	155.381516
5.700000	-0.291852	153.315479	-39.909211	-53.333191	-39.909211	-53.333191	-0.265429	153.573641
5.750000	-0.295411	151.496234	-39.780041	-55.976277	-39.780041	-55.976277	-0.268592	151.758188
5.800000	-0.298986	149.669214	-39.651824	-58.656264	-39.651824	-58.656264	-0.271770	149.934968
5.850000	-0.302574	147.834235	-39.524250	-61.374484	-39.524250	-61.374484	-0.274963	148.103794
5.900000	-0.306177	145.991117	-39.396979	-64.132338	-39.396979	-64.132338	-0.278170	146.264484
5.950000	-0.309792	144.139685	-39.269640	-66.931303	-39.269640	-66.931303	-0.281391	144.416863
6.000000	-0.313420	142.279767	-39.141824	-69.772918	-39.141824	-69.772918	-0.284626	142.560755
6.050000	-0.317059	140.411199	-39.013083	-72.658787	-39.013083	-72.658787	-0.287874	140.695994
6.100000	-0.320711	138.533816	-38.882924	-75.590567	-38.882924	-75.590567	-0.291136	138.822413
6.150000	-0.324375	136.647462	-38.750803	-78.569963	-38.750803	-78.569963	-0.294412	136.939852
6.200000	-0.328050	134.751981	-38.616126	-81.598714	-38.616126	-81.598714	-0.297701	135.048154
6.250000	-0.331737	132.847221	-38.478236	-84.678579	-38.478236	-84.678579	-0.301006	133.147164
6.300000	-0.335438	130.932619	-38.336098	-87.813703	-38.336098	-87.813703	-0.304326	131.236314
6.350000	-0.339153	129.008430	-38.189140	-91.003606	-38.189140	-91.003606	-0.307664	129.315859
6.400000	-0.342883	127.074510	-38.036475	-94.249981	-38.036475	-94.249981	-0.311020	127.385649
6.450000	-0.346630	125.130713	-37.877134	-97.554446	-37.877134	-97.554446	-0.314397	125.445537
6.500000	-0.350396	123.176892	-37.710055	-100.918509	-37.710055	-100.918509	-0.317798	123.495371
6.550000	-0.354186	121.212895	-37.534077	-104.343529	-37.534077	-104.343529	-0.321226	121.534996
6.600000	-0.358002	119.238565	-37.347937	-107.830681	-37.347937	-107.830681	-0.324686	119.564251
6.650000	-0.361849	117.253735	-37.150258	-111.380905	-37.150258	-111.380905	-0.328182	117.582966
6.700000	-0.365730	115.259378	-36.941652	-114.988056	-36.941652	-114.988056	-0.331716	115.592114
6.750000	-0.369662	113.252663	-36.715838	-118.668124	-36.715838	-118.668124	-0.335308	113.588849
6.800000	-0.373647	111.235223	-36.474413	-122.410157	-36.474413	-122.410157	-0.338959	111.574808
6.850000	-0.377695	109.206878	-36.215800	-126.213488	-36.215800	-126.213488	-0.342680	109.549808
6.900000	-0.381832	107.165846	-35.934382	-130.085434	-35.934382	-130.085434	-0.346497	107.512054
6.950000	-0.386060	105.113713	-35.632900	-134.014541	-35.632900	-134.014541	-0.350412	105.463137
7.000000	-0.390415	103.048689	-35.305214	-138.006203	-35.305214	-138.006203	-0.354461	103.401256
7.050000	-0.394922	100.970578	-34.949702	-142.056953	-34.949702	-142.056953	-0.358671	101.326210
7.100000	-0.399600	98.879952	-34.567696	-146.159852	-34.567696	-146.159852	-0.363060	99.238575
7.150000	-0.404538	96.773333	-34.146643	-150.323200	-34.146643	-150.323200	-0.367718	97.134851
7.200000	-0.409752	94.652361	-33.692870	-154.535368	-33.692870	-154.535368	-0.372661	95.016687
7.250000	-0.415335	92.514961	-33.199627	-158.798018	-33.199627	-158.798018	-0.377981	92.881998
7.300000	-0.421422	90.358317	-32.657980	-163.114075	-32.657980	-163.114075	-0.383817	90.727954
7.350000	-0.428082	88.182936	-32.073989	-167.477831	-32.073989	-167.477831	-0.390234	88.555070
7.400000	-0.435574	85.983890	-31.432960	-171.898427	-31.432960	-171.898427	-0.397495	86.358399
7.450000	-0.444164	83.757978	-30.730430	-176.381869	-30.730430	-176.381869	-0.405863	84.134732
7.500000	-0.454230	81.500629	-29.960138	179.060206	-29.960138	179.060206	-0.415720	81.879489
7.550000	-0.466414	79.204162	-29.109038	174.405103	-29.109038	174.405103	-0.427704	79.584973
7.600000	-0.481644	76.858924	-28.165099	169.619583	-28.165099	169.619583	-0.442749	77.241513
7.650000	-0.501301	74.452326	-27.117108	164.655437	-27.117108	164.655437	-0.462231	74.836503
7.700000	-0.528081	71.961142	-25.935081	159.421072	-25.935081	159.421072	-0.488851	72.346675
7.750000	-0.566511	69.353932	-24.591061	153.777450	-24.591061	153.777450	-0.527138	69.740534
7.800000	-0.625529	66.580045	-23.041187	147.478470	-23.041187	147.478470	-0.586035	66.967341
7.850000	-0.724548	63.559056	-21.219920	140.060555	-21.219920	140.060555	-0.684968	63.946506
7.900000	-0.909183	60.186213	-19.046745	130.612557	-19.046745	130.612557	-0.869593	60.572974
7.950000	-1.304380	56.471068	-16.431563	117.077385	-16.431563	117.077385	-1.264989	56.855727
8.000000	-2.217679	53.957564	-13.529170	94.920312	-13.529170	94.920312	-2.179237	54.338787
8.050000	-3.278021	60.668534	-11.738184	59.113860	-11.738184	59.113860	-3.241881	61.057938
8.100000	-2.220908	67.797122	-13.012891	22.267821	-13.012891	22.267821	-2.183841	68.204545
8.150000	-1.260236	65.120422	-15.644735	-0.904978	-15.644735	-0.904978	-1.221764	65.529905
8.200000	-0.862815	61.181130	-18.051323	-14.685236	-18.051323	-14.685236	-0.823712	61.589665
8.250000	-0.688532	57.670967	-20.016848	-23.918131	-20.016848	-23.918131	-0.649124	58.078572
8.300000	-0.601441	54.565216	-21.626296	-30.844257	-21.626296	-30.844257	-0.561870	54.972094
8.350000	-0.553739	51.734577	-22.962694	-36.446740	-22.962694	-36.446740	-0.514080	52.140845
8.400000	-0.525527	49.083596	-24.098531	-41.235188	-24.098531	-41.235188	-0.485826	49.489290
8.450000	-0.508381	46.559564	-25.069654	-45.456400	-25.069654	-45.456400	-0.468670	46.964668
8.500000	-0.497367	44.119942	-25.925515	-49.296925	-25.925515	-49.296925	-0.457670	44.524407
8.550000	-0.490396	41.745259	-26.681868	-52.838496	-26.681868	-52.838496	-0.450734	42.149016
8.600000	-0.486084	39.420165	-27.356842	-56.145563	-27.356842	-56.145563	-0.446475	39.823129
8.650000	-0.483595	37.134198	-27.964272	-59.262357	-27.964272	-59.262357	-0.444054	37.536276
8.700000	-0.482402	34.880063	-28.514926	-62.220404	-28.514926	-62.220404	-0.442945	35.281156
8.750000	-0.482161	32.652568	-29.017343	-65.042924	-29.017343	-65.042924	-0.442802	33.052574
8.800000	-0.482661	30.448628	-29.476447	-67.744071	-29.476447	-67.744071	-0.443412	30.847442
8.850000	-0.483715	28.264698	-29.900355	-70.341708	-29.900355	-70.341708	-0.444588	28.662216
8.900000	-0.485215	26.098815	-30.293549	-72.846456	-30.293549	-72.846456	-0.446222	26.494934
8.950000	-0.487083	23.949520	-30.659794	-75.266931	-30.659794	-75.266931	-0.448235	24.344141
9.000000	-0.489263	21.815729	-31.002287	-77.610221	-31.002287	-77.610221	-0.450571	22.208755
9.050000	-0.491714	19.696642	-31.323755	-79.882216	-31.323755	-79.882216	-0.453187	20.087977
9.100000	-0.494405	17.591670	-31.626551	-82.087846	-31.626551	-82.087846	-0.456053	17.981224
9.150000	-0.497313	15.500391	-31.912711	-84.231254	-31.912711	-84.231254	-0.459144	15.888077
9.200000	-0.500421	13.422508	-32.184007	-86.315914	-32.184007	-86.315914	-0.462445	13.808242
9.250000	-0.503718	11.357821	-32.441990	-88.344723	-32.441990	-88.344723	-0.465943	11.741525
9.300000	-0.507194	9.306207	-32.688018	-90.320065	-32.688018	-90.320065	-0.469627	9.687807
9.350000	-0.510843	7.267602	-32.923281	-92.243860	-32.923281	-92.243860	-0.473490	7.647028
9.400000	-0.514660	5.241983	-33.148815	-94.117608	-33.148815	-94.117608	-0.477529	5.619172
9.450000	-0.518642	3.229366	-33.365517	-95.942432	-33.365517	-95.942432	-0.481738	3.604259
9.500000	-0.522787	1.229791	-33.574152	-97.719127	-33.574152	-97.719127	-0.486117	1.602332
9.550000	-0.527094	-0.756686	-33.775351	-99.448219	-33.775351	-99.448219	-0.490663	-0.386544
9.600000	-0.531563	-2.729992	-33.969623	-101.130055	-33.969623	-101.130055	-0.495375	-2.362292
9.650000	-0.536194	-4.690046	-34.157346	-102.764906	-34.157346	-102.764906	-0.500253	-4.324827
9.700000	-0.540987	-6.636763	-34.338783	-104.353102	-34.338783	-104.353102	-0.505298	-6.274058
9.750000	-0.545943	-8.570056	-34.514080	-105.895184	-34.514080	-105.895184	-0.510509	-8.209891
9.800000	-0.551063	-10.489837	-34.683290	-107.392057	-34.683290	-107.392057	-0.515888	-10.132234
9.850000	-0.556348	-12.396021	-34.846394	-108.845136	-34.846394	-108.845136	-0.521434	-12.040997
9.900000	-0.561800	-14.288527	-35.003333	-110.256435	-35.003333	-110.256435	-0.527149	-13.936093
9.950000	-0.567420	-16.167279	-35.154046	-111.628602	-35.154046	-111.628602	-0.533034	-15.817441
10.000000	-0.573209	-18.032207	-35.298508	-112.964857	-35.298508	-112.964857	-0.539089	-17.684965
