! freq	dB(S11)	phase(S11)	dB(S12)	phase(S12)	
!     	dB(S21)	phase(S21)	dB(S22)	phase(S22)	
!S-par simulation data
#  GHz  S  DB  R 50
0.000000	-0.000000	0.000000	-309.244031	0.000000	-309.244031	0.000000	-0.000000	0.000000
0.050000	-0.000632	-0.849652	-113.875430	89.485761	-113.875430	89.485761	-0.000484	-0.776099
0.100000	-0.001940	-1.693815	-107.891160	88.563988	-107.891160	88.563988	-0.001639	-1.548697
0.150000	-0.003213	-2.533279	-104.432724	87.752425	-104.432724	87.752425	-0.002984	-2.317334
0.200000	-0.004254	-3.370389	-102.029726	86.994240	-102.029726	86.994240	-0.004241	-3.083239
0.250000	-0.005154	-4.206671	-100.204993	86.276746	-100.204993	86.276746	-0.005381	-3.847980
0.300000	-0.005968	-5.042440	-98.764998	85.612710	-98.764998	85.612710	-0.006406	-4.612083
0.350000	-0.006760	-5.877848	-97.594434	85.007146	-97.594434	85.007146	-0.007361	-5.375949
0.400000	-0.007569	-6.712837	-96.634240	84.476887	-96.634240	84.476887	-0.008273	-6.139688
0.450000	-0.008449	-7.547134	-95.872890	84.076860	-95.872890	84.076860	-0.009159	-6.903265
0.500000	-0.009368	-8.381161	-95.211829	83.737974	-95.211829	83.737974	-0.010045	-7.666745
0.550000	-0.010393	-9.214489	-94.692503	83.558057	-94.692503	83.558057	-0.010929	-8.429976
0.600000	-0.011520	-10.047423	-94.279725	83.546116	-94.279725	83.546116	-0.011819	-9.192907
0.650000	-0.012734	-10.880023	-93.948642	83.676310	-93.948642	83.676310	-0.012714	-9.955584
0.700000	-0.014068	-11.712575	-93.746685	84.164368	-93.746685	84.164368	-0.013620	-10.717658
0.750000	-0.015428	-12.545125	-93.587330	84.783962	-93.587330	84.783962	-0.014531	-11.479522
0.800000	-0.016756	-13.377803	-93.565976	86.008631	-93.565976	86.008631	-0.015454	-12.240532
0.850000	-0.018039	-14.210285	-93.581522	87.477292	-93.581522	87.477292	-0.016381	-13.001264
0.900000	-0.019199	-15.042081	-93.692250	89.649195	-93.692250	89.649195	-0.017317	-13.761244
0.950000	-0.020272	-15.872839	-93.869064	92.578681	-93.869064	92.578681	-0.018259	-14.520566
1.000000	-0.021290	-16.702359	-94.094076	96.456741	-94.094076	96.456741	-0.019205	-15.279197
1.050000	-0.022283	-17.530596	-94.335645	101.494884	-94.335645	101.494884	-0.020156	-16.037106
1.100000	-0.023271	-18.357578	-94.541541	107.882300	-94.541541	107.882300	-0.021110	-16.794268
1.150000	-0.024266	-19.183361	-94.634875	115.693629	-94.634875	115.693629	-0.022066	-17.550659
1.200000	-0.025272	-20.007992	-94.521933	124.749879	-94.521933	124.749879	-0.023025	-18.306257
1.250000	-0.026289	-20.831512	-94.121256	134.510517	-94.121256	134.510517	-0.023984	-19.061043
1.300000	-0.027318	-21.653897	-93.389118	144.114629	-93.389118	144.114629	-0.024944	-19.814963
1.350000	-0.028355	-22.475211	-92.387436	152.778595	-92.387436	152.778595	-0.025904	-20.568036
1.400000	-0.029400	-23.295460	-91.205695	160.089446	-91.205695	160.089446	-0.026864	-21.320247
1.450000	-0.030450	-24.114643	-89.932600	165.973084	-89.932600	165.973084	-0.027823	-22.071581
1.500000	-0.031504	-24.932759	-88.634294	170.558465	-88.634294	170.558465	-0.028782	-22.822027
1.550000	-0.032560	-25.749800	-87.352137	174.050392	-87.352137	174.050392	-0.029740	-23.571571
1.600000	-0.033619	-26.565758	-86.108725	176.656175	-86.108725	176.656175	-0.030697	-24.320201
1.650000	-0.034678	-27.380624	-84.914647	178.555573	-84.914647	178.555573	-0.031654	-25.067907
1.700000	-0.035737	-28.193995	-83.742272	179.751838	-83.742272	179.751838	-0.032609	-25.814346
1.750000	-0.036796	-29.006786	-82.667863	-179.303110	-82.667863	-179.303110	-0.033565	-26.560292
1.800000	-0.037855	-29.818196	-81.625784	-178.760610	-81.625784	-178.760610	-0.034521	-27.305068
1.850000	-0.038914	-30.628618	-80.640659	-178.505646	-80.640659	-178.505646	-0.035476	-28.049008
1.900000	-0.039971	-31.437826	-79.696213	-178.476039	-79.696213	-178.476039	-0.036432	-28.791922
1.950000	-0.041029	-32.245820	-78.790639	-178.671790	-78.790639	-178.671790	-0.037389	-29.533810
2.000000	-0.042086	-33.052774	-77.929091	-178.995279	-77.929091	-178.995279	-0.038347	-30.274826
2.050000	-0.043143	-33.858275	-77.092492	-179.497601	-77.092492	-179.497601	-0.039307	-31.014620
2.100000	-0.044200	-34.663138	-76.308313	179.943169	-76.308313	179.943169	-0.040268	-31.753881
2.150000	-0.045258	-35.466351	-75.538853	179.243507	-75.538853	179.243507	-0.041232	-32.491763
2.200000	-0.046316	-36.268317	-74.797206	178.459643	-74.797206	178.459643	-0.042198	-33.228608
2.250000	-0.047376	-37.069024	-74.081411	177.603033	-74.081411	177.603033	-0.043167	-33.964406
2.300000	-0.048438	-37.868455	-73.389697	176.683195	-73.389697	176.683195	-0.044140	-34.699149
2.350000	-0.049501	-38.666596	-72.720464	175.708089	-72.720464	175.708089	-0.045116	-35.432825
2.400000	-0.050567	-39.463432	-72.072266	174.684425	-72.072266	174.684425	-0.046096	-36.165427
2.450000	-0.051636	-40.258949	-71.443789	173.617890	-71.443789	173.617890	-0.047081	-36.896943
2.500000	-0.052709	-41.053133	-70.833841	172.513337	-70.833841	172.513337	-0.048070	-37.627366
2.550000	-0.053785	-41.845909	-70.240343	171.373628	-70.240343	171.373628	-0.049064	-38.356635
2.600000	-0.054866	-42.637323	-69.663404	170.203935	-69.663404	170.203935	-0.050064	-39.084791
2.650000	-0.055951	-43.427361	-69.102105	169.007319	-69.102105	169.007319	-0.051069	-39.811822
2.700000	-0.057042	-44.216010	-68.555604	167.786449	-68.555604	167.786449	-0.052080	-40.537720
2.750000	-0.058138	-45.003256	-68.023129	166.543666	-68.023129	166.543666	-0.053097	-41.262476
2.800000	-0.059241	-45.789088	-67.503968	165.281028	-67.503968	165.281028	-0.054121	-41.986079
2.850000	-0.060350	-46.573493	-66.997466	164.000357	-66.997466	164.000357	-0.055150	-42.708520
2.900000	-0.061466	-47.356459	-66.503016	162.703264	-66.503016	162.703264	-0.056187	-43.429792
2.950000	-0.062590	-48.137975	-66.020056	161.391185	-66.020056	161.391185	-0.057231	-44.149883
3.000000	-0.063722	-48.918030	-65.548065	160.065403	-65.548065	160.065403	-0.058282	-44.868786
3.050000	-0.064862	-49.696613	-65.086557	158.727064	-65.086557	158.727064	-0.059340	-45.586492
3.100000	-0.066011	-50.473715	-64.635081	157.377198	-64.635081	157.377198	-0.060407	-46.302991
3.150000	-0.067169	-51.249324	-64.193214	156.016735	-64.193214	156.016735	-0.061481	-47.018277
3.200000	-0.068336	-52.023433	-63.760563	154.646512	-63.760563	154.646512	-0.062564	-47.732340
3.250000	-0.069514	-52.796031	-63.336759	153.267288	-63.336759	153.267288	-0.063656	-48.445173
3.300000	-0.070702	-53.567112	-62.921454	151.879751	-62.921454	151.879751	-0.064756	-49.156768
3.350000	-0.071903	-54.336398	-62.512429	150.483357	-62.512429	150.483357	-0.065868	-49.866900
3.400000	-0.073116	-55.104083	-62.110990	149.079555	-62.110990	149.079555	-0.066989	-50.575724
3.450000	-0.074335	-55.870961	-61.722066	147.672502	-61.722066	147.672502	-0.068116	-51.283890
3.500000	-0.075573	-56.635419	-61.334817	146.255696	-61.334817	146.255696	-0.069259	-51.990078
3.550000	-0.076815	-57.399335	-60.960872	144.837033	-60.960872	144.837033	-0.070406	-52.695823
3.600000	-0.078080	-58.160540	-60.586894	143.409080	-60.586894	143.409080	-0.071572	-53.399349
3.650000	-0.079347	-58.921472	-60.226857	141.980327	-60.226857	141.980327	-0.072740	-54.102652
3.700000	-0.080640	-59.679402	-59.865321	140.542778	-59.865321	140.542778	-0.073931	-54.803496
3.750000	-0.081934	-60.437332	-59.518235	139.105229	-59.518235	139.105229	-0.075121	-55.504339
3.800000	-0.083257	-61.191968	-59.168393	137.659387	-59.168393	137.659387	-0.076338	-56.202484
3.850000	-0.084581	-61.946605	-58.832098	136.213545	-58.832098	136.213545	-0.077555	-56.900628
3.900000	-0.085933	-62.698210	-58.494568	134.761103	-58.494568	134.761103	-0.078797	-57.596287
3.950000	-0.087289	-63.449540	-58.168461	133.308060	-58.168461	133.308060	-0.080042	-58.291720
4.000000	-0.088672	-64.198106	-57.842448	131.849779	-57.842448	131.849779	-0.081312	-58.984887
4.050000	-0.090062	-64.946120	-57.525975	130.390450	-57.525975	130.390450	-0.082587	-59.677600
4.100000	-0.091478	-65.691642	-57.210760	128.926970	-57.210760	128.926970	-0.083885	-60.368274
4.150000	-0.092902	-66.436335	-56.903410	127.462107	-56.903410	127.462107	-0.085192	-61.058267
4.200000	-0.094352	-67.178812	-56.598335	125.993959	-56.598335	125.993959	-0.086521	-61.746449
4.250000	-0.095814	-67.920182	-56.299637	124.524168	-56.299637	124.524168	-0.087861	-62.433725
4.300000	-0.097299	-68.659616	-56.004100	123.051771	-56.004100	123.051771	-0.089222	-63.119423
4.350000	-0.098800	-69.397667	-55.713612	121.577512	-55.713612	121.577512	-0.090597	-63.803993
4.400000	-0.100321	-70.134062	-55.427059	120.101175	-55.427059	120.101175	-0.091992	-64.487220
4.450000	-0.101863	-70.868801	-55.144368	118.622759	-55.144368	118.622759	-0.093405	-65.169102
4.500000	-0.103422	-71.602164	-54.866287	117.142670	-54.866287	117.142670	-0.094835	-65.849875
4.550000	-0.105007	-72.333602	-54.590999	115.660239	-54.590999	115.660239	-0.096288	-66.529095
4.600000	-0.106606	-73.063944	-54.320912	114.176450	-54.320912	114.176450	-0.097756	-67.207441
4.650000	-0.108234	-73.792097	-54.052654	112.689946	-54.052654	112.689946	-0.099251	-67.884037
4.700000	-0.109875	-74.519432	-53.790112	111.202343	-53.790112	111.202343	-0.100757	-68.559989
4.750000	-0.111549	-75.244317	-53.528516	109.711448	-53.528516	109.711448	-0.102296	-69.234011
4.800000	-0.113232	-75.968662	-53.273094	108.219708	-53.273094	108.219708	-0.103843	-69.907615
4.850000	-0.114955	-76.690303	-53.017800	106.723751	-53.017800	106.723751	-0.105429	-70.579130
4.900000	-0.116682	-77.411677	-52.769088	105.227274	-52.769088	105.227274	-0.107020	-71.250443
4.950000	-0.118454	-78.130101	-52.519728	103.725074	-52.519728	103.725074	-0.108656	-71.919542
5.000000	-0.120227	-78.848526	-52.277328	102.222874	-52.277328	102.222874	-0.110293	-72.588641
5.050000	-0.122053	-79.563588	-52.033058	100.711899	-52.033058	100.711899	-0.111986	-73.255328
5.100000	-0.123880	-80.278651	-51.795471	99.200924	-51.795471	99.200924	-0.113679	-73.922014
5.150000	-0.125748	-80.991318	-51.558220	97.680848	-51.558220	97.680848	-0.115418	-74.587112
5.200000	-0.127634	-81.702884	-51.324599	96.156590	-51.324599	96.156590	-0.117178	-75.251479
5.250000	-0.129544	-82.413174	-51.093842	94.624679	-51.093842	94.624679	-0.118966	-75.915117
5.300000	-0.131492	-83.121293	-50.863667	93.079756	-50.863667	93.079756	-0.120803	-76.577516
5.350000	-0.133444	-83.829225	-50.638927	91.532910	-50.638927	91.532910	-0.122646	-77.239839
5.400000	-0.135455	-84.533956	-50.411435	89.953365	-50.411435	89.953365	-0.124581	-77.900868
5.450000	-0.137468	-85.238686	-50.189750	88.373820	-50.189750	88.373820	-0.126516	-78.561898
5.500000	-0.139516	-85.941566	-49.968314	86.763177	-49.968314	86.763177	-0.128524	-79.222638
5.550000	-0.141597	-86.642841	-49.747531	85.116392	-49.747531	85.116392	-0.130610	-79.883460
5.600000	-0.143707	-87.342747	-49.527645	83.424578	-49.527645	83.424578	-0.132790	-80.544858
5.650000	-0.145845	-88.041301	-49.308242	81.670244	-49.308242	81.670244	-0.135099	-81.207448
5.700000	-0.148014	-88.738528	-49.088861	79.826963	-49.088861	79.826963	-0.137596	-81.872139
5.750000	-0.150215	-89.434393	-48.868681	77.841846	-48.868681	77.841846	-0.140408	-82.540645
5.800000	-0.152453	-90.128869	-48.647341	75.584113	-48.647341	75.584113	-0.143911	-83.217030
5.850000	-0.154732	-90.822243	-48.430091	72.849289	-48.430091	72.849289	-0.148875	-83.907116
5.900000	-0.157079	-91.514767	-48.245587	69.074551	-48.245587	69.074551	-0.157996	-84.623699
5.950000	-0.159549	-92.206873	-48.170195	63.566315	-48.170195	63.566315	-0.175979	-85.374239
6.000000	-0.162717	-92.898056	-49.281834	52.523720	-49.281834	52.523720	-0.242258	-86.072565
6.050000	-0.165829	-93.575401	-52.399568	74.702034	-52.399568	74.702034	-0.260918	-85.904483
6.100000	-0.167290	-94.259188	-49.382438	80.737129	-49.382438	80.737129	-0.187610	-86.524735
6.150000	-0.169414	-94.945011	-48.383882	76.895360	-48.383882	76.895360	-0.169512	-87.284239
6.200000	-0.171781	-95.629309	-47.894211	73.870441	-47.894211	73.870441	-0.165010	-87.995839
6.250000	-0.174243	-96.312238	-47.552998	71.403992	-47.552998	71.403992	-0.164184	-88.681506
6.300000	-0.176778	-96.993610	-47.285399	69.326834	-47.285399	69.326834	-0.165071	-89.349813
6.350000	-0.179357	-97.673790	-47.048027	67.434475	-47.048027	67.434475	-0.166571	-90.010049
6.400000	-0.181986	-98.352536	-46.831093	65.689473	-46.831093	65.689473	-0.168483	-90.663994
6.450000	-0.184651	-99.030213	-46.625657	64.025506	-46.625657	64.025506	-0.170600	-91.314585
6.500000	-0.187362	-99.706508	-46.428851	62.435883	-46.428851	62.435883	-0.172892	-91.962356
6.550000	-0.190107	-100.381810	-46.237821	60.889391	-46.237821	60.889391	-0.175286	-92.608700
6.600000	-0.192885	-101.056130	-46.051682	59.380994	-46.051682	59.380994	-0.177770	-93.253914
6.650000	-0.195715	-101.728968	-45.869133	57.919641	-45.869133	57.919641	-0.180372	-93.898270
6.700000	-0.198579	-102.400853	-45.689431	56.484954	-45.689431	56.484954	-0.183048	-94.542584
6.750000	-0.201483	-103.071664	-45.511999	55.079543	-45.511999	55.079543	-0.185810	-95.187169
6.800000	-0.204426	-103.741453	-45.336380	53.701533	-45.336380	53.701533	-0.188659	-95.832438
6.850000	-0.207407	-104.410238	-45.162135	52.350855	-45.162135	52.350855	-0.191602	-96.478823
6.900000	-0.210435	-105.077847	-44.988192	51.034278	-44.988192	51.034278	-0.194674	-97.127296
6.950000	-0.213505	-105.744436	-44.814196	49.750921	-44.814196	49.750921	-0.197887	-97.778520
7.000000	-0.216617	-106.410085	-44.639683	48.502423	-44.639683	48.502423	-0.201262	-98.433212
7.050000	-0.219769	-107.074810	-44.463884	47.293301	-44.463884	47.293301	-0.204839	-99.092396
7.100000	-0.222963	-107.738629	-44.285848	46.129350	-44.285848	46.129350	-0.208673	-99.757343
7.150000	-0.226199	-108.401556	-44.104409	45.017841	-44.104409	45.017841	-0.212837	-100.429622
7.200000	-0.229489	-109.063410	-43.914932	43.987574	-43.914932	43.987574	-0.217600	-101.114576
7.250000	-0.232825	-109.724385	-43.715290	43.045725	-43.715290	43.045725	-0.223158	-101.814853
7.300000	-0.236208	-110.384510	-43.500666	42.212435	-43.500666	42.212435	-0.229913	-102.535722
7.350000	-0.239640	-111.043785	-43.263176	41.515844	-43.263176	41.515844	-0.238566	-103.285247
7.400000	-0.243121	-111.702252	-42.996026	40.975122	-42.996026	40.975122	-0.249878	-104.070570
7.450000	-0.246663	-112.359694	-42.664953	40.677458	-42.664953	40.677458	-0.267207	-104.922568
7.500000	-0.250272	-113.015963	-42.210198	40.658732	-42.210198	40.658732	-0.298044	-105.886059
7.550000	-0.253935	-113.670911	-41.554970	40.760729	-41.554970	40.760729	-0.356502	-107.004461
7.600000	-0.257595	-114.323619	-40.479681	40.107279	-40.479681	40.107279	-0.495004	-108.341591
7.650000	-0.260819	-114.972871	-38.791180	34.373290	-38.791180	34.373290	-0.864988	-109.294035
7.700000	-0.262705	-115.626956	-37.940083	16.158675	-37.940083	16.158675	-1.258440	-106.151363
7.750000	-0.266017	-116.291507	-39.666248	3.318343	-39.666248	3.318343	-0.820933	-103.882389
7.800000	-0.270337	-116.949288	-41.109783	2.799873	-41.109783	2.799873	-0.525700	-104.831033
7.850000	-0.274556	-117.603372	-41.736989	4.651777	-41.736989	4.651777	-0.409175	-106.000372
7.900000	-0.278676	-118.256119	-41.968832	6.029699	-41.968832	6.029699	-0.357093	-107.016628
7.950000	-0.282762	-118.908132	-42.021820	6.698492	-42.021820	6.698492	-0.331500	-107.906288
8.000000	-0.286848	-119.559660	-41.997488	6.867068	-41.997488	6.867068	-0.317360	-108.718697
8.050000	-0.290954	-120.210747	-41.930219	6.646804	-41.930219	6.646804	-0.309898	-109.474400
8.100000	-0.295097	-120.861408	-41.839510	6.134589	-41.839510	6.134589	-0.306444	-110.188534
8.150000	-0.299271	-121.511821	-41.740934	5.487553	-41.740934	5.487553	-0.304583	-110.883470
8.200000	-0.303478	-122.161986	-41.635832	4.714474	-41.635832	4.714474	-0.304152	-111.560403
8.250000	-0.307739	-122.811847	-41.525630	3.813114	-41.525630	3.813114	-0.305028	-112.218702
8.300000	-0.312047	-123.461517	-41.413876	2.840808	-41.413876	2.840808	-0.306574	-112.866349
8.350000	-0.316401	-124.111044	-41.301463	1.813941	-41.301463	1.813941	-0.308624	-113.505580
8.400000	-0.320812	-124.760431	-41.188582	0.732524	-41.188582	0.732524	-0.311168	-114.136171
8.450000	-0.325250	-125.409800	-41.076660	-0.364823	-41.076660	-0.364823	-0.313859	-114.764023
8.500000	-0.329768	-126.059111	-40.964709	-1.509955	-40.964709	-1.509955	-0.316988	-115.383656
8.550000	-0.334305	-126.708446	-40.854000	-2.661696	-40.854000	-2.661696	-0.320184	-116.001996
8.600000	-0.338934	-127.357896	-40.743776	-3.846475	-40.743776	-3.846475	-0.323711	-116.613868
8.650000	-0.343575	-128.007376	-40.634880	-5.033290	-40.634880	-5.033290	-0.327264	-117.225260
8.700000	-0.348321	-128.657198	-40.526750	-6.242515	-40.526750	-6.242515	-0.331086	-117.831377
8.750000	-0.353070	-129.307020	-40.419949	-7.451739	-40.419949	-7.451739	-0.334911	-118.437494
8.800000	-0.357937	-129.957472	-40.314095	-8.675130	-40.314095	-8.675130	-0.338969	-119.039193
8.850000	-0.362807	-130.607924	-40.209515	-9.898522	-40.209515	-9.898522	-0.343029	-119.640891
8.900000	-0.367791	-131.259217	-40.106050	-11.128100	-40.106050	-11.128100	-0.347270	-120.239399
8.950000	-0.372788	-131.910586	-40.003792	-12.358240	-40.003792	-12.358240	-0.351529	-120.837616
9.000000	-0.377894	-132.562986	-39.902759	-13.589249	-39.902759	-13.589249	-0.355932	-121.433508
9.050000	-0.383024	-133.215593	-39.802895	-14.820431	-39.802895	-14.820431	-0.360366	-122.028935
9.100000	-0.388257	-133.869399	-39.704336	-16.048896	-39.704336	-16.048896	-0.364919	-122.622665
9.150000	-0.393527	-134.523605	-39.606939	-17.276455	-39.606939	-17.276455	-0.369512	-123.215829
9.200000	-0.398893	-135.179154	-39.510907	-18.498908	-39.510907	-18.498908	-0.374204	-123.807767
9.250000	-0.404310	-135.835374	-39.416067	-19.718808	-39.416067	-19.718808	-0.378947	-124.399091
9.300000	-0.409816	-136.493047	-39.322639	-20.932109	-39.322639	-20.932109	-0.383771	-124.989545
9.350000	-0.415388	-137.151757	-39.230480	-22.140695	-39.230480	-22.140695	-0.388655	-125.579377
9.400000	-0.421040	-137.811989	-39.139766	-23.341913	-39.139766	-23.341913	-0.393608	-126.168612
9.450000	-0.426774	-138.473745	-39.050463	-24.535762	-39.050463	-24.535762	-0.398628	-126.757251
9.500000	-0.432580	-139.137043	-38.962616	-25.722110	-38.962616	-25.722110	-0.403705	-127.345501
9.550000	-0.438485	-139.802500	-38.876407	-26.897959	-38.876407	-26.897959	-0.408858	-127.933208
9.600000	-0.444450	-140.469452	-38.791634	-28.066773	-38.791634	-28.066773	-0.414056	-128.520684
9.650000	-0.450532	-141.139394	-38.708843	-29.221520	-38.708843	-29.221520	-0.419340	-129.107697
9.700000	-0.456661	-141.810693	-38.627415	-30.370272	-38.627415	-30.370272	-0.424658	-129.694591
9.750000	-0.462924	-142.486064	-38.548469	-31.501045	-38.548469	-31.501045	-0.430071	-130.281129
9.800000	-0.469218	-143.162535	-38.470735	-32.627407	-38.470735	-32.627407	-0.435507	-130.867622
9.850000	-0.475658	-143.844496	-38.396176	-33.731714	-38.396176	-33.731714	-0.441048	-131.453892
9.900000	-0.482116	-144.527127	-38.322572	-34.833660	-38.322572	-34.833660	-0.446602	-132.040157
9.950000	-0.488719	-145.217116	-38.253075	-35.909628	-38.253075	-35.909628	-0.452270	-132.626360
10.000000	-0.495327	-145.907105	-38.184130	-36.985595	-38.184130	-36.985595	-0.457942	-133.212562
