! freq	dB(S11)	phase(S11)	dB(S12)	phase(S12)	
!     	dB(S21)	phase(S21)	dB(S22)	phase(S22)	
!S-par simulation data
#  GHz  S  DB  R 50
0.000000	-88.768271	0.000000	-0.000317	0.000000	-0.000317	0.000000	-88.768271	0.000000
0.050000	-29.141627	-93.614043	-0.009458	-3.479428	-0.009458	-3.479428	-29.143069	-93.611815
0.100000	-23.158355	-97.270462	-0.030878	-6.952810	-0.030878	-6.952810	-23.159005	-97.268417
0.150000	-19.692311	-100.833933	-0.062980	-10.394600	-0.062980	-10.394600	-19.692143	-100.834537
0.200000	-17.263571	-104.316810	-0.104671	-13.801247	-0.104671	-13.801247	-17.262818	-104.320996
0.250000	-15.406180	-107.731874	-0.154950	-17.173023	-0.154950	-17.173023	-15.405110	-107.739104
0.300000	-13.913175	-111.089063	-0.213303	-20.508795	-0.213303	-20.508795	-13.911992	-111.098141
0.350000	-12.673178	-114.396246	-0.279060	-23.807559	-0.279060	-23.807559	-12.672006	-114.405975
0.400000	-11.620745	-117.656049	-0.351771	-27.066522	-0.351771	-27.066522	-11.619656	-117.665471
0.450000	-10.714946	-120.867047	-0.431102	-30.280905	-0.431102	-30.280905	-10.713981	-120.875496
0.500000	-9.924819	-124.031127	-0.516105	-33.450320	-0.516105	-33.450320	-9.923995	-124.038253
0.550000	-9.229480	-127.147324	-0.606108	-36.572681	-0.606108	-36.572681	-9.228805	-127.152983
0.600000	-8.614683	-130.212296	-0.700532	-39.644003	-0.700532	-39.644003	-8.614154	-130.216492
0.650000	-8.067233	-133.227047	-0.798496	-42.664932	-0.798496	-42.664932	-8.066842	-133.229880
0.700000	-7.577363	-136.191693	-0.899252	-45.635428	-0.899252	-45.635428	-7.577099	-136.193313
0.750000	-7.138192	-139.104663	-1.002106	-48.553845	-1.002106	-48.553845	-7.138040	-139.105248
0.800000	-6.743294	-141.966487	-1.106321	-51.420712	-1.106321	-51.420712	-6.743239	-141.966221
0.850000	-6.387122	-144.778560	-1.211208	-54.237463	-1.211208	-54.237463	-6.387149	-144.777615
0.900000	-6.065229	-147.542097	-1.316125	-57.005367	-1.316125	-57.005367	-6.065321	-147.540630
0.950000	-5.773970	-150.258278	-1.420463	-59.725667	-1.420463	-59.725667	-5.774113	-150.256429
1.000000	-5.510151	-152.928733	-1.523649	-62.400067	-1.523649	-62.400067	-5.510331	-152.926622
1.050000	-5.271022	-155.555307	-1.625148	-65.030490	-1.625148	-65.030490	-5.271225	-155.553036
1.100000	-5.054202	-158.140024	-1.724464	-67.619040	-1.724464	-67.619040	-5.054419	-158.137675
1.150000	-4.857625	-160.685053	-1.821136	-70.167966	-1.821136	-70.167966	-4.857845	-160.682692
1.200000	-4.679490	-163.192678	-1.914735	-72.679639	-1.914735	-72.679639	-4.679704	-163.190359
1.250000	-4.518223	-165.665281	-2.004868	-75.156526	-2.004868	-75.156526	-4.518427	-165.663043
1.300000	-4.372850	-168.104327	-2.091007	-77.600193	-2.091007	-77.600193	-4.373036	-168.102200
1.350000	-4.241733	-170.513494	-2.172961	-80.014400	-2.172961	-80.014400	-4.241898	-170.511496
1.400000	-4.123835	-172.895346	-2.250417	-82.401808	-2.250417	-82.401808	-4.123977	-172.893491
1.450000	-4.018257	-175.252490	-2.323087	-84.765118	-2.323087	-84.765118	-4.018373	-175.250783
1.500000	-3.924221	-177.587564	-2.390699	-87.107071	-2.390699	-87.107071	-3.924311	-177.586007
1.550000	-3.841063	-179.903241	-2.453000	-89.430447	-2.453000	-89.430447	-3.841127	-179.901832
1.600000	-3.768220	177.797772	-2.509750	-91.738066	-2.509750	-91.738066	-3.768258	177.799038
1.650000	-3.705225	175.512728	-2.560723	-94.032793	-2.560723	-94.032793	-3.705240	175.513858
1.700000	-3.651702	173.238839	-2.605700	-96.317550	-2.605700	-96.317550	-3.651694	173.239839
1.750000	-3.607360	170.973260	-2.644474	-98.595319	-2.644474	-98.595319	-3.607332	170.974140
1.800000	-3.571992	168.713085	-2.676844	-100.869160	-2.676844	-100.869160	-3.571946	168.713853
1.850000	-3.545474	166.455332	-2.702613	-103.142221	-2.702613	-103.142221	-3.545414	166.455996
1.900000	-3.527768	164.196926	-2.721592	-105.417761	-2.721592	-105.417761	-3.527696	164.197494
1.950000	-3.518919	161.934685	-2.733592	-107.699168	-2.733592	-107.699168	-3.518838	161.935163
2.000000	-3.519066	159.665300	-2.738430	-109.989979	-2.738430	-109.989979	-3.518980	159.665692
2.050000	-3.528444	157.385310	-2.735922	-112.293914	-2.735922	-112.293914	-3.528355	157.385620
2.100000	-3.547395	155.091081	-2.725892	-114.614897	-2.725892	-114.614897	-3.547307	155.091311
2.150000	-3.576379	152.778777	-2.708162	-116.957099	-2.708162	-116.957099	-3.576295	152.778926
2.200000	-3.615991	150.444332	-2.682562	-119.324972	-2.682562	-119.324972	-3.615914	150.444396
2.250000	-3.666977	148.083414	-2.648927	-121.723291	-2.648927	-121.723291	-3.666911	148.083388
2.300000	-3.729690	145.693048	-2.607480	-124.155321	-2.607480	-124.155321	-3.729638	145.692922
2.350000	-3.806519	143.264732	-2.557236	-126.630672	-2.557236	-126.630672	-3.806482	143.264494
2.400000	-3.898195	140.794890	-2.498530	-129.153401	-2.498530	-129.153401	-3.898177	140.794523
2.450000	-4.006417	138.277753	-2.431263	-131.730158	-2.431263	-131.730158	-4.006420	138.277235
2.500000	-4.133254	135.707101	-2.355372	-134.368235	-2.355372	-134.368235	-4.133280	135.706404
2.550000	-4.281699	133.074761	-2.270632	-137.077354	-2.270632	-137.077354	-4.281752	133.073848
2.600000	-4.454515	130.374665	-2.177296	-139.865074	-2.177296	-139.865074	-4.454595	130.373494
2.650000	-4.655560	127.599116	-2.075499	-142.741197	-2.075499	-142.741197	-4.655669	127.597631
2.700000	-4.889629	124.740000	-1.965492	-145.716530	-1.965492	-145.716530	-4.889769	124.738133
2.750000	-5.162726	121.788938	-1.847672	-148.802980	-1.847672	-148.802980	-5.162898	121.786602
2.800000	-5.482450	118.737558	-1.722628	-152.013617	-1.722628	-152.013617	-5.482656	118.734640
2.850000	-5.858535	115.577989	-1.591190	-155.362722	-1.591190	-155.362722	-5.858776	115.574344
2.900000	-6.303643	112.303737	-1.454500	-158.865768	-1.454500	-158.865768	-6.303919	112.299173
2.950000	-6.833215	108.913425	-1.314160	-162.535712	-1.314160	-162.535712	-6.833530	108.907688
3.000000	-7.472840	105.403823	-1.171975	-166.398012	-1.171975	-166.398012	-7.473198	105.396542
3.050000	-8.252864	101.790636	-1.030692	-170.466396	-1.030692	-170.466396	-8.253273	101.781285
3.100000	-9.219416	98.107392	-0.893614	-174.758589	-0.893614	-174.758589	-9.219890	98.095176
3.150000	-10.443825	94.430635	-0.764910	-179.292509	-0.764910	-179.292509	-10.444397	94.414268
3.200000	-12.042661	90.936693	-0.649689	175.917738	-0.649689	175.917738	-12.043409	90.913913
3.250000	-14.227683	88.060941	-0.553878	170.864136	-0.553878	170.864136	-14.228820	88.027282
3.300000	-17.454357	87.145047	-0.484311	165.544101	-0.484311	165.544101	-17.456660	87.089813
3.350000	-22.960857	94.478246	-0.448315	159.965307	-0.448315	159.965307	-22.969284	94.369222
3.400000	-29.393480	165.392071	-0.454558	154.141563	-0.454558	154.141563	-29.434509	165.458015
3.450000	-21.060342	-145.220999	-0.510265	148.107999	-0.510265	148.107999	-21.067367	-145.105830
3.500000	-15.760286	-141.208088	-0.622252	141.909656	-0.622252	141.909656	-15.762671	-141.135890
3.550000	-12.393994	-143.713748	-0.794907	135.604127	-0.794907	135.604127	-12.395236	-143.660157
3.600000	-9.982167	-148.122703	-1.033321	129.254691	-1.033321	129.254691	-9.982943	-148.079024
3.650000	-8.147368	-153.252116	-1.336937	122.932313	-1.336937	122.932313	-8.147896	-153.214701
3.700000	-6.705956	-158.671335	-1.703707	116.703544	-1.703707	116.703544	-6.706332	-158.638297
3.750000	-5.553204	-164.159916	-2.129327	110.627283	-2.129327	110.627283	-5.553477	-164.130159
3.800000	-4.622801	-169.586465	-2.607999	104.753521	-2.607999	104.753521	-4.623006	-169.559290
3.850000	-3.866383	-174.870997	-3.132296	99.114271	-3.132296	99.114271	-3.866542	-174.845934
3.900000	-3.248768	-179.965473	-3.694986	93.729888	-3.694986	93.729888	-3.248897	-179.942182
3.950000	-2.742804	175.156433	-4.289123	88.608927	-4.289123	88.608927	-2.742917	175.178212
4.000000	-2.327078	170.505629	-4.908417	83.750375	-4.908417	83.750375	-2.327184	170.526101
4.050000	-1.984498	166.082264	-5.547450	79.146096	-5.547450	79.146096	-1.984604	166.101594
4.100000	-1.701348	161.879295	-6.201753	74.783104	-6.201753	74.783104	-1.701459	161.897622
4.150000	-1.466591	157.885180	-6.867798	70.645484	-6.867798	70.645484	-1.466711	157.902620
4.200000	-1.271758	154.088473	-7.542262	66.718650	-7.542262	66.718650	-1.271888	154.105125
4.250000	-1.110130	150.477915	-8.221789	62.988959	-8.221789	62.988959	-1.110273	150.493866
4.300000	-0.973213	147.019218	-8.910720	59.419173	-8.910720	59.419173	-0.973368	147.034535
4.350000	-0.858981	143.715814	-9.602948	56.012101	-9.602948	56.012101	-0.859147	143.730561
4.400000	-0.762565	140.545257	-10.301083	52.743655	-10.301083	52.743655	-0.762743	140.559488
4.450000	-0.680923	137.494436	-11.005588	49.599694	-11.005588	49.599694	-0.681112	137.508197
4.500000	-0.612301	134.557880	-11.714009	46.574149	-11.714009	46.574149	-0.612498	134.571216
4.550000	-0.553416	131.712621	-12.433417	43.642924	-12.433417	43.642924	-0.553620	131.725565
4.600000	-0.504171	128.964633	-13.156122	40.811891	-13.156122	40.811891	-0.504382	128.977221
4.650000	-0.461662	126.288490	-13.893663	38.054628	-13.893663	38.054628	-0.461876	126.300748
4.700000	-0.425921	123.689111	-14.639117	35.375932	-14.639117	35.375932	-0.426137	123.701067
4.750000	-0.395231	121.149889	-15.401542	32.758579	-15.401542	32.758579	-0.395448	121.161564
4.800000	-0.369200	118.668884	-16.179757	30.200333	-16.179757	30.200333	-0.369416	118.680300
4.850000	-0.347096	116.239012	-16.977609	27.693723	-16.977609	27.693723	-0.347309	116.250187
4.900000	-0.328243	113.852976	-17.800821	25.231063	-17.800821	25.231063	-0.328451	113.863925
4.950000	-0.312480	111.509913	-18.648290	22.811063	-18.648290	22.811063	-0.312682	111.520651
5.000000	-0.299014	109.199481	-19.533252	20.422997	-19.533252	20.422997	-0.299208	109.210019
5.050000	-0.287987	106.924237	-20.450487	18.068588	-20.450487	18.068588	-0.288172	106.934587
5.100000	-0.278837	104.676154	-21.413636	15.739139	-21.413636	15.739139	-0.279010	104.686324
5.150000	-0.271344	102.451852	-22.431268	13.430200	-22.431268	13.430200	-0.271505	102.461848
5.200000	-0.265320	100.248159	-23.514061	11.137069	-23.514061	11.137069	-0.265467	100.257986
5.250000	-0.260605	98.062073	-24.675581	8.854482	-24.675581	8.854482	-0.260738	98.071733
5.300000	-0.257063	95.890723	-25.933475	6.576114	-25.933475	6.576114	-0.257179	95.900216
5.350000	-0.254623	93.731779	-27.306961	4.292927	-27.306961	4.292927	-0.254721	93.741101
5.400000	-0.253191	91.582287	-28.824653	1.990239	-28.824653	1.990239	-0.253271	91.591432
5.450000	-0.252620	89.438756	-30.537207	-0.352836	-30.537207	-0.352836	-0.252680	89.447714
5.500000	-0.252844	87.298423	-32.513492	-2.774285	-32.513492	-2.774285	-0.252884	87.307182
5.550000	-0.253812	85.158420	-34.866346	-5.350121	-34.866346	-5.350121	-0.253832	85.166962
5.600000	-0.255489	83.015707	-37.802015	-8.256090	-37.802015	-8.256090	-0.255488	83.024010
5.650000	-0.257850	80.866989	-41.768706	-11.994647	-41.768706	-11.994647	-0.257828	80.875025
5.700000	-0.260959	78.707254	-47.966429	-21.297372	-47.966429	-21.297372	-0.260916	78.714986
5.750000	-0.264782	76.532541	-56.729480	-79.677165	-56.729480	-79.677165	-0.264719	76.539923
5.800000	-0.269356	74.337972	-50.533735	-176.109926	-50.533735	-176.109926	-0.269272	74.344952
5.850000	-0.274767	72.117469	-45.359365	174.277010	-45.359365	174.277010	-0.274665	72.123983
5.900000	-0.281161	69.863559	-42.939489	171.373173	-42.939489	171.373173	-0.281042	69.869528
5.950000	-0.288765	67.566832	-41.906905	170.685119	-41.906905	170.685119	-0.288632	67.572158
6.000000	-0.298004	65.212933	-42.021439	172.680431	-42.021439	172.680431	-0.297862	65.217493
6.050000	-0.309687	62.778903	-43.491175	-178.033009	-43.491175	-178.033009	-0.309542	62.782527
6.100000	-0.324738	60.245603	-45.526484	-147.612041	-45.526484	-147.612041	-0.324601	60.248090
6.150000	-0.344964	57.578861	-42.841629	-98.712847	-42.841629	-98.712847	-0.344850	57.579944
6.200000	-0.373555	54.728528	-36.514885	-71.436825	-36.514885	-71.436825	-0.373488	54.727851
6.250000	-0.415605	51.631484	-31.042906	-63.910860	-31.042906	-63.910860	-0.415623	51.628580
6.300000	-0.484864	48.132709	-26.264091	-63.802148	-26.264091	-63.802148	-0.485042	48.126839
6.350000	-0.608998	44.021218	-21.888052	-67.047465	-21.888052	-67.047465	-0.609485	44.011305
6.400000	-0.856226	38.938634	-17.663385	-73.321067	-17.663385	-73.321067	-0.857345	38.923129
6.450000	-1.421161	32.361426	-13.418910	-83.868095	-13.418910	-83.868095	-1.423702	32.338613
6.500000	-2.915641	24.704736	-9.225583	-101.850888	-9.225583	-101.850888	-2.921629	24.677450
6.550000	-6.445870	28.424281	-6.005801	-130.687980	-6.005801	-130.687980	-6.457464	28.430433
6.600000	-6.314121	59.361945	-5.256848	-163.107928	-5.256848	-163.107928	-6.319244	59.409078
6.650000	-3.511461	62.972435	-6.192322	173.822251	-6.192322	173.822251	-3.513854	63.007897
6.700000	-2.231521	58.154612	-7.331040	159.722278	-7.331040	159.722278	-2.232960	58.184218
6.750000	-1.649089	53.364407	-8.239994	150.536972	-8.239994	150.536972	-1.649981	53.389732
6.800000	-1.347390	49.264610	-8.907378	143.901196	-8.907378	143.901196	-1.347952	49.286451
6.850000	-1.175881	45.703219	-9.385030	138.692292	-9.385030	138.692292	-1.176236	45.722117
6.900000	-1.074396	42.525991	-9.715165	134.367326	-9.715165	134.367326	-1.074621	42.542330
6.950000	-1.011339	39.600418	-9.940748	130.578440	-9.940748	130.578440	-1.011482	39.614442
7.000000	-0.974014	36.864291	-10.080838	127.174098	-10.080838	127.174098	-0.974108	36.876174
7.050000	-0.951541	34.245012	-10.164628	123.999655	-10.164628	123.999655	-0.951608	34.254848
7.100000	-0.940612	31.719258	-10.200336	121.005567	-10.200336	121.005567	-0.940670	31.727111
7.150000	-0.938294	29.263090	-10.197826	118.143674	-10.197826	118.143674	-0.938358	29.268994
7.200000	-0.943052	26.861738	-10.162891	115.384985	-10.162891	115.384985	-0.943135	26.865707
7.250000	-0.953388	24.499972	-10.102413	112.700663	-10.102413	112.700663	-0.953500	24.502003
7.300000	-0.968215	22.166174	-10.022018	110.069195	-10.022018	110.069195	-0.968366	22.166254
7.350000	-0.987003	19.853162	-9.925006	107.477593	-9.925006	107.477593	-0.987201	19.851273
7.400000	-1.009394	17.555203	-9.814012	104.915691	-9.814012	104.915691	-1.009648	17.551322
7.450000	-1.035154	15.267643	-9.691157	102.375380	-9.691157	102.375380	-1.035469	15.261746
7.500000	-1.064135	12.986638	-9.558165	99.850079	-9.558165	99.850079	-1.064518	12.978700
7.550000	-1.096531	10.709062	-9.415544	97.334879	-9.415544	97.334879	-1.096988	10.699060
7.600000	-1.132102	8.431623	-9.265327	94.824033	-9.265327	94.824033	-1.132637	8.419537
7.650000	-1.170887	6.151913	-9.108467	92.313616	-9.108467	92.313616	-1.171504	6.137729
7.700000	-1.212963	3.867812	-8.945755	89.800214	-8.945755	89.800214	-1.213664	3.851520
7.750000	-1.258444	1.577426	-8.777857	87.280806	-8.777857	87.280806	-1.259230	1.559023
7.800000	-1.307475	-0.720960	-8.605335	84.752675	-8.605335	84.752675	-1.308346	-0.741473
7.850000	-1.360235	-3.028919	-8.428670	82.213343	-8.428670	82.213343	-1.361188	-3.051533
7.900000	-1.416933	-5.347908	-8.248277	79.660513	-8.248277	79.660513	-1.417964	-5.372607
7.950000	-1.477807	-7.679289	-8.064517	77.092029	-8.064517	77.092029	-1.478911	-7.706053
8.000000	-1.543132	-10.024345	-7.877712	74.505845	-7.877712	74.505845	-1.544300	-10.053146
8.050000	-1.613213	-12.384288	-7.688149	71.899993	-7.688149	71.899993	-1.614434	-12.415096
8.100000	-1.688392	-14.760270	-7.496091	69.272571	-7.496091	69.272571	-1.689652	-14.793052
8.150000	-1.769051	-17.153383	-7.301783	66.621719	-7.301783	66.621719	-1.770332	-17.188105
8.200000	-1.855610	-19.564660	-7.105459	63.945611	-7.105459	63.945611	-1.856894	-19.601289
8.250000	-1.948537	-21.995068	-6.907344	61.242444	-6.907344	61.242444	-1.949801	-22.033577
8.300000	-2.048351	-24.445504	-6.707662	58.510434	-6.707662	58.510434	-2.049567	-24.485876
8.350000	-2.155425	-26.916151	-6.506806	55.748766	-6.506806	55.748766	-2.156565	-26.958381
8.400000	-2.270861	-29.409261	-6.304591	52.953389	-6.304591	52.953389	-2.271891	-29.453363
8.450000	-2.394976	-31.924189	-6.101594	50.124418	-6.101594	50.124418	-2.395861	-31.970204
8.500000	-2.528519	-34.461367	-5.898058	47.260205	-5.898058	47.260205	-2.529220	-34.509367
8.550000	-2.672317	-37.021064	-5.694238	44.359130	-5.694238	44.359130	-2.672794	-37.071159
8.600000	-2.828299	-39.605822	-5.489911	41.415188	-5.489911	41.415188	-2.828509	-39.658195
8.650000	-2.996651	-42.213033	-5.285904	38.430706	-5.285904	38.430706	-2.996552	-42.267915
8.700000	-3.178452	-44.841987	-5.082569	35.404458	-5.082569	35.404458	-3.178006	-44.899679
8.750000	-3.374956	-47.491729	-4.880247	32.335062	-4.880247	32.335062	-3.374128	-47.552612
8.800000	-3.587557	-50.160835	-4.679306	29.221237	-4.679306	29.221237	-3.586317	-50.225385
8.850000	-3.817803	-52.847316	-4.480138	26.061825	-4.480138	26.061825	-3.816131	-52.916115
8.900000	-4.068000	-55.548962	-4.283088	22.853778	-4.283088	22.853778	-4.065890	-55.622748
8.950000	-4.340606	-58.261939	-4.088634	19.594717	-4.088634	19.594717	-4.338072	-58.341627
9.000000	-4.636838	-60.980320	-3.897422	16.287524	-3.897422	16.287524	-4.633917	-61.066921
9.050000	-4.959120	-63.697883	-3.709957	12.931887	-3.709957	12.931887	-4.955877	-63.792571
9.100000	-5.310179	-66.406751	-3.526768	9.527775	-3.526768	9.527775	-5.306717	-66.510871
9.150000	-5.693101	-69.096983	-3.348400	6.075470	-3.348400	6.075470	-5.689568	-69.212070
9.200000	-6.111390	-71.756060	-3.175413	2.575604	-3.175413	2.575604	-6.107990	-71.883848
9.250000	-6.570656	-74.361987	-3.008694	-0.974968	-3.008694	-0.974968	-6.567694	-74.504624
9.300000	-7.074332	-76.894541	-2.848736	-4.571448	-2.848736	-4.571448	-7.072188	-77.054305
9.350000	-7.627221	-79.327439	-2.696041	-8.210738	-2.696041	-8.210738	-7.626381	-79.506817
9.400000	-8.235369	-81.625108	-2.551164	-11.890436	-2.551164	-11.890436	-8.236461	-81.826867
9.450000	-8.905806	-83.740949	-2.414636	-15.607698	-2.414636	-15.607698	-8.909641	-83.968163
9.500000	-9.646702	-85.613024	-2.286956	-19.359236	-2.286956	-19.359236	-9.654338	-85.869098
9.550000	-10.467602	-87.146534	-2.168785	-23.141985	-2.168785	-23.141985	-10.480452	-87.435287
9.600000	-11.378363	-88.174931	-2.061164	-26.953039	-2.061164	-26.953039	-11.398383	-88.500629
9.650000	-12.388234	-88.550244	-1.963706	-30.785110	-1.963706	-30.785110	-12.418052	-88.916390
9.700000	-13.505179	-88.013599	-1.876668	-34.633370	-1.876668	-34.633370	-13.548514	-88.421778
9.750000	-14.734021	-86.278617	-1.799731	-38.492483	-1.799731	-38.492483	-14.796156	-86.725511
9.800000	-16.041686	-82.591619	-1.734300	-42.358049	-1.734300	-42.358049	-16.130131	-83.057435
9.850000	-17.354371	-76.338914	-1.679803	-46.224040	-1.679803	-46.224040	-17.478140	-76.770512
9.900000	-18.507239	-67.039990	-1.635762	-50.085097	-1.635762	-50.085097	-18.672637	-67.330563
9.950000	-19.163331	-54.690131	-1.603020	-53.935051	-1.603020	-53.935051	-19.361813	-54.681119
10.000000	-19.178248	-41.375693	-1.579728	-57.770855	-1.579728	-57.770855	-19.386939	-40.990883
