! freq	dB(S11)	phase(S11)	dB(S12)	phase(S12)	
!     	dB(S21)	phase(S21)	dB(S22)	phase(S22)	
!S-par simulation data
#  GHz  S  DB  R 50
0.000000	-79.809529	0.000000	-0.000888	0.000000	-0.000888	0.000000	-79.809529	0.000000
0.050000	-35.441126	-89.380089	-0.018870	-3.781723	-0.018870	-3.781723	-35.440930	-89.376077
0.100000	-29.496357	-95.550559	-0.028011	-7.519695	-0.028011	-7.519695	-29.496132	-95.542507
0.150000	-26.014736	-100.164375	-0.038355	-11.245696	-0.038355	-11.245696	-26.014526	-100.152661
0.200000	-23.553282	-104.356390	-0.050475	-14.966704	-0.050475	-14.966704	-23.553105	-104.340756
0.250000	-21.654798	-108.373599	-0.064837	-18.683132	-0.064837	-18.683132	-21.654637	-108.353873
0.300000	-20.115142	-112.297916	-0.081569	-22.393965	-0.081569	-22.393965	-20.114977	-112.274068
0.350000	-18.824297	-116.164925	-0.100527	-26.098550	-0.100527	-26.098550	-18.824113	-116.136995
0.400000	-17.716874	-119.989460	-0.121605	-29.796307	-0.121605	-29.796307	-17.716666	-119.957509
0.450000	-16.751155	-123.778766	-0.144741	-33.486614	-0.144741	-33.486614	-16.750923	-123.742849
0.500000	-15.897048	-127.540116	-0.169690	-37.169751	-0.169690	-37.169751	-15.896797	-127.500268
0.550000	-15.133671	-131.277349	-0.196316	-40.845767	-0.196316	-40.845767	-15.133406	-131.233583
0.600000	-14.446191	-134.992736	-0.224559	-44.514477	-0.224559	-44.514477	-14.445918	-134.945044
0.650000	-13.822205	-138.689922	-0.254241	-48.176355	-0.254241	-48.176355	-13.821930	-138.638279
0.700000	-13.252362	-142.371567	-0.285238	-51.831723	-0.285238	-51.831723	-13.252088	-142.315937
0.750000	-12.729722	-146.039553	-0.317479	-55.480677	-0.317479	-55.480677	-12.729453	-145.979894
0.800000	-12.248307	-149.696092	-0.350856	-59.123563	-0.350856	-59.123563	-12.248043	-149.632358
0.850000	-11.803120	-153.343240	-0.385259	-62.760805	-0.385259	-62.760805	-11.802860	-153.275390
0.900000	-11.390122	-156.982684	-0.420595	-66.392785	-0.420595	-66.392785	-11.389864	-156.910681
0.950000	-11.005993	-160.615847	-0.456779	-70.019880	-0.456779	-70.019880	-11.005737	-160.539661
1.000000	-10.647880	-164.243991	-0.493726	-73.642517	-0.493726	-73.642517	-10.647622	-164.163599
1.050000	-10.313332	-167.868194	-0.531356	-77.261157	-0.531356	-77.261157	-10.313070	-167.783579
1.100000	-10.000225	-171.489369	-0.569593	-80.876293	-0.569593	-80.876293	-9.999956	-171.400523
1.150000	-9.706695	-175.108292	-0.608363	-84.488455	-0.608363	-84.488455	-9.706418	-175.015210
1.200000	-9.431090	-178.725626	-0.647600	-88.098207	-0.647600	-88.098207	-9.430804	-178.628309
1.250000	-9.171931	177.658047	-0.687243	-91.706149	-0.687243	-91.706149	-9.171637	177.759596
1.300000	-8.928044	174.042203	-0.727237	-95.312903	-0.727237	-95.312903	-8.927741	174.147977
1.350000	-8.698032	170.426327	-0.767531	-98.919177	-0.767531	-98.919177	-8.697721	170.536318
1.400000	-8.480776	166.809936	-0.808082	-102.525669	-0.808082	-102.525669	-8.480458	166.924132
1.450000	-8.275241	163.192535	-0.848856	-106.133105	-0.848856	-106.133105	-8.274918	163.310922
1.500000	-8.080782	159.573498	-0.889827	-109.742357	-0.889827	-109.742357	-8.080455	159.696060
1.550000	-7.895904	155.952415	-0.930978	-113.354036	-0.930978	-113.354036	-7.895573	156.079131
1.600000	-7.720037	152.328626	-0.972300	-116.968995	-0.972300	-116.968995	-7.719704	152.459470
1.650000	-7.552391	148.701481	-1.013794	-120.588041	-1.013794	-120.588041	-7.552058	148.836422
1.700000	-7.392224	145.070285	-1.055470	-124.211993	-1.055470	-124.211993	-7.391890	145.209283
1.750000	-7.238836	141.434297	-1.097346	-127.841676	-1.097346	-127.841676	-7.238503	141.577305
1.800000	-7.091569	137.792735	-1.139453	-131.477917	-1.139453	-131.477917	-7.091236	137.939696
1.850000	-6.949801	134.144786	-1.181827	-135.121544	-1.181827	-135.121544	-6.949470	134.295632
1.900000	-6.812951	130.489609	-1.224519	-138.773376	-1.224519	-138.773376	-6.812620	130.644262
1.950000	-6.680469	126.826349	-1.267586	-142.434222	-1.267586	-142.434222	-6.680139	126.984717
2.000000	-6.551842	123.154142	-1.311097	-146.104876	-1.311097	-146.104876	-6.551513	123.316123
2.050000	-6.426590	119.472131	-1.355131	-149.786111	-1.355131	-149.786111	-6.426262	119.637608
2.100000	-6.304264	115.779470	-1.399776	-153.478674	-1.399776	-153.478674	-6.303937	115.948313
2.150000	-6.184449	112.075340	-1.445128	-157.183281	-1.445128	-157.183281	-6.184123	112.247406
2.200000	-6.066759	108.358956	-1.491297	-160.900612	-1.491297	-160.900612	-6.066435	108.534088
2.250000	-5.950841	104.629576	-1.538398	-164.631305	-1.538398	-164.631305	-5.950519	104.807605
2.300000	-5.836370	100.886514	-1.586556	-168.375954	-1.586556	-168.375954	-5.836050	101.067255
2.350000	-5.723052	97.129142	-1.635906	-172.135097	-1.635906	-172.135097	-5.722736	97.312400
2.400000	-5.610624	93.356903	-1.686589	-175.909216	-1.686589	-175.909216	-5.610312	93.542470
2.450000	-5.498849	89.569315	-1.738754	-179.698731	-1.738754	-179.698731	-5.498543	89.756970
2.500000	-5.387522	85.765979	-1.792556	176.496007	-1.792556	176.496007	-5.387223	85.955491
2.550000	-5.276408	81.945870	-1.848229	172.674015	-1.848229	172.674015	-5.276117	82.136988
2.600000	-5.165404	78.109464	-1.905881	168.835787	-1.905881	168.835787	-5.165123	78.301936
2.650000	-5.054391	74.256643	-1.965683	164.981218	-1.965683	164.981218	-5.054121	74.450209
2.700000	-4.943280	70.387385	-2.027810	161.110287	-2.027810	161.110287	-4.943022	70.581778
2.750000	-4.832006	66.501764	-2.092438	157.223065	-2.092438	157.223065	-4.831762	66.696712
2.800000	-4.720531	62.599953	-2.159743	153.319715	-2.159743	153.319715	-4.720303	62.795176
2.850000	-4.608844	58.682218	-2.229900	149.400493	-2.229900	149.400493	-4.608632	58.877436
2.900000	-4.496957	54.748921	-2.303084	145.465753	-2.303084	145.465753	-4.496762	54.943849
2.950000	-4.384905	50.800517	-2.379464	141.515941	-2.379464	141.515941	-4.384729	50.994869
3.000000	-4.272747	46.837547	-2.459207	137.551603	-2.459207	137.551603	-4.272590	47.031039
3.050000	-4.160561	42.860643	-2.542472	133.573374	-2.542472	133.573374	-4.160424	43.052989
3.100000	-4.048446	38.870514	-2.629410	129.581981	-2.629410	129.581981	-4.048329	39.061433
3.150000	-3.936518	34.867947	-2.720164	125.578239	-2.720164	125.578239	-3.936421	35.057162
3.200000	-3.824909	30.853802	-2.814865	121.563042	-2.814865	121.563042	-3.824832	31.041039
3.250000	-3.713764	26.829001	-2.913634	117.537362	-2.913634	117.537362	-3.713708	27.013994
3.300000	-3.603242	22.794526	-3.016577	113.502239	-3.016577	113.502239	-3.603206	22.977017
3.350000	-3.493531	18.751833	-3.123617	109.459171	-3.123617	109.459171	-3.493516	18.931585
3.400000	-3.384758	14.701301	-3.235076	105.408636	-3.235076	105.408636	-3.384763	14.878066
3.450000	-3.277119	10.643818	-3.351179	101.351641	-3.351179	101.351641	-3.277144	10.817348
3.500000	-3.170815	6.581336	-3.471580	97.290157	-3.471580	97.290157	-3.170860	6.751423
3.550000	-3.066038	2.514640	-3.596518	93.225102	-3.596518	93.225102	-3.066102	2.681074
3.600000	-2.962964	-1.555031	-3.725950	89.157789	-3.725950	89.157789	-2.963048	-1.392447
3.650000	-2.861750	-5.626430	-3.859765	85.089527	-3.859765	85.089527	-2.861854	-5.467869
3.700000	-2.762647	-9.698512	-3.998164	81.021527	-3.998164	81.021527	-2.762770	-9.544153
3.750000	-2.665660	-13.770164	-4.140762	76.954842	-4.140762	76.954842	-2.665803	-13.620147
3.800000	-2.571212	-17.840037	-4.287911	72.891121	-4.287911	72.891121	-2.571375	-17.694518
3.850000	-2.479152	-21.907496	-4.439141	68.830845	-4.439141	68.830845	-2.479335	-21.766589
3.900000	-2.389857	-25.971094	-4.594594	64.775719	-4.594594	64.775719	-2.390060	-25.834920
3.950000	-2.303275	-30.030298	-4.754026	60.726231	-4.754026	60.726231	-2.303498	-29.898952
4.000000	-2.219584	-34.084081	-4.917345	56.683537	-4.917345	56.683537	-2.219829	-33.957648
4.050000	-2.138916	-38.131579	-5.084417	52.648609	-5.084417	52.648609	-2.139182	-38.010134
4.100000	-2.061171	-42.172641	-5.255050	48.621566	-5.255050	48.621566	-2.061457	-42.056241
4.150000	-1.986729	-46.205760	-5.429083	44.604226	-5.429083	44.604226	-1.987037	-46.094459
4.200000	-1.915204	-50.231819	-5.606362	40.595519	-5.606362	40.595519	-1.915534	-50.125650
4.250000	-1.847123	-54.248980	-5.786585	36.597751	-5.786585	36.597751	-1.847474	-54.147974
4.300000	-1.782042	-58.258483	-5.969682	32.609485	-5.969682	32.609485	-1.782414	-58.162655
4.350000	-1.720275	-62.259338	-6.155305	28.632104	-6.155305	28.632104	-1.720668	-62.168696
4.400000	-1.661649	-66.252128	-6.343310	24.665070	-6.343310	24.665070	-1.662063	-66.166670
4.450000	-1.606180	-70.237006	-6.533435	20.708459	-6.533435	20.708459	-1.606613	-70.156723
4.500000	-1.553914	-74.214143	-6.725366	16.762392	-6.725366	16.762392	-1.554366	-74.139018
4.550000	-1.504718	-78.184352	-6.918918	12.826214	-6.918918	12.826214	-1.505188	-78.114359
4.600000	-1.458540	-82.148331	-7.113834	8.899475	-7.113834	8.899475	-1.459027	-82.083440
4.650000	-1.415320	-86.106929	-7.309848	4.981595	-7.309848	4.981595	-1.415823	-86.047102
4.700000	-1.374993	-90.061141	-7.506685	1.071856	-7.506685	1.071856	-1.375510	-90.006334
4.750000	-1.337490	-94.012110	-7.704064	-2.830597	-7.704064	-2.830597	-1.338019	-93.962274
4.800000	-1.302736	-97.961124	-7.901690	-6.726764	-7.901690	-6.726764	-1.303277	-97.916203
4.850000	-1.270657	-101.909615	-8.099258	-10.617792	-8.099258	-10.617792	-1.271206	-101.869547
4.900000	-1.241175	-105.859157	-8.296452	-14.504983	-8.296452	-14.504983	-1.241731	-105.823874
4.950000	-1.214211	-109.811462	-8.492940	-18.389796	-8.492940	-18.389796	-1.214772	-109.780890
5.000000	-1.189690	-113.768379	-8.688376	-22.273860	-8.688376	-22.273860	-1.190254	-113.742437
5.050000	-1.167688	-117.732493	-8.881977	-26.159187	-8.881977	-26.159187	-1.168252	-117.711085
5.100000	-1.147970	-121.705607	-9.073738	-30.047836	-9.073738	-30.047836	-1.148532	-121.688636
5.150000	-1.130464	-125.689990	-9.263249	-33.942029	-9.263249	-33.942029	-1.131021	-125.677347
5.200000	-1.115104	-129.688035	-9.450080	-37.844198	-9.450080	-37.844198	-1.115652	-129.679604
5.250000	-1.101826	-133.702262	-9.633766	-41.756997	-9.633766	-41.756997	-1.102363	-133.697913
5.300000	-1.090571	-137.735312	-9.813813	-45.683322	-9.813813	-45.683322	-1.091095	-137.734904
5.350000	-1.081289	-141.789950	-9.989686	-49.626324	-9.989686	-49.626324	-1.081795	-141.793327
5.400000	-1.073932	-145.869063	-10.160811	-53.589427	-10.160811	-53.589427	-1.074417	-145.876053
5.450000	-1.068462	-149.975660	-10.326566	-57.576350	-10.326566	-57.576350	-1.068922	-149.986072
5.500000	-1.064847	-154.112873	-10.486274	-61.591122	-10.486274	-61.591122	-1.065278	-154.126497
5.550000	-1.063065	-158.283958	-10.639199	-65.638109	-10.639199	-65.638109	-1.063462	-158.300563
5.600000	-1.063104	-162.492304	-10.784541	-69.722032	-10.784541	-69.722032	-1.063462	-162.511630
5.650000	-1.065025	-166.742965	-10.921029	-73.849639	-10.921029	-73.849639	-1.065337	-166.764715
5.700000	-1.068842	-171.039972	-11.047632	-78.027006	-11.047632	-78.027006	-1.069102	-171.063813
5.750000	-1.074520	-175.385741	-11.163659	-82.258672	-11.163659	-82.258672	-1.074720	-175.411318
5.800000	-1.082104	-179.784275	-11.267947	-86.551094	-11.267947	-86.551094	-1.082238	-179.811188
5.850000	-1.091662	175.760247	-11.359219	-90.911193	-11.359219	-90.911193	-1.091720	175.732439
5.900000	-1.103285	171.243448	-11.436081	-95.346375	-11.436081	-95.346375	-1.103257	171.215236
5.950000	-1.117092	166.660724	-11.497010	-99.864543	-11.497010	-99.864543	-1.116967	166.632654
6.000000	-1.133239	162.007216	-11.540349	-104.474104	-11.540349	-104.474104	-1.133005	161.979893
6.050000	-1.151928	157.277767	-11.564298	-109.183978	-11.564298	-109.183978	-1.151570	157.251865
6.100000	-1.173410	152.466870	-11.566914	-114.003599	-11.566914	-114.003599	-1.172913	152.443139
6.150000	-1.198008	147.568608	-11.546110	-118.942924	-11.546110	-118.942924	-1.197355	147.547881
6.200000	-1.226128	142.576572	-11.499661	-124.012437	-11.499661	-124.012437	-1.225298	142.559777
6.250000	-1.258283	137.483763	-11.425214	-129.223167	-11.425214	-129.223167	-1.257254	137.471933
6.300000	-1.295490	132.274400	-11.317915	-134.598114	-11.317915	-134.598114	-1.294235	132.268779
6.350000	-1.338335	126.946747	-11.177154	-140.139832	-11.177154	-140.139832	-1.336824	126.948646
6.400000	-1.387921	121.490970	-11.000297	-145.861518	-11.000297	-145.861518	-1.386120	121.501864
6.450000	-1.445663	115.895924	-10.784735	-151.777369	-10.784735	-151.777369	-1.443532	115.917476
6.500000	-1.512373	110.163327	-10.532525	-157.883227	-10.532525	-157.883227	-1.509870	110.197236
6.550000	-1.591990	104.254225	-10.233636	-164.229794	-10.233636	-164.229794	-1.589057	104.302764
6.600000	-1.687377	98.157363	-9.887827	-170.828674	-9.887827	-170.828674	-1.683945	98.223067
6.650000	-1.802539	91.855844	-9.494411	-177.698932	-9.494411	-177.698932	-1.798524	91.941626
6.700000	-1.942204	85.334675	-9.054737	175.142426	-9.054737	175.142426	-1.937502	85.443847
6.750000	-2.115132	78.556865	-8.565433	167.648456	-8.565433	167.648456	-2.109605	78.693598
6.800000	-2.330897	71.500475	-8.029714	159.789155	-8.029714	159.789155	-2.324361	71.669749
6.850000	-2.603368	64.137379	-7.451013	151.521117	-7.451013	151.521117	-2.595569	64.345398
6.900000	-2.951662	56.442272	-6.835264	142.795059	-6.835264	142.795059	-2.942236	56.696955
6.950000	-3.402313	48.399862	-6.191686	133.557834	-6.191686	133.557834	-3.390717	48.711626
7.000000	-3.992413	40.018740	-5.533634	123.757273	-5.533634	123.757273	-3.977792	40.401765
7.050000	-4.774224	31.357539	-4.879367	113.351241	-4.879367	113.351241	-4.755148	31.831918
7.100000	-5.823254	22.575873	-4.252382	102.319032	-4.252382	102.319032	-5.797133	23.171649
7.150000	-7.249372	14.050310	-3.681292	90.684952	-3.681292	90.684952	-7.211015	14.815079
7.200000	-9.213233	6.621601	-3.195732	78.545965	-3.195732	78.545965	-9.150854	7.632877
7.250000	-11.962865	2.365273	-2.821584	66.064589	-2.821584	66.064589	-11.844503	3.741642
7.300000	-15.752797	7.434995	-2.575520	53.463263	-2.575520	53.463263	-15.477705	9.152136
7.350000	-19.057821	36.522138	-2.460910	40.990168	-2.460910	40.990168	-18.512065	36.737170
7.400000	-16.951246	70.958457	-2.467455	28.873932	-2.467455	28.873932	-16.624451	69.075593
7.450000	-13.365539	80.176708	-2.574683	17.286463	-2.574683	17.286463	-13.229775	78.539844
7.500000	-10.751463	78.367909	-2.757424	6.327294	-2.757424	6.327294	-10.682339	77.126307
7.550000	-8.917351	73.009584	-2.991121	-3.961332	-2.991121	-3.961332	-8.875336	72.037727
7.600000	-7.590928	66.465620	-3.253551	-13.606303	-3.253551	-13.606303	-7.562147	65.679719
7.650000	-6.604125	59.559910	-3.528207	-22.653685	-3.528207	-22.653685	-6.582647	58.909277
7.700000	-5.853107	52.632084	-3.803007	-31.162612	-3.803007	-31.162612	-5.836019	52.085018
7.750000	-5.271085	45.826314	-4.069521	-39.195272	-4.069521	-39.195272	-5.256800	45.362027
7.800000	-4.816789	39.208452	-4.321014	-46.795361	-4.321014	-46.795361	-4.804356	38.812272
7.850000	-4.450378	32.771194	-4.556718	-54.062250	-4.556718	-54.062250	-4.439248	32.433863
7.900000	-4.161432	26.542351	-4.770249	-60.989741	-4.770249	-60.989741	-4.151192	26.255878
7.950000	-3.925111	20.477730	-4.964571	-67.671592	-4.964571	-67.671592	-3.915515	20.237142
8.000000	-3.739067	14.594234	-5.133506	-74.097661	-5.133506	-74.097661	-3.729905	14.394977
8.050000	-3.588556	8.846694	-5.280834	-80.340111	-5.280834	-80.340111	-3.579693	8.685872
8.100000	-3.471759	3.233171	-5.402798	-86.407876	-5.402798	-86.407876	-3.463074	3.108319
8.150000	-3.382932	-2.271529	-5.500201	-92.338383	-5.500201	-92.338383	-3.374328	-2.362132
8.200000	-3.319385	-7.685475	-5.572277	-98.158442	-5.572277	-98.158442	-3.310777	-7.743026
8.250000	-3.280921	-13.022203	-5.616579	-103.888671	-5.616579	-103.888671	-3.272221	-13.047481
8.300000	-3.264183	-18.307547	-5.635294	-109.563412	-5.635294	-109.563412	-3.255314	-18.300832
8.350000	-3.274613	-23.552996	-5.621154	-115.202576	-5.621154	-115.202576	-3.265470	-23.514086
8.400000	-3.308316	-28.786241	-5.579284	-120.841189	-5.579284	-120.841189	-3.298801	-28.714498
8.450000	-3.369630	-34.026408	-5.506097	-126.508061	-5.506097	-126.508061	-3.359619	-33.920629
8.500000	-3.462438	-39.297008	-5.400206	-132.237736	-5.400206	-132.237736	-3.451778	-39.155337
8.550000	-3.589573	-44.618146	-5.262870	-138.059817	-5.262870	-138.059817	-3.578079	-44.438151
8.600000	-3.765086	-50.028321	-5.087216	-144.038596	-5.087216	-144.038596	-3.752478	-49.806033
8.650000	-3.997524	-55.552107	-4.875595	-150.218649	-4.875595	-150.218649	-3.983435	-55.282334
8.700000	-4.303387	-61.218215	-4.628088	-156.662254	-4.628088	-156.662254	-4.287294	-60.893746
8.750000	-4.706515	-67.050167	-4.346123	-163.442559	-4.346123	-163.442559	-4.687632	-66.660842
8.800000	-5.246750	-73.060723	-4.032037	-170.662306	-4.032037	-170.662306	-5.223789	-72.591166
8.850000	-5.975051	-79.205388	-3.694672	-178.406707	-3.694672	-178.406707	-5.945862	-78.633086
8.900000	-6.974883	-85.339357	-3.346533	173.221013	-3.346533	173.221013	-6.935476	-84.629127
8.950000	-8.380370	-91.055869	-3.007073	164.123216	-3.007073	164.123216	-8.322432	-90.150294
9.000000	-10.412111	-95.278854	-2.703462	154.238949	-2.703462	154.238949	-10.315509	-94.085059
9.050000	-13.442255	-94.524388	-2.473158	143.535793	-2.473158	143.535793	-13.245596	-92.934454
9.100000	-17.396398	-76.315162	-2.358565	132.116402	-2.358565	132.116402	-16.926047	-75.088873
9.150000	-17.455000	-33.400610	-2.391453	120.227280	-2.391453	120.227280	-17.002287	-35.188967
9.200000	-13.178988	-14.539481	-2.593821	108.198355	-2.593821	108.198355	-13.020303	-16.458395
9.250000	-9.837946	-14.233875	-2.957112	96.407909	-2.957112	96.407909	-9.773904	-15.641741
9.300000	-7.579898	-19.452777	-3.449318	85.160628	-3.449318	85.160628	-7.548484	-20.524540
9.350000	-6.037304	-26.337992	-4.026060	74.637299	-4.026060	74.637299	-6.019917	-27.196483
9.400000	-4.971730	-33.571050	-4.639635	64.897662	-4.639635	64.897662	-4.961417	-34.287075
9.450000	-4.232351	-40.653123	-5.245785	55.894438	-5.245785	55.894438	-4.226072	-41.269257
9.500000	-3.717746	-47.431366	-5.810943	47.496202	-5.810943	47.496202	-3.714047	-47.974597
9.550000	-3.367744	-53.888670	-6.307415	39.558363	-6.307415	39.558363	-3.365881	-54.378054
9.600000	-3.144840	-60.070842	-6.712442	31.914631	-6.712442	31.914631	-3.144464	-60.520854
9.650000	-3.028733	-66.053628	-7.005981	24.379177	-7.005981	24.379177	-3.029763	-66.476274
9.700000	-3.015024	-71.928801	-7.167769	16.732097	-7.167769	16.732097	-3.017627	-72.335227
9.750000	-3.118167	-77.800695	-7.175881	8.680873	-7.175881	8.680873	-3.122857	-78.202755
9.800000	-3.373965	-83.762686	-7.016564	-0.151958	-7.016564	-0.151958	-3.381834	-84.174243
9.850000	-3.861460	-89.823631	-6.684123	-10.285287	-6.684123	-10.285287	-3.874788	-90.262962
9.900000	-4.769149	-95.602647	-6.190628	-22.617157	-6.190628	-22.617157	-4.793601	-96.097077
9.950000	-6.420174	-99.027011	-5.641861	-38.233884	-5.641861	-38.233884	-6.471604	-99.602529
10.000000	-8.905841	-91.330463	-5.321060	-58.248680	-5.321060	-58.248680	-9.027301	-91.820837
