! freq	dB(S11)	phase(S11)	dB(S12)	phase(S12)	
!     	dB(S21)	phase(S21)	dB(S22)	phase(S22)	
!S-par simulation data
#  GHz  S  DB  R 50
0.000000	-0.000000	0.000000	-371.635045	180.000000	-371.635045	180.000000	-0.000000	0.000000
0.050000	-0.000744	-1.174296	-112.288698	89.271302	-112.288698	89.271302	-0.000507	-0.766828
0.100000	-0.002515	-2.343139	-106.321619	88.238838	-106.321619	88.238838	-0.001665	-1.529673
0.150000	-0.004573	-3.505769	-102.877989	87.287640	-102.877989	87.287640	-0.002938	-2.288348
0.200000	-0.006497	-4.664104	-100.493215	86.388145	-100.493215	86.388145	-0.004078	-3.044430
0.250000	-0.008229	-5.820415	-98.694555	85.535467	-98.694555	85.535467	-0.005089	-3.799407
0.300000	-0.009795	-6.975629	-97.282339	84.740598	-97.282339	84.740598	-0.006006	-4.553842
0.350000	-0.011250	-8.130273	-96.148332	84.016107	-96.148332	84.016107	-0.006878	-5.308029
0.400000	-0.012642	-9.284526	-95.230063	83.379119	-95.230063	83.379119	-0.007740	-6.062075
0.450000	-0.014003	-10.438350	-94.496436	82.861735	-94.496436	82.861735	-0.008615	-6.815995
0.500000	-0.015355	-11.591693	-93.911498	82.480094	-93.911498	82.480094	-0.009514	-7.569790
0.550000	-0.016708	-12.744434	-93.457971	82.266131	-93.457971	82.266131	-0.010439	-8.323431
0.600000	-0.018068	-13.896441	-93.124427	82.260453	-93.124427	82.260453	-0.011387	-9.076882
0.650000	-0.019435	-15.047579	-92.903546	82.515408	-92.903546	82.515408	-0.012352	-9.830097
0.700000	-0.020811	-16.197717	-92.790917	83.099405	-92.790917	83.099405	-0.013329	-10.583017
0.750000	-0.022196	-17.346654	-92.790378	84.136452	-92.790378	84.136452	-0.014309	-11.335546
0.800000	-0.023589	-18.494262	-92.898720	85.770156	-92.898720	85.770156	-0.015285	-12.087597
0.850000	-0.024988	-19.640454	-93.107937	88.184801	-93.107937	88.184801	-0.016255	-12.839096
0.900000	-0.026393	-20.785237	-93.401112	91.549958	-93.401112	91.549958	-0.017217	-13.590012
0.950000	-0.027802	-21.928437	-93.759671	96.219175	-93.759671	96.219175	-0.018170	-14.340246
1.000000	-0.029216	-23.069969	-94.133171	102.548157	-94.133171	102.548157	-0.019115	-15.089743
1.050000	-0.030632	-24.209754	-94.429241	110.837133	-94.429241	110.837133	-0.020056	-15.838459
1.100000	-0.032051	-25.347723	-94.507729	121.097603	-94.507729	121.097603	-0.020992	-16.586361
1.150000	-0.033473	-26.483812	-94.214885	132.740234	-94.214885	132.740234	-0.021927	-17.333426
1.200000	-0.034896	-27.617963	-93.469591	144.518017	-93.469591	144.518017	-0.022863	-18.079638
1.250000	-0.036320	-28.750123	-92.327587	155.076097	-92.327587	155.076097	-0.023800	-18.824985
1.300000	-0.037744	-29.880152	-90.922106	163.566332	-90.922106	163.566332	-0.024739	-19.569422
1.350000	-0.039169	-31.008092	-89.420919	170.042657	-89.420919	170.042657	-0.025681	-20.312981
1.400000	-0.040593	-32.133903	-87.918261	174.815967	-87.918261	174.815967	-0.026625	-21.055655
1.450000	-0.042016	-33.257545	-86.463154	178.251283	-86.463154	178.251283	-0.027573	-21.797440
1.500000	-0.043438	-34.378983	-85.076497	-179.334794	-85.076497	-179.334794	-0.028523	-22.538332
1.550000	-0.044859	-35.498183	-83.764234	-177.695845	-83.764234	-177.695845	-0.029475	-23.278323
1.600000	-0.046278	-36.615111	-82.525110	-176.648023	-82.525110	-176.648023	-0.030429	-24.017409
1.650000	-0.047695	-37.729738	-81.354762	-176.055926	-81.354762	-176.055926	-0.031385	-24.755582
1.700000	-0.049111	-38.842033	-80.247745	-175.819688	-80.247745	-175.819688	-0.032343	-25.492834
1.750000	-0.050524	-39.951968	-79.198495	-175.865046	-79.198495	-175.865046	-0.033301	-26.229159
1.800000	-0.051935	-41.059517	-78.201754	-176.136131	-78.201754	-176.136131	-0.034260	-26.964546
1.850000	-0.053344	-42.164652	-77.252728	-176.590380	-77.252728	-176.590380	-0.035221	-27.698988
1.900000	-0.054751	-43.267350	-76.347131	-177.194944	-76.347131	-177.194944	-0.036182	-28.432474
1.950000	-0.056156	-44.367584	-75.481157	-177.924154	-75.481157	-177.924154	-0.037143	-29.164995
2.000000	-0.057560	-45.465333	-74.651443	-178.757709	-74.651443	-178.757709	-0.038106	-29.896540
2.050000	-0.058963	-46.560573	-73.855017	-179.679375	-73.855017	-179.679375	-0.039069	-30.627099
2.100000	-0.060365	-47.653283	-73.089248	179.323967	-73.089248	179.323967	-0.040033	-31.356662
2.150000	-0.061766	-48.743442	-72.351804	178.263024	-72.351804	178.263024	-0.040998	-32.085216
2.200000	-0.063168	-49.831030	-71.640610	177.146610	-71.640610	177.146610	-0.041964	-32.812751
2.250000	-0.064569	-50.916027	-70.953816	175.982045	-70.953816	175.982045	-0.042932	-33.539255
2.300000	-0.065972	-51.998416	-70.289765	174.775451	-70.289765	174.775451	-0.043902	-34.264718
2.350000	-0.067376	-53.078180	-69.646968	173.531991	-69.646968	173.531991	-0.044874	-34.989127
2.400000	-0.068782	-54.155302	-69.024082	172.256044	-69.024082	172.256044	-0.045848	-35.712470
2.450000	-0.070190	-55.229766	-68.419896	170.951350	-68.419896	170.951350	-0.046824	-36.434737
2.500000	-0.071602	-56.301558	-67.833309	169.621121	-67.833309	169.621121	-0.047804	-37.155916
2.550000	-0.073018	-57.370547	-67.262419	168.267254	-67.262419	168.267254	-0.048787	-37.875946
2.600000	-0.074438	-58.436838	-66.707309	166.893220	-66.707309	166.893220	-0.049774	-38.594863
2.650000	-0.075864	-59.500418	-66.167132	165.501084	-66.167132	165.501084	-0.050765	-39.312657
2.700000	-0.077295	-60.561278	-65.641112	164.092657	-65.641112	164.092657	-0.051760	-40.029316
2.750000	-0.078732	-61.619409	-65.128536	162.669538	-65.128536	162.669538	-0.052761	-40.744829
2.800000	-0.080177	-62.674802	-64.628747	161.233138	-64.628747	161.233138	-0.053766	-41.459184
2.850000	-0.081630	-63.727451	-64.141136	159.784713	-64.141136	159.784713	-0.054777	-42.172371
2.900000	-0.083091	-64.777349	-63.665143	158.325381	-63.665143	158.325381	-0.055794	-42.884379
2.950000	-0.084562	-65.824493	-63.200245	156.856145	-63.200245	156.856145	-0.056818	-43.595198
3.000000	-0.086042	-66.868878	-62.745958	155.377902	-62.745958	155.377902	-0.057848	-44.304818
3.050000	-0.087533	-67.910501	-62.301831	153.891462	-62.301831	153.891462	-0.058886	-45.013228
3.100000	-0.089035	-68.949363	-61.867441	152.397555	-61.867441	152.397555	-0.059931	-45.720418
3.150000	-0.090550	-69.985462	-61.442397	150.896842	-61.442397	150.896842	-0.060984	-46.426379
3.200000	-0.092076	-71.018799	-61.026329	149.389926	-61.026329	149.389926	-0.062046	-47.131102
3.250000	-0.093616	-72.049377	-60.618891	147.877355	-60.618891	147.877355	-0.063116	-47.834578
3.300000	-0.095170	-73.077199	-60.219760	146.359627	-60.219760	146.359627	-0.064196	-48.536797
3.350000	-0.096739	-74.102269	-59.828629	144.837203	-59.828629	144.837203	-0.065285	-49.237752
3.400000	-0.098323	-75.124593	-59.445212	143.310502	-59.445212	143.310502	-0.066384	-49.937433
3.450000	-0.099923	-76.144178	-59.069236	141.779912	-59.069236	141.779912	-0.067493	-50.635833
3.500000	-0.101539	-77.161031	-58.700446	140.245790	-58.700446	140.245790	-0.068613	-51.332944
3.550000	-0.103173	-78.175162	-58.338600	138.708467	-58.338600	138.708467	-0.069743	-52.028759
3.600000	-0.104824	-79.186581	-57.983468	137.168249	-57.983468	137.168249	-0.070886	-52.723270
3.650000	-0.106494	-80.195298	-57.634832	135.625420	-57.634832	135.625420	-0.072040	-53.416471
3.700000	-0.108183	-81.201327	-57.292486	134.080243	-57.292486	134.080243	-0.073206	-54.108356
3.750000	-0.109891	-82.204681	-56.956235	132.532967	-56.956235	132.532967	-0.074385	-54.798917
3.800000	-0.111621	-83.205258	-56.625603	130.983750	-56.625603	130.983750	-0.075577	-55.488091
3.850000	-0.113371	-84.203193	-56.300723	129.432897	-56.300723	129.432897	-0.076783	-56.175930
3.900000	-0.115143	-85.198500	-55.981424	127.880607	-55.981424	127.880607	-0.078002	-56.862429
3.950000	-0.116936	-86.191199	-55.667544	126.327069	-55.667544	126.327069	-0.079235	-57.547583
4.000000	-0.118753	-87.181308	-55.358926	124.772459	-55.358926	124.772459	-0.080483	-58.231387
4.050000	-0.120592	-88.168847	-55.055422	123.216943	-55.055422	123.216943	-0.081745	-58.913837
4.100000	-0.122455	-89.153837	-54.756891	121.660678	-54.756891	121.660678	-0.083023	-59.594928
4.150000	-0.124342	-90.136300	-54.463195	120.103812	-54.463195	120.103812	-0.084316	-60.274658
4.200000	-0.126254	-91.116258	-54.174205	118.546485	-54.174205	118.546485	-0.085625	-60.953022
4.250000	-0.128192	-92.093737	-53.889795	116.988827	-53.889795	116.988827	-0.086950	-61.630019
4.300000	-0.130155	-93.068761	-53.609846	115.430965	-53.609846	115.430965	-0.088292	-62.305644
4.350000	-0.132144	-94.041355	-53.334243	113.873016	-53.334243	113.873016	-0.089650	-62.979895
4.400000	-0.134160	-95.011546	-53.062875	112.315092	-53.062875	112.315092	-0.091026	-63.652771
4.450000	-0.136204	-95.979363	-52.795635	110.757299	-52.795635	110.757299	-0.092420	-64.324270
4.500000	-0.138275	-96.944833	-52.532421	109.199738	-52.532421	109.199738	-0.093831	-64.994389
4.550000	-0.140374	-97.907986	-52.273136	107.642503	-52.273136	107.642503	-0.095261	-65.663129
4.600000	-0.142502	-98.868852	-52.017682	106.085685	-52.017682	106.085685	-0.096710	-66.330487
4.650000	-0.144660	-99.827463	-51.765971	104.529370	-51.765971	104.529370	-0.098178	-66.996464
4.700000	-0.146847	-100.783851	-51.517912	102.973640	-51.517912	102.973640	-0.099665	-67.661058
4.750000	-0.149064	-101.738048	-51.273421	101.418570	-51.273421	101.418570	-0.101172	-68.324271
4.800000	-0.151312	-102.690088	-51.032415	99.864234	-51.032415	99.864234	-0.102699	-68.986102
4.850000	-0.153591	-103.640006	-50.794816	98.310703	-50.794816	98.310703	-0.104247	-69.646552
4.900000	-0.155902	-104.587836	-50.560547	96.758040	-50.560547	96.758040	-0.105816	-70.305621
4.950000	-0.158244	-105.533615	-50.329533	95.206309	-50.329533	95.206309	-0.107406	-70.963311
5.000000	-0.160619	-106.477380	-50.101703	93.655568	-50.101703	93.655568	-0.109018	-71.619624
5.050000	-0.163029	-107.419084	-49.876871	92.105922	-49.876871	92.105922	-0.110653	-72.274500
5.100000	-0.165471	-108.358853	-49.655094	90.557380	-49.655094	90.557380	-0.112310	-72.928003
5.150000	-0.167947	-109.296726	-49.436306	89.009991	-49.436306	89.009991	-0.113991	-73.580134
5.200000	-0.170458	-110.232742	-49.220445	87.463803	-49.220445	87.463803	-0.115694	-74.230897
5.250000	-0.173003	-111.166943	-49.007450	85.918859	-49.007450	85.918859	-0.117421	-74.880293
5.300000	-0.175583	-112.099369	-48.797261	84.375203	-48.797261	84.375203	-0.119172	-75.528326
5.350000	-0.178199	-113.030063	-48.589820	82.832872	-48.589820	82.832872	-0.120947	-76.175000
5.400000	-0.180850	-113.959066	-48.385072	81.291906	-48.385072	81.291906	-0.122747	-76.820318
5.450000	-0.183537	-114.886423	-48.182963	79.752340	-48.182963	79.752340	-0.124573	-77.464284
5.500000	-0.186262	-115.812176	-47.983441	78.214206	-47.983441	78.214206	-0.126423	-78.106901
5.550000	-0.189023	-116.736370	-47.786455	76.677536	-47.786455	76.677536	-0.128300	-78.748175
5.600000	-0.191821	-117.659050	-47.591955	75.142360	-47.591955	75.142360	-0.130203	-79.388111
5.650000	-0.194658	-118.580262	-47.399895	73.608706	-47.399895	73.608706	-0.132132	-80.026712
5.700000	-0.197532	-119.500052	-47.210228	72.076601	-47.210228	72.076601	-0.134089	-80.663984
5.750000	-0.200445	-120.418466	-47.022909	70.546069	-47.022909	70.546069	-0.136073	-81.299933
5.800000	-0.203398	-121.335553	-46.837895	69.017135	-46.837895	69.017135	-0.138085	-81.934564
5.850000	-0.206396	-122.251152	-46.654872	67.490108	-46.654872	67.490108	-0.140129	-82.567657
5.900000	-0.209435	-123.165468	-46.474015	65.964793	-46.474015	65.964793	-0.142204	-83.199387
5.950000	-0.212496	-124.079187	-46.296076	64.440353	-46.296076	64.440353	-0.144294	-83.830442
6.000000	-0.215620	-124.991116	-46.119442	62.918536	-46.119442	62.918536	-0.146430	-84.459470
6.050000	-0.218759	-125.902683	-45.945847	61.397315	-45.945847	61.397315	-0.148577	-85.088053
6.100000	-0.221968	-126.812445	-45.773301	59.879073	-45.773301	59.879073	-0.150775	-85.714409
6.150000	-0.225186	-127.722045	-45.603892	58.361135	-45.603892	58.361135	-0.152980	-86.340545
6.200000	-0.228482	-128.629864	-45.435308	56.846540	-45.435308	56.846540	-0.155243	-86.964261
6.250000	-0.231780	-129.537683	-45.269934	55.331946	-45.269934	55.331946	-0.157506	-87.587976
6.300000	-0.235165	-130.443789	-45.105193	53.821065	-45.105193	53.821065	-0.159836	-88.209085
6.350000	-0.238551	-131.349894	-44.943519	52.310184	-44.943519	52.310184	-0.162165	-88.830194
6.400000	-0.242019	-132.254644	-44.782704	50.802765	-44.782704	50.802765	-0.164557	-89.448946
6.450000	-0.245496	-133.159271	-44.624625	49.295661	-44.624625	49.295661	-0.166955	-90.067483
6.500000	-0.249048	-134.062864	-44.467602	47.791755	-44.467602	47.791755	-0.169410	-90.683909
6.550000	-0.252616	-134.966251	-44.313019	46.288489	-44.313019	46.288489	-0.171877	-91.299913
6.600000	-0.256253	-135.868889	-44.159662	44.788146	-44.159662	44.788146	-0.174398	-91.914045
6.650000	-0.259915	-136.771277	-44.008482	43.288778	-44.008482	43.288778	-0.176936	-92.527553
6.700000	-0.263638	-137.673166	-43.858673	41.792049	-43.858673	41.792049	-0.179523	-93.139425
6.750000	-0.267394	-138.574805	-43.710808	40.296639	-43.710808	40.296639	-0.182135	-93.750479
6.800000	-0.271206	-139.476153	-43.564437	38.803574	-43.564437	38.803574	-0.184790	-94.360126
6.850000	-0.275057	-140.377294	-43.419803	37.312185	-43.419803	37.312185	-0.187477	-94.968767
6.900000	-0.278957	-141.278313	-43.276764	35.822839	-43.276764	35.822839	-0.190201	-95.576225
6.950000	-0.282905	-142.179212	-43.135282	34.335535	-43.135282	34.335535	-0.192964	-96.182499
7.000000	-0.286895	-143.080118	-42.995477	32.849962	-42.995477	32.849962	-0.195759	-96.787805
7.050000	-0.290942	-143.981035	-42.857074	31.366812	-42.857074	31.366812	-0.198600	-97.391757
7.100000	-0.295014	-144.882011	-42.720514	29.884715	-42.720514	29.884715	-0.201461	-97.995137
7.150000	-0.299151	-145.783167	-42.585244	28.405346	-42.585244	28.405346	-0.204374	-98.597048
7.200000	-0.303335	-146.684539	-42.451472	26.928026	-42.451472	26.928026	-0.207325	-99.197883
7.250000	-0.307568	-147.586190	-42.319178	25.452771	-42.319178	25.452771	-0.210315	-99.797654
7.300000	-0.311849	-148.488181	-42.188344	23.979601	-42.188344	23.979601	-0.213345	-100.396371
7.350000	-0.316179	-149.390575	-42.058953	22.508535	-42.058953	22.508535	-0.216414	-100.994047
7.400000	-0.320559	-150.293436	-41.930987	21.039592	-41.930987	21.039592	-0.219524	-101.590694
7.450000	-0.324987	-151.196828	-41.804430	19.572794	-41.804430	19.572794	-0.222674	-102.186323
7.500000	-0.329466	-152.100814	-41.679265	18.108161	-41.679265	18.108161	-0.225865	-102.780946
7.550000	-0.333996	-153.005491	-41.555459	16.645811	-41.555459	16.645811	-0.229100	-103.374533
7.600000	-0.338576	-153.910898	-41.433016	15.185672	-41.433016	15.185672	-0.232376	-103.967140
7.650000	-0.343206	-154.817100	-41.311920	13.727768	-41.311920	13.727768	-0.235694	-104.558779
7.700000	-0.347887	-155.724164	-41.192155	12.272121	-41.192155	12.272121	-0.239054	-105.149464
7.750000	-0.352619	-156.632156	-41.073708	10.818757	-41.073708	10.818757	-0.242457	-105.739207
7.800000	-0.357401	-157.541143	-40.956562	9.367700	-40.956562	9.367700	-0.245903	-106.328020
7.850000	-0.362234	-158.451192	-40.840705	7.918976	-40.840705	7.918976	-0.249393	-106.915918
7.900000	-0.367119	-159.362371	-40.726122	6.472609	-40.726122	6.472609	-0.252926	-107.502913
7.950000	-0.372055	-160.274748	-40.612800	5.028628	-40.612800	5.028628	-0.256504	-108.089020
8.000000	-0.377042	-161.188391	-40.500723	3.587058	-40.500723	3.587058	-0.260125	-108.674250
8.050000	-0.382081	-162.103370	-40.389881	2.147927	-40.389881	2.147927	-0.263792	-109.258619
8.100000	-0.387171	-163.019754	-40.280258	0.711262	-40.280258	0.711262	-0.267503	-109.842139
8.150000	-0.392313	-163.937612	-40.171843	-0.722907	-40.171843	-0.722907	-0.271260	-110.424825
8.200000	-0.397508	-164.857015	-40.064621	-2.154553	-40.064621	-2.154553	-0.275063	-111.006692
8.250000	-0.402754	-165.778034	-39.958581	-3.583647	-39.958581	-3.583647	-0.278911	-111.587753
8.300000	-0.408052	-166.700739	-39.853710	-5.010160	-39.853710	-5.010160	-0.282806	-112.168022
8.350000	-0.413402	-167.625203	-39.749996	-6.434062	-39.749996	-6.434062	-0.286747	-112.747515
8.400000	-0.418805	-168.551496	-39.647426	-7.855325	-39.647426	-7.855325	-0.290735	-113.326246
8.450000	-0.424259	-169.479691	-39.545988	-9.273918	-39.545988	-9.273918	-0.294770	-113.904229
8.500000	-0.429766	-170.409861	-39.445669	-10.689812	-39.445669	-10.689812	-0.298853	-114.481481
8.550000	-0.435325	-171.342078	-39.346458	-12.102977	-39.346458	-12.102977	-0.302983	-115.058015
8.600000	-0.440936	-172.276416	-39.248343	-13.513384	-39.248343	-13.513384	-0.307161	-115.633848
8.650000	-0.446599	-173.212949	-39.151312	-14.921003	-39.151312	-14.921003	-0.311387	-116.208994
8.700000	-0.452314	-174.151750	-39.055354	-16.325805	-39.055354	-16.325805	-0.315661	-116.783469
8.750000	-0.458081	-175.092894	-38.960455	-17.727761	-38.960455	-17.727761	-0.319984	-117.357290
8.800000	-0.463902	-176.036564	-38.866606	-19.126715	-38.866606	-19.126715	-0.324358	-117.930444
8.850000	-0.469775	-176.982734	-38.773796	-20.522762	-38.773796	-20.522762	-0.328781	-118.502976
8.900000	-0.475699	-177.931479	-38.682011	-21.915874	-38.682011	-21.915874	-0.333253	-119.074903
8.950000	-0.481674	-178.882874	-38.591241	-23.306024	-38.591241	-23.306024	-0.337775	-119.646241
9.000000	-0.487701	-179.836996	-38.501474	-24.693185	-38.501474	-24.693185	-0.342346	-120.217006
9.050000	-0.493778	179.206080	-38.412698	-26.077328	-38.412698	-26.077328	-0.346967	-120.787215
9.100000	-0.499906	178.246277	-38.324902	-27.458429	-38.324902	-27.458429	-0.351638	-121.356884
9.150000	-0.506085	177.283518	-38.238074	-28.836462	-38.238074	-28.836462	-0.356360	-121.926031
9.200000	-0.512313	176.317727	-38.152202	-30.211401	-38.152202	-30.211401	-0.361131	-122.494672
9.250000	-0.518592	175.348826	-38.067276	-31.583223	-38.067276	-31.583223	-0.365953	-123.062826
9.300000	-0.524919	174.376738	-37.983284	-32.951905	-37.983284	-32.951905	-0.370826	-123.630509
9.350000	-0.531296	173.401386	-37.900214	-34.317424	-37.900214	-34.317424	-0.375750	-124.197738
9.400000	-0.537721	172.422693	-37.818055	-35.679759	-37.818055	-35.679759	-0.380724	-124.764532
9.450000	-0.544195	171.440580	-37.736795	-37.038888	-37.736795	-37.038888	-0.385750	-125.330909
9.500000	-0.550716	170.454970	-37.656424	-38.394793	-37.656424	-38.394793	-0.390826	-125.896886
9.550000	-0.557284	169.465785	-37.576929	-39.747455	-37.576929	-39.747455	-0.395954	-126.462481
9.600000	-0.563898	168.472949	-37.498301	-41.096856	-37.498301	-41.096856	-0.401133	-127.027714
9.650000	-0.570558	167.476382	-37.420526	-42.442979	-37.420526	-42.442979	-0.406363	-127.592602
9.700000	-0.577264	166.476007	-37.343595	-43.785811	-37.343595	-43.785811	-0.411644	-128.157165
9.750000	-0.584014	165.471747	-37.267496	-45.125335	-37.267496	-45.125335	-0.416977	-128.721421
9.800000	-0.590808	164.463524	-37.192218	-46.461541	-37.192218	-46.461541	-0.422361	-129.285390
9.850000	-0.597645	163.451261	-37.117750	-47.794415	-37.117750	-47.794415	-0.427796	-129.849090
9.900000	-0.604524	162.434881	-37.044081	-49.123948	-37.044081	-49.123948	-0.433283	-130.412541
9.950000	-0.611444	161.414306	-36.971200	-50.450130	-36.971200	-50.450130	-0.438821	-130.975763
10.000000	-0.618405	160.389461	-36.899095	-51.772954	-36.899095	-51.772954	-0.444411	-131.538776
