! freq	dB(S11)	phase(S11)	dB(S12)	phase(S12)	
!     	dB(S21)	phase(S21)	dB(S22)	phase(S22)	
!S-par simulation data
#  GHz  S  DB  R 50
0.000000	-0.000000	0.000000	-335.425920	180.000000	-335.425920	180.000000	0.000000	0.000000
0.050000	-0.003687	-2.007668	-102.988527	87.215536	-102.988527	87.215536	-0.001909	-0.947541
0.100000	-0.007778	-3.981469	-97.091090	86.383868	-97.091090	86.383868	-0.003767	-1.878196
0.150000	-0.010135	-5.947659	-93.653537	85.294335	-93.653537	85.294335	-0.004776	-2.806297
0.200000	-0.011826	-7.913562	-91.246869	84.110606	-91.246869	84.110606	-0.005514	-3.734693
0.250000	-0.013332	-9.879465	-89.422447	82.899630	-89.422447	82.899630	-0.006196	-4.663346
0.300000	-0.014860	-11.844695	-87.981090	81.697749	-87.981090	81.697749	-0.006907	-5.591945
0.350000	-0.016482	-13.808764	-86.805652	80.524629	-86.805652	80.524629	-0.007673	-6.520269
0.400000	-0.018229	-15.771169	-85.835513	79.397445	-85.835513	79.397445	-0.008505	-7.448140
0.450000	-0.020108	-17.731521	-85.029788	78.331880	-85.029788	78.331880	-0.009405	-8.375426
0.500000	-0.022127	-19.689248	-84.368076	77.353209	-84.368076	77.353209	-0.010374	-9.301950
0.550000	-0.024266	-21.644203	-83.826486	76.477119	-83.826486	76.477119	-0.011403	-10.227668
0.600000	-0.026512	-23.596210	-83.389961	75.723930	-83.389961	75.723930	-0.012484	-11.152530
0.650000	-0.028851	-25.545058	-83.049156	75.120425	-83.049156	75.120425	-0.013610	-12.076482
0.700000	-0.031270	-27.490562	-82.797487	74.699360	-82.797487	74.699360	-0.014776	-12.999477
0.750000	-0.033755	-29.432556	-82.630369	74.501358	-82.630369	74.501358	-0.015975	-13.921477
0.800000	-0.036295	-31.370821	-82.546058	74.583476	-82.546058	74.583476	-0.017200	-14.842430
0.850000	-0.038880	-33.305023	-82.545974	75.034557	-82.545974	75.034557	-0.018448	-15.762254
0.900000	-0.041494	-35.235298	-82.621974	75.921939	-82.621974	75.921939	-0.019711	-16.680998
0.950000	-0.044128	-37.161543	-82.770159	77.355616	-82.770159	77.355616	-0.020985	-17.598643
1.000000	-0.046773	-39.083150	-82.989338	79.578064	-82.989338	79.578064	-0.022266	-18.515034
1.050000	-0.049419	-41.000936	-83.253030	82.603489	-83.253030	82.603489	-0.023550	-19.430399
1.100000	-0.052062	-42.914439	-83.542181	86.693040	-83.542181	86.693040	-0.024834	-20.344621
1.150000	-0.054693	-44.823271	-83.808606	92.142930	-83.808606	92.142930	-0.026116	-21.257602
1.200000	-0.057309	-46.727500	-83.977581	99.029080	-83.977581	99.029080	-0.027393	-22.169363
1.250000	-0.059904	-48.627265	-83.964045	107.167063	-83.964045	107.167063	-0.028664	-23.079943
1.300000	-0.062477	-50.522522	-83.687549	116.116833	-83.687549	116.116833	-0.029928	-23.989330
1.350000	-0.065024	-52.413236	-83.109088	125.173836	-83.109088	125.173836	-0.031184	-24.897513
1.400000	-0.067545	-54.299374	-82.252377	133.592209	-82.252377	133.592209	-0.032432	-25.804477
1.450000	-0.070038	-56.180883	-81.188249	140.831736	-81.188249	140.831736	-0.033671	-26.710204
1.500000	-0.072499	-58.057260	-79.981034	146.540349	-79.981034	146.540349	-0.034900	-27.614546
1.550000	-0.074931	-59.928999	-78.735522	150.943014	-78.735522	150.943014	-0.036120	-28.517627
1.600000	-0.077335	-61.796094	-77.497466	154.220955	-77.497466	154.220955	-0.037333	-29.419431
1.650000	-0.079711	-63.658541	-76.292984	156.573147	-76.292984	156.573147	-0.038537	-30.319941
1.700000	-0.082061	-65.516533	-75.138989	158.205143	-75.138989	158.205143	-0.039734	-31.219196
1.750000	-0.084383	-67.369540	-74.029406	159.194349	-74.029406	159.194349	-0.040925	-32.117026
1.800000	-0.086681	-69.217853	-72.971973	159.708103	-72.971973	159.708103	-0.042109	-33.013490
1.850000	-0.088956	-71.061492	-71.965247	159.841734	-71.965247	159.841734	-0.043287	-33.908570
1.900000	-0.091209	-72.900433	-71.006001	159.666371	-71.006001	159.666371	-0.044461	-34.802232
1.950000	-0.093442	-74.734710	-70.091338	159.240799	-70.091338	159.240799	-0.045631	-35.694455
2.000000	-0.095658	-76.564413	-69.218693	158.612397	-69.218693	158.612397	-0.046798	-36.585237
2.050000	-0.097858	-78.389587	-68.384937	157.815935	-68.384937	157.815935	-0.047963	-37.474559
2.100000	-0.100044	-80.210283	-67.587147	156.879094	-67.587147	156.879094	-0.049126	-38.362400
2.150000	-0.102220	-82.026558	-66.822638	155.824100	-66.822638	155.824100	-0.050288	-39.248743
2.200000	-0.104385	-83.838475	-66.088965	154.668961	-66.088965	154.668961	-0.051451	-40.133568
2.250000	-0.106544	-85.646105	-65.383916	153.428387	-65.383916	153.428387	-0.052614	-41.016858
2.300000	-0.108697	-87.449522	-64.705490	152.114490	-64.705490	152.114490	-0.053778	-41.898593
2.350000	-0.110846	-89.248809	-64.051880	150.737326	-64.051880	150.737326	-0.054945	-42.778755
2.400000	-0.112994	-91.044051	-63.421455	149.305295	-63.421455	149.305295	-0.056114	-43.657328
2.450000	-0.115143	-92.835343	-62.812736	147.825469	-62.812736	147.825469	-0.057287	-44.534293
2.500000	-0.117294	-94.622784	-62.224384	146.303836	-62.224384	146.303836	-0.058463	-45.409635
2.550000	-0.119450	-96.406399	-61.654790	144.744800	-61.654790	144.744800	-0.059645	-46.283300
2.600000	-0.121611	-98.186383	-61.103292	143.153596	-61.103292	143.153596	-0.060831	-47.155309
2.650000	-0.123781	-99.962853	-60.568872	141.533948	-60.568872	141.533948	-0.062024	-48.025646
2.700000	-0.125960	-101.735931	-60.050600	139.889084	-60.050600	139.889084	-0.063222	-48.894296
2.750000	-0.128150	-103.505743	-59.547623	138.221809	-59.547623	138.221809	-0.064427	-49.761247
2.800000	-0.130353	-105.272422	-59.059160	136.534572	-59.059160	136.534572	-0.065640	-50.626483
2.850000	-0.132570	-107.036106	-58.584489	134.829521	-58.584489	134.829521	-0.066861	-51.489993
2.900000	-0.134802	-108.796937	-58.122946	133.108542	-58.122946	133.108542	-0.068089	-52.351765
2.950000	-0.137052	-110.555062	-57.673917	131.373300	-57.673917	131.373300	-0.069327	-53.211786
3.000000	-0.139320	-112.310634	-57.236833	129.625268	-57.236833	129.625268	-0.070574	-54.070046
3.050000	-0.141607	-114.063810	-56.811166	127.865754	-56.811166	127.865754	-0.071830	-54.926535
3.100000	-0.143915	-115.814750	-56.396426	126.095919	-56.396426	126.095919	-0.073097	-55.781243
3.150000	-0.146248	-117.563352	-55.990983	124.315624	-55.990983	124.315624	-0.074375	-56.633907
3.200000	-0.148600	-119.310328	-55.596744	122.528185	-55.596744	122.528185	-0.075664	-57.485007
3.250000	-0.150977	-121.055582	-55.212157	120.733217	-55.212157	120.733217	-0.076963	-58.334302
3.300000	-0.153379	-122.799291	-54.836852	118.931463	-54.836852	118.931463	-0.078275	-59.181784
3.350000	-0.155806	-124.541636	-54.470480	117.123588	-54.470480	117.123588	-0.079599	-60.027449
3.400000	-0.158259	-126.282803	-54.112714	115.310191	-54.112714	115.310191	-0.080936	-60.871289
3.450000	-0.160740	-128.022979	-53.763248	113.491811	-53.763248	113.491811	-0.082286	-61.713301
3.500000	-0.163249	-129.762356	-53.421795	111.668936	-53.421795	111.668936	-0.083649	-62.553480
3.550000	-0.165786	-131.501129	-53.088084	109.842005	-53.088084	109.842005	-0.085027	-63.391822
3.600000	-0.168352	-133.239494	-52.761861	108.011416	-52.761861	108.011416	-0.086419	-64.228326
3.650000	-0.170947	-134.977653	-52.442886	106.177528	-52.442886	106.177528	-0.087826	-65.062988
3.700000	-0.173573	-136.715807	-52.130935	104.340669	-52.130935	104.340669	-0.089248	-65.895808
3.750000	-0.176229	-138.454162	-51.825793	102.501135	-51.825793	102.501135	-0.090687	-66.726784
3.800000	-0.178916	-140.192954	-51.527105	100.659102	-51.527105	100.659102	-0.092142	-67.555836
3.850000	-0.181635	-141.932383	-51.234860	98.814930	-51.234860	98.814930	-0.093613	-68.383045
3.900000	-0.184385	-143.672662	-50.948877	96.968840	-50.948877	96.968840	-0.095102	-69.208411
3.950000	-0.187166	-145.414002	-50.668986	95.121036	-50.668986	95.121036	-0.096609	-70.031936
4.000000	-0.189978	-147.156620	-50.395028	93.271703	-50.395028	93.271703	-0.098133	-70.853624
4.050000	-0.192822	-148.900732	-50.126850	91.421013	-50.126850	91.421013	-0.099676	-71.673476
4.100000	-0.195697	-150.646555	-49.864309	89.569125	-49.864309	89.569125	-0.101238	-72.491496
4.150000	-0.198603	-152.394307	-49.607269	87.716186	-49.607269	87.716186	-0.102820	-73.307688
4.200000	-0.201537	-154.143979	-49.355791	85.862411	-49.355791	85.862411	-0.104419	-74.122236
4.250000	-0.204505	-155.896196	-49.109380	84.007766	-49.109380	84.007766	-0.106040	-74.934806
4.300000	-0.207502	-157.650996	-48.868104	82.152455	-48.868104	82.152455	-0.107682	-75.745565
4.350000	-0.210530	-159.408599	-48.631857	80.296590	-48.631857	80.296590	-0.109346	-76.554518
4.400000	-0.213588	-161.169259	-48.400523	78.440279	-48.400523	78.440279	-0.111031	-77.361652
4.450000	-0.216675	-162.933203	-48.174013	76.583628	-48.174013	76.583628	-0.112739	-78.166976
4.500000	-0.219790	-164.700618	-47.952250	74.726745	-47.952250	74.726745	-0.114469	-78.970517
4.550000	-0.222933	-166.471722	-47.735149	72.869727	-47.735149	72.869727	-0.116223	-79.772284
4.600000	-0.226103	-168.246730	-47.522629	71.012672	-47.522629	71.012672	-0.118000	-80.572285
4.650000	-0.229299	-170.025859	-47.314615	69.155676	-47.314615	69.155676	-0.119801	-81.370531
4.700000	-0.232521	-171.809322	-47.111033	67.298834	-47.111033	67.298834	-0.121627	-82.167031
4.750000	-0.235767	-173.597330	-46.911819	65.442244	-46.911819	65.442244	-0.123478	-82.961797
4.800000	-0.239036	-175.390094	-46.716907	63.586002	-46.716907	63.586002	-0.125355	-83.754839
4.850000	-0.242328	-177.187819	-46.526239	61.730207	-46.526239	61.730207	-0.127257	-84.546169
4.900000	-0.245641	-178.990710	-46.339760	59.874962	-46.339760	59.874962	-0.129186	-85.335799
4.950000	-0.248974	179.201032	-46.157417	58.020372	-46.157417	58.020372	-0.131142	-86.123742
5.000000	-0.252326	177.387211	-45.979162	56.166543	-45.979162	56.166543	-0.133126	-86.910010
5.050000	-0.255695	175.567503	-45.804962	54.313610	-45.804962	54.313610	-0.135138	-87.694582
5.100000	-0.259080	173.741841	-45.634767	52.461673	-45.634767	52.461673	-0.137179	-88.477509
5.150000	-0.262479	171.910042	-45.468537	50.610855	-45.468537	50.610855	-0.139249	-89.258804
5.200000	-0.265891	170.071925	-45.306237	48.761283	-45.306237	48.761283	-0.141348	-90.038482
5.250000	-0.269314	168.227319	-45.147831	46.913091	-45.147831	46.913091	-0.143476	-90.816559
5.300000	-0.272746	166.376055	-44.993288	45.066419	-44.993288	45.066419	-0.145636	-91.593051
5.350000	-0.276186	164.517973	-44.842580	43.221414	-44.842580	43.221414	-0.147826	-92.367975
5.400000	-0.279631	162.652917	-44.695679	41.378232	-44.695679	41.378232	-0.150047	-93.141345
5.450000	-0.283080	160.780741	-44.552562	39.537036	-44.552562	39.537036	-0.152301	-93.913181
5.500000	-0.286530	158.901306	-44.413206	37.697996	-44.413206	37.697996	-0.154586	-94.683499
5.550000	-0.289980	157.014479	-44.277590	35.861293	-44.277590	35.861293	-0.156904	-95.452318
5.600000	-0.293427	155.120138	-44.145697	34.027118	-44.145697	34.027118	-0.159255	-96.219655
5.650000	-0.296870	153.218084	-44.017530	32.195702	-44.017530	32.195702	-0.161641	-96.985514
5.700000	-0.300305	151.308211	-43.893079	30.367263	-43.893079	30.367263	-0.164061	-97.749915
5.750000	-0.303731	149.390507	-43.772309	28.541995	-43.772309	28.541995	-0.166515	-98.512893
5.800000	-0.307145	147.464889	-43.655211	26.720131	-43.655211	26.720131	-0.169004	-99.274468
5.850000	-0.310545	145.531284	-43.541773	24.901917	-43.541773	24.901917	-0.171529	-100.034661
5.900000	-0.313929	143.589633	-43.431987	23.087614	-43.431987	23.087614	-0.174089	-100.793492
5.950000	-0.317294	141.639887	-43.325846	21.277494	-43.325846	21.277494	-0.176686	-101.550983
6.000000	-0.320638	139.682008	-43.223343	19.471844	-43.223343	19.471844	-0.179319	-102.307155
6.050000	-0.323958	137.715974	-43.124472	17.670966	-43.124472	17.670966	-0.181990	-103.062030
6.100000	-0.327252	135.741775	-43.029229	15.875177	-43.029229	15.875177	-0.184698	-103.815630
6.150000	-0.330517	133.759414	-42.937611	14.084811	-42.937611	14.084811	-0.187445	-104.567978
6.200000	-0.333752	131.768910	-42.849615	12.300218	-42.849615	12.300218	-0.190229	-105.319097
6.250000	-0.336952	129.770295	-42.765238	10.521767	-42.765238	10.521767	-0.193053	-106.069011
6.300000	-0.340117	127.763444	-42.684542	8.749996	-42.684542	8.749996	-0.195916	-106.817718
6.350000	-0.343243	125.748597	-42.607465	6.985179	-42.607465	6.985179	-0.198819	-107.565267
6.400000	-0.346328	123.725834	-42.534004	5.227744	-42.534004	5.227744	-0.201762	-108.311685
6.450000	-0.349371	121.695253	-42.464159	3.478141	-42.464159	3.478141	-0.204745	-109.056996
6.500000	-0.352368	119.656965	-42.397927	1.736840	-42.397927	1.736840	-0.207770	-109.801224
6.550000	-0.355319	117.611102	-42.335306	0.004335	-42.335306	0.004335	-0.210835	-110.544396
6.600000	-0.358221	115.557809	-42.276293	-1.718855	-42.276293	-1.718855	-0.213942	-111.286538
6.650000	-0.361072	113.497250	-42.220883	-3.432189	-42.220883	-3.432189	-0.217090	-112.027675
6.700000	-0.363871	111.429607	-42.169071	-5.135097	-42.169071	-5.135097	-0.220282	-112.767835
6.750000	-0.366616	109.355077	-42.120852	-6.826987	-42.120852	-6.826987	-0.223515	-113.507043
6.800000	-0.369305	107.273877	-42.076215	-8.507235	-42.076215	-8.507235	-0.226792	-114.245329
6.850000	-0.371938	105.186240	-42.035152	-10.175192	-42.035152	-10.175192	-0.230112	-114.982719
6.900000	-0.374512	103.092352	-41.997686	-11.830030	-41.997686	-11.830030	-0.233476	-115.719231
6.950000	-0.377026	100.992490	-41.963802	-13.471016	-41.963802	-13.471016	-0.236884	-116.454897
7.000000	-0.379481	98.887007	-41.933444	-15.097551	-41.933444	-15.097551	-0.240337	-117.189753
7.050000	-0.381875	96.776206	-41.906589	-16.708863	-41.906589	-16.708863	-0.243835	-117.923828
7.100000	-0.384210	94.660406	-41.883210	-18.304150	-41.883210	-18.304150	-0.247377	-118.657153
7.150000	-0.386483	92.539942	-41.863275	-19.882579	-41.863275	-19.882579	-0.250965	-119.389757
7.200000	-0.388697	90.415163	-41.846749	-21.443286	-41.846749	-21.443286	-0.254599	-120.121669
7.250000	-0.390850	88.286437	-41.833587	-22.985377	-41.833587	-22.985377	-0.258278	-120.852921
7.300000	-0.392944	86.154143	-41.823741	-24.507926	-41.823741	-24.507926	-0.262004	-121.583543
7.350000	-0.394979	84.018674	-41.817156	-26.009978	-41.817156	-26.009978	-0.265776	-122.313566
7.400000	-0.396957	81.880438	-41.813768	-27.490551	-41.813768	-27.490551	-0.269595	-123.043021
7.450000	-0.398879	79.739856	-41.813504	-28.948633	-41.813504	-28.948633	-0.273462	-123.771941
7.500000	-0.400747	77.597357	-41.816284	-30.383191	-41.816284	-30.383191	-0.277375	-124.500358
7.550000	-0.402561	75.453363	-41.822079	-31.792609	-41.822079	-31.792609	-0.281338	-125.228294
7.600000	-0.404325	73.308369	-41.830718	-33.176318	-41.830718	-33.176318	-0.285348	-125.955794
7.650000	-0.406041	71.162836	-41.842089	-34.533227	-41.842089	-34.533227	-0.289407	-126.682890
7.700000	-0.407712	69.017233	-41.856063	-35.862231	-41.856063	-35.862231	-0.293514	-127.409617
7.750000	-0.409341	66.872037	-41.872502	-37.162220	-41.872502	-37.162220	-0.297671	-128.136007
7.800000	-0.410931	64.727731	-41.891251	-38.432086	-41.891251	-38.432086	-0.301876	-128.862096
7.850000	-0.412485	62.584800	-41.912140	-39.670726	-41.912140	-39.670726	-0.306131	-129.587918
7.900000	-0.414008	60.443737	-41.934986	-40.877053	-41.934986	-40.877053	-0.310435	-130.313508
7.950000	-0.415502	58.305033	-41.959588	-42.050002	-41.959588	-42.050002	-0.314789	-131.038900
8.000000	-0.416973	56.169184	-41.985726	-43.188544	-41.985726	-43.188544	-0.319193	-131.764132
8.050000	-0.418424	54.036683	-42.013167	-44.291691	-42.013167	-44.291691	-0.323648	-132.489239
8.100000	-0.419859	51.908025	-42.041656	-45.358514	-42.041656	-45.358514	-0.328153	-133.214257
8.150000	-0.421284	49.783755	-42.070926	-46.387739	-42.070926	-46.387739	-0.332710	-133.939222
8.200000	-0.422703	47.664376	-42.100677	-47.378564	-42.100677	-47.378564	-0.337318	-134.664175
8.250000	-0.424121	45.550327	-42.130593	-48.330720	-42.130593	-48.330720	-0.341977	-135.389151
8.300000	-0.425544	43.442085	-42.160347	-49.243650	-42.160347	-49.243650	-0.346688	-136.114190
8.350000	-0.426976	41.340123	-42.189598	-50.116927	-42.189598	-50.116927	-0.351451	-136.839329
8.400000	-0.428422	39.244906	-42.217987	-50.950271	-42.217987	-50.950271	-0.356266	-137.564607
8.450000	-0.429888	37.156891	-42.245141	-51.743566	-42.245141	-51.743566	-0.361133	-138.290064
8.500000	-0.431380	35.076523	-42.270678	-52.496878	-42.270678	-52.496878	-0.366052	-139.015738
8.550000	-0.432902	33.004241	-42.294202	-53.210465	-42.294202	-53.210465	-0.371024	-139.741669
8.600000	-0.434459	30.940470	-42.315312	-53.884798	-42.315312	-53.884798	-0.376048	-140.467898
8.650000	-0.436059	28.885624	-42.333605	-54.520569	-42.333605	-54.520569	-0.381126	-141.194465
8.700000	-0.437704	26.840106	-42.348674	-55.118702	-42.348674	-55.118702	-0.386257	-141.921411
8.750000	-0.439402	24.804304	-42.360118	-55.680362	-42.360118	-55.680362	-0.391441	-142.648777
8.800000	-0.441159	22.778822	-42.367446	-56.206235	-42.367446	-56.206235	-0.396680	-143.376616
8.850000	-0.442978	20.763807	-42.370357	-56.698786	-42.370357	-56.698786	-0.401973	-144.104962
8.900000	-0.444865	18.759605	-42.368485	-57.159926	-42.368485	-57.159926	-0.407320	-144.833856
8.950000	-0.446825	16.766547	-42.361490	-57.591798	-42.361490	-57.591798	-0.412721	-145.563341
9.000000	-0.448863	14.784948	-42.349054	-57.996763	-42.349054	-57.996763	-0.418176	-146.293461
9.050000	-0.450983	12.815105	-42.330892	-58.377383	-42.330892	-58.377383	-0.423685	-147.024261
9.100000	-0.453192	10.857304	-42.306753	-58.736396	-42.306753	-58.736396	-0.429249	-147.755783
9.150000	-0.455492	8.911811	-42.276422	-59.076692	-42.276422	-59.076692	-0.434868	-148.488073
9.200000	-0.457889	6.978877	-42.239728	-59.401280	-42.239728	-59.401280	-0.440542	-149.221175
9.250000	-0.460387	5.058738	-42.196539	-59.713260	-42.196539	-59.713260	-0.446271	-149.955136
9.300000	-0.462990	3.151612	-42.146769	-60.015782	-42.146769	-60.015782	-0.452055	-150.690000
9.350000	-0.465702	1.257703	-42.090378	-60.312016	-42.090378	-60.312016	-0.457895	-151.425815
9.400000	-0.468528	-0.622656	-42.027290	-60.605111	-42.027290	-60.605111	-0.463791	-152.162639
9.450000	-0.471473	-2.489286	-41.957550	-60.898266	-41.957550	-60.898266	-0.469743	-152.900520
9.500000	-0.474538	-4.342180	-41.881324	-61.194517	-41.881324	-61.194517	-0.475750	-153.639495
9.550000	-0.477727	-6.181198	-41.798740	-61.496746	-41.798740	-61.496746	-0.481814	-154.379612
9.600000	-0.481043	-8.006217	-41.709959	-61.807687	-41.709959	-61.807687	-0.487933	-155.120920
9.650000	-0.484490	-9.817125	-41.615175	-62.129910	-41.615175	-62.129910	-0.494109	-155.863469
9.700000	-0.488069	-11.613829	-41.514610	-62.465796	-41.514610	-62.465796	-0.500341	-156.607306
9.750000	-0.491784	-13.396247	-41.408507	-62.817528	-41.408507	-62.817528	-0.506629	-157.352484
9.800000	-0.495643	-15.163685	-41.296848	-63.187959	-41.296848	-63.187959	-0.512975	-158.099114
9.850000	-0.499636	-16.917497	-41.180547	-63.576925	-41.180547	-63.576925	-0.519376	-158.847108
9.900000	-0.503772	-18.656862	-41.059531	-63.986987	-41.059531	-63.986987	-0.525832	-159.596592
9.950000	-0.508053	-20.381750	-40.934093	-64.419493	-40.934093	-64.419493	-0.532346	-160.347620
10.000000	-0.512481	-22.092142	-40.804528	-64.875587	-40.804528	-64.875587	-0.538916	-161.100242
