! freq	dB(S11)	phase(S11)	dB(S12)	phase(S12)	
!     	dB(S21)	phase(S21)	dB(S22)	phase(S22)	
!S-par simulation data
#  GHz  S  DB  R 50
0.000000	-80.350001	0.000000	-0.000834	0.000000	-0.000834	0.000000	-80.350001	0.000000
0.050000	-46.795186	-81.883181	-0.013307	-3.305075	-0.013307	-3.305075	-46.667274	-79.080498
0.100000	-40.985872	-93.314998	-0.018108	-6.579550	-0.018108	-6.579550	-40.857757	-87.453576
0.150000	-37.611071	-100.553026	-0.022396	-9.843481	-0.022396	-9.843481	-37.488681	-91.615098
0.200000	-35.245957	-106.779688	-0.026380	-13.104109	-0.026380	-13.104109	-35.130440	-94.702047
0.250000	-33.438538	-112.530268	-0.030341	-16.363045	-0.030341	-16.363045	-33.331323	-97.237342
0.300000	-31.984774	-118.040809	-0.034404	-19.620776	-0.034404	-19.620776	-31.886962	-99.455238
0.350000	-30.776768	-123.419856	-0.038577	-22.877592	-0.038577	-22.877592	-30.688949	-101.460250
0.400000	-29.750431	-128.732488	-0.042840	-26.133809	-0.042840	-26.133809	-29.672799	-103.310804
0.450000	-28.873210	-134.017423	-0.047183	-29.389702	-0.047183	-29.389702	-28.806200	-105.010034
0.500000	-28.110346	-139.311310	-0.051572	-32.645656	-0.051572	-32.645656	-28.053828	-106.597718
0.550000	-27.445997	-144.640506	-0.055991	-35.902001	-0.055991	-35.902001	-27.399975	-108.068397
0.600000	-26.866445	-150.029121	-0.060424	-39.159079	-0.060424	-39.159079	-26.830949	-109.418633
0.650000	-26.356076	-155.488625	-0.064856	-42.417087	-0.064856	-42.417087	-26.331005	-110.657536
0.700000	-25.911737	-161.051747	-0.069271	-45.676523	-0.069271	-45.676523	-25.897229	-111.756878
0.750000	-25.520968	-166.723310	-0.073662	-48.937510	-0.073662	-48.937510	-25.517054	-112.723467
0.800000	-25.177378	-172.519610	-0.078022	-52.200338	-0.078022	-52.200338	-25.184134	-113.545840
0.850000	-24.878253	-178.473472	-0.082341	-55.465565	-0.082341	-55.465565	-24.895878	-114.193004
0.900000	-24.613167	175.423683	-0.086625	-58.733125	-0.086625	-58.733125	-24.641712	-114.678628
0.950000	-24.380518	169.128229	-0.090873	-62.003796	-0.090873	-62.003796	-24.420107	-114.958736
1.000000	-24.171266	162.654598	-0.095098	-65.277439	-0.095098	-65.277439	-24.221837	-115.050671
1.050000	-23.981538	155.968099	-0.099312	-68.554768	-0.099312	-68.554768	-24.042926	-114.919274
1.100000	-23.804167	149.071229	-0.103537	-71.835920	-0.103537	-71.835920	-23.875963	-114.568204
1.150000	-23.632649	141.951478	-0.107801	-75.121376	-0.107801	-75.121376	-23.714129	-113.985242
1.200000	-23.459835	134.613571	-0.112136	-78.411402	-0.112136	-78.411402	-23.549892	-113.176187
1.250000	-23.278897	127.070827	-0.116580	-81.706200	-0.116580	-81.706200	-23.376017	-112.155968
1.300000	-23.082658	119.336773	-0.121178	-85.006146	-0.121178	-85.006146	-23.184849	-110.940238
1.350000	-22.863964	111.436285	-0.125987	-88.311598	-0.125987	-88.311598	-22.968761	-109.557107
1.400000	-22.618283	103.411693	-0.131052	-91.622569	-0.131052	-91.622569	-22.722981	-108.052991
1.450000	-22.341450	95.305338	-0.136432	-94.939248	-0.136432	-94.939248	-22.443176	-106.474819
1.500000	-22.028554	87.165822	-0.142210	-98.262073	-0.142210	-98.262073	-22.124308	-104.876903
1.550000	-21.681291	79.047017	-0.148430	-101.590805	-0.148430	-101.590805	-21.768507	-103.317130
1.600000	-21.300896	70.997117	-0.155156	-104.925469	-0.155156	-104.925469	-21.377454	-101.847360
1.650000	-20.888047	63.066513	-0.162481	-108.266299	-0.162481	-108.266299	-20.952307	-100.521527
1.700000	-20.448245	55.291182	-0.170456	-111.613044	-0.170456	-111.613044	-20.499306	-99.375931
1.750000	-19.987248	47.696915	-0.179132	-114.965458	-0.179132	-114.965458	-20.024848	-98.435335
1.800000	-19.509826	40.306158	-0.188580	-118.323416	-0.188580	-118.323416	-19.534187	-97.720679
1.850000	-19.021518	33.130396	-0.198853	-121.686646	-0.198853	-121.686646	-19.033214	-97.240752
1.900000	-18.527318	26.175749	-0.210009	-125.054870	-0.210009	-125.054870	-18.527115	-96.998819
1.950000	-18.032233	19.439328	-0.222090	-128.427693	-0.222090	-128.427693	-18.020957	-96.989024
2.000000	-17.540876	12.910997	-0.235115	-131.804628	-0.235115	-131.804628	-17.519338	-97.198544
2.050000	-17.056839	6.579764	-0.249104	-135.185204	-0.249104	-135.185204	-17.025792	-97.614231
2.100000	-16.583067	0.432698	-0.264065	-138.568917	-0.264065	-138.568917	-16.543198	-98.221258
2.150000	-16.121915	-5.544034	-0.279991	-141.955242	-0.279991	-141.955242	-16.073851	-99.004033
2.200000	-15.675227	-11.364450	-0.296863	-145.343639	-0.296863	-145.343639	-15.619538	-99.946869
2.250000	-15.244420	-17.042274	-0.314647	-148.733573	-0.314647	-148.733573	-15.181618	-101.034432
2.300000	-14.830559	-22.590659	-0.333295	-152.124516	-0.333295	-152.124516	-14.761099	-102.252033
2.350000	-14.434427	-28.022044	-0.352742	-155.515969	-0.352742	-155.515969	-14.358698	-103.585791
2.400000	-14.056577	-33.348099	-0.372909	-158.907472	-0.372909	-158.907472	-13.974909	-105.022714
2.450000	-13.697386	-38.579731	-0.393704	-162.298618	-0.393704	-162.298618	-13.610041	-106.550719
2.500000	-13.357091	-43.727129	-0.415017	-165.689067	-0.415017	-165.689067	-13.264266	-108.158608
2.550000	-13.035998	-48.798412	-0.436733	-169.078539	-0.436733	-169.078539	-12.937814	-109.837314
2.600000	-12.734044	-53.804343	-0.458708	-172.466892	-0.458708	-172.466892	-12.630562	-111.575571
2.650000	-12.451215	-58.753376	-0.480798	-175.854083	-0.480798	-175.854083	-12.342429	-113.364554
2.700000	-12.187460	-63.653581	-0.502852	-179.240185	-0.502852	-179.240185	-12.073299	-115.196065
2.750000	-11.942705	-68.512745	-0.524714	177.374598	-0.524714	177.374598	-11.823032	-117.062451
2.800000	-11.716871	-73.338456	-0.546221	173.989925	-0.546221	173.989925	-11.591478	-118.956531
2.850000	-11.509876	-78.138205	-0.567213	170.605318	-0.567213	170.605318	-11.378490	-120.871515
2.900000	-11.321656	-82.919473	-0.587532	167.220159	-0.587532	167.220159	-11.183928	-122.800923
2.950000	-11.152161	-87.689829	-0.607022	163.833699	-0.607022	163.833699	-11.007668	-124.738503
3.000000	-11.001373	-92.457028	-0.625537	160.445065	-0.625537	160.445065	-10.849609	-126.678145
3.050000	-10.869306	-97.229104	-0.642936	157.053270	-0.642936	157.053270	-10.709677	-128.613794
3.100000	-10.756012	-102.014487	-0.659086	153.657222	-0.659086	153.657222	-10.587826	-130.539350
3.150000	-10.661784	-106.822457	-0.673843	150.255657	-0.673843	150.255657	-10.484229	-132.448314
3.200000	-10.586784	-111.662930	-0.687083	146.847222	-0.687083	146.847222	-10.398921	-134.333936
3.250000	-10.531008	-116.546061	-0.698702	143.430533	-0.698702	143.430533	-10.331769	-136.189451
3.300000	-10.494692	-121.483192	-0.708586	140.003981	-0.708586	140.003981	-10.282849	-138.007360
3.350000	-10.477923	-126.486020	-0.716652	136.565888	-0.716652	136.565888	-10.252079	-139.779974
3.400000	-10.481149	-131.568549	-0.722797	133.114178	-0.722797	133.114178	-10.239688	-141.498023
3.450000	-10.504873	-136.746875	-0.726941	129.646464	-0.726941	129.646464	-10.245916	-143.150780
3.500000	-10.549805	-142.040690	-0.729016	126.159856	-0.729016	126.159856	-10.271148	-144.724985
3.550000	-10.615739	-147.466851	-0.729082	122.652086	-0.729082	122.652086	-10.314893	-146.209162
3.600000	-10.702921	-153.047233	-0.727197	119.120304	-0.727197	119.120304	-10.377020	-147.588258
3.650000	-10.811461	-158.806643	-0.723469	115.561536	-0.723469	115.561536	-10.457210	-148.845049
3.700000	-10.941239	-164.773252	-0.718064	111.972720	-0.718064	111.972720	-10.554862	-149.959877
3.750000	-11.091766	-170.979005	-0.711207	108.350750	-0.711207	108.350750	-10.668970	-150.910439
3.800000	-11.262497	-177.470798	-0.703155	104.691166	-0.703155	104.691166	-10.798325	-151.664275
3.850000	-11.450857	175.718994	-0.694317	100.992061	-0.694317	100.992061	-10.939978	-152.199338
3.900000	-11.653729	168.545675	-0.685121	97.250473	-0.685121	97.250473	-11.090444	-152.485959
3.950000	-11.866378	160.961642	-0.676064	93.463590	-0.676064	93.463590	-11.244889	-152.493879
4.000000	-12.081946	152.918672	-0.667715	89.628816	-0.667715	89.628816	-11.396824	-152.194492
4.050000	-12.290927	144.372069	-0.660718	85.743837	-0.660718	85.743837	-11.537857	-151.564344
4.100000	-12.479769	135.272903	-0.655860	81.805315	-0.655860	81.805315	-11.656701	-150.581161
4.150000	-12.632503	125.616414	-0.653924	77.812620	-0.653924	77.812620	-11.741048	-149.255035
4.200000	-12.731076	115.426685	-0.655746	73.765295	-0.655746	73.765295	-11.777762	-147.617044
4.250000	-12.756632	104.765803	-0.662235	69.663076	-0.662235	69.663076	-11.753778	-145.723700
4.300000	-12.692534	93.743521	-0.674344	65.506435	-0.674344	65.506435	-11.658094	-143.660952
4.350000	-12.527691	82.511895	-0.693057	61.296660	-0.693057	61.296660	-11.483692	-141.539263
4.400000	-12.257380	71.250312	-0.719518	57.035111	-0.719518	57.035111	-11.227510	-139.485691
4.450000	-11.888270	60.142138	-0.754754	52.725117	-0.754754	52.725117	-10.894116	-137.627401
4.500000	-11.436916	49.334048	-0.799582	48.371753	-0.799582	48.371753	-10.494929	-136.066059
4.550000	-10.922600	38.929324	-0.854885	43.980189	-0.854885	43.980189	-10.043334	-134.876648
4.600000	-10.365872	28.985644	-0.921454	39.556525	-0.921454	39.556525	-9.554189	-134.102858
4.650000	-9.785934	19.521744	-0.999965	35.107708	-0.999965	35.107708	-9.042074	-133.759372
4.700000	-9.198832	10.532158	-1.091052	30.641328	-1.091052	30.641328	-8.519838	-133.840997
4.750000	-8.617395	1.996735	-1.195280	26.165810	-1.195280	26.165810	-7.998353	-134.328047
4.800000	-8.052286	-6.131746	-1.312515	21.690213	-1.312515	21.690213	-7.487274	-135.173810
4.850000	-7.510180	-13.890229	-1.442734	17.223294	-1.442734	17.223294	-6.993074	-136.337838
4.900000	-6.995479	-21.314219	-1.585717	12.773718	-1.585717	12.773718	-6.520359	-137.778524
4.950000	-6.510821	-28.436122	-1.741058	8.349831	-1.741058	8.349831	-6.072192	-139.455396
5.000000	-6.057519	-35.284682	-1.908174	3.959458	-1.908174	3.959458	-5.650398	-141.330493
5.050000	-5.636326	-41.877210	-2.086537	-0.388676	-2.086537	-0.388676	-5.256205	-143.373703
5.100000	-5.246562	-48.244671	-2.274955	-4.689584	-2.274955	-4.689584	-4.889496	-145.547529
5.150000	-4.887286	-54.406042	-2.472424	-8.938080	-2.472424	-8.938080	-4.549793	-147.824799
5.200000	-4.557228	-60.378167	-2.677857	-13.130033	-2.677857	-13.130033	-4.236232	-150.181832
5.250000	-4.254906	-66.176236	-2.890107	-17.262401	-2.890107	-17.262401	-3.947683	-152.598220
5.300000	-3.978719	-71.814205	-3.107996	-21.333231	-3.107996	-21.333231	-3.682841	-155.056560
5.350000	-3.727429	-77.301659	-3.330267	-25.340020	-3.330267	-25.340020	-3.440677	-157.542553
5.400000	-3.499070	-82.654066	-3.555708	-29.284031	-3.555708	-29.284031	-3.219458	-160.043103
5.450000	-3.291867	-87.884753	-3.783177	-33.166972	-3.783177	-33.166972	-3.017586	-162.548025
5.500000	-3.104256	-93.005613	-4.011560	-36.990901	-4.011560	-36.990901	-2.833621	-165.049200
5.550000	-2.934758	-98.028508	-4.239787	-40.758696	-4.239787	-40.758696	-2.666181	-167.540094
5.600000	-2.782528	-102.962473	-4.466508	-44.472060	-4.466508	-44.472060	-2.514418	-170.014698
5.650000	-2.645428	-107.824887	-4.691248	-48.138633	-4.691248	-48.138633	-2.376322	-172.470151
5.700000	-2.522490	-112.627262	-4.913014	-51.762826	-4.913014	-51.762826	-2.250904	-174.903204
5.750000	-2.413364	-117.379746	-5.130406	-55.348150	-5.130406	-55.348150	-2.137692	-177.310189
5.800000	-2.315816	-122.100746	-5.343772	-58.904916	-5.343772	-58.904916	-2.034581	-179.692481
5.850000	-2.230932	-126.800822	-5.550544	-62.435801	-5.550544	-62.435801	-1.942239	177.955770
5.900000	-2.156023	-131.498201	-5.752101	-65.952654	-5.752101	-65.952654	-1.858203	175.629866
5.950000	-2.092292	-136.211137	-5.945850	-69.462399	-5.945850	-69.462399	-1.783112	173.335188
6.000000	-2.038017	-140.955674	-6.132728	-72.975222	-6.132728	-72.975222	-1.715302	171.068037
6.050000	-1.993670	-145.756250	-6.311279	-76.502699	-6.311279	-76.502699	-1.654716	168.830763
6.100000	-1.958955	-150.635544	-6.481220	-80.056815	-6.481220	-80.056815	-1.600697	166.622878
6.150000	-1.933562	-155.617158	-6.642590	-83.650193	-6.642590	-83.650193	-1.552546	164.443379
6.200000	-1.918680	-160.744884	-6.793856	-87.303756	-6.793856	-87.303756	-1.510374	162.295398
6.250000	-1.913198	-166.030650	-6.936649	-91.025322	-6.936649	-91.025322	-1.472995	160.174803
6.300000	-1.920160	-171.562216	-7.068376	-94.855674	-7.068376	-94.855674	-1.441083	158.088999
6.350000	-1.938177	-177.342003	-7.191683	-98.797721	-7.191683	-98.797721	-1.413304	156.032611
6.400000	-1.970041	176.535718	-7.305774	-102.895017	-7.305774	-102.895017	-1.389819	154.011276
6.450000	-2.017553	169.992740	-7.411860	-107.183179	-7.411860	-107.183179	-1.370160	152.027431
6.500000	-2.082914	162.936148	-7.511988	-111.703002	-7.511988	-111.703002	-1.353742	150.084177
6.550000	-2.169075	155.244816	-7.609252	-116.505635	-7.609252	-116.505635	-1.339847	148.186092
6.600000	-2.279499	146.767958	-7.708549	-121.651664	-7.708549	-121.651664	-1.327442	146.338681
6.650000	-2.417889	137.318575	-7.817427	-127.211704	-7.817427	-127.211704	-1.315005	144.547968
6.700000	-2.587834	126.647721	-7.947785	-133.273432	-7.947785	-133.273432	-1.300232	142.820285
6.750000	-2.789682	114.504109	-8.116397	-139.913057	-8.116397	-139.913057	-1.279969	141.156872
6.800000	-3.018744	100.583769	-8.347828	-147.212188	-8.347828	-147.212188	-1.250013	139.553058
6.850000	-3.259085	84.608498	-8.675777	-155.225785	-8.675777	-155.225785	-1.205504	137.990499
6.900000	-3.477086	66.412769	-9.144725	-163.957748	-9.144725	-163.957748	-1.141957	136.431123
6.950000	-3.620479	46.145523	-9.806767	-173.313078	-9.806767	-173.313078	-1.057686	134.815846
7.000000	-3.635294	24.433709	-10.714748	176.929866	-10.714748	176.929866	-0.956247	133.078553
7.050000	-3.497258	2.324124	-11.915561	167.107223	-11.915561	167.107223	-0.846631	131.171544
7.100000	-3.227796	-18.985824	-13.449195	157.645323	-13.449195	157.645323	-0.740784	129.081160
7.150000	-2.889855	-38.612108	-15.344834	148.977356	-15.344834	148.977356	-0.648877	126.844070
7.200000	-2.543136	-56.103295	-17.647073	141.564020	-17.647073	141.564020	-0.576414	124.514535
7.250000	-2.227382	-71.404581	-20.443417	136.013691	-20.443417	136.013691	-0.523933	122.147985
7.300000	-1.958745	-84.718712	-23.932590	133.536052	-23.932590	133.536052	-0.488560	119.784756
7.350000	-1.738679	-96.315422	-28.518045	137.936153	-28.518045	137.936153	-0.466514	117.447235
7.400000	-1.562216	-106.459554	-34.106572	165.163920	-34.106572	165.163920	-0.454258	115.144966
7.450000	-1.421103	-115.433585	-34.219699	-139.461876	-34.219699	-139.461876	-0.448683	112.877881
7.500000	-1.308834	-123.427561	-29.987816	-117.018011	-29.987816	-117.018011	-0.447753	110.643252
7.550000	-1.219669	-130.602335	-27.029872	-112.175832	-27.029872	-112.175832	-0.449967	108.436346
7.600000	-1.148167	-137.118927	-25.034602	-111.988417	-25.034602	-111.988417	-0.454208	106.250770
7.650000	-1.090540	-143.089897	-23.602972	-113.500532	-23.602972	-113.500532	-0.459798	104.081055
7.700000	-1.043862	-148.605951	-22.524329	-115.741289	-22.524329	-115.741289	-0.466305	101.922180
7.750000	-1.005884	-153.740410	-21.681148	-118.322444	-21.681148	-118.322444	-0.473461	99.769621
7.800000	-0.974878	-158.552824	-21.002650	-121.067781	-21.002650	-121.067781	-0.481111	97.619305
7.850000	-0.949510	-163.091850	-20.443398	-123.890894	-20.443398	-123.890894	-0.489180	95.467535
7.900000	-0.928748	-167.397506	-19.972694	-126.747703	-19.972694	-126.747703	-0.497651	93.310893
7.950000	-0.912105	-171.485745	-19.572404	-129.615749	-19.572404	-129.615749	-0.506591	91.145097
8.000000	-0.898306	-175.419344	-19.219250	-132.483484	-19.219250	-132.483484	-0.515979	88.968671
8.050000	-0.887199	-179.203618	-18.905423	-135.347603	-18.905423	-135.347603	-0.525934	86.777849
8.100000	-0.878403	177.141831	-18.621764	-138.207621	-18.621764	-138.207621	-0.536564	84.569459
8.150000	-0.871623	173.600305	-18.361013	-141.065520	-18.361013	-141.065520	-0.548006	82.340181
8.200000	-0.866630	170.157477	-18.117267	-143.924927	-18.117267	-143.924927	-0.560424	80.086464
8.250000	-0.863257	166.800972	-17.885608	-146.790678	-17.885608	-146.790678	-0.574017	77.804424
8.300000	-0.861383	163.520019	-17.661834	-149.668608	-17.661834	-149.668608	-0.589029	75.489741
8.350000	-0.860932	160.305180	-17.442255	-152.565490	-17.442255	-152.565490	-0.605755	73.137522
8.400000	-0.861872	157.148119	-17.223549	-155.489082	-17.223549	-155.489082	-0.624559	70.742145
8.450000	-0.864211	154.041410	-17.002636	-158.448266	-17.002636	-158.448266	-0.645896	68.297062
8.500000	-0.868001	150.978385	-16.776579	-161.453264	-16.776579	-161.453264	-0.670336	65.794549
8.550000	-0.873344	147.953002	-16.542501	-164.515970	-16.542501	-164.515970	-0.698611	63.225384
8.600000	-0.880401	144.959729	-16.297506	-167.650387	-16.297506	-167.650387	-0.731665	60.578434
8.650000	-0.889405	141.993464	-16.038606	-170.873249	-16.038606	-170.873249	-0.770737	57.840104
8.700000	-0.900680	139.049459	-15.762655	-174.204854	-15.762655	-174.204854	-0.817480	54.993607
8.750000	-0.914672	136.123291	-15.466286	-177.670222	-15.466286	-177.670222	-0.874135	52.017994
8.800000	-0.932177	133.211294	-15.144041	178.690169	-15.144041	178.690169	-0.944541	48.878413
8.850000	-0.953954	130.309112	-14.793152	174.840600	-14.793152	174.840600	-1.032869	45.545415
8.900000	-0.981218	127.413938	-14.409260	170.726883	-14.409260	170.726883	-1.145806	41.973547
8.950000	-1.015664	124.524397	-13.987875	166.277170	-13.987875	166.277170	-1.293350	38.103398
9.000000	-1.059045	121.641407	-13.528519	161.422473	-13.528519	161.422473	-1.487709	33.880754
9.050000	-1.115473	118.772141	-13.022084	155.992526	-13.022084	155.992526	-1.757211	29.169496
9.100000	-1.188277	115.931628	-12.473624	149.857054	-12.473624	149.857054	-2.135030	23.879703
9.150000	-1.284111	113.160037	-11.884973	142.723178	-11.884973	142.723178	-2.696558	17.817208
9.200000	-1.407481	110.530626	-11.280479	134.314367	-11.280479	134.314367	-3.558030	10.875084
9.250000	-1.558932	108.179266	-10.708303	124.261015	-10.708303	124.261015	-4.950590	3.093588
9.300000	-1.722294	106.298981	-10.261006	112.255100	-10.261006	112.255100	-7.343920	-4.666608
9.350000	-1.849589	105.027441	-10.080432	98.298789	-10.080432	98.298789	-11.836193	-7.481482
9.400000	-1.870769	104.183247	-10.323558	83.028695	-10.323558	83.028695	-19.186535	34.494928
9.450000	-1.759511	103.184157	-11.068118	67.754747	-11.068118	67.754747	-12.843581	90.006133
9.500000	-1.571702	101.552238	-12.250899	53.818453	-12.250899	53.818453	-7.905227	89.495899
9.550000	-1.381858	99.276019	-13.723755	41.946730	-13.723755	41.946730	-5.319467	82.105914
9.600000	-1.227433	96.596280	-15.344245	32.192619	-15.344245	32.192619	-3.829719	74.372206
9.650000	-1.113761	93.729224	-17.015023	24.298349	-17.015023	24.298349	-2.917124	67.407792
9.700000	-1.032960	90.802723	-18.689959	17.903986	-18.689959	17.903986	-2.326752	61.309001
9.750000	-0.976622	87.875848	-20.340975	12.749429	-20.340975	12.749429	-1.931301	55.974723
9.800000	-0.936718	84.971578	-21.979785	8.578151	-21.979785	8.578151	-1.652280	51.227306
9.850000	-0.908888	82.097140	-23.598432	5.290276	-23.598432	5.290276	-1.452186	46.961276
9.900000	-0.889285	79.251663	-25.217037	2.783370	-25.217037	2.783370	-1.303154	43.059717
9.950000	-0.876255	76.435297	-26.810120	1.119812	-26.810120	1.119812	-1.193086	39.477466
10.000000	-0.867382	73.640768	-28.429743	0.205451	-28.429743	0.205451	-1.106997	36.114374
