! freq	dB(S11)	phase(S11)	dB(S12)	phase(S12)	
!     	dB(S21)	phase(S21)	dB(S22)	phase(S22)	
!S-par simulation data
#  GHz  S  DB  R 50
0.000000	-0.000000	-0.000000	-368.482817	180.000000	-368.482817	180.000000	-0.000000	0.000000
0.050000	-0.000568	-0.819546	-104.978600	88.619771	-104.978600	88.619771	-0.001958	-2.154967
0.100000	-0.001815	-1.634411	-98.998691	87.180340	-98.998691	87.180340	-0.005308	-4.291906
0.150000	-0.003117	-2.444912	-95.545463	85.771378	-95.545463	85.771378	-0.008197	-6.418471
0.200000	-0.004267	-3.253109	-93.141239	84.389323	-93.141239	84.389323	-0.010721	-8.540510
0.250000	-0.005281	-4.060265	-91.326545	83.041679	-91.326545	83.041679	-0.013147	-10.659031
0.300000	-0.006222	-4.866948	-89.897203	81.738591	-89.897203	81.738591	-0.015613	-12.773619
0.350000	-0.007139	-5.673347	-88.741662	80.489687	-88.741662	80.489687	-0.018160	-14.883788
0.400000	-0.008061	-6.479476	-87.796251	79.308202	-87.796251	79.308202	-0.020785	-16.988938
0.450000	-0.009005	-7.285287	-87.024170	78.214024	-87.024170	78.214024	-0.023470	-19.088306
0.500000	-0.009975	-8.090744	-86.394106	77.222048	-86.394106	77.222048	-0.026191	-21.181750
0.550000	-0.010973	-8.895799	-85.887686	76.354667	-85.887686	76.354667	-0.028926	-23.268913
0.600000	-0.011997	-9.700384	-85.496414	75.648106	-85.496414	75.648106	-0.031658	-25.349144
0.650000	-0.013044	-10.504474	-85.208354	75.133609	-85.208354	75.133609	-0.034373	-27.422366
0.700000	-0.014107	-11.308037	-85.016627	74.853779	-85.016627	74.853779	-0.037063	-29.488360
0.750000	-0.015182	-12.111024	-84.919995	74.875988	-84.919995	74.875988	-0.039720	-31.546602
0.800000	-0.016264	-12.913403	-84.915258	75.278702	-84.915258	75.278702	-0.042341	-33.596813
0.850000	-0.017349	-13.715151	-84.998414	76.159500	-84.998414	76.159500	-0.044925	-35.638799
0.900000	-0.018432	-14.516241	-85.164932	77.649232	-85.164932	77.649232	-0.047471	-37.672294
0.950000	-0.019509	-15.316641	-85.406885	79.921251	-85.406885	79.921251	-0.049977	-39.696981
1.000000	-0.020578	-16.116321	-85.707711	83.191046	-85.707711	83.191046	-0.052444	-41.712578
1.050000	-0.021636	-16.915254	-86.035768	87.708716	-86.035768	87.708716	-0.054871	-43.718812
1.100000	-0.022683	-17.713409	-86.335315	93.714507	-86.335315	93.714507	-0.057256	-45.715411
1.150000	-0.023716	-18.510759	-86.519619	101.328210	-86.519619	101.328210	-0.059598	-47.702116
1.200000	-0.024736	-19.307274	-86.478500	110.368300	-86.478500	110.368300	-0.061893	-49.678673
1.250000	-0.025743	-20.102927	-86.114665	120.206893	-86.114665	120.206893	-0.064140	-51.644835
1.300000	-0.026737	-20.897671	-85.388660	129.854575	-85.388660	129.854575	-0.066333	-53.600127
1.350000	-0.027719	-21.691501	-84.367396	138.418096	-84.367396	138.418096	-0.068469	-55.544546
1.400000	-0.028690	-22.484390	-83.157563	145.444015	-83.157563	145.444015	-0.070545	-57.477868
1.450000	-0.029653	-23.276317	-81.860780	150.888430	-81.860780	150.888430	-0.072556	-59.399877
1.500000	-0.030608	-24.067259	-80.548951	154.934927	-80.548951	154.934927	-0.074500	-61.310365
1.550000	-0.031557	-24.857196	-79.264322	157.835837	-79.264322	157.835837	-0.076375	-63.209130
1.600000	-0.032502	-25.646109	-78.028231	159.830210	-78.028231	159.830210	-0.078181	-65.095984
1.650000	-0.033445	-26.433979	-76.849467	161.116234	-76.849467	161.116234	-0.079919	-66.970751
1.700000	-0.034386	-27.220789	-75.729949	161.849142	-75.729949	161.849142	-0.081593	-68.833269
1.750000	-0.035328	-28.006523	-74.668108	162.147768	-74.668108	162.147768	-0.083210	-70.683400
1.800000	-0.036271	-28.791165	-73.660757	162.102535	-73.660757	162.102535	-0.084778	-72.521028
1.850000	-0.037218	-29.574701	-72.704101	161.782418	-72.704101	161.782418	-0.086305	-74.346065
1.900000	-0.038169	-30.357103	-71.793727	161.238458	-71.793727	161.238458	-0.087803	-76.158315
1.950000	-0.039125	-31.138359	-70.926055	160.512793	-70.926055	160.512793	-0.089284	-77.957751
2.000000	-0.040087	-31.918466	-70.098146	159.639487	-70.098146	159.639487	-0.090758	-79.744517
2.050000	-0.041056	-32.697411	-69.306799	158.643629	-69.306799	158.643629	-0.092237	-81.518648
2.100000	-0.042033	-33.475182	-68.549128	157.545293	-68.549128	157.545293	-0.093728	-83.280202
2.150000	-0.043017	-34.251766	-67.822542	156.360687	-67.822542	156.360687	-0.095240	-85.029260
2.200000	-0.044010	-35.027151	-67.124716	155.103009	-67.124716	155.103009	-0.096777	-86.765922
2.250000	-0.045012	-35.801324	-66.453567	153.783095	-66.453567	153.783095	-0.098343	-88.490297
2.300000	-0.046023	-36.574274	-65.807224	152.409908	-65.807224	152.409908	-0.099940	-90.202510
2.350000	-0.047042	-37.345989	-65.184003	150.990915	-65.184003	150.990915	-0.101567	-91.902687
2.400000	-0.048072	-38.116457	-64.582390	149.532376	-64.582390	149.532376	-0.103225	-93.590964
2.450000	-0.049110	-38.885666	-64.001011	148.039572	-64.001011	148.039572	-0.104912	-95.267477
2.500000	-0.050158	-39.653605	-63.438627	146.516982	-63.438627	146.516982	-0.106625	-96.932369
2.550000	-0.051216	-40.420221	-62.893579	144.967675	-62.893579	144.967675	-0.108361	-98.585411
2.600000	-0.052284	-41.185544	-62.365439	143.395868	-62.365439	143.395868	-0.110119	-100.227128
2.650000	-0.053361	-41.949563	-61.853262	141.804336	-61.853262	141.804336	-0.111894	-101.857669
2.700000	-0.054447	-42.712267	-61.356182	140.195482	-61.356182	140.195482	-0.113684	-103.477183
2.750000	-0.055543	-43.473648	-60.873406	138.571391	-60.873406	138.571391	-0.115486	-105.085822
2.800000	-0.056648	-44.233693	-60.404206	136.933881	-60.404206	136.933881	-0.117298	-106.683743
2.850000	-0.057762	-44.992394	-59.947909	135.284544	-59.947909	135.284544	-0.119118	-108.271101
2.900000	-0.058886	-45.749741	-59.503896	133.624774	-59.503896	133.624774	-0.120944	-109.848059
2.950000	-0.060019	-46.505724	-59.071593	131.955799	-59.071593	131.955799	-0.122775	-111.414781
3.000000	-0.061160	-47.260335	-58.650469	130.278700	-58.650469	130.278700	-0.124609	-112.971432
3.050000	-0.062311	-48.013565	-58.240030	128.594435	-58.240030	128.594435	-0.126445	-114.518182
3.100000	-0.063471	-48.765406	-57.839817	126.903853	-57.839817	126.903853	-0.128283	-116.055203
3.150000	-0.064640	-49.515850	-57.449401	125.207707	-57.449401	125.207707	-0.130122	-117.582671
3.200000	-0.065818	-50.264889	-57.068381	123.506668	-57.068381	123.506668	-0.131962	-119.100762
3.250000	-0.067005	-51.012515	-56.696384	121.801337	-56.696384	121.801337	-0.133802	-120.609655
3.300000	-0.068201	-51.758721	-56.333058	120.092249	-56.333058	120.092249	-0.135642	-122.109533
3.350000	-0.069406	-52.503502	-55.978074	118.379883	-55.978074	118.379883	-0.137483	-123.600578
3.400000	-0.070620	-53.246850	-55.631123	116.664671	-55.631123	116.664671	-0.139325	-125.082976
3.450000	-0.071844	-53.988760	-55.291912	114.947002	-55.291912	114.947002	-0.141168	-126.556913
3.500000	-0.073077	-54.729225	-54.960167	113.227224	-54.960167	113.227224	-0.143012	-128.022577
3.550000	-0.074320	-55.468241	-54.635628	111.505654	-54.635628	111.505654	-0.144858	-129.480157
3.600000	-0.075572	-56.205803	-54.318050	109.782578	-54.318050	109.782578	-0.146707	-130.929842
3.650000	-0.076835	-56.941905	-54.007199	108.058255	-54.007199	108.058255	-0.148559	-132.371823
3.700000	-0.078107	-57.676544	-53.702856	106.332920	-53.702856	106.332920	-0.150415	-133.806292
3.750000	-0.079390	-58.409715	-53.404810	104.606790	-53.404810	104.606790	-0.152276	-135.233439
3.800000	-0.080685	-59.141351	-53.112703	102.880041	-53.112703	102.880041	-0.154142	-136.653156
3.850000	-0.081990	-59.871512	-52.826523	101.152888	-52.826523	101.152888	-0.156014	-138.065953
3.900000	-0.083306	-60.600195	-52.546088	99.425492	-52.546088	99.425492	-0.157894	-139.472021
3.950000	-0.084634	-61.327398	-52.271226	97.698004	-52.271226	97.698004	-0.159781	-140.871552
4.000000	-0.085973	-62.053118	-52.001769	95.970563	-52.001769	95.970563	-0.161676	-142.264737
4.050000	-0.087326	-62.777354	-51.737560	94.243298	-51.737560	94.243298	-0.163582	-143.651768
4.100000	-0.088690	-63.500103	-51.478448	92.516329	-51.478448	92.516329	-0.165497	-145.032834
4.150000	-0.090068	-64.221364	-51.224287	90.789766	-51.224287	90.789766	-0.167423	-146.408125
4.200000	-0.091459	-64.941135	-50.974939	89.063715	-50.974939	89.063715	-0.169361	-147.777831
4.250000	-0.092865	-65.659417	-50.730271	87.338274	-50.730271	87.338274	-0.171311	-149.142139
4.300000	-0.094285	-66.376209	-50.490156	85.613536	-50.490156	85.613536	-0.173275	-150.501238
4.350000	-0.095719	-67.091509	-50.254471	83.889587	-50.254471	83.889587	-0.175253	-151.855314
4.400000	-0.097169	-67.805319	-50.023098	82.166512	-50.023098	82.166512	-0.177245	-153.204553
4.450000	-0.098635	-68.517638	-49.795925	80.444389	-49.795925	80.444389	-0.179252	-154.549139
4.500000	-0.100118	-69.228468	-49.572844	78.723294	-49.572844	78.723294	-0.181275	-155.889257
4.550000	-0.101617	-69.937808	-49.353751	77.003299	-49.353751	77.003299	-0.183315	-157.225088
4.600000	-0.103134	-70.645660	-49.138546	75.284474	-49.138546	75.284474	-0.185371	-158.556815
4.650000	-0.104670	-71.352025	-48.927132	73.566887	-48.927132	73.566887	-0.187445	-159.884618
4.700000	-0.106224	-72.056905	-48.719419	71.850602	-48.719419	71.850602	-0.189537	-161.208677
4.750000	-0.107797	-72.760301	-48.515317	70.135682	-48.515317	70.135682	-0.191647	-162.529168
4.800000	-0.109390	-73.462216	-48.314742	68.422188	-48.314742	68.422188	-0.193776	-163.846271
4.850000	-0.111004	-74.162651	-48.117613	66.710179	-48.117613	66.710179	-0.195924	-165.160159
4.900000	-0.112639	-74.861610	-47.923852	64.999714	-47.923852	64.999714	-0.198091	-166.471007
4.950000	-0.114296	-75.559095	-47.733385	63.290847	-47.733385	63.290847	-0.200277	-167.778989
5.000000	-0.115976	-76.255108	-47.546139	61.583635	-47.546139	61.583635	-0.202484	-169.084277
5.050000	-0.117679	-76.949590	-47.362016	59.878205	-47.362016	59.878205	-0.204711	-170.386940
5.100000	-0.119407	-77.642608	-47.180987	58.174540	-47.180987	58.174540	-0.206958	-171.687264
5.150000	-0.121159	-78.334165	-47.002992	56.472688	-47.002992	56.472688	-0.209225	-172.985417
5.200000	-0.122936	-79.024265	-46.827970	54.772699	-46.827970	54.772699	-0.211512	-174.281566
5.250000	-0.124740	-79.712912	-46.655867	53.074621	-46.655867	53.074621	-0.213819	-175.575876
5.300000	-0.126570	-80.400111	-46.486627	51.378501	-46.486627	51.378501	-0.216146	-176.868512
5.350000	-0.128427	-81.085865	-46.320201	49.684383	-46.320201	49.684383	-0.218492	-178.159636
5.400000	-0.130312	-81.770180	-46.156541	47.992312	-46.156541	47.992312	-0.220858	-179.449411
5.450000	-0.132225	-82.453060	-45.995603	46.302332	-45.995603	46.302332	-0.223242	179.262004
5.500000	-0.134168	-83.134511	-45.837343	44.614483	-45.837343	44.614483	-0.225646	177.974449
5.550000	-0.136141	-83.814537	-45.681723	42.928807	-45.681723	42.928807	-0.228067	176.687766
5.600000	-0.138145	-84.493144	-45.528704	41.245343	-45.528704	41.245343	-0.230507	175.401799
5.650000	-0.140180	-85.170338	-45.378252	39.564131	-45.378252	39.564131	-0.232964	174.116392
5.700000	-0.142247	-85.846124	-45.230334	37.885208	-45.230334	37.885208	-0.235437	172.831392
5.750000	-0.144346	-86.520509	-45.084921	36.208612	-45.084921	36.208612	-0.237927	171.546644
5.800000	-0.146479	-87.193499	-44.941985	34.534380	-44.941985	34.534380	-0.240433	170.261999
5.850000	-0.148646	-87.865099	-44.801500	32.862548	-44.801500	32.862548	-0.242953	168.977305
5.900000	-0.150847	-88.535318	-44.663442	31.193152	-44.663442	31.193152	-0.245487	167.692413
5.950000	-0.153084	-89.204161	-44.527790	29.526228	-44.527790	29.526228	-0.248034	166.407176
6.000000	-0.155356	-89.871636	-44.394525	27.861813	-44.394525	27.861813	-0.250594	165.121447
6.050000	-0.157665	-90.537750	-44.263628	26.199943	-44.263628	26.199943	-0.253166	163.835081
6.100000	-0.160010	-91.202510	-44.135084	24.540655	-44.135084	24.540655	-0.255747	162.547934
6.150000	-0.162393	-91.865924	-44.008879	22.883987	-44.008879	22.883987	-0.258339	161.259864
6.200000	-0.164814	-92.528000	-43.885000	21.229980	-43.885000	21.229980	-0.260938	159.970729
6.250000	-0.167274	-93.188746	-43.763437	19.578672	-43.763437	19.578672	-0.263545	158.680389
6.300000	-0.169775	-93.848114	-43.644209	17.930229	-43.644209	17.930229	-0.266159	157.388642
6.350000	-0.172316	-94.506169	-43.527284	16.284577	-43.527284	16.284577	-0.268777	156.095401
6.400000	-0.174896	-95.162921	-43.412654	14.641764	-43.412654	14.641764	-0.271399	154.800533
6.450000	-0.177518	-95.818379	-43.300315	13.001838	-43.300315	13.001838	-0.274024	153.503903
6.500000	-0.180180	-96.472551	-43.190261	11.364853	-43.190261	11.364853	-0.276650	152.205377
6.550000	-0.182885	-97.125448	-43.082488	9.730865	-43.082488	9.730865	-0.279276	150.904826
6.600000	-0.185631	-97.777079	-42.976995	8.099933	-42.976995	8.099933	-0.281900	149.602119
6.650000	-0.188420	-98.427455	-42.873779	6.472119	-42.873779	6.472119	-0.284521	148.297129
6.700000	-0.191251	-99.076586	-42.772840	4.847492	-42.772840	4.847492	-0.287139	146.989729
6.750000	-0.194126	-99.724482	-42.674175	3.226123	-42.674175	3.226123	-0.289751	145.679794
6.800000	-0.197044	-100.371154	-42.577787	1.608088	-42.577787	1.608088	-0.292355	144.367202
6.850000	-0.200007	-101.016614	-42.483675	-0.006533	-42.483675	-0.006533	-0.294952	143.051831
6.900000	-0.203013	-101.660873	-42.391839	-1.617652	-42.391839	-1.617652	-0.297538	141.733561
6.950000	-0.206064	-102.303943	-42.302282	-3.225180	-42.302282	-3.225180	-0.300113	140.412275
7.000000	-0.209159	-102.945836	-42.215003	-4.829020	-42.215003	-4.829020	-0.302676	139.087858
7.050000	-0.212300	-103.586564	-42.130005	-6.429071	-42.130005	-6.429071	-0.305224	137.760196
7.100000	-0.215486	-104.226141	-42.047289	-8.025225	-42.047289	-8.025225	-0.307757	136.429176
7.150000	-0.218716	-104.864579	-41.966856	-9.617370	-41.966856	-9.617370	-0.310272	135.094691
7.200000	-0.221993	-105.501892	-41.888707	-11.205389	-41.888707	-11.205389	-0.312770	133.756632
7.250000	-0.225315	-106.138095	-41.812842	-12.789156	-41.812842	-12.789156	-0.315247	132.414894
7.300000	-0.228683	-106.773200	-41.739262	-14.368544	-41.739262	-14.368544	-0.317703	131.069375
7.350000	-0.232096	-107.407224	-41.667967	-15.943417	-41.667967	-15.943417	-0.320136	129.719975
7.400000	-0.235556	-108.040181	-41.598956	-17.513637	-41.598956	-17.513637	-0.322546	128.366595
7.450000	-0.239061	-108.672086	-41.532228	-19.079058	-41.532228	-19.079058	-0.324931	127.009142
7.500000	-0.242612	-109.302956	-41.467781	-20.639531	-41.467781	-20.639531	-0.327289	125.647523
7.550000	-0.246212	-109.932763	-41.405693	-22.194671	-41.405693	-22.194671	-0.329619	124.281460
7.600000	-0.249857	-110.561570	-41.345882	-23.744534	-41.345882	-23.744534	-0.331920	122.911047
7.650000	-0.253548	-111.189394	-41.288343	-25.288957	-41.288343	-25.288957	-0.334191	121.536202
7.700000	-0.257284	-111.816253	-41.233071	-26.827771	-41.233071	-26.827771	-0.336431	120.156845
7.750000	-0.261067	-112.442165	-41.180060	-28.360807	-41.180060	-28.360807	-0.338640	118.772899
7.800000	-0.264894	-113.067150	-41.129301	-29.887888	-41.129301	-29.887888	-0.340817	117.384292
7.850000	-0.268767	-113.691226	-41.080786	-31.408840	-41.080786	-31.408840	-0.342961	115.990955
7.900000	-0.272686	-114.314415	-41.034505	-32.923482	-41.034505	-32.923482	-0.345071	114.592820
7.950000	-0.276649	-114.936737	-40.990447	-34.431633	-40.990447	-34.431633	-0.347147	113.189827
8.000000	-0.280657	-115.558214	-40.948600	-35.933111	-40.948600	-35.933111	-0.349188	111.781918
8.050000	-0.284710	-116.178866	-40.908951	-37.427733	-40.908951	-37.427733	-0.351195	110.369038
8.100000	-0.288807	-116.798718	-40.871484	-38.915313	-40.871484	-38.915313	-0.353167	108.951138
8.150000	-0.292947	-117.417793	-40.836185	-40.395669	-40.836185	-40.395669	-0.355103	107.528172
8.200000	-0.297132	-118.036113	-40.803035	-41.868616	-40.803035	-41.868616	-0.357005	106.100100
8.250000	-0.301360	-118.653706	-40.772017	-43.333971	-40.772017	-43.333971	-0.358873	104.666884
8.300000	-0.305631	-119.270595	-40.743112	-44.791554	-40.743112	-44.791554	-0.360706	103.228494
8.350000	-0.309945	-119.886807	-40.716298	-46.241185	-40.716298	-46.241185	-0.362506	101.784903
8.400000	-0.314301	-120.502370	-40.691553	-47.682686	-40.691553	-47.682686	-0.364273	100.336089
8.450000	-0.318699	-121.117312	-40.668856	-49.115883	-40.668856	-49.115883	-0.366008	98.882035
8.500000	-0.323139	-121.731660	-40.648181	-50.540605	-40.648181	-50.540605	-0.367712	97.422731
8.550000	-0.327620	-122.345447	-40.629503	-51.956684	-40.629503	-51.956684	-0.369387	95.958171
8.600000	-0.332142	-122.958700	-40.612796	-53.363957	-40.612796	-53.363957	-0.371033	94.488354
8.650000	-0.336704	-123.571454	-40.598033	-54.762265	-40.598033	-54.762265	-0.372654	93.013287
8.700000	-0.341307	-124.183740	-40.585185	-56.151454	-40.585185	-56.151454	-0.374250	91.532980
8.750000	-0.345949	-124.795592	-40.574223	-57.531373	-40.574223	-57.531373	-0.375823	90.047452
8.800000	-0.350632	-125.407029	-40.565195	-58.901465	-40.565195	-58.901465	-0.377376	88.556501
8.850000	-0.355354	-126.018106	-40.557990	-60.261995	-40.557990	-60.261995	-0.378911	87.060386
8.900000	-0.360114	-126.628861	-40.552575	-61.612833	-40.552575	-61.612833	-0.380432	85.559142
8.950000	-0.364912	-127.239331	-40.548917	-62.953853	-40.548917	-62.953853	-0.381941	84.052814
9.000000	-0.369748	-127.849557	-40.546984	-64.284938	-40.546984	-64.284938	-0.383442	82.541453
9.050000	-0.374622	-128.459579	-40.546740	-65.605977	-40.546740	-65.605977	-0.384938	81.025114
9.100000	-0.379532	-129.069440	-40.548153	-66.916865	-40.548153	-66.916865	-0.386432	79.503862
9.150000	-0.384479	-129.679183	-40.551186	-68.217506	-40.551186	-68.217506	-0.387929	77.977767
9.200000	-0.389463	-130.288854	-40.555805	-69.507808	-40.555805	-69.507808	-0.389433	76.446907
9.250000	-0.394483	-130.898499	-40.561973	-70.787690	-40.561973	-70.787690	-0.390948	74.911365
9.300000	-0.399539	-131.508166	-40.569656	-72.057075	-40.569656	-72.057075	-0.392479	73.371234
9.350000	-0.404630	-132.117906	-40.578817	-73.315894	-40.578817	-73.315894	-0.394030	71.826613
9.400000	-0.409758	-132.727768	-40.589419	-74.564087	-40.589419	-74.564087	-0.395607	70.277606
9.450000	-0.414921	-133.337807	-40.601426	-75.801600	-40.601426	-75.801600	-0.397214	68.724326
9.500000	-0.420119	-133.948077	-40.614802	-77.028386	-40.614802	-77.028386	-0.398858	67.166895
9.550000	-0.425353	-134.558636	-40.629510	-78.244404	-40.629510	-78.244404	-0.400544	65.605438
9.600000	-0.430624	-135.169541	-40.645515	-79.449623	-40.645515	-79.449623	-0.402277	64.040090
9.650000	-0.435930	-135.780853	-40.662778	-80.644017	-40.662778	-80.644017	-0.404064	62.470992
9.700000	-0.441272	-136.392635	-40.681266	-81.827566	-40.681266	-81.827566	-0.405912	60.898294
9.750000	-0.446651	-137.004952	-40.700941	-83.000258	-40.700941	-83.000258	-0.407825	59.322149
9.800000	-0.452067	-137.617871	-40.721768	-84.162088	-40.721768	-84.162088	-0.409812	57.742720
9.850000	-0.457520	-138.231460	-40.743711	-85.313056	-40.743711	-85.313056	-0.411879	56.160176
9.900000	-0.463013	-138.845793	-40.766737	-86.453169	-40.766737	-86.453169	-0.414033	54.574694
9.950000	-0.468544	-139.460942	-40.790809	-87.582439	-40.790809	-87.582439	-0.416280	52.986454
10.000000	-0.474116	-140.076986	-40.815894	-88.700885	-40.815894	-88.700885	-0.418628	51.395646
