! freq	dB(S11)	phase(S11)	dB(S12)	phase(S12)	
!     	dB(S21)	phase(S21)	dB(S22)	phase(S22)	
!S-par simulation data
#  GHz  S  DB  R 50
0.000000	-0.000000	0.000000	-359.154006	0.000000	-359.154006	0.000000	-0.000000	0.000000
0.050000	-0.000110	-0.855146	-113.949116	89.074598	-113.949116	89.074598	-0.000110	-0.855104
0.100000	-0.000434	-1.710021	-107.978282	88.161233	-107.978282	88.161233	-0.000436	-1.709937
0.150000	-0.000960	-2.564378	-104.539329	87.271986	-104.539329	87.271986	-0.000963	-2.564248
0.200000	-0.001665	-3.418013	-102.155836	86.418752	-102.155836	86.418752	-0.001670	-3.417832
0.250000	-0.002534	-4.270695	-100.371725	85.617821	-100.371725	85.617821	-0.002541	-4.270460
0.300000	-0.003527	-5.122388	-98.973378	84.878742	-98.973378	84.878742	-0.003536	-5.122094
0.350000	-0.004623	-5.972975	-97.855947	84.219168	-97.855947	84.219168	-0.004633	-5.972619
0.400000	-0.005797	-6.822414	-96.955551	83.657367	-96.955551	83.657367	-0.005809	-6.821994
0.450000	-0.007027	-7.670696	-96.232015	83.215082	-96.232015	83.215082	-0.007039	-7.670211
0.500000	-0.008293	-8.517833	-95.659057	82.918928	-95.659057	82.918928	-0.008306	-8.517282
0.550000	-0.009580	-9.363852	-95.219184	82.802292	-95.219184	82.802292	-0.009592	-9.363237
0.600000	-0.010874	-10.208791	-94.900810	82.907951	-94.900810	82.907951	-0.010885	-10.208112
0.650000	-0.012166	-11.052688	-94.696473	83.291742	-94.696473	83.291742	-0.012177	-11.051948
0.700000	-0.013450	-11.895582	-94.601559	84.027716	-94.601559	84.027716	-0.013459	-11.894783
0.750000	-0.014721	-12.737507	-94.613140	85.215398	-94.613140	85.215398	-0.014729	-12.736651
0.800000	-0.015976	-13.578493	-94.728490	86.989746	-94.728490	86.989746	-0.015982	-13.577583
0.850000	-0.017213	-14.418564	-94.942680	89.533951	-94.942680	89.533951	-0.017218	-14.417602
0.900000	-0.018433	-15.257736	-95.244229	93.093016	-95.244229	93.093016	-0.018436	-15.256725
0.950000	-0.019635	-16.096022	-95.607262	97.979344	-95.607262	97.979344	-0.019637	-16.094963
1.000000	-0.020820	-16.933426	-95.978780	104.545668	-95.978780	104.545668	-0.020821	-16.932321
1.050000	-0.021989	-17.769950	-96.263202	113.075976	-96.263202	113.075976	-0.021989	-17.768800
1.100000	-0.023144	-18.605590	-96.318575	123.544500	-96.318575	123.544500	-0.023143	-18.604397
1.150000	-0.024285	-19.440338	-95.994643	135.312496	-95.994643	135.312496	-0.024283	-19.439104
1.200000	-0.025415	-20.274186	-95.219932	147.111337	-95.219932	147.111337	-0.025412	-20.272911
1.250000	-0.026534	-21.107120	-94.058846	157.621878	-94.058846	157.621878	-0.026531	-21.105804
1.300000	-0.027643	-21.939084	-92.646142	166.054992	-92.646142	166.054992	-0.027639	-21.937729
1.350000	-0.028744	-22.770101	-91.145341	172.498807	-91.145341	172.498807	-0.028740	-22.768707
1.400000	-0.029838	-23.600153	-89.646676	177.270548	-89.646676	177.270548	-0.029834	-23.598722
1.450000	-0.030926	-24.429222	-88.196657	-179.269118	-88.196657	-179.269118	-0.030922	-24.427753
1.500000	-0.032009	-25.257288	-86.814900	-176.810250	-86.814900	-176.810250	-0.032005	-25.255782
1.550000	-0.033088	-26.084332	-85.506789	-175.112309	-85.506789	-175.112309	-0.033084	-26.082789
1.600000	-0.034162	-26.910332	-84.270880	-173.995900	-84.270880	-173.995900	-0.034159	-26.908754
1.650000	-0.035234	-27.735269	-83.102786	-173.328796	-83.102786	-173.328796	-0.035231	-27.733655
1.700000	-0.036304	-28.558736	-81.970462	-173.102123	-81.970462	-173.102123	-0.036300	-28.557087
1.750000	-0.037372	-29.381630	-80.933606	-173.032343	-80.933606	-173.032343	-0.037368	-29.379947
1.800000	-0.038438	-30.203145	-79.932458	-173.214921	-79.932458	-173.214921	-0.038435	-30.201428
1.850000	-0.039504	-31.023674	-78.986918	-173.577756	-78.986918	-173.577756	-0.039501	-31.021925
1.900000	-0.040570	-31.842979	-78.080845	-174.084056	-78.080845	-174.084056	-0.040567	-31.841197
1.950000	-0.041636	-32.661057	-77.212090	-174.733822	-77.212090	-174.733822	-0.041632	-32.659245
2.000000	-0.042702	-33.478080	-76.384582	-175.466498	-76.384582	-175.466498	-0.042699	-33.476237
2.050000	-0.043769	-34.293624	-75.580828	-176.315247	-75.580828	-176.315247	-0.043766	-34.291751
2.100000	-0.044837	-35.108516	-74.825741	-177.201554	-74.825741	-177.201554	-0.044834	-35.106615
2.150000	-0.045906	-35.921720	-74.084648	-178.180763	-74.084648	-178.180763	-0.045904	-35.919791
2.200000	-0.046978	-36.733647	-73.369496	-179.216359	-73.369496	-179.216359	-0.046975	-36.731691
2.250000	-0.048052	-37.544278	-72.678466	179.698932	-72.678466	179.698932	-0.048049	-37.542297
2.300000	-0.049129	-38.353597	-72.009926	178.571207	-72.009926	178.571207	-0.049126	-38.351592
2.350000	-0.050208	-39.161588	-71.362411	177.405613	-71.362411	177.405613	-0.050206	-39.159559
2.400000	-0.051291	-39.968233	-70.734600	176.206528	-70.734600	176.206528	-0.051289	-39.966182
2.450000	-0.052378	-40.773517	-70.125299	174.977695	-70.125299	174.977695	-0.052375	-40.771445
2.500000	-0.053469	-41.577424	-69.533425	173.722335	-69.533425	173.722335	-0.053466	-41.575333
2.550000	-0.054565	-42.379879	-68.957052	172.442320	-68.957052	172.442320	-0.054562	-42.377770
2.600000	-0.055665	-43.180926	-68.396315	171.141183	-68.396315	171.141183	-0.055662	-43.178799
2.650000	-0.056770	-43.980551	-67.850380	169.821008	-67.850380	169.821008	-0.056767	-43.978409
2.700000	-0.057881	-44.778740	-67.318482	168.483629	-67.318482	168.483629	-0.057878	-44.776584
2.750000	-0.058998	-45.575481	-66.799915	167.130668	-66.799915	167.130668	-0.058995	-45.573312
2.800000	-0.060121	-46.370760	-66.294031	165.763559	-66.294031	165.763559	-0.060118	-46.368579
2.850000	-0.061251	-47.164564	-65.800231	164.383583	-65.800231	164.383583	-0.061248	-47.162374
2.900000	-0.062388	-47.956883	-65.317958	162.991881	-65.317958	162.991881	-0.062385	-47.954683
2.950000	-0.063533	-48.747704	-64.846698	161.589479	-64.846698	161.589479	-0.063529	-48.745497
3.000000	-0.064685	-49.537016	-64.385970	160.177296	-64.385970	160.177296	-0.064681	-49.534803
3.050000	-0.065846	-50.324808	-63.935329	158.756164	-63.935329	158.756164	-0.065842	-50.322591
3.100000	-0.067015	-51.111071	-63.494357	157.326833	-63.494357	157.326833	-0.067011	-51.108851
3.150000	-0.068194	-51.895795	-63.062664	155.889987	-63.062664	155.889987	-0.068189	-51.893573
3.200000	-0.069381	-52.678970	-62.639886	154.446243	-62.639886	154.446243	-0.069377	-52.676747
3.250000	-0.070579	-53.460587	-62.225678	152.996169	-62.225678	152.996169	-0.070574	-53.458366
3.300000	-0.071787	-54.240638	-61.819720	151.540279	-61.819720	151.540279	-0.071782	-54.238420
3.350000	-0.073008	-55.018840	-61.419924	150.078247	-61.419924	150.078247	-0.073003	-55.016625
3.400000	-0.074240	-55.795391	-61.027519	148.611108	-61.027519	148.611108	-0.074235	-55.793182
3.450000	-0.075479	-56.571110	-60.647161	147.141764	-60.647161	147.141764	-0.075474	-56.568908
3.500000	-0.076736	-57.344335	-60.268632	145.665808	-60.268632	145.665808	-0.076731	-57.342142
3.550000	-0.077998	-58.117002	-59.902882	144.188624	-59.902882	144.188624	-0.077992	-58.114818
3.600000	-0.079281	-58.886876	-59.537371	142.705303	-59.537371	142.705303	-0.079276	-58.884703
3.650000	-0.080567	-59.656468	-59.185219	141.221471	-59.185219	141.221471	-0.080562	-59.654308
3.700000	-0.081879	-60.422968	-58.831952	139.732022	-58.831952	139.732022	-0.081874	-60.420822
3.750000	-0.083192	-61.189468	-58.492493	138.242573	-58.492493	138.242573	-0.083186	-61.187336
3.800000	-0.084534	-61.952576	-58.150766	136.748060	-58.150766	136.748060	-0.084529	-61.950462
3.850000	-0.085877	-62.715685	-57.821977	135.253547	-57.821977	135.253547	-0.085871	-62.713588
3.900000	-0.087249	-63.475672	-57.492361	133.755237	-57.492361	133.755237	-0.087243	-63.473595
3.950000	-0.088623	-64.235375	-57.173674	132.256581	-57.173674	132.256581	-0.088618	-64.233318
4.000000	-0.090026	-64.992232	-56.855416	130.755139	-56.855416	130.755139	-0.090021	-64.990198
4.050000	-0.091435	-65.748521	-56.546314	129.253141	-56.546314	129.253141	-0.091430	-65.746509
4.100000	-0.092870	-66.502243	-56.238729	127.749162	-56.238729	127.749162	-0.092865	-66.500257
4.150000	-0.094315	-67.255111	-55.938733	126.244523	-55.938733	126.244523	-0.094310	-67.253151
4.200000	-0.095785	-68.005698	-55.641201	124.738535	-55.641201	124.738535	-0.095780	-68.003765
4.250000	-0.097267	-68.755144	-55.349871	123.231873	-55.349871	123.231873	-0.097262	-68.753240
4.300000	-0.098772	-69.502595	-55.061823	121.724349	-55.061823	121.724349	-0.098768	-69.500721
4.350000	-0.100294	-70.248621	-54.778753	120.216210	-54.778753	120.216210	-0.100290	-70.246778
4.400000	-0.101837	-70.992941	-54.499669	118.707574	-54.499669	118.707574	-0.101832	-70.991131
4.450000	-0.103400	-71.735554	-54.224480	117.198443	-54.224480	117.198443	-0.103396	-71.733778
4.500000	-0.104982	-72.476749	-53.953884	115.689078	-53.953884	115.689078	-0.104978	-72.475008
4.550000	-0.106588	-73.215959	-53.686225	114.179388	-53.686225	114.179388	-0.106584	-73.214255
4.600000	-0.108210	-73.954040	-53.423678	112.669640	-53.423678	112.669640	-0.108206	-73.952373
4.650000	-0.109862	-74.689861	-53.163224	111.159779	-53.163224	111.159779	-0.109858	-74.688233
4.700000	-0.111525	-75.424839	-52.908320	109.649962	-52.908320	109.649962	-0.111522	-75.423251
4.750000	-0.113224	-76.157289	-52.654764	108.140278	-52.654764	108.140278	-0.113221	-76.155742
4.800000	-0.114931	-76.889180	-52.407130	106.630676	-52.407130	106.630676	-0.114928	-76.887676
4.850000	-0.116679	-77.618280	-52.160188	105.121484	-52.160188	105.121484	-0.116676	-77.616820
4.900000	-0.118431	-78.347103	-51.919477	103.612356	-51.919477	103.612356	-0.118428	-78.345687
4.950000	-0.120229	-79.072878	-51.678881	102.103940	-51.678881	102.103940	-0.120226	-79.071509
5.000000	-0.122027	-79.798653	-51.444770	100.595525	-51.444770	100.595525	-0.122025	-79.797331
5.050000	-0.123878	-80.521132	-51.210270	99.088144	-51.210270	99.088144	-0.123876	-80.519858
5.100000	-0.125729	-81.243610	-50.981935	97.580762	-50.981935	97.580762	-0.125727	-81.242386
5.150000	-0.127629	-81.963096	-50.753821	96.074545	-50.753821	96.074545	-0.127628	-81.961923
5.200000	-0.129535	-82.682310	-50.531046	94.568433	-50.531046	94.568433	-0.129533	-82.681189
5.250000	-0.131486	-83.398833	-50.309033	93.063558	-50.309033	93.063558	-0.131485	-83.397765
5.300000	-0.133448	-84.114818	-50.091615	91.558930	-50.091615	91.558930	-0.133446	-84.113804
5.350000	-0.135452	-84.828409	-49.875437	90.055562	-49.875437	90.055562	-0.135451	-84.827451
5.400000	-0.137472	-85.541203	-49.663185	88.552613	-49.663185	88.552613	-0.137471	-85.540301
5.450000	-0.139530	-86.251898	-49.452593	87.050904	-49.452593	87.050904	-0.139530	-86.251053
5.500000	-0.141609	-86.961542	-49.245325	85.549815	-49.245325	85.549815	-0.141609	-86.960756
5.550000	-0.143724	-87.669376	-49.040086	84.049906	-49.040086	84.049906	-0.143724	-87.668650
5.600000	-0.145865	-88.375917	-48.837631	82.550840	-48.837631	82.550840	-0.145865	-88.375251
5.650000	-0.148037	-89.080929	-48.637529	81.052861	-48.637529	81.052861	-0.148037	-89.080325
5.700000	-0.150241	-89.784413	-48.439724	79.555971	-48.439724	79.555971	-0.150241	-89.783872
5.750000	-0.152471	-90.486645	-48.244553	78.060045	-48.244553	78.060045	-0.152472	-90.486168
5.800000	-0.154740	-91.187123	-48.051245	76.565469	-48.051245	76.565469	-0.154741	-91.186711
5.850000	-0.157032	-91.886618	-47.860813	75.071707	-47.860813	75.071707	-0.157033	-91.886271
5.900000	-0.159367	-92.584144	-47.671856	73.579575	-47.671856	73.579575	-0.159368	-92.583865
5.950000	-0.161720	-93.280947	-47.485981	72.088083	-47.485981	72.088083	-0.161722	-93.280735
6.000000	-0.164124	-93.975578	-47.301237	70.598512	-47.301237	70.598512	-0.164126	-93.975435
6.050000	-0.166541	-94.669737	-47.119750	69.109388	-47.119750	69.109388	-0.166543	-94.669663
6.100000	-0.169015	-95.361532	-46.939087	67.622490	-46.939087	67.622490	-0.169017	-95.361529
6.150000	-0.171496	-96.053095	-46.761828	66.135823	-46.761828	66.135823	-0.171499	-96.053164
6.200000	-0.174043	-96.742116	-46.585121	64.651699	-46.585121	64.651699	-0.174045	-96.742257
6.250000	-0.176590	-97.431137	-46.411937	63.167575	-46.411937	63.167575	-0.176593	-97.431351
6.300000	-0.179210	-98.117448	-46.239067	61.686320	-46.239067	61.686320	-0.179213	-98.117736
6.350000	-0.181831	-98.803758	-46.069570	60.205064	-46.069570	60.205064	-0.181835	-98.804121
6.400000	-0.184521	-99.487647	-45.900670	58.726518	-45.900670	58.726518	-0.184524	-99.488086
6.450000	-0.187217	-100.171315	-45.734754	57.248218	-45.734754	57.248218	-0.187221	-100.171830
6.500000	-0.189978	-100.852838	-45.569686	55.772449	-45.569686	55.772449	-0.189982	-100.853432
6.550000	-0.192751	-101.533933	-45.407251	54.297185	-45.407251	54.297185	-0.192755	-101.534605
6.600000	-0.195584	-102.213152	-45.245885	52.824255	-45.245885	52.824255	-0.195588	-102.213903
6.650000	-0.198436	-102.891745	-45.086835	51.352104	-45.086835	51.352104	-0.198441	-102.892576
6.700000	-0.201342	-103.568720	-44.929048	49.882072	-44.929048	49.882072	-0.201347	-103.569631
6.750000	-0.204275	-104.244886	-44.773291	48.413102	-44.773291	48.413102	-0.204280	-104.245879
6.800000	-0.207256	-104.919681	-44.618967	46.946024	-44.618967	46.946024	-0.207261	-104.920756
6.850000	-0.210271	-105.593497	-44.466416	45.480298	-44.466416	45.480298	-0.210277	-105.594654
6.900000	-0.213328	-106.266177	-44.315444	44.016225	-44.315444	44.016225	-0.213334	-106.267417
6.950000	-0.216427	-106.937720	-44.166016	42.553805	-44.166016	42.553805	-0.216433	-106.939045
7.000000	-0.219562	-107.608351	-44.018292	41.092784	-44.018292	41.092784	-0.219568	-107.609760
7.050000	-0.222746	-108.277705	-43.871906	39.633723	-43.871906	39.633723	-0.222753	-108.279199
7.100000	-0.225960	-108.946355	-43.727331	38.175799	-43.727331	38.175799	-0.225966	-108.947935
7.150000	-0.229231	-109.613601	-43.583913	36.720149	-43.583913	36.720149	-0.229238	-109.615267
7.200000	-0.232525	-110.280341	-43.442392	35.265363	-43.442392	35.265363	-0.232532	-110.282094
7.250000	-0.235884	-110.945564	-43.301868	33.813170	-43.301868	33.813170	-0.235892	-110.947405
7.300000	-0.239260	-111.610465	-43.163313	32.361560	-43.163313	32.361560	-0.239267	-111.612393
7.350000	-0.242709	-112.273754	-43.025614	30.912868	-43.025614	30.912868	-0.242717	-112.275771
7.400000	-0.246167	-112.936889	-42.889939	29.464470	-42.889939	29.464470	-0.246175	-112.938995
7.450000	-0.249708	-113.598333	-42.754999	28.019316	-42.754999	28.019316	-0.249716	-113.600528
7.500000	-0.253250	-114.259777	-42.622124	26.574163	-42.622124	26.574163	-0.253259	-114.262061
7.550000	-0.256884	-114.919467	-42.489881	25.132585	-42.489881	25.132585	-0.256893	-114.921842
7.600000	-0.260519	-115.579158	-42.359621	23.691007	-42.359621	23.691007	-0.260528	-115.581622
7.650000	-0.264239	-116.237327	-42.230122	22.252737	-42.230122	22.252737	-0.264249	-116.239882
7.700000	-0.267969	-116.895358	-42.102422	20.814767	-42.102422	20.814767	-0.267979	-116.898004
7.750000	-0.271777	-117.552085	-41.975594	19.379829	-41.975594	19.379829	-0.271787	-117.554823
7.800000	-0.275602	-118.208552	-41.850398	17.945498	-41.850398	17.945498	-0.275612	-118.211381
7.850000	-0.279499	-118.863919	-41.726171	16.513915	-41.726171	16.513915	-0.279510	-118.866840
7.900000	-0.283421	-119.518920	-41.603430	15.083248	-41.603430	15.083248	-0.283432	-119.521933
7.950000	-0.287408	-120.173010	-41.481738	13.655040	-41.481738	13.655040	-0.287419	-120.176114
8.000000	-0.291428	-120.826645	-41.361401	12.228063	-41.361401	12.228063	-0.291440	-120.829841
8.050000	-0.295506	-121.479541	-41.242181	10.803250	-41.242181	10.803250	-0.295518	-121.482830
8.100000	-0.299626	-122.131911	-41.124204	9.379983	-41.124204	9.379983	-0.299638	-122.135293
8.150000	-0.303796	-122.783701	-41.007396	7.958581	-41.007396	7.958581	-0.303808	-122.787175
8.200000	-0.308016	-123.434911	-40.891733	6.539045	-40.891733	6.539045	-0.308029	-123.438477
8.250000	-0.312279	-124.085681	-40.777282	5.121070	-40.777282	5.121070	-0.312292	-124.089339
8.300000	-0.316601	-124.735836	-40.663892	3.705282	-40.663892	3.705282	-0.316615	-124.739586
8.350000	-0.320958	-125.385675	-40.551742	2.290748	-40.551742	2.290748	-0.320972	-125.389518
8.400000	-0.325383	-126.034883	-40.440586	0.878723	-40.440586	0.878723	-0.325398	-126.038818
8.450000	-0.329835	-126.683883	-40.330687	-0.532358	-40.330687	-0.532358	-0.329850	-126.687909
8.500000	-0.334364	-127.332254	-40.221727	-1.940605	-40.221727	-1.940605	-0.334379	-127.336373
8.550000	-0.338912	-127.980506	-40.114032	-3.348221	-40.114032	-3.348221	-0.338927	-127.984716
8.600000	-0.343545	-128.628153	-40.007233	-4.752678	-40.007233	-4.752678	-0.343561	-128.632454
8.650000	-0.348189	-129.275750	-39.901694	-6.156819	-39.901694	-6.156819	-0.348205	-129.280142
8.700000	-0.352928	-129.922788	-39.797023	-7.557475	-39.797023	-7.557475	-0.352944	-129.927270
8.750000	-0.357670	-130.569825	-39.693598	-8.958131	-39.693598	-8.958131	-0.357686	-130.574399
8.800000	-0.362515	-131.216370	-39.591024	-10.354976	-39.591024	-10.354976	-0.362532	-131.221033
8.850000	-0.367363	-131.862914	-39.489647	-11.751820	-39.489647	-11.751820	-0.367380	-131.867667
8.900000	-0.372307	-132.509115	-39.389165	-13.145161	-39.389165	-13.145161	-0.372324	-132.513956
8.950000	-0.377263	-133.155285	-39.289809	-14.538184	-39.289809	-14.538184	-0.377280	-133.160215
9.000000	-0.382306	-133.801243	-39.191382	-15.928014	-39.191382	-15.928014	-0.382323	-133.806261
9.050000	-0.387369	-134.447159	-39.094019	-17.317206	-39.094019	-17.317206	-0.387386	-134.452265
9.100000	-0.392511	-135.092978	-38.997611	-18.703518	-38.997611	-18.703518	-0.392528	-135.098170
9.150000	-0.397682	-135.738764	-38.902219	-20.088869	-38.902219	-20.088869	-0.397700	-135.744042
9.200000	-0.402925	-136.384547	-38.807795	-21.471654	-38.807795	-21.471654	-0.402942	-136.389910
9.250000	-0.408205	-137.030328	-38.714352	-22.853155	-38.714352	-22.853155	-0.408222	-137.035776
9.300000	-0.413548	-137.676182	-38.621879	-24.232404	-38.621879	-24.232404	-0.413565	-137.681713
9.350000	-0.418937	-138.322087	-38.530365	-25.610045	-38.530365	-25.610045	-0.418954	-138.327701
9.400000	-0.424380	-138.968119	-38.439815	-26.985750	-38.439815	-26.985750	-0.424397	-138.973816
9.450000	-0.429878	-139.614278	-38.350210	-28.359519	-38.350210	-28.359519	-0.429895	-139.620056
9.500000	-0.435422	-140.260599	-38.261554	-29.731670	-38.261554	-29.731670	-0.435438	-140.266457
9.550000	-0.441029	-140.907145	-38.173841	-31.101555	-38.173841	-31.101555	-0.441045	-140.913082
9.600000	-0.446674	-141.553866	-38.087053	-32.470141	-38.087053	-32.470141	-0.446690	-141.559881
9.650000	-0.452390	-142.200936	-38.001218	-33.836128	-38.001218	-33.836128	-0.452405	-142.207028
9.700000	-0.458136	-142.848171	-37.916273	-35.201136	-37.916273	-35.201136	-0.458150	-142.854339
9.750000	-0.463961	-143.495902	-37.832300	-36.563209	-37.832300	-36.563209	-0.463975	-143.502145
9.800000	-0.469807	-144.143767	-37.749176	-37.924626	-37.749176	-37.924626	-0.469820	-144.150084
9.850000	-0.475741	-144.792301	-37.667054	-39.282765	-37.667054	-39.282765	-0.475754	-144.798689
9.900000	-0.481687	-145.440914	-37.585729	-40.640575	-37.585729	-40.640575	-0.481699	-145.447374
9.950000	-0.487729	-146.090395	-37.505447	-41.994759	-37.505447	-41.994759	-0.487740	-146.096923
10.000000	-0.493775	-146.739876	-37.425901	-43.348943	-37.425901	-43.348943	-0.493785	-146.746473
