! freq	dB(S11)	phase(S11)	dB(S12)	phase(S12)	
!     	dB(S21)	phase(S21)	dB(S22)	phase(S22)	
!S-par simulation data
#  GHz  S  DB  R 50
0.000000	0.000000	-0.000000	-367.741635	180.000000	-367.741635	180.000000	-0.000000	-0.000000
0.050000	-0.000099	-0.846741	-90.398872	-72.921210	-90.398872	-72.921210	-0.000106	-1.007449
0.100000	-0.000391	-1.693259	-83.099366	-47.363757	-83.099366	-47.363757	-0.000418	-2.014853
0.150000	-0.000868	-2.539344	-79.808972	-9.500916	-79.808972	-9.500916	-0.000924	-3.022151
0.200000	-0.001512	-3.384818	-80.183332	22.598467	-80.183332	22.598467	-0.001605	-4.029265
0.250000	-0.002314	-4.229475	-81.627332	39.869580	-81.627332	39.869580	-0.002449	-5.036068
0.300000	-0.003240	-5.073264	-82.881606	49.618076	-82.881606	49.618076	-0.003423	-6.042465
0.350000	-0.004273	-5.916064	-83.813167	55.309782	-83.813167	55.309782	-0.004513	-7.048317
0.400000	-0.005394	-6.757813	-84.480027	58.933092	-84.480027	58.933092	-0.005701	-8.053497
0.450000	-0.006580	-7.598479	-84.960378	61.407658	-84.960378	61.407658	-0.006971	-9.057888
0.500000	-0.007815	-8.438051	-85.315020	63.203759	-85.315020	63.203759	-0.008310	-10.061385
0.550000	-0.009082	-9.276533	-85.588272	64.589466	-85.588272	64.589466	-0.009703	-11.063898
0.600000	-0.010368	-10.113943	-85.812534	65.734169	-85.812534	65.734169	-0.011141	-12.065355
0.650000	-0.011662	-10.950307	-86.011937	66.756447	-86.011937	66.756447	-0.012613	-13.065696
0.700000	-0.012955	-11.785652	-86.204854	67.748646	-86.204854	67.748646	-0.014110	-14.064874
0.750000	-0.014240	-12.620008	-86.405582	68.791003	-86.405582	68.791003	-0.015624	-15.062853
0.800000	-0.015513	-13.453402	-86.625424	69.960964	-86.625424	69.960964	-0.017148	-16.059607
0.850000	-0.016772	-14.285858	-86.873307	71.340402	-86.873307	71.340402	-0.018676	-17.055114
0.900000	-0.018013	-15.117398	-87.155957	73.022154	-87.155957	73.022154	-0.020203	-18.049360
0.950000	-0.019235	-15.948036	-87.477576	75.116597	-87.477576	75.116597	-0.021725	-19.042333
1.000000	-0.020440	-16.777784	-87.838814	77.758251	-87.838814	77.758251	-0.023239	-20.034023
1.050000	-0.021627	-17.606650	-88.234708	81.111177	-88.234708	81.111177	-0.024741	-21.024423
1.100000	-0.022796	-18.434637	-88.651124	85.369345	-88.651124	85.369345	-0.026230	-22.013525
1.150000	-0.023949	-19.261742	-89.059400	90.743304	-89.059400	90.743304	-0.027704	-23.001324
1.200000	-0.025087	-20.087963	-89.409997	97.417358	-89.409997	97.417358	-0.029162	-23.987811
1.250000	-0.026212	-20.913293	-89.629110	105.457984	-89.629110	105.457984	-0.030603	-24.972978
1.300000	-0.027324	-21.737681	-89.613926	114.700185	-89.613926	114.700185	-0.032026	-25.956759
1.350000	-0.028424	-22.561154	-89.298286	124.500253	-89.298286	124.500253	-0.033433	-26.939200
1.400000	-0.029516	-23.383698	-88.666335	134.062765	-88.666335	134.062765	-0.034823	-27.920290
1.450000	-0.030598	-24.205299	-87.767724	142.689383	-87.767724	142.689383	-0.036197	-28.900016
1.500000	-0.031674	-25.025940	-86.688431	149.994775	-86.688431	149.994775	-0.037556	-29.878366
1.550000	-0.032743	-25.845603	-85.513434	155.905568	-85.513434	155.905568	-0.038901	-30.855325
1.600000	-0.033808	-26.664270	-84.306765	160.540871	-84.306765	160.540871	-0.040232	-31.830878
1.650000	-0.034868	-27.481924	-83.109145	164.095339	-83.109145	164.095339	-0.041551	-32.805008
1.700000	-0.035924	-28.298545	-81.943375	166.768778	-81.943375	166.768778	-0.042858	-33.777700
1.750000	-0.036979	-29.114114	-80.820597	168.736051	-80.820597	168.736051	-0.044156	-34.748935
1.800000	-0.038031	-29.928613	-79.745067	170.139656	-79.745067	170.139656	-0.045444	-35.718697
1.850000	-0.039083	-30.742022	-78.717218	171.092004	-78.717218	171.092004	-0.046724	-36.686968
1.900000	-0.040134	-31.554322	-77.735500	171.680650	-77.735500	171.680650	-0.047997	-37.653729
1.950000	-0.041185	-32.365495	-76.797420	171.973639	-76.797420	171.973639	-0.049264	-38.618962
2.000000	-0.042236	-33.175523	-75.900129	172.024046	-75.900129	172.024046	-0.050526	-39.582650
2.050000	-0.043289	-33.984386	-75.040725	171.873546	-75.040725	171.873546	-0.051785	-40.544773
2.100000	-0.044344	-34.792068	-74.216414	171.555131	-74.216414	171.555131	-0.053041	-41.505315
2.150000	-0.045400	-35.598552	-73.424589	171.095157	-73.424589	171.095157	-0.054295	-42.464258
2.200000	-0.046459	-36.403819	-72.662848	170.514866	-72.662848	170.514866	-0.055548	-43.421585
2.250000	-0.047521	-37.207853	-71.929009	169.831535	-71.929009	169.831535	-0.056802	-44.377278
2.300000	-0.048586	-38.010640	-71.221089	169.059338	-71.221089	169.059338	-0.058056	-45.331322
2.350000	-0.049655	-38.812162	-70.537299	168.209998	-70.537299	168.209998	-0.059312	-46.283700
2.400000	-0.050727	-39.612404	-69.876021	167.293289	-69.876021	167.293289	-0.060571	-47.234398
2.450000	-0.051804	-40.411353	-69.235791	166.317420	-69.235791	166.317420	-0.061834	-48.183400
2.500000	-0.052886	-41.208995	-68.615284	165.289334	-68.615284	165.289334	-0.063101	-49.130693
2.550000	-0.053973	-42.005257	-68.012293	164.213167	-68.012293	164.213167	-0.064373	-50.076189
2.600000	-0.055065	-42.800183	-67.426841	163.096149	-67.426841	163.096149	-0.065651	-51.019948
2.650000	-0.056162	-43.593763	-66.857919	161.942565	-66.857919	161.942565	-0.066935	-51.961960
2.700000	-0.057266	-44.385983	-66.304608	160.756133	-66.304608	160.756133	-0.068226	-52.902212
2.750000	-0.058376	-45.176833	-65.766067	159.540099	-65.766067	159.540099	-0.069526	-53.840697
2.800000	-0.059493	-45.966302	-65.241522	158.297308	-65.241522	158.297308	-0.070834	-54.777403
2.850000	-0.060617	-46.754381	-64.730267	157.030265	-64.730267	157.030265	-0.072150	-55.712323
2.900000	-0.061748	-47.541060	-64.231646	155.741184	-64.231646	155.741184	-0.073477	-56.645449
2.950000	-0.062887	-48.326331	-63.745058	154.432032	-63.745058	154.432032	-0.074814	-57.576775
3.000000	-0.064034	-49.110186	-63.269944	153.104559	-63.269944	153.104559	-0.076162	-58.506294
3.050000	-0.065189	-49.892617	-62.805786	151.760334	-62.805786	151.760334	-0.077521	-59.434001
3.100000	-0.066353	-50.673619	-62.352103	150.400759	-62.352103	150.400759	-0.078892	-60.359894
3.150000	-0.067527	-51.453185	-61.908448	149.027100	-61.908448	149.027100	-0.080275	-61.283967
3.200000	-0.068710	-52.231310	-61.474402	147.640496	-61.474402	147.640496	-0.081672	-62.206221
3.250000	-0.069903	-53.007991	-61.049574	146.241981	-61.049574	146.241981	-0.083082	-63.126652
3.300000	-0.071106	-53.783222	-60.633598	144.832490	-60.633598	144.832490	-0.084506	-64.045260
3.350000	-0.072321	-54.557003	-60.226131	143.412873	-60.226131	143.412873	-0.085944	-64.962047
3.400000	-0.073546	-55.329330	-59.826850	141.983906	-59.826850	141.983906	-0.087398	-65.877013
3.450000	-0.074783	-56.100204	-59.435451	140.546297	-59.435451	140.546297	-0.088867	-66.790161
3.500000	-0.076033	-56.869623	-59.051647	139.100690	-59.051647	139.100690	-0.090353	-67.701493
3.550000	-0.077294	-57.637589	-58.675168	137.647678	-58.675168	137.647678	-0.091855	-68.611015
3.600000	-0.078569	-58.404104	-58.305757	136.187801	-58.305757	136.187801	-0.093374	-69.518731
3.650000	-0.079857	-59.169171	-57.943173	134.721556	-57.943173	134.721556	-0.094911	-70.424647
3.700000	-0.081160	-59.932795	-57.587184	133.249397	-57.587184	133.249397	-0.096466	-71.328769
3.750000	-0.082476	-60.694979	-57.237572	131.771742	-57.237572	131.771742	-0.098039	-72.231107
3.800000	-0.083808	-61.455671	-56.893808	130.288764	-56.893808	130.288764	-0.099633	-73.131590
3.850000	-0.085156	-62.214940	-56.556038	128.801049	-56.556038	128.801049	-0.101246	-74.030308
3.900000	-0.086519	-62.972797	-56.224070	127.308910	-56.224070	127.308910	-0.102879	-74.927269
3.950000	-0.087899	-63.729254	-55.897721	125.812631	-55.897721	125.812631	-0.104533	-75.822487
4.000000	-0.089296	-64.484325	-55.576816	124.312471	-55.576816	124.312471	-0.106208	-76.715972
4.050000	-0.090711	-65.238024	-55.261188	122.808662	-55.261188	122.808662	-0.107905	-77.607738
4.100000	-0.092144	-65.990371	-54.950675	121.301409	-54.950675	121.301409	-0.109624	-78.497799
4.150000	-0.093596	-66.741386	-54.645122	119.790893	-54.645122	119.790893	-0.111365	-79.386171
4.200000	-0.095068	-67.491093	-54.344379	118.277271	-54.344379	118.277271	-0.113130	-80.272868
4.250000	-0.096560	-68.239520	-54.048301	116.760671	-54.048301	116.760671	-0.114918	-81.157907
4.300000	-0.098073	-68.986695	-53.756748	115.241197	-53.756748	115.241197	-0.116731	-82.041307
4.350000	-0.099608	-69.732656	-53.469583	113.718927	-53.469583	113.718927	-0.118568	-82.923084
4.400000	-0.101165	-70.477440	-53.186674	112.193909	-53.186674	112.193909	-0.120431	-83.803259
4.450000	-0.102747	-71.221095	-52.907890	110.666158	-52.907890	110.666158	-0.122319	-84.681852
4.500000	-0.104353	-71.963671	-52.633105	109.135659	-52.633105	109.135659	-0.124234	-85.558883
4.550000	-0.105985	-72.705230	-52.362191	107.602355	-52.362191	107.602355	-0.126175	-86.434374
4.600000	-0.107645	-73.445838	-52.095023	106.066151	-52.095023	106.066151	-0.128144	-87.308348
4.650000	-0.109333	-74.185576	-51.831478	104.526899	-51.831478	104.526899	-0.130141	-88.180828
4.700000	-0.111052	-74.924537	-51.571430	102.984396	-51.571430	102.984396	-0.132166	-89.051839
4.750000	-0.112804	-75.662828	-51.314751	101.438373	-51.314751	101.438373	-0.134220	-89.921406
4.800000	-0.114592	-76.400575	-51.061312	99.888480	-51.061312	99.888480	-0.136303	-90.789555
4.850000	-0.116417	-77.137930	-50.810979	98.334268	-50.810979	98.334268	-0.138416	-91.656313
4.900000	-0.118285	-77.875069	-50.563611	96.775173	-50.563611	96.775173	-0.140560	-92.521708
4.950000	-0.120200	-78.612209	-50.319060	95.210477	-50.319060	95.210477	-0.142735	-93.385768
5.000000	-0.122167	-79.349609	-50.077163	93.639280	-50.077163	93.639280	-0.144942	-94.248523
5.050000	-0.124215	-80.087865	-49.836497	92.057784	-49.836497	92.057784	-0.147190	-95.109637
5.100000	-0.126318	-80.827021	-49.599303	90.469055	-49.599303	90.469055	-0.149462	-95.969887
5.150000	-0.128486	-81.567246	-49.364921	88.871725	-49.364921	88.871725	-0.151761	-96.829109
5.200000	-0.130804	-82.310635	-49.130405	87.254650	-49.130405	87.254650	-0.154108	-97.686677
5.250000	-0.133222	-83.056438	-48.898651	85.624390	-48.898651	85.624390	-0.156479	-98.543448
5.300000	-0.135789	-83.805837	-48.668247	83.974890	-48.668247	83.974890	-0.158885	-99.399131
5.350000	-0.138656	-84.562895	-48.436712	82.288130	-48.436712	82.288130	-0.161335	-100.253457
5.400000	-0.141763	-85.325870	-48.206786	80.573722	-48.206786	80.573722	-0.163810	-101.107061
5.450000	-0.145312	-86.099730	-47.975517	78.809225	-47.975517	78.809225	-0.166325	-101.959556
5.500000	-0.149727	-86.892813	-47.740462	76.958528	-47.740462	76.958528	-0.168883	-102.810980
5.550000	-0.154948	-87.702002	-47.504610	75.035560	-47.504610	75.035560	-0.171466	-103.661763
5.600000	-0.162211	-88.549292	-47.260532	72.941556	-47.260532	72.941556	-0.174095	-104.511472
5.650000	-0.172004	-89.435728	-47.011383	70.668151	-47.011383	70.668151	-0.176751	-105.360594
5.700000	-0.189047	-90.416540	-46.746395	67.948116	-46.746395	67.948116	-0.179450	-106.208821
5.750000	-0.221913	-91.549880	-46.466524	64.448315	-46.466524	64.448315	-0.182185	-107.056413
5.800000	-0.301994	-92.977881	-46.195056	59.163623	-46.195056	59.163623	-0.184959	-107.903559
5.850000	-0.574449	-94.803855	-46.223938	48.830547	-46.223938	48.830547	-0.187831	-108.750767
5.900000	-1.319127	-92.574773	-49.816214	33.338263	-49.816214	33.338263	-0.191169	-109.596664
5.950000	-0.692315	-88.634505	-50.668779	73.276997	-50.668779	73.276997	-0.194091	-110.438612
6.000000	-0.355443	-90.309998	-48.114662	73.768487	-48.114662	73.768487	-0.196903	-111.282483
6.050000	-0.260019	-91.756966	-47.148567	70.459304	-47.148567	70.459304	-0.199840	-112.126381
6.100000	-0.223790	-92.900739	-46.612240	67.641142	-46.612240	67.641142	-0.202855	-112.969954
6.150000	-0.207733	-93.876808	-46.239330	65.258909	-46.239330	65.258909	-0.205933	-113.813195
6.200000	-0.199838	-94.761283	-45.941228	63.144818	-45.941228	63.144818	-0.209065	-114.656164
6.250000	-0.195696	-95.594116	-45.682200	61.189916	-45.682200	61.189916	-0.212244	-115.498941
6.300000	-0.194089	-96.385526	-45.451268	59.366886	-45.451268	59.366886	-0.215479	-116.341555
6.350000	-0.193683	-97.154109	-45.236277	57.618225	-45.236277	57.618225	-0.218760	-117.184100
6.400000	-0.194227	-97.902300	-45.034235	55.937124	-45.034235	55.937124	-0.222099	-118.026647
6.450000	-0.195284	-98.638376	-44.840825	54.296670	-44.840825	54.296670	-0.225483	-118.869246
6.500000	-0.196796	-99.362552	-44.654875	52.696815	-44.654875	52.696815	-0.228927	-119.712025
6.550000	-0.198560	-100.079669	-44.474409	51.121410	-44.474409	51.121410	-0.232416	-120.555005
6.600000	-0.200543	-100.790486	-44.298840	49.568035	-44.298840	49.568035	-0.235950	-121.398220
6.650000	-0.202771	-101.493647	-44.127747	48.042155	-44.127747	48.042155	-0.239556	-122.241941
6.700000	-0.205159	-102.191588	-43.960230	46.535897	-43.960230	46.535897	-0.243227	-123.086284
6.750000	-0.207626	-102.886918	-43.796016	45.039449	-43.796016	45.039449	-0.246931	-123.930937
6.800000	-0.210220	-103.577971	-43.634693	43.560261	-43.634693	43.560261	-0.250707	-124.776471
6.850000	-0.212905	-104.265970	-43.476203	42.093401	-43.476203	42.093401	-0.254534	-125.622636
6.900000	-0.215675	-104.951071	-43.320172	40.639571	-43.320172	40.639571	-0.258426	-126.469806
6.950000	-0.218532	-105.633274	-43.166519	39.198773	-43.166519	39.198773	-0.262384	-127.317981
7.000000	-0.221449	-106.313492	-43.015096	37.768237	-43.015096	37.768237	-0.266399	-128.167232
7.050000	-0.224452	-106.990930	-42.865660	36.352069	-42.865660	36.352069	-0.270496	-129.017989
7.100000	-0.227498	-107.667021	-42.718332	34.944134	-42.718332	34.944134	-0.274643	-129.869831
7.150000	-0.230632	-108.340418	-42.572638	33.552668	-42.572638	33.552668	-0.278889	-130.723841
7.200000	-0.233797	-109.012939	-42.428992	32.167711	-42.428992	32.167711	-0.283179	-131.578863
7.250000	-0.237052	-109.682832	-42.286635	30.802286	-42.286635	30.802286	-0.287591	-132.436922
7.300000	-0.240328	-110.352210	-42.146309	29.441632	-42.146309	29.441632	-0.292035	-133.295819
7.350000	-0.243700	-111.019013	-42.006909	28.104837	-42.006909	28.104837	-0.296633	-134.158900
7.400000	-0.247082	-111.685585	-41.869560	26.770761	-41.869560	26.770761	-0.301251	-135.022500
7.450000	-0.250568	-112.349626	-41.732712	25.466599	-41.732712	25.466599	-0.306063	-135.891815
7.500000	-0.254055	-113.013667	-41.597987	24.162438	-41.597987	24.162438	-0.310878	-136.761130
7.550000	-0.257626	-113.675812	-41.463799	22.886199	-41.463799	22.886199	-0.315876	-137.636058
7.600000	-0.261250	-114.336823	-41.330543	21.630083	-41.330543	21.630083	-0.321009	-138.515157
7.650000	-0.264929	-114.996753	-41.198064	20.396117	-41.198064	20.396117	-0.326292	-139.398930
7.700000	-0.268663	-115.655648	-41.066182	19.186701	-41.066182	19.186701	-0.331743	-140.287961
7.750000	-0.272451	-116.313554	-40.934676	18.004682	-40.934676	18.004682	-0.337386	-141.182935
7.800000	-0.276294	-116.970513	-40.803278	16.853456	-40.803278	16.853456	-0.343250	-142.084663
7.850000	-0.280193	-117.626566	-40.671653	15.737091	-40.671653	15.737091	-0.349373	-142.994114
7.900000	-0.284149	-118.281751	-40.539378	14.660489	-40.539378	14.660489	-0.355803	-143.912460
7.950000	-0.288162	-118.936105	-40.405905	13.629601	-40.405905	13.629601	-0.362604	-144.841134
8.000000	-0.292235	-119.589660	-40.270518	12.651703	-40.270518	12.651703	-0.369861	-145.781911
8.050000	-0.296368	-120.242450	-40.132262	11.735759	-40.132262	11.735759	-0.377686	-146.737023
8.100000	-0.300564	-120.894503	-39.989838	10.892905	-39.989838	10.892905	-0.386239	-147.709317
8.150000	-0.304824	-121.545845	-39.841445	10.137082	-39.841445	10.137082	-0.395743	-148.702490
8.200000	-0.309152	-122.196498	-39.684533	9.485867	-39.684533	9.485867	-0.406521	-149.721432
8.250000	-0.313552	-122.846479	-39.515405	8.961521	-39.515405	8.961521	-0.419056	-150.772748
8.300000	-0.318027	-123.495793	-39.328557	8.592230	-39.328557	8.592230	-0.434094	-151.865576
8.350000	-0.322575	-124.144514	-39.120970	8.385576	-39.120970	8.385576	-0.452164	-153.004189
8.400000	-0.327225	-124.792443	-38.870558	8.437795	-38.870558	8.437795	-0.476322	-154.222878
8.450000	-0.331977	-125.439589	-38.560012	8.771724	-38.560012	8.771724	-0.509606	-155.542815
8.500000	-0.336848	-126.085786	-38.153392	9.425203	-38.153392	9.425203	-0.558744	-157.007891
8.550000	-0.341853	-126.730711	-37.593179	10.372545	-37.593179	10.372545	-0.636932	-158.682265
8.600000	-0.347003	-127.373558	-36.765333	11.374529	-36.765333	11.374529	-0.777667	-160.675150
8.650000	-0.352215	-128.012689	-35.507692	11.446674	-35.507692	11.446674	-1.063972	-163.057793
8.700000	-0.356950	-128.645204	-33.686387	7.558945	-33.686387	7.558945	-1.718862	-165.238857
8.750000	-0.359354	-129.274713	-31.878652	-6.285992	-31.878652	-6.285992	-2.908018	-162.114964
8.800000	-0.360177	-129.928292	-32.055919	-26.830847	-32.055919	-26.830847	-2.679796	-151.578407
8.850000	-0.364395	-130.594175	-33.794608	-37.992154	-33.794608	-37.992154	-1.571839	-150.361648
8.900000	-0.370304	-131.250646	-35.295528	-40.523290	-35.295528	-40.523290	-1.036938	-152.699672
8.950000	-0.376383	-131.900654	-36.252177	-39.930301	-36.252177	-39.930301	-0.804401	-154.994065
9.000000	-0.382420	-132.547656	-36.823082	-38.577949	-36.823082	-38.577949	-0.692982	-156.924088
9.050000	-0.388461	-133.193124	-37.162533	-37.175149	-37.162533	-37.175149	-0.634130	-158.586823
9.100000	-0.394580	-133.837552	-37.355988	-35.852173	-37.355988	-35.852173	-0.602179	-160.070910
9.150000	-0.400864	-134.480939	-37.445389	-34.549295	-37.445389	-34.549295	-0.586293	-161.433161
9.200000	-0.407368	-135.123199	-37.462218	-33.146486	-37.462218	-33.146486	-0.579641	-162.727455
9.250000	-0.414242	-135.763346	-37.386338	-31.437407	-37.386338	-31.437407	-0.581863	-163.972947
9.300000	-0.421568	-136.400165	-37.192328	-29.272418	-37.192328	-29.272418	-0.592445	-165.195372
9.350000	-0.429513	-137.029688	-36.765273	-26.490422	-36.765273	-26.490422	-0.616174	-166.406417
9.400000	-0.437813	-137.643129	-35.882769	-23.666680	-35.882769	-23.666680	-0.663959	-167.587676
9.450000	-0.443865	-138.225594	-34.318342	-23.896517	-34.318342	-23.896517	-0.752866	-168.567492
9.500000	-0.439201	-138.796959	-32.665080	-33.253859	-32.665080	-33.253859	-0.841350	-168.843598
9.550000	-0.428511	-139.465210	-32.550210	-47.632500	-32.550210	-47.632500	-0.777919	-168.924843
9.600000	-0.429122	-140.180253	-33.441851	-55.942057	-33.441851	-55.942057	-0.676688	-169.807179
9.650000	-0.435745	-140.870718	-34.241081	-59.197417	-34.241081	-59.197417	-0.625263	-170.972264
9.700000	-0.443373	-141.541436	-34.777497	-60.545970	-34.777497	-60.545970	-0.603140	-172.137864
9.750000	-0.450878	-142.201972	-35.115940	-61.288301	-35.115940	-61.288301	-0.594671	-173.265425
9.800000	-0.458112	-142.857565	-35.328178	-61.899699	-35.328178	-61.899699	-0.592668	-174.360814
9.850000	-0.465143	-143.510829	-35.465726	-62.527221	-35.465726	-62.527221	-0.593844	-175.435226
9.900000	-0.472009	-144.162754	-35.546480	-63.223897	-35.546480	-63.223897	-0.597127	-176.493219
9.950000	-0.478778	-144.814162	-35.593343	-63.992148	-35.593343	-63.992148	-0.601560	-177.541549
10.000000	-0.485485	-145.465403	-35.615824	-64.828136	-35.615824	-64.828136	-0.606786	-178.583376
