! freq	dB(S11)	phase(S11)	dB(S12)	phase(S12)	
!     	dB(S21)	phase(S21)	dB(S22)	phase(S22)	
!S-par simulation data
#  GHz  S  DB  R 50
0.000000	-151.587098	0.000000	0.000001	0.000000	0.000000	0.000000	-145.566498	0.000000
0.050000	-44.537191	-91.076211	-0.006067	-2.798850	-0.006067	-2.798850	-44.536615	-90.959721
0.100000	-38.692159	-94.432917	-0.011023	-5.559241	-0.011023	-5.559241	-38.690789	-94.107738
0.150000	-35.244832	-97.728779	-0.015712	-8.315121	-0.015712	-8.315121	-35.243464	-97.238568
0.200000	-32.799442	-100.870212	-0.020638	-11.066221	-0.020638	-11.066221	-32.796915	-100.226439
0.250000	-30.911546	-103.923932	-0.025657	-13.813469	-0.025657	-13.813469	-30.907670	-103.128404
0.300000	-29.380911	-106.923548	-0.030688	-16.557954	-0.030688	-16.557954	-29.376010	-105.973823
0.350000	-28.099420	-109.889305	-0.035725	-19.300591	-0.035725	-19.300591	-28.094073	-108.779765
0.400000	-27.002074	-112.833178	-0.040796	-22.041924	-0.040796	-22.041924	-26.996962	-111.556209
0.450000	-26.046740	-115.762161	-0.045937	-24.782224	-0.045937	-24.782224	-26.042563	-114.309706
0.500000	-25.204595	-118.679815	-0.051174	-27.521593	-0.051174	-27.521593	-25.202003	-117.045080
0.550000	-24.455164	-121.587342	-0.056525	-30.260050	-0.056525	-30.260050	-24.454657	-119.766176
0.600000	-23.783371	-124.484778	-0.061994	-32.997591	-0.061994	-32.997591	-23.785172	-122.476217
0.650000	-23.178534	-127.371716	-0.067582	-35.734185	-0.067582	-35.734185	-23.182501	-125.177546
0.700000	-22.632188	-130.248629	-0.073277	-38.469837	-0.073277	-38.469837	-22.637784	-127.872116
0.750000	-22.137381	-133.116952	-0.079062	-41.204595	-0.079062	-41.204595	-22.143795	-130.561259
0.800000	-21.688791	-135.978452	-0.084916	-43.938522	-0.084916	-43.938522	-21.695098	-133.245561
0.850000	-21.282037	-138.835024	-0.090817	-46.671717	-0.090817	-46.671717	-21.287361	-135.925133
0.900000	-20.913465	-141.688419	-0.096742	-49.404316	-0.096742	-49.404316	-20.917105	-138.599781
0.950000	-20.580181	-144.540106	-0.102663	-52.136496	-0.102663	-52.136496	-20.581686	-141.269160
1.000000	-20.279956	-147.391307	-0.108550	-54.868486	-0.108550	-54.868486	-20.279160	-143.932958
1.050000	-20.010066	-150.242996	-0.114370	-57.600569	-0.114370	-57.600569	-20.007078	-146.591299
1.100000	-19.768675	-153.095937	-0.120084	-60.333052	-0.120084	-60.333052	-19.763818	-149.244391
1.150000	-19.554963	-155.950868	-0.125634	-63.066287	-0.125634	-63.066287	-19.548718	-151.892443
1.200000	-19.365851	-158.808190	-0.130976	-65.800475	-0.130976	-65.800475	-19.358739	-154.536297
1.250000	-19.201352	-161.668566	-0.136032	-68.535808	-0.136032	-68.535808	-19.193937	-157.176125
1.300000	-19.061687	-164.532781	-0.140720	-71.272326	-0.140720	-71.272326	-19.054543	-159.812110
1.350000	-18.945078	-167.401283	-0.145028	-74.009793	-0.145028	-74.009793	-18.938704	-162.444711
1.400000	-18.850986	-170.274725	-0.148971	-76.748064	-0.148971	-76.748064	-18.845832	-165.074071
1.450000	-18.779009	-173.153839	-0.152597	-79.487208	-0.152597	-79.487208	-18.775483	-167.700243
1.500000	-18.728857	-176.039470	-0.155959	-82.227553	-0.155959	-82.227553	-18.727363	-170.323198
1.550000	-18.700309	-178.932613	-0.159093	-84.969608	-0.159093	-84.969608	-18.701322	-172.942841
1.600000	-18.693609	178.165428	-0.162009	-87.714011	-0.162009	-87.714011	-18.697931	-175.558920
1.650000	-18.707368	175.255985	-0.164711	-90.461276	-0.164711	-90.461276	-18.716965	-178.171263
1.700000	-18.739835	172.375266	-0.167195	-93.211866	-0.167195	-93.211866	-18.758559	179.220404
1.750000	-18.810866	169.530171	-0.169456	-95.966177	-0.169456	-95.966177	-18.823023	176.616434
1.800000	-18.903921	166.554507	-0.171489	-98.724634	-0.171489	-98.724634	-18.911218	174.017363
1.850000	-19.014876	163.582965	-0.173296	-101.487603	-0.173296	-101.487603	-19.023976	171.423826
1.900000	-19.151031	160.607873	-0.174880	-104.255488	-0.174880	-104.255488	-19.162608	168.836716
1.950000	-19.314283	157.620555	-0.176253	-107.028636	-0.176253	-107.028636	-19.328420	166.257113
2.000000	-19.505992	154.616818	-0.177432	-109.807320	-0.177432	-109.807320	-19.522725	163.686290
2.050000	-19.728034	151.593346	-0.178435	-112.591857	-0.178435	-112.591857	-19.747424	161.125961
2.100000	-19.982661	148.546836	-0.179285	-115.382558	-0.179285	-115.382558	-20.004811	158.578320
2.150000	-20.272592	145.473588	-0.180006	-118.179724	-0.180006	-118.179724	-20.297654	156.046184
2.200000	-20.601124	142.369208	-0.180628	-120.983647	-0.180628	-120.983647	-20.629308	153.533199
2.250000	-20.972273	139.228287	-0.181182	-123.794609	-0.181182	-123.794609	-21.003863	151.044115
2.300000	-21.390971	136.043985	-0.181701	-126.612883	-0.181701	-126.612883	-21.426342	148.585200
2.350000	-21.863339	132.807441	-0.182222	-129.438725	-0.182222	-129.438725	-21.902983	146.164830
2.400000	-22.397066	129.506890	-0.182783	-132.272382	-0.182783	-132.272382	-22.441628	143.794400
2.450000	-23.001963	126.126285	-0.183426	-135.114086	-0.183426	-135.114086	-23.052297	141.489733
2.500000	-23.690783	122.643095	-0.184193	-137.964053	-0.184193	-137.964053	-23.748032	139.273368
2.550000	-24.481354	119.020510	-0.185134	-140.822671	-0.185134	-140.822671	-24.547087	137.182209
2.600000	-25.396072	115.209459	-0.186293	-143.689943	-0.186293	-143.689943	-25.472481	135.266734
2.650000	-26.467636	111.127563	-0.187717	-146.566035	-0.187717	-146.566035	-26.557904	133.611770
2.700000	-27.744094	106.633593	-0.189455	-149.451091	-0.189455	-149.451091	-27.853048	132.363929
2.750000	-29.299617	101.464094	-0.191559	-152.345242	-0.191559	-152.345242	-29.434996	131.799245
2.800000	-31.255541	95.068140	-0.194078	-155.248595	-0.194078	-155.248595	-31.430585	132.501845
2.850000	-33.820993	86.092954	-0.197064	-158.161239	-0.197064	-158.161239	-34.059454	135.930253
2.900000	-37.326304	70.398591	-0.200570	-161.083244	-0.200570	-161.083244	-37.660493	146.646562
2.950000	-41.406950	34.549726	-0.204648	-164.014661	-0.204648	-164.014661	-41.670088	179.077921
3.000000	-40.755754	-22.578041	-0.209350	-166.955519	-0.209350	-166.955519	-40.459201	-129.989426
3.050000	-36.280072	-53.863080	-0.214728	-169.905829	-0.214728	-169.905829	-35.966107	-106.757603
3.100000	-32.679574	-67.787647	-0.220835	-172.865582	-0.220835	-172.865582	-32.441220	-99.463905
3.150000	-29.968697	-76.159920	-0.227731	-175.834851	-0.227731	-175.834851	-29.781395	-97.297881
3.200000	-27.826132	-82.343080	-0.235467	-178.813589	-0.235467	-178.813589	-27.672109	-97.198547
3.250000	-26.059850	-87.469335	-0.244086	178.198374	-0.244086	178.198374	-25.928715	-98.117531
3.300000	-24.557528	-92.004514	-0.253634	175.201119	-0.253634	175.201119	-24.442979	-99.618181
3.350000	-23.249967	-96.179492	-0.264159	172.194748	-0.264159	172.194748	-23.147959	-101.482038
3.400000	-22.091932	-100.120851	-0.275707	169.179374	-0.275707	169.179374	-21.999734	-103.588420
3.450000	-21.052368	-103.903495	-0.288321	166.155128	-0.288321	166.155128	-20.968063	-105.865430
3.500000	-20.109085	-107.574452	-0.302044	163.122154	-0.302044	163.122154	-20.031276	-108.267628
3.550000	-19.245695	-111.164666	-0.316916	160.080609	-0.316916	160.080609	-19.173340	-110.764904
3.600000	-18.449759	-114.695281	-0.332976	157.030662	-0.332976	157.030662	-18.382061	-113.336511
3.650000	-17.711616	-118.181199	-0.350260	153.972491	-0.350260	153.972491	-17.647954	-115.967683
3.700000	-17.023611	-121.633192	-0.368803	150.906288	-0.368803	150.906288	-16.963493	-118.647614
3.750000	-16.379576	-125.059210	-0.388636	147.832249	-0.388636	147.832249	-16.322608	-121.368205
3.800000	-15.774358	-128.464896	-0.409820	144.750420	-0.409820	144.750420	-15.720222	-124.123895
3.850000	-15.203919	-131.855281	-0.432354	141.661187	-0.432354	141.661187	-15.152355	-126.909046
3.900000	-14.664749	-135.233815	-0.456265	138.564767	-0.456265	138.564767	-14.615540	-129.719879
3.950000	-14.153871	-138.603182	-0.481577	135.461388	-0.481577	135.461388	-14.106841	-132.553348
4.000000	-13.668743	-141.965484	-0.508310	132.351277	-0.508310	132.351277	-13.623744	-135.406965
4.050000	-13.207172	-145.322371	-0.536485	129.234669	-0.536485	129.234669	-13.164081	-138.278674
4.100000	-12.767252	-148.675137	-0.566120	126.111801	-0.566120	126.111801	-12.725969	-141.166756
4.150000	-12.347318	-152.024797	-0.597229	122.982912	-0.597229	122.982912	-12.307758	-144.069759
4.200000	-11.945903	-155.372137	-0.629827	119.848245	-0.629827	119.848245	-11.907998	-146.986447
4.250000	-11.561708	-158.717762	-0.663924	116.708045	-0.663924	116.708045	-11.525402	-149.915755
4.300000	-11.193578	-162.062123	-0.699531	113.562559	-0.699531	113.562559	-11.158826	-152.856759
4.350000	-10.840480	-165.405550	-0.736654	110.412033	-0.736654	110.412033	-10.807247	-155.808649
4.400000	-10.501492	-168.748260	-0.775314	107.256671	-0.775314	107.256671	-10.469751	-158.770817
4.450000	-10.175785	-172.090390	-0.815514	104.096731	-0.815514	104.096731	-10.145517	-161.742607
4.500000	-9.862598	-175.432005	-0.857239	100.932520	-0.857239	100.932520	-9.833789	-164.723343
4.550000	-9.561243	-178.773098	-0.900489	97.764293	-0.900489	97.764293	-9.533884	-167.712515
4.600000	-9.271095	177.886394	-0.945259	94.592307	-0.945259	94.592307	-9.245180	-170.709655
4.650000	-8.991584	174.546579	-0.991546	91.416822	-0.991546	91.416822	-8.967111	-173.714333
4.700000	-8.722188	171.207610	-1.039339	88.238097	-1.039339	88.238097	-8.699158	-176.726151
4.750000	-8.462429	167.869673	-1.088628	85.056396	-1.088628	85.056396	-8.440844	-179.744736
4.800000	-8.211870	164.532992	-1.139400	81.871983	-1.139400	81.871983	-8.191735	177.230262
4.850000	-7.970109	161.197815	-1.191636	78.685124	-1.191636	78.685124	-7.951427	174.199177
4.900000	-7.736777	157.864418	-1.245319	75.496087	-1.245319	75.496087	-7.719552	171.162328
4.950000	-7.511535	154.533101	-1.300422	72.305141	-1.300422	72.305141	-7.495769	168.120023
5.000000	-7.294068	151.204182	-1.356920	69.112554	-1.356920	69.112554	-7.279764	165.072559
5.050000	-7.084141	147.878063	-1.414801	65.918574	-1.414801	65.918574	-7.071301	162.020126
5.100000	-6.881443	144.555047	-1.474006	62.723505	-1.474006	62.723505	-6.870064	158.963121
5.150000	-6.685730	141.235495	-1.534494	59.527614	-1.534494	59.527614	-6.675808	155.901822
5.200000	-6.496778	137.919783	-1.596219	56.331164	-1.596219	56.331164	-6.488305	152.836501
5.250000	-6.314383	134.608290	-1.659127	53.134417	-1.659127	53.134417	-6.307347	149.767428
5.300000	-6.138356	131.301401	-1.723162	49.937624	-1.723162	49.937624	-6.132743	146.694865
5.350000	-5.968526	127.999503	-1.788259	46.741032	-1.788259	46.741032	-5.964318	143.619073
5.400000	-5.804737	124.702978	-1.854344	43.544874	-1.854344	43.544874	-5.801911	140.540302
5.450000	-5.646846	121.412208	-1.921339	40.349372	-1.921339	40.349372	-5.645377	137.458798
5.500000	-5.494725	118.127562	-1.989155	37.154729	-1.989155	37.154729	-5.494582	134.374795
5.550000	-5.348260	114.849398	-2.057696	33.961130	-2.057696	33.961130	-5.349409	131.288516
5.600000	-5.207347	111.578058	-2.126854	30.768734	-2.126854	30.768734	-5.209752	128.200169
5.650000	-5.071934	108.313945	-2.196512	27.577687	-2.196512	27.577687	-5.075552	125.109928
5.700000	-4.941946	105.057364	-2.266536	24.388086	-2.266536	24.388086	-4.946733	122.017965
5.750000	-4.817281	101.808500	-2.336787	21.199969	-2.336787	21.199969	-4.823190	118.924442
5.800000	-4.697887	98.567579	-2.407112	18.013340	-2.407112	18.013340	-4.704867	115.829469
5.850000	-4.583722	95.334786	-2.477346	14.828149	-2.477346	14.828149	-4.591721	112.733119
5.900000	-4.474759	92.110258	-2.547308	11.644282	-2.547308	11.644282	-4.483721	109.635422
5.950000	-4.370981	88.894076	-2.616802	8.461550	-2.616802	8.461550	-4.380852	106.536356
6.000000	-4.272390	85.686256	-2.685617	5.279684	-2.685617	5.279684	-4.283111	103.435843
6.050000	-4.178998	82.486749	-2.753525	2.098315	-2.753525	2.098315	-4.190514	100.333735
6.100000	-4.090838	79.295421	-2.820277	-1.083031	-2.820277	-1.083031	-4.103091	97.229808
6.150000	-4.007958	76.112051	-2.885607	-4.264955	-2.885607	-4.264955	-4.020894	94.123750
6.200000	-3.930431	72.936321	-2.949228	-7.448198	-2.949228	-7.448198	-3.943993	91.015145
6.250000	-3.858348	69.767800	-3.010831	-10.633663	-3.010831	-10.633663	-3.872486	87.903463
6.300000	-3.791944	66.606062	-3.070013	-13.822536	-3.070013	-13.822536	-3.806609	84.787944
6.350000	-3.731269	63.450249	-3.126468	-17.016083	-3.126468	-17.016083	-3.746416	81.667830
6.400000	-3.676510	60.299504	-3.179810	-20.215854	-3.179810	-20.215854	-3.692102	78.542126
6.450000	-3.627900	57.152801	-3.229623	-23.423681	-3.229623	-23.423681	-3.643903	75.409640
6.500000	-3.585719	54.008921	-3.275460	-26.641710	-3.275460	-26.641710	-3.602110	72.268959
6.550000	-3.550308	50.866433	-3.316843	-29.872452	-3.316843	-29.872452	-3.567073	69.118415
6.600000	-3.522079	47.723672	-3.353258	-33.118841	-3.353258	-33.118841	-3.539217	65.956053
6.650000	-3.501530	44.578712	-3.384156	-36.384298	-3.384156	-36.384298	-3.519053	62.779590
6.700000	-3.489783	41.428965	-3.408556	-39.674377	-3.408556	-39.674377	-3.507725	59.585244
6.750000	-3.486455	38.272605	-3.426674	-42.990488	-3.426674	-42.990488	-3.504867	56.372277
6.800000	-3.492969	35.106521	-3.437438	-46.339489	-3.437438	-46.339489	-3.511934	53.136078
6.850000	-3.510388	31.927515	-3.440150	-49.727611	-3.440150	-49.727611	-3.530023	49.872608
6.900000	-3.540362	28.731491	-3.433833	-53.163517	-3.433833	-53.163517	-3.560834	46.576293
6.950000	-3.584620	25.514168	-3.417662	-56.656421	-3.417662	-56.656421	-3.606160	43.241412
7.000000	-3.644880	22.271585	-3.391066	-60.215329	-3.391066	-60.215329	-3.667798	39.862666
7.050000	-3.723678	18.999068	-3.353239	-63.852222	-3.353239	-63.852222	-3.748387	36.433166
7.100000	-3.824201	15.691810	-3.303385	-67.581218	-3.303385	-67.581218	-3.851264	32.945246
7.150000	-3.950493	12.345170	-3.240753	-71.418982	-3.240753	-71.418982	-3.980678	29.390541
7.200000	-4.108030	8.954825	-3.164558	-75.386533	-3.164558	-75.386533	-4.142406	25.759485
7.250000	-4.304382	5.517783	-3.074035	-79.510926	-3.074035	-79.510926	-4.344486	22.041491
7.300000	-4.547744	2.036836	-2.969364	-83.816834	-2.969364	-83.816834	-4.595745	18.230985
7.350000	-4.849971	-1.479376	-2.850820	-88.337352	-2.850820	-88.337352	-4.909068	14.323783
7.400000	-5.226992	-5.009315	-2.719371	-93.111337	-2.719371	-93.111337	-5.302042	10.323175
7.450000	-5.700464	-8.507677	-2.577016	-98.183931	-2.577016	-98.183931	-5.799142	6.247859
7.500000	-6.300187	-11.884912	-2.427244	-103.606656	-2.427244	-103.606656	-6.435209	2.147630
7.550000	-7.070932	-14.952573	-2.275709	-109.448525	-2.275709	-109.448525	-7.265276	-1.857001
7.600000	-8.066909	-17.356314	-2.131357	-115.760688	-2.131357	-115.760688	-8.363934	-5.502715
7.650000	-9.360069	-18.372443	-2.006650	-122.600631	-2.006650	-122.600631	-9.850424	-8.194764
7.700000	-11.012970	-16.410197	-1.919386	-130.022451	-1.919386	-130.022451	-11.909342	-8.397386
7.750000	-12.914834	-8.382484	-1.891237	-138.036160	-1.891237	-138.036160	-14.722435	-1.953473
7.800000	-14.239208	9.306901	-1.947668	-146.612077	-1.947668	-146.612077	-17.542790	21.401191
7.850000	-13.478318	31.024790	-2.115593	-155.659676	-2.115593	-155.659676	-16.513009	57.107456
7.900000	-11.164076	43.928277	-2.416718	-165.013157	-2.416718	-165.013157	-12.846676	73.392148
7.950000	-8.789985	47.480376	-2.864080	-174.452941	-2.864080	-174.452941	-9.733358	75.527013
8.000000	-6.847737	45.953700	-3.456308	176.261997	-3.456308	176.261997	-7.434668	72.295731
8.050000	-5.348337	42.026525	-4.179112	167.345116	-4.179112	167.345116	-5.746693	67.002049
8.100000	-4.211330	37.063980	-5.009494	158.951059	-5.009494	158.951059	-4.499527	60.986170
8.150000	-3.354732	31.768600	-5.920607	151.166417	-5.920607	151.166417	-3.573198	54.866368
8.200000	-2.710793	26.504074	-6.885583	144.018370	-6.885583	144.018370	-2.882260	48.940265
8.250000	-2.222469	21.439085	-7.884307	137.466393	-7.884307	137.466393	-2.360413	43.327517
8.300000	-1.851281	16.647863	-8.898730	131.468884	-8.898730	131.468884	-1.964379	38.073456
8.350000	-1.568309	12.155159	-9.913289	125.971832	-9.913289	125.971832	-1.662400	33.182494
8.400000	-1.348846	7.940359	-10.923380	120.891184	-10.923380	120.891184	-1.427852	28.616907
8.450000	-1.179290	3.995093	-11.915571	116.182749	-11.915571	116.182749	-1.246123	24.359839
8.500000	-1.045972	0.281569	-12.889976	111.771411	-12.889976	111.771411	-1.102692	20.364094
8.550000	-0.940602	-3.226254	-13.841782	107.603951	-13.841782	107.603951	-0.988769	16.598084
8.600000	-0.857971	-6.544716	-14.758924	103.637574	-14.758924	103.637574	-0.898832	13.042127
8.650000	-0.792358	-9.707833	-15.642230	99.808941	-15.642230	99.808941	-0.826843	9.657755
8.700000	-0.741476	-12.728571	-16.473608	96.064876	-16.473608	96.064876	-0.770374	6.430368
8.750000	-0.701397	-15.645781	-17.260242	92.332737	-17.260242	92.332737	-0.725271	3.317260
8.800000	-0.671562	-18.473359	-17.979887	88.535560	-17.979887	88.535560	-0.690909	0.303593
8.850000	-0.651652	-21.234260	-18.610306	84.559898	-18.610306	84.559898	-0.666896	-2.635033
8.900000	-0.643167	-23.955436	-19.112247	80.212636	-19.112247	80.212636	-0.654694	-5.526689
8.950000	-0.650811	-26.677339	-19.425144	75.136252	-19.425144	75.136252	-0.659007	-8.413134
9.000000	-0.685195	-29.455360	-19.473692	68.722140	-19.473692	68.722140	-0.690504	-11.351686
9.050000	-0.778548	-32.351562	-19.126998	59.533601	-19.126998	59.533601	-0.781752	-14.406427
9.100000	-1.024325	-35.235771	-18.277571	44.063328	-18.277571	44.063328	-1.027449	-17.448309
9.150000	-1.567378	-36.048370	-17.521650	14.048146	-17.521650	14.048146	-1.575423	-18.394019
9.200000	-1.510651	-32.535747	-19.929372	-29.153704	-19.929372	-29.153704	-1.517434	-14.945054
9.250000	-0.954407	-33.632947	-25.296240	-58.071482	-25.296240	-58.071482	-0.952664	-16.154429
9.300000	-0.707947	-36.398211	-30.552915	-72.732136	-30.552915	-72.732136	-0.700939	-19.050838
9.350000	-0.607077	-38.995635	-34.969794	-81.126591	-34.969794	-81.126591	-0.596532	-21.776350
9.400000	-0.558143	-41.350328	-38.538548	-86.884727	-38.538548	-86.884727	-0.544790	-24.254342
9.450000	-0.531845	-43.526204	-41.122387	-91.418837	-41.122387	-91.418837	-0.516067	-26.549026
9.500000	-0.516483	-45.577441	-42.723282	-95.360053	-42.723282	-95.360053	-0.498511	-28.715106
9.550000	-0.506801	-47.543018	-43.530506	-98.919994	-43.530506	-98.919994	-0.486787	-30.792198
9.600000	-0.501238	-49.429457	-43.623368	-102.039348	-43.623368	-102.039348	-0.479318	-32.786478
9.650000	-0.497887	-51.263111	-43.354585	-104.798752	-43.354585	-104.798752	-0.474155	-34.725113
9.700000	-0.496405	-53.043706	-42.854181	-107.175369	-42.854181	-107.175369	-0.470957	-36.607422
9.750000	-0.496321	-54.777055	-42.261867	-109.229904	-42.261867	-109.229904	-0.469246	-38.439174
9.800000	-0.496928	-56.484415	-41.669277	-111.121315	-41.669277	-111.121315	-0.468277	-40.242963
9.850000	-0.498499	-58.152039	-41.085879	-112.785046	-41.085879	-112.785046	-0.468354	-42.003776
9.900000	-0.500766	-59.787131	-40.542593	-114.289572	-40.542593	-114.289572	-0.469196	-43.729102
9.950000	-0.503513	-61.398387	-40.040873	-115.686428	-40.040873	-115.686428	-0.470571	-45.428289
10.000000	-0.506702	-62.986790	-39.579464	-116.985567	-39.579464	-116.985567	-0.472441	-47.102334
