! freq	dB(S11)	phase(S11)	dB(S12)	phase(S12)	
!     	dB(S21)	phase(S21)	dB(S22)	phase(S22)	
!S-par simulation data
#  GHz  S  DB  R 50
0.000000	-0.000000	0.000000	-345.848936	0.000000	-345.848936	0.000000	-0.000000	0.000000
0.050000	-0.000099	-0.762168	-115.739293	78.035838	-115.739293	78.035838	-0.000091	-0.819300
0.100000	-0.000392	-1.524094	-110.468842	81.532443	-110.468842	81.532443	-0.000362	-1.638401
0.150000	-0.000866	-2.285556	-107.204714	82.980015	-107.204714	82.980015	-0.000804	-2.457117
0.200000	-0.001500	-3.046372	-104.890611	83.519565	-104.890611	83.519565	-0.001404	-3.275286
0.250000	-0.002282	-3.806343	-103.144159	83.649690	-103.144159	83.649690	-0.002153	-4.092720
0.300000	-0.003172	-4.565440	-101.772806	83.625566	-101.772806	83.625566	-0.003020	-4.909366
0.350000	-0.004154	-5.323567	-100.679261	83.543869	-100.679261	83.543869	-0.003993	-5.725110
0.400000	-0.005204	-6.080694	-99.803538	83.478353	-99.803538	83.478353	-0.005052	-6.539887
0.450000	-0.006301	-6.836821	-99.107872	83.485852	-99.107872	83.485852	-0.006179	-7.353660
0.500000	-0.007429	-7.591966	-98.567801	83.619077	-98.567801	83.619077	-0.007357	-8.166410
0.550000	-0.008574	-8.346162	-98.167421	83.934518	-98.167421	83.934518	-0.008570	-8.978135
0.600000	-0.009724	-9.099448	-97.896636	84.499077	-97.896636	84.499077	-0.009807	-9.788845
0.650000	-0.010871	-9.851864	-97.749361	85.397318	-97.749361	85.397318	-0.011054	-10.598560
0.700000	-0.012010	-10.603451	-97.722046	86.740736	-97.722046	86.740736	-0.012304	-11.407302
0.750000	-0.013137	-11.354242	-97.811965	88.680283	-97.811965	88.680283	-0.013550	-12.215099
0.800000	-0.014250	-12.104269	-98.014483	91.422867	-98.014483	91.422867	-0.014787	-13.021974
0.850000	-0.015348	-12.853556	-98.317962	95.250019	-98.317962	95.250019	-0.016010	-13.827953
0.900000	-0.016430	-13.602120	-98.694174	100.528244	-98.694174	100.528244	-0.017217	-14.633057
0.950000	-0.017497	-14.349975	-99.081973	107.678005	-99.081973	107.678005	-0.018407	-15.437302
1.000000	-0.018549	-15.097129	-99.366973	117.031563	-99.366973	117.031563	-0.019578	-16.240703
1.050000	-0.019588	-15.843585	-99.378079	128.513365	-99.378079	128.513365	-0.020732	-17.043270
1.100000	-0.020615	-16.589344	-98.943628	141.267062	-98.943628	141.267062	-0.021868	-17.845009
1.150000	-0.021631	-17.334400	-98.006516	153.731172	-98.006516	153.731172	-0.022988	-18.645923
1.200000	-0.022637	-18.078748	-96.675295	164.468191	-96.675295	164.468191	-0.024091	-19.446010
1.250000	-0.023635	-18.822378	-95.133656	172.892020	-95.133656	172.892020	-0.025180	-20.245268
1.300000	-0.024624	-19.565249	-93.520880	179.076488	-93.520880	179.076488	-0.026255	-21.043653
1.350000	-0.025607	-20.307379	-91.940509	-176.440762	-91.940509	-176.440762	-0.027318	-21.841191
1.400000	-0.026585	-21.048755	-90.430148	-173.246977	-90.430148	-173.246977	-0.028371	-22.637873
1.450000	-0.027558	-21.789363	-89.002327	-171.016131	-89.002327	-171.016131	-0.029414	-23.433686
1.500000	-0.028526	-22.529188	-87.657606	-169.506871	-87.657606	-169.506871	-0.030450	-24.228615
1.550000	-0.029492	-23.268215	-86.391425	-168.544279	-86.391425	-168.544279	-0.031479	-25.022646
1.600000	-0.030454	-24.006427	-85.197412	-168.001742	-85.197412	-168.001742	-0.032502	-25.815763
1.650000	-0.031415	-24.743811	-84.068897	-167.786861	-84.068897	-167.786861	-0.033520	-26.607950
1.700000	-0.032373	-25.480047	-82.974562	-167.897937	-82.974562	-167.897937	-0.034534	-27.398850
1.750000	-0.033331	-26.215836	-81.969763	-168.125654	-81.969763	-168.125654	-0.035547	-28.189250
1.800000	-0.034288	-26.950550	-80.998061	-168.544695	-80.998061	-168.544695	-0.036557	-28.978444
1.850000	-0.035245	-27.684496	-80.078541	-169.100395	-80.078541	-169.100395	-0.037567	-29.766777
1.900000	-0.036201	-28.417484	-79.195681	-169.767307	-79.195681	-169.767307	-0.038576	-30.554037
1.950000	-0.037158	-29.149517	-78.347700	-170.545429	-78.347700	-170.545429	-0.039585	-31.340224
2.000000	-0.038116	-29.880724	-77.538445	-171.389052	-77.538445	-171.389052	-0.040595	-32.125485
2.050000	-0.039075	-30.610776	-76.751188	-172.324376	-76.751188	-172.324376	-0.041607	-32.909449
2.100000	-0.040034	-31.340320	-76.010350	-173.289784	-76.010350	-173.289784	-0.042620	-33.692841
2.150000	-0.040995	-32.068543	-75.282213	-174.329743	-75.282213	-174.329743	-0.043636	-34.474749
2.200000	-0.041959	-32.795766	-74.578571	-175.415366	-74.578571	-175.415366	-0.044655	-35.255533
2.250000	-0.042924	-33.521976	-73.897760	-176.540992	-73.897760	-176.540992	-0.045678	-36.035176
2.300000	-0.043892	-34.247157	-73.238285	-177.701839	-73.238285	-177.701839	-0.046704	-36.813663
2.350000	-0.044863	-34.971297	-72.598801	-178.893836	-72.598801	-178.893836	-0.047734	-37.590976
2.400000	-0.045837	-35.694380	-71.978092	179.886500	-71.978092	179.886500	-0.048768	-38.367102
2.450000	-0.046814	-36.416395	-71.375055	178.642169	-71.375055	178.642169	-0.049808	-39.142024
2.500000	-0.047795	-37.137327	-70.788687	177.375771	-70.788687	177.375771	-0.050852	-39.915729
2.550000	-0.048782	-37.856537	-70.205866	176.079582	-70.205866	176.079582	-0.051905	-40.687497
2.600000	-0.049769	-38.575747	-69.659706	174.783392	-69.659706	174.783392	-0.052958	-41.459265
2.650000	-0.050765	-39.292811	-69.108942	173.456723	-69.108942	173.456723	-0.054022	-42.228621
2.700000	-0.051762	-40.009680	-68.587875	172.127283	-68.587875	172.127283	-0.055087	-42.997759
2.750000	-0.052769	-40.724554	-68.065831	170.775310	-68.065831	170.775310	-0.056164	-43.764660
2.800000	-0.053777	-41.439030	-67.567645	169.418832	-67.567645	169.418832	-0.057243	-44.531113
2.850000	-0.054794	-42.151673	-67.071495	168.045730	-67.071495	168.045730	-0.058334	-45.295515
2.900000	-0.055815	-42.863706	-66.594282	166.667088	-66.594282	166.667088	-0.059428	-46.059233
2.950000	-0.056845	-43.574079	-66.121612	165.276262	-66.121612	165.276262	-0.060533	-46.821098
3.000000	-0.057879	-44.283621	-65.663712	163.879343	-65.663712	163.879343	-0.061643	-47.582036
3.050000	-0.058923	-44.991685	-65.212443	162.473596	-65.212443	162.473596	-0.062764	-48.341328
3.100000	-0.059973	-45.698693	-64.772399	161.061543	-64.772399	161.061543	-0.063891	-49.099445
3.150000	-0.061031	-46.404413	-64.340726	159.643209	-64.340726	159.643209	-0.065029	-49.856132
3.200000	-0.062098	-47.108845	-63.917253	158.218594	-63.917253	158.218594	-0.066176	-50.611390
3.250000	-0.063173	-47.812186	-63.503596	156.789631	-63.503596	156.789631	-0.067331	-51.365443
3.300000	-0.064258	-48.514002	-63.095555	155.354583	-63.095555	155.354583	-0.068498	-52.117809
3.350000	-0.065351	-49.214934	-62.698525	153.916650	-62.698525	153.916650	-0.069672	-52.869202
3.400000	-0.066456	-49.914097	-62.304896	152.472949	-62.304896	152.472949	-0.070861	-53.618648
3.450000	-0.067567	-50.612589	-61.923265	151.027462	-61.923265	151.027462	-0.072056	-54.367358
3.500000	-0.068695	-51.309067	-61.543134	149.576613	-61.543134	149.576613	-0.073268	-55.113860
3.550000	-0.069826	-52.005091	-61.175808	148.124785	-61.175808	148.124785	-0.074484	-55.859867
3.600000	-0.070976	-52.698851	-60.808351	146.668069	-60.808351	146.668069	-0.075721	-56.603404
3.650000	-0.072129	-53.392382	-60.454353	145.210955	-60.454353	145.210955	-0.076961	-57.346693
3.700000	-0.073304	-54.083397	-60.098824	143.749470	-60.098824	143.749470	-0.078224	-58.087250
3.750000	-0.074480	-54.774411	-59.757277	142.287986	-59.757277	142.287986	-0.079488	-58.827806
3.800000	-0.075682	-55.462654	-59.412998	140.822685	-59.412998	140.822685	-0.080780	-59.565371
3.850000	-0.076884	-56.150898	-59.081846	139.357385	-59.081846	139.357385	-0.082072	-60.302935
3.900000	-0.078111	-56.836580	-58.749462	137.889346	-58.749462	137.889346	-0.083392	-61.037749
3.950000	-0.079342	-57.522029	-58.428158	136.421058	-58.428158	136.421058	-0.084714	-61.772313
4.000000	-0.080596	-58.205134	-58.106936	134.950888	-58.106936	134.950888	-0.086063	-62.504375
4.050000	-0.081856	-58.887769	-57.794976	133.480341	-57.794976	133.480341	-0.087417	-63.235935
4.100000	-0.083139	-59.568281	-57.484250	132.008582	-57.484250	132.008582	-0.088796	-63.965244
4.150000	-0.084431	-60.248086	-57.181172	130.536419	-57.181172	130.536419	-0.090184	-64.693801
4.200000	-0.085744	-60.925994	-56.880333	129.063561	-56.880333	129.063561	-0.091596	-65.420360
4.250000	-0.087068	-61.602953	-56.585709	127.590355	-56.585709	127.590355	-0.093020	-66.145919
4.300000	-0.088412	-62.278246	-56.294203	126.116840	-56.294203	126.116840	-0.094466	-66.869735
4.350000	-0.089771	-62.952348	-56.007638	124.643105	-56.007638	124.643105	-0.095927	-67.592305
4.400000	-0.091148	-63.625017	-55.724958	123.169337	-55.724958	123.169337	-0.097408	-68.313387
4.450000	-0.092544	-64.296254	-55.446085	121.695536	-55.446085	121.695536	-0.098909	-69.032981
4.500000	-0.093955	-64.966294	-55.171764	120.221885	-55.171764	120.221885	-0.100428	-69.751343
4.550000	-0.095388	-65.634659	-54.900243	118.748443	-54.900243	118.748443	-0.101971	-70.467978
4.600000	-0.096835	-66.302065	-54.633850	117.275250	-54.633850	117.275250	-0.103528	-71.183635
4.650000	-0.098308	-66.967554	-54.369364	115.802556	-54.369364	115.802556	-0.105114	-71.897333
4.700000	-0.099791	-67.632325	-54.110504	114.330139	-54.110504	114.330139	-0.106713	-72.610305
4.750000	-0.101305	-68.294938	-53.852757	112.858555	-53.852757	112.858555	-0.108345	-73.321093
4.800000	-0.102827	-68.957073	-53.601064	111.387212	-53.601064	111.387212	-0.109985	-74.031402
4.850000	-0.104384	-69.616812	-53.349781	109.917079	-53.349781	109.917079	-0.111665	-74.739311
4.900000	-0.105945	-70.276312	-53.104915	108.447093	-53.104915	108.447093	-0.113349	-75.446983
4.950000	-0.107547	-70.933181	-52.859837	106.978734	-52.859837	106.978734	-0.115079	-76.152048
5.000000	-0.109150	-71.590051	-52.621484	105.510375	-52.621484	105.510375	-0.116809	-76.857113
5.050000	-0.110798	-72.244058	-52.382369	104.044102	-52.382369	104.044102	-0.118590	-77.559375
5.100000	-0.112447	-72.898064	-52.149661	102.577829	-52.149661	102.577829	-0.120372	-78.261637
5.150000	-0.114139	-73.549456	-51.916859	101.113747	-51.916859	101.113747	-0.122203	-78.961371
5.200000	-0.115836	-74.200609	-51.689588	99.649864	-51.689588	99.649864	-0.124039	-79.660875
5.250000	-0.117574	-74.849395	-51.462820	98.188224	-51.462820	98.188224	-0.125921	-80.358124
5.300000	-0.119321	-75.497707	-51.240791	96.727032	-51.240791	96.727032	-0.127812	-81.054921
5.350000	-0.121106	-76.143899	-51.019800	95.268085	-51.019800	95.268085	-0.129747	-81.749730
5.400000	-0.122904	-76.789384	-50.802829	93.809887	-50.802829	93.809887	-0.131697	-82.443877
5.450000	-0.124738	-77.432996	-50.587371	92.353887	-50.587371	92.353887	-0.133686	-83.136299
5.500000	-0.126589	-78.075670	-50.375286	90.898988	-50.375286	90.898988	-0.135696	-83.827858
5.550000	-0.128473	-78.716717	-50.165135	89.446196	-50.165135	89.446196	-0.137741	-84.517947
5.600000	-0.130379	-79.356600	-49.957772	87.994911	-49.957772	87.994911	-0.139813	-85.206986
5.650000	-0.132313	-79.995098	-49.752715	86.545597	-49.752715	86.545597	-0.141917	-85.894804
5.700000	-0.134276	-80.632211	-49.549919	85.098255	-49.549919	85.098255	-0.144052	-86.581399
5.750000	-0.136264	-81.268180	-49.349758	83.652699	-49.349758	83.652699	-0.146216	-87.267011
5.800000	-0.138285	-81.902546	-49.151382	82.209645	-49.151382	82.209645	-0.148418	-87.951245
5.850000	-0.140326	-82.536005	-48.955930	80.768144	-48.955930	80.768144	-0.150643	-88.634722
5.900000	-0.142408	-83.167649	-48.761834	79.329747	-48.761834	79.329747	-0.152913	-89.316685
5.950000	-0.144505	-83.798621	-48.570914	77.892613	-48.570914	77.892613	-0.155201	-89.998106
6.000000	-0.146648	-84.427571	-48.380967	76.459269	-48.380967	76.459269	-0.157542	-90.677898
6.050000	-0.148802	-85.056078	-48.194412	75.026839	-48.194412	75.026839	-0.159895	-91.357347
6.100000	-0.151009	-85.682364	-48.008486	73.598977	-48.008486	73.598977	-0.162309	-92.035077
6.150000	-0.153221	-86.308431	-47.826139	72.171611	-47.826139	72.171611	-0.164729	-92.712645
6.200000	-0.155493	-86.932084	-47.644113	70.749700	-47.644113	70.749700	-0.167217	-93.388433
6.250000	-0.157766	-87.555737	-47.465824	69.327790	-47.465824	69.327790	-0.169707	-94.064220
6.300000	-0.160104	-88.176791	-47.287581	67.912348	-47.287581	67.912348	-0.172272	-94.738197
6.350000	-0.162444	-88.797845	-47.112924	66.496906	-47.112924	66.496906	-0.174839	-95.412174
6.400000	-0.164846	-89.416548	-46.938637	65.087921	-46.938637	65.087921	-0.177479	-96.084625
6.450000	-0.167254	-90.035037	-46.767505	63.679522	-46.767505	63.679522	-0.180125	-96.756937
6.500000	-0.169720	-90.651420	-46.597035	62.277526	-46.597035	62.277526	-0.182841	-97.427995
6.550000	-0.172199	-91.267382	-46.429326	60.876811	-46.429326	60.876811	-0.185570	-98.098804
6.600000	-0.174731	-91.881478	-46.262537	59.482401	-46.262537	59.482401	-0.188364	-98.768619
6.650000	-0.177282	-92.494952	-46.098152	58.090093	-46.098152	58.090093	-0.191179	-99.438103
6.700000	-0.179881	-93.106793	-45.934915	56.703934	-45.934915	56.703934	-0.194054	-100.106838
6.750000	-0.182506	-93.717818	-45.773754	55.320849	-45.773754	55.320849	-0.196958	-100.775199
6.800000	-0.185174	-94.327440	-45.613943	53.943690	-45.613943	53.943690	-0.199916	-101.443036
6.850000	-0.187874	-94.936059	-45.455907	52.570764	-45.455907	52.570764	-0.202914	-102.110499
6.900000	-0.190613	-95.543497	-45.299398	51.203453	-45.299398	51.203453	-0.205960	-102.777641
6.950000	-0.193391	-96.149754	-45.144386	49.841757	-45.144386	49.841757	-0.209054	-103.444462
7.000000	-0.196201	-96.755046	-44.991058	48.485259	-44.991058	48.485259	-0.212191	-104.111136
7.050000	-0.199057	-97.358985	-44.838966	47.136038	-44.838966	47.136038	-0.215387	-104.777605
7.100000	-0.201941	-97.962168	-44.688697	45.791458	-44.688697	45.791458	-0.218619	-105.444068
7.150000	-0.204878	-98.563837	-44.539418	44.456162	-44.539418	44.456162	-0.221923	-106.110519
7.200000	-0.207836	-99.164950	-44.392083	43.124774	-44.392083	43.124774	-0.225256	-106.777063
7.250000	-0.210856	-99.764396	-44.245500	41.805111	-44.245500	41.805111	-0.228675	-107.443884
7.300000	-0.213890	-100.363480	-44.100973	40.488393	-44.100973	40.488393	-0.232115	-108.110841
7.350000	-0.216994	-100.960752	-43.956958	39.186394	-43.956958	39.186394	-0.235656	-108.778484
7.400000	-0.220105	-101.557848	-43.815105	37.886069	-43.815105	37.886069	-0.239210	-109.446239
7.450000	-0.223295	-102.152997	-43.673513	36.604167	-43.673513	36.604167	-0.242886	-110.115238
7.500000	-0.226486	-102.748147	-43.534192	35.322265	-43.534192	35.322265	-0.246562	-110.784237
7.550000	-0.229763	-103.341225	-43.394851	34.063406	-43.394851	34.063406	-0.250385	-111.455232
7.600000	-0.233041	-103.934303	-43.257710	32.804547	-43.257710	32.804547	-0.254209	-112.126227
7.650000	-0.236401	-104.525531	-43.120608	31.570117	-43.120608	31.570117	-0.258182	-112.799760
7.700000	-0.239769	-105.116590	-42.985448	30.337909	-42.985448	30.337909	-0.262171	-113.473524
7.750000	-0.243212	-105.706011	-42.850345	29.131629	-42.850345	29.131629	-0.266315	-114.150387
7.800000	-0.246671	-106.295105	-42.716914	27.930534	-42.716914	27.930534	-0.270491	-114.827870
7.850000	-0.250200	-106.882766	-42.583517	26.756969	-42.583517	26.756969	-0.274830	-115.509030
7.900000	-0.253752	-107.469948	-42.451486	25.592581	-42.451486	25.592581	-0.279226	-116.191415
7.950000	-0.257368	-108.055893	-42.319420	24.457393	-42.319420	24.457393	-0.283794	-116.878069
8.000000	-0.261016	-108.641219	-42.188342	23.336804	-42.188342	23.336804	-0.288451	-117.566857
8.050000	-0.264720	-109.225492	-42.057115	22.247086	-42.057115	22.247086	-0.293295	-118.260508
8.100000	-0.268465	-109.809015	-41.926365	21.179418	-41.926365	21.179418	-0.298274	-118.957634
8.150000	-0.272260	-110.391663	-41.795305	20.144155	-41.795305	20.144155	-0.303458	-119.660205
8.200000	-0.276105	-110.973435	-41.663978	19.141298	-41.663978	19.141298	-0.308847	-120.368221
8.250000	-0.279993	-111.554500	-41.532144	18.171998	-41.532144	18.171998	-0.314462	-121.082209
8.300000	-0.283940	-112.134575	-41.398886	17.249677	-41.398886	17.249677	-0.320393	-121.804559
8.350000	-0.287917	-112.714189	-41.265476	16.354794	-41.265476	16.354794	-0.326524	-122.532032
8.400000	-0.291952	-113.292883	-41.129821	15.514787	-41.129821	15.514787	-0.333053	-123.269751
8.450000	-0.296055	-113.870556	-40.989834	14.749877	-40.989834	14.749877	-0.340170	-124.022102
8.500000	-0.300202	-114.447576	-40.846759	14.041761	-40.846759	14.041761	-0.347773	-124.785935
8.550000	-0.304395	-115.023946	-40.700140	13.394295	-40.700140	13.394295	-0.355916	-125.562241
8.600000	-0.308651	-115.599438	-40.546226	12.840561	-40.546226	12.840561	-0.364953	-126.358431
8.650000	-0.312955	-116.174274	-40.385459	12.369182	-40.385459	12.369182	-0.374868	-127.172909
8.700000	-0.317325	-116.748248	-40.212406	12.018637	-40.212406	12.018637	-0.386191	-128.015291
8.750000	-0.321747	-117.321532	-40.027068	11.779074	-40.027068	11.779074	-0.398982	-128.884764
8.800000	-0.326238	-117.893948	-39.820466	11.695973	-39.820466	11.695973	-0.414159	-129.795138
8.850000	-0.330786	-118.465641	-39.592012	11.756736	-39.592012	11.756736	-0.431935	-130.746406
8.900000	-0.335399	-119.036484	-39.330305	11.997910	-39.330305	11.997910	-0.453652	-131.754516
8.950000	-0.340081	-119.606426	-39.024154	12.434936	-39.024154	12.434936	-0.480872	-132.834104
9.000000	-0.344832	-120.175389	-38.658682	13.074161	-38.658682	13.074161	-0.515958	-134.004415
9.050000	-0.349652	-120.743237	-38.212758	13.906685	-38.212758	13.906685	-0.562772	-135.292986
9.100000	-0.354538	-121.309752	-37.657667	14.886737	-37.657667	14.886737	-0.627770	-136.738093
9.150000	-0.359475	-121.874590	-36.955307	15.896645	-36.955307	15.896645	-0.722266	-138.392755
9.200000	-0.364423	-122.437185	-36.054825	16.678774	-36.054825	16.678774	-0.867873	-140.329909
9.250000	-0.369271	-122.996686	-34.901169	16.722350	-34.901169	16.722350	-1.106974	-142.625140
9.300000	-0.373736	-123.552031	-33.453931	15.088844	-33.453931	15.088844	-1.527261	-145.267124
9.350000	-0.377147	-124.103091	-31.747926	10.193152	-31.747926	10.193152	-2.306844	-147.711333
9.400000	-0.378391	-124.655932	-30.051602	-0.061924	-30.051602	-0.061924	-3.675168	-147.050130
9.450000	-0.377888	-125.228690	-29.041199	-15.975491	-29.041199	-15.975491	-4.942206	-136.518895
9.500000	-0.379693	-125.825067	-29.264361	-32.682351	-29.264361	-32.682351	-4.158184	-123.535425
9.550000	-0.385110	-126.419476	-30.308374	-44.732014	-30.308374	-44.732014	-2.748285	-120.691841
9.600000	-0.391863	-127.001425	-31.495732	-51.755902	-31.495732	-51.755902	-1.868587	-122.352752
9.650000	-0.398638	-127.574788	-32.526464	-55.567027	-32.526464	-55.567027	-1.384342	-124.716365
9.700000	-0.405154	-128.143620	-33.344475	-57.617193	-33.344475	-57.617193	-1.108699	-126.895322
9.750000	-0.411436	-128.710131	-33.976418	-58.770070	-33.976418	-58.770070	-0.941404	-128.779165
9.800000	-0.417552	-129.275355	-34.458979	-59.479958	-34.458979	-59.479958	-0.834524	-130.407503
9.850000	-0.423561	-129.839803	-34.824924	-59.990599	-34.824924	-59.990599	-0.763529	-131.835928
9.900000	-0.429505	-130.403738	-35.100224	-60.434755	-35.100224	-60.434755	-0.715050	-133.110522
9.950000	-0.435416	-130.967333	-35.310724	-60.880961	-35.310724	-60.880961	-0.680369	-134.275339
10.000000	-0.441315	-131.530663	-35.468885	-61.361141	-35.468885	-61.361141	-0.655477	-135.352400
