! freq	dB(S11)	phase(S11)	dB(S12)	phase(S12)	
!     	dB(S21)	phase(S21)	dB(S22)	phase(S22)	
!S-par simulation data
#  GHz  S  DB  R 50
0.000000	-0.000000	-0.000000	-369.059988	180.000000	-369.059988	180.000000	-0.000000	-0.000000
0.050000	-0.000104	-0.820817	-115.937061	88.021783	-115.937061	88.021783	-0.000105	-0.820775
0.100000	-0.000412	-1.641382	-110.098619	86.590636	-110.098619	86.590636	-0.000417	-1.641291
0.150000	-0.000910	-2.461463	-106.789143	85.679668	-106.789143	85.679668	-0.000921	-2.461313
0.200000	-0.001580	-3.280868	-104.508274	85.058937	-104.508274	85.058937	-0.001597	-3.280645
0.250000	-0.002407	-4.099381	-102.804370	84.590025	-102.804370	84.590025	-0.002431	-4.099069
0.300000	-0.003352	-4.916966	-101.471042	84.204059	-101.471042	84.204059	-0.003383	-4.916550
0.350000	-0.004397	-5.733511	-100.411635	83.899096	-100.411635	83.899096	-0.004434	-5.732980
0.400000	-0.005518	-6.548975	-99.567748	83.690144	-99.567748	83.690144	-0.005559	-6.548321
0.450000	-0.006693	-7.363348	-98.903374	83.606174	-98.903374	83.606174	-0.006738	-7.362564
0.500000	-0.007905	-8.176641	-98.395614	83.687409	-98.395614	83.687409	-0.007951	-8.175724
0.550000	-0.009137	-8.988878	-98.029951	83.986710	-98.029951	83.986710	-0.009182	-8.987829
0.600000	-0.010377	-9.800096	-97.797570	84.573787	-97.797570	84.573787	-0.010421	-9.798918
0.650000	-0.011617	-10.610330	-97.693591	85.542253	-97.693591	85.542253	-0.011658	-10.609029
0.700000	-0.012849	-11.419621	-97.715517	87.020344	-97.715517	87.020344	-0.012886	-11.418201
0.750000	-0.014068	-12.228001	-97.861186	89.186489	-97.861186	89.186489	-0.014102	-12.226469
0.800000	-0.015273	-13.035501	-98.125161	92.290275	-98.125161	92.290275	-0.015302	-13.033864
0.850000	-0.016461	-13.842145	-98.491600	96.675020	-98.491600	96.675020	-0.016485	-13.840408
0.900000	-0.017631	-14.647951	-98.920520	102.782960	-98.920520	102.782960	-0.017651	-14.646121
0.950000	-0.018784	-15.452934	-99.325240	111.086437	-99.325240	111.086437	-0.018800	-15.451014
1.000000	-0.019921	-16.257099	-99.549933	121.842402	-99.549933	121.842402	-0.019933	-16.255094
1.050000	-0.021042	-17.060451	-99.387112	134.638114	-99.387112	134.638114	-0.021050	-17.058364
1.100000	-0.022149	-17.862988	-98.684640	148.078570	-98.684640	148.078570	-0.022154	-17.860821
1.150000	-0.023243	-18.664704	-97.474011	160.319083	-97.474011	160.319083	-0.023245	-18.662459
1.200000	-0.024325	-19.465592	-95.942746	170.195479	-95.942746	170.195479	-0.024325	-19.463271
1.250000	-0.025397	-20.265641	-94.288089	177.577289	-94.288089	177.577289	-0.025395	-20.263244
1.300000	-0.026459	-21.064801	-92.626154	-177.185754	-92.626154	-177.185754	-0.026456	-21.062329
1.350000	-0.027513	-21.863094	-91.032366	-173.484870	-91.032366	-173.484870	-0.027509	-21.860546
1.400000	-0.028561	-22.660504	-89.527047	-170.916953	-89.527047	-170.916953	-0.028556	-22.657880
1.450000	-0.029602	-23.457014	-88.113024	-169.185092	-88.113024	-169.185092	-0.029597	-23.454313
1.500000	-0.030639	-24.252606	-86.785734	-168.076936	-86.785734	-168.076936	-0.030633	-24.249827
1.550000	-0.031672	-25.047263	-85.538005	-167.441179	-85.538005	-167.441179	-0.031666	-25.044406
1.600000	-0.032701	-25.840966	-84.362178	-167.169135	-84.362178	-167.169135	-0.032695	-25.838029
1.650000	-0.033727	-26.633695	-83.250988	-167.181682	-83.250988	-167.181682	-0.033721	-26.630678
1.700000	-0.034751	-27.425080	-82.173760	-167.478670	-82.173760	-167.478670	-0.034745	-27.421980
1.750000	-0.035774	-28.215940	-81.183611	-167.877589	-81.183611	-167.877589	-0.035769	-28.212758
1.800000	-0.036795	-29.005538	-80.225941	-168.444730	-80.225941	-168.444730	-0.036791	-29.002272
1.850000	-0.037817	-29.794234	-79.319160	-169.132031	-79.319160	-169.132031	-0.037813	-29.790883
1.900000	-0.038838	-30.581808	-78.448181	-169.917798	-78.448181	-169.917798	-0.038834	-30.578371
1.950000	-0.039859	-31.368259	-77.611260	-170.802032	-77.611260	-170.802032	-0.039856	-31.364735
2.000000	-0.040881	-32.153742	-76.812149	-171.744608	-76.812149	-171.744608	-0.040879	-32.150131
2.050000	-0.041905	-32.937869	-76.034563	-172.768862	-76.034563	-172.768862	-0.041902	-32.934170
2.100000	-0.042929	-33.721399	-75.302326	-173.820029	-75.302326	-173.820029	-0.042927	-33.717613
2.150000	-0.043955	-34.503380	-74.582574	-174.937928	-74.582574	-174.937928	-0.043953	-34.499505
2.200000	-0.044984	-35.284189	-73.886814	-176.096822	-73.886814	-176.096822	-0.044982	-35.280224
2.250000	-0.046014	-36.063808	-73.213434	-177.291696	-73.213434	-177.291696	-0.046013	-36.059754
2.300000	-0.047048	-36.842223	-72.560986	-178.518304	-72.560986	-178.518304	-0.047046	-36.838079
2.350000	-0.048085	-37.619416	-71.928164	-179.773025	-71.928164	-179.773025	-0.048083	-37.615183
2.400000	-0.049125	-38.395373	-71.313787	178.947246	-71.313787	178.947246	-0.049123	-38.391050
2.450000	-0.050168	-39.170078	-70.716784	177.645191	-70.716784	177.645191	-0.050166	-39.165665
2.500000	-0.051216	-39.943517	-70.136180	176.323133	-70.136180	176.323133	-0.051214	-39.939014
2.550000	-0.052271	-40.714942	-69.559145	174.974022	-69.559145	174.974022	-0.052268	-40.710350
2.600000	-0.053326	-41.486367	-69.018069	173.624912	-69.018069	173.624912	-0.053323	-41.481686
2.650000	-0.054390	-42.255286	-68.472597	172.248062	-68.472597	172.248062	-0.054387	-42.250516
2.700000	-0.055456	-43.023977	-67.956276	170.868691	-67.956276	170.868691	-0.055452	-43.019117
2.750000	-0.056532	-43.790342	-67.439110	169.468755	-67.439110	169.468755	-0.056527	-43.785394
2.800000	-0.057609	-44.556241	-66.945387	168.064707	-66.945387	168.064707	-0.057604	-44.551205
2.850000	-0.058697	-45.320008	-66.453768	166.645441	-66.453768	166.645441	-0.058691	-45.314884
2.900000	-0.059788	-46.083063	-65.980777	165.221103	-65.980777	165.221103	-0.059782	-46.077851
2.950000	-0.060889	-46.844189	-65.512343	163.785571	-65.512343	163.785571	-0.060883	-46.838890
3.000000	-0.061996	-47.604350	-65.058458	162.344442	-65.058458	162.344442	-0.061989	-47.598964
3.050000	-0.063112	-48.362796	-64.611171	160.895168	-64.611171	160.895168	-0.063104	-48.357323
3.100000	-0.064235	-49.120017	-64.174965	159.440075	-64.174965	159.440075	-0.064227	-49.114457
3.150000	-0.065368	-49.875747	-63.747056	157.979157	-63.747056	157.979157	-0.065359	-49.870101
3.200000	-0.066509	-50.629985	-63.327269	156.512412	-63.327269	156.512412	-0.066500	-50.624253
3.250000	-0.067659	-51.382964	-62.917188	155.041608	-62.917188	155.041608	-0.067649	-51.377146
3.300000	-0.068821	-52.134180	-62.512699	153.565120	-62.512699	153.565120	-0.068810	-52.128277
3.350000	-0.069990	-52.884377	-62.119081	152.085916	-62.119081	152.085916	-0.069979	-52.878389
3.400000	-0.071173	-53.632536	-61.728890	150.601279	-61.728890	150.601279	-0.071162	-53.626463
3.450000	-0.072363	-54.379922	-61.350526	149.114940	-61.350526	149.114940	-0.072351	-54.373765
3.500000	-0.073570	-55.124992	-60.973733	147.623494	-60.973733	147.623494	-0.073557	-55.118750
3.550000	-0.074781	-55.869542	-60.609549	146.131103	-60.609549	146.131103	-0.074768	-55.863216
3.600000	-0.076013	-56.611494	-60.245344	144.633984	-60.245344	144.633984	-0.076000	-56.605084
3.650000	-0.077248	-57.353184	-59.894376	143.136474	-59.894376	143.136474	-0.077234	-57.346691
3.700000	-0.078507	-58.091995	-59.542023	141.634655	-59.542023	141.634655	-0.078493	-58.085418
3.750000	-0.079767	-58.830805	-59.203409	140.132835	-59.203409	140.132835	-0.079752	-58.824145
3.800000	-0.081055	-59.566453	-58.862240	138.627149	-58.862240	138.627149	-0.081039	-59.559710
3.850000	-0.082343	-60.302101	-58.533968	137.121463	-58.533968	137.121463	-0.082327	-60.295274
3.900000	-0.083659	-61.034833	-58.204606	135.612895	-58.204606	135.612895	-0.083643	-61.027924
3.950000	-0.084977	-61.767301	-57.886135	134.104064	-57.886135	134.104064	-0.084961	-61.760308
4.000000	-0.086323	-62.497107	-57.567855	132.593136	-57.567855	132.593136	-0.086306	-62.490032
4.050000	-0.087674	-63.226381	-57.258690	131.081789	-57.258690	131.081789	-0.087657	-63.219223
4.100000	-0.089050	-63.953252	-56.950835	129.568965	-56.950835	129.568965	-0.089033	-63.946011
4.150000	-0.090435	-64.679323	-56.650519	128.055650	-56.650519	128.055650	-0.090418	-64.671999
4.200000	-0.091844	-65.403253	-56.352489	126.541344	-56.352489	126.541344	-0.091827	-65.395846
4.250000	-0.093265	-66.126112	-56.060600	125.026543	-56.060600	125.026543	-0.093248	-66.118623
4.300000	-0.094708	-66.847098	-55.771847	123.511123	-55.771847	123.511123	-0.094691	-66.839526
4.350000	-0.096167	-67.566744	-55.487994	121.995261	-55.487994	121.995261	-0.096149	-67.559090
4.400000	-0.097645	-68.284784	-55.208017	120.479058	-55.208017	120.479058	-0.097628	-68.277047
4.450000	-0.099143	-69.001217	-54.931837	118.962513	-54.931837	118.962513	-0.099126	-68.993398
4.500000	-0.100659	-69.716314	-54.660174	117.445823	-54.660174	117.445823	-0.100641	-69.708411
4.550000	-0.102198	-70.429538	-54.391329	115.928929	-54.391329	115.928929	-0.102180	-70.421553
4.600000	-0.103752	-71.141695	-54.127555	114.412020	-54.127555	114.412020	-0.103734	-71.133627
4.650000	-0.105334	-71.851717	-53.865732	112.895079	-53.865732	112.895079	-0.105316	-71.843567
4.700000	-0.106928	-72.560942	-53.609455	111.378193	-53.609455	111.378193	-0.106910	-72.552708
4.750000	-0.108555	-73.267772	-53.354359	109.861472	-53.354359	109.861472	-0.108537	-73.259457
4.800000	-0.110191	-73.974074	-53.105215	108.344828	-53.105215	108.344828	-0.110172	-73.965675
4.850000	-0.111865	-74.677727	-52.856572	106.828570	-52.856572	106.828570	-0.111846	-74.669246
4.900000	-0.113543	-75.381117	-52.614225	105.312369	-52.614225	105.312369	-0.113524	-75.372553
4.950000	-0.115265	-76.081610	-52.371778	103.796793	-52.371778	103.796793	-0.115247	-76.072963
5.000000	-0.116988	-76.782103	-52.135915	102.281217	-52.135915	102.281217	-0.116969	-76.773374
5.050000	-0.118760	-77.479456	-51.899423	100.766520	-51.899423	100.766520	-0.118742	-77.470644
5.100000	-0.120533	-78.176809	-51.669199	99.251824	-51.669199	99.251824	-0.120515	-78.167913
5.150000	-0.122354	-78.871304	-51.438987	97.738101	-51.438987	97.738101	-0.122335	-78.862326
5.200000	-0.124179	-79.565540	-51.214194	96.224466	-51.214194	96.224466	-0.124160	-79.556479
5.250000	-0.126048	-80.257200	-50.989987	94.711852	-50.989987	94.711852	-0.126029	-80.248056
5.300000	-0.127927	-80.948345	-50.770429	93.199443	-50.770429	93.199443	-0.127907	-80.939119
5.350000	-0.129847	-81.637194	-50.551966	91.688068	-50.551966	91.688068	-0.129827	-81.627885
5.400000	-0.131781	-82.325278	-50.337459	90.177036	-50.337459	90.177036	-0.131762	-82.315886
5.450000	-0.133754	-83.011342	-50.124498	88.667016	-50.124498	88.667016	-0.133734	-83.001867
5.500000	-0.135745	-83.696396	-49.914866	87.157502	-49.914866	87.157502	-0.135725	-83.686838
5.550000	-0.137771	-84.379704	-49.707182	85.648948	-49.707182	85.648948	-0.137751	-84.370063
5.600000	-0.139822	-85.061764	-49.502259	84.141079	-49.502259	84.141079	-0.139801	-85.052041
5.650000	-0.141903	-85.742345	-49.299637	82.634093	-49.299637	82.634093	-0.141882	-85.732540
5.700000	-0.144014	-86.421449	-49.099266	81.127988	-49.099266	81.127988	-0.143993	-86.411561
5.750000	-0.146152	-87.099337	-48.901507	79.622665	-48.901507	79.622665	-0.146131	-87.089366
5.800000	-0.148326	-87.775525	-48.705540	78.118436	-48.705540	78.118436	-0.148304	-87.765471
5.850000	-0.150522	-88.450754	-48.512455	76.614865	-48.512455	76.614865	-0.150500	-88.440618
5.900000	-0.152760	-89.124068	-48.320749	75.112613	-48.320749	75.112613	-0.152738	-89.113850
5.950000	-0.155016	-89.796675	-48.132161	73.610878	-48.132161	73.610878	-0.154993	-89.786375
6.000000	-0.157320	-90.467162	-47.944581	72.110698	-47.944581	72.110698	-0.157297	-90.456779
6.050000	-0.159636	-91.137185	-47.760323	70.610878	-47.760323	70.610878	-0.159612	-91.126720
6.100000	-0.162009	-91.804892	-47.576741	69.112858	-47.576741	69.112858	-0.161984	-91.794344
6.150000	-0.164387	-92.472372	-47.396654	67.615025	-47.396654	67.615025	-0.164362	-92.461742
6.200000	-0.166829	-93.137350	-47.216947	66.119247	-47.216947	66.119247	-0.166804	-93.126638
6.250000	-0.169271	-93.802328	-47.040882	64.623470	-47.040882	64.623470	-0.169246	-93.791533
6.300000	-0.171784	-94.464630	-46.864933	63.130011	-46.864933	63.130011	-0.171758	-94.453753
6.350000	-0.174298	-95.126932	-46.692477	61.636552	-46.692477	61.636552	-0.174271	-95.115973
6.400000	-0.176878	-95.786832	-46.520444	60.145282	-46.520444	60.145282	-0.176850	-95.775790
6.450000	-0.179464	-96.446513	-46.351492	58.654212	-46.351492	58.654212	-0.179436	-96.435389
6.500000	-0.182112	-97.104058	-46.183240	57.165186	-46.183240	57.165186	-0.182084	-97.092852
6.550000	-0.184773	-97.761175	-46.017691	55.676569	-46.017691	55.676569	-0.184744	-97.749887
6.600000	-0.187491	-98.416415	-45.853090	54.189837	-45.853090	54.189837	-0.187462	-98.405044
6.650000	-0.190229	-99.071029	-45.690847	52.703732	-45.690847	52.703732	-0.190198	-99.059576
6.700000	-0.193018	-99.724015	-45.529773	51.219337	-45.529773	51.219337	-0.192987	-99.712479
6.750000	-0.195833	-100.376187	-45.370745	49.735797	-45.370745	49.735797	-0.195801	-100.364568
6.800000	-0.198694	-101.026972	-45.213081	48.253781	-45.213081	48.253781	-0.198662	-101.015270
6.850000	-0.201589	-101.676765	-45.057178	46.772854	-45.057178	46.772854	-0.201556	-101.664981
6.900000	-0.204524	-102.325403	-44.902811	45.293254	-44.902811	45.293254	-0.204491	-102.313536
6.950000	-0.207500	-102.972885	-44.749948	43.814981	-44.749948	43.814981	-0.207466	-102.960934
7.000000	-0.210510	-103.619431	-44.598772	42.337829	-44.598772	42.337829	-0.210475	-103.607397
7.050000	-0.213569	-104.264669	-44.448866	40.862245	-44.448866	40.862245	-0.213533	-104.252551
7.100000	-0.216655	-104.909182	-44.300780	39.387567	-44.300780	39.387567	-0.216619	-104.896980
7.150000	-0.219798	-105.552245	-44.153752	37.914702	-44.153752	37.914702	-0.219762	-105.539959
7.200000	-0.222963	-106.194783	-44.008657	36.442522	-44.008657	36.442522	-0.222926	-106.182412
7.250000	-0.226191	-106.835744	-43.864430	34.972397	-43.864430	34.972397	-0.226153	-106.823288
7.300000	-0.229435	-107.476368	-43.722235	33.502732	-43.722235	33.502732	-0.229396	-107.463825
7.350000	-0.232751	-108.115300	-43.580735	32.035363	-43.580735	32.035363	-0.232712	-108.102672
7.400000	-0.236075	-108.754071	-43.441351	30.568225	-43.441351	30.568225	-0.236035	-108.741356
7.450000	-0.239479	-109.391051	-43.302508	29.103622	-43.302508	29.103622	-0.239439	-109.378249
7.500000	-0.242885	-110.028031	-43.165849	27.639018	-43.165849	27.639018	-0.242844	-110.015142
7.550000	-0.246379	-110.663136	-43.029594	26.177180	-43.029594	26.177180	-0.246338	-110.650158
7.600000	-0.249876	-111.298241	-42.895443	24.715342	-42.895443	24.715342	-0.249834	-111.285174
7.650000	-0.253454	-111.931700	-42.761846	23.256032	-42.761846	23.256032	-0.253412	-111.918543
7.700000	-0.257042	-112.565010	-42.630140	21.796953	-42.630140	21.796953	-0.256999	-112.551763
7.750000	-0.260706	-113.196891	-42.499124	20.340160	-42.499124	20.340160	-0.260663	-113.183552
7.800000	-0.264387	-113.828486	-42.369803	18.883825	-42.369803	18.883825	-0.264343	-113.815055
7.850000	-0.268138	-114.458858	-42.241291	17.429530	-42.241291	17.429530	-0.268093	-114.445333
7.900000	-0.271913	-115.088822	-42.114297	15.975916	-42.114297	15.975916	-0.271868	-115.075202
7.950000	-0.275751	-115.717755	-41.988219	14.524094	-41.988219	14.524094	-0.275706	-115.704040
8.000000	-0.279622	-116.346173	-41.863495	13.073168	-41.863495	13.073168	-0.279576	-116.332360
8.050000	-0.283549	-116.973739	-41.739783	11.623788	-41.739783	11.623788	-0.283503	-116.959828
8.100000	-0.287517	-117.600697	-41.617276	10.175511	-41.617276	10.175511	-0.287470	-117.586687
8.150000	-0.291534	-118.226970	-41.495863	8.728534	-41.495863	8.728534	-0.291487	-118.212858
8.200000	-0.295600	-118.852557	-41.375522	7.282856	-41.375522	7.282856	-0.295552	-118.838343
8.250000	-0.299708	-119.477610	-41.256347	5.838237	-41.256347	5.838237	-0.299659	-119.463292
8.300000	-0.303873	-120.101916	-41.138124	4.395100	-41.138124	4.395100	-0.303824	-120.087492
8.350000	-0.308073	-120.725826	-41.021127	2.952788	-41.021127	2.952788	-0.308023	-120.711295
8.400000	-0.312339	-121.348944	-40.904973	1.512124	-40.904973	1.512124	-0.312289	-121.334302
8.450000	-0.316631	-121.971787	-40.790099	0.072059	-40.790099	0.072059	-0.316581	-121.957035
8.500000	-0.320998	-122.593810	-40.675972	-1.366209	-40.675972	-1.366209	-0.320948	-122.578943
8.550000	-0.325384	-123.215667	-40.563166	-2.804091	-40.563166	-2.804091	-0.325333	-123.200685
8.600000	-0.329854	-123.836691	-40.451024	-4.240049	-40.451024	-4.240049	-0.329802	-123.821590
8.650000	-0.334335	-124.457639	-40.340236	-5.675822	-40.340236	-5.675822	-0.334282	-124.442419
8.700000	-0.338908	-125.077762	-40.230039	-7.109565	-40.230039	-7.109565	-0.338855	-125.062417
8.750000	-0.343484	-125.697885	-40.121223	-8.543307	-40.121223	-8.543307	-0.343430	-125.682416
8.800000	-0.348162	-126.317206	-40.012935	-9.974939	-40.012935	-9.974939	-0.348107	-126.301607
8.850000	-0.352842	-126.936527	-39.905981	-11.406571	-39.905981	-11.406571	-0.352787	-126.920798
8.900000	-0.357616	-127.555206	-39.799633	-12.836371	-39.799633	-12.836371	-0.357561	-127.539341
8.950000	-0.362402	-128.173827	-39.694508	-14.266004	-39.694508	-14.266004	-0.362345	-128.157825
9.000000	-0.367274	-128.791950	-39.590059	-15.694073	-39.590059	-15.694073	-0.367216	-128.775807
9.050000	-0.372165	-129.409974	-39.486736	-17.121829	-39.486736	-17.121829	-0.372107	-129.393687
9.100000	-0.377135	-130.027630	-39.384148	-18.548274	-39.384148	-18.548274	-0.377076	-130.011194
9.150000	-0.382133	-130.645163	-39.282599	-19.974281	-39.282599	-19.974281	-0.382073	-130.628576
9.200000	-0.387202	-131.262439	-39.181838	-21.399213	-39.181838	-21.399213	-0.387140	-131.245696
9.250000	-0.392307	-131.879588	-39.082041	-22.823608	-39.082041	-22.823608	-0.392244	-131.862686
9.300000	-0.397474	-132.496577	-38.983074	-24.247145	-38.983074	-24.247145	-0.397410	-132.479510
9.350000	-0.402687	-133.113451	-38.885009	-25.670069	-38.885009	-25.670069	-0.402621	-133.096216
9.400000	-0.407954	-133.730244	-38.787809	-27.092332	-38.787809	-27.092332	-0.407887	-133.712836
9.450000	-0.413275	-134.346955	-38.691458	-28.513934	-38.691458	-28.513934	-0.413206	-134.329370
9.500000	-0.418641	-134.963646	-38.596000	-29.935049	-38.596000	-29.935049	-0.418570	-134.945879
9.550000	-0.424070	-135.580309	-38.501350	-31.355482	-38.501350	-31.355482	-0.423997	-135.562354
9.600000	-0.429536	-136.196993	-38.407610	-32.775578	-38.407610	-32.775578	-0.429461	-136.178846
9.650000	-0.435074	-136.813723	-38.314652	-34.195000	-38.314652	-34.195000	-0.434996	-136.795377
9.700000	-0.440640	-137.430498	-38.222612	-35.614208	-38.222612	-35.614208	-0.440560	-137.411950
9.750000	-0.446286	-138.047413	-38.131340	-37.032778	-38.131340	-37.032778	-0.446203	-138.028653
9.800000	-0.451953	-138.664379	-38.040984	-38.451232	-38.040984	-38.451232	-0.451867	-138.645405
9.850000	-0.457707	-139.281599	-37.951394	-39.869111	-37.951394	-39.869111	-0.457618	-139.262402
9.900000	-0.463473	-139.898855	-37.862709	-41.286945	-37.862709	-41.286945	-0.463381	-139.879433
9.950000	-0.469336	-140.516505	-37.774804	-42.704295	-37.774804	-42.704295	-0.469239	-140.496844
10.000000	-0.475202	-141.134155	-37.687780	-44.121644	-37.687780	-44.121644	-0.475101	-141.114255
