! freq	dB(S11)	phase(S11)	dB(S12)	phase(S12)	
!     	dB(S21)	phase(S21)	dB(S22)	phase(S22)	
!S-par simulation data
#  GHz  S  DB  R 50
0.000000	-0.000000	0.000000	-346.134826	180.000000	-346.134826	180.000000	-0.000000	0.000000
0.050000	-0.000156	-1.596581	-68.160732	2.204794	-68.160732	2.204794	-0.000156	-1.596904
0.100000	-0.000622	-3.192767	-67.504416	16.972585	-67.504416	16.972585	-0.000621	-3.193412
0.150000	-0.001384	-4.788176	-66.676948	27.044305	-66.676948	27.044305	-0.001384	-4.789144
0.200000	-0.002426	-6.382465	-65.744040	34.611578	-65.744040	34.611578	-0.002425	-6.383755
0.250000	-0.003741	-7.975207	-64.775849	40.236612	-64.775849	40.236612	-0.003740	-7.976821
0.300000	-0.005280	-9.566243	-63.831050	44.538732	-63.831050	44.538732	-0.005279	-9.568180
0.350000	-0.007028	-11.155253	-62.926845	47.770902	-62.926845	47.770902	-0.007026	-11.157515
0.400000	-0.008955	-12.742011	-62.072655	50.187217	-62.072655	50.187217	-0.008953	-12.744596
0.450000	-0.011034	-14.326323	-61.270434	51.976412	-61.270434	51.976412	-0.011032	-14.329233
0.500000	-0.013237	-15.908031	-60.518471	53.278028	-60.518471	53.278028	-0.013234	-15.911266
0.550000	-0.015536	-17.487006	-59.813448	54.195568	-59.813448	54.195568	-0.015533	-17.490564
0.600000	-0.017907	-19.063142	-59.151501	54.806418	-59.151501	54.806418	-0.017905	-19.067024
0.650000	-0.020329	-20.636358	-58.528750	55.169054	-58.528750	55.169054	-0.020326	-20.640562
0.700000	-0.022781	-22.206588	-57.941538	55.328180	-57.941538	55.328180	-0.022779	-22.211114
0.750000	-0.025247	-23.773778	-57.386533	55.318374	-57.386533	55.318374	-0.025245	-23.778625
0.800000	-0.027713	-25.337885	-56.860752	55.166696	-56.860752	55.166696	-0.027711	-25.343052
0.850000	-0.030167	-26.898873	-56.361551	54.894565	-56.361551	54.894565	-0.030166	-26.904359
0.900000	-0.032601	-28.456708	-55.886597	54.519115	-55.886597	54.519115	-0.032600	-28.462511
0.950000	-0.035006	-30.011360	-55.433841	54.054197	-55.433841	54.054197	-0.035006	-30.017478
1.000000	-0.037378	-31.562796	-55.001482	53.511125	-55.001482	53.511125	-0.037379	-31.569229
1.050000	-0.039714	-33.110986	-54.587940	52.899233	-54.587940	52.899233	-0.039715	-33.117732
1.100000	-0.042010	-34.655897	-54.191828	52.226302	-54.191828	52.226302	-0.042012	-34.662954
1.150000	-0.044266	-36.197496	-53.811927	51.498890	-53.811927	51.498890	-0.044268	-36.204861
1.200000	-0.046481	-37.735745	-53.447170	50.722590	-53.447170	50.722590	-0.046484	-37.743418
1.250000	-0.048656	-39.270608	-53.096616	49.902231	-53.096616	49.902231	-0.048660	-39.278587
1.300000	-0.050790	-40.801896	-52.759446	49.040490	-52.759446	49.040490	-0.050795	-40.810179
1.350000	-0.052887	-42.329714	-52.434957	48.142991	-52.434957	48.142991	-0.052892	-42.338300
1.400000	-0.054948	-43.854024	-52.122513	47.213106	-52.122513	47.213106	-0.054954	-43.862911
1.450000	-0.056975	-45.374785	-51.821552	46.253957	-51.821552	46.253957	-0.056982	-45.383970
1.500000	-0.058971	-46.891955	-51.531580	45.268485	-51.531580	45.268485	-0.058979	-46.901437
1.550000	-0.060939	-48.405496	-51.252158	44.259518	-51.252158	44.259518	-0.060947	-48.415274
1.600000	-0.062879	-49.915368	-50.982892	43.229822	-50.982892	43.229822	-0.062888	-49.925439
1.650000	-0.064796	-51.421534	-50.723427	42.182145	-50.723427	42.182145	-0.064805	-51.431898
1.700000	-0.066690	-52.923958	-50.473436	41.119253	-50.473436	41.119253	-0.066700	-52.934612
1.750000	-0.068565	-54.422607	-50.232611	40.043960	-50.232611	40.043960	-0.068576	-54.433550
1.800000	-0.070422	-55.917449	-50.000655	38.959149	-50.000655	38.959149	-0.070434	-55.928680
1.850000	-0.072264	-57.408455	-49.777271	37.867784	-49.777271	37.867784	-0.072276	-57.419972
1.900000	-0.074093	-58.895600	-49.562159	36.772911	-49.562159	36.772911	-0.074106	-58.907401
1.950000	-0.075911	-60.378860	-49.354999	35.677656	-49.354999	35.677656	-0.075924	-60.390944
2.000000	-0.077720	-61.858216	-49.155447	34.585202	-49.155447	34.585202	-0.077733	-61.870581
2.050000	-0.079521	-63.333650	-48.963129	33.498767	-48.963129	33.498767	-0.079534	-63.346296
2.100000	-0.081316	-64.805151	-48.777629	32.421562	-48.777629	32.421562	-0.081330	-64.818076
2.150000	-0.083107	-66.272708	-48.598486	31.356741	-48.598486	31.356741	-0.083121	-66.285910
2.200000	-0.084896	-67.736315	-48.425190	30.307343	-48.425190	30.307343	-0.084910	-67.749794
2.250000	-0.086683	-69.195971	-48.257176	29.276223	-48.257176	29.276223	-0.086698	-69.209725
2.300000	-0.088471	-70.651676	-48.093829	28.265977	-48.093829	28.265977	-0.088487	-70.665705
2.350000	-0.090261	-72.103437	-47.934479	27.278868	-47.934479	27.278868	-0.090277	-72.117739
2.400000	-0.092054	-73.551262	-47.778414	26.316744	-47.778414	26.316744	-0.092070	-73.565837
2.450000	-0.093851	-74.995166	-47.624881	25.380971	-47.624881	25.380971	-0.093867	-75.010012
2.500000	-0.095654	-76.435164	-47.473100	24.472368	-47.473100	24.472368	-0.095670	-76.450281
2.550000	-0.097464	-77.871110	-47.322164	23.592330	-47.322164	23.592330	-0.097480	-77.886497
2.600000	-0.099281	-79.303199	-47.171314	22.739183	-47.171314	22.739183	-0.099297	-79.318855
2.650000	-0.101107	-80.731461	-47.019768	21.911800	-47.019768	21.911800	-0.101123	-80.747386
2.700000	-0.102943	-82.155929	-46.866779	21.108440	-46.866779	21.108440	-0.102959	-82.172121
2.750000	-0.104790	-83.576639	-46.711649	20.326787	-46.711649	20.326787	-0.104806	-83.593099
2.800000	-0.106648	-84.993633	-46.553743	19.564013	-46.553743	19.564013	-0.106665	-85.010360
2.850000	-0.108520	-86.406954	-46.392499	18.816857	-46.392499	18.816857	-0.108536	-86.423949
2.900000	-0.110404	-87.816652	-46.227440	18.081721	-46.227440	18.081721	-0.110421	-87.833914
2.950000	-0.112304	-89.222778	-46.058176	17.354767	-46.058176	17.354767	-0.112320	-89.240307
3.000000	-0.114218	-90.625389	-45.884409	16.632024	-45.884409	16.632024	-0.114235	-90.643185
3.050000	-0.116149	-92.024543	-45.705928	15.909492	-45.705928	15.909492	-0.116165	-92.042606
3.100000	-0.118096	-93.420303	-45.522609	15.183230	-45.522609	15.183230	-0.118113	-93.438635
3.150000	-0.120062	-94.812736	-45.334403	14.449445	-45.334403	14.449445	-0.120078	-94.831336
3.200000	-0.122045	-96.201913	-45.141335	13.704558	-45.141335	13.704558	-0.122062	-96.220782
3.250000	-0.124049	-97.587907	-44.943485	12.945260	-44.943485	12.945260	-0.124065	-97.607046
3.300000	-0.126072	-98.970795	-44.740987	12.168550	-44.740987	12.168550	-0.126089	-98.990204
3.350000	-0.128116	-100.350658	-44.534010	11.371760	-44.534010	11.371760	-0.128133	-100.370338
3.400000	-0.130182	-101.727580	-44.322752	10.552563	-44.322752	10.552563	-0.130199	-101.747533
3.450000	-0.132271	-103.101648	-44.107432	9.708972	-44.107432	9.708972	-0.132288	-103.121875
3.500000	-0.134383	-104.472954	-43.888276	8.839329	-43.888276	8.839329	-0.134400	-104.493456
3.550000	-0.136519	-105.841591	-43.665514	7.942286	-43.665514	7.942286	-0.136536	-105.862370
3.600000	-0.138680	-107.207657	-43.439372	7.016781	-43.439372	7.016781	-0.138697	-107.228714
3.650000	-0.140866	-108.571254	-43.210067	6.062007	-43.210067	6.062007	-0.140883	-108.592591
3.700000	-0.143079	-109.932485	-42.977802	5.077389	-42.977802	5.077389	-0.143097	-109.954105
3.750000	-0.145319	-111.291458	-42.742766	4.062549	-42.742766	4.062549	-0.145337	-111.313364
3.800000	-0.147588	-112.648197	-42.504734	3.015953	-42.504734	3.015953	-0.147606	-112.670390
3.850000	-0.149887	-114.002915	-42.264247	1.938868	-42.264247	1.938868	-0.149905	-114.025398
3.900000	-0.152215	-115.355730	-42.021433	0.831356	-42.021433	0.831356	-0.152233	-115.378506
3.950000	-0.154574	-116.706764	-41.776397	-0.306426	-41.776397	-0.306426	-0.154592	-116.729836
4.000000	-0.156964	-118.056143	-41.529224	-1.474255	-41.529224	-1.474255	-0.156983	-118.079515
4.050000	-0.159386	-119.403995	-41.279979	-2.671853	-41.279979	-2.671853	-0.159406	-119.427670
4.100000	-0.161842	-120.750454	-41.028707	-3.898905	-41.028707	-3.898905	-0.161862	-120.774436
4.150000	-0.164331	-122.095655	-40.775434	-5.155069	-40.775434	-5.155069	-0.164352	-122.119948
4.200000	-0.166856	-123.439740	-40.520167	-6.439990	-40.520167	-6.439990	-0.166877	-123.464348
4.250000	-0.169417	-124.782852	-40.262897	-7.753308	-40.262897	-7.753308	-0.169438	-124.807781
4.300000	-0.172014	-126.125141	-40.003597	-9.094662	-40.003597	-9.094662	-0.172036	-126.150395
4.350000	-0.174649	-127.466759	-39.742224	-10.463701	-39.742224	-10.463701	-0.174672	-127.492342
4.400000	-0.177324	-128.807863	-39.478721	-11.860084	-39.478721	-11.860084	-0.177347	-128.833782
4.450000	-0.180038	-130.148615	-39.213014	-13.283487	-39.213014	-13.283487	-0.180062	-130.174875
4.500000	-0.182793	-131.489182	-38.945016	-14.733604	-38.945016	-14.733604	-0.182818	-131.515791
4.550000	-0.185591	-132.829738	-38.674625	-16.210149	-38.674625	-16.210149	-0.185617	-132.856700
4.600000	-0.188433	-134.170458	-38.401725	-17.712859	-38.401725	-17.712859	-0.188459	-134.197782
4.650000	-0.191319	-135.511528	-38.126187	-19.241494	-38.126187	-19.241494	-0.191346	-135.539220
4.700000	-0.194251	-136.853137	-37.847867	-20.795836	-37.847867	-20.795836	-0.194280	-136.881205
4.750000	-0.197231	-138.195483	-37.566605	-22.375694	-37.566605	-22.375694	-0.197261	-138.223936
4.800000	-0.200261	-139.538769	-37.282231	-23.980900	-37.282231	-23.980900	-0.200292	-139.567615
4.850000	-0.203341	-140.883209	-36.994554	-25.611313	-36.994554	-25.611313	-0.203374	-140.912458
4.900000	-0.206475	-142.229024	-36.703372	-27.266816	-36.703372	-27.266816	-0.206508	-142.258685
4.950000	-0.209663	-143.576444	-36.408464	-28.947319	-36.408464	-28.947319	-0.209698	-143.606528
5.000000	-0.212908	-144.925711	-36.109591	-30.652758	-36.109591	-30.652758	-0.212945	-144.956229
5.050000	-0.216216	-146.277183	-35.805830	-32.384179	-35.805830	-32.384179	-0.216254	-146.308147
5.100000	-0.219586	-147.631047	-35.497510	-34.140496	-35.497510	-34.140496	-0.219626	-147.662470
5.150000	-0.223022	-148.987587	-35.184324	-35.921736	-35.184324	-35.921736	-0.223064	-149.019482
5.200000	-0.226527	-150.347101	-34.865941	-37.727961	-34.865941	-37.727961	-0.226571	-150.379483
5.250000	-0.230105	-151.709909	-34.542001	-39.559265	-34.542001	-39.559265	-0.230151	-151.742792
5.300000	-0.233761	-153.076349	-34.212117	-41.415786	-34.212117	-41.415786	-0.233808	-153.109751
5.350000	-0.237499	-154.446786	-33.875868	-43.297704	-33.875868	-43.297704	-0.237549	-154.480723
5.400000	-0.241326	-155.821609	-33.532795	-45.205247	-33.532795	-45.205247	-0.241378	-155.856101
5.450000	-0.245248	-157.201241	-33.182401	-47.138703	-33.182401	-47.138703	-0.245303	-157.236309
5.500000	-0.249273	-158.586142	-32.824144	-49.098422	-32.824144	-49.098422	-0.249331	-158.621806
5.550000	-0.253410	-159.976812	-32.457429	-51.084834	-32.457429	-51.084834	-0.253471	-160.013097
5.600000	-0.257671	-161.373801	-32.081607	-53.098455	-32.081607	-53.098455	-0.257735	-161.410732
5.650000	-0.262068	-162.777717	-31.695961	-55.139909	-31.695961	-55.139909	-0.262136	-162.815323
5.700000	-0.266617	-164.189234	-31.299705	-57.209945	-31.299705	-57.209945	-0.266689	-164.227546
5.750000	-0.271336	-165.609110	-30.891965	-59.309466	-30.891965	-59.309466	-0.271412	-165.648161
5.800000	-0.276248	-167.038196	-30.471776	-61.439555	-30.471776	-61.439555	-0.276328	-167.078024
5.850000	-0.281357	-168.476460	-30.041362	-63.598585	-30.041362	-63.598585	-0.281443	-168.517101
5.900000	-0.286740	-169.927029	-29.592748	-65.794218	-29.592748	-65.794218	-0.286832	-169.968534
5.950000	-0.292419	-171.390175	-29.128004	-68.025243	-29.128004	-68.025243	-0.292518	-171.432596
6.000000	-0.298444	-172.867390	-28.645589	-70.294007	-28.645589	-70.294007	-0.298550	-172.910785
6.050000	-0.304880	-174.360429	-28.143754	-72.603390	-28.143754	-72.603390	-0.304996	-174.404863
6.100000	-0.311812	-175.871373	-27.620497	-74.956941	-27.620497	-74.956941	-0.311938	-175.916923
6.150000	-0.319346	-177.402722	-27.073520	-77.359070	-27.073520	-77.359070	-0.319484	-177.449474
6.200000	-0.327622	-178.957505	-26.500163	-79.815297	-26.500163	-79.815297	-0.327774	-179.005560
6.250000	-0.336826	179.460555	-25.897321	-82.332596	-25.897321	-82.332596	-0.336995	179.411079
6.300000	-0.347239	177.846005	-25.259438	-84.921654	-25.259438	-84.921654	-0.347429	177.794963
6.350000	-0.359192	176.193487	-24.583553	-87.592886	-24.583553	-87.592886	-0.359407	176.140709
6.400000	-0.373131	174.496238	-23.866088	-90.359850	-23.866088	-90.359850	-0.373378	174.441521
6.450000	-0.389807	172.743105	-23.097933	-93.245644	-23.097933	-93.245644	-0.390094	172.686191
6.500000	-0.410220	170.921363	-22.272185	-96.277072	-22.272185	-96.277072	-0.410560	170.861929
6.550000	-0.435918	169.013092	-21.378966	-99.492795	-21.378966	-99.492795	-0.436327	168.950723
6.600000	-0.469417	166.992215	-20.404058	-102.950520	-20.404058	-102.950520	-0.469921	166.926360
6.650000	-0.514659	164.824076	-19.333017	-106.729753	-19.333017	-106.729753	-0.515297	164.753993
6.700000	-0.578628	162.455645	-18.143679	-110.957285	-18.143679	-110.957285	-0.579463	162.380290
6.750000	-0.673939	159.809611	-16.809328	-115.831159	-16.809328	-115.831159	-0.675080	159.727463
6.800000	-0.825674	156.768546	-15.293701	-121.687838	-15.293701	-121.687838	-0.827325	156.677269
6.850000	-1.087276	153.170668	-13.556293	-129.116522	-13.556293	-129.116522	-1.089860	153.066498
6.900000	-1.584409	148.879052	-11.566757	-139.211319	-11.566757	-139.211319	-1.588944	148.755673
6.950000	-2.626367	144.425142	-9.385545	-153.979210	-9.385545	-153.979210	-2.635820	144.273217
7.000000	-4.747439	145.029197	-7.433928	-176.252404	-7.433928	-176.252404	-4.771449	144.861388
7.050000	-6.126630	164.649513	-6.787932	154.592163	-6.787932	154.592163	-6.164671	164.649453
7.100000	-3.926404	177.034653	-7.951701	127.674280	-7.951701	127.674280	-3.943790	177.119501
7.150000	-2.272233	174.807087	-9.910949	108.877909	-9.910949	108.877909	-2.279769	174.864671
7.200000	-1.486605	170.443338	-11.847903	96.397325	-11.847903	96.397325	-1.490627	170.476757
7.250000	-1.095229	166.508217	-13.544638	87.602200	-13.544638	87.602200	-1.097717	166.525481
7.300000	-0.880603	163.160817	-14.998347	80.919677	-14.998347	80.919677	-0.882300	163.166921
7.350000	-0.752974	160.259942	-16.247728	75.512650	-16.247728	75.512650	-0.754213	160.257912
7.400000	-0.672558	157.676812	-17.328267	70.928341	-17.328267	70.928341	-0.673509	157.668580
7.450000	-0.618772	155.310696	-18.280150	66.881014	-18.280150	66.881014	-0.619528	155.297507
7.500000	-0.581927	153.104333	-19.121478	63.222058	-19.121478	63.222058	-0.582546	153.087075
7.550000	-0.556082	151.014814	-19.870424	59.847308	-19.870424	59.847308	-0.556602	150.994128
7.600000	-0.537513	149.010074	-20.544719	56.682028	-20.544719	56.682028	-0.537958	148.986422
7.650000	-0.524111	147.070037	-21.153964	53.681363	-21.153964	53.681363	-0.524498	147.043773
7.700000	-0.514496	145.180122	-21.705233	50.813952	-21.705233	50.813952	-0.514837	145.151526
7.750000	-0.507409	143.324894	-22.214459	48.044035	-22.214459	48.044035	-0.507712	143.294164
7.800000	-0.502507	141.500274	-22.677450	45.366628	-22.677450	45.366628	-0.502780	141.467591
7.850000	-0.499172	139.697652	-23.103576	42.762165	-23.103576	42.762165	-0.499419	139.663151
7.900000	-0.496999	137.911061	-23.499681	40.216956	-23.499681	40.216956	-0.497224	137.874848
7.950000	-0.495913	136.138849	-23.860548	37.733030	-23.860548	37.733030	-0.496120	136.101027
8.000000	-0.495541	134.375392	-24.197667	35.293749	-24.197667	35.293749	-0.495732	134.336030
8.050000	-0.495826	132.619069	-24.508555	32.899968	-24.508555	32.899968	-0.496003	132.578233
8.100000	-0.496656	130.867713	-24.794786	30.548014	-24.794786	30.548014	-0.496821	130.825460
8.150000	-0.497871	129.118650	-25.062324	28.230091	-25.062324	28.230091	-0.498026	129.075021
8.200000	-0.499370	127.370816	-25.316004	25.938918	-25.316004	25.938918	-0.499516	127.325841
8.250000	-0.501206	125.623382	-25.548691	23.682724	-25.548691	23.682724	-0.501343	125.577097
8.300000	-0.503300	123.874599	-25.762954	21.458636	-25.762954	21.458636	-0.503429	123.827034
8.350000	-0.505542	122.124475	-25.967442	19.254545	-25.967442	19.254545	-0.505664	122.075646
8.400000	-0.507977	120.371476	-26.155152	17.079901	-26.155152	17.079901	-0.508093	120.321406
8.450000	-0.510551	118.615189	-26.329748	14.929776	-26.329748	14.929776	-0.510661	118.563894
8.500000	-0.513239	116.855061	-26.492052	12.803091	-26.492052	12.803091	-0.513344	116.802555
8.550000	-0.516023	115.090623	-26.642809	10.698889	-26.642809	10.698889	-0.516123	115.036918
8.600000	-0.518884	113.321477	-26.782697	8.616307	-26.782697	8.616307	-0.518980	113.266583
8.650000	-0.521809	111.547291	-26.912334	6.554561	-26.912334	6.554561	-0.521900	111.491216
8.700000	-0.524785	109.767788	-27.032287	4.512926	-27.032287	4.512926	-0.524872	109.710541
8.750000	-0.527801	107.982742	-27.143075	2.490727	-27.143075	2.490727	-0.527884	107.924327
8.800000	-0.530848	106.191713	-27.244775	0.488115	-27.244775	0.488115	-0.530927	106.132139
8.850000	-0.533917	104.394809	-27.338287	-1.496360	-27.338287	-1.496360	-0.533992	104.334079
8.900000	-0.537000	102.591928	-27.424013	-3.463284	-27.424013	-3.463284	-0.537072	102.530049
8.950000	-0.540092	100.783007	-27.502330	-5.413226	-27.502330	-5.413226	-0.540161	100.719982
9.000000	-0.543188	98.968009	-27.573587	-7.346742	-27.573587	-7.346742	-0.543253	98.903843
9.050000	-0.546282	97.146931	-27.638111	-9.264384	-27.638111	-9.264384	-0.546343	97.081629
9.100000	-0.549370	95.319794	-27.696209	-11.166699	-27.696209	-11.166699	-0.549429	95.253360
9.150000	-0.552450	93.486647	-27.748168	-13.054233	-27.748168	-13.054233	-0.552506	93.419086
9.200000	-0.555519	91.647562	-27.794258	-14.927530	-27.794258	-14.927530	-0.555571	91.578879
9.250000	-0.558573	89.802636	-27.834735	-16.787139	-27.834735	-16.787139	-0.558623	89.732836
9.300000	-0.561612	87.951987	-27.869838	-18.633610	-27.869838	-18.633610	-0.561659	87.881076
9.350000	-0.564634	86.095755	-27.899795	-20.467500	-27.899795	-20.467500	-0.564679	86.023741
9.400000	-0.567638	84.234102	-27.924824	-22.289370	-27.924824	-22.289370	-0.567680	84.160990
9.450000	-0.570623	82.367208	-27.945127	-24.099787	-27.945127	-24.099787	-0.570662	82.293006
9.500000	-0.573589	80.495272	-27.960902	-25.899323	-27.960902	-25.899323	-0.573626	80.419989
9.550000	-0.576536	78.618512	-27.972335	-27.688561	-27.972335	-27.688561	-0.576571	78.542157
9.600000	-0.579464	76.737164	-27.979603	-29.468085	-27.979603	-29.468085	-0.579498	76.659746
9.650000	-0.582375	74.851480	-27.982878	-31.238493	-27.982878	-31.238493	-0.582407	74.773011
9.700000	-0.585269	72.961729	-27.982325	-33.000383	-27.982325	-33.000383	-0.585300	72.882220
9.750000	-0.588148	71.068195	-27.978102	-34.754366	-27.978102	-34.754366	-0.588177	70.987658
9.800000	-0.591014	69.171178	-27.970362	-36.501057	-27.970362	-36.501057	-0.591042	69.089626
9.850000	-0.593868	67.270991	-27.959254	-38.241078	-27.959254	-38.241078	-0.593896	67.188438
9.900000	-0.596713	65.367961	-27.944922	-39.975056	-27.944922	-39.975056	-0.596741	65.284422
9.950000	-0.599551	63.462427	-27.927506	-41.703628	-27.927506	-41.703628	-0.599580	63.377919
10.000000	-0.602386	61.554741	-27.907145	-43.427433	-27.907145	-43.427433	-0.602416	61.469280
