! freq	dB(S11)	phase(S11)	dB(S12)	phase(S12)	
!     	dB(S21)	phase(S21)	dB(S22)	phase(S22)	
!S-par simulation data
#  GHz  S  DB  R 50
0.000000	0.000000	0.000000	-318.855143	180.000000	-318.855143	180.000000	-0.000000	0.000000
0.050000	-0.000989	-1.642557	-78.452674	88.045249	-78.452674	88.045249	-0.000989	-1.642720
0.100000	-0.003456	-3.278747	-72.400051	86.493824	-72.400051	86.493824	-0.003455	-3.279077
0.150000	-0.006506	-4.906960	-68.874231	84.979079	-68.874231	84.979079	-0.006506	-4.907460
0.200000	-0.009501	-6.528924	-66.383881	83.426342	-66.383881	83.426342	-0.009503	-6.529593
0.250000	-0.012245	-8.147549	-64.458251	81.846517	-64.458251	81.846517	-0.012248	-8.148386
0.300000	-0.014702	-9.764119	-62.889603	80.249342	-62.889603	80.249342	-0.014706	-9.765122
0.350000	-0.016919	-11.379438	-61.567202	78.643793	-61.567202	78.643793	-0.016924	-11.380604
0.400000	-0.018956	-12.993786	-60.425267	77.035941	-60.425267	77.035941	-0.018960	-12.995115
0.450000	-0.020858	-14.607066	-59.421946	75.430263	-59.421946	75.430263	-0.020863	-14.608557
0.500000	-0.022685	-16.219221	-58.527741	73.829336	-58.527741	73.829336	-0.022690	-16.220873
0.550000	-0.024466	-17.830055	-57.722079	72.234922	-57.722079	72.234922	-0.024470	-17.831866
0.600000	-0.026223	-19.439359	-56.989760	70.648367	-56.989760	70.648367	-0.026227	-19.441330
0.650000	-0.027973	-21.046930	-56.319224	69.070748	-56.319224	69.070748	-0.027976	-21.049058
0.700000	-0.029727	-22.652571	-55.701463	67.502976	-55.701463	67.502976	-0.029729	-22.654857
0.750000	-0.031494	-24.255961	-55.129608	65.946544	-55.129608	65.946544	-0.031496	-24.258403
0.800000	-0.033280	-25.856919	-54.597802	64.402203	-54.597802	64.402203	-0.033282	-25.859518
0.850000	-0.035089	-27.455332	-54.101141	62.870380	-54.101141	62.870380	-0.035091	-27.458086
0.900000	-0.036920	-29.051245	-53.635335	61.350754	-53.635335	61.350754	-0.036921	-29.054153
0.950000	-0.038774	-30.644373	-53.197300	59.844625	-53.197300	59.844625	-0.038775	-30.647435
1.000000	-0.040651	-32.234588	-52.784175	58.352537	-52.784175	58.352537	-0.040652	-32.237802
1.050000	-0.042551	-33.821770	-52.393494	56.875000	-52.393494	56.875000	-0.042551	-33.825136
1.100000	-0.044470	-35.405809	-52.023115	55.412484	-52.023115	55.412484	-0.044470	-35.409325
1.150000	-0.046407	-36.986602	-51.671157	53.965425	-51.671157	53.965425	-0.046407	-36.990267
1.200000	-0.048359	-38.564054	-51.335958	52.534221	-51.335958	52.534221	-0.048360	-38.567868
1.250000	-0.050324	-40.138079	-51.016037	51.119229	-51.016037	51.119229	-0.050325	-40.142040
1.300000	-0.052300	-41.708441	-50.710169	49.721501	-50.710169	49.721501	-0.052301	-41.712547
1.350000	-0.054284	-43.275216	-50.417028	48.340601	-50.417028	48.340601	-0.054285	-43.279467
1.400000	-0.056272	-44.838339	-50.135524	46.976758	-50.135524	46.976758	-0.056273	-44.842732
1.450000	-0.058264	-46.397750	-49.864659	45.630150	-49.864659	45.630150	-0.058265	-46.402284
1.500000	-0.060256	-47.953396	-49.603518	44.300913	-49.603518	44.300913	-0.060257	-47.958070
1.550000	-0.062246	-49.505229	-49.351258	42.989129	-49.351258	42.989129	-0.062248	-49.510042
1.600000	-0.064233	-51.053208	-49.107092	41.694832	-49.107092	41.694832	-0.064235	-51.058157
1.650000	-0.066216	-52.597295	-48.870291	40.418000	-48.870291	40.418000	-0.066218	-52.602380
1.700000	-0.068192	-54.137461	-48.640171	39.158557	-48.640171	39.158557	-0.068194	-54.142679
1.750000	-0.070161	-55.673679	-48.416091	37.916370	-48.416091	37.916370	-0.070163	-55.679029
1.800000	-0.072122	-57.205928	-48.197445	36.691247	-48.197445	36.691247	-0.072124	-57.211408
1.850000	-0.074073	-58.734192	-47.983663	35.482936	-47.983663	35.482936	-0.074076	-58.739801
1.900000	-0.076015	-60.258460	-47.774202	34.291121	-47.774202	34.291121	-0.076019	-60.264196
1.950000	-0.077948	-61.778725	-47.568550	33.115425	-47.568550	33.115425	-0.077951	-61.784587
2.000000	-0.079871	-63.294985	-47.366217	31.955407	-47.366217	31.955407	-0.079874	-63.300971
2.050000	-0.081784	-64.807242	-47.166739	30.810559	-47.166739	30.810559	-0.081788	-64.813351
2.100000	-0.083688	-66.315502	-46.969672	29.680309	-46.969672	29.680309	-0.083691	-66.321732
2.150000	-0.085583	-67.819776	-46.774593	28.564020	-46.774593	28.564020	-0.085587	-67.826126
2.200000	-0.087470	-69.320078	-46.581097	27.460988	-46.581097	27.460988	-0.087473	-69.326546
2.250000	-0.089349	-70.816428	-46.388801	26.370446	-46.388801	26.370446	-0.089353	-70.823013
2.300000	-0.091222	-72.308847	-46.197337	25.291563	-46.197337	25.291563	-0.091226	-72.315547
2.350000	-0.093090	-73.797361	-46.006356	24.223448	-46.006356	24.223448	-0.093094	-73.804176
2.400000	-0.094954	-75.282002	-45.815526	23.165147	-45.815526	23.165147	-0.094957	-75.288930
2.450000	-0.096814	-76.762803	-45.624530	22.115653	-45.624530	22.115653	-0.096818	-76.769843
2.500000	-0.098673	-78.239802	-45.433071	21.073904	-45.433071	21.073904	-0.098677	-78.246952
2.550000	-0.100532	-79.712878	-45.240634	20.039021	-45.240634	20.039021	-0.100535	-79.720138
2.600000	-0.102393	-81.182243	-45.047157	19.009504	-45.047157	19.009504	-0.102396	-81.189611
2.650000	-0.104256	-82.647946	-44.852391	17.984152	-44.852391	17.984152	-0.104259	-82.655420
2.700000	-0.106124	-84.110038	-44.656101	16.961725	-44.656101	16.961725	-0.106126	-84.117619
2.750000	-0.107999	-85.568578	-44.458071	15.940958	-44.458071	15.940958	-0.108000	-85.576263
2.800000	-0.109880	-87.023624	-44.258099	14.920562	-44.258099	14.920562	-0.109882	-87.031412
2.850000	-0.111772	-88.475240	-44.055997	13.899230	-44.055997	13.899230	-0.111773	-88.483131
2.900000	-0.113674	-89.923494	-43.851595	12.875646	-43.851595	12.875646	-0.113675	-89.931486
2.950000	-0.115589	-91.368456	-43.644735	11.848488	-43.644735	11.848488	-0.115589	-91.376548
3.000000	-0.117518	-92.810200	-43.435273	10.816440	-43.435273	10.816440	-0.117517	-92.818392
3.050000	-0.119462	-94.248805	-43.223079	9.778191	-43.223079	9.778191	-0.119462	-94.257095
3.100000	-0.121424	-95.684352	-43.008036	8.732446	-43.008036	8.732446	-0.121423	-95.692739
3.150000	-0.123405	-97.116928	-42.790037	7.677933	-42.790037	7.677933	-0.123404	-97.125410
3.200000	-0.125406	-98.546621	-42.568990	6.613404	-42.568990	6.613404	-0.125404	-98.555198
3.250000	-0.127429	-99.973524	-42.344808	5.537643	-42.344808	5.537643	-0.127427	-99.982195
3.300000	-0.129475	-101.397735	-42.117417	4.449473	-42.117417	4.449473	-0.129472	-101.406499
3.350000	-0.131545	-102.819355	-41.886748	3.347755	-41.886748	3.347755	-0.131543	-102.828210
3.400000	-0.133642	-104.238489	-41.652741	2.231398	-41.652741	2.231398	-0.133639	-104.247434
3.450000	-0.135765	-105.655247	-41.415341	1.099358	-41.415341	1.099358	-0.135762	-105.664281
3.500000	-0.137918	-107.069742	-41.174497	-0.049360	-41.174497	-0.049360	-0.137914	-107.078864
3.550000	-0.140100	-108.482093	-40.930161	-1.215695	-40.930161	-1.215695	-0.140096	-108.491300
3.600000	-0.142313	-109.892421	-40.682289	-2.400531	-40.682289	-2.400531	-0.142309	-109.901714
3.650000	-0.144559	-111.300855	-40.430836	-3.604700	-40.430836	-3.604700	-0.144554	-111.310232
3.700000	-0.146838	-112.707527	-40.175755	-4.828975	-40.175755	-4.828975	-0.146833	-112.716986
3.750000	-0.149151	-114.112574	-39.916999	-6.074072	-39.916999	-6.074072	-0.149146	-114.122114
3.800000	-0.151502	-115.516082	-39.654000	-7.341618	-39.654000	-7.341618	-0.151497	-115.525702
3.850000	-0.153891	-116.918271	-39.387192	-8.631306	-39.387192	-8.631306	-0.153885	-116.927968
3.900000	-0.156317	-118.319295	-39.116509	-9.943686	-39.116509	-9.943686	-0.156311	-118.329069
3.950000	-0.158783	-119.719317	-38.841881	-11.279254	-38.841881	-11.279254	-0.158777	-119.729166
4.000000	-0.161290	-121.118505	-38.563226	-12.638460	-38.563226	-12.638460	-0.161284	-121.128427
4.050000	-0.163839	-122.517035	-38.280454	-14.021711	-38.280454	-14.021711	-0.163832	-122.527028
4.100000	-0.166431	-123.915090	-37.993460	-15.429367	-37.993460	-15.429367	-0.166424	-123.925152
4.150000	-0.169068	-125.312861	-37.702127	-16.861754	-37.702127	-16.861754	-0.169060	-125.322991
4.200000	-0.171751	-126.710550	-37.406325	-18.319162	-37.406325	-18.319162	-0.171743	-126.720745
4.250000	-0.174482	-128.108367	-37.105904	-19.801848	-37.105904	-19.801848	-0.174474	-128.118626
4.300000	-0.177262	-129.506533	-36.800698	-21.310046	-36.800698	-21.310046	-0.177254	-129.516853
4.350000	-0.180095	-130.905281	-36.490520	-22.843964	-36.490520	-22.843964	-0.180086	-130.915660
4.400000	-0.182981	-132.304859	-36.175162	-24.403797	-36.175162	-24.403797	-0.182971	-132.315294
4.450000	-0.185922	-133.705526	-35.854390	-25.989723	-35.854390	-25.989723	-0.185912	-133.716015
4.500000	-0.188923	-135.107559	-35.527947	-27.601919	-35.527947	-27.601919	-0.188912	-135.118100
4.550000	-0.191985	-136.511254	-35.195544	-29.240557	-35.195544	-29.240557	-0.191973	-136.521843
4.600000	-0.195112	-137.916926	-34.856863	-30.905817	-34.856863	-30.905817	-0.195100	-137.927559
4.650000	-0.198309	-139.324913	-34.511549	-32.597894	-34.511549	-32.597894	-0.198295	-139.335587
4.700000	-0.201579	-140.735579	-34.159211	-34.317002	-34.159211	-34.317002	-0.201564	-140.746292
4.750000	-0.204927	-142.149320	-33.799416	-36.063388	-33.799416	-36.063388	-0.204912	-142.160066
4.800000	-0.208361	-143.566563	-33.431681	-37.837339	-33.431681	-37.837339	-0.208344	-143.577339
4.850000	-0.211887	-144.987779	-33.055477	-39.639196	-33.055477	-39.639196	-0.211868	-144.998579
4.900000	-0.215513	-146.413481	-32.670211	-41.469367	-32.670211	-41.469367	-0.215493	-146.424301
4.950000	-0.219249	-147.844240	-32.275230	-43.328344	-32.275230	-43.328344	-0.219228	-147.855072
5.000000	-0.223109	-149.280686	-31.869804	-45.216724	-31.869804	-45.216724	-0.223085	-149.291525
5.050000	-0.227118	-150.724150	-31.450295	-47.137867	-31.450295	-47.137867	-0.227093	-150.734988
5.100000	-0.231272	-152.174342	-31.020909	-49.087784	-31.020909	-49.087784	-0.231245	-152.185171
5.150000	-0.235604	-153.632710	-30.578079	-51.069938	-30.578079	-51.069938	-0.235574	-153.643521
5.200000	-0.240149	-155.100743	-30.118921	-53.087234	-30.118921	-53.087234	-0.240116	-155.111525
5.250000	-0.244913	-156.578415	-29.646986	-55.137041	-29.646986	-55.137041	-0.244877	-156.589156
5.300000	-0.249978	-158.068890	-29.154112	-57.227013	-29.154112	-57.227013	-0.249939	-158.079576
5.350000	-0.255365	-159.572531	-28.643488	-59.355600	-28.643488	-59.355600	-0.255322	-159.583147
5.400000	-0.261131	-161.090958	-28.114092	-61.525060	-28.114092	-61.525060	-0.261083	-161.101485
5.450000	-0.267393	-162.627775	-27.559561	-63.742677	-27.559561	-63.742677	-0.267340	-162.638191
5.500000	-0.274261	-164.185762	-26.977792	-66.012825	-26.977792	-66.012825	-0.274203	-164.196041
5.550000	-0.281875	-165.768017	-26.367112	-68.340532	-26.367112	-68.340532	-0.281809	-165.778129
5.600000	-0.290431	-167.378907	-25.723977	-70.733600	-25.723977	-70.733600	-0.290357	-167.388814
5.650000	-0.300212	-169.024241	-25.043452	-73.202754	-25.043452	-73.202754	-0.300129	-169.033899
5.700000	-0.311643	-170.712088	-24.318369	-75.763258	-24.318369	-75.763258	-0.311548	-170.721440
5.750000	-0.325250	-172.451075	-23.544404	-78.431326	-23.544404	-78.431326	-0.325141	-172.460052
5.800000	-0.341814	-174.253077	-22.715019	-81.229960	-22.715019	-81.229960	-0.341687	-174.261591
5.850000	-0.362657	-176.136986	-21.816987	-84.196684	-21.816987	-84.196684	-0.362507	-176.144923
5.900000	-0.389798	-178.127764	-20.836717	-87.381908	-20.836717	-87.381908	-0.389617	-178.134970
5.950000	-0.426381	179.741158	-19.760351	-90.854820	-19.760351	-90.854820	-0.426160	179.734891
6.000000	-0.478214	177.415151	-18.562475	-94.731820	-18.562475	-94.731820	-0.477934	177.410118
6.050000	-0.555447	174.816683	-17.217068	-99.186164	-17.217068	-99.186164	-0.555079	174.813315
6.100000	-0.679027	171.816411	-15.681058	-104.527020	-15.681058	-104.527020	-0.678516	171.815381
6.150000	-0.894076	168.216530	-13.904425	-111.298245	-13.904425	-111.298245	-0.893314	168.218941
6.200000	-1.311930	163.743746	-11.830921	-120.557745	-11.830921	-120.557745	-1.310653	163.751543
6.250000	-2.236559	158.424232	-9.464312	-134.415354	-9.464312	-134.415354	-2.233987	158.440854
6.300000	-4.424234	156.166853	-7.153135	-156.509984	-7.153135	-156.509984	-4.417400	156.193094
6.350000	-6.685367	177.051668	-6.166029	172.076335	-6.166029	172.076335	-6.671899	177.021871
6.400000	-4.057924	-166.594458	-7.414950	142.259789	-7.414950	142.259789	-4.052851	-166.657385
6.450000	-2.172464	-169.662101	-9.624628	122.353745	-9.624628	122.353745	-2.170649	-169.712231
6.500000	-1.363467	-174.611528	-11.748355	109.776605	-11.748355	109.776605	-1.362616	-174.652989
6.550000	-0.983285	-178.783646	-13.563155	101.179422	-13.563155	101.179422	-0.982813	-178.819946
6.600000	-0.781290	177.783771	-15.094842	94.744375	-15.094842	94.744375	-0.781000	177.750767
6.650000	-0.663647	174.864161	-16.397835	89.575861	-16.397835	89.575861	-0.663457	174.833393
6.700000	-0.590483	172.292332	-17.517819	85.203612	-17.517819	85.203612	-0.590352	172.263152
6.750000	-0.542229	169.954532	-18.497445	81.348030	-18.497445	81.348030	-0.542136	169.926525
6.800000	-0.509401	167.783816	-19.360874	77.855676	-19.360874	77.855676	-0.509334	167.756693
6.850000	-0.486327	165.731445	-20.132321	74.620161	-20.132321	74.620161	-0.486278	165.705004
6.900000	-0.469974	163.768526	-20.823707	71.580681	-20.823707	71.580681	-0.469939	163.742615
6.950000	-0.458272	161.872341	-21.447935	68.690560	-21.447935	68.690560	-0.458247	161.846843
7.000000	-0.449871	160.026298	-22.015877	65.916344	-22.015877	65.916344	-0.449853	160.001125
7.050000	-0.443907	158.218852	-22.535034	63.235364	-22.535034	63.235364	-0.443896	158.193934
7.100000	-0.439900	156.443220	-23.006321	60.636269	-23.006321	60.636269	-0.439894	156.418495
7.150000	-0.437153	154.688258	-23.446332	58.094376	-23.446332	58.094376	-0.437151	154.663685
7.200000	-0.435522	152.951490	-23.852553	55.607226	-23.852553	55.607226	-0.435524	152.927030
7.250000	-0.434775	151.228742	-24.228532	53.167334	-24.228532	53.167334	-0.434781	151.204362
7.300000	-0.434735	149.516670	-24.577263	50.768862	-24.577263	50.768862	-0.434744	149.492342
7.350000	-0.435268	147.812565	-24.901293	48.407213	-24.901293	48.407213	-0.435279	147.788265
7.400000	-0.436269	146.114205	-25.202807	46.078730	-25.202807	46.078730	-0.436282	146.089912
7.450000	-0.437656	144.419751	-25.483695	43.780473	-25.483695	43.780473	-0.437671	144.395448
7.500000	-0.439362	142.727667	-25.745594	41.510057	-25.745594	41.510057	-0.439379	142.703338
7.550000	-0.441344	141.036656	-25.988962	39.266581	-25.988962	39.266581	-0.441364	141.012286
7.600000	-0.443546	139.345544	-26.216212	37.047255	-26.216212	37.047255	-0.443567	139.321121
7.650000	-0.445933	137.653414	-26.428426	34.850750	-26.428426	34.850750	-0.445956	137.628927
7.700000	-0.448475	135.959478	-26.626567	32.675932	-26.626567	32.675932	-0.448501	135.934919
7.750000	-0.451149	134.263060	-26.811497	30.521820	-26.811497	30.521820	-0.451176	134.238419
7.800000	-0.453933	132.563573	-26.983992	28.387551	-26.983992	28.387551	-0.453962	132.538842
7.850000	-0.456809	130.860507	-27.144752	26.272358	-27.144752	26.272358	-0.456840	130.835680
7.900000	-0.459762	129.153424	-27.294412	24.175543	-27.294412	24.175543	-0.459795	129.128494
7.950000	-0.462779	127.441941	-27.433551	22.096467	-27.433551	22.096467	-0.462814	127.416903
8.000000	-0.465848	125.725728	-27.562696	20.034537	-27.562696	20.034537	-0.465885	125.700577
8.050000	-0.468959	124.004501	-27.682335	17.989191	-27.682335	17.989191	-0.468998	123.979232
8.100000	-0.472103	122.278016	-27.792913	15.959898	-27.792913	15.959898	-0.472144	122.252626
8.150000	-0.475273	120.546066	-27.894847	13.946149	-27.894847	13.946149	-0.475316	120.520552
8.200000	-0.478461	118.808479	-27.988520	11.947454	-27.988520	11.947454	-0.478506	118.782836
8.250000	-0.481662	117.065109	-28.074290	9.963338	-28.074290	9.963338	-0.481708	117.039336
8.300000	-0.484869	115.315844	-28.152492	7.993338	-28.152492	7.993338	-0.484918	115.289939
8.350000	-0.488079	113.560594	-28.223439	6.037005	-28.223439	6.037005	-0.488130	113.534555
8.400000	-0.491287	111.799296	-28.287424	4.093899	-28.287424	4.093899	-0.491340	111.773120
8.450000	-0.494489	110.031908	-28.344723	2.163586	-28.344723	2.163586	-0.494544	110.005595
8.500000	-0.497682	108.258411	-28.395595	0.245642	-28.395595	0.245642	-0.497740	108.231961
8.550000	-0.500865	106.478808	-28.440287	-1.660353	-28.440287	-1.660353	-0.500925	106.452220
8.600000	-0.504033	104.693119	-28.479029	-3.554811	-28.479029	-3.554811	-0.504096	104.666394
8.650000	-0.507187	102.901387	-28.512038	-5.438144	-28.512038	-5.438144	-0.507251	102.874524
8.700000	-0.510323	101.103671	-28.539522	-7.310759	-28.539522	-7.310759	-0.510390	101.076671
8.750000	-0.513442	99.300048	-28.561676	-9.173063	-28.561676	-9.173063	-0.513512	99.272913
8.800000	-0.516541	97.490367	-28.578467	-11.025048	-28.578467	-11.025048	-0.516613	97.463097
8.850000	-0.519622	95.674998	-28.590304	-12.867572	-28.590304	-12.867572	-0.519697	95.647595
8.900000	-0.522683	93.854073	-28.597349	-14.701042	-28.597349	-14.701042	-0.522761	93.826539
8.950000	-0.525726	92.027738	-28.599758	-16.525872	-28.599758	-16.525872	-0.525807	92.000076
9.000000	-0.528752	90.196155	-28.597677	-18.342477	-28.597677	-18.342477	-0.528836	90.168367
9.050000	-0.531762	88.359503	-28.591248	-20.151280	-28.591248	-20.151280	-0.531848	88.331592
9.100000	-0.534756	86.517973	-28.580601	-21.952710	-28.580601	-21.952710	-0.534846	86.489944
9.150000	-0.537737	84.671774	-28.565863	-23.747202	-28.565863	-23.747202	-0.537831	84.643629
9.200000	-0.540708	82.821125	-28.547153	-25.535200	-28.547153	-25.535200	-0.540804	82.792869
9.250000	-0.543669	80.966261	-28.524586	-27.317157	-28.524586	-27.317157	-0.543770	80.937898
9.300000	-0.546625	79.107431	-28.498270	-29.093537	-28.498270	-29.093537	-0.546729	79.078966
9.350000	-0.549579	77.244895	-28.468308	-30.864813	-28.468308	-30.864813	-0.549687	77.216333
9.400000	-0.552533	75.378925	-28.434799	-32.631470	-28.434799	-32.631470	-0.552645	75.350273
9.450000	-0.555491	73.509808	-28.397837	-34.394006	-28.397837	-34.394006	-0.555608	73.481070
9.500000	-0.558458	71.637838	-28.357513	-36.152932	-28.357513	-36.152932	-0.558579	71.609021
9.550000	-0.561438	69.763324	-28.313913	-37.908772	-28.313913	-37.908772	-0.561563	69.734434
9.600000	-0.564435	67.886581	-28.267120	-39.662064	-28.267120	-39.662064	-0.564565	67.857626
9.650000	-0.567454	66.007939	-28.217215	-41.413362	-28.217215	-41.413362	-0.567589	65.978925
9.700000	-0.570500	64.127731	-28.164276	-43.163234	-28.164276	-43.163234	-0.570641	64.098667
9.750000	-0.573579	62.246304	-28.108378	-44.912267	-28.108378	-44.912267	-0.573725	62.217197
9.800000	-0.576695	60.364010	-28.049595	-46.661063	-28.049595	-46.661063	-0.576847	60.334869
9.850000	-0.579856	58.481208	-27.988000	-48.410240	-27.988000	-48.410240	-0.580014	58.452041
9.900000	-0.583066	56.598265	-27.923661	-50.160438	-27.923661	-50.160438	-0.583230	56.569081
9.950000	-0.586331	54.715553	-27.856651	-51.912312	-27.856651	-51.912312	-0.586502	54.686361
10.000000	-0.589659	52.833449	-27.787037	-53.666537	-27.787037	-53.666537	-0.589836	52.804259
