! freq	dB(S11)	phase(S11)	dB(S12)	phase(S12)	
!     	dB(S21)	phase(S21)	dB(S22)	phase(S22)	
!S-par simulation data
#  GHz  S  DB  R 50
0.000000	-145.566498	0.000000	-0.000000	0.000000	0.000000	0.000000	-6153.053111	0.000000
0.050000	-40.232223	-92.835589	-0.004860	-2.861686	-0.004860	-2.861686	-40.232749	-92.843409
0.100000	-34.255667	-95.713120	-0.010900	-5.687099	-0.010900	-5.687099	-34.256034	-95.728248
0.150000	-30.783397	-98.617345	-0.016618	-8.505896	-0.016618	-8.505896	-30.783699	-98.639606
0.200000	-28.329849	-101.519536	-0.022965	-11.322716	-0.022965	-11.322716	-28.330183	-101.549030
0.250000	-26.429639	-104.406635	-0.030156	-14.137439	-0.030156	-14.137439	-26.430056	-104.443443
0.300000	-24.877488	-107.278254	-0.038150	-16.950060	-0.038150	-16.950060	-24.878001	-107.322379
0.350000	-23.565249	-110.137539	-0.046888	-19.760834	-0.046888	-19.760834	-23.565851	-110.188937
0.400000	-22.428770	-112.988055	-0.056300	-22.570180	-0.056300	-22.570180	-22.429452	-113.046671
0.450000	-21.427059	-115.831987	-0.066374	-25.378410	-0.066374	-25.378410	-21.427807	-115.897766
0.500000	-20.531992	-118.671097	-0.077077	-28.185828	-0.077077	-28.185828	-20.532795	-118.743991
0.550000	-19.723711	-121.506203	-0.088428	-30.992591	-0.088428	-30.992591	-19.724560	-121.586172
0.600000	-18.987337	-124.338036	-0.100412	-33.798829	-0.100412	-33.798829	-18.988227	-124.425043
0.650000	-18.311710	-127.166913	-0.113049	-36.604590	-0.113049	-36.604590	-18.312634	-127.260927
0.700000	-17.688002	-129.993156	-0.126336	-39.409910	-0.126336	-39.409910	-17.688958	-130.094147
0.750000	-17.109270	-132.816948	-0.140282	-42.214793	-0.140282	-42.214793	-17.110255	-132.924891
0.800000	-16.569857	-135.638468	-0.154890	-45.019242	-0.154890	-45.019242	-16.570870	-135.753336
0.850000	-16.065109	-138.457882	-0.170160	-47.823260	-0.170160	-47.823260	-16.066149	-138.579651
0.900000	-15.591167	-141.275336	-0.186091	-50.626852	-0.186091	-50.626852	-15.592233	-141.403982
0.950000	-15.144782	-144.090978	-0.202683	-53.430031	-0.202683	-53.430031	-15.145874	-144.226474
1.000000	-14.723197	-146.904952	-0.219938	-56.232819	-0.219938	-56.232819	-14.724314	-147.047273
1.050000	-14.324002	-149.717429	-0.237846	-59.035255	-0.237846	-59.035255	-14.325145	-149.866545
1.100000	-13.945135	-152.528566	-0.256403	-61.837382	-0.256403	-61.837382	-13.946303	-152.684449
1.150000	-13.584792	-155.338525	-0.275605	-64.639259	-0.275605	-64.639259	-13.585986	-155.501142
1.200000	-13.241388	-158.147470	-0.295446	-67.440952	-0.295446	-67.440952	-13.242608	-158.316786
1.250000	-12.913521	-160.955568	-0.315922	-70.242538	-0.315922	-70.242538	-12.914766	-161.131546
1.300000	-12.599967	-163.762981	-0.337036	-73.044106	-0.337036	-73.044106	-12.601237	-163.945580
1.350000	-12.299583	-166.569890	-0.358777	-75.845753	-0.358777	-75.845753	-12.300877	-166.759064
1.400000	-12.011363	-169.376464	-0.381144	-78.647583	-0.381144	-78.647583	-12.012682	-169.572166
1.450000	-11.734402	-172.182875	-0.404135	-81.449707	-0.404135	-81.449707	-11.735745	-172.385054
1.500000	-11.467879	-174.989295	-0.427749	-84.252242	-0.427749	-84.252242	-11.469245	-175.197893
1.550000	-11.211046	-177.795892	-0.451987	-87.055312	-0.451987	-87.055312	-11.212435	-178.010851
1.600000	-10.963235	179.397160	-0.476856	-89.859050	-0.476856	-89.859050	-10.964645	179.175907
1.650000	-10.723811	176.589695	-0.502357	-92.663584	-0.502357	-92.663584	-10.725242	176.362217
1.700000	-10.492222	173.781535	-0.528505	-95.469066	-0.528505	-95.469066	-10.493674	173.547908
1.750000	-10.267884	170.972557	-0.555282	-98.275585	-0.555282	-98.275585	-10.269355	170.732858
1.800000	-10.050349	168.162590	-0.582712	-101.083297	-0.582712	-101.083297	-10.051838	167.916903
1.850000	-9.839168	165.351487	-0.610803	-103.892334	-0.610803	-103.892334	-9.840675	165.099899
1.900000	-9.633940	162.539091	-0.639577	-106.702844	-0.639577	-106.702844	-9.635462	162.281698
1.950000	-9.434278	159.725265	-0.669046	-109.514959	-0.669046	-109.514959	-9.435815	159.462166
2.000000	-9.239821	156.909897	-0.699221	-112.328784	-0.699221	-112.328784	-9.241372	156.641198
2.050000	-9.050241	154.092875	-0.730121	-115.144435	-0.730121	-115.144435	-9.051805	153.818683
2.100000	-8.865238	151.274093	-0.761763	-117.962021	-0.761763	-117.962021	-8.866813	150.994523
2.150000	-8.684532	148.453459	-0.794171	-120.781644	-0.794171	-120.781644	-8.686117	148.168630
2.200000	-8.507865	145.630893	-0.827367	-123.603395	-0.827367	-123.603395	-8.509459	145.340929
2.250000	-8.334998	142.806327	-0.861375	-126.427355	-0.861375	-126.427355	-8.336601	142.511356
2.300000	-8.165713	139.979707	-0.896222	-129.253594	-0.896222	-129.253594	-8.167322	139.679864
2.350000	-7.999806	137.150995	-0.931936	-132.082169	-0.931936	-132.082169	-8.001421	136.846417
2.400000	-7.837092	134.320165	-0.968544	-134.913124	-0.968544	-134.913124	-7.838712	134.010995
2.450000	-7.677399	131.487211	-1.006077	-137.746489	-1.006077	-137.746489	-7.679023	131.173595
2.500000	-7.520572	128.652139	-1.044565	-140.582275	-1.044565	-140.582275	-7.522199	128.334229
2.550000	-7.366467	125.814931	-1.084059	-143.420535	-1.084059	-143.420535	-7.368097	125.492884
2.600000	-7.214956	122.975676	-1.124573	-146.261193	-1.124573	-146.261193	-7.216587	122.649650
2.650000	-7.065922	120.134434	-1.166141	-149.104211	-1.166141	-149.104211	-7.067554	119.804592
2.700000	-6.919262	117.291285	-1.208794	-151.949532	-1.208794	-151.949532	-6.920895	116.957791
2.750000	-6.774883	114.446325	-1.252566	-154.797081	-1.252566	-154.797081	-6.776516	114.109346
2.800000	-6.632703	111.599670	-1.297490	-157.646761	-1.297490	-157.646761	-6.634335	111.259376
2.850000	-6.492650	108.751454	-1.343598	-160.498459	-1.343598	-160.498459	-6.494281	108.408016
2.900000	-6.354661	105.901828	-1.390921	-163.352039	-1.390921	-163.352039	-6.356290	105.555420
2.950000	-6.218683	103.050962	-1.439490	-166.207348	-1.439490	-166.207348	-6.220311	102.701758
3.000000	-6.084672	100.199044	-1.489334	-169.064210	-1.489334	-169.064210	-6.086298	99.847220
3.050000	-5.952591	97.346280	-1.540483	-171.922434	-1.540483	-171.922434	-5.954215	96.992012
3.100000	-5.822410	94.492894	-1.592962	-174.781806	-1.592962	-174.781806	-5.824032	94.136357
3.150000	-5.694108	91.639123	-1.646808	-177.642102	-1.646808	-177.642102	-5.695727	91.280496
3.200000	-5.567669	88.785233	-1.702042	179.496937	-1.702042	179.496937	-5.569285	88.424693
3.250000	-5.443085	85.931503	-1.758674	176.635587	-1.758674	176.635587	-5.444699	85.569224
3.300000	-5.320351	83.078219	-1.816721	173.774133	-1.816721	173.774133	-5.321963	82.714374
3.350000	-5.199469	80.225686	-1.876198	170.912873	-1.876198	170.912873	-5.201079	79.860445
3.400000	-5.080445	77.374218	-1.937117	168.052121	-1.937117	168.052121	-5.082051	77.007750
3.450000	-4.963286	74.524144	-1.999484	165.192203	-1.999484	165.192203	-4.964889	74.156614
3.500000	-4.848005	71.675802	-2.063307	162.333456	-2.063307	162.333456	-4.849606	71.307373
3.550000	-4.734619	68.829543	-2.128585	159.476227	-2.128585	159.476227	-4.736217	68.460374
3.600000	-4.623145	65.985722	-2.195317	156.620871	-2.195317	156.620871	-4.624740	65.615969
3.650000	-4.513603	63.144707	-2.263497	153.767751	-2.263497	153.767751	-4.515194	62.774521
3.700000	-4.406015	60.306867	-2.333114	150.917233	-2.333114	150.917233	-4.407602	59.936395
3.750000	-4.300403	57.472577	-2.404155	148.069687	-2.404155	148.069687	-4.301986	57.101962
3.800000	-4.196808	54.642309	-2.476619	145.225566	-2.476619	145.225566	-4.198387	54.271691
3.850000	-4.095239	51.816366	-2.550463	142.385177	-2.550463	142.385177	-4.096814	51.445876
3.900000	-3.995720	48.995123	-2.625662	139.548888	-2.625662	139.548888	-3.997289	48.624889
3.950000	-3.898273	46.178956	-2.702186	136.717064	-2.702186	136.717064	-3.899837	45.809098
4.000000	-3.802921	43.368233	-2.779998	133.890061	-2.779998	133.890061	-3.804479	42.998868
4.050000	-3.709684	40.563318	-2.859061	131.068231	-2.859061	131.068231	-3.711236	40.194554
4.100000	-3.618581	37.764563	-2.939331	128.251913	-2.939331	128.251913	-3.620126	37.396505
4.150000	-3.529631	34.972312	-3.020762	125.441436	-3.020762	125.441436	-3.531169	34.605057
4.200000	-3.442849	32.186895	-3.103303	122.637117	-3.103303	122.637117	-3.444379	31.820534
4.250000	-3.358248	29.408627	-3.186899	119.839257	-3.186899	119.839257	-3.359771	29.043245
4.300000	-3.275841	26.637804	-3.271493	117.048142	-3.271493	117.048142	-3.277355	26.273482
4.350000	-3.195636	23.874707	-3.357024	114.264039	-3.357024	114.264039	-3.197141	23.511517
4.400000	-3.117657	21.119683	-3.443424	111.487279	-3.443424	111.487279	-3.119153	20.757694
4.450000	-3.041910	18.372975	-3.530624	108.718099	-3.530624	108.718099	-3.043396	18.012248
4.500000	-2.968379	15.634704	-3.618551	105.956625	-3.618551	105.956625	-2.969855	15.275294
4.550000	-2.897063	12.905052	-3.707131	103.203040	-3.707131	103.203040	-2.898530	12.547010
4.600000	-2.827959	10.184173	-3.796287	100.457506	-3.796287	100.457506	-2.829415	9.827543
4.650000	-2.761060	7.472191	-3.885938	97.720156	-3.885938	97.720156	-2.762506	7.117011
4.700000	-2.696357	4.769198	-3.976003	94.991101	-3.976003	94.991101	-2.697793	4.415503
4.750000	-2.633841	2.075254	-4.066395	92.270423	-4.066395	92.270423	-2.635266	1.723071
4.800000	-2.573497	-0.609618	-4.157029	89.558178	-4.157029	89.558178	-2.574912	-0.960265
4.850000	-2.515310	-3.285427	-4.247814	86.854392	-4.247814	86.854392	-2.516715	-3.634519
4.900000	-2.459264	-5.952221	-4.338658	84.159063	-4.338658	84.159063	-2.460659	-6.299743
4.950000	-2.405339	-8.610085	-4.429469	81.472158	-4.429469	81.472158	-2.406725	-8.956029
5.000000	-2.353516	-11.259145	-4.520150	78.793611	-4.520150	78.793611	-2.354892	-11.603503
5.050000	-2.303811	-13.899381	-4.610577	76.123504	-4.610577	76.123504	-2.305178	-14.242152
5.100000	-2.256163	-16.531192	-4.700675	73.461520	-4.700675	73.461520	-2.257521	-16.872379
5.150000	-2.210546	-19.154829	-4.790342	70.807493	-4.790342	70.807493	-2.211897	-19.494436
5.200000	-2.166938	-21.770582	-4.879478	68.161218	-4.879478	68.161218	-2.168282	-22.108619
5.250000	-2.125312	-24.378786	-4.967978	65.522454	-4.967978	65.522454	-2.126649	-24.715266
5.300000	-2.085643	-26.979820	-5.055738	62.890920	-5.055738	62.890920	-2.086973	-27.314758
5.350000	-2.047904	-29.574107	-5.142653	60.266296	-5.142653	60.266296	-2.049228	-29.907521
5.400000	-2.012070	-32.162113	-5.228616	57.648218	-5.228616	57.648218	-2.013389	-32.494026
5.450000	-1.978115	-34.744353	-5.313519	55.036279	-5.313519	55.036279	-1.979430	-35.074788
5.500000	-1.946015	-37.321384	-5.397254	52.430025	-5.397254	52.430025	-1.947325	-37.650369
5.550000	-1.915744	-39.893815	-5.479711	49.828955	-5.479711	49.828955	-1.917050	-40.221379
5.600000	-1.887278	-42.462297	-5.560783	47.232518	-5.560783	47.232518	-1.888581	-42.788472
5.650000	-1.860614	-45.027507	-5.640333	44.640146	-5.640333	44.640146	-1.861913	-45.352328
5.700000	-1.835729	-47.590224	-5.718250	42.051157	-5.718250	42.051157	-1.837025	-47.913729
5.750000	-1.812583	-50.151289	-5.794450	39.464788	-5.794450	39.464788	-1.813877	-50.473515
5.800000	-1.791159	-52.711558	-5.868823	36.880261	-5.868823	36.880261	-1.792450	-53.032548
5.850000	-1.771439	-55.271941	-5.941264	34.296735	-5.941264	34.296735	-1.772727	-55.591737
5.900000	-1.753407	-57.833401	-6.011667	31.713307	-6.011667	31.713307	-1.754692	-58.152051
5.950000	-1.737049	-60.396959	-6.079927	29.129008	-6.079927	29.129008	-1.738331	-60.714508
6.000000	-1.722353	-62.963690	-6.145943	26.542800	-6.145943	26.542800	-1.723632	-63.280190
6.050000	-1.709309	-65.534731	-6.209617	23.953574	-6.209617	23.953574	-1.710584	-65.850232
6.100000	-1.697910	-68.111278	-6.270851	21.360152	-6.270851	21.360152	-1.699181	-68.425834
6.150000	-1.688150	-70.694593	-6.329555	18.761280	-6.329555	18.761280	-1.689415	-71.008260
6.200000	-1.680026	-73.286002	-6.385640	16.155629	-6.385640	16.155629	-1.681285	-73.598836
6.250000	-1.673537	-75.886900	-6.439023	13.541795	-6.439023	13.541795	-1.674789	-76.198962
6.300000	-1.668720	-78.499031	-6.489558	10.918047	-6.489558	10.918047	-1.669963	-78.810381
6.350000	-1.665544	-81.123736	-6.537240	8.282995	-6.537240	8.282995	-1.666777	-81.434437
6.400000	-1.664016	-83.762644	-6.582002	5.634990	-6.582002	5.634990	-1.665238	-84.072760
6.450000	-1.664145	-86.417467	-6.623787	2.972302	-6.623787	2.972302	-1.665354	-86.727062
6.500000	-1.665942	-89.090003	-6.662541	0.293120	-6.662541	0.293120	-1.667137	-89.399142
6.550000	-1.669423	-91.782143	-6.698223	-2.404453	-6.698223	-2.404453	-1.670601	-92.090893
6.600000	-1.674603	-94.495876	-6.730795	-5.122397	-6.730795	-5.122397	-1.675762	-94.804303
6.650000	-1.681502	-97.233293	-6.760231	-7.862778	-6.760231	-7.862778	-1.682640	-97.541464
6.700000	-1.690119	-99.996216	-6.786557	-10.627392	-6.786557	-10.627392	-1.691233	-100.304196
6.750000	-1.700577	-102.788633	-6.809574	-13.420078	-6.809574	-13.420078	-1.701665	-103.096489
6.800000	-1.712786	-105.611112	-6.829505	-16.241393	-6.829505	-16.241393	-1.713844	-105.918906
6.850000	-1.726755	-108.465705	-6.846383	-19.093285	-6.846383	-19.093285	-1.727781	-108.773495
6.900000	-1.742694	-111.358741	-6.859918	-21.981738	-6.859918	-21.981738	-1.743683	-111.666590
6.950000	-1.760409	-114.288559	-6.870530	-24.905103	-6.870530	-24.905103	-1.761358	-114.596516
7.000000	-1.780069	-117.261034	-6.878025	-27.868862	-6.878025	-27.868862	-1.780974	-117.569148
7.050000	-1.801691	-120.279238	-6.882491	-30.875782	-6.882491	-30.875782	-1.802547	-120.587549
7.100000	-1.825172	-123.343022	-6.884198	-33.925583	-6.884198	-33.925583	-1.825974	-123.651562
7.150000	-1.850786	-126.462471	-6.882864	-37.027541	-6.882864	-37.027541	-1.851528	-126.771262
7.200000	-1.878335	-129.635362	-6.878919	-40.179356	-6.878919	-40.179356	-1.879011	-129.944414
7.250000	-1.907882	-132.866441	-6.872408	-43.385232	-6.872408	-43.385232	-1.908486	-133.175748
7.300000	-1.939573	-136.164241	-6.863309	-46.652803	-6.863309	-46.652803	-1.940095	-136.473780
7.350000	-1.973204	-139.525944	-6.852035	-49.979190	-6.852035	-49.979190	-1.973637	-139.835674
7.400000	-2.008946	-142.962158	-6.838558	-53.373850	-6.838558	-53.373850	-2.009280	-143.272011
7.450000	-2.046704	-146.474990	-6.823181	-56.838376	-6.823181	-56.838376	-2.046928	-146.784872
7.500000	-2.086353	-150.064484	-6.806210	-60.372521	-6.806210	-60.372521	-2.086455	-150.374278
7.550000	-2.128090	-153.748002	-6.787700	-63.991667	-6.787700	-63.991667	-2.128056	-154.057532
7.600000	-2.171587	-157.518068	-6.768155	-67.688725	-6.768155	-67.688725	-2.171403	-157.827142
7.650000	-2.216838	-161.384349	-6.747822	-71.472091	-6.747822	-71.472091	-2.216486	-161.692719
7.700000	-2.263695	-165.351414	-6.727080	-75.345546	-6.727080	-75.345546	-2.263157	-165.658784
7.750000	-2.312029	-169.428462	-6.706339	-79.317004	-6.706339	-79.317004	-2.311285	-169.734465
7.800000	-2.361586	-173.617902	-6.686069	-83.388335	-6.686069	-83.388335	-2.360613	-173.922114
7.850000	-2.412102	-177.924504	-6.666767	-87.563555	-6.666767	-87.563555	-2.410878	-178.226433
7.900000	-2.463266	177.646708	-6.648972	-91.846951	-6.648972	-91.846951	-2.461765	177.347631
7.950000	-2.514705	173.088950	-6.633308	-96.244431	-6.633308	-96.244431	-2.512901	172.793387
8.000000	-2.565979	168.398681	-6.620402	-100.759131	-6.620402	-100.759131	-2.563845	168.107379
8.050000	-2.616597	163.573006	-6.610901	-105.393740	-6.610901	-105.393740	-2.614107	163.286796
8.100000	-2.666006	158.608713	-6.605494	-110.151389	-6.605494	-110.151389	-2.663133	158.328521
8.150000	-2.713553	153.501368	-6.604968	-115.036516	-6.604968	-115.036516	-2.710274	153.228230
8.200000	-2.758545	148.249583	-6.610059	-120.051144	-6.610059	-120.051144	-2.754839	147.984628
8.250000	-2.800305	142.855292	-6.621386	-125.194632	-6.621386	-125.194632	-2.796155	142.599718
8.300000	-2.838098	137.319788	-6.639596	-130.467295	-6.639596	-130.467295	-2.833495	137.074867
8.350000	-2.871186	131.645915	-6.665265	-135.868509	-6.665265	-135.868509	-2.866127	131.412978
8.400000	-2.898857	125.838214	-6.698867	-141.396633	-6.698867	-141.396633	-2.893348	125.618634
8.450000	-2.920397	119.901995	-6.740809	-147.050000	-6.740809	-147.050000	-2.914452	119.697175
8.500000	-2.935108	113.843793	-6.791390	-152.826702	-6.791390	-152.826702	-2.928754	113.655148
8.550000	-2.942875	107.678934	-6.850178	-158.716470	-6.850178	-158.716470	-2.936148	107.507778
8.600000	-2.943214	101.415883	-6.917113	-164.717036	-6.917113	-164.717036	-2.936157	101.263505
8.650000	-2.936064	95.068399	-6.991577	-170.821488	-6.991577	-170.821488	-2.928732	94.935985
8.700000	-2.921736	88.652689	-7.072528	-177.020482	-7.072528	-177.020482	-2.914186	88.541278
8.750000	-2.900685	82.184469	-7.158713	176.694343	-7.158713	176.694343	-2.892976	82.094947
8.800000	-2.873530	75.679683	-7.248552	170.330671	-7.248552	170.330671	-2.865722	75.612778
8.850000	-2.841363	69.155692	-7.340026	163.899202	-7.340026	163.899202	-2.833509	69.111935
8.900000	-2.805384	62.628719	-7.430869	157.409341	-7.430869	157.409341	-2.797531	62.608455
8.950000	-2.766974	56.114726	-7.518413	150.869915	-7.518413	150.869915	-2.759158	56.118121
9.000000	-2.727747	49.628275	-7.599824	144.291023	-7.599824	144.291023	-2.719993	49.655320
9.050000	-2.689371	43.182346	-7.672048	137.681776	-7.672048	137.681776	-2.681693	43.232886
9.100000	-2.653628	36.788936	-7.731644	131.050523	-7.731644	131.050523	-2.646030	36.862700
9.150000	-2.622292	30.456804	-7.775305	124.405419	-7.775305	124.405419	-2.614770	30.553457
9.200000	-2.597132	24.192257	-7.799676	117.753355	-7.799676	117.753355	-2.589674	24.311456
9.250000	-2.580061	17.999875	-7.801075	111.099777	-7.801075	111.099777	-2.572651	18.141340
9.300000	-2.572970	11.880132	-7.776201	104.448279	-7.776201	104.448279	-2.565583	12.043717
9.350000	-2.577847	5.830163	-7.722037	97.799868	-7.722037	97.799868	-2.570444	6.015927
9.400000	-2.597139	-0.155073	-7.635361	91.152351	-7.635361	91.152351	-2.589664	0.053189
9.450000	-2.633646	-6.084353	-7.513554	84.499448	-7.513554	84.499448	-2.626012	-5.852968
9.500000	-2.690599	-11.969497	-7.354880	77.830332	-7.354880	77.830332	-2.682687	-11.714048
9.550000	-2.772387	-17.823734	-7.157730	71.128751	-7.157730	71.128751	-2.764036	-17.542920
9.600000	-2.884596	-23.661860	-6.921476	64.372773	-6.921476	64.372773	-2.875602	-23.353976
9.650000	-3.034077	-29.498702	-6.647103	57.536053	-6.647103	57.536053	-3.024191	-29.161541
9.700000	-3.229659	-35.346690	-6.336907	50.588989	-6.336907	50.588989	-3.218587	-34.977342
9.750000	-3.482617	-41.213007	-5.994769	43.501130	-5.994769	43.501130	-3.470003	-40.807508
9.800000	-3.807892	-47.095064	-5.625826	36.242817	-5.625826	36.242817	-3.793281	-46.647791
9.850000	-4.225894	-52.971935	-5.236291	28.786728	-5.236291	28.786728	-4.208628	-52.474562
9.900000	-4.758653	-58.793742	-4.834827	21.122955	-4.834827	21.122955	-4.737703	-58.234448
9.950000	-5.440450	-64.454994	-4.428615	13.238563	-4.428615	13.238563	-5.413975	-63.816048
10.000000	-6.309631	-69.767216	-4.025746	5.138914	-4.025746	5.138914	-6.274230	-69.023753
