! freq	dB(S11)	phase(S11)	dB(S12)	phase(S12)	
!     	dB(S21)	phase(S21)	dB(S22)	phase(S22)	
!S-par simulation data
#  GHz  S  DB  R 50
0.000000	-0.000000	0.000000	-358.805583	0.000000	-358.805583	0.000000	-0.000000	0.000000
0.050000	-0.000121	-1.095724	-93.629784	6.906520	-93.629784	6.906520	-0.001844	-1.012691
0.100000	-0.000480	-2.191170	-93.281420	16.659783	-93.281420	16.659783	-0.003745	-2.008905
0.150000	-0.001066	-3.286076	-92.774890	24.693006	-92.774890	24.693006	-0.004833	-3.002176
0.200000	-0.001861	-4.380213	-92.174792	31.440842	-92.174792	31.440842	-0.005637	-3.995597
0.250000	-0.002856	-5.473308	-91.533718	36.980547	-91.533718	36.980547	-0.006388	-4.989185
0.300000	-0.004010	-6.565282	-90.900684	41.588363	-90.900684	41.588363	-0.007173	-5.982633
0.350000	-0.005307	-7.655958	-90.298675	45.388400	-90.298675	45.388400	-0.008019	-6.975706
0.400000	-0.006720	-8.745232	-89.743937	48.544389	-89.743937	48.544389	-0.008938	-7.968215
0.450000	-0.008227	-9.833032	-89.245621	51.200249	-89.245621	51.200249	-0.009928	-8.960015
0.500000	-0.009805	-10.919313	-88.808550	53.478968	-88.808550	53.478968	-0.010986	-9.950992
0.550000	-0.011433	-12.004051	-88.435077	55.485526	-88.435077	55.485526	-0.012106	-10.941054
0.600000	-0.013093	-13.087239	-88.126248	57.311262	-88.126248	57.311262	-0.013279	-11.930128
0.650000	-0.014772	-14.168885	-87.882487	59.038517	-87.882487	59.038517	-0.014500	-12.918152
0.700000	-0.016456	-15.249000	-87.703958	60.745154	-87.703958	60.745154	-0.015759	-13.905075
0.750000	-0.018136	-16.327601	-87.590698	62.508983	-87.590698	62.508983	-0.017051	-14.890858
0.800000	-0.019804	-17.404707	-87.542535	64.412242	-87.542535	64.412242	-0.018368	-15.875464
0.850000	-0.021456	-18.480332	-87.558778	66.546330	-87.558778	66.546330	-0.019704	-16.858865
0.900000	-0.023087	-19.554491	-87.637579	69.016834	-87.637579	69.016834	-0.021055	-17.841035
0.950000	-0.024695	-20.627194	-87.774795	71.948547	-87.774795	71.948547	-0.022415	-18.821954
1.000000	-0.026278	-21.698445	-87.962088	75.489249	-87.962088	75.489249	-0.023779	-19.801602
1.050000	-0.027837	-22.768246	-88.183945	79.809145	-88.183945	79.809145	-0.025146	-20.779961
1.100000	-0.029371	-23.836592	-88.413445	85.089441	-88.413445	85.089441	-0.026511	-21.757015
1.150000	-0.030882	-24.903477	-88.607424	91.489020	-88.607424	91.489020	-0.027873	-22.732749
1.200000	-0.032370	-25.968889	-88.703759	99.076611	-88.703759	99.076611	-0.029229	-23.707146
1.250000	-0.033837	-27.032812	-88.626736	107.729822	-88.626736	107.729822	-0.030578	-24.680191
1.300000	-0.035284	-28.095162	-88.293545	117.048153	-88.293545	117.048153	-0.031919	-25.651807
1.350000	-0.036713	-29.155983	-87.683071	126.333612	-87.683071	126.333612	-0.033251	-26.622037
1.400000	-0.038127	-30.215252	-86.821306	134.941163	-86.821306	134.941163	-0.034573	-27.590864
1.450000	-0.039526	-31.272944	-85.773655	142.441986	-85.773655	142.441986	-0.035887	-28.558270
1.500000	-0.040913	-32.329033	-84.615057	148.678334	-84.615057	148.678334	-0.037190	-29.524236
1.550000	-0.042288	-33.383492	-83.408326	153.692836	-83.408326	153.692836	-0.038485	-30.488744
1.600000	-0.043654	-34.436294	-82.197189	157.629357	-82.197189	157.629357	-0.039771	-31.451775
1.650000	-0.045012	-35.487411	-81.008390	160.660529	-81.008390	160.660529	-0.041049	-32.413308
1.700000	-0.046363	-36.536815	-79.856519	162.949706	-79.856519	162.949706	-0.042319	-33.373324
1.750000	-0.047708	-37.584477	-78.748416	164.636567	-78.748416	164.636567	-0.043582	-34.331802
1.800000	-0.049049	-38.630370	-77.686318	165.834901	-77.686318	165.834901	-0.044838	-35.288720
1.850000	-0.050387	-39.674467	-76.669884	166.635356	-76.669884	166.635356	-0.046089	-36.244059
1.900000	-0.051722	-40.716739	-75.697410	167.109539	-75.697410	167.109539	-0.047334	-37.197796
1.950000	-0.053056	-41.757162	-74.766547	167.313986	-74.766547	167.313986	-0.048576	-38.149912
2.000000	-0.054389	-42.795710	-73.874704	167.293512	-73.874704	167.293512	-0.049814	-39.100384
2.050000	-0.055722	-43.832357	-73.019275	167.083864	-73.019275	167.083864	-0.051050	-40.049193
2.100000	-0.057057	-44.867081	-72.197751	166.713774	-72.197751	166.713774	-0.052283	-40.996317
2.150000	-0.058393	-45.899858	-71.407780	166.206534	-71.407780	166.206534	-0.053516	-41.941737
2.200000	-0.059732	-46.930667	-70.647188	165.581176	-70.647188	165.581176	-0.054748	-42.885431
2.250000	-0.061073	-47.959487	-69.913984	164.853392	-69.913984	164.853392	-0.055981	-43.827381
2.300000	-0.062419	-48.986298	-69.206352	164.036220	-69.206352	164.036220	-0.057215	-44.767568
2.350000	-0.063768	-50.011083	-68.522639	163.140581	-68.522639	163.140581	-0.058451	-45.705971
2.400000	-0.065122	-51.033824	-67.861340	162.175692	-67.861340	162.175692	-0.059689	-46.642575
2.450000	-0.066482	-52.054506	-67.221088	161.149388	-67.221088	161.149388	-0.060931	-47.577360
2.500000	-0.067847	-53.073113	-66.600637	160.068376	-66.600637	160.068376	-0.062177	-48.510310
2.550000	-0.069219	-54.089540	-65.997855	158.936539	-65.997855	158.936539	-0.063428	-49.441327
2.600000	-0.070598	-55.103867	-65.412815	157.761168	-65.412815	157.761168	-0.064684	-50.370476
2.650000	-0.071985	-56.116083	-64.844550	156.546553	-64.844550	156.546553	-0.065946	-51.297742
2.700000	-0.073379	-57.126178	-64.292174	155.296460	-64.292174	155.296460	-0.067214	-52.223109
2.750000	-0.074782	-58.134144	-63.754871	154.014214	-63.754871	154.014214	-0.068490	-53.146566
2.800000	-0.076193	-59.139974	-63.231891	152.702759	-63.231891	152.702759	-0.069774	-54.068099
2.850000	-0.077614	-60.143665	-62.722539	151.364716	-62.722539	151.364716	-0.071065	-54.987696
2.900000	-0.079045	-61.145210	-62.226172	150.002426	-62.226172	150.002426	-0.072366	-55.905346
2.950000	-0.080486	-62.144609	-61.742193	148.617989	-61.742193	148.617989	-0.073676	-56.821039
3.000000	-0.081938	-63.141860	-61.270045	147.213292	-61.270045	147.213292	-0.074996	-57.734765
3.050000	-0.083402	-64.136964	-60.809212	145.790037	-60.809212	145.790037	-0.076327	-58.646515
3.100000	-0.084877	-65.129921	-60.359208	144.349762	-60.359208	144.349762	-0.077668	-59.556282
3.150000	-0.086365	-66.120736	-59.919579	142.893861	-59.919579	142.893861	-0.079021	-60.464058
3.200000	-0.087866	-67.109413	-59.489900	141.423598	-59.489900	141.423598	-0.080386	-61.369836
3.250000	-0.089381	-68.095959	-59.069770	139.940122	-59.069770	139.940122	-0.081763	-62.273612
3.300000	-0.090910	-69.080382	-58.658812	138.444476	-58.658812	138.444476	-0.083154	-63.175381
3.350000	-0.092454	-70.062752	-58.256952	136.937902	-58.256952	136.937902	-0.084557	-64.075197
3.400000	-0.094013	-71.042930	-57.863153	135.420521	-57.863153	135.420521	-0.085976	-64.972913
3.450000	-0.095588	-72.021052	-57.477665	133.893727	-57.477665	133.893727	-0.087408	-65.868644
3.500000	-0.097180	-72.997131	-57.100169	132.358200	-57.100169	132.358200	-0.088855	-66.762389
3.550000	-0.098788	-73.971185	-56.730359	130.814554	-56.730359	130.814554	-0.090317	-67.654146
3.600000	-0.100416	-74.943011	-56.367098	129.262567	-56.367098	129.262567	-0.091797	-68.543697
3.650000	-0.102063	-75.912841	-56.010985	127.703565	-56.010985	127.703565	-0.093293	-69.431249
3.700000	-0.103732	-76.880381	-55.660588	126.136998	-55.660588	126.136998	-0.094808	-70.316477
3.750000	-0.105417	-77.846352	-55.318260	124.565413	-55.318260	124.565413	-0.096337	-71.200100
3.800000	-0.107126	-78.810135	-54.981352	122.987232	-54.981352	122.987232	-0.097887	-72.081443
3.850000	-0.108848	-79.772756	-54.653153	121.405543	-54.653153	121.405543	-0.099447	-72.961572
3.900000	-0.110605	-80.732404	-54.327055	119.815291	-54.327055	119.815291	-0.101038	-73.838512
3.950000	-0.112374	-81.691218	-54.010022	118.222661	-54.010022	118.222661	-0.102637	-74.714537
4.000000	-0.114176	-82.647476	-53.695954	116.622765	-53.695954	116.622765	-0.104264	-75.587725
4.050000	-0.115998	-83.602416	-53.388544	115.019004	-53.388544	115.019004	-0.105907	-76.459385
4.100000	-0.117845	-84.555708	-53.086445	113.410410	-53.086445	113.410410	-0.107570	-77.329134
4.150000	-0.119727	-85.507030	-52.788067	111.795523	-52.788067	111.795523	-0.109259	-78.196465
4.200000	-0.121622	-86.457539	-52.497036	110.178046	-52.497036	110.178046	-0.110958	-79.062800
4.250000	-0.123568	-87.405566	-52.207112	108.551347	-52.207112	108.551347	-0.112695	-79.925845
4.300000	-0.125529	-88.352986	-51.924341	106.921879	-51.924341	106.921879	-0.114443	-80.788005
4.350000	-0.127535	-89.298674	-51.644275	105.284301	-51.644275	105.284301	-0.116220	-81.647606
4.400000	-0.129572	-90.243413	-51.368948	103.640495	-51.368948	103.640495	-0.118019	-82.505550
4.450000	-0.131642	-91.187203	-51.098192	101.990459	-51.098192	101.990459	-0.119838	-83.361837
4.500000	-0.133769	-92.129920	-50.829706	100.328731	-50.829706	100.328731	-0.121689	-84.215624
4.550000	-0.135916	-93.072284	-50.567280	98.662844	-50.567280	98.662844	-0.123552	-85.068548
4.600000	-0.138150	-94.013939	-50.305181	96.977842	-50.305181	96.977842	-0.125458	-85.918334
4.650000	-0.140416	-94.955663	-50.048490	95.285145	-50.048490	95.285145	-0.127376	-86.767193
4.700000	-0.142762	-95.897556	-49.793812	93.573755	-49.793812	93.573755	-0.129327	-87.613798
4.750000	-0.145183	-96.840233	-49.542435	91.844312	-49.542435	91.844312	-0.131301	-88.458838
4.800000	-0.147690	-97.783992	-49.293929	90.093729	-49.293929	90.093729	-0.133300	-89.302214
4.850000	-0.150334	-98.730033	-49.046857	88.309656	-49.046857	88.309656	-0.135331	-90.143534
4.900000	-0.153163	-99.679861	-48.801021	86.481361	-48.801021	86.481361	-0.137392	-90.982966
4.950000	-0.156193	-100.633996	-48.557213	84.607644	-48.557213	84.607644	-0.139477	-91.820931
5.000000	-0.159455	-101.593197	-48.315197	82.682406	-48.315197	82.682406	-0.141585	-92.657437
5.050000	-0.163299	-102.564952	-48.071177	80.639262	-48.071177	80.639262	-0.143730	-93.491798
5.100000	-0.167943	-103.552586	-47.825925	78.453178	-47.825925	78.453178	-0.145903	-94.324549
5.150000	-0.174003	-104.564991	-47.578196	76.047080	-47.578196	76.047080	-0.148102	-95.155725
5.200000	-0.182831	-105.617992	-47.327060	73.277960	-47.327060	73.277960	-0.150329	-95.985377
5.250000	-0.195774	-106.722885	-47.074372	70.036552	-47.074372	70.036552	-0.152577	-96.813765
5.300000	-0.223742	-107.967167	-46.828841	65.438132	-46.828841	65.438132	-0.154856	-97.640588
5.350000	-0.300206	-109.469429	-46.689673	57.698396	-46.689673	57.698396	-0.157180	-98.466535
5.400000	-0.610194	-111.018626	-47.723615	40.030584	-47.723615	40.030584	-0.159819	-99.292773
5.450000	-0.828012	-107.476674	-55.997715	71.698894	-55.997715	71.698894	-0.163211	-100.110444
5.500000	-0.374275	-108.054164	-49.081687	87.389133	-49.081687	87.389133	-0.165173	-100.927058
5.550000	-0.261281	-109.630556	-47.513580	80.295843	-47.513580	80.295843	-0.167410	-101.745636
5.600000	-0.227246	-110.919441	-46.850490	75.700415	-46.850490	75.700415	-0.169817	-102.562997
5.650000	-0.214189	-112.052954	-46.433282	72.332690	-46.433282	72.332690	-0.172308	-103.378929
5.700000	-0.208931	-113.103418	-46.115842	69.599079	-46.115842	69.599079	-0.174858	-104.193413
5.750000	-0.207104	-114.106919	-45.847297	67.217571	-45.847297	67.217571	-0.177456	-105.006498
5.800000	-0.206938	-115.083076	-45.605662	65.038386	-45.605662	65.038386	-0.180096	-105.818330
5.850000	-0.207967	-116.036219	-45.384157	63.027133	-45.384157	63.027133	-0.182786	-106.628563
5.900000	-0.209453	-116.979543	-45.173249	61.086731	-45.173249	61.086731	-0.185505	-107.437901
5.950000	-0.211486	-117.909849	-44.972996	59.238862	-44.972996	59.238862	-0.188276	-108.245595
6.000000	-0.213751	-118.834139	-44.779350	57.433068	-44.779350	57.433068	-0.191083	-109.052259
6.050000	-0.216219	-119.753094	-44.591585	55.664376	-44.591585	55.664376	-0.193923	-109.857907
6.100000	-0.218892	-120.666370	-44.409137	53.934659	-44.409137	53.934659	-0.196811	-110.662206
6.150000	-0.221709	-121.575676	-44.231020	52.231878	-44.231020	52.231878	-0.199743	-111.465294
6.200000	-0.224622	-122.482319	-44.056728	50.547129	-44.056728	50.547129	-0.202711	-112.267454
6.250000	-0.227625	-123.386557	-43.885996	48.878626	-43.885996	48.878626	-0.205713	-113.068700
6.300000	-0.230748	-124.287702	-43.718452	47.231173	-43.718452	47.231173	-0.208774	-113.868515
6.350000	-0.233936	-125.187340	-43.553897	45.594186	-43.553897	45.594186	-0.211871	-114.667493
6.400000	-0.237187	-126.085580	-43.392196	43.967033	-43.392196	43.967033	-0.215005	-115.465650
6.450000	-0.240512	-126.982283	-43.233130	42.350983	-43.233130	42.350983	-0.218185	-116.262793
6.500000	-0.243910	-127.877665	-43.076526	40.745066	-43.076526	40.745066	-0.221415	-117.058905
6.550000	-0.247361	-128.772224	-42.922386	39.145865	-42.922386	39.145865	-0.224683	-117.854291
6.600000	-0.250863	-129.666029	-42.770623	37.553045	-42.770623	37.553045	-0.227989	-118.648966
6.650000	-0.254440	-130.558908	-42.620970	35.969023	-42.620970	35.969023	-0.231352	-119.442600
6.700000	-0.258082	-131.451204	-42.473413	34.391845	-42.473413	34.391845	-0.234769	-120.235383
6.750000	-0.261757	-132.343208	-42.328105	32.818089	-42.328105	32.818089	-0.238211	-121.027741
6.800000	-0.265498	-133.234844	-42.184742	31.250682	-42.184742	31.250682	-0.241710	-121.819287
6.850000	-0.269287	-134.126219	-42.043395	29.687809	-42.043395	29.687809	-0.245249	-122.610254
6.900000	-0.273131	-135.017490	-41.903950	28.129762	-41.903950	28.129762	-0.248836	-123.400608
6.950000	-0.277031	-135.908658	-41.766353	26.576541	-41.766353	26.576541	-0.252472	-124.190347
7.000000	-0.280978	-136.799902	-41.630621	25.026943	-41.630621	25.026943	-0.256149	-124.979643
7.050000	-0.284989	-137.691250	-41.496590	23.482421	-41.496590	23.482421	-0.259884	-125.768320
7.100000	-0.289037	-138.582779	-41.364388	21.940539	-41.364388	21.940539	-0.263653	-126.556700
7.150000	-0.293158	-139.474669	-41.233759	20.403941	-41.233759	20.403941	-0.267488	-127.344484
7.200000	-0.297308	-140.366781	-41.104922	18.869157	-41.104922	18.869157	-0.271349	-128.132088
7.250000	-0.301539	-141.259557	-40.977542	17.339819	-40.977542	17.339819	-0.275285	-128.919153
7.300000	-0.305790	-142.152537	-40.851916	15.811590	-40.851916	15.811590	-0.279240	-129.706128
7.350000	-0.310131	-143.046535	-40.727647	14.288908	-40.727647	14.288908	-0.283280	-130.492650
7.400000	-0.314484	-143.940661	-40.605091	12.766733	-40.605091	12.766733	-0.287330	-131.279142
7.450000	-0.318935	-144.836206	-40.483802	11.250132	-40.483802	11.250132	-0.291473	-132.065302
7.500000	-0.323389	-145.731752	-40.364184	9.733531	-40.364184	9.733531	-0.295619	-132.851462
7.550000	-0.327924	-146.628661	-40.245860	8.221133	-40.245860	8.221133	-0.299842	-133.637465
7.600000	-0.332512	-147.526544	-40.128926	6.711236	-40.128926	6.711236	-0.304116	-134.423428
7.650000	-0.337154	-148.425475	-40.013356	5.203704	-40.013356	5.203704	-0.308442	-135.209393
7.700000	-0.341848	-149.325528	-39.899123	3.698397	-39.899123	3.698397	-0.312818	-135.995404
7.750000	-0.346595	-150.226776	-39.786200	2.195175	-39.786200	2.195175	-0.317246	-136.781506
7.800000	-0.351395	-151.129292	-39.674565	0.693890	-39.674565	0.693890	-0.321726	-137.567743
7.850000	-0.356247	-152.033152	-39.564194	-0.805608	-39.564194	-0.805608	-0.326257	-138.354160
7.900000	-0.361152	-152.938428	-39.455066	-2.303474	-39.455066	-2.303474	-0.330840	-139.140802
7.950000	-0.366110	-153.845195	-39.347159	-3.799866	-39.347159	-3.799866	-0.335476	-139.927715
8.000000	-0.371119	-154.753528	-39.240457	-5.294950	-39.240457	-5.294950	-0.340164	-140.714946
8.050000	-0.376181	-155.663502	-39.134940	-6.788894	-39.134940	-6.788894	-0.344904	-141.502540
8.100000	-0.381294	-156.575191	-39.030593	-8.281873	-39.030593	-8.281873	-0.349697	-142.290546
8.150000	-0.386459	-157.488672	-38.927403	-9.774064	-38.927403	-9.774064	-0.354542	-143.079010
8.200000	-0.391674	-158.404019	-38.825355	-11.265651	-38.825355	-11.265651	-0.359441	-143.867980
8.250000	-0.396940	-159.321309	-38.724438	-12.756822	-38.724438	-12.756822	-0.364392	-144.657505
8.300000	-0.402256	-160.240619	-38.624645	-14.247769	-38.624645	-14.247769	-0.369395	-145.447634
8.350000	-0.407622	-161.162025	-38.525966	-15.738687	-38.525966	-15.738687	-0.374452	-146.238416
8.400000	-0.413036	-162.085605	-38.428397	-17.229777	-38.428397	-17.229777	-0.379562	-147.029901
8.450000	-0.418499	-163.011437	-38.331934	-18.721241	-38.331934	-18.721241	-0.384725	-147.822139
8.500000	-0.424009	-163.939598	-38.236575	-20.213285	-38.236575	-20.213285	-0.389940	-148.615181
8.550000	-0.429566	-164.870167	-38.142320	-21.706118	-38.142320	-21.706118	-0.395209	-149.409077
8.600000	-0.435169	-165.803224	-38.049173	-23.199950	-38.049173	-23.199950	-0.400530	-150.203880
8.650000	-0.440817	-166.738847	-37.957137	-24.694992	-37.957137	-24.694992	-0.405904	-150.999642
8.700000	-0.446509	-167.677117	-37.866220	-26.191458	-37.866220	-26.191458	-0.411330	-151.796415
8.750000	-0.452244	-168.618114	-37.776432	-27.689559	-37.776432	-27.689559	-0.416809	-152.594252
8.800000	-0.458022	-169.562044	-37.687795	-29.189599	-37.687795	-29.189599	-0.422342	-153.393257
8.850000	-0.463840	-170.508871	-37.600317	-30.691717	-37.600317	-30.691717	-0.427928	-154.193440
8.900000	-0.469697	-171.458676	-37.514013	-32.196120	-37.514013	-32.196120	-0.433565	-154.994854
8.950000	-0.475591	-172.411542	-37.428904	-33.703015	-37.428904	-33.703015	-0.439255	-155.797554
9.000000	-0.481521	-173.367550	-37.345011	-35.212602	-37.345011	-35.212602	-0.444995	-156.601597
9.050000	-0.487485	-174.326785	-37.262360	-36.725077	-37.262360	-36.725077	-0.450787	-157.407037
9.100000	-0.493482	-175.289329	-37.180977	-38.240630	-37.180977	-38.240630	-0.456630	-158.213933
9.150000	-0.499509	-176.255267	-37.100894	-39.759444	-37.100894	-39.759444	-0.462523	-159.022340
9.200000	-0.505564	-177.224682	-37.022141	-41.281694	-37.022141	-41.281694	-0.468466	-159.832317
9.250000	-0.511645	-178.197661	-36.944754	-42.807544	-36.944754	-42.807544	-0.474459	-160.643921
9.300000	-0.517749	-179.174287	-36.868772	-44.337149	-36.868772	-44.337149	-0.480501	-161.457212
9.350000	-0.523876	179.845354	-36.794234	-45.870653	-36.794234	-45.870653	-0.486592	-162.272249
9.400000	-0.530021	178.861176	-36.721183	-47.408184	-36.721183	-47.408184	-0.492732	-163.089091
9.450000	-0.536181	177.873092	-36.649665	-48.949858	-36.649665	-48.949858	-0.498919	-163.907799
9.500000	-0.542356	176.881016	-36.579727	-50.495775	-36.579727	-50.495775	-0.505153	-164.728433
9.550000	-0.548540	175.884862	-36.511420	-52.046018	-36.511420	-52.046018	-0.511434	-165.551055
9.600000	-0.554731	174.884541	-36.444795	-53.600651	-36.444795	-53.600651	-0.517761	-166.375728
9.650000	-0.560926	173.879967	-36.379907	-55.159718	-36.379907	-55.159718	-0.524133	-167.202512
9.700000	-0.567120	172.871051	-36.316811	-56.723243	-36.316811	-56.723243	-0.530549	-168.031472
9.750000	-0.573311	171.857707	-36.255567	-58.291228	-36.255567	-58.291228	-0.537009	-168.862671
9.800000	-0.579495	170.839845	-36.196233	-59.863651	-36.196233	-59.863651	-0.543512	-169.696172
9.850000	-0.585667	169.817378	-36.138870	-61.440465	-36.138870	-61.440465	-0.550057	-170.532042
9.900000	-0.591823	168.790216	-36.083541	-63.021598	-36.083541	-63.021598	-0.556643	-171.370344
9.950000	-0.597959	167.758273	-36.030309	-64.606949	-36.030309	-64.606949	-0.563270	-172.211144
10.000000	-0.604070	166.721458	-35.979237	-66.196393	-35.979237	-66.196393	-0.569935	-173.054509
