! freq	dB(S11)	phase(S11)	dB(S12)	phase(S12)	
!     	dB(S21)	phase(S21)	dB(S22)	phase(S22)	
!S-par simulation data
#  GHz  S  DB  R 50
0.000000	-6153.053111	0.000000	-0.000000	0.000000	-0.000000	0.000000	-6153.053111	0.000000
0.050000	-36.115592	-92.508681	-0.005824	-3.059143	-0.005824	-3.059143	-36.143158	-93.476822
0.100000	-30.134695	-95.142841	-0.015067	-6.075500	-0.015067	-6.075500	-30.146072	-96.937316
0.150000	-26.652607	-97.830384	-0.024813	-9.077952	-0.024813	-9.077952	-26.661974	-100.429627
0.200000	-24.192256	-100.507822	-0.035977	-12.074639	-0.035977	-12.074639	-24.203934	-103.962487
0.250000	-22.292180	-103.156538	-0.048934	-15.065991	-0.048934	-15.065991	-22.304528	-107.487819
0.300000	-20.747441	-105.776997	-0.063720	-18.051641	-0.063720	-18.051641	-20.759579	-110.986761
0.350000	-19.449163	-108.373208	-0.080317	-21.031237	-0.080317	-21.031237	-19.461086	-114.461219
0.400000	-18.331904	-110.949833	-0.098609	-24.004779	-0.098609	-24.004779	-18.343832	-117.917610
0.450000	-17.354076	-113.509207	-0.118565	-26.971935	-0.118565	-26.971935	-17.366201	-121.360162
0.500000	-16.487119	-116.053032	-0.140121	-29.932439	-0.140121	-29.932439	-16.499554	-124.792092
0.550000	-15.710807	-118.582047	-0.163218	-32.885901	-0.163218	-32.885901	-15.723588	-128.215420
0.600000	-15.009988	-121.096717	-0.187766	-35.832037	-0.187766	-35.832037	-15.023101	-131.631575
0.650000	-14.373115	-123.597156	-0.213669	-38.770575	-0.213669	-38.770575	-14.386515	-135.041499
0.700000	-13.791229	-126.083204	-0.240834	-41.701225	-0.240834	-41.701225	-13.804858	-138.445824
0.750000	-13.256971	-128.554870	-0.269145	-44.623895	-0.269145	-44.623895	-13.270770	-141.845128
0.800000	-12.764985	-131.011294	-0.298535	-47.538081	-0.298535	-47.538081	-12.778898	-145.239654
0.850000	-12.310263	-133.452428	-0.328882	-50.443796	-0.328882	-50.443796	-12.324246	-148.629905
0.900000	-11.888843	-135.877915	-0.360080	-53.340930	-0.360080	-53.340930	-11.902863	-152.016281
0.950000	-11.497725	-138.286884	-0.392045	-56.229147	-0.392045	-56.229147	-11.511767	-155.399121
1.000000	-11.133330	-140.680114	-0.424634	-59.109033	-0.424634	-59.109033	-11.147393	-158.779116
1.050000	-10.793502	-143.056899	-0.457764	-61.980408	-0.457764	-61.980408	-10.807600	-162.156688
1.100000	-10.476087	-145.417054	-0.491336	-64.843406	-0.491336	-64.843406	-10.490249	-165.532407
1.150000	-10.179194	-147.760439	-0.525254	-67.698209	-0.525254	-67.698209	-10.193462	-168.906892
1.200000	-9.901159	-150.086959	-0.559425	-70.545052	-0.559425	-70.545052	-9.915586	-172.280811
1.250000	-9.640502	-152.396560	-0.593761	-73.384212	-0.593761	-73.384212	-9.655154	-175.654875
1.300000	-9.396088	-154.688862	-0.628172	-76.215858	-0.628172	-76.215858	-9.411039	-179.029876
1.350000	-9.166538	-156.964257	-0.662578	-79.040521	-0.662578	-79.040521	-9.181868	177.593389
1.400000	-8.950786	-159.222803	-0.696905	-81.858597	-0.696905	-81.858597	-8.966580	174.214084
1.450000	-8.747869	-161.464585	-0.731080	-84.670518	-0.731080	-84.670518	-8.764215	170.831341
1.500000	-8.556912	-163.689711	-0.765039	-87.476741	-0.765039	-87.476741	-8.573900	167.444258
1.550000	-8.377119	-165.898309	-0.798719	-90.277753	-0.798719	-90.277753	-8.394836	164.051908
1.600000	-8.207758	-168.090522	-0.832066	-93.074061	-0.832066	-93.074061	-8.226292	160.653341
1.650000	-8.048161	-170.266503	-0.865029	-95.866192	-0.865029	-95.866192	-8.067597	157.247583
1.700000	-7.897711	-172.426415	-0.897561	-98.654693	-0.897561	-98.654693	-7.918129	153.833648
1.750000	-7.755837	-174.570424	-0.929623	-101.440123	-0.929623	-101.440123	-7.777314	150.410531
1.800000	-7.622012	-176.698699	-0.961179	-104.223056	-0.961179	-104.223056	-7.644619	146.977220
1.850000	-7.495742	-178.811411	-0.992198	-107.004073	-0.992198	-107.004073	-7.519548	143.532695
1.900000	-7.376623	179.091436	-1.022649	-109.783759	-1.022649	-109.783759	-7.401693	140.075788
1.950000	-7.264216	177.009670	-1.052510	-112.562729	-1.052510	-112.562729	-7.290612	136.605437
2.000000	-7.158057	174.942955	-1.081775	-115.341600	-1.081775	-115.341600	-7.185838	133.120755
2.050000	-7.057764	172.891128	-1.110433	-118.120973	-1.110433	-118.120973	-7.086986	129.620724
2.100000	-6.962974	170.854024	-1.138480	-120.901451	-1.138480	-120.901451	-6.993694	126.104334
2.150000	-6.873339	168.831476	-1.165915	-123.683636	-1.165915	-123.683636	-6.905618	122.570590
2.200000	-6.788532	166.823317	-1.192744	-126.468125	-1.192744	-126.468125	-6.822432	119.018506
2.250000	-6.708236	164.829374	-1.218974	-129.255513	-1.218974	-129.255513	-6.743824	115.447117
2.300000	-6.632146	162.849467	-1.244621	-132.046388	-1.244621	-132.046388	-6.669497	111.855476
2.350000	-6.559970	160.883408	-1.269700	-134.841331	-1.269700	-134.841331	-6.599166	108.242657
2.400000	-6.491426	158.931000	-1.294236	-137.640915	-1.294236	-137.640915	-6.532559	104.607760
2.450000	-6.426239	156.992030	-1.318253	-140.445704	-1.318253	-140.445704	-6.469411	100.949911
2.500000	-6.364144	155.066270	-1.341783	-143.256252	-1.341783	-143.256252	-6.409469	97.268266
2.550000	-6.304928	153.153752	-1.364849	-146.073252	-1.364849	-146.073252	-6.352537	93.561460
2.600000	-6.248284	151.253923	-1.387500	-148.897109	-1.387500	-148.897109	-6.298317	89.829233
2.650000	-6.193965	149.366496	-1.409780	-151.728341	-1.409780	-151.728341	-6.246577	86.070847
2.700000	-6.141733	147.491161	-1.431731	-154.567453	-1.431731	-154.567453	-6.197092	82.285597
2.750000	-6.091355	145.627583	-1.453404	-157.414936	-1.453404	-157.414936	-6.149641	78.472823
2.800000	-6.042602	143.775403	-1.474848	-160.271269	-1.474848	-160.271269	-6.104011	74.631903
2.850000	-5.995253	141.934234	-1.496118	-163.136916	-1.496118	-163.136916	-6.059992	70.762257
2.900000	-5.949090	140.103664	-1.517271	-166.012326	-1.517271	-166.012326	-6.017379	66.863351
2.950000	-5.903901	138.283252	-1.538366	-168.897935	-1.538366	-168.897935	-5.975970	62.934693
3.000000	-5.859481	136.472528	-1.559467	-171.794166	-1.559467	-171.794166	-5.935570	58.975837
3.050000	-5.815629	134.670995	-1.580637	-174.701426	-1.580637	-174.701426	-5.895987	54.986381
3.100000	-5.772149	132.878128	-1.601944	-177.620112	-1.601944	-177.620112	-5.857033	50.965971
3.150000	-5.728848	131.093456	-1.623459	179.449261	-1.623459	179.449261	-5.818526	46.913951
3.200000	-5.685537	129.316375	-1.645256	176.506312	-1.645256	176.506312	-5.780281	42.830047
3.250000	-5.642036	127.546188	-1.667407	173.550809	-1.667407	173.550809	-5.742119	38.714376
3.300000	-5.598173	125.782255	-1.689989	170.582407	-1.689989	170.582407	-5.703873	34.566761
3.350000	-5.553782	124.023912	-1.713078	167.600765	-1.713078	167.600765	-5.665377	30.387059
3.400000	-5.508701	122.270469	-1.736754	164.605556	-1.736754	164.605556	-5.626471	26.175169
3.450000	-5.462776	120.521208	-1.761101	161.596458	-1.761101	161.596458	-5.587002	21.931023
3.500000	-5.415859	118.775388	-1.786202	158.573155	-1.786202	158.573155	-5.546820	17.654588
3.550000	-5.367807	117.032243	-1.812143	155.535339	-1.812143	155.535339	-5.505782	13.345858
3.600000	-5.318485	115.290981	-1.839015	152.482705	-1.839015	152.482705	-5.463753	9.004856
3.650000	-5.267766	113.550790	-1.866909	149.414951	-1.866909	149.414951	-5.420600	4.631630
3.700000	-5.215528	111.810833	-1.895920	146.331778	-1.895920	146.331778	-5.376200	0.226248
3.750000	-5.161657	110.070250	-1.926146	143.232891	-1.926146	143.232891	-5.330436	-4.211205
3.800000	-5.105998	108.328109	-1.957717	140.117637	-1.957717	140.117637	-5.283155	-8.681319
3.850000	-5.048497	106.583520	-1.990716	136.986061	-1.990716	136.986061	-5.234290	-13.183282
3.900000	-4.989062	104.835561	-2.025252	133.837868	-2.025252	133.837868	-5.183743	-17.716968
3.950000	-4.927613	103.083292	-2.061440	130.672761	-2.061440	130.672761	-5.131425	-22.282243
4.000000	-4.864076	101.325752	-2.099402	127.490441	-2.099402	127.490441	-5.077255	-26.878964
4.050000	-4.798389	99.561966	-2.139262	124.290611	-2.139262	124.290611	-5.021156	-31.506983
4.100000	-4.730496	97.790942	-2.181154	121.072974	-2.181154	121.072974	-4.963061	-36.166143
4.150000	-4.660354	96.011676	-2.225218	117.837232	-2.225218	117.837232	-4.902910	-40.856280
4.200000	-4.587928	94.223148	-2.271600	114.583093	-2.271600	114.583093	-4.840651	-45.577218
4.250000	-4.513195	92.424329	-2.320458	111.310266	-2.320458	111.310266	-4.776238	-50.328770
4.300000	-4.436141	90.614182	-2.371955	108.018468	-2.371955	108.018468	-4.709634	-55.110730
4.350000	-4.356766	88.791663	-2.426267	104.707426	-2.426267	104.707426	-4.640809	-59.922873
4.400000	-4.275048	86.955566	-2.483609	101.376662	-2.483609	101.376662	-4.569713	-64.765266
4.450000	-4.191008	85.104808	-2.544185	98.025923	-2.544185	98.025923	-4.496330	-69.637609
4.500000	-4.104717	83.238488	-2.608175	94.655196	-2.608175	94.655196	-4.420687	-74.539244
4.550000	-4.016224	81.355569	-2.675802	91.264282	-2.675802	91.264282	-4.342793	-79.469785
4.600000	-3.925591	79.455023	-2.747302	87.853015	-2.747302	87.853015	-4.262661	-84.428787
4.650000	-3.832897	77.535838	-2.822927	84.421261	-2.822927	84.421261	-4.180321	-89.415731
4.700000	-3.738230	75.597023	-2.902943	80.968933	-2.902943	80.968933	-4.095808	-94.430021
4.750000	-3.641696	73.637611	-2.987634	77.495994	-2.987634	77.495994	-4.009173	-99.470966
4.800000	-3.543415	71.656669	-3.077298	74.002464	-3.077298	74.002464	-3.920478	-104.537771
4.850000	-3.443518	69.653299	-3.172254	70.488428	-3.172254	70.488428	-3.829799	-109.629531
4.900000	-3.342153	67.626649	-3.272837	66.954048	-3.272837	66.954048	-3.737224	-114.745213
4.950000	-3.239483	65.575915	-3.379403	63.399568	-3.379403	63.399568	-3.642858	-119.883653
5.000000	-3.135681	63.500353	-3.492327	59.825322	-3.492327	59.825322	-3.546819	-125.043545
5.050000	-3.030892	61.398712	-3.612123	56.231341	-3.612123	56.231341	-3.449188	-130.223829
5.100000	-2.925371	59.270925	-3.739100	52.618609	-3.739100	52.618609	-3.350174	-135.422415
5.150000	-2.819330	57.116465	-3.873698	48.987800	-3.873698	48.987800	-3.249946	-140.637521
5.200000	-2.712994	54.934887	-4.016377	45.339716	-4.016377	45.339716	-3.148685	-145.867203
5.250000	-2.606597	52.725836	-4.167626	41.675295	-4.167626	41.675295	-3.046591	-151.109359
5.300000	-2.500383	50.489050	-4.327956	37.995617	-4.327956	37.995617	-2.943875	-156.361729
5.350000	-2.394600	48.224367	-4.497906	34.301911	-4.497906	34.301911	-2.840764	-161.621904
5.400000	-2.289504	45.931723	-4.678047	30.595559	-4.678047	30.595559	-2.737495	-166.887336
5.450000	-2.185352	43.611152	-4.868981	26.878103	-4.868981	26.878103	-2.634317	-172.155349
5.500000	-2.082405	41.262793	-5.071347	23.151246	-5.071347	23.151246	-2.531487	-177.423155
5.550000	-1.980923	38.886877	-5.285827	19.416856	-5.285827	19.416856	-2.429267	177.312121
5.600000	-1.881162	36.483728	-5.513150	15.676969	-5.513150	15.676969	-2.327925	172.053427
5.650000	-1.783387	34.053466	-5.754184	11.933782	-5.754184	11.933782	-2.227732	166.803882
5.700000	-1.687855	31.596588	-6.009787	8.189761	-6.009787	8.189761	-2.128966	161.566588
5.750000	-1.594794	29.113925	-6.280816	4.447514	-6.280816	4.447514	-2.031891	156.344425
5.800000	-1.504430	26.606054	-6.568311	0.709807	-6.568311	0.709807	-1.936765	151.140310
5.850000	-1.416980	24.073570	-6.873435	-3.020386	-6.873435	-3.020386	-1.843836	145.957066
5.900000	-1.332645	21.517058	-7.197508	-6.739853	-7.197508	-6.739853	-1.753345	140.797377
5.950000	-1.251613	18.937068	-7.542044	-10.445097	-7.542044	-10.445097	-1.665519	135.663747
6.000000	-1.174061	16.334074	-7.908802	-14.132269	-7.908802	-14.132269	-1.580573	130.558454
6.050000	-1.100147	13.708444	-8.299854	-17.797066	-8.299854	-17.797066	-1.498712	125.483501
6.100000	-1.030021	11.060388	-8.717667	-21.434576	-8.717667	-21.434576	-1.420127	120.440570
6.150000	-0.963820	8.389913	-9.165222	-25.039049	-9.165222	-25.039049	-1.345000	115.430959
6.200000	-0.901673	5.696763	-9.646164	-28.603551	-9.646164	-28.603551	-1.273507	110.455532
6.250000	-0.843705	2.980356	-10.165016	-32.119450	-10.165016	-32.119450	-1.205820	105.514649
6.300000	-0.790134	0.239142	-10.727710	-35.573974	-10.727710	-35.573974	-1.142193	100.608819
6.350000	-0.741015	-2.527898	-11.341350	-38.952927	-11.341350	-38.952927	-1.082743	95.736365
6.400000	-0.696506	-5.322900	-12.015431	-42.235026	-12.015431	-42.235026	-1.027676	90.895591
6.450000	-0.656795	-8.148747	-12.762548	-45.389359	-12.762548	-45.389359	-0.977233	86.083911
6.500000	-0.622124	-11.009231	-13.599772	-48.369127	-13.599772	-48.369127	-0.931710	81.297702
6.550000	-0.592812	-13.909251	-14.550836	-51.100136	-14.550836	-51.100136	-0.891477	76.532115
6.600000	-0.569283	-16.855078	-15.649715	-53.458304	-15.649715	-53.458304	-0.857021	71.780836
6.650000	-0.552118	-19.854672	-16.946652	-55.222193	-16.946652	-55.222193	-0.828984	67.035784
6.700000	-0.541926	-22.916321	-18.517511	-56.008289	-18.517511	-56.008289	-0.808038	62.287128
6.750000	-0.540275	-26.056964	-20.483575	-54.814472	-20.483575	-54.814472	-0.795835	57.521119
6.800000	-0.548510	-29.290689	-23.004607	-49.385973	-23.004607	-49.385973	-0.793797	52.721466
6.850000	-0.568888	-32.638135	-26.036628	-33.574946	-26.036628	-33.574946	-0.804279	47.867409
6.900000	-0.604672	-36.125595	-27.609348	0.967100	-27.609348	0.967100	-0.830653	42.932670
6.950000	-0.660653	-39.786626	-24.947116	33.730454	-24.947116	33.730454	-0.877843	37.883937
7.000000	-0.743993	-43.664027	-21.163721	47.387090	-21.163721	47.387090	-0.953175	32.679046
7.050000	-0.865630	-47.811958	-17.917692	51.001396	-17.917692	51.001396	-1.067793	27.265114
7.100000	-1.043042	-52.299425	-15.186101	50.099457	-15.186101	50.099457	-1.239452	21.575824
7.150000	-1.304829	-57.208130	-12.804811	46.628361	-12.804811	46.628361	-1.497109	15.534204
7.200000	-1.695190	-62.605805	-10.669206	41.276487	-10.669206	41.276487	-1.885365	9.079149
7.250000	-2.294109	-68.527114	-8.715845	34.150143	-8.715845	34.150143	-2.484729	2.192488
7.300000	-3.232003	-74.798190	-6.938124	25.174484	-6.938124	25.174484	-3.425806	-4.922166
7.350000	-4.728912	-80.636288	-5.376095	14.201484	-5.376095	14.201484	-4.926782	-11.413703
7.400000	-7.110528	-83.320400	-4.122254	1.247615	-4.122254	1.247615	-7.297734	-14.393313
7.450000	-10.417955	-74.498521	-3.293425	-13.171856	-3.293425	-13.171856	-10.478880	-5.337524
7.500000	-11.871098	-44.541572	-2.958816	-27.997339	-2.958816	-27.997339	-11.576549	23.294629
7.550000	-9.231436	-23.564114	-3.083451	-42.004671	-3.083451	-42.004671	-8.928309	41.643536
7.600000	-6.580803	-20.361646	-3.540784	-54.383902	-3.540784	-54.383902	-6.364882	43.541729
7.650000	-4.813617	-23.259199	-4.189741	-64.948263	-4.189741	-64.948263	-4.647233	39.805359
7.700000	-3.669121	-27.781588	-4.927356	-73.834566	-4.927356	-73.834566	-3.528010	34.593748
7.750000	-2.905152	-32.511916	-5.689754	-81.365565	-5.689754	-81.365565	-2.776640	29.247108
7.800000	-2.377975	-37.044628	-6.444262	-87.832588	-6.444262	-87.832588	-2.254923	24.151440
7.850000	-2.003701	-41.279586	-7.174698	-93.467547	-7.174698	-93.467547	-1.881699	19.401260
7.900000	-1.729928	-45.224561	-7.876212	-98.462566	-7.876212	-98.462566	-1.606081	14.986295
7.950000	-1.524494	-48.916923	-8.548978	-102.960227	-8.548978	-102.960227	-1.396769	10.868012
8.000000	-1.367452	-52.395934	-9.194611	-107.061872	-9.194611	-107.061872	-1.234311	7.006931
8.050000	-1.245623	-55.697774	-9.815685	-110.843517	-9.815685	-110.843517	-1.105833	3.366935
8.100000	-1.150064	-58.853571	-10.415096	-114.362605	-10.415096	-114.362605	-1.002579	-0.082856
8.150000	-1.074936	-61.886976	-10.994407	-117.658276	-10.994407	-117.658276	-0.918801	-3.364527
8.200000	-1.015623	-64.821029	-11.556724	-120.766038	-11.556724	-120.766038	-0.849943	-6.500520
8.250000	-0.968576	-67.676491	-12.106082	-123.716628	-12.106082	-123.716628	-0.792507	-9.512025
8.300000	-0.931526	-70.468421	-12.644893	-126.529780	-12.644893	-126.529780	-0.744216	-12.413197
8.350000	-0.902911	-73.209044	-13.174720	-129.218814	-13.174720	-129.218814	-0.703457	-15.214190
8.400000	-0.881087	-75.911738	-13.699775	-131.801560	-13.699775	-131.801560	-0.668591	-17.929716
8.450000	-0.865387	-78.584733	-14.220596	-134.282562	-14.220596	-134.282562	-0.638846	-20.564536
8.500000	-0.855076	-81.237273	-14.739272	-136.668561	-14.739272	-136.668561	-0.613398	-23.125965
8.550000	-0.849609	-83.877943	-15.257893	-138.964048	-15.257893	-138.964048	-0.591593	-25.620292
8.600000	-0.848592	-86.514920	-15.778589	-141.171394	-15.778589	-141.171394	-0.572908	-28.052970
8.650000	-0.851760	-89.156204	-16.303579	-143.290853	-16.303579	-143.290853	-0.556921	-30.428766
8.700000	-0.858957	-91.809821	-16.835217	-145.320423	-16.835217	-145.320423	-0.543288	-32.751882
8.750000	-0.870126	-94.484037	-17.376049	-147.255555	-17.376049	-147.255555	-0.531727	-35.026050
8.800000	-0.885488	-97.189294	-17.927973	-149.083681	-17.927973	-149.083681	-0.522079	-37.252764
8.850000	-0.905021	-99.934226	-18.495138	-150.796903	-18.495138	-150.796903	-0.514068	-39.437117
8.900000	-0.928986	-102.729369	-19.081047	-152.378070	-19.081047	-152.378070	-0.507543	-41.581801
8.950000	-0.957767	-105.586589	-19.689670	-153.803111	-19.689670	-153.803111	-0.502378	-43.689278
9.000000	-0.991587	-108.514835	-20.326437	-155.050219	-20.326437	-155.050219	-0.498407	-45.763627
9.050000	-1.031659	-111.537076	-20.994669	-156.055208	-20.994669	-156.055208	-0.495671	-47.803517
9.100000	-1.078697	-114.668759	-21.700675	-156.760834	-21.700675	-156.760834	-0.494052	-49.812439
9.150000	-1.133931	-117.931951	-22.450107	-157.075375	-22.450107	-157.075375	-0.493504	-51.792189
9.200000	-1.198768	-121.349733	-23.248380	-156.881654	-23.248380	-156.881654	-0.493980	-53.744899
9.250000	-1.276502	-124.973919	-24.094494	-155.916478	-24.094494	-155.916478	-0.495561	-55.669842
9.300000	-1.368119	-128.813718	-24.988078	-154.040010	-24.988078	-154.040010	-0.498101	-57.572069
9.350000	-1.478545	-132.937750	-25.903695	-150.818509	-25.903695	-150.818509	-0.501706	-59.450833
9.400000	-1.613357	-137.415347	-26.780983	-145.786443	-26.780983	-145.786443	-0.506427	-61.307105
9.450000	-1.779553	-142.325246	-27.501170	-138.598081	-27.501170	-138.598081	-0.512303	-63.142315
9.500000	-1.987366	-147.777303	-27.874041	-129.351027	-27.874041	-129.351027	-0.519416	-64.957210
9.550000	-2.251279	-153.917619	-27.705664	-119.109427	-27.705664	-119.109427	-0.527867	-66.752211
9.600000	-2.592431	-160.949659	-26.940129	-109.783872	-26.940129	-109.783872	-0.537783	-68.527183
9.650000	-3.041595	-169.160780	-25.720147	-103.060430	-25.720147	-103.060430	-0.549292	-70.281285
9.700000	-3.639539	-178.922779	-24.276224	-99.528645	-24.276224	-99.528645	-0.562451	-72.013189
9.750000	-4.446591	169.143494	-22.782996	-99.152240	-22.782996	-99.152240	-0.577252	-73.719422
9.800000	-5.529822	154.133509	-21.367482	-101.563321	-21.367482	-101.563321	-0.593350	-75.395604
9.850000	-6.929491	134.535480	-20.121011	-106.402823	-20.121011	-106.402823	-0.609838	-77.036016
9.900000	-8.497928	107.989554	-19.127536	-113.275320	-19.127536	-113.275320	-0.624805	-78.636076
9.950000	-9.548221	73.174204	-18.462226	-121.603042	-18.462226	-121.603042	-0.635241	-80.199672
10.000000	-9.169056	35.661723	-18.171507	-130.628066	-18.171507	-130.628066	-0.638089	-81.747030
