! freq	dB(S11)	phase(S11)	dB(S12)	phase(S12)	
!     	dB(S21)	phase(S21)	dB(S22)	phase(S22)	
!S-par simulation data
#  GHz  S  DB  R 50
0.000000	-0.000000	-0.000000	-385.456551	180.000000	-385.456551	180.000000	-0.000000	-0.000000
0.050000	-0.000099	-0.770183	-117.539730	88.360213	-117.539730	88.360213	-0.000098	-0.770139
0.100000	-0.000393	-1.540123	-111.665706	87.050235	-111.665706	87.050235	-0.000388	-1.540040
0.150000	-0.000873	-2.309579	-108.339667	86.126648	-108.339667	86.126648	-0.000863	-2.309468
0.200000	-0.001510	-3.078408	-106.052406	85.459721	-106.052406	85.459721	-0.001493	-3.078281
0.250000	-0.002285	-3.846446	-104.345474	84.961445	-104.345474	84.961445	-0.002262	-3.846319
0.300000	-0.003187	-4.613497	-103.028264	84.589849	-103.028264	84.589849	-0.003157	-4.613383
0.350000	-0.004172	-5.379651	-101.978367	84.313600	-101.978367	84.313600	-0.004136	-5.379563
0.400000	-0.005230	-6.144741	-101.152919	84.159896	-101.152919	84.159896	-0.005190	-6.144686
0.450000	-0.006334	-6.908854	-100.505587	84.145642	-100.505587	84.145642	-0.006291	-6.908839
0.500000	-0.007470	-7.671966	-100.018611	84.317223	-100.018611	84.317223	-0.007426	-7.671992
0.550000	-0.008623	-8.434116	-99.677088	84.730407	-99.677088	84.730407	-0.008579	-8.434182
0.600000	-0.009782	-9.195342	-99.472830	85.462268	-99.472830	85.462268	-0.009739	-9.195446
0.650000	-0.010938	-9.955684	-99.401597	86.618484	-99.401597	86.618484	-0.010897	-9.955823
0.700000	-0.012086	-10.715183	-99.461348	88.346258	-99.461348	88.346258	-0.012048	-10.715350
0.750000	-0.013221	-11.473873	-99.649711	90.853262	-99.649711	90.853262	-0.013187	-11.474063
0.800000	-0.014342	-12.231784	-99.959221	94.432681	-99.959221	94.432681	-0.014312	-12.231991
0.850000	-0.015444	-12.988816	-100.359568	99.900094	-100.359568	99.900094	-0.015418	-12.989034
0.900000	-0.016530	-13.745081	-100.800497	107.448716	-100.800497	107.448716	-0.016507	-13.745305
0.950000	-0.017607	-14.500973	-101.139702	116.269573	-101.139702	116.269573	-0.017589	-14.501201
1.000000	-0.018661	-15.255744	-101.112429	128.907136	-101.112429	128.907136	-0.018646	-15.255970
1.050000	-0.019711	-16.010267	-100.873402	141.580592	-100.873402	141.580592	-0.019699	-16.010491
1.100000	-0.020738	-16.763555	-99.677491	154.433503	-99.677491	154.433503	-0.020729	-16.763771
1.150000	-0.021764	-17.516717	-98.537811	166.865491	-98.537811	166.865491	-0.021757	-17.516926
1.200000	-0.022769	-18.268499	-96.706604	174.667318	-96.706604	174.667318	-0.022765	-18.268699
1.250000	-0.023775	-19.020281	-95.195047	-177.530855	-95.195047	-177.530855	-0.023772	-19.020472
1.300000	-0.024768	-19.770910	-93.520012	-172.981432	-93.520012	-172.981432	-0.024767	-19.771090
1.350000	-0.025755	-20.520784	-91.932340	-169.803608	-91.932340	-169.803608	-0.025754	-20.520955
1.400000	-0.026736	-21.269891	-90.441377	-167.626950	-90.441377	-167.626950	-0.026735	-21.270052
1.450000	-0.027711	-22.018215	-89.044467	-166.187193	-89.044467	-166.187193	-0.027711	-22.018368
1.500000	-0.028683	-22.765742	-87.734453	-165.297959	-87.734453	-165.297959	-0.028683	-22.765887
1.550000	-0.029651	-23.512456	-86.503011	-164.827115	-86.503011	-164.827115	-0.029652	-23.512594
1.600000	-0.030617	-24.258341	-85.342036	-164.679778	-85.342036	-164.679778	-0.030617	-24.258473
1.650000	-0.031581	-25.003381	-84.244152	-164.786728	-84.244152	-164.786728	-0.031580	-25.003507
1.700000	-0.032542	-25.747251	-83.179139	-165.149318	-83.179139	-165.149318	-0.032542	-25.747374
1.750000	-0.033503	-26.490666	-82.199209	-165.603671	-82.199209	-165.603671	-0.033502	-26.490786
1.800000	-0.034463	-27.232984	-81.250690	-166.210536	-81.250690	-166.210536	-0.034462	-27.233102
1.850000	-0.035423	-27.974519	-80.351881	-166.926337	-80.351881	-166.926337	-0.035421	-27.974635
1.900000	-0.036383	-28.715078	-79.487881	-167.732109	-79.487881	-167.732109	-0.036381	-28.715193
1.950000	-0.037344	-29.454661	-78.657096	-168.627852	-78.657096	-168.627852	-0.037341	-29.454776
2.000000	-0.038305	-30.193402	-77.863280	-169.577270	-77.863280	-169.577270	-0.038302	-30.193519
2.050000	-0.039268	-30.930965	-77.090351	-170.601834	-77.090351	-170.601834	-0.039264	-30.931083
2.100000	-0.040232	-31.667832	-76.355766	-171.658137	-76.355766	-171.658137	-0.040228	-31.667952
2.150000	-0.041198	-32.403307	-75.632704	-172.777917	-75.632704	-172.777917	-0.041194	-32.403430
2.200000	-0.042165	-33.138244	-74.948818	-173.915759	-74.948818	-173.915759	-0.042161	-33.138370
2.250000	-0.043136	-33.871567	-74.269249	-175.107784	-74.269249	-175.107784	-0.043131	-33.871696
2.300000	-0.044108	-34.604520	-73.629295	-176.309143	-73.629295	-176.309143	-0.044103	-34.604653
2.350000	-0.045085	-35.335627	-72.988055	-177.557175	-72.988055	-177.557175	-0.045080	-35.335764
2.400000	-0.046062	-36.066545	-72.386576	-178.808890	-72.386576	-178.808890	-0.046057	-36.066685
2.450000	-0.047046	-36.795377	-71.779425	179.898876	-71.779425	179.898876	-0.047041	-36.795521
2.500000	-0.048031	-37.524208	-71.211956	178.606641	-71.211956	178.606641	-0.048026	-37.524356
2.550000	-0.049023	-38.250707	-70.635363	177.278998	-70.635363	177.278998	-0.049018	-38.250858
2.600000	-0.050016	-38.977205	-70.094675	175.951355	-70.094675	175.951355	-0.050011	-38.977361
2.650000	-0.051018	-39.701514	-69.549193	174.597389	-69.549193	174.597389	-0.051014	-39.701673
2.700000	-0.052021	-40.425623	-69.032833	173.241030	-69.032833	173.241030	-0.052017	-40.425786
2.750000	-0.053033	-41.147699	-68.515279	171.865064	-68.515279	171.865064	-0.053029	-41.147865
2.800000	-0.054047	-41.869367	-68.021144	170.485177	-68.021144	170.485177	-0.054043	-41.869537
2.850000	-0.055071	-42.589167	-67.528816	169.090710	-67.528816	169.090710	-0.055067	-42.589340
2.900000	-0.056098	-43.308344	-67.055084	167.691384	-67.055084	167.691384	-0.056095	-43.308520
2.950000	-0.057134	-44.025828	-66.585667	166.281277	-66.585667	166.281277	-0.057131	-44.026007
3.000000	-0.058175	-44.742467	-66.130750	164.865781	-66.130750	164.865781	-0.058173	-44.742649
3.050000	-0.059225	-45.457598	-65.682246	163.442398	-65.682246	163.442398	-0.059223	-45.457783
3.100000	-0.060282	-46.171653	-65.244747	162.013380	-65.244747	162.013380	-0.060280	-46.171840
3.150000	-0.061347	-46.884396	-64.815416	160.578688	-64.815416	160.578688	-0.061346	-46.884585
3.200000	-0.062421	-47.595826	-64.394102	159.138321	-64.394102	159.138321	-0.062420	-47.596017
3.250000	-0.063503	-48.306146	-63.982421	157.693973	-63.982421	157.693973	-0.063502	-48.306339
3.300000	-0.064596	-49.014912	-63.576194	156.244055	-63.576194	156.244055	-0.064595	-49.015107
3.350000	-0.065695	-49.722778	-63.180819	154.791453	-63.180819	154.791453	-0.065695	-49.722975
3.400000	-0.066808	-50.428844	-62.788698	153.333486	-62.788698	153.333486	-0.066808	-50.429042
3.450000	-0.067927	-51.134226	-62.408440	151.873825	-62.408440	151.873825	-0.067927	-51.134425
3.500000	-0.069062	-51.837558	-62.029542	150.409079	-62.029542	150.409079	-0.069062	-51.837759
3.550000	-0.070201	-52.540429	-61.663340	148.943383	-61.663340	148.943383	-0.070201	-52.540631
3.600000	-0.071359	-53.240997	-61.296870	147.472937	-61.296870	147.472937	-0.071360	-53.241200
3.650000	-0.072520	-53.941332	-60.943776	146.002093	-60.943776	146.002093	-0.072521	-53.941536
3.700000	-0.073703	-54.639108	-60.589013	144.526870	-60.589013	144.526870	-0.073705	-54.639313
3.750000	-0.074887	-55.336884	-60.248173	143.051648	-60.248173	143.051648	-0.074888	-55.337090
3.800000	-0.076097	-56.031844	-59.904460	141.572446	-59.904460	141.572446	-0.076099	-56.032050
3.850000	-0.077308	-56.726803	-59.573832	140.093243	-59.573832	140.093243	-0.077309	-56.727011
3.900000	-0.078544	-57.419161	-59.241843	138.611027	-59.241843	138.611027	-0.078546	-57.419369
3.950000	-0.079783	-58.111282	-58.920898	137.128536	-58.920898	137.128536	-0.079785	-58.111491
4.000000	-0.081047	-58.801022	-58.599918	135.643807	-58.599918	135.643807	-0.081048	-58.801232
4.050000	-0.082315	-59.490286	-58.288167	134.158631	-58.288167	134.158631	-0.082317	-59.490497
4.100000	-0.083608	-60.177395	-57.977546	132.671837	-57.977546	132.671837	-0.083610	-60.177607
4.150000	-0.084909	-60.863785	-57.674540	131.184505	-57.674540	131.184505	-0.084910	-60.863999
4.200000	-0.086231	-61.548252	-57.373687	129.696046	-57.373687	129.696046	-0.086233	-61.548467
4.250000	-0.087565	-62.231756	-57.079011	128.207023	-57.079011	128.207023	-0.087567	-62.231972
4.300000	-0.088920	-62.913571	-56.787383	126.717257	-56.787383	126.717257	-0.088922	-62.913788
4.350000	-0.090289	-63.594179	-56.500653	125.226959	-56.500653	125.226959	-0.090291	-63.594398
4.400000	-0.091676	-64.273334	-56.217753	123.736206	-56.217753	123.736206	-0.091678	-64.273555
4.450000	-0.093082	-64.951038	-55.938612	122.245000	-55.938612	122.245000	-0.093084	-64.951260
4.500000	-0.094504	-65.627531	-55.663984	120.753553	-55.663984	120.753553	-0.094505	-65.627754
4.550000	-0.095949	-66.302326	-55.392101	119.261768	-55.392101	119.261768	-0.095950	-66.302551
4.600000	-0.097406	-66.976152	-55.125324	117.769888	-55.125324	117.769888	-0.097407	-66.976379
4.650000	-0.098891	-67.648037	-54.860390	116.277820	-54.860390	116.277820	-0.098891	-67.648266
4.700000	-0.100386	-68.319195	-54.601075	114.785748	-54.601075	114.785748	-0.100386	-68.319426
4.750000	-0.101912	-68.988171	-54.342802	113.293663	-54.342802	113.293663	-0.101912	-68.988404
4.800000	-0.103446	-69.656663	-54.090589	111.801616	-54.090589	111.801616	-0.103446	-69.656898
4.850000	-0.105015	-70.322734	-53.838705	110.309757	-53.838705	110.309757	-0.105016	-70.322971
4.900000	-0.106589	-70.988563	-53.593262	108.817935	-53.593262	108.817935	-0.106589	-70.988803
4.950000	-0.108204	-71.651735	-53.347515	107.326520	-53.347515	107.326520	-0.108204	-71.651977
5.000000	-0.109819	-72.314907	-53.108531	105.835105	-53.108531	105.835105	-0.109819	-72.315151
5.050000	-0.111481	-72.975189	-52.868684	104.344336	-52.868684	104.344336	-0.111481	-72.975436
5.100000	-0.113144	-73.635471	-52.635283	102.853566	-52.635283	102.853566	-0.113143	-73.635721
5.150000	-0.114850	-74.293115	-52.401700	101.363557	-52.401700	101.363557	-0.114849	-74.293367
5.200000	-0.116561	-74.950519	-52.173678	99.873616	-52.173678	99.873616	-0.116560	-74.950773
5.250000	-0.118313	-75.605536	-51.946084	98.384507	-51.946084	98.384507	-0.118313	-75.605793
5.300000	-0.120075	-76.260076	-51.723248	96.895565	-51.723248	96.895565	-0.120074	-76.260336
5.350000	-0.121875	-76.912480	-51.501386	95.407488	-51.501386	95.407488	-0.121874	-76.912743
5.400000	-0.123688	-77.564172	-51.283554	93.919700	-51.283554	93.919700	-0.123687	-77.564438
5.450000	-0.125537	-78.213979	-51.067184	92.432778	-51.067184	92.432778	-0.125536	-78.214248
5.500000	-0.127404	-78.862844	-50.854186	90.946289	-50.854186	90.946289	-0.127403	-78.863115
5.550000	-0.129303	-79.510071	-50.643082	89.460636	-50.643082	89.460636	-0.129302	-79.510345
5.600000	-0.131226	-80.156128	-50.434753	87.975581	-50.434753	87.975581	-0.131225	-80.156406
5.650000	-0.133177	-80.800795	-50.228705	86.491305	-50.228705	86.491305	-0.133176	-80.801075
5.700000	-0.135157	-81.444070	-50.024892	85.007808	-50.024892	85.007808	-0.135155	-81.444353
5.750000	-0.137161	-82.086196	-49.823701	83.525010	-49.823701	83.525010	-0.137159	-82.086482
5.800000	-0.139199	-82.726714	-49.624257	82.043190	-49.624257	82.043190	-0.139198	-82.727003
5.850000	-0.141258	-83.366323	-49.427735	80.561965	-49.427735	80.561965	-0.141257	-83.366615
5.900000	-0.143357	-84.004113	-49.232522	79.081931	-49.232522	79.081931	-0.143356	-84.004408
5.950000	-0.145472	-84.641229	-49.040494	77.602370	-49.040494	77.602370	-0.145471	-84.641527
6.000000	-0.147634	-85.276322	-48.849378	76.124226	-48.849378	76.124226	-0.147632	-85.276623
6.050000	-0.149806	-85.910970	-48.661679	74.646412	-48.661679	74.646412	-0.149805	-85.911274
6.100000	-0.152031	-86.543398	-48.474534	73.170254	-48.474534	73.170254	-0.152030	-86.543705
6.150000	-0.154263	-87.175606	-48.291006	71.694270	-48.291006	71.694270	-0.154262	-87.175916
6.200000	-0.156554	-87.805404	-48.107712	70.220189	-48.107712	70.220189	-0.156553	-87.805716
6.250000	-0.158845	-88.435202	-47.928207	68.746109	-47.928207	68.746109	-0.158844	-88.435517
6.300000	-0.161204	-89.062406	-47.748650	67.274192	-47.748650	67.274192	-0.161203	-89.062724
6.350000	-0.163563	-89.689610	-47.572729	65.802275	-47.572729	65.802275	-0.163562	-89.689931
6.400000	-0.165984	-90.314473	-47.397095	64.332415	-47.397095	64.332415	-0.165984	-90.314797
6.450000	-0.168412	-90.939123	-47.224657	62.862742	-47.224657	62.862742	-0.168412	-90.939450
6.500000	-0.170899	-91.561679	-47.052811	61.395001	-47.052811	61.395001	-0.170898	-91.562008
6.550000	-0.173397	-92.183815	-46.883758	59.927647	-46.883758	59.927647	-0.173397	-92.184148
6.600000	-0.175950	-92.804098	-46.715571	58.462085	-46.715571	58.462085	-0.175950	-92.804434
6.650000	-0.178521	-93.423764	-46.549807	56.997121	-46.549807	56.997121	-0.178521	-93.424102
6.700000	-0.181141	-94.041812	-46.385156	55.533792	-46.385156	55.533792	-0.181141	-94.042153
6.750000	-0.183786	-94.659051	-46.222592	54.071283	-46.222592	54.071283	-0.183786	-94.659395
6.800000	-0.186475	-95.274901	-46.061361	52.610240	-46.061361	52.610240	-0.186475	-95.275249
6.850000	-0.189195	-95.889760	-45.901910	51.150246	-45.901910	51.150246	-0.189196	-95.890111
6.900000	-0.191955	-96.503453	-45.743988	49.691536	-45.743988	49.691536	-0.191955	-96.503807
6.950000	-0.194753	-97.115980	-45.587566	48.234112	-45.587566	48.234112	-0.194753	-97.116337
7.000000	-0.197583	-97.727556	-45.432847	46.777780	-45.432847	46.777780	-0.197584	-97.727916
7.050000	-0.200460	-98.337800	-45.279373	45.322976	-45.279373	45.322976	-0.200461	-98.338164
7.100000	-0.203364	-98.947301	-45.127757	43.869061	-45.127757	43.869061	-0.203365	-98.947669
7.150000	-0.206321	-99.555315	-44.977154	42.416922	-44.977154	42.416922	-0.206322	-99.555687
7.200000	-0.209299	-100.162785	-44.828543	40.965459	-44.828543	40.965459	-0.209300	-100.163161
7.250000	-0.212338	-100.768622	-44.680737	39.516024	-44.680737	39.516024	-0.212339	-100.769002
7.300000	-0.215391	-101.374104	-44.535040	38.067045	-44.535040	38.067045	-0.215393	-101.374490
7.350000	-0.218514	-101.977818	-44.389958	36.620348	-44.389958	36.620348	-0.218515	-101.978209
7.400000	-0.221644	-102.581360	-44.247087	35.173880	-44.247087	35.173880	-0.221646	-102.581756
7.450000	-0.224852	-103.183008	-44.104660	33.729947	-44.104660	33.729947	-0.224853	-103.183409
7.500000	-0.228061	-103.784656	-43.964531	32.286014	-43.964531	32.286014	-0.228062	-103.785063
7.550000	-0.231354	-104.384296	-43.824691	30.844865	-43.824691	30.844865	-0.231356	-104.384710
7.600000	-0.234650	-104.983936	-43.687068	29.403717	-43.687068	29.403717	-0.234651	-104.984356
7.650000	-0.238024	-105.581790	-43.549907	27.965134	-43.549907	27.965134	-0.238026	-105.582218
7.700000	-0.241408	-106.179482	-43.414727	26.526785	-43.414727	26.526785	-0.241409	-106.179917
7.750000	-0.244864	-106.775601	-43.280167	25.090775	-43.280167	25.090775	-0.244865	-106.776044
7.800000	-0.248337	-107.371406	-43.147373	23.655232	-43.147373	23.655232	-0.248338	-107.371858
7.850000	-0.251877	-107.965842	-43.015338	22.221795	-43.015338	22.221795	-0.251878	-107.966304
7.900000	-0.255441	-108.559822	-42.884872	20.789059	-42.884872	20.789059	-0.255441	-108.560294
7.950000	-0.259065	-109.152629	-42.755290	19.358190	-42.755290	19.358190	-0.259065	-109.153112
8.000000	-0.262721	-109.744849	-42.627098	17.928254	-42.627098	17.928254	-0.262721	-109.745344
8.050000	-0.266430	-110.336081	-42.499901	16.499942	-42.499901	16.499942	-0.266431	-110.336589
8.100000	-0.270180	-110.926608	-42.373929	15.072791	-42.373929	15.072791	-0.270180	-110.927128
8.150000	-0.273976	-111.516320	-42.249052	13.647022	-42.249052	13.647022	-0.273976	-111.516855
8.200000	-0.277820	-112.105220	-42.125249	12.222634	-42.125249	12.222634	-0.277820	-112.105770
8.250000	-0.281704	-112.693470	-42.002629	10.799384	-42.002629	10.799384	-0.281704	-112.694036
8.300000	-0.285644	-113.280811	-41.880947	9.377728	-41.880947	9.377728	-0.285644	-113.281395
8.350000	-0.289617	-113.867657	-41.760524	7.956970	-41.760524	7.956970	-0.289617	-113.868259
8.400000	-0.293655	-114.453511	-41.640915	6.538008	-41.640915	6.538008	-0.293654	-114.454133
8.450000	-0.297718	-115.039011	-41.522632	5.119708	-41.522632	5.119708	-0.297717	-115.039654
8.500000	-0.301853	-115.623450	-41.405052	3.703393	-41.405052	3.703393	-0.301852	-115.624115
8.550000	-0.306007	-116.207665	-41.288854	2.287510	-41.288854	2.287510	-0.306006	-116.208353
8.600000	-0.310242	-116.790761	-41.173261	0.873787	-41.173261	0.873787	-0.310241	-116.791476
8.650000	-0.314487	-117.373752	-41.059096	-0.539725	-41.059096	-0.539725	-0.314486	-117.374493
8.700000	-0.318823	-117.955582	-40.945449	-1.950919	-40.945449	-1.950919	-0.318822	-117.956352
8.750000	-0.323161	-118.537412	-40.833269	-3.362113	-40.833269	-3.362113	-0.323159	-118.538211
8.800000	-0.327598	-119.118051	-40.721529	-4.770849	-40.721529	-4.770849	-0.327597	-119.118883
8.850000	-0.332038	-119.698691	-40.611209	-6.179585	-40.611209	-6.179585	-0.332036	-119.699556
8.900000	-0.336570	-120.278311	-40.501419	-7.586142	-40.501419	-7.586142	-0.336568	-120.279212
8.950000	-0.341112	-120.857838	-40.392924	-8.992500	-40.392924	-8.992500	-0.341111	-120.858777
9.000000	-0.345739	-121.436506	-40.285041	-10.396950	-40.285041	-10.396950	-0.345738	-121.437485
9.050000	-0.350384	-122.015001	-40.178339	-11.801018	-40.178339	-11.801018	-0.350383	-122.016022
9.100000	-0.355107	-122.592783	-40.072322	-13.203440	-40.072322	-13.203440	-0.355106	-122.593849
9.150000	-0.359857	-123.170328	-39.967383	-14.605312	-39.967383	-14.605312	-0.359857	-123.171441
9.200000	-0.364676	-123.747295	-39.863195	-16.005790	-39.863195	-16.005790	-0.364676	-123.748457
9.250000	-0.369531	-124.323972	-39.759992	-17.405570	-39.759992	-17.405570	-0.369532	-124.325186
9.300000	-0.374447	-124.900193	-39.657596	-18.804194	-39.657596	-18.804194	-0.374449	-124.901462
9.350000	-0.379408	-125.476088	-39.556106	-20.201991	-39.556106	-20.201991	-0.379410	-125.477414
9.400000	-0.384422	-126.051635	-39.455470	-21.598855	-39.455470	-21.598855	-0.384425	-126.053022
9.450000	-0.389489	-126.626834	-39.355671	-22.994785	-39.355671	-22.994785	-0.389493	-126.628284
9.500000	-0.394600	-127.201780	-39.256763	-24.389989	-39.256763	-24.389989	-0.394606	-127.203297
9.550000	-0.399774	-127.776372	-39.158636	-25.784174	-39.158636	-25.784174	-0.399781	-127.777959
9.600000	-0.404985	-128.350792	-39.061431	-27.177821	-39.061431	-27.177821	-0.404993	-128.352451
9.650000	-0.410266	-128.924867	-38.964958	-28.570389	-38.964958	-28.570389	-0.410276	-128.926603
9.700000	-0.415575	-129.498835	-38.869431	-29.962585	-38.869431	-29.962585	-0.415587	-129.500651
9.750000	-0.420963	-130.072486	-38.774601	-31.353667	-38.774601	-31.353667	-0.420977	-130.074387
9.800000	-0.426372	-130.646081	-38.680728	-32.744525	-38.680728	-32.744525	-0.426388	-130.648068
9.850000	-0.431868	-131.219400	-38.587530	-34.134257	-38.587530	-34.134257	-0.431887	-131.221481
9.900000	-0.437376	-131.792700	-38.495294	-35.523888	-38.495294	-35.523888	-0.437398	-131.794875
9.950000	-0.442980	-132.365786	-38.403722	-36.912407	-38.403722	-36.912407	-0.443005	-132.368063
10.000000	-0.448588	-132.938871	-38.313105	-38.300927	-38.313105	-38.300927	-0.448615	-132.941250
