! freq	dB(S11)	phase(S11)	dB(S12)	phase(S12)	
!     	dB(S21)	phase(S21)	dB(S22)	phase(S22)	
!S-par simulation data
#  GHz  S  DB  R 50
0.000000	0.000000	0.000000	-364.201737	180.000000	-364.201737	180.000000	-0.000000	-0.000000
0.050000	-0.000101	-0.816346	-114.489276	89.154869	-114.489276	89.154869	-0.000117	-0.957131
0.100000	-0.000402	-1.632451	-108.521207	88.321870	-108.521207	88.321870	-0.000463	-1.913982
0.150000	-0.000889	-2.448089	-105.086989	87.513270	-105.086989	87.513270	-0.001025	-2.870291
0.200000	-0.001545	-3.263076	-102.710355	86.741338	-102.710355	86.741338	-0.001782	-3.825838
0.250000	-0.002355	-4.077201	-100.935927	86.023200	-100.935927	86.023200	-0.002722	-4.780369
0.300000	-0.003284	-4.890425	-99.549974	85.369589	-99.549974	85.369589	-0.003802	-5.733827
0.350000	-0.004313	-5.702637	-98.448435	84.800301	-98.448435	84.800301	-0.005003	-6.686067
0.400000	-0.005418	-6.513792	-97.568104	84.336821	-97.568104	84.336821	-0.006298	-7.637022
0.450000	-0.006581	-7.323877	-96.869614	84.005642	-96.869614	84.005642	-0.007665	-8.586656
0.500000	-0.007780	-8.132897	-96.327626	83.840238	-96.327626	83.840238	-0.009080	-9.534959
0.550000	-0.009003	-8.940875	-95.925728	83.883809	-95.925728	83.883809	-0.010526	-10.481942
0.600000	-0.010235	-9.747842	-95.653537	84.193183	-95.653537	84.193183	-0.011988	-11.427626
0.650000	-0.011468	-10.553835	-95.504846	84.844442	-95.504846	84.844442	-0.013454	-12.372040
0.700000	-0.012695	-11.358889	-95.476169	85.941089	-95.476169	85.941089	-0.014915	-13.315216
0.750000	-0.013910	-12.163039	-95.565110	87.625744	-95.565110	87.625744	-0.016364	-14.257184
0.800000	-0.015111	-12.966315	-95.767834	90.096151	-95.767834	90.096151	-0.017797	-15.197970
0.850000	-0.016295	-13.768741	-96.074362	93.624247	-96.074362	93.624247	-0.019210	-16.137596
0.900000	-0.017462	-14.570337	-96.459592	98.569493	-96.459592	98.569493	-0.020603	-17.076080
0.950000	-0.018611	-15.371116	-96.867563	105.356926	-96.867563	105.356926	-0.021975	-18.013431
1.000000	-0.019744	-16.171089	-97.190370	114.352757	-97.190370	114.352757	-0.023325	-18.949655
1.050000	-0.020861	-16.970259	-97.259760	125.559981	-97.259760	125.559981	-0.024656	-19.884753
1.100000	-0.021964	-17.768626	-96.894664	138.218080	-96.894664	138.218080	-0.025967	-20.818719
1.150000	-0.023053	-18.566186	-96.017020	150.786360	-96.017020	150.786360	-0.027261	-21.751544
1.200000	-0.024130	-19.362933	-94.720848	161.730731	-94.720848	161.730731	-0.028539	-22.683217
1.250000	-0.025196	-20.158858	-93.191851	170.351152	-93.191851	170.351152	-0.029801	-23.613721
1.300000	-0.026252	-20.953911	-91.578334	176.668077	-91.578334	176.668077	-0.031050	-24.542986
1.350000	-0.027300	-21.748116	-89.991953	-178.778609	-89.991953	-178.778609	-0.032288	-25.471041
1.400000	-0.028340	-22.541456	-88.474284	-175.561884	-88.474284	-175.561884	-0.033515	-26.397866
1.450000	-0.029375	-23.333917	-87.039616	-173.341722	-87.039616	-173.341722	-0.034733	-27.323436
1.500000	-0.030404	-24.125480	-85.689158	-171.866116	-85.689158	-171.866116	-0.035944	-28.247728
1.550000	-0.031429	-24.916130	-84.418499	-170.952711	-84.418499	-170.952711	-0.037148	-29.170716
1.600000	-0.032450	-25.705847	-83.221215	-170.469861	-83.221215	-170.469861	-0.038346	-30.092374
1.650000	-0.033469	-26.494613	-82.090511	-170.321777	-82.090511	-170.321777	-0.039540	-31.012679
1.700000	-0.034486	-27.282411	-81.019930	-170.437883	-81.019930	-170.437883	-0.040730	-31.931603
1.750000	-0.035501	-28.069221	-80.003610	-170.765434	-80.003610	-170.765434	-0.041917	-32.849121
1.800000	-0.036515	-28.855026	-79.036345	-171.264430	-79.036345	-171.264430	-0.043102	-33.765207
1.850000	-0.037528	-29.639806	-78.113558	-171.904099	-78.113558	-171.904099	-0.044286	-34.679838
1.900000	-0.038542	-30.423544	-77.231236	-172.660449	-77.231236	-172.660449	-0.045468	-35.592987
1.950000	-0.039556	-31.206221	-76.385867	-173.514531	-76.385867	-173.514531	-0.046650	-36.504630
2.000000	-0.040571	-31.987821	-75.574366	-174.451209	-75.574366	-174.451209	-0.047833	-37.414744
2.050000	-0.041587	-32.768324	-74.794019	-175.458252	-74.794019	-175.458252	-0.049016	-38.323305
2.100000	-0.042604	-33.547714	-74.042429	-176.525684	-74.042429	-176.525684	-0.050200	-39.230291
2.150000	-0.043624	-34.325974	-73.317471	-177.645286	-73.317471	-177.645286	-0.051386	-40.135679
2.200000	-0.044645	-35.103088	-72.617253	-178.810233	-72.617253	-178.810233	-0.052575	-41.039448
2.250000	-0.045670	-35.879038	-71.940085	179.985191	-71.940085	179.985191	-0.053766	-41.941576
2.300000	-0.046697	-36.653809	-71.284453	178.745808	-71.284453	178.745808	-0.054959	-42.842044
2.350000	-0.047727	-37.427386	-70.648991	177.475713	-70.648991	177.475713	-0.056157	-43.740832
2.400000	-0.048761	-38.199752	-70.032468	176.178407	-70.032468	176.178407	-0.057358	-44.637922
2.450000	-0.049799	-38.970894	-69.433766	174.856900	-69.433766	174.856900	-0.058563	-45.533294
2.500000	-0.050841	-39.740796	-68.851870	173.513796	-68.851870	173.513796	-0.059773	-46.426931
2.550000	-0.051888	-40.509389	-68.284944	172.150608	-68.284944	172.150608	-0.060988	-47.318740
2.600000	-0.052940	-41.276713	-67.733143	170.770216	-67.733143	170.770216	-0.062209	-48.208780
2.650000	-0.053997	-42.042755	-67.195680	169.374325	-67.195680	169.374325	-0.063436	-49.097035
2.700000	-0.055059	-42.807502	-66.671829	167.964440	-66.671829	167.964440	-0.064669	-49.983492
2.750000	-0.056127	-43.570940	-66.160924	166.541896	-66.160924	166.541896	-0.065908	-50.868135
2.800000	-0.057202	-44.333059	-65.662348	165.107877	-65.662348	165.107877	-0.067155	-51.750953
2.850000	-0.058283	-45.093845	-65.175531	163.663441	-65.175531	163.663441	-0.068409	-52.631932
2.900000	-0.059371	-45.853288	-64.699944	162.209537	-64.699944	162.209537	-0.069672	-53.511060
2.950000	-0.060466	-46.611376	-64.235095	160.747014	-64.235095	160.747014	-0.070942	-54.388327
3.000000	-0.061569	-47.368099	-63.780524	159.276639	-63.780524	159.276639	-0.072222	-55.263722
3.050000	-0.062679	-48.123445	-63.335803	157.799103	-63.335803	157.799103	-0.073511	-56.137235
3.100000	-0.063798	-48.877406	-62.900533	156.315032	-62.900533	156.315032	-0.074809	-57.008858
3.150000	-0.064926	-49.629971	-62.474339	154.824997	-62.474339	154.824997	-0.076118	-57.878582
3.200000	-0.066063	-50.381131	-62.056868	153.329514	-62.056868	153.329514	-0.077438	-58.746399
3.250000	-0.067209	-51.130877	-61.647792	151.829055	-61.647792	151.829055	-0.078768	-59.612302
3.300000	-0.068365	-51.879201	-61.246798	150.324052	-61.246798	150.324052	-0.080110	-60.476286
3.350000	-0.069531	-52.626096	-60.853594	148.814900	-60.853594	148.814900	-0.081465	-61.338344
3.400000	-0.070708	-53.371552	-60.467904	147.301962	-60.467904	147.301962	-0.082831	-62.198471
3.450000	-0.071895	-54.115563	-60.089466	145.785571	-60.089466	145.785571	-0.084211	-63.056664
3.500000	-0.073095	-54.858121	-59.718035	144.266035	-59.718035	144.266035	-0.085604	-63.912919
3.550000	-0.074305	-55.599221	-59.353376	142.743637	-59.353376	142.743637	-0.087011	-64.767233
3.600000	-0.075528	-56.338857	-58.995267	141.218639	-58.995267	141.218639	-0.088433	-65.619604
3.650000	-0.076764	-57.077021	-58.643499	139.691284	-58.643499	139.691284	-0.089869	-66.470030
3.700000	-0.078013	-57.813710	-58.297871	138.161796	-58.297871	138.161796	-0.091321	-67.318510
3.750000	-0.079275	-58.548917	-57.958194	136.630385	-57.958194	136.630385	-0.092789	-68.165044
3.800000	-0.080551	-59.282575	-57.623981	135.097179	-57.623981	135.097179	-0.094273	-69.009547
3.850000	-0.081841	-60.014742	-57.295388	133.562439	-57.295388	133.562439	-0.095775	-69.852107
3.900000	-0.083147	-60.745415	-56.972249	132.026334	-56.972249	132.026334	-0.097294	-70.692723
3.950000	-0.084467	-61.474591	-56.654406	130.489018	-56.654406	130.489018	-0.098831	-71.531399
4.000000	-0.085802	-62.202266	-56.341707	128.950639	-56.341707	128.950639	-0.100386	-72.368138
4.050000	-0.087154	-62.928438	-56.034010	127.411332	-56.034010	127.411332	-0.101960	-73.202943
4.100000	-0.088522	-63.653105	-55.731175	125.871227	-55.731175	125.871227	-0.103554	-74.035819
4.150000	-0.089906	-64.376265	-55.433071	124.330442	-55.433071	124.330442	-0.105167	-74.866770
4.200000	-0.091308	-65.097917	-55.139571	122.789091	-55.139571	122.789091	-0.106801	-75.695802
4.250000	-0.092727	-65.818058	-54.850554	121.247281	-54.850554	121.247281	-0.108455	-76.522921
4.300000	-0.094164	-66.536689	-54.565905	119.705110	-54.565905	119.705110	-0.110131	-77.348133
4.350000	-0.095619	-67.253809	-54.285510	118.162674	-54.285510	118.162674	-0.111828	-78.171446
4.400000	-0.097093	-67.969418	-54.009264	116.620062	-54.009264	116.620062	-0.113548	-78.992868
4.450000	-0.098587	-68.683516	-53.737064	115.077356	-53.737064	115.077356	-0.115290	-79.812407
4.500000	-0.100100	-69.396104	-53.468810	113.534638	-53.468810	113.534638	-0.117056	-80.630071
4.550000	-0.101633	-70.107183	-53.204407	111.991981	-53.204407	111.991981	-0.118845	-81.445872
4.600000	-0.103186	-70.816755	-52.943764	110.449457	-52.943764	110.449457	-0.120659	-82.259818
4.650000	-0.104760	-71.524821	-52.686792	108.907133	-52.686792	108.907133	-0.122497	-83.071920
4.700000	-0.106356	-72.231384	-52.433407	107.365074	-52.433407	107.365074	-0.124360	-83.882189
4.750000	-0.107973	-72.936445	-52.183526	105.823339	-52.183526	105.823339	-0.126249	-84.690638
4.800000	-0.109612	-73.640008	-51.937071	104.281987	-51.937071	104.281987	-0.128164	-85.497278
4.850000	-0.111274	-74.342076	-51.693964	102.741073	-51.693964	102.741073	-0.130106	-86.302123
4.900000	-0.112959	-75.042653	-51.454133	101.200649	-51.454133	101.200649	-0.132074	-87.105185
4.950000	-0.114667	-75.741742	-51.217507	99.660764	-51.217507	99.660764	-0.134070	-87.906478
5.000000	-0.116399	-76.439347	-50.984016	98.121467	-50.984016	98.121467	-0.136094	-88.706017
5.050000	-0.118168	-77.134641	-50.751884	96.583186	-50.751884	96.583186	-0.138162	-89.502843
5.100000	-0.119938	-77.829934	-50.525794	95.044905	-50.525794	95.044905	-0.140231	-90.299669
5.150000	-0.121756	-78.522419	-50.299973	93.508006	-50.299973	93.508006	-0.142356	-91.093231
5.200000	-0.123579	-79.214649	-50.079391	91.971232	-50.079391	91.971232	-0.144486	-91.886497
5.250000	-0.125446	-79.904346	-49.859603	90.435854	-49.859603	90.435854	-0.146668	-92.676856
5.300000	-0.127322	-80.593537	-49.644328	88.900755	-49.644328	88.900755	-0.148862	-93.466635
5.350000	-0.129240	-81.280470	-49.430311	87.367027	-49.430311	87.367027	-0.151104	-94.253855
5.400000	-0.131173	-81.966650	-49.220156	85.833756	-49.220156	85.833756	-0.153362	-95.040223
5.450000	-0.133143	-82.650844	-49.011666	84.301797	-49.011666	84.301797	-0.155665	-95.824371
5.500000	-0.135134	-83.334044	-48.806452	82.770494	-48.806452	82.770494	-0.157991	-96.607409
5.550000	-0.137158	-84.015525	-48.603260	81.240414	-48.603260	81.240414	-0.160357	-97.388555
5.600000	-0.139208	-84.695779	-48.402819	79.711208	-48.402819	79.711208	-0.162751	-98.168349
5.650000	-0.141288	-85.374577	-48.204711	78.183109	-48.204711	78.183109	-0.165181	-98.946565
5.700000	-0.143399	-86.051921	-48.008882	76.656117	-48.008882	76.656117	-0.167647	-99.723204
5.750000	-0.145536	-86.728068	-47.815656	75.130094	-47.815656	75.130094	-0.170143	-100.498568
5.800000	-0.147710	-87.402540	-47.624288	73.605425	-47.624288	73.605425	-0.172681	-101.272145
5.850000	-0.149906	-88.076068	-47.435754	72.081565	-47.435754	72.081565	-0.175244	-102.044734
5.900000	-0.152144	-88.747710	-47.248701	70.559319	-47.248701	70.559319	-0.177857	-102.815346
5.950000	-0.154400	-89.418656	-47.064682	69.037702	-47.064682	69.037702	-0.180489	-103.585242
6.000000	-0.156705	-90.087512	-46.881807	67.517971	-46.881807	67.517971	-0.183179	-104.352989
6.050000	-0.159022	-90.755912	-46.702132	65.998673	-46.702132	65.998673	-0.185882	-105.120277
6.100000	-0.161396	-91.422029	-46.523303	64.481539	-46.523303	64.481539	-0.188649	-105.885264
6.150000	-0.163776	-92.087921	-46.347814	62.964627	-46.347814	62.964627	-0.191424	-106.650030
6.200000	-0.166220	-92.751347	-46.172907	61.450167	-46.172907	61.450167	-0.194271	-107.412364
6.250000	-0.168664	-93.414773	-46.001453	59.935706	-46.001453	59.935706	-0.197119	-108.174698
6.300000	-0.171180	-94.075560	-45.830348	58.423987	-45.830348	58.423987	-0.200049	-108.934491
6.350000	-0.173696	-94.736346	-45.662548	56.912268	-45.662548	56.912268	-0.202979	-109.694284
6.400000	-0.176279	-95.394762	-45.495367	55.403118	-45.495367	55.403118	-0.205984	-110.451851
6.450000	-0.178869	-96.052962	-45.331115	53.894202	-45.331115	53.894202	-0.208998	-111.209216
6.500000	-0.181522	-96.709054	-45.167722	52.387667	-45.167722	52.387667	-0.212082	-111.964657
6.550000	-0.184187	-97.364724	-45.006915	50.881608	-45.006915	50.881608	-0.215180	-112.719712
6.600000	-0.186909	-98.018540	-44.847177	49.377727	-44.847177	49.377727	-0.218344	-113.473126
6.650000	-0.189652	-98.671737	-44.689717	47.874572	-44.689717	47.874572	-0.221529	-114.225993
6.700000	-0.192446	-99.323326	-44.533511	46.373381	-44.533511	46.373381	-0.224773	-114.977483
6.750000	-0.195267	-99.974111	-44.379303	44.873171	-44.379303	44.873171	-0.228048	-115.728286
6.800000	-0.198135	-100.623525	-44.226511	43.374698	-44.226511	43.374698	-0.231374	-116.477958
6.850000	-0.201037	-101.271959	-44.075465	41.877465	-44.075465	41.877465	-0.234738	-117.226822
6.900000	-0.203979	-101.919251	-43.925974	40.381734	-43.925974	40.381734	-0.238148	-117.974783
6.950000	-0.206963	-102.565399	-43.778003	38.887505	-43.778003	38.887505	-0.241604	-118.721841
7.000000	-0.209982	-103.210621	-43.631707	37.394534	-43.631707	37.394534	-0.245099	-119.468201
7.050000	-0.213049	-103.854549	-43.486727	35.903326	-43.486727	35.903326	-0.248649	-120.213584
7.100000	-0.216145	-104.497759	-43.343524	34.413129	-43.343524	34.413129	-0.252230	-120.958455
7.150000	-0.219298	-105.139534	-43.201455	32.924953	-43.201455	32.924953	-0.255874	-121.702301
7.200000	-0.222473	-105.780789	-43.061248	31.437536	-43.061248	31.437536	-0.259543	-122.445797
7.250000	-0.225713	-106.420481	-42.922014	29.952396	-42.922014	29.952396	-0.263284	-123.188245
7.300000	-0.228969	-107.059839	-42.784710	28.467761	-42.784710	28.467761	-0.267042	-123.930483
7.350000	-0.232297	-107.697521	-42.648236	26.985651	-42.648236	26.985651	-0.270880	-124.671675
7.400000	-0.235634	-108.335042	-42.513748	25.503793	-42.513748	25.503793	-0.274728	-125.412773
7.450000	-0.239053	-108.970787	-42.379962	24.024701	-42.379962	24.024701	-0.278666	-126.152854
7.500000	-0.242473	-109.606532	-42.248207	22.545610	-42.248207	22.545610	-0.282605	-126.892935
7.550000	-0.245984	-110.240416	-42.117043	21.069516	-42.117043	21.069516	-0.286644	-127.632052
7.600000	-0.249496	-110.874300	-41.987830	19.593422	-41.987830	19.593422	-0.290684	-128.371170
7.650000	-0.253092	-111.506549	-41.859331	18.120049	-41.859331	18.120049	-0.294817	-129.109544
7.700000	-0.256697	-112.138648	-41.732600	16.646924	-41.732600	16.646924	-0.298959	-129.847850
7.750000	-0.260381	-112.769327	-41.606690	15.176242	-41.606690	15.176242	-0.303186	-130.585608
7.800000	-0.264081	-113.399722	-41.482381	13.706049	-41.482381	13.706049	-0.307433	-131.323256
7.850000	-0.267853	-114.028899	-41.358987	12.238020	-41.358987	12.238020	-0.311756	-132.060529
7.900000	-0.271649	-114.657670	-41.237045	10.770714	-41.237045	10.770714	-0.316107	-132.797676
7.950000	-0.275511	-115.285413	-41.116098	9.305297	-41.116098	9.305297	-0.320528	-133.534596
8.000000	-0.279405	-115.912643	-40.996470	7.840824	-40.996470	7.840824	-0.324985	-134.271402
8.050000	-0.283357	-116.539022	-40.877904	6.377969	-40.877904	6.377969	-0.329504	-135.008105
8.100000	-0.287351	-117.164795	-40.760538	4.916269	-40.760538	4.916269	-0.334068	-135.744733
8.150000	-0.291395	-117.789882	-40.644292	3.455920	-40.644292	3.455920	-0.338687	-136.481355
8.200000	-0.295490	-118.414283	-40.529142	1.996924	-40.529142	1.996924	-0.343360	-137.217971
8.250000	-0.299627	-119.038151	-40.415157	0.539022	-40.415157	0.539022	-0.348078	-137.954652
8.300000	-0.303824	-119.661269	-40.302177	-0.917348	-40.302177	-0.917348	-0.352861	-138.691424
8.350000	-0.308055	-120.283990	-40.190398	-2.372871	-40.190398	-2.372871	-0.357681	-139.428306
8.400000	-0.312355	-120.905916	-40.079546	-3.826698	-40.079546	-3.826698	-0.362574	-140.165407
8.450000	-0.316682	-121.527566	-39.969921	-5.279912	-39.969921	-5.279912	-0.367496	-140.902634
8.500000	-0.321087	-122.148390	-39.861158	-6.731288	-39.861158	-6.731288	-0.372500	-141.640238
8.550000	-0.325511	-122.769046	-39.753639	-8.182271	-39.753639	-8.182271	-0.377525	-142.377956
8.600000	-0.330021	-123.388861	-39.646930	-9.631293	-39.646930	-9.631293	-0.382642	-143.116242
8.650000	-0.334542	-124.008601	-39.541471	-11.080128	-39.541471	-11.080128	-0.387771	-143.854600
8.700000	-0.339160	-124.627502	-39.436782	-12.526900	-39.436782	-12.526900	-0.393002	-144.593749
8.750000	-0.343780	-125.246404	-39.333341	-13.973672	-39.333341	-13.973672	-0.398235	-145.332898
8.800000	-0.348505	-125.864489	-39.230644	-15.418304	-39.230644	-15.418304	-0.403579	-146.073095
8.850000	-0.353233	-126.482574	-39.129147	-16.862936	-39.129147	-16.862936	-0.408927	-146.813291
8.900000	-0.358060	-127.100001	-39.028449	-18.305710	-39.028449	-18.305710	-0.414377	-147.554620
8.950000	-0.362897	-127.717368	-38.928872	-19.748316	-38.928872	-19.748316	-0.419839	-148.296052
9.000000	-0.367825	-128.334221	-38.830139	-21.189331	-38.830139	-21.189331	-0.425395	-149.038673
9.050000	-0.372773	-128.950970	-38.732460	-22.630028	-38.732460	-22.630028	-0.430973	-149.781532
9.100000	-0.377803	-129.567333	-38.635662	-24.069385	-38.635662	-24.069385	-0.436636	-150.525606
9.150000	-0.382863	-130.183567	-38.539863	-25.508295	-38.539863	-25.508295	-0.442329	-151.270085
9.200000	-0.387996	-130.799528	-38.444971	-26.946096	-38.444971	-26.946096	-0.448099	-152.015778
9.250000	-0.393168	-131.415351	-38.351037	-28.383342	-38.351037	-28.383342	-0.453909	-152.762076
9.300000	-0.398405	-132.030996	-38.258028	-29.819690	-38.258028	-29.819690	-0.459786	-153.509554
9.350000	-0.403690	-132.646515	-38.165948	-31.255397	-38.165948	-31.255397	-0.465712	-154.257873
9.400000	-0.409032	-133.261935	-38.074800	-32.690396	-38.074800	-32.690396	-0.471697	-155.007305
9.450000	-0.414431	-133.877257	-37.984566	-34.124687	-37.984566	-34.124687	-0.477740	-155.757850
9.500000	-0.419878	-134.492544	-37.895261	-35.558439	-37.895261	-35.558439	-0.483831	-156.509410
9.550000	-0.425391	-135.107780	-37.806869	-36.991438	-37.806869	-36.991438	-0.489991	-157.262389
9.600000	-0.430944	-135.723024	-37.719393	-38.424045	-37.719393	-38.424045	-0.496190	-158.016251
9.650000	-0.436572	-136.338287	-37.632842	-39.855870	-37.632842	-39.855870	-0.502466	-158.771877
9.700000	-0.442232	-136.953584	-37.547183	-41.287431	-37.547183	-41.287431	-0.508772	-159.528218
9.750000	-0.447976	-137.568987	-37.462476	-42.718198	-37.462476	-42.718198	-0.515164	-160.286707
9.800000	-0.453742	-138.184433	-37.378625	-44.148808	-37.378625	-44.148808	-0.521577	-161.045710
9.850000	-0.459602	-138.800093	-37.295769	-45.578626	-37.295769	-45.578626	-0.528084	-161.807281
9.900000	-0.465476	-139.415785	-37.213722	-47.008374	-37.213722	-47.008374	-0.534604	-162.569128
9.950000	-0.471453	-140.031822	-37.132727	-48.437346	-37.132727	-48.437346	-0.541226	-163.334006
10.000000	-0.477433	-140.647859	-37.052481	-49.866317	-37.052481	-49.866317	-0.547852	-164.098884
