! freq	dB(S11)	phase(S11)	dB(S12)	phase(S12)	
!     	dB(S21)	phase(S21)	dB(S22)	phase(S22)	
!S-par simulation data
#  GHz  S  DB  R 50
0.000000	-0.000000	0.000000	-370.917608	0.000000	-370.917608	0.000000	-0.000000	0.000000
0.050000	-0.000126	-1.064325	-87.987641	8.199459	-87.987641	8.199459	-0.000127	-1.108173
0.100000	-0.000501	-2.128350	-87.948934	8.228532	-87.948934	8.228532	-0.000505	-2.216049
0.150000	-0.001111	-3.191790	-87.930393	10.007820	-87.930393	10.007820	-0.001121	-3.323350
0.200000	-0.001935	-4.254403	-87.914626	12.168818	-87.914626	12.168818	-0.001955	-4.429834
0.250000	-0.002961	-5.315904	-87.903482	14.428156	-87.903482	14.428156	-0.002996	-5.535218
0.300000	-0.004146	-6.376218	-87.900907	16.678505	-87.900907	16.678505	-0.004200	-6.639423
0.350000	-0.005469	-7.435170	-87.912399	18.882324	-87.912399	18.882324	-0.005548	-7.742273
0.400000	-0.006902	-8.492667	-87.944070	21.023297	-87.944070	21.023297	-0.007014	-8.843668
0.450000	-0.008419	-9.548650	-88.002636	23.101283	-88.002636	23.101283	-0.008570	-9.943543
0.500000	-0.009997	-10.603090	-88.095415	25.128323	-88.095415	25.128323	-0.010195	-11.041864
0.550000	-0.011614	-11.655981	-88.230420	27.127596	-88.230420	27.127596	-0.011865	-12.138617
0.600000	-0.013252	-12.707332	-88.416545	29.134197	-88.416545	29.134197	-0.013564	-13.233807
0.650000	-0.014897	-13.757163	-88.663839	31.197709	-88.663839	31.197709	-0.015276	-14.327448
0.700000	-0.016537	-14.805501	-88.983861	33.387190	-88.983861	33.387190	-0.016989	-15.419563
0.750000	-0.018163	-15.852373	-89.390100	35.799919	-89.390100	35.799919	-0.018694	-16.510175
0.800000	-0.019770	-16.897806	-89.898317	38.576415	-89.898317	38.576415	-0.020385	-17.599309
0.850000	-0.021353	-17.941821	-90.526461	41.926365	-90.526461	41.926365	-0.022056	-18.686984
0.900000	-0.022909	-18.984438	-91.293032	46.173367	-91.293032	46.173367	-0.023703	-19.773219
0.950000	-0.024437	-20.025668	-92.210651	51.829516	-92.210651	51.829516	-0.025326	-20.858025
1.000000	-0.025938	-21.065519	-93.265924	59.700108	-93.265924	59.700108	-0.026923	-21.941409
1.050000	-0.027410	-22.103993	-94.365343	70.932619	-94.365343	70.932619	-0.028495	-23.023373
1.100000	-0.028857	-23.141085	-95.230027	86.629556	-95.230027	86.629556	-0.030042	-24.103915
1.150000	-0.030278	-24.176786	-95.352622	106.332963	-95.352622	106.332963	-0.031566	-25.183027
1.200000	-0.031677	-25.211085	-94.381848	126.282947	-94.381848	126.282947	-0.033068	-26.260697
1.250000	-0.033055	-26.243963	-92.613304	142.186541	-92.613304	142.186541	-0.034549	-27.336910
1.300000	-0.034414	-27.275338	-90.565807	153.062468	-90.565807	153.062468	-0.036011	-28.411582
1.350000	-0.035756	-28.305247	-88.572996	160.382335	-88.572996	160.382335	-0.037456	-29.484757
1.400000	-0.037083	-29.333665	-86.725012	165.334573	-86.725012	165.334573	-0.038886	-30.556411
1.450000	-0.038398	-30.360566	-85.032668	168.719091	-85.032668	168.719091	-0.040303	-31.626518
1.500000	-0.039702	-31.385922	-83.482216	171.039617	-83.482216	171.039617	-0.041708	-32.695054
1.550000	-0.040997	-32.409701	-82.054889	172.613238	-82.054889	172.613238	-0.043104	-33.761990
1.600000	-0.042285	-33.431876	-80.732997	173.644233	-80.732997	173.644233	-0.044491	-34.827301
1.650000	-0.043567	-34.452415	-79.501438	174.268269	-79.501438	174.268269	-0.045870	-35.890957
1.700000	-0.044844	-35.471288	-78.347737	174.578303	-78.347737	174.578303	-0.047245	-36.952931
1.750000	-0.046118	-36.488464	-77.261676	174.639926	-77.261676	174.639926	-0.048614	-38.013196
1.800000	-0.047390	-37.503912	-76.234883	174.500686	-76.234883	174.500686	-0.049980	-39.071724
1.850000	-0.048662	-38.517604	-75.260455	174.195896	-75.260455	174.195896	-0.051344	-40.128487
1.900000	-0.049933	-39.529510	-74.332660	173.752366	-74.332660	173.752366	-0.052706	-41.183460
1.950000	-0.051205	-40.539600	-73.446702	173.190852	-73.446702	173.190852	-0.054068	-42.236617
2.000000	-0.052478	-41.547847	-72.598530	172.527715	-72.598530	172.527715	-0.055429	-43.287933
2.050000	-0.053755	-42.554223	-71.784700	171.776061	-71.784700	171.776061	-0.056792	-44.337383
2.100000	-0.055034	-43.558701	-71.002256	170.946543	-71.002256	170.946543	-0.058157	-45.384945
2.150000	-0.056317	-44.561257	-70.248651	170.047940	-70.248651	170.047940	-0.059524	-46.430596
2.200000	-0.057604	-45.561866	-69.521666	169.087575	-69.521666	169.087575	-0.060894	-47.474315
2.250000	-0.058896	-46.560504	-68.819364	168.071630	-68.819364	168.071630	-0.062268	-48.516081
2.300000	-0.060194	-47.557148	-68.140038	167.005375	-68.140038	167.005375	-0.063646	-49.555877
2.350000	-0.061497	-48.551777	-67.482180	165.893353	-67.482180	165.893353	-0.065028	-50.593684
2.400000	-0.062807	-49.544371	-66.844448	164.739513	-66.844448	164.739513	-0.066416	-51.629484
2.450000	-0.064123	-50.534911	-66.225642	163.547321	-66.225642	163.547321	-0.067810	-52.663263
2.500000	-0.065446	-51.523377	-65.624686	162.319839	-65.624686	162.319839	-0.069211	-53.695006
2.550000	-0.066776	-52.509663	-65.039644	161.058499	-65.039644	161.058499	-0.070618	-54.724609
2.600000	-0.068115	-53.493841	-64.470711	159.767250	-64.470711	159.767250	-0.072033	-55.752150
2.650000	-0.069461	-54.475898	-63.917079	158.448281	-63.917079	158.448281	-0.073456	-56.777618
2.700000	-0.070816	-55.455819	-63.378008	157.103583	-63.378008	157.103583	-0.074887	-57.801002
2.750000	-0.072180	-56.433593	-62.852825	155.734982	-62.852825	155.734982	-0.076327	-58.822295
2.800000	-0.073552	-57.409209	-62.340908	154.344156	-62.340908	154.344156	-0.077776	-59.841489
2.850000	-0.074934	-58.382656	-61.841685	152.932660	-61.841685	152.932660	-0.079236	-60.858578
2.900000	-0.076326	-59.353925	-61.354628	151.501939	-61.354628	151.501939	-0.080705	-61.873557
2.950000	-0.077728	-60.323009	-60.879246	150.053337	-60.879246	150.053337	-0.082186	-62.886423
3.000000	-0.079141	-61.289900	-60.415081	148.588117	-60.415081	148.588117	-0.083677	-63.897172
3.050000	-0.080564	-62.254594	-59.961707	147.107462	-59.961707	147.107462	-0.085181	-64.905803
3.100000	-0.081998	-63.217084	-59.518724	145.612486	-59.518724	145.612486	-0.086697	-65.912315
3.150000	-0.083444	-64.177369	-59.085756	144.104241	-59.085756	144.104241	-0.088226	-66.916711
3.200000	-0.084902	-65.135445	-58.662451	142.583720	-58.662451	142.583720	-0.089768	-67.918991
3.250000	-0.086372	-66.091310	-58.248474	141.051867	-58.248474	141.051867	-0.091324	-68.919158
3.300000	-0.087855	-67.044965	-57.843509	139.509572	-57.843509	139.509572	-0.092895	-69.917216
3.350000	-0.089352	-67.996410	-57.447255	137.957683	-57.447255	137.957683	-0.094480	-70.913172
3.400000	-0.090861	-68.945646	-57.059429	136.397005	-57.059429	136.397005	-0.096082	-71.907030
3.450000	-0.092385	-69.892677	-56.679756	134.828300	-56.679756	134.828300	-0.097699	-72.898798
3.500000	-0.093924	-70.837504	-56.307978	133.252295	-56.307978	133.252295	-0.099333	-73.888486
3.550000	-0.095477	-71.780133	-55.943845	131.669676	-55.943845	131.669676	-0.100984	-74.876101
3.600000	-0.097046	-72.720570	-55.587118	130.081099	-55.587118	130.081099	-0.102653	-75.861655
3.650000	-0.098631	-73.658820	-55.237568	128.487181	-55.237568	128.487181	-0.104341	-76.845159
3.700000	-0.100232	-74.594890	-54.894975	126.888509	-54.894975	126.888509	-0.106047	-77.826626
3.750000	-0.101850	-75.528789	-54.559125	125.285637	-54.559125	125.285637	-0.107773	-78.806068
3.800000	-0.103487	-76.460432	-54.229558	123.678952	-54.229558	123.678952	-0.109520	-79.783416
3.850000	-0.105141	-77.389923	-53.906356	122.069126	-53.906356	122.069126	-0.111288	-80.758771
3.900000	-0.106815	-78.317272	-53.589325	120.456618	-53.589325	120.456618	-0.113076	-81.732150
3.950000	-0.108507	-79.242492	-53.278279	118.841860	-53.278279	118.841860	-0.114887	-82.703572
4.000000	-0.110220	-80.165595	-52.973037	117.225256	-52.973037	117.225256	-0.116721	-83.673054
4.050000	-0.111952	-81.086594	-52.673423	115.607183	-52.673423	115.607183	-0.118577	-84.640617
4.100000	-0.113706	-82.005502	-52.379269	113.987990	-52.379269	113.987990	-0.120457	-85.606280
4.150000	-0.115481	-82.922335	-52.090410	112.368005	-52.090410	112.368005	-0.122361	-86.570066
4.200000	-0.117278	-83.837108	-51.806687	110.747525	-51.806687	110.747525	-0.124290	-87.531996
4.250000	-0.119098	-84.749836	-51.527947	109.126829	-51.527947	109.126829	-0.126245	-88.492094
4.300000	-0.120942	-85.660538	-51.254040	107.506169	-51.254040	107.506169	-0.128225	-89.450384
4.350000	-0.122809	-86.569230	-50.984822	105.885776	-50.984822	105.885776	-0.130232	-90.406891
4.400000	-0.124700	-87.475930	-50.720153	104.265858	-50.720153	104.265858	-0.132266	-91.361641
4.450000	-0.126617	-88.380659	-50.459898	102.646605	-50.459898	102.646605	-0.134328	-92.314660
4.500000	-0.128560	-89.283435	-50.203927	101.028185	-50.203927	101.028185	-0.136417	-93.265977
4.550000	-0.130528	-90.184279	-49.952113	99.410747	-49.952113	99.410747	-0.138536	-94.215620
4.600000	-0.132524	-91.083212	-49.704333	97.794422	-49.704333	97.794422	-0.140684	-95.163619
4.650000	-0.134548	-91.980255	-49.460470	96.179324	-49.460470	96.179324	-0.142862	-96.110003
4.700000	-0.136599	-92.875432	-49.220409	94.565552	-49.220409	94.565552	-0.145071	-97.054803
4.750000	-0.138679	-93.768764	-48.984040	92.953186	-48.984040	92.953186	-0.147310	-97.998053
4.800000	-0.140789	-94.660276	-48.751258	91.342296	-48.751258	91.342296	-0.149581	-98.939783
4.850000	-0.142928	-95.549991	-48.521960	89.732934	-48.521960	89.732934	-0.151884	-99.880029
4.900000	-0.145098	-96.437935	-48.296049	88.125143	-48.296049	88.125143	-0.154220	-100.818824
4.950000	-0.147299	-97.324134	-48.073429	86.518952	-48.073429	86.518952	-0.156589	-101.756203
5.000000	-0.149532	-98.208613	-47.854010	84.914380	-47.854010	84.914380	-0.158991	-102.692203
5.050000	-0.151798	-99.091326	-47.637605	83.311508	-47.637605	83.311508	-0.161430	-103.626803
5.100000	-0.154097	-99.972376	-47.424237	81.710264	-47.424237	81.710264	-0.163902	-104.560102
5.150000	-0.156430	-100.851791	-47.213825	80.110638	-47.213825	80.110638	-0.166410	-105.492137
5.200000	-0.158796	-101.729599	-47.006292	78.512616	-47.006292	78.512616	-0.168954	-106.422948
5.250000	-0.161197	-102.605831	-46.801564	76.916176	-46.801564	76.916176	-0.171534	-107.352574
5.300000	-0.163633	-103.480514	-46.599573	75.321289	-46.599573	75.321289	-0.174151	-108.281057
5.350000	-0.166104	-104.353680	-46.400251	73.727926	-46.400251	73.727926	-0.176805	-109.208438
5.400000	-0.168611	-105.225361	-46.203535	72.136050	-46.203535	72.136050	-0.179496	-110.134760
5.450000	-0.171155	-106.095586	-46.009365	70.545625	-46.009365	70.545625	-0.182225	-111.060064
5.500000	-0.173735	-106.964389	-45.817684	68.956610	-45.817684	68.956610	-0.184993	-111.984395
5.550000	-0.176353	-107.831803	-45.628437	67.368965	-45.628437	67.368965	-0.187800	-112.907797
5.600000	-0.179009	-108.697860	-45.441574	65.782649	-45.441574	65.782649	-0.190647	-113.830316
5.650000	-0.181703	-109.562595	-45.257045	64.197620	-45.257045	64.197620	-0.193533	-114.751998
5.700000	-0.184436	-110.426043	-45.074805	62.613840	-45.074805	62.613840	-0.196459	-115.672888
5.750000	-0.187209	-111.288237	-44.894811	61.031269	-44.894811	61.031269	-0.199427	-116.593035
5.800000	-0.190021	-112.149216	-44.717023	59.449873	-44.717023	59.449873	-0.202435	-117.512486
5.850000	-0.192872	-113.009014	-44.541402	57.869619	-44.541402	57.869619	-0.205485	-118.431291
5.900000	-0.195765	-113.867669	-44.367912	56.290477	-44.367912	56.290477	-0.208577	-119.349499
5.950000	-0.198698	-114.725218	-44.196521	54.712424	-44.196521	54.712424	-0.211711	-120.267159
6.000000	-0.201672	-115.581701	-44.027197	53.135439	-44.027197	53.135439	-0.214888	-121.184324
6.050000	-0.204688	-116.437155	-43.859910	51.559508	-43.859910	51.559508	-0.218108	-122.101044
6.100000	-0.207746	-117.291621	-43.694634	49.984622	-43.694634	49.984622	-0.221371	-123.017373
6.150000	-0.210846	-118.145138	-43.531342	48.410778	-43.531342	48.410778	-0.224679	-123.933363
6.200000	-0.213989	-118.997749	-43.370012	46.837981	-43.370012	46.837981	-0.228030	-124.849068
6.250000	-0.217175	-119.849494	-43.210621	45.266242	-43.210621	45.266242	-0.231426	-125.764542
6.300000	-0.220428	-120.699978	-43.052629	43.696207	-43.052629	43.696207	-0.234892	-126.679776
6.350000	-0.223683	-121.550461	-42.897460	42.126171	-42.897460	42.126171	-0.238359	-127.595010
6.400000	-0.227021	-122.399548	-42.743387	40.558330	-42.743387	40.558330	-0.241913	-128.510140
6.450000	-0.230367	-123.248508	-42.591853	38.990689	-42.591853	38.990689	-0.245475	-129.425260
6.500000	-0.233791	-124.096362	-42.441612	37.425224	-42.441612	37.425224	-0.249117	-130.340495
6.550000	-0.237231	-124.943995	-42.293670	35.860193	-42.293670	35.860193	-0.252776	-131.255753
6.600000	-0.240742	-125.790785	-42.147185	34.297344	-42.147185	34.297344	-0.256508	-132.171308
6.650000	-0.244277	-126.637295	-42.002795	32.735223	-42.002795	32.735223	-0.260265	-133.086963
6.700000	-0.247876	-127.483196	-41.859994	31.175294	-41.859994	31.175294	-0.264088	-134.003058
6.750000	-0.251507	-128.328793	-41.719124	29.616461	-41.719124	29.616461	-0.267944	-134.919374
6.800000	-0.255196	-129.173984	-41.579942	28.059819	-41.579942	28.059819	-0.271859	-135.836235
6.850000	-0.258926	-130.018886	-41.442561	26.504741	-41.442561	26.504741	-0.275815	-136.753485
6.900000	-0.262706	-130.863554	-41.306933	24.951814	-41.306933	24.951814	-0.279823	-137.671340
6.950000	-0.266536	-131.707987	-41.173011	23.401037	-41.173011	23.401037	-0.283882	-138.589801
7.000000	-0.270409	-132.552322	-41.040877	21.852315	-41.040877	21.852315	-0.287983	-139.508885
7.050000	-0.274341	-133.396520	-40.910383	20.306469	-40.910383	20.306469	-0.292145	-140.428841
7.100000	-0.278300	-134.240710	-40.781709	18.762001	-40.781709	18.762001	-0.296333	-141.349232
7.150000	-0.282326	-135.084902	-40.654643	17.221163	-40.654643	17.221163	-0.300588	-142.270774
7.200000	-0.286403	-135.929173	-40.529257	15.683255	-40.529257	15.683255	-0.304893	-143.193261
7.250000	-0.290531	-136.773580	-40.405537	14.148458	-40.405537	14.148458	-0.309248	-144.116763
7.300000	-0.294711	-137.618184	-40.283468	12.616964	-40.283468	12.616964	-0.313654	-145.041347
7.350000	-0.298944	-138.463045	-40.163036	11.088967	-40.163036	11.088967	-0.318111	-145.967086
7.400000	-0.303230	-139.308224	-40.044225	9.564672	-40.044225	9.564672	-0.322619	-146.894049
7.450000	-0.307570	-140.153783	-39.927018	8.044284	-39.927018	8.044284	-0.327178	-147.822309
7.500000	-0.311965	-140.999786	-39.811397	6.528018	-39.811397	6.528018	-0.331788	-148.751936
7.550000	-0.316419	-141.846324	-39.697347	5.016289	-39.697347	5.016289	-0.336452	-149.683071
7.600000	-0.320929	-142.693442	-39.584847	3.509140	-39.584847	3.509140	-0.341168	-150.615728
7.650000	-0.325497	-143.541207	-39.473875	2.006796	-39.473875	2.006796	-0.345936	-151.549981
7.700000	-0.330124	-144.389689	-39.364409	0.509482	-39.364409	0.509482	-0.350756	-152.485906
7.750000	-0.334812	-145.238956	-39.256425	-0.982570	-39.256425	-0.982570	-0.355628	-153.423578
7.800000	-0.339560	-146.089079	-39.149899	-2.469130	-39.149899	-2.469130	-0.360553	-154.363073
7.850000	-0.344371	-146.940131	-39.044803	-3.949967	-39.044803	-3.949967	-0.365529	-155.304470
7.900000	-0.349247	-147.792184	-38.941112	-5.424849	-38.941112	-5.424849	-0.370559	-156.247847
7.950000	-0.354188	-148.645313	-38.838795	-6.893543	-38.838795	-6.893543	-0.375641	-157.193281
8.000000	-0.359196	-149.499595	-38.737824	-8.355821	-38.737824	-8.355821	-0.380776	-158.140852
8.050000	-0.364273	-150.355105	-38.638166	-9.811451	-38.638166	-9.811451	-0.385963	-159.090641
8.100000	-0.369420	-151.211924	-38.539790	-11.260208	-38.539790	-11.260208	-0.391204	-160.042729
8.150000	-0.374641	-152.070131	-38.442662	-12.701866	-38.442662	-12.701866	-0.396497	-160.997196
8.200000	-0.379936	-152.929807	-38.346746	-14.136203	-38.346746	-14.136203	-0.401843	-161.954124
8.250000	-0.385308	-153.791036	-38.252007	-15.563002	-38.252007	-15.563002	-0.407242	-162.913598
8.300000	-0.390759	-154.653901	-38.158407	-16.982049	-38.158407	-16.982049	-0.412694	-163.875699
8.350000	-0.396293	-155.518489	-38.065908	-18.393133	-38.065908	-18.393133	-0.418199	-164.840513
8.400000	-0.401910	-156.384888	-37.974470	-19.796050	-37.974470	-19.796050	-0.423756	-165.808123
8.450000	-0.407615	-157.253186	-37.884054	-21.190599	-37.884054	-21.190599	-0.429367	-166.778616
8.500000	-0.413411	-158.123473	-37.794616	-22.576587	-37.794616	-22.576587	-0.435030	-167.752077
8.550000	-0.419299	-158.995843	-37.706115	-23.953826	-37.706115	-23.953826	-0.440746	-168.728592
8.600000	-0.425285	-159.870388	-37.618508	-25.322132	-37.618508	-25.322132	-0.446514	-169.708250
8.650000	-0.431371	-160.747204	-37.531749	-26.681330	-37.531749	-26.681330	-0.452335	-170.691138
8.700000	-0.437562	-161.626389	-37.445795	-28.031251	-37.445795	-28.031251	-0.458208	-171.677343
8.750000	-0.443861	-162.508041	-37.360599	-29.371731	-37.360599	-29.371731	-0.464133	-172.666956
8.800000	-0.450277	-163.392377	-37.276109	-30.702192	-37.276109	-30.702192	-0.470111	-173.660221
8.850000	-0.456811	-164.279392	-37.192279	-32.022894	-37.192279	-32.022894	-0.476142	-174.657081
8.900000	-0.463467	-165.169191	-37.109063	-33.333698	-37.109063	-33.333698	-0.482224	-175.657626
8.950000	-0.470251	-166.061880	-37.026413	-34.634469	-37.026413	-34.634469	-0.488356	-176.661946
9.000000	-0.477168	-166.957566	-36.944279	-35.925082	-36.944279	-35.925082	-0.494540	-177.670133
9.050000	-0.484223	-167.856358	-36.862611	-37.205416	-36.862611	-37.205416	-0.500774	-178.682279
9.100000	-0.491422	-168.758369	-36.781361	-38.475360	-36.781361	-38.475360	-0.507057	-179.698476
9.150000	-0.498773	-169.663711	-36.700478	-39.734806	-36.700478	-39.734806	-0.513391	179.281184
9.200000	-0.506281	-170.572500	-36.619912	-40.983656	-36.619912	-40.983656	-0.519773	178.256608
9.250000	-0.513953	-171.484852	-36.539612	-42.221819	-36.539612	-42.221819	-0.526205	177.227703
9.300000	-0.521797	-172.400885	-36.459528	-43.449208	-36.459528	-43.449208	-0.532684	176.194376
9.350000	-0.529821	-173.320721	-36.379609	-44.665744	-36.379609	-44.665744	-0.539211	175.156533
9.400000	-0.538033	-174.244482	-36.299804	-45.871354	-36.299804	-45.871354	-0.545785	174.114082
9.450000	-0.546441	-175.172291	-36.220061	-47.065970	-36.220061	-47.065970	-0.552405	173.066928
9.500000	-0.555055	-176.104275	-36.140329	-48.249531	-36.140329	-48.249531	-0.559071	172.014977
9.550000	-0.563884	-177.040562	-36.060557	-49.421981	-36.060557	-49.421981	-0.565782	170.958137
9.600000	-0.572938	-177.981280	-35.980694	-50.583269	-35.980694	-50.583269	-0.572538	169.896314
9.650000	-0.582228	-178.926561	-35.900688	-51.733347	-35.900688	-51.733347	-0.579336	168.829414
9.700000	-0.591764	-179.876538	-35.820487	-52.872176	-35.820487	-52.872176	-0.586178	167.757343
9.750000	-0.601559	179.168654	-35.740041	-53.999718	-35.740041	-53.999718	-0.593061	166.680010
9.800000	-0.611623	178.208879	-35.659298	-55.115938	-35.659298	-55.115938	-0.599984	165.597321
9.850000	-0.621971	177.244000	-35.578205	-56.220809	-35.578205	-56.220809	-0.606947	164.509183
9.900000	-0.632615	176.273877	-35.496713	-57.314304	-35.496713	-57.314304	-0.613949	163.415506
9.950000	-0.643569	175.298368	-35.414769	-58.396399	-35.414769	-58.396399	-0.620988	162.316198
10.000000	-0.654848	174.317332	-35.332321	-59.467074	-35.332321	-59.467074	-0.628064	161.211167
