! freq	dB(S11)	phase(S11)	dB(S12)	phase(S12)	
!     	dB(S21)	phase(S21)	dB(S22)	phase(S22)	
!S-par simulation data
#  GHz  S  DB  R 50
0.000000	-79.991835	0.000000	-0.000869	0.000000	-0.000869	0.000000	-79.991835	0.000000
0.050000	-42.158412	-91.142828	-0.007040	-3.179133	-0.007040	-3.179133	-42.160217	-91.135660
0.100000	-36.311913	-94.756123	-0.014359	-6.307940	-0.014359	-6.307940	-36.312452	-94.718431
0.150000	-32.892699	-98.384319	-0.020186	-9.427394	-0.020186	-9.427394	-32.893294	-98.320604
0.200000	-30.465835	-101.896845	-0.025967	-12.546207	-0.025967	-12.546207	-30.466609	-101.810031
0.250000	-28.592005	-105.297971	-0.032224	-15.664103	-0.032224	-15.664103	-28.592954	-105.188912
0.300000	-27.073583	-108.622203	-0.039020	-18.780131	-0.039020	-18.780131	-27.074700	-108.490768
0.350000	-25.803449	-111.894522	-0.046250	-21.893901	-0.046250	-21.893901	-25.804730	-111.740309
0.400000	-24.716848	-115.131869	-0.053783	-25.005451	-0.053783	-25.005451	-24.718287	-114.954428
0.450000	-23.776250	-118.340626	-0.061539	-28.114681	-0.061539	-28.114681	-23.777846	-118.139452
0.500000	-22.951923	-121.530610	-0.069397	-31.222193	-0.069397	-31.222193	-22.953671	-121.305252
0.550000	-22.223799	-124.706975	-0.077278	-34.328549	-0.077278	-34.328549	-22.225693	-124.457004
0.600000	-21.577201	-127.873378	-0.085129	-37.434357	-0.085129	-37.434357	-21.579238	-127.598363
0.650000	-21.001546	-131.032454	-0.092904	-40.540258	-0.092904	-40.540258	-21.003721	-130.731946
0.700000	-20.488154	-134.186404	-0.100576	-43.646893	-0.100576	-43.646893	-20.490465	-133.859923
0.750000	-20.029973	-137.336933	-0.108122	-46.754850	-0.108122	-46.754850	-20.032419	-136.983967
0.800000	-19.621700	-140.485367	-0.115524	-49.864694	-0.115524	-49.864694	-19.624280	-140.105350
0.850000	-19.260178	-143.632832	-0.122758	-52.977078	-0.122758	-52.977078	-19.262893	-143.225112
0.900000	-18.940610	-146.780381	-0.129810	-56.092420	-0.129810	-56.092420	-18.943460	-146.344260
0.950000	-18.660856	-149.928912	-0.136653	-59.211313	-0.136653	-59.211313	-18.663845	-149.463595
1.000000	-18.418825	-153.079292	-0.143260	-62.334317	-0.143260	-62.334317	-18.421956	-152.583887
1.050000	-18.212918	-156.232365	-0.149598	-65.462028	-0.149598	-65.462028	-18.216195	-155.705863
1.100000	-18.041975	-159.388964	-0.155633	-68.595083	-0.155633	-68.595083	-18.045403	-158.830226
1.150000	-17.905236	-162.549931	-0.161328	-71.734173	-0.161328	-71.734173	-17.908820	-161.957664
1.200000	-17.802315	-165.716117	-0.166644	-74.880052	-0.166644	-74.880052	-17.806064	-165.088852
1.250000	-17.733198	-168.888397	-0.171544	-78.033547	-0.171544	-78.033547	-17.737118	-168.224454
1.300000	-17.699000	-172.067836	-0.175983	-81.195767	-0.175983	-81.195767	-17.703100	-171.365239
1.350000	-17.699767	-175.255216	-0.179937	-84.367533	-0.179937	-84.367533	-17.704057	-174.511722
1.400000	-17.736689	-178.451466	-0.183381	-87.549914	-0.183381	-87.549914	-17.741178	-177.664470
1.450000	-17.811440	178.342477	-0.186297	-90.744060	-0.186297	-90.744060	-17.816140	179.176032
1.500000	-17.926257	175.125684	-0.188673	-93.951204	-0.188673	-93.951204	-17.931180	176.009406
1.550000	-18.084045	171.897247	-0.190509	-97.172659	-0.190509	-97.172659	-18.089202	172.835447
1.600000	-18.288529	168.656315	-0.191818	-100.409818	-0.191818	-100.409818	-18.293934	169.654192
1.650000	-18.544463	165.402128	-0.192622	-103.664147	-0.192622	-103.664147	-18.550129	166.466040
1.700000	-18.857925	162.134086	-0.192963	-106.937188	-0.192963	-106.937188	-18.863866	163.271917
1.750000	-19.236740	158.851839	-0.192893	-110.230551	-0.192893	-110.230551	-19.242967	160.073541
1.800000	-19.691104	155.555442	-0.192485	-113.545913	-0.192485	-113.545913	-19.697623	156.873824
1.850000	-20.234529	152.245600	-0.191829	-116.885010	-0.191829	-116.885010	-20.241338	153.677542
1.900000	-20.885931	148.924027	-0.191036	-120.249862	-0.191036	-120.249862	-20.893004	150.492683
1.950000	-21.671103	145.594515	-0.190241	-123.642365	-0.190241	-123.642365	-21.678372	147.332658
2.000000	-22.626707	142.264361	-0.189603	-127.064204	-0.189603	-127.064204	-22.634006	144.220039
2.050000	-23.809505	138.947533	-0.189301	-130.517312	-0.189301	-130.517312	-23.816439	141.195889
2.100000	-25.312266	135.672651	-0.189544	-134.003657	-0.189544	-134.003657	-25.317849	138.340969
2.150000	-27.302296	132.505044	-0.190566	-137.525229	-0.190566	-137.525229	-27.303731	135.835142
2.200000	-30.131757	129.627213	-0.192639	-141.084136	-0.192639	-141.084136	-30.119045	134.172872
2.250000	-34.776076	127.810046	-0.196071	-144.682627	-0.196071	-144.682627	-34.690422	135.397726
2.300000	-46.785024	139.610607	-0.201189	-148.322390	-0.201189	-148.322390	-44.877884	164.124513
2.350000	-39.525067	-71.532227	-0.208361	-152.005389	-0.208361	-152.005389	-38.974819	-83.243980
2.400000	-31.603347	-70.578853	-0.217997	-155.733539	-0.217997	-155.733539	-31.485203	-75.221231
2.450000	-27.319000	-73.196154	-0.230546	-159.508686	-0.230546	-159.508686	-27.264547	-75.876513
2.500000	-24.316698	-76.499973	-0.246499	-163.332580	-0.246499	-163.332580	-24.284265	-78.259697
2.550000	-21.976762	-80.084275	-0.266439	-167.207411	-0.266439	-167.207411	-21.954893	-81.306875
2.600000	-20.045555	-83.827064	-0.290912	-171.134112	-0.290912	-171.134112	-20.029743	-84.692671
2.650000	-18.392621	-87.681887	-0.320546	-175.113949	-0.320546	-175.113949	-18.380687	-88.290815
2.700000	-16.942485	-91.626742	-0.356013	-179.147952	-0.356013	-179.147952	-16.933230	-92.040506
2.750000	-15.647636	-95.649927	-0.398033	176.763130	-0.398033	176.763130	-15.640338	-95.908958
2.800000	-14.476313	-99.744569	-0.447366	172.618876	-0.447366	172.618876	-14.470507	-99.876864
2.850000	-13.406018	-103.906682	-0.504886	168.418790	-0.504886	168.418790	-13.401388	-103.932559
2.900000	-12.421001	-108.132511	-0.571400	164.163566	-0.571400	164.163566	-12.417323	-108.067005
2.950000	-11.509417	-112.419005	-0.647755	159.854224	-0.647755	159.854224	-11.506529	-112.273612
3.000000	-10.662184	-116.763367	-0.734844	155.492152	-0.734844	155.492152	-10.659963	-116.547117
3.050000	-9.872282	-121.162631	-0.833573	151.079295	-0.833573	151.079295	-9.870634	-120.882755
3.100000	-9.134200	-125.613509	-0.944854	146.618186	-0.944854	146.618186	-9.133052	-125.275899
3.150000	-8.443510	-130.112522	-1.069656	142.111740	-1.069656	142.111740	-8.442803	-129.722079
3.200000	-7.796725	-134.655393	-1.208867	137.563786	-1.208867	137.563786	-7.796412	-134.216222
3.250000	-7.190990	-139.237136	-1.363269	132.978945	-1.363269	132.978945	-7.191034	-138.752709
3.300000	-6.623873	-143.852522	-1.533658	128.362165	-1.533658	128.362165	-6.624242	-143.325828
3.350000	-6.093278	-148.495754	-1.720710	123.719008	-1.720710	123.719008	-6.093945	-147.929387
3.400000	-5.597490	-153.161076	-1.925324	119.055069	-1.925324	119.055069	-5.598434	-152.557356
3.450000	-5.134862	-157.841635	-2.147898	114.377028	-2.147898	114.377028	-5.136063	-157.202596
3.500000	-4.703902	-162.530718	-2.388919	109.691478	-2.388919	109.691478	-4.705344	-161.858186
3.550000	-4.303206	-167.221475	-2.648777	105.005177	-2.648777	105.005177	-4.304876	-166.517104
3.600000	-3.931427	-171.907030	-2.927772	100.324933	-2.927772	100.324933	-3.933311	-171.172333
3.650000	-3.587244	-176.580600	-3.226108	95.657491	-3.226108	95.657491	-3.589331	-175.816973
3.700000	-3.269350	178.764397	-3.543906	91.009414	-3.543906	91.009414	-3.271630	179.555656
3.750000	-2.976443	174.134232	-3.881211	86.386983	-3.881211	86.386983	-2.978906	174.951906
3.800000	-2.707431	169.535309	-4.238060	81.796650	-4.238060	81.796650	-2.710069	170.378233
3.850000	-2.460793	164.972642	-4.614278	77.243480	-4.614278	77.243480	-2.463598	165.839728
3.900000	-2.235219	160.451073	-5.009764	72.732399	-5.009764	72.732399	-2.238184	161.341277
3.950000	-2.029409	155.974866	-5.424411	68.267788	-5.424411	68.267788	-2.032525	156.887187
4.000000	-1.842079	151.547699	-5.858118	63.853463	-5.858118	63.853463	-1.845340	152.481166
4.050000	-1.671972	147.172650	-6.310818	59.492674	-6.310818	59.492674	-1.675371	148.126325
4.100000	-1.517862	142.852219	-6.782491	55.188120	-6.782491	55.188120	-1.521394	143.825187
4.150000	-1.378566	138.588349	-7.273192	50.941977	-7.273192	50.941977	-1.382224	139.579716
4.200000	-1.253102	134.383314	-7.782899	46.756828	-7.782899	46.756828	-1.256880	135.392192
4.250000	-1.140643	130.239803	-8.311377	42.635774	-8.311377	42.635774	-1.144536	131.265297
4.300000	-1.038972	126.151403	-8.860598	38.572445	-8.860598	38.572445	-1.042975	127.192734
4.350000	-0.948273	122.125103	-9.429473	34.574603	-9.429473	34.574603	-0.952380	123.181406
4.400000	-0.867092	118.157226	-10.019648	30.638870	-10.019648	30.638870	-0.871299	119.227699
4.450000	-0.794582	114.247249	-10.632129	26.765303	-10.632129	26.765303	-0.798883	115.331104
4.500000	-0.730393	110.397773	-11.266849	22.957467	-11.266849	22.957467	-0.734784	111.494192
4.550000	-0.672972	106.601168	-11.927982	19.207902	-11.927982	19.207902	-0.677447	107.709435
4.600000	-0.622761	102.866049	-12.612961	15.527325	-12.612961	15.527325	-0.627316	103.985333
4.650000	-0.577974	99.180430	-13.329126	11.903503	-13.329126	11.903503	-0.582604	100.310062
4.700000	-0.538987	95.552237	-14.074128	8.347298	-14.074128	8.347298	-0.543687	96.691439
4.750000	-0.504601	91.972841	-14.855314	4.850445	-14.855314	4.850445	-0.509365	93.120954
4.800000	-0.474692	88.444562	-15.674090	1.418323	-15.674090	1.418323	-0.479515	89.600894
4.850000	-0.448748	84.964749	-16.535756	-1.949352	-16.535756	-1.949352	-0.453624	86.128650
4.900000	-0.426239	81.529812	-17.447817	-5.253571	-17.447817	-5.253571	-0.431162	82.700684
4.950000	-0.407130	78.142271	-18.413009	-8.485515	-18.413009	-8.485515	-0.412093	79.319496
5.000000	-0.390648	74.793475	-19.447815	-11.652698	-19.447815	-11.652698	-0.395645	75.976561
5.050000	-0.376993	71.488643	-20.554287	-14.737641	-20.554287	-14.737641	-0.382013	72.677054
5.100000	-0.365682	68.221993	-21.750620	-17.739267	-21.750620	-17.739267	-0.370717	69.415298
5.150000	-0.356507	64.991035	-23.055017	-20.648030	-23.055017	-20.648030	-0.361545	66.188875
5.200000	-0.349290	61.792953	-24.491415	-23.450909	-24.491415	-23.450909	-0.354319	62.995058
5.250000	-0.343897	58.624466	-26.091924	-26.130682	-26.091924	-26.130682	-0.348900	59.830679
5.300000	-0.340238	55.481617	-27.900584	-28.666329	-27.900584	-28.666329	-0.345194	56.691931
5.350000	-0.338287	52.359449	-29.979207	-31.038654	-29.979207	-31.038654	-0.343168	53.574051
5.400000	-0.338109	49.251477	-32.416307	-33.257152	-32.416307	-33.257152	-0.342878	50.470826
5.450000	-0.339918	46.148816	-35.338988	-35.476283	-35.338988	-35.476283	-0.344521	47.373759
5.500000	-0.344191	43.038668	-38.914613	-38.523253	-38.914613	-38.523253	-0.348546	44.270624
5.550000	-0.351913	39.901521	-43.197224	-46.311032	-43.197224	-46.311032	-0.355886	41.142804
5.600000	-0.365164	36.705697	-46.591940	-67.742184	-46.591940	-67.742184	-0.368523	37.960101
5.650000	-0.386178	33.422269	-45.374170	-95.558934	-45.374170	-95.558934	-0.388581	34.694827
5.700000	-0.428745	29.916156	-38.639543	-103.017579	-38.639543	-103.017579	-0.429227	31.218696
5.750000	-0.522018	26.012182	-31.403659	-104.969944	-31.403659	-104.969944	-0.518288	27.365342
5.800000	-0.779415	21.351520	-24.043024	-112.343638	-24.043024	-112.343638	-0.763874	22.796925
5.850000	-1.720018	16.783462	-16.436751	-135.333479	-16.436751	-135.333479	-1.656922	18.343182
5.900000	-2.665917	26.319196	-12.049318	173.828534	-12.049318	173.828534	-2.550348	27.165738
5.950000	-1.252283	27.448482	-13.359023	137.080910	-13.359023	137.080910	-1.220148	28.154806
6.000000	-0.756811	22.989031	-14.845475	121.631951	-14.845475	121.631951	-0.747332	23.807609
6.050000	-0.588371	19.107814	-15.687323	113.403534	-15.687323	113.403534	-0.585940	19.989225
6.100000	-0.517536	15.740737	-16.116140	107.929021	-16.116140	107.929021	-0.518017	16.655828
6.150000	-0.483091	12.675151	-16.308620	103.692541	-16.308620	103.692541	-0.485031	13.608735
6.200000	-0.465346	9.796295	-16.361451	100.103918	-16.361451	100.103918	-0.468110	10.739658
6.250000	-0.456192	7.039663	-16.331081	96.882665	-16.331081	96.882665	-0.459463	7.987483
6.300000	-0.452160	4.372288	-16.247679	93.896988	-16.247679	93.896988	-0.455759	5.320936
6.350000	-0.451418	1.773668	-16.130126	91.071496	-16.130126	91.071496	-0.455233	2.720539
6.400000	-0.452924	-0.769612	-15.990531	88.360535	-15.990531	88.360535	-0.456885	0.173534
6.450000	-0.456063	-3.266500	-15.836741	85.735512	-15.836741	85.735512	-0.460121	-2.328594
6.500000	-0.460543	-5.720000	-15.673170	83.182607	-15.673170	83.182607	-0.464662	-4.788644
6.550000	-0.465971	-8.139528	-15.504695	80.681001	-15.504695	80.681001	-0.470130	-7.215668
6.600000	-0.472198	-10.528584	-15.333463	78.222094	-15.333463	78.222094	-0.476379	-9.613015
6.650000	-0.479120	-12.889971	-15.160917	75.799516	-15.160917	75.799516	-0.483312	-11.983372
6.700000	-0.486771	-15.221912	-14.987453	73.413211	-14.987453	73.413211	-0.490963	-14.324958
6.750000	-0.494872	-17.535918	-14.814977	71.048011	-14.814977	71.048011	-0.499060	-16.648999
6.800000	-0.503546	-19.827418	-14.642971	68.708564	-14.642971	68.708564	-0.507724	-18.951009
6.850000	-0.512896	-22.093905	-14.471078	66.396327	-14.471078	66.396327	-0.517060	-21.228502
6.900000	-0.522714	-24.344510	-14.300332	64.100802	-14.300332	64.100802	-0.526862	-23.490418
6.950000	-0.533002	-26.579791	-14.130703	61.821178	-14.130703	61.821178	-0.537133	-25.737298
7.000000	-0.543985	-28.794510	-13.961049	59.562269	-13.961049	59.562269	-0.548098	-27.963992
7.050000	-0.555561	-30.994122	-13.791756	57.318108	-13.791756	57.318108	-0.559656	-30.175851
7.100000	-0.567659	-33.181658	-13.623135	55.085553	-13.623135	55.085553	-0.571737	-32.375853
7.150000	-0.580343	-35.356662	-13.454835	52.864867	-13.454835	52.864867	-0.584405	-34.563550
7.200000	-0.593910	-37.515871	-13.285174	50.658676	-13.285174	50.658676	-0.597958	-36.735747
7.250000	-0.608102	-39.666008	-13.115511	48.460547	-13.115511	48.460547	-0.612137	-38.899050
7.300000	-0.622939	-41.807535	-12.945757	46.269956	-12.945757	46.269956	-0.626963	-41.053919
7.350000	-0.638706	-43.938589	-12.774369	44.088218	-12.774369	44.088218	-0.642721	-43.198543
7.400000	-0.655428	-46.061532	-12.601241	41.912899	-12.601241	41.912899	-0.659437	-45.335264
7.450000	-0.672957	-48.178965	-12.427291	39.741676	-12.427291	39.741676	-0.676964	-47.466635
7.500000	-0.691327	-50.291382	-12.252459	37.574006	-12.252459	37.574006	-0.695332	-49.593150
7.550000	-0.711193	-52.397909	-12.073345	35.409616	-12.073345	35.409616	-0.715201	-51.714038
7.600000	-0.732094	-54.502333	-11.892676	33.245600	-11.892676	33.245600	-0.736108	-53.832989
7.650000	-0.754079	-56.605231	-11.710407	31.081328	-11.710407	31.081328	-0.758102	-55.950581
7.700000	-0.777530	-58.707476	-11.524840	28.915329	-11.524840	28.915329	-0.781565	-58.067740
7.750000	-0.802737	-60.811340	-11.334937	26.744948	-11.334937	26.744948	-0.806788	-60.186770
7.800000	-0.829372	-62.917724	-11.142729	24.569898	-11.142729	24.569898	-0.833442	-62.308514
7.850000	-0.857505	-65.027306	-10.948217	22.389436	-10.948217	22.389436	-0.861597	-64.433660
7.900000	-0.888171	-67.144619	-10.747240	20.197552	-10.747240	20.197552	-0.892291	-66.566876
7.950000	-0.920900	-69.269741	-10.542618	17.995014	-10.542618	17.995014	-0.925052	-68.708171
8.000000	-0.955660	-71.403096	-10.335021	15.781523	-10.335021	15.781523	-0.959848	-70.857960
8.050000	-0.992978	-73.547702	-10.122915	13.553403	-10.122915	13.553403	-0.997206	-73.019327
8.100000	-1.033858	-75.709923	-9.903448	11.303084	-9.903448	11.303084	-1.038134	-75.198770
8.150000	-1.077555	-77.886592	-9.680359	9.034885	-9.680359	9.034885	-1.081884	-77.393015
8.200000	-1.124243	-80.078803	-9.453734	6.747578	-9.453734	6.747578	-1.128630	-79.603176
8.250000	-1.175707	-82.297377	-9.218875	4.428234	-9.218875	4.428234	-1.180163	-81.840313
8.300000	-1.231736	-84.541511	-8.978003	2.078151	-8.978003	2.078151	-1.236269	-84.103587
8.350000	-1.291450	-86.805630	-8.734621	-0.295894	-8.734621	-0.295894	-1.296067	-86.387295
8.400000	-1.357316	-89.104478	-8.483344	-2.711409	-8.483344	-2.711409	-1.362032	-88.706512
8.450000	-1.429933	-91.441079	-8.224596	-5.171855	-8.224596	-5.171855	-1.434761	-91.064335
8.500000	-1.509309	-93.814476	-7.960146	-7.676046	-7.960146	-7.676046	-1.514265	-93.459796
8.550000	-1.596921	-96.232083	-7.688750	-10.232805	-7.688750	-10.232805	-1.602026	-95.900498
8.600000	-1.693740	-98.697626	-7.410653	-12.846653	-7.410653	-12.846653	-1.699018	-98.390284
8.650000	-1.800725	-101.214049	-7.126427	-15.521280	-7.126427	-15.521280	-1.806201	-100.932211
8.700000	-1.920385	-103.791979	-6.834600	-18.269721	-6.834600	-18.269721	-1.926096	-103.537234
8.750000	-2.052747	-106.427438	-6.537815	-21.087631	-6.537815	-21.087631	-2.058730	-106.201345
8.800000	-2.202755	-109.140528	-6.232791	-24.000124	-6.232791	-24.000124	-2.209066	-108.945323
8.850000	-2.369909	-111.922067	-5.923431	-26.996965	-5.923431	-26.996965	-2.376604	-111.759863
8.900000	-2.559633	-114.789280	-5.607802	-30.100927	-5.607802	-30.100927	-2.566791	-114.662947
8.950000	-2.773363	-117.738518	-5.288420	-33.309332	-5.288420	-33.309332	-2.781075	-117.651070
9.000000	-3.018771	-120.788160	-4.963958	-36.648946	-4.963958	-36.648946	-3.027163	-120.743755
9.050000	-3.297876	-123.929887	-4.637729	-40.113165	-4.637729	-40.113165	-3.307095	-123.932923
9.100000	-3.618605	-127.172408	-4.310233	-43.719714	-4.310233	-43.719714	-3.628849	-127.228509
9.150000	-3.989995	-130.518468	-3.983130	-47.482882	-3.983130	-47.482882	-4.001528	-130.634819
9.200000	-4.418373	-133.956406	-3.659396	-51.398530	-3.659396	-51.398530	-4.431532	-134.141200
9.250000	-4.920940	-137.487222	-3.340763	-55.493938	-3.340763	-55.493938	-4.936221	-137.752171
9.300000	-5.509227	-141.083920	-3.030953	-59.761413	-3.030953	-59.761413	-5.527308	-141.443271
9.350000	-6.201759	-144.716562	-2.733016	-64.202843	-2.733016	-64.202843	-6.223622	-145.188718
9.400000	-7.030545	-148.326227	-2.451552	-68.835959	-2.451552	-68.835959	-7.057791	-148.939509
9.450000	-8.021446	-151.825194	-2.189739	-73.634166	-2.189739	-73.634166	-8.056537	-152.615414
9.500000	-9.227317	-155.049861	-1.952604	-78.600674	-1.952604	-78.600674	-9.274639	-156.073162
9.550000	-10.713395	-157.734662	-1.743528	-83.711341	-1.743528	-83.711341	-10.781099	-159.074303
9.600000	-12.588644	-159.294581	-1.567525	-88.950050	-1.567525	-88.950050	-12.694317	-161.091783
9.650000	-15.016879	-158.444018	-1.427802	-94.285022	-1.427802	-94.285022	-15.204387	-160.934354
9.700000	-18.223956	-151.918388	-1.325849	-99.679723	-1.325849	-99.679723	-18.624798	-155.381380
9.750000	-21.884320	-129.641532	-1.264243	-105.097426	-1.264243	-105.097426	-22.872467	-132.641894
9.800000	-22.370422	-88.248483	-1.241986	-110.497814	-1.241986	-110.497814	-23.477025	-85.021752
9.850000	-18.988839	-62.132295	-1.257816	-115.843091	-1.257816	-115.843091	-19.454728	-57.537223
9.900000	-15.782088	-53.570252	-1.309362	-121.098550	-1.309362	-121.098550	-15.991899	-49.930776
9.950000	-13.361363	-51.822587	-1.393338	-126.234254	-1.393338	-126.234254	-13.476303	-48.927426
10.000000	-11.518159	-52.792536	-1.505794	-131.226139	-1.505794	-131.226139	-11.590326	-50.390934
