! freq	dB(S11)	phase(S11)	dB(S12)	phase(S12)	
!     	dB(S21)	phase(S21)	dB(S22)	phase(S22)	
!S-par simulation data
#  GHz  S  DB  R 50
0.000000	-0.000000	0.000000	-334.798995	180.000000	-334.798995	180.000000	-0.000000	0.000000
0.050000	-0.002202	-2.640315	-83.447576	87.394393	-83.447576	87.394393	-0.002426	-2.824729
0.100000	-0.007159	-5.263820	-77.463207	84.682330	-77.463207	84.682330	-0.007662	-5.628728
0.150000	-0.012480	-7.870676	-73.987490	81.968417	-73.987490	81.968417	-0.013018	-8.413137
0.200000	-0.017082	-10.467621	-71.550951	79.277155	-71.550951	79.277155	-0.017549	-11.185715
0.250000	-0.020942	-13.060205	-69.689379	76.611801	-69.689379	76.611801	-0.021400	-13.951966
0.300000	-0.024239	-15.650308	-68.197077	73.975508	-68.197077	73.975508	-0.024806	-16.713237
0.350000	-0.027153	-18.238336	-66.965899	71.372926	-66.965899	71.372926	-0.027952	-19.469238
0.400000	-0.029840	-20.823985	-65.931273	68.808924	-65.931273	68.808924	-0.030966	-22.218947
0.450000	-0.032415	-23.406908	-65.048134	66.285221	-65.048134	66.285221	-0.033925	-24.961656
0.500000	-0.034941	-25.986609	-64.287572	63.805442	-64.287572	63.805442	-0.036864	-27.696341
0.550000	-0.037467	-28.562324	-63.631917	61.376768	-63.631917	61.376768	-0.039807	-30.421328
0.600000	-0.040024	-31.133648	-63.064626	59.002296	-63.064626	59.002296	-0.042763	-33.135807
0.650000	-0.042629	-33.700302	-62.572804	56.684641	-62.572804	56.684641	-0.045737	-35.839219
0.700000	-0.045295	-36.261858	-62.148040	54.429178	-62.148040	54.429178	-0.048728	-38.530630
0.750000	-0.048030	-38.817635	-61.785887	52.245465	-61.785887	52.245465	-0.051735	-41.208505
0.800000	-0.050828	-41.367966	-61.476035	50.131547	-61.476035	50.131547	-0.054751	-43.873664
0.850000	-0.053701	-43.911493	-61.221427	48.108933	-61.221427	48.108933	-0.057773	-46.522983
0.900000	-0.056632	-46.449160	-61.010546	46.169646	-61.010546	46.169646	-0.060793	-49.158682
0.950000	-0.059627	-48.979584	-60.847684	44.340858	-60.847684	44.340858	-0.063804	-51.777564
1.000000	-0.062671	-51.503470	-60.725015	42.620163	-60.725015	42.620163	-0.066801	-54.381270
1.050000	-0.065764	-54.020095	-60.643633	41.030993	-60.643633	41.030993	-0.069776	-56.968116
1.100000	-0.068895	-56.529441	-60.601024	39.587324	-60.601024	39.587324	-0.072723	-59.538045
1.150000	-0.072056	-59.031663	-60.594111	38.302449	-60.594111	38.302449	-0.075638	-62.091386
1.200000	-0.075241	-61.525941	-60.624680	37.216235	-60.624680	37.216235	-0.078511	-64.626184
1.250000	-0.078442	-64.013364	-60.685639	36.323288	-60.685639	36.323288	-0.081346	-67.144925
1.300000	-0.081650	-66.492274	-60.781330	35.703670	-60.781330	35.703670	-0.084128	-69.643634
1.350000	-0.084859	-68.964265	-60.902620	35.337490	-60.902620	35.337490	-0.086864	-72.125973
1.400000	-0.088061	-71.428165	-61.049342	35.308627	-61.049342	35.308627	-0.089543	-74.589045
1.450000	-0.091251	-73.884739	-61.214240	35.626501	-61.214240	35.626501	-0.092170	-77.034534
1.500000	-0.094421	-76.333749	-61.390483	36.348593	-61.390483	36.348593	-0.094740	-79.461706
1.550000	-0.097567	-78.775128	-61.568388	37.524011	-61.568388	37.524011	-0.097253	-81.870208
1.600000	-0.100685	-81.209547	-61.736205	39.150124	-61.736205	39.150124	-0.099711	-84.261483
1.650000	-0.103766	-83.636148	-61.875185	41.309206	-61.875185	41.309206	-0.102108	-86.633138
1.700000	-0.106814	-86.056191	-61.972703	43.915620	-61.972703	43.915620	-0.104454	-88.988088
1.750000	-0.109821	-88.469113	-62.005213	46.973527	-62.005213	46.973527	-0.106744	-91.324598
1.800000	-0.112788	-90.875301	-61.955909	50.379170	-61.955909	50.379170	-0.108982	-93.643337
1.850000	-0.115711	-93.274959	-61.810830	54.000869	-61.810830	54.000869	-0.111168	-95.944471
1.900000	-0.118592	-95.668241	-61.561795	57.676014	-61.561795	57.676014	-0.113306	-98.228006
1.950000	-0.121429	-98.055393	-61.210483	61.230734	-61.210483	61.230734	-0.115398	-100.494160
2.000000	-0.124224	-100.436736	-60.768136	64.515611	-60.768136	64.515611	-0.117446	-102.743354
2.050000	-0.126979	-102.812540	-60.250481	67.419191	-60.250481	67.419191	-0.119454	-104.975834
2.100000	-0.129693	-105.182658	-59.668955	69.832419	-59.668955	69.832419	-0.121422	-107.190465
2.150000	-0.132375	-107.548318	-59.057061	71.818105	-59.057061	71.818105	-0.123360	-109.390527
2.200000	-0.135024	-109.909315	-58.421876	73.334518	-58.421876	73.334518	-0.125265	-111.574707
2.250000	-0.137644	-112.265968	-57.776547	74.406378	-57.776547	74.406378	-0.127143	-113.743307
2.300000	-0.140239	-114.618606	-57.131251	75.070633	-57.131251	75.070633	-0.128995	-115.896645
2.350000	-0.142812	-116.967567	-56.493480	75.369374	-56.493480	75.369374	-0.130825	-118.035044
2.400000	-0.145369	-119.313200	-55.868501	75.345162	-55.868501	75.345162	-0.132636	-120.158841
2.450000	-0.147913	-121.655861	-55.259838	75.038304	-55.259838	75.038304	-0.134431	-122.268378
2.500000	-0.150448	-123.995918	-54.669711	74.485495	-54.669711	74.485495	-0.136212	-124.364004
2.550000	-0.152980	-126.333663	-54.098708	73.711393	-54.098708	73.711393	-0.137983	-126.445505
2.600000	-0.155512	-128.669594	-53.548328	72.754652	-53.548328	72.754652	-0.139745	-128.513847
2.650000	-0.158050	-131.004100	-53.018626	71.639496	-53.018626	71.639496	-0.141503	-130.569399
2.700000	-0.160597	-133.337577	-52.509347	70.386811	-52.509347	70.386811	-0.143258	-132.612532
2.750000	-0.163156	-135.670428	-52.020037	69.014561	-52.020037	69.014561	-0.145012	-134.643620
2.800000	-0.165733	-138.003064	-51.550113	67.538179	-51.550113	67.538179	-0.146768	-136.663043
2.850000	-0.168329	-140.335899	-51.098920	65.970933	-51.098920	65.970933	-0.148528	-138.671179
2.900000	-0.170948	-142.669355	-50.665765	64.324235	-50.665765	64.324235	-0.150294	-140.668410
2.950000	-0.173593	-145.003860	-50.249947	62.607920	-50.249947	62.607920	-0.152068	-142.655119
3.000000	-0.176267	-147.339845	-49.850770	60.830479	-49.850770	60.830479	-0.153851	-144.631690
3.050000	-0.178970	-149.677748	-49.467558	58.999260	-49.467558	58.999260	-0.155645	-146.598506
3.100000	-0.181706	-152.018012	-49.099661	57.120636	-49.099661	57.120636	-0.157452	-148.555952
3.150000	-0.184475	-154.361082	-48.746460	55.200149	-48.746460	55.200149	-0.159273	-150.504411
3.200000	-0.187279	-156.707410	-48.407369	53.242631	-48.407369	53.242631	-0.161109	-152.444266
3.250000	-0.190118	-159.057449	-48.081837	51.252308	-48.081837	51.252308	-0.162961	-154.375899
3.300000	-0.192994	-161.411658	-47.769349	49.232888	-47.769349	49.232888	-0.164831	-156.299690
3.350000	-0.195903	-163.770045	-47.469225	47.189575	-47.469225	47.189575	-0.166717	-158.216627
3.400000	-0.198852	-166.133994	-47.181407	45.120921	-47.181407	45.120921	-0.168625	-160.125764
3.450000	-0.201837	-168.503510	-46.905296	43.031939	-46.905296	43.031939	-0.170553	-162.028200
3.500000	-0.204858	-170.879057	-46.640508	40.924886	-46.640508	40.924886	-0.172501	-163.924307
3.550000	-0.207914	-173.261100	-46.386684	38.801784	-46.386684	38.801784	-0.174471	-165.814457
3.600000	-0.211005	-175.650107	-46.143498	36.664448	-46.143498	36.664448	-0.176463	-167.699019
3.650000	-0.214130	-178.046539	-45.910647	34.514520	-45.910647	34.514520	-0.178477	-169.578358
3.700000	-0.217287	179.549140	-45.687855	32.353493	-45.687855	32.353493	-0.180513	-171.452838
3.750000	-0.220476	177.136472	-45.474869	30.182736	-45.474869	30.182736	-0.182573	-173.322819
3.800000	-0.223695	174.714797	-45.271565	28.003355	-45.271565	28.003355	-0.184656	-175.188577
3.850000	-0.226943	172.283847	-45.077639	25.816733	-45.077639	25.816733	-0.186763	-177.050566
3.900000	-0.230217	169.843175	-44.892900	23.623971	-44.892900	23.623971	-0.188893	-178.909136
3.950000	-0.233517	167.392344	-44.717177	21.426115	-44.717177	21.426115	-0.191047	179.235362
4.000000	-0.236840	164.930921	-44.550317	19.224170	-44.550317	19.224170	-0.193225	177.382584
4.050000	-0.240185	162.458484	-44.392183	17.019109	-44.392183	17.019109	-0.195426	175.532185
4.100000	-0.243550	159.974621	-44.242652	14.811886	-44.242652	14.811886	-0.197650	173.683827
4.150000	-0.246933	157.478930	-44.101618	12.603443	-44.101618	12.603443	-0.199899	171.837171
4.200000	-0.250332	154.971021	-43.968986	10.394726	-43.968986	10.394726	-0.202170	169.991885
4.250000	-0.253745	152.450519	-43.844676	8.186684	-43.844676	8.186684	-0.204465	168.147636
4.300000	-0.257170	149.917062	-43.728616	5.980287	-43.728616	5.980287	-0.206783	166.304096
4.350000	-0.260605	147.370307	-43.620747	3.776525	-43.620747	3.776525	-0.209124	164.460939
4.400000	-0.264048	144.809774	-43.521096	1.576474	-43.521096	1.576474	-0.211488	162.617840
4.450000	-0.267498	142.235144	-43.429628	-0.618766	-43.429628	-0.618766	-0.213875	160.774468
4.500000	-0.270950	139.646279	-43.346232	-2.808122	-43.346232	-2.808122	-0.216285	158.930503
4.550000	-0.274405	137.042913	-43.270881	-4.990428	-43.270881	-4.990428	-0.218717	157.085630
4.600000	-0.277859	134.423501	-43.204213	-7.163606	-43.204213	-7.163606	-0.221173	155.239399
4.650000	-0.281310	131.790582	-43.144818	-9.328064	-43.144818	-9.328064	-0.223650	153.391767
4.700000	-0.284757	129.142517	-43.093414	-11.481610	-43.093414	-11.481610	-0.226148	151.542301
4.750000	-0.288198	126.479142	-43.049989	-13.622801	-43.049989	-13.622801	-0.228669	149.690693
4.800000	-0.291631	123.800997	-43.014191	-15.750804	-43.014191	-15.750804	-0.231211	147.836763
4.850000	-0.295052	121.106453	-42.986780	-17.862474	-42.986780	-17.862474	-0.233776	145.979934
4.900000	-0.298462	118.396277	-42.967318	-19.956865	-42.967318	-19.956865	-0.236364	144.120041
4.950000	-0.301859	115.670425	-42.955789	-22.032138	-42.955789	-22.032138	-0.238974	142.256780
5.000000	-0.305240	112.928889	-42.952173	-24.086343	-42.952173	-24.086343	-0.241607	140.389850
5.050000	-0.308604	110.171355	-42.956609	-26.116854	-42.956609	-26.116854	-0.244264	138.518851
5.100000	-0.311950	107.398227	-42.968887	-28.121922	-42.968887	-28.121922	-0.246945	136.643560
5.150000	-0.315278	104.609604	-42.988954	-30.099209	-42.988954	-30.099209	-0.249651	134.763672
5.200000	-0.318586	101.805623	-43.016741	-32.046242	-43.016741	-32.046242	-0.252381	132.878878
5.250000	-0.321873	98.986456	-43.052162	-33.960407	-43.052162	-33.960407	-0.255138	130.988871
5.300000	-0.325141	96.152314	-43.095108	-35.838949	-43.095108	-35.838949	-0.257922	129.093337
5.350000	-0.328388	93.303447	-43.145447	-37.678973	-43.145447	-37.678973	-0.260735	127.191959
5.400000	-0.331615	90.440141	-43.203012	-39.477443	-43.203012	-39.477443	-0.263578	125.284416
5.450000	-0.334822	87.562719	-43.267606	-41.231187	-43.267606	-41.231187	-0.266452	123.370382
5.500000	-0.338011	84.671545	-43.338989	-42.936912	-43.338989	-42.936912	-0.269360	121.449523
5.550000	-0.341184	81.767014	-43.416877	-44.591210	-43.416877	-44.591210	-0.272305	119.521497
5.600000	-0.344341	78.849562	-43.500935	-46.190582	-43.500935	-46.190582	-0.275288	117.585952
5.650000	-0.347486	75.919527	-43.590815	-47.730787	-43.590815	-47.730787	-0.278313	115.642437
5.700000	-0.350621	72.977428	-43.686038	-49.208105	-43.686038	-49.208105	-0.281383	113.690564
5.750000	-0.353750	70.023936	-43.786019	-50.619594	-43.786019	-50.619594	-0.284502	111.730027
5.800000	-0.356877	67.059617	-43.890148	-51.961748	-43.890148	-51.961748	-0.287674	109.760419
5.850000	-0.360005	64.085063	-43.997734	-53.231205	-43.997734	-53.231205	-0.290904	107.781312
5.900000	-0.363140	61.100892	-44.107998	-54.424824	-44.107998	-54.424824	-0.294198	105.792257
5.950000	-0.366287	58.107746	-44.220073	-55.539787	-44.220073	-55.539787	-0.297561	103.792779
6.000000	-0.369452	55.106286	-44.333002	-56.573703	-44.333002	-56.573703	-0.301000	101.782373
6.050000	-0.372642	52.097190	-44.445739	-57.524728	-44.445739	-57.524728	-0.304522	99.760501
6.100000	-0.375863	49.081153	-44.557157	-58.391698	-44.557157	-58.391698	-0.308138	97.726589
6.150000	-0.379124	46.058878	-44.666058	-59.174258	-44.666058	-59.174258	-0.311856	95.680017
6.200000	-0.382432	43.031076	-44.771188	-59.872999	-44.771188	-59.872999	-0.315687	93.620117
6.250000	-0.385796	39.998465	-44.871259	-60.489577	-44.871259	-60.489577	-0.319644	91.546165
6.300000	-0.389226	36.961689	-44.964788	-61.025187	-44.964788	-61.025187	-0.323743	89.457031
6.350000	-0.392732	33.921567	-45.050645	-61.485771	-45.050645	-61.485771	-0.327999	87.352153
6.400000	-0.396322	30.878805	-45.127633	-61.876742	-45.127633	-61.876742	-0.332429	85.230578
6.450000	-0.400008	27.834100	-45.194658	-62.204740	-45.194658	-62.204740	-0.337054	83.091259
6.500000	-0.403801	24.788136	-45.250776	-62.477527	-45.250776	-62.477527	-0.341896	80.933034
6.550000	-0.407710	21.741575	-45.295229	-62.703813	-45.295229	-62.703813	-0.346983	78.754616
6.600000	-0.411750	18.695063	-45.327486	-62.893021	-45.327486	-62.893021	-0.352344	76.554569
6.650000	-0.415930	15.649219	-45.347260	-63.054982	-45.347260	-63.054982	-0.358015	74.331287
6.700000	-0.420262	12.604624	-45.354584	-63.199598	-45.354584	-63.199598	-0.364033	72.083077
6.750000	-0.424760	9.561841	-45.349678	-63.336375	-45.349678	-63.336375	-0.370446	69.807847
6.800000	-0.429438	6.521433	-45.332924	-63.474294	-45.332924	-63.474294	-0.377314	67.502897
6.850000	-0.434310	3.483911	-45.305090	-63.621352	-45.305090	-63.621352	-0.384702	65.165428
6.900000	-0.439383	0.449632	-45.267489	-63.783440	-45.267489	-63.783440	-0.392668	62.793457
6.950000	-0.444672	-2.580973	-45.221166	-63.965074	-45.221166	-63.965074	-0.401302	60.383261
7.000000	-0.450198	-5.607389	-45.167164	-64.169435	-45.167164	-64.169435	-0.410736	57.929291
7.050000	-0.455963	-8.629492	-45.107230	-64.395464	-45.107230	-64.395464	-0.421056	55.428964
7.100000	-0.461981	-11.647028	-45.042710	-64.640664	-45.042710	-64.640664	-0.432402	52.877193
7.150000	-0.468279	-14.659530	-44.974782	-64.900305	-44.974782	-64.900305	-0.445013	50.264746
7.200000	-0.474857	-17.667052	-44.904885	-65.165140	-44.904885	-65.165140	-0.459050	47.586880
7.250000	-0.481727	-20.669519	-44.834064	-65.423713	-44.834064	-65.423713	-0.474759	44.835673
7.300000	-0.488912	-23.666691	-44.763069	-65.659906	-44.763069	-65.659906	-0.492530	41.998012
7.350000	-0.496422	-26.658631	-44.692284	-65.853875	-44.692284	-65.853875	-0.512753	39.062278
7.400000	-0.504264	-29.645506	-44.621503	-65.982952	-44.621503	-65.982952	-0.535874	36.016111
7.450000	-0.512455	-32.627331	-44.549677	-66.017085	-44.549677	-66.017085	-0.562586	32.839519
7.500000	-0.521017	-35.604170	-44.474450	-65.918394	-44.474450	-65.918394	-0.593831	29.506552
7.550000	-0.529949	-38.576432	-44.392118	-65.652592	-44.392118	-65.652592	-0.630516	25.995813
7.600000	-0.539264	-41.544376	-44.296732	-65.177199	-44.296732	-65.177199	-0.674020	22.273917
7.650000	-0.548997	-44.508114	-44.177477	-64.432148	-44.177477	-64.432148	-0.726733	18.282669
7.700000	-0.559140	-47.468259	-44.021878	-63.390324	-44.021878	-63.390324	-0.790786	13.979936
7.750000	-0.569704	-50.425231	-43.811688	-62.026636	-43.811688	-62.026636	-0.869606	9.295692
7.800000	-0.580717	-53.379425	-43.519497	-60.337447	-43.519497	-60.337447	-0.968703	4.120007
7.850000	-0.592184	-56.331435	-43.115953	-58.394651	-43.115953	-58.394651	-1.094876	-1.668543
7.900000	-0.604124	-59.281830	-42.565465	-56.355041	-42.565465	-56.355041	-1.258866	-8.257004
7.950000	-0.616544	-62.231268	-41.840605	-54.493575	-41.840605	-54.493575	-1.475254	-15.881084
8.000000	-0.629456	-65.180411	-40.924466	-53.199121	-40.924466	-53.199121	-1.765986	-24.888449
8.050000	-0.642867	-68.129972	-39.822645	-52.950050	-39.822645	-52.950050	-2.162473	-35.778214
8.100000	-0.656782	-71.080713	-38.570147	-54.256562	-38.570147	-54.256562	-2.706697	-49.284812
8.150000	-0.671190	-74.033451	-37.239518	-57.551041	-37.239518	-57.551041	-3.439536	-66.429734
8.200000	-0.686077	-76.989132	-35.935315	-63.109228	-35.935315	-63.109228	-4.357122	-88.616603
8.250000	-0.701423	-79.948870	-34.788424	-70.871088	-34.788424	-70.871088	-5.283281	-117.145420
8.300000	-0.717226	-82.913976	-33.923245	-80.317612	-33.923245	-80.317612	-5.754464	-151.259422
8.350000	-0.733514	-85.885827	-33.407038	-90.527918	-33.407038	-90.527918	-5.400875	174.102664
8.400000	-0.750344	-88.865711	-33.220513	-100.530464	-33.220513	-100.530464	-4.509218	144.530265
8.450000	-0.767771	-91.854719	-33.279732	-109.678657	-33.279732	-109.678657	-3.573963	121.393239
8.500000	-0.785833	-94.853886	-33.488298	-117.745938	-33.488298	-117.745938	-2.813724	103.545373
8.550000	-0.804543	-97.864242	-33.769713	-124.795391	-33.769713	-124.795391	-2.248243	89.551253
8.600000	-0.823906	-100.886974	-34.075303	-131.003330	-34.075303	-131.003330	-1.838347	78.325101
8.650000	-0.843920	-103.923278	-34.377954	-136.567469	-34.377954	-136.567469	-1.540576	69.090862
8.700000	-0.864582	-106.974459	-34.664399	-141.656140	-34.664399	-141.656140	-1.321765	61.321251
8.750000	-0.885890	-110.041858	-34.929155	-146.403238	-34.929155	-146.403238	-1.158506	54.647569
8.800000	-0.907843	-113.126870	-35.170804	-150.910478	-35.170804	-150.910478	-1.034819	48.810377
8.850000	-0.930440	-116.230916	-35.389929	-155.254387	-35.389929	-155.254387	-0.939765	43.623015
8.900000	-0.953679	-119.355439	-35.587968	-159.492415	-35.587968	-159.492415	-0.865788	38.948848
8.950000	-0.977561	-122.502123	-35.766421	-163.667611	-35.766421	-163.667611	-0.807705	34.689297
9.000000	-1.002080	-125.672322	-35.927112	-167.813560	-35.927112	-167.813560	-0.761626	30.764167
9.050000	-1.027226	-128.867436	-36.071569	-171.955410	-36.071569	-171.955410	-0.724805	27.113540
9.100000	-1.052988	-132.088933	-36.200993	-176.112396	-36.200993	-176.112396	-0.695262	23.691779
9.150000	-1.079354	-135.338272	-36.316324	179.700608	-36.316324	179.700608	-0.671520	20.462872
9.200000	-1.106308	-138.616892	-36.418248	175.472134	-36.418248	175.472134	-0.652462	17.398073
9.250000	-1.133829	-141.926207	-36.507218	171.193447	-36.507218	171.193447	-0.637236	14.474187
9.300000	-1.161891	-145.267592	-36.583478	166.858080	-36.583478	166.858080	-0.625179	11.672313
9.350000	-1.190464	-148.642375	-36.647092	162.461507	-36.647092	162.461507	-0.615777	8.976908
9.400000	-1.219514	-152.051823	-36.697973	158.000928	-36.697973	158.000928	-0.608619	6.375078
9.450000	-1.248998	-155.497130	-36.735911	153.475115	-36.735911	153.475115	-0.603381	3.856048
9.500000	-1.278868	-158.979403	-36.760608	148.884308	-36.760608	148.884308	-0.599801	1.410740
9.550000	-1.309071	-162.499646	-36.771709	144.230132	-36.771709	144.230132	-0.597668	-0.968541
9.600000	-1.339544	-166.058849	-36.768796	139.515376	-36.768796	139.515376	-0.596812	-3.288226
9.650000	-1.370217	-169.658244	-36.751319	134.743640	-36.751319	134.743640	-0.597103	-5.553408
9.700000	-1.401012	-173.297854	-36.719151	129.921158	-36.719151	129.921158	-0.598408	-7.769787
9.750000	-1.431843	-176.978092	-36.672036	125.054304	-36.672036	125.054304	-0.600631	-9.941571
9.800000	-1.462619	179.301281	-36.609994	120.150663	-36.609994	120.150663	-0.603683	-12.072862
9.850000	-1.493233	175.538964	-36.532501	115.217197	-36.532501	115.217197	-0.607525	-14.165680
9.900000	-1.523582	171.736381	-36.440125	110.263366	-36.440125	110.263366	-0.612076	-16.224030
9.950000	-1.553552	167.893696	-36.333029	105.297603	-36.333029	105.297603	-0.617298	-18.250194
10.000000	-1.580993	164.129042	-36.250525	99.890786	-36.250525	99.890786	-0.623312	-20.170927
