! freq	dB(S11)	phase(S11)	dB(S12)	phase(S12)	
!     	dB(S21)	phase(S21)	dB(S22)	phase(S22)	
!S-par simulation data
#  GHz  S  DB  R 50
0.000000	-0.000000	-0.000000	-371.725550	180.000000	-371.725550	180.000000	-0.000000	-0.000000
0.050000	-0.000103	-0.759869	-118.875230	89.921787	-118.875230	89.921787	-0.000103	-0.759872
0.100000	-0.000405	-1.519479	-112.845216	89.412080	-112.845216	89.412080	-0.000406	-1.519485
0.150000	-0.000899	-2.278574	-109.380859	88.726641	-109.380859	88.726641	-0.000899	-2.278582
0.200000	-0.001550	-3.037007	-106.993044	88.046747	-106.993044	88.046747	-0.001551	-3.037016
0.250000	-0.002341	-3.794613	-105.215858	87.430633	-105.215858	87.430633	-0.002343	-3.794622
0.300000	-0.003255	-4.551197	-103.851664	86.914006	-103.851664	86.914006	-0.003257	-4.551204
0.350000	-0.004248	-5.306864	-102.771023	86.501613	-102.771023	86.501613	-0.004250	-5.306869
0.400000	-0.005309	-6.061454	-101.927274	86.235533	-101.927274	86.235533	-0.005312	-6.061457
0.450000	-0.006412	-6.815068	-101.270564	86.137222	-101.270564	86.137222	-0.006415	-6.815068
0.500000	-0.007541	-7.567692	-100.781540	86.258009	-100.781540	86.258009	-0.007544	-7.567689
0.550000	-0.008682	-8.319374	-100.444076	86.657637	-100.444076	86.657637	-0.008685	-8.319367
0.600000	-0.009826	-9.070158	-100.249240	87.419609	-100.249240	87.419609	-0.009829	-9.070149
0.650000	-0.010965	-9.820089	-100.192195	88.659972	-100.192195	88.659972	-0.010968	-9.820078
0.700000	-0.012094	-10.569209	-100.270080	90.542289	-100.270080	90.542289	-0.012096	-10.569197
0.750000	-0.013210	-11.317554	-100.478795	93.298967	-100.478795	93.298967	-0.013212	-11.317540
0.800000	-0.014311	-12.065152	-100.806880	97.257768	-100.806880	97.257768	-0.014313	-12.065138
0.850000	-0.015394	-12.811907	-101.207786	103.303231	-101.207786	103.303231	-0.015396	-12.811892
0.900000	-0.016462	-13.557924	-101.618480	111.624246	-101.618480	111.624246	-0.016463	-13.557910
0.950000	-0.017523	-14.303581	-101.889171	121.164222	-101.889171	121.164222	-0.017524	-14.303568
1.000000	-0.018563	-15.048157	-101.689681	134.361082	-101.689681	134.361082	-0.018563	-15.048144
1.050000	-0.019599	-15.792492	-101.275002	147.390818	-101.275002	147.390818	-0.019599	-15.792480
1.100000	-0.020615	-16.535626	-99.900263	159.584935	-99.900263	159.584935	-0.020615	-16.535615
1.150000	-0.021630	-17.278639	-98.631687	171.345328	-98.631687	171.345328	-0.021630	-17.278629
1.200000	-0.022628	-18.020305	-96.768711	178.334750	-96.768711	178.334750	-0.022628	-18.020296
1.250000	-0.023626	-18.761972	-95.235601	-174.675827	-95.235601	-174.675827	-0.023626	-18.761964
1.300000	-0.024613	-19.502509	-93.576133	-170.668316	-93.576133	-170.668316	-0.024613	-19.502503
1.350000	-0.025595	-20.242309	-92.010639	-167.893294	-92.010639	-167.893294	-0.025595	-20.242303
1.400000	-0.026571	-20.981356	-90.542891	-166.018351	-90.542891	-166.018351	-0.026571	-20.981351
1.450000	-0.027544	-21.719636	-89.167928	-164.808362	-89.167928	-164.808362	-0.027544	-21.719632
1.500000	-0.028513	-22.457134	-87.877792	-164.097604	-87.877792	-164.097604	-0.028513	-22.457131
1.550000	-0.029479	-23.193836	-86.664016	-163.768229	-86.664016	-163.768229	-0.029479	-23.193833
1.600000	-0.030443	-23.929725	-85.518619	-163.735226	-85.518619	-163.735226	-0.030443	-23.929723
1.650000	-0.031404	-24.664787	-84.434443	-163.936259	-84.434443	-163.936259	-0.031405	-24.664785
1.700000	-0.032364	-25.398703	-83.381919	-164.373814	-83.381919	-164.373814	-0.032364	-25.398702
1.750000	-0.033323	-26.132174	-82.412441	-164.896396	-82.412441	-164.896396	-0.033324	-26.132173
1.800000	-0.034282	-26.864572	-81.473384	-165.561074	-81.473384	-165.561074	-0.034282	-26.864571
1.850000	-0.035240	-27.596204	-80.582883	-166.327249	-80.582883	-166.327249	-0.035240	-27.596203
1.900000	-0.036198	-28.326883	-79.726321	-167.177712	-79.726321	-167.177712	-0.036198	-28.326882
1.950000	-0.037156	-29.056608	-78.902212	-168.112463	-78.902212	-168.112463	-0.037156	-29.056607
2.000000	-0.038114	-29.785511	-78.114329	-169.097710	-78.114329	-169.097710	-0.038115	-29.785511
2.050000	-0.039074	-30.513264	-77.346826	-170.153653	-77.346826	-170.153653	-0.039074	-30.513263
2.100000	-0.040034	-31.240338	-76.617035	-171.239550	-76.617035	-171.239550	-0.040035	-31.240338
2.150000	-0.040996	-31.966054	-75.898426	-172.385358	-75.898426	-172.385358	-0.040997	-31.966054
2.200000	-0.041959	-32.691246	-75.218457	-173.548254	-75.218457	-173.548254	-0.041960	-32.691246
2.250000	-0.042926	-33.414864	-74.542571	-174.762412	-74.542571	-174.762412	-0.042926	-33.414863
2.300000	-0.043893	-34.138121	-73.905846	-175.985419	-73.905846	-175.985419	-0.043893	-34.138121
2.350000	-0.044864	-34.859580	-73.267673	-177.252667	-73.267673	-177.252667	-0.044865	-34.859579
2.400000	-0.045836	-35.580854	-72.668875	-178.523412	-72.668875	-178.523412	-0.045837	-35.580853
2.450000	-0.046814	-36.300095	-72.064285	-179.832622	-72.064285	-179.832622	-0.046815	-36.300094
2.500000	-0.047793	-37.019336	-71.499053	178.858168	-71.499053	178.858168	-0.047793	-37.019335
2.550000	-0.048779	-37.736303	-70.924604	177.515305	-70.924604	177.515305	-0.048779	-37.736303
2.600000	-0.049765	-38.453271	-70.385801	176.172442	-70.385801	176.172442	-0.049765	-38.453271
2.650000	-0.050760	-39.168105	-69.842101	174.804536	-69.842101	174.804536	-0.050760	-39.168105
2.700000	-0.051755	-39.882745	-69.327328	173.434354	-69.327328	173.434354	-0.051756	-39.882745
2.750000	-0.052760	-40.595402	-68.811254	172.045502	-68.811254	172.045502	-0.052760	-40.595402
2.800000	-0.053766	-41.307663	-68.318449	170.652915	-68.318449	170.652915	-0.053767	-41.307663
2.850000	-0.054782	-42.018102	-67.827346	169.246433	-67.827346	169.246433	-0.054782	-42.018103
2.900000	-0.055801	-42.727934	-67.354721	167.835320	-67.354721	167.835320	-0.055801	-42.727935
2.950000	-0.056829	-43.436116	-66.886311	166.413921	-66.886311	166.413921	-0.056829	-43.436117
3.000000	-0.057861	-44.143472	-66.432305	164.987380	-66.432305	164.987380	-0.057862	-44.143474
3.050000	-0.058903	-44.849359	-65.984621	163.553305	-65.984621	163.553305	-0.058903	-44.849361
3.100000	-0.059951	-45.554195	-65.547860	162.113848	-65.547860	162.113848	-0.059951	-45.554197
3.150000	-0.061007	-46.257751	-65.119185	160.668962	-65.119185	160.668962	-0.061008	-46.257753
3.200000	-0.062072	-46.960025	-64.698453	159.218646	-64.698453	159.218646	-0.062073	-46.960028
3.250000	-0.063145	-47.661215	-64.287284	157.764514	-64.287284	157.764514	-0.063145	-47.661219
3.300000	-0.064228	-48.360888	-63.881499	156.305041	-63.881499	156.305041	-0.064229	-48.360892
3.350000	-0.065318	-49.059682	-63.486508	154.842989	-63.486508	154.842989	-0.065319	-49.059686
3.400000	-0.066422	-49.756717	-63.094702	153.375779	-63.094702	153.375779	-0.066422	-49.756721
3.450000	-0.067531	-50.453083	-62.714714	151.906935	-62.714714	151.906935	-0.067531	-50.453089
3.500000	-0.068656	-51.147446	-62.336014	150.433185	-62.336014	150.433185	-0.068656	-51.147452
3.550000	-0.069785	-51.841358	-61.969980	148.958514	-61.969980	148.958514	-0.069785	-51.841364
3.600000	-0.070933	-52.533017	-61.603600	147.479239	-61.603600	147.479239	-0.070933	-52.533024
3.650000	-0.072084	-53.224448	-61.250581	145.999576	-61.250581	145.999576	-0.072084	-53.224455
3.700000	-0.073257	-53.913375	-60.895808	144.515643	-60.895808	144.515643	-0.073257	-53.913383
3.750000	-0.074430	-54.602302	-60.554959	143.031709	-60.554959	143.031709	-0.074430	-54.602310
3.800000	-0.075630	-55.288470	-60.211144	141.543862	-60.211144	141.543862	-0.075630	-55.288479
3.850000	-0.076829	-55.974639	-59.880422	140.056015	-59.880422	140.056015	-0.076830	-55.974648
3.900000	-0.078055	-56.658258	-59.548253	138.565171	-59.548253	138.565171	-0.078055	-56.658268
3.950000	-0.079283	-57.341646	-59.227132	137.074054	-59.227132	137.074054	-0.079283	-57.341657
4.000000	-0.080535	-58.022699	-58.905901	135.580679	-58.905901	135.580679	-0.080535	-58.022710
4.050000	-0.081793	-58.703286	-58.593898	134.086852	-58.593898	134.086852	-0.081793	-58.703297
4.100000	-0.083073	-59.381758	-58.282960	132.591360	-58.282960	132.591360	-0.083074	-59.381770
4.150000	-0.084362	-60.059526	-57.979632	131.095313	-57.979632	131.095313	-0.084363	-60.059538
4.200000	-0.085673	-60.735404	-57.678401	129.598071	-57.678401	129.598071	-0.085673	-60.735418
4.250000	-0.086995	-61.410338	-57.383335	128.100233	-57.383335	128.100233	-0.086995	-61.410352
4.300000	-0.088336	-62.083613	-57.091273	126.601570	-57.091273	126.601570	-0.088337	-62.083627
4.350000	-0.089693	-62.755701	-56.804089	125.102320	-56.804089	125.102320	-0.089693	-62.755717
4.400000	-0.091067	-63.426363	-56.520704	123.602531	-56.520704	123.602531	-0.091067	-63.426379
4.450000	-0.092459	-64.095597	-56.241050	122.102203	-56.241050	122.102203	-0.092460	-64.095614
4.500000	-0.093867	-64.763639	-55.965888	120.601552	-55.965888	120.601552	-0.093868	-64.763656
4.550000	-0.095298	-65.430013	-55.693435	119.100447	-55.693435	119.100447	-0.095298	-65.430030
4.600000	-0.096741	-66.095431	-55.426080	117.599172	-55.426080	117.599172	-0.096742	-66.095449
4.650000	-0.098211	-66.758939	-55.160521	116.097558	-55.160521	116.097558	-0.098211	-66.758958
4.700000	-0.099691	-67.421731	-54.900587	114.595875	-54.900587	114.595875	-0.099692	-67.421751
4.750000	-0.101202	-68.082374	-54.641637	113.093990	-54.641637	113.093990	-0.101202	-68.082394
4.800000	-0.102720	-68.742539	-54.388767	111.592096	-54.388767	111.592096	-0.102720	-68.742560
4.850000	-0.104273	-69.400317	-54.136160	110.090158	-54.136160	110.090158	-0.104274	-69.400339
4.900000	-0.105831	-70.057857	-53.890022	108.588231	-53.890022	108.588231	-0.105831	-70.057879
4.950000	-0.107429	-70.712775	-53.643507	107.086436	-53.643507	107.086436	-0.107429	-70.712798
5.000000	-0.109027	-71.367693	-53.403795	105.584640	-53.403795	105.584640	-0.109028	-71.367716
5.050000	-0.110671	-72.019757	-53.163136	104.083167	-53.163136	104.083167	-0.110672	-72.019781
5.100000	-0.112315	-72.671822	-52.928966	102.581693	-52.928966	102.581693	-0.112316	-72.671846
5.150000	-0.114003	-73.321279	-52.694541	101.080664	-52.694541	101.080664	-0.114004	-73.321304
5.200000	-0.115695	-73.970498	-52.465710	99.579675	-52.465710	99.579675	-0.115696	-73.970524
5.250000	-0.117428	-74.617357	-52.237246	98.079216	-52.237246	98.079216	-0.117429	-74.617383
5.300000	-0.119170	-75.263744	-52.013564	96.578862	-52.013564	96.578862	-0.119171	-75.263771
5.350000	-0.120949	-75.908016	-51.790806	95.079089	-51.790806	95.079089	-0.120950	-75.908044
5.400000	-0.122742	-76.551584	-51.572093	93.579509	-51.572093	93.579509	-0.122743	-76.551612
5.450000	-0.124570	-77.193282	-51.354803	92.080530	-51.354803	92.080530	-0.124571	-77.193312
5.500000	-0.126415	-77.834047	-51.140889	90.581852	-51.140889	90.581852	-0.126416	-77.834077
5.550000	-0.128292	-78.473187	-50.928842	89.083769	-50.928842	89.083769	-0.128293	-78.473218
5.600000	-0.130192	-79.111167	-50.719566	87.586111	-50.719566	87.586111	-0.130193	-79.111199
5.650000	-0.132120	-79.747766	-50.512553	86.089019	-50.512553	86.089019	-0.132121	-79.747798
5.700000	-0.134076	-80.382982	-50.307762	84.592492	-50.307762	84.592492	-0.134077	-80.383015
5.750000	-0.136057	-81.017056	-50.105586	83.096480	-50.105586	83.096480	-0.136058	-81.017090
5.800000	-0.138071	-81.649532	-49.905134	81.601188	-49.905134	81.601188	-0.138072	-81.649566
5.850000	-0.140105	-82.281102	-49.707609	80.106339	-49.707609	80.106339	-0.140106	-82.281137
5.900000	-0.142178	-82.910862	-49.511357	78.612378	-49.511357	78.612378	-0.142179	-82.910898
5.950000	-0.144267	-83.539949	-49.318308	77.118772	-49.318308	77.118772	-0.144268	-83.539986
6.000000	-0.146402	-84.167020	-49.126126	75.626232	-49.126126	75.626232	-0.146403	-84.167058
6.050000	-0.148548	-84.793647	-48.937387	74.133943	-48.937387	74.133943	-0.148549	-84.793686
6.100000	-0.150745	-85.418058	-48.749149	72.642909	-48.749149	72.642909	-0.150747	-85.418098
6.150000	-0.152949	-86.042250	-48.564563	71.152007	-48.564563	71.152007	-0.152950	-86.042290
6.200000	-0.155211	-86.664032	-48.380148	69.662557	-48.380148	69.662557	-0.155213	-86.664073
6.250000	-0.157474	-87.285813	-48.199567	68.173107	-48.199567	68.173107	-0.157476	-87.285856
6.300000	-0.159803	-87.904999	-48.018861	66.685314	-48.018861	66.685314	-0.159805	-87.905043
6.350000	-0.162133	-88.524185	-47.841838	65.197522	-47.841838	65.197522	-0.162134	-88.524230
6.400000	-0.164524	-89.141023	-47.665037	63.711310	-47.665037	63.711310	-0.164525	-89.141069
6.450000	-0.166921	-89.757647	-47.491469	62.225243	-47.491469	62.225243	-0.166923	-89.757694
6.500000	-0.169377	-90.372168	-47.318437	60.740664	-47.318437	60.740664	-0.169378	-90.372215
6.550000	-0.171844	-90.986267	-47.148224	59.256383	-47.148224	59.256383	-0.171845	-90.986316
6.600000	-0.174364	-91.598501	-46.978832	57.773484	-46.978832	57.773484	-0.174366	-91.598551
6.650000	-0.176903	-92.210114	-46.811880	56.291045	-46.811880	56.291045	-0.176905	-92.210165
6.700000	-0.179490	-92.820095	-46.646004	54.809868	-46.646004	54.809868	-0.179492	-92.820148
6.750000	-0.182102	-93.429261	-46.482220	53.329322	-46.482220	53.329322	-0.182104	-93.429315
6.800000	-0.184757	-94.037024	-46.319742	51.849905	-46.319742	51.849905	-0.184759	-94.037078
6.850000	-0.187444	-94.643784	-46.159038	50.371295	-46.159038	50.371295	-0.187446	-94.643840
6.900000	-0.190169	-95.249363	-45.999846	48.893672	-45.999846	48.893672	-0.190171	-95.249421
6.950000	-0.192932	-95.853762	-45.842137	47.417035	-45.842137	47.417035	-0.192934	-95.853820
7.000000	-0.195728	-96.457194	-45.686124	45.941232	-45.686124	45.941232	-0.195729	-96.457254
7.050000	-0.198569	-97.059274	-45.531327	44.466597	-45.531327	44.466597	-0.198571	-97.059335
7.100000	-0.201437	-97.660598	-45.378390	42.992637	-45.378390	42.992637	-0.201439	-97.660660
7.150000	-0.204358	-98.260407	-45.226425	41.520027	-45.226425	41.520027	-0.204360	-98.260470
7.200000	-0.207299	-98.859660	-45.076465	40.047926	-45.076465	40.047926	-0.207301	-98.859725
7.250000	-0.210301	-99.457245	-44.927256	38.577354	-44.927256	38.577354	-0.210303	-99.457312
7.300000	-0.213318	-100.054468	-44.780179	37.107123	-44.780179	37.107123	-0.213320	-100.054536
7.350000	-0.216403	-100.649879	-44.633649	35.638594	-44.633649	35.638594	-0.216405	-100.649948
7.400000	-0.219496	-101.245113	-44.489366	34.170236	-44.489366	34.170236	-0.219498	-101.245183
7.450000	-0.222666	-101.838399	-44.345444	32.703747	-44.345444	32.703747	-0.222668	-101.838471
7.500000	-0.225836	-102.431686	-44.203868	31.237259	-44.203868	31.237259	-0.225838	-102.431759
7.550000	-0.229092	-103.022900	-44.062484	29.772796	-44.062484	29.772796	-0.229094	-103.022974
7.600000	-0.232348	-103.614114	-43.923363	28.308334	-43.923363	28.308334	-0.232351	-103.614190
7.650000	-0.235684	-104.203477	-43.784616	26.845707	-43.784616	26.845707	-0.235687	-104.203555
7.700000	-0.239028	-104.792673	-43.647888	25.383247	-43.647888	25.383247	-0.239031	-104.792751
7.750000	-0.242446	-105.380231	-43.511697	23.922426	-43.511697	23.922426	-0.242449	-105.380311
7.800000	-0.245879	-105.967461	-43.377298	22.461934	-43.377298	22.461934	-0.245882	-105.967543
7.850000	-0.249380	-106.553260	-43.243587	21.002883	-43.243587	21.002883	-0.249382	-106.553344
7.900000	-0.252904	-107.138582	-43.111456	19.544312	-43.111456	19.544312	-0.252906	-107.138667
7.950000	-0.256488	-107.722670	-42.980151	18.086984	-42.980151	18.086984	-0.256491	-107.722756
8.000000	-0.260104	-108.306141	-42.850231	16.630278	-42.850231	16.630278	-0.260107	-108.306228
8.050000	-0.263774	-108.888565	-42.721260	15.174618	-42.721260	15.174618	-0.263777	-108.888654
8.100000	-0.267483	-109.470243	-42.593495	13.719706	-42.593495	13.719706	-0.267486	-109.470333
8.150000	-0.271239	-110.051053	-42.466791	12.265649	-42.466791	12.265649	-0.271242	-110.051146
8.200000	-0.275043	-110.630997	-42.341128	10.812449	-42.341128	10.812449	-0.275046	-110.631091
8.250000	-0.278887	-111.210244	-42.216626	9.359921	-42.216626	9.359921	-0.278890	-111.210340
8.300000	-0.282787	-111.788516	-42.093012	7.908337	-42.093012	7.908337	-0.282790	-111.788613
8.350000	-0.286720	-112.366250	-41.970651	6.457255	-41.970651	6.457255	-0.286723	-112.366349
8.400000	-0.290717	-112.942911	-41.849038	5.007178	-41.849038	5.007178	-0.290720	-112.943011
8.450000	-0.294739	-113.519186	-41.728760	3.557447	-41.728760	3.557447	-0.294742	-113.519287
8.500000	-0.298835	-114.094300	-41.609102	2.108755	-41.609102	2.108755	-0.298838	-114.094402
8.550000	-0.302948	-114.669166	-41.490850	0.660271	-41.490850	0.660271	-0.302951	-114.669271
8.600000	-0.307143	-115.242798	-41.373103	-0.787172	-41.373103	-0.787172	-0.307146	-115.242903
8.650000	-0.311348	-115.816311	-41.256826	-2.234523	-41.256826	-2.234523	-0.311351	-115.816418
8.700000	-0.315644	-116.388526	-41.140949	-3.680866	-41.140949	-3.680866	-0.315647	-116.388634
8.750000	-0.319942	-116.960740	-41.026597	-5.127209	-41.026597	-5.127209	-0.319945	-116.960850
8.800000	-0.324339	-117.531605	-40.912553	-6.572615	-40.912553	-6.572615	-0.324342	-117.531717
8.850000	-0.328739	-118.102470	-40.799986	-8.018022	-40.799986	-8.018022	-0.328742	-118.102583
8.900000	-0.333231	-118.672160	-40.687834	-9.462731	-40.687834	-9.462731	-0.333234	-118.672274
8.950000	-0.337733	-119.241743	-40.577019	-10.907377	-40.577019	-10.907377	-0.337736	-119.241859
9.000000	-0.342321	-119.810317	-40.466717	-12.351546	-40.466717	-12.351546	-0.342323	-119.810434
9.050000	-0.346927	-120.378688	-40.357625	-13.795621	-40.357625	-13.795621	-0.346929	-120.378807
9.100000	-0.351611	-120.946203	-40.249137	-15.239419	-40.249137	-15.239419	-0.351613	-120.946323
9.150000	-0.356322	-121.513433	-40.141740	-16.683125	-40.141740	-16.683125	-0.356324	-121.513555
9.200000	-0.361102	-122.079950	-40.035031	-18.126727	-40.035031	-18.126727	-0.361104	-122.080073
9.250000	-0.365918	-122.646111	-39.929309	-19.570278	-39.929309	-19.570278	-0.365920	-122.646235
9.300000	-0.370796	-123.211690	-39.824348	-21.013869	-39.824348	-21.013869	-0.370797	-123.211816
9.350000	-0.375718	-123.776854	-39.720282	-22.457489	-39.720282	-22.457489	-0.375719	-123.776982
9.400000	-0.380694	-124.341558	-39.617043	-23.901262	-39.617043	-23.901262	-0.380695	-124.341687
9.450000	-0.385723	-124.905801	-39.514618	-25.345188	-39.514618	-25.345188	-0.385724	-124.905931
9.500000	-0.390797	-125.469691	-39.413078	-26.789343	-39.413078	-26.789343	-0.390797	-125.469823
9.550000	-0.395934	-126.033088	-39.312285	-28.233818	-39.312285	-28.233818	-0.395933	-126.033221
9.600000	-0.401107	-126.596229	-39.212425	-29.678560	-39.212425	-29.678560	-0.401106	-126.596364
9.650000	-0.406351	-127.158858	-39.113258	-31.123838	-39.113258	-31.123838	-0.406350	-127.158994
9.700000	-0.411624	-127.721314	-39.015063	-32.569380	-39.015063	-32.569380	-0.411622	-127.721451
9.750000	-0.416976	-128.283253	-38.917524	-34.015717	-38.917524	-34.015717	-0.416973	-128.283391
9.800000	-0.422348	-128.845090	-38.820982	-35.462274	-38.820982	-35.462274	-0.422345	-128.845230
9.850000	-0.427808	-129.406418	-38.725076	-36.909934	-38.725076	-36.909934	-0.427805	-129.406560
9.900000	-0.433280	-129.967703	-38.630181	-38.357725	-38.630181	-38.357725	-0.433276	-129.967846
9.950000	-0.438849	-130.528504	-38.535918	-39.806973	-38.535918	-39.806973	-0.438844	-130.528648
10.000000	-0.444421	-131.089304	-38.442667	-41.256220	-38.442667	-41.256220	-0.444416	-131.089450
