! freq	dB(S11)	phase(S11)	dB(S12)	phase(S12)	
!     	dB(S21)	phase(S21)	dB(S22)	phase(S22)	
!S-par simulation data
#  GHz  S  DB  R 50
0.000000	-145.566498	0.000000	-0.000000	0.000000	0.000000	0.000000	-6153.053111	0.000000
0.050000	-35.085041	-93.155636	-0.004029	-3.080214	-0.004029	-3.080214	-35.090655	-93.067691
0.100000	-29.072053	-96.313827	-0.014362	-6.154563	-0.014362	-6.154563	-29.074752	-96.136237
0.150000	-25.562166	-99.474393	-0.028261	-9.217282	-0.028261	-9.217282	-25.560810	-99.206426
0.200000	-23.079334	-102.634878	-0.044210	-12.267699	-0.044210	-12.267699	-23.073403	-102.278985
0.250000	-21.160611	-105.792262	-0.061733	-15.308996	-0.061733	-15.308996	-21.150197	-105.354255
0.300000	-19.599900	-108.943924	-0.080890	-18.344218	-0.080890	-18.344218	-19.585657	-108.431869
0.350000	-18.287204	-112.087787	-0.101878	-21.375429	-0.101878	-21.375429	-18.270469	-111.509936
0.400000	-17.156619	-115.222435	-0.124862	-24.403792	-0.124862	-24.403792	-17.139419	-114.584142
0.450000	-16.165767	-118.346617	-0.150013	-27.429801	-0.150013	-27.429801	-16.150641	-117.646889
0.500000	-15.285508	-121.459565	-0.177434	-30.453660	-0.177434	-30.453660	-15.274845	-120.688231
0.550000	-14.494495	-124.561510	-0.207079	-33.475519	-0.207079	-33.475519	-14.489507	-123.701528
0.600000	-13.777640	-127.652023	-0.239086	-36.495270	-0.239086	-36.495270	-13.777963	-126.683536
0.650000	-13.122837	-130.731974	-0.273413	-39.512956	-0.273413	-39.512956	-13.126610	-129.641026
0.700000	-12.520846	-133.802361	-0.310076	-42.528573	-0.310076	-42.528573	-12.525632	-132.584430
0.750000	-11.964176	-136.864821	-0.349040	-45.542200	-0.349040	-45.542200	-11.967938	-135.523753
0.800000	-11.446832	-139.921241	-0.390281	-48.553950	-0.390281	-48.553950	-11.448370	-138.465190
0.850000	-10.964010	-142.973683	-0.433798	-51.563969	-0.433798	-51.563969	-10.962957	-141.411516
0.900000	-10.511618	-146.024335	-0.479532	-54.572509	-0.479532	-54.572509	-10.508229	-144.363085
0.950000	-10.086417	-149.075168	-0.527479	-57.579836	-0.527479	-57.579836	-10.081284	-147.319342
1.000000	-9.685694	-152.127928	-0.577626	-60.586293	-0.577626	-60.586293	-9.679533	-150.279401
1.050000	-9.307107	-155.183952	-0.629942	-63.592288	-0.629942	-63.592288	-9.300595	-153.242416
1.100000	-8.948695	-158.244198	-0.684414	-66.598282	-0.684414	-66.598282	-8.942386	-156.207800
1.150000	-8.608755	-161.309277	-0.741039	-69.604789	-0.741039	-69.604789	-8.603045	-159.175225
1.200000	-8.285779	-164.379532	-0.799818	-72.612383	-0.799818	-72.612383	-8.280906	-162.144597
1.250000	-7.978415	-167.455137	-0.860764	-75.621688	-0.860764	-75.621688	-7.974475	-165.116034
1.300000	-7.685469	-170.536251	-0.923916	-78.633421	-0.923916	-78.633421	-7.682449	-168.089865
1.350000	-7.405761	-173.622925	-0.989288	-81.648296	-0.989288	-81.648296	-7.403567	-171.066523
1.400000	-7.138240	-176.715341	-1.056924	-84.667098	-1.056924	-84.667098	-7.136731	-174.046591
1.450000	-6.881934	-179.813793	-1.126882	-87.690660	-1.126882	-87.690660	-6.880945	-177.030767
1.500000	-6.635937	177.081290	-1.199233	-90.719860	-1.199233	-90.719860	-6.635299	179.980156
1.550000	-6.399411	173.969336	-1.274063	-93.755622	-1.274063	-93.755622	-6.398964	176.985297
1.600000	-6.171598	170.849567	-1.351491	-96.798981	-1.351491	-96.798981	-6.171198	173.983636
1.650000	-5.951761	167.721174	-1.431630	-99.850916	-1.431630	-99.850916	-5.951289	170.974167
1.700000	-5.739255	164.583063	-1.514647	-102.912612	-1.514647	-102.912612	-5.738617	167.955668
1.750000	-5.533402	161.434608	-1.600614	-105.984716	-1.600614	-105.984716	-5.532529	164.927399
1.800000	-5.333703	158.274275	-1.689796	-109.068737	-1.689796	-109.068737	-5.332546	161.887792
1.850000	-5.139639	155.100782	-1.782411	-112.165885	-1.782411	-112.165885	-5.138172	158.835535
1.900000	-4.950710	151.913280	-1.878615	-115.276917	-1.878615	-115.276917	-4.948923	155.769746
1.950000	-4.766502	148.710343	-1.978691	-118.403138	-1.978691	-118.403138	-4.764401	152.689003
2.000000	-4.586646	145.490009	-2.083040	-121.546364	-2.083040	-121.546364	-4.584246	149.591356
2.050000	-4.410767	142.251719	-2.191845	-124.707032	-2.191845	-124.707032	-4.408094	146.476219
2.100000	-4.238563	138.994172	-2.305450	-127.886305	-2.305450	-127.886305	-4.235645	143.342283
2.150000	-4.069759	135.714934	-2.424440	-131.086433	-2.424440	-131.086433	-4.066631	140.187115
2.200000	-3.904110	132.413593	-2.549085	-134.307724	-2.549085	-134.307724	-3.900807	137.010251
2.250000	-3.741414	129.089008	-2.679828	-137.551194	-2.679828	-137.551194	-3.737968	133.810506
2.300000	-3.581488	125.739035	-2.817351	-140.818816	-2.817351	-140.818816	-3.577933	130.585686
2.350000	-3.424194	122.362690	-2.962186	-144.111461	-2.962186	-144.111461	-3.420558	127.334727
2.400000	-3.269427	118.959390	-3.114845	-147.429622	-3.114845	-147.429622	-3.265736	124.056953
2.450000	-3.117107	115.527507	-3.276118	-150.774778	-3.276118	-150.774778	-3.113379	120.750635
2.500000	-2.967183	112.065326	-3.446910	-154.148481	-3.446910	-154.148481	-2.963434	117.413934
2.550000	-2.819650	108.573038	-3.627812	-157.550480	-3.627812	-157.550480	-2.815890	114.046910
2.600000	-2.674522	105.049748	-3.819734	-160.981530	-3.819734	-160.981530	-2.670754	110.648527
2.650000	-2.531851	101.492932	-4.024106	-164.443880	-4.024106	-164.443880	-2.528075	107.216073
2.700000	-2.391713	97.903747	-4.241616	-167.936306	-4.241616	-167.936306	-2.387924	103.750562
2.750000	-2.254210	94.281719	-4.473466	-171.459074	-4.473466	-171.459074	-2.250397	100.251351
2.800000	-2.119506	90.625087	-4.721392	-175.013562	-4.721392	-175.013562	-2.115655	96.716449
2.850000	-1.987754	86.934604	-4.986649	-178.598766	-4.986649	-178.598766	-1.983849	93.146444
2.900000	-1.859124	83.210811	-5.270732	177.786199	-5.270732	177.786199	-1.855145	89.541707
2.950000	-1.733865	79.453081	-5.575752	174.141296	-5.575752	174.141296	-1.729792	85.901377
3.000000	-1.612237	75.661689	-5.903859	170.467465	-5.903859	170.467465	-1.608049	82.225522
3.050000	-1.494434	71.838376	-6.257008	166.767068	-6.257008	166.767068	-1.490110	78.515753
3.100000	-1.380772	67.983452	-6.638053	163.041496	-6.638053	163.041496	-1.376291	74.772159
3.150000	-1.271542	64.098107	-7.050009	159.293189	-7.050009	159.293189	-1.266886	70.995752
3.200000	-1.167025	60.183966	-7.496262	155.525313	-7.496262	155.525313	-1.162178	67.188005
3.250000	-1.067519	56.242769	-7.980821	151.741613	-7.980821	151.741613	-1.062467	63.350506
3.300000	-0.973317	52.276519	-8.508401	147.946680	-8.508401	147.946680	-0.968051	59.485123
3.350000	-0.884876	48.286785	-9.085083	144.146196	-9.085083	144.146196	-0.879389	55.593201
3.400000	-0.802207	44.277357	-9.716898	140.347499	-9.716898	140.347499	-0.796494	51.678596
3.450000	-0.725669	40.250437	-10.412551	136.559331	-10.412551	136.559331	-0.719732	47.743359
3.500000	-0.655497	36.208955	-11.182602	132.793135	-11.182602	132.793135	-0.649337	43.790352
3.550000	-0.591897	32.155999	-12.040657	129.064107	-12.040657	129.064107	-0.585519	39.822616
3.600000	-0.535040	28.094782	-13.004725	125.393249	-13.004725	125.393249	-0.528451	35.843332
3.650000	-0.485065	24.028590	-14.099437	121.811059	-14.099437	121.811059	-0.478270	31.855770
3.700000	-0.442068	19.960724	-15.359827	118.364603	-15.359827	118.364603	-0.435076	27.863235
3.750000	-0.406107	15.894442	-16.838239	115.132129	-16.838239	115.132129	-0.398924	23.868998
3.800000	-0.377347	11.833047	-18.617758	112.270728	-18.617758	112.270728	-0.369977	19.876321
3.850000	-0.355608	7.779415	-20.842484	110.093214	-20.842484	110.093214	-0.348053	15.888187
3.900000	-0.340817	3.736122	-23.794307	109.424288	-23.794307	109.424288	-0.333078	11.907222
3.950000	-0.332866	-0.294721	-28.125805	113.277389	-28.125805	113.277389	-0.324939	7.935589
4.000000	-0.331615	-4.311668	-35.122384	142.396182	-35.122384	142.396182	-0.323494	3.974793
4.050000	-0.336899	-8.314225	-34.206413	-138.793349	-34.206413	-138.793349	-0.328575	0.025385
4.100000	-0.348546	-12.303316	-27.739242	-115.906451	-27.739242	-115.906451	-0.340008	-3.913503
4.150000	-0.366405	-16.282088	-23.828810	-112.866782	-23.828810	-112.866782	-0.357641	-7.844973
4.200000	-0.390388	-20.257345	-21.189706	-113.645452	-21.189706	-113.645452	-0.381384	-11.775800
4.250000	-0.420683	-24.242604	-19.252312	-115.714048	-19.252312	-115.714048	-0.411432	-15.719544
4.300000	-0.458283	-28.266293	-17.781328	-118.312316	-17.781328	-118.312316	-0.448786	-19.704830
4.350000	-0.506232	-32.386600	-16.681666	-121.032225	-16.681666	-121.032225	-0.496525	-23.790248
4.400000	-0.578173	-36.756982	-15.987718	-123.246101	-15.987718	-123.246101	-0.568425	-28.130719
4.450000	-0.746161	-41.773071	-15.912222	-122.022153	-15.912222	-122.022153	-0.737268	-33.125964
4.500000	-1.561983	-46.443129	-14.389808	-101.732679	-14.389808	-101.732679	-1.561153	-37.772294
4.550000	-1.449083	-42.125722	-10.000388	-119.362016	-10.000388	-119.362016	-1.444009	-33.344672
4.600000	-1.033627	-46.398087	-9.844798	-131.897455	-9.844798	-131.897455	-1.024265	-37.600096
4.650000	-0.976186	-50.675102	-9.627452	-137.816942	-9.627452	-137.816942	-0.965600	-41.856562
4.700000	-0.997588	-54.595357	-9.301158	-142.212129	-9.301158	-142.212129	-0.986358	-45.753962
4.750000	-1.046176	-58.315245	-8.938108	-146.084628	-8.938108	-146.084628	-1.034495	-49.450325
4.800000	-1.107883	-61.911194	-8.570331	-149.721321	-8.570331	-149.721321	-1.095845	-53.022618
4.850000	-1.177308	-65.424393	-8.211316	-153.233083	-8.211316	-153.233083	-1.164969	-56.512148
4.900000	-1.252481	-68.872074	-7.866135	-156.661701	-7.866135	-156.661701	-1.239886	-59.936100
4.950000	-1.332264	-72.266460	-7.536784	-160.031032	-7.536784	-160.031032	-1.319451	-63.306571
5.000000	-1.416047	-75.615594	-7.223593	-163.354390	-7.223593	-163.354390	-1.403049	-66.631434
5.050000	-1.503544	-78.924469	-6.926209	-166.639246	-6.926209	-166.639246	-1.490393	-69.915479
5.100000	-1.594517	-82.198423	-6.643678	-169.891941	-6.643678	-169.891941	-1.581238	-73.163846
5.150000	-1.688895	-85.441026	-6.375003	-173.116395	-6.375003	-173.116395	-1.675510	-76.379896
5.200000	-1.786680	-88.655343	-6.119152	-176.315701	-6.119152	-176.315701	-1.773205	-79.566484
5.250000	-1.887929	-91.844102	-5.875115	-179.492446	-5.875115	-179.492446	-1.874376	-82.726128
5.300000	-1.992747	-95.009791	-5.641930	177.351092	-5.641930	177.351092	-1.979121	-85.861107
5.350000	-2.101279	-98.154727	-5.418702	174.212833	-5.418702	174.212833	-2.087579	-88.973530
5.400000	-2.213706	-101.281094	-5.204605	171.090829	-5.204605	171.090829	-2.199925	-92.065378
5.450000	-2.330245	-104.390972	-4.998883	167.983221	-4.998883	167.983221	-2.316368	-95.138529
5.500000	-2.451144	-107.486353	-4.800848	164.888214	-4.800848	164.888214	-2.437151	-98.194774
5.550000	-2.576687	-110.569155	-4.609880	161.804060	-4.609880	161.804060	-2.562551	-101.235830
5.600000	-2.707190	-113.641229	-4.425421	158.729053	-4.425421	158.729053	-2.692878	-104.263345
5.650000	-2.843038	-116.704287	-4.246991	155.661587	-4.246991	155.661587	-2.828514	-107.278786
5.700000	-2.984625	-119.760116	-4.074141	152.599970	-4.074141	152.599970	-2.969847	-110.283719
5.750000	-3.132337	-122.810483	-3.906456	149.542525	-3.906456	149.542525	-3.117260	-113.279716
5.800000	-3.286632	-125.857004	-3.743592	146.487691	-3.743592	146.487691	-3.271211	-116.268149
5.850000	-3.448012	-128.901235	-3.585253	143.433949	-3.585253	143.433949	-3.432199	-119.250313
5.900000	-3.617022	-131.944677	-3.431184	140.379828	-3.431184	140.379828	-3.600771	-122.227423
5.950000	-3.794253	-134.988771	-3.281170	137.323902	-3.281170	137.323902	-3.777518	-125.200599
6.000000	-3.980350	-138.034894	-3.135035	134.264807	-3.135035	134.264807	-3.963087	-128.170866
6.050000	-4.176014	-141.084357	-2.992638	131.201235	-2.992638	131.201235	-4.158184	-131.139134
6.100000	-4.382011	-144.138399	-2.853870	128.131951	-2.853870	128.131951	-4.363574	-134.106190
6.150000	-4.599175	-147.198181	-2.718655	125.055795	-2.718655	125.055795	-4.580098	-137.072681
6.200000	-4.828420	-150.264781	-2.586947	121.971689	-2.586947	121.971689	-4.808672	-140.039092
6.250000	-5.070748	-153.339180	-2.458726	118.878649	-2.458726	118.878649	-5.050300	-143.005733
6.300000	-5.327421	-156.422469	-2.334040	115.775556	-2.334040	115.775556	-5.306248	-145.972707
6.350000	-5.599510	-159.515237	-2.212886	112.661837	-2.212886	112.661837	-5.577586	-148.939858
6.400000	-5.888362	-162.618120	-2.095318	109.536838	-2.095318	109.536838	-5.865658	-151.906756
6.450000	-6.195472	-165.731614	-1.981413	106.400035	-1.981413	106.400035	-6.171956	-154.872656
6.500000	-6.522512	-168.856061	-1.871260	103.251036	-1.871260	103.251036	-6.498142	-157.836436
6.550000	-6.871360	-171.991634	-1.764968	100.089593	-1.764968	100.089593	-6.846079	-160.796535
6.600000	-7.244137	-175.138317	-1.662656	96.915603	-1.662656	96.915603	-7.217867	-163.750872
6.650000	-7.643257	-178.295886	-1.564456	93.729122	-1.564456	93.729122	-7.615889	-166.696733
6.700000	-8.071486	178.536118	-1.470507	90.530364	-1.470507	90.530364	-8.042869	-169.630634
6.750000	-8.532026	175.358418	-1.380951	87.319707	-1.380951	87.319707	-8.501948	-172.548138
6.800000	-9.028617	172.172037	-1.295934	84.097694	-1.295934	84.097694	-8.996785	-175.443602
6.850000	-9.565679	168.978349	-1.215601	80.865035	-1.215601	80.865035	-9.531682	-178.309830
6.900000	-10.148604	165.779106	-1.140140	77.622508	-1.140140	77.622508	-10.111866	178.862974
6.950000	-10.783808	162.576707	-1.069691	74.371185	-1.069691	74.371185	-10.743510	176.087364
7.000000	-11.479107	159.374214	-1.004333	71.112368	-1.004333	71.112368	-11.434086	173.379138
7.050000	-12.244474	156.175520	-0.944173	67.847393	-0.944173	67.847393	-12.193037	170.760228
7.100000	-13.092743	152.985783	-0.889304	64.577730	-0.889304	64.577730	-13.032366	168.261096
7.150000	-14.040869	149.812048	-0.839802	61.304963	-0.839802	61.304963	-13.967674	165.925411
7.200000	-15.111961	146.664384	-0.795718	58.030778	-0.795718	58.030778	-15.019747	163.818264
7.250000	-16.338744	143.558034	-0.757085	54.756943	-0.757085	54.756943	-16.217078	162.041344
7.300000	-17.769853	140.517873	-0.723907	51.485289	-0.723907	51.485289	-17.599993	160.762990
7.350000	-19.482276	137.588586	-0.696166	48.217689	-0.696166	48.217689	-19.227489	160.282643
7.400000	-21.608925	134.861436	-0.673816	44.956037	-0.673816	44.956037	-21.188159	161.183335
7.450000	-24.410675	132.560265	-0.656786	41.702225	-0.656786	41.702225	-23.612188	164.734361
7.500000	-28.521153	131.419643	-0.644976	38.458123	-0.644976	38.458123	-26.634665	174.046337
7.550000	-36.328307	136.931243	-0.638371	35.225848	-0.638371	35.225848	-29.798150	-162.829550
7.600000	-40.826409	-98.463440	-0.636706	32.006944	-0.636706	32.006944	-30.247568	-124.827856
7.650000	-30.581338	-71.475291	-0.639807	28.803084	-0.639807	28.803084	-27.442981	-98.235668
7.700000	-25.851605	-71.466811	-0.647481	25.615837	-0.647481	25.615837	-24.455293	-86.691358
7.750000	-22.849834	-73.425357	-0.659512	22.446659	-0.659512	22.446659	-22.046895	-82.147153
7.800000	-20.664817	-75.951845	-0.675669	19.296877	-0.675669	19.296877	-20.127694	-80.703118
7.850000	-18.958141	-78.712797	-0.695708	16.167683	-0.695708	16.167683	-18.562311	-80.807868
7.900000	-17.566764	-81.586598	-0.719370	13.060121	-0.719370	13.060121	-17.255022	-81.774630
7.950000	-16.399519	-84.517947	-0.746389	9.975091	-0.746389	9.975091	-16.141922	-83.260908
8.000000	-15.400193	-87.477945	-0.776491	6.913337	-0.776491	6.913337	-15.179521	-85.078641
8.050000	-14.531632	-90.449983	-0.809398	3.875452	-0.809398	3.875452	-14.337252	-87.116514
8.100000	-13.767960	-93.423859	-0.844829	0.861879	-0.844829	0.861879	-13.592935	-89.304639
8.150000	-13.090675	-96.392919	-0.882525	-2.126820	-0.882525	-2.126820	-12.930264	-91.597812
8.200000	-12.485656	-99.352741	-0.922195	-5.090491	-0.922195	-5.090491	-12.336520	-93.963903
8.250000	-11.941787	-102.300573	-0.963545	-8.029399	-0.963545	-8.029399	-11.801516	-96.380147
8.300000	-11.450537	-105.234570	-1.006307	-10.943669	-1.006307	-10.943669	-11.317340	-98.830889
8.350000	-11.005618	-108.153124	-1.050238	-13.832852	-1.050238	-13.832852	-10.878124	-101.305001
8.400000	-10.599471	-111.057210	-1.095024	-16.699765	-1.095024	-16.699765	-10.476677	-103.792600
8.450000	-10.230382	-113.944126	-1.140500	-19.541185	-1.140500	-19.541185	-10.111443	-106.288788
8.500000	-9.892032	-116.816080	-1.186388	-22.360833	-1.186388	-22.360833	-9.776333	-108.787850
8.550000	-9.582465	-119.672180	-1.232475	-25.157606	-1.232475	-25.157606	-9.469499	-111.286262
8.600000	-9.298539	-122.513244	-1.278554	-27.932668	-1.278554	-27.932668	-9.187908	-113.781313
8.650000	-9.037275	-125.340517	-1.324440	-30.687640	-1.324440	-30.687640	-8.928670	-116.271154
8.700000	-8.797921	-128.153495	-1.369894	-33.421440	-1.369894	-33.421440	-8.691082	-118.753734
8.750000	-8.576579	-130.955098	-1.414858	-36.137982	-1.414858	-36.137982	-8.471319	-121.229196
8.800000	-8.374320	-133.743851	-1.458978	-38.834355	-1.458978	-38.834355	-8.270471	-123.695163
8.850000	-8.187118	-136.523220	-1.502321	-41.515339	-1.502321	-41.515339	-8.084564	-126.153120
8.900000	-8.015500	-139.292850	-1.544575	-44.179439	-1.544575	-44.179439	-7.914145	-128.601618
8.950000	-7.857271	-142.054803	-1.585739	-46.829248	-1.585739	-46.829248	-7.757042	-131.041619
9.000000	-7.711831	-144.810058	-1.625651	-49.465339	-1.625651	-49.465339	-7.612676	-133.473057
9.050000	-7.578454	-147.559798	-1.664184	-52.088616	-1.664184	-52.088616	-7.480334	-135.896175
9.100000	-7.455609	-150.305697	-1.701372	-54.701163	-1.701372	-54.701163	-7.358499	-138.312089
9.150000	-7.343752	-153.048652	-1.736920	-57.302736	-1.736920	-57.302736	-7.247640	-140.720425
9.200000	-7.240741	-155.790361	-1.771058	-59.896194	-1.771058	-59.896194	-7.145622	-143.123018
9.250000	-7.147525	-158.532057	-1.803403	-62.481161	-1.803403	-62.481161	-7.053408	-145.519473
9.300000	-7.062201	-161.275001	-1.834219	-65.060121	-1.834219	-65.060121	-6.969096	-147.911499
9.350000	-6.985124	-164.020740	-1.863273	-67.633598	-1.863273	-67.633598	-6.893055	-150.299410
9.400000	-6.915421	-166.770406	-1.890653	-70.203092	-1.890653	-70.203092	-6.824417	-152.684276
9.450000	-6.852671	-169.525294	-1.916355	-72.769822	-1.916355	-72.769822	-6.762771	-155.066978
9.500000	-6.796851	-172.287032	-1.940282	-75.334886	-1.940282	-75.334886	-6.708105	-157.448325
9.550000	-6.746897	-175.056019	-1.962656	-77.899594	-1.962656	-77.899594	-6.659358	-159.829319
9.600000	-6.703481	-177.834970	-1.983207	-80.465222	-1.983207	-80.465222	-6.617228	-162.210925
9.650000	-6.665209	179.376776	-2.002303	-83.032706	-2.002303	-83.032706	-6.580318	-164.593894
9.700000	-6.632718	176.576201	-2.019714	-85.603679	-2.019714	-85.603679	-6.549296	-166.979497
9.750000	-6.605040	173.763806	-2.035718	-88.178809	-2.035718	-88.178809	-6.523198	-169.368291
9.800000	-6.582294	170.937550	-2.050277	-90.759609	-2.050277	-90.759609	-6.502172	-171.761489
9.850000	-6.564145	168.096711	-2.063507	-93.347079	-2.063507	-93.347079	-6.485902	-174.159920
9.900000	-6.550187	165.240942	-2.075560	-95.942024	-2.075560	-95.942024	-6.474002	-176.564272
9.950000	-6.540598	162.367834	-2.086439	-98.546304	-2.086439	-98.546304	-6.466699	-178.976085
10.000000	-6.534548	159.479191	-2.096428	-101.159476	-2.096428	-101.159476	-6.463156	178.604932
