! freq	dB(S11)	phase(S11)	dB(S12)	phase(S12)	
!     	dB(S21)	phase(S21)	dB(S22)	phase(S22)	
!S-par simulation data
#  GHz  S  DB  R 50
0.000000	-81.981210	0.000000	-0.000691	0.000000	-0.000691	0.000000	-81.981210	0.000000
0.050000	-43.304831	-92.610962	-0.005391	-3.034107	-0.005391	-3.034107	-43.259377	-90.321309
0.100000	-37.418205	-97.247446	-0.012277	-6.027651	-0.012277	-6.027651	-37.362089	-92.200930
0.150000	-33.975668	-101.927912	-0.017911	-9.006638	-0.017911	-9.006638	-33.930548	-94.325742
0.200000	-31.529864	-106.534226	-0.023118	-11.982787	-0.023118	-11.982787	-31.483652	-96.410386
0.250000	-29.638769	-111.056828	-0.028459	-14.957558	-0.028459	-14.957558	-29.588375	-98.366814
0.300000	-28.105059	-115.521113	-0.034128	-17.930667	-0.034128	-17.930667	-28.052263	-100.233727
0.350000	-26.821513	-119.948896	-0.040114	-20.901859	-0.040114	-20.901859	-26.768044	-102.042684
0.400000	-25.722988	-124.356055	-0.046351	-23.871131	-0.046351	-23.871131	-25.669912	-103.810640
0.450000	-24.772055	-128.752105	-0.052800	-26.838214	-0.052800	-26.838214	-24.720157	-105.537790
0.500000	-23.935359	-133.147601	-0.059362	-29.803699	-0.059362	-29.803699	-23.885052	-107.233697
0.550000	-23.194392	-137.549537	-0.065996	-32.767735	-0.065996	-32.767735	-23.146111	-108.895690
0.600000	-22.534292	-141.964555	-0.072661	-35.730644	-0.072661	-35.730644	-22.488525	-110.521949
0.650000	-21.940724	-146.396281	-0.079330	-38.692865	-0.079330	-38.692865	-21.897928	-112.114892
0.700000	-21.408232	-150.853401	-0.085982	-41.654646	-0.085982	-41.654646	-21.369102	-113.666279
0.750000	-20.926554	-155.337798	-0.092610	-44.616346	-0.092610	-44.616346	-20.891723	-115.178713
0.800000	-20.489930	-159.854162	-0.099206	-47.578238	-0.099206	-47.578238	-20.460093	-116.649702
0.850000	-20.095217	-164.410348	-0.105761	-50.540621	-0.105761	-50.540621	-20.071215	-118.073098
0.900000	-19.737063	-169.009312	-0.112272	-53.503743	-0.112272	-53.503743	-19.719673	-119.449210
0.950000	-19.412156	-173.656367	-0.118734	-56.467864	-0.118734	-56.467864	-19.402118	-120.775868
1.000000	-19.117492	-178.356636	-0.125138	-59.433244	-0.125138	-59.433244	-19.115358	-122.052011
1.050000	-18.850442	176.884646	-0.131478	-62.400152	-0.131478	-62.400152	-18.856257	-123.277401
1.100000	-18.608665	172.062130	-0.137743	-65.368873	-0.137743	-65.368873	-18.621309	-124.451455
1.150000	-18.390036	167.170358	-0.143927	-68.339712	-0.143927	-68.339712	-18.406276	-125.568262
1.200000	-18.192593	162.203776	-0.150020	-71.312996	-0.150020	-71.312996	-18.206953	-126.607061
1.250000	-18.014485	157.156765	-0.156018	-74.289078	-0.156018	-74.289078	-18.022197	-127.533058
1.300000	-17.854210	152.021676	-0.161915	-77.268410	-0.161915	-77.268410	-17.855510	-128.325361
1.350000	-17.709672	146.794643	-0.167712	-80.251333	-0.167712	-80.251333	-17.708615	-129.002195
1.400000	-17.579105	141.470175	-0.173415	-83.238268	-0.173415	-83.238268	-17.579526	-129.582306
1.450000	-17.460707	136.043009	-0.179032	-86.229652	-0.179032	-86.229652	-17.464742	-130.071710
1.500000	-17.352617	130.508241	-0.184580	-89.225935	-0.184580	-89.225935	-17.360982	-130.468020
1.550000	-17.252896	124.861495	-0.190080	-92.227575	-0.190080	-92.227575	-17.265436	-130.766403
1.600000	-17.159510	119.099122	-0.195558	-95.235032	-0.195558	-95.235032	-17.175575	-130.962388
1.650000	-17.070326	113.218427	-0.201050	-98.248763	-0.201050	-98.248763	-17.088966	-131.052846
1.700000	-16.983108	107.217925	-0.206598	-101.269215	-0.206598	-101.269215	-17.003183	-131.036344
1.750000	-16.895533	101.097614	-0.212248	-104.296820	-0.212248	-104.296820	-16.915763	-130.913357
1.800000	-16.805215	94.859247	-0.218056	-107.331990	-0.218056	-107.331990	-16.824218	-130.686456
1.850000	-16.709740	88.506589	-0.224082	-110.375110	-0.224082	-110.375110	-16.726061	-130.360499
1.900000	-16.606594	82.044546	-0.230398	-113.426627	-0.230398	-113.426627	-16.618719	-129.941885
1.950000	-16.493392	75.481842	-0.237078	-116.486867	-0.237078	-116.486867	-16.499802	-129.440834
2.000000	-16.368097	68.830568	-0.244197	-119.556011	-0.244197	-119.556011	-16.367322	-128.870781
2.050000	-16.228823	62.103916	-0.251837	-122.634286	-0.251837	-122.634286	-16.219475	-128.246434
2.100000	-16.074007	55.317096	-0.260082	-125.721870	-0.260082	-125.721870	-16.054820	-127.584428
2.150000	-15.902480	48.486939	-0.269021	-128.818888	-0.269021	-128.818888	-15.872352	-126.902838
2.200000	-15.713514	41.631366	-0.278742	-131.925412	-0.278742	-131.925412	-15.671543	-126.220572
2.250000	-15.506852	34.768775	-0.289336	-135.041458	-0.289336	-135.041458	-15.452365	-125.556693
2.300000	-15.282716	27.917390	-0.300893	-138.166985	-0.300893	-138.166985	-15.215278	-124.929718
2.350000	-15.041776	21.094623	-0.313503	-141.301897	-0.313503	-141.301897	-14.961194	-124.356975
2.400000	-14.785109	14.316515	-0.327254	-144.446041	-0.327254	-144.446041	-14.691420	-123.854042
2.450000	-14.514131	7.597282	-0.342230	-147.599209	-0.342230	-147.599209	-14.407579	-123.434334
2.500000	-14.230514	0.949008	-0.358512	-150.761140	-0.358512	-150.761140	-14.111520	-123.108846
2.550000	-13.935697	-5.616593	-0.376209	-153.931697	-0.376209	-153.931697	-13.804821	-122.888411
2.600000	-13.632107	-12.093758	-0.395363	-157.110327	-0.395363	-157.110327	-13.490021	-122.776786
2.650000	-13.321724	-18.477393	-0.416041	-160.296623	-0.416041	-160.296623	-13.169169	-122.777457
2.700000	-13.006486	-24.764424	-0.438300	-163.490139	-0.438300	-163.490139	-12.844239	-122.891826
2.750000	-12.688240	-30.953552	-0.462192	-166.690392	-0.462192	-166.690392	-12.517086	-123.119498
2.800000	-12.368710	-37.044980	-0.487761	-169.896870	-0.487761	-169.896870	-12.189421	-123.458582
2.850000	-12.049472	-43.040137	-0.515041	-173.109036	-0.515041	-173.109036	-11.862788	-123.905978
2.900000	-11.731944	-48.941414	-0.544060	-176.326331	-0.544060	-176.326331	-11.538560	-124.457664
2.950000	-11.417376	-54.751924	-0.574836	-179.548184	-0.574836	-179.548184	-11.217936	-125.108935
3.000000	-11.106859	-60.475291	-0.607377	177.225988	-0.607377	177.225988	-10.901951	-125.854622
3.050000	-10.801328	-66.115475	-0.641683	173.996768	-0.641683	173.996768	-10.591481	-126.689275
3.100000	-10.501569	-71.676626	-0.677746	170.764741	-0.677746	170.764741	-10.287256	-127.607306
3.150000	-10.208207	-77.162202	-0.715564	167.530464	-0.715564	167.530464	-9.989848	-128.603896
3.200000	-9.921802	-82.576556	-0.755108	164.294520	-0.755108	164.294520	-9.699768	-129.673335
3.250000	-9.642810	-87.924622	-0.796325	161.057477	-0.796325	161.057477	-9.417425	-130.809412
3.300000	-9.371548	-93.210398	-0.839171	157.819858	-0.839171	157.819858	-9.143099	-132.006966
3.350000	-9.108260	-98.436141	-0.883628	154.582172	-0.883628	154.582172	-8.877002	-133.262565
3.400000	-8.853050	-103.611054	-0.929508	151.344836	-0.929508	151.344836	-8.619205	-134.566329
3.450000	-8.606133	-108.730456	-0.976933	148.108390	-0.976933	148.108390	-8.369912	-135.921483
3.500000	-8.367393	-113.804420	-1.025671	144.873099	-1.025671	144.873099	-8.128983	-137.317699
3.550000	-8.136953	-118.832443	-1.075723	141.639425	-1.075723	141.639425	-7.896531	-138.754398
3.600000	-7.914727	-123.818314	-1.126981	138.407652	-1.126981	138.407652	-7.672460	-140.227296
3.650000	-7.700545	-128.766360	-1.179320	135.177972	-1.179320	135.177972	-7.456594	-141.731813
3.700000	-7.494579	-133.675557	-1.232709	131.950833	-1.232709	131.950833	-7.249106	-143.267941
3.750000	-7.296233	-138.553778	-1.286949	128.726028	-1.286949	128.726028	-7.049384	-144.828606
3.800000	-7.106091	-143.396427	-1.342033	125.504250	-1.342033	125.504250	-6.858028	-146.416700
3.850000	-6.923265	-148.212285	-1.397759	122.284997	-1.397759	122.284997	-6.674129	-148.024919
3.900000	-6.748306	-152.998210	-1.454047	119.068808	-1.454047	119.068808	-6.498252	-149.655096
3.950000	-6.580523	-157.759895	-1.510750	115.855262	-1.510750	115.855262	-6.329687	-151.302686
4.000000	-6.419957	-162.497926	-1.567742	112.644404	-1.567742	112.644404	-6.168474	-152.966991
4.050000	-6.266466	-167.214055	-1.624886	109.436092	-1.624886	109.436092	-6.014464	-154.646584
4.100000	-6.119917	-171.909953	-1.682038	106.230122	-1.682038	106.230122	-5.867516	-156.340217
4.150000	-5.980185	-176.587214	-1.739049	103.026225	-1.739049	103.026225	-5.727492	-158.046812
4.200000	-5.847155	178.752624	-1.795761	99.824067	-1.795761	99.824067	-5.594269	-159.765449
4.250000	-5.720727	174.108069	-1.852011	96.623239	-1.852011	96.623239	-5.467731	-161.495359
4.300000	-5.600614	169.477148	-1.907676	93.423247	-1.907676	93.423247	-5.347575	-163.235505
4.350000	-5.486950	164.859065	-1.962539	90.223581	-1.962539	90.223581	-5.233922	-164.985859
4.400000	-5.379873	160.252696	-2.016350	87.023534	-2.016350	87.023534	-5.126894	-166.746389
4.450000	-5.279390	155.656469	-2.068884	83.822267	-2.068884	83.822267	-5.026476	-168.516883
4.500000	-5.185073	151.068086	-2.120060	80.619012	-2.120060	80.619012	-4.932220	-170.296444
4.550000	-5.096929	146.486079	-2.169672	77.412862	-2.169672	77.412862	-4.844112	-172.085062
4.600000	-5.015347	141.909076	-2.217359	74.202459	-2.217359	74.202459	-4.762512	-173.883409
4.650000	-4.940633	137.335139	-2.262763	70.986195	-2.262763	70.986195	-4.687692	-175.692041
4.700000	-4.872350	132.761916	-2.305846	67.763119	-2.305846	67.763119	-4.619192	-177.510315
4.750000	-4.810646	128.187295	-2.346343	64.531681	-2.346343	64.531681	-4.557124	-179.338584
4.800000	-4.756040	123.608598	-2.383812	61.289544	-2.383812	61.289544	-4.501953	178.822198
4.850000	-4.709310	119.022162	-2.417668	58.033477	-2.417668	58.033477	-4.454381	176.970682
4.900000	-4.670036	114.425337	-2.447944	54.762355	-2.447944	54.762355	-4.413953	175.107505
4.950000	-4.638629	109.814521	-2.474289	51.473506	-2.474289	51.473506	-4.381003	173.232033
5.000000	-4.615879	105.184827	-2.496174	48.163099	-2.496174	48.163099	-4.356214	171.343140
5.050000	-4.603420	100.528224	-2.512654	44.824542	-2.512654	44.824542	-4.341027	169.438637
5.100000	-4.600929	95.841430	-2.523883	41.456514	-2.523883	41.456514	-4.335042	167.519558
5.150000	-4.609359	91.117677	-2.529399	38.054240	-2.529399	38.054240	-4.339034	165.585261
5.200000	-4.630096	86.348143	-2.528603	34.611456	-2.528603	34.611456	-4.354141	163.634942
5.250000	-4.666585	81.514585	-2.520012	31.114541	-2.520012	31.114541	-4.383286	161.666138
5.300000	-4.718847	76.612311	-2.504016	27.561859	-2.504016	27.561859	-4.426281	159.681318
5.350000	-4.789157	71.627483	-2.480060	23.944435	-2.480060	23.944435	-4.484901	157.681183
5.400000	-4.880356	66.543450	-2.447575	20.251745	-2.447575	20.251745	-4.561328	155.667300
5.450000	-5.000345	61.316999	-2.404419	16.455062	-2.404419	16.455062	-4.661856	153.641589
5.500000	-5.150502	55.939030	-2.351528	12.552010	-2.351528	12.552010	-4.787069	151.612042
5.550000	-5.336941	50.377379	-2.288495	8.524776	-2.288495	8.524776	-4.941295	149.588002
5.600000	-5.567417	44.592856	-2.215097	4.353000	-2.215097	4.353000	-5.129806	147.583965
5.650000	-5.859063	38.494847	-2.129933	-0.011585	-2.129933	-0.011585	-5.364379	145.630941
5.700000	-6.222269	32.037244	-2.034662	-4.583330	-2.034662	-4.583330	-5.650369	143.766336
5.750000	-6.682979	25.087462	-1.929761	-9.416406	-1.929761	-9.416406	-6.002471	142.067648
5.800000	-7.267023	17.525750	-1.817949	-14.541910	-1.817949	-14.541910	-6.431556	140.634960
5.850000	-8.024656	9.080379	-1.702661	-20.032187	-1.702661	-20.032187	-6.956722	139.674817
5.900000	-9.015243	-0.572813	-1.589997	-25.929855	-1.589997	-25.929855	-7.588356	139.460629
5.950000	-10.345650	-12.205983	-1.489521	-32.322726	-1.489521	-32.322726	-8.329662	140.535772
6.000000	-12.151946	-27.152661	-1.413931	-39.255632	-1.413931	-39.255632	-9.139051	143.569947
6.050000	-14.572112	-48.974895	-1.382468	-46.797913	-1.382468	-46.797913	-9.875544	149.477398
6.100000	-17.065705	-85.727563	-1.420096	-54.980664	-1.420096	-54.980664	-10.231689	158.522807
6.150000	-16.673880	-136.761058	-1.556327	-63.780711	-1.556327	-63.780711	-9.862275	168.915354
6.200000	-13.344745	-175.142336	-1.822934	-73.106312	-1.822934	-73.106312	-8.759397	177.262082
6.250000	-10.129513	160.633861	-2.247943	-82.782196	-2.247943	-82.782196	-7.296393	-178.443531
6.300000	-7.648392	142.755772	-2.849746	-92.564320	-2.849746	-92.564320	-5.840725	-177.930304
6.350000	-5.792915	127.947280	-3.632341	-102.176046	-3.632341	-102.176046	-4.578168	179.963349
6.400000	-4.415021	115.020829	-4.583144	-111.367485	-4.583144	-111.367485	-3.559389	176.348332
6.450000	-3.398005	103.531220	-5.680048	-119.950746	-5.680048	-119.950746	-2.771439	171.995545
6.500000	-2.647993	93.235626	-6.897530	-127.833433	-6.897530	-127.833433	-2.175290	167.399100
6.550000	-2.093899	83.970347	-8.215729	-134.995553	-8.215729	-134.995553	-1.729138	162.829224
6.600000	-1.688419	75.643967	-9.612233	-141.421411	-9.612233	-141.421411	-1.401289	158.437327
6.650000	-1.386475	68.087230	-11.085846	-147.190566	-11.085846	-147.190566	-1.157480	154.273606
6.700000	-1.161732	61.218744	-12.631897	-152.317854	-12.631897	-152.317854	-0.977483	150.358896
6.750000	-0.993158	54.934858	-14.256197	-156.832339	-14.256197	-156.832339	-0.844203	146.683899
6.800000	-0.865559	49.143352	-15.976409	-160.753735	-15.976409	-160.753735	-0.744900	143.225064
6.850000	-0.768047	43.770220	-17.821690	-164.059534	-17.821690	-164.059534	-0.670501	139.956444
6.900000	-0.693691	38.769620	-19.822666	-166.625728	-19.822666	-166.625728	-0.615206	136.860302
6.950000	-0.635962	34.076111	-22.053840	-168.264294	-22.053840	-168.264294	-0.573532	133.907140
7.000000	-0.591781	29.670974	-24.581503	-168.288737	-24.581503	-168.288737	-0.542862	131.087610
7.050000	-0.556544	25.481756	-27.616227	-165.745065	-27.616227	-165.745065	-0.519363	128.366942
7.100000	-0.528830	21.496826	-31.362787	-157.353277	-31.362787	-157.353277	-0.501821	125.738247
7.150000	-0.507010	17.692550	-35.657481	-134.295875	-35.657481	-134.295875	-0.488866	123.189001
7.200000	-0.490093	14.058559	-36.801639	-90.702056	-36.801639	-90.702056	-0.479645	120.712373
7.250000	-0.476946	10.572829	-33.778311	-61.701184	-33.778311	-61.701184	-0.473223	118.296640
7.300000	-0.466670	7.213676	-30.860502	-50.356086	-30.860502	-50.356086	-0.468874	115.930771
7.350000	-0.458734	3.969087	-28.677613	-46.114809	-28.677613	-46.114809	-0.466166	113.608056
7.400000	-0.452718	0.828661	-27.029507	-44.794718	-27.029507	-44.794718	-0.464768	111.322657
7.450000	-0.448296	-2.216662	-25.743054	-44.865554	-25.743054	-44.865554	-0.464423	109.069478
7.500000	-0.445204	-5.174820	-24.708617	-45.680280	-24.708617	-45.680280	-0.464931	106.844049
7.550000	-0.443323	-8.046148	-23.862579	-46.953067	-23.862579	-46.953067	-0.466193	104.644305
7.600000	-0.442389	-10.843348	-23.151934	-48.477302	-23.151934	-48.477302	-0.468029	102.464650
7.650000	-0.442271	-13.572022	-22.545262	-50.165062	-22.545262	-50.165062	-0.470354	100.301952
7.700000	-0.442866	-16.237190	-22.020199	-51.962071	-22.020199	-51.962071	-0.473100	98.153414
7.750000	-0.444090	-18.843373	-21.560310	-53.833512	-21.560310	-53.833512	-0.476222	96.016524
7.800000	-0.445879	-21.394674	-21.153186	-55.756370	-21.153186	-55.756370	-0.479687	93.889010
7.850000	-0.448183	-23.894836	-20.789245	-57.715074	-20.789245	-57.715074	-0.483475	91.768803
7.900000	-0.450964	-26.347296	-20.460931	-59.698915	-20.460931	-59.698915	-0.487576	89.653997
7.950000	-0.454194	-28.755230	-20.162184	-61.700450	-20.162184	-61.700450	-0.491990	87.542829
8.000000	-0.457853	-31.121593	-19.888060	-63.714488	-19.888060	-63.714488	-0.496726	85.433642
8.050000	-0.461931	-33.449156	-19.634466	-65.737427	-19.634466	-65.737427	-0.501801	83.324865
8.100000	-0.466422	-35.740531	-19.397968	-67.766809	-19.397968	-67.766809	-0.507240	81.214985
8.150000	-0.471329	-37.998204	-19.175639	-69.801010	-19.175639	-69.801010	-0.513080	79.102526
8.200000	-0.476659	-40.224561	-18.964960	-71.839033	-18.964960	-71.839033	-0.519366	76.986015
8.250000	-0.482424	-42.421911	-18.763725	-73.880346	-18.763725	-73.880346	-0.526158	74.863964
8.300000	-0.488646	-44.592510	-18.569982	-75.924775	-18.569982	-75.924775	-0.533532	72.734826
8.350000	-0.495398	-46.736601	-18.381922	-77.972758	-18.381922	-77.972758	-0.541667	70.595868
8.400000	-0.502600	-48.860715	-18.198141	-80.023777	-18.198141	-80.023777	-0.550495	68.447836
8.450000	-0.510466	-50.962195	-18.016388	-82.079456	-18.016388	-82.079456	-0.560517	66.284432
8.500000	-0.518711	-53.052163	-17.837016	-84.137757	-17.837016	-84.137757	-0.571272	64.111932
8.550000	-0.527891	-55.120048	-17.656260	-86.202469	-17.656260	-86.202469	-0.584081	61.914929
8.600000	-0.537726	-57.178548	-17.474576	-88.270602	-17.474576	-88.270602	-0.598697	59.699098
8.650000	-0.548190	-59.228059	-17.292286	-90.342009	-17.292286	-90.342009	-0.615052	57.465238
8.700000	-0.559775	-61.268958	-17.105145	-92.415460	-17.105145	-92.415460	-0.635357	55.196406
8.750000	-0.572585	-63.305620	-16.912456	-94.485141	-16.912456	-94.485141	-0.661060	52.887424
8.800000	-0.586719	-65.342206	-16.713874	-96.540762	-16.713874	-96.540762	-0.694306	50.533570
8.850000	-0.602469	-67.382302	-16.507730	-98.562621	-16.507730	-98.562621	-0.739579	48.125780
8.900000	-0.620436	-69.430405	-16.289040	-100.501900	-16.289040	-100.501900	-0.807896	45.656408
8.950000	-0.641510	-71.490208	-16.042756	-102.256377	-16.042756	-102.256377	-0.923458	43.174219
9.000000	-0.666018	-73.558569	-15.738160	-103.755537	-15.738160	-103.755537	-1.111883	40.902110
9.050000	-0.693391	-75.623785	-15.251365	-105.311741	-15.251365	-105.311741	-1.366729	39.897851
9.100000	-0.716337	-77.711796	-14.655351	-108.634720	-14.655351	-108.634720	-1.322419	40.213250
9.150000	-0.740674	-79.903388	-14.279563	-112.878657	-14.279563	-112.878657	-1.040760	38.520552
9.200000	-0.775165	-82.180756	-13.988826	-116.462493	-13.988826	-116.462493	-0.897670	35.568200
9.250000	-0.820600	-84.541637	-13.652089	-119.685092	-13.652089	-119.685092	-0.866134	32.511497
9.300000	-0.878458	-87.009996	-13.249268	-122.914931	-13.249268	-122.914931	-0.886336	29.509481
9.350000	-0.951741	-89.611939	-12.783748	-126.317496	-12.783748	-126.317496	-0.936227	26.516976
9.400000	-1.048801	-92.406358	-12.243325	-130.035263	-12.243325	-130.035263	-1.015198	23.479041
9.450000	-1.180536	-95.450824	-11.622926	-134.198147	-11.622926	-134.198147	-1.127563	20.345369
9.500000	-1.366512	-98.828798	-10.911997	-138.988669	-10.911997	-138.988669	-1.286754	17.071066
9.550000	-1.644832	-102.661589	-10.094385	-144.705334	-10.094385	-144.705334	-1.520562	13.620911
9.600000	-2.077470	-107.043486	-9.171425	-151.714938	-9.171425	-151.714938	-1.871621	10.024610
9.650000	-2.810792	-112.015912	-8.146215	-160.751781	-8.146215	-160.751781	-2.431970	6.507417
9.700000	-4.105480	-116.948578	-7.099644	-172.626597	-7.099644	-172.626597	-3.322376	3.955462
9.750000	-6.468938	-118.232121	-6.232676	171.563753	-6.232676	171.563753	-4.609237	5.242703
9.800000	-9.545441	-101.972567	-5.943076	151.883059	-5.943076	151.883059	-5.559424	14.644289
9.850000	-8.374300	-71.936218	-6.598372	130.913985	-6.598372	130.913985	-4.776929	25.653062
9.900000	-5.285865	-65.750537	-8.108343	112.462005	-8.108343	112.462005	-3.281949	27.795788
9.950000	-3.438304	-69.618994	-10.045579	98.111935	-10.045579	98.111935	-2.226222	24.699208
10.000000	-2.463089	-74.642114	-12.041933	87.497182	-12.041933	87.497182	-1.619123	20.435732
