! freq	dB(S11)	phase(S11)	dB(S12)	phase(S12)	
!     	dB(S21)	phase(S21)	dB(S22)	phase(S22)	
!S-par simulation data
#  GHz  S  DB  R 50
0.000000	-0.000000	0.000000	-370.593363	0.000000	-370.593363	0.000000	-0.000000	0.000000
0.050000	-0.001726	-1.137621	-75.422274	172.775124	-75.422274	172.775124	-0.000209	-1.122555
0.100000	-0.004540	-2.258703	-75.416420	168.188563	-75.416420	168.188563	-0.000817	-2.244398
0.150000	-0.006633	-3.371093	-75.412120	163.077041	-75.412120	163.077041	-0.001772	-3.364933
0.200000	-0.008095	-4.481297	-75.408618	157.898893	-75.408618	157.898893	-0.002998	-4.483772
0.250000	-0.009219	-5.591203	-75.407622	152.767828	-75.407622	152.767828	-0.004432	-5.600578
0.300000	-0.010221	-6.701115	-75.411025	147.728956	-75.411025	147.728956	-0.005985	-6.715487
0.350000	-0.011183	-7.810918	-75.421306	142.814602	-75.421306	142.814602	-0.007608	-7.828482
0.400000	-0.012156	-8.920436	-75.441096	138.047489	-75.441096	138.047489	-0.009261	-8.939690
0.450000	-0.013163	-10.029496	-75.473177	133.445510	-75.473177	133.445510	-0.010913	-10.049260
0.500000	-0.014215	-11.137950	-75.520425	129.023549	-75.520425	129.023549	-0.012549	-11.157336
0.550000	-0.015318	-12.245671	-75.585784	124.794638	-75.585784	124.794638	-0.014158	-12.264043
0.600000	-0.016471	-13.352555	-75.672247	120.770892	-75.672247	120.770892	-0.015737	-13.369479
0.650000	-0.017671	-14.458511	-75.782863	116.964391	-75.782863	116.964391	-0.017286	-14.473716
0.700000	-0.018916	-15.563464	-75.920750	113.388119	-75.920750	113.388119	-0.018809	-15.576802
0.750000	-0.020199	-16.667347	-76.089124	110.056996	-76.089124	110.056996	-0.020307	-16.678763
0.800000	-0.021518	-17.770104	-76.291328	106.989101	-76.291328	106.989101	-0.021785	-17.779612
0.850000	-0.022867	-18.871684	-76.530864	104.207171	-76.530864	104.207171	-0.023246	-18.879347
0.900000	-0.024241	-19.972045	-76.811407	101.740511	-76.811407	101.740511	-0.024693	-19.977955
0.950000	-0.025637	-21.071148	-77.136778	99.627492	-77.136778	99.627492	-0.026129	-21.075419
1.000000	-0.027050	-22.168959	-77.510842	97.918895	-77.510842	97.918895	-0.027556	-22.171717
1.050000	-0.028475	-23.265448	-77.937261	96.682391	-77.937261	96.682391	-0.028976	-23.266822
1.100000	-0.029911	-24.360588	-78.418951	96.008511	-78.418951	96.008511	-0.030390	-24.360705
1.150000	-0.031354	-25.454353	-78.957012	96.018291	-78.957012	96.018291	-0.031799	-25.453339
1.200000	-0.032801	-26.546720	-79.548690	96.872152	-79.548690	96.872152	-0.033204	-26.544694
1.250000	-0.034250	-27.637668	-80.183661	98.777703	-80.183661	98.777703	-0.034607	-27.634739
1.300000	-0.035699	-28.727113	-80.834115	102.058609	-80.834115	102.058609	-0.036006	-28.723386
1.350000	-0.037147	-29.815099	-81.449077	106.934279	-81.449077	106.934279	-0.037402	-29.810665
1.400000	-0.038592	-30.901606	-81.943817	113.564619	-81.943817	113.564619	-0.038797	-30.896546
1.450000	-0.040033	-31.986618	-82.204468	121.805307	-82.204468	121.805307	-0.040189	-31.981003
1.500000	-0.041470	-33.070118	-82.124216	131.036522	-82.124216	131.036522	-0.041579	-33.064010
1.550000	-0.042901	-34.152087	-81.661937	140.270795	-81.661937	140.270795	-0.042967	-34.145543
1.600000	-0.044328	-35.232512	-80.869032	148.568007	-80.869032	148.568007	-0.044353	-35.225577
1.650000	-0.045749	-36.311375	-79.853964	155.387442	-79.853964	155.387442	-0.045738	-36.304088
1.700000	-0.047165	-37.388661	-78.726255	160.622619	-78.726255	160.622619	-0.047122	-37.381056
1.750000	-0.048576	-38.464355	-77.565924	164.434255	-77.565924	164.434255	-0.048504	-38.456460
1.800000	-0.049982	-39.538441	-76.420877	167.077593	-76.420877	167.077593	-0.049885	-39.530277
1.850000	-0.051384	-40.610906	-75.315712	168.803502	-75.315712	168.803502	-0.051266	-40.602491
1.900000	-0.052781	-41.681735	-74.260913	169.821928	-74.260913	169.821928	-0.052646	-41.673082
1.950000	-0.054176	-42.750914	-73.259248	170.296979	-73.259248	170.296979	-0.054026	-42.742033
2.000000	-0.055568	-43.818430	-72.309573	170.353368	-72.309573	170.353368	-0.055406	-43.809328
2.050000	-0.056957	-44.884271	-71.408943	170.085045	-71.408943	170.085045	-0.056788	-44.874951
2.100000	-0.058345	-45.948423	-70.553719	169.562855	-70.553719	169.562855	-0.058170	-45.938888
2.150000	-0.059733	-47.010875	-69.740139	168.840544	-69.740139	168.840544	-0.059554	-47.001126
2.200000	-0.061121	-48.071616	-68.964590	167.959216	-68.964590	167.959216	-0.060941	-48.061651
2.250000	-0.062509	-49.130637	-68.223728	166.950596	-68.223728	166.950596	-0.062330	-49.120453
2.300000	-0.063899	-50.187927	-67.514517	165.839395	-67.514517	165.839395	-0.063722	-50.177521
2.350000	-0.065292	-51.243477	-66.834231	164.645030	-66.834231	164.645030	-0.065119	-51.232845
2.400000	-0.066688	-52.297279	-66.180435	163.382886	-66.180435	163.382886	-0.066520	-52.286416
2.450000	-0.068089	-53.349327	-65.550957	162.065245	-65.550957	162.065245	-0.067925	-53.338228
2.500000	-0.069494	-54.399614	-64.943863	160.701985	-64.943863	160.701985	-0.069337	-54.388273
2.550000	-0.070905	-55.448057	-64.356593	159.299759	-64.356593	159.299759	-0.070755	-55.436468
2.600000	-0.072323	-56.494730	-63.788529	157.866873	-63.788529	157.866873	-0.072181	-56.482887
2.650000	-0.073748	-57.539628	-63.238281	156.408509	-63.238281	156.408509	-0.073614	-57.527525
2.700000	-0.075181	-58.582749	-62.704599	154.928933	-62.704599	154.928933	-0.075055	-58.570382
2.750000	-0.076623	-59.624093	-62.186365	153.431670	-62.186365	153.431670	-0.076505	-59.611454
2.800000	-0.078075	-60.663658	-61.682570	151.919639	-61.682570	151.919639	-0.077965	-60.650744
2.850000	-0.079538	-61.701447	-61.192302	150.395263	-61.192302	150.395263	-0.079436	-61.688251
2.900000	-0.081011	-62.737460	-60.714739	148.860558	-60.714739	148.860558	-0.080917	-62.723978
2.950000	-0.082497	-63.771701	-60.249132	147.317201	-60.249132	147.317201	-0.082410	-63.757929
3.000000	-0.083995	-64.804175	-59.794802	145.766592	-59.794802	145.766592	-0.083916	-64.790107
3.050000	-0.085507	-65.834885	-59.351131	144.209895	-59.351131	144.209895	-0.085434	-65.820518
3.100000	-0.087032	-66.863840	-58.917555	142.648080	-58.917555	142.648080	-0.086966	-66.849169
3.150000	-0.088573	-67.891047	-58.493558	141.081955	-58.493558	141.081955	-0.088513	-67.876068
3.200000	-0.090129	-68.916514	-58.078666	139.512189	-58.078666	139.512189	-0.090074	-68.901224
3.250000	-0.091701	-69.940252	-57.672447	137.939338	-57.672447	137.939338	-0.091652	-69.924648
3.300000	-0.093290	-70.962271	-57.274502	136.363860	-57.274502	136.363860	-0.093245	-70.946349
3.350000	-0.094896	-71.982585	-56.884465	134.786133	-56.884465	134.786133	-0.094856	-71.966342
3.400000	-0.096521	-73.001205	-56.501999	133.206463	-56.501999	133.206463	-0.096484	-72.984639
3.450000	-0.098164	-74.018149	-56.126793	131.625102	-56.126793	131.625102	-0.098131	-74.001255
3.500000	-0.099827	-75.033430	-55.758559	130.042251	-55.758559	130.042251	-0.099796	-75.016207
3.550000	-0.101510	-76.047066	-55.397032	128.458072	-55.397032	128.458072	-0.101482	-76.029511
3.600000	-0.103213	-77.059076	-55.041967	126.872690	-55.041967	126.872690	-0.103187	-77.041186
3.650000	-0.104938	-78.069479	-54.693135	125.286206	-54.693135	125.286206	-0.104914	-78.051251
3.700000	-0.106685	-79.078295	-54.350325	123.698694	-54.350325	123.698694	-0.106662	-79.059728
3.750000	-0.108454	-80.085547	-54.013343	122.110211	-54.013343	122.110211	-0.108432	-80.066636
3.800000	-0.110248	-81.091191	-53.681703	120.520758	-53.681703	120.520758	-0.110226	-81.071935
3.850000	-0.112065	-82.095320	-53.355561	118.930403	-53.355561	118.930403	-0.112043	-82.075716
3.900000	-0.113907	-83.097959	-53.034760	117.339165	-53.034760	117.339165	-0.113885	-83.078004
3.950000	-0.115774	-84.099135	-52.719151	115.747053	-52.719151	115.747053	-0.115751	-84.078826
4.000000	-0.117667	-85.098876	-52.408598	114.154073	-52.408598	114.154073	-0.117643	-85.078210
4.050000	-0.119585	-86.097211	-52.102973	112.560225	-52.102973	112.560225	-0.119560	-86.076185
4.100000	-0.121531	-87.094170	-51.802157	110.965510	-51.802157	110.965510	-0.121505	-87.072780
4.150000	-0.123504	-88.089784	-51.506037	109.369925	-51.506037	109.369925	-0.123476	-88.068028
4.200000	-0.125505	-89.084086	-51.214511	107.773470	-51.214511	107.773470	-0.125475	-89.061959
4.250000	-0.127534	-90.077110	-50.927479	106.176143	-50.927479	106.176143	-0.127503	-90.054608
4.300000	-0.129593	-91.068889	-50.644850	104.577945	-50.644850	104.577945	-0.129560	-91.046009
4.350000	-0.131682	-92.059461	-50.366537	102.978881	-50.366537	102.978881	-0.131646	-92.036199
4.400000	-0.133801	-93.048861	-50.092459	101.378955	-50.092459	101.378955	-0.133763	-93.025213
4.450000	-0.135950	-94.037129	-49.822539	99.778178	-49.822539	99.778178	-0.135910	-94.013089
4.500000	-0.138132	-95.024304	-49.556705	98.176561	-49.556705	98.176561	-0.138089	-94.999868
4.550000	-0.140345	-96.010426	-49.294888	96.574121	-49.294888	96.574121	-0.140300	-95.985588
4.600000	-0.142591	-96.995536	-49.037021	94.970877	-49.037021	94.970877	-0.142543	-96.970292
4.650000	-0.144870	-97.979678	-48.783044	93.366853	-48.783044	93.366853	-0.144820	-97.954021
4.700000	-0.147183	-98.962895	-48.532895	91.762075	-48.532895	91.762075	-0.147131	-98.936820
4.750000	-0.149530	-99.945232	-48.286517	90.156574	-48.286517	90.156574	-0.149475	-99.918733
4.800000	-0.151913	-100.926735	-48.043856	88.550385	-48.043856	88.550385	-0.151855	-100.899805
4.850000	-0.154330	-101.907452	-47.804857	86.943546	-47.804857	86.943546	-0.154270	-101.880085
4.900000	-0.156784	-102.887430	-47.569469	85.336097	-47.569469	85.336097	-0.156722	-102.859619
4.950000	-0.159275	-103.866720	-47.337643	83.728081	-47.337643	83.728081	-0.159210	-103.838457
5.000000	-0.161803	-104.845371	-47.109327	82.119547	-47.109327	82.119547	-0.161735	-104.816650
5.050000	-0.164370	-105.823412	-46.884374	80.510524	-46.884374	80.510524	-0.164300	-105.794224
5.100000	-0.166976	-106.800925	-46.662848	78.901086	-46.662848	78.901086	-0.166903	-106.771262
5.150000	-0.169620	-107.777963	-46.444700	77.291288	-46.444700	77.291288	-0.169546	-107.747816
5.200000	-0.172304	-108.754581	-46.229885	75.681184	-46.229885	75.681184	-0.172228	-108.723942
5.250000	-0.175029	-109.730836	-46.018354	74.070829	-46.018354	74.070829	-0.174950	-109.699696
5.300000	-0.177794	-110.706785	-45.810061	72.460282	-45.810061	72.460282	-0.177713	-110.675135
5.350000	-0.180600	-111.682487	-45.604959	70.849600	-45.604959	70.849600	-0.180517	-111.650317
5.400000	-0.183448	-112.658001	-45.403001	69.238841	-45.403001	69.238841	-0.183363	-112.625302
5.450000	-0.186338	-113.633389	-45.204139	67.628063	-45.204139	67.628063	-0.186251	-113.600151
5.500000	-0.189272	-114.608712	-45.008327	66.017324	-45.008327	66.017324	-0.189183	-114.574924
5.550000	-0.192248	-115.584034	-44.815517	64.406683	-44.815517	64.406683	-0.192158	-115.549686
5.600000	-0.195269	-116.559419	-44.625660	62.796196	-44.625660	62.796196	-0.195177	-116.524500
5.650000	-0.198335	-117.534932	-44.438707	61.185920	-44.438707	61.185920	-0.198241	-117.499431
5.700000	-0.201445	-118.510641	-44.254610	59.575910	-44.254610	59.575910	-0.201350	-118.474546
5.750000	-0.204602	-119.486613	-44.073319	57.966221	-44.073319	57.966221	-0.204505	-119.449913
5.800000	-0.207805	-120.462918	-43.894785	56.356906	-43.894785	56.356906	-0.207706	-120.425600
5.850000	-0.211054	-121.439625	-43.718956	54.748017	-43.718956	54.748017	-0.210954	-121.401678
5.900000	-0.214351	-122.416807	-43.545783	53.139604	-43.545783	53.139604	-0.214249	-122.378217
5.950000	-0.217696	-123.394535	-43.375213	51.531718	-43.375213	51.531718	-0.217593	-123.355290
6.000000	-0.221089	-124.372884	-43.207197	49.924406	-43.207197	49.924406	-0.220984	-124.332971
6.050000	-0.224531	-125.351930	-43.041682	48.317713	-43.041682	48.317713	-0.224425	-125.311335
6.100000	-0.228023	-126.331748	-42.878616	46.711686	-42.878616	46.711686	-0.227915	-126.290458
6.150000	-0.231565	-127.312417	-42.717949	45.106368	-42.717949	45.106368	-0.231456	-127.270418
6.200000	-0.235157	-128.294015	-42.559629	43.501800	-42.559629	43.501800	-0.235047	-128.251293
6.250000	-0.238801	-129.276623	-42.403604	41.898023	-42.403604	41.898023	-0.238689	-129.233164
6.300000	-0.242498	-130.260374	-42.249802	40.295113	-42.249802	40.295113	-0.242385	-130.216162
6.350000	-0.246248	-131.245308	-42.098196	38.693075	-42.098196	38.693075	-0.246133	-131.200327
6.400000	-0.250050	-132.231508	-41.948737	37.091943	-41.948737	37.091943	-0.249934	-132.185744
6.450000	-0.253906	-133.219061	-41.801374	35.491752	-41.801374	35.491752	-0.253788	-133.172498
6.500000	-0.257815	-134.208054	-41.656060	33.892534	-41.656060	33.892534	-0.257695	-134.160676
6.550000	-0.261779	-135.198576	-41.512746	32.294321	-41.512746	32.294321	-0.261657	-135.150366
6.600000	-0.265797	-136.190717	-41.371387	30.697142	-41.371387	30.697142	-0.265674	-136.141659
6.650000	-0.269871	-137.184568	-41.231938	29.101024	-41.231938	29.101024	-0.269746	-137.134645
6.700000	-0.274000	-138.180222	-41.094355	27.505992	-41.094355	27.505992	-0.273873	-138.129418
6.750000	-0.278186	-139.177774	-40.958597	25.912071	-40.958597	25.912071	-0.278057	-139.126071
6.800000	-0.282428	-140.177320	-40.824623	24.319282	-40.824623	24.319282	-0.282297	-140.124700
6.850000	-0.286728	-141.178958	-40.692396	22.727643	-40.692396	22.727643	-0.286595	-141.125403
6.900000	-0.291085	-142.182785	-40.561880	21.137171	-40.561880	21.137171	-0.290949	-142.128277
6.950000	-0.295501	-143.188903	-40.433041	19.547880	-40.433041	19.547880	-0.295362	-143.133422
7.000000	-0.299975	-144.197414	-40.305847	17.959781	-40.305847	17.959781	-0.299834	-144.140942
7.050000	-0.304508	-145.208421	-40.180268	16.372881	-40.180268	16.372881	-0.304364	-145.150939
7.100000	-0.309100	-146.222030	-40.056278	14.787185	-40.056278	14.787185	-0.308954	-146.163517
7.150000	-0.313752	-147.238347	-39.933852	13.202696	-39.933852	13.202696	-0.313603	-147.178784
7.200000	-0.318465	-148.257482	-39.812967	11.619412	-39.812967	11.619412	-0.318313	-148.196847
7.250000	-0.323238	-149.279544	-39.693605	10.037326	-39.693605	10.037326	-0.323083	-149.217817
7.300000	-0.328073	-150.304645	-39.575748	8.456432	-39.575748	8.456432	-0.327915	-150.241804
7.350000	-0.332969	-151.332899	-39.459381	6.876717	-39.459381	6.876717	-0.332807	-151.268922
7.400000	-0.337927	-152.364421	-39.344494	5.298166	-39.344494	5.298166	-0.337762	-152.299286
7.450000	-0.342947	-153.399328	-39.231077	3.720760	-39.231077	3.720760	-0.342779	-153.333012
7.500000	-0.348030	-154.437739	-39.119124	2.144478	-39.119124	2.144478	-0.347858	-154.370218
7.550000	-0.353179	-155.479938	-39.008633	0.569343	-39.008633	0.569343	-0.353003	-155.411188
7.600000	-0.358391	-156.525895	-38.899603	-1.004723	-38.899603	-1.004723	-0.358211	-156.455891
7.650000	-0.363667	-157.575735	-38.792037	-2.577749	-38.792037	-2.577749	-0.363483	-157.504452
7.700000	-0.369007	-158.629583	-38.685937	-4.149767	-38.685937	-4.149767	-0.368818	-158.556996
7.750000	-0.374411	-159.687569	-38.581311	-5.720809	-38.581311	-5.720809	-0.374218	-159.613650
7.800000	-0.379879	-160.749821	-38.478166	-7.290910	-38.478166	-7.290910	-0.379682	-160.674545
7.850000	-0.385413	-161.816472	-38.376514	-8.860104	-38.376514	-8.860104	-0.385212	-161.739811
7.900000	-0.391012	-162.887656	-38.276368	-10.428426	-38.276368	-10.428426	-0.390806	-162.809582
7.950000	-0.396676	-163.963508	-38.177743	-11.995909	-38.177743	-11.995909	-0.396465	-163.883991
8.000000	-0.402405	-165.044165	-38.080656	-13.562585	-38.080656	-13.562585	-0.402190	-164.963177
8.050000	-0.408201	-166.129767	-37.985126	-15.128483	-37.985126	-15.128483	-0.407981	-166.047276
8.100000	-0.414062	-167.220455	-37.891176	-16.693632	-37.891176	-16.693632	-0.413838	-167.136431
8.150000	-0.419990	-168.316372	-37.798826	-18.258054	-37.798826	-18.258054	-0.419760	-168.230783
8.200000	-0.425983	-169.417664	-37.708102	-19.821769	-37.708102	-19.821769	-0.425749	-169.330476
8.250000	-0.432043	-170.524478	-37.619029	-21.384790	-37.619029	-21.384790	-0.431804	-170.435657
8.300000	-0.438170	-171.636961	-37.531636	-22.947125	-37.531636	-22.947125	-0.437926	-171.546473
8.350000	-0.444363	-172.755266	-37.445949	-24.508775	-37.445949	-24.508775	-0.444114	-172.663075
8.400000	-0.450623	-173.879544	-37.362000	-26.069733	-37.362000	-26.069733	-0.450369	-173.785613
8.450000	-0.456949	-175.009950	-37.279818	-27.629985	-37.279818	-27.629985	-0.456690	-174.914241
8.500000	-0.463342	-176.146640	-37.199436	-29.189506	-37.199436	-29.189506	-0.463078	-176.049115
8.550000	-0.469801	-177.289773	-37.120885	-30.748263	-37.120885	-30.748263	-0.469533	-177.190390
8.600000	-0.476327	-178.439508	-37.044199	-32.306212	-37.044199	-32.306212	-0.476053	-178.338226
8.650000	-0.482920	-179.596007	-36.969410	-33.863297	-36.969410	-33.863297	-0.482641	-179.492784
8.700000	-0.489578	179.240567	-36.896553	-35.419450	-36.896553	-35.419450	-0.489294	179.345776
8.750000	-0.496302	178.070050	-36.825662	-36.974593	-36.825662	-36.974593	-0.496014	178.177290
8.800000	-0.503095	176.891950	-36.756835	-38.528580	-36.756835	-38.528580	-0.502802	177.001270
8.850000	-0.509953	175.706409	-36.690047	-40.081347	-36.690047	-40.081347	-0.509655	175.817857
8.900000	-0.516877	174.513256	-36.625330	-41.632774	-36.625330	-41.632774	-0.516574	174.626883
8.950000	-0.523865	173.312322	-36.562719	-43.182726	-36.562719	-43.182726	-0.523558	173.428178
9.000000	-0.530918	172.103432	-36.502243	-44.731053	-36.502243	-44.731053	-0.530606	172.221572
9.050000	-0.538035	170.886414	-36.443936	-46.277594	-36.443936	-46.277594	-0.537718	171.006892
9.100000	-0.545215	169.661094	-36.387825	-47.822169	-36.387825	-47.822169	-0.544894	169.783966
9.150000	-0.552459	168.427295	-36.333942	-49.364590	-36.333942	-49.364590	-0.552133	168.552621
9.200000	-0.559765	167.184842	-36.282312	-50.904649	-36.282312	-50.904649	-0.559434	167.312681
9.250000	-0.567132	165.933557	-36.232962	-52.442130	-36.232962	-52.442130	-0.566797	166.063972
9.300000	-0.574561	164.673263	-36.185916	-53.976799	-36.185916	-53.976799	-0.574221	164.806318
9.350000	-0.582049	163.403781	-36.141196	-55.508413	-36.141196	-55.508413	-0.581705	163.539542
9.400000	-0.589598	162.124933	-36.098824	-57.036714	-36.098824	-57.036714	-0.589249	162.263469
9.450000	-0.597204	160.836542	-36.058817	-58.561435	-36.058817	-58.561435	-0.596851	160.977923
9.500000	-0.604869	159.538427	-36.021193	-60.082295	-36.021193	-60.082295	-0.604511	159.682727
9.550000	-0.612589	158.230412	-35.985963	-61.599005	-35.985963	-61.599005	-0.612227	158.377706
9.600000	-0.620366	156.912320	-35.953141	-63.111268	-35.953141	-63.111268	-0.619998	157.062684
9.650000	-0.628196	155.583973	-35.922735	-64.618775	-35.922735	-64.618775	-0.627824	155.737488
9.700000	-0.636079	154.245195	-35.894751	-66.121213	-35.894751	-66.121213	-0.635702	154.401944
9.750000	-0.644014	152.895814	-35.869193	-67.618261	-35.869193	-67.618261	-0.643631	153.055881
9.800000	-0.651999	151.535656	-35.846062	-69.109594	-35.846062	-69.109594	-0.651611	151.699128
9.850000	-0.660033	150.164550	-35.825354	-70.594882	-35.825354	-70.594882	-0.659638	150.331518
9.900000	-0.668114	148.782329	-35.807067	-72.073792	-35.807067	-72.073792	-0.667713	148.952885
9.950000	-0.676240	147.388825	-35.791192	-73.545992	-35.791192	-73.545992	-0.675832	147.563066
10.000000	-0.684410	145.983877	-35.777718	-75.011145	-35.777718	-75.011145	-0.683994	146.161900
