! freq	dB(S11)	phase(S11)	dB(S12)	phase(S12)	
!     	dB(S21)	phase(S21)	dB(S22)	phase(S22)	
!S-par simulation data
#  GHz  S  DB  R 50
0.000000	-0.000000	0.000000	-351.177793	0.000000	-351.177793	0.000000	-0.000000	0.000000
0.050000	-0.000108	-0.864964	-115.903978	84.536949	-115.903978	84.536949	-0.000102	-0.761783
0.100000	-0.000429	-1.729667	-110.475962	82.863494	-110.475962	82.863494	-0.000402	-1.523311
0.150000	-0.000949	-2.593868	-107.370252	82.707838	-107.370252	82.707838	-0.000887	-2.284353
0.200000	-0.001648	-3.457367	-105.179030	82.780012	-105.179030	82.780012	-0.001535	-3.044721
0.250000	-0.002513	-4.319935	-103.518510	82.803023	-103.518510	82.803023	-0.002331	-3.804213
0.300000	-0.003503	-5.181531	-102.212264	82.775522	-102.212264	82.775522	-0.003235	-4.562803
0.350000	-0.004601	-6.042033	-101.174240	82.737671	-101.174240	82.737671	-0.004228	-5.320401
0.400000	-0.005780	-6.901391	-100.350973	82.740763	-100.350973	82.740763	-0.005287	-6.076982
0.450000	-0.007020	-7.759589	-99.708886	82.838346	-99.708886	82.838346	-0.006390	-6.832553
0.500000	-0.008300	-8.616630	-99.226562	83.088679	-99.226562	83.088679	-0.007521	-7.587141
0.550000	-0.009604	-9.472537	-98.890621	83.560078	-98.890621	83.560078	-0.008665	-8.340782
0.600000	-0.010919	-10.327340	-98.693295	84.338234	-98.693295	84.338234	-0.009813	-9.093520
0.650000	-0.012235	-11.181076	-98.630693	85.536326	-98.630693	85.536326	-0.010956	-9.845398
0.700000	-0.013544	-12.033780	-98.701091	87.309474	-98.701091	87.309474	-0.012089	-10.596458
0.750000	-0.014841	-12.885487	-98.902326	89.875322	-98.902326	89.875322	-0.013210	-11.346735
0.800000	-0.016123	-13.736225	-99.226774	93.541007	-99.226774	93.541007	-0.014316	-12.096259
0.850000	-0.017388	-14.586018	-99.651005	98.728563	-99.651005	98.728563	-0.015407	-12.845053
0.900000	-0.018634	-15.434886	-100.115918	105.963344	-100.115918	105.963344	-0.016483	-13.593134
0.950000	-0.019862	-16.282840	-100.497004	115.730266	-100.497004	115.730266	-0.017545	-14.340514
1.000000	-0.021073	-17.129888	-100.588166	128.070899	-100.588166	128.070899	-0.018592	-15.087200
1.050000	-0.022267	-17.976032	-100.164821	142.031286	-100.164821	142.031286	-0.019627	-15.833193
1.100000	-0.023445	-18.821271	-99.146382	155.667685	-99.146382	155.667685	-0.020651	-16.578491
1.150000	-0.024609	-19.665598	-97.676843	167.181946	-97.676843	167.181946	-0.021665	-17.323090
1.200000	-0.025760	-20.509004	-95.991117	175.945292	-95.991117	175.945292	-0.022669	-18.066981
1.250000	-0.026899	-21.351477	-94.266337	-177.746166	-94.266337	-177.746166	-0.023666	-18.810157
1.300000	-0.028028	-22.192962	-92.584888	-173.381147	-92.584888	-173.381147	-0.024655	-19.552572
1.350000	-0.029147	-23.033482	-90.995864	-170.357021	-90.995864	-170.357021	-0.025639	-20.294246
1.400000	-0.030259	-23.873022	-89.506137	-168.308302	-89.506137	-168.308302	-0.026617	-21.035165
1.450000	-0.031364	-24.711561	-88.111724	-166.976441	-88.111724	-166.976441	-0.027591	-21.775314
1.500000	-0.032463	-25.549081	-86.804773	-166.179903	-86.804773	-166.179903	-0.028562	-22.514678
1.550000	-0.033557	-26.385562	-85.576603	-165.790273	-85.576603	-165.790273	-0.029529	-23.253243
1.600000	-0.034647	-27.220983	-84.418925	-165.715435	-84.418925	-165.715435	-0.030494	-23.990992
1.650000	-0.035734	-28.055325	-83.324274	-165.888200	-83.324274	-165.888200	-0.031457	-24.727910
1.700000	-0.036817	-28.888173	-82.262602	-166.310136	-82.262602	-166.310136	-0.032418	-25.463680
1.750000	-0.037900	-29.720440	-81.285588	-166.821540	-81.285588	-166.821540	-0.033378	-26.199002
1.800000	-0.038980	-30.551306	-80.340009	-167.481836	-80.340009	-167.481836	-0.034337	-26.933247
1.850000	-0.040060	-31.381172	-79.443950	-168.248482	-79.443950	-168.248482	-0.035296	-27.666722
1.900000	-0.041140	-32.209794	-78.582644	-169.103096	-78.582644	-169.103096	-0.036255	-28.399241
1.950000	-0.042219	-33.037172	-77.754465	-170.045677	-77.754465	-170.045677	-0.037214	-29.130802
2.000000	-0.043299	-33.863477	-76.963146	-171.040803	-76.963146	-171.040803	-0.038174	-29.861538
2.050000	-0.044380	-34.688281	-76.192717	-172.109494	-76.192717	-172.109494	-0.039134	-30.591118
2.100000	-0.045462	-35.512423	-75.466735	-173.202573	-75.466735	-173.202573	-0.040096	-31.320190
2.150000	-0.046545	-36.334851	-74.752801	-174.356175	-74.752801	-174.356175	-0.041059	-32.047942
2.200000	-0.047631	-37.155982	-74.062319	-175.547117	-74.062319	-175.547117	-0.042024	-32.774694
2.250000	-0.048719	-37.975797	-73.393732	-176.770922	-73.393732	-176.770922	-0.042991	-33.500433
2.300000	-0.049810	-38.794281	-72.745642	-178.023789	-72.745642	-178.023789	-0.043960	-34.225145
2.350000	-0.050904	-39.611415	-72.116788	-179.302466	-72.116788	-179.302466	-0.044932	-34.948815
2.400000	-0.052002	-40.427184	-71.506028	179.395845	-71.506028	179.395845	-0.045906	-35.671430
2.450000	-0.053103	-41.241571	-70.912323	178.073565	-70.912323	178.073565	-0.046885	-36.392978
2.500000	-0.054209	-42.054561	-70.334729	176.732800	-70.334729	176.732800	-0.047866	-37.113444
2.550000	-0.055320	-42.866077	-69.771467	175.374742	-69.771467	175.374742	-0.048852	-37.832768
2.600000	-0.056435	-43.676164	-69.222749	174.001785	-69.222749	174.001785	-0.049842	-38.550985
2.650000	-0.057556	-44.484808	-68.687838	172.615332	-68.687838	172.615332	-0.050836	-39.268081
2.700000	-0.058682	-45.291996	-68.166053	171.216628	-68.166053	171.216628	-0.051836	-39.984045
2.750000	-0.059815	-46.097715	-67.656767	169.806783	-67.656767	169.806783	-0.052840	-40.698866
2.800000	-0.060954	-46.901952	-67.159399	168.386786	-67.159399	168.386786	-0.053850	-41.412531
2.850000	-0.062100	-47.704694	-66.673412	166.957525	-66.673412	166.957525	-0.054866	-42.125030
2.900000	-0.063253	-48.505929	-66.198303	165.519800	-66.198303	165.519800	-0.055889	-42.836351
2.950000	-0.064414	-49.305647	-65.733607	164.074331	-65.733607	164.074331	-0.056917	-43.546483
3.000000	-0.065582	-50.103836	-65.278888	162.621768	-65.278888	162.621768	-0.057953	-44.255417
3.050000	-0.066759	-50.900485	-64.833739	161.162704	-64.833739	161.162704	-0.058996	-44.963142
3.100000	-0.067945	-51.695586	-64.397781	159.697675	-64.397781	159.697675	-0.060047	-45.669648
3.150000	-0.069141	-52.489128	-63.970655	158.227171	-63.970655	158.227171	-0.061105	-46.374926
3.200000	-0.070346	-53.281102	-63.552025	156.751640	-63.552025	156.751640	-0.062172	-47.078965
3.250000	-0.071560	-54.071500	-63.141577	155.271491	-63.141577	155.271491	-0.063247	-47.781758
3.300000	-0.072786	-54.860313	-62.739012	153.787101	-62.739012	153.787101	-0.064332	-48.483296
3.350000	-0.074024	-55.647256	-62.342253	152.298231	-62.342253	152.298231	-0.065428	-49.183347
3.400000	-0.075274	-56.432529	-61.952561	150.805637	-61.952561	150.805637	-0.066533	-49.882070
3.450000	-0.076530	-57.216963	-61.574642	149.311439	-61.574642	149.311439	-0.067645	-50.580123
3.500000	-0.077806	-57.998875	-61.198220	147.812427	-61.198220	147.812427	-0.068772	-51.276163
3.550000	-0.079085	-58.780223	-60.834368	146.312524	-60.834368	146.312524	-0.069904	-51.971751
3.600000	-0.080388	-59.558750	-60.470421	144.808167	-60.470421	144.808167	-0.071054	-52.665076
3.650000	-0.081692	-60.336994	-60.119686	143.303440	-60.119686	143.303440	-0.072207	-53.358173
3.700000	-0.083023	-61.112115	-59.767490	141.794656	-59.767490	141.794656	-0.073383	-54.048755
3.750000	-0.084355	-61.887237	-59.429020	140.285871	-59.429020	140.285871	-0.074559	-54.739337
3.800000	-0.085716	-62.658937	-59.087916	138.773451	-59.087916	138.773451	-0.075761	-55.427151
3.850000	-0.087079	-63.430637	-58.759703	137.261031	-58.759703	137.261031	-0.076963	-56.114965
3.900000	-0.088470	-64.199191	-58.430328	135.745907	-58.430328	135.745907	-0.078191	-56.800219
3.950000	-0.089865	-64.967459	-58.111840	134.230537	-58.111840	134.230537	-0.079421	-57.485241
4.000000	-0.091288	-65.732860	-57.793478	132.713206	-57.793478	132.713206	-0.080676	-58.167921
4.050000	-0.092718	-66.497687	-57.484224	131.195483	-57.484224	131.195483	-0.081937	-58.850131
4.100000	-0.094174	-67.259932	-57.176223	129.676387	-57.176223	129.676387	-0.083220	-59.530220
4.150000	-0.095640	-68.021317	-56.875752	128.156834	-56.875752	128.156834	-0.084512	-60.209602
4.200000	-0.097132	-68.780406	-56.577519	126.636366	-56.577519	126.636366	-0.085825	-60.887088
4.250000	-0.098636	-69.538349	-56.285413	125.115442	-56.285413	125.115442	-0.087149	-61.563627
4.300000	-0.100163	-70.294286	-55.996405	123.593954	-55.996405	123.593954	-0.088494	-62.238500
4.350000	-0.101708	-71.048791	-55.712277	122.072063	-55.712277	122.072063	-0.089853	-62.912184
4.400000	-0.103274	-71.801582	-55.431996	120.549869	-55.431996	120.549869	-0.091230	-63.584436
4.450000	-0.104860	-72.552660	-55.155486	119.027371	-55.155486	119.027371	-0.092625	-64.255256
4.500000	-0.106466	-73.302314	-54.883475	117.504753	-54.883475	117.504753	-0.094037	-64.924881
4.550000	-0.108096	-74.049977	-54.614249	115.981967	-54.614249	115.981967	-0.095470	-65.592831
4.600000	-0.109743	-74.796506	-54.350084	114.459180	-54.350084	114.459180	-0.096916	-66.259824
4.650000	-0.111420	-75.540771	-54.087830	112.936390	-54.087830	112.936390	-0.098389	-66.924902
4.700000	-0.113109	-76.284191	-53.831123	111.413663	-53.831123	111.413663	-0.099872	-67.589260
4.750000	-0.114833	-77.025079	-53.575550	109.891124	-53.575550	109.891124	-0.101386	-68.251464
4.800000	-0.116567	-77.765407	-53.325939	108.368665	-53.325939	108.368665	-0.102907	-68.913189
4.850000	-0.118341	-78.502942	-53.076773	106.846605	-53.076773	106.846605	-0.104464	-69.572520
4.900000	-0.120120	-79.240200	-52.833924	105.324603	-52.833924	105.324603	-0.106025	-70.231613
4.950000	-0.121947	-79.974411	-52.590911	103.803230	-52.590911	103.803230	-0.107626	-70.888077
5.000000	-0.123773	-80.708621	-52.354513	102.281857	-52.354513	102.281857	-0.109228	-71.544541
5.050000	-0.125653	-81.439539	-52.117413	100.761357	-52.117413	100.761357	-0.110875	-72.198145
5.100000	-0.127533	-82.170457	-51.886613	99.240856	-51.886613	99.240856	-0.112523	-72.851748
5.150000	-0.129464	-82.898389	-51.655763	97.721311	-51.655763	97.721311	-0.114214	-73.502738
5.200000	-0.131399	-83.626049	-51.430355	96.201853	-51.430355	96.201853	-0.115910	-74.153491
5.250000	-0.133382	-84.351028	-51.205478	94.683392	-51.205478	94.683392	-0.117647	-74.801878
5.300000	-0.135375	-85.075470	-50.985269	93.165130	-50.985269	93.165130	-0.119392	-75.449791
5.350000	-0.137412	-85.797529	-50.766108	91.647871	-50.766108	91.647871	-0.121176	-76.095586
5.400000	-0.139464	-86.518795	-50.550913	90.130947	-50.550913	90.130947	-0.122972	-76.740675
5.450000	-0.141556	-87.237973	-50.337228	88.615001	-50.337228	88.615001	-0.124804	-77.383892
5.500000	-0.143669	-87.956107	-50.126872	87.099544	-50.126872	87.099544	-0.126654	-78.026173
5.550000	-0.145818	-88.672443	-49.918437	85.585013	-49.918437	85.585013	-0.128535	-78.666827
5.600000	-0.147994	-89.387495	-49.712756	84.071143	-49.712756	84.071143	-0.130439	-79.306319
5.650000	-0.150202	-90.101032	-49.509359	82.558121	-49.509359	82.558121	-0.132372	-79.944427
5.700000	-0.152442	-90.813052	-49.308199	81.045948	-49.308199	81.045948	-0.134332	-80.581151
5.750000	-0.154710	-91.523833	-49.109641	79.534525	-49.109641	79.534525	-0.136317	-81.216731
5.800000	-0.157016	-92.232877	-48.912852	78.024151	-48.912852	78.024151	-0.138335	-81.850711
5.850000	-0.159346	-92.940949	-48.718946	76.514409	-48.718946	76.514409	-0.140374	-82.483784
5.900000	-0.161721	-93.647074	-48.526388	75.005930	-48.526388	75.005930	-0.142452	-83.115045
5.950000	-0.164113	-94.352485	-48.336959	73.497947	-48.336959	73.497947	-0.144546	-83.745633
6.000000	-0.166558	-95.055753	-48.148498	71.991452	-48.148498	71.991452	-0.146686	-84.374202
6.050000	-0.169015	-95.758554	-47.963378	70.485301	-47.963378	70.485301	-0.148836	-85.002328
6.100000	-0.171532	-96.459027	-47.778887	68.980872	-47.778887	68.980872	-0.151039	-85.628235
6.150000	-0.174055	-97.159272	-47.597920	67.476621	-47.597920	67.476621	-0.153248	-86.253923
6.200000	-0.176645	-97.857015	-47.417278	65.974335	-47.417278	65.974335	-0.155515	-86.877200
6.250000	-0.179236	-98.554758	-47.240315	64.472050	-47.240315	64.472050	-0.157784	-87.500477
6.300000	-0.181901	-99.249841	-47.063405	62.971980	-47.063405	62.971980	-0.160118	-88.121158
6.350000	-0.184567	-99.944924	-46.890026	61.471910	-46.890026	61.471910	-0.162452	-88.741838
6.400000	-0.187303	-100.637634	-46.717017	59.973933	-46.717017	59.973933	-0.164849	-89.360170
6.450000	-0.190046	-101.330128	-46.547118	58.476146	-46.547118	58.476146	-0.167252	-89.978288
6.500000	-0.192854	-102.020525	-46.377875	56.980314	-46.377875	56.980314	-0.169713	-90.594303
6.550000	-0.195676	-102.710504	-46.211357	55.484873	-46.211357	55.484873	-0.172185	-91.209897
6.600000	-0.198557	-103.398653	-46.045751	53.991235	-46.045751	53.991235	-0.174711	-91.823626
6.650000	-0.201459	-104.086192	-45.882518	52.498197	-45.882518	52.498197	-0.177256	-92.436735
6.700000	-0.204416	-104.772157	-45.720426	51.006798	-45.720426	51.006798	-0.179848	-93.048213
6.750000	-0.207400	-105.457336	-45.560387	49.516217	-45.560387	49.516217	-0.182466	-93.658875
6.800000	-0.210433	-106.141185	-45.401693	48.027096	-45.401693	48.027096	-0.185127	-94.268137
6.850000	-0.213501	-106.824084	-45.244759	46.539020	-45.244759	46.539020	-0.187819	-94.876396
6.900000	-0.216612	-107.505885	-45.089352	45.052218	-45.089352	45.052218	-0.190550	-95.483477
6.950000	-0.219765	-108.186587	-44.935439	43.566689	-44.935439	43.566689	-0.193318	-96.089377
7.000000	-0.222955	-108.866410	-44.783212	42.082237	-44.783212	42.082237	-0.196120	-96.694314
7.050000	-0.226195	-109.545002	-44.632239	40.599294	-44.632239	40.599294	-0.198966	-97.297901
7.100000	-0.229465	-110.222920	-44.483091	39.117224	-44.483091	39.117224	-0.201840	-97.900732
7.150000	-0.232794	-110.899489	-44.334979	37.636898	-44.334979	37.636898	-0.204766	-98.502052
7.200000	-0.236146	-111.575575	-44.188814	36.157233	-44.188814	36.157233	-0.207713	-99.102817
7.250000	-0.239565	-112.250210	-44.043486	34.679552	-44.043486	34.679552	-0.210721	-99.701919
7.300000	-0.243000	-112.924539	-43.900211	33.202314	-43.900211	33.202314	-0.213743	-100.300659
7.350000	-0.246510	-113.597334	-43.757595	31.727296	-43.757595	31.727296	-0.216833	-100.897591
7.400000	-0.250030	-114.269983	-43.617122	30.252501	-43.617122	30.252501	-0.219931	-101.494348
7.450000	-0.253633	-114.941032	-43.477146	28.780160	-43.477146	28.780160	-0.223106	-102.089164
7.500000	-0.257238	-115.612080	-43.339390	27.307819	-43.339390	27.307819	-0.226281	-102.683979
7.550000	-0.260937	-116.281477	-43.201986	25.838161	-43.201986	25.838161	-0.229541	-103.276731
7.600000	-0.264636	-116.950875	-43.066722	24.368503	-43.066722	24.368503	-0.232803	-103.869482
7.650000	-0.268423	-117.618850	-42.931967	22.901303	-42.931967	22.901303	-0.236143	-104.460391
7.700000	-0.272219	-118.286695	-42.799132	21.434327	-42.799132	21.434327	-0.239491	-105.051132
7.750000	-0.276095	-118.953331	-42.666948	19.969577	-42.666948	19.969577	-0.242913	-105.640244
7.800000	-0.279988	-119.619725	-42.536481	18.505273	-42.536481	18.505273	-0.246350	-106.229030
7.850000	-0.283954	-120.285107	-42.406793	17.042959	-42.406793	17.042959	-0.249854	-106.816393
7.900000	-0.287946	-120.950152	-42.278635	15.581308	-42.278635	15.581308	-0.253381	-107.403281
7.950000	-0.292004	-121.614367	-42.151370	14.121409	-42.151370	14.121409	-0.256968	-107.988943
8.000000	-0.296096	-122.278168	-42.025465	12.662386	-42.025465	12.662386	-0.260587	-108.573992
8.050000	-0.300247	-122.941304	-41.900553	11.204874	-41.900553	11.204874	-0.264259	-109.158002
8.100000	-0.304441	-123.603967	-41.776846	9.748442	-41.776846	9.748442	-0.267970	-109.741271
8.150000	-0.308685	-124.266114	-41.654222	8.293283	-41.654222	8.293283	-0.271728	-110.323680
8.200000	-0.312981	-124.927747	-41.532661	6.839396	-41.532661	6.839396	-0.275533	-110.905229
8.250000	-0.317321	-125.588998	-41.412261	5.386546	-41.412261	5.386546	-0.279378	-111.486087
8.300000	-0.321720	-126.249712	-41.292795	3.935149	-41.292795	3.935149	-0.283278	-112.065979
8.350000	-0.326156	-126.910158	-41.174558	2.484560	-41.174558	2.484560	-0.287211	-112.645340
8.400000	-0.330660	-127.570067	-41.057139	1.035586	-41.057139	1.035586	-0.291207	-113.223638
8.450000	-0.335192	-128.229802	-40.941008	-0.412800	-40.941008	-0.412800	-0.295229	-113.801554
8.500000	-0.339802	-128.889020	-40.825590	-1.859427	-40.825590	-1.859427	-0.299322	-114.378323
8.550000	-0.344431	-129.548142	-40.711510	-3.305677	-40.711510	-3.305677	-0.303434	-114.954848
8.600000	-0.349148	-130.206785	-40.598048	-4.750043	-40.598048	-4.750043	-0.307626	-115.530153
8.650000	-0.353876	-130.865390	-40.485967	-6.194229	-40.485967	-6.194229	-0.311827	-116.105343
8.700000	-0.358700	-131.523578	-40.374421	-7.636433	-40.374421	-7.636433	-0.316119	-116.679252
8.750000	-0.363527	-132.181767	-40.264290	-9.078638	-40.264290	-9.078638	-0.320412	-117.253162
8.800000	-0.368460	-132.839621	-40.154621	-10.518788	-40.154621	-10.518788	-0.324804	-117.825744
8.850000	-0.373395	-133.497475	-40.046319	-11.958939	-40.046319	-11.958939	-0.329197	-118.398326
8.900000	-0.378428	-134.155137	-39.938563	-13.397317	-39.938563	-13.397317	-0.333682	-118.969756
8.950000	-0.383473	-134.812780	-39.832057	-14.835533	-39.832057	-14.835533	-0.338177	-119.541080
9.000000	-0.388607	-135.470353	-39.726171	-16.272246	-39.726171	-16.272246	-0.342755	-120.111416
9.050000	-0.393761	-136.127912	-39.621428	-17.708658	-39.621428	-17.708658	-0.347352	-120.681555
9.100000	-0.398996	-136.785503	-39.517373	-19.143822	-39.517373	-19.143822	-0.352024	-121.250858
9.150000	-0.404261	-137.443105	-39.414365	-20.578570	-39.414365	-20.578570	-0.356724	-121.819882
9.200000	-0.409598	-138.100822	-39.312103	-22.012308	-39.312103	-22.012308	-0.361491	-122.388213
9.250000	-0.414974	-138.758596	-39.210803	-23.445542	-39.210803	-23.445542	-0.366293	-122.956197
9.300000	-0.420413	-139.416549	-39.110301	-24.877985	-39.110301	-24.877985	-0.371156	-123.523619
9.350000	-0.425900	-140.074629	-39.010687	-26.309863	-39.010687	-26.309863	-0.376062	-124.090639
9.400000	-0.431442	-140.732929	-38.911914	-27.741148	-38.911914	-27.741148	-0.381021	-124.657214
9.450000	-0.437039	-141.391450	-38.813966	-29.171840	-38.813966	-29.171840	-0.386031	-125.223346
9.500000	-0.442684	-142.050211	-38.716894	-30.602110	-38.716894	-30.602110	-0.391085	-125.789140
9.550000	-0.448392	-142.709309	-38.620596	-32.031791	-38.620596	-32.031791	-0.396200	-126.354461
9.600000	-0.454139	-143.368647	-38.525201	-33.461196	-38.525201	-33.461196	-0.401351	-126.919539
9.650000	-0.459959	-144.028462	-38.430540	-34.890048	-38.430540	-34.890048	-0.406571	-127.484130
9.700000	-0.465809	-144.688493	-38.336801	-36.318741	-38.336801	-36.318741	-0.411818	-128.048559
9.750000	-0.471740	-145.349169	-38.243769	-37.746954	-38.243769	-37.746954	-0.417142	-128.612500
9.800000	-0.477692	-146.010012	-38.151668	-39.175093	-38.151668	-39.175093	-0.422486	-129.176348
9.850000	-0.483734	-146.671692	-38.060261	-40.602861	-38.060261	-40.602861	-0.427915	-129.739722
9.900000	-0.489788	-147.333469	-37.969783	-42.030608	-37.969783	-42.030608	-0.433355	-130.303057
9.950000	-0.495940	-147.996303	-37.879999	-43.458127	-37.879999	-43.458127	-0.438889	-130.865949
10.000000	-0.502096	-148.659136	-37.791134	-44.885645	-37.791134	-44.885645	-0.444426	-131.428841
