! freq	dB(S11)	phase(S11)	dB(S12)	phase(S12)	
!     	dB(S21)	phase(S21)	dB(S22)	phase(S22)	
!S-par simulation data
#  GHz  S  DB  R 50
0.000000	-0.000000	-0.000000	-361.337946	180.000000	-361.337946	180.000000	-0.000000	-0.000000
0.050000	-0.000069	-0.855249	-91.875209	2.726446	-91.875209	2.726446	-0.000107	-0.803863
0.100000	-0.000274	-1.710384	-91.902625	3.373461	-91.902625	3.373461	-0.000425	-1.607465
0.150000	-0.000612	-2.565295	-91.952311	4.459271	-91.952311	4.459271	-0.000941	-2.410565
0.200000	-0.001077	-3.419881	-92.024533	5.630697	-92.024533	5.630697	-0.001632	-3.212965
0.250000	-0.001670	-4.274014	-92.123349	6.810374	-92.123349	6.810374	-0.002487	-4.014439
0.300000	-0.002371	-5.127644	-92.249959	7.967822	-92.249959	7.967822	-0.003463	-4.814947
0.350000	-0.003177	-5.980672	-92.409819	9.087919	-92.409819	9.087919	-0.004541	-5.614373
0.400000	-0.004080	-6.833024	-92.608550	10.161312	-92.608550	10.161312	-0.005696	-6.412673
0.450000	-0.005068	-7.684634	-92.853162	11.182670	-92.853162	11.182670	-0.006904	-7.209836
0.500000	-0.006131	-8.535449	-93.152423	12.149816	-93.152423	12.149816	-0.008146	-8.005876
0.550000	-0.007260	-9.385421	-93.517446	13.063612	-93.517446	13.063612	-0.009404	-8.800823
0.600000	-0.008444	-10.234512	-93.962571	13.928378	-93.962571	13.928378	-0.010666	-9.594720
0.650000	-0.009674	-11.082691	-94.506793	14.752949	-94.506793	14.752949	-0.011920	-10.387612
0.700000	-0.010942	-11.929933	-95.176103	15.552849	-95.176103	15.552849	-0.013159	-11.179546
0.750000	-0.012237	-12.776221	-96.007563	16.354771	-96.007563	16.354771	-0.014379	-11.970565
0.800000	-0.013554	-13.621540	-97.056880	17.206442	-97.056880	17.206442	-0.015575	-12.760711
0.850000	-0.014885	-14.465878	-98.413779	18.200952	-98.413779	18.200952	-0.016747	-13.550016
0.900000	-0.016225	-15.309229	-100.237279	19.548381	-100.237279	19.548381	-0.017894	-14.338508
0.950000	-0.017568	-16.151587	-102.852050	21.860544	-102.852050	21.860544	-0.019017	-15.126207
1.000000	-0.018909	-16.992946	-107.082631	28.405116	-107.082631	28.405116	-0.020116	-15.913130
1.050000	-0.020246	-17.833304	-114.036683	62.332841	-114.036683	62.332841	-0.021194	-16.699286
1.100000	-0.021574	-18.672655	-112.096600	169.077963	-112.096600	169.077963	-0.022252	-17.484677
1.150000	-0.022892	-19.510996	-104.236970	-174.811214	-104.236970	-174.811214	-0.023292	-18.269306
1.200000	-0.024198	-20.348322	-99.777562	-171.280956	-99.777562	-171.280956	-0.024317	-19.053167
1.250000	-0.025489	-21.184628	-96.610076	-169.881766	-96.610076	-169.881766	-0.025328	-19.836253
1.300000	-0.026766	-22.019862	-94.106190	-169.272543	-94.106190	-169.272543	-0.026327	-20.618520
1.350000	-0.028027	-22.854062	-92.017570	-169.037885	-92.017570	-169.037885	-0.027316	-21.399988
1.400000	-0.029272	-23.687219	-90.210254	-169.034985	-90.210254	-169.034985	-0.028298	-22.180644
1.450000	-0.030501	-24.519323	-88.606711	-169.192525	-88.606711	-169.192525	-0.029273	-22.960470
1.500000	-0.031715	-25.350364	-87.158044	-169.470763	-87.158044	-169.470763	-0.030243	-23.739451
1.550000	-0.032914	-26.180330	-85.831428	-169.845514	-85.831428	-169.845514	-0.031210	-24.517568
1.600000	-0.034099	-27.009208	-84.603757	-170.300970	-84.603757	-170.300970	-0.032175	-25.294803
1.650000	-0.035270	-27.836986	-83.458151	-170.826169	-83.458151	-170.826169	-0.033139	-26.071136
1.700000	-0.036423	-28.663255	-82.358547	-171.431787	-82.358547	-171.431787	-0.034104	-26.846219
1.750000	-0.037570	-29.488937	-81.352184	-172.067414	-81.352184	-172.067414	-0.035068	-27.620815
1.800000	-0.038704	-30.313217	-80.382808	-172.763080	-80.382808	-172.763080	-0.036035	-28.394233
1.850000	-0.039828	-31.136495	-79.467444	-173.501630	-79.467444	-173.501630	-0.037004	-29.166809
1.900000	-0.040943	-31.958537	-78.589097	-174.284412	-78.589097	-174.284412	-0.037976	-29.938333
1.950000	-0.042049	-32.779342	-77.745820	-175.111425	-77.745820	-175.111425	-0.038952	-30.708804
2.000000	-0.043149	-33.599085	-76.940378	-175.970932	-76.940378	-175.970932	-0.039931	-31.478365
2.050000	-0.044240	-34.417342	-76.156178	-176.875928	-76.156178	-176.875928	-0.040916	-32.246650
2.100000	-0.045329	-35.234946	-75.417532	-177.798675	-75.417532	-177.798675	-0.041904	-33.014371
2.150000	-0.046411	-36.050858	-74.690219	-178.766586	-74.690219	-178.766586	-0.042898	-33.780630
2.200000	-0.047489	-36.865490	-73.986197	-179.765841	-73.986197	-179.765841	-0.043898	-34.545779
2.250000	-0.048565	-37.678825	-73.303822	179.205000	-73.303822	179.205000	-0.044903	-35.309802
2.300000	-0.049639	-38.490847	-72.641654	178.147272	-72.641654	178.147272	-0.045915	-36.072682
2.350000	-0.050713	-39.301537	-71.998417	177.062229	-71.998417	177.062229	-0.046932	-36.834402
2.400000	-0.051786	-40.110881	-71.372981	175.951048	-71.372981	175.951048	-0.047956	-37.594947
2.450000	-0.052860	-40.918860	-70.764336	174.814849	-70.764336	174.814849	-0.048987	-38.354302
2.500000	-0.053935	-41.725459	-70.171576	173.654695	-70.171576	173.654695	-0.050025	-39.112451
2.550000	-0.055013	-42.530601	-69.592879	172.470656	-69.592879	172.470656	-0.051069	-39.869328
2.600000	-0.056095	-43.334330	-69.028614	171.264748	-69.028614	171.264748	-0.052121	-40.624969
2.650000	-0.057180	-44.136630	-68.478102	170.037912	-68.478102	170.037912	-0.053179	-41.379362
2.700000	-0.058269	-44.937487	-67.940727	168.791062	-67.940727	168.791062	-0.054245	-42.132494
2.750000	-0.059364	-45.736886	-67.415922	167.525084	-67.415922	167.525084	-0.055319	-42.884352
2.800000	-0.060465	-46.534814	-66.903170	166.240842	-66.903170	166.240842	-0.056399	-43.634925
2.850000	-0.061573	-47.331257	-66.401993	164.939179	-66.401993	164.939179	-0.057488	-44.384201
2.900000	-0.062687	-48.126201	-65.911949	163.620919	-65.911949	163.620919	-0.058584	-45.132169
2.950000	-0.063810	-48.919635	-65.432628	162.286871	-65.432628	162.286871	-0.059688	-45.878818
3.000000	-0.064941	-49.711545	-64.963648	160.937826	-64.963648	160.937826	-0.060800	-46.624138
3.050000	-0.066080	-50.501920	-64.504655	159.574560	-64.504655	159.574560	-0.061920	-47.368119
3.100000	-0.067229	-51.290749	-64.055312	158.197836	-64.055312	158.197836	-0.063048	-48.110753
3.150000	-0.068388	-52.078021	-63.615307	156.808401	-63.615307	156.808401	-0.064185	-48.852030
3.200000	-0.069558	-52.863725	-63.184343	155.406991	-63.184343	155.406991	-0.065331	-49.591941
3.250000	-0.070738	-53.647853	-62.762139	153.994323	-62.762139	153.994323	-0.066485	-50.330479
3.300000	-0.071930	-54.430395	-62.348429	152.571106	-62.348429	152.571106	-0.067649	-51.067636
3.350000	-0.073137	-55.211062	-61.941126	151.136515	-61.941126	151.136515	-0.068824	-51.803161
3.400000	-0.074356	-55.990056	-61.541549	149.692362	-61.541549	149.692362	-0.070009	-52.537230
3.450000	-0.075582	-56.768206	-61.154534	148.244020	-61.154534	148.244020	-0.071198	-53.270566
3.500000	-0.076828	-57.543826	-60.769637	146.783113	-60.769637	146.783113	-0.072404	-54.001700
3.550000	-0.078080	-58.318880	-60.398030	145.319865	-60.398030	145.319865	-0.073613	-54.732342
3.600000	-0.079356	-59.091099	-60.027081	143.844911	-60.027081	143.844911	-0.074841	-55.460516
3.650000	-0.080635	-59.863032	-59.669940	142.368998	-59.669940	142.368998	-0.076071	-56.188443
3.700000	-0.081943	-60.631825	-59.312242	140.882535	-59.312242	140.882535	-0.077322	-56.913637
3.750000	-0.083250	-61.400619	-58.968694	139.396071	-58.968694	139.396071	-0.078574	-57.638831
3.800000	-0.084591	-62.165967	-58.623579	137.900451	-58.623579	137.900451	-0.079850	-58.361027
3.850000	-0.085931	-62.931316	-58.291655	136.404831	-58.291655	136.404831	-0.081126	-59.083222
3.900000	-0.087304	-63.693494	-57.959638	134.902794	-57.959638	134.902794	-0.082427	-59.802655
3.950000	-0.088679	-64.455384	-57.638769	133.400173	-57.638769	133.400173	-0.083730	-60.521836
4.000000	-0.090085	-65.214384	-57.319037	131.893341	-57.319037	131.893341	-0.085057	-61.238495
4.050000	-0.091497	-65.972805	-57.008670	130.385666	-57.008670	130.385666	-0.086388	-61.954650
4.100000	-0.092938	-66.728620	-56.700457	128.875498	-56.700457	128.875498	-0.087742	-62.668528
4.150000	-0.094388	-67.483567	-56.400053	127.364498	-56.400053	127.364498	-0.089104	-63.381647
4.200000	-0.095864	-68.236198	-56.102643	125.852288	-56.102643	125.852288	-0.090487	-64.092737
4.250000	-0.097354	-68.987670	-55.811673	124.339472	-55.811673	124.339472	-0.091880	-64.802814
4.300000	-0.098868	-69.737117	-55.524393	122.826345	-55.524393	122.826345	-0.093294	-65.511113
4.350000	-0.100400	-70.485117	-55.242342	121.312997	-55.242342	121.312997	-0.094722	-66.218142
4.400000	-0.101952	-71.231386	-54.964560	119.799915	-54.964560	119.799915	-0.096168	-66.923647
4.450000	-0.103527	-71.975922	-54.690927	118.287100	-54.690927	118.287100	-0.097632	-67.627628
4.500000	-0.105120	-72.719020	-54.422049	116.774861	-54.422049	116.774861	-0.099113	-68.330339
4.550000	-0.106739	-73.460104	-54.156353	115.263429	-54.156353	115.263429	-0.100615	-69.031272
4.600000	-0.108373	-74.200042	-53.895822	113.752674	-53.895822	113.752674	-0.102131	-69.731190
4.650000	-0.110038	-74.937690	-53.637597	112.243272	-53.637597	112.243272	-0.103675	-70.429078
4.700000	-0.111715	-75.674483	-53.384894	110.734492	-53.384894	110.734492	-0.105229	-71.126207
4.750000	-0.113428	-76.408713	-53.133696	109.227574	-53.133696	109.227574	-0.106815	-71.821056
4.800000	-0.115149	-77.142378	-52.888333	107.721118	-52.888333	107.721118	-0.108408	-72.515400
4.850000	-0.116912	-77.873215	-52.643743	106.216963	-52.643743	106.216963	-0.110039	-73.207219
4.900000	-0.118678	-78.603772	-52.405266	104.713048	-52.405266	104.713048	-0.111675	-73.898785
4.950000	-0.120492	-79.331243	-52.166888	103.211775	-52.166888	103.211775	-0.113353	-74.587583
5.000000	-0.122305	-80.058714	-51.934877	101.710502	-51.934877	101.710502	-0.115032	-75.276380
5.050000	-0.124171	-80.782849	-51.702340	100.212088	-51.702340	100.212088	-0.116760	-75.962169
5.100000	-0.126037	-81.506984	-51.475866	98.713674	-51.475866	98.713674	-0.118488	-76.647958
5.150000	-0.127953	-82.228093	-51.249368	97.217751	-51.249368	97.217751	-0.120263	-77.331004
5.200000	-0.129873	-82.948927	-51.028115	95.722054	-51.028115	95.722054	-0.122043	-78.013800
5.250000	-0.131840	-83.667041	-50.807301	94.228419	-50.807301	94.228419	-0.123868	-78.694117
5.300000	-0.133817	-84.384611	-50.590976	92.735197	-50.590976	92.735197	-0.125702	-79.373937
5.350000	-0.135836	-85.099764	-50.375526	91.243591	-50.375526	91.243591	-0.127578	-80.051540
5.400000	-0.137870	-85.814110	-50.163865	89.752523	-50.163865	89.752523	-0.129468	-80.728405
5.450000	-0.139943	-86.526337	-49.953488	88.262642	-49.953488	88.262642	-0.131396	-81.403314
5.500000	-0.142036	-87.237505	-49.746255	86.773353	-49.746255	86.773353	-0.133344	-82.077245
5.550000	-0.144164	-87.946844	-49.540692	85.284862	-49.540692	85.284862	-0.135327	-82.749479
5.600000	-0.146318	-88.654879	-49.337677	83.796941	-49.337677	83.796941	-0.137336	-83.420502
5.650000	-0.148503	-89.361372	-49.136698	82.309492	-49.136698	82.309492	-0.139375	-84.090084
5.700000	-0.150720	-90.066323	-48.937721	80.822516	-48.937721	80.822516	-0.141445	-84.758225
5.750000	-0.152963	-90.770012	-48.741122	79.335761	-48.741122	79.335761	-0.143541	-85.425179
5.800000	-0.155244	-91.471932	-48.546028	77.849316	-48.546028	77.849316	-0.145675	-86.090470
5.850000	-0.157547	-92.172861	-48.353632	76.362920	-48.353632	76.362920	-0.147831	-86.754822
5.900000	-0.159894	-92.871806	-48.162296	74.876623	-48.162296	74.876623	-0.150030	-87.417296
5.950000	-0.162258	-93.570020	-47.973949	73.390281	-47.973949	73.390281	-0.152247	-88.079074
6.000000	-0.164673	-94.266046	-47.786269	71.903801	-47.786269	71.903801	-0.154513	-88.738767
6.050000	-0.167100	-94.961596	-47.601841	70.417248	-47.601841	70.417248	-0.156791	-89.398002
6.100000	-0.169584	-95.654763	-47.417739	68.930326	-47.417739	68.930326	-0.159126	-90.054953
6.150000	-0.172075	-96.347697	-47.237120	67.443354	-47.237120	67.443354	-0.161468	-90.711679
6.200000	-0.174631	-97.038068	-47.056541	65.955823	-47.056541	65.955823	-0.163873	-91.365932
6.250000	-0.177188	-97.728438	-46.879641	64.468292	-46.879641	64.468292	-0.166278	-92.020184
6.300000	-0.179817	-98.416076	-46.702552	62.980093	-46.702552	62.980093	-0.168754	-92.671783
6.350000	-0.182447	-99.103714	-46.529001	61.491895	-46.529001	61.491895	-0.171231	-93.323383
6.400000	-0.185145	-99.788908	-46.355679	60.003149	-46.355679	60.003149	-0.173774	-93.972597
6.450000	-0.187850	-100.473880	-46.185465	58.514353	-46.185465	58.514353	-0.176324	-94.621594
6.500000	-0.190619	-101.156687	-46.015863	57.025237	-46.015863	57.025237	-0.178934	-95.268467
6.550000	-0.193402	-101.839061	-45.848987	55.536057	-45.848987	55.536057	-0.181557	-95.914915
6.600000	-0.196243	-102.519538	-45.683067	54.046865	-45.683067	54.046865	-0.184236	-96.559495
6.650000	-0.199104	-103.199384	-45.519542	52.557670	-45.519542	52.557670	-0.186934	-97.203453
6.700000	-0.202019	-103.877592	-45.357276	51.068824	-45.357276	51.068824	-0.189682	-97.845791
6.750000	-0.204962	-104.554981	-45.197121	49.580153	-45.197121	49.580153	-0.192455	-98.487320
6.800000	-0.207952	-105.230981	-45.038485	48.092204	-45.038485	48.092204	-0.195273	-99.127472
6.850000	-0.210978	-105.905987	-44.881725	46.604772	-44.881725	46.604772	-0.198124	-99.766639
6.900000	-0.214046	-106.579840	-44.726697	45.118410	-44.726697	45.118410	-0.201012	-100.404662
6.950000	-0.217156	-107.252538	-44.573357	43.633117	-44.573357	43.633117	-0.203940	-101.041540
7.000000	-0.220303	-107.924307	-44.421915	42.149168	-44.421915	42.149168	-0.206901	-101.677496
7.050000	-0.223501	-108.594774	-44.272017	40.667100	-44.272017	40.667100	-0.209907	-102.312162
7.100000	-0.226728	-109.264524	-44.124135	39.186531	-44.124135	39.186531	-0.212940	-102.946117
7.150000	-0.230015	-109.932837	-43.977691	37.708960	-43.977691	37.708960	-0.216025	-103.578653
7.200000	-0.233325	-110.600632	-43.833338	36.232877	-43.833338	36.232877	-0.219132	-104.210678
7.250000	-0.236703	-111.266871	-43.690350	34.761256	-43.690350	34.761256	-0.222298	-104.841172
7.300000	-0.240097	-111.932777	-43.549488	33.290898	-43.549488	33.290898	-0.225478	-105.471342
7.350000	-0.243569	-112.597021	-43.409940	31.826855	-43.409940	31.826855	-0.228726	-106.099889
7.400000	-0.247049	-113.261106	-43.272519	30.363593	-43.272519	30.363593	-0.231981	-106.728282
7.450000	-0.250616	-113.923437	-43.136375	28.908917	-43.136375	28.908917	-0.235312	-107.354983
7.500000	-0.254185	-114.585769	-43.002333	27.454242	-43.002333	27.454242	-0.238643	-107.981684
7.550000	-0.257850	-115.246269	-42.869535	26.010873	-42.869535	26.010873	-0.242058	-108.606647
7.600000	-0.261516	-115.906769	-42.738737	24.567504	-42.738737	24.567504	-0.245474	-109.231610
7.650000	-0.265273	-116.565668	-42.609256	23.136397	-42.609256	23.136397	-0.248968	-109.855086
7.700000	-0.269039	-117.224421	-42.481622	21.706404	-42.481622	21.706404	-0.252471	-110.478427
7.750000	-0.272890	-117.881787	-42.355333	20.289378	-42.355333	20.289378	-0.256046	-111.100517
7.800000	-0.276759	-118.538877	-42.230754	18.874945	-42.230754	18.874945	-0.259637	-111.722358
7.850000	-0.280705	-119.194782	-42.107508	17.473890	-42.107508	17.473890	-0.263295	-112.343173
7.900000	-0.284678	-119.850293	-41.985846	16.077294	-41.985846	16.077294	-0.266976	-112.963645
7.950000	-0.288723	-120.504809	-41.865477	14.694156	-41.865477	14.694156	-0.270720	-113.583298
8.000000	-0.292803	-121.158827	-41.746562	13.317748	-41.746562	13.317748	-0.274496	-114.202542
8.050000	-0.296947	-121.812024	-41.628881	11.954518	-41.628881	11.954518	-0.278328	-114.821156
8.100000	-0.301137	-122.464635	-41.512512	10.600702	-41.512512	10.600702	-0.282201	-115.439320
8.150000	-0.305383	-123.116587	-41.397312	9.259404	-41.397312	9.259404	-0.286125	-116.057023
8.200000	-0.309685	-123.767878	-41.283256	7.930623	-41.283256	7.930623	-0.290100	-116.674265
8.250000	-0.314034	-124.418656	-41.170311	6.613302	-41.170311	6.613302	-0.294121	-117.291193
8.300000	-0.318450	-125.068714	-41.058306	5.312024	-41.058306	5.312024	-0.298203	-117.907683
8.350000	-0.322906	-125.718392	-40.947370	4.020739	-40.947370	4.020739	-0.302324	-118.523980
8.400000	-0.327438	-126.367306	-40.837126	2.749442	-40.837126	2.749442	-0.306520	-119.139895
8.450000	-0.332002	-127.015955	-40.727938	1.486262	-40.727938	1.486262	-0.310748	-119.755714
8.500000	-0.336653	-127.663812	-40.619138	0.247432	-40.619138	0.247432	-0.315065	-120.371244
8.550000	-0.341327	-128.311508	-40.511421	-0.985571	-40.511421	-0.985571	-0.319405	-120.986743
8.600000	-0.346100	-128.958397	-40.403725	-2.189442	-40.403725	-2.189442	-0.323852	-121.602091
8.650000	-0.350886	-129.605212	-40.297190	-3.390191	-40.297190	-3.390191	-0.328313	-122.217440
8.700000	-0.355784	-130.251221	-40.190235	-4.556602	-40.190235	-4.556602	-0.332900	-122.832817
8.750000	-0.360684	-130.897230	-40.084582	-5.723013	-40.084582	-5.723013	-0.337490	-123.448194
8.800000	-0.365709	-131.542448	-39.977991	-6.849442	-39.977991	-6.849442	-0.342229	-124.063826
8.850000	-0.370736	-132.187666	-39.872692	-7.975871	-39.872692	-7.975871	-0.346971	-124.679459
8.900000	-0.375879	-132.832240	-39.766289	-9.063304	-39.766289	-9.063304	-0.351863	-125.295544
8.950000	-0.381036	-133.476755	-39.660961	-10.147191	-39.660961	-10.147191	-0.356772	-125.911670
9.000000	-0.386301	-134.120760	-39.554412	-11.193444	-39.554412	-11.193444	-0.361831	-126.528418
9.050000	-0.391590	-134.764662	-39.448663	-12.232171	-39.448663	-12.232171	-0.366922	-127.145289
9.100000	-0.396978	-135.408171	-39.341631	-13.234994	-39.341631	-13.234994	-0.372163	-127.762918
9.150000	-0.402402	-136.051549	-39.235062	-14.225850	-39.235062	-14.225850	-0.377457	-128.380799
9.200000	-0.407916	-136.694637	-39.127216	-15.182900	-39.127216	-15.182900	-0.382898	-128.999539
9.250000	-0.413477	-137.337579	-39.019426	-16.123047	-39.019426	-16.123047	-0.388415	-129.618708
9.300000	-0.419119	-137.980319	-38.910440	-17.031862	-38.910440	-17.031862	-0.394077	-130.238799
9.350000	-0.424820	-138.622915	-38.801031	-17.918294	-38.801031	-17.918294	-0.399844	-130.859549
9.400000	-0.430593	-139.265381	-38.690591	-18.776256	-38.690591	-18.776256	-0.405749	-131.481240
9.450000	-0.436437	-139.907718	-38.579174	-19.605747	-38.579174	-19.605747	-0.411794	-132.103875
9.500000	-0.442342	-140.549985	-38.466976	-20.410052	-38.466976	-20.410052	-0.417969	-132.727427
9.550000	-0.448331	-141.192152	-38.353179	-21.179096	-38.353179	-21.179096	-0.424326	-133.352265
9.600000	-0.454372	-141.834291	-38.238940	-21.926709	-38.238940	-21.926709	-0.430800	-133.977947
9.650000	-0.460510	-142.476376	-38.122410	-22.631460	-38.122410	-22.631460	-0.437507	-134.605319
9.700000	-0.466687	-143.118462	-38.005872	-23.319072	-38.005872	-23.319072	-0.444314	-135.233410
9.750000	-0.472976	-143.760552	-37.886290	-23.955269	-37.886290	-23.955269	-0.451413	-135.863658
9.800000	-0.479294	-144.402657	-37.767226	-24.579250	-37.767226	-24.579250	-0.458590	-136.494445
9.850000	-0.485736	-145.044839	-37.644318	-25.142146	-37.644318	-25.142146	-0.466132	-137.127923
9.900000	-0.492196	-145.687036	-37.522538	-25.698490	-37.522538	-25.698490	-0.473721	-137.761700
9.950000	-0.498795	-146.329398	-37.396089	-26.182766	-37.396089	-26.182766	-0.481761	-138.398768
10.000000	-0.505399	-146.971759	-37.271455	-26.667043	-37.271455	-26.667043	-0.489808	-139.035836
