! freq	dB(S11)	phase(S11)	dB(S12)	phase(S12)	
!     	dB(S21)	phase(S21)	dB(S22)	phase(S22)	
!S-par simulation data
#  GHz  S  DB  R 50
0.000000	-82.801049	0.000000	-0.000629	0.000000	-0.000629	0.000000	-82.801049	0.000000
0.050000	-40.269747	-91.959713	-0.005103	-2.922512	-0.005103	-2.922512	-40.269859	-91.961432
0.100000	-34.321649	-95.203296	-0.012181	-5.808014	-0.012181	-5.808014	-34.321778	-95.207000
0.150000	-30.838306	-98.373261	-0.018631	-8.679406	-0.018631	-8.679406	-30.838447	-98.378754
0.200000	-28.364629	-101.464822	-0.025094	-11.547616	-0.025094	-11.547616	-28.364787	-101.471999
0.250000	-26.446740	-104.493615	-0.032096	-14.414297	-0.032096	-14.414297	-26.446919	-104.502406
0.300000	-24.881120	-107.480739	-0.039820	-17.279584	-0.039820	-17.279584	-24.881321	-107.491094
0.350000	-23.558757	-110.439841	-0.048271	-20.143532	-0.048271	-20.143532	-23.558977	-110.451721
0.400000	-22.414637	-113.378857	-0.057439	-23.006247	-0.057439	-23.006247	-22.414874	-113.392228
0.450000	-21.407098	-116.302452	-0.067365	-25.867840	-0.067365	-25.867840	-21.407350	-116.317279
0.500000	-20.507267	-119.215676	-0.077979	-28.728610	-0.077979	-28.728610	-20.507534	-119.231926
0.550000	-19.694742	-122.121007	-0.089270	-31.588749	-0.089270	-31.588749	-19.695020	-122.138645
0.600000	-18.954546	-125.020033	-0.101248	-34.448405	-0.101248	-34.448405	-18.954834	-125.039020
0.650000	-18.275395	-127.913851	-0.113944	-37.307701	-0.113944	-37.307701	-18.275693	-127.934144
0.700000	-17.648192	-130.803711	-0.127313	-40.166764	-0.127313	-40.166764	-17.648498	-130.825266
0.750000	-17.065880	-133.690237	-0.141358	-43.025670	-0.141358	-43.025670	-17.066194	-133.713005
0.800000	-16.522900	-136.573797	-0.156115	-45.884476	-0.156115	-45.884476	-16.523220	-136.597726
0.850000	-16.014511	-139.454894	-0.171571	-48.743245	-0.171571	-48.743245	-16.014837	-139.479926
0.900000	-15.536783	-142.333901	-0.187718	-51.602027	-0.187718	-51.602027	-15.537115	-142.359978
0.950000	-15.086457	-145.211104	-0.204563	-54.460875	-0.204563	-54.460875	-15.086794	-145.238164
1.000000	-14.660748	-148.086769	-0.222103	-57.319840	-0.222103	-57.319840	-14.661089	-148.114746
1.050000	-14.257265	-150.961139	-0.240341	-60.178983	-0.240341	-60.178983	-14.257610	-150.989964
1.100000	-13.873938	-153.834438	-0.259275	-63.038368	-0.259275	-63.038368	-13.874288	-153.864042
1.150000	-13.508963	-156.706881	-0.278906	-65.898066	-0.278906	-65.898066	-13.509316	-156.737191
1.200000	-13.160754	-159.578673	-0.299233	-68.758157	-0.299233	-68.758157	-13.161111	-159.609612
1.250000	-12.827911	-162.450011	-0.320257	-71.618726	-0.320257	-71.618726	-12.828272	-162.481504
1.300000	-12.509229	-165.321087	-0.341994	-74.479881	-0.341994	-74.479881	-12.509592	-165.353053
1.350000	-12.203551	-168.192100	-0.364431	-77.341712	-0.364431	-77.341712	-12.203917	-168.224459
1.400000	-11.909880	-171.063236	-0.387571	-80.204326	-0.387571	-80.204326	-11.910248	-171.095905
1.450000	-11.627317	-173.934674	-0.411417	-83.067836	-0.411417	-83.067836	-11.627687	-173.967571
1.500000	-11.355051	-176.806594	-0.435976	-85.932357	-0.435976	-85.932357	-11.355422	-176.839636
1.550000	-11.092343	-179.679170	-0.461252	-88.798011	-0.461252	-88.798011	-11.092715	-179.712272
1.600000	-10.838524	177.447429	-0.487254	-91.664921	-0.487254	-91.664921	-10.838897	177.414352
1.650000	-10.592982	174.573039	-0.513990	-94.533213	-0.513990	-94.533213	-10.593354	174.540071
1.700000	-10.355157	171.697499	-0.541471	-97.403013	-0.541471	-97.403013	-10.355529	171.664725
1.750000	-10.124539	168.820658	-0.569709	-100.274446	-0.569709	-100.274446	-10.124910	168.788163
1.800000	-9.900657	165.942369	-0.598717	-103.147639	-0.598717	-103.147639	-9.901027	165.910237
1.850000	-9.683081	163.062496	-0.628510	-106.022713	-0.628510	-106.022713	-9.683450	163.030809
1.900000	-9.471421	160.180890	-0.659113	-108.899810	-0.659113	-108.899810	-9.471788	160.149731
1.950000	-9.265311	157.297429	-0.690544	-111.779049	-0.690544	-111.779049	-9.265675	157.266881
2.000000	-9.064410	154.412025	-0.722815	-114.660513	-0.722815	-114.660513	-9.064771	154.382166
2.050000	-8.868411	151.524583	-0.755947	-117.544304	-0.755947	-117.544304	-8.868769	151.495491
2.100000	-8.677034	148.635022	-0.789962	-120.430514	-0.789962	-120.430514	-8.677388	148.606771
2.150000	-8.490020	145.743272	-0.824884	-123.319224	-0.824884	-123.319224	-8.490369	145.715936
2.200000	-8.307134	142.849279	-0.860737	-126.210505	-0.860737	-126.210505	-8.307478	142.822928
2.250000	-8.128159	139.953004	-0.897547	-129.104418	-0.897547	-129.104418	-8.128499	139.927706
2.300000	-7.952900	137.054424	-0.935341	-132.001009	-0.935341	-132.001009	-7.953234	137.030243
2.350000	-7.781178	134.153531	-0.974144	-134.900310	-0.974144	-134.900310	-7.781507	134.130528
2.400000	-7.612832	131.250333	-1.013985	-137.802339	-1.013985	-137.802339	-7.613155	131.228567
2.450000	-7.447716	128.344859	-1.054890	-140.707100	-1.054890	-140.707100	-7.448033	128.324383
2.500000	-7.285702	125.437150	-1.096887	-143.614578	-1.096887	-143.614578	-7.286012	125.418015
2.550000	-7.126673	122.527224	-1.140022	-146.524801	-1.140022	-146.524801	-7.126977	122.509476
2.600000	-6.970527	119.615210	-1.184303	-149.437660	-1.184303	-149.437660	-6.970825	119.598891
2.650000	-6.817177	116.701204	-1.229753	-152.353088	-1.229753	-152.353088	-6.817468	116.686352
2.700000	-6.666547	113.785322	-1.276397	-155.271003	-1.276397	-155.271003	-6.666831	113.771969
2.750000	-6.518570	110.867698	-1.324256	-158.191301	-1.324256	-158.191301	-6.518847	110.855872
2.800000	-6.373194	107.948479	-1.373349	-161.113864	-1.373349	-161.113864	-6.373464	107.938204
2.850000	-6.230374	105.027831	-1.423693	-164.038556	-1.423693	-164.038556	-6.230638	105.019125
2.900000	-6.090078	102.105935	-1.475303	-166.965225	-1.475303	-166.965225	-6.090335	102.098811
2.950000	-5.952312	99.182900	-1.528280	-169.893866	-1.528280	-169.893866	-5.952561	99.177367
3.000000	-5.817008	96.259119	-1.582455	-172.823969	-1.582455	-172.823969	-5.817250	96.255179
3.050000	-5.684180	93.334720	-1.637913	-175.755502	-1.637913	-175.755502	-5.684415	93.332371
3.100000	-5.553828	90.409931	-1.694650	-178.688258	-1.694650	-178.688258	-5.554056	90.409165
3.150000	-5.425959	87.484991	-1.752658	178.377974	-1.752658	178.377974	-5.426180	87.485797
3.200000	-5.300585	84.560147	-1.811922	175.443415	-1.811922	175.443415	-5.300799	84.562506
3.250000	-5.177727	81.635647	-1.872422	172.508287	-1.872422	172.508287	-5.177933	81.639537
3.300000	-5.057407	78.711742	-1.934130	169.572812	-1.934130	169.572812	-5.057606	78.717136
3.350000	-4.939657	75.788684	-1.997009	166.637213	-1.997009	166.637213	-4.939848	75.795547
3.400000	-4.824510	72.866716	-2.061016	163.701701	-2.061016	163.701701	-4.824693	72.875012
3.450000	-4.712006	69.946078	-2.126099	160.766479	-2.126099	160.766479	-4.712182	69.955765
3.500000	-4.602188	67.026997	-2.192195	157.831734	-2.192195	157.831734	-4.602356	67.038026
3.550000	-4.495035	64.109594	-2.259220	154.897597	-2.259220	154.897597	-4.495196	64.121917
3.600000	-4.390747	61.194254	-2.327124	151.964286	-2.327124	151.964286	-4.390900	61.207811
3.650000	-4.289301	58.281041	-2.395790	149.031870	-2.395790	149.031870	-4.289446	58.295771
3.700000	-4.190755	55.370088	-2.465111	146.100417	-2.465111	146.100417	-4.190892	55.385926
3.750000	-4.095173	52.461491	-2.534968	143.169949	-2.534968	143.169949	-4.095302	52.478368
3.800000	-4.002690	49.555380	-2.605216	140.240462	-2.605216	140.240462	-4.002812	49.573220
3.850000	-3.913319	46.651671	-2.675704	137.311820	-2.675704	137.311820	-3.913434	46.670397
3.900000	-3.827138	43.750297	-2.746265	134.383845	-2.746265	134.383845	-3.827245	43.769827
3.950000	-3.744228	40.851117	-2.816715	131.456272	-2.816715	131.456272	-3.744328	40.871368
4.000000	-3.664682	37.953912	-2.886850	128.528740	-2.886850	128.528740	-3.664775	37.974794
4.050000	-3.588599	35.058366	-2.956444	125.600771	-2.956444	125.600771	-3.588685	35.079787
4.100000	-3.516088	32.164056	-3.025251	122.671761	-3.025251	122.671761	-3.516168	32.185922
4.150000	-3.447271	29.270438	-3.092997	119.740955	-3.092997	119.740955	-3.447345	29.292649
4.200000	-3.382286	26.376825	-3.159383	116.807430	-3.159383	116.807430	-3.382355	26.399279
4.250000	-3.321288	23.482371	-3.224079	113.870064	-3.224079	113.870064	-3.321351	23.504961
4.300000	-3.264454	20.586043	-3.286718	110.927511	-3.286718	110.927511	-3.264514	20.608659
4.350000	-3.211991	17.686596	-3.346900	107.978163	-3.346900	107.978163	-3.212046	17.709123
4.400000	-3.164137	14.782539	-3.404179	105.020105	-3.404179	105.020105	-3.164189	14.804857
4.450000	-3.121172	11.872094	-3.458061	102.051069	-3.458061	102.051069	-3.121222	11.894079
4.500000	-3.083428	8.953153	-3.508000	99.068364	-3.508000	99.068364	-3.083477	8.974675
4.550000	-3.051302	6.023218	-3.553385	96.068805	-3.553385	96.068805	-3.051351	6.044140
4.600000	-3.024684	3.080910	-3.594083	93.050873	-3.594083	93.050873	-3.024734	3.101101
4.650000	-3.005334	0.119729	-3.628237	90.005725	-3.628237	90.005725	-3.005385	0.139020
4.700000	-2.993364	-2.863073	-3.655531	86.930073	-3.655531	86.930073	-2.993419	-2.844847
4.750000	-2.989646	-5.872419	-3.675004	83.817509	-3.675004	83.817509	-2.989707	-5.855437
4.800000	-2.995265	-8.914165	-3.685569	80.660341	-3.685569	80.660341	-2.995332	-8.898622
4.850000	-3.011582	-11.995293	-3.686002	77.449280	-3.686002	77.449280	-3.011659	-11.981405
4.900000	-3.040329	-15.124154	-3.674916	74.173043	-3.674916	74.173043	-3.040419	-15.112163
4.950000	-3.083731	-18.310772	-3.650744	70.817833	-3.650744	70.817833	-3.083837	-18.300954
5.000000	-3.144685	-21.567215	-3.611720	67.366651	-3.611720	67.366651	-3.144812	-21.559888
5.050000	-3.227847	-24.911355	-3.555227	63.793709	-3.555227	63.793709	-3.228001	-24.906909
5.100000	-3.337430	-28.356860	-3.479863	60.077870	-3.479863	60.077870	-3.337620	-28.355746
5.150000	-3.480319	-31.924195	-3.383308	56.186595	-3.383308	56.186595	-3.480555	-31.926967
5.200000	-3.668153	-35.644758	-3.261951	52.067563	-3.261951	52.067563	-3.668454	-35.652152
5.250000	-3.914645	-39.545069	-3.113755	47.668620	-3.113755	47.668620	-3.915037	-39.558034
5.300000	-4.239798	-43.653408	-2.937009	42.922815	-2.937009	42.922815	-4.240321	-43.673213
5.350000	-4.677163	-48.002657	-2.729806	37.728333	-2.729806	37.728333	-4.677888	-48.031139
5.400000	-5.279547	-52.605278	-2.492646	31.953821	-2.492646	31.953821	-5.280603	-52.645232
5.450000	-6.134075	-57.403894	-2.230802	25.431810	-2.230802	25.431810	-6.135725	-57.459867
5.500000	-7.390430	-62.133866	-1.957957	17.963087	-1.957957	17.963087	-7.393284	-62.213812
5.550000	-9.343740	-65.815228	-1.702228	9.283536	-1.702228	9.283536	-9.349579	-65.935111
5.600000	-12.564309	-64.561678	-1.515450	-0.840945	-1.515450	-0.840945	-12.580257	-64.753244
5.650000	-17.295059	-39.716509	-1.479621	-12.550099	-1.479621	-12.550099	-17.355332	-39.901290
5.700000	-14.994305	13.448475	-1.705051	-25.712602	-1.705051	-25.712602	-15.037195	13.696816
5.750000	-9.538679	23.314895	-2.292907	-39.734822	-2.292907	-39.734822	-9.552414	23.508204
5.800000	-6.101741	17.661017	-3.280985	-53.667595	-3.280985	-53.667595	-6.108195	17.799448
5.850000	-3.998427	8.684123	-4.620346	-66.601527	-4.620346	-66.601527	-4.002258	8.790324
5.900000	-2.704564	-0.466114	-6.207460	-78.020956	-6.207460	-78.020956	-2.707173	-0.380735
5.950000	-1.904264	-8.830438	-7.935670	-87.837542	-7.935670	-87.837542	-1.906209	-8.759830
6.000000	-1.400655	-16.228332	-9.730418	-96.245651	-9.730418	-96.245651	-1.402199	-16.169029
6.050000	-1.079834	-22.725956	-11.539484	-103.494557	-11.539484	-103.494557	-1.081122	-22.675780
6.100000	-0.871323	-28.476056	-13.334838	-109.851895	-13.334838	-109.851895	-0.872439	-28.433592
6.150000	-0.733292	-33.629815	-15.100057	-115.549993	-15.100057	-115.549993	-0.734289	-33.594111
6.200000	-0.641678	-38.300227	-16.807406	-120.772260	-16.807406	-120.772260	-0.642593	-38.270614
6.250000	-0.579510	-42.605081	-18.453597	-125.703077	-18.453597	-125.703077	-0.580368	-42.581111
6.300000	-0.537468	-46.620274	-20.014292	-130.485020	-20.014292	-130.485020	-0.538288	-46.601640
6.350000	-0.509953	-50.398007	-21.440295	-135.247481	-21.440295	-135.247481	-0.510748	-50.384495
6.400000	-0.492793	-53.988963	-22.684769	-140.104334	-22.684769	-140.104334	-0.493577	-53.980448
6.450000	-0.482838	-57.442952	-23.723911	-145.107722	-23.723911	-145.107722	-0.483619	-57.439377
6.500000	-0.478797	-60.784547	-24.489170	-150.264467	-24.489170	-150.264467	-0.479586	-60.785909
6.550000	-0.479717	-64.038370	-24.931686	-155.504975	-24.931686	-155.504975	-0.480522	-64.044716
6.600000	-0.484635	-67.232594	-25.061456	-160.702697	-25.061456	-160.702697	-0.485463	-67.244008
6.650000	-0.493824	-70.380079	-24.845738	-165.702212	-24.845738	-165.702212	-0.494686	-70.396705
6.700000	-0.506584	-73.504591	-24.376028	-170.443028	-24.376028	-170.443028	-0.507487	-73.526591
6.750000	-0.523934	-76.619669	-23.650904	-174.833519	-23.650904	-174.833519	-0.524890	-76.647287
6.800000	-0.545581	-79.741692	-22.772380	-178.951415	-22.772380	-178.951415	-0.546602	-79.775183
6.850000	-0.572800	-82.887897	-21.762242	177.171915	-21.762242	177.171915	-0.573899	-82.927602
6.900000	-0.606249	-86.072516	-20.674703	173.448515	-20.674703	173.448515	-0.607441	-86.118822
6.950000	-0.647247	-89.312105	-19.539194	169.802709	-19.539194	169.802709	-0.648553	-89.365467
7.000000	-0.698048	-92.628167	-18.367504	166.167788	-18.367504	166.167788	-0.699490	-92.689159
7.050000	-0.759716	-96.029814	-17.194259	162.486031	-17.194259	162.486031	-0.761321	-96.099044
7.100000	-0.837592	-99.556197	-16.000557	158.688730	-16.000557	158.688730	-0.839399	-99.634527
7.150000	-0.932601	-103.206125	-14.824289	154.750491	-14.824289	154.750491	-0.934651	-103.294412
7.200000	-1.053597	-107.029721	-13.642569	150.592702	-13.642569	150.592702	-1.055952	-107.129204
7.250000	-1.203331	-111.024616	-12.483202	146.204546	-12.483202	146.204546	-1.206063	-111.136584
7.300000	-1.394770	-115.239747	-11.331787	141.505622	-11.331787	141.505622	-1.397983	-115.365998
7.350000	-1.639068	-119.690431	-10.199100	136.456448	-10.199100	136.456448	-1.642904	-119.833143
7.400000	-1.952792	-124.393321	-9.091060	131.005959	-9.091060	131.005959	-1.957447	-124.555270
7.450000	-2.357945	-129.350213	-8.015932	125.105629	-8.015932	125.105629	-2.363703	-129.534994
7.500000	-2.883557	-134.534529	-6.984954	118.715112	-6.984954	118.715112	-2.890848	-134.746890
7.550000	-3.569522	-139.868889	-6.012322	111.803570	-6.012322	111.803570	-3.579023	-140.115348
7.600000	-4.463018	-145.180083	-5.117016	104.384828	-5.117016	104.384828	-4.475846	-145.469500
7.650000	-5.624892	-150.145025	-4.318260	96.506891	-4.318260	96.506891	-5.643002	-150.489678
7.700000	-7.128873	-154.170230	-3.634099	88.267032	-3.634099	88.267032	-7.155958	-154.586654
7.750000	-9.055359	-156.147023	-3.077944	79.809961	-3.077944	79.809961	-9.098948	-156.653609
7.800000	-11.450432	-154.000231	-2.654173	71.311019	-2.654173	71.311019	-11.526533	-154.595556
7.850000	-14.060701	-143.538639	-2.362083	62.957154	-2.362083	62.957154	-14.197388	-144.081516
7.900000	-15.644727	-121.955648	-2.186905	54.909391	-2.186905	54.909391	-15.833739	-121.982675
7.950000	-14.853846	-99.488453	-2.109362	47.282938	-2.109362	47.282938	-15.000763	-98.950371
8.000000	-12.891097	-87.263927	-2.108985	40.150120	-2.108985	40.150120	-12.976806	-86.626877
8.050000	-11.045712	-82.840544	-2.164619	33.530948	-2.164619	33.530948	-11.096688	-82.272579
8.100000	-9.573954	-82.291446	-2.258117	27.412312	-2.258117	27.412312	-9.606831	-81.805539
8.150000	-8.432410	-83.587936	-2.374862	21.760803	-2.374862	21.760803	-8.455225	-83.169565
8.200000	-7.545934	-85.787799	-2.503752	16.537340	-2.503752	16.537340	-7.562724	-85.421877
8.250000	-6.849238	-88.413223	-2.636389	11.686763	-2.636389	11.686763	-6.862152	-88.088273
8.300000	-6.296240	-91.233696	-2.767042	7.162879	-2.767042	7.162879	-6.306523	-90.941207
8.350000	-5.853630	-94.127559	-2.891752	2.922744	-2.891752	2.922744	-5.862051	-93.861203
8.400000	-5.497187	-97.030235	-3.007878	-1.072329	-3.007878	-1.072329	-5.504241	-96.785234
8.450000	-5.209493	-99.907826	-3.113636	-4.854976	-3.113636	-4.854976	-5.215516	-99.680476
8.500000	-4.977784	-102.743126	-3.207807	-8.453003	-3.207807	-8.453003	-4.983013	-102.530486
8.550000	-4.793147	-105.527643	-3.289348	-11.888101	-3.289348	-11.888101	-4.797753	-105.327291
8.600000	-4.642463	-108.268366	-3.360075	-15.204351	-3.360075	-15.204351	-4.646558	-108.078612
8.650000	-4.523349	-110.963330	-3.418945	-18.407692	-3.418945	-18.407692	-4.527025	-110.782604
8.700000	-4.431281	-113.616369	-3.466161	-21.514966	-3.466161	-21.514966	-4.434610	-113.443343
8.750000	-4.362745	-116.232181	-3.502025	-24.540847	-3.502025	-24.540847	-4.365781	-116.065716
8.800000	-4.316281	-118.813985	-3.526167	-27.494233	-3.526167	-27.494233	-4.319068	-118.653025
8.850000	-4.288294	-121.369465	-3.539783	-30.391664	-3.539783	-30.391664	-4.290866	-121.213140
8.900000	-4.277211	-123.903689	-3.543291	-33.242947	-3.543291	-33.242947	-4.279594	-123.751213
8.950000	-4.281842	-126.421554	-3.537122	-36.056836	-3.537122	-36.056836	-4.284056	-126.272207
9.000000	-4.301316	-128.927752	-3.521706	-38.841196	-3.521706	-38.841196	-4.303378	-128.780861
9.050000	-4.335035	-131.426747	-3.497473	-41.603149	-3.497473	-41.603149	-4.336957	-131.281680
9.100000	-4.383434	-133.922889	-3.464367	-44.348650	-3.464367	-44.348650	-4.385227	-133.779003
9.150000	-4.444540	-136.420200	-3.423929	-47.085217	-3.423929	-47.085217	-4.446211	-136.276948
9.200000	-4.519156	-138.922018	-3.376083	-49.817058	-3.376083	-49.817058	-4.520711	-138.778826
9.250000	-4.607475	-141.431711	-3.321235	-52.549005	-3.321235	-52.549005	-4.608916	-141.288007
9.300000	-4.711585	-143.954450	-3.258927	-55.286978	-3.258927	-55.286978	-4.712914	-143.809576
9.350000	-4.831079	-146.493101	-3.190199	-58.035993	-3.190199	-58.035993	-4.832296	-146.346421
9.400000	-4.965963	-149.049635	-3.115859	-60.799655	-3.115859	-60.799655	-4.967068	-148.900520
9.450000	-5.117119	-151.626428	-3.036346	-63.581686	-3.036346	-63.581686	-5.118107	-151.474213
9.500000	-5.285592	-154.225601	-2.952113	-66.385644	-2.952113	-66.385644	-5.286459	-154.069578
9.550000	-5.471409	-156.846965	-2.863982	-69.212612	-2.863982	-69.212612	-5.472150	-156.686437
9.600000	-5.679114	-159.497302	-2.771516	-72.071746	-2.771516	-72.071746	-5.679720	-159.331338
9.650000	-5.909082	-162.175552	-2.675737	-74.964027	-2.675737	-74.964027	-5.909544	-162.003198
9.700000	-6.163802	-164.883112	-2.577171	-77.893717	-2.577171	-77.893717	-6.164107	-164.703267
9.750000	-6.444511	-167.618249	-2.476662	-80.861503	-2.476662	-80.861503	-6.444642	-167.429736
9.800000	-6.753752	-170.380234	-2.374830	-83.869794	-2.374830	-83.869794	-6.753692	-170.181719
9.850000	-7.095734	-173.169017	-2.272260	-86.923613	-2.272260	-86.923613	-7.095458	-172.958859
9.900000	-7.473306	-175.980818	-2.169813	-90.023672	-2.169813	-90.023672	-7.472783	-175.757143
9.950000	-7.889822	-178.811036	-2.068281	-93.170155	-2.068281	-93.170155	-7.889012	-178.571700
10.000000	-8.349904	178.345474	-1.968432	-96.364182	-1.968432	-96.364182	-8.348756	178.603005
