! freq	dB(S11)	phase(S11)	dB(S12)	phase(S12)	
!     	dB(S21)	phase(S21)	dB(S22)	phase(S22)	
!S-par simulation data
#  GHz  S  DB  R 50
0.000000	-80.939780	0.000000	-0.000780	0.000000	-0.000780	0.000000	-80.939780	0.000000
0.050000	-66.321137	38.049149	-0.007385	-2.755430	-0.007385	-2.755430	-64.517684	30.505152
0.100000	-65.396571	56.041488	-0.011513	-5.470302	-0.011513	-5.470302	-60.274982	30.405902
0.150000	-62.961765	83.966352	-0.015050	-8.183406	-0.015050	-8.183406	-57.191864	25.629352
0.200000	-59.273797	104.910254	-0.018700	-10.893442	-0.018700	-10.893442	-54.555440	20.556666
0.250000	-55.619914	116.652573	-0.022375	-13.600129	-0.022375	-13.600129	-52.182670	15.695853
0.300000	-52.374655	122.373815	-0.025933	-16.303976	-0.025933	-16.303976	-49.985257	11.200197
0.350000	-49.657911	125.402502	-0.029343	-19.006353	-0.029343	-19.006353	-48.008370	7.005173
0.400000	-47.265567	126.407588	-0.032562	-21.707754	-0.032562	-21.707754	-46.164177	3.153729
0.450000	-45.190393	126.390981	-0.035648	-24.408901	-0.035648	-24.408901	-44.483583	-0.456349
0.500000	-43.345933	125.619136	-0.038623	-27.110124	-0.038623	-27.110124	-42.931216	-3.846787
0.550000	-41.681264	124.291776	-0.041521	-29.811670	-0.041521	-29.811670	-41.486216	-7.046578
0.600000	-40.180580	122.607647	-0.044383	-32.513625	-0.044383	-32.513625	-40.151071	-10.107420
0.650000	-38.799800	120.610728	-0.047234	-35.216139	-0.047234	-35.216139	-38.897108	-13.034032
0.700000	-37.531159	118.397397	-0.050100	-37.919196	-0.050100	-37.919196	-37.725613	-15.859768
0.750000	-36.359271	116.016001	-0.053000	-40.622808	-0.053000	-40.622808	-36.628381	-18.601669
0.800000	-35.262350	113.481590	-0.055958	-43.327070	-0.055958	-43.327070	-35.588650	-21.262136
0.850000	-34.241328	110.843908	-0.058978	-46.031888	-0.058978	-46.031888	-34.611324	-23.864146
0.900000	-33.281822	108.112147	-0.062079	-48.737337	-0.062079	-48.737337	-33.684743	-26.409945
0.950000	-32.379313	105.306858	-0.065269	-51.443396	-0.065269	-51.443396	-32.806712	-28.909454
1.000000	-31.525112	102.436644	-0.068564	-54.150133	-0.068564	-54.150133	-31.970072	-31.366009
1.050000	-30.719717	99.520744	-0.071955	-56.857466	-0.071955	-56.857466	-31.177082	-33.791025
1.100000	-29.956459	96.563865	-0.075455	-59.565451	-0.075455	-59.565451	-30.421996	-36.186844
1.150000	-29.230098	93.571221	-0.079077	-62.274160	-0.079077	-62.274160	-29.700283	-38.556422
1.200000	-28.538691	90.550633	-0.082818	-64.983598	-0.082818	-64.983598	-29.010781	-40.905058
1.250000	-27.880504	87.508477	-0.086676	-67.693757	-0.086676	-67.693757	-28.352404	-43.237349
1.300000	-27.253093	84.449020	-0.090646	-70.404656	-0.090646	-70.404656	-27.723146	-45.556510
1.350000	-26.654315	81.375938	-0.094721	-73.116299	-0.094721	-73.116299	-27.121215	-47.865429
1.400000	-26.082284	78.292412	-0.098891	-75.828661	-0.098891	-75.828661	-26.545005	-50.166685
1.450000	-25.535268	75.201161	-0.103143	-78.541667	-0.103143	-78.541667	-25.993008	-52.462554
1.500000	-25.010974	72.104258	-0.107471	-81.255181	-0.107471	-81.255181	-25.463003	-54.754931
1.550000	-24.509214	69.004462	-0.111873	-83.968889	-0.111873	-83.968889	-24.955110	-57.046085
1.600000	-24.028759	65.903463	-0.116374	-86.682555	-0.116374	-86.682555	-24.468230	-59.337531
1.650000	-23.568507	62.802703	-0.121016	-89.396058	-0.121016	-89.396058	-24.001372	-61.630595
1.700000	-23.127609	59.703312	-0.125836	-92.109453	-0.125836	-92.109453	-23.553804	-63.926290
1.750000	-22.704791	56.606584	-0.130883	-94.822925	-0.130883	-94.822925	-23.124250	-66.226032
1.800000	-22.299550	53.513335	-0.136148	-97.536694	-0.136148	-97.536694	-22.712313	-68.530564
1.850000	-21.911210	50.424323	-0.141616	-100.250900	-0.141616	-100.250900	-22.317366	-70.840663
1.900000	-21.539175	47.340264	-0.147269	-102.965601	-0.147269	-102.965601	-21.938842	-73.157068
1.950000	-21.182936	44.261757	-0.153084	-105.680783	-0.153084	-105.680783	-21.576254	-75.480365
2.000000	-20.842018	41.189288	-0.159043	-108.396392	-0.159043	-108.396392	-21.229140	-77.810964
2.050000	-20.515995	38.123376	-0.165132	-111.112368	-0.165132	-111.112368	-20.897076	-80.149272
2.100000	-20.204487	35.064539	-0.171338	-113.828648	-0.171338	-113.828648	-20.579675	-82.495630
2.150000	-19.907154	32.013299	-0.177649	-116.545174	-0.177649	-116.545174	-20.276592	-84.850325
2.200000	-19.623687	28.970188	-0.184052	-119.261890	-0.184052	-119.261890	-19.987514	-87.213597
2.250000	-19.353808	25.935737	-0.190536	-121.978748	-0.190536	-121.978748	-19.712159	-89.585644
2.300000	-19.097264	22.910479	-0.197087	-124.695708	-0.197087	-124.695708	-19.450276	-91.966631
2.350000	-18.853824	19.894928	-0.203691	-127.412735	-0.203691	-127.412735	-19.201640	-94.356696
2.400000	-18.623277	16.889579	-0.210334	-130.129804	-0.210334	-130.129804	-18.966053	-96.755951
2.450000	-18.405430	13.894896	-0.216999	-132.846895	-0.216999	-132.846895	-18.743340	-99.164495
2.500000	-18.200112	10.911303	-0.223669	-135.563998	-0.223669	-135.563998	-18.533348	-101.582411
2.550000	-18.007349	7.939444	-0.230327	-138.281112	-0.230327	-138.281112	-18.336128	-104.009986
2.600000	-17.826844	4.979414	-0.236953	-140.998246	-0.236953	-140.998246	-18.151411	-106.447090
2.650000	-17.658481	2.031509	-0.243528	-143.715418	-0.243528	-143.715418	-17.979107	-108.893799
2.700000	-17.502167	-0.904018	-0.250033	-146.432657	-0.250033	-146.432657	-17.819146	-111.350197
2.750000	-17.357827	-3.826950	-0.256448	-149.150003	-0.256448	-149.150003	-17.671478	-113.816378
2.800000	-17.225410	-6.737103	-0.262752	-151.867507	-0.262752	-151.867507	-17.536074	-116.292447
2.850000	-17.104889	-9.634321	-0.268926	-154.585233	-0.268926	-154.585233	-17.412926	-118.778532
2.900000	-16.996259	-12.518469	-0.274948	-157.303254	-0.274948	-157.303254	-17.302045	-121.274778
2.950000	-16.899543	-15.389424	-0.280799	-160.021657	-0.280799	-160.021657	-17.203465	-123.781357
3.000000	-16.814787	-18.247075	-0.286459	-162.740540	-0.286459	-162.740540	-17.117243	-126.298470
3.050000	-16.742066	-21.091308	-0.291909	-165.460014	-0.291909	-165.460014	-17.043459	-128.826348
3.100000	-16.681481	-23.922004	-0.297131	-168.180201	-0.297131	-168.180201	-16.982219	-131.365258
3.150000	-16.633299	-26.738878	-0.302105	-170.901244	-0.302105	-170.901244	-16.933792	-133.915632
3.200000	-16.597693	-29.541766	-0.306814	-173.623295	-0.306814	-173.623295	-16.898348	-136.477829
3.250000	-16.574730	-32.330626	-0.311246	-176.346499	-0.311246	-176.346499	-16.875945	-139.052122
3.300000	-16.564643	-35.105224	-0.315390	-179.071022	-0.315390	-179.071022	-16.866809	-141.638954
3.350000	-16.567700	-37.865275	-0.319232	178.202961	-0.319232	178.202961	-16.871199	-144.238822
3.400000	-16.584212	-40.610431	-0.322763	175.475268	-0.322763	175.475268	-16.889418	-146.852278
3.450000	-16.614534	-43.340266	-0.325977	172.745707	-0.325977	172.745707	-16.921811	-149.479938
3.500000	-16.659066	-46.054268	-0.328867	170.014083	-0.328867	170.014083	-16.968771	-152.122485
3.550000	-16.718264	-48.751816	-0.331431	167.280194	-0.331431	167.280194	-17.030746	-154.780678
3.600000	-16.792639	-51.432165	-0.333668	164.543835	-0.333668	164.543835	-17.108243	-157.455356
3.650000	-16.882765	-54.094426	-0.335579	161.804798	-0.335579	161.804798	-17.201836	-160.147451
3.700000	-16.989290	-56.737535	-0.337169	159.062875	-0.337169	159.062875	-17.312173	-162.858002
3.750000	-17.112940	-59.360227	-0.338446	156.317856	-0.338446	156.317856	-17.439990	-165.588164
3.800000	-17.254882	-61.960479	-0.339411	153.569460	-0.339411	153.569460	-17.586475	-168.339720
3.850000	-17.415696	-64.536923	-0.340084	150.817551	-0.340084	150.817551	-17.752227	-171.113716
3.900000	-17.596417	-67.087398	-0.340481	148.061932	-0.340481	148.061932	-17.938315	-173.911814
3.950000	-17.798212	-69.609329	-0.340618	145.302413	-0.340618	145.302413	-18.145958	-176.735915
4.000000	-18.022407	-72.099630	-0.340517	142.538813	-0.340517	142.538813	-18.376545	-179.588204
4.050000	-18.270509	-74.554599	-0.340200	139.770962	-0.340200	139.770962	-18.631671	177.528783
4.100000	-18.544239	-76.969759	-0.339691	136.998699	-0.339691	136.998699	-18.913171	174.612071
4.150000	-18.845569	-79.339678	-0.339019	134.221880	-0.339019	134.221880	-19.223171	171.658133
4.200000	-19.176779	-81.657709	-0.338212	131.440375	-0.338212	131.440375	-19.564145	168.662733
4.250000	-19.540511	-83.915650	-0.337301	128.654070	-0.337301	128.654070	-19.938995	165.620721
4.300000	-19.939851	-86.103288	-0.336321	125.862869	-0.336321	125.862869	-20.351153	162.525738
4.350000	-20.378429	-88.207762	-0.335303	123.066696	-0.335303	123.066696	-20.804710	159.369820
4.400000	-20.860751	-90.211347	-0.334286	120.265439	-0.334286	120.265439	-21.304820	156.141890
4.450000	-21.391950	-92.091859	-0.333305	117.459062	-0.333305	117.459062	-21.857505	152.828162
4.500000	-21.977986	-93.821830	-0.332398	114.647610	-0.332398	114.647610	-22.469968	149.411502
4.550000	-22.626345	-95.362852	-0.331602	111.831092	-0.331602	111.831092	-23.151518	145.867494
4.600000	-23.346167	-96.662115	-0.330954	109.009544	-0.330954	109.009544	-23.914029	142.161896
4.650000	-24.148659	-97.645208	-0.330491	106.183022	-0.330491	106.183022	-24.772943	138.245138
4.700000	-25.047536	-98.204350	-0.330247	103.351606	-0.330247	103.351606	-25.748786	134.042690
4.750000	-26.059300	-98.178618	-0.330257	100.515398	-0.330257	100.515398	-26.869517	129.437322
4.800000	-27.202794	-97.319927	-0.330553	97.674524	-0.330553	97.674524	-28.174183	124.234257
4.850000	-28.496220	-95.234151	-0.331168	94.829128	-0.331168	94.829128	-29.718481	118.087311
4.900000	-29.946364	-91.284009	-0.332128	91.979376	-0.332128	91.979376	-31.581693	110.328499
4.950000	-31.515520	-84.463793	-0.333459	89.125450	-0.333459	89.125450	-33.864877	99.541915
5.000000	-33.036293	-73.420548	-0.335184	86.267551	-0.335184	86.267551	-36.604175	82.500826
5.050000	-34.056715	-57.301838	-0.337333	83.405815	-0.337333	83.405815	-39.102205	52.598938
5.100000	-34.041093	-38.686167	-0.339910	80.540556	-0.339910	80.540556	-39.023292	12.942328
5.150000	-32.990287	-22.522831	-0.342930	77.672011	-0.342930	77.672011	-36.473604	-16.480761
5.200000	-31.440472	-11.222814	-0.346397	74.800422	-0.346397	74.800422	-33.721353	-33.679353
5.250000	-29.826708	-4.158051	-0.350317	71.926034	-0.350317	71.926034	-31.410805	-44.603323
5.300000	-28.326678	0.007130	-0.354688	69.049095	-0.354688	69.049095	-29.516120	-52.521845
5.350000	-26.982591	2.299450	-0.359505	66.169849	-0.359505	66.169849	-27.938937	-58.868555
5.400000	-25.789189	3.373028	-0.364757	63.288532	-0.364757	63.288532	-26.601043	-64.315428
5.450000	-24.728751	3.632008	-0.370431	60.405374	-0.370431	60.405374	-25.447337	-69.209540
5.500000	-23.782581	3.330396	-0.376508	57.520590	-0.376508	57.520590	-24.439168	-73.746078
5.550000	-22.934228	2.632895	-0.382965	54.634379	-0.382965	54.634379	-23.548881	-78.042761
5.600000	-22.170014	1.649988	-0.389776	51.746921	-0.389776	51.746921	-22.756196	-82.174815
5.650000	-21.478921	0.456616	-0.396915	48.858361	-0.396915	48.858361	-22.046082	-86.191889
5.700000	-20.851900	-0.891137	-0.404345	45.968835	-0.404345	45.968835	-21.406874	-90.130206
5.750000	-20.281364	-2.351456	-0.412028	43.078455	-0.412028	43.078455	-20.829234	-94.016293
5.800000	-19.761187	-3.894317	-0.419923	40.187289	-0.419923	40.187289	-20.305884	-97.869358
5.850000	-19.286293	-5.496348	-0.427990	37.295372	-0.427990	37.295372	-19.830954	-101.704498
5.900000	-18.852443	-7.138900	-0.436187	34.402704	-0.436187	34.402704	-19.399643	-105.533989
5.950000	-18.456061	-8.806727	-0.444470	31.509245	-0.444470	31.509245	-19.007975	-109.368166
6.000000	-18.094110	-10.487051	-0.452794	28.614918	-0.452794	28.614918	-18.652626	-113.216025
6.050000	-17.763981	-12.168896	-0.461116	25.719604	-0.461116	25.719604	-18.330784	-117.085659
6.100000	-17.463420	-13.842598	-0.469394	22.823147	-0.469394	22.823147	-18.040046	-120.984579
6.150000	-17.190454	-15.499439	-0.477586	19.925345	-0.477586	19.925345	-17.778340	-124.919951
6.200000	-16.943338	-17.131370	-0.485652	17.025959	-0.485652	17.025959	-17.543857	-128.898787
6.250000	-16.720512	-18.730794	-0.493557	14.124707	-0.493557	14.124707	-17.334998	-132.928091
6.300000	-16.520940	-20.289361	-0.501263	11.221215	-0.501263	11.221215	-17.150752	-137.016408
6.350000	-16.342919	-21.800609	-0.508745	8.315162	-0.508745	8.315162	-16.989369	-141.170002
6.400000	-16.185213	-23.257404	-0.515979	5.406150	-0.515979	5.406150	-16.849625	-145.396542
6.450000	-16.046633	-24.652558	-0.522949	2.493751	-0.522949	2.493751	-16.730348	-149.704076
6.500000	-15.926009	-25.978771	-0.529643	-0.422497	-0.529643	-0.422497	-16.630387	-154.101084
6.550000	-15.822162	-27.228595	-0.536055	-3.343082	-0.536055	-3.343082	-16.548579	-158.596511
6.600000	-15.733871	-28.394413	-0.542188	-6.268517	-0.542188	-6.268517	-16.483713	-163.199790
6.650000	-15.659849	-29.468458	-0.548053	-9.199337	-0.548053	-9.199337	-16.434491	-167.920821
6.700000	-15.598708	-30.442855	-0.553668	-12.136091	-0.553668	-12.136091	-16.399488	-172.769923
6.750000	-15.548931	-31.309708	-0.559060	-15.079340	-0.559060	-15.079340	-16.377112	-177.757738
6.800000	-15.508836	-32.061235	-0.564266	-18.029654	-0.564266	-18.029654	-16.365554	177.104935
6.850000	-15.476549	-32.689960	-0.569332	-20.987604	-0.569332	-20.987604	-16.362744	171.807381
6.900000	-15.450011	-33.187493	-0.574312	-23.953857	-0.574312	-23.953857	-16.366347	166.337350
6.950000	-15.426798	-33.547666	-0.579273	-26.928992	-0.579273	-26.928992	-16.373536	160.685166
7.000000	-15.404241	-33.767307	-0.584293	-29.913474	-0.584293	-29.913474	-16.381123	154.844891
7.050000	-15.379484	-33.843673	-0.589456	-32.907841	-0.589456	-32.907841	-16.385616	148.810987
7.100000	-15.349450	-33.776389	-0.594855	-35.912615	-0.594855	-35.912615	-16.383170	142.580996
7.150000	-15.310889	-33.567993	-0.600595	-38.928305	-0.600595	-38.928305	-16.369661	136.156407
7.200000	-15.260465	-33.224430	-0.606789	-41.955411	-0.606789	-41.955411	-16.340800	129.543475
7.250000	-15.194863	-32.755414	-0.613557	-44.994437	-0.613557	-44.994437	-16.292314	122.753849
7.300000	-15.110931	-32.174578	-0.621030	-48.045908	-0.621030	-48.045908	-16.220173	115.804844
7.350000	-15.005842	-31.499298	-0.629348	-51.110412	-0.629348	-51.110412	-16.120858	108.719167
7.400000	-14.877248	-30.750097	-0.638665	-54.188664	-0.638665	-54.188664	-15.991654	101.523930
7.450000	-14.723419	-29.949539	-0.649150	-57.281623	-0.649150	-57.281623	-15.830939	94.248809
7.500000	-14.543329	-29.120502	-0.661006	-60.390701	-0.661006	-60.390701	-15.638454	86.923201
7.550000	-14.336042	-28.283781	-0.674539	-63.518564	-0.674539	-63.518564	-15.415015	79.572017
7.600000	-14.102180	-27.453748	-0.690157	-66.668947	-0.690157	-66.668947	-15.165047	72.209934
7.650000	-13.841392	-26.630794	-0.708730	-69.849289	-0.708730	-69.849289	-14.896134	64.829886
7.700000	-13.550071	-25.789067	-0.732463	-73.073892	-0.732463	-73.073892	-14.624771	57.387314
7.750000	-13.211969	-24.863534	-0.768030	-76.366501	-0.768030	-76.366501	-14.394125	49.793918
7.800000	-12.751730	-23.878423	-0.841520	-79.718046	-0.841520	-79.718046	-14.354713	42.213793
7.850000	-12.084777	-24.540020	-0.981244	-82.527532	-0.981244	-82.527532	-14.625217	38.369597
7.900000	-11.805546	-27.068815	-0.971817	-84.799653	-0.971817	-84.799653	-13.880886	36.964753
7.950000	-11.656146	-27.678513	-0.930754	-87.866635	-0.930754	-87.866635	-13.090060	30.715157
8.000000	-11.407944	-27.862104	-0.930474	-91.097454	-0.930474	-91.097454	-12.550919	24.084041
8.050000	-11.109628	-28.153282	-0.949686	-94.324285	-0.949686	-94.324285	-12.105089	17.797939
8.100000	-10.792255	-28.610016	-0.978078	-97.534291	-0.978078	-97.534291	-11.696991	11.813226
8.150000	-10.467661	-29.232638	-1.012383	-100.729839	-1.012383	-100.729839	-11.310392	6.079454
8.200000	-10.143434	-29.995155	-1.050753	-103.914601	-1.050753	-103.914601	-10.939638	0.537725
8.250000	-9.822951	-30.884975	-1.092536	-107.089843	-1.092536	-107.089843	-10.582865	-4.837810
8.300000	-9.508362	-31.895071	-1.137448	-110.255631	-1.137448	-110.255631	-10.239399	-10.060829
8.350000	-9.201609	-33.010385	-1.185125	-113.412080	-1.185125	-113.412080	-9.909217	-15.151853
8.400000	-8.903921	-34.218667	-1.235310	-116.558896	-1.235310	-116.558896	-9.592374	-20.125812
8.450000	-8.616152	-35.510337	-1.287819	-119.695425	-1.287819	-119.695425	-9.288961	-24.993236
8.500000	-8.338922	-36.875952	-1.342458	-122.820976	-1.342458	-122.820976	-8.999027	-29.763868
8.550000	-8.072655	-38.306736	-1.399034	-125.934836	-1.399034	-125.934836	-8.722565	-34.446288
8.600000	-7.817620	-39.794542	-1.457346	-129.036318	-1.457346	-129.036318	-8.459504	-39.048173
8.650000	-7.573961	-41.331818	-1.517187	-132.124790	-1.517187	-132.124790	-8.209716	-43.576470
8.700000	-7.341721	-42.911580	-1.578340	-135.199702	-1.578340	-135.199702	-7.973022	-48.037542
8.750000	-7.120861	-44.527387	-1.640582	-138.260602	-1.640582	-138.260602	-7.749199	-52.437275
8.800000	-6.911411	-46.173842	-1.703683	-141.306834	-1.703683	-141.306834	-7.538153	-56.780076
8.850000	-6.713087	-47.844756	-1.767392	-144.338492	-1.767392	-144.338492	-7.339447	-61.072454
8.900000	-6.525679	-49.535191	-1.831467	-147.355498	-1.831467	-147.355498	-7.152770	-65.319342
8.950000	-6.348946	-51.240645	-1.895665	-150.357905	-1.895665	-150.357905	-6.977800	-69.525491
9.000000	-6.182623	-52.957027	-1.959741	-153.345900	-1.959741	-153.345900	-6.814202	-73.695515
9.050000	-6.026426	-54.680632	-2.023451	-156.319807	-2.023451	-156.319807	-6.661643	-77.833934
9.100000	-5.880062	-56.408116	-2.086553	-159.280084	-2.086553	-159.280084	-6.519784	-81.945205
9.150000	-5.743228	-58.136470	-2.148810	-162.227324	-2.148810	-162.227324	-6.388295	-86.033760
9.200000	-5.615496	-59.863079	-2.210020	-165.162449	-2.210020	-165.162449	-6.266700	-90.104259
9.250000	-5.497217	-61.585028	-2.269790	-168.085315	-2.269790	-168.085315	-6.155423	-94.160124
9.300000	-5.387062	-63.300977	-2.328171	-170.998463	-2.328171	-170.998463	-6.052978	-98.207427
9.350000	-5.285582	-65.008164	-2.384720	-173.901822	-2.384720	-173.901822	-5.960010	-102.249855
9.400000	-5.192102	-66.705368	-2.439362	-176.797109	-2.439362	-176.797109	-5.875776	-106.292200
9.450000	-5.106381	-68.391008	-2.491906	-179.685632	-2.491906	-179.685632	-5.800014	-110.339162
9.500000	-5.028594	-70.062879	-2.542022	177.431540	-2.542022	177.431540	-5.732928	-114.395993
9.550000	-4.957750	-71.721212	-2.589854	174.552370	-2.589854	174.552370	-5.673396	-118.466155
9.600000	-4.894850	-73.361923	-2.634745	171.675742	-2.634745	171.675742	-5.622521	-122.557751
9.650000	-4.838444	-74.986790	-2.677115	168.799639	-2.677115	168.799639	-5.578655	-126.671749
9.700000	-4.789568	-76.591089	-2.716293	165.922204	-2.716293	165.922204	-5.542897	-130.818140
9.750000	-4.747211	-78.175730	-2.752578	163.041806	-2.752578	163.041806	-5.514091	-134.997959
9.800000	-4.711787	-79.736987	-2.785601	160.156159	-2.785601	160.156159	-5.492633	-139.219562
9.850000	-4.683062	-81.272878	-2.815318	157.263296	-2.815318	157.263296	-5.478237	-143.487666
9.900000	-4.660652	-82.781542	-2.841763	154.361372	-2.841763	154.361372	-5.470494	-147.805955
9.950000	-4.644976	-84.256613	-2.864504	151.447067	-2.864504	151.447067	-5.469923	-152.185429
10.000000	-4.634797	-85.699448	-2.884010	148.520027	-2.884010	148.520027	-5.475356	-156.622286
