! freq	dB(S11)	phase(S11)	dB(S12)	phase(S12)	
!     	dB(S21)	phase(S21)	dB(S22)	phase(S22)	
!S-par simulation data
#  GHz  S  DB  R 50
0.000000	-0.000000	0.000000	-379.989514	0.000000	-379.989514	0.000000	-0.000000	0.000000
0.050000	-0.000105	-0.804768	-116.004036	85.351493	-116.004036	85.351493	-0.000104	-0.804785
0.100000	-0.000414	-1.609278	-110.485069	83.653058	-110.485069	83.653058	-0.000413	-1.609314
0.150000	-0.000916	-2.413293	-107.341520	83.318828	-107.341520	83.318828	-0.000912	-2.413350
0.200000	-0.001587	-3.216618	-105.134095	83.258897	-105.134095	83.258897	-0.001581	-3.216703
0.250000	-0.002413	-4.019042	-103.464379	83.197275	-103.464379	83.197275	-0.002405	-4.019157
0.300000	-0.003354	-4.820531	-102.150902	83.110571	-102.150902	83.110571	-0.003345	-4.820682
0.350000	-0.004392	-5.620982	-101.105870	83.029121	-101.105870	83.029121	-0.004381	-5.621174
0.400000	-0.005502	-6.420364	-100.274992	82.996612	-100.274992	82.996612	-0.005489	-6.420598
0.450000	-0.006661	-7.218673	-99.624217	83.061362	-99.624217	83.061362	-0.006648	-7.218951
0.500000	-0.007853	-8.015929	-99.131753	83.277338	-99.131753	83.277338	-0.007840	-8.016250
0.550000	-0.009062	-8.812163	-98.783865	83.708520	-98.783865	83.708520	-0.009049	-8.812528
0.600000	-0.010277	-9.607416	-98.572416	84.435356	-98.572416	84.435356	-0.010264	-9.607824
0.650000	-0.011488	-10.401729	-98.493144	85.563867	-98.493144	85.563867	-0.011477	-10.402178
0.700000	-0.012691	-11.195142	-98.544041	87.238690	-98.544041	87.238690	-0.012681	-11.195629
0.750000	-0.013881	-11.987690	-98.722994	89.661665	-98.722994	89.661665	-0.013872	-11.988215
0.800000	-0.015056	-12.779405	-99.023385	93.116399	-99.023385	93.116399	-0.015048	-12.779964
0.850000	-0.016214	-13.570309	-99.425152	97.992876	-99.425152	97.992876	-0.016208	-13.570901
0.900000	-0.017356	-14.360421	-99.877554	104.784239	-99.877554	104.784239	-0.017352	-14.361044
0.950000	-0.018482	-15.149753	-100.272220	113.977452	-100.272220	113.977452	-0.018479	-15.150406
1.000000	-0.019593	-15.938311	-100.423056	125.717275	-100.423056	125.717275	-0.019591	-15.938993
1.050000	-0.020689	-16.726097	-100.108422	139.281264	-100.108422	139.281264	-0.020688	-16.726807
1.100000	-0.021773	-17.513111	-99.213687	152.925545	-99.213687	152.925545	-0.021772	-17.513848
1.150000	-0.022845	-18.299345	-97.839040	164.787872	-97.839040	164.787872	-0.022845	-18.300110
1.200000	-0.023906	-19.084793	-96.206244	174.013897	-96.206244	174.013897	-0.023907	-19.085584
1.250000	-0.024958	-19.869443	-94.503348	-179.251865	-94.503348	-179.251865	-0.024959	-19.870261
1.300000	-0.026002	-20.653248	-92.826080	-174.546368	-92.826080	-174.546368	-0.026003	-20.654092
1.350000	-0.027038	-21.436226	-91.233115	-171.257791	-91.233115	-171.257791	-0.027040	-21.437098
1.400000	-0.028069	-22.218365	-89.736002	-169.004286	-89.736002	-169.004286	-0.028071	-22.219264
1.450000	-0.029095	-22.999646	-88.333062	-167.512200	-88.333062	-167.512200	-0.029096	-23.000574
1.500000	-0.030116	-23.780055	-87.017529	-166.588290	-87.017529	-166.588290	-0.030117	-23.781010
1.550000	-0.031133	-24.559572	-85.781200	-166.095588	-85.781200	-166.095588	-0.031135	-24.560556
1.600000	-0.032148	-25.338182	-84.615972	-165.935835	-84.615972	-165.935835	-0.032149	-25.339195
1.650000	-0.033160	-26.115866	-83.514425	-166.037438	-83.514425	-166.037438	-0.033161	-26.116908
1.700000	-0.034170	-26.892270	-82.446212	-166.401376	-82.446212	-166.401376	-0.034171	-26.893342
1.750000	-0.035179	-27.668176	-81.463651	-166.859439	-81.463651	-166.859439	-0.035180	-27.669278
1.800000	-0.036187	-28.442881	-80.512894	-167.473668	-80.512894	-167.473668	-0.036188	-28.444014
1.850000	-0.037195	-29.216730	-79.612201	-168.199445	-79.612201	-168.199445	-0.037195	-29.217894
1.900000	-0.038202	-29.989511	-78.746646	-169.017185	-78.746646	-169.017185	-0.038202	-29.990706
1.950000	-0.039210	-30.761227	-77.914570	-169.926886	-77.914570	-169.926886	-0.039210	-30.762453
2.000000	-0.040218	-31.532022	-77.119718	-170.891370	-77.119718	-170.891370	-0.040218	-31.533280
2.050000	-0.041228	-32.301530	-76.345973	-171.932549	-76.345973	-171.932549	-0.041227	-32.302821
2.100000	-0.042238	-33.070279	-75.610758	-173.006080	-75.610758	-173.006080	-0.042238	-33.071601
2.150000	-0.043250	-33.837508	-74.887267	-174.144315	-74.887267	-174.144315	-0.043250	-33.838863
2.200000	-0.044264	-34.604151	-74.203071	-175.300938	-74.203071	-175.300938	-0.044263	-34.605538
2.250000	-0.045281	-35.369033	-73.523394	-176.512726	-73.523394	-176.512726	-0.045280	-35.370452
2.300000	-0.046299	-36.133512	-72.883391	-177.734008	-72.883391	-177.734008	-0.046298	-36.134965
2.350000	-0.047322	-36.895980	-72.242313	-179.002755	-72.242313	-179.002755	-0.047321	-36.897465
2.400000	-0.048346	-37.658241	-71.641000	179.724757	-71.641000	179.724757	-0.048345	-37.659759
2.450000	-0.049376	-38.418232	-71.034244	178.411108	-71.034244	178.411108	-0.049375	-38.419783
2.500000	-0.050406	-39.178222	-70.467119	177.097460	-70.467119	177.097460	-0.050406	-39.179806
2.550000	-0.051445	-39.935675	-69.891124	175.747887	-69.891124	175.747887	-0.051445	-39.937291
2.600000	-0.052484	-40.693127	-69.350961	174.398315	-69.350961	174.398315	-0.052484	-40.694776
2.650000	-0.053533	-41.448200	-68.806229	173.022074	-68.806229	173.022074	-0.053533	-41.449882
2.700000	-0.054582	-42.203057	-68.290557	171.643408	-68.290557	171.643408	-0.054582	-42.204771
2.750000	-0.055641	-42.955705	-67.773882	170.244910	-67.773882	170.244910	-0.055642	-42.957452
2.800000	-0.056703	-43.707911	-67.280581	168.842445	-67.280581	168.842445	-0.056703	-43.709691
2.850000	-0.057774	-44.458091	-66.789246	167.425260	-66.789246	167.425260	-0.057774	-44.459904
2.900000	-0.058848	-45.207595	-66.316481	166.003169	-66.316481	166.003169	-0.058849	-45.209441
2.950000	-0.059933	-45.955266	-65.848158	164.570217	-65.848158	164.570217	-0.059934	-45.957144
3.000000	-0.061022	-46.702021	-65.394329	163.131835	-65.394329	163.131835	-0.061024	-46.703931
3.050000	-0.062121	-47.447144	-64.947007	161.685528	-64.947007	161.685528	-0.062123	-47.449086
3.100000	-0.063228	-48.191103	-64.510710	160.233559	-64.510710	160.233559	-0.063229	-48.193077
3.150000	-0.064343	-48.933643	-64.082639	158.775905	-64.082639	158.775905	-0.064344	-48.935650
3.200000	-0.065467	-49.674764	-63.662631	157.312565	-63.662631	157.312565	-0.065469	-49.676803
3.250000	-0.066599	-50.414687	-63.252281	155.845253	-63.252281	155.845253	-0.066602	-50.416758
3.300000	-0.067744	-51.152932	-62.847457	154.372378	-62.847457	154.372378	-0.067746	-51.155035
3.350000	-0.068895	-51.890206	-62.453477	152.896837	-62.453477	152.896837	-0.068897	-51.892341
3.400000	-0.070061	-52.625539	-62.062849	151.415962	-62.062849	151.415962	-0.070063	-52.627707
3.450000	-0.071232	-53.360136	-61.684043	149.933411	-61.684043	149.933411	-0.071235	-53.362336
3.500000	-0.072421	-54.092525	-61.306723	148.445830	-61.306723	148.445830	-0.072424	-54.094757
3.550000	-0.073614	-54.824419	-60.942025	146.957316	-60.942025	146.957316	-0.073617	-54.826683
3.600000	-0.074828	-55.553835	-60.577211	145.464130	-60.577211	145.464130	-0.074832	-55.556131
3.650000	-0.076045	-56.283002	-60.225668	143.970555	-60.225668	143.970555	-0.076048	-56.285330
3.700000	-0.077285	-57.009420	-59.872632	142.472705	-59.872632	142.472705	-0.077289	-57.011780
3.750000	-0.078526	-57.735838	-59.533387	140.974855	-59.533387	140.974855	-0.078530	-57.738230
3.800000	-0.079795	-58.459236	-59.191470	139.473152	-59.191470	139.473152	-0.079799	-58.461660
3.850000	-0.081064	-59.182634	-58.862503	137.971449	-58.862503	137.971449	-0.081068	-59.185090
3.900000	-0.082361	-59.903246	-58.532345	136.466858	-58.532345	136.466858	-0.082365	-59.905735
3.950000	-0.083660	-60.623605	-58.213122	134.962005	-58.213122	134.962005	-0.083665	-60.626126
4.000000	-0.084986	-61.341419	-57.894004	133.455035	-57.894004	133.455035	-0.084991	-61.343972
4.050000	-0.086318	-62.058723	-57.584033	131.947642	-57.584033	131.947642	-0.086322	-62.061308
4.100000	-0.087674	-62.773728	-57.275302	130.438747	-57.275302	130.438747	-0.087679	-62.776345
4.150000	-0.089039	-63.487966	-56.974130	128.929350	-56.974130	128.929350	-0.089044	-63.490616
4.200000	-0.090428	-64.200154	-56.675190	127.418931	-56.675190	127.418931	-0.090432	-64.202837
4.250000	-0.091828	-64.911317	-56.382398	125.908001	-56.382398	125.908001	-0.091833	-64.914032
4.300000	-0.093251	-65.620684	-56.092704	124.396418	-56.092704	124.396418	-0.093255	-65.623431
4.350000	-0.094688	-66.328766	-55.807904	122.884370	-55.807904	122.884370	-0.094693	-66.331546
4.400000	-0.096145	-67.035308	-55.526958	121.371947	-55.526958	121.371947	-0.096150	-67.038120
4.450000	-0.097622	-67.740308	-55.249789	119.859148	-55.249789	119.859148	-0.097627	-67.743153
4.500000	-0.099116	-68.444024	-54.977130	118.346173	-54.977130	118.346173	-0.099121	-68.446902
4.550000	-0.100633	-69.145943	-54.707258	116.832952	-54.707258	116.832952	-0.100638	-69.148853
4.600000	-0.102165	-69.846836	-54.442464	115.319687	-54.442464	115.319687	-0.102170	-69.849779
4.650000	-0.103725	-70.545677	-54.179575	113.806334	-54.179575	113.806334	-0.103730	-70.548653
4.700000	-0.105296	-71.243751	-53.922255	112.293015	-53.922255	112.293015	-0.105301	-71.246760
4.750000	-0.106900	-71.939523	-53.666059	110.779794	-53.666059	110.779794	-0.106905	-71.942565
4.800000	-0.108512	-72.634785	-53.415851	109.266635	-53.415851	109.266635	-0.108517	-72.637860
4.850000	-0.110162	-73.327497	-53.166074	107.753781	-53.166074	107.753781	-0.110167	-73.330605
4.900000	-0.111816	-74.019956	-52.922642	106.240975	-52.922642	106.240975	-0.111821	-74.023097
4.950000	-0.113514	-74.709623	-52.679029	104.728701	-52.679029	104.728701	-0.113519	-74.712797
5.000000	-0.115212	-75.399290	-52.442062	103.216427	-52.442062	103.216427	-0.115218	-75.402497
5.050000	-0.116959	-76.085928	-52.204372	101.704924	-52.204372	101.704924	-0.116965	-76.089168
5.100000	-0.118707	-76.772565	-51.973013	100.193422	-51.973013	100.193422	-0.118713	-76.775839
5.150000	-0.120502	-77.456444	-51.741587	98.682788	-51.741587	98.682788	-0.120508	-77.459751
5.200000	-0.122301	-78.140072	-51.515630	97.172233	-51.515630	97.172233	-0.122307	-78.143412
5.250000	-0.124144	-78.821211	-51.290192	95.662601	-51.290192	95.662601	-0.124150	-78.824584
5.300000	-0.125996	-79.501851	-51.069442	94.153153	-51.069442	94.153153	-0.126002	-79.505258
5.350000	-0.127889	-80.180270	-50.849734	92.644645	-50.849734	92.644645	-0.127895	-80.183710
5.400000	-0.129796	-80.857948	-50.634006	91.136450	-50.634006	91.136450	-0.129802	-80.861422
5.450000	-0.131740	-81.533670	-50.419787	89.629181	-50.419787	89.629181	-0.131747	-81.537178
5.500000	-0.133704	-82.208414	-50.208908	88.122374	-50.208908	88.122374	-0.133711	-82.211955
5.550000	-0.135702	-82.881464	-49.999951	86.616449	-49.999951	86.616449	-0.135709	-82.885038
5.600000	-0.137724	-83.553304	-49.793757	85.111155	-49.793757	85.111155	-0.137731	-83.556911
5.650000	-0.139776	-84.223708	-49.589851	83.606674	-49.589851	83.606674	-0.139783	-84.227349
5.700000	-0.141858	-84.892677	-49.388185	82.103006	-49.388185	82.103006	-0.141865	-84.896352
5.750000	-0.143966	-85.560464	-49.189130	80.600061	-49.189130	80.600061	-0.143973	-85.564173
5.800000	-0.146110	-86.226598	-48.991844	79.098127	-48.991844	79.098127	-0.146118	-86.230340
5.850000	-0.148275	-86.891799	-48.797453	77.596805	-48.797453	77.596805	-0.148283	-86.895575
5.900000	-0.150483	-87.555136	-48.604407	76.096704	-48.604407	76.096704	-0.150491	-87.558945
5.950000	-0.152707	-88.217783	-48.414503	74.597085	-48.414503	74.597085	-0.152716	-88.221625
6.000000	-0.154980	-88.878363	-48.225563	73.098910	-48.225563	73.098910	-0.154989	-88.882239
6.050000	-0.157265	-89.538490	-48.039980	71.601071	-48.039980	71.601071	-0.157274	-89.542400
6.100000	-0.159605	-90.196356	-47.855018	70.104909	-47.855018	70.104909	-0.159614	-90.200299
6.150000	-0.161952	-90.854000	-47.673598	68.608921	-47.673598	68.608921	-0.161961	-90.857976
6.200000	-0.164361	-91.509197	-47.492494	67.114853	-47.492494	67.114853	-0.164371	-91.513207
6.250000	-0.166770	-92.164394	-47.315088	65.620784	-47.315088	65.620784	-0.166781	-92.168438
6.300000	-0.169250	-92.816970	-47.137725	64.128886	-47.137725	64.128886	-0.169261	-92.821048
6.350000	-0.171731	-93.469546	-46.963910	62.636987	-46.963910	62.636987	-0.171741	-93.473658
6.400000	-0.174277	-94.119765	-46.790459	61.147142	-46.790459	61.147142	-0.174288	-94.123910
6.450000	-0.176830	-94.769769	-46.620133	59.657484	-46.620133	59.657484	-0.176841	-94.773948
6.500000	-0.179444	-95.417674	-46.450458	58.169749	-46.450458	58.169749	-0.179455	-95.421886
6.550000	-0.182071	-96.065158	-46.283520	56.682397	-46.283520	56.682397	-0.182083	-96.069404
6.600000	-0.184754	-96.710793	-46.117492	55.196822	-46.117492	55.196822	-0.184766	-96.715072
6.650000	-0.187457	-97.355811	-45.953847	53.711838	-45.953847	53.711838	-0.187470	-97.360123
6.700000	-0.190211	-97.999221	-45.791344	52.228471	-45.791344	52.228471	-0.190224	-98.003568
6.750000	-0.192992	-98.641829	-45.630900	50.745912	-45.630900	50.745912	-0.193005	-98.646209
6.800000	-0.195818	-99.283064	-45.471804	49.264798	-45.471804	49.264798	-0.195831	-99.287478
6.850000	-0.198678	-99.923318	-45.314474	47.784715	-45.314474	47.784715	-0.198691	-99.927766
6.900000	-0.201577	-100.562426	-45.158675	46.305894	-45.158675	46.305894	-0.201591	-100.566908
6.950000	-0.204518	-101.200388	-45.004373	44.828333	-45.004373	44.828333	-0.204532	-101.204904
7.000000	-0.207493	-101.837419	-44.851763	43.351842	-44.851763	43.351842	-0.207507	-101.841969
7.050000	-0.210516	-102.473149	-44.700409	41.876846	-44.700409	41.876846	-0.210531	-102.477733
7.100000	-0.213567	-103.108156	-44.550888	40.402716	-44.550888	40.402716	-0.213582	-103.112774
7.150000	-0.216674	-103.741717	-44.402402	38.930320	-44.402402	38.930320	-0.216690	-103.746370
7.200000	-0.219803	-104.374753	-44.255872	37.458581	-44.255872	37.458581	-0.219819	-104.379440
7.250000	-0.222996	-105.006211	-44.110179	35.988815	-44.110179	35.988815	-0.223012	-105.010932
7.300000	-0.226204	-105.637330	-43.966548	34.519491	-43.966548	34.519491	-0.226221	-105.642086
7.350000	-0.229484	-106.266752	-43.823574	33.052379	-43.823574	33.052379	-0.229501	-106.271542
7.400000	-0.232773	-106.896010	-43.682753	31.585489	-43.682753	31.585489	-0.232790	-106.900835
7.450000	-0.236142	-107.523464	-43.542427	30.121047	-43.542427	30.121047	-0.236159	-107.528325
7.500000	-0.239512	-108.150918	-43.404332	28.656606	-43.404332	28.656606	-0.239530	-108.155814
7.550000	-0.242972	-108.776475	-43.266585	27.194846	-43.266585	27.194846	-0.242990	-108.781407
7.600000	-0.246433	-109.402032	-43.130989	25.733086	-43.130989	25.733086	-0.246451	-109.406999
7.650000	-0.249977	-110.025917	-42.995900	24.273786	-42.995900	24.273786	-0.249995	-110.030919
7.700000	-0.253529	-110.649648	-42.862740	22.814711	-42.862740	22.814711	-0.253549	-110.654687
7.750000	-0.257159	-111.271921	-42.730231	21.357868	-42.730231	21.357868	-0.257179	-111.276996
7.800000	-0.260805	-111.893901	-42.599446	19.901473	-42.599446	19.901473	-0.260825	-111.899013
7.850000	-0.264522	-112.514625	-42.469441	18.447077	-42.469441	18.447077	-0.264542	-112.519774
7.900000	-0.268263	-113.134929	-42.340972	16.993348	-42.340972	16.993348	-0.268284	-113.140116
7.950000	-0.272068	-113.754168	-42.213398	15.541383	-42.213398	15.541383	-0.272089	-113.759392
8.000000	-0.275906	-114.372873	-42.087189	14.090299	-42.087189	14.090299	-0.275927	-114.378135
8.050000	-0.279800	-114.990692	-41.961977	12.640741	-41.961977	12.640741	-0.279822	-114.995992
8.100000	-0.283735	-115.607877	-41.837973	11.192273	-41.837973	11.192273	-0.283757	-115.613216
8.150000	-0.287720	-116.224342	-41.715055	9.745092	-41.715055	9.745092	-0.287742	-116.229720
8.200000	-0.291754	-116.840086	-41.593203	8.299199	-41.593203	8.299199	-0.291777	-116.845504
8.250000	-0.295831	-117.455265	-41.472517	6.854359	-41.472517	6.854359	-0.295854	-117.460723
8.300000	-0.299965	-118.069652	-41.352766	5.410992	-41.352766	5.410992	-0.299988	-118.075151
8.350000	-0.304134	-118.683614	-41.234250	3.968447	-41.234250	3.968447	-0.304158	-118.689153
8.400000	-0.308370	-119.296725	-41.116553	2.527547	-41.116553	2.527547	-0.308394	-119.302307
8.450000	-0.312633	-119.909540	-41.000149	1.087246	-41.000149	1.087246	-0.312657	-119.915164
8.500000	-0.316972	-120.521462	-40.884458	-0.351257	-40.884458	-0.351257	-0.316996	-120.527129
8.550000	-0.321329	-121.133201	-40.770112	-1.789373	-40.770112	-1.789373	-0.321354	-121.138911
8.600000	-0.325771	-121.744020	-40.656383	-3.225558	-40.656383	-3.225558	-0.325797	-121.749775
8.650000	-0.330224	-122.354755	-40.544041	-4.661557	-40.544041	-4.661557	-0.330250	-122.360554
8.700000	-0.334772	-122.964560	-40.432232	-6.095514	-40.432232	-6.095514	-0.334798	-122.970405
8.750000	-0.339321	-123.574365	-40.321845	-7.529471	-40.321845	-7.529471	-0.339348	-123.580256
8.800000	-0.343974	-124.183245	-40.211917	-8.961301	-40.211917	-8.961301	-0.344002	-124.189185
8.850000	-0.348630	-124.792126	-40.103363	-10.393131	-40.103363	-10.393131	-0.348658	-124.798113
8.900000	-0.353381	-125.400243	-39.995353	-11.823112	-39.995353	-11.823112	-0.353409	-125.406280
8.950000	-0.358143	-126.008291	-39.888597	-13.252926	-39.888597	-13.252926	-0.358172	-126.014378
9.000000	-0.362994	-126.615722	-39.782461	-14.681160	-39.782461	-14.681160	-0.363023	-126.621861
9.050000	-0.367864	-127.223031	-39.677471	-16.109078	-39.677471	-16.109078	-0.367894	-127.229221
9.100000	-0.372813	-127.829856	-39.573167	-17.535673	-39.573167	-17.535673	-0.372844	-127.836100
9.150000	-0.377792	-128.436521	-39.469914	-18.961827	-39.469914	-18.961827	-0.377823	-128.442819
9.200000	-0.382842	-129.042821	-39.367405	-20.386899	-39.367405	-20.386899	-0.382874	-129.049174
9.250000	-0.387930	-129.648938	-39.265860	-21.811430	-39.265860	-21.811430	-0.387962	-129.655348
9.300000	-0.393080	-130.254794	-39.165111	-23.235101	-39.165111	-23.235101	-0.393114	-130.261262
9.350000	-0.398278	-130.860463	-39.065250	-24.658159	-39.065250	-24.658159	-0.398312	-130.866990
9.400000	-0.403530	-131.465958	-38.966230	-26.080559	-38.966230	-26.080559	-0.403566	-131.472546
9.450000	-0.408837	-132.071279	-38.868033	-27.502302	-38.868033	-27.502302	-0.408874	-132.077929
9.500000	-0.414191	-132.676498	-38.770711	-28.923567	-38.770711	-28.923567	-0.414229	-132.683212
9.550000	-0.419609	-133.281574	-38.674160	-30.344162	-38.674160	-30.344162	-0.419648	-133.288353
9.600000	-0.425065	-133.886603	-38.578512	-31.764433	-38.578512	-31.764433	-0.425105	-133.893448
9.650000	-0.430594	-134.491538	-38.483593	-33.184054	-38.483593	-33.184054	-0.430636	-134.498451
9.700000	-0.436153	-135.096464	-38.389596	-34.603477	-38.389596	-34.603477	-0.436195	-135.103446
9.750000	-0.441793	-135.701363	-38.296297	-36.022304	-38.296297	-36.022304	-0.441837	-135.708418
9.800000	-0.447454	-136.306276	-38.203931	-37.441030	-38.203931	-37.441030	-0.447499	-136.313403
9.850000	-0.453205	-136.911249	-38.112247	-38.859248	-38.112247	-38.859248	-0.453252	-136.918453
9.900000	-0.458968	-137.516238	-38.021496	-40.277431	-38.021496	-40.277431	-0.459017	-137.523518
9.950000	-0.464830	-138.121396	-37.931423	-41.695229	-37.931423	-41.695229	-0.464881	-138.128755
10.000000	-0.470696	-138.726553	-37.842274	-43.113026	-37.842274	-43.113026	-0.470749	-138.733993
