! freq	dB(S11)	phase(S11)	dB(S12)	phase(S12)	
!     	dB(S21)	phase(S21)	dB(S22)	phase(S22)	
!S-par simulation data
#  GHz  S  DB  R 50
0.000000	-82.923377	0.000000	-0.000620	0.000000	-0.000620	0.000000	-82.923377	0.000000
0.050000	-42.211611	-91.096214	-0.004311	-2.814965	-0.004311	-2.814965	-42.235186	-92.906592
0.100000	-36.233210	-93.160114	-0.010852	-5.598779	-0.010852	-5.598779	-36.257234	-96.778397
0.150000	-32.751517	-95.197906	-0.016830	-8.366486	-0.016830	-8.366486	-32.776554	-100.618112
0.200000	-30.282995	-97.256404	-0.022409	-11.130262	-0.022409	-11.130262	-30.309295	-104.473482
0.250000	-28.367595	-99.309429	-0.028086	-13.893218	-0.028086	-13.893218	-28.395147	-108.317706
0.300000	-26.801947	-101.341467	-0.034157	-16.655748	-0.034157	-16.655748	-26.830412	-112.134901
0.350000	-25.478376	-103.350165	-0.040705	-19.417519	-0.040705	-19.417519	-25.507255	-115.922642
0.400000	-24.332745	-105.336757	-0.047746	-22.178156	-0.047746	-22.178156	-24.361491	-119.682045
0.450000	-23.323903	-107.302828	-0.055297	-24.937228	-0.055297	-24.937228	-23.351918	-123.414160
0.500000	-22.423210	-109.253521	-0.063282	-27.694684	-0.063282	-27.694684	-22.450009	-127.124625
0.550000	-21.610288	-111.192112	-0.071662	-30.450520	-0.071662	-30.450520	-21.635480	-130.816714
0.600000	-20.870128	-113.121292	-0.080410	-33.204780	-0.080410	-33.204780	-20.893398	-134.492814
0.650000	-20.191399	-115.043549	-0.089518	-35.957572	-0.089518	-35.957572	-20.212499	-138.154739
0.700000	-19.564902	-116.961623	-0.098951	-38.709207	-0.098951	-38.709207	-19.583701	-141.805240
0.750000	-18.983523	-118.877318	-0.108709	-41.459891	-0.108709	-41.459891	-18.999949	-145.445562
0.800000	-18.441681	-120.792242	-0.118823	-44.209779	-0.118823	-44.209779	-18.455693	-149.076176
0.850000	-17.934610	-122.707924	-0.129308	-46.959047	-0.129308	-46.959047	-17.946211	-152.697943
0.900000	-17.458376	-124.625565	-0.140184	-49.707786	-0.140184	-49.707786	-17.467593	-156.311328
0.950000	-17.009738	-126.546232	-0.151480	-52.456010	-0.151480	-52.456010	-17.016608	-159.916420
1.000000	-16.585941	-128.470848	-0.163219	-55.203676	-0.163219	-55.203676	-16.590502	-163.513180
1.050000	-16.184634	-130.400222	-0.175421	-57.950690	-0.175421	-57.950690	-16.186920	-167.101433
1.100000	-15.803796	-132.335067	-0.188096	-60.696926	-0.188096	-60.696926	-15.803831	-170.680886
1.150000	-15.441675	-134.276021	-0.201246	-63.442243	-0.201246	-63.442243	-15.439471	-174.251162
1.200000	-15.096743	-136.223658	-0.214868	-66.186502	-0.214868	-66.186502	-15.092296	-177.811810
1.250000	-14.767656	-138.178504	-0.228950	-68.929579	-0.228950	-68.929579	-14.760947	178.637674
1.300000	-14.453285	-140.141223	-0.243486	-71.671344	-0.243486	-71.671344	-14.444275	175.098085
1.350000	-14.152513	-142.112117	-0.258446	-74.411752	-0.258446	-74.411752	-14.141156	171.569783
1.400000	-13.864394	-144.091626	-0.273811	-77.150760	-0.273811	-77.150760	-13.850632	168.053376
1.450000	-13.588075	-146.080183	-0.289558	-79.888357	-0.289558	-79.888357	-13.571846	164.549487
1.500000	-13.322784	-148.078224	-0.305667	-82.624550	-0.305667	-82.624550	-13.304024	161.058752
1.550000	-13.067820	-150.086193	-0.322120	-85.359370	-0.322120	-85.359370	-13.046468	157.581813
1.600000	-12.822542	-152.104558	-0.338897	-88.092862	-0.338897	-88.092862	-12.798545	154.119318
1.650000	-12.586363	-154.133812	-0.355985	-90.825079	-0.355985	-90.825079	-12.559678	150.671915
1.700000	-12.358741	-156.174484	-0.373368	-93.556082	-0.373368	-93.556082	-12.329343	147.240248
1.750000	-12.139178	-158.227146	-0.391037	-96.285935	-0.391037	-96.285935	-12.107060	143.824961
1.800000	-11.927216	-160.292412	-0.408979	-99.014701	-0.408979	-99.014701	-11.892391	140.426689
1.850000	-11.722431	-162.370944	-0.427188	-101.742438	-0.427188	-101.742438	-11.684934	137.046060
1.900000	-11.524457	-164.463610	-0.445659	-104.469193	-0.445659	-104.469193	-11.484342	133.683902
1.950000	-11.332935	-166.571183	-0.464383	-107.195017	-0.464383	-107.195017	-11.290275	130.340843
2.000000	-11.147517	-168.694293	-0.483354	-109.919965	-0.483354	-109.919965	-11.102398	127.017285
2.050000	-10.967906	-170.833744	-0.502566	-112.644073	-0.502566	-112.644073	-10.920424	123.713815
2.100000	-10.793833	-172.990349	-0.522014	-115.367372	-0.522014	-115.367372	-10.744087	120.431007
2.150000	-10.625057	-175.164921	-0.541691	-118.089890	-0.541691	-118.089890	-10.573142	117.169423
2.200000	-10.461356	-177.358259	-0.561592	-120.811645	-0.561592	-120.811645	-10.407361	113.929609
2.250000	-10.302533	-179.571137	-0.581711	-123.532657	-0.581711	-123.532657	-10.246534	110.712097
2.300000	-10.148407	178.195704	-0.602040	-126.252938	-0.602040	-126.252938	-10.090465	107.517405
2.350000	-9.998816	175.941563	-0.622571	-128.972501	-0.622571	-128.972501	-9.938974	104.346034
2.400000	-9.853609	173.665781	-0.643296	-131.691357	-0.643296	-131.691357	-9.791890	101.198467
2.450000	-9.712647	171.367746	-0.664206	-134.409518	-0.664206	-134.409518	-9.649054	98.075170
2.500000	-9.575798	169.046889	-0.685291	-137.126997	-0.685291	-137.126997	-9.510319	94.976591
2.550000	-9.443002	166.701908	-0.706543	-139.843787	-0.706543	-139.843787	-9.375604	91.903991
2.600000	-9.314078	164.333063	-0.727946	-142.559928	-0.727946	-142.559928	-9.244717	88.856970
2.650000	-9.188910	161.939905	-0.749489	-145.275443	-0.749489	-145.275443	-9.117534	85.835915
2.700000	-9.067386	159.522019	-0.771159	-147.990358	-0.771159	-147.990358	-8.993936	82.841186
2.750000	-8.949396	157.079018	-0.792944	-150.704706	-0.792944	-150.704706	-8.873810	79.873122
2.800000	-8.834831	154.610537	-0.814829	-153.418523	-0.814829	-153.418523	-8.757047	76.932034
2.850000	-8.723583	152.116239	-0.836803	-156.131853	-0.836803	-156.131853	-8.643542	74.018211
2.900000	-8.615545	149.595804	-0.858851	-158.844744	-0.858851	-158.844744	-8.533194	71.131910
2.950000	-8.510610	147.048939	-0.880962	-161.557253	-0.880962	-161.557253	-8.425904	68.273362
3.000000	-8.408673	144.475367	-0.903122	-164.269440	-0.903122	-164.269440	-8.321575	65.442765
3.050000	-8.309630	141.874836	-0.925319	-166.981370	-0.925319	-166.981370	-8.220112	62.640286
3.100000	-8.213375	139.247119	-0.947542	-169.693117	-0.947542	-169.693117	-8.121423	59.866059
3.150000	-8.119598	136.595610	-0.969786	-172.404759	-0.969786	-172.404759	-8.025212	57.116473
3.200000	-8.028635	133.912661	-0.992029	-175.116360	-0.992029	-175.116360	-7.931815	54.399308
3.250000	-7.940154	131.202000	-1.014267	-177.828020	-1.014267	-177.828020	-7.840917	51.710577
3.300000	-7.854053	128.463522	-1.036492	179.460176	-1.036492	179.460176	-7.752429	49.050258
3.350000	-7.770354	125.694730	-1.058690	176.748110	-1.058690	176.748110	-7.666381	46.420743
3.400000	-7.688698	122.900756	-1.080870	174.035747	-1.080870	174.035747	-7.582426	43.816696
3.450000	-7.609129	120.078889	-1.103019	171.322977	-1.103019	171.322977	-7.500614	41.240737
3.500000	-7.531555	117.229193	-1.125135	168.609712	-1.125135	168.609712	-7.420859	38.692668
3.550000	-7.455880	114.351784	-1.147215	165.895869	-1.147215	165.895869	-7.343076	36.172241
3.600000	-7.382016	111.446831	-1.169258	163.181367	-1.169258	163.181367	-7.267179	33.679162
3.650000	-7.309875	108.514565	-1.191262	160.466131	-1.191262	160.466131	-7.193084	31.213083
3.700000	-7.239370	105.555276	-1.213231	157.750092	-1.213231	157.750092	-7.120711	28.773607
3.750000	-7.170419	102.569318	-1.235165	155.033189	-1.235165	155.033189	-7.049980	26.360286
3.800000	-7.102982	99.555992	-1.257063	152.315327	-1.257063	152.315327	-6.980856	23.973711
3.850000	-7.036940	96.516959	-1.278933	149.596501	-1.278933	149.596501	-6.913220	21.612185
3.900000	-6.972223	93.452786	-1.300779	146.876681	-1.300779	146.876681	-6.847004	19.275101
3.950000	-6.908765	90.364114	-1.322605	144.155846	-1.322605	144.155846	-6.782141	16.961801
4.000000	-6.846466	87.252922	-1.344418	141.434045	-1.344418	141.434045	-6.718530	14.670349
4.050000	-6.785343	84.117658	-1.366217	138.711183	-1.366217	138.711183	-6.656194	12.402258
4.100000	-6.725313	80.960222	-1.388007	135.987322	-1.388007	135.987322	-6.595050	10.155715
4.150000	-6.666334	77.781537	-1.409792	133.262494	-1.409792	133.262494	-6.535054	7.929881
4.200000	-6.608369	74.582596	-1.431573	130.536746	-1.431573	130.536746	-6.476170	5.723878
4.250000	-6.551390	71.364454	-1.453352	127.810137	-1.453352	127.810137	-6.418372	3.536789
4.300000	-6.495376	68.128232	-1.475126	125.082740	-1.475126	125.082740	-6.361637	1.367665
4.350000	-6.440314	64.875109	-1.496894	122.354641	-1.496894	122.354641	-6.305954	-0.784474
4.400000	-6.386207	61.606160	-1.518648	119.625934	-1.518648	119.625934	-6.251327	-2.920475
4.450000	-6.333061	58.322714	-1.540380	116.896731	-1.540380	116.896731	-6.197763	-5.041404
4.500000	-6.280884	55.026269	-1.562080	114.167158	-1.562080	114.167158	-6.145268	-7.148489
4.550000	-6.229700	51.718189	-1.583733	111.437344	-1.583733	111.437344	-6.093869	-9.242798
4.600000	-6.179613	48.399123	-1.605308	108.707428	-1.605308	108.707428	-6.043677	-11.324506
4.650000	-6.130526	45.072186	-1.626808	105.977549	-1.626808	105.977549	-5.994577	-13.396716
4.700000	-6.082565	41.737825	-1.648194	103.247838	-1.648194	103.247838	-5.946702	-15.459392
4.750000	-6.035793	38.397478	-1.669436	100.518435	-1.669436	100.518435	-5.900119	-17.513634
4.800000	-5.990234	35.052694	-1.690510	97.789449	-1.690510	97.789449	-5.854844	-19.560794
4.850000	-5.946083	31.704605	-1.711348	95.061066	-1.711348	95.061066	-5.811081	-21.601366
4.900000	-5.903376	28.354843	-1.731919	92.333379	-1.731919	92.333379	-5.768861	-23.636823
4.950000	-5.862221	25.004798	-1.752171	89.606495	-1.752171	89.606495	-5.728287	-25.668257
5.000000	-5.822731	21.655826	-1.772046	86.880501	-1.772046	86.880501	-5.689475	-27.696752
5.050000	-5.785071	18.309324	-1.791471	84.155486	-1.791471	84.155486	-5.652587	-29.723375
5.100000	-5.749345	14.966537	-1.810384	81.431472	-1.810384	81.431472	-5.617724	-31.749266
5.150000	-5.715700	11.628677	-1.828714	78.708467	-1.828714	78.708467	-5.585032	-33.775498
5.200000	-5.684293	8.296897	-1.846379	75.986448	-1.846379	75.986448	-5.554665	-35.803143
5.250000	-5.655291	4.972283	-1.863294	73.265349	-1.863294	73.265349	-5.526789	-37.833274
5.300000	-5.628873	1.655852	-1.879368	70.545063	-1.879368	70.545063	-5.501582	-39.866968
5.350000	-5.605228	-1.651452	-1.894506	67.825433	-1.894506	67.825433	-5.479233	-41.905311
5.400000	-5.584558	-4.948766	-1.908607	65.106248	-1.908607	65.106248	-5.459943	-43.949401
5.450000	-5.567077	-8.235305	-1.921565	62.387239	-1.921565	62.387239	-5.443929	-46.000356
5.500000	-5.553012	-11.510369	-1.933270	59.668071	-1.933270	59.668071	-5.431419	-48.059315
5.550000	-5.542607	-14.773340	-1.943609	56.948342	-1.943609	56.948342	-5.422661	-50.127452
5.600000	-5.536120	-18.023684	-1.952463	54.227574	-1.952463	54.227574	-5.417918	-52.205975
5.650000	-5.534464	-21.259047	-1.959467	51.504886	-1.959467	51.504886	-5.418127	-54.297982
5.700000	-5.536764	-24.482674	-1.964951	48.780132	-1.964951	48.780132	-5.422391	-56.401468
5.750000	-5.543886	-27.692569	-1.968580	46.052363	-1.968580	46.052363	-5.431603	-58.519334
5.800000	-5.556176	-30.888515	-1.970227	43.320739	-1.970227	43.320739	-5.446123	-60.653042
5.850000	-5.573492	-34.071599	-1.969963	40.584840	-1.969963	40.584840	-5.465812	-62.802455
5.900000	-5.597311	-37.239105	-1.967255	37.842585	-1.967255	37.842585	-5.492200	-64.972665
5.950000	-5.627538	-40.392377	-1.962188	35.093278	-1.962188	35.093278	-5.525203	-67.163722
6.000000	-5.664664	-43.531410	-1.954640	32.335614	-1.954640	32.335614	-5.565342	-69.377535
6.050000	-5.709229	-46.656219	-1.944495	29.568151	-1.944495	29.568151	-5.613198	-71.616168
6.100000	-5.761834	-49.766816	-1.931645	26.789308	-1.931645	26.789308	-5.669417	-73.881858
6.150000	-5.823145	-52.863187	-1.915988	23.997342	-1.915988	23.997342	-5.734719	-76.177041
6.200000	-5.893905	-55.945256	-1.897434	21.190336	-1.897434	21.190336	-5.809916	-78.504377
6.250000	-5.974948	-59.012845	-1.875905	18.366166	-1.875905	18.366166	-5.895921	-80.866782
6.300000	-6.067455	-62.065288	-1.851265	15.521985	-1.851265	15.521985	-5.994025	-83.268376
6.350000	-6.172282	-65.102325	-1.823513	12.655560	-1.823513	12.655560	-6.105195	-85.711964
6.400000	-6.290636	-68.123066	-1.792586	9.764153	-1.792586	9.764153	-6.230785	-88.201500
6.450000	-6.423893	-71.126187	-1.758438	6.844978	-1.758438	6.844978	-6.372353	-90.741391
6.500000	-6.573624	-74.109780	-1.721074	3.895132	-1.721074	3.895132	-6.531698	-93.336567
6.550000	-6.741634	-77.071157	-1.680548	0.911445	-1.680548	0.911445	-6.710912	-95.992583
6.600000	-6.930003	-80.006589	-1.636956	-2.109574	-1.636956	-2.109574	-6.912437	-98.715738
6.650000	-7.141136	-82.910953	-1.590438	-5.171708	-1.590438	-5.171708	-7.139152	-101.513236
6.700000	-7.377433	-85.778161	-1.541225	-8.278084	-1.541225	-8.278084	-7.394020	-104.391683
6.750000	-7.644192	-88.593824	-1.489316	-11.437670	-1.489316	-11.437670	-7.683418	-107.369723
6.800000	-7.941940	-91.353037	-1.435398	-14.647366	-1.435398	-14.647366	-8.008536	-110.444476
6.850000	-8.277957	-94.030031	-1.379582	-17.918330	-1.379582	-17.918330	-8.378584	-113.642788
6.900000	-8.656023	-96.605644	-1.322455	-21.251890	-1.322455	-21.251890	-8.799195	-116.974767
6.950000	-9.082284	-99.046387	-1.264592	-24.652993	-1.264592	-24.652993	-9.279522	-120.462485
7.000000	-9.565892	-101.295828	-1.206641	-28.130806	-1.206641	-28.130806	-9.833669	-124.145261
7.050000	-10.111415	-103.314774	-1.149409	-31.681444	-1.149409	-31.681444	-10.471567	-128.037892
7.100000	-10.732468	-104.982021	-1.093888	-35.318867	-1.093888	-35.318867	-11.218692	-132.222290
7.150000	-11.438394	-106.162967	-1.041232	-39.045648	-1.041232	-39.045648	-12.101308	-136.780728
7.200000	-12.238321	-106.661920	-0.992697	-42.864728	-0.992697	-42.864728	-13.157022	-141.846944
7.250000	-13.137551	-106.182502	-0.949725	-46.779632	-0.949725	-46.779632	-14.441646	-147.659930
7.300000	-14.128172	-104.292457	-0.913926	-50.793021	-0.913926	-50.793021	-16.039469	-154.674609
7.350000	-15.169254	-100.398342	-0.887071	-54.906437	-0.887071	-54.906437	-18.080205	-163.865567
7.400000	-16.149949	-93.831110	-0.871078	-59.120033	-0.871078	-59.120033	-20.742179	-177.640950
7.450000	-16.850302	-84.268963	-0.867985	-63.432292	-0.867985	-63.432292	-23.992292	157.480292
7.500000	-16.986075	-72.583011	-0.879913	-67.839767	-0.879913	-67.839767	-25.675573	112.384493
7.550000	-16.413344	-61.142887	-0.909292	-72.338031	-0.909292	-72.338031	-22.918679	71.031898
7.600000	-15.311197	-52.186312	-0.958019	-76.917678	-0.958019	-76.917678	-19.372337	49.010653
7.650000	-13.969052	-46.392822	-1.028095	-81.568322	-1.028095	-81.568322	-16.498569	36.030001
7.700000	-12.597088	-43.348702	-1.121334	-86.277300	-1.121334	-86.277300	-14.221267	26.761752
7.750000	-11.298551	-42.366005	-1.239283	-91.029900	-1.239283	-91.029900	-12.371087	19.245851
7.800000	-10.111665	-42.844000	-1.382961	-95.809672	-1.382961	-95.809672	-10.831622	12.671996
7.850000	-9.043564	-44.373995	-1.553837	-100.599173	-1.553837	-100.599173	-9.527914	6.678946
7.900000	-8.090387	-46.631328	-1.751932	-105.379674	-1.751932	-105.379674	-8.410075	1.065798
7.950000	-7.242972	-49.398859	-1.976989	-110.133241	-1.976989	-110.133241	-7.443016	-4.270872
8.000000	-6.491160	-52.527073	-2.228559	-114.842756	-2.228559	-114.842756	-6.601293	-9.386339
8.050000	-5.825163	-55.906646	-2.505835	-119.492406	-2.505835	-119.492406	-5.865649	-14.311996
8.100000	-5.235940	-59.456298	-2.807719	-124.068131	-2.807719	-124.068131	-5.220959	-19.065815
8.150000	-4.715853	-63.115972	-3.133046	-128.556306	-3.133046	-128.556306	-4.655585	-23.655635
8.200000	-4.257442	-66.837786	-3.480215	-132.946864	-3.480215	-132.946864	-4.159270	-28.088202
8.250000	-3.853374	-70.585943	-3.847527	-137.234110	-3.847527	-137.234110	-3.722698	-32.370840
8.300000	-3.497589	-74.335067	-4.233526	-141.413073	-4.233526	-141.413073	-3.338418	-36.507527
8.350000	-3.184660	-78.066610	-4.636869	-145.480829	-4.636869	-145.480829	-2.999972	-40.502304
8.400000	-2.909738	-81.767482	-5.056384	-149.436252	-5.056384	-149.436252	-2.701733	-44.359605
8.450000	-2.668715	-85.428596	-5.491054	-153.278796	-5.491054	-153.278796	-2.438982	-48.083286
8.500000	-2.458093	-89.043919	-5.939991	-157.008294	-5.939991	-157.008294	-2.207725	-51.676870
8.550000	-2.273410	-92.613383	-6.403252	-160.632476	-6.403252	-160.632476	-2.003110	-55.152151
8.600000	-2.113288	-96.133401	-6.879915	-164.146260	-6.879915	-164.146260	-1.823375	-58.506350
8.650000	-1.973147	-99.610734	-7.371576	-167.563784	-7.371576	-167.563784	-1.663693	-61.757582
8.700000	-1.851561	-103.046933	-7.878655	-170.884586	-7.878655	-170.884586	-1.522349	-64.907962
8.750000	-1.747329	-106.445143	-8.401754	-174.107314	-8.401754	-174.107314	-1.397808	-67.959707
8.800000	-1.657377	-109.814530	-8.944211	-177.244002	-8.944211	-177.244002	-1.286851	-70.928611
8.850000	-1.581669	-113.159237	-9.507289	179.712283	-9.507289	179.712283	-1.189032	-73.813068
8.900000	-1.518332	-116.488891	-10.095308	176.756180	-10.095308	176.756180	-1.102250	-76.624583
8.950000	-1.466088	-119.811908	-10.713256	173.885608	-10.713256	173.885608	-1.025002	-79.371910
9.000000	-1.425631	-123.138733	-11.365734	171.117405	-11.365734	171.117405	-0.957301	-82.053974
9.050000	-1.395053	-126.479858	-12.062092	168.447853	-12.062092	168.447853	-0.897140	-84.685613
9.100000	-1.374763	-129.847985	-12.812002	165.898892	-12.812002	165.898892	-0.844278	-87.269862
9.150000	-1.365025	-133.259252	-13.629545	163.504080	-13.629545	163.504080	-0.798236	-89.813044
9.200000	-1.365257	-136.724920	-14.533510	161.294025	-14.533510	161.294025	-0.758072	-92.324784
9.250000	-1.377337	-140.271487	-15.550883	159.376626	-15.550883	159.376626	-0.724162	-94.808854
9.300000	-1.401399	-143.915206	-16.719243	157.877994	-16.719243	157.877994	-0.695900	-97.275116
9.350000	-1.438732	-147.678374	-18.093864	157.030833	-18.093864	157.030833	-0.673298	-99.730695
9.400000	-1.493140	-151.608063	-19.762291	157.506662	-19.762291	157.506662	-0.657276	-102.183908
9.450000	-1.565683	-155.721366	-21.845819	160.335651	-21.845819	160.335651	-0.647673	-104.643623
9.500000	-1.661971	-160.077784	-24.476912	168.648606	-24.476912	168.648606	-0.645984	-107.119665
9.550000	-1.786925	-164.723414	-27.317180	-170.625355	-27.317180	-170.625355	-0.653393	-109.621385
9.600000	-1.950644	-169.748017	-27.595827	-134.101545	-27.595827	-134.101545	-0.672753	-112.160665
9.650000	-2.162384	-175.216495	-24.459743	-107.357751	-24.459743	-107.357751	-0.706520	-114.744349
9.700000	-2.441550	178.728777	-20.916426	-97.360306	-20.916426	-97.360306	-0.760185	-117.381503
9.750000	-2.811470	171.945640	-17.937722	-95.123116	-17.937722	-95.123116	-0.839863	-120.070930
9.800000	-3.307512	164.232104	-15.440509	-96.669600	-15.440509	-96.669600	-0.954086	-122.799043
9.850000	-3.981425	155.310976	-13.298733	-100.506118	-13.298733	-100.506118	-1.113386	-125.528051
9.900000	-4.908313	144.780118	-11.436979	-106.018642	-11.436979	-106.018642	-1.328851	-128.181176
9.950000	-6.190396	132.000698	-9.826073	-112.883634	-9.826073	-112.883634	-1.607685	-130.628218
10.000000	-7.891455	116.823504	-8.508608	-120.706147	-8.508608	-120.706147	-1.943709	-132.678882
