! freq	dB(S11)	phase(S11)	dB(S12)	phase(S12)	
!     	dB(S21)	phase(S21)	dB(S22)	phase(S22)	
!S-par simulation data
#  GHz  S  DB  R 50
0.000000	-0.000000	0.000000	-329.019997	0.000000	-329.019997	0.000000	-0.000000	0.000000
0.050000	-0.001786	-2.148282	-82.944210	87.523383	-82.944210	87.523383	-0.002527	-2.946323
0.100000	-0.005720	-4.282510	-76.935850	85.008378	-76.935850	85.008378	-0.007917	-5.871072
0.150000	-0.009843	-6.403600	-73.439802	82.489707	-73.439802	82.489707	-0.013366	-8.776144
0.200000	-0.013377	-8.517579	-70.980771	79.984100	-70.980771	79.984100	-0.017962	-11.669985
0.250000	-0.016371	-10.628926	-69.093251	77.495984	-69.093251	77.495984	-0.021893	-14.558250
0.300000	-0.018984	-12.739129	-67.570696	75.028334	-67.570696	75.028334	-0.025409	-17.442354
0.350000	-0.021354	-14.848556	-66.304014	72.584712	-66.304014	72.584712	-0.028697	-20.322124
0.400000	-0.023592	-16.957037	-65.228044	70.168559	-65.228044	70.168559	-0.031884	-23.196691
0.450000	-0.025774	-19.064310	-64.298421	67.780910	-64.298421	67.780910	-0.035039	-26.065429
0.500000	-0.027940	-21.170055	-63.486070	65.424069	-63.486070	65.424069	-0.038195	-28.927459
0.550000	-0.030122	-23.273822	-62.772168	63.102690	-62.772168	63.102690	-0.041369	-31.781371
0.600000	-0.032337	-25.375348	-62.140415	60.818439	-62.140415	60.818439	-0.044568	-34.626493
0.650000	-0.034595	-27.474456	-61.578166	58.572602	-61.578166	58.572602	-0.047792	-37.462379
0.700000	-0.036901	-29.570902	-61.076599	56.368164	-61.076599	56.368164	-0.051037	-40.288285
0.750000	-0.039260	-31.664317	-60.630075	54.210652	-60.630075	54.210652	-0.054299	-43.102987
0.800000	-0.041665	-33.754871	-60.229615	52.097866	-60.229615	52.097866	-0.057570	-45.907222
0.850000	-0.044123	-35.841850	-59.875116	50.042199	-59.875116	50.042199	-0.060846	-48.698497
0.900000	-0.046620	-37.925755	-59.557461	48.037259	-59.557461	48.037259	-0.064117	-51.478708
0.950000	-0.049159	-40.005867	-59.277798	46.097513	-59.277798	46.097513	-0.067377	-54.245361
1.000000	-0.051730	-42.082563	-59.029767	44.219363	-59.029767	44.219363	-0.070621	-56.999880
1.050000	-0.054330	-44.155476	-58.812746	42.413272	-58.812746	42.413272	-0.073840	-59.741038
1.100000	-0.056954	-46.224605	-58.623963	40.683589	-58.623963	40.683589	-0.077031	-62.468915
1.150000	-0.059595	-48.290041	-58.460461	39.033452	-58.460461	39.033452	-0.080190	-65.183905
1.200000	-0.062249	-50.351370	-58.322363	37.477928	-58.322363	37.477928	-0.083310	-67.884648
1.250000	-0.064911	-52.409163	-58.204577	36.009700	-58.204577	36.009700	-0.086393	-70.573197
1.300000	-0.067577	-54.462574	-58.109317	34.657912	-58.109317	34.657912	-0.089429	-73.246734
1.350000	-0.070242	-56.512430	-58.030728	33.407838	-58.030728	33.407838	-0.092426	-75.908175
1.400000	-0.072903	-58.558137	-57.969365	32.285379	-57.969365	32.285379	-0.095376	-78.555592
1.450000	-0.075556	-60.600092	-57.921615	31.286803	-57.921615	31.286803	-0.098283	-81.190418
1.500000	-0.078200	-62.638179	-57.885617	30.425154	-57.885617	30.425154	-0.101146	-83.812358
1.550000	-0.080831	-64.672366	-57.858976	29.710616	-57.858976	29.710616	-0.103966	-86.421417
1.600000	-0.083448	-66.703002	-57.838291	29.138322	-57.838291	29.138322	-0.106747	-89.018839
1.650000	-0.086048	-68.729649	-57.821017	28.734083	-57.821017	28.734083	-0.109487	-91.603315
1.700000	-0.088633	-70.752955	-57.803435	28.476627	-57.803435	28.476627	-0.112193	-94.177054
1.750000	-0.091200	-72.772634	-57.781944	28.382551	-57.781944	28.382551	-0.114866	-96.739253
1.800000	-0.093749	-74.788887	-57.752681	28.444261	-57.752681	28.444261	-0.117509	-99.290683
1.850000	-0.096281	-76.801821	-57.711671	28.654722	-57.711671	28.654722	-0.120126	-101.831812
1.900000	-0.098796	-78.811519	-57.654729	29.003622	-57.654729	29.003622	-0.122720	-104.363038
1.950000	-0.101294	-80.818112	-57.577945	29.473698	-57.577945	29.473698	-0.125295	-106.884914
2.000000	-0.103776	-82.821770	-57.478106	30.041714	-57.478106	30.041714	-0.127857	-109.398112
2.050000	-0.106244	-84.822640	-57.352410	30.681521	-57.352410	30.681521	-0.130408	-111.903231
2.100000	-0.108699	-86.820664	-57.195970	31.363846	-57.195970	31.363846	-0.132953	-114.400316
2.150000	-0.111143	-88.816471	-57.013603	32.053404	-57.013603	32.053404	-0.135498	-116.891313
2.200000	-0.113578	-90.809978	-56.802118	32.721492	-56.802118	32.721492	-0.138045	-119.376187
2.250000	-0.116005	-92.801366	-56.562268	33.336523	-56.562268	33.336523	-0.140599	-121.855651
2.300000	-0.118427	-94.790826	-56.295677	33.869241	-56.295677	33.869241	-0.143165	-124.330448
2.350000	-0.120845	-96.778556	-56.004691	34.293948	-56.004691	34.293948	-0.145747	-126.801347
2.400000	-0.123262	-98.764766	-55.692192	34.589336	-55.692192	34.589336	-0.148349	-129.269148
2.450000	-0.125679	-100.749670	-55.361398	34.738888	-55.361398	34.738888	-0.150976	-131.734677
2.500000	-0.128100	-102.733493	-55.015672	34.730876	-55.015672	34.730876	-0.153633	-134.198788
2.550000	-0.130527	-104.716444	-54.657343	34.550714	-54.657343	34.550714	-0.156325	-136.662383
2.600000	-0.132962	-106.698812	-54.290829	34.202370	-54.290829	34.202370	-0.159055	-139.126439
2.650000	-0.135408	-108.680847	-53.919073	33.686061	-53.919073	33.686061	-0.161828	-141.591896
2.700000	-0.137867	-110.662809	-53.544715	33.004421	-53.544715	33.004421	-0.164649	-144.059728
2.750000	-0.140341	-112.644964	-53.170073	32.161852	-53.170073	32.161852	-0.167521	-146.530932
2.800000	-0.142833	-114.627586	-52.797142	31.163969	-52.797142	31.163969	-0.170450	-149.006539
2.850000	-0.145344	-116.610958	-52.427610	30.017124	-52.427610	30.017124	-0.173438	-151.487606
2.900000	-0.147878	-118.595371	-52.062885	28.728031	-52.062885	28.728031	-0.176492	-153.975222
2.950000	-0.150434	-120.580966	-51.704886	27.316171	-51.704886	27.316171	-0.179607	-156.469663
3.000000	-0.153018	-122.568307	-51.352959	25.763460	-51.352959	25.763460	-0.182802	-158.973539
3.050000	-0.155630	-124.557596	-51.008665	24.088146	-51.008665	24.088146	-0.186075	-161.487385
3.100000	-0.158273	-126.549152	-50.672595	22.296163	-50.672595	22.296163	-0.189430	-164.012415
3.150000	-0.160949	-128.543333	-50.345174	20.391806	-50.345174	20.391806	-0.192873	-166.550024
3.200000	-0.163659	-130.540485	-50.026778	18.380144	-50.026778	18.380144	-0.196408	-169.101536
3.250000	-0.166406	-132.540920	-49.717697	16.266722	-49.717697	16.266722	-0.200039	-171.668134
3.300000	-0.169189	-134.544986	-49.418107	14.055326	-49.418107	14.055326	-0.203772	-174.251168
3.350000	-0.172013	-136.553035	-49.128122	11.749197	-49.128122	11.749197	-0.207609	-176.852023
3.400000	-0.174876	-138.565428	-48.847813	9.351049	-48.847813	9.351049	-0.211556	-179.472121
3.450000	-0.177782	-140.582531	-48.577209	6.863079	-48.577209	6.863079	-0.215618	177.887081
3.500000	-0.180731	-142.604715	-48.316315	4.286990	-48.316315	4.286990	-0.219800	175.224091
3.550000	-0.183724	-144.632358	-48.065108	1.624007	-48.065108	1.624007	-0.224106	172.537381
3.600000	-0.186762	-146.665841	-47.823552	-1.125105	-47.823552	-1.125105	-0.228541	169.825387
3.650000	-0.189846	-148.705552	-47.591595	-3.960024	-47.591595	-3.960024	-0.233109	167.086512
3.700000	-0.192977	-150.751882	-47.369173	-6.880857	-47.369173	-6.880857	-0.237817	164.319123
3.750000	-0.196156	-152.805230	-47.156212	-9.888126	-47.156212	-9.888126	-0.242669	161.521558
3.800000	-0.199383	-154.866164	-46.952735	-12.984690	-46.952735	-12.984690	-0.247672	158.691386
3.850000	-0.202657	-156.934936	-46.758559	-16.170017	-46.758559	-16.170017	-0.252828	155.827540
3.900000	-0.205980	-159.011955	-46.573581	-19.445843	-46.573581	-19.445843	-0.258143	152.928266
3.950000	-0.209350	-161.097628	-46.397681	-22.814283	-46.397681	-22.814283	-0.263621	149.991793
4.000000	-0.212767	-163.192369	-46.230726	-26.277820	-46.230726	-26.277820	-0.269266	147.016328
4.050000	-0.216230	-165.296590	-46.072563	-29.839306	-46.072563	-29.839306	-0.275082	144.000068
4.100000	-0.219738	-167.410705	-45.923011	-33.501949	-45.923011	-33.501949	-0.281073	140.941200
4.150000	-0.223288	-169.535127	-45.781861	-37.269305	-45.781861	-37.269305	-0.287244	137.837914
4.200000	-0.226878	-171.670267	-45.648863	-41.145262	-45.648863	-41.145262	-0.293598	134.688405
4.250000	-0.230501	-173.816529	-45.523721	-45.134026	-45.523721	-45.134026	-0.300136	131.490884
4.300000	-0.234151	-175.974305	-45.406081	-49.240090	-45.406081	-49.240090	-0.306863	128.243591
4.350000	-0.237817	-178.143954	-45.295520	-53.468203	-45.295520	-53.468203	-0.313779	124.944802
4.400000	-0.241482	179.674105	-45.191587	-57.824757	-45.191587	-57.824757	-0.320889	121.592250
4.450000	-0.245130	177.479794	-45.093663	-62.315025	-45.093663	-62.315025	-0.328192	118.184277
4.500000	-0.248797	175.273575	-45.000972	-66.942780	-45.000972	-66.942780	-0.335685	114.719941
4.550000	-0.252726	173.055561	-44.912667	-71.713113	-44.912667	-71.713113	-0.343369	111.197824
4.600000	-0.257172	170.822959	-44.827762	-76.630916	-44.827762	-76.630916	-0.351239	107.616625
4.650000	-0.261744	168.573023	-44.745114	-81.700708	-44.745114	-81.700708	-0.359294	103.975180
4.700000	-0.266112	166.307052	-44.663414	-86.926433	-44.663414	-86.926433	-0.367529	100.272483
4.750000	-0.270336	164.026171	-44.581179	-92.311216	-44.581179	-92.311216	-0.375939	96.507706
4.800000	-0.274512	161.730319	-44.496753	-97.857091	-44.496753	-97.857091	-0.384517	92.680218
4.850000	-0.278686	159.419117	-44.408311	-103.564708	-44.408311	-103.564708	-0.393257	88.789605
4.900000	-0.282873	157.092179	-44.313883	-109.433022	-44.313883	-109.433022	-0.402151	84.835693
4.950000	-0.287080	154.749161	-44.211378	-115.458996	-44.211378	-115.458996	-0.411191	80.818555
5.000000	-0.291305	152.389761	-44.098634	-121.637345	-44.098634	-121.637345	-0.420370	76.738529
5.050000	-0.295550	150.013408	-43.973164	-127.962754	-43.973164	-127.962754	-0.429684	72.595116
5.100000	-0.299809	147.620167	-43.833054	-134.422085	-43.833054	-134.422085	-0.439126	68.390347
5.150000	-0.304081	145.209840	-43.676307	-141.002545	-43.676307	-141.002545	-0.448695	64.125374
5.200000	-0.308361	142.782257	-43.501135	-147.689217	-43.501135	-147.689217	-0.458396	59.801578
5.250000	-0.312648	140.337283	-43.306016	-154.465552	-43.306016	-154.465552	-0.468243	55.420530
5.300000	-0.316937	137.874815	-43.089738	-161.314084	-43.089738	-161.314084	-0.478259	50.983919
5.350000	-0.321224	135.394784	-42.851406	-168.217344	-42.851406	-168.217344	-0.488488	46.493453
5.400000	-0.325508	132.897160	-42.590409	-175.158966	-42.590409	-175.158966	-0.498998	41.950706
5.450000	-0.329784	130.381782	-42.306005	177.874878	-42.306005	177.874878	-0.509900	37.356412
5.500000	-0.334050	127.848787	-41.997926	170.894399	-41.997926	170.894399	-0.521361	32.711348
5.550000	-0.338303	125.298355	-41.665738	163.903613	-41.665738	163.903613	-0.533641	28.015056
5.600000	-0.342542	122.730630	-41.308317	156.897989	-41.308317	156.897989	-0.547145	23.264843
5.650000	-0.346765	120.145807	-40.923505	149.860821	-40.923505	149.860821	-0.562532	18.454752
5.700000	-0.350975	117.544141	-40.507374	142.757027	-40.507374	142.757027	-0.580903	13.573402
5.750000	-0.355173	114.925957	-40.053050	135.521900	-40.053050	135.521900	-0.604199	8.600143
5.800000	-0.359368	112.291671	-39.548714	128.038880	-39.548714	128.038880	-0.636081	3.497730
5.850000	-0.363572	109.641731	-38.972835	120.084161	-38.972835	120.084161	-0.684369	-1.805211
5.900000	-0.367809	106.977148	-38.290675	111.221547	-38.290675	111.221547	-0.766916	-7.441304
5.950000	-0.372103	104.299349	-37.438796	100.428205	-37.438796	100.428205	-0.935194	-13.690378
6.000000	-0.376358	101.611955	-36.339668	84.932974	-36.339668	84.932974	-1.374857	-21.060140
6.050000	-0.379121	98.922491	-35.335145	55.699299	-35.335145	55.699299	-2.939669	-28.012217
6.100000	-0.376526	96.197845	-39.147869	0.308942	-39.147869	0.308942	-4.135531	-10.071043
6.150000	-0.379826	93.428901	-62.059467	-33.882787	-62.059467	-33.882787	-1.642912	-11.663942
6.200000	-0.384930	90.670426	-48.210959	117.552359	-48.210959	117.552359	-0.966073	-19.843669
6.250000	-0.389381	87.907831	-44.149805	106.418612	-44.149805	106.418612	-0.758288	-26.432731
6.300000	-0.393389	85.136550	-42.377726	97.992001	-42.377726	97.992001	-0.675326	-32.058509
6.350000	-0.397129	82.356222	-41.322187	90.998271	-41.322187	90.998271	-0.635747	-37.154430
6.400000	-0.400691	79.567515	-40.588282	84.842994	-40.588282	84.842994	-0.614570	-41.926636
6.450000	-0.404117	76.771234	-40.031024	79.243902	-40.031024	79.243902	-0.602512	-46.474678
6.500000	-0.407432	73.968326	-39.582680	74.043682	-39.582680	74.043682	-0.595377	-50.854219
6.550000	-0.410652	71.159798	-39.207619	69.149126	-39.207619	69.149126	-0.591096	-55.097962
6.600000	-0.413786	68.346701	-38.885246	64.501250	-38.885246	64.501250	-0.588568	-59.226308
6.650000	-0.416844	65.530117	-38.602756	60.060624	-38.602756	60.060624	-0.587169	-63.252696
6.700000	-0.419830	62.711115	-38.352317	55.804760	-38.352317	55.804760	-0.586545	-67.183664
6.750000	-0.422754	59.890939	-38.126821	51.703258	-38.126821	51.703258	-0.586434	-71.031431
6.800000	-0.425621	57.070663	-37.922694	47.746014	-37.922694	47.746014	-0.586712	-74.798534
6.850000	-0.428436	54.251444	-37.736752	43.921111	-37.736752	43.921111	-0.587288	-78.489145
6.900000	-0.431205	51.434480	-37.566638	40.220207	-37.566638	40.220207	-0.588102	-82.106012
6.950000	-0.433934	48.620973	-37.410331	36.635157	-37.410331	36.635157	-0.589114	-85.652286
7.000000	-0.436631	45.812058	-37.266083	33.157991	-37.266083	33.157991	-0.590295	-89.131504
7.050000	-0.439301	43.008888	-37.132530	29.782955	-37.132530	29.782955	-0.591627	-92.546213
7.100000	-0.441952	40.212600	-37.008500	26.504960	-37.008500	26.504960	-0.593097	-95.898822
7.150000	-0.444590	37.424318	-36.892968	23.319431	-36.892968	23.319431	-0.594698	-99.191640
7.200000	-0.447224	34.645142	-36.785022	20.222186	-36.785022	20.222186	-0.596423	-102.426904
7.250000	-0.449860	31.876148	-36.683847	17.209353	-36.683847	17.209353	-0.598268	-105.606794
7.300000	-0.452507	29.118383	-36.588703	14.277301	-36.588703	14.277301	-0.600229	-108.733441
7.350000	-0.455170	26.372861	-36.498916	11.422594	-36.498916	11.422594	-0.602304	-111.808937
7.400000	-0.457860	23.640562	-36.413866	8.641946	-36.413866	8.641946	-0.604490	-114.835335
7.450000	-0.460582	20.922426	-36.332982	5.932194	-36.332982	5.932194	-0.606785	-117.814651
7.500000	-0.463345	18.219350	-36.255735	3.290274	-36.255735	3.290274	-0.609185	-120.748864
7.550000	-0.466157	15.532554	-36.181682	0.714545	-36.181682	0.714545	-0.611692	-123.639025
7.600000	-0.469026	12.862516	-36.110307	-1.799383	-36.110307	-1.799383	-0.614299	-126.488019
7.650000	-0.471959	10.209994	-36.041193	-4.254369	-36.041193	-4.254369	-0.617004	-129.297710
7.700000	-0.474962	7.575697	-35.973952	-6.653226	-35.973952	-6.653226	-0.619805	-132.069926
7.750000	-0.478044	4.960282	-35.908228	-8.998727	-35.908228	-8.998727	-0.622698	-134.806454
7.800000	-0.481210	2.364358	-35.843692	-11.293604	-35.843692	-11.293604	-0.625679	-137.509042
7.850000	-0.484467	-0.211519	-35.780044	-13.540557	-35.780044	-13.540557	-0.628745	-140.179398
7.900000	-0.487822	-2.766844	-35.717010	-15.742249	-35.717010	-15.742249	-0.631894	-142.819192
7.950000	-0.491281	-5.301162	-35.654342	-17.901309	-35.654342	-17.901309	-0.635120	-145.430051
8.000000	-0.494850	-7.814071	-35.591818	-20.020328	-35.591818	-20.020328	-0.638421	-148.013566
8.050000	-0.498533	-10.305215	-35.529240	-22.101859	-35.529240	-22.101859	-0.641792	-150.571288
8.100000	-0.502337	-12.774290	-35.466434	-24.148413	-35.466434	-24.148413	-0.645229	-153.104733
8.150000	-0.506268	-15.220794	-35.403238	-26.162129	-35.403238	-26.162129	-0.648730	-155.615146
8.200000	-0.510330	-17.644511	-35.339522	-28.145503	-35.339522	-28.145503	-0.652290	-158.104017
8.250000	-0.514526	-20.045523	-35.275191	-30.101248	-35.275191	-30.101248	-0.655904	-160.572999
8.300000	-0.518861	-22.423709	-35.210162	-32.031663	-35.210162	-32.031663	-0.659568	-163.023465
8.350000	-0.523342	-24.778329	-35.144334	-33.938384	-35.144334	-33.938384	-0.663280	-165.456298
8.400000	-0.527958	-27.111702	-35.077802	-35.825678	-35.077802	-35.825678	-0.667031	-167.874407
8.450000	-0.532735	-29.420254	-35.010333	-37.692611	-35.010333	-37.692611	-0.670823	-170.276740
8.500000	-0.537656	-31.707126	-34.942106	-39.543650	-34.942106	-39.543650	-0.674647	-172.666462
8.550000	-0.542735	-33.970622	-34.873028	-41.379500	-34.873028	-41.379500	-0.678503	-175.043810
8.600000	-0.547971	-36.211288	-34.803152	-43.202296	-34.803152	-43.202296	-0.682385	-177.410216
8.650000	-0.553361	-38.430136	-34.732573	-45.014271	-34.732573	-45.014271	-0.686290	-179.767257
8.700000	-0.558923	-40.625157	-34.661225	-46.816125	-34.661225	-46.816125	-0.690214	177.884773
8.750000	-0.564632	-42.799991	-34.589368	-48.610766	-34.589368	-48.610766	-0.694154	175.543523
8.800000	-0.570526	-44.950161	-34.516839	-50.398218	-34.516839	-50.398218	-0.698107	173.209273
8.850000	-0.576571	-47.080569	-34.443967	-52.181145	-34.443967	-52.181145	-0.702068	170.879661
8.900000	-0.582794	-49.188129	-34.370698	-53.960143	-34.370698	-53.960143	-0.706036	168.554321
8.950000	-0.589180	-51.275189	-34.297233	-55.736725	-34.297233	-55.736725	-0.710007	166.231817
9.000000	-0.595736	-53.341235	-34.223661	-57.511910	-34.223661	-57.511910	-0.713978	163.911171
9.050000	-0.602467	-55.386184	-34.150098	-59.286686	-34.150098	-59.286686	-0.717948	161.591334
9.100000	-0.609361	-57.411944	-34.076715	-61.061944	-34.076715	-61.061944	-0.721913	159.271232
9.150000	-0.616441	-59.416150	-34.003598	-62.838623	-34.003598	-62.838623	-0.725873	156.949679
9.200000	-0.623679	-61.402593	-33.930932	-64.617138	-33.930932	-64.617138	-0.729825	154.625946
9.250000	-0.631107	-63.367905	-33.858842	-66.398556	-33.858842	-66.398556	-0.733768	152.298391
9.300000	-0.638697	-65.315779	-33.787469	-68.182898	-33.787469	-68.182898	-0.737702	149.966624
9.350000	-0.646469	-67.244440	-33.716981	-69.970965	-33.716981	-69.970965	-0.741625	147.629012
9.400000	-0.654414	-69.155343	-33.647501	-71.762870	-33.647501	-71.762870	-0.745538	145.284837
9.450000	-0.662533	-71.048888	-33.579176	-73.558850	-33.579176	-73.558850	-0.749441	142.933028
9.500000	-0.670834	-72.924477	-33.512188	-75.359304	-33.512188	-75.359304	-0.753334	140.572015
9.550000	-0.679300	-74.784487	-33.446576	-77.163802	-33.446576	-77.163802	-0.757219	138.201804
9.600000	-0.687961	-76.626463	-33.382659	-78.973090	-33.382659	-78.973090	-0.761098	135.819431
9.650000	-0.696782	-78.453954	-33.320345	-80.786252	-33.320345	-80.786252	-0.764974	133.425993
9.700000	-0.705796	-80.264646	-33.259994	-82.603855	-33.259994	-82.603855	-0.768850	131.018126
9.750000	-0.714978	-82.061043	-33.201531	-84.425128	-33.201531	-84.425128	-0.772728	128.596523
9.800000	-0.724344	-83.842415	-33.145199	-86.250072	-33.145199	-86.250072	-0.776615	126.158833
9.850000	-0.733889	-85.609472	-33.091074	-88.078268	-33.091074	-88.078268	-0.780516	123.704147
9.900000	-0.743608	-87.363181	-33.039188	-89.909194	-33.039188	-89.909194	-0.784436	121.231899
9.950000	-0.753517	-89.102659	-32.989836	-91.742638	-32.989836	-91.742638	-0.788384	118.738974
10.000000	-0.763591	-90.830361	-32.942770	-93.577780	-32.942770	-93.577780	-0.792364	116.227195
