! freq	dB(S11)	phase(S11)	dB(S12)	phase(S12)	
!     	dB(S21)	phase(S21)	dB(S22)	phase(S22)	
!S-par simulation data
#  GHz  S  DB  R 50
0.000000	-83.559509	0.000000	-0.000577	0.000000	-0.000577	0.000000	-83.559509	0.000000
0.050000	-45.364701	-89.475122	-0.004863	-2.627842	-0.004863	-2.627842	-45.395780	-89.820018
0.100000	-39.519921	-92.632980	-0.010551	-5.218665	-0.010551	-5.218665	-39.543328	-94.360271
0.150000	-36.057588	-95.406394	-0.015039	-7.798707	-0.015039	-7.798707	-36.074352	-98.109564
0.200000	-33.591788	-97.946914	-0.019181	-10.376289	-0.019181	-10.376289	-33.608661	-101.551335
0.250000	-31.680364	-100.365218	-0.023405	-12.952218	-0.023405	-12.952218	-31.699153	-104.853500
0.300000	-30.123367	-102.710529	-0.027808	-15.526387	-0.027808	-15.526387	-30.143983	-108.081503
0.350000	-28.812949	-105.007240	-0.032381	-18.098874	-0.032381	-18.098874	-28.834706	-111.266459
0.400000	-27.684486	-107.267624	-0.037099	-20.669858	-0.037099	-20.669858	-27.706585	-114.423954
0.450000	-26.696387	-109.498506	-0.041942	-23.239546	-0.041942	-23.239546	-26.718061	-117.562813
0.500000	-25.819687	-111.705340	-0.046896	-25.808191	-0.046896	-25.808191	-25.840314	-120.689146
0.550000	-25.033755	-113.891457	-0.051954	-28.375977	-0.051954	-28.375977	-25.052859	-123.806661
0.600000	-24.323337	-116.059198	-0.057114	-30.943036	-0.057114	-30.943036	-24.340581	-126.917947
0.650000	-23.677000	-118.210091	-0.062378	-33.509448	-0.062378	-33.509448	-23.692162	-130.024933
0.700000	-23.085602	-120.345706	-0.067746	-36.075281	-0.067746	-36.075281	-23.098576	-133.129299
0.750000	-22.541782	-122.467403	-0.073217	-38.640584	-0.073217	-38.640584	-22.552550	-136.232440
0.800000	-22.039701	-124.576139	-0.078788	-41.205382	-0.078788	-41.205382	-22.048309	-139.335545
0.850000	-21.574932	-126.672287	-0.084460	-43.769682	-0.084460	-43.769682	-21.581468	-142.439775
0.900000	-21.142997	-128.757131	-0.090223	-46.333526	-0.090223	-46.333526	-21.147575	-145.546099
0.950000	-20.740744	-130.830993	-0.096074	-48.896931	-0.096074	-48.896931	-20.743484	-148.655498
1.000000	-20.365343	-132.894316	-0.102005	-51.459925	-0.102005	-51.459925	-20.366359	-151.768886
1.050000	-20.014375	-134.947441	-0.108010	-54.022542	-0.108010	-54.022542	-20.013759	-154.887132
1.100000	-19.685753	-136.990612	-0.114079	-56.584826	-0.114079	-56.584826	-19.683571	-158.011062
1.150000	-19.377664	-139.023984	-0.120205	-59.146828	-0.120205	-59.146828	-19.373946	-161.141461
1.200000	-19.088517	-141.047628	-0.126377	-61.708607	-0.126377	-61.708607	-19.083256	-164.279073
1.250000	-18.816908	-143.061542	-0.132587	-64.270230	-0.132587	-64.270230	-18.810058	-167.424595
1.300000	-18.561763	-145.065440	-0.138826	-66.831774	-0.138826	-66.831774	-18.553233	-170.578883
1.350000	-18.321776	-147.059405	-0.145084	-69.393324	-0.145084	-69.393324	-18.311444	-173.742366
1.400000	-18.095929	-149.043266	-0.151353	-71.954972	-0.151353	-71.954972	-18.083642	-176.915596
1.450000	-17.883298	-151.016820	-0.157626	-74.516814	-0.157626	-74.516814	-17.868874	179.900930
1.500000	-17.683029	-152.979846	-0.163894	-77.078952	-0.163894	-77.078952	-17.666270	176.706769
1.550000	-17.494334	-154.932121	-0.170152	-79.641493	-0.170152	-79.641493	-17.475025	173.501540
1.600000	-17.316474	-156.873429	-0.176393	-82.204548	-0.176393	-82.204548	-17.294398	170.284920
1.650000	-17.148759	-158.803579	-0.182612	-84.768232	-0.182612	-84.768232	-17.123698	167.056653
1.700000	-16.990533	-160.722420	-0.188806	-87.332662	-0.188806	-87.332662	-16.962276	163.816547
1.750000	-16.841173	-162.629848	-0.194971	-89.897957	-0.194971	-89.897957	-16.809526	160.564484
1.800000	-16.700086	-164.525825	-0.201104	-92.464238	-0.201104	-92.464238	-16.664871	157.300413
1.850000	-16.566702	-166.410388	-0.207205	-95.031625	-0.207205	-95.031625	-16.527767	154.024363
1.900000	-16.440525	-168.283539	-0.213271	-97.600253	-0.213271	-97.600253	-16.397745	150.736309
1.950000	-16.321017	-170.145505	-0.219304	-100.170246	-0.219304	-100.170246	-16.274297	147.436444
2.000000	-16.207612	-171.996738	-0.225305	-102.741709	-0.225305	-102.741709	-16.156893	144.125170
2.050000	-16.099818	-173.837672	-0.231276	-105.314756	-0.231276	-105.314756	-16.045075	140.802842
2.100000	-15.997162	-175.668859	-0.237220	-107.889501	-0.237220	-107.889501	-15.938402	137.469902
2.150000	-15.899189	-177.490962	-0.243141	-110.466052	-0.243141	-110.466052	-15.836449	134.126880
2.200000	-15.805461	-179.304766	-0.249042	-113.044515	-0.249042	-113.044515	-15.738807	130.774396
2.250000	-15.715558	178.888833	-0.254929	-115.624991	-0.254929	-115.624991	-15.645081	127.413156
2.300000	-15.629079	177.088821	-0.260807	-118.207576	-0.260807	-118.207576	-15.554891	124.043961
2.350000	-15.545642	175.294078	-0.266682	-120.792363	-0.266682	-120.792363	-15.467872	120.667698
2.400000	-15.464885	173.503376	-0.272559	-123.379438	-0.272559	-123.379438	-15.383674	117.285344
2.450000	-15.386467	171.715390	-0.278446	-125.968881	-0.278446	-125.968881	-15.301964	113.897964
2.500000	-15.310065	169.928706	-0.284348	-128.560769	-0.284348	-128.560769	-15.222422	110.506705
2.550000	-15.235397	168.141786	-0.290273	-131.155227	-0.290273	-131.155227	-15.144766	107.112772
2.600000	-15.162157	166.353025	-0.296228	-133.752267	-0.296228	-133.752267	-15.068682	103.717562
2.650000	-15.090088	164.560788	-0.302218	-136.351948	-0.302218	-136.351948	-14.993906	100.322459
2.700000	-15.018958	162.763388	-0.308251	-138.954324	-0.308251	-138.954324	-14.920192	96.928913
2.750000	-14.948553	160.959094	-0.314333	-141.559441	-0.314333	-141.559441	-14.847313	93.538433
2.800000	-14.878684	159.146150	-0.320469	-144.167345	-0.320469	-144.167345	-14.775065	90.152578
2.850000	-14.809182	157.322777	-0.326666	-146.778075	-0.326666	-146.778075	-14.703263	86.772952
2.900000	-14.739897	155.487189	-0.332928	-149.391664	-0.332928	-149.391664	-14.631744	83.401190
2.950000	-14.670703	153.637600	-0.339259	-152.008144	-0.339259	-152.008144	-14.560365	80.038953
3.000000	-14.601490	151.772235	-0.345664	-154.627543	-0.345664	-154.627543	-14.489007	76.687916
3.050000	-14.532169	149.889339	-0.352146	-157.249886	-0.352146	-157.249886	-14.417570	73.349757
3.100000	-14.462670	147.987188	-0.358707	-159.875194	-0.358707	-159.875194	-14.345977	70.026149
3.150000	-14.392928	146.063846	-0.365351	-162.503520	-0.365351	-162.503520	-14.274160	66.718944
3.200000	-14.322905	144.117613	-0.372078	-165.134885	-0.372078	-165.134885	-14.202082	63.429825
3.250000	-14.252589	142.147129	-0.378889	-167.769273	-0.378889	-167.769273	-14.129733	60.160206
3.300000	-14.181972	140.150861	-0.385782	-170.406702	-0.385782	-170.406702	-14.057114	56.911632
3.350000	-14.111060	138.127340	-0.392758	-173.047191	-0.392758	-173.047191	-13.984242	53.685593
3.400000	-14.039871	136.075164	-0.399813	-175.690758	-0.399813	-175.690758	-13.911149	50.483516
3.450000	-13.968437	133.993003	-0.406946	-178.337422	-0.406946	-178.337422	-13.837881	47.306757
3.500000	-13.896796	131.879601	-0.414153	179.012794	-0.414153	179.012794	-13.764497	44.156599
3.550000	-13.824999	129.733781	-0.421430	176.359866	-0.421430	176.359866	-13.691066	41.034241
3.600000	-13.753104	127.554443	-0.428772	173.703768	-0.428772	173.703768	-13.617668	37.940797
3.650000	-13.681177	125.340571	-0.436175	171.044469	-0.436175	171.044469	-13.544391	34.877294
3.700000	-13.609292	123.091229	-0.443632	168.381937	-0.443632	168.381937	-13.471329	31.844664
3.750000	-13.537528	120.805566	-0.451136	165.716133	-0.451136	165.716133	-13.398582	28.843747
3.800000	-13.465965	118.481989	-0.458682	163.046943	-0.458682	163.046943	-13.326252	25.876010
3.850000	-13.394703	116.120607	-0.466260	160.374390	-0.466260	160.374390	-13.254454	22.941405
3.900000	-13.323840	113.720822	-0.473864	157.698425	-0.473864	157.698425	-13.183298	20.040486
3.950000	-13.253473	111.282113	-0.481483	155.018989	-0.481483	155.018989	-13.112896	17.173708
4.000000	-13.183707	108.804039	-0.489110	152.336021	-0.489110	152.336021	-13.043359	14.341442
4.050000	-13.114649	106.286236	-0.496735	149.649453	-0.496735	149.649453	-12.974801	11.543970
4.100000	-13.046407	103.728410	-0.504350	146.959212	-0.504350	146.959212	-12.907334	8.781490
4.150000	-12.979096	101.130338	-0.511943	144.265217	-0.511943	144.265217	-12.841069	6.054123
4.200000	-12.912829	98.491862	-0.519506	141.567383	-0.519506	141.567383	-12.776120	3.361916
4.250000	-12.847727	95.812886	-0.527028	138.865618	-0.527028	138.865618	-12.712596	0.704847
4.300000	-12.783909	93.093367	-0.534498	136.159824	-0.534498	136.159824	-12.650610	-1.917167
4.350000	-12.721499	90.333316	-0.541907	133.449894	-0.541907	133.449894	-12.590272	-4.504268
4.400000	-12.660638	87.532346	-0.549242	130.735669	-0.549242	130.735669	-12.531710	-7.056268
4.450000	-12.601460	84.690550	-0.556493	128.017025	-0.556493	128.017025	-12.475042	-9.573409
4.500000	-12.544086	81.808487	-0.563648	125.293879	-0.563648	125.293879	-12.420364	-12.056333
4.550000	-12.488655	78.886298	-0.570698	122.566097	-0.570698	122.566097	-12.367794	-14.505333
4.600000	-12.435306	75.924134	-0.577629	119.833532	-0.577629	119.833532	-12.317446	-16.920715
4.650000	-12.384185	72.922145	-0.584431	117.096034	-0.584431	117.096034	-12.269442	-19.302795
4.700000	-12.335444	69.880473	-0.591092	114.353437	-0.591092	114.353437	-12.223905	-21.651882
4.750000	-12.289240	66.799239	-0.597600	111.605571	-0.597600	111.605571	-12.180959	-23.968277
4.800000	-12.245734	63.678532	-0.603942	108.852251	-0.603942	108.852251	-12.140737	-26.252254
4.850000	-12.205097	60.518394	-0.610107	106.093282	-0.610107	106.093282	-12.103374	-28.504056
4.900000	-12.167508	57.318807	-0.616082	103.328457	-0.616082	103.328457	-12.069010	-30.723878
4.950000	-12.133154	54.079681	-0.621855	100.557555	-0.621855	100.557555	-12.037791	-32.911858
5.000000	-12.102230	50.800835	-0.627412	97.780339	-0.627412	97.780339	-12.009869	-35.068064
5.050000	-12.075027	47.481105	-0.632736	94.996410	-0.632736	94.996410	-11.985479	-37.191784
5.100000	-12.051693	44.120933	-0.637818	92.205635	-0.637818	92.205635	-11.964716	-39.283583
5.150000	-12.032459	40.719754	-0.642646	89.407726	-0.642646	89.407726	-11.947751	-41.343222
5.200000	-12.017570	37.276839	-0.647208	86.602375	-0.647208	86.602375	-11.934761	-43.370325
5.250000	-12.007286	33.791267	-0.651492	83.789252	-0.651492	83.789252	-11.925928	-45.364364
5.300000	-12.001882	30.261906	-0.655485	80.968003	-0.655485	80.968003	-11.921442	-47.324637
5.350000	-12.001648	26.687381	-0.659178	78.138250	-0.659178	78.138250	-11.921494	-49.250248
5.400000	-12.006890	23.066049	-0.662558	75.299588	-0.662558	75.299588	-11.926284	-51.140078
5.450000	-12.017934	19.395958	-0.665619	72.451584	-0.665619	72.451584	-11.936010	-52.992761
5.500000	-12.035120	15.674813	-0.668352	69.593773	-0.668352	69.593773	-11.950874	-54.806652
5.550000	-12.058806	11.899933	-0.670752	66.725658	-0.670752	66.725658	-11.971074	-56.579794
5.600000	-12.089368	8.068201	-0.672814	63.846707	-0.672814	63.846707	-11.996806	-58.309880
5.650000	-12.127279	4.175306	-0.674534	60.956223	-0.674534	60.956223	-12.028316	-59.993681
5.700000	-12.172954	0.216917	-0.675915	58.053576	-0.675915	58.053576	-12.065780	-61.627940
5.750000	-12.226730	-3.811149	-0.676966	55.138243	-0.676966	55.138243	-12.109284	-63.209500
5.800000	-12.289031	-7.914454	-0.677697	52.209532	-0.677697	52.209532	-12.158945	-64.734167
5.850000	-12.360277	-12.099378	-0.678123	49.266710	-0.678123	49.266710	-12.214838	-66.197148
5.900000	-12.440881	-16.373228	-0.678266	46.308999	-0.678266	46.308999	-12.276982	-67.592999
5.950000	-12.531236	-20.744366	-0.678153	43.335576	-0.678153	43.335576	-12.345322	-68.915565
6.000000	-12.631697	-25.222348	-0.677819	40.345572	-0.677819	40.345572	-12.419708	-70.157934
6.050000	-12.742560	-29.818084	-0.677307	37.338072	-0.677307	37.338072	-12.499867	-71.312395
6.100000	-12.864033	-34.544005	-0.676670	34.312115	-0.676670	34.312115	-12.585371	-72.370416
6.150000	-12.996193	-39.414246	-0.675973	31.266695	-0.675973	31.266695	-12.675596	-73.322656
6.200000	-13.138934	-44.444820	-0.675290	28.200764	-0.675290	28.200764	-12.769676	-74.159018
6.250000	-13.291900	-49.653789	-0.674710	25.113234	-0.674710	25.113234	-12.866447	-74.868773
6.300000	-13.454470	-55.065034	-0.674342	22.002585	-0.674342	22.002585	-12.964351	-75.438321
6.350000	-13.625330	-60.698154	-0.674305	18.868011	-0.674305	18.868011	-13.061391	-75.858539
6.400000	-13.802677	-66.577707	-0.674736	15.708324	-0.674736	15.708324	-13.155100	-76.118719
6.450000	-13.983917	-72.729873	-0.675792	12.522318	-0.675792	12.522318	-13.242456	-76.209377
6.500000	-14.165455	-79.181622	-0.677650	9.308776	-0.677650	9.308776	-13.319841	-76.123212
6.550000	-14.342486	-85.959307	-0.680510	6.066483	-0.680510	6.066483	-13.383039	-75.856318
6.600000	-14.508609	-93.089477	-0.684609	2.793981	-0.684609	2.793981	-13.427083	-75.408170
6.650000	-14.656006	-100.587893	-0.690191	-0.509761	-0.690191	-0.509761	-13.446811	-74.787183
6.700000	-14.775543	-108.459274	-0.697522	-3.845659	-0.697522	-3.845659	-13.437019	-74.009539
6.750000	-14.856124	-116.700638	-0.706933	-7.215225	-0.706933	-7.215225	-13.391963	-73.097428
6.800000	-14.886882	-125.280696	-0.718740	-10.619134	-0.718740	-10.619134	-13.307181	-72.085488
6.850000	-14.857151	-134.148918	-0.733305	-14.058256	-0.733305	-14.058256	-13.178915	-71.015231
6.900000	-14.758073	-143.231950	-0.751018	-17.533322	-0.751018	-17.533322	-13.004790	-69.934733
6.950000	-14.583951	-152.437731	-0.772299	-21.044898	-0.772299	-21.044898	-12.784117	-68.895825
7.000000	-14.333275	-161.663744	-0.797594	-24.593355	-0.797594	-24.593355	-12.518016	-67.950656
7.050000	-14.009068	-170.807844	-0.827377	-28.178841	-0.827377	-28.178841	-12.209343	-67.148162
7.100000	-13.618070	-179.777747	-0.862168	-31.801419	-0.862168	-31.801419	-11.862198	-66.532084
7.150000	-13.170154	171.500818	-0.902519	-35.460849	-0.902519	-35.460849	-11.481833	-66.138256
7.200000	-12.678426	163.071837	-0.948864	-39.155746	-0.948864	-39.155746	-11.075170	-65.987088
7.250000	-12.154001	154.965873	-1.001820	-42.885504	-1.001820	-42.885504	-10.647902	-66.096981
7.300000	-11.608484	147.189923	-1.061915	-46.648540	-1.061915	-46.648540	-10.206344	-66.473696
7.350000	-11.051715	139.739517	-1.129730	-50.443145	-1.129730	-50.443145	-9.756118	-67.117867
7.400000	-10.492431	132.597384	-1.205756	-54.266872	-1.205756	-54.266872	-9.302610	-68.021462
7.450000	-9.937445	125.743119	-1.290504	-58.117070	-1.290504	-58.117070	-8.850343	-69.173857
7.500000	-9.392118	119.154175	-1.384457	-61.990694	-1.384457	-61.990694	-8.403182	-70.561506
7.550000	-8.860451	112.809521	-1.488124	-65.884439	-1.488124	-65.884439	-7.964282	-72.170477
7.600000	-8.345676	106.685866	-1.601842	-69.794354	-1.601842	-69.794354	-7.536415	-73.982627
7.650000	-7.849994	100.763802	-1.725952	-73.716350	-1.725952	-73.716350	-7.121695	-75.981147
7.700000	-7.374934	95.026190	-1.860735	-77.646077	-1.860735	-77.646077	-6.721773	-78.149308
7.750000	-6.921481	89.461043	-2.006556	-81.578954	-2.006556	-81.578954	-6.337914	-80.473255
7.800000	-6.490263	84.050421	-2.163272	-85.510244	-2.163272	-85.510244	-5.971037	-82.932470
7.850000	-6.081457	78.786207	-2.331073	-89.435242	-2.331073	-89.435242	-5.621717	-85.514228
7.900000	-5.695021	73.659601	-2.509944	-93.349210	-2.509944	-93.349210	-5.290296	-88.204447
7.950000	-5.330771	68.664512	-2.699861	-97.247293	-2.699861	-97.247293	-4.976969	-90.990755
8.000000	-4.988272	63.794195	-2.900615	-101.124980	-2.900615	-101.124980	-4.681662	-93.860257
8.050000	-4.666923	59.043062	-3.111942	-104.978078	-3.111942	-104.978078	-4.404115	-96.801290
8.100000	-4.366047	54.406961	-3.333553	-108.802594	-3.333553	-108.802594	-4.143968	-99.803619
8.150000	-4.084885	49.882355	-3.565107	-112.594869	-3.565107	-112.594869	-3.900754	-102.857964
8.200000	-3.822620	45.466168	-3.806220	-116.351605	-3.806220	-116.351605	-3.673919	-105.955982
8.250000	-3.578392	41.155649	-4.056474	-120.069897	-4.056474	-120.069897	-3.462840	-109.090239
8.300000	-3.351316	36.948272	-4.315426	-123.747249	-4.315426	-123.747249	-3.266844	-112.254171
8.350000	-3.140543	32.842118	-4.582615	-127.381362	-4.582615	-127.381362	-3.085272	-115.442139
8.400000	-2.945219	28.835295	-4.857554	-130.970320	-4.857554	-130.970320	-2.917433	-118.649206
8.450000	-2.764343	24.924532	-5.139780	-134.513280	-5.139780	-134.513280	-2.762479	-121.870965
8.500000	-2.597038	21.107521	-5.428844	-138.009359	-5.428844	-138.009359	-2.619661	-125.103920
8.550000	-2.442449	17.381928	-5.724311	-141.458025	-5.724311	-141.458025	-2.488236	-128.345201
8.600000	-2.299749	13.745379	-6.025774	-144.859069	-6.025774	-144.859069	-2.367474	-131.592508
8.650000	-2.168149	10.195459	-6.332850	-148.212567	-6.332850	-148.212567	-2.256665	-134.844058
8.700000	-2.046891	6.729717	-6.645191	-151.518853	-6.645191	-151.518853	-2.155122	-138.098530
8.750000	-1.935261	3.345671	-6.962485	-154.778478	-6.962485	-154.778478	-2.062185	-141.355015
8.800000	-1.832685	0.041925	-7.284348	-157.991524	-7.284348	-157.991524	-1.977318	-144.612984
8.850000	-1.738408	-3.185219	-7.610645	-161.159552	-7.610645	-161.159552	-1.899811	-147.872190
8.900000	-1.651916	-6.337352	-7.941079	-164.283000	-7.941079	-164.283000	-1.829169	-151.132706
8.950000	-1.572464	-9.419066	-8.275756	-167.364175	-8.275756	-167.364175	-1.764685	-154.394775
9.000000	-1.499619	-12.431899	-8.614485	-170.403602	-8.614485	-170.403602	-1.705933	-157.658883
9.050000	-1.432901	-15.378268	-8.957219	-173.402326	-8.957219	-173.402326	-1.652443	-160.925658
9.100000	-1.371991	-18.258950	-9.303697	-176.360311	-9.303697	-176.360311	-1.603880	-164.195963
9.150000	-1.316375	-21.077464	-9.654113	-179.279117	-9.654113	-179.279117	-1.559742	-167.470635
9.200000	-1.265627	-23.836629	-10.008621	177.840259	-10.008621	177.840259	-1.519607	-170.750577
9.250000	-1.219397	-26.538647	-10.367313	174.997372	-10.367313	174.997372	-1.483117	-174.036775
9.300000	-1.177359	-29.185658	-10.730286	172.191972	-10.730286	172.191972	-1.449943	-177.330244
9.350000	-1.139213	-31.779735	-11.097628	169.423931	-11.097628	169.423931	-1.419776	179.367992
9.400000	-1.104740	-34.322033	-11.469207	166.693712	-11.469207	166.693712	-1.392375	176.056736
9.450000	-1.073673	-36.814572	-11.845073	164.000860	-11.845073	164.000860	-1.367464	172.734946
9.500000	-1.045719	-39.260080	-12.225519	161.343899	-12.225519	161.343899	-1.344760	169.401829
9.550000	-1.020662	-41.660335	-12.610728	158.721659	-12.610728	158.721659	-1.324042	166.056483
9.600000	-0.998301	-44.017044	-13.001004	156.132902	-13.001004	156.132902	-1.305110	162.698072
9.650000	-0.978451	-46.331843	-13.396781	153.576674	-13.396781	153.576674	-1.287779	159.325836
9.700000	-0.960961	-48.605966	-13.798492	151.052880	-13.798492	151.052880	-1.271896	155.938972
9.750000	-0.945703	-50.840297	-14.206536	148.562461	-14.206536	148.562461	-1.257329	152.536630
9.800000	-0.932471	-53.037304	-14.621877	146.105702	-14.621877	146.105702	-1.243911	149.118731
9.850000	-0.921130	-55.198348	-15.045189	143.684363	-15.045189	143.684363	-1.231527	145.684941
9.900000	-0.911553	-57.324728	-15.477161	141.300790	-15.477161	141.300790	-1.220077	142.235052
9.950000	-0.903621	-59.417682	-15.918507	138.957897	-15.918507	138.957897	-1.209477	138.768992
10.000000	-0.897225	-61.478392	-16.369970	136.659183	-16.369970	136.659183	-1.199657	135.286833
