! freq	dB(S11)	phase(S11)	dB(S12)	phase(S12)	
!     	dB(S21)	phase(S21)	dB(S22)	phase(S22)	
!S-par simulation data
#  GHz  S  DB  R 50
0.000000	-82.323053	0.000000	-0.000665	0.000000	-0.000665	0.000000	-82.323053	0.000000
0.050000	-47.313979	-89.611181	-0.005560	-2.734464	-0.005560	-2.734464	-47.442050	-86.797780
0.100000	-41.564392	-93.239106	-0.011213	-5.427709	-0.011213	-5.427709	-41.606099	-92.255041
0.150000	-38.169611	-96.900609	-0.015514	-8.111448	-0.015514	-8.111448	-38.155670	-95.887451
0.200000	-35.744392	-100.345674	-0.019492	-10.792376	-0.019492	-10.792376	-35.717099	-99.013029
0.250000	-33.868325	-103.601907	-0.023443	-13.470664	-0.023443	-13.470664	-33.844251	-101.901681
0.300000	-32.351069	-106.741777	-0.027411	-16.146587	-0.027411	-16.146587	-32.334323	-104.674415
0.350000	-31.087294	-109.811574	-0.031385	-18.820652	-0.031385	-18.820652	-31.077759	-107.380543
0.400000	-30.013611	-112.836859	-0.035359	-21.493297	-0.035359	-21.493297	-30.009976	-110.042515
0.450000	-29.091723	-115.832650	-0.039334	-24.164865	-0.039334	-24.164865	-29.092368	-112.671004
0.500000	-28.290644	-118.811881	-0.043315	-26.835770	-0.043315	-26.835770	-28.294106	-115.275792
0.550000	-27.589764	-121.780992	-0.047302	-29.506244	-0.047302	-29.506244	-27.594833	-117.860878
0.600000	-26.974940	-124.744398	-0.051291	-32.176460	-0.051291	-32.176460	-26.980623	-120.428222
0.650000	-26.436778	-127.705671	-0.055273	-34.846558	-0.055273	-34.846558	-26.442263	-122.978487
0.700000	-25.964141	-130.667669	-0.059232	-37.516653	-0.059232	-37.516653	-25.968854	-125.513474
0.750000	-25.550350	-133.632527	-0.063151	-40.186824	-0.063151	-40.186824	-25.553869	-128.033371
0.800000	-25.192121	-136.602583	-0.067004	-42.857147	-0.067004	-42.857147	-25.194133	-130.537259
0.850000	-24.884684	-139.579918	-0.070770	-45.527684	-0.070770	-45.527684	-24.885013	-133.025001
0.900000	-24.624391	-142.566544	-0.074430	-48.198495	-0.074430	-48.198495	-24.622966	-135.496117
0.950000	-24.409075	-145.564786	-0.077965	-50.869652	-0.077965	-50.869652	-24.405923	-137.949549
1.000000	-24.236985	-148.577166	-0.081361	-53.541243	-0.081361	-53.541243	-24.232226	-140.384040
1.050000	-24.106926	-151.606528	-0.084606	-56.213378	-0.084606	-56.213378	-24.100773	-142.797997
1.100000	-24.018205	-154.656135	-0.087694	-58.886194	-0.087694	-58.886194	-24.010972	-145.189419
1.150000	-23.970606	-157.729784	-0.090622	-61.559862	-0.090622	-61.559862	-23.962718	-147.555812
1.200000	-23.964372	-160.831933	-0.093389	-64.234578	-0.093389	-64.234578	-23.956387	-149.894057
1.250000	-24.000213	-163.967865	-0.095998	-66.910568	-0.095998	-66.910568	-23.992856	-152.200246
1.300000	-24.080275	-167.144908	-0.098450	-69.588122	-0.098450	-69.588122	-24.074522	-154.468508
1.350000	-24.205363	-170.369895	-0.100758	-72.267483	-0.100758	-72.267483	-24.202485	-156.693169
1.400000	-24.377764	-173.651694	-0.102931	-74.948933	-0.102931	-74.948933	-24.379474	-158.866059
1.450000	-24.600427	-177.000283	-0.104982	-77.632766	-0.104982	-77.632766	-24.609050	-160.976566
1.500000	-24.877178	179.574182	-0.106927	-80.319278	-0.106927	-80.319278	-24.895797	-163.010726
1.550000	-25.213371	176.063373	-0.108784	-83.008767	-0.108784	-83.008767	-25.245580	-164.949865
1.600000	-25.617761	172.460610	-0.110574	-85.701527	-0.110574	-85.701527	-25.665912	-166.768543
1.650000	-26.105636	168.741105	-0.112324	-88.397842	-0.112324	-88.397842	-26.166469	-168.431324
1.700000	-26.696931	164.810582	-0.114061	-91.097990	-0.114061	-91.097990	-26.759831	-169.887541
1.750000	-27.405098	160.509147	-0.115817	-93.802232	-0.115817	-93.802232	-27.462549	-171.062464
1.800000	-28.239556	155.695611	-0.117628	-96.510813	-0.117628	-96.510813	-28.296691	-171.841738
1.850000	-29.221353	150.213921	-0.119533	-99.223962	-0.119533	-99.223962	-29.292015	-172.042547
1.900000	-30.385648	143.758465	-0.121574	-101.941937	-0.121574	-101.941937	-30.489292	-171.341417
1.950000	-31.773724	135.750592	-0.123800	-104.664926	-0.123800	-104.664926	-31.939706	-169.151651
2.000000	-33.416684	125.186709	-0.126253	-107.392959	-0.126253	-107.392959	-33.695590	-164.421888
2.050000	-35.261955	110.076725	-0.128989	-110.126273	-0.128989	-110.126273	-35.743116	-154.908216
2.100000	-36.919404	87.683788	-0.132059	-112.864923	-0.132059	-112.864923	-37.693353	-136.990646
2.150000	-37.358858	58.261932	-0.135518	-115.608971	-0.135518	-115.608971	-38.245842	-110.172940
2.200000	-35.990831	30.416012	-0.139424	-118.358463	-0.139424	-118.358463	-36.606217	-85.673305
2.250000	-33.762922	10.578461	-0.143838	-121.113421	-0.143838	-121.113421	-34.095076	-71.123695
2.300000	-31.536001	-2.839402	-0.148815	-123.873762	-0.148815	-123.873762	-31.705408	-63.630529
2.350000	-29.548233	-12.468427	-0.154413	-126.639404	-0.154413	-126.639404	-29.630657	-59.975985
2.400000	-27.810070	-19.919301	-0.160689	-129.410233	-0.160689	-129.410233	-27.844035	-58.432378
2.450000	-26.283961	-26.060849	-0.167701	-132.186096	-0.167701	-132.186096	-26.289396	-58.128457
2.500000	-24.930664	-31.371269	-0.175505	-134.966803	-0.175505	-134.966803	-24.918514	-58.602157
2.550000	-23.717653	-36.123346	-0.184164	-137.752174	-0.184164	-137.752174	-23.694326	-59.595467
2.600000	-22.620608	-40.492325	-0.193719	-140.541893	-0.193719	-140.541893	-22.590034	-60.944821
2.650000	-21.620332	-44.584900	-0.204220	-143.335665	-0.204220	-143.335665	-21.585048	-62.551334
2.700000	-20.701982	-48.472246	-0.215711	-146.133158	-0.215711	-146.133158	-20.663685	-64.349229
2.750000	-19.853929	-52.203439	-0.228232	-148.934014	-0.228232	-148.934014	-19.813789	-66.293116
2.800000	-19.066939	-55.813285	-0.241819	-151.737843	-0.241819	-151.737843	-19.025779	-68.350669
2.850000	-18.333494	-59.326447	-0.256512	-154.544249	-0.256512	-154.544249	-18.291904	-70.498801
2.900000	-17.647623	-62.762356	-0.272332	-157.352776	-0.272332	-157.352776	-17.606025	-72.719106
2.950000	-17.004344	-66.135295	-0.289296	-160.162961	-0.289296	-160.162961	-16.963038	-74.997833
3.000000	-16.399465	-69.456018	-0.307418	-162.974333	-0.307418	-162.974333	-16.358663	-77.324408
3.050000	-15.829452	-72.732871	-0.326706	-165.786406	-0.326706	-165.786406	-15.789297	-79.690409
3.100000	-15.291293	-75.972403	-0.347162	-168.598690	-0.347162	-168.598690	-15.251875	-82.089023
3.150000	-14.782392	-79.179648	-0.368788	-171.410683	-0.368788	-171.410683	-14.743760	-84.514779
3.200000	-14.300519	-82.358799	-0.391573	-174.221879	-0.391573	-174.221879	-14.262689	-86.962963
3.250000	-13.843721	-85.513333	-0.415492	-177.031787	-0.415492	-177.031787	-13.806683	-89.429542
3.300000	-13.410267	-88.645922	-0.440523	-179.839920	-0.440523	-179.839920	-13.373990	-91.911211
3.350000	-12.998670	-91.758301	-0.466659	177.354263	-0.466659	177.354263	-12.963103	-94.405379
3.400000	-12.607495	-94.853084	-0.493822	174.551120	-0.493822	174.551120	-12.572577	-96.909099
3.450000	-12.235535	-97.931358	-0.521988	171.751136	-0.521988	171.751136	-12.201194	-99.420481
3.500000	-11.881678	-100.994339	-0.551110	168.954731	-0.551110	168.954731	-11.847836	-101.937665
3.550000	-11.544915	-104.043048	-0.581138	166.162302	-0.581138	166.162302	-11.511487	-104.459020
3.600000	-11.224323	-107.078346	-0.612014	163.374218	-0.612014	163.374218	-11.191224	-106.983108
3.650000	-10.919056	-110.100973	-0.643677	160.590820	-0.643677	160.590820	-10.886200	-109.508663
3.700000	-10.628335	-113.111571	-0.676062	157.812417	-0.676062	157.812417	-10.595636	-112.034568
3.750000	-10.351439	-116.110707	-0.709103	155.039284	-0.709103	155.039284	-10.318813	-114.559840
3.800000	-10.087804	-119.098662	-0.742735	152.271789	-0.742735	152.271789	-10.055171	-117.083565
3.850000	-9.836706	-122.076153	-0.776873	149.510018	-0.776873	149.510018	-9.803991	-119.605008
3.900000	-9.597558	-125.043616	-0.811443	146.754139	-0.811443	146.754139	-9.564692	-122.123520
3.950000	-9.369811	-128.001467	-0.846368	144.004281	-0.846368	144.004281	-9.336733	-124.638540
4.000000	-9.152949	-130.950114	-0.881570	141.260536	-0.881570	141.260536	-9.119604	-127.149591
4.050000	-8.946485	-133.889954	-0.916972	138.522962	-0.916972	138.522962	-8.912827	-129.656270
4.100000	-8.749962	-136.821388	-0.952494	135.791576	-0.952494	135.791576	-8.715950	-132.158249
4.150000	-8.562946	-139.744816	-0.988060	133.066363	-0.988060	133.066363	-8.528549	-134.655264
4.200000	-8.385026	-142.660647	-1.023594	130.347271	-1.023594	130.347271	-8.350221	-137.147114
4.250000	-8.215812	-145.569295	-1.059019	127.634216	-1.059019	127.634216	-8.180584	-139.633656
4.300000	-8.054936	-148.471183	-1.094262	124.927081	-1.094262	124.927081	-8.019277	-142.114800
4.350000	-7.902045	-151.366744	-1.129251	122.225716	-1.129251	122.225716	-7.865956	-144.590509
4.400000	-7.756862	-154.256359	-1.163910	119.530002	-1.163910	119.530002	-7.720348	-147.060734
4.450000	-7.619064	-157.140493	-1.198171	116.839726	-1.198171	116.839726	-7.582141	-149.525531
4.500000	-7.488295	-160.019670	-1.231974	114.154594	-1.231974	114.154594	-7.450982	-151.985060
4.550000	-7.364264	-162.894353	-1.265258	111.474348	-1.265258	111.474348	-7.326587	-154.439456
4.600000	-7.246697	-165.765012	-1.297966	108.798707	-1.297966	108.798707	-7.208686	-156.888895
4.650000	-7.135330	-168.632121	-1.330042	106.127373	-1.330042	106.127373	-7.097021	-159.333583
4.700000	-7.029914	-171.496155	-1.361436	103.460026	-1.361436	103.460026	-6.991345	-161.773760
4.750000	-6.930208	-174.357590	-1.392100	100.796331	-1.392100	100.796331	-6.891422	-164.209695
4.800000	-6.835983	-177.216898	-1.421990	98.135938	-1.421990	98.135938	-6.797026	-166.641685
4.850000	-6.747022	179.925450	-1.451066	95.478485	-1.451066	95.478485	-6.707941	-169.070051
4.900000	-6.663115	177.068990	-1.479292	92.823599	-1.479292	92.823599	-6.623960	-171.495139
4.950000	-6.584062	174.213269	-1.506634	90.170897	-1.506634	90.170897	-6.544883	-173.917317
5.000000	-6.509672	171.357839	-1.533065	87.519988	-1.533065	87.519988	-6.470520	-176.336974
5.050000	-6.440030	168.502226	-1.558486	84.870545	-1.558486	84.870545	-6.400961	-178.754399
5.100000	-6.374340	165.646087	-1.583042	82.221992	-1.583042	82.221992	-6.335402	178.829693
5.150000	-6.313012	162.788911	-1.606558	79.574056	-1.606558	79.574056	-6.274261	176.415092
5.200000	-6.255532	159.930423	-1.629119	76.926292	-1.629119	76.926292	-6.217019	174.001242
5.250000	-6.201883	157.070201	-1.650676	74.278299	-1.650676	74.278299	-6.163660	171.587696
5.300000	-6.151980	154.207866	-1.671201	71.629666	-1.671201	71.629666	-6.114099	169.173972
5.350000	-6.105424	151.343276	-1.690771	68.980062	-1.690771	68.980062	-6.067934	166.759613
5.400000	-6.062510	148.475791	-1.709246	66.328922	-1.709246	66.328922	-6.025466	164.343983
5.450000	-6.022565	145.605635	-1.726809	63.676140	-1.726809	63.676140	-5.986013	161.926819
5.500000	-5.986038	142.731975	-1.743266	61.020940	-1.743266	61.020940	-5.950034	159.507215
5.550000	-5.952299	139.855170	-1.758806	58.363355	-1.758806	58.363355	-5.916889	157.085062
5.600000	-5.921556	136.974644	-1.773321	55.702705	-1.773321	55.702705	-5.886793	154.659482
5.650000	-5.893535	134.090463	-1.786884	53.038815	-1.786884	53.038815	-5.859468	152.230140
5.700000	-5.868127	131.202516	-1.799512	50.371340	-1.799512	50.371340	-5.834807	149.796493
5.750000	-5.845370	128.310499	-1.811168	47.699724	-1.811168	47.699724	-5.812849	147.357723
5.800000	-5.824879	125.414823	-1.821981	45.024128	-1.821981	45.024128	-5.793207	144.913888
5.850000	-5.806961	122.514791	-1.831815	42.343460	-1.831815	42.343460	-5.776196	142.463421
5.900000	-5.791083	119.611188	-1.840867	39.658334	-1.840867	39.658334	-5.761274	140.006976
5.950000	-5.777529	116.703395	-1.849014	36.967589	-1.849014	36.967589	-5.748735	137.542805
6.000000	-5.765928	113.792022	-1.856394	34.271667	-1.856394	34.271667	-5.738202	135.071346
6.050000	-5.756349	110.876907	-1.862975	31.569879	-1.862975	31.569879	-5.729751	132.591431
6.100000	-5.748676	107.958277	-1.868800	28.862089	-1.868800	28.862089	-5.723262	130.102667
6.150000	-5.742758	105.036452	-1.873929	26.148301	-1.873929	26.148301	-5.718585	127.604854
6.200000	-5.738693	102.111343	-1.878324	23.427678	-1.878324	23.427678	-5.715824	125.096500
6.250000	-5.736149	99.183649	-1.882119	20.701026	-1.882119	20.701026	-5.714636	122.578641
6.300000	-5.735407	96.253078	-1.885211	17.966704	-1.885211	17.966704	-5.715316	120.048421
6.350000	-5.736067	93.320451	-1.887762	15.225991	-1.887762	15.225991	-5.717450	117.507672
6.400000	-5.738309	90.385751	-1.889714	12.477610	-1.889714	12.477610	-5.721225	114.954021
6.450000	-5.741937	87.449487	-1.891150	9.722091	-1.891150	9.722091	-5.726438	112.388110
6.500000	-5.746957	84.511946	-1.892084	6.958979	-1.892084	6.958979	-5.733094	109.808884
6.550000	-5.753353	81.573459	-1.892536	4.187961	-1.892536	4.187961	-5.741172	107.215518
6.600000	-5.760982	78.634430	-1.892574	1.409479	-1.892574	1.409479	-5.750524	104.608533
6.650000	-5.769982	75.695152	-1.892174	-1.377714	-1.892174	-1.377714	-5.761284	101.985345
6.700000	-5.780126	72.755966	-1.891431	-4.172521	-1.891431	-4.172521	-5.773215	99.347717
6.750000	-5.791519	69.817163	-1.890340	-6.976029	-1.890340	-6.976029	-5.786416	96.693297
6.800000	-5.804088	66.878961	-1.888955	-9.788125	-1.888955	-9.788125	-5.800806	94.021981
6.850000	-5.817810	63.941499	-1.887321	-12.609046	-1.887321	-12.609046	-5.816347	91.332975
6.900000	-5.832675	61.004784	-1.885493	-15.439236	-1.885493	-15.439236	-5.833020	88.625010
6.950000	-5.848650	58.068583	-1.883549	-18.279059	-1.883549	-18.279059	-5.850777	85.896874
7.000000	-5.865675	55.132293	-1.881598	-21.128798	-1.881598	-21.128798	-5.869539	83.147358
7.050000	-5.883690	52.194729	-1.879800	-23.989019	-1.879800	-23.989019	-5.889227	80.374312
7.100000	-5.902612	49.253660	-1.878412	-26.860452	-1.878412	-26.860452	-5.909730	77.574482
7.150000	-5.922331	46.304882	-1.877876	-29.743997	-1.877876	-29.743997	-5.930905	74.742527
7.200000	-5.942767	43.339928	-1.879047	-32.640662	-1.879047	-32.640662	-5.952621	71.868319
7.250000	-5.964177	40.339798	-1.883805	-35.550268	-1.883805	-35.550268	-5.975067	68.930129
7.300000	-5.988855	37.263373	-1.896182	-38.463343	-1.896182	-38.463343	-6.000531	65.883112
7.350000	-6.029221	34.029611	-1.924115	-41.326999	-1.924115	-41.326999	-6.042028	62.636870
7.400000	-6.152910	30.679075	-1.963083	-43.853972	-1.963083	-43.853972	-6.173724	59.216923
7.450000	-6.332725	28.419300	-1.895440	-46.178922	-1.895440	-46.178922	-6.370945	56.967299
7.500000	-6.338765	26.314490	-1.815844	-49.253580	-1.815844	-49.253580	-6.375033	54.867188
7.550000	-6.331276	23.669760	-1.787891	-52.399503	-1.787891	-52.399503	-6.364522	52.141092
7.600000	-6.346307	20.865726	-1.775084	-55.475139	-1.775084	-55.475139	-6.378494	49.211238
7.650000	-6.376201	18.031547	-1.765236	-58.514319	-1.765236	-58.514319	-6.408303	46.217324
7.700000	-6.415729	15.196096	-1.755591	-61.539792	-1.755591	-61.539792	-6.448224	43.190331
7.750000	-6.462928	12.367504	-1.745344	-64.563018	-1.745344	-64.563018	-6.496105	40.136430
7.800000	-6.516669	9.548036	-1.734235	-67.590696	-1.734235	-67.590696	-6.550723	37.057454
7.850000	-6.576069	6.737369	-1.722255	-70.625805	-1.722255	-70.625805	-6.611158	33.955522
7.900000	-6.642022	3.937125	-1.709190	-73.672413	-1.709190	-73.672413	-6.678329	30.825877
7.950000	-6.713753	1.145635	-1.695175	-76.730560	-1.695175	-76.730560	-6.751458	27.671978
8.000000	-6.792792	-1.635235	-1.679951	-79.804651	-1.679951	-79.804651	-6.832154	24.487271
8.050000	-6.878571	-4.407106	-1.663670	-82.893692	-1.663670	-82.893692	-6.919863	21.275334
8.100000	-6.972222	-7.169031	-1.646192	-86.000546	-1.646192	-86.000546	-7.015808	18.032300
8.150000	-7.074561	-9.920619	-1.627457	-89.127055	-1.627457	-89.127055	-7.120892	14.756169
8.200000	-7.186309	-12.661590	-1.607445	-92.274579	-1.607445	-92.274579	-7.235933	11.445699
8.250000	-7.308447	-15.391244	-1.586116	-95.444922	-1.586116	-95.444922	-7.362032	8.098849
8.300000	-7.442097	-18.108572	-1.563436	-98.640022	-1.563436	-98.640022	-7.500460	4.713337
8.350000	-7.588609	-20.812086	-1.539372	-101.862115	-1.539372	-101.862115	-7.652743	1.286387
8.400000	-7.749541	-23.499719	-1.513903	-105.113667	-1.513903	-105.113667	-7.820667	-2.185177
8.450000	-7.926506	-26.168921	-1.487045	-108.396899	-1.487045	-108.396899	-8.006099	-5.704259
8.500000	-8.121479	-28.816073	-1.458819	-111.714506	-1.458819	-111.714506	-8.211348	-9.274623
8.550000	-8.336753	-31.436310	-1.429270	-115.069415	-1.429270	-115.069415	-8.439129	-12.900580
8.600000	-8.574994	-34.023098	-1.398472	-118.464801	-1.398472	-118.464801	-8.692650	-16.587102
8.650000	-8.839316	-36.567668	-1.366533	-121.904098	-1.366533	-121.904098	-8.975740	-20.339975
8.700000	-9.133375	-39.058216	-1.333608	-125.391009	-1.333608	-125.391009	-9.293012	-24.165996
8.750000	-9.461480	-41.478789	-1.299898	-128.929516	-1.299898	-128.929516	-9.650078	-28.073260
8.800000	-9.829129	-43.805914	-1.265666	-132.524753	-1.265666	-132.524753	-10.054355	-32.073076
8.850000	-10.242038	-46.010342	-1.231265	-136.180513	-1.231265	-136.180513	-10.514145	-36.176546
8.900000	-10.707373	-48.050052	-1.197123	-139.901584	-1.197123	-139.901584	-11.040505	-40.399321
8.950000	-11.233586	-49.865901	-1.163766	-143.692970	-1.163766	-143.692970	-11.647801	-44.762074
9.000000	-11.830505	-51.373426	-1.131836	-147.559842	-1.131836	-147.559842	-12.355159	-49.293310
9.050000	-12.509187	-52.450035	-1.102106	-151.507467	-1.102106	-151.507467	-13.188830	-54.034482
9.100000	-13.281079	-52.914919	-1.075498	-155.541103	-1.075498	-155.541103	-14.186223	-59.049893
9.150000	-14.155481	-52.498023	-1.053099	-159.665869	-1.053099	-159.665869	-15.403281	-64.447532
9.200000	-15.132397	-50.777319	-1.036244	-163.887544	-1.036244	-163.887544	-16.930179	-70.437291
9.250000	-16.184683	-47.156352	-1.026403	-168.210014	-1.026403	-168.210014	-18.921282	-77.463902
9.300000	-17.222921	-40.887929	-1.025224	-172.636265	-1.025224	-172.636265	-21.675828	-86.698016
9.350000	-18.042208	-31.392294	-1.034579	-177.168637	-1.034579	-177.168637	-25.848290	-102.464228
9.400000	-18.327218	-19.171941	-1.056536	178.191980	-1.056536	178.191980	-31.787051	-148.746437
9.450000	-17.864411	-6.481326	-1.093161	173.447507	-1.093161	173.447507	-28.752088	134.599296
9.500000	-16.749468	3.902629	-1.147195	168.598650	-1.147195	168.598650	-22.898159	108.738199
9.550000	-15.316137	10.832778	-1.220871	163.652470	-1.220871	163.652470	-19.054796	96.618340
9.600000	-13.822963	14.641166	-1.316658	158.617204	-1.316658	158.617204	-16.275959	87.996806
9.650000	-12.399859	16.104262	-1.436924	153.504168	-1.436924	153.504168	-14.112218	80.689079
9.700000	-11.095091	15.916841	-1.583602	148.328218	-1.583602	148.328218	-12.350271	73.993574
9.750000	-9.918268	14.561113	-1.758640	143.106599	-1.758640	143.106599	-10.874820	67.634334
9.800000	-8.865585	12.406780	-1.962328	137.861457	-1.962328	137.861457	-9.617081	61.478350
9.850000	-7.927212	9.660203	-2.196629	132.617318	-2.196629	132.617318	-8.533127	55.475491
9.900000	-7.093141	6.504297	-2.462181	127.399300	-2.462181	127.399300	-7.592511	49.597989
9.950000	-6.353377	3.062675	-2.759400	122.225566	-2.759400	122.225566	-6.773172	43.839190
10.000000	-5.698645	-0.571432	-3.087189	117.112988	-3.087189	117.112988	-6.058262	38.201705
