! freq	dB(S11)	phase(S11)	dB(S12)	phase(S12)	
!     	dB(S21)	phase(S21)	dB(S22)	phase(S22)	
!S-par simulation data
#  GHz  S  DB  R 50
0.000000	-151.587098	180.000000	-0.000001	0.000000	-0.000001	0.000000	-145.566498	180.000000
0.050000	-42.623230	-91.606032	-0.005000	-2.926485	-0.005000	-2.926485	-42.573622	-88.918022
0.100000	-36.114971	-94.049463	-0.011368	-5.812201	-0.011368	-5.812201	-36.093571	-94.524011
0.150000	-32.675633	-98.452807	-0.016741	-8.688152	-0.016741	-8.688152	-32.673714	-98.439128
0.200000	-30.244631	-101.590589	-0.022185	-11.561751	-0.022185	-11.561751	-30.240765	-101.574569
0.250000	-28.354193	-104.568970	-0.028062	-14.433137	-0.028062	-14.433137	-28.351693	-104.562973
0.300000	-26.814588	-107.510064	-0.034401	-17.302082	-0.034401	-17.302082	-26.813399	-107.509485
0.350000	-25.521534	-110.436868	-0.041154	-20.168575	-0.041154	-20.168575	-25.521260	-110.438956
0.400000	-24.411158	-113.356246	-0.048251	-23.032854	-0.048251	-23.032854	-24.411472	-113.359702
0.450000	-23.442618	-116.270269	-0.055650	-25.895084	-0.055650	-25.895084	-23.443278	-116.274458
0.500000	-22.586902	-119.179958	-0.063305	-28.755528	-0.063305	-28.755528	-22.587739	-119.184597
0.550000	-21.824269	-122.085481	-0.071195	-31.614278	-0.071195	-31.614278	-21.825158	-122.090448
0.600000	-21.139097	-124.987071	-0.079289	-34.471491	-0.079289	-34.471491	-21.139948	-124.992332
0.650000	-20.520339	-127.884659	-0.087567	-37.327206	-0.087567	-37.327206	-20.521081	-127.890214
0.700000	-19.958773	-130.778312	-0.096002	-40.181505	-0.096002	-40.181505	-19.959357	-130.784177
0.750000	-19.447483	-133.667999	-0.104569	-43.034429	-0.104569	-43.034429	-19.447870	-133.674189
0.800000	-18.980719	-136.553750	-0.113239	-45.886042	-0.113239	-45.886042	-18.980881	-136.560269
0.850000	-18.553751	-139.435627	-0.121982	-48.736421	-0.121982	-48.736421	-18.553671	-139.442463
0.900000	-18.162753	-142.313690	-0.130763	-51.585658	-0.130763	-51.585658	-18.162422	-142.320811
0.950000	-17.804541	-145.188022	-0.139550	-54.433865	-0.139550	-54.433865	-17.803959	-145.195375
1.000000	-17.476494	-148.058714	-0.148304	-57.281183	-0.148304	-57.281183	-17.475671	-148.066230
1.050000	-17.176182	-150.925923	-0.156989	-60.127788	-0.156989	-60.127788	-17.175139	-150.933519
1.100000	-16.901656	-153.789787	-0.165568	-62.973875	-0.165568	-62.973875	-16.900421	-153.797379
1.150000	-16.651429	-156.650424	-0.174001	-65.819668	-0.174001	-65.819668	-16.650044	-156.657938
1.200000	-16.423644	-159.508075	-0.182256	-68.665419	-0.182256	-68.665419	-16.422160	-159.515470
1.250000	-16.217361	-162.362861	-0.190295	-71.511400	-0.190295	-71.511400	-16.215838	-162.370148
1.300000	-16.031913	-165.214929	-0.198076	-74.357933	-0.198076	-74.357933	-16.030419	-165.222198
1.350000	-15.866099	-168.064581	-0.205570	-77.205342	-0.205570	-77.205342	-15.864705	-168.072027
1.400000	-15.719220	-170.912124	-0.212745	-80.053980	-0.212745	-80.053980	-15.717992	-170.920057
1.450000	-15.590709	-173.757964	-0.219571	-82.904224	-0.219571	-82.904224	-15.589703	-173.766807
1.500000	-15.480121	-176.602629	-0.226021	-85.756473	-0.226021	-85.756473	-15.479372	-176.612897
1.550000	-15.387115	-179.446804	-0.232068	-88.611146	-0.232068	-88.611146	-15.386634	-179.459056
1.600000	-15.311441	177.708674	-0.237691	-91.468682	-0.237691	-91.468682	-15.311211	177.693897
1.650000	-15.252929	174.862823	-0.242870	-94.329538	-0.242870	-94.329538	-15.252906	174.845070
1.700000	-15.211474	172.014565	-0.247588	-97.194189	-0.247588	-97.194189	-15.211594	171.993539
1.750000	-15.187031	169.162792	-0.251830	-100.063128	-0.251830	-100.063128	-15.187220	169.138385
1.800000	-15.179617	166.306440	-0.255588	-102.936861	-0.255588	-102.936861	-15.179804	166.278734
1.850000	-15.189318	163.444555	-0.258854	-105.815907	-0.258854	-105.815907	-15.189445	163.413788
1.900000	-15.216487	160.576263	-0.261619	-108.700872	-0.261619	-108.700872	-15.216514	160.542777
1.950000	-15.261388	157.700918	-0.263885	-111.592319	-0.263885	-111.592319	-15.261298	157.665092
2.000000	-15.324203	154.818135	-0.265660	-114.490742	-0.265660	-114.490742	-15.324001	154.780318
2.050000	-15.405427	151.927593	-0.266954	-117.396708	-0.266954	-117.396708	-15.405132	151.888066
2.100000	-15.505696	149.029078	-0.267777	-120.310791	-0.267777	-120.310791	-15.505337	148.988025
2.150000	-15.625799	146.122452	-0.268148	-123.233574	-0.268148	-123.233574	-15.625414	146.079953
2.200000	-15.766076	143.207906	-0.268098	-126.165324	-0.268098	-126.165324	-15.765699	143.163940
2.250000	-15.929039	140.284830	-0.267624	-129.107318	-0.267624	-129.107318	-15.928708	140.239270
2.300000	-16.115365	137.353556	-0.266769	-132.059803	-0.266769	-132.059803	-16.115112	137.306184
2.350000	-16.326713	134.414165	-0.265568	-135.023382	-0.265568	-135.023382	-16.326563	134.364676
2.400000	-16.565053	131.466815	-0.264058	-137.998661	-0.264058	-137.998661	-16.565029	131.414821
2.450000	-16.832734	128.511771	-0.262280	-140.986249	-0.262280	-140.986249	-16.832853	128.456801
2.500000	-17.132564	125.549442	-0.260280	-143.986754	-0.260280	-143.986754	-17.132838	125.490933
2.550000	-17.468195	122.580381	-0.258109	-147.000941	-0.258109	-147.000941	-17.468633	122.517653
2.600000	-17.843479	119.605570	-0.255823	-150.029278	-0.255823	-150.029278	-17.844089	119.537822
2.650000	-18.263438	116.626312	-0.253483	-153.072372	-0.253483	-153.072372	-18.264226	116.552578
2.700000	-18.734295	113.644467	-0.251153	-156.130831	-0.251153	-156.130831	-18.735267	113.563567
2.750000	-19.263865	110.662707	-0.248904	-159.205257	-0.248904	-159.205257	-19.265030	110.573175
2.800000	-19.862140	107.684899	-0.246809	-162.296249	-0.246809	-162.296249	-19.863511	107.584872
2.850000	-20.542457	104.716880	-0.244950	-165.404548	-0.244950	-165.404548	-20.544055	104.603910
2.900000	-21.322097	101.767388	-0.243413	-168.530660	-0.243413	-168.530660	-21.323958	101.638201
2.950000	-22.224982	98.850014	-0.242285	-171.675122	-0.242285	-171.675122	-22.227168	98.700067
3.000000	-23.285472	95.987038	-0.241663	-174.838512	-0.241663	-174.838512	-23.288086	95.809739
3.050000	-24.555662	93.218681	-0.241653	-178.021568	-0.241653	-178.021568	-24.558900	93.003767
3.100000	-26.116848	90.614707	-0.242346	178.775586	-0.242346	178.775586	-26.121095	90.345679
3.150000	-28.115125	88.335911	-0.243870	175.551956	-0.243870	175.551956	-28.121262	87.981911
3.200000	-30.840653	86.799464	-0.246347	172.306984	-0.246347	172.306984	-30.851186	86.293077
3.250000	-35.017206	87.507673	-0.249895	169.040307	-0.249895	169.040307	-35.042876	86.655043
3.300000	-43.382491	103.096956	-0.254647	165.751404	-0.254647	165.751404	-43.558249	100.963666
3.350000	-43.081117	-143.545840	-0.260776	162.439203	-0.260776	162.439203	-43.265398	-141.460995
3.400000	-34.561558	-122.701963	-0.268369	159.104210	-0.268369	159.104210	-34.583559	-121.752253
3.450000	-30.046870	-121.864834	-0.277607	155.745523	-0.277607	155.745523	-30.054795	-121.281953
3.500000	-26.988999	-123.492395	-0.288651	152.362694	-0.288651	152.362694	-26.993167	-123.066748
3.550000	-24.661884	-125.924751	-0.301624	148.955844	-0.301624	148.955844	-24.664533	-125.587002
3.600000	-22.770668	-128.747121	-0.316808	145.523360	-0.316808	145.523360	-22.772555	-128.464600
3.650000	-21.172278	-131.781646	-0.334339	142.065548	-0.334339	142.065548	-21.173719	-131.537538
3.700000	-19.783676	-134.953944	-0.354415	138.582084	-0.354415	138.582084	-19.784825	-134.738145
3.750000	-18.553050	-138.224679	-0.377246	135.072686	-0.377246	135.072686	-18.553991	-138.030655
3.800000	-17.445608	-141.571797	-0.403083	131.536837	-0.403083	131.536837	-17.446389	-141.395053
3.850000	-16.437665	-144.980415	-0.432128	127.974645	-0.432128	127.974645	-16.438317	-144.817791
3.900000	-15.511743	-148.441481	-0.464622	124.386003	-0.464622	124.386003	-15.512286	-148.290648
3.950000	-14.654784	-151.948786	-0.500818	120.770878	-0.500818	120.770878	-14.655234	-151.807976
4.000000	-13.856798	-155.497876	-0.540977	117.129321	-0.540977	117.129321	-13.857165	-155.365720
4.050000	-13.109981	-159.085408	-0.585373	113.461479	-0.585373	113.461479	-13.110275	-158.960821
4.100000	-12.408035	-162.709020	-0.634329	109.767393	-0.634329	109.767393	-12.408262	-162.591127
4.150000	-11.746082	-166.366309	-0.688116	106.047584	-0.688116	106.047584	-11.746251	-166.254397
4.200000	-11.120107	-170.055271	-0.747027	102.302626	-0.747027	102.302626	-11.120222	-169.948754
4.250000	-10.526774	-173.774147	-0.811371	98.533169	-0.811371	98.533169	-10.526841	-173.672531
4.300000	-9.963316	-177.521240	-0.881464	94.740014	-0.881464	94.740014	-9.963342	-177.424104
4.350000	-9.427426	178.705152	-0.957626	90.924132	-0.957626	90.924132	-9.427415	178.798167
4.400000	-8.917139	174.906654	-1.040211	87.086561	-1.040211	87.086561	-8.917096	174.995862
4.450000	-8.430833	171.085134	-1.129544	83.228665	-1.129544	83.228665	-8.430764	171.170811
4.500000	-7.967144	167.242676	-1.225909	79.352099	-1.225909	79.352099	-7.967053	167.325064
4.550000	-7.524874	163.381358	-1.329618	75.458601	-1.329618	75.458601	-7.524766	163.460675
4.600000	-7.102991	159.503399	-1.440969	71.550116	-1.440969	71.550116	-7.102869	159.579840
4.650000	-6.700596	155.611166	-1.560248	67.628790	-1.560248	67.628790	-6.700465	155.684909
4.700000	-6.316907	151.707145	-1.687739	63.696945	-1.687739	63.696945	-6.316770	151.778351
4.750000	-5.951246	147.793979	-1.823720	59.757114	-1.823720	59.757114	-5.951105	147.862800
4.800000	-5.602974	143.874557	-1.968356	55.812100	-1.968356	55.812100	-5.602833	143.941128
4.850000	-5.271514	139.951785	-2.121833	51.864785	-2.121833	51.864785	-5.271375	140.016234
4.900000	-4.956332	136.028672	-2.284306	47.918186	-2.284306	47.918186	-4.956197	136.091115
4.950000	-4.656923	132.108306	-2.455890	43.975437	-2.455890	43.975437	-4.656793	132.168853
5.000000	-4.372806	128.193830	-2.636664	40.039756	-2.636664	40.039756	-4.372683	128.252581
5.050000	-4.103583	124.288550	-2.826716	36.114565	-2.826716	36.114565	-4.103467	124.345601
5.100000	-3.848732	120.395579	-3.025980	32.203082	-3.025980	32.203082	-3.848622	120.451016
5.150000	-3.607793	116.518063	-3.234404	28.308583	-3.234404	28.308583	-3.607690	116.571966
5.200000	-3.380305	112.659094	-3.451897	24.434291	-3.451897	24.434291	-3.380210	112.711538
5.250000	-3.165807	108.821681	-3.678329	20.583344	-3.678329	20.583344	-3.165717	108.872734
5.300000	-2.963830	105.008728	-3.913527	16.758757	-3.913527	16.758757	-2.963746	105.058452
5.350000	-2.774195	101.224145	-4.157331	12.964614	-4.157331	12.964614	-2.774116	101.272600
5.400000	-2.595882	97.468546	-4.409384	9.201448	-4.409384	9.201448	-2.595807	97.515782
5.450000	-2.428658	93.745265	-4.669484	5.472688	-4.669484	5.472688	-2.428587	93.791331
5.500000	-2.272041	90.056567	-4.937341	1.780585	-4.937341	1.780585	-2.271972	90.101506
5.550000	-2.125545	86.404520	-5.212647	-1.872847	-5.212647	-1.872847	-2.125478	86.448372
5.600000	-1.988689	82.790992	-5.495084	-5.485839	-5.495084	-5.485839	-1.988622	82.833793
5.650000	-1.861066	79.218098	-5.784286	-9.056404	-5.784286	-9.056404	-1.860999	79.259882
5.700000	-1.742194	75.687334	-6.079901	-12.583234	-6.079901	-12.583234	-1.742127	75.728131
5.750000	-1.631528	72.199501	-6.381634	-16.065767	-6.381634	-16.065767	-1.631460	72.239339
5.800000	-1.528609	68.755635	-6.689174	-19.503201	-6.689174	-19.503201	-1.528539	68.794538
5.850000	-1.432988	65.356580	-7.002220	-22.894930	-7.002220	-22.894930	-1.432917	65.394573
5.900000	-1.344233	62.002997	-7.320494	-26.240512	-7.320494	-26.240512	-1.344161	62.040102
5.950000	-1.261923	58.695373	-7.643734	-29.539642	-7.643734	-29.539642	-1.261850	58.731611
6.000000	-1.185656	55.434034	-7.971701	-32.792111	-7.971701	-32.792111	-1.185581	55.469423
6.050000	-1.115043	52.219152	-8.304178	-35.997769	-8.304178	-35.997769	-1.114968	52.253712
6.100000	-1.049714	49.050764	-8.640968	-39.156496	-8.640968	-39.156496	-1.049640	49.084512
6.150000	-0.989318	45.928779	-8.981888	-42.268170	-8.981888	-42.268170	-0.989244	45.961734
6.200000	-0.933519	42.852993	-9.326771	-45.332646	-9.326771	-45.332646	-0.933447	42.885171
6.250000	-0.882002	39.823101	-9.675454	-48.349754	-9.675454	-48.349754	-0.881931	39.854518
6.300000	-0.834542	36.839683	-10.027540	-51.318264	-10.027540	-51.318264	-0.834474	36.870358
6.350000	-0.790773	33.901261	-10.383087	-54.239010	-10.383087	-54.239010	-0.790708	33.931209
6.400000	-0.750433	31.007287	-10.741931	-57.111826	-10.741931	-57.111826	-0.750372	31.036525
6.450000	-0.713274	28.157153	-11.103899	-59.936610	-11.103899	-59.936610	-0.713218	28.185697
6.500000	-0.679067	25.350203	-11.468820	-62.713357	-11.468820	-62.713357	-0.679016	25.378070
6.550000	-0.647597	22.585739	-11.836520	-65.442189	-11.836520	-65.442189	-0.647553	22.612944
6.600000	-0.618665	19.863028	-12.206832	-68.123370	-12.206832	-68.123370	-0.618628	19.889588
6.650000	-0.592085	17.181311	-12.579598	-70.757317	-12.579598	-70.757317	-0.592055	17.207243
6.700000	-0.567686	14.539806	-12.954678	-73.344593	-12.954678	-73.344593	-0.567663	14.565126
6.750000	-0.545307	11.937718	-13.331957	-75.885893	-13.331957	-75.885893	-0.545293	11.962441
6.800000	-0.524801	9.374236	-13.711342	-78.382018	-13.711342	-78.382018	-0.524796	9.398379
6.850000	-0.506032	6.848547	-14.092773	-80.833852	-14.092773	-80.833852	-0.506036	6.872125
6.900000	-0.488890	4.360222	-14.476058	-83.241870	-14.476058	-83.241870	-0.488903	4.383251
6.950000	-0.473256	1.908415	-14.861197	-85.607064	-14.861197	-85.607064	-0.473278	1.930911
7.000000	-0.459006	-0.508093	-15.248391	-87.930860	-15.248391	-87.930860	-0.459038	-0.486115
7.050000	-0.446043	-2.890114	-15.637712	-90.214191	-15.637712	-90.214191	-0.446084	-2.868639
7.100000	-0.434370	-5.235606	-16.027937	-92.454587	-16.027937	-92.454587	-0.434420	-5.214618
7.150000	-0.423700	-7.551478	-16.422024	-94.660069	-16.422024	-94.660069	-0.423759	-7.530965
7.200000	-0.414069	-9.835233	-16.818648	-96.827538	-16.818648	-96.827538	-0.414136	-9.815181
7.250000	-0.405408	-12.087647	-17.218011	-98.957676	-17.218011	-98.957676	-0.405483	-12.068043
7.300000	-0.397653	-14.309486	-17.620343	-101.051075	-17.620343	-101.051075	-0.397735	-14.290317
7.350000	-0.390744	-16.501502	-18.025909	-103.108234	-18.025909	-103.108234	-0.390833	-16.482755
7.400000	-0.384627	-18.664434	-18.435008	-105.129549	-18.435008	-105.129549	-0.384723	-18.646098
7.450000	-0.379253	-20.799010	-18.847974	-107.115303	-18.847974	-107.115303	-0.379354	-20.781072
7.500000	-0.374576	-22.905941	-19.265179	-109.065664	-19.265179	-109.065664	-0.374682	-22.888391
7.550000	-0.370580	-24.984789	-19.686362	-110.979126	-19.686362	-110.979126	-0.370690	-24.967617
7.600000	-0.367197	-27.037440	-20.112658	-112.857102	-20.112658	-112.857102	-0.367310	-27.020636
7.650000	-0.364393	-29.064565	-20.544575	-114.699306	-20.544575	-114.699306	-0.364507	-29.048119
7.700000	-0.362135	-31.066820	-20.982674	-116.505275	-20.982674	-116.505275	-0.362250	-31.050726
7.750000	-0.360393	-33.044852	-21.427577	-118.274342	-21.427577	-118.274342	-0.360508	-33.029100
7.800000	-0.359140	-34.999291	-21.879974	-120.005610	-21.879974	-120.005610	-0.359254	-34.983875
7.850000	-0.358350	-36.930757	-22.340635	-121.697911	-22.340635	-121.697911	-0.358462	-36.915670
7.900000	-0.358002	-38.839858	-22.810413	-123.349764	-22.810413	-123.349764	-0.358110	-38.825095
7.950000	-0.358072	-40.727191	-23.290267	-124.959315	-23.290267	-124.959315	-0.358176	-40.712746
8.000000	-0.358541	-42.593339	-23.781268	-126.524267	-23.781268	-126.524267	-0.358639	-42.579208
8.050000	-0.359390	-44.438878	-24.284625	-128.041786	-24.284625	-128.041786	-0.359482	-44.425056
8.100000	-0.360603	-46.264371	-24.801701	-129.508384	-24.801701	-129.508384	-0.360687	-46.250856
8.150000	-0.362162	-48.070373	-25.334044	-130.919768	-25.334044	-130.919768	-0.362237	-48.057161
8.200000	-0.364053	-49.857428	-25.883417	-132.270645	-25.883417	-132.270645	-0.364119	-49.844518
8.250000	-0.366261	-51.626074	-26.451839	-133.554458	-26.451839	-133.554458	-0.366317	-51.613463
8.300000	-0.368774	-53.376839	-27.041637	-134.763047	-27.041637	-134.763047	-0.368818	-53.364527
8.350000	-0.371563	-55.111212	-27.656538	-135.892075	-27.656538	-135.892075	-0.371594	-55.099198
8.400000	-0.374640	-56.828290	-28.298262	-136.921821	-28.298262	-136.921821	-0.374657	-56.816573
8.450000	-0.378007	-58.527700	-28.969322	-137.827066	-28.969322	-137.827066	-0.378010	-58.516281
8.500000	-0.381618	-60.212128	-29.676562	-138.603143	-29.676562	-138.603143	-0.381606	-60.201008
8.550000	-0.385482	-61.880861	-30.423591	-139.210414	-30.423591	-139.210414	-0.385455	-61.870041
8.600000	-0.389585	-63.534684	-31.216785	-139.614943	-31.216785	-139.614943	-0.389543	-63.524165
8.650000	-0.393955	-65.171690	-32.058657	-139.708502	-32.058657	-139.708502	-0.393896	-65.161474
8.700000	-0.398493	-66.798079	-32.967796	-139.530851	-32.967796	-139.530851	-0.398418	-66.788169
8.750000	-0.403213	-68.412934	-33.954492	-139.029462	-33.954492	-139.029462	-0.403121	-68.403331
8.800000	-0.408212	-70.009842	-35.008891	-137.738085	-35.008891	-137.738085	-0.408104	-70.000549
8.850000	-0.413373	-71.596346	-36.159188	-135.691011	-36.159188	-135.691011	-0.413250	-71.587367
8.900000	-0.418693	-73.172653	-37.419410	-132.714267	-37.419410	-132.714267	-0.418554	-73.163988
8.950000	-0.424207	-74.736438	-38.774292	-128.166824	-38.774292	-128.166824	-0.424052	-74.728091
9.000000	-0.429914	-76.287576	-40.139698	-120.864471	-40.139698	-120.864471	-0.429744	-76.279549
9.050000	-0.435758	-77.829851	-41.447065	-110.938744	-41.447065	-110.938744	-0.435575	-77.822148
9.100000	-0.441735	-79.363472	-42.562237	-98.231575	-42.562237	-98.231575	-0.441539	-79.356093
9.150000	-0.447903	-80.884517	-42.819270	-82.278254	-42.819270	-82.278254	-0.447696	-80.877465
9.200000	-0.454198	-82.397317	-42.367485	-67.482345	-42.367485	-67.482345	-0.453982	-82.390593
9.250000	-0.460605	-83.902823	-41.437427	-54.572813	-41.437427	-54.572813	-0.460381	-83.896428
9.300000	-0.467139	-85.400087	-40.188356	-45.063227	-40.188356	-45.063227	-0.466909	-85.394021
9.350000	-0.473814	-86.888073	-38.867227	-38.991355	-38.867227	-38.991355	-0.473582	-86.882336
9.400000	-0.480581	-88.370179	-37.639043	-34.560590	-37.639043	-34.560590	-0.480348	-88.364768
9.450000	-0.487436	-89.846627	-36.507126	-31.504010	-36.507126	-31.504010	-0.487206	-89.841541
9.500000	-0.494408	-91.315588	-35.462803	-29.749750	-35.462803	-29.749750	-0.494184	-91.310822
9.550000	-0.501465	-92.779224	-34.511665	-28.656337	-34.511665	-28.656337	-0.501252	-92.774772
9.600000	-0.508591	-94.238714	-33.642364	-28.016614	-33.642364	-28.016614	-0.508392	-94.234571
9.650000	-0.515786	-95.694010	-32.842172	-27.775930	-32.842172	-27.775930	-0.515605	-95.690168
9.700000	-0.523065	-97.144424	-32.099049	-27.922259	-32.099049	-27.922259	-0.522909	-97.140869
9.750000	-0.530392	-98.592328	-31.408745	-28.253804	-31.408745	-28.253804	-0.530267	-98.589048
9.800000	-0.537764	-100.037989	-30.763949	-28.751416	-30.763949	-28.751416	-0.537675	-100.034971
9.850000	-0.545188	-101.481331	-30.156893	-29.429558	-30.156893	-29.429558	-0.545143	-101.478554
9.900000	-0.552651	-102.923501	-29.583110	-30.236915	-29.583110	-30.236915	-0.552657	-102.920941
9.950000	-0.560140	-104.365274	-29.039863	-31.132372	-29.039863	-31.132372	-0.560204	-104.362909
10.000000	-0.567652	-105.806948	-28.523694	-32.108259	-28.523694	-32.108259	-0.567783	-105.804753
