! freq	dB(S11)	phase(S11)	dB(S12)	phase(S12)	
!     	dB(S21)	phase(S21)	dB(S22)	phase(S22)	
!S-par simulation data
#  GHz  S  DB  R 50
0.000000	-0.000000	0.000000	-343.685828	0.000000	-343.685828	0.000000	-0.000000	0.000000
0.050000	-0.000111	-0.764026	-114.945416	77.635135	-114.945416	77.635135	-0.000098	-0.762483
0.100000	-0.000438	-1.527751	-110.291313	73.388145	-110.291313	73.388145	-0.000389	-1.524727
0.150000	-0.000968	-2.290881	-107.774962	73.331252	-107.774962	73.331252	-0.000864	-2.286494
0.200000	-0.001661	-3.053257	-105.955736	74.272844	-105.955736	74.272844	-0.001493	-3.047643
0.250000	-0.002495	-3.814710	-104.526072	75.292477	-104.526072	75.292477	-0.002262	-3.808015
0.300000	-0.003448	-4.575042	-103.381917	76.151731	-103.381917	76.151731	-0.003155	-4.567413
0.350000	-0.004473	-5.334396	-102.451848	76.885091	-102.451848	76.885091	-0.004131	-5.325929
0.400000	-0.005556	-6.092623	-101.715003	77.536129	-101.715003	77.536129	-0.005180	-6.083394
0.450000	-0.006670	-6.849853	-101.139802	78.188118	-101.139802	78.188118	-0.006275	-6.839896
0.500000	-0.007802	-7.606088	-100.716573	78.919710	-100.716573	78.919710	-0.007403	-7.595409
0.550000	-0.008937	-8.361395	-100.436045	79.820769	-100.436045	79.820769	-0.008549	-8.349972
0.600000	-0.010068	-9.115828	-100.294233	80.998015	-100.294233	80.998015	-0.009701	-9.103622
0.650000	-0.011188	-9.869439	-100.290440	82.588082	-100.290440	82.588082	-0.010851	-9.856399
0.700000	-0.012296	-10.622271	-100.425770	84.776296	-100.425770	84.776296	-0.011993	-10.608341
0.750000	-0.013389	-11.374359	-100.700297	87.823980	-100.700297	87.823980	-0.013124	-11.359483
0.800000	-0.014467	-12.125731	-101.106776	92.105060	-101.106776	92.105060	-0.014240	-12.109855
0.850000	-0.015528	-12.876286	-101.599169	98.641749	-101.599169	98.641749	-0.015339	-12.859358
0.900000	-0.016576	-13.626126	-102.110388	107.699839	-102.110388	107.699839	-0.016422	-13.608102
0.950000	-0.017617	-14.375612	-102.463560	118.138951	-102.463560	118.138951	-0.017497	-14.356477
1.000000	-0.018640	-15.124035	-102.262466	132.721131	-102.262466	132.721131	-0.018549	-15.103745
1.050000	-0.019661	-15.872218	-101.813463	147.014735	-101.813463	147.014735	-0.019596	-15.850769
1.100000	-0.020666	-16.619207	-100.276175	159.865463	-100.276175	159.865463	-0.020622	-16.596572
1.150000	-0.021670	-17.366072	-98.885192	172.219272	-98.885192	172.219272	-0.021646	-17.342252
1.200000	-0.022661	-18.111585	-96.909068	179.106970	-96.909068	179.106970	-0.022651	-18.086570
1.250000	-0.023652	-18.857097	-95.300252	-174.005333	-95.300252	-174.005333	-0.023655	-18.830889
1.300000	-0.024635	-19.601468	-93.591682	-170.187328	-93.591682	-170.187328	-0.024647	-19.574070
1.350000	-0.025614	-20.345091	-91.994610	-167.579946	-91.994610	-167.579946	-0.025632	-20.316509
1.400000	-0.026590	-21.087950	-90.506314	-165.842359	-90.506314	-165.842359	-0.026612	-21.058192
1.450000	-0.027562	-21.830030	-89.117758	-164.740828	-89.117758	-164.740828	-0.027586	-21.799105
1.500000	-0.028532	-22.571315	-87.818468	-164.113923	-87.818468	-164.113923	-0.028556	-22.539233
1.550000	-0.029500	-23.311790	-86.598415	-163.848406	-86.598415	-163.848406	-0.029523	-23.278562
1.600000	-0.030466	-24.051439	-85.448630	-163.863339	-85.448630	-163.863339	-0.030487	-24.017076
1.650000	-0.031430	-24.790247	-84.361325	-164.099738	-84.361325	-164.099738	-0.031449	-24.754759
1.700000	-0.032392	-25.527891	-83.306550	-164.560301	-83.306550	-164.560301	-0.032408	-25.491292
1.750000	-0.033355	-26.265083	-82.335352	-165.101494	-82.335352	-165.101494	-0.033367	-26.227379
1.800000	-0.034316	-27.001186	-81.394954	-165.777970	-81.394954	-165.777970	-0.034325	-26.962387
1.850000	-0.035277	-27.736511	-80.503399	-166.551075	-80.503399	-166.551075	-0.035282	-27.696626
1.900000	-0.036238	-28.470869	-79.645946	-167.404936	-79.645946	-167.404936	-0.036240	-28.429907
1.950000	-0.037199	-29.204261	-78.821079	-168.339555	-78.821079	-168.339555	-0.037197	-29.162230
2.000000	-0.038160	-29.936820	-78.032511	-169.322912	-78.032511	-169.322912	-0.038156	-29.893726
2.050000	-0.039122	-30.668214	-77.264369	-170.374503	-77.264369	-170.374503	-0.039115	-30.624065
2.100000	-0.040085	-31.398920	-76.533983	-171.455241	-76.533983	-171.455241	-0.040075	-31.353721
2.150000	-0.041049	-32.128253	-75.814771	-172.594268	-75.814771	-172.594268	-0.041038	-32.082010
2.200000	-0.042014	-32.857055	-75.134243	-173.750062	-75.134243	-173.750062	-0.042001	-32.809771
2.250000	-0.042981	-33.584265	-74.457755	-174.956153	-74.457755	-174.956153	-0.042968	-33.535947
2.300000	-0.043950	-34.311112	-73.820481	-176.171001	-73.820481	-176.171001	-0.043936	-34.261760
2.350000	-0.044923	-35.036140	-73.181692	-177.429633	-73.181692	-177.429633	-0.044909	-34.985760
2.400000	-0.045896	-35.760982	-72.582347	-178.691755	-72.582347	-178.691755	-0.045882	-35.709575
2.450000	-0.046875	-36.483770	-71.977130	-179.992275	-71.977130	-179.992275	-0.046861	-36.431340
2.500000	-0.047854	-37.206558	-71.411350	178.707205	-71.411350	178.707205	-0.047841	-37.153106
2.550000	-0.048840	-37.927051	-70.836268	177.372798	-70.836268	177.372798	-0.048829	-37.872580
2.600000	-0.049827	-38.647544	-70.296908	176.038391	-70.296908	176.038391	-0.049817	-38.592054
2.650000	-0.050822	-39.365883	-69.752590	174.678553	-69.752590	174.678553	-0.050814	-39.309377
2.700000	-0.051818	-40.084026	-69.237259	173.316403	-69.237259	173.316403	-0.051812	-40.026504
2.750000	-0.052822	-40.800168	-68.720590	171.935136	-68.720590	171.935136	-0.052819	-40.741632
2.800000	-0.053829	-41.515910	-68.227235	170.550047	-68.227235	170.550047	-0.053828	-41.456360
2.850000	-0.054845	-42.229814	-67.735565	169.150616	-67.735565	169.150616	-0.054846	-42.169252
2.900000	-0.055864	-42.943106	-67.262409	167.746406	-67.262409	167.746406	-0.055867	-42.881532
2.950000	-0.056892	-43.654732	-66.793467	166.331503	-66.793467	166.331503	-0.056898	-43.592147
3.000000	-0.057925	-44.365526	-66.338956	164.911254	-66.338956	164.911254	-0.057933	-44.301930
3.050000	-0.058967	-45.074837	-65.890778	163.483119	-65.890778	163.483119	-0.058978	-45.010232
3.100000	-0.060016	-45.783089	-65.453547	162.049350	-65.453547	162.049350	-0.060028	-45.717474
3.150000	-0.061073	-46.490048	-65.024422	160.609865	-65.024422	160.609865	-0.061088	-46.423426
3.200000	-0.062138	-47.195715	-64.603261	159.164662	-64.603261	159.164662	-0.062155	-47.128085
3.250000	-0.063212	-47.900289	-64.191689	157.715420	-64.191689	157.715420	-0.063231	-47.831653
3.300000	-0.064296	-48.603332	-63.785522	156.260526	-63.785522	156.260526	-0.064317	-48.533690
3.350000	-0.065387	-49.305489	-63.390178	154.802891	-63.390178	154.802891	-0.065410	-49.234842
3.400000	-0.066492	-50.005871	-62.998041	153.339777	-62.998041	153.339777	-0.066516	-49.934220
3.450000	-0.067602	-50.705580	-62.617750	151.874920	-62.617750	151.874920	-0.067628	-50.632926
3.500000	-0.068729	-51.403267	-62.238775	150.404839	-62.238775	150.404839	-0.068756	-51.329611
3.550000	-0.069860	-52.100501	-61.872490	148.933776	-61.872490	148.933776	-0.069888	-52.025843
3.600000	-0.071010	-52.795462	-61.505892	147.457803	-61.505892	147.457803	-0.071039	-52.719805
3.650000	-0.072163	-53.490193	-61.152673	145.981418	-61.152673	145.981418	-0.072192	-53.413537
3.700000	-0.073338	-54.182400	-60.797740	144.500484	-60.797740	144.500484	-0.073368	-54.104747
3.750000	-0.074514	-54.874606	-60.456744	143.019550	-60.456744	143.019550	-0.074544	-54.795956
3.800000	-0.075717	-55.564032	-60.112827	141.534463	-60.112827	141.534463	-0.075746	-55.484388
3.850000	-0.076920	-56.253457	-59.782011	140.049376	-59.782011	140.049376	-0.076948	-56.172819
3.900000	-0.078148	-56.940313	-59.449795	138.561130	-59.449795	138.561130	-0.078176	-56.858683
3.950000	-0.079379	-57.626935	-59.128633	137.072597	-59.128633	137.072597	-0.079407	-57.544314
4.000000	-0.080636	-58.311205	-58.807406	135.581710	-58.807406	135.581710	-0.080661	-58.227594
4.050000	-0.081897	-58.995003	-58.495416	134.090352	-58.495416	134.090352	-0.081921	-58.910403
4.100000	-0.083182	-59.676672	-58.184531	132.597286	-58.184531	132.597286	-0.083205	-59.591085
4.150000	-0.084475	-60.357630	-57.881264	131.103651	-57.881264	131.103651	-0.084496	-60.271057
4.200000	-0.085790	-61.036684	-57.580130	129.608822	-57.580130	129.608822	-0.085809	-60.949127
4.250000	-0.087117	-61.714787	-57.285173	128.113397	-57.285173	128.113397	-0.087133	-61.626247
4.300000	-0.088463	-62.391218	-56.993249	126.617178	-56.993249	126.617178	-0.088478	-62.301696
4.350000	-0.089825	-63.066455	-56.706219	125.120394	-56.706219	125.120394	-0.089836	-62.975952
4.400000	-0.091204	-63.740254	-56.423008	123.623122	-56.423008	123.623122	-0.091213	-63.648771
4.450000	-0.092602	-64.412616	-56.143547	122.125363	-56.143547	122.125363	-0.092608	-64.320154
4.500000	-0.094016	-65.083777	-55.868593	120.627342	-55.868593	120.627342	-0.094019	-64.990338
4.550000	-0.095453	-65.753258	-55.596369	119.128953	-55.596369	119.128953	-0.095452	-65.658842
4.600000	-0.096902	-66.421777	-55.329249	117.630458	-55.329249	117.630458	-0.096898	-66.326386
4.650000	-0.098378	-67.088374	-55.063951	116.131748	-55.063951	116.131748	-0.098370	-66.992008
4.700000	-0.099865	-67.754249	-54.804276	114.633027	-54.804276	114.633027	-0.099853	-67.656909
4.750000	-0.101383	-68.417962	-54.545614	113.134273	-54.545614	113.134273	-0.101366	-68.319649
4.800000	-0.102908	-69.081194	-54.293023	111.635553	-54.293023	111.635553	-0.102887	-68.981908
4.850000	-0.104469	-69.742024	-54.040724	110.137004	-54.040724	110.137004	-0.104443	-69.641766
4.900000	-0.106033	-70.402614	-53.794882	108.638491	-53.794882	108.638491	-0.106003	-70.301385
4.950000	-0.107639	-71.060567	-53.548692	107.140372	-53.548692	107.140372	-0.107604	-70.958366
5.000000	-0.109245	-71.718520	-53.309288	105.642253	-53.309288	105.642253	-0.109205	-71.615348
5.050000	-0.110897	-72.373603	-53.068966	104.144768	-53.068966	104.144768	-0.110852	-72.269461
5.100000	-0.112550	-73.028686	-52.835116	102.647282	-52.835116	102.647282	-0.112499	-72.923573
5.150000	-0.114246	-73.681148	-52.601032	101.150545	-52.601032	101.150545	-0.114190	-73.575064
5.200000	-0.115946	-74.333372	-52.372528	99.653876	-52.372528	99.653876	-0.115885	-74.226316
5.250000	-0.117688	-74.983222	-52.144406	98.158027	-52.144406	98.158027	-0.117622	-74.875196
5.300000	-0.119439	-75.632598	-51.921055	96.662342	-51.921055	96.662342	-0.119366	-75.523601
5.350000	-0.121228	-76.279850	-51.698636	95.167509	-51.698636	95.167509	-0.121149	-76.169880
5.400000	-0.123030	-76.926394	-51.480254	93.672960	-51.480254	93.672960	-0.122945	-76.815452
5.450000	-0.124867	-77.571061	-51.263298	92.179261	-51.263298	92.179261	-0.124776	-77.459145
5.500000	-0.126723	-78.214790	-51.049712	90.685986	-51.049712	90.685986	-0.126625	-78.101900
5.550000	-0.128610	-78.856887	-50.837993	89.193529	-50.837993	89.193529	-0.128506	-78.743022
5.600000	-0.130520	-79.497820	-50.629039	87.701656	-50.629039	87.701656	-0.130410	-79.382980
5.650000	-0.132459	-80.137366	-50.422346	86.210542	-50.422346	86.210542	-0.132341	-80.021549
5.700000	-0.134426	-80.775525	-50.217869	84.720188	-50.217869	84.720188	-0.134301	-80.658729
5.750000	-0.136417	-81.412539	-50.016003	83.230510	-50.016003	83.230510	-0.136285	-81.294763
5.800000	-0.138442	-82.047948	-49.815858	81.741782	-49.815858	81.741782	-0.138303	-81.929192
5.850000	-0.140487	-82.682449	-49.618632	80.253629	-49.618632	80.253629	-0.140340	-82.562711
5.900000	-0.142573	-83.315134	-49.422679	78.766627	-49.422679	78.766627	-0.142418	-83.194412
5.950000	-0.144674	-83.947145	-49.229919	77.280080	-49.229919	77.280080	-0.144511	-83.825438
6.000000	-0.146821	-84.577135	-49.038027	75.794898	-49.038027	75.794898	-0.146649	-84.454440
6.050000	-0.148979	-85.206680	-48.849568	74.310033	-48.849568	74.310033	-0.148799	-85.082997
6.100000	-0.151190	-85.834003	-48.661613	72.826759	-48.661613	72.826759	-0.151001	-85.709330
6.150000	-0.153406	-86.461107	-48.477299	71.343650	-48.477299	71.343650	-0.153208	-86.335442
6.200000	-0.155682	-87.085797	-48.293162	69.862366	-48.293162	69.862366	-0.155474	-86.959137
6.250000	-0.157959	-87.710487	-48.112849	68.381083	-48.112849	68.381083	-0.157741	-87.582832
6.300000	-0.160302	-88.332577	-47.932419	66.901869	-47.932419	66.901869	-0.160074	-88.203923
6.350000	-0.162646	-88.954667	-47.755661	65.422654	-47.755661	65.422654	-0.162407	-88.825014
6.400000	-0.165052	-89.574407	-47.579137	63.945407	-47.579137	63.945407	-0.164802	-89.443751
6.450000	-0.167464	-90.193933	-47.405835	62.468338	-47.405835	62.468338	-0.167203	-90.062273
6.500000	-0.169935	-90.811353	-47.233085	60.993118	-47.233085	60.993118	-0.169662	-90.678687
6.550000	-0.172418	-91.428352	-47.063147	59.518268	-47.063147	59.518268	-0.172133	-91.294679
6.600000	-0.174954	-92.043486	-46.894045	58.045134	-46.894045	58.045134	-0.174657	-91.908803
6.650000	-0.177510	-92.657998	-46.727380	56.572573	-46.727380	56.572573	-0.177199	-92.522303
6.700000	-0.180114	-93.270879	-46.561808	55.101584	-46.561808	55.101584	-0.179789	-93.134170
6.750000	-0.182743	-93.882944	-46.398331	53.631381	-46.398331	53.631381	-0.182404	-93.745221
6.800000	-0.185416	-94.493607	-46.236178	52.162593	-46.236178	52.162593	-0.185063	-94.354866
6.850000	-0.188121	-95.103268	-46.075808	50.694815	-46.075808	50.694815	-0.187752	-94.963509
6.900000	-0.190864	-95.711749	-45.916967	49.228285	-45.916967	49.228285	-0.190480	-95.570970
6.950000	-0.193646	-96.319050	-45.759626	47.763000	-45.759626	47.763000	-0.193245	-96.177250
7.000000	-0.196461	-96.925386	-45.603996	46.298781	-45.603996	46.298781	-0.196043	-96.782564
7.050000	-0.199322	-97.530372	-45.449610	44.836055	-45.449610	44.836055	-0.198886	-97.386526
7.100000	-0.202211	-98.134603	-45.297097	43.374203	-45.297097	43.374203	-0.201756	-97.989733
7.150000	-0.205152	-98.737321	-45.145596	41.914101	-45.145596	41.914101	-0.204678	-98.591426
7.200000	-0.208115	-99.339485	-44.996107	40.454670	-44.996107	40.454670	-0.207621	-99.192564
7.250000	-0.211140	-99.939985	-44.847424	38.997256	-44.847424	38.997256	-0.210624	-99.792037
7.300000	-0.214179	-100.540123	-44.700874	37.540300	-44.700874	37.540300	-0.213641	-100.391149
7.350000	-0.217287	-101.138453	-44.554943	36.085638	-44.554943	36.085638	-0.216726	-100.988453
7.400000	-0.220403	-101.736606	-44.411249	34.631211	-44.411249	34.631211	-0.219820	-101.585581
7.450000	-0.223597	-102.332818	-44.268008	33.179364	-44.268008	33.179364	-0.222988	-102.180768
7.500000	-0.226792	-102.929029	-44.127092	31.727518	-44.127092	31.727518	-0.226158	-102.775955
7.550000	-0.230073	-103.523175	-43.986483	30.278550	-43.986483	30.278550	-0.229412	-103.369079
7.600000	-0.233356	-104.117321	-43.848113	28.829583	-43.848113	28.829583	-0.232667	-103.962204
7.650000	-0.236718	-104.709623	-43.710234	27.383311	-43.710234	27.383311	-0.236001	-104.553488
7.700000	-0.240090	-105.301757	-43.574358	25.937284	-43.574358	25.937284	-0.239342	-105.144604
7.750000	-0.243535	-105.892260	-43.439135	24.493758	-43.439135	24.493758	-0.242757	-105.734095
7.800000	-0.246997	-106.482436	-43.305701	23.050733	-43.305701	23.050733	-0.246186	-106.323261
7.850000	-0.250527	-107.071187	-43.173064	21.610004	-43.173064	21.610004	-0.249682	-106.911007
7.900000	-0.254081	-107.659463	-43.042022	20.170040	-43.042022	20.170040	-0.253201	-107.498280
7.950000	-0.257696	-108.246510	-42.911906	18.732156	-42.911906	18.732156	-0.256780	-108.084331
8.000000	-0.261343	-108.832943	-42.783207	17.295313	-42.783207	17.295313	-0.260390	-108.669770
8.050000	-0.265045	-109.418334	-42.655548	15.860321	-42.655548	15.860321	-0.264053	-109.254177
8.100000	-0.268787	-110.002981	-42.529146	14.426654	-42.529146	14.426654	-0.267754	-109.837844
8.150000	-0.272577	-110.586766	-42.403882	12.994601	-42.403882	12.994601	-0.271503	-110.420657
8.200000	-0.276415	-111.169689	-42.279732	11.564164	-42.279732	11.564164	-0.275297	-111.002616
8.250000	-0.280294	-111.751918	-42.156803	10.135094	-42.156803	10.135094	-0.279132	-111.583888
8.300000	-0.284230	-112.333176	-42.034862	8.707939	-42.034862	8.707939	-0.283021	-112.164201
8.350000	-0.288199	-112.913900	-41.914213	7.281894	-41.914213	7.281894	-0.286942	-112.743986
8.400000	-0.292234	-113.493556	-41.794437	5.858069	-41.794437	5.858069	-0.290927	-113.322718
8.450000	-0.296294	-114.072827	-41.676014	4.435089	-41.676014	4.435089	-0.294936	-113.901072
8.500000	-0.300429	-114.650944	-41.558363	3.014640	-41.558363	3.014640	-0.299017	-114.478290
8.550000	-0.304582	-115.228815	-41.442112	1.594762	-41.442112	1.594762	-0.303116	-115.055267
8.600000	-0.308818	-115.805458	-41.326547	0.177731	-41.326547	0.177731	-0.307294	-115.631039
8.650000	-0.313065	-116.381982	-41.212419	-1.239011	-41.212419	-1.239011	-0.311483	-116.206696
8.700000	-0.317404	-116.957215	-41.098901	-2.652586	-41.098901	-2.652586	-0.315760	-116.781092
8.750000	-0.321744	-117.532447	-40.986847	-4.066161	-40.986847	-4.066161	-0.320039	-117.355488
8.800000	-0.326187	-118.106337	-40.875337	-5.476248	-40.875337	-5.476248	-0.324416	-117.928578
8.850000	-0.330631	-118.680226	-40.765242	-6.886335	-40.765242	-6.886335	-0.328795	-118.501669
8.900000	-0.335170	-119.252946	-40.655775	-8.293198	-40.655775	-8.293198	-0.333264	-119.073629
8.950000	-0.339719	-119.825560	-40.547603	-9.699768	-40.547603	-9.699768	-0.337743	-119.645486
9.000000	-0.344354	-120.397169	-40.440133	-11.103388	-40.440133	-11.103388	-0.342305	-120.216377
9.050000	-0.349009	-120.968576	-40.333852	-12.506419	-40.333852	-12.506419	-0.346886	-120.787075
9.100000	-0.353742	-121.539130	-40.228335	-13.906782	-40.228335	-13.906782	-0.351541	-121.356960
9.150000	-0.358504	-122.109400	-40.123913	-15.306256	-40.123913	-15.306256	-0.356224	-121.926574
9.200000	-0.363336	-122.678959	-40.020306	-16.703351	-40.020306	-16.703351	-0.360974	-122.495516
9.250000	-0.368204	-123.248162	-39.917711	-18.099256	-39.917711	-18.099256	-0.365759	-123.064123
9.300000	-0.373135	-123.816786	-39.815975	-19.493077	-39.815975	-19.493077	-0.370603	-123.632188
9.350000	-0.378112	-124.384995	-39.715177	-20.885409	-39.715177	-20.885409	-0.375491	-124.199865
9.400000	-0.383142	-124.952744	-39.615272	-22.275954	-39.615272	-22.275954	-0.380431	-124.767119
9.450000	-0.388227	-125.520032	-39.516243	-23.664713	-39.516243	-23.664713	-0.385423	-125.333947
9.500000	-0.393358	-126.086967	-39.418133	-25.051986	-39.418133	-25.051986	-0.390458	-125.900456
9.550000	-0.398553	-126.653408	-39.320845	-26.437179	-39.320845	-26.437179	-0.395554	-126.466518
9.600000	-0.403784	-127.219592	-39.224493	-27.821189	-39.224493	-27.821189	-0.400685	-127.032351
9.650000	-0.409088	-127.785262	-39.128920	-29.202830	-39.128920	-29.202830	-0.405885	-127.597728
9.700000	-0.414421	-128.350758	-39.034293	-30.583589	-39.034293	-30.583589	-0.411112	-128.162955
9.750000	-0.419834	-128.915732	-38.940410	-31.961699	-38.940410	-31.961699	-0.416417	-128.727733
9.800000	-0.425268	-129.480604	-38.847476	-33.339225	-38.847476	-33.339225	-0.421741	-129.292425
9.850000	-0.430791	-130.044962	-38.755259	-34.713831	-38.755259	-34.713831	-0.427149	-129.856690
9.900000	-0.436327	-130.609275	-38.663987	-36.088147	-38.663987	-36.088147	-0.432570	-130.420919
9.950000	-0.441960	-131.173095	-38.573414	-37.459281	-38.573414	-37.459281	-0.438083	-130.984760
10.000000	-0.447597	-131.736915	-38.483775	-38.830416	-38.483775	-38.830416	-0.443600	-131.548600
