! freq	dB(S11)	phase(S11)	dB(S12)	phase(S12)	
!     	dB(S21)	phase(S21)	dB(S22)	phase(S22)	
!S-par simulation data
#  GHz  S  DB  R 50
0.000000	0.000000	-0.000000	-343.149694	180.000000	-343.149694	180.000000	-0.000000	-0.000000
0.050000	-0.000107	-0.893755	-113.621466	89.085320	-113.621466	89.085320	-0.000107	-0.893384
0.100000	-0.000424	-1.787260	-107.651823	88.182142	-107.651823	88.182142	-0.000425	-1.786517
0.150000	-0.000940	-2.680281	-104.214959	87.302123	-104.214959	87.302123	-0.000941	-2.679164
0.200000	-0.001636	-3.572621	-101.834588	86.456961	-101.834588	86.456961	-0.001638	-3.571128
0.250000	-0.002500	-4.464051	-100.055032	85.662961	-100.055032	85.662961	-0.002503	-4.462182
0.300000	-0.003495	-5.354521	-98.662686	84.930245	-98.662686	84.930245	-0.003498	-5.352274
0.350000	-0.004602	-6.243901	-97.553138	84.277326	-97.553138	84.277326	-0.004605	-6.241274
0.400000	-0.005798	-7.132129	-96.662884	83.723937	-96.662884	83.723937	-0.005801	-7.129122
0.450000	-0.007061	-8.019174	-95.952187	83.293985	-95.952187	83.293985	-0.007064	-8.015786
0.500000	-0.008371	-8.905029	-95.395267	83.017162	-95.395267	83.017162	-0.008373	-8.901261
0.550000	-0.009711	-9.789705	-94.975208	82.931192	-94.975208	82.931192	-0.009713	-9.785557
0.600000	-0.011068	-10.673222	-94.681087	83.084999	-94.681087	83.084999	-0.011068	-10.668696
0.650000	-0.012429	-11.555611	-94.506174	83.543234	-94.506174	83.543234	-0.012428	-11.550707
0.700000	-0.013787	-12.436902	-94.446617	84.392791	-94.446617	84.392791	-0.013785	-12.431623
0.750000	-0.015134	-13.317127	-94.500130	85.752135	-94.500130	85.752135	-0.015131	-13.311475
0.800000	-0.016468	-14.196314	-94.664143	87.784291	-94.664143	87.784291	-0.016462	-14.190290
0.850000	-0.017784	-15.074487	-94.932544	90.713415	-94.932544	90.713415	-0.017777	-15.068093
0.900000	-0.019081	-15.951665	-95.289503	94.841052	-95.289503	94.841052	-0.019072	-15.944902
0.950000	-0.020359	-16.827862	-95.698159	100.546224	-95.698159	100.546224	-0.020349	-16.820733
1.000000	-0.021617	-17.703087	-96.082937	108.226870	-96.082937	108.226870	-0.021606	-17.695593
1.050000	-0.022857	-18.577344	-96.312385	118.108757	-96.312385	118.108757	-0.022844	-18.569487
1.100000	-0.024079	-19.450633	-96.210773	129.891509	-96.210773	129.891509	-0.024065	-19.442415
1.150000	-0.025285	-20.322950	-95.636291	142.465027	-95.636291	142.465027	-0.025269	-20.314370
1.200000	-0.026476	-21.194286	-94.587860	154.239696	-94.587860	154.239696	-0.026459	-21.185347
1.250000	-0.027653	-22.064630	-93.207563	164.047743	-93.207563	164.047743	-0.027634	-22.055334
1.300000	-0.028817	-22.933926	-91.658122	171.502267	-91.658122	171.502267	-0.028797	-22.924272
1.350000	-0.029970	-23.802200	-90.086434	176.994002	-90.086434	176.994002	-0.029950	-23.792189
1.400000	-0.031114	-24.669434	-88.558546	-179.055126	-88.558546	-179.055126	-0.031093	-24.659069
1.450000	-0.032250	-25.535611	-87.102788	-176.269348	-87.102788	-176.269348	-0.032228	-25.524891
1.500000	-0.033378	-26.400710	-85.727589	-174.356756	-85.727589	-174.356756	-0.033356	-26.389636
1.550000	-0.034501	-27.264711	-84.432003	-173.101921	-84.432003	-173.101921	-0.034478	-27.253285
1.600000	-0.035619	-28.127593	-83.211144	-172.348314	-83.211144	-172.348314	-0.035595	-28.115814
1.650000	-0.036733	-28.989334	-82.058807	-171.982073	-82.058807	-171.982073	-0.036708	-28.977205
1.700000	-0.037843	-29.849913	-80.968665	-171.919612	-80.968665	-171.919612	-0.037818	-29.837433
1.750000	-0.038951	-30.709309	-79.934779	-172.098796	-79.934779	-172.098796	-0.038925	-30.696479
1.800000	-0.040058	-31.567498	-78.951780	-172.472783	-78.951780	-172.472783	-0.040031	-31.554320
1.850000	-0.041163	-32.424461	-78.014898	-173.005763	-78.014898	-173.005763	-0.041136	-32.410935
1.900000	-0.042268	-33.280175	-77.119936	-173.669982	-77.119936	-173.669982	-0.042240	-33.266302
1.950000	-0.043373	-34.134619	-76.263203	-174.443653	-76.263203	-174.443653	-0.043345	-34.120400
2.000000	-0.044479	-34.987773	-75.441459	-175.309463	-75.441459	-175.309463	-0.044450	-34.973210
2.050000	-0.045586	-35.839617	-74.651854	-176.253501	-74.651854	-176.253501	-0.045556	-35.824709
2.100000	-0.046694	-36.690130	-73.891869	-177.264469	-73.891869	-177.264469	-0.046664	-36.674879
2.150000	-0.047805	-37.539292	-73.159278	-178.333105	-73.159278	-178.333105	-0.047773	-37.523700
2.200000	-0.048917	-38.387086	-72.452098	-179.451749	-72.452098	-179.451749	-0.048886	-38.371152
2.250000	-0.050033	-39.233492	-71.768565	179.385991	-71.768565	179.385991	-0.050001	-39.217218
2.300000	-0.051152	-40.078491	-71.107094	178.185486	-71.107094	178.185486	-0.051119	-40.061879
2.350000	-0.052275	-40.922067	-70.466266	176.951285	-70.466266	176.951285	-0.052241	-40.905118
2.400000	-0.053401	-41.764203	-69.844797	175.687263	-69.844797	175.687263	-0.053367	-41.746917
2.450000	-0.054532	-42.604882	-69.241528	174.396743	-69.241528	174.396743	-0.054497	-42.587261
2.500000	-0.055668	-43.444088	-68.655404	173.082594	-68.655404	173.082594	-0.055632	-43.426132
2.550000	-0.056808	-44.281739	-68.084550	171.746483	-68.084550	171.746483	-0.056772	-44.263451
2.600000	-0.057955	-45.117886	-67.529101	170.391565	-67.529101	170.391565	-0.057918	-45.099267
2.650000	-0.059107	-45.952515	-66.988244	169.019707	-66.988244	169.019707	-0.059069	-45.933565
2.700000	-0.060265	-46.785610	-66.461233	167.632553	-66.461233	167.632553	-0.060227	-46.766331
2.750000	-0.061430	-47.617160	-65.947380	166.231559	-65.947380	166.231559	-0.061391	-47.597553
2.800000	-0.062602	-48.447151	-65.446052	164.818017	-65.446052	164.818017	-0.062562	-48.427218
2.850000	-0.063781	-49.275572	-64.956663	163.393079	-64.956663	163.393079	-0.063740	-49.255314
2.900000	-0.064968	-50.102412	-64.478670	161.957775	-64.478670	161.957775	-0.064926	-50.081829
2.950000	-0.066163	-50.927658	-64.011567	160.513031	-64.011567	160.513031	-0.066121	-50.906752
3.000000	-0.067367	-51.751301	-63.554886	159.059679	-63.554886	159.059679	-0.067323	-51.730074
3.050000	-0.068579	-52.573331	-63.108188	157.598471	-63.108188	157.598471	-0.068535	-52.551784
3.100000	-0.069800	-53.393738	-62.671065	156.130087	-62.671065	156.130087	-0.069755	-53.371872
3.150000	-0.071032	-54.212515	-62.243133	154.655144	-62.243133	154.655144	-0.070986	-54.190331
3.200000	-0.072273	-55.029652	-61.824034	153.174206	-61.824034	153.174206	-0.072226	-55.007152
3.250000	-0.073525	-55.845142	-61.413432	151.687786	-61.413432	151.687786	-0.073478	-55.822327
3.300000	-0.074788	-56.658978	-61.011009	150.196351	-61.011009	150.196351	-0.074740	-56.635849
3.350000	-0.076062	-57.471154	-60.616467	148.700333	-60.616467	148.700333	-0.076013	-57.447712
3.400000	-0.077348	-58.281663	-60.229525	147.200125	-60.229525	147.200125	-0.077298	-58.257909
3.450000	-0.078646	-59.090500	-59.849917	145.696093	-59.849917	145.696093	-0.078595	-59.066436
3.500000	-0.079957	-59.897660	-59.477393	144.188569	-59.477393	144.188569	-0.079905	-59.873287
3.550000	-0.081281	-60.703139	-59.111716	142.677865	-59.111716	142.677865	-0.081228	-60.678458
3.600000	-0.082618	-61.506933	-58.752659	141.164266	-58.752659	141.164266	-0.082565	-61.481945
3.650000	-0.083970	-62.309038	-58.400010	139.648039	-58.400010	139.648039	-0.083916	-62.283744
3.700000	-0.085336	-63.109452	-58.053565	138.129428	-58.053565	138.129428	-0.085281	-63.083854
3.750000	-0.086716	-63.908173	-57.713133	136.608665	-57.713133	136.608665	-0.086661	-63.882271
3.800000	-0.088113	-64.705125	-57.378225	135.085887	-57.378225	135.085887	-0.088057	-64.678920
3.850000	-0.089526	-65.500380	-57.048992	133.561385	-57.048992	133.561385	-0.089468	-65.473874
3.900000	-0.090955	-66.293938	-56.725269	132.035344	-56.725269	132.035344	-0.090897	-66.267131
3.950000	-0.092400	-67.085799	-56.406893	130.507936	-56.406893	130.507936	-0.092341	-67.058693
4.000000	-0.093863	-67.875963	-56.093712	128.979323	-56.093712	128.979323	-0.093803	-67.848559
4.050000	-0.095344	-68.664432	-55.785581	127.449656	-55.785581	127.449656	-0.095283	-68.636730
4.100000	-0.096842	-69.451206	-55.482358	125.919078	-55.482358	125.919078	-0.096781	-69.423208
4.150000	-0.098360	-70.236288	-55.183912	124.387721	-55.183912	124.387721	-0.098297	-70.207994
4.200000	-0.099903	-71.019094	-54.888284	122.855543	-54.888284	122.855543	-0.099840	-70.990505
4.250000	-0.101456	-71.801019	-54.599732	121.323066	-54.599732	121.323066	-0.101392	-71.772136
4.300000	-0.103034	-72.580897	-54.314478	119.790129	-54.314478	119.790129	-0.102969	-72.551721
4.350000	-0.104629	-73.359312	-54.034158	118.256864	-54.034158	118.256864	-0.104564	-73.329844
4.400000	-0.106247	-74.135982	-53.757815	116.723422	-53.757815	116.723422	-0.106180	-74.106222
4.450000	-0.107887	-74.910907	-53.485352	115.189805	-53.485352	115.189805	-0.107819	-74.880856
4.500000	-0.109545	-75.684387	-53.217447	113.656204	-53.217447	113.656204	-0.109477	-75.654046
4.550000	-0.111231	-76.455845	-52.952492	112.122625	-52.952492	112.122625	-0.111162	-76.425215
4.600000	-0.112933	-77.226157	-52.692591	110.589174	-52.692591	110.589174	-0.112863	-77.195238
4.650000	-0.114667	-77.994176	-52.434821	109.055981	-52.434821	109.055981	-0.114596	-77.962969
4.700000	-0.116413	-78.761344	-52.182521	107.522963	-52.182521	107.522963	-0.116342	-78.729849
4.750000	-0.118197	-79.525957	-51.931633	105.990469	-51.931633	105.990469	-0.118125	-79.494175
4.800000	-0.119990	-80.290008	-51.686564	104.458137	-51.686564	104.458137	-0.119917	-80.257940
4.850000	-0.121827	-81.051251	-51.442273	102.926623	-51.442273	102.926623	-0.121752	-81.018898
4.900000	-0.123668	-81.812217	-51.204093	101.395211	-51.204093	101.395211	-0.123593	-81.779578
4.950000	-0.125558	-82.570132	-50.966134	99.864930	-50.966134	99.864930	-0.125482	-82.537208
5.000000	-0.127449	-83.328046	-50.734521	98.334650	-50.734521	98.334650	-0.127372	-83.294838
5.050000	-0.129396	-84.082676	-50.502646	96.805833	-50.502646	96.805833	-0.129317	-84.049184
5.100000	-0.131343	-84.837306	-50.276800	95.277016	-50.276800	95.277016	-0.131264	-84.803531
5.150000	-0.133342	-85.588971	-50.051277	93.749732	-50.051277	93.749732	-0.133262	-85.554912
5.200000	-0.135348	-86.340366	-49.830984	92.222588	-49.830984	92.222588	-0.135267	-86.306024
5.250000	-0.137403	-87.089108	-49.611531	90.696996	-49.611531	90.696996	-0.137321	-87.054484
5.300000	-0.139468	-87.837321	-49.396588	89.171715	-49.396588	89.171715	-0.139385	-87.802413
5.350000	-0.141579	-88.583188	-49.182942	87.647961	-49.182942	87.647961	-0.141495	-88.547999
5.400000	-0.143707	-89.328274	-48.973158	86.124716	-48.973158	86.124716	-0.143622	-89.292803
5.450000	-0.145877	-90.071316	-48.765071	84.602935	-48.765071	84.602935	-0.145791	-90.035563
5.500000	-0.148068	-90.813336	-48.560266	83.081885	-48.560266	83.081885	-0.147981	-90.777301
5.550000	-0.150298	-91.553605	-48.357508	81.562200	-48.357508	81.562200	-0.150209	-91.517288
5.600000	-0.152555	-92.292623	-48.157510	80.043491	-48.157510	80.043491	-0.152466	-92.256024
5.650000	-0.154846	-93.030174	-47.959863	78.526018	-47.959863	78.526018	-0.154756	-92.993293
5.700000	-0.157172	-93.766258	-47.764512	77.009782	-47.764512	77.009782	-0.157080	-93.729095
5.750000	-0.159526	-94.501148	-47.571773	75.494627	-47.571773	75.494627	-0.159433	-94.463704
5.800000	-0.161921	-95.234369	-47.380914	73.980986	-47.380914	73.980986	-0.161827	-95.196642
5.850000	-0.164340	-95.966659	-47.192893	72.468248	-47.192893	72.468248	-0.164244	-95.928651
5.900000	-0.166806	-96.697091	-47.006379	70.957315	-47.006379	70.957315	-0.166710	-96.658800
5.950000	-0.169291	-97.426845	-46.822896	69.447085	-46.822896	69.447085	-0.169194	-97.388271
6.000000	-0.171831	-98.154565	-46.640590	67.938963	-46.640590	67.938963	-0.171732	-98.115708
6.050000	-0.174384	-98.881848	-46.461474	66.431326	-46.461474	66.431326	-0.174284	-98.842708
6.100000	-0.177000	-99.606939	-46.283244	64.926109	-46.283244	64.926109	-0.176898	-99.567515
6.150000	-0.179622	-100.331818	-46.108336	63.421142	-46.108336	63.421142	-0.179519	-100.292110
6.200000	-0.182315	-101.054364	-45.934056	61.918918	-45.934056	61.918918	-0.182210	-101.014371
6.250000	-0.185008	-101.776910	-45.763204	60.416693	-45.763204	60.416693	-0.184902	-101.736633
6.300000	-0.187779	-102.496999	-45.592755	58.917541	-45.592755	58.917541	-0.187672	-102.456436
6.350000	-0.190552	-103.217088	-45.425587	57.418388	-45.425587	57.418388	-0.190443	-103.176239
6.400000	-0.193397	-103.935008	-45.259085	55.922118	-45.259085	55.922118	-0.193288	-103.893871
6.450000	-0.196250	-104.652730	-45.095493	54.426109	-45.095493	54.426109	-0.196139	-104.611307
6.500000	-0.199172	-105.368560	-44.932802	52.932776	-44.932802	52.932776	-0.199059	-105.326848
6.550000	-0.202107	-106.084010	-44.772685	51.439978	-44.772685	51.439978	-0.201994	-106.042009
6.600000	-0.205106	-106.797830	-44.613673	49.949633	-44.613673	49.949633	-0.204991	-106.755539
6.650000	-0.208126	-107.511106	-44.456934	48.460105	-44.456934	48.460105	-0.208009	-107.468524
6.700000	-0.211203	-108.222998	-44.301480	46.972793	-44.301480	46.972793	-0.211085	-108.180125
6.750000	-0.214310	-108.934200	-44.148025	45.486590	-44.148025	45.486590	-0.214190	-108.891033
6.800000	-0.217467	-109.644251	-43.996011	44.002353	-43.996011	44.002353	-0.217346	-109.600791
6.850000	-0.220661	-110.353481	-43.845753	42.519522	-43.845753	42.519522	-0.220538	-110.309726
6.900000	-0.223900	-111.061779	-43.697068	41.038399	-43.697068	41.038399	-0.223776	-111.017727
6.950000	-0.227184	-111.769144	-43.549921	39.558983	-43.549921	39.558983	-0.227058	-111.724795
7.000000	-0.230506	-112.475777	-43.404461	38.081005	-43.404461	38.081005	-0.230378	-112.431130
7.050000	-0.233881	-113.181387	-43.260344	36.605042	-43.260344	36.605042	-0.233752	-113.136439
7.100000	-0.237287	-113.886449	-43.118009	35.130240	-43.118009	35.130240	-0.237156	-113.841199
7.150000	-0.240755	-114.590415	-42.976844	33.657761	-42.976844	33.657761	-0.240623	-114.544862
7.200000	-0.244247	-115.293999	-42.837539	32.186161	-42.837539	32.186161	-0.244114	-115.248142
7.250000	-0.247810	-115.996437	-42.699253	30.717194	-42.699253	30.717194	-0.247675	-115.950273
7.300000	-0.251390	-116.698640	-42.562886	29.248817	-42.562886	29.248817	-0.251253	-116.652169
7.350000	-0.255049	-117.399668	-42.427408	27.783384	-42.427408	27.783384	-0.254910	-117.352887
7.400000	-0.258717	-118.100589	-42.293896	26.318248	-42.293896	26.318248	-0.258576	-118.053497
7.450000	-0.262474	-118.800329	-42.161158	24.856368	-42.161158	24.856368	-0.262332	-118.752922
7.500000	-0.266232	-119.500068	-42.030418	23.394487	-42.030418	23.394487	-0.266088	-119.452348
7.550000	-0.270088	-120.198643	-41.900355	21.936171	-41.900355	21.936171	-0.269943	-120.150604
7.600000	-0.273946	-120.897218	-41.772211	20.477855	-41.772211	20.477855	-0.273799	-120.848860
7.650000	-0.277895	-121.594842	-41.644861	19.022813	-41.644861	19.022813	-0.277746	-121.546161
7.700000	-0.281854	-122.292379	-41.519255	17.568070	-41.519255	17.568070	-0.281704	-122.243376
7.750000	-0.285898	-122.989160	-41.394543	16.116307	-41.394543	16.116307	-0.285745	-122.939830
7.800000	-0.289960	-123.685790	-41.271420	14.665139	-41.271420	14.665139	-0.289805	-123.636131
7.850000	-0.294098	-124.381840	-41.149276	13.216654	-41.149276	13.216654	-0.293942	-124.331849
7.900000	-0.298264	-125.077696	-41.028582	11.769062	-41.028582	11.769062	-0.298106	-125.027371
7.950000	-0.302500	-125.773126	-40.908939	10.323851	-40.908939	10.323851	-0.302340	-125.722464
8.000000	-0.306771	-126.468344	-40.790624	8.879831	-40.790624	8.879831	-0.306610	-126.417343
8.050000	-0.311105	-127.163271	-40.673420	7.437888	-40.673420	7.437888	-0.310942	-127.111927
8.100000	-0.315484	-127.857990	-40.557437	5.997430	-40.557437	5.997430	-0.315318	-127.806301
8.150000	-0.319917	-128.552530	-40.442610	4.558747	-40.442610	4.558747	-0.319749	-128.500493
8.200000	-0.324404	-129.246893	-40.328913	3.121839	-40.328913	3.121839	-0.324235	-129.194505
8.250000	-0.328937	-129.941168	-40.216407	1.686403	-40.216407	1.686403	-0.328766	-129.888425
8.300000	-0.333534	-130.635320	-40.104954	0.253028	-40.104954	0.253028	-0.333361	-130.582219
8.350000	-0.338169	-131.329452	-39.994715	-1.179175	-39.994715	-1.179175	-0.337994	-131.275989
8.400000	-0.342877	-132.023542	-39.885466	-2.609034	-39.885466	-2.609034	-0.342700	-131.969714
8.450000	-0.347615	-132.717655	-39.777443	-4.038021	-39.777443	-4.038021	-0.347436	-132.663459
8.500000	-0.352436	-133.411836	-39.670359	-5.464388	-39.670359	-5.464388	-0.352255	-133.357266
8.550000	-0.357277	-134.106058	-39.564504	-6.890178	-39.564504	-6.890178	-0.357094	-134.051113
8.600000	-0.362212	-134.800484	-39.459551	-8.313077	-39.459551	-8.313077	-0.362026	-134.745158
8.650000	-0.367158	-135.494945	-39.355819	-9.735690	-39.355819	-9.735690	-0.366971	-135.439235
8.700000	-0.372208	-136.189777	-39.252964	-11.155149	-39.252964	-11.155149	-0.372018	-136.133677
8.750000	-0.377260	-136.884609	-39.151312	-12.574608	-39.151312	-12.574608	-0.377068	-136.828118
8.800000	-0.382426	-137.580008	-39.050523	-13.990656	-39.050523	-13.990656	-0.382231	-137.523118
8.850000	-0.387594	-138.275408	-38.950891	-15.406703	-38.950891	-15.406703	-0.387397	-138.218118
8.900000	-0.392867	-138.971481	-38.852162	-16.819651	-38.852162	-16.819651	-0.392668	-138.913781
8.950000	-0.398153	-139.667614	-38.754523	-18.232318	-38.754523	-18.232318	-0.397952	-139.609505
9.000000	-0.403535	-140.364501	-38.657817	-19.642193	-38.657817	-19.642193	-0.403331	-140.305973
9.050000	-0.408939	-141.061538	-38.562146	-21.051510	-38.562146	-21.051510	-0.408733	-141.002591
9.100000	-0.414431	-141.759384	-38.467429	-22.458339	-38.467429	-22.458339	-0.414222	-141.700008
9.150000	-0.419954	-142.457499	-38.373704	-23.864339	-38.373704	-23.864339	-0.419742	-142.397693
9.200000	-0.425556	-143.156451	-38.280944	-25.268148	-38.280944	-25.268148	-0.425342	-143.096206
9.250000	-0.431199	-143.855821	-38.189147	-26.670863	-38.189147	-26.670863	-0.430982	-143.795134
9.300000	-0.436912	-144.556030	-38.098314	-28.071678	-38.098314	-28.071678	-0.436692	-144.494893
9.350000	-0.442677	-145.256837	-38.008426	-29.471139	-38.008426	-29.471139	-0.442453	-145.195246
9.400000	-0.448501	-145.958456	-37.919495	-30.868987	-37.919495	-30.868987	-0.448275	-145.896404
9.450000	-0.454387	-146.660887	-37.831500	-32.265223	-37.831500	-32.265223	-0.454157	-146.598367
9.500000	-0.460324	-147.364072	-37.744445	-33.660128	-37.744445	-33.660128	-0.460091	-147.301080
9.550000	-0.466331	-148.068316	-37.658331	-35.053168	-37.658331	-35.053168	-0.466095	-148.004843
9.600000	-0.472381	-148.773228	-37.573129	-36.445152	-37.573129	-36.445152	-0.472141	-148.709270
9.650000	-0.478511	-149.479480	-37.488886	-37.835023	-37.488886	-37.835023	-0.478268	-149.415027
9.700000	-0.484673	-150.186282	-37.405517	-39.224107	-37.405517	-39.224107	-0.484427	-150.121331
9.750000	-0.490926	-150.894740	-37.323134	-40.610830	-37.323134	-40.610830	-0.490676	-150.829280
9.800000	-0.497202	-151.603600	-37.241580	-41.997032	-37.241580	-41.997032	-0.496948	-151.537627
9.850000	-0.503578	-152.314468	-37.161052	-43.380627	-37.161052	-43.380627	-0.503320	-152.247971
9.900000	-0.509968	-153.025555	-37.081296	-44.763962	-37.081296	-44.763962	-0.509705	-152.958531
9.950000	-0.516467	-153.739043	-37.002618	-46.144442	-37.002618	-46.144442	-0.516200	-153.671477
10.000000	-0.522970	-154.452530	-36.924646	-47.524922	-36.924646	-47.524922	-0.522699	-154.384423
