! freq	dB(S11)	phase(S11)	dB(S12)	phase(S12)	
!     	dB(S21)	phase(S21)	dB(S22)	phase(S22)	
!S-par simulation data
#  GHz  S  DB  R 50
0.000000	-86.394522	0.000000	-0.000416	0.000000	-0.000416	0.000000	-86.394522	0.000000
0.050000	-38.513335	-92.119919	-0.018058	-2.571960	-0.018058	-2.571960	-38.576982	-92.797565
0.100000	-32.490783	-94.569705	-0.028195	-5.021564	-0.028195	-5.021564	-32.541398	-95.884373
0.150000	-28.967905	-96.912581	-0.034144	-7.476165	-0.034144	-7.476165	-29.004152	-98.811318
0.200000	-26.471089	-99.203787	-0.040020	-9.936638	-0.040020	-9.936638	-26.495508	-101.650703
0.250000	-24.539405	-101.458426	-0.046767	-12.399052	-0.046767	-12.399052	-24.555550	-104.438367
0.300000	-22.967687	-103.685930	-0.054641	-14.861108	-0.054641	-14.861108	-22.978577	-107.197703
0.350000	-21.646428	-105.893060	-0.063719	-17.321379	-0.063719	-17.321379	-21.654181	-109.942578
0.400000	-20.509937	-108.084720	-0.073999	-19.778899	-0.073999	-19.778899	-20.515892	-112.680699
0.450000	-19.515662	-110.263941	-0.085451	-22.232944	-0.085451	-22.232944	-19.520622	-115.415917
0.500000	-18.634452	-112.432433	-0.098035	-24.682922	-0.098035	-24.682922	-18.638877	-118.150057
0.550000	-17.845436	-114.591035	-0.111700	-27.128337	-0.111700	-27.128337	-17.849578	-120.883904
0.600000	-17.133150	-116.740016	-0.126387	-29.568762	-0.126387	-29.568762	-17.137144	-123.617722
0.650000	-16.485879	-118.879239	-0.142041	-32.003801	-0.142041	-32.003801	-16.489787	-126.351530
0.700000	-15.894437	-121.008397	-0.158592	-34.433135	-0.158592	-34.433135	-15.898285	-129.085258
0.750000	-15.351459	-123.127123	-0.175967	-36.856528	-0.175967	-36.856528	-15.355252	-131.818824
0.800000	-14.851038	-125.234940	-0.194093	-39.273764	-0.194093	-39.273764	-14.854773	-134.552175
0.850000	-14.388328	-127.331346	-0.212896	-41.684669	-0.212896	-41.684669	-14.391998	-137.285308
0.900000	-13.959299	-129.415842	-0.232303	-44.089113	-0.232303	-44.089113	-13.962900	-140.018280
0.950000	-13.560588	-131.487908	-0.252238	-46.486990	-0.252238	-46.486990	-13.564116	-142.751211
1.000000	-13.189366	-133.547006	-0.272629	-48.878215	-0.272629	-48.878215	-13.192824	-145.484289
1.050000	-12.843073	-135.592803	-0.293395	-51.262835	-0.293395	-51.262835	-12.846467	-148.217763
1.100000	-12.519570	-137.624895	-0.314464	-53.640881	-0.314464	-53.640881	-12.522909	-150.951943
1.150000	-12.216991	-139.642906	-0.335762	-56.012418	-0.335762	-56.012418	-12.220290	-153.687198
1.200000	-11.933698	-141.646491	-0.357220	-58.377549	-0.357220	-58.377549	-11.936974	-156.423951
1.250000	-11.668241	-143.635328	-0.378768	-60.736408	-0.378768	-60.736408	-11.671517	-159.162681
1.300000	-11.419430	-145.608956	-0.400339	-63.089096	-0.400339	-63.089096	-11.422729	-161.903950
1.350000	-11.186014	-147.567264	-0.421869	-65.435876	-0.421869	-65.435876	-11.189364	-164.648318
1.400000	-10.966959	-149.510001	-0.443298	-67.776971	-0.443298	-67.776971	-10.970389	-167.396407
1.450000	-10.761333	-151.436933	-0.464568	-70.112627	-0.464568	-70.112627	-10.764873	-170.148886
1.500000	-10.568500	-153.347401	-0.485618	-72.442981	-0.485618	-72.442981	-10.572186	-172.906618
1.550000	-10.387302	-155.241985	-0.506411	-74.768574	-0.506411	-74.768574	-10.391168	-175.670093
1.600000	-10.217210	-157.120143	-0.526894	-77.089602	-0.526894	-77.089602	-10.221291	-178.440199
1.650000	-10.057576	-158.981687	-0.547025	-79.406391	-0.547025	-79.406391	-10.061911	178.782251
1.700000	-9.907681	-160.826745	-0.566774	-81.719343	-0.566774	-81.719343	-9.912306	175.996585
1.750000	-9.767588	-162.653594	-0.586062	-84.028508	-0.586062	-84.028508	-9.772547	173.201062
1.800000	-9.635804	-164.464536	-0.604929	-86.334729	-0.604929	-86.334729	-9.641136	170.396200
1.850000	-9.512620	-166.257403	-0.623290	-88.638025	-0.623290	-88.638025	-9.518368	167.579879
1.900000	-9.397216	-168.033030	-0.641153	-90.938929	-0.641153	-90.938929	-9.403424	164.751824
1.950000	-9.289067	-169.791589	-0.658511	-93.237850	-0.658511	-93.237850	-9.295777	161.911366
2.000000	-9.188179	-171.531708	-0.675312	-95.535043	-0.675312	-95.535043	-9.195439	159.056665
2.050000	-9.093973	-173.253807	-0.691563	-97.830963	-0.691563	-97.830963	-9.101832	156.187188
2.100000	-9.006118	-174.957617	-0.707256	-100.125994	-0.707256	-100.125994	-9.014626	153.301883
2.150000	-8.924295	-176.642866	-0.722385	-102.420525	-0.722385	-102.420525	-8.933504	150.399682
2.200000	-8.848126	-178.309549	-0.736957	-104.714944	-0.736957	-104.714944	-8.858089	147.479772
2.250000	-8.777405	-179.957027	-0.750964	-107.009638	-0.750964	-107.009638	-8.788180	144.540727
2.300000	-8.711624	178.414063	-0.764439	-109.304965	-0.764439	-109.304965	-8.723266	141.582411
2.350000	-8.650603	176.804345	-0.777381	-111.601282	-0.777381	-111.601282	-8.663172	138.603466
2.400000	-8.593895	175.213247	-0.789826	-113.898893	-0.789826	-113.898893	-8.607450	135.603806
2.450000	-8.541594	173.642798	-0.801742	-116.198285	-0.801742	-116.198285	-8.556204	132.580435
2.500000	-8.492853	172.090129	-0.813229	-118.499493	-0.813229	-118.499493	-8.508576	129.536048
2.550000	-8.448128	170.559549	-0.824211	-120.803303	-0.824211	-120.803303	-8.465040	126.464812
2.600000	-8.406447	169.046972	-0.834813	-123.109499	-0.834813	-123.109499	-8.424610	123.371125
2.650000	-8.368009	167.555551	-0.845000	-125.418784	-0.845000	-125.418784	-8.387497	120.250442
2.700000	-8.332272	166.083415	-0.854843	-127.731136	-0.854843	-127.731136	-8.353153	117.104612
2.750000	-8.299064	164.631352	-0.864363	-130.046930	-0.864363	-130.046930	-8.321410	113.932069
2.800000	-8.268157	163.199724	-0.873594	-132.366466	-0.873594	-132.366466	-8.292041	110.731818
2.850000	-8.239125	161.786922	-0.882595	-134.689666	-0.882595	-134.689666	-8.264614	107.505581
2.900000	-8.211927	160.395493	-0.891378	-137.017260	-0.891378	-137.017260	-8.239097	104.249337
2.950000	-8.186034	159.021834	-0.900019	-139.348700	-0.900019	-139.348700	-8.214947	100.967739
3.000000	-8.161399	157.669433	-0.908536	-141.684971	-0.908536	-141.684971	-8.192130	97.655326
3.050000	-8.137579	156.334621	-0.916994	-144.025431	-0.916994	-144.025431	-8.170186	94.317016
3.100000	-8.114382	155.019160	-0.925433	-146.370714	-0.925433	-146.370714	-8.148929	90.949779
3.150000	-8.091508	153.721479	-0.933902	-148.720633	-0.933902	-148.720633	-8.128054	87.555546
3.200000	-8.068697	152.440663	-0.942447	-151.075155	-0.942447	-151.075155	-8.107293	84.135299
3.250000	-8.045676	151.177186	-0.951123	-153.434641	-0.951123	-153.434641	-8.086375	80.687856
3.300000	-8.022182	149.929651	-0.959978	-155.798942	-0.959978	-155.798942	-8.065029	77.214920
3.350000	-7.997924	148.697628	-0.969070	-158.168209	-0.969070	-158.168209	-8.042961	73.716646
3.400000	-7.972699	147.479250	-0.978434	-160.542134	-0.978434	-160.542134	-8.019962	70.195541
3.450000	-7.946252	146.273737	-0.988125	-162.920770	-0.988125	-162.920770	-7.995772	66.652320
3.500000	-7.918354	145.079853	-0.998191	-165.304034	-0.998191	-165.304034	-7.970158	63.088424
3.550000	-7.888790	143.896263	-1.008678	-167.691822	-1.008678	-167.691822	-7.942903	59.505450
3.600000	-7.857363	142.721528	-1.019633	-170.084007	-1.019633	-170.084007	-7.913801	55.905146
3.650000	-7.823888	141.554119	-1.031098	-172.480438	-1.031098	-172.480438	-7.882669	52.289399
3.700000	-7.788202	140.392426	-1.043118	-174.880945	-1.043118	-174.880945	-7.849338	48.660227
3.750000	-7.750160	139.234762	-1.055733	-177.285337	-1.055733	-177.285337	-7.813664	45.019765
3.800000	-7.709582	138.079390	-1.068995	-179.693478	-1.068995	-179.693478	-7.775464	41.370106
3.850000	-7.666422	136.924426	-1.082928	177.894950	-1.082928	177.894950	-7.734692	37.713822
3.900000	-7.620608	135.768045	-1.097567	175.480196	-1.097567	175.480196	-7.691277	34.053306
3.950000	-7.572091	134.608407	-1.112941	173.062524	-1.112941	173.062524	-7.645170	30.390990
4.000000	-7.520846	133.443676	-1.129080	170.642215	-1.129080	170.642215	-7.596349	26.729335
4.050000	-7.466874	132.272033	-1.146008	168.219565	-1.146008	168.219565	-7.544818	23.070801
4.100000	-7.410200	131.091699	-1.163747	165.794881	-1.163747	165.794881	-7.490605	19.417833
4.150000	-7.350873	129.900947	-1.182317	163.368482	-1.182317	163.368482	-7.433762	15.772837
4.200000	-7.288964	128.698119	-1.201733	160.940694	-1.201733	160.940694	-7.374364	12.138162
4.250000	-7.224565	127.481639	-1.222007	158.511855	-1.222007	158.511855	-7.312510	8.516080
4.300000	-7.157789	126.250032	-1.243148	156.082305	-1.243148	156.082305	-7.248316	4.908770
4.350000	-7.088767	125.001929	-1.265161	153.652392	-1.265161	153.652392	-7.181915	1.318306
4.400000	-7.017615	123.735873	-1.288055	151.222470	-1.288055	151.222470	-7.113433	-2.253135
4.450000	-6.944499	122.450708	-1.311830	148.792901	-1.311830	148.792901	-7.043038	-5.803674
4.500000	-6.869620	121.145643	-1.336470	146.364037	-1.336470	146.364037	-6.970933	-9.331845
4.550000	-6.793157	119.819834	-1.361966	143.936227	-1.361966	143.936227	-6.897304	-12.836122
4.600000	-6.715298	118.472571	-1.388305	141.509814	-1.388305	141.509814	-6.822339	-16.315132
4.650000	-6.636235	117.103284	-1.415471	139.085140	-1.415471	139.085140	-6.746235	-19.767651
4.700000	-6.556161	115.711535	-1.443445	136.662537	-1.443445	136.662537	-6.669188	-23.192609
4.750000	-6.475271	114.297021	-1.472204	134.242330	-1.472204	134.242330	-6.591395	-26.589089
4.800000	-6.393759	112.859565	-1.501722	131.824836	-1.501722	131.824836	-6.513050	-29.956319
4.850000	-6.311812	111.399109	-1.531972	129.410358	-1.531972	129.410358	-6.434345	-33.293671
4.900000	-6.229618	109.915710	-1.562921	126.999192	-1.562921	126.999192	-6.355467	-36.600659
4.950000	-6.147356	108.409533	-1.594536	124.591616	-1.594536	124.591616	-6.276597	-39.876924
5.000000	-6.065197	106.880838	-1.626780	122.187898	-1.626780	122.187898	-6.197909	-43.122238
5.050000	-5.983300	105.329504	-1.659624	119.788383	-1.659624	119.788383	-6.119564	-46.335813
5.100000	-5.901834	103.756458	-1.693016	117.393223	-1.693016	117.393223	-6.041732	-49.518328
5.150000	-5.820948	102.162208	-1.726912	115.002636	-1.726912	115.002636	-5.964560	-52.669894
5.200000	-5.740777	100.547325	-1.761268	112.616824	-1.761268	112.616824	-5.888187	-55.790715
5.250000	-5.661450	98.912433	-1.796038	110.235972	-1.796038	110.235972	-5.812744	-58.881083
5.300000	-5.583084	97.258204	-1.831175	107.860246	-1.831175	107.860246	-5.738348	-61.941373
5.350000	-5.505789	95.585349	-1.866629	105.489794	-1.866629	105.489794	-5.665111	-64.972030
5.400000	-5.429662	93.894611	-1.902351	103.124748	-1.902351	103.124748	-5.593133	-67.973569
5.450000	-5.354794	92.186756	-1.938291	100.765218	-1.938291	100.765218	-5.522506	-70.946563
5.500000	-5.281265	90.462573	-1.974397	98.411300	-1.974397	98.411300	-5.453313	-73.891643
5.550000	-5.209147	88.722861	-2.010618	96.063068	-2.010618	96.063068	-5.385629	-76.809486
5.600000	-5.138505	86.968431	-2.046902	93.720580	-2.046902	93.720580	-5.319520	-79.700816
5.650000	-5.069406	85.199956	-2.083193	91.383938	-2.083193	91.383938	-5.255058	-82.566125
5.700000	-5.001902	83.418278	-2.119440	89.053163	-2.119440	89.053163	-5.192296	-85.406238
5.750000	-4.936024	81.624359	-2.155590	86.728197	-2.155590	86.728197	-5.131267	-88.222269
5.800000	-4.871809	79.819007	-2.191593	84.409023	-2.191593	84.409023	-5.072009	-91.015075
5.850000	-4.809286	78.003017	-2.227396	82.095611	-2.227396	82.095611	-5.014554	-93.785542
5.900000	-4.748482	76.177177	-2.262950	79.787915	-2.262950	79.787915	-4.958929	-96.534576
5.950000	-4.689416	74.342261	-2.298203	77.485869	-2.298203	77.485869	-4.905155	-99.263102
6.000000	-4.632105	72.499031	-2.333106	75.189394	-2.333106	75.189394	-4.853250	-101.972063
6.050000	-4.576562	70.648234	-2.367611	72.898398	-2.367611	72.898398	-4.803228	-104.662419
6.100000	-4.522796	68.790601	-2.401669	70.612770	-2.401669	70.612770	-4.755098	-107.335143
6.150000	-4.470814	66.926849	-2.435234	68.332388	-2.435234	68.332388	-4.708867	-109.991220
6.200000	-4.420621	65.057676	-2.468259	66.057114	-2.468259	66.057114	-4.664538	-112.631646
6.250000	-4.372219	63.183767	-2.500700	63.786798	-2.500700	63.786798	-4.622111	-115.257431
6.300000	-4.325641	61.305718	-2.532495	61.521378	-2.532495	61.521378	-4.581624	-117.869318
6.350000	-4.280853	59.424281	-2.563618	59.260569	-2.563618	59.260569	-4.543035	-120.468653
6.400000	-4.237853	57.540094	-2.594027	57.004182	-2.594027	57.004182	-4.506341	-123.056474
6.450000	-4.196639	55.653778	-2.623682	54.752017	-2.623682	54.752017	-4.471533	-125.633824
6.500000	-4.157205	53.765940	-2.652543	52.503862	-2.652543	52.503862	-4.438605	-128.201756
6.550000	-4.119548	51.877173	-2.680575	50.259496	-2.680575	50.259496	-4.407547	-130.761332
6.600000	-4.083662	49.988057	-2.707739	48.018685	-2.707739	48.018685	-4.378351	-133.313621
6.650000	-4.049543	48.099163	-2.734002	45.781186	-2.734002	45.781186	-4.351007	-135.859700
6.700000	-4.017157	46.211020	-2.759349	43.546695	-2.759349	43.546695	-4.325472	-138.400725
6.750000	-3.986647	44.324322	-2.783652	41.315190	-2.783652	41.315190	-4.301896	-140.937483
6.800000	-3.957770	42.439363	-2.807033	39.086018	-2.807033	39.086018	-4.280012	-143.471557
6.850000	-3.930714	40.556911	-2.829339	36.859176	-2.829339	36.859176	-4.260014	-146.003777
6.900000	-3.905378	38.677336	-2.850605	34.634249	-2.850605	34.634249	-4.241791	-148.535347
6.950000	-3.881759	36.801147	-2.870806	32.410938	-2.870806	32.410938	-4.225331	-151.067401
7.000000	-3.859950	34.929069	-2.889848	30.189018	-2.889848	30.189018	-4.210727	-153.601155
7.050000	-3.839754	33.061108	-2.907845	27.968040	-2.907845	27.968040	-4.197766	-156.137499
7.100000	-3.821461	31.198589	-2.924567	25.747814	-2.924567	25.747814	-4.186744	-158.678228
7.150000	-3.804743	29.341011	-2.940226	23.527901	-2.940226	23.527901	-4.177314	-161.223667
7.200000	-3.789893	27.489850	-2.954592	21.307985	-2.954592	21.307985	-4.169772	-163.776025
7.250000	-3.776679	25.644765	-2.967812	19.087733	-2.967812	19.087733	-4.163875	-166.335595
7.300000	-3.765231	23.806752	-2.979774	16.866744	-2.979774	16.866744	-4.159749	-168.904239
7.350000	-3.755516	21.976157	-2.990490	14.644664	-2.990490	14.644664	-4.157355	-171.483032
7.400000	-3.747467	20.153169	-2.999994	12.421168	-2.999994	12.421168	-4.156621	-174.072824
7.450000	-3.741248	18.339058	-3.008152	10.195702	-3.008152	10.195702	-4.157706	-176.676081
7.500000	-3.736593	16.532972	-3.015154	7.968199	-3.015154	7.968199	-4.160340	-179.292022
7.550000	-3.733866	14.737347	-3.020717	5.737720	-3.020717	5.737720	-4.164881	178.074857
7.600000	-3.732700	12.950654	-3.025111	3.504445	-3.025111	3.504445	-4.170963	175.426560
7.650000	-3.733359	11.174935	-3.028131	1.267459	-3.028131	1.267459	-4.178840	172.759054
7.700000	-3.735675	9.409672	-3.029901	-0.973314	-3.029901	-0.973314	-4.188346	170.072742
7.750000	-3.739711	7.655793	-3.030371	-3.218465	-3.030371	-3.218465	-4.199540	167.365429
7.800000	-3.745496	5.914034	-3.029519	-5.468528	-3.029519	-5.468528	-4.212447	164.635249
7.850000	-3.752895	4.183972	-3.027449	-7.723560	-3.027449	-7.723560	-4.226932	161.882529
7.900000	-3.762131	2.467846	-3.023994	-9.984765	-3.023994	-9.984765	-4.243209	159.102426
7.950000	-3.772903	0.763900	-3.019387	-12.251571	-3.019387	-12.251571	-4.260986	156.297957
8.000000	-3.785527	-0.924668	-3.013397	-14.525693	-3.013397	-14.525693	-4.280562	153.462212
8.050000	-3.799702	-2.599769	-3.006257	-16.806418	-3.006257	-16.806418	-4.301647	150.598654
8.100000	-3.815608	-4.259131	-2.997843	-19.095068	-2.997843	-19.095068	-4.324408	147.702137
8.150000	-3.833136	-5.903068	-2.988251	-21.391671	-2.988251	-21.391671	-4.348736	144.772905
8.200000	-3.852268	-7.530991	-2.977507	-23.696705	-2.977507	-23.696705	-4.374610	141.809313
8.250000	-3.873076	-9.141337	-2.965577	-26.011166	-2.965577	-26.011166	-4.402091	138.807605
8.300000	-3.895358	-10.735485	-2.952628	-28.334452	-2.952628	-28.334452	-4.430983	135.770440
8.350000	-3.919348	-12.309693	-2.938516	-30.668755	-2.938516	-30.668755	-4.461495	132.689247
8.400000	-3.944730	-13.866862	-2.923494	-33.012586	-2.923494	-33.012586	-4.493324	129.570142
8.450000	-3.971717	-15.403002	-2.907448	-35.368292	-2.907448	-35.368292	-4.526654	126.403945
8.500000	-4.000079	-16.920093	-2.890572	-37.734850	-2.890572	-37.734850	-4.561262	123.194844
8.550000	-4.029873	-18.415853	-2.872875	-40.113653	-2.872875	-40.113653	-4.597185	119.937477
8.600000	-4.061019	-19.889967	-2.854460	-42.504969	-2.854460	-42.504969	-4.634334	116.630943
8.650000	-4.093411	-21.342546	-2.835452	-44.908828	-2.835452	-44.908828	-4.672598	113.275345
8.700000	-4.127086	-22.770634	-2.815904	-47.327070	-2.815904	-47.327070	-4.711987	109.863827
8.750000	-4.161806	-24.177096	-2.796009	-49.758136	-2.796009	-49.758136	-4.752283	106.402860
8.800000	-4.197638	-25.557319	-2.775836	-52.204947	-2.775836	-52.204947	-4.793512	102.881846
8.850000	-4.234413	-26.912112	-2.755554	-54.667261	-2.755554	-54.667261	-4.835513	99.302622
8.900000	-4.272017	-28.240666	-2.735310	-57.145860	-2.735310	-57.145860	-4.878171	95.663350
8.950000	-4.310322	-29.542170	-2.715250	-59.641592	-2.715250	-59.641592	-4.921362	91.962206
9.000000	-4.349183	-30.815815	-2.695520	-62.155360	-2.695520	-62.155360	-4.964956	88.197386
9.050000	-4.388441	-32.060804	-2.676259	-64.688094	-2.676259	-64.688094	-5.008815	84.367111
9.100000	-4.427916	-33.276360	-2.657599	-67.240719	-2.657599	-67.240719	-5.052795	80.469631
9.150000	-4.467410	-34.461741	-2.639662	-69.814111	-2.639662	-69.814111	-5.096748	76.503234
9.200000	-4.506695	-35.615946	-2.622573	-72.409272	-2.622573	-72.409272	-5.140520	72.465550
9.250000	-4.545525	-36.738484	-2.606443	-75.026770	-2.606443	-75.026770	-5.183962	68.355268
9.300000	-4.583634	-37.828963	-2.591382	-77.667008	-2.591382	-77.667008	-5.226931	64.171164
9.350000	-4.620727	-38.886957	-2.577512	-80.330333	-2.577512	-80.330333	-5.269293	59.911730
9.400000	-4.656488	-39.912173	-2.564967	-83.016939	-2.564967	-83.016939	-5.310925	55.575522
9.450000	-4.690572	-40.904493	-2.553893	-85.726873	-2.553893	-85.726873	-5.351722	51.161164
9.500000	-4.722610	-41.863999	-2.544454	-88.460052	-2.544454	-88.460052	-5.391606	46.667345
9.550000	-4.752210	-42.791017	-2.536832	-91.216278	-2.536832	-91.216278	-5.430529	42.092828
9.600000	-4.778945	-43.686002	-2.531232	-93.995358	-2.531232	-93.995358	-5.468478	37.436044
9.650000	-4.802360	-44.549756	-2.527878	-96.796995	-2.527878	-96.796995	-5.505492	32.695476
9.700000	-4.822044	-45.383897	-2.526973	-99.620479	-2.526973	-99.620479	-5.541682	27.870895
9.750000	-4.837551	-46.190134	-2.528745	-102.465228	-2.528745	-102.465228	-5.577221	22.961355
9.800000	-4.848441	-46.970612	-2.533428	-105.330564	-2.533428	-105.330564	-5.612360	17.965986
9.850000	-4.854289	-47.727940	-2.541258	-108.215714	-2.541258	-108.215714	-5.647440	12.884001
9.900000	-4.854696	-48.465206	-2.552473	-111.119799	-2.552473	-111.119799	-5.682906	7.714708
9.950000	-4.849300	-49.185977	-2.567306	-114.041832	-2.567306	-114.041832	-5.719317	2.457522
10.000000	-4.837796	-49.894286	-2.585987	-116.980712	-2.585987	-116.980712	-5.757359	-2.888002
