! freq	dB(S11)	phase(S11)	dB(S12)	phase(S12)	
!     	dB(S21)	phase(S21)	dB(S22)	phase(S22)	
!S-par simulation data
#  GHz  S  DB  R 50
0.000000	-84.010159	0.000000	-0.000547	0.000000	-0.000547	0.000000	-84.010159	0.000000
0.050000	-41.634304	-92.267006	-0.001170	-2.594205	-0.001170	-2.594205	-41.782955	-92.038423
0.100000	-35.621664	-95.189798	-0.003024	-5.187457	-0.003024	-5.187457	-35.767434	-94.746231
0.150000	-32.112691	-97.965825	-0.006057	-7.778877	-0.006057	-7.778877	-32.253854	-97.308883
0.200000	-29.631804	-100.703474	-0.010207	-10.367669	-0.010207	-10.367669	-29.766843	-99.838270
0.250000	-27.716510	-103.424325	-0.015390	-12.953161	-0.015390	-12.953161	-27.844180	-102.357504
0.300000	-26.160775	-106.135238	-0.021509	-15.534822	-0.021509	-15.534822	-26.280128	-104.874226
0.350000	-24.855235	-108.838700	-0.028490	-18.112096	-0.028490	-18.112096	-24.965514	-107.391424
0.400000	-23.733189	-111.536346	-0.036175	-20.685041	-0.036175	-20.685041	-23.834152	-109.909961
0.450000	-22.752762	-114.228503	-0.044491	-23.253386	-0.044491	-23.253386	-22.844305	-112.429843
0.500000	-21.885009	-116.915434	-0.053345	-25.817094	-0.053345	-25.817094	-21.967243	-114.950525
0.550000	-21.109147	-119.597308	-0.062650	-28.376240	-0.062650	-28.376240	-21.182367	-117.471187
0.600000	-20.410218	-122.274090	-0.072338	-30.930817	-0.072338	-30.930817	-20.474830	-119.990846
0.650000	-19.776486	-124.945879	-0.082335	-33.480992	-0.082335	-33.480992	-19.833012	-122.508504
0.700000	-19.198912	-127.612743	-0.092582	-36.026920	-0.092582	-36.026920	-19.247941	-125.023200
0.750000	-18.670246	-130.274794	-0.103024	-38.568787	-0.103024	-38.568787	-18.712409	-127.534081
0.800000	-18.184696	-132.932142	-0.113611	-41.106759	-0.113611	-41.106759	-18.220642	-130.040386
0.850000	-17.737521	-135.584925	-0.124303	-43.641005	-0.124303	-43.641005	-17.767895	-132.541462
0.900000	-17.324790	-138.233305	-0.135057	-46.171690	-0.135057	-46.171690	-17.350224	-135.036770
0.950000	-16.943240	-140.877462	-0.145838	-48.698973	-0.145838	-48.698973	-16.964342	-137.525861
1.000000	-16.590150	-143.517591	-0.156610	-51.222999	-0.156610	-51.222999	-16.607498	-140.008366
1.050000	-16.263033	-146.153965	-0.167338	-53.743960	-0.167338	-53.743960	-16.277166	-142.484104
1.100000	-15.959843	-148.786842	-0.177992	-56.262019	-0.177992	-56.262019	-15.971259	-144.952927
1.150000	-15.678807	-151.416502	-0.188539	-58.777343	-0.188539	-58.777343	-15.687963	-147.414763
1.200000	-15.418383	-154.043240	-0.198950	-61.290102	-0.198950	-61.290102	-15.425693	-149.869607
1.250000	-15.177222	-156.667369	-0.209195	-63.800472	-0.209195	-63.800472	-15.183056	-152.317514
1.300000	-14.954330	-159.289183	-0.219241	-66.308601	-0.219241	-66.308601	-14.959022	-154.758480
1.350000	-14.748465	-161.909068	-0.229064	-68.814718	-0.229064	-68.814718	-14.752303	-157.192771
1.400000	-14.558702	-164.527378	-0.238636	-71.319019	-0.238636	-71.319019	-14.561938	-159.620579
1.450000	-14.384220	-167.144476	-0.247933	-73.821710	-0.247933	-73.821710	-14.387070	-162.042125
1.500000	-14.224291	-169.760737	-0.256930	-76.323002	-0.256930	-76.323002	-14.226936	-164.457658
1.550000	-14.078265	-172.376547	-0.265604	-78.823118	-0.265604	-78.823118	-14.080857	-166.867449
1.600000	-13.945564	-174.992299	-0.273933	-81.322287	-0.273933	-81.322287	-13.948228	-169.271786
1.650000	-13.825675	-177.608392	-0.281897	-83.820745	-0.281897	-83.820745	-13.828509	-171.670968
1.700000	-13.718139	179.774766	-0.289478	-86.318736	-0.289478	-86.318736	-13.721222	-174.065306
1.750000	-13.622549	177.156760	-0.296659	-88.816510	-0.296659	-88.816510	-13.625940	-176.455111
1.800000	-13.538547	174.537172	-0.303425	-91.314323	-0.303425	-91.314323	-13.542288	-178.840701
1.850000	-13.465815	171.915577	-0.309763	-93.812438	-0.309763	-93.812438	-13.469934	178.777613
1.900000	-13.404188	169.291515	-0.315658	-96.311128	-0.315658	-96.311128	-13.408703	176.399557
1.950000	-13.353422	166.664540	-0.321101	-98.810672	-0.321101	-98.810672	-13.358341	174.024822
2.000000	-13.313196	164.034243	-0.326089	-101.311336	-0.326089	-101.311336	-13.318520	171.653080
2.050000	-13.283336	161.400185	-0.330619	-103.813392	-0.330619	-103.813392	-13.289062	169.284058
2.100000	-13.263696	158.761928	-0.334688	-106.317116	-0.334688	-106.317116	-13.269819	166.917497
2.150000	-13.254162	156.119029	-0.338295	-108.822780	-0.338295	-108.822780	-13.260674	164.553160
2.200000	-13.254645	153.471045	-0.341443	-111.330657	-0.341443	-111.330657	-13.261542	162.190828
2.250000	-13.265086	150.817534	-0.344135	-113.841018	-0.344135	-113.841018	-13.272363	159.830310
2.300000	-13.285452	148.158048	-0.346378	-116.354130	-0.346378	-116.354130	-13.293109	157.471437
2.350000	-13.315736	145.492143	-0.348179	-118.870257	-0.348179	-118.870257	-13.323776	155.114073
2.400000	-13.355957	142.819371	-0.349549	-121.389659	-0.349549	-121.389659	-13.364389	152.758110
2.450000	-13.406162	140.139281	-0.350498	-123.912588	-0.350498	-123.912588	-13.415001	150.403475
2.500000	-13.466425	137.451424	-0.351042	-126.439294	-0.351042	-126.439294	-13.475691	148.050131
2.550000	-13.537057	134.755155	-0.351187	-128.970108	-0.351187	-128.970108	-13.546778	145.698110
2.600000	-13.617978	132.050184	-0.350959	-131.505183	-0.350959	-131.505183	-13.628187	143.347430
2.650000	-13.709348	129.336046	-0.350377	-134.044743	-0.350377	-134.044743	-13.720088	140.998184
2.700000	-13.811363	126.612269	-0.349461	-136.589004	-0.349461	-136.589004	-13.822680	138.650517
2.750000	-13.924249	123.878371	-0.348233	-139.138172	-0.348233	-139.138172	-13.936198	136.304625
2.800000	-14.048271	121.133857	-0.346715	-141.692447	-0.346715	-141.692447	-14.060913	133.960763
2.850000	-14.183733	118.378216	-0.344931	-144.252014	-0.344931	-144.252014	-14.197135	131.619253
2.900000	-14.330985	115.610916	-0.342906	-146.817051	-0.342906	-146.817051	-14.345218	129.280488
2.950000	-14.490423	112.831401	-0.340666	-149.387726	-0.340666	-149.387726	-14.505564	126.944942
3.000000	-14.662496	110.039081	-0.338237	-151.964195	-0.338237	-151.964195	-14.678625	124.613179
3.050000	-14.847714	107.233326	-0.335646	-154.546603	-0.335646	-154.546603	-14.864915	122.285867
3.100000	-15.046654	104.413458	-0.332922	-157.135087	-0.332922	-157.135087	-15.065014	119.963791
3.150000	-15.260071	101.578564	-0.330090	-159.729840	-0.330090	-159.729840	-15.279678	117.647954
3.200000	-15.488707	98.727798	-0.327182	-162.330979	-0.327182	-162.330979	-15.509648	115.339483
3.250000	-15.733298	95.860402	-0.324226	-164.938541	-0.324226	-164.938541	-15.755660	113.039599
3.300000	-15.994800	92.975338	-0.321251	-167.552618	-0.321251	-167.552618	-16.018667	110.749819
3.350000	-16.274304	90.071419	-0.318285	-170.173296	-0.318285	-170.173296	-16.299754	108.471938
3.400000	-16.573058	87.147273	-0.315358	-172.800647	-0.315358	-172.800647	-16.600163	106.208088
3.450000	-16.892500	84.201294	-0.312497	-175.434739	-0.312497	-175.434739	-16.921319	103.960819
3.500000	-17.234289	81.231579	-0.309731	-178.075627	-0.309731	-178.075627	-17.264866	101.733195
3.550000	-17.600352	78.235850	-0.307087	179.276638	-0.307087	179.276638	-17.632711	99.528935
3.600000	-17.992944	75.211341	-0.304591	176.622014	-0.304591	176.622014	-18.027076	97.352586
3.650000	-18.414718	72.154657	-0.302272	173.960466	-0.302272	173.960466	-18.450573	95.209767
3.700000	-18.868823	69.061570	-0.300155	171.291964	-0.300155	171.291964	-18.906286	93.107492
3.750000	-19.359028	65.926746	-0.298265	168.616485	-0.298265	168.616485	-19.397898	91.054634
3.800000	-19.890131	62.742085	-0.296634	165.933856	-0.296634	165.933856	-19.930058	89.064230
3.850000	-20.467486	59.499387	-0.295280	163.244214	-0.295280	163.244214	-20.507931	87.150341
3.900000	-21.098012	56.186512	-0.294229	160.547548	-0.294229	160.547548	-21.138130	85.333097
3.950000	-21.790418	52.786900	-0.293502	157.843849	-0.293502	157.843849	-21.828889	83.639861
4.000000	-22.555858	49.277372	-0.293123	155.133108	-0.293123	155.133108	-22.590593	82.108737
4.050000	-23.408912	45.624493	-0.293114	152.415322	-0.293114	152.415322	-23.436547	80.794290
4.100000	-24.369104	41.778256	-0.293495	149.690483	-0.293495	149.690483	-24.384058	79.777274
4.150000	-25.463322	37.660523	-0.294288	146.958588	-0.294288	146.958588	-25.455984	79.181918
4.200000	-26.729870	33.142401	-0.295514	144.219630	-0.295514	144.219630	-26.682819	79.208275
4.250000	-28.225475	27.996220	-0.297194	141.473603	-0.297194	141.473603	-28.105040	80.196250
4.300000	-30.037820	21.782765	-0.299347	138.720499	-0.299347	138.720499	-29.773348	82.759195
4.350000	-32.306971	13.551572	-0.301993	135.960308	-0.301993	135.960308	-31.734968	88.069469
4.400000	-35.239388	0.804241	-0.305159	133.192940	-0.305159	133.192940	-33.944118	98.500736
4.450000	-38.831737	-23.879202	-0.308865	130.418381	-0.308865	130.418381	-35.903241	117.659853
4.500000	-40.575846	-70.388808	-0.313125	127.636689	-0.313125	127.636689	-36.288526	144.309409
4.550000	-37.681420	-110.859813	-0.317962	124.847843	-0.317962	124.847843	-34.675544	167.114115
4.600000	-34.124833	-131.248811	-0.323396	122.051822	-0.323396	122.051822	-32.370107	-179.311917
4.650000	-31.296007	-142.528471	-0.329448	119.248598	-0.329448	119.248598	-30.193419	-172.228306
4.700000	-29.063920	-150.172733	-0.336141	116.438143	-0.336141	116.438143	-28.307710	-168.737093
4.750000	-27.241701	-156.116704	-0.343499	113.620424	-0.343499	113.620424	-26.687395	-167.252431
4.800000	-25.707052	-161.147545	-0.351545	110.795409	-0.351545	110.795409	-25.280803	-166.961641
4.850000	-24.382463	-165.636456	-0.360306	107.963062	-0.360306	107.963062	-24.043140	-167.428503
4.900000	-23.217067	-169.779404	-0.369808	105.123346	-0.369808	105.123346	-22.940024	-168.403676
4.950000	-22.176064	-173.689026	-0.380080	102.276225	-0.380080	102.276225	-21.945633	-169.736099
5.000000	-21.234741	-177.434441	-0.391150	99.421660	-0.391150	99.421660	-21.040464	-171.329574
5.050000	-20.374740	178.941599	-0.403068	96.559453	-0.403068	96.559453	-20.209355	-173.123478
5.100000	-19.582669	175.406216	-0.415852	93.689731	-0.415852	93.689731	-19.440975	-175.069230
5.150000	-18.847977	171.938870	-0.429535	90.812463	-0.429535	90.812463	-18.726136	-177.136239
5.200000	-18.162370	168.524793	-0.444155	87.927622	-0.444155	87.927622	-18.057477	-179.302167
5.250000	-17.519211	165.153126	-0.459751	85.035187	-0.459751	85.035187	-17.429022	178.449647
5.300000	-16.913116	161.815737	-0.476364	82.135143	-0.476364	82.135143	-16.835864	176.131864
5.350000	-16.339657	158.506438	-0.494037	79.227484	-0.494037	79.227484	-16.273925	173.754266
5.400000	-15.795156	155.220462	-0.512816	76.312213	-0.512816	76.312213	-15.739790	171.324526
5.450000	-15.276530	151.954093	-0.532748	73.389345	-0.532748	73.389345	-15.230573	168.848740
5.500000	-14.781168	148.704414	-0.553885	70.458908	-0.553885	70.458908	-14.743814	166.331822
5.550000	-14.306847	145.469116	-0.576277	67.520947	-0.576277	67.520947	-14.277409	163.777773
5.600000	-13.851663	142.246367	-0.599979	64.575520	-0.599979	64.575520	-13.829542	161.189897
5.650000	-13.413919	139.034817	-0.625062	61.622629	-0.625062	61.622629	-13.398588	158.570639
5.700000	-12.992201	135.833277	-0.651586	58.662377	-0.651586	58.662377	-12.983190	155.922395
5.750000	-12.585335	132.640726	-0.679598	55.694969	-0.679598	55.694969	-12.582212	153.247476
5.800000	-12.192245	129.456455	-0.709158	52.720556	-0.709158	52.720556	-12.194612	150.547597
5.850000	-11.812093	126.279740	-0.740293	49.739475	-0.740293	49.739475	-11.819577	147.824808
5.900000	-11.443867	123.110497	-0.773131	46.751637	-0.773131	46.751637	-11.456120	145.079458
5.950000	-11.086920	119.948302	-0.807716	43.757392	-0.807716	43.757392	-11.103609	142.313165
6.000000	-10.740603	116.792991	-0.844121	40.756980	-0.844121	40.756980	-10.761407	139.526965
6.050000	-10.404392	113.644400	-0.882399	37.750756	-0.882399	37.750756	-10.429001	136.722084
6.100000	-10.077797	110.502496	-0.922616	34.739061	-0.922616	34.739061	-10.105910	133.899522
6.150000	-9.760390	107.367313	-0.964837	31.722273	-0.964837	31.722273	-9.791715	131.060244
6.200000	-9.451792	104.238949	-1.009124	28.700809	-1.009124	28.700809	-9.486044	128.205193
6.250000	-9.151674	101.117555	-1.055541	25.675123	-1.055541	25.675123	-9.188575	125.335302
6.300000	-8.859727	98.003417	-1.104168	22.645676	-1.104168	22.645676	-8.899005	122.451360
6.350000	-8.575720	94.896713	-1.155040	19.613052	-1.155040	19.613052	-8.617111	119.554465
6.400000	-8.299430	91.797740	-1.208211	16.577828	-1.208211	16.577828	-8.342678	116.645566
6.450000	-8.030660	88.706840	-1.263729	13.540621	-1.263729	13.540621	-8.075518	113.725629
6.500000	-7.769238	85.624391	-1.321639	10.502087	-1.321639	10.502087	-7.815467	110.795640
6.550000	-7.515013	82.550812	-1.381979	7.462918	-1.381979	7.462918	-7.562383	107.856610
6.600000	-7.267852	79.486632	-1.444799	4.423852	-1.444799	4.423852	-7.316142	104.909519
6.650000	-7.027641	76.432293	-1.510112	1.385663	-1.510112	1.385663	-7.076641	101.955486
6.700000	-6.794275	73.388284	-1.577932	-1.650856	-1.577932	-1.650856	-6.843786	98.995621
6.750000	-6.567658	70.355146	-1.648268	-4.684880	-1.648268	-4.684880	-6.617492	96.031035
6.800000	-6.347714	67.333541	-1.721138	-7.715528	-1.721138	-7.715528	-6.397692	93.062843
6.850000	-6.134336	64.323794	-1.796494	-10.742022	-1.796494	-10.742022	-6.184295	90.092250
6.900000	-5.927481	61.326806	-1.874363	-13.763367	-1.874363	-13.763367	-5.977263	87.120375
6.950000	-5.727085	58.343215	-1.954716	-16.778635	-1.954716	-16.778635	-5.776545	84.148440
7.000000	-5.533063	55.373507	-2.037495	-19.786979	-2.037495	-19.786979	-5.582067	81.177645
7.050000	-5.345345	52.418314	-2.122651	-22.787494	-2.122651	-22.787494	-5.393770	78.209178
7.100000	-5.163864	49.478266	-2.210124	-25.779279	-2.210124	-25.779279	-5.211595	75.244223
7.150000	-4.988550	46.553989	-2.299843	-28.761443	-2.299843	-28.761443	-5.035480	72.283951
7.200000	-4.819330	43.646101	-2.391726	-31.733110	-2.391726	-31.733110	-4.865363	69.329521
7.250000	-4.656132	40.755205	-2.485677	-34.693425	-2.485677	-34.693425	-4.701176	66.382064
7.300000	-4.498880	37.881888	-2.581593	-37.641557	-2.581593	-37.641557	-4.542852	63.442685
7.350000	-4.347495	35.026711	-2.679356	-40.576711	-2.679356	-40.576711	-4.390316	60.512451
7.400000	-4.201893	32.190211	-2.778837	-43.498124	-2.778837	-43.498124	-4.243491	57.592388
7.450000	-4.061991	29.372887	-2.879898	-46.405080	-2.879898	-46.405080	-4.102298	54.683474
7.500000	-3.927699	26.575206	-2.982388	-49.296907	-2.982388	-49.296907	-3.966650	51.786631
7.550000	-3.799003	23.798035	-3.086142	-52.172633	-3.086142	-52.172633	-3.836536	48.903024
7.600000	-3.675734	21.041321	-3.190983	-55.032027	-3.190983	-55.032027	-3.711792	46.033184
7.650000	-3.557793	18.305389	-3.296728	-57.874595	-3.296728	-57.874595	-3.592322	43.177835
7.700000	-3.445081	15.590509	-3.403186	-60.699905	-3.403186	-60.699905	-3.478031	40.337629
7.750000	-3.337495	12.896894	-3.510154	-63.507597	-3.510154	-63.507597	-3.368818	37.513135
7.800000	-3.234933	10.224696	-3.617420	-66.297383	-3.617420	-66.297383	-3.264586	34.704845
7.850000	-3.137292	7.574005	-3.724765	-69.069052	-3.724765	-69.069052	-3.165235	31.913164
7.900000	-3.044469	4.944844	-3.831957	-71.822473	-3.831957	-71.822473	-3.070667	29.138411
7.950000	-2.956363	2.337168	-3.938759	-74.557597	-3.938759	-74.557597	-2.980784	26.380812
8.000000	-2.872874	-0.249140	-4.044920	-77.274464	-4.044920	-77.274464	-2.895493	23.640504
8.050000	-2.793905	-2.814271	-4.150185	-79.973203	-4.150185	-79.973203	-2.814703	20.917528
8.100000	-2.719362	-5.358490	-4.254286	-82.654038	-4.254286	-82.654038	-2.738326	18.211829
8.150000	-2.649197	-7.881924	-4.356915	-85.317104	-4.356915	-85.317104	-2.666322	15.523435
8.200000	-2.583327	-10.385014	-4.457777	-87.962846	-4.457777	-87.962846	-2.598617	12.852080
8.250000	-2.521634	-12.868500	-4.556603	-90.591996	-4.556603	-90.591996	-2.535103	10.197211
8.300000	-2.464051	-15.332982	-4.653086	-93.205213	-4.653086	-93.205213	-2.475723	7.558354
8.350000	-2.410518	-17.779151	-4.746904	-95.803276	-4.746904	-95.803276	-2.420428	4.934924
8.400000	-2.360988	-20.207792	-4.837725	-98.387097	-4.837725	-98.387097	-2.369183	2.326221
8.450000	-2.315426	-22.619790	-4.925200	-100.957732	-4.925200	-100.957732	-2.321965	-0.268577
8.500000	-2.273812	-25.016129	-5.008966	-103.516389	-5.008966	-103.516389	-2.278768	-2.850420
8.550000	-2.236140	-27.397908	-5.088643	-106.064448	-5.088643	-106.064448	-2.239601	-5.420396
8.600000	-2.202428	-29.766341	-5.163830	-108.603474	-5.163830	-108.603474	-2.204495	-7.979737
8.650000	-2.172713	-32.122768	-5.234107	-111.135243	-5.234107	-111.135243	-2.173502	-10.529838
8.700000	-2.147057	-34.468665	-5.299029	-113.661763	-5.299029	-113.661763	-2.146702	-13.072267
8.750000	-2.125554	-36.805658	-5.358123	-116.185307	-5.358123	-116.185307	-2.124205	-15.608785
8.800000	-2.108430	-39.135426	-5.410730	-118.708503	-5.410730	-118.708503	-2.106257	-18.141332
8.850000	-2.095768	-41.460145	-5.456447	-121.234352	-5.456447	-121.234352	-2.092957	-20.672273
8.900000	-2.087789	-43.781996	-5.494693	-123.766178	-5.494693	-123.766178	-2.084547	-23.204119
8.950000	-2.084776	-46.103388	-5.524840	-126.307743	-5.524840	-126.307743	-2.081329	-25.739695
9.000000	-2.087080	-48.426975	-5.546214	-128.863302	-5.546214	-128.863302	-2.083681	-28.282183
9.050000	-2.095141	-50.755695	-5.558084	-131.437665	-5.558084	-131.437665	-2.092069	-30.835183
9.100000	-2.109502	-53.092799	-5.559663	-134.036264	-5.559663	-134.036264	-2.107069	-33.402769
9.150000	-2.130837	-55.441888	-5.550119	-136.665268	-5.550119	-136.665268	-2.129396	-35.989574
9.200000	-2.159822	-57.806562	-5.528817	-139.330892	-5.528817	-139.330892	-2.159767	-38.600293
9.250000	-2.198341	-60.193320	-5.493629	-142.046028	-5.493629	-142.046028	-2.200180	-41.244041
9.300000	-2.246322	-62.603630	-5.445609	-144.813044	-5.445609	-144.813044	-2.250576	-43.922652
9.350000	-2.306172	-65.044780	-5.382675	-147.648186	-5.382675	-147.648186	-2.313528	-46.646888
9.400000	-2.380122	-67.523049	-5.303638	-150.567049	-5.303638	-150.567049	-2.391444	-49.426474
9.450000	-2.470594	-70.044063	-5.207726	-153.585943	-5.207726	-153.585943	-2.486977	-52.270873
9.500000	-2.580977	-72.614183	-5.093858	-156.725928	-5.093858	-156.725928	-2.603864	-55.191709
9.550000	-2.715665	-75.239523	-4.960995	-160.012250	-4.960995	-160.012250	-2.747008	-58.201892
9.600000	-2.880580	-77.925441	-4.808126	-163.476296	-4.808126	-163.476296	-2.923105	-61.315888
9.650000	-3.083683	-80.674650	-4.634531	-167.156635	-4.634531	-167.156635	-3.141305	-64.548606
9.700000	-3.335051	-83.483157	-4.440417	-171.096283	-4.440417	-171.096283	-3.413464	-67.911275
9.750000	-3.648701	-86.336271	-4.226723	-175.349191	-4.226723	-175.349191	-3.756459	-71.410150
9.800000	-4.042581	-89.198385	-3.996185	-179.973324	-3.996185	-179.973324	-4.192694	-75.035581
9.850000	-4.545520	-91.990557	-3.752901	174.941778	-3.752901	174.941778	-4.759330	-78.751114
9.900000	-5.192229	-94.551768	-3.505658	169.316882	-3.505658	169.316882	-5.505025	-82.443298
9.950000	-6.029798	-96.559023	-3.267910	163.060680	-3.267910	163.060680	-6.503528	-85.846402
10.000000	-7.112204	-97.365482	-3.059910	156.087935	-3.059910	156.087935	-7.862584	-88.341619
