! freq	dB(S11)	phase(S11)	dB(S12)	phase(S12)	
!     	dB(S21)	phase(S21)	dB(S22)	phase(S22)	
!S-par simulation data
#  GHz  S  DB  R 50
0.000000	-0.000000	0.000000	-380.542828	0.000000	-380.542828	0.000000	-0.000000	0.000000
0.050000	-0.000105	-0.803462	-116.311513	85.109815	-116.311513	85.109815	-0.000105	-0.803470
0.100000	-0.000414	-1.606666	-110.820220	83.573853	-110.820220	83.573853	-0.000415	-1.606683
0.150000	-0.000915	-2.409375	-107.675671	83.372205	-107.675671	83.372205	-0.000916	-2.409399
0.200000	-0.001587	-3.211395	-105.463393	83.370407	-105.463393	83.370407	-0.001587	-3.211428
0.250000	-0.002413	-4.012514	-103.791528	83.330287	-103.791528	83.330287	-0.002414	-4.012554
0.300000	-0.003355	-4.812699	-102.479052	83.254240	-102.479052	83.254240	-0.003356	-4.812746
0.350000	-0.004393	-5.611848	-101.437877	83.181288	-101.437877	83.181288	-0.004394	-5.611902
0.400000	-0.005503	-6.409926	-100.613461	83.160412	-100.613461	83.160412	-0.005504	-6.409987
0.450000	-0.006663	-7.206933	-99.971680	83.243410	-99.971680	83.243410	-0.006664	-7.207000
0.500000	-0.007856	-8.002886	-99.490839	83.487581	-99.490839	83.487581	-0.007857	-8.002959
0.550000	-0.009065	-8.797817	-99.157435	83.961087	-99.157435	83.961087	-0.009067	-8.797897
0.600000	-0.010281	-9.591767	-98.963660	84.750339	-98.963660	84.750339	-0.010282	-9.591853
0.650000	-0.011494	-10.384777	-98.905626	85.970309	-98.905626	85.970309	-0.011495	-10.384870
0.700000	-0.012698	-11.176886	-98.981581	87.779375	-98.981581	87.779375	-0.012699	-11.176986
0.750000	-0.013889	-11.968132	-99.189193	90.400508	-99.189193	90.400508	-0.013890	-11.968237
0.800000	-0.015065	-12.758542	-99.520259	94.148882	-99.520259	94.148882	-0.015066	-12.758655
0.850000	-0.016225	-13.548142	-99.949800	99.457014	-99.949800	99.457014	-0.016226	-13.548262
0.900000	-0.017368	-14.336950	-100.415249	106.858806	-100.415249	106.858806	-0.017369	-14.337077
0.950000	-0.018496	-15.124978	-100.786003	116.831275	-100.786003	116.831275	-0.018496	-15.125112
1.000000	-0.019608	-15.912232	-100.849665	129.368204	-100.849665	129.368204	-0.019608	-15.912373
1.050000	-0.020705	-16.698715	-100.383535	143.428860	-100.383535	143.428860	-0.020706	-16.698863
1.100000	-0.021790	-17.484424	-99.321760	157.015634	-99.321760	157.015634	-0.021791	-17.484580
1.150000	-0.022863	-18.269356	-97.822524	168.377554	-97.822524	168.377554	-0.022864	-18.269519
1.200000	-0.023926	-19.053500	-96.122377	176.969819	-96.122377	176.969819	-0.023926	-19.053671
1.250000	-0.024979	-19.836848	-94.393163	-176.866723	-94.393163	-176.866723	-0.024979	-19.837026
1.300000	-0.026024	-20.619350	-92.712450	-172.611196	-92.712450	-172.611196	-0.026024	-20.619536
1.350000	-0.027062	-21.401027	-91.126224	-169.668102	-91.126224	-169.668102	-0.027062	-21.401220
1.400000	-0.028093	-22.181864	-89.639972	-167.679074	-89.639972	-167.679074	-0.028094	-22.182065
1.450000	-0.029120	-22.961845	-88.249077	-166.391377	-88.249077	-166.391377	-0.029120	-22.962054
1.500000	-0.030142	-23.740954	-86.945422	-165.627739	-86.945422	-165.627739	-0.030143	-23.741170
1.550000	-0.031161	-24.519173	-85.720230	-165.262767	-85.720230	-165.262767	-0.031161	-24.519396
1.600000	-0.032176	-25.296484	-84.565195	-165.206468	-84.565195	-165.206468	-0.032177	-25.296715
1.650000	-0.033190	-26.072870	-83.472868	-165.393161	-83.472868	-165.393161	-0.033190	-26.073110
1.700000	-0.034200	-26.847978	-82.413291	-165.824624	-82.413291	-165.824624	-0.034201	-26.848225
1.750000	-0.035210	-27.622588	-81.438020	-166.344000	-81.438020	-166.344000	-0.035211	-27.622842
1.800000	-0.036219	-28.395998	-80.493984	-167.009841	-80.493984	-167.009841	-0.036220	-28.396261
1.850000	-0.037228	-29.168552	-79.599260	-167.780299	-79.599260	-167.780299	-0.037228	-29.168822
1.900000	-0.038236	-29.940041	-78.739111	-168.637393	-78.739111	-168.637393	-0.038236	-29.940318
1.950000	-0.039244	-30.710463	-77.911943	-169.581123	-77.911943	-169.581123	-0.039245	-30.710749
2.000000	-0.040253	-31.479967	-77.121490	-170.576654	-77.121490	-170.576654	-0.040254	-31.480260
2.050000	-0.041263	-32.248185	-76.351813	-171.644708	-76.351813	-171.644708	-0.041264	-32.248485
2.100000	-0.042274	-33.015643	-75.620214	-172.743450	-75.620214	-172.743450	-0.042275	-33.015951
2.150000	-0.043288	-33.781584	-74.900123	-173.903566	-74.900123	-173.903566	-0.043288	-33.781899
2.200000	-0.044302	-34.546938	-74.218933	-175.081170	-74.218933	-175.081170	-0.044302	-34.547261
2.250000	-0.045319	-35.310532	-73.542121	-176.311236	-73.542121	-176.311236	-0.045320	-35.310863
2.300000	-0.046338	-36.073725	-72.904639	-177.550349	-72.904639	-177.550349	-0.046338	-36.074064
2.350000	-0.047362	-36.834907	-72.265996	-178.834700	-72.265996	-178.834700	-0.047362	-36.835254
2.400000	-0.048386	-37.595883	-71.666815	179.877377	-71.666815	179.877377	-0.048386	-37.596237
2.450000	-0.049416	-38.354589	-71.062138	178.550156	-71.062138	178.550156	-0.049417	-38.354951
2.500000	-0.050447	-39.113296	-70.496831	177.222935	-70.496831	177.222935	-0.050448	-39.113665
2.550000	-0.051487	-39.869466	-69.922623	175.861364	-69.922623	175.861364	-0.051487	-39.869843
2.600000	-0.052527	-40.625635	-69.384033	174.499794	-69.384033	174.499794	-0.052527	-40.626020
2.650000	-0.053575	-41.379427	-68.840830	173.112692	-68.840830	173.112692	-0.053576	-41.379819
2.700000	-0.054625	-42.133002	-68.326523	171.723270	-68.326523	171.723270	-0.054626	-42.133402
2.750000	-0.055685	-42.884370	-67.811164	170.314843	-67.811164	170.314843	-0.055685	-42.884777
2.800000	-0.056746	-43.635296	-67.319052	168.902615	-67.319052	168.902615	-0.056747	-43.635711
2.850000	-0.057818	-44.384196	-66.828853	167.476270	-66.828853	167.476270	-0.057818	-44.384619
2.900000	-0.058893	-45.132421	-66.357127	166.045221	-66.357127	166.045221	-0.058893	-45.132852
2.950000	-0.059977	-45.878813	-65.889787	164.603751	-65.889787	164.603751	-0.059978	-45.879251
3.000000	-0.061067	-46.624288	-65.436866	163.157071	-65.436866	163.157071	-0.061068	-46.624735
3.050000	-0.062167	-47.368133	-64.990398	161.702784	-64.990398	161.702784	-0.062167	-47.368587
3.100000	-0.063273	-48.110814	-64.554895	160.243062	-64.554895	160.243062	-0.063273	-48.111275
3.150000	-0.064388	-48.852075	-64.127567	158.777883	-64.127567	158.777883	-0.064389	-48.852545
3.200000	-0.065512	-49.591919	-63.708254	157.307245	-63.708254	157.307245	-0.065513	-49.592396
3.250000	-0.066645	-50.330563	-63.298549	155.832792	-63.298549	155.832792	-0.066645	-50.331048
3.300000	-0.067789	-51.067530	-62.894331	154.353000	-62.894331	154.353000	-0.067790	-51.068022
3.350000	-0.068940	-51.803526	-62.500912	152.870648	-62.500912	152.870648	-0.068941	-51.804026
3.400000	-0.070106	-52.537580	-62.110811	151.383176	-62.110811	151.383176	-0.070106	-52.538088
3.450000	-0.071277	-53.270899	-61.732492	149.894096	-61.732492	149.894096	-0.071278	-53.271414
3.500000	-0.072466	-54.002009	-61.355628	148.400189	-61.355628	148.400189	-0.072466	-54.002532
3.550000	-0.073659	-54.732624	-60.991352	146.905386	-60.991352	146.905386	-0.073659	-54.733154
3.600000	-0.074872	-55.460760	-60.626931	145.406104	-60.626931	145.406104	-0.074873	-55.461298
3.650000	-0.076088	-56.188647	-60.275750	143.906449	-60.275750	143.906449	-0.076089	-56.189192
3.700000	-0.077328	-56.913784	-59.923050	142.402696	-59.923050	142.402696	-0.077329	-56.914337
3.750000	-0.078569	-57.638921	-59.584115	140.898944	-59.584115	140.898944	-0.078569	-57.639481
3.800000	-0.079837	-58.361036	-59.242481	139.391503	-59.242481	139.391503	-0.079838	-58.361604
3.850000	-0.081106	-59.083151	-58.913777	137.884063	-58.913777	137.884063	-0.081106	-59.083727
3.900000	-0.082402	-59.802479	-58.583854	136.373861	-58.583854	136.373861	-0.082402	-59.803062
3.950000	-0.083700	-60.521553	-58.264850	134.863409	-58.264850	134.863409	-0.083701	-60.522143
4.000000	-0.085025	-61.238080	-57.945925	133.350938	-57.945925	133.350938	-0.085026	-61.238678
4.050000	-0.086356	-61.954098	-57.636132	131.838063	-57.636132	131.838063	-0.086357	-61.954703
4.100000	-0.087711	-62.667813	-57.327555	130.323759	-57.327555	130.323759	-0.087712	-62.668426
4.150000	-0.089075	-63.380762	-57.026523	128.808978	-57.026523	128.808978	-0.089076	-63.381382
4.200000	-0.090463	-64.091658	-56.727702	127.293229	-56.727702	127.293229	-0.090463	-64.092286
4.250000	-0.091862	-64.801529	-56.435014	125.776996	-56.435014	125.776996	-0.091863	-64.802163
4.300000	-0.093283	-65.509600	-56.145407	124.260149	-56.145407	124.260149	-0.093283	-65.510242
4.350000	-0.094719	-66.216387	-55.860679	122.742863	-55.860679	122.742863	-0.094720	-66.217036
4.400000	-0.096175	-66.921630	-55.579789	121.225229	-55.579789	121.225229	-0.096175	-66.922286
4.450000	-0.097650	-67.625330	-55.302661	119.707246	-55.302661	119.707246	-0.097650	-67.625993
4.500000	-0.099141	-68.327744	-55.030031	118.189104	-55.030031	118.189104	-0.099142	-68.328414
4.550000	-0.100657	-69.028358	-54.760171	116.670739	-54.760171	116.670739	-0.100658	-69.029035
4.600000	-0.102187	-69.727945	-54.495380	115.152342	-54.495380	115.152342	-0.102187	-69.728629
4.650000	-0.103744	-70.425477	-54.232476	113.633877	-54.232476	113.633877	-0.103745	-70.426168
4.700000	-0.105313	-71.122240	-53.975135	112.115451	-53.975135	112.115451	-0.105314	-71.122938
4.750000	-0.106915	-71.816696	-53.718898	110.597140	-53.718898	110.597140	-0.106916	-71.817402
4.800000	-0.108525	-72.510642	-53.468646	109.078892	-53.468646	109.078892	-0.108525	-72.511354
4.850000	-0.110172	-73.202034	-53.218803	107.560961	-53.218803	107.560961	-0.110173	-73.202753
4.900000	-0.111824	-73.893171	-52.975307	106.043079	-52.975307	106.043079	-0.111825	-73.893897
4.950000	-0.113519	-74.581511	-52.731604	104.525733	-52.731604	104.525733	-0.113520	-74.582243
5.000000	-0.115215	-75.269850	-52.494553	103.008387	-52.494553	103.008387	-0.115215	-75.270589
5.050000	-0.116959	-75.955153	-52.256751	101.491812	-52.256751	101.491812	-0.116960	-75.955898
5.100000	-0.118704	-76.640456	-52.025286	99.975237	-52.025286	99.975237	-0.118704	-76.641208
5.150000	-0.120495	-77.322994	-51.793730	98.459524	-51.793730	98.459524	-0.120496	-77.323752
5.200000	-0.122291	-78.005279	-51.567646	96.943889	-51.567646	96.943889	-0.122292	-78.006044
5.250000	-0.124130	-78.685069	-51.342060	95.429166	-51.342060	95.429166	-0.124131	-78.685840
5.300000	-0.125979	-79.364359	-51.121163	93.914626	-51.121163	93.914626	-0.125980	-79.365136
5.350000	-0.127868	-80.041421	-50.901290	92.401012	-50.901290	92.401012	-0.127869	-80.042204
5.400000	-0.129772	-80.717739	-50.685397	90.887707	-50.685397	90.887707	-0.129772	-80.718529
5.450000	-0.131712	-81.392096	-50.470996	89.375313	-50.470996	89.375313	-0.131713	-81.392891
5.500000	-0.133672	-82.065470	-50.259934	87.863374	-50.259934	87.863374	-0.133673	-82.066272
5.550000	-0.135665	-82.737145	-50.050780	86.352301	-50.050780	86.352301	-0.135666	-82.737953
5.600000	-0.137683	-83.407606	-49.844383	84.841848	-49.844383	84.841848	-0.137684	-83.408419
5.650000	-0.139730	-84.076625	-49.640265	83.332192	-49.640265	83.332192	-0.139731	-84.077444
5.700000	-0.141808	-84.744204	-49.438379	81.823335	-49.438379	81.823335	-0.141809	-84.745029
5.750000	-0.143911	-85.410597	-49.239098	80.315186	-49.239098	80.315186	-0.143912	-85.411427
5.800000	-0.146050	-86.075328	-49.041575	78.808029	-49.041575	78.808029	-0.146051	-86.076164
5.850000	-0.148210	-86.739124	-48.846944	77.301470	-48.846944	77.301470	-0.148211	-86.739965
5.900000	-0.150413	-87.401046	-48.653644	75.796109	-48.653644	75.796109	-0.150414	-87.401893
5.950000	-0.152632	-88.062275	-48.463486	74.291219	-48.463486	74.291219	-0.152633	-88.063128
6.000000	-0.154899	-88.721427	-48.274275	72.787743	-48.274275	72.787743	-0.154900	-88.722285
6.050000	-0.157178	-89.380125	-48.088425	71.284595	-48.088425	71.284595	-0.157179	-89.380988
6.100000	-0.159513	-90.036550	-47.903176	69.783088	-47.903176	69.783088	-0.159514	-90.037418
6.150000	-0.161853	-90.692750	-47.721476	68.281751	-47.721476	68.281751	-0.161854	-90.693624
6.200000	-0.164256	-91.346491	-47.540067	66.782291	-47.540067	66.782291	-0.164257	-91.347370
6.250000	-0.166659	-92.000232	-47.362369	65.282831	-47.362369	65.282831	-0.166660	-92.001116
6.300000	-0.169133	-92.651336	-47.184685	63.785491	-47.184685	63.785491	-0.169134	-92.652225
6.350000	-0.171606	-93.302440	-47.010562	62.288151	-47.010562	62.288151	-0.171607	-93.303333
6.400000	-0.174145	-93.951172	-46.836777	60.792817	-46.836777	60.792817	-0.174147	-93.952070
6.450000	-0.176691	-94.599687	-46.666126	59.297666	-46.666126	59.297666	-0.176692	-94.600590
6.500000	-0.179298	-95.246089	-46.496104	57.804390	-46.496104	57.804390	-0.179299	-95.246996
6.550000	-0.181917	-95.892067	-46.328825	56.311489	-46.328825	56.311489	-0.181919	-95.892979
6.600000	-0.184593	-96.536182	-46.162438	54.820320	-46.162438	54.820320	-0.184594	-96.537098
6.650000	-0.187288	-97.179675	-45.998435	53.329729	-45.998435	53.329729	-0.187289	-97.180596
6.700000	-0.190034	-97.821549	-45.835559	51.840712	-45.835559	51.840712	-0.190035	-97.822474
6.750000	-0.192806	-98.462612	-45.674742	50.352483	-45.674742	50.352483	-0.192807	-98.463543
6.800000	-0.195623	-99.102292	-45.515259	48.865660	-45.515259	48.865660	-0.195625	-99.103226
6.850000	-0.198474	-99.740983	-45.357539	47.379842	-45.357539	47.379842	-0.198475	-99.741921
6.900000	-0.201365	-100.378516	-45.201340	45.895250	-45.201340	45.895250	-0.201366	-100.379459
6.950000	-0.204296	-101.014892	-45.046631	44.411884	-45.046631	44.411884	-0.204297	-101.015840
7.000000	-0.207261	-101.650329	-44.893608	42.929556	-44.893608	42.929556	-0.207262	-101.651281
7.050000	-0.210274	-102.284451	-44.741829	41.448681	-44.741829	41.448681	-0.210275	-102.285407
7.100000	-0.213315	-102.917843	-44.591880	39.968647	-44.591880	39.968647	-0.213317	-102.918803
7.150000	-0.216412	-103.549773	-44.442952	38.490293	-44.442952	38.490293	-0.216413	-103.550738
7.200000	-0.219530	-104.181172	-44.295982	37.012576	-44.295982	37.012576	-0.219531	-104.182141
7.250000	-0.222712	-104.810975	-44.149827	35.536768	-44.149827	35.536768	-0.222713	-104.811948
7.300000	-0.225909	-105.440435	-44.005742	34.061389	-44.005742	34.061389	-0.225910	-105.441411
7.350000	-0.229177	-106.068176	-43.862288	32.588146	-43.862288	32.588146	-0.229178	-106.069157
7.400000	-0.232454	-106.695751	-43.720998	31.115118	-43.720998	31.115118	-0.232455	-106.696736
7.450000	-0.235810	-107.321498	-43.580173	29.644451	-43.580173	29.644451	-0.235812	-107.322487
7.500000	-0.239168	-107.947245	-43.441595	28.173785	-43.441595	28.173785	-0.239170	-107.948239
7.550000	-0.242614	-108.571067	-43.303329	26.705698	-43.303329	26.705698	-0.242616	-108.572065
7.600000	-0.246062	-109.194890	-43.167230	25.237610	-43.167230	25.237610	-0.246063	-109.195892
7.650000	-0.249592	-109.817012	-43.031608	23.771884	-43.031608	23.771884	-0.249593	-109.818019
7.700000	-0.253131	-110.438981	-42.897925	22.306372	-42.897925	22.306372	-0.253132	-110.439991
7.750000	-0.256746	-111.059464	-42.764866	20.842995	-42.764866	20.842995	-0.256747	-111.060480
7.800000	-0.260377	-111.679651	-42.633538	19.380045	-42.633538	19.380045	-0.260379	-111.680671
7.850000	-0.264078	-112.298557	-42.502966	17.919001	-42.502966	17.919001	-0.264080	-112.299582
7.900000	-0.267804	-112.917037	-42.373934	16.458592	-42.373934	16.458592	-0.267805	-112.918066
7.950000	-0.271592	-113.534428	-42.245777	14.999856	-42.245777	14.999856	-0.271594	-113.535462
8.000000	-0.275413	-114.151276	-42.118984	13.541956	-42.118984	13.541956	-0.275415	-114.152315
8.050000	-0.279290	-114.767218	-41.993171	12.085496	-41.993171	12.085496	-0.279292	-114.768261
8.100000	-0.283207	-115.382512	-41.868561	10.630066	-41.868561	10.630066	-0.283209	-115.383560
8.150000	-0.287174	-115.997068	-41.745026	9.175844	-41.745026	9.175844	-0.287175	-115.998122
8.200000	-0.291189	-116.610887	-41.622547	7.722830	-41.622547	7.722830	-0.291191	-116.611946
8.250000	-0.295246	-117.224124	-41.501226	6.270799	-41.501226	6.270799	-0.295248	-117.225189
8.300000	-0.299361	-117.836548	-41.380826	4.820142	-41.380826	4.820142	-0.299362	-117.837619
8.350000	-0.303509	-118.448535	-41.261659	3.370246	-41.261659	3.370246	-0.303511	-118.449611
8.400000	-0.307724	-119.059647	-41.143289	1.921873	-41.143289	1.921873	-0.307726	-119.060729
8.450000	-0.311965	-119.670452	-41.026217	0.474050	-41.026217	0.474050	-0.311967	-119.671540
8.500000	-0.316281	-120.280335	-40.909831	-0.972123	-40.909831	-0.972123	-0.316283	-120.281430
8.550000	-0.320615	-120.890027	-40.794799	-2.417945	-40.794799	-2.417945	-0.320617	-120.891129
8.600000	-0.325034	-121.498767	-40.680353	-3.862012	-40.680353	-3.862012	-0.325036	-121.499877
8.650000	-0.329463	-122.107420	-40.567308	-5.305912	-40.567308	-5.305912	-0.329465	-122.108536
8.700000	-0.333984	-122.715103	-40.454761	-6.747979	-40.454761	-6.747979	-0.333987	-122.716227
8.750000	-0.338508	-123.322787	-40.343653	-8.190046	-40.343653	-8.190046	-0.338511	-123.323919
8.800000	-0.343134	-123.929504	-40.232965	-9.630230	-40.232965	-9.630230	-0.343137	-123.930644
8.850000	-0.347763	-124.536220	-40.123670	-11.070414	-40.123670	-11.070414	-0.347765	-124.537368
8.900000	-0.352485	-125.142132	-40.014882	-12.508991	-40.014882	-12.508991	-0.352488	-125.143290
8.950000	-0.357219	-125.747971	-39.907364	-13.947421	-39.907364	-13.947421	-0.357221	-125.749138
9.000000	-0.362039	-126.353156	-39.800435	-15.384505	-39.800435	-15.384505	-0.362041	-126.354333
9.050000	-0.366878	-126.958210	-39.694662	-16.821321	-39.694662	-16.821321	-0.366881	-126.959396
9.100000	-0.371796	-127.562745	-39.589551	-18.257039	-39.589551	-18.257039	-0.371799	-127.563942
9.150000	-0.376741	-128.167107	-39.485494	-19.692391	-39.485494	-19.692391	-0.376745	-128.168316
9.200000	-0.381758	-128.771072	-39.382164	-21.126874	-39.382164	-21.126874	-0.381761	-128.772292
9.250000	-0.386811	-129.374838	-39.279798	-22.560923	-39.279798	-22.560923	-0.386814	-129.376070
9.300000	-0.391926	-129.978313	-39.178214	-23.994311	-39.178214	-23.994311	-0.391929	-129.979558
9.350000	-0.397086	-130.581581	-39.077516	-25.427228	-39.077516	-25.427228	-0.397090	-130.582838
9.400000	-0.402300	-131.184648	-38.977649	-26.859669	-38.977649	-26.859669	-0.402305	-131.185920
9.450000	-0.407569	-131.787515	-38.878599	-28.291635	-38.878599	-28.291635	-0.407573	-131.788801
9.500000	-0.412883	-132.390258	-38.780421	-29.723282	-38.780421	-29.723282	-0.412887	-132.391559
9.550000	-0.418259	-132.992826	-38.683003	-31.154484	-38.683003	-31.154484	-0.418264	-132.994143
9.600000	-0.423673	-133.595329	-38.586491	-32.585497	-38.586491	-32.585497	-0.423678	-133.596662
9.650000	-0.429158	-134.197701	-38.490694	-34.016132	-38.490694	-34.016132	-0.429163	-134.199052
9.700000	-0.434671	-134.800050	-38.395826	-35.446675	-38.395826	-35.446675	-0.434677	-134.801419
9.750000	-0.440264	-135.402331	-38.301641	-36.876946	-38.301641	-36.876946	-0.440271	-135.403718
9.800000	-0.445878	-136.004614	-38.208401	-38.307190	-38.208401	-38.307190	-0.445884	-136.006020
9.850000	-0.451579	-136.606909	-38.115825	-39.737304	-38.115825	-39.737304	-0.451586	-136.608336
9.900000	-0.457293	-137.209215	-38.024198	-41.167422	-38.024198	-41.167422	-0.457300	-137.210663
9.950000	-0.463102	-137.811634	-37.933231	-42.597590	-37.933231	-42.597590	-0.463110	-137.813105
10.000000	-0.468915	-138.414054	-37.843207	-44.027759	-37.843207	-44.027759	-0.468924	-138.415548
