! freq	dB(S11)	phase(S11)	dB(S12)	phase(S12)	
!     	dB(S21)	phase(S21)	dB(S22)	phase(S22)	
!S-par simulation data
#  GHz  S  DB  R 50
0.000000	-0.000000	0.000000	-314.589513	0.000000	-314.589513	0.000000	-0.000000	0.000000
0.050000	-0.000166	-1.747582	-68.052656	-27.260746	-68.052656	-27.260746	-0.000166	-1.747128
0.100000	-0.000662	-3.494780	-67.232493	-12.608499	-67.232493	-12.608499	-0.000660	-3.493874
0.150000	-0.001476	-5.241223	-67.062133	-6.311526	-67.062133	-6.311526	-0.001472	-5.239868
0.200000	-0.002588	-6.986576	-67.002387	-2.406827	-67.002387	-2.406827	-0.002581	-6.984777
0.250000	-0.003995	-8.730425	-66.977461	0.464989	-66.977461	0.464989	-0.003984	-8.728189
0.300000	-0.005646	-10.472616	-66.964720	2.883585	-66.964720	2.883585	-0.005631	-10.469948
0.350000	-0.007525	-12.212837	-66.958396	5.024481	-66.958396	5.024481	-0.007505	-12.209747
0.400000	-0.009603	-13.950870	-66.955169	7.002864	-66.955169	7.002864	-0.009579	-13.947365
0.450000	-0.011850	-15.686532	-66.953254	8.884099	-66.953254	8.884099	-0.011822	-15.682618
0.500000	-0.014238	-17.419671	-66.951490	10.708581	-66.951490	10.708581	-0.014207	-17.415358
0.550000	-0.016739	-19.150171	-66.948982	12.503014	-66.948982	12.503014	-0.016704	-19.145464
0.600000	-0.019326	-20.877939	-66.944943	14.286032	-66.944943	14.286032	-0.019288	-20.872845
0.650000	-0.021975	-22.602909	-66.938614	16.071192	-66.938614	16.071192	-0.021934	-22.597433
0.700000	-0.024665	-24.325031	-66.929226	17.868672	-66.929226	17.868672	-0.024623	-24.319180
0.750000	-0.027378	-26.044274	-66.915976	19.686242	-66.915976	19.686242	-0.027335	-26.038051
0.800000	-0.030098	-27.760617	-66.898016	21.529854	-66.898016	21.529854	-0.030055	-27.754026
0.850000	-0.032811	-29.474046	-66.874446	23.403989	-66.874446	23.403989	-0.032768	-29.467092
0.900000	-0.035507	-31.184557	-66.844316	25.311850	-66.844316	25.311850	-0.035465	-31.177242
0.950000	-0.038177	-32.892146	-66.806626	27.255476	-66.806626	27.255476	-0.038136	-32.884474
1.000000	-0.040815	-34.596813	-66.760336	29.235787	-66.760336	29.235787	-0.040775	-34.588787
1.050000	-0.043416	-36.298559	-66.704379	31.252598	-66.704379	31.252598	-0.043377	-36.290183
1.100000	-0.045977	-37.997385	-66.637668	33.304616	-66.637668	33.304616	-0.045940	-37.988662
1.150000	-0.048495	-39.693291	-66.559123	35.389430	-66.559123	35.389430	-0.048460	-39.684224
1.200000	-0.050970	-41.386276	-66.467687	37.503510	-66.467687	37.503510	-0.050938	-41.376869
1.250000	-0.053403	-43.076339	-66.362351	39.642218	-66.362351	39.642218	-0.053372	-43.066596
1.300000	-0.055791	-44.763351	-66.241410	41.800350	-66.241410	41.800350	-0.055763	-44.753277
1.350000	-0.058139	-46.447437	-66.104685	43.970000	-66.104685	43.970000	-0.058113	-46.437037
1.400000	-0.060448	-48.128596	-65.951473	46.143463	-65.951473	46.143463	-0.060424	-48.117874
1.450000	-0.062721	-49.806824	-65.781220	48.312305	-65.781220	48.312305	-0.062699	-49.795786
1.500000	-0.064959	-51.482122	-65.593539	50.467539	-65.593539	50.467539	-0.064939	-51.470773
1.550000	-0.067166	-53.154490	-65.388223	52.599819	-65.388223	52.599819	-0.067147	-53.142836
1.600000	-0.069344	-54.823928	-65.165252	54.699648	-65.165252	54.699648	-0.069327	-54.811976
1.650000	-0.071495	-56.490442	-64.924791	56.757594	-64.924791	56.757594	-0.071480	-56.478199
1.700000	-0.073623	-58.154037	-64.667184	58.764490	-64.667184	58.764490	-0.073609	-58.141509
1.750000	-0.075730	-59.814723	-64.392938	60.711619	-64.392938	60.711619	-0.075718	-59.801917
1.800000	-0.077819	-61.472510	-64.102707	62.590874	-64.102707	62.590874	-0.077808	-61.459435
1.850000	-0.079892	-63.127415	-63.797269	64.394880	-63.797269	64.394880	-0.079882	-63.114078
1.900000	-0.081953	-64.779456	-63.477502	66.117086	-63.477502	66.117086	-0.081943	-64.765865
1.950000	-0.084002	-66.428656	-63.144354	67.751811	-63.144354	67.751811	-0.083994	-66.414819
2.000000	-0.086044	-68.075041	-62.798826	69.294265	-62.798826	69.294265	-0.086036	-68.060967
2.050000	-0.088079	-69.718642	-62.441943	70.740530	-62.441943	70.740530	-0.088072	-69.704339
2.100000	-0.090111	-71.359494	-62.074733	72.087522	-62.074733	72.087522	-0.090104	-71.344972
2.150000	-0.092141	-72.997638	-61.698214	73.332932	-61.698214	73.332932	-0.092134	-72.982904
2.200000	-0.094171	-74.633116	-61.313375	74.475144	-61.313375	74.475144	-0.094165	-74.618180
2.250000	-0.096203	-76.265978	-60.921168	75.513163	-60.921168	75.513163	-0.096197	-76.250850
2.300000	-0.098239	-77.896278	-60.522497	76.446521	-60.522497	76.446521	-0.098233	-77.880966
2.350000	-0.100280	-79.524074	-60.118218	77.275193	-60.118218	77.275193	-0.100275	-79.508588
2.400000	-0.102330	-81.149430	-59.709130	77.999519	-59.709130	77.999519	-0.102325	-81.133780
2.450000	-0.104387	-82.772414	-59.295980	78.620127	-59.295980	78.620127	-0.104383	-82.756610
2.500000	-0.106456	-84.393100	-58.879462	79.137862	-58.879462	79.137862	-0.106451	-84.377151
2.550000	-0.108537	-86.011475	-58.459241	79.549357	-58.459241	79.549357	-0.108532	-85.995391
2.600000	-0.110631	-87.627721	-58.036923	79.860210	-58.036923	79.860210	-0.110627	-87.611512
2.650000	-0.112739	-89.241928	-57.613066	80.071610	-57.613066	80.071610	-0.112735	-89.225605
2.700000	-0.114864	-90.854192	-57.188191	80.184774	-57.188191	80.184774	-0.114860	-90.837764
2.750000	-0.117006	-92.464610	-56.762785	80.200922	-56.762785	80.200922	-0.117002	-92.448088
2.800000	-0.119166	-94.073288	-56.337310	80.121262	-56.337310	80.121262	-0.119163	-94.056682
2.850000	-0.121345	-95.680336	-55.912204	79.946979	-55.912204	79.946979	-0.121343	-95.663655
2.900000	-0.123545	-97.285867	-55.487889	79.679226	-55.487889	79.679226	-0.123543	-97.269122
2.950000	-0.125766	-98.890000	-55.064771	79.319130	-55.064771	79.319130	-0.125765	-98.873202
3.000000	-0.128010	-100.492861	-54.643251	78.867791	-54.643251	78.867791	-0.128009	-100.476020
3.050000	-0.130277	-102.094578	-54.223719	78.326292	-54.223719	78.326292	-0.130277	-102.077704
3.100000	-0.132568	-103.695286	-53.806567	77.695714	-53.806567	77.695714	-0.132569	-103.678390
3.150000	-0.134885	-105.295122	-53.392184	76.977147	-53.392184	76.977147	-0.134886	-105.278216
3.200000	-0.137228	-106.894232	-52.980963	76.171709	-52.980963	76.171709	-0.137230	-106.877325
3.250000	-0.139598	-108.492763	-52.573299	75.280568	-52.573299	75.280568	-0.139601	-108.475866
3.300000	-0.141995	-110.090869	-52.169592	74.304960	-52.169592	74.304960	-0.142000	-110.073993
3.350000	-0.144421	-111.688707	-51.770244	73.246214	-51.770244	73.246214	-0.144427	-111.671863
3.400000	-0.146877	-113.286440	-51.375663	72.105774	-51.375663	72.105774	-0.146884	-113.269639
3.450000	-0.149362	-114.884235	-50.986259	70.885218	-50.986259	70.885218	-0.149370	-114.867488
3.500000	-0.151879	-116.482263	-50.602442	69.586286	-50.602442	69.586286	-0.151888	-116.465582
3.550000	-0.154426	-118.080701	-50.224619	68.210893	-50.224619	68.210893	-0.154438	-118.064097
3.600000	-0.157007	-119.679729	-49.853192	66.761150	-49.853192	66.761150	-0.157019	-119.663214
3.650000	-0.159620	-121.279532	-49.488553	65.239373	-49.488553	65.239373	-0.159634	-121.263117
3.700000	-0.162266	-122.880300	-49.131080	63.648095	-49.131080	63.648095	-0.162282	-122.863997
3.750000	-0.164947	-124.482225	-48.781133	61.990067	-48.781133	61.990067	-0.164965	-124.466047
3.800000	-0.167664	-126.085576	-48.438830	60.265635	-48.438830	60.265635	-0.167683	-126.069535
3.850000	-0.170416	-127.690504	-48.104774	58.480903	-48.104774	58.480903	-0.170438	-127.674613
3.900000	-0.173204	-129.297217	-47.779229	56.639262	-47.779229	56.639262	-0.173228	-129.281487
3.950000	-0.176029	-130.905925	-47.462418	54.744262	-47.462418	54.744262	-0.176055	-130.890370
4.000000	-0.178891	-132.516844	-47.154516	52.799586	-47.154516	52.799586	-0.178919	-132.501477
4.050000	-0.181790	-134.130193	-46.855649	50.809015	-46.855649	50.809015	-0.181820	-134.115027
4.100000	-0.184727	-135.746196	-46.565893	48.776381	-46.565893	48.776381	-0.184760	-135.731244
4.150000	-0.187703	-137.365079	-46.285263	46.705525	-46.285263	46.705525	-0.187738	-137.350356
4.200000	-0.190718	-138.987074	-46.013725	44.600254	-46.013725	44.600254	-0.190755	-138.972594
4.250000	-0.193773	-140.612417	-45.751185	42.464285	-45.751185	42.464285	-0.193812	-140.598193
4.300000	-0.196867	-142.241344	-45.497500	40.301205	-45.497500	40.301205	-0.196909	-142.227392
4.350000	-0.200001	-143.874100	-45.252473	38.114422	-45.252473	38.114422	-0.200045	-143.860434
4.400000	-0.203175	-145.510929	-45.015862	35.907126	-45.015862	35.907126	-0.203223	-145.497565
4.450000	-0.206391	-147.152082	-44.787383	33.682251	-44.787383	33.682251	-0.206441	-147.139036
4.500000	-0.209647	-148.797812	-44.566714	31.442446	-44.566714	31.442446	-0.209700	-148.785099
4.550000	-0.212945	-150.448374	-44.353504	29.190046	-44.353504	29.190046	-0.213000	-150.436011
4.600000	-0.216284	-152.104029	-44.147375	26.927059	-44.147375	26.927059	-0.216342	-152.092032
4.650000	-0.219665	-153.765039	-43.947931	24.655151	-43.947931	24.655151	-0.219726	-153.753426
4.700000	-0.223088	-155.431670	-43.754763	22.375642	-43.754763	22.375642	-0.223152	-155.420458
4.750000	-0.226553	-157.104191	-43.567456	20.089506	-43.567456	20.089506	-0.226620	-157.093399
4.800000	-0.230060	-158.782874	-43.385593	17.797377	-43.385593	17.797377	-0.230130	-158.772519
4.850000	-0.233609	-160.467993	-43.208764	15.499560	-43.208764	15.499560	-0.233681	-160.458095
4.900000	-0.237200	-162.159825	-43.036563	13.196045	-43.036563	13.196045	-0.237275	-162.150404
4.950000	-0.240833	-163.858650	-42.868601	10.886524	-42.868601	10.886524	-0.240912	-163.849725
5.000000	-0.244508	-165.564749	-42.704502	8.570410	-42.704502	8.570410	-0.244590	-165.556341
5.050000	-0.248226	-167.278749	-42.543921	6.246484	-42.543921	6.246484	-0.248311	-167.270878
5.100000	-0.251986	-169.000618	-42.386495	3.913922	-42.386495	3.913922	-0.252074	-168.993307
5.150000	-0.255787	-170.730645	-42.231912	1.571404	-42.231912	1.571404	-0.255879	-170.723916
5.200000	-0.259629	-172.469118	-42.079887	-0.782577	-42.079887	-0.782577	-0.259724	-172.462993
5.250000	-0.263511	-174.216328	-41.930155	-3.149694	-41.930155	-3.149694	-0.263610	-174.210831
5.300000	-0.267434	-175.972566	-41.782478	-5.531769	-41.782478	-5.531769	-0.267536	-175.967720
5.350000	-0.271396	-177.738124	-41.636641	-7.930751	-41.636641	-7.930751	-0.271502	-177.733953
5.400000	-0.275397	-179.513295	-41.492450	-10.348701	-41.492450	-10.348701	-0.275507	-179.509824
5.450000	-0.279437	178.701629	-41.349733	-12.787775	-41.349733	-12.787775	-0.279550	178.704375
5.500000	-0.283515	176.906355	-41.208337	-15.250211	-41.208337	-15.250211	-0.283632	176.908350
5.550000	-0.287629	175.100590	-41.068125	-17.738318	-41.068125	-17.738318	-0.287751	175.101808
5.600000	-0.291781	173.284044	-40.928975	-20.254463	-40.928975	-20.254463	-0.291906	173.284458
5.650000	-0.295967	171.456426	-40.790776	-22.801065	-40.790776	-22.801065	-0.296097	171.456008
5.700000	-0.300189	169.617447	-40.653426	-25.380585	-40.653426	-25.380585	-0.300323	169.616170
5.750000	-0.304444	167.766819	-40.516825	-27.995524	-40.516825	-27.995524	-0.304582	167.764654
5.800000	-0.308732	165.904257	-40.380877	-30.648416	-40.380877	-30.648416	-0.308875	165.901175
5.850000	-0.313052	164.029478	-40.245480	-33.341832	-40.245480	-33.341832	-0.313200	164.025450
5.900000	-0.317402	162.142203	-40.110523	-36.078374	-40.110523	-36.078374	-0.317556	162.137198
5.950000	-0.321783	160.242154	-39.975881	-38.860678	-39.975881	-38.860678	-0.321941	160.236143
6.000000	-0.326192	158.329057	-39.841411	-41.691423	-39.841411	-41.691423	-0.326356	158.322009
6.050000	-0.330630	156.402644	-39.706940	-44.573329	-39.706940	-44.573329	-0.330799	156.394527
6.100000	-0.335094	154.462647	-39.572263	-47.509168	-39.572263	-47.509168	-0.335269	154.453430
6.150000	-0.339584	152.508806	-39.437134	-50.501768	-39.437134	-50.501768	-0.339765	152.498457
6.200000	-0.344100	150.540862	-39.301256	-53.554028	-39.301256	-53.554028	-0.344287	150.529351
6.250000	-0.348640	148.558564	-39.164272	-56.668918	-39.164272	-56.668918	-0.348833	148.545857
6.300000	-0.353205	146.561015	-39.025569	-59.852502	-39.025569	-59.852502	-0.353404	146.547079
6.350000	-0.357794	144.548597	-38.884766	-63.105221	-38.884766	-63.105221	-0.358000	144.533399
6.400000	-0.362406	142.521068	-38.741244	-66.430336	-38.741244	-66.430336	-0.362619	142.504577
6.450000	-0.367043	140.478193	-38.594276	-69.831211	-38.594276	-69.831211	-0.367263	140.460376
6.500000	-0.371705	138.419736	-38.443010	-73.311306	-38.443010	-73.311306	-0.371933	138.400561
6.550000	-0.376393	136.345464	-38.286452	-76.874171	-38.286452	-76.874171	-0.376629	136.324900
6.600000	-0.381111	134.255141	-38.123453	-80.523420	-38.123453	-80.523420	-0.381354	134.233157
6.650000	-0.385860	132.148532	-37.952686	-84.262710	-37.952686	-84.262710	-0.386111	132.125096
6.700000	-0.390640	130.027333	-37.774329	-88.084453	-37.774329	-88.084453	-0.390899	130.002421
6.750000	-0.395468	127.886697	-37.582774	-92.018701	-37.582774	-92.018701	-0.395736	127.860273
6.800000	-0.400342	125.730244	-37.379529	-96.046426	-37.379529	-96.046426	-0.400618	125.702282
6.850000	-0.405277	123.555694	-37.160203	-100.182702	-37.160203	-100.182702	-0.405562	123.526167
6.900000	-0.410282	121.363741	-36.923579	-104.424373	-36.923579	-104.424373	-0.410575	121.332622
6.950000	-0.415373	119.154025	-36.666853	-108.773941	-36.666853	-108.773941	-0.415675	119.121290
7.000000	-0.420577	116.925068	-36.385200	-113.239786	-36.385200	-113.239786	-0.420888	116.890695
7.050000	-0.425906	114.678554	-36.079232	-117.810239	-36.079232	-117.810239	-0.426226	114.642523
7.100000	-0.431422	112.410528	-35.738065	-122.505578	-35.738065	-122.505578	-0.431751	112.372819
7.150000	-0.437136	110.124097	-35.366372	-127.303796	-35.366372	-127.303796	-0.437474	110.084696
7.200000	-0.443151	107.814740	-34.950175	-132.223713	-34.950175	-132.223713	-0.443497	107.773633
7.250000	-0.449506	105.484230	-34.492794	-137.248943	-34.492794	-137.248943	-0.449861	105.441411
7.300000	-0.456343	103.129300	-33.983034	-142.386768	-33.983034	-142.386768	-0.456706	103.084762
7.350000	-0.463804	100.748480	-33.416522	-147.634415	-33.416522	-147.634415	-0.464174	100.702226
7.400000	-0.472069	98.340263	-32.789947	-152.988661	-32.789947	-152.988661	-0.472446	98.292300
7.450000	-0.481541	95.898235	-32.084519	-158.464800	-32.084519	-158.464800	-0.481923	95.848580
7.500000	-0.492438	93.423122	-31.311971	-164.053821	-31.311971	-164.053821	-0.492825	93.371797
7.550000	-0.505695	90.902366	-30.437609	-169.795263	-30.437609	-169.795263	-0.506084	90.849412
7.600000	-0.522270	88.329037	-29.457019	-175.715564	-29.457019	-175.715564	-0.522658	88.274512
7.650000	-0.543816	85.690468	-28.355463	178.129161	-28.355463	178.129161	-0.544197	85.634453
7.700000	-0.573387	82.965497	-27.104880	171.634009	-27.104880	171.634009	-0.573753	82.908112
7.750000	-0.616507	80.123697	-25.672089	164.622574	-25.672089	164.622574	-0.616844	80.065118
7.800000	-0.683872	77.121152	-24.015632	156.786974	-24.015632	156.786974	-0.684153	77.061638
7.850000	-0.799157	73.896203	-22.071347	147.528163	-22.071347	147.528163	-0.799326	73.836152
7.900000	-1.018054	70.416318	-19.771671	135.648175	-19.771671	135.648175	-1.017988	70.356314
7.950000	-1.477014	67.029372	-17.110991	118.581765	-17.110991	118.581765	-1.476392	66.969982
8.000000	-2.340336	66.420021	-14.554098	91.737915	-14.554098	91.737915	-2.338383	66.359089
8.050000	-2.625142	72.719447	-13.778004	55.036901	-13.778004	55.036901	-2.622016	72.644162
8.100000	-1.717955	74.580564	-15.440089	23.462479	-15.440089	23.462479	-1.716062	74.493444
8.150000	-1.114205	71.464573	-17.749256	3.402034	-17.749256	3.402034	-1.113371	71.375374
8.200000	-0.839111	67.797602	-19.790161	-9.597244	-19.790161	-9.597244	-0.838792	67.708071
8.250000	-0.705749	64.383367	-21.467707	-18.977080	-21.467707	-18.977080	-0.705694	64.293383
8.300000	-0.634566	61.227172	-22.843616	-26.368974	-22.843616	-26.368974	-0.634660	61.136446
8.350000	-0.593511	58.257990	-23.984426	-32.563351	-23.984426	-32.563351	-0.593697	58.166300
8.400000	-0.568198	55.416927	-24.948589	-37.991450	-24.948589	-37.991450	-0.568444	55.324126
8.450000	-0.552187	52.669758	-25.766307	-42.869827	-25.766307	-42.869827	-0.552475	52.575749
8.500000	-0.541488	49.986884	-26.479373	-47.371962	-26.479373	-47.371962	-0.541806	49.891614
8.550000	-0.534368	47.354755	-27.102215	-51.575317	-27.102215	-51.575317	-0.534708	47.258192
8.600000	-0.529645	44.762412	-27.651101	-55.543203	-27.651101	-55.543203	-0.530001	44.664544
8.650000	-0.526588	42.202352	-28.138654	-59.320392	-28.138654	-59.320392	-0.526957	42.103180
8.700000	-0.524730	39.669364	-28.574849	-62.939702	-28.574849	-62.939702	-0.525107	39.568900
8.750000	-0.523760	37.159796	-28.967697	-66.425943	-28.967697	-66.425943	-0.524144	37.058060
8.800000	-0.523480	34.671490	-29.322764	-69.796238	-29.322764	-69.796238	-0.523869	34.568508
8.850000	-0.523729	32.202175	-29.646696	-73.068503	-29.646696	-73.068503	-0.524121	32.097977
8.900000	-0.524406	29.750623	-29.943910	-76.254883	-29.943910	-76.254883	-0.524801	29.645244
8.950000	-0.525442	27.315998	-30.218149	-79.365325	-30.218149	-79.365325	-0.525837	27.209474
9.000000	-0.526783	24.897751	-30.472607	-82.408055	-30.472607	-82.408055	-0.527179	24.790123
9.050000	-0.528395	22.495549	-30.710038	-85.389926	-30.710038	-85.389926	-0.528791	22.386858
9.100000	-0.530251	20.109217	-30.932825	-88.316661	-30.932825	-88.316661	-0.530647	19.999506
9.150000	-0.532333	17.738699	-31.143053	-91.193049	-31.143053	-91.193049	-0.532728	17.628012
9.200000	-0.534648	15.385583	-31.341199	-94.018839	-31.341199	-94.018839	-0.535043	15.273969
9.250000	-0.537150	13.047037	-31.531627	-96.805683	-31.531627	-96.805683	-0.537545	12.934538
9.300000	-0.539852	10.724579	-31.714362	-99.552212	-31.714362	-99.552212	-0.540248	10.611238
9.350000	-0.542752	8.418377	-31.890664	-102.260626	-31.890664	-102.260626	-0.543149	8.304241
9.400000	-0.545849	6.128621	-32.061649	-104.932677	-32.061649	-104.932677	-0.546248	6.013734
9.450000	-0.549145	3.855510	-32.228310	-107.569717	-32.228310	-107.569717	-0.549546	3.739917
9.500000	-0.552640	1.599247	-32.391527	-110.172747	-32.391527	-110.172747	-0.553045	1.482992
9.550000	-0.556339	-0.639968	-32.552082	-112.742461	-32.552082	-112.742461	-0.556749	-0.756842
9.600000	-0.560243	-2.861943	-32.710664	-115.279284	-32.710664	-115.279284	-0.560661	-2.979392
9.650000	-0.564358	-5.066493	-32.867880	-117.783410	-32.867880	-117.783410	-0.564784	-5.184477
9.700000	-0.568687	-7.253450	-33.024261	-120.254831	-33.024261	-120.254831	-0.569123	-7.371929
9.750000	-0.573234	-9.422661	-33.180266	-122.693377	-33.180266	-122.693377	-0.573684	-9.541594
9.800000	-0.578005	-11.573987	-33.336291	-125.098737	-33.336291	-125.098737	-0.578469	-11.693337
9.850000	-0.583003	-13.707312	-33.492671	-127.470498	-33.492671	-127.470498	-0.583486	-13.827040
9.900000	-0.588234	-15.822534	-33.649685	-129.808161	-33.649685	-129.808161	-0.588737	-15.942606
9.950000	-0.593702	-17.919575	-33.807561	-132.111174	-33.807561	-132.111174	-0.594229	-18.039955
10.000000	-0.599411	-19.998375	-33.966481	-134.378954	-33.966481	-134.378954	-0.599965	-20.119030
