! freq	dB(S11)	phase(S11)	dB(S12)	phase(S12)	
!     	dB(S21)	phase(S21)	dB(S22)	phase(S22)	
!S-par simulation data
#  GHz  S  DB  R 50
0.000000	0.000000	0.000000	-287.916045	180.000000	-287.916045	180.000000	-0.000000	0.000000
0.050000	-0.003666	-1.614311	-99.790102	87.754308	-99.790102	87.754308	-0.001610	-1.415503
0.100000	-0.006809	-3.197253	-93.871037	86.537784	-93.871037	86.537784	-0.004291	-2.815795
0.150000	-0.008420	-4.776906	-90.425012	85.296776	-90.425012	85.296776	-0.006355	-4.207853
0.200000	-0.009608	-6.357152	-88.006699	84.013285	-88.006699	84.013285	-0.007908	-5.597774
0.250000	-0.010727	-7.937516	-86.166214	82.717552	-86.166214	82.717552	-0.009204	-6.987185
0.300000	-0.011913	-9.517261	-84.703735	81.432800	-84.703735	81.432800	-0.010415	-8.376329
0.350000	-0.013198	-11.095966	-83.503334	80.172469	-83.503334	80.172469	-0.011635	-9.765105
0.400000	-0.014600	-12.673214	-82.503561	78.949453	-82.503561	78.949453	-0.012904	-11.153305
0.450000	-0.016116	-14.248693	-81.663155	77.775422	-81.663155	77.775422	-0.014240	-12.540739
0.500000	-0.017751	-15.821933	-80.960114	76.669256	-80.960114	76.669256	-0.015658	-13.927138
0.550000	-0.019485	-17.392821	-80.370758	75.641823	-80.370758	75.641823	-0.017152	-15.312407
0.600000	-0.021307	-18.961215	-79.879657	74.707063	-79.879657	74.707063	-0.018717	-16.696450
0.650000	-0.023203	-20.526941	-79.476703	73.883035	-79.476703	73.883035	-0.020347	-18.079163
0.700000	-0.025162	-22.089844	-79.154470	73.191145	-79.154470	73.191145	-0.022035	-19.460457
0.750000	-0.027175	-23.649781	-78.907487	72.657090	-78.907487	72.657090	-0.023773	-20.840252
0.800000	-0.029229	-25.206546	-78.733317	72.317672	-78.733317	72.317672	-0.025556	-22.218441
0.850000	-0.031318	-26.759787	-78.633224	72.232503	-78.633224	72.232503	-0.027378	-23.594848
0.900000	-0.033428	-28.309686	-78.598434	72.433424	-78.598434	72.433424	-0.029227	-24.969568
0.950000	-0.035552	-29.856145	-78.626229	72.982050	-78.626229	72.982050	-0.031099	-26.342556
1.000000	-0.037683	-31.399070	-78.713142	73.954449	-78.713142	73.954449	-0.032986	-27.713775
1.050000	-0.039815	-32.938377	-78.853940	75.443671	-78.853940	75.443671	-0.034884	-29.083189
1.100000	-0.041942	-34.473984	-79.040101	77.561182	-79.040101	77.561182	-0.036789	-30.450769
1.150000	-0.044059	-36.005530	-79.257792	80.501227	-79.257792	80.501227	-0.038696	-31.816350
1.200000	-0.046162	-37.533050	-79.478743	84.392957	-79.478743	84.392957	-0.040600	-33.179961
1.250000	-0.048248	-39.056637	-79.664468	89.309995	-79.664468	89.309995	-0.042500	-34.541662
1.300000	-0.050317	-40.576227	-79.764282	95.281553	-79.764282	95.281553	-0.044393	-35.901436
1.350000	-0.052365	-42.091755	-79.719068	102.194685	-79.719068	102.194685	-0.046277	-37.259266
1.400000	-0.054391	-43.603163	-79.474700	109.747934	-79.474700	109.747934	-0.048150	-38.615136
1.450000	-0.056395	-45.110366	-78.999413	117.470388	-78.999413	117.470388	-0.050011	-39.969022
1.500000	-0.058375	-46.612862	-78.274001	124.748833	-78.274001	124.748833	-0.051858	-41.320704
1.550000	-0.060331	-48.111061	-77.373782	131.191174	-77.373782	131.191174	-0.053693	-42.670390
1.600000	-0.062265	-49.604914	-76.358209	136.604951	-76.358209	136.604951	-0.055514	-44.018070
1.650000	-0.064178	-51.094373	-75.281923	140.965143	-75.281923	140.965143	-0.057323	-45.363739
1.700000	-0.066068	-52.579130	-74.179043	144.301677	-74.179043	144.301677	-0.059118	-46.707270
1.750000	-0.067938	-54.059463	-73.089007	146.816526	-73.089007	146.816526	-0.060902	-48.048805
1.800000	-0.069789	-55.535201	-72.024526	148.617865	-72.024526	148.617865	-0.062674	-49.388281
1.850000	-0.071621	-57.006307	-70.995056	149.831602	-70.995056	149.831602	-0.064435	-50.725697
1.900000	-0.073436	-58.472745	-70.004974	150.564739	-70.004974	150.564739	-0.066187	-52.061050
1.950000	-0.075236	-59.934484	-69.055574	150.905010	-69.055574	150.905010	-0.067930	-53.394344
2.000000	-0.077021	-61.391496	-68.146372	150.923134	-68.146372	150.923134	-0.069666	-54.725581
2.050000	-0.078794	-62.843755	-67.275914	150.675734	-67.275914	150.675734	-0.071396	-56.054766
2.100000	-0.080555	-64.291241	-66.442260	150.208131	-66.442260	150.208131	-0.073120	-57.381906
2.150000	-0.082306	-65.733935	-65.643279	149.556702	-65.643279	149.556702	-0.074841	-58.707008
2.200000	-0.084048	-67.171822	-64.876811	148.750800	-64.876811	148.750800	-0.076559	-60.030084
2.250000	-0.085783	-68.604892	-64.140760	147.814252	-64.140760	147.814252	-0.078276	-61.351146
2.300000	-0.087512	-70.033135	-63.433142	146.766533	-63.433142	146.766533	-0.079994	-62.670208
2.350000	-0.089237	-71.456549	-62.752105	145.623668	-62.752105	145.623668	-0.081713	-63.987289
2.400000	-0.090959	-72.875133	-62.095937	144.398936	-62.095937	144.398936	-0.083434	-65.302406
2.450000	-0.092679	-74.288889	-61.463062	143.103414	-61.463062	143.103414	-0.085161	-66.615581
2.500000	-0.094399	-75.697824	-60.852036	141.746399	-60.852036	141.746399	-0.086892	-67.926838
2.550000	-0.096120	-77.101741	-60.260685	140.333729	-60.260685	140.333729	-0.088631	-69.236122
2.600000	-0.097844	-78.500862	-59.688763	138.874605	-59.688763	138.874605	-0.090378	-70.543545
2.650000	-0.099571	-79.895205	-59.135142	137.374617	-59.135142	137.374617	-0.092135	-71.849139
2.700000	-0.101302	-81.284792	-58.598788	135.838578	-58.598788	135.838578	-0.093902	-73.152938
2.750000	-0.103040	-82.669647	-58.078753	134.270648	-58.078753	134.270648	-0.095682	-74.454977
2.800000	-0.104785	-84.049798	-57.574165	132.674438	-57.574165	132.674438	-0.097474	-75.755297
2.850000	-0.106538	-85.425276	-57.084222	131.053099	-57.084222	131.053099	-0.099281	-77.053939
2.900000	-0.108301	-86.796116	-56.608184	129.409389	-56.608184	129.409389	-0.101103	-78.350946
2.950000	-0.110074	-88.162357	-56.145365	127.745728	-56.145365	127.745728	-0.102943	-79.646367
3.000000	-0.111858	-89.524038	-55.695134	126.064252	-55.695134	126.064252	-0.104799	-80.940249
3.050000	-0.113655	-90.881204	-55.256903	124.366848	-55.256903	124.366848	-0.106675	-82.232647
3.100000	-0.115466	-92.233903	-54.830127	122.655189	-54.830127	122.655189	-0.108571	-83.523614
3.150000	-0.117290	-93.582185	-54.414297	120.930764	-54.414297	120.930764	-0.110487	-84.813209
3.200000	-0.119131	-94.926103	-54.008941	119.194899	-54.008941	119.194899	-0.112426	-86.101491
3.250000	-0.120987	-96.265712	-53.613617	117.448779	-53.613617	117.448779	-0.114387	-87.388524
3.300000	-0.122860	-97.601073	-53.227912	115.693463	-53.227912	115.693463	-0.116373	-88.674374
3.350000	-0.124752	-98.932246	-52.851440	113.929904	-52.851440	113.929904	-0.118383	-89.959110
3.400000	-0.126662	-100.259296	-52.483838	112.158957	-52.483838	112.158957	-0.120420	-91.242803
3.450000	-0.128592	-101.582290	-52.124765	110.381390	-52.124765	110.381390	-0.122483	-92.525527
3.500000	-0.130542	-102.901297	-51.773902	108.597897	-51.773902	108.597897	-0.124574	-93.807359
3.550000	-0.132513	-104.216390	-51.430948	106.809104	-51.430948	106.809104	-0.126693	-95.088380
3.600000	-0.134506	-105.527642	-51.095619	105.015576	-51.095619	105.015576	-0.128842	-96.368671
3.650000	-0.136522	-106.835131	-50.767648	103.217825	-50.767648	103.217825	-0.131022	-97.648319
3.700000	-0.138561	-108.138935	-50.446783	101.416313	-50.446783	101.416313	-0.133232	-98.927411
3.750000	-0.140625	-109.439135	-50.132784	99.611461	-50.132784	99.611461	-0.135475	-100.206039
3.800000	-0.142713	-110.735666	-49.825243	97.803535	-49.825243	97.803535	-0.137752	-101.484286
3.850000	-0.144828	-112.028771	-49.524150	95.993022	-49.524150	95.993022	-0.140062	-102.762267
3.900000	-0.146968	-113.318536	-49.229302	94.180231	-49.229302	94.180231	-0.142407	-104.040085
3.950000	-0.149135	-114.605051	-48.940506	92.365443	-48.940506	92.365443	-0.144788	-105.317842
4.000000	-0.151329	-115.888408	-48.657577	90.548914	-48.657577	90.548914	-0.147204	-106.595643
4.050000	-0.153551	-117.168701	-48.380342	88.730876	-48.380342	88.730876	-0.149657	-107.873597
4.100000	-0.155801	-118.446024	-48.108637	86.911540	-48.108637	86.911540	-0.152148	-109.151816
4.150000	-0.158081	-119.720474	-47.842303	85.091099	-47.842303	85.091099	-0.154677	-110.430415
4.200000	-0.160389	-120.992150	-47.581193	83.269728	-47.581193	83.269728	-0.157245	-111.709511
4.250000	-0.162727	-122.261151	-47.325163	81.447586	-47.325163	81.447586	-0.159853	-112.989225
4.300000	-0.165096	-123.527580	-47.074080	79.624819	-47.074080	79.624819	-0.162501	-114.269679
4.350000	-0.167495	-124.791539	-46.827814	77.801558	-46.827814	77.801558	-0.165191	-115.551001
4.400000	-0.169925	-126.053133	-46.586243	75.977926	-46.586243	75.977926	-0.167922	-116.833320
4.450000	-0.172387	-127.312468	-46.349252	74.154031	-46.349252	74.154031	-0.170695	-118.116768
4.500000	-0.174881	-128.569652	-46.116728	72.329974	-46.116728	72.329974	-0.173512	-119.401481
4.550000	-0.177407	-129.824792	-45.888566	70.505847	-45.888566	70.505847	-0.176373	-120.687597
4.600000	-0.179966	-131.077999	-45.664665	68.681735	-45.664665	68.681735	-0.179278	-121.975258
4.650000	-0.182559	-132.329385	-45.444929	66.857712	-45.444929	66.857712	-0.182228	-123.264609
4.700000	-0.185184	-133.579061	-45.229266	65.033852	-45.229266	65.033852	-0.185224	-124.555798
4.750000	-0.187843	-134.827141	-45.017588	63.210217	-45.017588	63.210217	-0.188267	-125.848975
4.800000	-0.190536	-136.073740	-44.809813	61.386869	-44.809813	61.386869	-0.191356	-127.144295
4.850000	-0.193263	-137.318973	-44.605860	59.563862	-44.605860	59.563862	-0.194493	-128.441915
4.900000	-0.196025	-138.562957	-44.405653	57.741247	-44.405653	57.741247	-0.197679	-129.741996
4.950000	-0.198821	-139.805811	-44.209121	55.919072	-44.209121	55.919072	-0.200913	-131.044702
5.000000	-0.201653	-141.047652	-44.016193	54.097383	-44.016193	54.097383	-0.204196	-132.350201
5.050000	-0.204520	-142.288569	-43.826778	52.276244	-43.826778	52.276244	-0.207532	-133.658799
5.100000	-0.207423	-143.528724	-43.640848	50.455675	-43.640848	50.455675	-0.210918	-134.970550
5.150000	-0.210362	-144.768241	-43.458340	48.635713	-43.458340	48.635713	-0.214355	-136.285632
5.200000	-0.213335	-146.007242	-43.279199	46.816393	-43.279199	46.816393	-0.217844	-137.604226
5.250000	-0.216345	-147.245850	-43.103368	44.997751	-43.103368	44.997751	-0.221386	-138.926517
5.300000	-0.219390	-148.484189	-42.930796	43.179820	-42.930796	43.179820	-0.224980	-140.252692
5.350000	-0.222471	-149.722385	-42.761433	41.362632	-42.761433	41.362632	-0.228627	-141.582945
5.400000	-0.225588	-150.960564	-42.595231	39.546221	-42.595231	39.546221	-0.232328	-142.917469
5.450000	-0.228740	-152.198852	-42.432146	37.730619	-42.432146	37.730619	-0.236083	-144.256464
5.500000	-0.231929	-153.437376	-42.272134	35.915858	-42.272134	35.915858	-0.239894	-145.600133
5.550000	-0.235153	-154.676264	-42.115155	34.101970	-42.115155	34.101970	-0.243759	-146.948682
5.600000	-0.238413	-155.915646	-41.961171	32.288990	-41.961171	32.288990	-0.247680	-148.302320
5.650000	-0.241710	-157.155651	-41.810143	30.476951	-41.810143	30.476951	-0.251657	-149.661262
5.700000	-0.245041	-158.396408	-41.662038	28.665889	-41.662038	28.665889	-0.255691	-151.025724
5.750000	-0.248409	-159.638048	-41.516824	26.855839	-41.516824	26.855839	-0.259782	-152.395928
5.800000	-0.251812	-160.880703	-41.374467	25.046840	-41.374467	25.046840	-0.263930	-153.772098
5.850000	-0.255251	-162.124505	-41.234941	23.238932	-41.234941	23.238932	-0.268136	-155.154463
5.900000	-0.258725	-163.369586	-41.098216	21.432155	-41.098216	21.432155	-0.272400	-156.543256
5.950000	-0.262235	-164.616078	-40.964267	19.626554	-40.964267	19.626554	-0.276723	-157.938712
6.000000	-0.265779	-165.864116	-40.833070	17.822175	-40.833070	17.822175	-0.281104	-159.341073
6.050000	-0.269359	-167.113834	-40.704601	16.019068	-40.704601	16.019068	-0.285544	-160.750581
6.100000	-0.272973	-168.365365	-40.578840	14.217284	-40.578840	14.217284	-0.290044	-162.167486
6.150000	-0.276622	-169.618846	-40.455767	12.416880	-40.455767	12.416880	-0.294604	-163.592037
6.200000	-0.280305	-170.874410	-40.335364	10.617915	-40.335364	10.617915	-0.299223	-165.024492
6.250000	-0.284023	-172.132195	-40.217614	8.820453	-40.217614	8.820453	-0.303903	-166.465108
6.300000	-0.287775	-173.392445	-40.102551	7.024634	-40.102551	7.024634	-0.308645	-167.914529
6.350000	-0.291562	-174.655200	-39.990117	5.230468	-39.990117	5.230468	-0.313448	-169.372666
6.400000	-0.295381	-175.920598	-39.880299	3.438035	-39.880299	3.438035	-0.318311	-170.839790
6.450000	-0.299233	-177.188775	-39.773086	1.647420	-39.773086	1.647420	-0.323236	-172.316176
6.500000	-0.303118	-178.459868	-39.668467	-0.141283	-39.668467	-0.141283	-0.328221	-173.802102
6.550000	-0.307036	-179.734016	-39.566433	-1.927974	-39.566433	-1.927974	-0.333268	-175.297851
6.600000	-0.310985	178.988644	-39.466977	-3.712545	-39.466977	-3.712545	-0.338375	-176.803706
6.650000	-0.314966	177.707974	-39.370093	-5.494878	-39.370093	-5.494878	-0.343544	-178.319956
6.700000	-0.318978	176.423836	-39.275773	-7.274847	-39.275773	-7.274847	-0.348773	-179.846894
6.750000	-0.323020	175.136091	-39.184016	-9.052314	-39.184016	-9.052314	-0.354064	178.615187
6.800000	-0.327093	173.844603	-39.094815	-10.827130	-39.094815	-10.827130	-0.359416	177.065988
6.850000	-0.331195	172.549232	-39.008170	-12.599136	-39.008170	-12.599136	-0.364830	175.505209
6.900000	-0.335327	171.249841	-38.924077	-14.368155	-38.924077	-14.368155	-0.370304	173.932547
6.950000	-0.339488	169.946293	-38.842537	-16.133999	-38.842537	-16.133999	-0.375840	172.347696
7.000000	-0.343677	168.638449	-38.763548	-17.896462	-38.763548	-17.896462	-0.381436	170.750348
7.050000	-0.347893	167.326174	-38.687110	-19.655322	-38.687110	-19.655322	-0.387094	169.140193
7.100000	-0.352135	166.009741	-38.613052	-21.410700	-38.613052	-21.410700	-0.392808	167.518093
7.150000	-0.356405	164.688151	-38.541735	-23.161586	-38.541735	-23.161586	-0.398588	165.881264
7.200000	-0.360701	163.361717	-38.472969	-24.908077	-38.472969	-24.908077	-0.404430	164.230680
7.250000	-0.365023	162.030305	-38.406756	-26.649863	-38.406756	-26.649863	-0.410333	162.566024
7.300000	-0.369369	160.693780	-38.343094	-28.386608	-38.343094	-28.386608	-0.416297	160.886980
7.350000	-0.373738	159.352008	-38.281982	-30.117949	-38.281982	-30.117949	-0.422323	159.193229
7.400000	-0.378131	158.004858	-38.223415	-31.843490	-38.223415	-31.843490	-0.428411	157.484453
7.450000	-0.382546	156.652199	-38.167389	-33.562802	-38.167389	-33.562802	-0.434561	155.760334
7.500000	-0.386983	155.293899	-38.113896	-35.275419	-38.113896	-35.275419	-0.440775	154.020553
7.550000	-0.391441	153.929702	-38.062976	-36.980669	-38.062976	-36.980669	-0.447054	152.264438
7.600000	-0.395919	152.559604	-38.014565	-38.678145	-38.014565	-38.678145	-0.453397	150.492012
7.650000	-0.400416	151.183478	-37.968645	-40.367249	-37.968645	-40.367249	-0.459808	148.702959
7.700000	-0.404931	149.801201	-37.925193	-42.047332	-37.925193	-42.047332	-0.466286	146.896963
7.750000	-0.409463	148.412650	-37.884177	-43.717689	-37.884177	-43.717689	-0.472835	145.073710
7.800000	-0.414012	147.017707	-37.845561	-45.377558	-37.845561	-45.377558	-0.479457	143.232887
7.850000	-0.418576	145.616253	-37.809295	-47.026108	-37.809295	-47.026108	-0.486155	141.374182
7.900000	-0.423155	144.208172	-37.775323	-48.662440	-37.775323	-48.662440	-0.492933	139.497283
7.950000	-0.427748	142.793353	-37.743572	-50.285579	-37.743572	-50.285579	-0.499796	137.601878
8.000000	-0.432353	141.371685	-37.713956	-51.894464	-37.713956	-51.894464	-0.506750	135.687655
8.050000	-0.436970	139.943061	-37.686369	-53.487948	-37.686369	-53.487948	-0.513801	133.754302
8.100000	-0.441597	138.507378	-37.660685	-55.064782	-37.660685	-55.064782	-0.520959	131.801501
8.150000	-0.446235	137.064456	-37.636767	-56.623402	-37.636767	-56.623402	-0.528234	129.828713
8.200000	-0.450881	135.614195	-37.614423	-58.162286	-37.614423	-58.162286	-0.535641	127.835598
8.250000	-0.455536	134.156581	-37.593411	-59.680029	-37.593411	-59.680029	-0.543192	125.822032
8.300000	-0.460197	132.691524	-37.573463	-61.174896	-37.573463	-61.174896	-0.550907	123.787660
8.350000	-0.464865	131.218941	-37.554253	-62.645007	-37.554253	-62.645007	-0.558809	121.732107
8.400000	-0.469538	129.738751	-37.535395	-64.088328	-37.535395	-64.088328	-0.566924	119.654969
8.450000	-0.474216	128.250880	-37.516420	-65.502664	-37.516420	-65.502664	-0.575288	117.555806
8.500000	-0.478898	126.755258	-37.496762	-66.885645	-37.496762	-66.885645	-0.583941	115.434128
8.550000	-0.483583	125.251821	-37.475737	-68.234732	-37.475737	-68.234732	-0.592936	113.289379
8.600000	-0.488272	123.740509	-37.452515	-69.547212	-37.452515	-69.547212	-0.602338	111.120918
8.650000	-0.492964	122.221272	-37.426082	-70.820210	-37.426082	-70.820210	-0.612227	108.927987
8.700000	-0.497659	120.694061	-37.395194	-72.050724	-37.395194	-72.050724	-0.622709	106.709683
8.750000	-0.502358	119.158839	-37.358319	-73.235673	-37.358319	-73.235673	-0.633916	104.464899
8.800000	-0.507062	117.615397	-37.313321	-74.370877	-37.313321	-74.370877	-0.646046	102.191624
8.850000	-0.511772	116.063886	-37.257908	-75.454491	-37.257908	-75.454491	-0.659316	99.888679
8.900000	-0.516490	114.504291	-37.189011	-76.484207	-37.189011	-76.484207	-0.674041	97.553823
8.950000	-0.521221	112.936607	-37.102706	-77.458772	-37.102706	-77.458772	-0.690651	95.184142
9.000000	-0.525969	111.360841	-36.993924	-78.378883	-36.993924	-78.378883	-0.709751	92.775800
9.050000	-0.530742	109.777014	-36.856024	-79.248732	-36.856024	-79.248732	-0.732210	90.323678
9.100000	-0.535550	108.185167	-36.680202	-80.078713	-36.680202	-80.078713	-0.759320	87.820851
9.150000	-0.540409	106.585371	-36.454609	-80.890282	-36.454609	-80.890282	-0.793062	85.257863
9.200000	-0.545341	104.977918	-36.165481	-81.722463	-36.165481	-81.722463	-0.836261	82.623872
9.250000	-0.550387	103.362574	-35.785215	-82.657744	-35.785215	-82.657744	-0.894974	79.896390
9.300000	-0.555603	101.739995	-35.285019	-83.847379	-35.285019	-83.847379	-0.978467	77.055359
9.350000	-0.561073	100.111044	-34.625920	-85.574747	-34.625920	-85.574747	-1.104039	74.081020
9.400000	-0.566924	98.477379	-33.748896	-88.454107	-33.748896	-88.454107	-1.309774	70.981685
9.450000	-0.573185	96.843630	-32.615016	-93.718468	-32.615016	-93.718468	-1.671944	67.972468
9.500000	-0.578859	95.219890	-31.315639	-103.832538	-31.315639	-103.832538	-2.314293	66.233711
9.550000	-0.579026	93.603705	-30.494671	-121.796943	-30.494671	-121.796943	-3.019597	69.462066
9.600000	-0.574146	91.930880	-31.438283	-143.847052	-31.438283	-143.847052	-2.545590	75.382401
9.650000	-0.575033	90.218265	-33.982058	-158.328093	-33.982058	-158.328093	-1.582358	74.344900
9.700000	-0.579392	88.509904	-36.712495	-162.841904	-36.712495	-162.841904	-1.070570	70.357740
9.750000	-0.584398	86.805031	-38.954646	-161.159245	-38.954646	-161.159245	-0.844266	66.362019
9.800000	-0.589368	85.098743	-40.620453	-156.546132	-40.620453	-156.546132	-0.738539	62.747413
9.850000	-0.594197	83.388587	-41.780810	-150.919932	-41.780810	-150.919932	-0.686308	59.444015
9.900000	-0.598893	81.673404	-42.553165	-145.336700	-42.553165	-145.336700	-0.659807	56.358841
9.950000	-0.603482	79.952773	-43.059114	-140.262714	-43.059114	-140.262714	-0.646398	53.421983
10.000000	-0.607987	78.226698	-43.391787	-135.804069	-43.391787	-135.804069	-0.640071	50.587205
