! freq	dB(S11)	phase(S11)	dB(S12)	phase(S12)	
!     	dB(S21)	phase(S21)	dB(S22)	phase(S22)	
!S-par simulation data
#  GHz  S  DB  R 50
0.000000	-136.024073	0.000000	0.000000	0.000000	0.000001	0.000000	-139.545898	0.000000
0.050000	-37.779626	-92.017595	-0.005093	-2.892977	-0.005093	-2.892977	-37.794837	-93.704291
0.100000	-31.796746	-94.087958	-0.012520	-5.748111	-0.012520	-5.748111	-31.812213	-97.453877
0.150000	-28.318777	-96.189132	-0.020077	-8.592819	-0.020077	-8.592819	-28.335774	-101.233261
0.200000	-25.863959	-98.285137	-0.028617	-11.433219	-0.028617	-11.433219	-25.883073	-105.011394
0.250000	-23.968499	-100.359635	-0.038395	-14.269397	-0.038395	-14.269397	-23.989625	-108.772725
0.300000	-22.427055	-102.410765	-0.049393	-17.101149	-0.049393	-17.101149	-22.449809	-112.515591
0.350000	-21.131113	-104.440610	-0.061564	-19.928352	-0.061564	-19.928352	-21.155088	-116.243032
0.400000	-20.015768	-106.452300	-0.074825	-22.751106	-0.074825	-22.751106	-20.040615	-119.959354
0.450000	-19.039889	-108.447189	-0.089159	-25.569239	-0.089159	-25.569239	-19.065344	-123.667688
0.500000	-18.174935	-110.426580	-0.104505	-28.382712	-0.104505	-28.382712	-18.200808	-127.370817
0.550000	-17.400255	-112.391359	-0.120792	-31.191534	-0.120792	-31.191534	-17.426416	-131.070787
0.600000	-16.701620	-114.340689	-0.138022	-33.995260	-0.138022	-33.995260	-16.727982	-134.769006
0.650000	-16.067117	-116.274876	-0.156109	-36.793908	-0.156109	-36.793908	-16.093625	-138.466798
0.700000	-15.487688	-118.193692	-0.174985	-39.587398	-0.174985	-39.587398	-15.514310	-142.165187
0.750000	-14.956604	-120.096164	-0.194605	-42.375466	-0.194605	-42.375466	-14.983321	-145.865149
0.800000	-14.468036	-121.981778	-0.214894	-45.158066	-0.214894	-45.158066	-14.494843	-149.567590
0.850000	-14.016776	-123.850606	-0.235756	-47.935386	-0.235756	-47.935386	-14.043672	-153.273244
0.900000	-13.599346	-125.701373	-0.257131	-50.707243	-0.257131	-50.707243	-13.626338	-156.983103
0.950000	-13.212234	-127.533729	-0.278928	-53.473787	-0.278928	-53.473787	-13.239333	-160.698006
1.000000	-12.852631	-129.347023	-0.301061	-56.235116	-0.301061	-56.235116	-12.879853	-164.418896
1.050000	-12.518204	-131.140456	-0.323440	-58.991320	-0.323440	-58.991320	-12.545570	-168.146842
1.100000	-12.206269	-132.914507	-0.345968	-61.742815	-0.345968	-61.742815	-12.233806	-171.882446
1.150000	-11.915241	-134.668182	-0.368565	-64.489643	-0.368565	-64.489643	-11.942983	-175.626913
1.200000	-11.643451	-136.401035	-0.391147	-67.231991	-0.391147	-67.231991	-11.671444	-179.381299
1.250000	-11.389416	-138.112631	-0.413641	-69.970052	-0.413641	-69.970052	-11.417716	176.853297
1.300000	-11.152001	-139.802045	-0.435979	-72.703964	-0.435979	-72.703964	-11.180682	173.075444
1.350000	-10.929793	-141.469265	-0.458114	-75.434089	-0.458114	-75.434089	-10.958943	169.284202
1.400000	-10.721708	-143.113748	-0.480007	-78.160765	-0.480007	-78.160765	-10.751424	165.478352
1.450000	-10.526772	-144.734861	-0.501624	-80.884403	-0.501624	-80.884403	-10.557143	161.656628
1.500000	-10.344123	-146.331898	-0.522937	-83.605484	-0.522937	-83.605484	-10.375195	157.817703
1.550000	-10.173020	-147.904201	-0.543916	-86.324537	-0.543916	-86.324537	-10.204730	153.960132
1.600000	-10.012830	-149.451418	-0.564535	-89.042125	-0.564535	-89.042125	-10.044939	150.082209
1.650000	-9.862983	-150.973724	-0.584768	-91.758831	-0.584768	-91.758831	-9.895032	146.181529
1.700000	-9.722902	-152.471773	-0.604589	-94.475238	-0.604589	-94.475238	-9.754320	142.253766
1.750000	-9.591964	-153.946295	-0.623979	-97.191933	-0.623979	-97.191933	-9.622854	138.291037
1.800000	-9.469521	-155.397701	-0.642918	-99.909492	-0.642918	-99.909492	-9.502982	134.293849
1.850000	-9.354949	-156.825990	-0.661394	-102.628488	-0.661394	-102.628488	-9.394126	130.295757
1.900000	-9.247736	-158.230640	-0.679392	-105.349509	-0.679392	-105.349509	-9.290124	126.290403
1.950000	-9.147359	-159.611299	-0.696908	-108.073129	-0.696908	-108.073129	-9.191125	122.252975
2.000000	-9.053288	-160.967923	-0.713950	-110.799868	-0.713950	-110.799868	-9.098067	118.181040
2.050000	-8.965089	-162.300286	-0.730524	-113.530260	-0.730524	-113.530260	-9.010984	114.075413
2.100000	-8.882352	-163.608244	-0.746639	-116.264826	-0.746639	-116.264826	-8.929596	109.936314
2.150000	-8.804688	-164.891723	-0.762311	-119.004078	-0.762311	-119.004078	-8.853545	105.763429
2.200000	-8.731718	-166.150713	-0.777557	-121.748514	-0.777557	-121.748514	-8.782465	101.556182
2.250000	-8.663081	-167.385259	-0.792400	-124.498618	-0.792400	-124.498618	-8.715993	97.313898
2.300000	-8.598421	-168.595462	-0.806865	-127.254863	-0.806865	-127.254863	-8.653780	93.035879
2.350000	-8.537395	-169.781474	-0.820980	-130.017705	-0.820980	-130.017705	-8.595485	88.721450
2.400000	-8.479670	-170.943499	-0.834777	-132.787586	-0.834777	-132.787586	-8.540778	84.369978
2.450000	-8.424919	-172.081797	-0.848288	-135.564935	-0.848288	-135.564935	-8.489339	79.980889
2.500000	-8.372826	-173.196680	-0.861550	-138.350163	-0.861550	-138.350163	-8.440856	75.553675
2.550000	-8.323118	-174.288031	-0.874594	-141.143858	-0.874594	-141.143858	-8.395073	71.087052
2.600000	-8.275446	-175.356791	-0.887467	-143.946231	-0.887467	-143.946231	-8.351640	66.581494
2.650000	-8.229518	-176.403455	-0.900206	-146.757651	-0.900206	-146.757651	-8.310274	62.036717
2.700000	-8.185052	-177.428578	-0.912853	-149.578474	-0.912853	-149.578474	-8.270699	57.452514
2.750000	-8.141773	-178.432775	-0.925449	-152.409046	-0.925449	-152.409046	-8.232653	52.828751
2.800000	-8.099420	-179.416720	-0.938035	-155.249700	-0.938035	-155.249700	-8.195881	48.165358
2.850000	-8.057740	179.618856	-0.950651	-158.100763	-0.950651	-158.100763	-8.160139	43.462331
2.900000	-8.016490	178.673167	-0.963340	-160.962554	-0.963340	-160.962554	-8.125196	38.719719
2.950000	-7.975441	177.745380	-0.976142	-163.835388	-0.976142	-163.835388	-8.090831	33.937620
3.000000	-7.934375	176.834613	-0.989097	-166.719577	-0.989097	-166.719577	-8.056837	29.116165
3.050000	-7.893087	175.939951	-1.002244	-169.615434	-1.002244	-169.615434	-8.023016	24.255514
3.100000	-7.851382	175.060442	-1.015622	-172.523274	-1.015622	-172.523274	-7.989187	19.355835
3.150000	-7.809071	174.195257	-1.029272	-175.443559	-1.029272	-175.443559	-7.955173	14.416875
3.200000	-7.765981	173.343376	-1.043233	-178.376629	-1.043233	-178.376629	-7.920810	9.438786
3.250000	-7.721967	172.503650	-1.057539	178.677302	-1.057539	178.677302	-7.885957	4.422103
3.300000	-7.676886	171.675090	-1.072225	175.717874	-1.072225	175.717874	-7.850479	-0.633115
3.350000	-7.630653	170.856450	-1.087316	172.745114	-1.087316	172.745114	-7.814282	-5.725760
3.400000	-7.583055	170.047372	-1.102871	169.757756	-1.102871	169.757756	-7.777191	-10.858303
3.450000	-7.534027	169.246594	-1.118914	166.755814	-1.118914	166.755814	-7.739130	-16.029689
3.500000	-7.483465	168.453226	-1.135481	163.738821	-1.135481	163.738821	-7.699997	-21.240236
3.550000	-7.431271	167.666422	-1.152611	160.706276	-1.152611	160.706276	-7.659695	-26.490399
3.600000	-7.377352	166.885380	-1.170344	157.657635	-1.170344	157.657635	-7.618129	-31.780776
3.650000	-7.321617	166.109343	-1.188721	154.592313	-1.188721	154.592313	-7.575205	-37.112121
3.700000	-7.263972	165.337607	-1.207788	151.509677	-1.207788	151.509677	-7.530823	-42.485354
3.750000	-7.204323	164.569508	-1.227594	148.409042	-1.227594	148.409042	-7.484878	-47.901561
3.800000	-7.142389	163.804585	-1.248250	145.288347	-1.248250	145.288347	-7.437117	-53.365096
3.850000	-7.078485	163.041843	-1.269690	142.149881	-1.269690	142.149881	-7.387738	-58.870156
3.900000	-7.012188	162.281006	-1.292076	138.990541	-1.292076	138.990541	-7.336365	-64.423594
3.950000	-6.943390	161.521470	-1.315479	135.809568	-1.315479	135.809568	-7.282853	-70.026758
4.000000	-6.871990	160.762629	-1.339976	132.606270	-1.339976	132.606270	-7.227056	-75.680848
4.050000	-6.797831	160.003875	-1.365668	129.379595	-1.365668	129.379595	-7.168772	-81.387851
4.100000	-6.720740	159.244541	-1.392669	126.128427	-1.392669	126.128427	-7.107776	-87.149838
4.150000	-6.640526	158.483883	-1.421110	122.851583	-1.421110	122.851583	-7.043814	-92.968928
4.200000	-6.556940	157.721011	-1.451155	119.547546	-1.451155	119.547546	-6.976570	-98.847843
4.250000	-6.469772	156.954912	-1.482969	116.215111	-1.482969	116.215111	-6.905748	-104.788429
4.300000	-6.378804	156.184412	-1.516736	112.853044	-1.516736	112.853044	-6.831036	-110.792396
4.350000	-6.283784	155.408116	-1.552673	109.459930	-1.552673	109.459930	-6.752081	-116.861590
4.400000	-6.184453	154.624387	-1.591024	106.034312	-1.591024	106.034312	-6.668511	-122.997647
4.450000	-6.080549	153.831309	-1.632062	102.574697	-1.632062	102.574697	-6.579940	-129.201925
4.500000	-5.971808	153.026664	-1.676095	99.079573	-1.676095	99.079573	-6.485978	-135.475438
4.550000	-5.857980	152.207903	-1.723464	95.547420	-1.723464	95.547420	-6.386236	-141.818790
4.600000	-5.738794	151.372030	-1.774571	91.976534	-1.774571	91.976534	-6.280302	-148.232444
4.650000	-5.613997	150.515615	-1.829863	88.365213	-1.829863	88.365213	-6.167779	-154.716307
4.700000	-5.483486	149.635188	-1.889776	84.712403	-1.889776	84.712403	-6.048431	-161.268675
4.750000	-5.347137	148.726771	-1.954823	81.016760	-1.954823	81.016760	-5.922005	-167.887890
4.800000	-5.204886	147.786063	-2.025569	77.277050	-2.025569	77.277050	-5.788320	-174.571632
4.850000	-5.056736	146.808485	-2.102626	73.492184	-2.102626	73.492184	-5.647279	178.683091
4.900000	-4.902774	145.789237	-2.186662	69.661249	-2.186662	69.661249	-5.498887	171.879939
4.950000	-4.743174	144.723371	-2.278395	65.783554	-2.278395	65.783554	-5.343265	165.023218
5.000000	-4.578208	143.605877	-2.378599	61.858665	-2.378599	61.858665	-5.180654	158.117844
5.050000	-4.408024	142.430046	-2.488345	57.885129	-2.488345	57.885129	-5.011163	151.168255
5.100000	-4.233465	141.193588	-2.608155	53.865246	-2.608155	53.865246	-4.835737	144.182261
5.150000	-4.055095	139.892154	-2.738932	49.799609	-2.738932	49.799609	-4.655005	137.165960
5.200000	-3.873309	138.518753	-2.882051	45.687407	-2.882051	45.687407	-4.469395	130.125026
5.250000	-3.689065	137.071361	-3.038307	41.531284	-3.038307	41.531284	-4.280026	123.067097
5.300000	-3.503299	135.548251	-3.208567	37.333931	-3.208567	37.333931	-4.088002	115.999330
5.350000	-3.316798	133.945221	-3.394195	33.096881	-3.394195	33.096881	-3.894241	108.928627
5.400000	-3.130518	132.259936	-3.596440	28.822959	-3.596440	28.822959	-3.699870	101.862313
5.450000	-2.945561	130.494353	-3.816045	24.516935	-3.816045	24.516935	-3.506214	94.807151
5.500000	-2.762871	128.647957	-4.054274	20.182580	-4.054274	20.182580	-3.314394	87.769856
5.550000	-2.583420	126.718295	-4.312871	15.823592	-4.312871	15.823592	-3.125545	80.758147
5.600000	-2.408179	124.711132	-4.592423	11.446295	-4.592423	11.446295	-2.940850	73.777090
5.650000	-2.237986	122.628852	-4.894192	7.056020	-4.894192	7.056020	-2.761313	66.832374
5.700000	-2.073785	120.471074	-5.220078	2.658397	-5.220078	2.658397	-2.588034	59.931594
5.750000	-1.916209	118.244431	-5.570952	-1.739869	-5.570952	-1.739869	-2.421794	53.078228
5.800000	-1.765819	115.953565	-5.948172	-6.132333	-5.948172	-6.132333	-2.263282	46.276257
5.850000	-1.623295	113.600958	-6.353648	-10.511699	-6.353648	-10.511699	-2.113301	39.531426
5.900000	-1.489035	111.191770	-6.789023	-14.870536	-6.789023	-14.870536	-1.972347	32.846907
5.950000	-1.363177	108.732071	-7.256027	-19.201833	-7.256027	-19.201833	-1.840627	26.223895
6.000000	-1.246014	106.225689	-7.757057	-23.497130	-7.757057	-23.497130	-1.718508	19.665418
6.050000	-1.137849	103.676061	-8.294887	-27.746223	-8.294887	-27.746223	-1.606373	13.174728
6.100000	-1.038382	101.089187	-8.872459	-31.941278	-8.872459	-31.941278	-1.503925	6.749762
6.150000	-0.947539	98.468798	-9.493699	-36.071587	-9.493699	-36.071587	-1.411117	0.390561
6.200000	-0.865618	95.816710	-10.163381	-40.119304	-10.163381	-40.119304	-1.328323	-5.899821
6.250000	-0.792007	93.137646	-10.887405	-44.072049	-10.887405	-44.072049	-1.254882	-12.126293
6.300000	-0.726464	90.434101	-11.673403	-47.909428	-11.673403	-47.909428	-1.190550	-18.290802
6.350000	-0.669022	87.707228	-12.530850	-51.597000	-12.530850	-51.597000	-1.135392	-24.393472
6.400000	-0.619167	84.959283	-13.472589	-55.098617	-13.472589	-55.098617	-1.088843	-30.439216
6.450000	-0.576692	82.191061	-14.515337	-58.351791	-14.515337	-58.351791	-1.050683	-36.430928
6.500000	-0.541272	79.403185	-15.681978	-61.265475	-15.681978	-61.265475	-1.020548	-42.372834
6.550000	-0.512625	76.595691	-17.004171	-63.691165	-17.004171	-63.691165	-0.998114	-48.269277
6.600000	-0.490482	73.768133	-18.526703	-65.374499	-18.526703	-65.374499	-0.983060	-54.124914
6.650000	-0.474597	70.919593	-20.313506	-65.847673	-20.313506	-65.847673	-0.975079	-59.944653
6.700000	-0.464938	68.047891	-22.445591	-64.033558	-22.445591	-64.033558	-0.974087	-65.732783
6.750000	-0.460952	65.152595	-25.007202	-57.969846	-25.007202	-57.969846	-0.979401	-71.496282
6.800000	-0.462655	62.230737	-27.813341	-43.054557	-27.813341	-43.054557	-0.990958	-77.239573
6.850000	-0.469931	59.279524	-29.433528	-14.805118	-29.433528	-14.805118	-1.008523	-82.967976
6.900000	-0.482758	56.295267	-27.993988	13.844360	-27.993988	13.844360	-1.031938	-88.686714
6.950000	-0.501103	53.273999	-25.287280	28.900083	-25.287280	28.900083	-1.060999	-94.401112
7.000000	-0.524921	50.211637	-22.823116	34.991428	-22.823116	34.991428	-1.095466	-100.116230
7.050000	-0.554277	47.103110	-20.787268	36.714272	-20.787268	36.714272	-1.135177	-105.836770
7.100000	-0.589292	43.942624	-19.100971	36.201601	-19.100971	36.201601	-1.179988	-111.567101
7.150000	-0.630145	40.723563	-17.677398	34.424536	-17.677398	34.424536	-1.229767	-117.311179
7.200000	-0.677085	37.438358	-16.452111	31.862653	-16.452111	31.862653	-1.284397	-123.072464
7.250000	-0.730433	34.078326	-15.379649	28.772972	-15.379649	28.772972	-1.343770	-128.853818
7.300000	-0.790598	30.633467	-14.427688	25.302530	-14.427688	25.302530	-1.407789	-134.657406
7.350000	-0.858090	27.092214	-13.572760	21.539487	-13.572760	21.539487	-1.476365	-140.484580
7.400000	-0.933532	23.441119	-12.797442	17.538214	-12.797442	17.538214	-1.549420	-146.335746
7.450000	-1.017690	19.664472	-12.088528	13.332438	-12.088528	13.332438	-1.626882	-152.210231
7.500000	-1.111495	15.743813	-11.435832	8.942504	-11.435832	8.942504	-1.708687	-158.106115
7.550000	-1.216315	11.653131	-10.831455	4.375881	-10.831455	4.375881	-1.794854	-164.020328
7.600000	-1.333351	7.369293	-10.269068	-0.359488	-10.269068	-0.359488	-1.885250	-169.947295
7.650000	-1.464293	2.860889	-9.743735	-5.264918	-9.743735	-5.264918	-1.979820	-175.880016
7.700000	-1.611192	-1.909891	-9.251609	-10.346234	-9.251609	-10.346234	-2.078489	178.190686
7.750000	-1.776522	-6.988829	-8.789800	-15.613388	-8.789800	-15.613388	-2.181136	172.276476
7.800000	-1.963257	-12.431679	-8.356302	-21.080319	-8.356302	-21.080319	-2.287547	166.391863
7.850000	-2.174223	-18.291258	-7.949735	-26.757762	-7.949735	-26.757762	-2.397296	160.552506
7.900000	-2.414936	-24.682639	-7.570493	-32.682564	-7.570493	-32.682564	-2.509809	154.783512
7.950000	-2.689211	-31.694679	-7.219360	-38.872840	-7.219360	-38.872840	-2.623829	149.108253
8.000000	-3.001683	-39.456093	-6.898738	-45.357757	-6.898738	-45.357757	-2.737394	143.555213
8.050000	-3.356269	-48.125571	-6.612720	-52.168835	-6.612720	-52.168835	-2.847382	138.155264
8.100000	-3.754482	-57.896220	-6.367462	-59.337939	-6.367462	-59.337939	-2.949070	132.939104
8.150000	-4.192269	-69.004161	-6.171880	-66.896085	-6.171880	-66.896085	-3.035574	127.933620
8.200000	-4.654083	-81.702191	-6.037596	-74.863825	-6.037596	-74.863825	-3.097803	123.151451
8.250000	-5.105810	-96.206548	-5.978549	-83.243148	-5.978549	-83.243148	-3.125267	118.579943
8.300000	-5.488680	-112.614025	-6.011149	-92.013481	-6.011149	-92.013481	-3.107512	114.174114
8.350000	-5.724851	-130.730309	-6.152127	-101.119942	-6.152127	-101.119942	-3.037437	109.852724
8.400000	-5.737245	-149.970691	-6.420010	-110.475602	-6.420010	-110.475602	-2.913000	105.508101
8.450000	-5.503063	-169.360716	-6.826517	-119.949632	-6.826517	-119.949632	-2.742116	101.031702
8.500000	-5.066395	172.069269	-7.378942	-129.391302	-7.378942	-129.391302	-2.539379	96.346833
8.550000	-4.514471	154.978925	-8.077991	-138.644238	-8.077991	-138.644238	-2.322849	91.427492
8.600000	-3.934100	139.640341	-8.918192	-147.564566	-8.918192	-147.564566	-2.109535	86.298558
8.650000	-3.385566	126.025298	-9.889220	-156.042559	-9.889220	-156.042559	-1.911920	81.022058
8.700000	-2.899119	113.982147	-10.980122	-164.003029	-10.980122	-164.003029	-1.736947	75.671336
8.750000	-2.484201	103.317325	-12.181349	-171.403579	-12.181349	-171.403579	-1.586918	70.315742
8.800000	-2.139013	93.849449	-13.485693	-178.219711	-13.485693	-178.219711	-1.461210	65.012711
8.850000	-1.855159	85.389532	-14.892808	175.547370	-14.892808	175.547370	-1.357001	59.802934
8.900000	-1.623255	77.786263	-16.408374	169.902058	-16.408374	169.902058	-1.271101	54.713213
8.950000	-1.434236	70.910464	-18.046104	164.861536	-18.046104	164.861536	-1.200336	49.759480
9.000000	-1.280103	64.653041	-19.830308	160.473296	-19.830308	160.473296	-1.141854	44.949765
9.050000	-1.154142	58.922410	-21.800459	156.844469	-21.800459	156.844469	-1.093242	40.286681
9.100000	-1.050862	53.641922	-24.019694	154.201927	-24.019694	154.201927	-1.052528	35.769298
9.150000	-0.965847	48.747487	-26.590912	153.036886	-26.590912	153.036886	-1.018136	31.394471
9.200000	-0.895938	44.194706	-29.666359	154.705229	-29.666359	154.705229	-0.988956	27.162059
9.250000	-0.837567	39.919833	-33.512546	162.421156	-33.512546	162.421156	-0.963752	23.058523
9.300000	-0.788914	35.894680	-37.878157	-173.831893	-37.878157	-173.831893	-0.941913	19.082354
9.350000	-0.748210	32.087459	-38.876560	-128.561674	-38.876560	-128.561674	-0.922858	15.227955
9.400000	-0.714106	28.473102	-35.636090	-101.009533	-35.636090	-101.009533	-0.906154	11.490982
9.450000	-0.685450	25.028143	-32.718201	-91.482575	-32.718201	-91.482575	-0.891439	7.865857
9.500000	-0.661281	21.731272	-30.597045	-88.379449	-30.597045	-88.379449	-0.878416	4.346119
9.550000	-0.640883	18.566026	-29.024013	-87.863479	-29.024013	-87.863479	-0.866870	0.926793
9.600000	-0.623904	15.527218	-27.828481	-88.609599	-27.828481	-88.609599	-0.856730	-2.389017
9.650000	-0.609361	12.582781	-26.875591	-89.918914	-26.875591	-89.918914	-0.847640	-5.622861
9.700000	-0.597166	9.733377	-26.109966	-91.597465	-26.109966	-91.597465	-0.839612	-8.769749
9.750000	-0.587001	6.969763	-25.485588	-93.490902	-25.485588	-93.490902	-0.832554	-11.833768
9.800000	-0.578605	4.283888	-24.970675	-95.512682	-24.970675	-95.512682	-0.826389	-14.818798
9.850000	-0.571761	1.668706	-24.542364	-97.611166	-24.542364	-97.611166	-0.821053	-17.728521
9.900000	-0.566289	-0.881964	-24.183660	-99.753482	-24.183660	-99.753482	-0.816490	-20.566430
9.950000	-0.562042	-3.373565	-23.881631	-101.917149	-23.881631	-101.917149	-0.812652	-23.335840
10.000000	-0.558892	-5.810907	-23.626321	-104.085830	-23.626321	-104.085830	-0.809498	-26.039898
