! freq	dB(S11)	phase(S11)	dB(S12)	phase(S12)	
!     	dB(S21)	phase(S21)	dB(S22)	phase(S22)	
!S-par simulation data
#  GHz  S  DB  R 50
0.000000	0.000000	0.000000	-296.347200	180.000000	-296.347200	180.000000	-0.000000	0.000000
0.050000	-0.000110	-1.184335	-102.321627	86.414554	-102.321627	86.414554	-0.000091	-0.987305
0.100000	-0.000438	-2.368445	-96.456089	86.406351	-96.456089	86.406351	-0.000364	-1.974438
0.150000	-0.000976	-3.552116	-92.998520	85.832825	-92.998520	85.832825	-0.000812	-2.961235
0.200000	-0.001712	-4.735153	-90.557741	85.056492	-90.557741	85.056492	-0.001424	-3.947547
0.250000	-0.002644	-5.917319	-88.687013	84.197586	-88.687013	84.197586	-0.002199	-4.933190
0.300000	-0.003737	-7.098527	-87.180668	83.312939	-87.180668	83.312939	-0.003110	-5.918094
0.350000	-0.004982	-8.278602	-85.931686	82.424414	-85.931686	82.424414	-0.004148	-6.902121
0.400000	-0.006359	-9.457423	-84.875234	81.548081	-84.875234	81.548081	-0.005298	-7.885174
0.450000	-0.007851	-10.634892	-83.969520	80.695664	-83.969520	80.695664	-0.006544	-8.867170
0.500000	-0.009437	-11.810931	-83.186082	79.877000	-83.186082	79.877000	-0.007871	-9.848045
0.550000	-0.011099	-12.985479	-82.504710	79.101239	-82.504710	79.101239	-0.009264	-10.827744
0.600000	-0.012822	-14.158495	-81.910577	78.377525	-81.910577	78.377525	-0.010708	-11.806227
0.650000	-0.014589	-15.329947	-81.392517	77.715441	-81.392517	77.715441	-0.012191	-12.783465
0.700000	-0.016386	-16.499818	-80.941930	77.125356	-80.941930	77.125356	-0.013702	-13.759437
0.750000	-0.018203	-17.668095	-80.552061	76.618725	-80.552061	76.618725	-0.015229	-14.734127
0.800000	-0.020027	-18.834774	-80.217504	76.208389	-80.217504	76.208389	-0.016766	-15.707525
0.850000	-0.021852	-19.999853	-79.933830	75.908880	-79.933830	75.908880	-0.018303	-16.679625
0.900000	-0.023669	-21.163332	-79.697315	75.736753	-79.697315	75.736753	-0.019837	-17.650423
0.950000	-0.025474	-22.325213	-79.504701	75.710933	-79.504701	75.710933	-0.021360	-18.619914
1.000000	-0.027262	-23.485496	-79.352987	75.853084	-79.352987	75.853084	-0.022871	-19.588094
1.050000	-0.029029	-24.644180	-79.239220	76.187962	-79.239220	76.187962	-0.024366	-20.554960
1.100000	-0.030775	-25.801263	-79.160269	76.743716	-79.160269	76.743716	-0.025843	-21.520505
1.150000	-0.032497	-26.956740	-79.112563	77.552051	-79.112563	77.552051	-0.027301	-22.484722
1.200000	-0.034195	-28.110604	-79.091783	78.648113	-79.091783	78.648113	-0.028739	-23.447602
1.250000	-0.035868	-29.262845	-79.092495	80.069887	-79.092495	80.069887	-0.030157	-24.409135
1.300000	-0.037517	-30.413382	-79.107924	81.874442	-79.107924	81.874442	-0.031555	-25.369248
1.350000	-0.039142	-31.562271	-79.127851	84.085111	-79.127851	84.085111	-0.032933	-26.327985
1.400000	-0.040745	-32.709497	-79.140562	86.732540	-79.140562	86.732540	-0.034293	-27.285331
1.450000	-0.042328	-33.855043	-79.131764	89.833522	-79.131764	89.833522	-0.035636	-28.241267
1.500000	-0.043890	-34.998890	-79.084917	93.382244	-79.084917	93.382244	-0.036961	-29.195774
1.550000	-0.045434	-36.141020	-78.982271	97.341333	-78.982271	97.341333	-0.038272	-30.148833
1.600000	-0.046962	-37.281413	-78.806763	101.635688	-78.806763	101.635688	-0.039569	-31.100422
1.650000	-0.048474	-38.420049	-78.544534	106.152752	-78.544534	106.152752	-0.040853	-32.050519
1.700000	-0.049973	-39.556906	-78.187449	110.751750	-78.187449	110.751750	-0.042125	-32.999102
1.750000	-0.051460	-40.691964	-77.734705	115.280937	-77.734705	115.280937	-0.043387	-33.946148
1.800000	-0.052936	-41.825202	-77.192870	119.598116	-77.192870	119.598116	-0.044639	-34.891633
1.850000	-0.054403	-42.956600	-76.574342	123.588015	-76.574342	123.588015	-0.045884	-35.835534
1.900000	-0.055863	-44.086138	-75.894869	127.171894	-75.894869	127.171894	-0.047122	-36.777826
1.950000	-0.057316	-45.213796	-75.171021	130.308439	-75.171021	130.308439	-0.048355	-37.718485
2.000000	-0.058764	-46.339557	-74.418253	132.988205	-74.418253	132.988205	-0.049583	-38.657489
2.050000	-0.060209	-47.463403	-73.649791	135.225075	-73.649791	135.225075	-0.050807	-39.594813
2.100000	-0.061651	-48.585317	-72.876244	137.047619	-72.876244	137.047619	-0.052029	-40.530434
2.150000	-0.063092	-49.705283	-72.105688	138.492009	-72.105688	138.492009	-0.053249	-41.464330
2.200000	-0.064533	-50.823288	-71.344003	139.596947	-71.344003	139.596947	-0.054469	-42.396477
2.250000	-0.065975	-51.939319	-70.595286	140.400442	-70.595286	140.400442	-0.055689	-43.326853
2.300000	-0.067420	-53.053364	-69.862255	140.937997	-69.862255	140.937997	-0.056910	-44.255438
2.350000	-0.068867	-54.165413	-69.146593	141.241754	-69.146593	141.241754	-0.058132	-45.182210
2.400000	-0.070319	-55.275457	-68.449227	141.340238	-68.449227	141.340238	-0.059357	-46.107149
2.450000	-0.071775	-56.383490	-67.770544	141.258450	-67.770544	141.258450	-0.060586	-47.030236
2.500000	-0.073237	-57.489506	-67.110552	141.018125	-67.110552	141.018125	-0.061818	-47.951451
2.550000	-0.074707	-58.593413	-66.467782	140.632764	-66.467782	140.632764	-0.063056	-48.870693
2.600000	-0.076184	-59.695299	-65.843204	140.125180	-65.843204	140.125180	-0.064298	-49.788027
2.650000	-0.077670	-60.795162	-65.236255	139.509124	-65.236255	139.509124	-0.065547	-50.703436
2.700000	-0.079165	-61.893005	-64.646312	138.796483	-64.646312	138.796483	-0.066802	-51.616903
2.750000	-0.080670	-62.988832	-64.072723	137.997536	-64.072723	137.997536	-0.068063	-52.528415
2.800000	-0.082186	-64.082649	-63.514825	137.121188	-63.514825	137.121188	-0.069333	-53.437957
2.850000	-0.083714	-65.174464	-62.971961	136.175161	-62.971961	136.175161	-0.070611	-54.345515
2.900000	-0.085254	-66.264287	-62.443487	135.166161	-62.443487	135.166161	-0.071897	-55.251077
2.950000	-0.086806	-67.352129	-61.928781	134.100017	-61.928781	134.100017	-0.073192	-56.154632
3.000000	-0.088373	-68.438006	-61.427244	132.981803	-61.427244	132.981803	-0.074497	-57.056169
3.050000	-0.089954	-69.521933	-60.938304	131.815933	-60.938304	131.815933	-0.075812	-57.955678
3.100000	-0.091550	-70.603930	-60.461416	130.606250	-60.461416	130.606250	-0.077138	-58.853149
3.150000	-0.093162	-71.684019	-59.996061	129.356092	-59.996061	129.356092	-0.078475	-59.748575
3.200000	-0.094791	-72.762222	-59.541747	128.068350	-59.541747	128.068350	-0.079823	-60.641948
3.250000	-0.096436	-73.838568	-59.098008	126.745524	-59.098008	126.745524	-0.081183	-61.533262
3.300000	-0.098100	-74.913086	-58.664401	125.389753	-58.664401	125.389753	-0.082556	-62.422510
3.350000	-0.099784	-75.985708	-58.239874	124.001179	-58.239874	124.001179	-0.083942	-63.309569
3.400000	-0.101483	-77.056895	-57.826684	122.588362	-57.826684	122.588362	-0.085339	-64.194945
3.450000	-0.103209	-78.125826	-57.419179	121.138392	-57.419179	121.138392	-0.086754	-65.077592
3.500000	-0.104953	-79.193345	-57.021838	119.665354	-57.021838	119.665354	-0.088181	-65.958471
3.550000	-0.106716	-80.259474	-56.634123	118.169523	-56.634123	118.169523	-0.089621	-66.837581
3.600000	-0.108505	-81.323767	-56.252829	116.643256	-56.252829	116.643256	-0.091078	-67.714279
3.650000	-0.110320	-82.386433	-55.878461	115.088877	-55.878461	115.088877	-0.092552	-68.588726
3.700000	-0.112156	-83.447870	-55.512674	113.512273	-55.512674	113.512273	-0.094040	-69.461406
3.750000	-0.114013	-84.508108	-55.155047	111.913369	-55.155047	111.913369	-0.095542	-70.332319
3.800000	-0.115908	-85.566531	-54.801070	110.276831	-54.801070	110.276831	-0.097067	-71.200346
3.850000	-0.117827	-86.623950	-54.454728	108.616040	-54.454728	108.616040	-0.098607	-72.066616
3.900000	-0.119772	-87.680411	-54.115644	106.930298	-54.115644	106.930298	-0.100162	-72.931129
3.950000	-0.121749	-88.735751	-53.781852	105.211242	-53.781852	105.211242	-0.101737	-73.793414
4.000000	-0.123766	-89.790092	-53.452566	103.452745	-53.452566	103.452745	-0.103334	-74.653322
4.050000	-0.125812	-90.843829	-53.129646	101.662548	-53.129646	101.662548	-0.104947	-75.511493
4.100000	-0.127890	-91.897031	-52.812778	99.839138	-52.812778	99.839138	-0.106577	-76.367933
4.150000	-0.130021	-92.949713	-52.498522	97.957051	-52.498522	97.957051	-0.108234	-77.221714
4.200000	-0.132195	-94.002329	-52.189089	96.025735	-52.189089	96.025735	-0.109909	-78.073634
4.250000	-0.134411	-95.055046	-51.884657	94.044800	-51.884657	94.044800	-0.111603	-78.923856
4.300000	-0.136681	-96.108112	-51.583819	91.998852	-51.583819	91.998852	-0.113319	-79.772082
4.350000	-0.139031	-97.162294	-51.284166	89.852747	-51.284166	89.852747	-0.115062	-80.617885
4.400000	-0.141447	-98.217774	-50.987838	87.621574	-50.987838	87.621574	-0.116824	-81.462044
4.450000	-0.143938	-99.274840	-50.694411	85.296426	-50.694411	85.296426	-0.118607	-82.304570
4.500000	-0.146563	-100.335315	-50.399220	82.799889	-50.399220	82.799889	-0.120419	-83.144763
4.550000	-0.149344	-101.400201	-50.102076	80.111552	-50.102076	80.111552	-0.122258	-83.983115
4.600000	-0.152297	-102.470017	-49.803028	77.222242	-49.803028	77.222242	-0.124118	-84.819949
4.650000	-0.155473	-103.546301	-49.499637	74.078522	-49.499637	74.078522	-0.126005	-85.655159
4.700000	-0.159191	-104.637507	-49.175613	70.389307	-49.175613	70.389307	-0.127932	-86.488237
4.750000	-0.163341	-105.739720	-48.840792	66.315015	-48.840792	66.315015	-0.129884	-87.320348
4.800000	-0.168678	-106.869393	-48.461910	61.311218	-48.461910	61.311218	-0.131886	-88.150929
4.850000	-0.176013	-108.038327	-48.013943	55.039334	-48.013943	55.039334	-0.133954	-88.980624
4.900000	-0.187252	-109.270255	-47.442369	46.834139	-47.442369	46.834139	-0.136126	-89.810153
4.950000	-0.208705	-110.628735	-46.588985	35.000241	-46.588985	35.000241	-0.138547	-90.641002
5.000000	-0.263026	-112.255758	-45.069941	16.100060	-45.069941	16.100060	-0.141749	-91.476900
5.050000	-0.480983	-114.411791	-41.861812	-19.636453	-41.861812	-19.636453	-0.148867	-92.324767
5.100000	-1.175213	-111.967446	-37.980969	-104.640763	-37.980969	-104.640763	-0.167775	-93.068942
5.150000	-0.466238	-110.416097	-42.132044	175.402316	-42.132044	175.402316	-0.154660	-93.811943
5.200000	-0.279469	-112.470957	-44.716273	140.793171	-44.716273	140.793171	-0.151786	-94.646130
5.250000	-0.232208	-114.053054	-45.658501	121.860467	-45.658501	121.860467	-0.152539	-95.470383
5.300000	-0.215890	-115.396753	-45.964784	109.977621	-45.964784	109.977621	-0.154189	-96.287688
5.350000	-0.209719	-116.629486	-46.011929	101.736740	-46.011929	101.736740	-0.156169	-97.100716
5.400000	-0.208126	-117.804286	-45.933084	95.659129	-45.933084	95.659129	-0.158315	-97.910591
5.450000	-0.209141	-118.950617	-45.783354	90.936125	-45.783354	90.936125	-0.160567	-98.717982
5.500000	-0.212458	-120.087405	-45.576920	87.178623	-45.576920	87.178623	-0.162901	-99.523240
5.550000	-0.219363	-121.233972	-45.295740	84.203863	-45.295740	84.203863	-0.165322	-100.326603
5.600000	-0.235365	-122.417269	-44.860638	81.877486	-44.860638	81.877486	-0.167864	-101.128256
5.650000	-0.290506	-123.631402	-43.956434	78.885105	-43.956434	78.885105	-0.170704	-101.927547
5.700000	-0.379746	-123.923837	-43.261703	65.568580	-43.261703	65.568580	-0.173356	-102.718997
5.750000	-0.273374	-124.640850	-44.532928	60.923575	-44.532928	60.923575	-0.175085	-103.515279
5.800000	-0.240425	-125.844603	-44.770902	61.373367	-44.770902	61.373367	-0.177511	-104.311475
5.850000	-0.233066	-126.986032	-44.684757	60.710175	-44.684757	60.710175	-0.180102	-105.105253
5.900000	-0.232008	-128.085166	-44.533081	59.442900	-44.533081	59.442900	-0.182752	-105.897129
5.950000	-0.233075	-129.163218	-44.365429	57.921450	-44.365429	57.921450	-0.185442	-106.687445
6.000000	-0.235253	-130.227302	-44.192680	56.264380	-44.192680	56.264380	-0.188177	-107.476025
6.050000	-0.237859	-131.285261	-44.020403	54.562291	-44.020403	54.562291	-0.190945	-108.263386
6.100000	-0.240804	-132.338251	-43.849249	52.832361	-43.849249	52.832361	-0.193750	-109.049382
6.150000	-0.243974	-133.388043	-43.679868	51.092494	-43.679868	51.092494	-0.196593	-109.834055
6.200000	-0.247319	-134.435720	-43.512423	49.352823	-43.512423	49.352823	-0.199477	-110.617332
6.250000	-0.250798	-135.482273	-43.347021	47.619339	-43.347021	47.619339	-0.202403	-111.399242
6.300000	-0.254380	-136.528400	-43.183775	45.893828	-43.183775	45.893828	-0.205369	-112.179944
6.350000	-0.258052	-137.574517	-43.022664	44.177293	-43.022664	44.177293	-0.208373	-112.959469
6.400000	-0.261807	-138.620971	-42.863654	42.470181	-42.863654	42.470181	-0.211417	-113.737847
6.450000	-0.265638	-139.668056	-42.706708	40.772574	-42.706708	40.772574	-0.214500	-114.515108
6.500000	-0.269541	-140.716029	-42.551786	39.084327	-42.551786	39.084327	-0.217624	-115.291283
6.550000	-0.273515	-141.765148	-42.398831	37.405347	-42.398831	37.405347	-0.220789	-116.066379
6.600000	-0.277566	-142.815860	-42.247707	35.736402	-42.247707	35.736402	-0.224001	-116.840287
6.650000	-0.281682	-143.868160	-42.098497	34.075594	-42.098497	34.075594	-0.227255	-117.613214
6.700000	-0.285866	-144.922370	-41.951111	32.423094	-41.951111	32.423094	-0.230553	-118.385116
6.750000	-0.290102	-145.978175	-41.805666	30.776692	-41.805666	30.776692	-0.233886	-119.156253
6.800000	-0.294403	-147.036072	-41.661996	29.137552	-41.661996	29.137552	-0.237263	-119.926465
6.850000	-0.298782	-148.096827	-41.519933	27.506670	-41.519933	27.506670	-0.240692	-120.695599
6.900000	-0.303214	-149.159701	-41.379673	25.881115	-41.379673	25.881115	-0.244159	-121.464023
6.950000	-0.307699	-150.224677	-41.241185	24.260578	-41.241185	24.260578	-0.247662	-122.231775
7.000000	-0.312260	-151.292996	-41.104220	22.646985	-41.104220	22.646985	-0.251219	-122.998583
7.050000	-0.316883	-152.364193	-40.968872	21.038664	-40.968872	21.038664	-0.254820	-123.764665
7.100000	-0.321569	-153.438415	-40.835103	19.435341	-40.835103	19.435341	-0.258465	-124.530057
7.150000	-0.326317	-154.515806	-40.702879	17.836756	-40.702879	17.836756	-0.262154	-125.294792
7.200000	-0.331127	-155.596513	-40.572162	16.242662	-40.572162	16.242662	-0.265888	-126.058904
7.250000	-0.336003	-156.680794	-40.442901	14.652945	-40.442901	14.652945	-0.269668	-126.822412
7.300000	-0.340947	-157.769015	-40.315033	13.067567	-40.315033	13.067567	-0.273497	-127.585324
7.350000	-0.345956	-158.861025	-40.188560	11.485944	-40.188560	11.485944	-0.277371	-128.347727
7.400000	-0.351028	-159.956976	-40.063440	9.907855	-40.063440	9.907855	-0.281292	-129.109657
7.450000	-0.356166	-161.057019	-39.939632	8.333079	-39.939632	8.333079	-0.285258	-129.871148
7.500000	-0.361369	-162.161309	-39.817092	6.761390	-39.817092	6.761390	-0.289270	-130.632239
7.550000	-0.366638	-163.270004	-39.695777	5.192556	-39.695777	5.192556	-0.293329	-131.392965
7.600000	-0.371978	-164.383640	-39.575596	3.626522	-39.575596	3.626522	-0.297438	-132.153342
7.650000	-0.377389	-165.502206	-39.456521	2.062883	-39.456521	2.062883	-0.301595	-132.913426
7.700000	-0.382868	-166.625699	-39.338518	0.501265	-39.338518	0.501265	-0.305799	-133.673268
7.750000	-0.388416	-167.754291	-39.221533	-1.058633	-39.221533	-1.058633	-0.310051	-134.432905
7.800000	-0.394035	-168.888155	-39.105509	-2.617135	-39.105509	-2.617135	-0.314350	-135.192377
7.850000	-0.399726	-170.027472	-38.990386	-4.174594	-38.990386	-4.174594	-0.318696	-135.951725
7.900000	-0.405490	-171.172497	-38.876095	-5.731387	-38.876095	-5.731387	-0.323090	-136.710986
7.950000	-0.411336	-172.323980	-38.762496	-7.287953	-38.762496	-7.287953	-0.327537	-137.470204
8.000000	-0.417258	-173.481530	-38.649588	-8.844799	-38.649588	-8.844799	-0.332031	-138.229428
8.050000	-0.423259	-174.645351	-38.537290	-10.402400	-38.537290	-10.402400	-0.336573	-138.988700
8.100000	-0.429342	-175.815660	-38.425512	-11.961259	-38.425512	-11.961259	-0.341163	-139.748064
8.150000	-0.435508	-176.992681	-38.314146	-13.521924	-38.314146	-13.521924	-0.345800	-140.507562
8.200000	-0.441762	-178.176652	-38.203064	-15.085002	-38.203064	-15.085002	-0.350485	-141.267241
8.250000	-0.448114	-179.368285	-38.092016	-16.651440	-38.092016	-16.651440	-0.355220	-142.027163
8.300000	-0.454569	179.432154	-37.980783	-18.222231	-37.980783	-18.222231	-0.360005	-142.787382
8.350000	-0.461133	178.224525	-37.869122	-19.798557	-37.869122	-19.798557	-0.364837	-143.547946
8.400000	-0.467806	177.009092	-37.756878	-21.381440	-37.756878	-21.381440	-0.369715	-144.308881
8.450000	-0.474607	175.785025	-37.643571	-22.973195	-37.643571	-22.973195	-0.374639	-145.070262
8.500000	-0.481549	174.551913	-37.528751	-24.576448	-37.528751	-24.576448	-0.379608	-145.832151
8.550000	-0.488653	173.309285	-37.411883	-26.194644	-37.411883	-26.194644	-0.384623	-146.594612
8.600000	-0.495945	172.056602	-37.292322	-27.832289	-37.292322	-27.832289	-0.389683	-147.357718
8.650000	-0.503461	170.793227	-37.169289	-29.495313	-37.169289	-29.495313	-0.394785	-148.121547
8.700000	-0.511251	169.518398	-37.041833	-31.191590	-37.041833	-31.191590	-0.399929	-148.886193
8.750000	-0.519387	168.231183	-36.908773	-32.931738	-36.908773	-32.931738	-0.405113	-149.651761
8.800000	-0.527998	166.929756	-36.768123	-34.733905	-36.768123	-34.733905	-0.410337	-150.418437
8.850000	-0.537236	165.613107	-36.618259	-36.617930	-36.618259	-36.617930	-0.415599	-151.186353
8.900000	-0.547362	164.279198	-36.456688	-38.615739	-36.456688	-38.615739	-0.420899	-151.955737
8.950000	-0.558801	162.925309	-36.280263	-40.775861	-36.280263	-40.775861	-0.426242	-152.726910
9.000000	-0.572139	161.549225	-36.086575	-43.158491	-36.086575	-43.158491	-0.431639	-153.500194
9.050000	-0.588831	160.143988	-35.869458	-45.909050	-35.869458	-45.909050	-0.437130	-154.276502
9.100000	-0.610920	158.706363	-35.628421	-49.204663	-35.628421	-49.204663	-0.442795	-155.056669
9.150000	-0.643634	157.231407	-35.368084	-53.476387	-35.368084	-53.476387	-0.448895	-155.842683
9.200000	-0.696216	155.738110	-35.133193	-59.406540	-35.133193	-59.406540	-0.456069	-156.636416
9.250000	-0.784730	154.336444	-35.107007	-68.209534	-35.107007	-68.209534	-0.465976	-157.436846
9.300000	-0.904425	153.392583	-35.899728	-80.480647	-35.899728	-80.480647	-0.480905	-158.222760
9.350000	-0.942984	153.092304	-38.506719	-89.301149	-38.506719	-89.301149	-0.496201	-158.950787
9.400000	-0.854436	152.422223	-41.522805	-78.976688	-41.522805	-78.976688	-0.502493	-159.659257
9.450000	-0.767827	151.116281	-41.710364	-61.371101	-41.710364	-61.371101	-0.504399	-160.401153
9.500000	-0.719236	149.594100	-40.676872	-53.362703	-40.676872	-53.362703	-0.506749	-161.166979
9.550000	-0.695194	148.037727	-39.780897	-51.080300	-39.780897	-51.080300	-0.510214	-161.943348
9.600000	-0.684604	146.488273	-39.139760	-51.007485	-39.139760	-51.007485	-0.514541	-162.724706
9.650000	-0.680403	144.947565	-38.658807	-51.696526	-38.658807	-51.696526	-0.519362	-163.508620
9.700000	-0.680653	143.413176	-38.299769	-52.779663	-38.299769	-52.779663	-0.524579	-164.294962
9.750000	-0.683265	141.880189	-38.013186	-54.012599	-38.013186	-54.012599	-0.530047	-165.083351
9.800000	-0.687530	140.345027	-37.780079	-55.317194	-37.780079	-55.317194	-0.535748	-165.874056
9.850000	-0.692905	138.804971	-37.584637	-56.650472	-37.584637	-56.650472	-0.541685	-166.667058
9.900000	-0.699043	137.258133	-37.415976	-57.990996	-37.415976	-57.990996	-0.547870	-167.462086
9.950000	-0.705817	135.702105	-37.269407	-59.328455	-37.269407	-59.328455	-0.554323	-168.258965
10.000000	-0.713022	134.137050	-37.137829	-60.658269	-37.137829	-60.658269	-0.560972	-169.057145
