! freq	dB(S11)	phase(S11)	dB(S12)	phase(S12)	
!     	dB(S21)	phase(S21)	dB(S22)	phase(S22)	
!S-par simulation data
#  GHz  S  DB  R 50
0.000000	-0.000000	-0.000000	-287.661328	180.000000	-287.661328	180.000000	-0.000000	0.000000
0.050000	-0.016064	-3.206516	-73.251399	86.842257	-73.251399	86.842257	-0.012721	-3.213716
0.100000	-0.028652	-6.546950	-67.232142	83.579341	-67.232142	83.579341	-0.025579	-6.541091
0.150000	-0.033937	-9.891825	-63.730654	80.259135	-63.730654	80.259135	-0.031865	-9.883808
0.200000	-0.036870	-13.221650	-61.270604	76.933899	-61.270604	76.933899	-0.035435	-13.214792
0.250000	-0.039020	-16.535202	-59.387635	73.624252	-59.387635	73.624252	-0.037970	-16.530140
0.300000	-0.040945	-19.831835	-57.874175	70.338511	-57.874175	70.338511	-0.040142	-19.828531
0.350000	-0.042854	-23.110274	-56.619357	67.081056	-56.619357	67.081056	-0.042223	-23.108554
0.400000	-0.044832	-26.368861	-55.556937	63.855248	-55.556937	63.855248	-0.044329	-26.368539
0.450000	-0.046911	-29.605773	-54.644122	60.664226	-54.644122	60.664226	-0.046510	-29.606684
0.500000	-0.049101	-32.819154	-53.851617	57.511098	-53.851617	57.511098	-0.048783	-32.821154
0.550000	-0.051396	-36.007188	-53.158448	54.398965	-53.158448	54.398965	-0.051150	-36.010154
0.600000	-0.053788	-39.168142	-52.549040	51.330904	-52.549040	51.330904	-0.053604	-39.171967
0.650000	-0.056263	-42.300066	-52.011841	48.310487	-52.011841	48.310487	-0.056133	-42.304656
0.700000	-0.058804	-45.401419	-51.537477	45.340779	-51.537477	45.340779	-0.058722	-45.406694
0.750000	-0.061396	-48.471165	-51.118084	42.424153	-51.118084	42.424153	-0.061355	-48.477054
0.800000	-0.064021	-51.508100	-50.747544	39.563416	-50.747544	39.563416	-0.064016	-51.514542
0.850000	-0.066664	-54.511160	-50.420774	36.761295	-50.420774	36.761295	-0.066690	-54.518103
0.900000	-0.069309	-57.479428	-50.133488	34.020443	-50.133488	34.020443	-0.069361	-57.486827
0.950000	-0.071944	-60.412126	-49.882024	31.343441	-49.882024	31.343441	-0.072017	-60.419943
1.000000	-0.074555	-63.308613	-49.663211	28.732807	-49.663211	28.732807	-0.074644	-63.316817
1.050000	-0.077130	-66.168381	-49.474273	26.191004	-49.474273	26.191004	-0.077231	-66.176945
1.100000	-0.079661	-68.991045	-49.312749	23.720450	-49.312749	23.720450	-0.079770	-68.999949
1.150000	-0.082139	-71.776343	-49.176436	21.323522	-49.176436	21.323522	-0.082251	-71.785571
1.200000	-0.084555	-74.524123	-49.063343	19.002564	-49.063343	19.002564	-0.084669	-74.533663
1.250000	-0.086906	-77.234339	-48.971645	16.759898	-48.971645	16.759898	-0.087018	-77.244182
1.300000	-0.089184	-79.906228	-48.900042	14.599623	-48.900042	14.599623	-0.089291	-79.916369
1.350000	-0.091388	-82.540756	-48.846519	12.522312	-48.846519	12.522312	-0.091488	-82.551191
1.400000	-0.093515	-85.138149	-48.809591	10.530211	-48.809591	10.530211	-0.093608	-85.148878
1.450000	-0.095566	-87.698713	-48.787838	8.625531	-48.787838	8.625531	-0.095648	-87.709735
1.500000	-0.097539	-90.222815	-48.779891	6.810438	-48.779891	6.810438	-0.097611	-90.234133
1.550000	-0.099435	-92.710887	-48.784418	5.087028	-48.784418	5.087028	-0.099496	-92.722502
1.600000	-0.101256	-95.163413	-48.800104	3.457303	-48.800104	3.457303	-0.101306	-95.175328
1.650000	-0.103005	-97.580925	-48.825642	1.923137	-48.825642	1.923137	-0.103043	-97.593143
1.700000	-0.104676	-99.960677	-48.860433	0.495873	-48.860433	0.495873	-0.104703	-99.973201
1.750000	-0.106285	-102.309620	-48.901657	-0.841090	-48.901657	-0.841090	-0.106302	-102.322453
1.800000	-0.107831	-104.625389	-48.948726	-2.078154	-48.948726	-2.078154	-0.107838	-104.638534
1.850000	-0.109317	-106.908653	-49.000274	-3.214520	-49.000274	-3.214520	-0.109314	-106.922110
1.900000	-0.110746	-109.160100	-49.054906	-4.249840	-49.054906	-4.249840	-0.110735	-109.173872
1.950000	-0.112123	-111.380436	-49.111195	-5.184303	-49.111195	-5.184303	-0.112105	-111.394524
2.000000	-0.113452	-113.570381	-49.167693	-6.018733	-49.167693	-6.018733	-0.113428	-113.584786
2.050000	-0.114737	-115.730668	-49.222930	-6.754683	-49.222930	-6.754683	-0.114707	-115.745390
2.100000	-0.115981	-117.862035	-49.275428	-7.394529	-49.275428	-7.394529	-0.115948	-117.877073
2.150000	-0.117191	-119.965226	-49.323713	-7.941555	-49.323713	-7.941555	-0.117155	-119.980579
2.200000	-0.118368	-122.040986	-49.366338	-8.400022	-49.366338	-8.400022	-0.118331	-122.056653
2.250000	-0.119519	-124.090062	-49.401900	-8.775216	-49.401900	-8.775216	-0.119480	-124.106042
2.300000	-0.120645	-126.113199	-49.429067	-9.073463	-49.429067	-9.073463	-0.120607	-126.129489
2.350000	-0.121752	-128.111138	-49.446609	-9.302115	-49.446609	-9.302115	-0.121715	-128.127737
2.400000	-0.122842	-130.084615	-49.453419	-9.469487	-49.453419	-9.469487	-0.122807	-130.101519
2.450000	-0.123920	-132.034360	-49.448545	-9.584756	-49.448545	-9.584756	-0.123888	-132.051567
2.500000	-0.124988	-133.961094	-49.431215	-9.657818	-49.431215	-9.657818	-0.124960	-133.978602
2.550000	-0.126049	-135.864596	-49.400259	-9.698231	-49.400259	-9.698231	-0.126026	-135.882402
2.600000	-0.127108	-137.746568	-49.355880	-9.718602	-49.355880	-9.718602	-0.127089	-137.764671
2.650000	-0.128166	-139.607705	-49.297953	-9.729742	-49.297953	-9.729742	-0.128153	-139.626101
2.700000	-0.129227	-141.448687	-49.226568	-9.742267	-49.226568	-9.742267	-0.129220	-141.467375
2.750000	-0.130292	-143.270185	-49.142016	-9.766371	-49.142016	-9.766371	-0.130291	-143.289163
2.800000	-0.131364	-145.072858	-49.044777	-9.811622	-49.044777	-9.811622	-0.131370	-145.092125
2.850000	-0.132446	-146.857355	-48.935490	-9.886796	-48.935490	-9.886796	-0.132458	-146.876908
2.900000	-0.133538	-148.624308	-48.814931	-9.999748	-48.814931	-9.999748	-0.133557	-148.644147
2.950000	-0.134644	-150.374342	-48.683981	-10.157326	-48.683981	-10.157326	-0.134669	-150.394466
3.000000	-0.135764	-152.108066	-48.543596	-10.365331	-48.543596	-10.365331	-0.135796	-152.128476
3.050000	-0.136900	-153.826079	-48.394780	-10.628510	-48.394780	-10.628510	-0.136939	-153.846775
3.100000	-0.138054	-155.528966	-48.238556	-10.950590	-48.238556	-10.950590	-0.138099	-155.549948
3.150000	-0.139226	-157.217300	-48.075946	-11.334336	-48.075946	-11.334336	-0.139278	-157.238570
3.200000	-0.140419	-158.891643	-47.907946	-11.781630	-47.907946	-11.781630	-0.140476	-158.913202
3.250000	-0.141632	-160.552543	-47.735518	-12.293561	-47.735518	-12.293561	-0.141695	-160.574393
3.300000	-0.142867	-162.200538	-47.559570	-12.870525	-47.559570	-12.870525	-0.142936	-162.222681
3.350000	-0.144125	-163.836151	-47.380954	-13.512328	-47.380954	-13.512328	-0.144199	-163.858591
3.400000	-0.145407	-165.459898	-47.200456	-14.218279	-47.200456	-14.218279	-0.145486	-165.482637
3.450000	-0.146712	-167.072279	-47.018796	-14.987285	-47.018796	-14.987285	-0.146796	-167.095322
3.500000	-0.148042	-168.673787	-46.836625	-15.817935	-46.836625	-15.817935	-0.148130	-168.697137
3.550000	-0.149397	-170.264900	-46.654531	-16.708579	-46.654531	-16.708579	-0.149489	-170.288563
3.600000	-0.150778	-171.846089	-46.473035	-17.657388	-46.473035	-17.657388	-0.150873	-171.870068
3.650000	-0.152184	-173.417811	-46.292600	-18.662419	-46.292600	-18.662419	-0.152283	-173.442112
3.700000	-0.153616	-174.980515	-46.113628	-19.721657	-46.113628	-19.721657	-0.153718	-175.005144
3.750000	-0.155075	-176.534640	-45.936475	-20.833061	-45.936475	-20.833061	-0.155179	-176.559603
3.800000	-0.156560	-178.080280	-45.761396	-21.996675	-45.761396	-21.996675	-0.156667	-178.105584
3.850000	-0.158073	-179.618226	-45.588728	-23.208230	-45.588728	-23.208230	-0.158181	-179.643876
3.900000	-0.159611	178.851113	-45.418687	-24.465781	-45.418687	-24.465781	-0.159721	178.825109
3.950000	-0.161176	177.327337	-45.251455	-25.767452	-45.251455	-25.767452	-0.161287	177.300973
4.000000	-0.162767	175.810055	-45.087183	-27.111446	-45.087183	-27.111446	-0.162880	175.783325
4.050000	-0.164384	174.298885	-44.925993	-28.496058	-44.925993	-28.496058	-0.164498	174.271780
4.100000	-0.166027	172.793452	-44.767982	-29.919676	-44.767982	-29.919676	-0.166141	172.765964
4.150000	-0.167696	171.293389	-44.613227	-31.380787	-44.613227	-31.380787	-0.167811	171.265512
4.200000	-0.169390	169.798337	-44.461783	-32.877975	-44.461783	-32.877975	-0.169506	169.770063
4.250000	-0.171110	168.307946	-44.313690	-34.409927	-44.313690	-34.409927	-0.171226	168.279266
4.300000	-0.172855	166.821870	-44.168973	-35.975425	-44.168973	-35.975425	-0.172970	166.792778
4.350000	-0.174624	165.339774	-44.027643	-37.573353	-44.027643	-37.573353	-0.174740	165.310261
4.400000	-0.176418	163.861327	-43.889701	-39.202686	-43.889701	-39.202686	-0.176534	163.831385
4.450000	-0.178236	162.386205	-43.755135	-40.862494	-43.755135	-40.862494	-0.178352	162.355827
4.500000	-0.180078	160.914092	-43.623928	-42.551938	-43.623928	-42.551938	-0.180193	160.883270
4.550000	-0.181943	159.444677	-43.496052	-44.270264	-43.496052	-44.270264	-0.182059	159.413404
4.600000	-0.183831	157.977656	-43.371473	-46.016803	-43.371473	-46.016803	-0.183947	157.945924
4.650000	-0.185742	156.512729	-43.250152	-47.790968	-43.250152	-47.790968	-0.185857	156.480531
4.700000	-0.187675	155.049605	-43.132043	-49.592248	-43.132043	-49.592248	-0.187791	155.016933
4.750000	-0.189630	153.587997	-43.017096	-51.420209	-43.017096	-51.420209	-0.189746	153.554842
4.800000	-0.191606	152.127621	-42.905255	-53.274487	-42.905255	-53.274487	-0.191722	152.093979
4.850000	-0.193604	150.668203	-42.796461	-55.154789	-42.796461	-55.154789	-0.193720	150.634065
4.900000	-0.195622	149.209471	-42.690650	-57.060888	-42.690650	-57.060888	-0.195739	149.174831
4.950000	-0.197661	147.751158	-42.587756	-58.992620	-42.587756	-58.992620	-0.197779	147.716010
5.000000	-0.199719	146.293004	-42.487706	-60.949884	-42.487706	-60.949884	-0.199838	146.257342
5.050000	-0.201799	144.834737	-42.390496	-62.933746	-42.390496	-62.933746	-0.201918	144.798553
5.100000	-0.203897	143.376098	-42.295974	-64.943118	-42.295974	-64.943118	-0.204018	143.339387
5.150000	-0.206015	141.916841	-42.204057	-66.978074	-42.204057	-66.978074	-0.206137	141.879597
5.200000	-0.208151	140.456723	-42.114654	-69.038744	-42.114654	-69.038744	-0.208274	140.418942
5.250000	-0.210306	138.995509	-42.027674	-71.125304	-42.027674	-71.125304	-0.210431	138.957184
5.300000	-0.212479	137.532963	-41.943019	-73.237978	-41.943019	-73.237978	-0.212605	137.494090
5.350000	-0.214670	136.068858	-41.860586	-75.377036	-41.860586	-75.377036	-0.214798	136.029432
5.400000	-0.216878	134.602968	-41.780266	-77.542791	-41.780266	-77.542791	-0.217009	134.562985
5.450000	-0.219105	133.135072	-41.701944	-79.735595	-41.701944	-79.735595	-0.219237	133.094529
5.500000	-0.221349	131.664955	-41.625500	-81.955839	-41.625500	-81.955839	-0.221483	131.623846
5.550000	-0.223610	130.192402	-41.550806	-84.203950	-41.550806	-84.203950	-0.223747	130.150725
5.600000	-0.225889	128.717206	-41.477725	-86.480385	-41.477725	-86.480385	-0.226028	128.674957
5.650000	-0.228185	127.239160	-41.406113	-88.785632	-41.406113	-88.785632	-0.228327	127.196336
5.700000	-0.230499	125.758065	-41.335816	-91.120205	-41.335816	-91.120205	-0.230643	125.714663
5.750000	-0.232831	124.273722	-41.266672	-93.484637	-41.266672	-93.484637	-0.232977	124.229739
5.800000	-0.235181	122.785938	-41.198506	-95.879480	-41.198506	-95.879480	-0.235330	122.741372
5.850000	-0.237549	121.294522	-41.131134	-98.305300	-41.131134	-98.305300	-0.237700	121.249372
5.900000	-0.239936	119.799289	-41.064358	-100.762666	-41.064358	-100.762666	-0.240089	119.753551
5.950000	-0.242341	118.300056	-40.997968	-103.252152	-40.997968	-103.252152	-0.242497	118.253729
6.000000	-0.244767	116.796643	-40.931740	-105.774324	-40.931740	-105.774324	-0.244925	116.749727
6.050000	-0.247213	115.288876	-40.865436	-108.329736	-40.865436	-108.329736	-0.247373	115.241368
6.100000	-0.249679	113.776582	-40.798802	-110.918919	-40.798802	-110.918919	-0.249841	113.728481
6.150000	-0.252168	112.259594	-40.731568	-113.542376	-40.731568	-113.542376	-0.252332	112.210898
6.200000	-0.254679	110.737746	-40.663448	-116.200567	-40.663448	-116.200567	-0.254845	110.688456
6.250000	-0.257214	109.210877	-40.594139	-118.893904	-40.594139	-118.893904	-0.257382	109.160991
6.300000	-0.259776	107.678598	-40.523213	-121.624289	-40.523213	-121.624289	-0.259944	107.628115
6.350000	-0.262364	106.140973	-40.450403	-124.390453	-40.450403	-124.390453	-0.262533	106.089893
6.400000	-0.264980	104.597852	-40.375348	-127.192567	-40.375348	-127.192567	-0.265150	104.546174
6.450000	-0.267626	103.049087	-40.297672	-130.030692	-40.297672	-130.030692	-0.267797	102.996812
6.500000	-0.270304	101.494537	-40.216980	-132.904772	-40.216980	-132.904772	-0.270475	101.441662
6.550000	-0.273016	99.934060	-40.132861	-135.814615	-40.132861	-135.814615	-0.273186	99.880587
6.600000	-0.275764	98.367520	-40.044888	-138.759880	-40.044888	-138.759880	-0.275934	98.313448
6.650000	-0.278550	96.794785	-39.952621	-141.740062	-39.952621	-141.740062	-0.278719	96.740114
6.700000	-0.281378	95.215723	-39.855607	-144.754479	-39.855607	-144.754479	-0.281546	95.160453
6.750000	-0.284250	93.630209	-39.753384	-147.802258	-39.753384	-147.802258	-0.284417	93.574339
6.800000	-0.287170	92.038118	-39.645482	-150.882326	-39.645482	-150.882326	-0.287335	91.981648
6.850000	-0.290142	90.439330	-39.531428	-153.993399	-39.531428	-153.993399	-0.290304	90.382260
6.900000	-0.293168	88.833726	-39.410744	-157.133981	-39.410744	-157.133981	-0.293328	88.776056
6.950000	-0.296254	87.221192	-39.282958	-160.302352	-39.282958	-160.302352	-0.296411	87.162922
7.000000	-0.299404	85.601615	-39.147601	-163.496580	-39.147601	-163.496580	-0.299558	85.542745
7.050000	-0.302623	83.974884	-39.004217	-166.714517	-39.004217	-166.714517	-0.302773	83.915416
7.100000	-0.305916	82.340893	-38.852361	-169.953812	-38.852361	-169.953812	-0.306063	82.280826
7.150000	-0.309291	80.699535	-38.691604	-173.211924	-38.691604	-173.211924	-0.309433	80.638869
7.200000	-0.312752	79.050705	-38.521542	-176.486143	-38.521542	-176.486143	-0.312890	78.989441
7.250000	-0.316307	77.394302	-38.341790	-179.773609	-38.341790	-179.773609	-0.316441	77.332441
7.300000	-0.319964	75.730221	-38.151992	176.928658	-38.151992	176.928658	-0.320093	75.667765
7.350000	-0.323732	74.058363	-37.951819	173.623728	-37.951819	173.623728	-0.323855	73.995314
7.400000	-0.327618	72.378626	-37.740974	170.314722	-37.740974	170.314722	-0.327737	72.314985
7.450000	-0.331635	70.690907	-37.519186	167.004782	-37.519186	167.004782	-0.331748	70.626678
7.500000	-0.335792	68.995104	-37.286217	163.697025	-37.286217	163.697025	-0.335899	68.930290
7.550000	-0.340108	67.290749	-37.041031	160.394874	-37.041031	160.394874	-0.340210	67.225355
7.600000	-0.344592	65.578086	-36.784186	157.101167	-36.784186	157.101167	-0.344689	65.512116
7.650000	-0.349258	63.857002	-36.515513	153.818687	-36.515513	153.818687	-0.349349	63.790463
7.700000	-0.354122	62.127377	-36.234861	150.550030	-36.234861	150.550030	-0.354207	62.060278
7.750000	-0.359203	60.389087	-35.942089	147.297569	-35.942089	147.297569	-0.359282	60.321437
7.800000	-0.364521	58.641997	-35.637063	144.063421	-35.637063	144.063421	-0.364594	58.573808
7.850000	-0.370099	56.885964	-35.319647	140.849419	-35.319647	140.849419	-0.370166	56.817248
7.900000	-0.375961	55.120829	-34.989694	137.657082	-34.989694	137.657082	-0.376022	55.051603
7.950000	-0.382138	53.346421	-34.647042	134.487590	-34.647042	134.487590	-0.382191	53.276702
8.000000	-0.388660	51.562547	-34.291502	131.341762	-34.291502	131.341762	-0.388706	51.492357
8.050000	-0.395564	49.768995	-33.922850	128.220033	-33.922850	128.220033	-0.395602	49.698359
8.100000	-0.402893	47.965523	-33.540816	125.122429	-33.540816	125.122429	-0.402922	47.894470
8.150000	-0.410694	46.151861	-33.145077	122.048540	-33.145077	122.048540	-0.410713	46.080423
8.200000	-0.419023	44.327698	-32.735243	118.997498	-32.735243	118.997498	-0.419030	44.255914
8.250000	-0.427944	42.492679	-32.310845	115.967933	-32.310845	115.967933	-0.427938	42.420594
8.300000	-0.437532	40.646397	-31.871325	112.957938	-31.871325	112.957938	-0.437510	40.574061
8.350000	-0.447831	38.789040	-31.418280	109.964315	-31.418280	109.964315	-0.447790	38.716508
8.400000	-0.459008	36.919063	-30.947566	106.985319	-30.947566	106.985319	-0.458944	36.846403
8.450000	-0.471216	35.035596	-30.457357	104.016682	-30.457357	104.016682	-0.471123	34.962889
8.500000	-0.484575	33.138344	-29.948195	101.053123	-29.948195	101.053123	-0.484448	33.065678
8.550000	-0.499157	31.227651	-29.422995	98.089023	-29.422995	98.089023	-0.498988	31.155120
8.600000	-0.515483	29.299471	-28.869701	95.115918	-28.869701	95.115918	-0.515261	29.227204
8.650000	-0.533469	27.356170	-28.299251	92.127736	-28.299251	92.127736	-0.533183	27.284288
8.700000	-0.553737	25.393864	-27.700904	89.111425	-27.700904	89.111425	-0.553372	25.322526
8.750000	-0.576647	23.411709	-27.075316	86.054961	-27.075316	86.054961	-0.576182	23.341092
8.800000	-0.602878	21.407122	-26.417610	82.940424	-26.417610	82.940424	-0.602289	21.337433
8.850000	-0.633162	19.378160	-25.725856	79.747941	-25.725856	79.747941	-0.632417	19.309638
8.900000	-0.668510	17.322304	-24.996727	76.451965	-24.996727	76.451965	-0.667570	17.255221
8.950000	-0.710307	15.236642	-24.225906	73.019325	-24.225906	73.019325	-0.709118	15.171314
9.000000	-0.760595	13.117689	-23.406577	69.403536	-23.406577	69.403536	-0.759088	13.054485
9.050000	-0.822123	10.962881	-22.532830	65.545169	-22.532830	65.545169	-0.820203	10.902221
9.100000	-0.898807	8.771324	-21.598134	61.364039	-21.598134	61.364039	-0.896345	8.713679
9.150000	-0.996438	6.546455	-20.594807	56.747511	-20.594807	56.747511	-0.993254	6.492327
9.200000	-1.123385	4.302610	-19.516590	51.540467	-19.516590	51.540467	-1.119223	4.252471
9.250000	-1.292248	2.079360	-18.357947	45.514945	-18.357947	45.514945	-1.286731	2.033488
9.300000	-1.519840	-0.027762	-17.124187	38.362195	-17.124187	38.362195	-1.512416	-0.069698
9.350000	-1.826460	-1.796964	-15.835529	29.635037	-15.835529	29.635037	-1.816326	-1.836937
9.400000	-2.218242	-2.770753	-14.555315	18.794611	-14.555315	18.794611	-2.204364	-2.814739
9.450000	-2.633262	-2.220769	-13.418058	5.364028	-13.418058	5.364028	-2.614879	-2.282767
9.500000	-2.859693	0.222623	-12.641682	-10.582277	-12.641682	-10.582277	-2.838025	0.120801
9.550000	-2.659763	3.116917	-12.438886	-27.811654	-12.438886	-27.811654	-2.639183	2.965092
9.600000	-2.139228	4.127020	-12.843770	-44.246450	-12.843770	-44.246450	-2.123589	3.942807
9.650000	-1.610535	2.902114	-13.676834	-58.323803	-13.676834	-58.323803	-1.600205	2.709548
9.700000	-1.219999	0.462960	-14.706872	-69.684724	-14.706872	-69.684724	-1.213627	0.275445
9.750000	-0.963753	-2.372826	-15.774104	-78.716461	-15.774104	-78.716461	-0.959975	-2.550621
9.800000	-0.801197	-5.238695	-16.799889	-85.978421	-16.799889	-85.978421	-0.799051	-5.405998
9.850000	-0.699017	-8.011807	-17.751965	-91.931423	-17.751965	-91.931423	-0.697873	-8.169154
9.900000	-0.634798	-10.667093	-18.623135	-96.927914	-18.623135	-96.927914	-0.634249	-10.815304
9.950000	-0.594493	-13.214576	-19.419020	-101.226329	-19.419020	-101.226329	-0.594270	-13.354389
10.000000	-0.570086	-15.669270	-20.144123	-104.989987	-20.144123	-104.989987	-0.569997	-15.801271
