! freq	dB(S11)	phase(S11)	dB(S12)	phase(S12)	
!     	dB(S21)	phase(S21)	dB(S22)	phase(S22)	
!S-par simulation data
#  GHz  S  DB  R 50
0.000000	-0.000000	0.000000	-393.853277	0.000000	-393.853277	0.000000	-0.000000	0.000000
0.050000	-0.000057	-0.758649	-92.425024	3.064337	-92.425024	3.064337	-0.000094	-0.871694
0.100000	-0.000229	-1.517226	-92.449673	3.692645	-92.449673	3.692645	-0.000372	-1.743189
0.150000	-0.000512	-2.275659	-92.495894	4.834945	-92.495894	4.834945	-0.000826	-2.614296
0.200000	-0.000902	-3.033883	-92.563604	6.077564	-92.563604	6.077564	-0.001444	-3.484849
0.250000	-0.001401	-3.791814	-92.656926	7.329912	-92.656926	7.329912	-0.002219	-4.354650
0.300000	-0.001993	-4.549415	-92.777335	8.556309	-92.777335	8.556309	-0.003120	-5.223641
0.350000	-0.002677	-5.306617	-92.930484	9.739048	-92.930484	9.739048	-0.004136	-6.091693
0.400000	-0.003445	-6.063364	-93.122262	10.867090	-93.122262	10.867090	-0.005248	-6.958728
0.450000	-0.004289	-6.819608	-93.359971	11.933956	-93.359971	11.933956	-0.006437	-7.824693
0.500000	-0.005203	-7.575301	-93.652711	12.936593	-93.652711	12.936593	-0.007687	-8.689555
0.550000	-0.006178	-8.330403	-94.011969	13.875089	-94.011969	13.875089	-0.008980	-9.553298
0.600000	-0.007206	-9.084877	-94.452540	14.752908	-94.452540	14.752908	-0.010304	-10.415921
0.650000	-0.008280	-9.838690	-94.994003	15.577732	-94.994003	15.577732	-0.011646	-11.277431
0.700000	-0.009392	-10.591814	-95.663163	16.363289	-95.663163	16.363289	-0.012996	-12.137842
0.750000	-0.010536	-11.344226	-96.498332	17.133253	-96.498332	17.133253	-0.014346	-12.997173
0.800000	-0.011704	-12.095904	-97.557330	17.929964	-97.557330	17.929964	-0.015689	-13.855444
0.850000	-0.012891	-12.846831	-98.933915	18.836308	-98.933915	18.836308	-0.017021	-14.712675
0.900000	-0.014091	-13.596991	-100.796046	20.041479	-100.796046	20.041479	-0.018338	-15.568884
0.950000	-0.015300	-14.346372	-103.493158	22.112787	-103.493158	22.112787	-0.019637	-16.424086
1.000000	-0.016512	-15.094963	-107.949641	28.465190	-107.949641	28.465190	-0.020917	-17.278294
1.050000	-0.017725	-15.842754	-115.360610	63.984170	-115.360610	63.984170	-0.022178	-18.131518
1.100000	-0.018935	-16.589738	-111.821395	176.505747	-111.821395	176.505747	-0.023418	-18.983763
1.150000	-0.020139	-17.335906	-104.216059	-171.714246	-104.216059	-171.714246	-0.024640	-19.835031
1.200000	-0.021335	-18.081252	-99.865284	-169.017465	-99.865284	-169.017465	-0.025843	-20.685321
1.250000	-0.022521	-18.825769	-96.749595	-167.968312	-96.749595	-167.968312	-0.027028	-21.534629
1.300000	-0.023696	-19.569414	-94.274803	-167.553476	-94.274803	-167.553476	-0.028197	-22.382905
1.350000	-0.024858	-20.312216	-92.204177	-167.448742	-92.204177	-167.448742	-0.029351	-23.230181
1.400000	-0.026006	-21.054169	-90.408785	-167.540868	-90.408785	-167.540868	-0.030491	-24.076445
1.450000	-0.027142	-21.795265	-88.813567	-167.772505	-88.813567	-167.772505	-0.031620	-24.921685
1.500000	-0.028263	-22.535497	-87.370973	-168.111250	-87.370973	-168.111250	-0.032737	-25.765884
1.550000	-0.029370	-23.274857	-86.048973	-168.537092	-86.048973	-168.537092	-0.033846	-26.609025
1.600000	-0.030464	-24.013336	-84.824955	-169.036752	-84.824955	-169.036752	-0.034947	-27.451092
1.650000	-0.031544	-24.750926	-83.682357	-169.600875	-83.682357	-169.600875	-0.036040	-28.292064
1.700000	-0.032607	-25.487300	-82.585442	-170.240063	-82.585442	-170.240063	-0.037127	-29.131527
1.750000	-0.033663	-26.223202	-81.581317	-170.907327	-81.581317	-170.907327	-0.038212	-29.970402
1.800000	-0.034706	-26.957979	-80.614098	-171.631169	-80.614098	-171.631169	-0.039293	-30.807863
1.850000	-0.035738	-27.691954	-79.700699	-172.395425	-79.700699	-172.395425	-0.040371	-31.644313
1.900000	-0.036760	-28.424942	-78.824298	-173.201559	-78.824298	-173.201559	-0.041449	-32.479506
1.950000	-0.037772	-29.156942	-77.982923	-174.049571	-77.982923	-174.049571	-0.042525	-33.313442
2.000000	-0.038777	-29.888098	-77.179355	-174.928399	-77.179355	-174.928399	-0.043602	-34.146292
2.050000	-0.039772	-30.618072	-76.397091	-175.850368	-76.397091	-175.850368	-0.044679	-34.977623
2.100000	-0.040763	-31.347529	-75.660245	-176.789175	-75.660245	-176.789175	-0.045758	-35.808283
2.150000	-0.041746	-32.075643	-74.934875	-177.770817	-74.934875	-177.770817	-0.046839	-36.637206
2.200000	-0.042723	-32.802744	-74.232820	-178.782172	-74.232820	-178.782172	-0.047924	-37.464812
2.250000	-0.043697	-33.528819	-73.552437	-179.821864	-73.552437	-179.821864	-0.049011	-38.291081
2.300000	-0.044667	-34.253856	-72.892281	179.111389	-72.892281	179.111389	-0.050102	-39.115996
2.350000	-0.045634	-34.977842	-72.251074	178.018787	-72.251074	178.018787	-0.051198	-39.939538
2.400000	-0.046600	-35.700763	-71.627678	176.901462	-71.627678	176.901462	-0.052299	-40.761688
2.450000	-0.047564	-36.422607	-71.021079	175.760483	-71.021079	175.760483	-0.053404	-41.582429
2.500000	-0.048529	-37.143361	-70.430365	174.596869	-70.430365	174.596869	-0.054516	-42.401743
2.550000	-0.049495	-37.862964	-69.853715	173.410695	-69.853715	173.410695	-0.055633	-43.219552
2.600000	-0.050462	-38.581451	-69.291481	172.203871	-69.291481	172.203871	-0.056757	-44.035901
2.650000	-0.051431	-39.298808	-68.742976	170.977292	-68.742976	170.977292	-0.057887	-44.850774
2.700000	-0.052403	-40.015024	-68.207575	169.731820	-68.207575	169.731820	-0.059025	-45.664158
2.750000	-0.053380	-40.730086	-67.684707	168.468292	-67.684707	168.468292	-0.060169	-46.476036
2.800000	-0.054360	-41.443983	-67.173845	167.187519	-67.173845	167.187519	-0.061322	-47.286397
2.850000	-0.055346	-42.156702	-66.674506	165.890292	-66.674506	165.890292	-0.062482	-48.095227
2.900000	-0.056338	-42.868232	-66.186242	164.577380	-66.186242	164.577380	-0.063650	-48.902514
2.950000	-0.057335	-43.578561	-65.708637	163.249535	-65.708637	163.249535	-0.064827	-49.708245
3.000000	-0.058340	-44.287679	-65.241304	161.907494	-65.241304	161.907494	-0.066012	-50.512409
3.050000	-0.059353	-44.995575	-64.783881	160.551974	-64.783881	160.551974	-0.067207	-51.314996
3.100000	-0.060373	-45.702237	-64.336032	159.183681	-64.336032	159.183681	-0.068410	-52.115995
3.150000	-0.061402	-46.407656	-63.897437	157.803303	-63.897437	157.803303	-0.069624	-52.915398
3.200000	-0.062441	-47.111822	-63.467797	156.411516	-63.467797	156.411516	-0.070847	-53.713193
3.250000	-0.063489	-47.814725	-63.046828	155.008981	-63.046828	155.008981	-0.072081	-54.509375
3.300000	-0.064547	-48.516355	-62.634264	153.596347	-62.634264	153.596347	-0.073325	-55.303934
3.350000	-0.065618	-49.216478	-62.228013	152.172784	-62.228013	152.172784	-0.074581	-56.096577
3.400000	-0.066701	-49.915255	-61.829393	150.740007	-61.829393	150.740007	-0.075850	-56.887513
3.450000	-0.067790	-50.613350	-61.443245	149.303167	-61.443245	149.303167	-0.077124	-57.677590
3.500000	-0.068898	-51.309403	-61.059113	147.854135	-61.059113	147.854135	-0.078417	-58.465089
3.550000	-0.070010	-52.004996	-60.688196	146.402808	-60.688196	146.402808	-0.079715	-59.252011
3.600000	-0.071145	-52.698292	-60.317821	144.940002	-60.317821	144.940002	-0.081034	-60.036051
3.650000	-0.072282	-53.391356	-59.961199	143.476243	-59.961199	143.476243	-0.082355	-60.819802
3.700000	-0.073445	-54.081864	-59.603891	142.001994	-59.603891	142.001994	-0.083701	-61.600366
3.750000	-0.074608	-54.772372	-59.260702	140.527746	-59.260702	140.527746	-0.085048	-62.380931
3.800000	-0.075801	-55.460066	-58.915803	139.044227	-58.915803	139.044227	-0.086423	-63.158009
3.850000	-0.076995	-56.147760	-58.584078	137.560708	-58.584078	137.560708	-0.087799	-63.935087
3.900000	-0.078217	-56.832852	-58.252130	136.070526	-58.252130	136.070526	-0.089203	-64.708962
3.950000	-0.079442	-57.517707	-57.931315	134.579738	-57.931315	134.579738	-0.090610	-65.482546
4.000000	-0.080695	-58.200179	-57.611524	133.084412	-57.611524	133.084412	-0.092044	-66.253215
4.050000	-0.081953	-58.882175	-57.301083	131.588179	-57.301083	131.588179	-0.093483	-67.023302
4.100000	-0.083238	-59.562013	-56.992704	130.089089	-56.992704	130.089089	-0.094949	-67.790767
4.150000	-0.084531	-60.241132	-56.692115	128.589048	-56.692115	128.589048	-0.096423	-68.557358
4.200000	-0.085848	-60.918323	-56.394453	127.087434	-56.394453	127.087434	-0.097922	-69.321622
4.250000	-0.087177	-61.594550	-56.103208	125.585034	-56.103208	125.585034	-0.099432	-70.084724
4.300000	-0.088527	-62.269084	-55.815609	124.081992	-55.815609	124.081992	-0.100966	-70.845796
4.350000	-0.089894	-62.942408	-55.533217	122.578491	-55.533217	122.578491	-0.102515	-71.605418
4.400000	-0.091279	-63.614277	-55.255069	121.074974	-55.255069	121.074974	-0.104085	-72.363307
4.450000	-0.092684	-64.284690	-54.981050	119.571440	-54.981050	119.571440	-0.105675	-73.119463
4.500000	-0.094106	-64.953888	-54.711778	118.068260	-54.711778	118.068260	-0.107283	-73.874183
4.550000	-0.095550	-65.621385	-54.445670	116.565576	-54.445670	116.565576	-0.108915	-74.626892
4.600000	-0.097009	-66.287910	-54.184734	115.063409	-54.184734	115.063409	-0.110563	-75.378459
4.650000	-0.098495	-66.952488	-53.926093	113.562279	-53.926093	113.562279	-0.112241	-76.127742
4.700000	-0.099991	-67.616338	-53.672988	112.061670	-53.672988	112.061670	-0.113931	-76.876174
4.750000	-0.101519	-68.277999	-53.421387	110.562628	-53.421387	110.562628	-0.115656	-77.622056
4.800000	-0.103055	-68.939175	-53.175639	109.063997	-53.175639	109.063997	-0.117389	-78.367376
4.850000	-0.104626	-69.597922	-52.930674	107.567419	-52.930674	107.567419	-0.119163	-79.109887
4.900000	-0.106202	-70.256427	-52.691842	106.071067	-52.691842	106.071067	-0.120942	-79.852119
4.950000	-0.107818	-70.912267	-52.453128	104.577187	-52.453128	104.577187	-0.122767	-80.591291
5.000000	-0.109435	-71.568107	-52.220800	103.083307	-52.220800	103.083307	-0.124593	-81.330463
5.050000	-0.111097	-72.221049	-51.987978	101.592226	-51.987978	101.592226	-0.126473	-82.066331
5.100000	-0.112760	-72.873991	-51.761234	100.101146	-51.761234	100.101146	-0.128352	-82.802200
5.150000	-0.114465	-73.524287	-51.534506	98.612621	-51.534506	98.612621	-0.130283	-83.535077
5.200000	-0.116175	-74.174343	-51.313035	97.124329	-51.313035	97.124329	-0.132218	-84.267682
5.250000	-0.117925	-74.822005	-51.092046	95.638271	-51.092046	95.638271	-0.134202	-84.997603
5.300000	-0.119684	-75.469189	-50.875561	94.152659	-50.875561	94.152659	-0.136195	-85.726987
5.350000	-0.121479	-76.114231	-50.659990	92.668917	-50.659990	92.668917	-0.138233	-86.453991
5.400000	-0.123288	-76.758560	-50.448225	91.185799	-50.448225	91.185799	-0.140287	-87.180201
5.450000	-0.125130	-77.400998	-50.237779	89.704177	-50.237779	89.704177	-0.142382	-87.904328
5.500000	-0.126989	-78.042490	-50.030496	88.223303	-50.030496	88.223303	-0.144498	-88.627412
5.550000	-0.128879	-78.682341	-49.824911	86.743570	-49.824911	86.743570	-0.146651	-89.348705
5.600000	-0.130791	-79.321020	-49.621895	85.264651	-49.621895	85.264651	-0.148831	-90.068718
5.650000	-0.132730	-79.958303	-49.420934	83.786552	-49.420934	83.786552	-0.151044	-90.787222
5.700000	-0.134696	-80.594191	-49.221995	82.309272	-49.221995	82.309272	-0.153290	-91.504219
5.750000	-0.136685	-81.228927	-49.025447	80.832541	-49.025447	80.832541	-0.155565	-92.219983
5.800000	-0.138706	-81.862050	-48.830422	79.356579	-48.830422	79.356579	-0.157880	-92.934023
5.850000	-0.140747	-82.494260	-48.638099	77.880953	-48.638099	77.880953	-0.160217	-93.647098
5.900000	-0.142825	-83.124646	-48.446850	76.406000	-48.446850	76.406000	-0.162602	-94.358244
5.950000	-0.144918	-83.754355	-48.258589	74.931230	-48.258589	74.931230	-0.165004	-95.068682
6.000000	-0.147056	-84.382034	-48.071000	73.457008	-48.071000	73.457008	-0.167461	-95.777000
6.050000	-0.149203	-85.009266	-47.886660	71.982869	-47.886660	71.982869	-0.169929	-96.484858
6.100000	-0.151400	-85.634268	-47.702641	70.509146	-47.702641	70.509146	-0.172459	-97.190417
6.150000	-0.153604	-86.259050	-47.522101	69.035451	-47.522101	69.035451	-0.174995	-97.895752
6.200000	-0.155863	-86.881410	-47.341582	67.562062	-47.341582	67.562062	-0.177600	-98.598626
6.250000	-0.158123	-87.503769	-47.164740	66.088673	-47.164740	66.088673	-0.180205	-99.301500
6.300000	-0.160447	-88.123520	-46.987675	64.615534	-46.987675	64.615534	-0.182887	-100.001764
6.350000	-0.162771	-88.743270	-46.814147	63.142395	-46.814147	63.142395	-0.185569	-100.702029
6.400000	-0.165155	-89.360663	-46.640805	61.669496	-46.640805	61.669496	-0.188322	-101.399975
6.450000	-0.167545	-89.977841	-46.470569	60.196619	-46.470569	60.196619	-0.191082	-102.097711
6.500000	-0.169991	-90.592907	-46.300895	58.724064	-46.300895	58.724064	-0.193908	-102.793409
6.550000	-0.172449	-91.207551	-46.133941	57.251574	-46.133941	57.251574	-0.196748	-103.488700
6.600000	-0.174959	-91.820322	-45.967895	55.779562	-45.967895	55.779562	-0.199647	-104.182223
6.650000	-0.177487	-92.432469	-45.804230	54.307709	-45.804230	54.307709	-0.202568	-104.875157
6.700000	-0.180063	-93.042978	-45.641779	52.836538	-45.641779	52.836538	-0.205543	-105.566580
6.750000	-0.182663	-93.652669	-45.481422	51.365709	-45.481422	51.365709	-0.208546	-106.257249
6.800000	-0.185306	-94.260950	-45.322545	49.895788	-45.322545	49.895788	-0.211597	-106.946651
6.850000	-0.187981	-94.868225	-45.165522	48.426516	-45.165522	48.426516	-0.214683	-107.635150
6.900000	-0.190694	-95.474313	-45.010204	46.958368	-45.010204	46.958368	-0.217811	-108.322614
6.950000	-0.193446	-96.079214	-44.856550	45.491344	-44.856550	45.491344	-0.220981	-109.009043
7.000000	-0.196230	-96.683144	-44.704779	44.025609	-44.704779	44.025609	-0.224187	-109.694654
7.050000	-0.199061	-97.285714	-44.554531	42.561682	-44.554531	42.561682	-0.227443	-110.379119
7.100000	-0.201920	-97.887521	-44.406299	41.099124	-44.406299	41.099124	-0.230728	-111.062965
7.150000	-0.204833	-98.487803	-44.259493	39.639307	-44.259493	39.639307	-0.234070	-111.745575
7.200000	-0.207768	-99.087524	-44.114790	38.180811	-44.114790	38.180811	-0.237435	-112.427749
7.250000	-0.210765	-99.685562	-43.971462	36.726282	-43.971462	36.726282	-0.240864	-113.108617
7.300000	-0.213778	-100.283233	-43.830277	35.272856	-43.830277	35.272856	-0.244310	-113.789215
7.350000	-0.216864	-100.879072	-43.690452	33.824953	-43.690452	33.824953	-0.247828	-114.468461
7.400000	-0.219957	-101.474731	-43.552770	32.377725	-43.552770	32.377725	-0.251355	-115.147583
7.450000	-0.223133	-102.068415	-43.416465	30.937940	-43.416465	30.937940	-0.254963	-115.825332
7.500000	-0.226310	-102.662100	-43.282266	29.498155	-43.282266	29.498155	-0.258572	-116.503081
7.550000	-0.229579	-103.253675	-43.149484	28.068127	-43.149484	28.068127	-0.262271	-117.179462
7.600000	-0.232850	-103.845250	-43.018701	26.638099	-43.018701	26.638099	-0.265971	-117.855844
7.650000	-0.236208	-104.434933	-42.889466	25.218641	-42.889466	25.218641	-0.269754	-118.531098
7.700000	-0.239575	-105.024445	-42.762091	23.800143	-42.762091	23.800143	-0.273546	-119.206249
7.750000	-0.243025	-105.612275	-42.636343	22.392831	-42.636343	22.392831	-0.277414	-119.880492
7.800000	-0.246493	-106.199768	-42.512348	20.987757	-42.512348	20.987757	-0.281299	-120.554554
7.850000	-0.250037	-106.785783	-42.390014	19.594246	-42.390014	19.594246	-0.285254	-121.227911
7.900000	-0.253608	-107.371305	-42.269351	18.204591	-42.269351	18.204591	-0.289234	-121.901033
7.950000	-0.257249	-107.955542	-42.150343	16.826604	-42.150343	16.826604	-0.293277	-122.573633
8.000000	-0.260927	-108.539137	-42.032944	15.454450	-42.032944	15.454450	-0.297352	-123.245970
8.050000	-0.264669	-109.121635	-41.917161	14.093760	-41.917161	14.093760	-0.301484	-123.917945
8.100000	-0.268457	-109.703350	-41.802936	12.741258	-41.802936	12.741258	-0.305658	-124.589661
8.150000	-0.272303	-110.284146	-41.690261	11.399682	-41.690261	11.399682	-0.309881	-125.261151
8.200000	-0.276206	-110.864025	-41.579095	10.069030	-41.579095	10.069030	-0.314153	-125.932416
8.250000	-0.280158	-111.443159	-41.469399	8.748412	-41.469399	8.748412	-0.318469	-126.603567
8.300000	-0.284179	-112.021247	-41.361159	7.441840	-41.361159	7.441840	-0.322844	-127.274558
8.350000	-0.288241	-112.598754	-41.254297	6.144042	-41.254297	6.144042	-0.327254	-127.945521
8.400000	-0.292385	-113.175098	-41.148826	4.863793	-41.148826	4.863793	-0.331733	-128.616427
8.450000	-0.296560	-113.751016	-41.044643	3.590684	-41.044643	3.590684	-0.336241	-129.287360
8.500000	-0.300830	-114.325658	-40.941766	2.339000	-40.941766	2.339000	-0.340827	-129.958374
8.550000	-0.305122	-114.900024	-40.840096	1.092447	-40.840096	1.092447	-0.345434	-130.629442
8.600000	-0.309522	-115.473008	-40.739619	-0.128446	-40.739619	-0.128446	-0.350131	-131.300771
8.650000	-0.313935	-116.045859	-40.640284	-1.346588	-40.640284	-1.346588	-0.354841	-131.972145
8.700000	-0.318470	-116.617229	-40.542002	-2.534484	-40.542002	-2.534484	-0.359653	-132.644003
8.750000	-0.323007	-117.188599	-40.444818	-3.722380	-40.444818	-3.722380	-0.364468	-133.315862
8.800000	-0.327681	-117.758398	-40.348511	-4.875105	-40.348511	-4.875105	-0.369400	-133.988476
8.850000	-0.332358	-118.328196	-40.253260	-6.027829	-40.253260	-6.027829	-0.374334	-134.661089
8.900000	-0.337164	-118.896592	-40.158730	-7.146352	-40.158730	-7.146352	-0.379381	-135.334612
8.950000	-0.341985	-119.464860	-40.065190	-8.261765	-40.065190	-8.261765	-0.384441	-136.008216
9.000000	-0.346927	-120.031887	-39.972234	-9.344329	-39.972234	-9.344329	-0.389607	-136.682854
9.050000	-0.351897	-120.598666	-39.880180	-10.420324	-39.880180	-10.420324	-0.394798	-137.357698
9.100000	-0.356979	-121.164358	-39.788594	-11.465197	-39.788594	-11.465197	-0.400091	-138.033667
9.150000	-0.362102	-121.729687	-39.697801	-12.499696	-39.697801	-12.499696	-0.405419	-138.710010
9.200000	-0.367329	-122.294076	-39.607390	-13.505164	-39.607390	-13.505164	-0.410844	-139.387536
9.250000	-0.372609	-122.857995	-39.517635	-14.496117	-39.517635	-14.496117	-0.416319	-140.065652
9.300000	-0.377985	-123.421113	-39.428209	-15.460480	-39.428209	-15.460480	-0.421884	-140.744970
9.350000	-0.383428	-123.983659	-39.339278	-16.405850	-39.339278	-16.405850	-0.427514	-141.425147
9.400000	-0.388956	-124.545537	-39.250658	-17.327414	-39.250658	-17.327414	-0.433227	-142.106503
9.450000	-0.394568	-125.106747	-39.162349	-18.225172	-39.162349	-18.225172	-0.439024	-142.789041
9.500000	-0.400253	-125.667416	-39.074369	-19.102244	-39.074369	-19.102244	-0.444895	-143.472694
9.550000	-0.406039	-126.227326	-38.986497	-19.950355	-38.986497	-19.950355	-0.450869	-144.157908
9.600000	-0.411885	-126.786814	-38.899009	-20.781232	-38.899009	-20.781232	-0.456909	-144.844127
9.650000	-0.417849	-127.345458	-38.811411	-21.577642	-38.811411	-21.577642	-0.463075	-145.532351
9.700000	-0.423861	-127.903794	-38.724284	-22.360605	-38.724284	-22.360605	-0.469295	-146.221416
9.750000	-0.430008	-128.461205	-38.636823	-23.103229	-38.636823	-23.103229	-0.475669	-146.913000
9.800000	-0.436191	-129.018416	-38.549949	-23.836534	-38.549949	-23.836534	-0.482083	-147.605206
9.850000	-0.442528	-129.574626	-38.462522	-24.523247	-38.462522	-24.523247	-0.488682	-148.300516
9.900000	-0.448885	-130.130738	-38.375818	-25.205118	-38.375818	-25.205118	-0.495305	-148.996169
9.950000	-0.455416	-130.685777	-38.288360	-25.833742	-38.288360	-25.833742	-0.502149	-149.695591
10.000000	-0.461953	-131.240816	-38.201773	-26.462365	-38.201773	-26.462365	-0.508999	-150.395013
