! freq	dB(S11)	phase(S11)	dB(S12)	phase(S12)	
!     	dB(S21)	phase(S21)	dB(S22)	phase(S22)	
!S-par simulation data
#  GHz  S  DB  R 50
0.000000	-0.000000	0.000000	-299.828454	0.000000	-299.828454	0.000000	0.000000	0.000000
0.050000	-0.003422	-1.709722	-90.243473	87.793308	-90.243473	87.793308	-0.005440	-2.146848
0.100000	-0.006801	-3.389058	-84.280676	85.950726	-84.280676	85.950726	-0.009374	-4.250034
0.150000	-0.008650	-5.063595	-80.808283	84.187653	-80.808283	84.187653	-0.011308	-6.351456
0.200000	-0.010005	-6.738592	-78.358973	82.425299	-78.358973	82.425299	-0.012802	-8.454375
0.250000	-0.011254	-8.414006	-76.478116	80.660219	-76.478116	80.660219	-0.014278	-10.557853
0.300000	-0.012546	-10.089329	-74.960583	78.898401	-74.960583	78.898401	-0.015868	-12.661060
0.350000	-0.013947	-11.764054	-73.700720	77.147533	-73.700720	77.147533	-0.017630	-14.763310
0.400000	-0.015467	-13.437890	-72.630986	75.412761	-72.630986	75.412761	-0.019561	-16.864258
0.450000	-0.017107	-15.110601	-71.709495	73.699131	-71.709495	73.699131	-0.021653	-18.963618
0.500000	-0.018865	-16.781935	-70.909274	72.012925	-70.909274	72.012925	-0.023899	-21.061079
0.550000	-0.020727	-18.451781	-70.208835	70.358479	-70.208835	70.358479	-0.026278	-23.156522
0.600000	-0.022681	-20.120039	-69.592841	68.740608	-69.592841	68.740608	-0.028771	-25.249840
0.650000	-0.024723	-21.786419	-69.053845	67.170090	-69.053845	67.170090	-0.031370	-27.340676
0.700000	-0.026825	-23.451176	-68.576513	65.644479	-68.576513	65.644479	-0.034041	-29.429388
0.750000	-0.028983	-25.114111	-68.156852	64.173797	-68.156852	64.173797	-0.036777	-31.515743
0.800000	-0.031187	-26.775141	-67.790046	62.766579	-67.790046	62.766579	-0.039562	-33.599660
0.850000	-0.033427	-28.434131	-67.473378	61.435259	-67.473378	61.435259	-0.042386	-35.680999
0.900000	-0.035692	-30.091184	-67.200839	60.184768	-67.200839	60.184768	-0.045233	-37.759924
0.950000	-0.037974	-31.746281	-66.969381	59.025481	-66.969381	59.025481	-0.048093	-39.836446
1.000000	-0.040266	-33.399306	-66.778142	57.975265	-66.778142	57.975265	-0.050958	-41.910461
1.050000	-0.042562	-35.050346	-66.623126	57.043094	-66.623126	57.043094	-0.053818	-43.982119
1.100000	-0.044855	-36.699411	-66.502030	56.243579	-66.502030	56.243579	-0.056669	-46.051471
1.150000	-0.047143	-38.346429	-66.413835	55.599886	-66.413835	55.599886	-0.059505	-48.118486
1.200000	-0.049421	-39.991436	-66.355784	55.130253	-66.355784	55.130253	-0.062321	-50.183259
1.250000	-0.051687	-41.634483	-66.324807	54.852922	-66.324807	54.852922	-0.065117	-52.245900
1.300000	-0.053938	-43.275541	-66.318531	54.796353	-66.318531	54.796353	-0.067888	-54.306441
1.350000	-0.056174	-44.914589	-66.333704	54.992477	-66.333704	54.992477	-0.070634	-56.364926
1.400000	-0.058393	-46.551716	-66.365145	55.460041	-66.365145	55.460041	-0.073355	-58.421517
1.450000	-0.060596	-48.186933	-66.407563	56.227445	-66.407563	56.227445	-0.076051	-60.476298
1.500000	-0.062781	-49.820163	-66.454139	57.338865	-66.454139	57.338865	-0.078722	-62.529281
1.550000	-0.064950	-51.451532	-66.496053	58.798630	-66.496053	58.798630	-0.081369	-64.580667
1.600000	-0.067103	-53.081062	-66.523467	60.619589	-66.523467	60.619589	-0.083994	-66.630566
1.650000	-0.069241	-54.708701	-66.523435	62.817258	-66.523435	62.817258	-0.086598	-68.679037
1.700000	-0.071364	-56.334527	-66.483460	65.361144	-66.483460	65.361144	-0.089184	-70.726249
1.750000	-0.073476	-57.958600	-66.391675	68.202259	-66.391675	68.202259	-0.091753	-72.772356
1.800000	-0.075576	-59.580929	-66.235992	71.276058	-66.235992	71.276058	-0.094308	-74.817483
1.850000	-0.077667	-61.201551	-66.007820	74.489700	-66.007820	74.489700	-0.096851	-76.861784
1.900000	-0.079749	-62.820490	-65.701879	77.733739	-65.701879	77.733739	-0.099384	-78.905412
1.950000	-0.081825	-64.437792	-65.318851	80.892109	-65.318851	80.892109	-0.101910	-80.948544
2.000000	-0.083896	-66.053521	-64.865432	83.861984	-64.865432	83.861984	-0.104431	-82.991365
2.050000	-0.085964	-67.667729	-64.351086	86.560731	-64.351086	86.560731	-0.106951	-85.034062
2.100000	-0.088031	-69.280471	-63.787425	88.930757	-63.787425	88.930757	-0.109470	-87.076830
2.150000	-0.090097	-70.891806	-63.186672	90.939758	-63.186672	90.939758	-0.111993	-89.119876
2.200000	-0.092166	-72.501795	-62.560441	92.577346	-62.560441	92.577346	-0.114521	-91.163414
2.250000	-0.094239	-74.110504	-61.918979	93.849909	-61.918979	93.849909	-0.117056	-93.207667
2.300000	-0.096317	-75.718006	-61.270833	94.775227	-61.270833	94.775227	-0.119602	-95.252868
2.350000	-0.098402	-77.324372	-60.622810	95.377809	-60.622810	95.377809	-0.122159	-97.299259
2.400000	-0.100496	-78.929684	-59.980132	95.685316	-59.980132	95.685316	-0.124731	-99.347093
2.450000	-0.102600	-80.534023	-59.346664	95.726071	-59.346664	95.726071	-0.127320	-101.396630
2.500000	-0.104716	-82.137476	-58.725170	95.527479	-58.725170	95.527479	-0.129928	-103.448141
2.550000	-0.106845	-83.740122	-58.116972	95.111014	-58.116972	95.111014	-0.132557	-105.501962
2.600000	-0.108989	-85.342075	-57.523991	94.505043	-57.523991	94.505043	-0.135209	-107.558341
2.650000	-0.111150	-86.943435	-56.946926	93.730327	-56.946926	93.730327	-0.137885	-109.617576
2.700000	-0.113329	-88.544310	-56.386111	92.805299	-56.386111	92.805299	-0.140589	-111.679975
2.750000	-0.115526	-90.144809	-55.841610	91.746211	-55.841610	91.746211	-0.143320	-113.745858
2.800000	-0.117745	-91.745046	-55.313303	90.567334	-55.313303	90.567334	-0.146082	-115.815550
2.850000	-0.119985	-93.345140	-54.800932	89.281165	-54.800932	89.281165	-0.148876	-117.889388
2.900000	-0.122248	-94.945216	-54.304155	87.898633	-54.304155	87.898633	-0.151704	-119.967715
2.950000	-0.124536	-96.545400	-53.822571	86.429289	-53.822571	86.429289	-0.154566	-122.050885
3.000000	-0.126850	-98.145828	-53.355746	84.881481	-53.355746	84.881481	-0.157464	-124.139258
3.050000	-0.129190	-99.746634	-52.903229	83.262508	-52.903229	83.262508	-0.160401	-126.233206
3.100000	-0.131559	-101.347963	-52.464565	81.578758	-52.464565	81.578758	-0.163376	-128.333104
3.150000	-0.133957	-102.949969	-52.039227	79.835235	-52.039227	79.835235	-0.166393	-130.439412
3.200000	-0.136387	-104.552809	-51.626802	78.036988	-51.626802	78.036988	-0.169451	-132.552536
3.250000	-0.138847	-106.156631	-51.226951	76.188922	-51.226951	76.188922	-0.172551	-134.672806
3.300000	-0.141341	-107.761596	-50.839265	74.294781	-50.839265	74.294781	-0.175696	-136.800630
3.350000	-0.143868	-109.367870	-50.463357	72.357859	-50.463357	72.357859	-0.178884	-138.936421
3.400000	-0.146430	-110.975621	-50.098860	70.381049	-50.098860	70.381049	-0.182118	-141.080598
3.450000	-0.149028	-112.585024	-49.745430	68.366898	-49.745430	68.366898	-0.185398	-143.233584
3.500000	-0.151662	-114.196256	-49.402746	66.317647	-49.402746	66.317647	-0.188724	-145.395809
3.550000	-0.154334	-115.809501	-49.070507	64.235268	-49.070507	64.235268	-0.192097	-147.567707
3.600000	-0.157045	-117.424947	-48.748433	62.121492	-48.748433	62.121492	-0.195517	-149.749714
3.650000	-0.159795	-119.042783	-48.436268	59.977843	-48.436268	59.977843	-0.198985	-151.942270
3.700000	-0.162586	-120.663206	-48.133773	57.805656	-48.133773	57.805656	-0.202501	-154.145819
3.750000	-0.165418	-122.286416	-47.840730	55.606101	-47.840730	55.606101	-0.206065	-156.360803
3.800000	-0.168293	-123.912686	-47.556944	53.379651	-47.556944	53.379651	-0.209677	-158.587936
3.850000	-0.171211	-125.542165	-47.282250	51.127782	-47.282250	51.127782	-0.213337	-160.827414
3.900000	-0.174172	-127.175064	-47.016485	48.851262	-47.016485	48.851262	-0.217044	-163.079680
3.950000	-0.177178	-128.811602	-46.759502	46.550754	-46.759502	46.550754	-0.220797	-165.345176
4.000000	-0.180229	-130.451996	-46.511174	44.226829	-46.511174	44.226829	-0.224596	-167.624337
4.050000	-0.183326	-132.096473	-46.271386	41.879974	-46.271386	41.879974	-0.228440	-169.917597
4.100000	-0.186469	-133.745259	-46.040043	39.510600	-46.040043	39.510600	-0.232328	-172.225383
4.150000	-0.189659	-135.398587	-45.817061	37.119050	-45.817061	37.119050	-0.236259	-174.548114
4.200000	-0.192896	-137.056690	-45.602375	34.705607	-45.602375	34.705607	-0.240230	-176.886199
4.250000	-0.196182	-138.719809	-45.395931	32.270497	-45.395931	32.270497	-0.244241	-179.240039
4.300000	-0.199516	-140.388183	-45.197691	29.813895	-45.197691	29.813895	-0.248290	178.389977
4.350000	-0.202899	-142.062060	-45.007631	27.335929	-45.007631	27.335929	-0.252374	176.003477
4.400000	-0.206332	-143.741750	-44.825788	24.836454	-44.825788	24.836454	-0.256492	173.599913
4.450000	-0.209815	-145.427516	-44.652178	22.315514	-44.652178	22.315514	-0.260642	171.178935
4.500000	-0.213348	-147.119546	-44.486770	19.773348	-44.486770	19.773348	-0.264819	168.740406
4.550000	-0.216931	-148.818099	-44.329592	17.209923	-44.329592	17.209923	-0.269021	166.284028
4.600000	-0.220564	-150.523433	-44.180686	14.625177	-44.180686	14.625177	-0.273246	163.809527
4.650000	-0.224248	-152.235809	-44.040107	12.019011	-44.040107	12.019011	-0.277489	161.316656
4.700000	-0.227982	-153.955489	-43.907922	9.391296	-43.907922	9.391296	-0.281746	158.805196
4.750000	-0.231766	-155.682738	-43.784211	6.741872	-43.784211	6.741872	-0.286015	156.274960
4.800000	-0.235600	-157.417823	-43.669069	4.070541	-43.669069	4.070541	-0.290291	153.725793
4.850000	-0.239484	-159.161011	-43.562603	1.377077	-43.562603	1.377077	-0.294569	151.157578
4.900000	-0.243418	-160.912570	-43.464933	-1.338786	-43.464933	-1.338786	-0.298845	148.570234
4.950000	-0.247402	-162.672768	-43.376194	-4.077350	-43.376194	-4.077350	-0.303114	145.963723
5.000000	-0.251434	-164.441875	-43.296534	-6.838957	-43.296534	-6.838957	-0.307371	143.338051
5.050000	-0.255515	-166.220366	-43.226313	-9.624514	-43.226313	-9.624514	-0.311611	140.692853
5.100000	-0.259644	-168.008315	-43.165530	-12.433959	-43.165530	-12.433959	-0.315829	138.028649
5.150000	-0.263820	-169.805990	-43.114378	-15.267786	-43.114378	-15.267786	-0.320019	135.345593
5.200000	-0.268041	-171.613657	-43.073069	-18.126550	-43.073069	-18.126550	-0.324176	132.643889
5.250000	-0.272308	-173.431580	-43.041832	-21.010873	-43.041832	-21.010873	-0.328294	129.923800
5.300000	-0.276618	-175.260023	-43.020912	-23.921457	-43.020912	-23.921457	-0.332368	127.185641
5.350000	-0.280971	-177.099244	-43.010575	-26.859091	-43.010575	-26.859091	-0.336391	124.429789
5.400000	-0.285365	-178.949498	-43.011107	-29.824665	-43.011107	-29.824665	-0.340359	121.656680
5.450000	-0.289799	179.188961	-43.022814	-32.819185	-43.022814	-32.819185	-0.344266	118.866808
5.500000	-0.294271	177.315887	-43.046028	-35.843790	-43.046028	-35.843790	-0.348106	116.060731
5.550000	-0.298779	175.431037	-43.081103	-38.899773	-43.081103	-38.899773	-0.351875	113.239070
5.600000	-0.303322	173.534175	-43.128419	-41.988601	-43.128419	-41.988601	-0.355566	110.402505
5.650000	-0.307897	171.624936	-43.188522	-45.112348	-43.188522	-45.112348	-0.359175	107.551635
5.700000	-0.312502	169.703090	-43.261859	-48.273002	-43.261859	-48.273002	-0.362697	104.687294
5.750000	-0.317135	167.768555	-43.348764	-51.472406	-43.348764	-51.472406	-0.366128	101.810506
5.800000	-0.321793	165.821128	-43.449741	-54.713107	-43.449741	-54.713107	-0.369465	98.922198
5.850000	-0.326474	163.860614	-43.565329	-57.998043	-43.565329	-57.998043	-0.372704	96.023352
5.900000	-0.331174	161.886829	-43.696107	-61.330610	-43.696107	-61.330610	-0.375844	93.115009
5.950000	-0.335891	159.899599	-43.842693	-64.714745	-43.842693	-64.714745	-0.378880	90.198254
6.000000	-0.340621	157.898767	-44.005748	-68.155029	-44.005748	-68.155029	-0.381813	87.274226
6.050000	-0.345362	155.884184	-44.185976	-71.656804	-44.185976	-71.656804	-0.384640	84.344104
6.100000	-0.350109	153.855720	-44.384128	-75.226320	-44.384128	-75.226320	-0.387361	81.409109
6.150000	-0.354859	151.813258	-44.600993	-78.870917	-44.600993	-78.870917	-0.389977	78.470496
6.200000	-0.359609	149.756698	-44.837403	-82.599236	-44.837403	-82.599236	-0.392488	75.529550
6.250000	-0.364354	147.685960	-45.094218	-86.421484	-45.094218	-86.421484	-0.394896	72.587583
6.300000	-0.369090	145.600668	-45.372590	-90.352397	-45.372590	-90.352397	-0.397200	69.645963
6.350000	-0.373814	143.501090	-45.673088	-94.404500	-45.673088	-94.404500	-0.399406	66.706060
6.400000	-0.378520	141.387204	-45.996526	-98.595161	-45.996526	-98.595161	-0.401518	63.769228
6.450000	-0.383206	139.259011	-46.343620	-102.945133	-46.343620	-102.945133	-0.403540	60.836823
6.500000	-0.387865	137.116535	-46.714893	-107.479235	-46.714893	-107.479235	-0.405476	57.910198
6.550000	-0.392495	134.959824	-47.110552	-112.227137	-47.110552	-112.227137	-0.407333	54.990697
6.600000	-0.397089	132.788952	-47.530291	-117.224206	-47.530291	-117.224206	-0.409115	52.079648
6.650000	-0.401645	130.604016	-47.973013	-122.512326	-47.973013	-122.512326	-0.410830	49.178359
6.700000	-0.406157	128.405143	-48.436425	-128.140528	-48.436425	-128.140528	-0.412485	46.288113
6.750000	-0.410621	126.192486	-48.916476	-134.165050	-48.916476	-134.165050	-0.414087	43.410162
6.800000	-0.415032	123.966228	-49.406606	-140.648225	-49.406606	-140.648225	-0.415643	40.545720
6.850000	-0.419386	121.726581	-49.896809	-147.655200	-49.896809	-147.655200	-0.417163	37.695964
6.900000	-0.423677	119.473646	-50.371979	-155.253939	-50.371979	-155.253939	-0.418653	34.862210
6.950000	-0.427903	117.207705	-50.811682	-163.489722	-50.811682	-163.489722	-0.420124	32.045575
7.000000	-0.432058	114.929206	-51.191185	-172.363204	-51.191185	-172.363204	-0.421583	29.246919
7.050000	-0.436140	112.638487	-51.481850	178.176557	-51.481850	178.176557	-0.423040	26.467214
7.100000	-0.440144	110.335915	-51.655663	168.255521	-51.655663	168.255521	-0.424503	23.707380
7.150000	-0.444068	108.021891	-51.691215	158.074911	-51.691215	158.074911	-0.425982	20.968278
7.200000	-0.447907	105.696844	-51.579521	147.886078	-51.579521	147.886078	-0.427485	18.250708
7.250000	-0.451661	103.361239	-51.326745	137.944697	-51.326745	137.944697	-0.429020	15.555410
7.300000	-0.455325	101.015570	-50.952245	128.463115	-50.952245	128.463115	-0.430596	12.883063
7.350000	-0.458897	98.660361	-50.483093	119.580966	-50.483093	119.580966	-0.432222	10.234285
7.400000	-0.462377	96.296167	-49.947936	111.361390	-49.947936	111.361390	-0.433905	7.609632
7.450000	-0.465763	93.923571	-49.372523	103.805964	-49.372523	103.805964	-0.435653	5.009600
7.500000	-0.469053	91.543186	-48.777570	96.876313	-48.777570	96.876313	-0.437474	2.434625
7.550000	-0.472246	89.155512	-48.177712	90.524353	-48.177712	90.524353	-0.439376	-0.114356
7.600000	-0.475344	86.761384	-47.584757	84.670762	-47.584757	84.670762	-0.441364	-2.637571
7.650000	-0.478348	84.361494	-47.005600	79.251817	-47.005600	79.251817	-0.443447	-5.134759
7.700000	-0.481258	81.956556	-46.444474	74.209492	-46.444474	74.209492	-0.445628	-7.605714
7.750000	-0.484078	79.547304	-45.903743	69.492848	-45.903743	69.492848	-0.447915	-10.050280
7.800000	-0.486808	77.134493	-45.384493	65.058115	-45.384493	65.058115	-0.450312	-12.468351
7.850000	-0.489452	74.718892	-44.886963	60.868131	-44.886963	60.868131	-0.452824	-14.859869
7.900000	-0.492014	72.301288	-44.410845	56.891541	-44.410845	56.891541	-0.455457	-17.224820
7.950000	-0.494497	69.882479	-43.955492	53.101952	-43.955492	53.101952	-0.458215	-19.563232
8.000000	-0.496907	67.463274	-43.520053	49.477135	-43.520053	49.477135	-0.461100	-21.875175
8.050000	-0.499249	65.044489	-43.103571	45.998337	-43.103571	45.998337	-0.464119	-24.160754
8.100000	-0.501527	62.626947	-42.705040	42.649680	-42.705040	42.649680	-0.467272	-26.420112
8.150000	-0.503749	60.211505	-42.323448	39.418802	-42.323448	39.418802	-0.470566	-28.653141
8.200000	-0.505921	57.799018	-41.957811	36.293847	-41.957811	36.293847	-0.474002	-30.860055
8.250000	-0.508051	55.390287	-41.607170	33.263752	-41.607170	33.263752	-0.477582	-33.041373
8.300000	-0.510147	52.986130	-41.270601	30.320057	-41.270601	30.320057	-0.481308	-35.197354
8.350000	-0.512217	50.587361	-40.947231	27.455415	-40.947231	27.455415	-0.485182	-37.328282
8.400000	-0.514269	48.194783	-40.636233	24.663410	-40.636233	24.663410	-0.489204	-39.434464
8.450000	-0.516312	45.809187	-40.336834	21.938410	-40.336834	21.938410	-0.493378	-41.516225
8.500000	-0.518357	43.431350	-40.048303	19.275442	-40.048303	19.275442	-0.497703	-43.573906
8.550000	-0.520411	41.062034	-39.769959	16.670090	-39.769959	16.670090	-0.502182	-45.607867
8.600000	-0.522485	38.701983	-39.501164	14.118412	-39.501164	14.118412	-0.506814	-47.618480
8.650000	-0.524589	36.351919	-39.241318	11.616872	-39.241318	11.616872	-0.511600	-49.606128
8.700000	-0.526733	34.012544	-38.989861	9.162274	-38.989861	9.162274	-0.516541	-51.571208
8.750000	-0.528927	31.684538	-38.746268	6.751723	-38.746268	6.751723	-0.521637	-53.514124
8.800000	-0.531182	29.368829	-38.510063	4.383419	-38.510063	4.383419	-0.526891	-55.434827
8.850000	-0.533508	27.065797	-38.280766	2.053995	-38.280766	2.053995	-0.532300	-57.334217
8.900000	-0.535915	24.776040	-38.057945	-0.238770	-38.057945	-0.238770	-0.537864	-59.212720
8.950000	-0.538414	22.500129	-37.841193	-2.496932	-37.841193	-2.496932	-0.543583	-61.070766
9.000000	-0.541014	20.238605	-37.630130	-4.722408	-37.630130	-4.722408	-0.549456	-62.908789
9.050000	-0.543725	17.991978	-37.424397	-6.916987	-37.424397	-6.916987	-0.555484	-64.727223
9.100000	-0.546558	15.760731	-37.223658	-9.082351	-37.223658	-9.082351	-0.561665	-66.526506
9.150000	-0.549522	13.545314	-37.027597	-11.220087	-37.027597	-11.220087	-0.567998	-68.307076
9.200000	-0.552626	11.346147	-36.835915	-13.331695	-36.835915	-13.331695	-0.574484	-70.069372
9.250000	-0.555880	9.163619	-36.648331	-15.418604	-36.648331	-15.418604	-0.581121	-71.813831
9.300000	-0.559293	6.998088	-36.464582	-17.482176	-36.464582	-17.482176	-0.587909	-73.540890
9.350000	-0.562873	4.849882	-36.284419	-19.523716	-36.284419	-19.523716	-0.594846	-75.250985
9.400000	-0.566631	2.719493	-36.107601	-21.544267	-36.107601	-21.544267	-0.601934	-76.944373
9.450000	-0.570576	0.607197	-35.933905	-23.545078	-35.933905	-23.545078	-0.609172	-78.621501
9.500000	-0.574713	-1.486960	-35.763126	-25.527542	-35.763126	-25.527542	-0.616555	-80.282976
9.550000	-0.579051	-3.562772	-35.595066	-27.492792	-35.595066	-27.492792	-0.624085	-81.929222
9.600000	-0.583596	-5.620057	-35.429541	-29.441933	-35.429541	-29.441933	-0.631759	-83.560660
9.650000	-0.588356	-7.658664	-35.266375	-31.376041	-35.266375	-31.376041	-0.639576	-85.177710
9.700000	-0.593337	-9.678464	-35.105405	-33.296171	-35.105405	-33.296171	-0.647535	-86.780783
9.750000	-0.598545	-11.679357	-34.946475	-35.203357	-34.946475	-35.203357	-0.655635	-88.370291
9.800000	-0.603988	-13.661264	-34.789439	-37.098618	-34.789439	-37.098618	-0.663875	-89.946638
9.850000	-0.609670	-15.624134	-34.634161	-38.982957	-34.634161	-38.982957	-0.672252	-91.510227
9.900000	-0.615597	-17.567934	-34.480512	-40.857366	-34.480512	-40.857366	-0.680766	-93.061453
9.950000	-0.621774	-19.492654	-34.328373	-42.722828	-34.328373	-42.722828	-0.689415	-94.600711
10.000000	-0.628207	-21.398304	-34.177631	-44.580318	-34.177631	-44.580318	-0.698197	-96.128388
