! freq	dB(S11)	phase(S11)	dB(S12)	phase(S12)	
!     	dB(S21)	phase(S21)	dB(S22)	phase(S22)	
!S-par simulation data
#  GHz  S  DB  R 50
0.000000	-0.000000	0.000000	-359.186951	0.000000	-359.186951	0.000000	-0.000000	0.000000
0.050000	-0.000110	-0.816881	-108.980757	65.877332	-108.980757	65.877332	-0.000100	-0.871078
0.100000	-0.000437	-1.633480	-105.554744	59.334837	-105.554744	59.334837	-0.000398	-1.741931
0.150000	-0.000963	-2.449540	-103.788856	59.920508	-103.788856	59.920508	-0.000884	-2.612348
0.200000	-0.001667	-3.264853	-102.428602	62.114209	-102.428602	62.114209	-0.001541	-3.482146
0.250000	-0.002529	-4.079195	-101.286244	64.335928	-101.286244	64.335928	-0.002362	-4.351113
0.300000	-0.003507	-4.892540	-100.317562	66.241763	-100.317562	66.241763	-0.003312	-5.219191
0.350000	-0.004581	-5.704786	-99.505785	67.819259	-99.505785	67.819259	-0.004375	-6.086248
0.400000	-0.005723	-6.515908	-98.838833	69.144349	-98.838833	69.144349	-0.005530	-6.952216
0.450000	-0.006912	-7.325913	-98.307552	70.313129	-98.307552	70.313129	-0.006757	-7.817050
0.500000	-0.008129	-8.134827	-97.905458	71.422836	-97.905458	71.422836	-0.008037	-8.680731
0.550000	-0.009358	-8.942691	-97.628746	72.571681	-97.628746	72.571681	-0.009352	-9.543256
0.600000	-0.010590	-9.749551	-97.476203	73.865458	-97.476203	73.865458	-0.010689	-10.404638
0.650000	-0.011815	-10.555453	-97.448973	75.428039	-97.448973	75.428039	-0.012035	-11.264896
0.700000	-0.013029	-11.360439	-97.549984	77.416336	-97.549984	77.416336	-0.013381	-12.124057
0.750000	-0.014228	-12.164545	-97.782568	80.041853	-97.782568	80.041853	-0.014719	-12.982148
0.800000	-0.015411	-12.967802	-98.147117	83.601393	-98.147117	83.601393	-0.016043	-13.839197
0.850000	-0.016576	-13.770231	-98.633177	88.515689	-98.633177	88.515689	-0.017350	-14.695230
0.900000	-0.017725	-14.571849	-99.201971	95.355569	-99.201971	95.355569	-0.018638	-15.550267
0.950000	-0.018857	-15.372665	-99.753462	104.774930	-99.753462	104.774930	-0.019904	-16.404327
1.000000	-0.019975	-16.172683	-100.087530	117.172221	-100.087530	117.172221	-0.021148	-17.257423
1.050000	-0.021079	-16.971903	-99.925252	131.987993	-99.925252	131.987993	-0.022371	-18.109565
1.100000	-0.022170	-17.770319	-99.082391	147.235762	-99.082391	147.235762	-0.023574	-18.960757
1.150000	-0.023250	-18.567924	-97.656390	160.504766	-97.656390	160.504766	-0.024756	-19.811000
1.200000	-0.024321	-19.364707	-95.925832	170.659197	-95.925832	170.659197	-0.025920	-20.660292
1.250000	-0.025383	-20.160655	-94.124911	177.918777	-94.124911	177.918777	-0.027068	-21.508625
1.300000	-0.026437	-20.955715	-92.365756	-177.099241	-92.365756	-177.099241	-0.028199	-22.355947
1.350000	-0.027485	-21.749908	-90.709188	-173.658027	-90.709188	-173.658027	-0.029317	-23.202290
1.400000	-0.028528	-22.543216	-89.163282	-171.316127	-89.163282	-171.316127	-0.030423	-24.047638
1.450000	-0.029566	-23.335621	-87.722706	-169.768604	-87.722706	-169.768604	-0.031519	-24.891975
1.500000	-0.030600	-24.127106	-86.377772	-168.806133	-86.377772	-168.806133	-0.032607	-25.735284
1.550000	-0.031631	-24.917651	-85.118123	-168.283544	-85.118123	-168.283544	-0.033686	-26.577547
1.600000	-0.032659	-25.707237	-83.934107	-168.098432	-83.934107	-168.098432	-0.034760	-27.418744
1.650000	-0.033685	-26.495846	-82.817193	-168.177141	-82.817193	-168.177141	-0.035829	-28.258855
1.700000	-0.034709	-27.283104	-81.735978	-168.519993	-81.735978	-168.519993	-0.036894	-29.097463
1.750000	-0.035732	-28.069835	-80.742839	-168.957568	-80.742839	-168.957568	-0.037957	-29.935486
1.800000	-0.036755	-28.855298	-79.782942	-169.552394	-79.782942	-169.552394	-0.039019	-30.772100
1.850000	-0.037777	-29.639857	-78.874481	-170.259542	-78.874481	-170.259542	-0.040080	-31.607706
1.900000	-0.038798	-30.423288	-78.002157	-171.059652	-78.002157	-171.059652	-0.041141	-32.442056
1.950000	-0.039820	-31.205593	-77.164159	-171.952724	-77.164159	-171.952724	-0.042203	-33.275151
2.000000	-0.040843	-31.986928	-76.364129	-172.901529	-76.364129	-172.901529	-0.043267	-34.107161
2.050000	-0.041866	-32.766902	-75.585745	-173.928361	-75.585745	-173.928361	-0.044334	-34.937653
2.100000	-0.042890	-33.546279	-74.852809	-174.981185	-74.852809	-174.981185	-0.045402	-35.767475
2.150000	-0.043916	-34.324103	-74.132396	-176.098574	-74.132396	-176.098574	-0.046475	-36.595559
2.200000	-0.044944	-35.100753	-73.436015	-177.255982	-73.436015	-177.255982	-0.047552	-37.422327
2.250000	-0.045974	-35.876212	-72.762043	-178.448745	-72.762043	-178.448745	-0.048633	-38.247758
2.300000	-0.047007	-36.650464	-72.109026	-179.672898	-72.109026	-179.672898	-0.049719	-39.071835
2.350000	-0.048042	-37.423495	-71.475655	179.074955	-71.475655	179.074955	-0.050810	-39.894539
2.400000	-0.049080	-38.195287	-70.860750	177.797741	-70.860750	177.797741	-0.051906	-40.715851
2.450000	-0.050121	-38.965828	-70.263239	176.497996	-70.263239	176.497996	-0.053009	-41.535756
2.500000	-0.051167	-39.735101	-69.682150	175.177934	-69.682150	175.177934	-0.054118	-42.354235
2.550000	-0.052216	-40.503037	-69.115673	173.838774	-69.115673	173.838774	-0.055233	-43.171209
2.600000	-0.053270	-41.269677	-68.564008	172.483080	-68.564008	172.483080	-0.056355	-43.986726
2.650000	-0.054329	-42.035006	-68.026400	171.112340	-68.026400	171.112340	-0.057485	-44.800769
2.700000	-0.055393	-42.799013	-67.502153	169.727881	-67.502153	169.727881	-0.058621	-45.613325
2.750000	-0.056463	-43.561683	-66.990626	168.330888	-66.990626	168.330888	-0.059765	-46.424379
2.800000	-0.057538	-44.323006	-66.491228	166.922423	-66.491228	166.922423	-0.060917	-47.233920
2.850000	-0.058620	-45.082968	-66.003408	165.503445	-66.003408	165.503445	-0.062077	-48.041933
2.900000	-0.059708	-45.841558	-65.526657	164.074820	-65.526657	164.074820	-0.063245	-48.848408
2.950000	-0.060803	-46.598764	-65.060500	162.637331	-65.060500	162.637331	-0.064422	-49.653332
3.000000	-0.061906	-47.354576	-64.604496	161.191693	-64.604496	161.191693	-0.065608	-50.456696
3.050000	-0.063016	-48.108984	-64.158229	159.738556	-64.158229	159.738556	-0.066802	-51.258488
3.100000	-0.064135	-48.861975	-63.721315	158.278515	-63.721315	158.278515	-0.068006	-52.058700
3.150000	-0.065262	-49.613542	-63.293388	156.812116	-63.293388	156.812116	-0.069219	-52.857322
3.200000	-0.066398	-50.363675	-62.874110	155.339862	-62.874110	155.339862	-0.070442	-53.654346
3.250000	-0.067544	-51.112363	-62.463160	153.862213	-62.463160	153.862213	-0.071675	-54.449764
3.300000	-0.068699	-51.859599	-62.060234	152.379599	-62.060234	152.379599	-0.072918	-55.243568
3.350000	-0.069866	-52.605119	-61.663276	150.891725	-61.663276	150.891725	-0.074174	-56.035469
3.400000	-0.071044	-53.349105	-61.273520	149.399474	-61.273520	149.399474	-0.075442	-56.825673
3.450000	-0.072228	-54.092319	-60.895613	147.905333	-60.895613	147.905333	-0.076715	-57.615023
3.500000	-0.073430	-54.833213	-60.519400	146.405523	-60.519400	146.405523	-0.078007	-58.401813
3.550000	-0.074635	-55.573587	-60.155789	144.904664	-60.155789	144.904664	-0.079302	-59.188030
3.600000	-0.075862	-56.311361	-59.792309	143.398556	-59.792309	143.398556	-0.080619	-59.971387
3.650000	-0.077091	-57.048872	-59.442032	141.892015	-59.442032	141.892015	-0.081938	-60.754456
3.700000	-0.078345	-57.783499	-59.090548	140.380704	-59.090548	140.380704	-0.083282	-61.534365
3.750000	-0.079599	-58.518126	-58.752736	138.869393	-58.752736	138.869393	-0.084626	-62.314273
3.800000	-0.080881	-59.249585	-58.412576	137.353834	-58.412576	137.353834	-0.085999	-63.090724
3.850000	-0.082164	-59.981044	-58.085238	135.838275	-58.085238	135.838275	-0.087371	-63.867175
3.900000	-0.083474	-60.709583	-57.756995	134.319590	-57.756995	134.319590	-0.088772	-64.640451
3.950000	-0.084787	-61.437855	-57.439586	132.800620	-57.439586	132.800620	-0.090175	-65.413438
4.000000	-0.086127	-62.163461	-57.122528	131.279423	-57.122528	131.279423	-0.091605	-66.183538
4.050000	-0.087473	-62.888533	-56.814546	129.757780	-56.814546	129.757780	-0.093040	-66.953061
4.100000	-0.088843	-63.611196	-56.508006	128.234618	-56.508006	128.234618	-0.094501	-67.719988
4.150000	-0.090223	-64.333057	-56.208986	126.710951	-56.208986	126.710951	-0.095971	-68.486049
4.200000	-0.091626	-65.052771	-55.912356	125.186318	-55.912356	125.186318	-0.097465	-69.249807
4.250000	-0.093041	-65.771412	-55.621867	123.661203	-55.621867	123.661203	-0.098971	-70.012414
4.300000	-0.094478	-66.488173	-55.334590	122.135538	-55.334590	122.135538	-0.100499	-70.773012
4.350000	-0.095931	-67.203592	-55.052231	120.609483	-55.052231	120.609483	-0.102043	-71.532175
4.400000	-0.097403	-67.917398	-54.773795	119.083183	-54.773795	119.083183	-0.103608	-72.289624
4.450000	-0.098896	-68.629593	-54.499193	117.556638	-54.499193	117.556638	-0.105192	-73.045358
4.500000	-0.100405	-69.340446	-54.229126	116.030057	-54.229126	116.030057	-0.106795	-73.799672
4.550000	-0.101938	-70.049420	-53.961932	114.503424	-53.961932	114.503424	-0.108423	-74.551997
4.600000	-0.103486	-70.757323	-53.699799	112.976880	-53.699799	112.976880	-0.110065	-75.303193
4.650000	-0.105062	-71.463083	-53.439688	111.450513	-53.439688	111.450513	-0.111738	-76.052130
4.700000	-0.106649	-72.168042	-53.185087	109.924292	-53.185087	109.924292	-0.113422	-76.800227
4.750000	-0.108270	-72.870598	-52.931753	108.398506	-52.931753	108.398506	-0.115142	-77.545802
4.800000	-0.109898	-73.572622	-52.684312	106.872862	-52.684312	106.872862	-0.116870	-78.290823
4.850000	-0.111565	-74.271987	-52.437469	105.347935	-52.437469	105.347935	-0.118639	-79.033066
4.900000	-0.113237	-74.971087	-52.196841	103.823099	-52.196841	103.823099	-0.120413	-79.775035
4.950000	-0.114952	-75.667276	-51.956219	102.299277	-51.956219	102.299277	-0.122234	-80.513980
5.000000	-0.116668	-76.363466	-51.722084	100.775454	-51.722084	100.775454	-0.124056	-81.252925
5.050000	-0.118433	-77.056499	-51.487432	99.252954	-51.487432	99.252954	-0.125931	-81.988607
5.100000	-0.120198	-77.749533	-51.258953	97.730453	-51.258953	97.730453	-0.127807	-82.724289
5.150000	-0.122011	-78.439694	-51.030570	96.209341	-51.030570	96.209341	-0.129734	-83.457018
5.200000	-0.123828	-79.129594	-50.807528	94.688356	-50.807528	94.688356	-0.131666	-84.189478
5.250000	-0.125689	-79.816905	-50.585130	93.168773	-50.585130	93.168773	-0.133647	-84.919289
5.300000	-0.127560	-80.503697	-50.367322	91.649472	-50.367322	91.649472	-0.135638	-85.648570
5.350000	-0.129472	-81.188179	-50.150644	90.131546	-50.150644	90.131546	-0.137674	-86.375502
5.400000	-0.131397	-81.871892	-49.937874	88.614078	-49.937874	88.614078	-0.139726	-87.101652
5.450000	-0.133361	-82.553572	-49.726668	87.097922	-49.726668	87.097922	-0.141820	-87.825746
5.500000	-0.135344	-83.234236	-49.518756	85.582421	-49.518756	85.582421	-0.143935	-88.548814
5.550000	-0.137361	-83.913142	-49.312791	84.068135	-49.312791	84.068135	-0.146088	-89.270116
5.600000	-0.139402	-84.590792	-49.109563	82.554718	-49.109563	82.554718	-0.148268	-89.990156
5.650000	-0.141474	-85.266953	-48.908623	81.042396	-48.908623	81.042396	-0.150482	-90.708711
5.700000	-0.143576	-85.941626	-48.709919	79.531168	-48.709919	79.531168	-0.152730	-91.425781
5.750000	-0.145704	-86.615074	-48.513800	78.020890	-48.513800	78.020890	-0.155006	-92.141639
5.800000	-0.147868	-87.286808	-48.319466	76.511945	-48.319466	76.511945	-0.157323	-92.855800
5.850000	-0.150053	-87.957577	-48.127980	75.003788	-48.127980	75.003788	-0.159665	-93.569014
5.900000	-0.152281	-88.626415	-47.937873	73.497210	-47.937873	73.497210	-0.162053	-94.280331
5.950000	-0.154526	-89.294540	-47.750841	71.991243	-47.750841	71.991243	-0.164460	-94.990954
6.000000	-0.156820	-89.960526	-47.564824	70.487109	-47.564824	70.487109	-0.166922	-95.699497
6.050000	-0.159125	-90.626045	-47.382080	68.983396	-47.382080	68.983396	-0.169397	-96.407588
6.100000	-0.161487	-91.289227	-47.200027	67.481780	-47.200027	67.481780	-0.171934	-97.113428
6.150000	-0.163854	-91.952179	-47.021414	65.980379	-47.021414	65.980379	-0.174478	-97.819049
6.200000	-0.166284	-92.612605	-46.843203	64.481348	-46.843203	64.481348	-0.177091	-98.522263
6.250000	-0.168715	-93.273032	-46.668574	62.982318	-46.668574	62.982318	-0.179706	-99.225477
6.300000	-0.171217	-93.930754	-46.494092	61.485938	-46.494092	61.485938	-0.182398	-99.926146
6.350000	-0.173719	-94.588477	-46.323045	59.989558	-46.323045	59.989558	-0.185091	-100.626815
6.400000	-0.176287	-95.243771	-46.152449	58.495667	-46.152449	58.495667	-0.187857	-101.325230
6.450000	-0.178861	-95.898844	-45.984884	57.002002	-45.984884	57.002002	-0.190630	-102.023440
6.500000	-0.181497	-96.551755	-45.818043	55.510653	-45.818043	55.510653	-0.193470	-102.719676
6.550000	-0.184146	-97.204234	-45.653866	54.019767	-45.653866	54.019767	-0.196325	-103.415517
6.600000	-0.186852	-97.854812	-45.490658	52.531013	-45.490658	52.531013	-0.199242	-104.109653
6.650000	-0.189577	-98.504756	-45.329779	51.042971	-45.329779	51.042971	-0.202180	-104.803220
6.700000	-0.192354	-99.153050	-45.170087	49.556869	-45.170087	49.556869	-0.205173	-105.495337
6.750000	-0.195156	-99.800518	-45.012423	48.071736	-45.012423	48.071736	-0.208196	-106.186730
6.800000	-0.198005	-100.446580	-44.856138	46.588342	-44.856138	46.588342	-0.211268	-106.876916
6.850000	-0.200888	-101.091636	-44.701610	45.106189	-44.701610	45.106189	-0.214376	-107.566239
6.900000	-0.203811	-101.735518	-44.548628	43.625561	-44.548628	43.625561	-0.217528	-108.254584
6.950000	-0.206774	-102.378225	-44.397160	42.146459	-44.397160	42.146459	-0.220724	-108.941950
7.000000	-0.209772	-103.019982	-44.247385	40.668661	-44.247385	40.668661	-0.223957	-109.628548
7.050000	-0.212818	-103.660407	-44.098906	39.192686	-44.098906	39.192686	-0.227241	-110.314072
7.100000	-0.215893	-104.300095	-43.952246	37.717781	-43.952246	37.717781	-0.230555	-110.999023
7.150000	-0.219024	-104.938306	-43.806689	36.245014	-43.806689	36.245014	-0.233929	-111.682829
7.200000	-0.222176	-105.575982	-43.663056	34.773071	-43.663056	34.773071	-0.237327	-112.366237
7.250000	-0.225393	-106.212049	-43.520357	33.303596	-43.520357	33.303596	-0.240792	-113.048454
7.300000	-0.228625	-106.847771	-43.379668	31.834685	-43.379668	31.834685	-0.244274	-113.730428
7.350000	-0.231929	-107.481766	-43.239766	30.368592	-43.239766	30.368592	-0.247832	-114.411192
7.400000	-0.235242	-108.115595	-43.101943	28.902788	-43.101943	28.902788	-0.251399	-115.091847
7.450000	-0.238636	-108.747591	-42.964780	27.440171	-42.964780	27.440171	-0.255052	-115.771302
7.500000	-0.242030	-109.379588	-42.829749	25.977553	-42.829749	25.977553	-0.258706	-116.450757
7.550000	-0.245515	-110.009661	-42.695268	24.518509	-42.695268	24.518509	-0.262454	-117.129054
7.600000	-0.249000	-110.639734	-42.562838	23.059465	-42.562838	23.059465	-0.266204	-117.807351
7.650000	-0.252569	-111.268115	-42.431106	21.603792	-42.431106	21.603792	-0.270043	-118.484734
7.700000	-0.256147	-111.896342	-42.301226	20.148425	-42.301226	20.148425	-0.273891	-119.162034
7.750000	-0.259803	-112.523096	-42.172174	18.696212	-42.172174	18.696212	-0.277821	-119.838642
7.800000	-0.263474	-113.149555	-42.044797	17.244629	-42.044797	17.244629	-0.281768	-120.515112
7.850000	-0.267217	-113.774749	-41.918357	15.795967	-41.918357	15.795967	-0.285792	-121.191094
7.900000	-0.270984	-114.399521	-41.793435	14.348280	-41.793435	14.348280	-0.289842	-121.866912
7.950000	-0.274815	-115.023223	-41.669545	12.903265	-41.669545	12.903265	-0.293961	-122.542421
8.000000	-0.278679	-115.646391	-41.547033	11.459586	-41.547033	11.459586	-0.298116	-123.217775
8.050000	-0.282600	-116.268670	-41.425631	10.018315	-41.425631	10.018315	-0.302334	-123.892975
8.100000	-0.286562	-116.890316	-41.305484	8.578762	-41.305484	8.578762	-0.306597	-124.568063
8.150000	-0.290574	-117.511244	-41.186511	7.141332	-41.186511	7.141332	-0.310915	-125.243122
8.200000	-0.294636	-118.131454	-41.068686	5.706025	-41.068686	5.706025	-0.315289	-125.918154
8.250000	-0.298740	-118.751101	-40.952085	4.272537	-40.952085	4.272537	-0.319712	-126.593253
8.300000	-0.302902	-119.369962	-40.836539	2.841595	-40.836539	2.841595	-0.324201	-127.268448
8.350000	-0.307099	-119.988403	-40.722254	1.412149	-40.722254	1.412149	-0.328731	-127.943776
8.400000	-0.311364	-120.606004	-40.608946	-0.014306	-40.608946	-0.014306	-0.333341	-128.619369
8.450000	-0.315655	-121.223312	-40.496923	-1.439610	-40.496923	-1.439610	-0.337983	-129.295123
8.500000	-0.320023	-121.839742	-40.385811	-2.861458	-40.385811	-2.861458	-0.342718	-129.971360
8.550000	-0.324410	-122.455993	-40.275998	-4.282518	-40.275998	-4.282518	-0.347477	-130.647748
8.600000	-0.328882	-123.071345	-40.167041	-5.699639	-40.167041	-5.699639	-0.352343	-131.324892
8.650000	-0.333365	-123.686616	-40.059388	-7.116357	-40.059388	-7.116357	-0.357224	-132.002133
8.700000	-0.337943	-124.300984	-39.952545	-8.528634	-39.952545	-8.528634	-0.362229	-132.680459
8.750000	-0.342523	-124.915352	-39.847001	-9.940910	-39.847001	-9.940910	-0.367237	-133.358785
8.800000	-0.347207	-125.528830	-39.742232	-11.348228	-39.742232	-11.348228	-0.372390	-134.038585
8.850000	-0.351894	-126.142309	-39.638712	-12.755546	-39.638712	-12.755546	-0.377546	-134.718386
8.900000	-0.356678	-126.755062	-39.536013	-14.158216	-39.536013	-14.158216	-0.382843	-135.399823
8.950000	-0.361472	-127.367748	-39.434479	-15.560463	-39.434479	-15.560463	-0.388156	-136.081408
9.000000	-0.366355	-127.979856	-39.333801	-16.958397	-39.333801	-16.958397	-0.393607	-136.764755
9.050000	-0.371258	-128.591849	-39.234214	-18.355468	-39.234214	-18.355468	-0.399088	-137.448454
9.100000	-0.376242	-129.203397	-39.135509	-19.748581	-39.135509	-19.748581	-0.404703	-138.133999
9.150000	-0.381255	-129.814797	-39.037831	-21.140375	-39.037831	-21.140375	-0.410365	-138.820159
9.200000	-0.386340	-130.425869	-38.941051	-22.528587	-38.941051	-22.528587	-0.416157	-139.508206
9.250000	-0.391463	-131.036777	-38.845244	-23.915009	-38.845244	-23.915009	-0.422015	-140.197197
9.300000	-0.396649	-131.647460	-38.750342	-25.298247	-38.750342	-25.298247	-0.427997	-140.888066
9.350000	-0.401883	-132.257982	-38.656368	-26.679210	-38.656368	-26.679210	-0.434069	-141.580278
9.400000	-0.407172	-132.868362	-38.563300	-28.057404	-38.563300	-28.057404	-0.440256	-142.274308
9.450000	-0.412517	-133.478603	-38.471119	-29.432830	-38.471119	-29.432830	-0.446560	-142.970155
9.500000	-0.417909	-134.088770	-38.379840	-30.805918	-38.379840	-30.805918	-0.452971	-143.667700
9.550000	-0.423366	-134.698837	-38.289416	-32.175735	-38.289416	-32.175735	-0.459530	-144.367623
9.600000	-0.428861	-135.308882	-38.199882	-33.543661	-38.199882	-33.543661	-0.466184	-145.069060
9.650000	-0.434430	-135.918885	-38.111177	-34.907808	-38.111177	-34.907808	-0.473024	-145.773525
9.700000	-0.440029	-136.528899	-38.023344	-36.270524	-38.023344	-36.270524	-0.479943	-146.479249
9.750000	-0.445710	-137.138950	-37.936320	-37.628950	-37.936320	-37.628950	-0.487093	-147.188750
9.800000	-0.451413	-137.749027	-37.850148	-38.986415	-37.850148	-38.986415	-0.494303	-147.899178
9.850000	-0.457207	-138.359238	-37.764768	-40.339078	-37.764768	-40.339078	-0.501796	-148.614240
9.900000	-0.463013	-138.969473	-37.680216	-41.691258	-37.680216	-41.691258	-0.509326	-149.329812
9.950000	-0.468920	-139.579961	-37.596443	-43.038129	-37.596443	-43.038129	-0.517201	-150.050991
10.000000	-0.474831	-140.190450	-37.513470	-44.384999	-37.513470	-44.384999	-0.525082	-150.772170
