! freq	dB(S11)	phase(S11)	dB(S12)	phase(S12)	
!     	dB(S21)	phase(S21)	dB(S22)	phase(S22)	
!S-par simulation data
#  GHz  S  DB  R 50
0.000000	-0.000000	0.000000	-350.879449	0.000000	-350.879449	0.000000	-0.000000	0.000000
0.050000	-0.000101	-1.013176	-104.898767	45.598107	-104.898767	45.598107	-0.000086	-0.808083
0.100000	-0.000400	-2.026141	-102.802905	50.173039	-102.802905	50.173039	-0.000342	-1.615985
0.150000	-0.000890	-3.038692	-100.999371	56.724978	-100.999371	56.724978	-0.000761	-2.423536
0.200000	-0.001559	-4.050651	-99.398680	61.624298	-99.398680	61.624298	-0.001330	-3.230588
0.250000	-0.002403	-5.061797	-98.021315	64.975779	-98.021315	64.975779	-0.002043	-4.036962
0.300000	-0.003390	-6.072058	-96.853605	67.377723	-96.853605	67.377723	-0.002873	-4.842607
0.350000	-0.004508	-7.081278	-95.867986	69.105497	-95.867986	69.105497	-0.003809	-5.647409
0.400000	-0.005740	-8.089357	-95.040673	70.396524	-95.040673	70.396524	-0.004832	-6.451299
0.450000	-0.007067	-9.096216	-94.352303	71.415118	-94.352303	71.415118	-0.005927	-7.254234
0.500000	-0.008471	-10.101799	-93.788000	72.281034	-93.788000	72.281034	-0.007077	-8.056185
0.550000	-0.009934	-11.106065	-93.336730	73.088487	-93.336730	73.088487	-0.008267	-8.857144
0.600000	-0.011442	-12.108992	-92.990560	73.918818	-92.990560	73.918818	-0.009486	-9.657111
0.650000	-0.012980	-13.110567	-92.744012	74.849653	-92.744012	74.849653	-0.010721	-10.456097
0.700000	-0.014536	-14.110789	-92.593465	75.962491	-92.593465	75.962491	-0.011965	-11.254117
0.750000	-0.016100	-15.109661	-92.536524	77.350051	-92.536524	77.350051	-0.013208	-12.051194
0.800000	-0.017664	-16.107191	-92.571190	79.124323	-92.571190	79.124323	-0.014446	-12.847346
0.850000	-0.019220	-17.103392	-92.694538	81.425907	-92.694538	81.425907	-0.015674	-13.642596
0.900000	-0.020764	-18.098272	-92.900436	84.434307	-92.900436	84.434307	-0.016888	-14.436963
0.950000	-0.022291	-19.091842	-93.175515	88.376430	-93.175515	88.376430	-0.018088	-15.230463
1.000000	-0.023798	-20.084111	-93.492400	93.524585	-93.492400	93.524585	-0.019270	-16.023110
1.050000	-0.025285	-21.075084	-93.799753	100.163448	-93.799753	100.163448	-0.020435	-16.814916
1.100000	-0.026749	-22.064765	-94.012130	108.491340	-94.012130	108.491340	-0.021582	-17.605887
1.150000	-0.028190	-23.053153	-94.011326	118.430762	-94.011326	118.430762	-0.022713	-18.396028
1.200000	-0.029609	-24.040246	-93.678885	129.417759	-93.678885	129.417759	-0.023827	-19.185340
1.250000	-0.031005	-25.026039	-92.959440	140.419807	-92.959440	140.419807	-0.024926	-19.973821
1.300000	-0.032380	-26.010464	-91.883714	150.291130	-91.883714	150.291130	-0.026010	-20.761429
1.350000	-0.033736	-26.993568	-90.591061	158.475037	-90.591061	158.475037	-0.027082	-21.548195
1.400000	-0.035073	-27.975336	-89.199208	164.913936	-89.199208	164.913936	-0.028141	-22.334109
1.450000	-0.036393	-28.955753	-87.790482	169.817785	-87.790482	169.817785	-0.029190	-23.119160
1.500000	-0.037698	-29.934802	-86.412044	173.472141	-86.412044	173.472141	-0.030229	-23.903337
1.550000	-0.038989	-30.912462	-85.086874	176.144078	-85.086874	176.144078	-0.031261	-24.686625
1.600000	-0.040268	-31.888716	-83.823854	178.052364	-83.823854	178.052364	-0.032285	-25.469010
1.650000	-0.041537	-32.863540	-82.624403	179.366451	-82.624403	179.366451	-0.033304	-26.250476
1.700000	-0.042796	-33.836913	-81.486296	-179.785235	-81.486296	-179.785235	-0.034318	-27.031008
1.750000	-0.044048	-34.808812	-80.405722	-179.305835	-80.405722	-179.305835	-0.035329	-27.810588
1.800000	-0.045293	-35.779214	-79.378349	-179.122011	-79.378349	-179.122011	-0.036336	-28.589200
1.850000	-0.046533	-36.748097	-78.399839	-179.177777	-78.399839	-179.177777	-0.037341	-29.366827
1.900000	-0.047770	-37.715435	-77.466101	-179.429948	-77.466101	-179.429948	-0.038346	-30.143450
1.950000	-0.049004	-38.681206	-76.573383	-179.844842	-76.573383	-179.844842	-0.039349	-30.919051
2.000000	-0.050237	-39.645387	-75.718294	179.604107	-75.718294	179.604107	-0.040353	-31.693614
2.050000	-0.051470	-40.607955	-74.897799	178.938083	-74.897799	178.938083	-0.041358	-32.467121
2.100000	-0.052703	-41.568886	-74.109185	178.174154	-74.109185	178.174154	-0.042365	-33.239554
2.150000	-0.053938	-42.528158	-73.350031	177.326213	-73.350031	177.326213	-0.043373	-34.010895
2.200000	-0.055175	-43.485750	-72.618176	176.405671	-72.618176	176.405671	-0.044384	-34.781128
2.250000	-0.056416	-44.441641	-71.911686	175.421982	-71.911686	175.421982	-0.045398	-35.550236
2.300000	-0.057661	-45.395809	-71.228829	174.383046	-71.228829	174.383046	-0.046415	-36.318202
2.350000	-0.058910	-46.348235	-70.568046	173.295513	-70.568046	173.295513	-0.047437	-37.085009
2.400000	-0.060165	-47.298900	-69.927933	172.165025	-69.927933	172.165025	-0.048462	-37.850642
2.450000	-0.061427	-48.247786	-69.307220	170.996393	-69.307220	170.996393	-0.049492	-38.615085
2.500000	-0.062694	-49.194874	-68.704756	169.793755	-68.704756	169.793755	-0.050528	-39.378323
2.550000	-0.063970	-50.140069	-68.118533	168.559508	-68.118533	168.559508	-0.051568	-40.140287
2.600000	-0.065253	-51.083432	-67.548662	167.298178	-67.548662	167.298178	-0.052615	-40.901016
2.650000	-0.066545	-52.024950	-66.994258	166.012433	-66.994258	166.012433	-0.053667	-41.660494
2.700000	-0.067845	-52.964607	-66.454510	164.704619	-66.454510	164.704619	-0.054725	-42.418709
2.750000	-0.069155	-53.902391	-65.928676	163.376810	-65.928676	163.376810	-0.055791	-43.175647
2.800000	-0.070474	-54.838291	-65.416069	162.030843	-65.416069	162.030843	-0.056863	-43.931296
2.850000	-0.071803	-55.772293	-64.916056	160.668357	-64.916056	160.668357	-0.057942	-44.685643
2.900000	-0.073143	-56.704390	-64.428054	159.290816	-64.428054	159.290816	-0.059028	-45.438677
2.950000	-0.074493	-57.634570	-63.951519	157.899535	-63.951519	157.899535	-0.060122	-46.190385
3.000000	-0.075855	-58.562827	-63.485946	156.495697	-63.485946	156.495697	-0.061225	-46.940758
3.050000	-0.077228	-59.489152	-63.030865	155.080371	-63.030865	155.080371	-0.062335	-47.689784
3.100000	-0.078613	-60.413540	-62.585840	153.654526	-62.585840	153.654526	-0.063454	-48.437452
3.150000	-0.080010	-61.335984	-62.150460	152.219043	-62.150460	152.219043	-0.064582	-49.183755
3.200000	-0.081420	-62.256481	-61.724341	150.774722	-61.724341	150.774722	-0.065718	-49.928681
3.250000	-0.082843	-63.175027	-61.307124	149.322297	-61.307124	149.322297	-0.066865	-50.672223
3.300000	-0.084279	-64.091620	-60.898470	147.862440	-60.898470	147.862440	-0.068020	-51.414371
3.350000	-0.085728	-65.006258	-60.498062	146.395765	-60.498062	146.395765	-0.069186	-52.155118
3.400000	-0.087192	-65.918940	-60.105600	144.922840	-60.105600	144.922840	-0.070363	-52.894457
3.450000	-0.088670	-66.829667	-59.720800	143.444187	-59.720800	143.444187	-0.071550	-53.632379
3.500000	-0.090163	-67.738439	-59.343396	141.960288	-59.343396	141.960288	-0.072747	-54.368879
3.550000	-0.091670	-68.645260	-58.973134	140.471589	-58.973134	140.471589	-0.073957	-55.103949
3.600000	-0.093194	-69.550132	-58.609775	138.978502	-58.609775	138.978502	-0.075177	-55.837585
3.650000	-0.094733	-70.453058	-58.253090	137.481412	-58.253090	137.481412	-0.076410	-56.569779
3.700000	-0.096289	-71.354045	-57.902864	135.980675	-57.902864	135.980675	-0.077655	-57.300528
3.750000	-0.097861	-72.253097	-57.558892	134.476621	-57.558892	134.476621	-0.078913	-58.029827
3.800000	-0.099452	-73.150138	-57.220671	132.969442	-57.220671	132.969442	-0.080185	-58.757607
3.850000	-0.101060	-74.045259	-56.888345	131.459567	-56.888345	131.459567	-0.081470	-59.483928
3.900000	-0.102686	-74.938468	-56.561733	129.947261	-56.561733	129.947261	-0.082769	-60.208786
3.950000	-0.104331	-75.829776	-56.240665	128.432773	-56.240665	128.432773	-0.084082	-60.932178
4.000000	-0.105995	-76.719190	-55.924978	126.916335	-55.924978	126.916335	-0.085410	-61.654102
4.050000	-0.107678	-77.606723	-55.614515	125.398164	-55.614515	125.398164	-0.086752	-62.374555
4.100000	-0.109382	-78.492386	-55.309127	123.878463	-55.309127	123.878463	-0.088111	-63.093534
4.150000	-0.111106	-79.376191	-55.008670	122.357423	-55.008670	122.357423	-0.089485	-63.811039
4.200000	-0.112852	-80.258151	-54.713007	120.835221	-54.713007	120.835221	-0.090875	-64.527067
4.250000	-0.114619	-81.138279	-54.422006	119.312024	-54.422006	119.312024	-0.092282	-65.241619
4.300000	-0.116408	-82.016591	-54.135543	117.787989	-54.135543	117.787989	-0.093707	-65.954693
4.350000	-0.118221	-82.893102	-53.853494	116.263262	-53.853494	116.263262	-0.095149	-66.666290
4.400000	-0.120056	-83.767826	-53.575745	114.737981	-53.575745	114.737981	-0.096608	-67.376408
4.450000	-0.121916	-84.640782	-53.302183	113.212275	-53.302183	113.212275	-0.098087	-68.085050
4.500000	-0.123800	-85.511985	-53.032700	111.686264	-53.032700	111.686264	-0.099584	-68.792215
4.550000	-0.125710	-86.381455	-52.767193	110.160062	-52.767193	110.160062	-0.101100	-69.497905
4.600000	-0.127645	-87.249209	-52.505563	108.633774	-52.505563	108.633774	-0.102637	-70.202121
4.650000	-0.129607	-88.115267	-52.247714	107.107501	-52.247714	107.107501	-0.104193	-70.904865
4.700000	-0.131596	-88.979648	-51.993553	105.581336	-51.993553	105.581336	-0.105770	-71.606140
4.750000	-0.133612	-89.842374	-51.742991	104.055366	-51.742991	104.055366	-0.107369	-72.305947
4.800000	-0.135657	-90.703465	-51.495943	102.529674	-51.495943	102.529674	-0.108989	-73.004290
4.850000	-0.137731	-91.562943	-51.252326	101.004337	-51.252326	101.004337	-0.110631	-73.701172
4.900000	-0.139834	-92.420830	-51.012059	99.479427	-51.012059	99.479427	-0.112295	-74.396596
4.950000	-0.141967	-93.277149	-50.775067	97.955011	-50.775067	97.955011	-0.113983	-75.090566
5.000000	-0.144131	-94.131924	-50.541275	96.431155	-50.541275	96.431155	-0.115693	-75.783086
5.050000	-0.146327	-94.985114	-50.310480	94.907947	-50.310480	94.907947	-0.117429	-76.474098
5.100000	-0.148556	-95.836811	-50.082753	93.385418	-50.082753	93.385418	-0.119189	-77.163669
5.150000	-0.150817	-96.687040	-49.858025	91.863621	-49.858025	91.863621	-0.120974	-77.851806
5.200000	-0.153112	-97.535828	-49.636231	90.342606	-49.636231	90.342606	-0.122784	-78.538513
5.250000	-0.155440	-98.383201	-49.417310	88.822420	-49.417310	88.822420	-0.124620	-79.223796
5.300000	-0.157802	-99.229187	-49.201199	87.303105	-49.201199	87.303105	-0.126482	-79.907661
5.350000	-0.160200	-100.073812	-48.987841	85.784705	-48.987841	85.784705	-0.128371	-80.590115
5.400000	-0.162633	-100.917106	-48.777179	84.267259	-48.777179	84.267259	-0.130286	-81.271164
5.450000	-0.165102	-101.759098	-48.569157	82.750804	-48.569157	82.750804	-0.132229	-81.950815
5.500000	-0.167608	-102.599816	-48.363724	81.235376	-48.363724	81.235376	-0.134201	-82.629075
5.550000	-0.170151	-103.439292	-48.160828	79.721009	-48.160828	79.721009	-0.136200	-83.305953
5.600000	-0.172732	-104.277556	-47.960419	78.207737	-47.960419	78.207737	-0.138228	-83.981455
5.650000	-0.175351	-105.114639	-47.762449	76.695590	-47.762449	76.695590	-0.140286	-84.655590
5.700000	-0.178008	-105.950574	-47.566872	75.184599	-47.566872	75.184599	-0.142373	-85.328367
5.750000	-0.180705	-106.785392	-47.373644	73.674794	-47.373644	73.674794	-0.144490	-85.999794
5.800000	-0.183442	-107.619128	-47.182720	72.166203	-47.182720	72.166203	-0.146637	-86.669880
5.850000	-0.186226	-108.451643	-46.993744	70.659078	-46.993744	70.659078	-0.148821	-87.338407
5.900000	-0.189052	-109.283100	-46.806925	69.153280	-46.806925	69.153280	-0.151038	-88.005555
5.950000	-0.191900	-110.114061	-46.623142	67.648169	-46.623142	67.648169	-0.153271	-88.672023
6.000000	-0.194813	-110.943532	-46.440526	66.145120	-46.440526	66.145120	-0.155554	-89.336450
6.050000	-0.197740	-111.772698	-46.261108	64.642549	-46.261108	64.642549	-0.157850	-90.000432
6.100000	-0.200741	-112.600342	-46.082564	63.142366	-46.082564	63.142366	-0.160201	-90.662185
6.150000	-0.203750	-113.427848	-45.907352	61.642432	-45.907352	61.642432	-0.162560	-91.323720
6.200000	-0.206841	-114.253830	-45.732755	60.145231	-45.732755	60.145231	-0.164982	-91.982848
6.250000	-0.209933	-115.079812	-45.561599	58.648031	-45.561599	58.648031	-0.167404	-92.641977
6.300000	-0.213115	-115.904305	-45.390832	57.153931	-45.390832	57.153931	-0.169898	-93.298532
6.350000	-0.216299	-116.728797	-45.223359	55.659831	-45.223359	55.659831	-0.172393	-93.955088
6.400000	-0.219567	-117.552086	-45.056545	54.168685	-45.056545	54.168685	-0.174954	-94.609336
6.450000	-0.222844	-118.375265	-44.892651	52.677807	-44.892651	52.677807	-0.177522	-95.263374
6.500000	-0.226199	-119.197504	-44.729655	51.189719	-44.729655	51.189719	-0.180152	-95.915361
6.550000	-0.229571	-120.019554	-44.569241	49.702189	-44.569241	49.702189	-0.182795	-96.566938
6.600000	-0.233014	-120.840900	-44.409937	48.217269	-44.409937	48.217269	-0.185495	-97.216715
6.650000	-0.236482	-121.662012	-44.252911	46.733218	-44.252911	46.733218	-0.188215	-97.865892
6.700000	-0.240015	-122.482628	-44.097177	45.251579	-44.097177	45.251579	-0.190986	-98.513511
6.750000	-0.243581	-123.302997	-43.943451	43.771146	-43.943451	43.771146	-0.193784	-99.160350
6.800000	-0.247204	-124.123050	-43.791174	42.292906	-43.791174	42.292906	-0.196628	-99.805864
6.850000	-0.250869	-124.942879	-43.640661	40.816234	-43.640661	40.816234	-0.199505	-100.450432
6.900000	-0.254584	-125.762543	-43.491733	39.341517	-43.491733	39.341517	-0.202423	-101.093898
6.950000	-0.258349	-126.582042	-43.344352	37.868757	-43.344352	37.868757	-0.205381	-101.736262
7.000000	-0.262157	-127.401494	-43.198668	36.397692	-43.198668	36.397692	-0.208374	-102.377738
7.050000	-0.266025	-128.220879	-43.054339	34.929000	-43.054339	34.929000	-0.211415	-103.017970
7.100000	-0.269927	-129.040301	-42.911802	33.461720	-42.911802	33.461720	-0.214484	-103.657516
7.150000	-0.273897	-129.859796	-42.770448	31.997262	-42.770448	31.997262	-0.217609	-104.295690
7.200000	-0.277895	-130.679376	-42.630962	30.533905	-42.630962	30.533905	-0.220756	-104.933369
7.250000	-0.281970	-131.499212	-42.492508	29.073850	-42.492508	29.073850	-0.223966	-105.569563
7.300000	-0.286064	-132.319144	-42.355981	27.614557	-42.355981	27.614557	-0.227191	-106.205439
7.350000	-0.290246	-133.139557	-42.220355	26.159080	-42.220355	26.159080	-0.230488	-106.839731
7.400000	-0.294438	-133.960039	-42.086700	24.703999	-42.086700	24.703999	-0.233793	-107.473871
7.450000	-0.298726	-134.781275	-41.953828	23.253278	-41.953828	23.253278	-0.237177	-108.106345
7.500000	-0.303017	-135.602511	-41.822958	21.802557	-41.822958	21.802557	-0.240563	-108.738819
7.550000	-0.307415	-136.424823	-41.692770	20.356775	-41.692770	20.356775	-0.244037	-109.369559
7.600000	-0.311816	-137.247134	-41.564503	18.910993	-41.564503	18.910993	-0.247513	-110.000300
7.650000	-0.316316	-138.070670	-41.437026	17.469908	-41.437026	17.469908	-0.251070	-110.629534
7.700000	-0.320827	-138.894318	-41.311296	16.029249	-41.311296	16.029249	-0.254637	-111.258631
7.750000	-0.325430	-139.719301	-41.186446	14.593013	-41.186446	14.593013	-0.258279	-111.886434
7.800000	-0.330054	-140.544552	-41.063184	13.157662	-41.063184	13.157662	-0.261937	-112.513979
7.850000	-0.334762	-141.371213	-40.940878	11.726430	-40.940878	11.726430	-0.265665	-113.140431
7.900000	-0.339501	-142.198344	-40.820018	10.296570	-40.820018	10.296570	-0.269418	-113.766518
7.950000	-0.344316	-143.026917	-40.700176	8.870492	-40.700176	8.870492	-0.273233	-114.391700
8.000000	-0.349170	-143.856212	-40.581648	7.446304	-40.581648	7.446304	-0.277080	-115.016428
8.050000	-0.354094	-144.686940	-40.464190	6.025529	-40.464190	6.025529	-0.280983	-115.640422
8.100000	-0.359067	-145.518692	-40.347927	4.607190	-40.347927	4.607190	-0.284927	-116.263893
8.150000	-0.364100	-146.351823	-40.232773	3.191862	-40.232773	3.191862	-0.288920	-116.886786
8.200000	-0.369194	-147.186333	-40.118705	1.779543	-40.118705	1.779543	-0.292962	-117.509103
8.250000	-0.374340	-148.022121	-40.005779	0.369800	-40.005779	0.369800	-0.297046	-118.130985
8.300000	-0.379557	-148.859699	-39.893836	-1.036336	-39.893836	-1.036336	-0.301187	-118.752257
8.350000	-0.384817	-149.698407	-39.783061	-2.440361	-39.783061	-2.440361	-0.305363	-119.373217
8.400000	-0.390160	-150.539373	-39.673172	-3.840161	-39.673172	-3.840161	-0.309606	-119.993555
8.450000	-0.395536	-151.381267	-39.564471	-5.238342	-39.564471	-5.238342	-0.313875	-120.613688
8.500000	-0.401008	-152.225949	-39.456564	-6.631665	-39.456564	-6.631665	-0.318221	-121.233207
8.550000	-0.406503	-153.071307	-39.349862	-8.023887	-39.349862	-8.023887	-0.322586	-121.852610
8.600000	-0.412105	-153.920043	-39.243865	-9.410603	-39.243865	-9.410603	-0.327036	-122.471429
8.650000	-0.417722	-154.769146	-39.139087	-10.796759	-39.139087	-10.796759	-0.331497	-123.090199
8.700000	-0.423458	-155.622284	-39.034925	-12.176755	-39.034925	-12.176755	-0.336054	-123.708440
8.750000	-0.429199	-156.475422	-38.931998	-13.556750	-38.931998	-13.556750	-0.340614	-124.326681
8.800000	-0.435040	-157.332084	-38.829767	-14.931643	-38.829767	-14.931643	-0.345253	-124.944568
8.850000	-0.440948	-158.191115	-38.728403	-16.303247	-38.728403	-16.303247	-0.349945	-125.562268
8.900000	-0.446924	-159.052598	-38.627886	-17.671547	-38.627886	-17.671547	-0.354690	-126.179813
8.950000	-0.452969	-159.916620	-38.528197	-19.036526	-38.528197	-19.036526	-0.359488	-126.797233
9.000000	-0.459083	-160.783268	-38.429318	-20.398171	-38.429318	-20.398171	-0.364341	-127.414559
9.050000	-0.465267	-161.652631	-38.331230	-21.756473	-38.331230	-21.756473	-0.369248	-128.031823
9.100000	-0.471523	-162.524798	-38.233915	-23.111422	-38.233915	-23.111422	-0.374210	-128.649055
9.150000	-0.477851	-163.399860	-38.137353	-24.463013	-38.137353	-24.463013	-0.379228	-129.266289
9.200000	-0.484252	-164.277909	-38.041527	-25.811242	-38.041527	-25.811242	-0.384302	-129.883558
9.250000	-0.490727	-165.159038	-37.946417	-27.156109	-37.946417	-27.156109	-0.389433	-130.500894
9.300000	-0.497277	-166.043342	-37.852005	-28.497614	-37.852005	-28.497614	-0.394621	-131.118332
9.350000	-0.503904	-166.930915	-37.758273	-29.835762	-37.758273	-29.835762	-0.399867	-131.735905
9.400000	-0.510608	-167.821856	-37.665201	-31.170560	-37.665201	-31.170560	-0.405172	-132.353650
9.450000	-0.517391	-168.716263	-37.572773	-32.502018	-37.572773	-32.502018	-0.410537	-132.971600
9.500000	-0.524253	-169.614234	-37.480968	-33.830147	-37.480968	-33.830147	-0.415961	-133.589792
9.550000	-0.531196	-170.515870	-37.389770	-35.154963	-37.389770	-35.154963	-0.421446	-134.208263
9.600000	-0.538220	-171.421274	-37.299160	-36.476483	-37.299160	-36.476483	-0.426992	-134.827049
9.650000	-0.545328	-172.330549	-37.209120	-37.794730	-37.209120	-37.794730	-0.432601	-135.446188
9.700000	-0.552520	-173.243798	-37.119633	-39.109726	-37.119633	-39.109726	-0.438272	-136.065718
9.750000	-0.559798	-174.161129	-37.030679	-40.421498	-37.030679	-40.421498	-0.444007	-136.685678
9.800000	-0.567163	-175.082648	-36.942242	-41.730077	-36.942242	-41.730077	-0.449807	-137.306106
9.850000	-0.574616	-176.008464	-36.854304	-43.035493	-36.854304	-43.035493	-0.455672	-137.927043
9.900000	-0.582159	-176.938687	-36.766849	-44.337785	-36.766849	-44.337785	-0.461603	-138.548530
9.950000	-0.589793	-177.873426	-36.679857	-45.636989	-36.679857	-45.636989	-0.467602	-139.170607
10.000000	-0.597519	-178.812796	-36.593314	-46.933149	-36.593314	-46.933149	-0.473668	-139.793316
