! freq	dB(S11)	phase(S11)	dB(S12)	phase(S12)	
!     	dB(S21)	phase(S21)	dB(S22)	phase(S22)	
!S-par simulation data
#  GHz  S  DB  R 50
0.000000	-0.000000	0.000000	-344.151476	0.000000	-344.151476	0.000000	-0.000000	0.000000
0.050000	-0.006039	-1.296128	-104.056927	77.155033	-104.056927	77.155033	-0.003448	-1.476721
0.100000	-0.010858	-2.643794	-97.480333	80.572570	-97.480333	80.572570	-0.008634	-2.986571
0.150000	-0.012937	-3.995104	-93.892410	81.333917	-93.892410	81.333917	-0.012113	-4.510854
0.200000	-0.014135	-5.343373	-91.438952	81.159826	-91.438952	81.159826	-0.014347	-6.036721
0.250000	-0.015049	-6.688821	-89.604769	80.570946	-89.604769	80.570946	-0.015934	-7.560770
0.300000	-0.015908	-8.032253	-88.161134	79.816926	-88.161134	79.816926	-0.017274	-9.082548
0.350000	-0.016781	-9.373838	-86.997363	78.983971	-86.997363	78.983971	-0.018505	-10.601888
0.400000	-0.017705	-10.713698	-86.046890	78.134650	-86.046890	78.134650	-0.019716	-12.118773
0.450000	-0.018693	-12.051857	-85.267929	77.312290	-85.267929	77.312290	-0.020951	-13.633165
0.500000	-0.019751	-13.388278	-84.632950	76.552382	-84.632950	76.552382	-0.022231	-15.144987
0.550000	-0.020880	-14.722897	-84.123278	75.888518	-84.123278	75.888518	-0.023567	-16.654135
0.600000	-0.022076	-16.055630	-83.726095	75.356221	-83.726095	75.356221	-0.024963	-18.160484
0.650000	-0.023328	-17.386657	-83.420764	74.967426	-83.420764	74.967426	-0.026411	-19.664302
0.700000	-0.024649	-18.715328	-83.226064	74.823257	-83.226064	74.823257	-0.027924	-21.164629
0.750000	-0.026023	-20.041827	-83.125469	74.960773	-83.125469	74.960773	-0.029489	-22.661737
0.800000	-0.027447	-21.366057	-83.116367	75.458192	-83.116367	75.458192	-0.031102	-24.155482
0.850000	-0.028917	-22.687710	-83.203578	76.471259	-83.203578	76.471259	-0.032760	-25.645408
0.900000	-0.030420	-24.007145	-83.367338	78.033573	-83.367338	78.033573	-0.034451	-27.132045
0.950000	-0.031957	-25.324042	-83.608955	80.364792	-83.608955	80.364792	-0.036173	-28.614918
1.000000	-0.033522	-26.638317	-83.913148	83.683951	-83.913148	83.683951	-0.037922	-30.093898
1.050000	-0.035110	-27.949890	-84.249880	88.249422	-84.249880	88.249422	-0.039691	-31.568865
1.100000	-0.036717	-29.258683	-84.564871	94.319243	-84.564871	94.319243	-0.041477	-33.039703
1.150000	-0.038338	-30.564622	-84.771243	102.046090	-84.771243	102.046090	-0.043275	-34.506298
1.200000	-0.039972	-31.867638	-84.754392	111.290954	-84.754392	111.290954	-0.045081	-35.968545
1.250000	-0.041613	-33.167662	-84.407310	121.441829	-84.407310	121.441829	-0.046891	-37.426342
1.300000	-0.043259	-34.464495	-83.671961	131.434359	-83.671961	131.434359	-0.048701	-38.879389
1.350000	-0.044907	-35.758205	-82.625910	140.291485	-82.625910	140.291485	-0.050510	-40.327790
1.400000	-0.046555	-37.048735	-81.383392	147.540593	-81.383392	147.540593	-0.052314	-41.771455
1.450000	-0.048202	-38.336026	-80.052142	153.146249	-80.052142	153.146249	-0.054111	-43.210303
1.500000	-0.049844	-39.620027	-78.707277	157.306475	-78.707277	157.306475	-0.055900	-44.644255
1.550000	-0.051482	-40.900685	-77.392212	160.286371	-77.392212	160.286371	-0.057678	-46.073235
1.600000	-0.053114	-42.177951	-76.128437	162.334773	-76.128437	162.334773	-0.059446	-47.497174
1.650000	-0.054739	-43.451779	-74.924483	163.656861	-74.924483	163.656861	-0.061202	-48.916004
1.700000	-0.056356	-44.722123	-73.781904	164.412651	-73.781904	164.412651	-0.062946	-50.329663
1.750000	-0.057966	-45.988940	-72.698779	164.724180	-72.698779	164.724180	-0.064676	-51.738092
1.800000	-0.059568	-47.252189	-71.671629	164.684002	-71.671629	164.684002	-0.066394	-53.141234
1.850000	-0.061161	-48.511832	-70.696420	164.362529	-70.696420	164.362529	-0.068099	-54.539039
1.900000	-0.062747	-49.767831	-69.769074	163.813731	-69.769074	163.813731	-0.069791	-55.931457
1.950000	-0.064325	-51.020152	-68.885712	163.079375	-68.885712	163.079375	-0.071470	-57.318445
2.000000	-0.065895	-52.268760	-68.042752	162.192128	-68.042752	162.192128	-0.073138	-58.699960
2.050000	-0.067459	-53.513625	-67.236946	161.177813	-67.236946	161.177813	-0.074795	-60.075966
2.100000	-0.069017	-54.754718	-66.465365	160.057054	-66.465365	160.057054	-0.076441	-61.446427
2.150000	-0.070568	-55.992011	-65.725387	158.846493	-65.725387	158.846493	-0.078077	-62.811314
2.200000	-0.072115	-57.225479	-65.014660	157.559684	-65.014660	157.559684	-0.079704	-64.170598
2.250000	-0.073658	-58.455099	-64.331078	156.207764	-64.331078	156.207764	-0.081324	-65.524256
2.300000	-0.075197	-59.680849	-63.672752	154.799960	-63.672752	154.799960	-0.082936	-66.872267
2.350000	-0.076734	-60.902709	-63.037982	153.343980	-63.037982	153.343980	-0.084543	-68.214614
2.400000	-0.078269	-62.120663	-62.425235	151.846304	-62.425235	151.846304	-0.086144	-69.551282
2.450000	-0.079804	-63.334695	-61.833127	150.312420	-61.833127	150.312420	-0.087741	-70.882261
2.500000	-0.081338	-64.544790	-61.260402	148.747003	-61.260402	148.747003	-0.089336	-72.207542
2.550000	-0.082874	-65.750767	-60.705175	147.153022	-60.705175	147.153022	-0.090928	-73.526875
2.600000	-0.084412	-66.952786	-60.167247	145.535231	-60.167247	145.535231	-0.092520	-74.840504
2.650000	-0.085953	-68.150841	-59.645654	143.896562	-59.645654	143.896562	-0.094113	-76.148433
2.700000	-0.087498	-69.344926	-59.139515	142.239568	-59.139515	142.239568	-0.095707	-77.450667
2.750000	-0.089048	-70.535038	-58.648020	140.566484	-58.648020	140.566484	-0.097303	-78.747214
2.800000	-0.090604	-71.721175	-58.170424	138.879270	-58.170424	138.879270	-0.098904	-80.038084
2.850000	-0.092166	-72.903339	-57.706038	137.179651	-57.706038	137.179651	-0.100508	-81.323292
2.900000	-0.093737	-74.081532	-57.254227	135.469152	-57.254227	135.469152	-0.102119	-82.602855
2.950000	-0.095316	-75.255759	-56.814402	133.749125	-56.814402	133.749125	-0.103736	-83.876792
3.000000	-0.096904	-76.426026	-56.386015	132.020768	-56.386015	132.020768	-0.105360	-85.145124
3.050000	-0.098503	-77.592341	-55.968557	130.285149	-55.968557	130.285149	-0.106993	-86.407878
3.100000	-0.100113	-78.754715	-55.561554	128.543223	-55.561554	128.543223	-0.108636	-87.665080
3.150000	-0.101735	-79.913160	-55.164563	126.795840	-55.164563	126.795840	-0.110289	-88.916761
3.200000	-0.103370	-81.067689	-54.777168	125.043764	-54.777168	125.043764	-0.111953	-90.162952
3.250000	-0.105019	-82.218319	-54.398983	123.287679	-54.398983	123.287679	-0.113629	-91.403688
3.300000	-0.106682	-83.365067	-54.029643	121.528201	-54.029643	121.528201	-0.115318	-92.639006
3.350000	-0.108360	-84.507953	-53.668805	119.765885	-53.668805	119.765885	-0.117021	-93.868945
3.400000	-0.110055	-85.646996	-53.316149	118.001228	-53.316149	118.001228	-0.118738	-95.093547
3.450000	-0.111765	-86.782221	-52.971371	116.234682	-52.971371	116.234682	-0.120470	-96.312854
3.500000	-0.113493	-87.913651	-52.634186	114.466654	-52.634186	114.466654	-0.122219	-97.526913
3.550000	-0.115240	-89.041312	-52.304324	112.697512	-52.304324	112.697512	-0.123983	-98.735771
3.600000	-0.117005	-90.165232	-51.981531	110.927589	-51.981531	110.927589	-0.125766	-99.939477
3.650000	-0.118789	-91.285441	-51.665566	109.157189	-51.665566	109.157189	-0.127566	-101.138082
3.700000	-0.120593	-92.401967	-51.356200	107.386585	-51.356200	107.386585	-0.129385	-102.331638
3.750000	-0.122418	-93.514845	-51.053217	105.616027	-51.053217	105.616027	-0.131223	-103.520202
3.800000	-0.124265	-94.623951	-50.756242	103.845765	-50.756242	103.845765	-0.133081	-104.703615
3.850000	-0.126134	-95.729481	-50.465269	102.076000	-50.465269	102.076000	-0.134961	-105.882155
3.900000	-0.128025	-96.831470	-50.180113	100.306919	-50.180113	100.306919	-0.136861	-107.055880
3.950000	-0.129940	-97.929956	-49.900596	98.538692	-49.900596	98.538692	-0.138782	-108.224850
4.000000	-0.131878	-99.024980	-49.626549	96.771477	-49.626549	96.771477	-0.140726	-109.389129
4.050000	-0.133840	-100.116581	-49.357813	95.005416	-49.357813	95.005416	-0.142692	-110.548779
4.100000	-0.135826	-101.204801	-49.094235	93.240642	-49.094235	93.240642	-0.144680	-111.703865
4.150000	-0.137838	-102.289684	-48.835669	91.477275	-48.835669	91.477275	-0.146693	-112.854454
4.200000	-0.139875	-103.371274	-48.581975	89.715428	-48.581975	89.715428	-0.148729	-114.000611
4.250000	-0.141938	-104.449617	-48.333021	87.955205	-48.333021	87.955205	-0.150789	-115.142406
4.300000	-0.144028	-105.524759	-48.088681	86.196701	-48.088681	86.196701	-0.152874	-116.279906
4.350000	-0.146144	-106.596748	-47.848833	84.440006	-47.848833	84.440006	-0.154984	-117.413184
4.400000	-0.148288	-107.665632	-47.613360	82.685202	-47.613360	82.685202	-0.157119	-118.542308
4.450000	-0.150460	-108.731462	-47.382151	80.932367	-47.382151	80.932367	-0.159280	-119.667351
4.500000	-0.152660	-109.794289	-47.155101	79.181574	-47.155101	79.181574	-0.161467	-120.788386
4.550000	-0.154889	-110.854163	-46.932106	77.432890	-46.932106	77.432890	-0.163680	-121.905486
4.600000	-0.157147	-111.911139	-46.713068	75.686379	-46.713068	75.686379	-0.165920	-123.018726
4.650000	-0.159434	-112.965270	-46.497893	73.942101	-46.497893	73.942101	-0.168187	-124.128179
4.700000	-0.161751	-114.016611	-46.286491	72.200112	-46.286491	72.200112	-0.170481	-125.233922
4.750000	-0.164099	-115.065217	-46.078774	70.460466	-46.078774	70.460466	-0.172803	-126.336030
4.800000	-0.166476	-116.111144	-45.874658	68.723214	-45.874658	68.723214	-0.175152	-127.434581
4.850000	-0.168885	-117.154450	-45.674063	66.988403	-45.674063	66.988403	-0.177530	-128.529651
4.900000	-0.171326	-118.195193	-45.476911	65.256078	-45.476911	65.256078	-0.179935	-129.621318
4.950000	-0.173797	-119.233432	-45.283126	63.526282	-45.283126	63.526282	-0.182369	-130.709660
5.000000	-0.176301	-120.269226	-45.092636	61.799056	-45.092636	61.799056	-0.184831	-131.794756
5.050000	-0.178839	-121.302535	-44.905337	60.074553	-44.905337	60.074553	-0.187324	-132.876550
5.100000	-0.181409	-122.333526	-44.721200	58.352697	-44.721200	58.352697	-0.189845	-133.955263
5.150000	-0.184012	-123.362261	-44.540162	56.633522	-44.540162	56.633522	-0.192396	-135.030975
5.200000	-0.186648	-124.388803	-44.362158	54.917060	-44.362158	54.917060	-0.194975	-136.103765
5.250000	-0.189318	-125.413215	-44.187127	53.203341	-44.187127	53.203341	-0.197585	-137.173713
5.300000	-0.192022	-126.435560	-44.015009	51.492394	-44.015009	51.492394	-0.200223	-138.240901
5.350000	-0.194760	-127.455903	-43.845747	49.784243	-43.845747	49.784243	-0.202892	-139.305408
5.400000	-0.197532	-128.474309	-43.679284	48.078913	-43.679284	48.078913	-0.205590	-140.367316
5.450000	-0.200339	-129.490844	-43.515567	46.376427	-43.515567	46.376427	-0.208318	-141.426705
5.500000	-0.203181	-130.505574	-43.354544	44.676804	-43.354544	44.676804	-0.211075	-142.483656
5.550000	-0.206059	-131.518565	-43.196163	42.980062	-43.196163	42.980062	-0.213863	-143.538251
5.600000	-0.208971	-132.529885	-43.040375	41.286218	-43.040375	41.286218	-0.216681	-144.590571
5.650000	-0.211920	-133.539602	-42.887132	39.595285	-42.887132	39.595285	-0.219529	-145.640697
5.700000	-0.214904	-134.547783	-42.736389	37.907277	-42.736389	37.907277	-0.222406	-146.688711
5.750000	-0.217924	-135.554499	-42.588100	36.222202	-42.588100	36.222202	-0.225314	-147.734694
5.800000	-0.220981	-136.559817	-42.442222	34.540070	-42.442222	34.540070	-0.228252	-148.778727
5.850000	-0.224074	-137.563809	-42.298712	32.860886	-42.298712	32.860886	-0.231221	-149.820893
5.900000	-0.227204	-138.566544	-42.157529	31.184654	-42.157529	31.184654	-0.234219	-150.861273
5.950000	-0.230371	-139.568092	-42.018635	29.511377	-42.018635	29.511377	-0.237247	-151.899948
6.000000	-0.233576	-140.568526	-41.881990	27.841053	-41.881990	27.841053	-0.240306	-152.936999
6.050000	-0.236817	-141.567916	-41.747558	26.173683	-41.747558	26.173683	-0.243394	-153.972509
6.100000	-0.240097	-142.566336	-41.615303	24.509261	-41.615303	24.509261	-0.246512	-155.006558
6.150000	-0.243414	-143.563856	-41.485189	22.847782	-41.485189	22.847782	-0.249660	-156.039227
6.200000	-0.246768	-144.560551	-41.357185	21.189239	-41.357185	21.189239	-0.252838	-157.070598
6.250000	-0.250161	-145.556493	-41.231256	19.533623	-41.231256	19.533623	-0.256045	-158.100751
6.300000	-0.253594	-146.551730	-41.107384	17.881049	-41.107384	17.881049	-0.259283	-159.129723
6.350000	-0.257065	-147.546369	-40.985530	16.231377	-40.985530	16.231377	-0.262551	-160.157646
6.400000	-0.260574	-148.540485	-40.865664	14.584594	-40.865664	14.584594	-0.265848	-161.184601
6.450000	-0.264122	-149.534152	-40.747759	12.940684	-40.747759	12.940684	-0.269174	-162.210669
6.500000	-0.267708	-150.527445	-40.631788	11.299630	-40.631788	11.299630	-0.272528	-163.235929
6.550000	-0.271334	-151.520441	-40.517726	9.661415	-40.517726	9.661415	-0.275912	-164.260463
6.600000	-0.274998	-152.513216	-40.405547	8.026022	-40.405547	8.026022	-0.279323	-165.284349
6.650000	-0.278701	-153.505845	-40.295230	6.393430	-40.295230	6.393430	-0.282764	-166.307668
6.700000	-0.282443	-154.498405	-40.186751	4.763619	-40.186751	4.763619	-0.286232	-167.330498
6.750000	-0.286224	-155.490973	-40.080089	3.136571	-40.080089	3.136571	-0.289728	-168.352920
6.800000	-0.290045	-156.483628	-39.975225	1.512263	-39.975225	1.512263	-0.293251	-169.375012
6.850000	-0.293904	-157.476446	-39.872140	-0.109323	-39.872140	-0.109323	-0.296802	-170.396852
6.900000	-0.297803	-158.469505	-39.770816	-1.728209	-39.770816	-1.728209	-0.300380	-171.418520
6.950000	-0.301740	-159.462885	-39.671236	-3.344414	-39.671236	-3.344414	-0.303984	-172.440093
7.000000	-0.305717	-160.456663	-39.573383	-4.957958	-39.573383	-4.957958	-0.307615	-173.461650
7.050000	-0.309734	-161.450918	-39.477245	-6.568859	-39.477245	-6.568859	-0.311271	-174.483267
7.100000	-0.313789	-162.445731	-39.382807	-8.177135	-39.382807	-8.177135	-0.314954	-175.505023
7.150000	-0.317883	-163.441180	-39.290056	-9.782802	-39.290056	-9.782802	-0.318661	-176.526994
7.200000	-0.322017	-164.437345	-39.198981	-11.385875	-39.198981	-11.385875	-0.322393	-177.549257
7.250000	-0.326190	-165.434307	-39.109570	-12.986366	-39.109570	-12.986366	-0.326150	-178.571888
7.300000	-0.330401	-166.432146	-39.021815	-14.584287	-39.021815	-14.584287	-0.329931	-179.594964
7.350000	-0.334651	-167.430943	-38.935707	-16.179647	-38.935707	-16.179647	-0.333735	179.381441
7.400000	-0.338940	-168.430778	-38.851237	-17.772452	-38.851237	-17.772452	-0.337562	178.357252
7.450000	-0.343268	-169.431734	-38.768400	-19.362707	-38.768400	-19.362707	-0.341412	177.332392
7.500000	-0.347634	-170.433892	-38.687187	-20.950411	-38.687187	-20.950411	-0.345283	176.306789
7.550000	-0.352041	-171.437393	-38.607634	-22.535452	-38.607634	-22.535452	-0.349177	175.280328
7.600000	-0.356485	-172.442267	-38.529699	-24.117935	-38.529699	-24.117935	-0.353092	174.252970
7.650000	-0.360967	-173.448596	-38.453379	-25.697849	-38.453379	-25.697849	-0.357027	173.224640
7.700000	-0.365487	-174.456463	-38.378669	-27.275181	-38.378669	-27.275181	-0.360982	172.195267
7.750000	-0.370045	-175.465951	-38.305568	-28.849914	-38.305568	-28.849914	-0.364956	171.164779
7.800000	-0.374640	-176.477142	-38.234075	-30.422026	-38.234075	-30.422026	-0.368948	170.133104
7.850000	-0.379271	-177.490120	-38.164187	-31.991491	-38.164187	-31.991491	-0.372958	169.100170
7.900000	-0.383940	-178.504968	-38.095905	-33.558277	-38.095905	-33.558277	-0.376984	168.065909
7.950000	-0.388645	-179.521769	-38.029229	-35.122350	-38.029229	-35.122350	-0.381027	167.030250
8.000000	-0.393387	179.459392	-37.964158	-36.683669	-37.964158	-36.683669	-0.385086	165.993124
8.050000	-0.398164	178.438432	-37.900693	-38.242188	-37.900693	-38.242188	-0.389159	164.954463
8.100000	-0.402976	177.415268	-37.838836	-39.797857	-37.838836	-39.797857	-0.393247	163.914197
8.150000	-0.407824	176.389815	-37.778589	-41.350620	-37.778589	-41.350620	-0.397347	162.872262
8.200000	-0.412706	175.361989	-37.719952	-42.900416	-37.719952	-42.900416	-0.401460	161.828589
8.250000	-0.417622	174.331706	-37.662927	-44.447178	-37.662927	-44.447178	-0.405584	160.783112
8.300000	-0.422572	173.298882	-37.607518	-45.990835	-37.607518	-45.990835	-0.409718	159.735768
8.350000	-0.427556	172.263432	-37.553725	-47.531308	-37.553725	-47.531308	-0.413862	158.686492
8.400000	-0.432572	171.225273	-37.501552	-49.068514	-37.501552	-49.068514	-0.418015	157.635219
8.450000	-0.437621	170.184320	-37.450999	-50.602366	-37.450999	-50.602366	-0.422175	156.581888
8.500000	-0.442701	169.140489	-37.402070	-52.132770	-37.402070	-52.132770	-0.426342	155.526437
8.550000	-0.447812	168.093696	-37.354765	-53.659625	-37.354765	-53.659625	-0.430515	154.468805
8.600000	-0.452954	167.043856	-37.309088	-55.182829	-37.309088	-55.182829	-0.434692	153.408931
8.650000	-0.458126	165.990887	-37.265038	-56.702270	-37.265038	-56.702270	-0.438872	152.346757
8.700000	-0.463327	164.934703	-37.222618	-58.217835	-37.222618	-58.217835	-0.443055	151.282224
8.750000	-0.468556	163.875222	-37.181827	-59.729405	-37.181827	-59.729405	-0.447239	150.215276
8.800000	-0.473814	162.812210	-37.142731	-61.236669	-37.142731	-61.236669	-0.451423	149.145747
8.850000	-0.479100	161.745726	-37.105265	-62.739671	-37.105265	-62.739671	-0.455606	148.073687
8.900000	-0.484411	160.675689	-37.069431	-64.238279	-37.069431	-64.238279	-0.459786	146.999042
8.950000	-0.489748	159.602015	-37.035225	-65.732355	-37.035225	-65.732355	-0.463963	145.921760
9.000000	-0.495109	158.524623	-37.002646	-67.221757	-37.002646	-67.221757	-0.468134	144.841790
9.050000	-0.500494	157.443430	-36.971692	-68.706341	-36.971692	-68.706341	-0.472299	143.759081
9.100000	-0.505902	156.358357	-36.942359	-70.185958	-36.942359	-70.185958	-0.476456	142.673586
9.150000	-0.511332	155.269323	-36.914642	-71.660458	-36.914642	-71.660458	-0.480604	141.585256
9.200000	-0.516782	154.176246	-36.888537	-73.129687	-36.888537	-73.129687	-0.484742	140.494046
9.250000	-0.522252	153.079049	-36.864039	-74.593489	-36.864039	-74.593489	-0.488868	139.399912
9.300000	-0.527741	151.977653	-36.841140	-76.051707	-36.841140	-76.051707	-0.492980	138.302810
9.350000	-0.533248	150.871979	-36.819833	-77.504182	-36.819833	-77.504182	-0.497078	137.202699
9.400000	-0.538771	149.761951	-36.800110	-78.950754	-36.800110	-78.950754	-0.501159	136.099539
9.450000	-0.544310	148.647491	-36.781961	-80.391262	-36.781961	-80.391262	-0.505223	134.993292
9.500000	-0.549863	147.528526	-36.765377	-81.825545	-36.765377	-81.825545	-0.509267	133.883920
9.550000	-0.555428	146.404980	-36.750347	-83.253441	-36.750347	-83.253441	-0.513291	132.771390
9.600000	-0.561006	145.276781	-36.736859	-84.674789	-36.736859	-84.674789	-0.517292	131.655667
9.650000	-0.566594	144.143856	-36.724900	-86.089429	-36.724900	-86.089429	-0.521269	130.536721
9.700000	-0.572191	143.006134	-36.714456	-87.497202	-36.714456	-87.497202	-0.525220	129.414521
9.750000	-0.577797	141.863546	-36.705513	-88.897951	-36.705513	-88.897951	-0.529144	128.289041
9.800000	-0.583408	140.716023	-36.698056	-90.291519	-36.698056	-90.291519	-0.533039	127.160254
9.850000	-0.589024	139.563499	-36.692067	-91.677753	-36.692067	-91.677753	-0.536904	126.028136
9.900000	-0.594644	138.405909	-36.687530	-93.056501	-36.687530	-93.056501	-0.540736	124.892667
9.950000	-0.600266	137.243188	-36.684427	-94.427617	-36.684427	-94.427617	-0.544534	123.753826
10.000000	-0.605889	136.075276	-36.682739	-95.790954	-36.682739	-95.790954	-0.548296	122.611596
