! freq	dB(S11)	phase(S11)	dB(S12)	phase(S12)	
!     	dB(S21)	phase(S21)	dB(S22)	phase(S22)	
!S-par simulation data
#  GHz  S  DB  R 50
0.000000	-0.000000	-0.000000	-374.884148	180.000000	-374.884148	180.000000	-0.000000	-0.000000
0.050000	-0.000071	-0.857808	-89.446045	-5.787343	-89.446045	-5.787343	-0.000222	-0.772408
0.100000	-0.000281	-1.715563	-89.428632	-1.452985	-89.428632	-1.452985	-0.000850	-1.543835
0.150000	-0.000627	-2.573211	-89.468221	0.628321	-89.468221	0.628321	-0.001789	-2.313579
0.200000	-0.001100	-3.430699	-89.534242	2.122200	-89.534242	2.122200	-0.002923	-3.081354
0.250000	-0.001701	-4.287953	-89.626198	3.345403	-89.626198	3.345403	-0.004155	-3.847055
0.300000	-0.002410	-5.144929	-89.743480	4.426099	-89.743480	4.426099	-0.005401	-4.611090
0.350000	-0.003220	-6.001556	-89.890020	5.395256	-89.890020	5.395256	-0.006623	-5.373660
0.400000	-0.004123	-6.857765	-90.069783	6.271955	-90.069783	6.271955	-0.007796	-6.135041
0.450000	-0.005108	-7.713490	-90.287778	7.064679	-90.287778	7.064679	-0.008915	-6.895466
0.500000	-0.006164	-8.568664	-90.550242	7.776891	-90.550242	7.776891	-0.009982	-7.655107
0.550000	-0.007282	-9.423224	-90.864962	8.409459	-90.864962	8.409459	-0.011003	-8.414085
0.600000	-0.008453	-10.277111	-91.241758	8.961726	-91.241758	8.961726	-0.011987	-9.172478
0.650000	-0.009667	-11.130268	-91.693240	9.431886	-91.693240	9.431886	-0.012943	-9.930329
0.700000	-0.010917	-11.982646	-92.235976	9.816894	-92.235976	9.816894	-0.013877	-10.687660
0.750000	-0.012196	-12.834199	-92.892390	10.111874	-92.892390	10.111874	-0.014798	-11.444473
0.800000	-0.013497	-13.684887	-93.693975	10.308756	-93.693975	10.308756	-0.015709	-12.200761
0.850000	-0.014814	-14.534673	-94.687100	10.393346	-94.687100	10.393346	-0.016616	-12.956508
0.900000	-0.016142	-15.383528	-95.944349	10.338494	-95.944349	10.338494	-0.017521	-13.711696
0.950000	-0.017475	-16.231423	-97.589287	10.085815	-97.589287	10.085815	-0.018427	-14.466301
1.000000	-0.018811	-17.078336	-99.859665	9.483646	-99.859665	9.483646	-0.019336	-15.220300
1.050000	-0.020146	-17.924246	-103.313826	7.950277	-103.313826	7.950277	-0.020250	-15.973667
1.100000	-0.021476	-18.769133	-109.585292	-10.665357	-109.585292	-10.665357	-0.021168	-16.726377
1.150000	-0.022799	-19.612983	-119.771728	-126.804926	-119.771728	-126.804926	-0.022091	-17.478407
1.200000	-0.024113	-20.455781	-105.644878	-162.864302	-105.644878	-162.864302	-0.023020	-18.229731
1.250000	-0.025416	-21.297513	-100.057514	-165.674212	-100.057514	-165.674212	-0.023955	-18.980328
1.300000	-0.026707	-22.138120	-96.442911	-166.885351	-96.442911	-166.885351	-0.024895	-19.730141
1.350000	-0.027985	-22.977635	-93.723319	-167.716018	-93.723319	-167.716018	-0.025840	-20.479179
1.400000	-0.029249	-23.816047	-91.514522	-168.405955	-91.514522	-168.405955	-0.026790	-21.227424
1.450000	-0.030499	-24.653346	-89.637265	-169.044178	-89.637265	-169.044178	-0.027744	-21.974854
1.500000	-0.031735	-25.489518	-87.993297	-169.669834	-87.993297	-169.669834	-0.028701	-22.721451
1.550000	-0.032956	-26.324553	-86.522901	-170.302264	-86.522901	-170.302264	-0.029662	-23.467196
1.600000	-0.034163	-27.158439	-85.187059	-170.951736	-85.187059	-170.951736	-0.030626	-24.212072
1.650000	-0.035357	-27.991163	-83.958861	-171.623916	-83.958861	-171.623916	-0.031592	-24.956062
1.700000	-0.036533	-28.822300	-82.795815	-172.331684	-82.795815	-172.331684	-0.032561	-25.698828
1.750000	-0.037702	-29.652819	-81.740177	-173.053593	-81.740177	-173.053593	-0.033531	-26.441117
1.800000	-0.038856	-30.481872	-80.732942	-173.810095	-80.732942	-173.810095	-0.034503	-27.182262
1.850000	-0.040001	-31.309876	-79.788173	-174.591307	-79.788173	-174.591307	-0.035475	-27.922589
1.900000	-0.041135	-32.136594	-78.887572	-175.402042	-78.887572	-175.402042	-0.036449	-28.661903
1.950000	-0.042258	-32.962024	-78.027643	-176.242298	-78.027643	-176.242298	-0.037424	-29.400204
2.000000	-0.043374	-33.786355	-77.209982	-177.106301	-77.209982	-177.106301	-0.038399	-30.137635
2.050000	-0.044479	-34.609149	-76.417640	-178.003546	-76.417640	-178.003546	-0.039376	-30.873849
2.100000	-0.045581	-35.431270	-75.673093	-178.914474	-75.673093	-178.914474	-0.040352	-31.609530
2.150000	-0.046675	-36.251649	-74.943077	-179.860462	-74.943077	-179.860462	-0.041330	-32.343826
2.200000	-0.047763	-37.070714	-74.238462	179.168452	-74.238462	179.168452	-0.042309	-33.077077
2.250000	-0.048846	-37.888451	-73.557237	178.172957	-73.557237	178.172957	-0.043288	-33.809271
2.300000	-0.049927	-38.704845	-72.897649	177.153737	-72.897649	177.153737	-0.044269	-34.540396
2.350000	-0.051004	-39.519882	-72.258164	176.111473	-72.258164	176.111473	-0.045251	-35.270439
2.400000	-0.052081	-40.333546	-71.637426	175.046832	-71.637426	175.046832	-0.046234	-35.999388
2.450000	-0.053156	-41.145824	-71.034234	173.960473	-71.034234	173.960473	-0.047220	-36.727231
2.500000	-0.054232	-41.956700	-70.447516	172.853038	-70.447516	172.853038	-0.048207	-37.453958
2.550000	-0.055308	-42.766099	-69.875356	171.724297	-69.875356	171.724297	-0.049197	-38.179506
2.600000	-0.056387	-43.574066	-69.317935	170.575781	-69.317935	170.575781	-0.050190	-38.903913
2.650000	-0.057468	-44.380589	-68.774466	169.408090	-68.774466	169.408090	-0.051186	-39.627169
2.700000	-0.058553	-45.185653	-68.244232	168.221810	-68.244232	168.221810	-0.052185	-40.349262
2.750000	-0.059642	-45.989246	-67.726583	167.017517	-67.726583	167.017517	-0.053188	-41.070181
2.800000	-0.060736	-46.791354	-67.220924	165.795775	-67.220924	165.795775	-0.054196	-41.789917
2.850000	-0.061837	-47.591964	-66.726710	164.557134	-66.726710	164.557134	-0.055209	-42.508458
2.900000	-0.062943	-48.391066	-66.243442	163.302138	-66.243442	163.302138	-0.056226	-43.225795
2.950000	-0.064057	-49.188645	-65.770658	162.031319	-65.770658	162.031319	-0.057250	-43.941918
3.000000	-0.065179	-49.984692	-65.307933	160.745202	-65.307933	160.745202	-0.058280	-44.656817
3.050000	-0.066309	-50.779195	-64.854872	159.444302	-64.854872	159.444302	-0.059316	-45.370482
3.100000	-0.067449	-51.572143	-64.411108	158.129130	-64.411108	158.129130	-0.060359	-46.082905
3.150000	-0.068598	-52.363525	-63.976300	156.800187	-63.976300	156.800187	-0.061410	-46.794075
3.200000	-0.069758	-53.153333	-63.550129	155.457970	-63.550129	155.457970	-0.062469	-47.503985
3.250000	-0.070929	-53.941556	-63.132298	154.102970	-63.132298	154.102970	-0.063536	-48.212625
3.300000	-0.072112	-54.728186	-62.722526	152.735673	-62.722526	152.735673	-0.064613	-48.919988
3.350000	-0.073309	-55.512933	-62.318685	151.354647	-62.318685	151.354647	-0.065700	-49.625838
3.400000	-0.074520	-56.295999	-61.922114	149.961803	-61.922114	149.961803	-0.066798	-50.330338
3.450000	-0.075737	-57.078219	-61.537729	148.563476	-61.537729	148.563476	-0.067902	-51.034156
3.500000	-0.076976	-57.857898	-61.154897	147.148703	-61.154897	147.148703	-0.069022	-51.735927
3.550000	-0.078221	-58.637009	-60.785080	145.730612	-60.785080	145.730612	-0.070147	-52.437239
3.600000	-0.079490	-59.413273	-60.415268	144.295927	-60.415268	144.295927	-0.071292	-53.136251
3.650000	-0.080763	-60.189250	-60.059110	142.859747	-60.059110	142.859747	-0.072439	-53.835031
3.700000	-0.082065	-60.962075	-59.701661	141.407129	-59.701661	141.407129	-0.073611	-54.531255
3.750000	-0.083368	-61.734900	-59.358343	139.954511	-59.358343	139.954511	-0.074783	-55.227480
3.800000	-0.084705	-62.504267	-59.012655	138.485899	-59.012655	138.485899	-0.075983	-55.920890
3.850000	-0.086042	-63.273634	-58.680200	137.017287	-58.680200	137.017287	-0.077183	-56.614300
3.900000	-0.087413	-64.039818	-58.346945	135.535752	-58.346945	135.535752	-0.078411	-57.305110
3.950000	-0.088787	-64.805712	-58.024861	134.053041	-58.024861	134.053041	-0.079641	-57.995683
4.000000	-0.090193	-65.568703	-57.703323	132.560122	-57.703323	132.560122	-0.080899	-58.683875
4.050000	-0.091605	-66.331114	-57.391148	131.065160	-57.391148	131.065160	-0.082161	-59.371590
4.100000	-0.093047	-67.090909	-57.080668	129.562354	-57.080668	129.562354	-0.083450	-60.057148
4.150000	-0.094499	-67.849831	-56.777963	128.056933	-56.777963	128.056933	-0.084747	-60.741987
4.200000	-0.095979	-68.606427	-56.477927	126.545694	-56.477927	126.545694	-0.086067	-61.424899
4.250000	-0.097473	-69.361860	-56.184273	125.031545	-56.184273	125.031545	-0.087400	-62.106847
4.300000	-0.098992	-70.115258	-55.894110	123.513273	-55.894110	123.513273	-0.088754	-62.787101
4.350000	-0.100529	-70.867204	-55.609103	121.992057	-55.609103	121.992057	-0.090124	-63.466145
4.400000	-0.102088	-71.617411	-55.328279	120.468100	-55.328279	120.468100	-0.091513	-64.143732
4.450000	-0.103670	-72.365878	-55.051530	118.941402	-55.051530	118.941402	-0.092922	-64.819863
4.500000	-0.105271	-73.112900	-54.779541	117.413045	-54.779541	117.413045	-0.094348	-65.494776
4.550000	-0.106898	-73.857900	-54.510672	115.882367	-54.510672	115.882367	-0.095797	-66.167986
4.600000	-0.108542	-74.601750	-54.247045	114.350832	-54.247045	114.350832	-0.097261	-66.840222
4.650000	-0.110217	-75.343299	-53.985689	112.817584	-53.985689	112.817584	-0.098752	-67.510507
4.700000	-0.111905	-76.083990	-53.729978	111.284022	-53.729978	111.284022	-0.100254	-68.180061
4.750000	-0.113629	-76.822108	-53.475778	109.749521	-53.475778	109.749521	-0.101789	-68.847421
4.800000	-0.115362	-77.559659	-53.227557	108.215012	-53.227557	108.215012	-0.103331	-69.514293
4.850000	-0.117137	-78.294371	-52.980165	106.680471	-52.980165	106.680471	-0.104911	-70.178729
4.900000	-0.118916	-79.028801	-52.739035	105.146018	-52.739035	105.146018	-0.106494	-70.842921
4.950000	-0.120742	-79.760134	-52.498113	103.612547	-52.498113	103.612547	-0.108120	-71.504436
5.000000	-0.122568	-80.491468	-52.263693	102.079075	-52.263693	102.079075	-0.109746	-72.165952
5.050000	-0.124447	-81.219455	-52.028911	100.547675	-52.028911	100.547675	-0.111419	-72.824555
5.100000	-0.126326	-81.947442	-51.800309	99.016275	-51.800309	99.016275	-0.113092	-73.483157
5.150000	-0.128255	-82.672395	-51.571881	97.487591	-51.571881	97.487591	-0.114810	-74.139099
5.200000	-0.130188	-83.397071	-51.348802	95.959154	-51.348802	95.959154	-0.116531	-74.794798
5.250000	-0.132167	-84.119022	-51.126370	94.433839	-51.126370	94.433839	-0.118295	-75.448089
5.300000	-0.134156	-84.840428	-50.908529	92.909149	-50.908529	92.909149	-0.120066	-76.100899
5.350000	-0.136187	-85.559413	-50.691757	91.387772	-50.691757	91.387772	-0.121876	-76.751551
5.400000	-0.138232	-86.277591	-50.478878	89.867500	-50.478878	89.867500	-0.123699	-77.401485
5.450000	-0.140316	-86.993647	-50.267448	88.350550	-50.267448	88.350550	-0.125556	-78.049514
5.500000	-0.142420	-87.708643	-50.059265	86.835261	-50.059265	86.835261	-0.127431	-78.696591
5.550000	-0.144557	-88.421812	-49.852879	85.323146	-49.852879	85.323146	-0.129337	-79.342012
5.600000	-0.146720	-89.133676	-49.649137	83.813299	-49.649137	83.813299	-0.131266	-79.986251
5.650000	-0.148913	-89.844001	-49.447513	82.306351	-49.447513	82.306351	-0.133221	-80.629084
5.700000	-0.151136	-90.552786	-49.247969	80.802302	-49.247969	80.802302	-0.135204	-81.270509
5.750000	-0.153385	-91.260312	-49.050843	79.300775	-49.050843	79.300775	-0.137210	-81.910772
5.800000	-0.155669	-91.966074	-48.855267	77.802781	-48.855267	77.802781	-0.139249	-82.549408
5.850000	-0.157975	-92.670848	-48.662392	76.306859	-48.662392	76.306859	-0.141306	-83.187124
5.900000	-0.160323	-93.373646	-48.470567	74.815082	-48.470567	74.815082	-0.143401	-83.822999
5.950000	-0.162687	-94.075718	-48.281713	73.324877	-48.281713	73.324877	-0.145511	-84.458192
6.000000	-0.165099	-94.775614	-48.093434	71.839390	-48.093434	71.839390	-0.147665	-85.091336
6.050000	-0.167523	-95.475037	-47.908386	70.354949	-47.908386	70.354949	-0.149828	-85.724030
6.100000	-0.170000	-96.172095	-47.723464	68.875741	-47.723464	68.875741	-0.152040	-86.354475
6.150000	-0.172484	-96.868922	-47.542024	67.397048	-47.542024	67.397048	-0.154258	-86.984699
6.200000	-0.175029	-97.563210	-47.360283	65.924026	-47.360283	65.924026	-0.156531	-87.612480
6.250000	-0.177574	-98.257498	-47.182267	64.451005	-47.182267	64.451005	-0.158804	-88.240261
6.300000	-0.180187	-98.949085	-47.003547	62.984007	-47.003547	62.984007	-0.161138	-88.865415
6.350000	-0.182801	-99.640672	-46.828430	61.517008	-46.828430	61.517008	-0.163473	-89.490569
6.400000	-0.185479	-100.329850	-46.652941	60.055319	-46.652941	60.055319	-0.165864	-90.113350
6.450000	-0.188162	-101.018809	-46.480586	58.594112	-46.480586	58.594112	-0.168262	-90.735915
6.500000	-0.190905	-101.705640	-46.308182	57.137487	-46.308182	57.137487	-0.170712	-91.356357
6.550000	-0.193660	-102.392046	-46.138466	55.681779	-46.138466	55.681779	-0.173174	-91.976373
6.600000	-0.196469	-103.076593	-45.969015	54.229933	-45.969015	54.229933	-0.175684	-92.594511
6.650000	-0.199297	-103.760522	-45.801830	52.779374	-45.801830	52.779374	-0.178212	-93.212023
6.700000	-0.202174	-104.442852	-45.635215	51.331983	-45.635215	51.331983	-0.180783	-93.827893
6.750000	-0.205076	-105.124383	-45.470468	49.886177	-45.470468	49.886177	-0.183377	-94.442944
6.800000	-0.208022	-105.804562	-45.306587	48.442886	-45.306587	48.442886	-0.186011	-95.056585
6.850000	-0.210999	-106.483776	-45.144198	47.001391	-45.144198	47.001391	-0.188673	-95.669221
6.900000	-0.214016	-107.161873	-44.982962	45.561814	-44.982962	45.561814	-0.191370	-96.280673
6.950000	-0.217071	-107.838854	-44.822870	44.124155	-44.822870	44.124155	-0.194102	-96.890941
7.000000	-0.220159	-108.514939	-44.664204	42.687884	-44.664204	42.687884	-0.196864	-97.500244
7.050000	-0.223294	-109.189770	-44.506360	41.253554	-44.506360	41.253554	-0.199667	-98.108195
7.100000	-0.226455	-109.863914	-44.350202	39.820158	-44.350202	39.820158	-0.202495	-98.715390
7.150000	-0.229670	-110.536683	-44.194575	38.388628	-44.194575	38.388628	-0.205371	-99.321074
7.200000	-0.232906	-111.208959	-44.040874	36.957662	-44.040874	36.957662	-0.208267	-99.926204
7.250000	-0.236204	-111.879754	-43.887447	35.528388	-43.887447	35.528388	-0.211218	-100.529674
7.300000	-0.239516	-112.550235	-43.736167	34.099398	-43.736167	34.099398	-0.214183	-101.132784
7.350000	-0.242897	-113.219146	-43.584939	32.671825	-43.584939	32.671825	-0.217210	-101.734093
7.400000	-0.246287	-113.887908	-43.436054	31.244348	-43.436054	31.244348	-0.220246	-102.335226
7.450000	-0.249755	-114.555026	-43.287038	29.817921	-43.287038	29.817921	-0.223352	-102.934430
7.500000	-0.253224	-115.222145	-43.140536	28.391495	-43.140536	28.391495	-0.226459	-103.533633
7.550000	-0.256779	-115.887563	-42.993761	26.965666	-42.993761	26.965666	-0.229646	-104.130787
7.600000	-0.260336	-116.552982	-42.849425	25.539837	-42.849425	25.539837	-0.232833	-104.727942
7.650000	-0.263974	-117.216929	-42.705148	24.114067	-42.705148	24.114067	-0.236096	-105.323269
7.700000	-0.267621	-117.880742	-42.563023	22.688301	-42.563023	22.688301	-0.239366	-105.918431
7.750000	-0.271344	-118.543297	-42.421267	21.262162	-42.421267	21.262162	-0.242707	-106.511982
7.800000	-0.275083	-119.205600	-42.281411	19.835949	-42.281411	19.835949	-0.246062	-107.105210
7.850000	-0.278891	-119.866843	-42.142211	18.409039	-42.142211	18.409039	-0.249482	-107.697032
7.900000	-0.282724	-120.527732	-42.004695	16.981897	-42.004695	16.981897	-0.252924	-108.288385
7.950000	-0.286620	-121.187745	-41.868095	15.553842	-41.868095	15.553842	-0.256426	-108.878529
8.000000	-0.290549	-121.847319	-41.733005	14.125332	-41.733005	14.125332	-0.259957	-109.468068
8.050000	-0.294534	-122.506183	-41.599058	12.695795	-41.599058	12.695795	-0.263543	-110.056584
8.100000	-0.298561	-123.164540	-41.466494	11.265525	-41.466494	11.265525	-0.267167	-110.644370
8.150000	-0.302638	-123.822339	-41.335263	9.834210	-41.335263	9.834210	-0.270838	-111.231309
8.200000	-0.306766	-124.479580	-41.205335	8.401849	-41.205335	8.401849	-0.274557	-111.817403
8.250000	-0.310936	-125.136397	-41.076890	6.968507	-41.076890	6.968507	-0.278316	-112.402817
8.300000	-0.315166	-125.792621	-40.949721	5.533791	-40.949721	5.533791	-0.282132	-112.987281
8.350000	-0.319432	-126.448541	-40.824140	4.098228	-40.824140	4.098228	-0.285982	-113.571223
8.400000	-0.323767	-127.103851	-40.699864	2.660969	-40.699864	2.660969	-0.289899	-114.154119
8.450000	-0.328130	-127.758958	-40.577232	1.223051	-40.577232	1.223051	-0.293842	-114.736641
8.500000	-0.332573	-128.413456	-40.455990	-0.216851	-40.455990	-0.216851	-0.297862	-115.318034
8.550000	-0.337035	-129.067835	-40.336398	-1.657193	-40.336398	-1.657193	-0.301901	-115.899187
8.600000	-0.341588	-129.721624	-40.218339	-3.099744	-40.218339	-3.099744	-0.306027	-116.479141
8.650000	-0.346152	-130.375363	-40.101883	-4.542507	-40.101883	-4.542507	-0.310164	-117.058979
8.700000	-0.350816	-131.028547	-39.987165	-5.987611	-39.987165	-5.987611	-0.314400	-117.637557
8.750000	-0.355484	-131.681731	-39.873942	-7.432715	-39.873942	-7.432715	-0.318639	-118.216134
8.800000	-0.360264	-132.334414	-39.762724	-8.880168	-39.762724	-8.880168	-0.322988	-118.793400
8.850000	-0.365046	-132.987098	-39.652913	-10.327620	-39.652913	-10.327620	-0.327340	-119.370666
8.900000	-0.369934	-133.639418	-39.545283	-11.776931	-39.545283	-11.776931	-0.331797	-119.946788
8.950000	-0.374834	-134.291706	-39.439043	-13.226411	-39.439043	-13.226411	-0.336265	-120.522806
9.000000	-0.379833	-134.943752	-39.335105	-14.677216	-39.335105	-14.677216	-0.340833	-121.097839
9.050000	-0.384853	-135.595749	-39.232597	-16.128286	-39.232597	-16.128286	-0.345422	-121.672674
9.100000	-0.389964	-136.247608	-39.132453	-17.580127	-39.132453	-17.580127	-0.350103	-122.246671
9.150000	-0.395108	-136.899421	-39.033836	-19.032226	-39.033836	-19.032226	-0.354817	-122.820388
9.200000	-0.400335	-137.551182	-38.937585	-20.484557	-38.937585	-20.484557	-0.359615	-123.393402
9.250000	-0.405604	-138.202916	-38.843011	-21.937004	-38.843011	-21.937004	-0.364457	-123.966065
9.300000	-0.410949	-138.854667	-38.750746	-23.389187	-38.750746	-23.389187	-0.369376	-124.538151
9.350000	-0.416347	-139.506430	-38.660361	-24.841181	-38.660361	-24.841181	-0.374351	-125.109824
9.400000	-0.421811	-140.158260	-38.572167	-26.292490	-38.572167	-26.292490	-0.379394	-125.681035
9.450000	-0.427342	-140.810158	-38.486106	-27.743114	-38.486106	-27.743114	-0.384506	-126.251782
9.500000	-0.432929	-141.462156	-38.402061	-29.192741	-38.402061	-29.192741	-0.389677	-126.822171
9.550000	-0.438594	-142.114296	-38.320446	-30.640972	-38.320446	-30.640972	-0.394930	-127.392057
9.600000	-0.444306	-142.766552	-38.240619	-32.088031	-38.240619	-32.088031	-0.400232	-127.961676
9.650000	-0.450108	-143.419040	-38.163556	-33.532745	-38.163556	-33.532745	-0.405631	-128.530763
9.700000	-0.455948	-144.071642	-38.088004	-34.976277	-38.088004	-34.976277	-0.411069	-129.099666
9.750000	-0.461892	-144.724587	-38.015582	-36.416264	-38.015582	-36.416264	-0.416619	-129.668018
9.800000	-0.467862	-145.377625	-37.944351	-37.855249	-37.944351	-37.855249	-0.422196	-130.236257
9.850000	-0.473949	-146.031132	-37.876638	-39.289225	-37.876638	-39.289225	-0.427901	-130.803935
9.900000	-0.480052	-146.684694	-37.809762	-40.722588	-37.809762	-40.722588	-0.433623	-131.371563
9.950000	-0.486287	-147.338871	-37.746806	-42.149211	-37.746806	-42.149211	-0.439488	-131.938630
10.000000	-0.492526	-147.993048	-37.684302	-43.575834	-37.684302	-43.575834	-0.445357	-132.505697
