! freq	dB(S11)	phase(S11)	dB(S12)	phase(S12)	
!     	dB(S21)	phase(S21)	dB(S22)	phase(S22)	
!S-par simulation data
#  GHz  S  DB  R 50
0.000000	-84.646183	0.000000	-0.000509	0.000000	-0.000509	0.000000	-84.646183	0.000000
0.050000	-33.796876	-93.158067	-0.004962	-3.025068	-0.004962	-3.025068	-33.792175	-92.696405
0.100000	-27.791446	-96.557377	-0.016465	-6.045484	-0.016465	-6.045484	-27.786116	-95.634973
0.150000	-24.294380	-99.888538	-0.032350	-9.052247	-0.032350	-9.052247	-24.288131	-98.507225
0.200000	-21.828609	-103.188863	-0.051154	-12.042321	-0.051154	-12.042321	-21.821316	-101.350696
0.250000	-19.931778	-106.462708	-0.072431	-15.016288	-0.072431	-15.016288	-19.923435	-104.169648
0.300000	-18.397434	-109.710768	-0.096089	-17.975815	-0.096089	-17.975815	-18.388148	-106.964285
0.350000	-17.114216	-112.934405	-0.122071	-20.922391	-0.122071	-20.922391	-17.104166	-109.735258
0.400000	-16.016194	-116.134113	-0.150420	-23.856075	-0.150420	-23.856075	-16.005572	-112.482400
0.450000	-15.061577	-119.309689	-0.181225	-26.775827	-0.181225	-26.775827	-15.050568	-115.204890
0.500000	-14.220018	-122.463235	-0.214305	-29.681613	-0.214305	-29.681613	-14.208766	-117.904408
0.550000	-13.470680	-125.595572	-0.249557	-32.572640	-0.249557	-32.572640	-13.459289	-120.581499
0.600000	-12.799018	-128.706486	-0.286925	-35.447343	-0.286925	-35.447343	-12.787549	-123.235719
0.650000	-12.192582	-131.797371	-0.326164	-38.305530	-0.326164	-38.305530	-12.181060	-125.868451
0.700000	-11.642060	-134.868946	-0.367069	-41.146748	-0.367069	-41.146748	-11.630482	-128.480426
0.750000	-11.140708	-137.921056	-0.409473	-43.969943	-0.409473	-43.969943	-11.129053	-131.071480
0.800000	-10.682567	-140.954144	-0.453148	-46.774763	-0.453148	-46.774763	-10.670803	-133.642106
0.850000	-10.262589	-143.968790	-0.497854	-49.561176	-0.497854	-49.561176	-10.250682	-136.192943
0.900000	-9.876709	-146.965373	-0.543362	-52.329109	-0.543362	-52.329109	-9.864626	-138.724405
0.950000	-9.521596	-149.944167	-0.589450	-55.078493	-0.589450	-55.078493	-9.509309	-141.236772
1.000000	-9.194358	-152.905545	-0.635894	-57.809452	-0.635894	-57.809452	-9.181847	-143.730412
1.050000	-8.892510	-155.849923	-0.682471	-60.522225	-0.682471	-60.522225	-8.879764	-146.205718
1.100000	-8.613900	-158.777765	-0.728968	-63.217162	-0.728968	-63.217162	-8.600918	-148.663114
1.150000	-8.356649	-161.689587	-0.775174	-65.894711	-0.775174	-65.894711	-8.343438	-151.103066
1.200000	-8.119109	-164.585959	-0.820888	-68.555417	-0.820888	-68.555417	-8.105685	-153.526082
1.250000	-7.899825	-167.467510	-0.865918	-71.199907	-0.865918	-71.199907	-7.886212	-155.932721
1.300000	-7.697883	-170.334479	-0.910038	-73.828407	-0.910038	-73.828407	-7.684112	-158.323096
1.350000	-7.511739	-173.188091	-0.953104	-76.442237	-0.953104	-76.442237	-7.497845	-160.698409
1.400000	-7.340374	-176.029133	-0.994952	-79.042246	-0.994952	-79.042246	-7.326396	-163.059376
1.450000	-7.182874	-178.858436	-1.035428	-81.629342	-1.035428	-81.629342	-7.168854	-165.406758
1.500000	-7.038425	178.323130	-1.074389	-84.204485	-1.074389	-84.204485	-7.024405	-167.741369
1.550000	-6.906296	175.514656	-1.111700	-86.768679	-1.111700	-86.768679	-6.892319	-170.064065
1.600000	-6.785833	172.715199	-1.147239	-89.322970	-1.147239	-89.322970	-6.771941	-172.375746
1.650000	-6.676448	169.923789	-1.180892	-91.868441	-1.180892	-91.868441	-6.662683	-174.677354
1.700000	-6.577619	167.139426	-1.212556	-94.406205	-1.212556	-94.406205	-6.564019	-176.969871
1.750000	-6.488878	164.361092	-1.242136	-96.937406	-1.242136	-96.937406	-6.475479	-179.254317
1.800000	-6.409809	161.587747	-1.269548	-99.463211	-1.269548	-99.463211	-6.396645	178.468255
1.850000	-6.340046	158.818335	-1.294719	-101.984811	-1.294719	-101.984811	-6.327146	176.196756
1.900000	-6.279264	156.051788	-1.317582	-104.503415	-1.317582	-104.503415	-6.266656	173.930063
1.950000	-6.227182	153.287027	-1.338082	-107.020250	-1.338082	-107.020250	-6.214889	171.667025
2.000000	-6.183557	150.522965	-1.356170	-109.536558	-1.356170	-109.536558	-6.171600	169.406457
2.050000	-6.148185	147.758510	-1.371808	-112.053597	-1.371808	-112.053597	-6.136580	167.147147
2.100000	-6.120894	144.992567	-1.384967	-114.572634	-1.384967	-114.572634	-6.109656	164.887850
2.150000	-6.101547	142.224042	-1.395625	-117.094949	-1.395625	-117.094949	-6.090689	162.627295
2.200000	-6.090041	139.451840	-1.403769	-119.621834	-1.403769	-119.621834	-6.079572	160.364179
2.250000	-6.086302	136.674875	-1.409394	-122.154588	-1.409394	-122.154588	-6.076233	158.097169
2.300000	-6.090290	133.892066	-1.412504	-124.694520	-1.412504	-124.694520	-6.080629	155.824901
2.350000	-6.101992	131.102343	-1.413110	-127.242947	-1.413110	-127.242947	-6.092748	153.545977
2.400000	-6.121428	128.304649	-1.411232	-129.801197	-1.411232	-129.801197	-6.112612	151.258968
2.450000	-6.148647	125.497946	-1.406897	-132.370602	-1.406897	-132.370602	-6.140271	148.962403
2.500000	-6.183729	122.681216	-1.400143	-134.952504	-1.400143	-134.952504	-6.175807	146.654777
2.550000	-6.227124	119.852942	-1.390911	-137.548921	-1.390911	-137.548921	-6.219678	144.333915
2.600000	-6.278639	117.012604	-1.379362	-140.160666	-1.379362	-140.160666	-6.271695	141.998695
2.650000	-6.338449	114.159286	-1.365555	-142.789107	-1.365555	-142.789107	-6.332038	139.647462
2.700000	-6.406761	111.292115	-1.349563	-145.435617	-1.349563	-145.435617	-6.400925	137.278502
2.750000	-6.483815	108.410274	-1.331463	-148.101580	-1.331463	-148.101580	-6.478605	134.890037
2.800000	-6.569885	105.513011	-1.311344	-150.788386	-1.311344	-150.788386	-6.565366	132.480215
2.850000	-6.665283	102.599649	-1.289303	-153.497434	-1.289303	-153.497434	-6.661533	130.047100
2.900000	-6.770356	99.669602	-1.265443	-156.230131	-1.265443	-156.230131	-6.767471	127.588662
2.950000	-6.885489	96.722391	-1.239882	-158.987895	-1.239882	-158.987895	-6.883585	125.102759
3.000000	-7.011106	93.757663	-1.212742	-161.772151	-1.212742	-161.772151	-7.010324	122.587121
3.050000	-7.147676	90.775214	-1.184157	-164.584337	-1.184157	-164.584337	-7.148183	120.039328
3.100000	-7.295706	87.775017	-1.154269	-167.425901	-1.154269	-167.425901	-7.297703	117.456780
3.150000	-7.455748	84.757256	-1.123231	-170.298303	-1.123231	-170.298303	-7.459476	114.836671
3.200000	-7.628398	81.722364	-1.091206	-173.203020	-1.091206	-173.203020	-7.634144	112.175940
3.250000	-7.814297	78.671066	-1.058363	-176.141544	-1.058363	-176.141544	-7.822403	109.471224
3.300000	-8.014128	75.604443	-1.024885	-179.115391	-1.024885	-179.115391	-8.025001	106.718794
3.350000	-8.228054	72.524650	-0.990981	177.876151	-0.990981	177.876151	-8.242160	103.917829
3.400000	-8.457639	69.432506	-0.956804	174.828464	-0.956804	174.828464	-8.475565	101.059360
3.450000	-8.704230	66.330400	-0.922579	171.737396	-0.922579	171.737396	-8.726718	98.133701
3.500000	-8.967344	63.222721	-0.888536	168.606786	-0.888536	168.606786	-8.995212	95.143346
3.550000	-9.248511	60.113352	-0.854910	165.431617	-0.854910	165.431617	-9.282799	92.075490
3.600000	-9.548355	57.007508	-0.821926	162.210916	-0.821926	162.210916	-9.590308	88.923079
3.650000	-9.867265	53.911335	-0.789799	158.944550	-0.789799	158.944550	-9.918366	85.679434
3.700000	-10.206620	50.834190	-0.758862	155.625746	-0.758862	155.625746	-10.268785	82.322460
3.750000	-10.565815	47.781902	-0.729183	152.260103	-0.729183	152.260103	-10.641188	78.855446
3.800000	-10.946097	44.773684	-0.701330	148.833776	-0.701330	148.833776	-11.037640	75.231905
3.850000	-11.346297	41.814052	-0.675217	145.355666	-0.675217	145.355666	-11.457261	71.461151
3.900000	-11.765645	38.928660	-0.651411	141.813554	-0.651411	141.813554	-11.900326	67.489407
3.950000	-12.202355	36.128897	-0.629974	138.209681	-0.629974	138.209681	-12.365726	63.303174
4.000000	-12.652875	33.439534	-0.611293	134.537124	-0.611293	134.537124	-12.850983	58.852901
4.050000	-13.111680	30.885113	-0.595726	130.789271	-0.595726	130.789271	-13.351619	54.084414
4.100000	-13.572577	28.475519	-0.583356	126.965812	-0.583356	126.965812	-13.862021	48.967714
4.150000	-14.020116	26.248396	-0.575037	123.047543	-0.575037	123.047543	-14.367240	43.383588
4.200000	-14.446110	24.178251	-0.570510	119.041072	-0.570510	119.041072	-14.857882	37.346443
4.250000	-14.818733	22.276015	-0.571176	114.914194	-0.571176	114.914194	-15.298453	30.694243
4.300000	-15.125130	20.463422	-0.576851	110.671804	-0.576851	110.671804	-15.670397	23.491142
4.350000	-15.324756	18.637406	-0.589137	106.279184	-0.589137	106.279184	-15.921047	15.686286
4.400000	-15.393256	16.632947	-0.608940	101.720469	-0.608940	101.720469	-16.013449	7.401119
4.450000	-15.301330	14.219316	-0.638169	96.963518	-0.638169	96.963518	-15.904484	-1.188048
4.500000	-15.014624	11.087338	-0.680371	91.952891	-0.680371	91.952891	-15.548270	-9.849191
4.550000	-14.540946	7.051132	-0.738235	86.665514	-0.738235	86.665514	-14.959725	-18.346503
4.600000	-13.846771	1.737356	-0.820666	80.993855	-0.820666	80.993855	-14.109759	-26.488050
4.650000	-12.934929	-5.043011	-0.939210	74.843994	-0.939210	74.843994	-13.021688	-34.248047
4.700000	-11.814027	-13.414755	-1.112935	68.091885	-1.112935	68.091885	-11.725738	-41.777458
4.750000	-10.503257	-23.456455	-1.373230	60.584568	-1.373230	60.584568	-10.259186	-49.371831
4.800000	-9.025018	-35.292053	-1.778254	52.112927	-1.778254	52.112927	-8.655954	-57.455853
4.850000	-7.438049	-49.007983	-2.426193	42.502442	-2.426193	42.502442	-6.980487	-66.523204
4.900000	-5.841576	-64.645033	-3.481680	31.747752	-3.481680	31.747752	-5.331348	-77.006201
4.950000	-4.373911	-82.056764	-5.214799	20.358886	-5.214799	20.358886	-3.841866	-89.083643
5.000000	-3.187707	-100.662722	-8.053435	10.203310	-8.053435	10.203310	-2.657703	-102.419737
5.050000	-2.387014	-119.379044	-12.677305	7.481226	-12.677305	7.481226	-1.875833	-116.096441
5.100000	-1.961707	-137.004770	-18.614826	37.419065	-18.614826	37.419065	-1.479676	-129.005905
5.150000	-1.813227	-152.774714	-16.137405	86.207248	-16.137405	86.207248	-1.365838	-140.425006
5.200000	-1.825817	-166.470060	-12.110387	94.017822	-12.110387	94.017822	-1.415186	-150.148221
5.250000	-1.908142	-178.295100	-9.760666	91.234398	-9.760666	91.234398	-1.534148	-158.363682
5.300000	-2.007686	171.446091	-8.337232	86.206945	-8.337232	86.206945	-1.668891	-165.353895
5.350000	-2.098527	162.409164	-7.421193	80.789595	-7.421193	80.789595	-1.792864	-171.425580
5.400000	-2.170184	154.349499	-6.813259	75.462919	-6.813259	75.462919	-1.895260	-176.795585
5.450000	-2.218899	147.096179	-6.408961	70.372247	-6.408961	70.372247	-1.972115	178.383744
5.500000	-2.246917	140.453177	-6.135085	65.524632	-6.135085	65.524632	-2.025904	173.956369
5.550000	-2.256725	134.307126	-5.953423	60.903696	-5.953423	60.903696	-2.059252	169.832304
5.600000	-2.250595	128.586662	-5.841452	56.492884	-5.841452	56.492884	-2.074515	165.953574
5.650000	-2.232028	123.205800	-5.779466	52.258100	-5.779466	52.258100	-2.075476	162.259663
5.700000	-2.203548	118.111684	-5.755928	48.176544	-5.755928	48.176544	-2.064841	158.713407
5.750000	-2.167377	113.261691	-5.762433	44.228219	-5.762433	44.228219	-2.045010	155.285975
5.800000	-2.125168	108.628881	-5.793678	40.400130	-5.793678	40.400130	-2.017760	151.958575
5.850000	-2.078700	104.178467	-5.844188	36.674065	-5.844188	36.674065	-1.985060	148.710403
5.900000	-2.029404	99.877543	-5.909559	33.032123	-5.909559	33.032123	-1.948531	145.523781
5.950000	-1.978044	95.717739	-5.988152	29.469869	-5.988152	29.469869	-1.908996	142.392163
6.000000	-1.925447	91.683356	-6.077820	25.978528	-6.077820	25.978528	-1.867385	139.306497
6.050000	-1.872274	87.761195	-6.176855	22.550553	-6.176855	22.550553	-1.824450	136.259292
6.100000	-1.819053	83.940058	-6.283884	19.179402	-6.283884	19.179402	-1.780799	133.244242
6.150000	-1.766199	80.210355	-6.397794	15.859338	-6.397794	15.859338	-1.736917	130.255947
6.200000	-1.714037	76.563804	-6.517675	12.585284	-6.517675	12.585284	-1.693192	127.289711
6.250000	-1.662822	72.993186	-6.642779	9.352697	-6.642779	9.352697	-1.649931	124.341372
6.300000	-1.612790	69.494920	-6.772581	6.158920	-6.772581	6.158920	-1.607408	121.407641
6.350000	-1.564054	66.060167	-6.906437	2.998438	-6.906437	2.998438	-1.565793	118.484350
6.400000	-1.516716	62.683966	-7.043944	-0.132181	-7.043944	-0.132181	-1.525228	115.568336
6.450000	-1.470847	59.361827	-7.184774	-3.236149	-7.184774	-3.236149	-1.485818	112.656609
6.500000	-1.426496	56.089656	-7.328665	-6.316500	-7.328665	-6.316500	-1.447643	109.746296
6.550000	-1.383691	52.863684	-7.475414	-9.376130	-7.475414	-9.376130	-1.410761	106.834602
6.600000	-1.342444	49.680406	-7.624871	-12.417830	-7.624871	-12.417830	-1.375213	103.918774
6.650000	-1.302757	46.536535	-7.776934	-15.444319	-7.776934	-15.444319	-1.341025	100.996068
6.700000	-1.264781	43.432771	-7.931521	-18.457160	-7.931521	-18.457160	-1.308362	98.062233
6.750000	-1.228053	40.355273	-8.088707	-21.462286	-8.088707	-21.462286	-1.276822	95.118389
6.800000	-1.192849	37.309168	-8.248483	-24.459367	-8.248483	-24.459367	-1.246675	92.159972
6.850000	-1.159455	34.296831	-8.410852	-27.451156	-8.410852	-27.451156	-1.218229	89.178470
6.900000	-1.127319	31.305014	-8.576083	-30.441965	-8.576083	-30.441965	-1.190980	86.178014
6.950000	-1.096424	28.332512	-8.744317	-33.433002	-8.744317	-33.433002	-1.164926	83.157179
7.000000	-1.067247	25.384162	-8.915740	-36.428401	-8.915740	-36.428401	-1.140575	80.101856
7.050000	-1.039450	22.451414	-9.090758	-39.431573	-9.090758	-39.431573	-1.117633	77.013245
7.100000	-1.012818	19.529921	-9.269666	-42.443410	-9.269666	-42.443410	-1.095898	73.893775
7.150000	-0.987429	16.618939	-9.452812	-45.466596	-9.452812	-45.466596	-1.075479	70.738193
7.200000	-0.963741	13.716961	-9.641223	-48.512259	-9.641223	-48.512259	-1.056951	67.522909
7.250000	-0.940927	10.817158	-9.834778	-51.571697	-9.834778	-51.571697	-1.039411	64.274278
7.300000	-0.919620	7.917913	-10.034979	-54.659490	-10.034979	-54.659490	-1.023653	60.960682
7.350000	-0.899606	5.014568	-10.242544	-57.776395	-10.242544	-57.776395	-1.009487	57.584565
7.400000	-0.880841	2.103042	-10.458496	-60.925806	-10.458496	-60.925806	-0.996925	54.141587
7.450000	-0.863466	-0.822555	-10.684593	-64.116256	-10.684593	-64.116256	-0.986226	50.616906
7.500000	-0.847312	-3.764930	-10.921719	-67.346594	-10.921719	-67.346594	-0.977227	47.014700
7.550000	-0.832714	-6.734822	-11.173230	-70.632786	-11.173230	-70.632786	-0.970494	43.305734
7.600000	-0.819445	-9.733198	-11.440046	-73.969970	-11.440046	-73.969970	-0.965766	39.500183
7.650000	-0.807833	-12.772923	-11.726607	-77.373743	-11.726607	-77.373743	-0.963621	35.568597
7.700000	-0.797855	-15.858540	-12.035599	-80.844632	-12.035599	-80.844632	-0.964086	31.509054
7.750000	-0.789758	-19.001973	-12.372254	-84.392378	-12.372254	-84.392378	-0.967606	27.300353
7.800000	-0.783817	-22.215971	-12.742916	-88.025291	-12.742916	-88.025291	-0.974652	22.921345
7.850000	-0.780169	-25.507907	-13.153498	-91.742622	-13.153498	-91.742622	-0.985431	18.365305
7.900000	-0.779595	-28.905954	-13.617689	-95.560796	-13.617689	-95.560796	-1.001134	13.581306
7.950000	-0.782100	-32.409776	-14.142911	-99.464043	-14.142911	-99.464043	-1.021646	8.581513
8.000000	-0.789170	-36.066479	-14.755137	-103.462207	-14.755137	-103.462207	-1.048991	3.285335
8.050000	-0.801003	-39.876391	-15.470639	-107.520754	-15.470639	-107.520754	-1.083129	-2.293555
8.100000	-0.819580	-43.891605	-16.332174	-111.594918	-16.332174	-111.594918	-1.126286	-8.232745
8.150000	-0.846248	-48.137611	-17.388441	-115.581450	-17.388441	-115.581450	-1.179526	-14.556779
8.200000	-0.883087	-52.653248	-18.718948	-119.268822	-18.718948	-119.268822	-1.244454	-21.306716
8.250000	-0.933984	-57.513362	-20.470267	-122.112543	-20.470267	-122.112543	-1.324067	-28.569432
8.300000	-1.002805	-62.776152	-22.884477	-122.742777	-22.884477	-122.742777	-1.420438	-36.390914
8.350000	-1.095819	-68.537736	-26.368032	-116.211862	-26.368032	-116.211862	-1.536668	-44.850375
8.400000	-1.219048	-74.872355	-30.391799	-86.213129	-30.391799	-86.213129	-1.674329	-53.976059
8.450000	-1.382618	-81.919483	-28.270474	-38.343208	-28.270474	-38.343208	-1.835988	-63.840185
8.500000	-1.599185	-89.850142	-23.304021	-23.910764	-23.304021	-23.910764	-2.022673	-74.490665
8.550000	-1.879808	-98.807953	-19.606467	-24.500231	-19.606467	-24.500231	-2.231810	-85.895098
8.600000	-2.240490	-109.060044	-16.863495	-30.589259	-16.863495	-30.589259	-2.458525	-98.033775
8.650000	-2.692904	-120.908420	-14.775289	-39.373816	-14.775289	-39.373816	-2.691898	-110.799724
8.700000	-3.237178	-134.686160	-13.186723	-49.836781	-13.186723	-49.836781	-2.915190	-124.010302
8.750000	-3.850997	-150.787569	-12.022693	-61.498160	-12.022693	-61.498160	-3.106510	-137.439785
8.800000	-4.465815	-169.591138	-11.256542	-74.030814	-11.256542	-74.030814	-3.240043	-150.836589
8.850000	-4.955042	168.974492	-10.873168	-87.101939	-10.873168	-87.101939	-3.295172	-163.978389
8.900000	-5.164704	145.699278	-10.871151	-100.374066	-10.871151	-100.374066	-3.260706	-176.713648
8.950000	-5.010866	122.216379	-11.250073	-113.473694	-11.250073	-113.473694	-3.141031	171.036484
9.000000	-4.558039	100.302920	-12.003252	-126.007313	-12.003252	-126.007313	-2.956230	159.307783
9.050000	-3.963537	80.972819	-13.115521	-137.603964	-13.115521	-137.603964	-2.735021	148.127429
9.100000	-3.363201	64.416778	-14.574383	-147.916599	-14.574383	-147.916599	-2.504171	137.537720
9.150000	-2.829744	50.339318	-16.378022	-156.626243	-16.378022	-156.626243	-2.282776	127.569512
9.200000	-2.388002	38.396929	-18.545464	-163.238892	-18.545464	-163.238892	-2.081701	118.259187
9.250000	-2.034196	28.171798	-21.129637	-166.972835	-21.129637	-166.972835	-1.904610	109.592419
9.300000	-1.756356	19.359576	-24.191306	-165.939883	-24.191306	-165.939883	-1.751614	101.551865
9.350000	-1.538735	11.671940	-27.644833	-156.180128	-27.644833	-156.180128	-1.620207	94.084502
9.400000	-1.369353	4.922521	-30.244744	-131.711660	-30.244744	-131.711660	-1.508068	87.155355
9.450000	-1.237091	-1.062914	-29.744349	-103.194388	-29.744349	-103.194388	-1.412310	80.711497
9.500000	-1.133061	-6.427498	-27.610213	-87.538155	-27.610213	-87.538155	-1.330211	74.697261
9.550000	-1.050820	-11.277426	-25.619670	-81.505566	-25.619670	-81.505566	-1.259600	69.066155
9.600000	-0.985474	-15.697746	-24.060902	-79.965483	-24.060902	-79.965483	-1.198662	63.775980
9.650000	-0.933322	-19.756893	-22.859316	-80.503932	-22.859316	-80.503932	-1.145903	58.789077
9.700000	-0.891556	-23.510238	-21.921327	-82.064414	-21.921327	-82.064414	-1.100096	54.072190
9.750000	-0.858040	-27.002850	-21.177284	-84.149512	-21.177284	-84.149512	-1.060237	49.596138
9.800000	-0.831355	-30.263681	-20.581747	-86.510266	-20.581747	-86.510266	-1.025682	45.343472
9.850000	-0.809735	-33.341894	-20.092979	-88.998076	-20.092979	-88.998076	-0.995333	41.273153
9.900000	-0.792523	-36.251361	-19.691317	-91.544810	-19.691317	-91.544810	-0.968886	37.376922
9.950000	-0.778953	-39.013319	-19.358792	-94.104401	-19.358792	-94.104401	-0.945873	33.637721
10.000000	-0.768423	-41.645595	-19.081970	-96.649778	-19.081970	-96.649778	-0.925906	30.040634
