! freq	dB(S11)	phase(S11)	dB(S12)	phase(S12)	
!     	dB(S21)	phase(S21)	dB(S22)	phase(S22)	
!S-par simulation data
#  GHz  S  DB  R 50
0.000000	-0.000000	0.000000	-382.483122	180.000000	-382.483122	180.000000	-0.000000	0.000000
0.050000	-0.000154	-0.806371	-98.361799	-7.150293	-98.361799	-7.150293	-0.000120	-0.808146
0.100000	-0.000606	-1.612273	-98.108415	4.007674	-98.108415	4.007674	-0.000475	-1.615964
0.150000	-0.001325	-2.417293	-97.925334	10.868628	-97.925334	10.868628	-0.001044	-2.423157
0.200000	-0.002263	-3.221133	-97.724451	16.340867	-97.724451	16.340867	-0.001797	-3.229498
0.250000	-0.003382	-4.023498	-97.510319	20.946513	-97.510319	20.946513	-0.002711	-4.034750
0.300000	-0.004614	-4.824426	-97.300401	24.956871	-97.300401	24.956871	-0.003737	-4.838908
0.350000	-0.005922	-5.623850	-97.110242	28.443532	-97.110242	28.443532	-0.004849	-5.641887
0.400000	-0.007265	-6.421827	-96.955396	31.489714	-96.955396	31.489714	-0.006019	-6.443687
0.450000	-0.008615	-7.218449	-96.850193	34.171749	-96.850193	34.171749	-0.007223	-7.244342
0.500000	-0.009949	-8.013832	-96.808153	36.565412	-96.808153	36.565412	-0.008442	-8.043908
0.550000	-0.011253	-8.808092	-96.842762	38.749388	-96.842762	38.749388	-0.009662	-8.842445
0.600000	-0.012517	-9.601339	-96.968476	40.809496	-96.968476	40.809496	-0.010873	-9.640017
0.650000	-0.013738	-10.393668	-97.201953	42.845687	-97.201953	42.845687	-0.012070	-10.436681
0.700000	-0.014916	-11.185160	-97.563629	44.984349	-97.563629	44.984349	-0.013249	-11.232489
0.750000	-0.016051	-11.975877	-98.079753	47.400774	-98.079753	47.400774	-0.014409	-12.027480
0.800000	-0.017147	-12.765869	-98.784942	50.362478	-98.784942	50.362478	-0.015549	-12.821686
0.850000	-0.018207	-13.555168	-99.724521	54.318121	-99.724521	54.318121	-0.016670	-13.615130
0.900000	-0.019235	-14.343797	-100.951956	60.089415	-100.951956	60.089415	-0.017773	-14.407826
0.950000	-0.020236	-15.131767	-102.498100	69.269789	-102.498100	69.269789	-0.018861	-15.199780
1.000000	-0.021214	-15.919081	-104.217200	84.691706	-104.217200	84.691706	-0.019935	-15.990995
1.050000	-0.022173	-16.705736	-105.348444	109.042334	-105.348444	109.042334	-0.020997	-16.781466
1.100000	-0.023116	-17.491724	-104.542395	138.406549	-104.542395	138.406549	-0.022048	-17.571185
1.150000	-0.024047	-18.277031	-102.014322	160.797744	-102.014322	160.797744	-0.023091	-18.360143
1.200000	-0.024968	-19.061641	-99.187151	173.750961	-99.187151	173.750961	-0.024126	-19.148326
1.250000	-0.025882	-19.845537	-96.627436	-178.910055	-96.627436	-178.910055	-0.025155	-19.935719
1.300000	-0.026792	-20.628663	-94.377970	-174.633422	-94.377970	-174.633422	-0.026179	-20.722269
1.350000	-0.027699	-21.411030	-92.402587	-171.988310	-92.402587	-171.988310	-0.027198	-21.507993
1.400000	-0.028606	-22.192615	-90.643487	-170.354779	-90.643487	-170.354779	-0.028215	-22.292873
1.450000	-0.029514	-22.973393	-89.056073	-169.387661	-89.056073	-169.387661	-0.029229	-23.076889
1.500000	-0.030423	-23.753342	-87.607222	-168.882777	-87.607222	-168.882777	-0.030241	-23.860024
1.550000	-0.031336	-24.532437	-86.272254	-168.712578	-86.272254	-168.712578	-0.031252	-24.642258
1.600000	-0.032253	-25.310654	-85.032507	-168.793524	-85.032507	-168.793524	-0.032262	-25.423572
1.650000	-0.033175	-26.087970	-83.873610	-169.068630	-83.873610	-169.068630	-0.033272	-26.203947
1.700000	-0.034104	-26.864029	-82.760356	-169.537698	-82.760356	-169.537698	-0.034281	-26.983022
1.750000	-0.035037	-27.639596	-81.742279	-170.076334	-81.742279	-170.076334	-0.035290	-27.761592
1.800000	-0.035977	-28.413970	-80.762732	-170.731854	-80.762732	-170.731854	-0.036300	-28.538941
1.850000	-0.036924	-29.187492	-79.838693	-171.470863	-79.838693	-171.470863	-0.037310	-29.315420
1.900000	-0.037878	-29.959943	-78.953773	-172.280722	-78.953773	-172.280722	-0.038320	-30.090814
1.950000	-0.038840	-30.731322	-78.105578	-173.161430	-78.105578	-173.161430	-0.039332	-30.865125
2.000000	-0.039808	-31.501772	-77.297100	-174.085979	-77.297100	-174.085979	-0.040345	-31.638502
2.050000	-0.040786	-32.270918	-76.511706	-175.071904	-76.511706	-175.071904	-0.041360	-32.410571
2.100000	-0.041769	-33.039292	-75.766490	-176.084857	-75.766490	-176.084857	-0.042375	-33.181869
2.150000	-0.042762	-33.806118	-75.034200	-177.151863	-75.034200	-177.151863	-0.043394	-33.951625
2.200000	-0.043760	-34.572345	-74.342366	-178.234948	-74.342366	-178.234948	-0.044413	-34.720785
2.250000	-0.044771	-35.336771	-73.655749	-179.366266	-73.655749	-179.366266	-0.045436	-35.488161
2.300000	-0.045783	-36.100784	-73.009681	179.493716	-73.009681	179.493716	-0.046459	-36.255128
2.350000	-0.046810	-36.862732	-72.362899	178.310201	-72.362899	178.310201	-0.047488	-37.020058
2.400000	-0.047838	-37.624469	-71.756590	177.123091	-71.756590	177.123091	-0.048517	-37.784778
2.450000	-0.048880	-38.383869	-71.144958	175.896419	-71.144958	175.896419	-0.049552	-38.547200
2.500000	-0.049923	-39.143270	-70.573577	174.669748	-70.573577	174.669748	-0.050587	-39.309622
2.550000	-0.050982	-39.900057	-69.993269	173.406844	-69.993269	173.406844	-0.051631	-40.069478
2.600000	-0.052041	-40.656843	-69.449315	172.143940	-69.449315	172.143940	-0.052674	-40.829333
2.650000	-0.053114	-41.411179	-68.900706	170.852795	-68.900706	170.852795	-0.053727	-41.586785
2.700000	-0.054189	-42.165291	-68.381559	169.559082	-68.381559	169.559082	-0.054780	-42.344019
2.750000	-0.055277	-42.917128	-67.861323	168.243305	-67.861323	168.243305	-0.055842	-43.099023
2.800000	-0.056367	-43.668510	-67.364763	166.923115	-67.364763	166.923115	-0.056906	-43.853581
2.850000	-0.057470	-44.417806	-66.870100	165.585705	-66.870100	165.585705	-0.057980	-44.606096
2.900000	-0.058576	-45.166407	-66.394226	164.242555	-66.394226	164.242555	-0.059057	-45.357930
2.950000	-0.059694	-45.913123	-65.922751	162.886029	-65.922751	162.886029	-0.060143	-46.107915
3.000000	-0.060816	-46.658897	-65.465920	161.522816	-65.465920	161.522816	-0.061234	-46.856977
3.050000	-0.061949	-47.402997	-65.015586	160.149311	-65.015586	160.149311	-0.062335	-47.604396
3.100000	-0.063088	-48.145901	-64.576366	158.768454	-64.576366	158.768454	-0.063442	-48.350643
3.150000	-0.064236	-48.887353	-64.145399	157.379799	-64.145399	157.379799	-0.064558	-49.095460
3.200000	-0.065393	-49.627351	-63.722531	155.983344	-63.722531	155.983344	-0.065683	-49.838850
3.250000	-0.066556	-50.366125	-63.309386	154.581119	-63.309386	154.581119	-0.066816	-50.581034
3.300000	-0.067731	-51.103184	-62.901758	153.170815	-62.901758	153.170815	-0.067961	-51.321530
3.350000	-0.068911	-51.839253	-62.505075	151.756397	-62.505075	151.756397	-0.069113	-52.061050
3.400000	-0.070104	-52.573344	-62.111700	150.333753	-62.111700	150.333753	-0.070279	-52.798617
3.450000	-0.071302	-53.306687	-61.730278	148.908354	-61.730278	148.908354	-0.071451	-53.535444
3.500000	-0.072514	-54.037784	-61.350271	147.474688	-61.350271	147.474688	-0.072640	-54.270052
3.550000	-0.073730	-54.768379	-60.983045	146.039380	-60.983045	146.039380	-0.073834	-55.004161
3.600000	-0.074964	-55.496462	-60.615612	144.595854	-60.615612	144.595854	-0.075048	-55.735780
3.650000	-0.076199	-56.224292	-60.261630	143.151593	-60.261630	143.151593	-0.076265	-56.467149
3.700000	-0.077455	-56.949343	-59.906052	141.699241	-59.906052	141.699241	-0.077507	-57.195755
3.750000	-0.078711	-57.674393	-59.564461	140.246888	-59.564461	140.246888	-0.078748	-57.924362
3.800000	-0.079990	-58.396397	-59.220089	138.786635	-59.220089	138.786635	-0.080019	-58.649934
3.850000	-0.081270	-59.118400	-58.888852	137.326381	-58.888852	137.326381	-0.081289	-59.375506
3.900000	-0.082572	-59.837601	-58.556361	135.859654	-58.556361	135.859654	-0.082588	-60.098279
3.950000	-0.083877	-60.556547	-58.234954	134.392338	-58.234954	134.392338	-0.083890	-60.820798
4.000000	-0.085205	-61.272939	-57.913629	132.919773	-57.913629	132.919773	-0.085218	-61.540761
4.050000	-0.086537	-61.988819	-57.601573	131.446158	-57.601573	131.446158	-0.086552	-62.260212
4.100000	-0.087891	-62.702396	-57.290767	129.968346	-57.290767	129.968346	-0.087912	-62.977353
4.150000	-0.089253	-63.415206	-56.987619	128.489135	-56.987619	128.489135	-0.089280	-63.693724
4.200000	-0.090635	-64.125967	-56.686740	127.006625	-56.686740	127.006625	-0.090673	-64.408036
4.250000	-0.092028	-64.835705	-56.392092	125.522466	-56.392092	125.522466	-0.092078	-65.121319
4.300000	-0.093440	-65.543650	-56.100601	124.035773	-56.100601	124.035773	-0.093505	-65.832797
4.350000	-0.094866	-66.250315	-55.814074	122.547270	-55.814074	122.547270	-0.094948	-66.542985
4.400000	-0.096310	-66.955446	-55.531473	121.056877	-55.531473	121.056877	-0.096411	-67.251626
4.450000	-0.097771	-67.659043	-55.252718	119.564594	-55.252718	119.564594	-0.097893	-67.958719
4.500000	-0.099249	-68.361364	-54.978550	118.070957	-54.978550	118.070957	-0.099393	-68.664522
4.550000	-0.100748	-69.061898	-54.707237	116.575424	-54.707237	116.575424	-0.100918	-69.368520
4.600000	-0.102261	-69.761415	-54.441082	115.078975	-54.441082	115.078975	-0.102457	-70.071487
4.650000	-0.103801	-70.458895	-54.176903	113.580692	-54.176903	113.580692	-0.104025	-70.772395
4.700000	-0.105351	-71.155614	-53.918370	112.081839	-53.918370	112.081839	-0.105604	-71.472531
4.750000	-0.106934	-71.850051	-53.661038	110.581278	-53.661038	110.581278	-0.107217	-72.170355
4.800000	-0.108524	-72.543982	-53.409764	109.080411	-53.409764	109.080411	-0.108838	-72.867667
4.850000	-0.110151	-73.235388	-53.159009	107.578018	-53.159009	107.578018	-0.110498	-73.562418
4.900000	-0.111782	-73.926543	-52.914657	106.075508	-52.914657	106.075508	-0.112162	-74.256915
4.950000	-0.113456	-74.614934	-52.670221	104.571707	-52.670221	104.571707	-0.113870	-74.948607
5.000000	-0.115131	-75.303324	-52.432476	103.067906	-52.432476	103.067906	-0.115579	-75.640299
5.050000	-0.116855	-75.988717	-52.194119	101.563098	-52.194119	101.563098	-0.117338	-76.328948
5.100000	-0.118579	-76.674110	-51.962128	100.058290	-51.962128	100.058290	-0.119097	-77.017598
5.150000	-0.120351	-77.356773	-51.730178	98.552908	-51.730178	98.552908	-0.120903	-77.703476
5.200000	-0.122128	-78.039187	-51.503731	97.047473	-51.503731	97.047473	-0.122714	-78.389102
5.250000	-0.123949	-78.719138	-51.277905	95.541814	-51.277905	95.541814	-0.124569	-79.072228
5.300000	-0.125779	-79.398595	-51.056802	94.036111	-51.056802	94.036111	-0.126433	-79.754854
5.350000	-0.127652	-80.075853	-50.836833	92.530460	-50.836833	92.530460	-0.128338	-80.435248
5.400000	-0.129539	-80.752378	-50.620883	91.024827	-50.620883	91.024827	-0.130258	-81.114899
5.450000	-0.131466	-81.426964	-50.406520	89.519453	-50.406520	89.519453	-0.132215	-81.792584
5.500000	-0.133411	-82.100581	-50.195540	88.014208	-50.195540	88.014208	-0.134191	-82.469287
5.550000	-0.135393	-82.772519	-49.986547	86.509362	-49.986547	86.509362	-0.136201	-83.144289
5.600000	-0.137399	-83.443256	-49.780362	85.004803	-49.780362	85.004803	-0.138236	-83.818076
5.650000	-0.139437	-84.112569	-49.576515	83.500723	-49.576515	83.500723	-0.140301	-84.490421
5.700000	-0.141507	-84.780456	-49.374958	81.997125	-49.374958	81.997125	-0.142395	-85.161324
5.750000	-0.143603	-85.447169	-49.176047	80.494034	-49.176047	80.494034	-0.144515	-85.831042
5.800000	-0.145738	-86.112238	-48.978956	78.991652	-48.978956	78.991652	-0.146671	-86.499098
5.850000	-0.147894	-86.776379	-48.784781	77.489754	-48.784781	77.489754	-0.148848	-87.166219
5.900000	-0.150095	-87.438664	-48.592003	75.988823	-48.592003	75.988823	-0.151067	-87.831468
5.950000	-0.152314	-88.100261	-48.402375	74.488307	-48.402375	74.488307	-0.153303	-88.496024
6.000000	-0.154583	-88.759797	-48.213761	72.989039	-48.213761	72.989039	-0.155587	-89.158506
6.050000	-0.156864	-89.418881	-48.028501	71.490080	-48.028501	71.490080	-0.157882	-89.820533
6.100000	-0.159203	-90.075706	-47.843908	69.992664	-47.843908	69.992664	-0.160232	-90.480291
6.150000	-0.161549	-90.732309	-47.662847	68.495418	-47.662847	68.495418	-0.162588	-91.139826
6.200000	-0.163960	-91.386462	-47.482140	67.000024	-47.482140	67.000024	-0.165005	-91.796906
6.250000	-0.166372	-92.040616	-47.305116	65.504630	-47.305116	65.504630	-0.167424	-92.453986
6.300000	-0.168856	-92.692140	-47.128163	64.011404	-47.128163	64.011404	-0.169911	-93.108438
6.350000	-0.171340	-93.343665	-46.954744	62.518177	-46.954744	62.518177	-0.172398	-93.762889
6.400000	-0.173892	-93.992819	-46.781700	61.027051	-46.781700	61.027051	-0.174950	-94.414976
6.450000	-0.176451	-94.641758	-46.611768	59.536116	-46.611768	59.536116	-0.177509	-95.066848
6.500000	-0.179073	-95.288581	-46.442487	58.047175	-46.442487	58.047175	-0.180127	-95.716615
6.550000	-0.181708	-95.934980	-46.275931	56.558633	-46.275931	56.558633	-0.182758	-96.365961
6.600000	-0.184399	-96.579512	-46.110273	55.071946	-46.110273	55.071946	-0.185444	-97.013454
6.650000	-0.187111	-97.223420	-45.946985	53.585877	-45.946985	53.585877	-0.188149	-97.660329
6.700000	-0.189874	-97.865701	-45.784819	52.101496	-45.784819	52.101496	-0.190904	-98.305595
6.750000	-0.192664	-98.507169	-45.624697	50.617959	-45.624697	50.617959	-0.193684	-98.950055
6.800000	-0.195499	-99.147243	-45.465899	49.135921	-45.465899	49.135921	-0.196510	-99.593142
6.850000	-0.198367	-99.786321	-45.308847	47.654953	-45.308847	47.654953	-0.199367	-100.235247
6.900000	-0.201276	-100.424233	-45.153300	46.175279	-45.153300	46.175279	-0.202264	-100.876205
6.950000	-0.204224	-101.060978	-44.999228	44.696898	-44.999228	44.696898	-0.205201	-101.516016
7.000000	-0.207206	-101.696774	-44.846822	43.219594	-44.846822	43.219594	-0.208171	-102.154897
7.050000	-0.210235	-102.331242	-44.695644	41.743798	-44.695644	41.743798	-0.211187	-102.792476
7.100000	-0.213292	-102.964970	-44.546277	40.268857	-44.546277	40.268857	-0.214231	-103.429333
7.150000	-0.216402	-103.597219	-44.397912	38.795626	-44.397912	38.795626	-0.217330	-104.064746
7.200000	-0.219534	-104.228929	-44.251488	37.323026	-44.251488	37.323026	-0.220450	-104.699633
7.250000	-0.222727	-104.859021	-44.105863	35.852323	-44.105863	35.852323	-0.223632	-105.332945
7.300000	-0.225935	-105.488764	-43.962291	34.382031	-43.962291	34.382031	-0.226829	-105.965918
7.350000	-0.229212	-106.116761	-43.819338	32.913802	-43.819338	32.913802	-0.230096	-106.597198
7.400000	-0.232496	-106.744590	-43.678535	31.445773	-43.678535	31.445773	-0.233372	-107.228315
7.450000	-0.235856	-107.370560	-43.538192	29.979950	-43.538192	29.979950	-0.236726	-107.857632
7.500000	-0.239218	-107.996529	-43.400081	28.514127	-43.400081	28.514127	-0.240081	-108.486950
7.550000	-0.242663	-108.620537	-43.262292	27.050631	-43.262292	27.050631	-0.243524	-109.114378
7.600000	-0.246110	-109.244546	-43.126655	25.587135	-43.126655	25.587135	-0.246968	-109.741806
7.650000	-0.249634	-109.866821	-42.991517	24.125689	-42.991517	24.125689	-0.250493	-110.367568
7.700000	-0.253166	-110.488938	-42.858308	22.664429	-42.858308	22.664429	-0.254027	-110.993179
7.750000	-0.256770	-111.109540	-42.725760	21.204950	-42.725760	21.204950	-0.257637	-111.617338
7.800000	-0.260389	-111.729838	-42.594938	19.745827	-42.594938	19.745827	-0.261263	-112.241207
7.850000	-0.264073	-112.348828	-42.464924	18.288226	-42.464924	18.288226	-0.264959	-112.863827
7.900000	-0.267779	-112.967381	-42.336455	16.831134	-42.336455	16.831134	-0.268679	-113.486031
7.950000	-0.271544	-113.584822	-42.208925	15.375321	-42.208925	15.375321	-0.272462	-114.107177
8.000000	-0.275339	-114.201707	-42.082782	13.920149	-42.082782	13.920149	-0.276277	-114.727793
8.050000	-0.279186	-114.817664	-41.957694	12.466032	-41.957694	12.466032	-0.280149	-115.347531
8.100000	-0.283071	-115.432958	-41.833854	11.012669	-41.833854	11.012669	-0.284062	-115.966640
8.150000	-0.287001	-116.047498	-41.711170	9.560154	-41.711170	9.560154	-0.288024	-116.585036
8.200000	-0.290977	-116.661282	-41.589619	8.108489	-41.589619	8.108489	-0.292036	-117.202719
8.250000	-0.294992	-117.274472	-41.469307	6.657486	-41.469307	6.657486	-0.296091	-117.819842
8.300000	-0.299060	-117.886829	-41.350035	5.207411	-41.350035	5.207411	-0.300204	-118.436181
8.350000	-0.303160	-118.498739	-41.232070	3.757833	-41.232070	3.757833	-0.304352	-119.052100
8.400000	-0.307322	-119.109752	-41.115076	2.309248	-41.115076	2.309248	-0.308568	-119.667180
8.450000	-0.311509	-119.720452	-40.999436	0.861014	-40.999436	0.861014	-0.312811	-120.281966
8.500000	-0.315767	-120.330209	-40.884723	-0.586172	-40.884723	-0.586172	-0.317132	-120.895871
8.550000	-0.320042	-120.939771	-40.771393	-2.033137	-40.771393	-2.033137	-0.321473	-121.509595
8.600000	-0.324397	-121.548359	-40.658971	-3.479001	-40.658971	-3.479001	-0.325901	-122.122413
8.650000	-0.328763	-122.156857	-40.547941	-4.924761	-40.547941	-4.924761	-0.330340	-122.735148
8.700000	-0.333218	-122.764366	-40.437826	-6.369367	-40.437826	-6.369367	-0.334877	-123.346967
8.750000	-0.337675	-123.371876	-40.329089	-7.813972	-40.329089	-7.813972	-0.339416	-123.958786
8.800000	-0.342232	-123.978397	-40.221302	-9.257363	-40.221302	-9.257363	-0.344064	-124.569695
8.850000	-0.346792	-124.584919	-40.114837	-10.700754	-40.114837	-10.700754	-0.348715	-125.180604
8.900000	-0.351446	-125.190621	-40.009427	-12.143051	-40.009427	-12.143051	-0.353467	-125.790763
8.950000	-0.356110	-125.796249	-39.905260	-13.585248	-39.905260	-13.585248	-0.358231	-126.400854
9.000000	-0.360863	-126.401210	-39.802235	-15.026448	-39.802235	-15.026448	-0.363089	-127.010339
9.050000	-0.365636	-127.006038	-39.700400	-16.467448	-39.700400	-16.467448	-0.367969	-127.619703
9.100000	-0.370490	-127.610339	-39.599771	-17.907526	-39.599771	-17.907526	-0.372935	-128.228593
9.150000	-0.375374	-128.214464	-39.500304	-19.347297	-39.500304	-19.347297	-0.377932	-128.837324
9.200000	-0.380333	-128.818184	-39.402087	-20.786207	-39.402087	-20.786207	-0.383009	-129.445697
9.250000	-0.385332	-129.421703	-39.305030	-22.224685	-39.305030	-22.224685	-0.388126	-130.053890
9.300000	-0.390399	-130.024926	-39.209243	-23.662353	-39.209243	-23.662353	-0.393314	-130.661826
9.350000	-0.395517	-130.627937	-39.114641	-25.099443	-39.114641	-25.099443	-0.398554	-131.269578
9.400000	-0.400695	-131.230745	-39.021304	-26.535770	-39.021304	-26.535770	-0.403856	-131.877157
9.450000	-0.405936	-131.833349	-38.929205	-27.971337	-38.929205	-27.971337	-0.409220	-132.484564
9.500000	-0.411230	-132.435825	-38.838342	-29.406197	-38.838342	-29.406197	-0.414638	-133.091869
9.550000	-0.416599	-133.038122	-38.748796	-30.840069	-38.748796	-30.840069	-0.420130	-133.699031
9.600000	-0.422013	-133.640351	-38.660433	-32.273305	-38.660433	-32.273305	-0.425666	-134.306144
9.650000	-0.427514	-134.242442	-38.573492	-33.705269	-38.573492	-33.705269	-0.431287	-134.913160
9.700000	-0.433052	-134.844508	-38.487655	-35.136693	-38.487655	-35.136693	-0.436944	-135.520165
9.750000	-0.438692	-135.446496	-38.403373	-36.566496	-38.403373	-36.566496	-0.442698	-136.127137
9.800000	-0.444358	-136.048485	-38.320089	-37.995889	-38.320089	-37.995889	-0.448476	-136.734119
9.850000	-0.450143	-136.650473	-38.238520	-39.423233	-38.238520	-39.423233	-0.454365	-137.341149
9.900000	-0.455943	-137.252469	-38.157817	-40.850343	-38.157817	-40.850343	-0.460269	-137.948193
9.950000	-0.461879	-137.854560	-38.079014	-42.274887	-38.079014	-42.274887	-0.466295	-138.555385
10.000000	-0.467819	-138.456651	-38.000919	-43.699431	-38.000919	-43.699431	-0.472326	-139.162577
