! freq	dB(S11)	phase(S11)	dB(S12)	phase(S12)	
!     	dB(S21)	phase(S21)	dB(S22)	phase(S22)	
!S-par simulation data
#  GHz  S  DB  R 50
0.000000	0.000000	0.000000	-329.979063	0.000000	-329.979063	0.000000	-0.000000	0.000000
0.050000	-0.000103	-0.764616	-110.169915	90.113235	-110.169915	90.113235	-0.000138	-1.270815
0.100000	-0.000407	-1.528970	-104.103639	88.848446	-104.103639	88.848446	-0.000547	-2.541308
0.150000	-0.000898	-2.292826	-100.623970	87.690536	-100.623970	87.690536	-0.001216	-3.811174
0.200000	-0.001553	-3.055993	-98.208769	86.642040	-98.208769	86.642040	-0.002124	-5.080145
0.250000	-0.002357	-3.818266	-96.390905	85.677132	-96.390905	85.677132	-0.003263	-6.347899
0.300000	-0.003268	-4.579623	-94.955194	84.779061	-94.955194	84.779061	-0.004585	-7.614335
0.350000	-0.004266	-5.339975	-93.794873	83.952871	-93.794873	83.952871	-0.006074	-8.879238
0.400000	-0.005329	-6.099300	-92.845255	83.206655	-92.845255	83.206655	-0.007701	-10.142476
0.450000	-0.006435	-6.857611	-92.065444	82.553332	-92.065444	82.553332	-0.009438	-11.403949
0.500000	-0.007567	-7.614934	-91.428360	82.010328	-91.428360	82.010328	-0.011260	-12.663591
0.550000	-0.008711	-8.371311	-90.915563	81.600069	-90.915563	81.600069	-0.013144	-13.921361
0.600000	-0.009857	-9.126787	-90.514338	81.351076	-90.514338	81.351076	-0.015069	-15.177238
0.650000	-0.010997	-9.881406	-90.215929	81.299678	-90.215929	81.299678	-0.017017	-16.431216
0.700000	-0.012128	-10.635210	-90.014376	81.492456	-90.014376	81.492456	-0.018975	-17.683299
0.750000	-0.013246	-11.388233	-89.905623	81.989648	-89.905623	81.989648	-0.020928	-18.933496
0.800000	-0.014349	-12.140507	-89.886670	82.869769	-89.886670	82.869769	-0.022870	-20.181819
0.850000	-0.015437	-12.892052	-89.954528	84.235684	-89.954528	84.235684	-0.024792	-21.428281
0.900000	-0.016510	-13.642885	-90.104619	86.222021	-90.104619	86.222021	-0.026690	-22.672892
0.950000	-0.017568	-14.393017	-90.328144	89.002723	-90.328144	89.002723	-0.028561	-23.915657
1.000000	-0.018614	-15.142453	-90.607654	92.794556	-90.607654	92.794556	-0.030402	-25.156580
1.050000	-0.019647	-15.891194	-90.910158	97.846002	-90.910158	97.846002	-0.032212	-26.395658
1.100000	-0.020670	-16.639238	-91.178186	104.390279	-91.178186	104.390279	-0.033993	-27.632887
1.150000	-0.021683	-17.386579	-91.323450	112.533746	-91.323450	112.533746	-0.035744	-28.868253
1.200000	-0.022687	-18.133208	-91.235454	122.076255	-91.235454	122.076255	-0.037466	-30.101745
1.250000	-0.023683	-18.879116	-90.819054	132.366784	-90.819054	132.366784	-0.039162	-31.333343
1.300000	-0.024673	-19.624259	-90.030994	142.370542	-90.030994	142.370542	-0.040832	-32.562941
1.350000	-0.025657	-20.368654	-88.954234	151.207640	-88.954234	151.207640	-0.042479	-33.790599
1.400000	-0.026636	-21.112288	-87.698384	158.477727	-87.698384	158.477727	-0.044105	-35.016290
1.450000	-0.027611	-21.855146	-86.363318	164.172930	-86.363318	164.172930	-0.045712	-36.239986
1.500000	-0.028582	-22.597213	-85.017963	168.488487	-85.017963	168.488487	-0.047302	-37.461659
1.550000	-0.029551	-23.338473	-83.702200	171.675535	-83.702200	171.675535	-0.048878	-38.681278
1.600000	-0.030517	-24.078911	-82.435889	173.968284	-82.435889	173.968284	-0.050441	-39.898814
1.650000	-0.031481	-24.818511	-81.226997	175.560180	-81.226997	175.560180	-0.051992	-41.114237
1.700000	-0.032443	-25.557258	-80.077020	176.602736	-80.077020	176.602736	-0.053534	-42.327517
1.750000	-0.033405	-26.295135	-78.984187	177.212085	-78.984187	177.212085	-0.055068	-43.538623
1.800000	-0.034365	-27.032126	-77.945235	177.476729	-77.945235	177.476729	-0.056595	-44.747528
1.850000	-0.035325	-27.768216	-76.956353	177.464296	-76.956353	177.464296	-0.058118	-45.954203
1.900000	-0.036285	-28.503390	-76.013666	177.226822	-76.013666	177.226822	-0.059637	-47.158621
1.950000	-0.037245	-29.237631	-75.113473	176.804711	-75.113473	176.804711	-0.061153	-48.360756
2.000000	-0.038206	-29.970925	-74.252342	176.229652	-74.252342	176.229652	-0.062668	-49.560584
2.050000	-0.039167	-30.703257	-73.427154	175.526751	-73.427154	175.526751	-0.064183	-50.758081
2.100000	-0.040130	-31.434611	-72.635089	174.716100	-72.635089	174.716100	-0.065699	-51.953227
2.150000	-0.041094	-32.164974	-71.873616	173.813934	-71.873616	173.813934	-0.067217	-53.146001
2.200000	-0.042060	-32.894330	-71.140465	172.833490	-71.140465	172.833490	-0.068737	-54.336384
2.250000	-0.043027	-33.622665	-70.433598	171.785659	-70.433598	171.785659	-0.070261	-55.524361
2.300000	-0.043997	-34.349965	-69.751185	170.679467	-69.751185	170.679467	-0.071789	-56.709916
2.350000	-0.044970	-35.076217	-69.091579	169.522458	-69.091579	169.522458	-0.073322	-57.893036
2.400000	-0.045946	-35.801407	-68.453298	168.320980	-68.453298	168.320980	-0.074862	-59.073710
2.450000	-0.046925	-36.525521	-67.834997	167.080409	-67.834997	167.080409	-0.076407	-60.251928
2.500000	-0.047907	-37.248547	-67.235460	165.805327	-67.235460	165.805327	-0.077960	-61.427684
2.550000	-0.048893	-37.970422	-66.652660	164.498493	-66.652660	164.498493	-0.079521	-62.600864
2.600000	-0.049884	-38.691182	-66.086614	163.164723	-66.086614	163.164723	-0.081091	-63.771572
2.650000	-0.050879	-39.410814	-65.536391	161.806901	-65.536391	161.806901	-0.082670	-64.939807
2.700000	-0.051880	-40.129307	-65.001137	160.427536	-65.001137	160.427536	-0.084259	-66.105568
2.750000	-0.052885	-40.846648	-64.480070	159.028831	-64.480070	159.028831	-0.085858	-67.268858
2.800000	-0.053896	-41.562826	-63.972471	157.612719	-63.972471	157.612719	-0.087468	-68.429682
2.850000	-0.054913	-42.277829	-63.477675	156.180907	-63.477675	156.180907	-0.089089	-69.588045
2.900000	-0.055936	-42.991646	-62.995070	154.734911	-62.995070	154.734911	-0.090723	-70.743956
2.950000	-0.056966	-43.704268	-62.524089	153.276073	-62.524089	153.276073	-0.092369	-71.897424
3.000000	-0.058002	-44.415682	-62.064206	151.805595	-62.064206	151.805595	-0.094029	-73.048462
3.050000	-0.059046	-45.125880	-61.614931	150.324549	-61.614931	150.324549	-0.095703	-74.197082
3.100000	-0.060098	-45.834850	-61.175808	148.833899	-61.175808	148.833899	-0.097391	-75.343300
3.150000	-0.061158	-46.542584	-60.746413	147.334512	-60.746413	147.334512	-0.099094	-76.487134
3.200000	-0.062226	-47.249072	-60.326349	145.827170	-60.326349	145.827170	-0.100814	-77.628603
3.250000	-0.063302	-47.954305	-59.915244	144.312582	-59.915244	144.312582	-0.102549	-78.767727
3.300000	-0.064388	-48.658274	-59.512748	142.791388	-59.512748	142.791388	-0.104301	-79.904528
3.350000	-0.065483	-49.360971	-59.118536	141.264173	-59.118536	141.264173	-0.106071	-81.039033
3.400000	-0.066588	-50.062388	-58.732300	139.731469	-58.732300	139.731469	-0.107859	-82.171265
3.450000	-0.067704	-50.762516	-58.353750	138.193762	-58.353750	138.193762	-0.109666	-83.301253
3.500000	-0.068829	-51.461349	-57.982613	136.651497	-57.982613	136.651497	-0.111492	-84.429027
3.550000	-0.069966	-52.158878	-57.618631	135.105081	-57.618631	135.105081	-0.113339	-85.554618
3.600000	-0.071114	-52.855098	-57.261561	133.554891	-57.261561	133.554891	-0.115206	-86.678058
3.650000	-0.072274	-53.550001	-56.911173	132.001271	-56.911173	132.001271	-0.117094	-87.799382
3.700000	-0.073445	-54.243581	-56.567248	130.444542	-56.567248	130.444542	-0.119005	-88.918626
3.750000	-0.074629	-54.935832	-56.229580	128.884996	-56.229580	128.884996	-0.120938	-90.035827
3.800000	-0.075826	-55.626691	-55.897687	127.322811	-55.897687	127.322811	-0.122896	-91.150940
3.850000	-0.077037	-56.316209	-55.571690	125.758359	-55.571690	125.758359	-0.124878	-92.264094
3.900000	-0.078260	-57.004381	-55.251411	124.191874	-55.251411	124.191874	-0.126884	-93.375332
3.950000	-0.079498	-57.691204	-54.936678	122.623574	-54.936678	122.623574	-0.128916	-94.484698
4.000000	-0.080750	-58.376672	-54.627331	121.053662	-54.627331	121.053662	-0.130974	-95.592238
4.050000	-0.082017	-59.060781	-54.323213	119.482329	-54.323213	119.482329	-0.133059	-96.697998
4.100000	-0.083298	-59.743528	-54.024178	117.909753	-54.024178	117.909753	-0.135171	-97.802027
4.150000	-0.084595	-60.424909	-53.730085	116.336102	-53.730085	116.336102	-0.137312	-98.904376
4.200000	-0.085908	-61.104922	-53.440800	114.761533	-53.440800	114.761533	-0.139481	-100.005095
4.250000	-0.087237	-61.783562	-53.156193	113.186194	-53.156193	113.186194	-0.141680	-101.104237
4.300000	-0.088582	-62.460829	-52.876141	111.610225	-52.876141	111.610225	-0.143909	-102.201858
4.350000	-0.089944	-63.136718	-52.600526	110.033759	-52.600526	110.033759	-0.146168	-103.298012
4.400000	-0.091324	-63.811230	-52.329236	108.456919	-52.329236	108.456919	-0.148459	-104.392757
4.450000	-0.092721	-64.484361	-52.062161	106.879825	-52.062161	106.879825	-0.150783	-105.486152
4.500000	-0.094136	-65.156111	-51.799198	105.302589	-51.799198	105.302589	-0.153139	-106.578256
4.550000	-0.095569	-65.826478	-51.540246	103.725317	-51.540246	103.725317	-0.155528	-107.669130
4.600000	-0.097021	-66.495463	-51.285210	102.148111	-51.285210	102.148111	-0.157952	-108.758839
4.650000	-0.098492	-67.163064	-51.033997	100.571067	-51.033997	100.571067	-0.160410	-109.847445
4.700000	-0.099983	-67.829282	-50.786517	98.994278	-50.786517	98.994278	-0.162904	-110.935014
4.750000	-0.101494	-68.494116	-50.542686	97.417832	-50.542686	97.417832	-0.165433	-112.021614
4.800000	-0.103025	-69.157568	-50.302421	95.841813	-50.302421	95.841813	-0.168000	-113.107311
4.850000	-0.104577	-69.819637	-50.065642	94.266301	-50.065642	94.266301	-0.170603	-114.192177
4.900000	-0.106149	-70.480325	-49.832273	92.691374	-49.832273	92.691374	-0.173245	-115.276281
4.950000	-0.107744	-71.139634	-49.602240	91.117107	-49.602240	91.117107	-0.175924	-116.359696
5.000000	-0.109360	-71.797564	-49.375472	89.543569	-49.375472	89.543569	-0.178643	-117.442496
5.050000	-0.110999	-72.454059	-49.151789	87.970868	-49.151789	87.970868	-0.181403	-118.524736
5.100000	-0.112661	-73.109179	-48.931242	86.399037	-48.931242	86.399037	-0.184203	-119.606518
5.150000	-0.114346	-73.762929	-48.713769	84.828139	-48.713769	84.828139	-0.187044	-120.687922
5.200000	-0.116054	-74.415309	-48.499305	83.258236	-48.499305	83.258236	-0.189926	-121.769025
5.250000	-0.117786	-75.066325	-48.287791	81.689386	-48.287791	81.689386	-0.192850	-122.849909
5.300000	-0.119542	-75.715978	-48.079168	80.121646	-48.079168	80.121646	-0.195817	-123.930656
5.350000	-0.121323	-76.364272	-47.873380	78.555071	-47.873380	78.555071	-0.198826	-125.011349
5.400000	-0.123129	-77.011211	-47.670371	76.989714	-47.670371	76.989714	-0.201879	-126.092072
5.450000	-0.124961	-77.656799	-47.470088	75.425628	-47.470088	75.425628	-0.204975	-127.172912
5.500000	-0.126818	-78.301041	-47.272481	73.862862	-47.272481	73.862862	-0.208116	-128.253956
5.550000	-0.128701	-78.943940	-47.077499	72.301465	-47.077499	72.301465	-0.211301	-129.335293
5.600000	-0.130611	-79.585503	-46.885095	70.741485	-46.885095	70.741485	-0.214532	-130.417013
5.650000	-0.132548	-80.225733	-46.695221	69.182968	-46.695221	69.182968	-0.217809	-131.499208
5.700000	-0.134512	-80.864636	-46.507832	67.625960	-46.507832	67.625960	-0.221132	-132.581971
5.750000	-0.136504	-81.502218	-46.322886	66.070505	-46.322886	66.070505	-0.224501	-133.665397
5.800000	-0.138524	-82.138485	-46.140338	64.516646	-46.140338	64.516646	-0.227917	-134.749581
5.850000	-0.140573	-82.773441	-45.960148	62.964427	-45.960148	62.964427	-0.231381	-135.834621
5.900000	-0.142650	-83.407095	-45.782277	61.413889	-45.782277	61.413889	-0.234892	-136.920617
5.950000	-0.144757	-84.039451	-45.606684	59.865074	-45.606684	59.865074	-0.238452	-138.007667
6.000000	-0.146894	-84.670517	-45.433334	58.318024	-45.433334	58.318024	-0.242060	-139.095875
6.050000	-0.149061	-85.300300	-45.262190	56.772778	-45.262190	56.772778	-0.245717	-140.185344
6.100000	-0.151258	-85.928806	-45.093216	55.229378	-45.093216	55.229378	-0.249424	-141.276179
6.150000	-0.153487	-86.556043	-44.926378	53.687865	-44.926378	53.687865	-0.253180	-142.368485
6.200000	-0.155747	-87.182019	-44.761644	52.148280	-44.761644	52.148280	-0.256986	-143.462373
6.250000	-0.158038	-87.806741	-44.598982	50.610662	-44.598982	50.610662	-0.260842	-144.557951
6.300000	-0.160363	-88.430164	-44.438320	49.075144	-44.438320	49.075144	-0.264751	-145.655414
6.350000	-0.162721	-89.052349	-44.279672	47.541682	-44.279672	47.541682	-0.268711	-146.754802
6.400000	-0.165111	-89.673306	-44.123010	46.010318	-44.123010	46.010318	-0.272723	-147.856231
6.450000	-0.167535	-90.293044	-43.968306	44.481098	-43.968306	44.481098	-0.276785	-148.959816
6.500000	-0.169993	-90.911570	-43.815531	42.954065	-43.815531	42.954065	-0.280900	-150.065677
6.550000	-0.172484	-91.528893	-43.664660	41.429266	-43.664660	41.429266	-0.285067	-151.173933
6.600000	-0.175011	-92.145024	-43.515668	39.906749	-43.515668	39.906749	-0.289286	-152.284706
6.650000	-0.177572	-92.759971	-43.368530	38.386564	-43.368530	38.386564	-0.293558	-153.398120
6.700000	-0.180168	-93.373743	-43.223222	36.868763	-43.223222	36.868763	-0.297882	-154.514301
6.750000	-0.182801	-93.986352	-43.079721	35.353400	-43.079721	35.353400	-0.302260	-155.633377
6.800000	-0.185469	-94.597805	-42.938006	33.840533	-42.938006	33.840533	-0.306692	-156.755476
6.850000	-0.188174	-95.208114	-42.798055	32.330221	-42.798055	32.330221	-0.311177	-157.880730
6.900000	-0.190916	-95.817288	-42.659847	30.822528	-42.659847	30.822528	-0.315716	-159.009273
6.950000	-0.193695	-96.425339	-42.523364	29.317520	-42.523364	29.317520	-0.320310	-160.141240
7.000000	-0.196511	-97.032276	-42.388586	27.815268	-42.388586	27.815268	-0.324958	-161.276769
7.050000	-0.199366	-97.638110	-42.255494	26.315849	-42.255494	26.315849	-0.329661	-162.416000
7.100000	-0.202259	-98.242853	-42.124072	24.819342	-42.124072	24.819342	-0.334419	-163.559075
7.150000	-0.205191	-98.846515	-41.994303	23.325833	-41.994303	23.325833	-0.339232	-164.706137
7.200000	-0.208162	-99.449108	-41.866169	21.835415	-41.866169	21.835415	-0.344101	-165.857335
7.250000	-0.211172	-100.050643	-41.739656	20.348186	-41.739656	20.348186	-0.349026	-167.012816
7.300000	-0.214223	-100.651131	-41.614749	18.864251	-41.614749	18.864251	-0.354007	-168.172734
7.350000	-0.217313	-101.250584	-41.491433	17.383724	-41.491433	17.383724	-0.359046	-169.337242
7.400000	-0.220445	-101.849015	-41.369694	15.906728	-41.369694	15.906728	-0.364141	-170.506497
7.450000	-0.223617	-102.446435	-41.249518	14.433393	-41.249518	14.433393	-0.369293	-171.680659
7.500000	-0.226831	-103.042856	-41.130894	12.963861	-41.130894	12.963861	-0.374504	-172.859892
7.550000	-0.230088	-103.638249	-41.013806	11.498467	-41.013806	11.498467	-0.379775	-174.044597
7.600000	-0.233387	-104.232669	-40.898246	10.037212	-40.898246	10.037212	-0.385105	-175.234723
7.650000	-0.236729	-104.826129	-40.784204	8.580277	-40.784204	8.580277	-0.390495	-176.430444
7.700000	-0.240114	-105.418641	-40.671665	7.127859	-40.671665	7.127859	-0.395944	-177.631937
7.750000	-0.243542	-106.010220	-40.560621	5.680173	-40.560621	5.680173	-0.401455	-178.839383
7.800000	-0.247014	-106.600877	-40.451057	4.237449	-40.451057	4.237449	-0.407027	179.947033
7.850000	-0.250529	-107.190626	-40.342964	2.799941	-40.342964	2.799941	-0.412661	178.727121
7.900000	-0.254089	-107.779480	-40.236329	1.367922	-40.236329	1.367922	-0.418358	177.500686
7.950000	-0.257693	-108.367454	-40.131141	-0.058307	-40.131141	-0.058307	-0.424119	176.267529
8.000000	-0.261343	-108.954560	-40.027387	-1.478419	-40.027387	-1.478419	-0.429946	175.027444
8.050000	-0.265038	-109.540812	-39.925055	-2.892056	-39.925055	-2.892056	-0.435840	173.780219
8.100000	-0.268778	-110.126225	-39.824130	-4.298827	-39.824130	-4.298827	-0.441802	172.525636
8.150000	-0.272565	-110.710812	-39.724600	-5.698301	-39.724600	-5.698301	-0.447834	171.263467
8.200000	-0.276398	-111.294587	-39.626447	-7.090007	-39.626447	-7.090007	-0.453937	169.993479
8.250000	-0.280278	-111.877565	-39.529655	-8.473424	-39.529655	-8.473424	-0.460115	168.715428
8.300000	-0.284205	-112.459760	-39.434205	-9.847979	-39.434205	-9.847979	-0.466370	167.429058
8.350000	-0.288179	-113.041187	-39.340076	-11.213040	-39.340076	-11.213040	-0.472705	166.134105
8.400000	-0.292202	-113.621860	-39.247243	-12.567903	-39.247243	-12.567903	-0.479122	164.830288
8.450000	-0.296272	-114.201794	-39.155679	-13.911791	-39.155679	-13.911791	-0.485627	163.517314
8.500000	-0.300392	-114.781005	-39.065352	-15.243836	-39.065352	-15.243836	-0.492224	162.194870
8.550000	-0.304560	-115.359506	-38.976225	-16.563072	-38.976225	-16.563072	-0.498918	160.862626
8.600000	-0.308779	-115.937313	-38.888256	-17.868417	-38.888256	-17.868417	-0.505716	159.520229
8.650000	-0.313047	-116.514442	-38.801393	-19.158657	-38.801393	-19.158657	-0.512625	158.167296
8.700000	-0.317366	-117.090906	-38.715577	-20.432424	-38.715577	-20.432424	-0.519655	156.803419
8.750000	-0.321735	-117.666723	-38.630735	-21.688175	-38.630735	-21.688175	-0.526815	155.428151
8.800000	-0.326159	-118.241880	-38.546782	-22.923206	-38.546782	-22.923206	-0.534125	154.040460
8.850000	-0.330634	-118.816420	-38.463602	-24.136270	-38.463602	-24.136270	-0.541596	152.640295
8.900000	-0.335163	-119.390359	-38.381068	-25.325043	-38.381068	-25.325043	-0.549246	151.227047
8.950000	-0.339745	-119.963713	-38.299019	-26.486857	-38.299019	-26.486857	-0.557098	149.800034
9.000000	-0.344381	-120.536496	-38.217257	-27.618630	-38.217257	-27.618630	-0.565182	148.358483
9.050000	-0.349072	-121.108723	-38.135540	-28.716787	-38.135540	-28.716787	-0.573531	146.901512
9.100000	-0.353820	-121.680410	-38.053561	-29.777161	-38.053561	-29.777161	-0.582191	145.428104
9.150000	-0.358625	-122.251569	-37.970933	-30.794872	-37.970933	-30.794872	-0.591216	143.937075
9.200000	-0.363486	-122.822245	-37.887311	-31.767339	-37.887311	-31.767339	-0.600647	142.428225
9.250000	-0.368407	-123.392414	-37.801971	-32.684689	-37.801971	-32.684689	-0.610599	140.898640
9.300000	-0.373393	-123.962075	-37.713969	-33.536771	-37.713969	-33.536771	-0.621210	139.345653
9.350000	-0.378447	-124.531238	-37.622094	-34.312502	-37.622094	-34.312502	-0.632654	137.766465
9.400000	-0.383567	-125.099940	-37.525170	-35.004440	-37.525170	-35.004440	-0.645094	136.159562
9.450000	-0.388757	-125.668186	-37.421349	-35.599070	-37.421349	-35.599070	-0.658801	134.521374
9.500000	-0.394020	-126.235979	-37.308146	-36.080183	-37.308146	-36.080183	-0.674147	132.847428
9.550000	-0.399361	-126.803327	-37.182750	-36.433205	-37.182750	-36.433205	-0.691563	131.133548
9.600000	-0.404793	-127.370175	-37.038828	-36.621101	-37.038828	-36.621101	-0.712028	129.368093
9.650000	-0.410325	-127.936497	-36.868597	-36.613323	-36.868597	-36.613323	-0.736794	127.540182
9.700000	-0.415966	-128.502264	-36.662773	-36.385424	-36.662773	-36.385424	-0.767483	125.638623
9.750000	-0.421732	-129.067395	-36.406856	-35.905986	-36.406856	-35.905986	-0.806790	123.645859
9.800000	-0.427649	-129.631713	-36.075180	-35.137596	-36.075180	-35.137596	-0.859802	121.532524
9.850000	-0.433749	-130.194957	-35.632764	-34.081057	-35.632764	-34.081057	-0.934696	119.264613
9.900000	-0.440066	-130.756694	-35.032152	-32.809712	-35.032152	-32.809712	-1.045304	116.803761
9.950000	-0.446656	-131.316008	-34.192414	-31.552085	-34.192414	-31.552085	-1.220493	114.102894
10.000000	-0.453558	-131.871122	-33.005257	-30.953671	-33.005257	-30.953671	-1.517816	111.181270
