! freq	dB(S11)	phase(S11)	dB(S12)	phase(S12)	
!     	dB(S21)	phase(S21)	dB(S22)	phase(S22)	
!S-par simulation data
#  GHz  S  DB  R 50
0.000000	-0.000000	0.000000	-342.176814	0.000000	-342.176814	0.000000	-0.000000	0.000000
0.050000	-0.005358	-1.761545	-91.428178	94.257680	-91.428178	94.257680	-0.005347	-1.761626
0.100000	-0.012189	-3.573964	-85.296562	89.452494	-85.296562	89.452494	-0.012175	-3.574028
0.150000	-0.016165	-5.402026	-81.784979	86.598892	-81.784979	86.598892	-0.016153	-5.402100
0.200000	-0.018563	-7.229752	-79.326211	84.258433	-79.326211	84.258433	-0.018555	-7.229858
0.250000	-0.020270	-9.054428	-77.446797	82.143402	-77.446797	82.143402	-0.020264	-9.054571
0.300000	-0.021704	-10.875844	-75.937924	80.153067	-75.937924	80.153067	-0.021699	-10.876028
0.350000	-0.023055	-12.694124	-74.688827	78.246688	-74.688827	78.246688	-0.023052	-12.694349
0.400000	-0.024412	-14.509332	-73.633639	76.406246	-73.633639	76.406246	-0.024409	-14.509597
0.450000	-0.025816	-16.321438	-72.730016	74.624005	-72.730016	74.624005	-0.025814	-16.321743
0.500000	-0.027288	-18.130346	-71.949154	72.897575	-71.949154	72.897575	-0.027287	-18.130689
0.550000	-0.028837	-19.935916	-71.270598	71.227698	-71.270598	71.227698	-0.028836	-19.936298
0.600000	-0.030465	-21.737983	-70.679331	69.617191	-70.679331	69.617191	-0.030465	-21.738403
0.650000	-0.032171	-23.536326	-70.164467	68.071184	-70.164467	68.071184	-0.032170	-23.536783
0.700000	-0.033950	-25.330753	-69.717270	66.595602	-69.717270	66.595602	-0.033950	-25.331246
0.750000	-0.035796	-27.121118	-69.330437	65.196754	-69.330437	65.196754	-0.035796	-27.121648
0.800000	-0.037703	-28.907238	-68.998490	63.882895	-68.998490	63.882895	-0.037703	-28.907804
0.850000	-0.039665	-30.688933	-68.716984	62.663624	-68.716984	62.663624	-0.039665	-30.689534
0.900000	-0.041674	-32.466030	-68.482251	61.550033	-68.482251	61.550033	-0.041674	-32.466666
0.950000	-0.043723	-34.238363	-68.291193	60.554901	-68.291193	60.554901	-0.043724	-34.239035
1.000000	-0.045807	-36.005775	-68.141119	59.692924	-68.141119	59.692924	-0.045808	-36.006481
1.050000	-0.047919	-37.768114	-68.029597	58.980983	-68.029597	58.980983	-0.047920	-37.768854
1.100000	-0.050053	-39.525238	-67.954302	58.438434	-67.954302	58.438434	-0.050053	-39.526013
1.150000	-0.052203	-41.277014	-67.912868	58.087387	-67.912868	58.087387	-0.052204	-41.277822
1.200000	-0.054365	-43.023314	-67.902709	57.952954	-67.902709	57.952954	-0.054365	-43.024156
1.250000	-0.056533	-44.764022	-67.920812	58.063376	-67.920812	58.063376	-0.056533	-44.764897
1.300000	-0.058704	-46.498900	-67.963909	58.456726	-67.963909	58.456726	-0.058704	-46.499809
1.350000	-0.060873	-48.227970	-68.026626	59.161663	-68.026626	59.161663	-0.060873	-48.228912
1.400000	-0.063037	-49.951137	-68.102854	60.213390	-68.102854	60.213390	-0.063037	-49.952112
1.450000	-0.065194	-51.668314	-68.184759	61.646083	-68.184759	61.646083	-0.065193	-51.669322
1.500000	-0.067340	-53.379423	-68.262443	63.489207	-68.262443	63.489207	-0.067340	-53.380464
1.550000	-0.069475	-55.084392	-68.323757	65.762163	-68.323757	65.762163	-0.069474	-55.085465
1.600000	-0.071595	-56.783154	-68.354427	68.467320	-68.354427	68.467320	-0.071595	-56.784260
1.650000	-0.073701	-58.475652	-68.338702	71.582280	-68.338702	71.582280	-0.073700	-58.476791
1.700000	-0.075791	-60.161835	-68.260678	75.053244	-68.260678	75.053244	-0.075789	-60.163006
1.750000	-0.077864	-61.841657	-68.106254	78.792283	-68.106254	78.792283	-0.077862	-61.842860
1.800000	-0.079919	-63.515080	-67.865382	82.681280	-67.865382	82.681280	-0.079918	-63.516314
1.850000	-0.081958	-65.182070	-67.533921	86.583542	-67.533921	86.583542	-0.081956	-65.183337
1.900000	-0.083980	-66.842532	-67.113299	90.358190	-67.113299	90.358190	-0.083978	-66.843830
1.950000	-0.085985	-68.496444	-66.612308	93.880297	-66.612308	93.880297	-0.085983	-68.497774
2.000000	-0.087974	-70.143862	-66.045222	97.061019	-66.045222	97.061019	-0.087971	-70.145224
2.050000	-0.089947	-71.784779	-65.427080	99.844412	-65.427080	99.844412	-0.089944	-71.786173
2.100000	-0.091906	-73.419192	-64.772815	102.206288	-64.772815	102.206288	-0.091903	-73.420617
2.150000	-0.093851	-75.047103	-64.095875	104.147654	-64.095875	104.147654	-0.093848	-75.048560
2.200000	-0.095784	-76.668522	-63.407537	105.686968	-63.407537	105.686968	-0.095781	-76.670010
2.250000	-0.097705	-78.283461	-62.716745	106.853112	-62.716745	106.853112	-0.097702	-78.284980
2.300000	-0.099616	-79.891660	-62.028390	107.667265	-62.028390	107.667265	-0.099613	-79.893211
2.350000	-0.101519	-81.493774	-61.351836	108.194144	-61.351836	108.194144	-0.101515	-81.495355
2.400000	-0.103415	-83.089480	-60.687881	108.449896	-60.687881	108.449896	-0.103411	-83.091092
2.450000	-0.105304	-84.678811	-60.038864	108.466139	-60.038864	108.466139	-0.105300	-84.680455
2.500000	-0.107189	-86.261807	-59.406251	108.271503	-59.406251	108.271503	-0.107184	-86.263482
2.550000	-0.109070	-87.838240	-58.789797	107.884459	-58.789797	107.884459	-0.109066	-87.839945
2.600000	-0.110950	-89.408432	-58.191157	107.336191	-58.191157	107.336191	-0.110945	-89.410169
2.650000	-0.112830	-90.972438	-57.610328	106.645950	-57.610328	106.645950	-0.112825	-90.974205
2.700000	-0.114711	-92.530313	-57.047088	105.830513	-57.047088	105.830513	-0.114706	-92.532111
2.750000	-0.116595	-94.082119	-56.501070	104.904482	-56.501070	104.904482	-0.116590	-94.083948
2.800000	-0.118483	-95.627921	-55.971810	103.880568	-55.971810	103.880568	-0.118478	-95.629781
2.850000	-0.120376	-97.167788	-55.458790	102.769841	-55.458790	102.769841	-0.120371	-97.169679
2.900000	-0.122277	-98.701792	-54.961456	101.581964	-54.961456	101.581964	-0.122272	-98.703715
2.950000	-0.124186	-100.230011	-54.479245	100.325384	-54.479245	100.325384	-0.124181	-100.231965
3.000000	-0.126105	-101.752524	-54.011593	99.007509	-54.011593	99.007509	-0.126099	-101.754509
3.050000	-0.128034	-103.269414	-53.557944	97.634848	-53.557944	97.634848	-0.128028	-103.271431
3.100000	-0.129976	-104.780768	-53.117760	96.213141	-53.117760	96.213141	-0.129970	-104.782817
3.150000	-0.131931	-106.286676	-52.690520	94.747465	-52.690520	94.747465	-0.131924	-106.288756
3.200000	-0.133900	-107.787231	-52.275721	93.242321	-52.275721	93.242321	-0.133894	-107.789343
3.250000	-0.135885	-109.282527	-51.872887	91.701714	-51.872887	91.701714	-0.135879	-109.284672
3.300000	-0.137887	-110.772664	-51.481560	90.129219	-51.481560	90.129219	-0.137880	-110.774841
3.350000	-0.139906	-112.257742	-51.101304	88.528032	-51.101304	88.528032	-0.139900	-112.259953
3.400000	-0.141945	-113.737866	-50.731707	86.901025	-50.731707	86.901025	-0.141938	-113.740109
3.450000	-0.144003	-115.213140	-50.372374	85.250778	-50.372374	85.250778	-0.143996	-115.215418
3.500000	-0.146081	-116.683674	-50.022931	83.579619	-50.022931	83.579619	-0.146074	-116.685986
3.550000	-0.148181	-118.149578	-49.683022	81.889654	-49.683022	81.889654	-0.148174	-118.151924
3.600000	-0.150303	-119.610965	-49.352310	80.182788	-49.352310	80.182788	-0.150296	-119.613346
3.650000	-0.152448	-121.067948	-49.030472	78.460749	-49.030472	78.460749	-0.152441	-121.070365
3.700000	-0.154617	-122.520646	-48.717200	76.725110	-48.717200	76.725110	-0.154610	-122.523098
3.750000	-0.156811	-123.969175	-48.412204	74.977299	-48.412204	74.977299	-0.156803	-123.971663
3.800000	-0.159030	-125.413485	-48.115110	73.218201	-48.115110	73.218201	-0.159022	-125.416011
3.850000	-0.161276	-126.853880	-47.825770	71.449516	-47.825770	71.449516	-0.161267	-126.856443
3.900000	-0.163547	-128.290482	-47.543926	69.672311	-47.543926	69.672311	-0.163539	-128.293084
3.950000	-0.165845	-129.723417	-47.269333	67.887559	-47.269333	67.887559	-0.165837	-129.726058
4.000000	-0.168171	-131.152808	-47.001757	66.096148	-47.001757	66.096148	-0.168162	-131.155489
4.050000	-0.170524	-132.578785	-46.740974	64.298883	-46.740974	64.298883	-0.170515	-132.581506
4.100000	-0.172905	-134.001474	-46.486771	62.496501	-46.486771	62.496501	-0.172896	-134.004237
4.150000	-0.175314	-135.421005	-46.238942	60.689665	-46.238942	60.689665	-0.175305	-135.423810
4.200000	-0.177752	-136.837508	-45.997291	58.878982	-45.997291	58.878982	-0.177742	-136.840356
4.250000	-0.180218	-138.251114	-45.761630	57.064994	-45.761630	57.064994	-0.180209	-138.254006
4.300000	-0.182714	-139.661953	-45.531780	55.248194	-45.531780	55.248194	-0.182704	-139.664890
4.350000	-0.185239	-141.070159	-45.307569	53.429020	-45.307569	53.429020	-0.185229	-141.073142
4.400000	-0.187793	-142.475865	-45.088831	51.607866	-45.088831	51.607866	-0.187783	-142.478895
4.450000	-0.190377	-143.879203	-44.875411	49.785079	-44.875411	49.785079	-0.190367	-143.882282
4.500000	-0.192990	-145.280308	-44.667157	47.960967	-44.667157	47.960967	-0.192980	-145.283436
4.550000	-0.195633	-146.679315	-44.463926	46.135797	-44.463926	46.135797	-0.195623	-146.682493
4.600000	-0.198305	-148.076358	-44.265582	44.309801	-44.265582	44.309801	-0.198295	-148.079588
4.650000	-0.201007	-149.471572	-44.071993	42.483178	-44.071993	42.483178	-0.200996	-149.474855
4.700000	-0.203738	-150.865092	-43.883036	40.656094	-43.883036	40.656094	-0.203727	-150.868429
4.750000	-0.206499	-152.257054	-43.698592	38.828688	-43.698592	38.828688	-0.206487	-152.260446
4.800000	-0.209288	-153.647593	-43.518550	37.001069	-43.518550	37.001069	-0.209277	-153.651043
4.850000	-0.212107	-155.036844	-43.342805	35.173324	-43.342805	35.173324	-0.212095	-155.040353
4.900000	-0.214954	-156.424945	-43.171255	33.345515	-43.171255	33.345515	-0.214942	-156.428513
4.950000	-0.217829	-157.812028	-43.003806	31.517683	-43.003806	31.517683	-0.217817	-157.815658
5.000000	-0.220733	-159.198231	-42.840371	29.689852	-42.840371	29.689852	-0.220721	-159.201924
5.050000	-0.223666	-160.583662	-42.680909	27.862025	-42.680909	27.862025	-0.223654	-160.587420
5.100000	-0.226626	-161.968493	-42.525305	26.034191	-42.525305	26.034191	-0.226614	-161.972318
5.150000	-0.229613	-163.352860	-42.373487	24.206324	-42.373487	24.206324	-0.229601	-163.356753
5.200000	-0.232627	-164.736897	-42.225389	22.378388	-42.225389	22.378388	-0.232614	-164.740860
5.250000	-0.235667	-166.120736	-42.080948	20.550335	-42.080948	20.550335	-0.235654	-166.124771
5.300000	-0.238733	-167.504512	-41.940108	18.722112	-41.940108	18.722112	-0.238720	-167.508620
5.350000	-0.241824	-168.888356	-41.802819	16.893656	-41.802819	16.893656	-0.241811	-168.892540
5.400000	-0.244940	-170.272401	-41.669033	15.064903	-41.669033	15.064903	-0.244926	-170.276663
5.450000	-0.248080	-171.656777	-41.538709	13.235784	-41.538709	13.235784	-0.248066	-171.661119
5.500000	-0.251243	-173.041615	-41.411810	11.406228	-41.411810	11.406228	-0.251229	-173.046039
5.550000	-0.254429	-174.427045	-41.288304	9.576166	-41.288304	9.576166	-0.254415	-174.431553
5.600000	-0.257638	-175.813196	-41.168163	7.745529	-41.168163	7.745529	-0.257624	-175.817790
5.650000	-0.260869	-177.200194	-41.051364	5.914253	-41.051364	5.914253	-0.260854	-177.204877
5.700000	-0.264120	-178.588167	-40.937887	4.082277	-40.937887	4.082277	-0.264106	-178.592941
5.750000	-0.267392	-179.977241	-40.827718	2.249547	-40.827718	2.249547	-0.267377	-179.982108
5.800000	-0.270683	178.632459	-40.720845	0.416016	-40.720845	0.416016	-0.270668	178.627497
5.850000	-0.273993	177.240811	-40.617259	-1.418355	-40.617259	-1.418355	-0.273978	177.235750
5.900000	-0.277321	175.847693	-40.516958	-3.253593	-40.516958	-3.253593	-0.277306	175.842531
5.950000	-0.280667	174.452983	-40.419940	-5.089715	-40.419940	-5.089715	-0.280651	174.447717
6.000000	-0.284028	173.056562	-40.326206	-6.926726	-40.326206	-6.926726	-0.284013	173.051191
6.050000	-0.287406	171.658313	-40.235763	-8.764618	-40.235763	-8.764618	-0.287391	171.652833
6.100000	-0.290798	170.258119	-40.148618	-10.603368	-40.148618	-10.603368	-0.290783	170.252527
6.150000	-0.294205	168.855866	-40.064781	-12.442940	-40.064781	-12.442940	-0.294189	168.850159
6.200000	-0.297624	167.451441	-39.984263	-14.283279	-39.984263	-14.283279	-0.297608	167.445617
6.250000	-0.301056	166.044733	-39.907081	-16.124316	-39.907081	-16.124316	-0.301040	166.038788
6.300000	-0.304500	164.635524	-39.833370	-17.965989	-39.833370	-17.965989	-0.304483	164.629456
6.350000	-0.307954	163.223807	-39.763033	-19.808160	-39.763033	-19.808160	-0.307937	163.217611
6.400000	-0.311417	161.809476	-39.696089	-21.650708	-39.696089	-21.650708	-0.311400	161.803151
6.450000	-0.314889	160.392430	-39.632558	-23.493493	-39.632558	-23.493493	-0.314872	160.385971
6.500000	-0.318369	158.972568	-39.572458	-25.336358	-39.572458	-25.336358	-0.318352	158.965973
6.550000	-0.321856	157.549794	-39.515811	-27.179132	-39.515811	-27.179132	-0.321838	157.543059
6.600000	-0.325349	156.124011	-39.462637	-29.021624	-39.462637	-29.021624	-0.325331	156.117133
6.650000	-0.328846	154.695127	-39.412956	-30.863629	-39.412956	-30.863629	-0.328828	154.688103
6.700000	-0.332348	153.263053	-39.366788	-32.704930	-39.366788	-32.704930	-0.332329	153.255878
6.750000	-0.335853	151.827702	-39.324152	-34.545292	-39.324152	-34.545292	-0.335834	151.820373
6.800000	-0.339360	150.388989	-39.285067	-36.384472	-39.285067	-36.384472	-0.339341	150.381503
6.850000	-0.342869	148.946834	-39.249550	-38.222211	-39.249550	-38.222211	-0.342850	148.939187
6.900000	-0.346379	147.501159	-39.217617	-40.058245	-39.217617	-40.058245	-0.346359	147.493347
6.950000	-0.349888	146.051890	-39.189285	-41.892300	-39.189285	-41.892300	-0.349868	146.043909
7.000000	-0.353396	144.598955	-39.164566	-43.724095	-39.164566	-43.724095	-0.353376	144.590801
7.050000	-0.356903	143.142288	-39.143472	-45.553346	-39.143472	-45.553346	-0.356882	143.133957
7.100000	-0.360407	141.681824	-39.126015	-47.379768	-39.126015	-47.379768	-0.360386	141.673313
7.150000	-0.363908	140.217503	-39.112204	-49.203075	-39.112204	-49.203075	-0.363886	140.208808
7.200000	-0.367404	138.749270	-39.102045	-51.022984	-39.102045	-51.022984	-0.367382	138.740386
7.250000	-0.370896	137.277072	-39.095545	-52.839215	-39.095545	-52.839215	-0.370874	137.267995
7.300000	-0.374383	135.800861	-39.092708	-54.651499	-39.092708	-54.651499	-0.374360	135.791588
7.350000	-0.377864	134.320594	-39.093537	-56.459575	-39.093537	-56.459575	-0.377841	134.311120
7.400000	-0.381338	132.836232	-39.098033	-58.263196	-39.098033	-58.263196	-0.381315	132.826552
7.450000	-0.384806	131.347739	-39.106199	-60.062131	-39.106199	-60.062131	-0.384782	131.337850
7.500000	-0.388266	129.855087	-39.118033	-61.856167	-39.118033	-61.856167	-0.388241	129.844984
7.550000	-0.391718	128.358066	-39.133693	-63.644884	-39.133693	-63.644884	-0.391692	128.347745
7.600000	-0.395161	126.856838	-39.153020	-65.428332	-39.153020	-65.428332	-0.395135	126.846294
7.650000	-0.398597	125.351389	-39.176012	-67.206378	-39.176012	-67.206378	-0.398570	125.340618
7.700000	-0.402023	123.841709	-39.202670	-68.978918	-39.202670	-68.978918	-0.401996	123.830707
7.750000	-0.405441	122.327794	-39.232995	-70.745886	-39.232995	-70.745886	-0.405413	122.316557
7.800000	-0.408849	120.809646	-39.266993	-72.507252	-39.266993	-72.507252	-0.408821	120.798169
7.850000	-0.412249	119.287272	-39.304668	-74.263028	-39.304668	-74.263028	-0.412221	119.275550
7.900000	-0.415640	117.760684	-39.346032	-76.013271	-39.346032	-76.013271	-0.415611	117.748713
7.950000	-0.419023	116.229901	-39.391098	-77.758087	-39.391098	-77.758087	-0.418993	116.217677
8.000000	-0.422396	114.694946	-39.439886	-79.497635	-39.439886	-79.497635	-0.422366	114.682464
8.050000	-0.425762	113.155850	-39.492422	-81.232130	-39.492422	-81.232130	-0.425731	113.143106
8.100000	-0.429120	111.612649	-39.548741	-82.961849	-39.548741	-82.961849	-0.429088	111.599638
8.150000	-0.432471	110.065384	-39.608883	-84.687135	-39.608883	-84.687135	-0.432439	110.052103
8.200000	-0.435815	108.514106	-39.672903	-86.408401	-39.672903	-86.408401	-0.435782	108.500550
8.250000	-0.439153	106.958867	-39.740865	-88.126138	-39.740865	-88.126138	-0.439120	106.945032
8.300000	-0.442486	105.399729	-39.812848	-89.840921	-39.812848	-89.840921	-0.442452	105.385610
8.350000	-0.445814	103.836760	-39.888947	-91.553412	-39.888947	-91.553412	-0.445780	103.822353
8.400000	-0.449139	102.270032	-39.969277	-93.264373	-39.969277	-93.264373	-0.449105	102.255333
8.450000	-0.452462	100.699626	-40.053973	-94.974673	-40.053973	-94.974673	-0.452427	100.684631
8.500000	-0.455784	99.125628	-40.143197	-96.685296	-40.143197	-96.685296	-0.455749	99.110334
8.550000	-0.459106	97.548132	-40.237139	-98.397354	-40.237139	-98.397354	-0.459071	97.532534
8.600000	-0.462430	95.967237	-40.336022	-100.112101	-40.336022	-100.112101	-0.462394	95.951331
8.650000	-0.465757	94.383048	-40.440110	-101.830944	-40.440110	-101.830944	-0.465720	94.366831
8.700000	-0.469088	92.795679	-40.549713	-103.555465	-40.549713	-103.555465	-0.469052	92.779146
8.750000	-0.472426	91.205247	-40.665195	-105.287436	-40.665195	-105.287436	-0.472390	91.188395
8.800000	-0.475773	89.611756	-40.787200	-107.029361	-40.787200	-107.029361	-0.475736	89.594582
8.850000	-0.479130	88.015473	-40.916048	-108.783183	-40.916048	-108.783183	-0.479093	87.997973
8.900000	-0.482499	86.416534	-41.052339	-110.551445	-41.052339	-110.551445	-0.482463	86.398705
8.950000	-0.485883	84.815085	-41.196786	-112.337008	-41.196786	-112.337008	-0.485846	84.796924
9.000000	-0.489284	83.211276	-41.350230	-114.143088	-41.350230	-114.143088	-0.489247	83.192780
9.050000	-0.492703	81.605265	-41.513675	-115.973309	-41.513675	-115.973309	-0.492667	81.586430
9.100000	-0.496145	79.997212	-41.688318	-117.831764	-41.688318	-117.831764	-0.496109	79.978036
9.150000	-0.499610	78.387286	-41.875597	-119.723076	-41.875597	-119.723076	-0.499575	78.367767
9.200000	-0.503101	76.775660	-42.077245	-121.652482	-42.077245	-121.652482	-0.503067	76.755795
9.250000	-0.506622	75.162514	-42.295374	-123.625919	-42.295374	-123.625919	-0.506589	75.142300
9.300000	-0.510175	73.548030	-42.532563	-125.650126	-42.532563	-125.650126	-0.510143	73.527466
9.350000	-0.513763	71.932397	-42.792000	-127.732758	-42.792000	-127.732758	-0.513732	71.911482
9.400000	-0.517389	70.315810	-43.077655	-129.882509	-43.077655	-129.882509	-0.517358	70.294541
9.450000	-0.521055	68.698466	-43.394529	-132.109234	-43.394529	-132.109234	-0.521026	68.676841
9.500000	-0.524765	67.080567	-43.749002	-134.424060	-43.749002	-134.424060	-0.524737	67.058585
9.550000	-0.528522	65.462320	-44.149322	-136.839457	-44.149322	-136.839457	-0.528496	65.439979
9.600000	-0.532328	63.843934	-44.606334	-139.369200	-44.606334	-139.369200	-0.532304	63.821235
9.650000	-0.536188	62.225624	-45.134583	-142.028119	-45.134583	-142.028119	-0.536166	62.202564
9.700000	-0.540103	60.607606	-45.754037	-144.831384	-45.754037	-144.831384	-0.540083	60.584186
9.750000	-0.544078	58.990100	-46.492927	-147.792823	-46.492927	-147.792823	-0.544061	58.966319
9.800000	-0.548113	57.373284	-47.387796	-150.914222	-47.387796	-150.914222	-0.548098	57.349141
9.850000	-0.552217	55.757477	-48.512418	-154.207820	-48.512418	-154.207820	-0.552205	55.732972
9.900000	-0.556390	54.142861	-49.967766	-157.623520	-49.967766	-157.623520	-0.556381	54.117996
9.950000	-0.560635	52.529666	-51.947000	-161.020387	-51.947000	-161.020387	-0.560629	52.504440
10.000000	-0.564955	50.918123	-54.864788	-163.922296	-54.864788	-163.922296	-0.564953	50.892536
