! freq	dB(S11)	phase(S11)	dB(S12)	phase(S12)	
!     	dB(S21)	phase(S21)	dB(S22)	phase(S22)	
!S-par simulation data
#  GHz  S  DB  R 50
0.000000	0.000000	-0.000000	-238.959059	180.000000	-238.959059	180.000000	0.000000	-0.000000
0.050000	-0.002061	-3.312969	-63.838825	85.881362	-63.838825	85.881362	-0.002061	-3.313156
0.100000	-0.007153	-6.609689	-57.859999	83.103633	-57.859999	83.103633	-0.007153	-6.610062
0.150000	-0.013302	-9.885100	-54.373841	80.017866	-54.373841	80.017866	-0.013301	-9.885662
0.200000	-0.019267	-13.142214	-51.916010	76.844834	-51.916010	76.844834	-0.019266	-13.142965
0.250000	-0.024620	-16.383825	-50.025966	73.639658	-50.025966	73.639658	-0.024617	-16.384765
0.300000	-0.029354	-19.611259	-48.498281	70.427539	-48.498281	70.427539	-0.029351	-19.612387
0.350000	-0.033614	-22.824723	-47.222356	67.221628	-47.222356	67.221628	-0.033611	-22.826033
0.400000	-0.037522	-26.022869	-46.132927	64.029622	-46.132927	64.029622	-0.037518	-26.024354
0.450000	-0.041166	-29.203112	-45.188858	60.857802	-45.188858	60.857802	-0.041161	-29.204764
0.500000	-0.044628	-32.364388	-44.359880	57.709119	-44.359880	57.709119	-0.044623	-32.366198
0.550000	-0.047956	-35.504834	-43.625293	54.586578	-43.625293	54.586578	-0.047951	-35.506792
0.600000	-0.051178	-38.621517	-42.970816	51.494187	-42.970816	51.494187	-0.051173	-38.623613
0.650000	-0.054319	-41.713515	-42.383785	48.433212	-42.383785	48.433212	-0.054313	-41.715740
0.700000	-0.057393	-44.779559	-41.854745	45.405275	-41.854745	45.405275	-0.057388	-44.781904
0.750000	-0.060407	-47.817400	-41.376965	42.413217	-41.376965	42.413217	-0.060402	-47.819855
0.800000	-0.063366	-50.825804	-40.944310	39.458584	-40.944310	39.458584	-0.063360	-50.828361
0.850000	-0.066270	-53.804003	-40.551497	36.542345	-40.551497	36.542345	-0.066265	-53.806654
0.900000	-0.069121	-56.751109	-40.194267	33.665642	-40.194267	33.665642	-0.069115	-56.753845
0.950000	-0.071915	-59.666168	-39.869110	30.829719	-39.869110	30.829719	-0.071910	-59.668982
1.000000	-0.074651	-62.548476	-39.572935	28.035522	-39.572935	28.035522	-0.074645	-62.551360
1.050000	-0.077325	-65.397458	-39.303051	25.283856	-39.303051	25.283856	-0.077319	-65.400406
1.100000	-0.079935	-68.212661	-39.057097	22.575388	-39.057097	22.575388	-0.079929	-68.215666
1.150000	-0.082478	-70.993746	-38.832982	19.910656	-38.832982	19.910656	-0.082471	-70.996802
1.200000	-0.084950	-73.740483	-38.628839	17.290074	-38.628839	17.290074	-0.084943	-73.743583
1.250000	-0.087351	-76.452743	-38.442996	14.713942	-38.442996	14.713942	-0.087343	-76.455881
1.300000	-0.089677	-79.129739	-38.274209	12.183423	-38.274209	12.183423	-0.089668	-79.132910
1.350000	-0.091929	-81.772281	-38.120802	9.697629	-38.120802	9.697629	-0.091919	-81.775479
1.400000	-0.094106	-84.380504	-37.981524	7.256544	-37.981524	7.256544	-0.094095	-84.383724
1.450000	-0.096208	-86.954619	-37.855225	4.860062	-37.855225	4.860062	-0.096196	-86.957855
1.500000	-0.098237	-89.494903	-37.740850	2.507992	-37.740850	2.507992	-0.098224	-89.498150
1.550000	-0.100194	-92.001692	-37.637423	0.200063	-37.637423	0.200063	-0.100179	-92.004945
1.600000	-0.102080	-94.475378	-37.544038	-2.064069	-37.544038	-2.064069	-0.102064	-94.478631
1.650000	-0.103897	-96.916399	-37.459855	-4.284817	-37.459855	-4.284817	-0.103880	-96.919649
1.700000	-0.105642	-99.322136	-37.384787	-6.458509	-37.384787	-6.458509	-0.105624	-99.325377
1.750000	-0.107330	-101.699035	-37.316715	-8.593598	-37.316715	-8.593598	-0.107311	-101.702263
1.800000	-0.108958	-104.044845	-37.255625	-10.686945	-37.255625	-10.686945	-0.108938	-104.048055
1.850000	-0.110529	-106.360150	-37.200873	-12.739208	-37.200873	-12.739208	-0.110508	-106.363337
1.900000	-0.112048	-108.645558	-37.151850	-14.751097	-37.151850	-14.751097	-0.112026	-108.648718
1.950000	-0.113517	-110.901698	-37.107982	-16.723371	-37.107982	-16.723371	-0.113494	-110.904826
2.000000	-0.114941	-113.129215	-37.068727	-18.656841	-37.068727	-18.656841	-0.114917	-113.132307
2.050000	-0.116323	-115.328770	-37.033573	-20.552364	-37.033573	-20.552364	-0.116299	-115.331822
2.100000	-0.117667	-117.501033	-37.002032	-22.410840	-37.002032	-22.410840	-0.117642	-117.504041
2.150000	-0.118978	-119.646684	-36.973645	-24.233217	-36.973645	-24.233217	-0.118952	-119.649643
2.200000	-0.120258	-121.766407	-36.947974	-26.020484	-36.947974	-26.020484	-0.120231	-121.769313
2.250000	-0.121511	-123.860891	-36.924603	-27.773673	-36.924603	-27.773673	-0.121484	-123.863741
2.300000	-0.122742	-125.930825	-36.903138	-29.493857	-36.903138	-29.493857	-0.122715	-125.933615
2.350000	-0.123954	-127.976899	-36.883203	-31.182150	-36.883203	-31.182150	-0.123926	-127.979625
2.400000	-0.125150	-129.999801	-36.864444	-32.839704	-36.864444	-32.839704	-0.125122	-130.002459
2.450000	-0.126334	-132.000215	-36.846520	-34.467710	-36.846520	-34.467710	-0.126305	-132.002803
2.500000	-0.127509	-133.978821	-36.829113	-36.067395	-36.829113	-36.067395	-0.127480	-133.981336
2.550000	-0.128678	-135.935407	-36.811913	-37.638908	-36.811913	-37.638908	-0.128648	-135.937845
2.600000	-0.129844	-137.871586	-36.794613	-39.184782	-36.794613	-39.184782	-0.129813	-137.873945
2.650000	-0.131010	-139.788020	-36.776944	-40.706350	-36.776944	-40.706350	-0.130979	-139.790297
2.700000	-0.132179	-141.685358	-36.758655	-42.204975	-36.758655	-42.204975	-0.132148	-141.687551
2.750000	-0.133353	-143.564242	-36.739505	-43.682046	-36.739505	-43.682046	-0.133321	-143.566349
2.800000	-0.134535	-145.425306	-36.719275	-45.138978	-36.719275	-45.138978	-0.134503	-145.427325
2.850000	-0.135726	-147.269173	-36.697755	-46.577207	-36.697755	-46.577207	-0.135694	-147.271102
2.900000	-0.136930	-149.096456	-36.674754	-47.998185	-36.674754	-47.998185	-0.136897	-149.098294
2.950000	-0.138148	-150.907758	-36.650094	-49.403382	-36.650094	-49.403382	-0.138115	-150.909503
3.000000	-0.139382	-152.703672	-36.623613	-50.794276	-36.623613	-50.794276	-0.139348	-152.705323
3.050000	-0.140633	-154.484780	-36.595161	-52.172353	-36.595161	-52.172353	-0.140598	-154.486336
3.100000	-0.141903	-156.251652	-36.564606	-53.539102	-36.564606	-53.539102	-0.141868	-156.253114
3.150000	-0.143195	-158.004850	-36.531826	-54.896010	-36.531826	-54.896010	-0.143159	-158.006216
3.200000	-0.144508	-159.744924	-36.496715	-56.244557	-36.496715	-56.244557	-0.144472	-159.746194
3.250000	-0.145844	-161.472413	-36.459180	-57.586213	-36.459180	-57.586213	-0.145807	-161.473587
3.300000	-0.147205	-163.187845	-36.419140	-58.922435	-36.419140	-58.922435	-0.147168	-163.188924
3.350000	-0.148592	-164.891739	-36.376529	-60.254658	-36.376529	-60.254658	-0.148554	-164.892723
3.400000	-0.150005	-166.584602	-36.331291	-61.584294	-36.331291	-61.584294	-0.149967	-166.585492
3.450000	-0.151446	-168.266932	-36.283382	-62.912727	-36.283382	-62.912727	-0.151407	-168.267729
3.500000	-0.152915	-169.939216	-36.232770	-64.241310	-36.232770	-64.241310	-0.152875	-169.939922
3.550000	-0.154412	-171.601932	-36.179431	-65.571361	-36.179431	-65.571361	-0.154372	-171.602547
3.600000	-0.155940	-173.255547	-36.123354	-66.904155	-36.123354	-66.904155	-0.155899	-173.256073
3.650000	-0.157498	-174.900520	-36.064536	-68.240931	-36.064536	-68.240931	-0.157456	-174.900958
3.700000	-0.159086	-176.537297	-36.002981	-69.582876	-36.002981	-69.582876	-0.159044	-176.537650
3.750000	-0.160706	-178.166320	-35.938702	-70.931136	-35.938702	-70.931136	-0.160663	-178.166589
3.800000	-0.162359	-179.787719	-35.871579	-72.287173	-35.871579	-72.287173	-0.162316	-179.787907
3.850000	-0.164043	178.597748	-35.801777	-73.651748	-35.801777	-73.651748	-0.164000	178.597639
3.900000	-0.165761	176.989670	-35.729329	-75.025842	-35.729329	-75.025842	-0.165717	176.989637
3.950000	-0.167510	175.387644	-35.654270	-76.410384	-35.654270	-76.410384	-0.167466	175.387684
4.000000	-0.169293	173.791275	-35.576641	-77.806245	-35.576641	-77.806245	-0.169248	173.791385
4.050000	-0.171109	172.200175	-35.496487	-79.214245	-35.496487	-79.214245	-0.171064	172.200353
4.100000	-0.172957	170.613967	-35.413852	-80.635147	-35.413852	-80.635147	-0.172912	170.614208
4.150000	-0.174840	169.032279	-35.328785	-82.069663	-35.328785	-82.069663	-0.174794	169.032581
4.200000	-0.176755	167.454746	-35.241336	-83.518450	-35.241336	-83.518450	-0.176709	167.455105
4.250000	-0.178704	165.881012	-35.151553	-84.982111	-35.151553	-84.982111	-0.178658	165.881425
4.300000	-0.180687	164.310728	-35.059486	-86.461202	-35.059486	-86.461202	-0.180641	164.311191
4.350000	-0.182703	162.743551	-34.965184	-87.956225	-34.965184	-87.956225	-0.182657	162.744061
4.400000	-0.184753	161.179145	-34.868695	-89.467638	-34.868695	-89.467638	-0.184708	161.179697
4.450000	-0.186837	159.617181	-34.770065	-90.995849	-34.770065	-90.995849	-0.186791	159.617771
4.500000	-0.188955	158.057335	-34.669338	-92.541224	-34.669338	-92.541224	-0.188909	158.057959
4.550000	-0.191106	156.499291	-34.566557	-94.104083	-34.566557	-94.104083	-0.191061	156.499946
4.600000	-0.193291	154.942739	-34.461761	-95.684709	-34.461761	-95.684709	-0.193246	154.943419
4.650000	-0.195510	153.387373	-34.354985	-97.283342	-34.354985	-97.283342	-0.195466	153.388075
4.700000	-0.197763	151.832895	-34.246263	-98.900188	-34.246263	-98.900188	-0.197719	151.833614
4.750000	-0.200050	150.279012	-34.135624	-100.535416	-34.135624	-100.535416	-0.200007	150.279744
4.800000	-0.202371	148.725436	-34.023093	-102.189163	-34.023093	-102.189163	-0.202329	148.726176
4.850000	-0.204727	147.171885	-33.908693	-103.861532	-33.908693	-103.861532	-0.204684	147.172629
4.900000	-0.207116	145.618082	-33.792440	-105.552599	-33.792440	-105.552599	-0.207075	145.618825
4.950000	-0.209541	144.063756	-33.674348	-107.262410	-33.674348	-107.262410	-0.209500	144.064493
5.000000	-0.212000	142.508640	-33.554427	-108.990988	-33.554427	-108.990988	-0.211960	142.509367
5.050000	-0.214495	140.952414	-33.432525	-110.739141	-33.432525	-110.739141	-0.214456	140.953126
5.100000	-0.217026	139.394857	-33.308793	-112.506023	-33.308793	-112.506023	-0.216988	139.395549
5.150000	-0.219592	137.835718	-33.183225	-114.291583	-33.183225	-114.291583	-0.219555	137.836385
5.200000	-0.222194	136.274750	-33.055812	-116.095749	-33.055812	-116.095749	-0.222158	136.275387
5.250000	-0.224833	134.711712	-32.926540	-117.918428	-32.926540	-117.918428	-0.224798	134.712314
5.300000	-0.227509	133.146365	-32.795391	-119.759511	-32.795391	-119.759511	-0.227476	133.146927
5.350000	-0.230223	131.578477	-32.662340	-121.618873	-32.662340	-121.618873	-0.230191	131.578994
5.400000	-0.232975	130.007818	-32.527361	-123.496371	-32.527361	-123.496371	-0.232944	130.008286
5.450000	-0.235767	128.434165	-32.390422	-125.391849	-32.390422	-125.391849	-0.235737	128.434578
5.500000	-0.238598	126.857298	-32.251485	-127.305135	-32.251485	-127.305135	-0.238570	126.857650
5.550000	-0.241471	125.276999	-32.110511	-129.236043	-32.110511	-129.236043	-0.241444	125.277285
5.600000	-0.244386	123.693056	-31.967453	-131.184378	-31.967453	-131.184378	-0.244360	123.693272
5.650000	-0.247345	122.105262	-31.822263	-133.149929	-31.822263	-133.149929	-0.247320	122.105401
5.700000	-0.250348	120.513411	-31.674887	-135.132476	-31.674887	-135.132476	-0.250325	120.513468
5.750000	-0.253398	118.917302	-31.525266	-137.131788	-31.525266	-137.131788	-0.253377	118.917271
5.800000	-0.256497	117.316739	-31.373340	-139.147622	-31.373340	-139.147622	-0.256477	117.316614
5.850000	-0.259645	115.711527	-31.219040	-141.179728	-31.219040	-141.179728	-0.259627	115.711302
5.900000	-0.262846	114.101475	-31.062298	-143.227845	-31.062298	-143.227845	-0.262830	114.101144
5.950000	-0.266102	112.486395	-30.903039	-145.291705	-30.903039	-145.291705	-0.266087	112.485952
6.000000	-0.269414	110.866104	-30.741184	-147.371031	-30.741184	-147.371031	-0.269402	110.865543
6.050000	-0.272787	109.240420	-30.576651	-149.465540	-30.576651	-149.465540	-0.272776	109.239733
6.100000	-0.276223	107.609163	-30.409352	-151.574942	-30.409352	-151.574942	-0.276214	107.608344
6.150000	-0.279726	105.972158	-30.239197	-153.698942	-30.239197	-153.698942	-0.279719	105.971199
6.200000	-0.283298	104.329228	-30.066091	-155.837239	-30.066091	-155.837239	-0.283293	104.328123
6.250000	-0.286945	102.680203	-29.889933	-157.989529	-29.889933	-157.989529	-0.286943	102.678943
6.300000	-0.290675	101.024630	-29.710313	-160.156085	-29.710313	-160.156085	-0.290674	101.023206
6.350000	-0.294489	99.362604	-29.527405	-162.335989	-29.527405	-162.335989	-0.294490	99.361009
6.400000	-0.298392	97.693957	-29.341093	-164.528930	-29.341093	-164.528930	-0.298396	97.692182
6.450000	-0.302391	96.018520	-29.151258	-166.734602	-29.151258	-166.734602	-0.302398	96.016555
6.500000	-0.306492	94.336124	-28.957773	-168.952696	-28.957773	-168.952696	-0.306501	94.333960
6.550000	-0.310702	92.646599	-28.760505	-171.182911	-28.760505	-171.182911	-0.310715	92.644226
6.600000	-0.315030	90.949773	-28.559318	-173.424952	-28.559318	-173.424952	-0.315045	90.947180
6.650000	-0.319483	89.245473	-28.354066	-175.678530	-28.354066	-175.678530	-0.319502	89.242649
6.700000	-0.324071	87.533521	-28.144598	-177.943370	-28.144598	-177.943370	-0.324094	87.530454
6.750000	-0.328806	85.813737	-27.930753	179.780793	-27.930753	179.780793	-0.328832	85.810415
6.800000	-0.333697	84.085933	-27.712364	177.494205	-27.712364	177.494205	-0.333727	84.082342
6.850000	-0.338759	82.349915	-27.489253	175.197093	-27.489253	175.197093	-0.338793	82.346043
6.900000	-0.344005	80.605483	-27.261234	172.889660	-27.261234	172.889660	-0.344043	80.601313
6.950000	-0.349450	78.852423	-27.028107	170.572081	-27.028107	170.572081	-0.349493	78.847941
7.000000	-0.355112	77.090512	-26.789662	168.244499	-26.789662	168.244499	-0.355161	77.085703
7.050000	-0.361011	75.319513	-26.545675	165.907016	-26.545675	165.907016	-0.361064	75.314357
7.100000	-0.367167	73.539169	-26.295907	163.559694	-26.295907	163.559694	-0.367226	73.533649
7.150000	-0.373605	71.749205	-26.040102	161.202538	-26.040102	161.202538	-0.373671	71.743303
7.200000	-0.380351	69.949324	-25.777986	158.835496	-25.777986	158.835496	-0.380424	69.943018
7.250000	-0.387436	68.139198	-25.509265	156.458447	-25.509265	156.458447	-0.387516	68.132467
7.300000	-0.394875	66.318954	-25.234350	154.071652	-25.234350	154.071652	-0.394963	66.311776
7.350000	-0.402747	64.487121	-24.951291	151.673791	-24.951291	151.673791	-0.402844	64.479469
7.400000	-0.411075	62.643838	-24.660575	149.265019	-24.660575	149.265019	-0.411181	62.635687
7.450000	-0.419910	60.788611	-24.361797	146.844805	-24.361797	146.844805	-0.420026	60.779933
7.500000	-0.429308	58.920884	-24.054513	144.412475	-24.054513	144.412475	-0.429436	58.911649
7.550000	-0.439353	57.039728	-23.737773	141.966877	-23.737773	141.966877	-0.439493	57.029903
7.600000	-0.450108	55.144693	-23.411452	139.507216	-23.411452	139.507216	-0.450261	55.134244
7.650000	-0.461665	53.234959	-23.074958	137.032196	-23.074958	137.032196	-0.461833	53.223849
7.700000	-0.474130	51.309584	-22.727636	134.540245	-22.727636	134.540245	-0.474314	51.297774
7.750000	-0.487627	49.367486	-22.368766	132.029456	-22.368766	132.029456	-0.487829	49.354932
7.800000	-0.502305	47.407410	-21.997544	129.497531	-21.997544	129.497531	-0.502527	47.394066
7.850000	-0.518341	45.427903	-21.613079	126.941699	-21.613079	126.941699	-0.518585	45.413717
7.900000	-0.535948	43.427267	-21.214375	124.358617	-21.214375	124.358617	-0.536216	43.412184
7.950000	-0.555383	41.403515	-20.800317	121.744253	-20.800317	121.744253	-0.555679	41.387473
8.000000	-0.576964	39.354309	-20.369655	119.093726	-20.369655	119.093726	-0.577290	39.337240
8.050000	-0.601080	37.276885	-19.920979	116.401113	-19.920979	116.401113	-0.601441	37.258712
8.100000	-0.628217	35.167963	-19.452701	113.659195	-19.452701	113.659195	-0.628618	35.148602
8.150000	-0.659024	33.023302	-18.962586	110.858554	-18.962586	110.858554	-0.659471	33.002655
8.200000	-0.694308	30.838075	-18.448449	107.987933	-18.448449	107.987933	-0.694808	30.816029
8.250000	-0.735061	28.606890	-17.908321	105.034103	-17.908321	105.034103	-0.735623	28.583316
8.300000	-0.782624	26.322898	-17.339509	101.979885	-17.339509	101.979885	-0.783260	26.297646
8.350000	-0.838721	23.978246	-16.739406	98.804418	-16.739406	98.804418	-0.839445	23.951138
8.400000	-0.905943	21.561788	-16.103186	95.477415	-16.103186	95.477415	-0.906774	21.532609
8.450000	-0.987538	19.062302	-15.427697	91.964230	-15.427697	91.964230	-0.988502	19.030794
8.500000	-1.088199	16.465867	-14.708560	88.217787	-14.708560	88.217787	-1.089331	16.431710
8.550000	-1.214702	13.756750	-13.940905	84.175328	-13.940905	84.175328	-1.216049	13.719544
8.600000	-1.377200	10.918541	-13.119196	79.750602	-13.119196	79.750602	-1.378833	10.877778
8.650000	-1.590258	7.941401	-12.240424	74.833952	-12.240424	74.833952	-1.592283	7.896434
8.700000	-1.877315	4.829803	-11.300922	69.264963	-11.300922	69.264963	-1.879897	4.779799
8.750000	-2.273682	1.638116	-10.303969	62.835560	-10.303969	62.835560	-2.277095	1.582044
8.800000	-2.834626	-1.453112	-9.261901	55.260864	-9.261901	55.260864	-2.839344	-1.516387
8.850000	-3.637235	-3.944147	-8.208885	46.197253	-8.208885	46.197253	-3.644125	-4.015205
8.900000	-4.756895	-4.569761	-7.214525	35.281078	-7.214525	35.281078	-4.767536	-4.645728
8.950000	-6.101268	-0.714421	-6.399022	22.332170	-6.399022	22.332170	-6.117811	-0.779018
9.000000	-6.962898	10.035486	-5.920018	7.661971	-5.920018	7.661971	-6.984118	10.022283
9.050000	-6.363359	22.400647	-5.899584	-7.684959	-5.899584	-7.684959	-6.380802	22.447317
9.100000	-4.875094	28.016364	-6.337607	-22.293323	-6.337607	-22.293323	-4.885601	28.078728
9.150000	-3.523129	27.585423	-7.109375	-35.132543	-7.109375	-35.132543	-3.529183	27.640391
9.200000	-2.566847	24.491207	-8.058216	-45.892823	-8.058216	-45.892823	-2.570518	24.535313
9.250000	-1.933673	20.623635	-9.064144	-54.762031	-9.064144	-54.762031	-1.936043	20.658285
9.300000	-1.515703	16.723545	-10.058559	-62.108107	-10.058559	-62.108107	-1.517317	16.750616
9.350000	-1.235766	13.027539	-11.008212	-68.274348	-11.008212	-68.274348	-1.236916	13.048584
9.400000	-1.045316	9.588973	-11.897809	-73.528258	-11.897809	-73.528258	-1.046169	9.605185
9.450000	-0.911707	6.385116	-12.729550	-78.103949	-12.729550	-78.103949	-0.912360	6.397369
9.500000	-0.816911	3.387275	-13.503624	-82.144015	-13.503624	-82.144015	-0.817428	3.396249
9.550000	-0.748780	0.562142	-14.224259	-85.761839	-14.224259	-85.761839	-0.749203	0.568370
9.600000	-0.699481	-2.119065	-14.895812	-89.039773	-14.895812	-89.039773	-0.699838	-2.115157
9.650000	-0.663749	-4.680543	-15.522780	-92.039784	-15.522780	-92.039784	-0.664061	-4.678603
9.700000	-0.637884	-7.143252	-16.110474	-94.811597	-16.110474	-94.811597	-0.638164	-7.142986
9.750000	-0.619565	-9.521189	-16.661129	-97.386622	-16.661129	-97.386622	-0.619826	-9.522339
9.800000	-0.606739	-11.830591	-17.181404	-99.800557	-17.181404	-99.800557	-0.606989	-11.832940
9.850000	-0.598339	-14.079455	-17.672257	-102.069728	-17.672257	-102.069728	-0.598585	-14.082801
9.900000	-0.593284	-16.278217	-18.138552	-104.216237	-18.138552	-104.216237	-0.593532	-16.282381
9.950000	-0.591173	-18.428997	-18.577650	-106.241973	-18.577650	-106.241973	-0.591428	-18.433794
10.000000	-0.591100	-20.543797	-18.998542	-108.174239	-18.998542	-108.174239	-0.591365	-20.549079
