! freq	dB(S11)	phase(S11)	dB(S12)	phase(S12)	
!     	dB(S21)	phase(S21)	dB(S22)	phase(S22)	
!S-par simulation data
#  GHz  S  DB  R 50
0.000000	-0.000000	0.000000	-332.649885	0.000000	-332.649885	0.000000	-0.000000	0.000000
0.050000	-0.003024	-4.062510	-66.384351	85.974978	-66.384351	85.974978	-0.003028	-4.063644
0.100000	-0.009528	-8.095391	-60.384883	81.878465	-60.384883	81.878465	-0.009535	-8.097604
0.150000	-0.016174	-12.096669	-56.913617	77.811880	-56.913617	77.811880	-0.016177	-12.099966
0.200000	-0.022044	-16.074647	-54.478940	73.824120	-54.478940	73.824120	-0.022045	-16.079050
0.250000	-0.027210	-20.029825	-52.616992	69.890209	-52.616992	69.890209	-0.027211	-20.035333
0.300000	-0.032005	-23.962025	-51.119956	65.988651	-51.119956	65.988651	-0.032009	-23.968622
0.350000	-0.036616	-27.867077	-49.880754	62.119291	-49.880754	62.119291	-0.036626	-27.874740
0.400000	-0.041153	-31.742384	-48.832736	58.284547	-48.832736	58.284547	-0.041169	-31.751094
0.450000	-0.045647	-35.582980	-47.935337	54.490853	-47.935337	54.490853	-0.045669	-35.592725
0.500000	-0.050100	-39.387304	-47.157389	50.740816	-47.157389	50.740816	-0.050126	-39.398084
0.550000	-0.054492	-43.152948	-46.477626	47.037947	-46.477626	47.037947	-0.054522	-43.164770
0.600000	-0.058799	-46.876531	-45.881208	43.386924	-45.881208	43.386924	-0.058831	-46.889408
0.650000	-0.062986	-50.553467	-45.357705	39.793942	-45.357705	39.793942	-0.063020	-50.567417
0.700000	-0.067039	-54.184867	-44.895115	36.258060	-44.895115	36.258060	-0.067073	-54.199910
0.750000	-0.070939	-57.769153	-44.485839	32.781639	-44.485839	32.781639	-0.070973	-57.785308
0.800000	-0.074662	-61.302379	-44.125143	29.370084	-44.125143	29.370084	-0.074696	-61.319663
0.850000	-0.078201	-64.784326	-43.807037	26.024122	-43.807037	26.024122	-0.078235	-64.802752
0.900000	-0.081553	-68.214781	-43.526656	22.744476	-43.526656	22.744476	-0.081586	-68.234355
0.950000	-0.084714	-71.592787	-43.280312	19.532873	-43.280312	19.532873	-0.084747	-71.613512
1.000000	-0.087688	-74.917912	-43.064657	16.390418	-43.064657	16.390418	-0.087719	-74.939785
1.050000	-0.090477	-78.189939	-42.876752	13.318002	-42.876752	13.318002	-0.090507	-78.212953
1.100000	-0.093088	-81.408852	-42.713994	10.316314	-42.713994	10.316314	-0.093118	-81.432995
1.150000	-0.095530	-84.574818	-42.574055	7.385861	-42.574055	7.385861	-0.095560	-84.600077
1.200000	-0.097812	-87.688175	-42.454841	4.526985	-42.454841	4.526985	-0.097842	-87.714534
1.250000	-0.099944	-90.749415	-42.354448	1.739873	-42.354448	1.739873	-0.099975	-90.776857
1.300000	-0.101935	-93.758062	-42.271459	-0.973872	-42.271459	-0.973872	-0.101969	-93.786572
1.350000	-0.103799	-96.716012	-42.203899	-3.615912	-42.203899	-3.615912	-0.103836	-96.745575
1.400000	-0.105547	-99.624129	-42.150291	-6.186477	-42.150291	-6.186477	-0.105588	-99.654733
1.450000	-0.107190	-102.483372	-42.109258	-8.685926	-42.109258	-8.685926	-0.107237	-102.515007
1.500000	-0.108739	-105.294779	-42.079512	-11.114746	-42.079512	-11.114746	-0.108792	-105.327438
1.550000	-0.110204	-108.059455	-42.059842	-13.473550	-42.059842	-13.473550	-0.110265	-108.093134
1.600000	-0.111594	-110.778558	-42.049102	-15.763084	-42.049102	-15.763084	-0.111663	-110.813258
1.650000	-0.112918	-113.453296	-42.046201	-17.984234	-42.046201	-17.984234	-0.112997	-113.489018
1.700000	-0.114180	-116.080795	-42.050682	-20.131538	-42.050682	-20.131538	-0.114269	-116.117547
1.750000	-0.115397	-118.670236	-42.060345	-22.218590	-42.060345	-22.218590	-0.115497	-118.708026
1.800000	-0.116572	-121.219136	-42.074843	-24.240866	-42.074843	-24.240866	-0.116683	-121.257974
1.850000	-0.117712	-123.728791	-42.093261	-26.199890	-42.093261	-26.199890	-0.117834	-123.768692
1.900000	-0.118822	-126.200506	-42.114717	-28.097366	-42.114717	-28.097366	-0.118955	-126.241485
1.950000	-0.119909	-128.635585	-42.138362	-29.935189	-42.138362	-29.935189	-0.120052	-128.677660
2.000000	-0.120976	-131.035330	-42.163378	-31.715452	-42.163378	-31.715452	-0.121130	-131.078518
2.050000	-0.122029	-133.401032	-42.188979	-33.440455	-42.188979	-33.440455	-0.122193	-133.445354
2.100000	-0.123073	-135.733975	-42.214410	-35.112705	-42.214410	-35.112705	-0.123246	-135.779450
2.150000	-0.124110	-138.035428	-42.238950	-36.734925	-42.238950	-36.734925	-0.124292	-138.082077
2.200000	-0.125146	-140.306643	-42.261911	-38.310048	-42.261911	-38.310048	-0.125335	-140.354488
2.250000	-0.126182	-142.548855	-42.282642	-39.841217	-42.282642	-39.841217	-0.126378	-142.597919
2.300000	-0.127223	-144.763282	-42.300530	-41.331774	-42.300530	-41.331774	-0.127424	-144.813586
2.350000	-0.128270	-146.951120	-42.315003	-42.785255	-42.315003	-42.785255	-0.128477	-147.002686
2.400000	-0.129328	-149.113545	-42.325532	-44.205370	-42.325532	-44.205370	-0.129538	-149.166395
2.450000	-0.130397	-151.251713	-42.331631	-45.595987	-42.331631	-45.595987	-0.130611	-151.305870
2.500000	-0.131482	-153.366760	-42.332861	-46.961111	-42.332861	-46.961111	-0.131698	-153.422244
2.550000	-0.132584	-155.458892	-42.328587	-48.304124	-42.328587	-48.304124	-0.132802	-155.515728
2.600000	-0.133706	-157.530207	-42.318685	-49.630341	-42.318685	-49.630341	-0.133925	-157.588416
2.650000	-0.134849	-159.581775	-42.302868	-50.944013	-42.302868	-50.944013	-0.135068	-159.641379
2.700000	-0.136015	-161.614648	-42.280897	-52.249406	-42.280897	-52.249406	-0.136234	-161.675668
2.750000	-0.137207	-163.629859	-42.252583	-53.550768	-42.252583	-53.550768	-0.137425	-163.692318
2.800000	-0.138426	-165.628425	-42.217780	-54.852302	-42.217780	-54.852302	-0.138643	-165.692346
2.850000	-0.139674	-167.611346	-42.176387	-56.158129	-42.176387	-56.158129	-0.139891	-167.676751
2.900000	-0.140954	-169.579608	-42.128343	-57.472268	-42.128343	-57.472268	-0.141169	-169.646521
2.950000	-0.142267	-171.534184	-42.073624	-58.798604	-42.073624	-58.798604	-0.142480	-171.602628
3.000000	-0.143615	-173.476034	-42.012238	-60.140871	-42.012238	-60.140871	-0.143827	-173.546033
3.050000	-0.145000	-175.406110	-41.944224	-61.502633	-41.944224	-61.502633	-0.145211	-175.477689
3.100000	-0.146425	-177.325352	-41.869641	-62.887268	-41.869641	-62.887268	-0.146634	-177.398537
3.150000	-0.147891	-179.234699	-41.788571	-64.297960	-41.788571	-64.297960	-0.148099	-179.309516
3.200000	-0.149401	178.864920	-41.701109	-65.737690	-41.701109	-65.737690	-0.149608	178.788442
3.250000	-0.150957	176.972574	-41.607358	-67.209237	-41.607358	-67.209237	-0.151164	176.894407
3.300000	-0.152562	175.087335	-41.507427	-68.715174	-41.507427	-68.715174	-0.152768	175.007448
3.350000	-0.154219	173.208402	-41.401224	-70.258967	-41.401224	-70.258967	-0.154426	173.126762
3.400000	-0.155926	171.334262	-41.289760	-71.837869	-41.289760	-71.837869	-0.156133	171.250840
3.450000	-0.157693	169.464751	-41.172046	-73.459701	-41.172046	-73.459701	-0.157901	169.379509
3.500000	-0.159527	167.598843	-41.047694	-75.129370	-41.047694	-75.129370	-0.159737	167.511738
3.550000	-0.161424	165.735016	-40.917917	-76.841955	-40.917917	-76.841955	-0.161637	165.646009
3.600000	-0.163387	163.872410	-40.782780	-78.598730	-40.782780	-78.598730	-0.163603	163.781461
3.650000	-0.165420	162.010150	-40.642337	-80.400879	-40.642337	-80.400879	-0.165639	161.917215
3.700000	-0.167527	160.147340	-40.496629	-82.249504	-40.496629	-82.249504	-0.167750	160.052373
3.750000	-0.169723	158.282674	-40.344597	-84.152162	-40.344597	-84.152162	-0.169952	158.185617
3.800000	-0.172017	156.414700	-40.186179	-86.109844	-40.186179	-86.109844	-0.172251	156.315494
3.850000	-0.174403	154.542602	-40.022311	-88.117403	-40.022311	-88.117403	-0.174645	154.441188
3.900000	-0.176890	152.665319	-39.852929	-90.175624	-39.852929	-90.175624	-0.177139	152.561632
3.950000	-0.179484	150.781742	-39.677953	-92.285266	-39.677953	-92.285266	-0.179741	150.675718
4.000000	-0.182193	148.890720	-39.497287	-94.447059	-39.497287	-94.447059	-0.182459	148.782284
4.050000	-0.185050	146.989229	-39.309048	-96.670837	-39.309048	-96.670837	-0.185327	146.878291
4.100000	-0.188060	145.076027	-39.113624	-98.953432	-39.113624	-98.953432	-0.188349	144.962490
4.150000	-0.191225	143.150456	-38.911687	-101.290793	-38.911687	-101.290793	-0.191527	143.034226
4.200000	-0.194560	141.210961	-38.703006	-103.683653	-38.703006	-103.683653	-0.194875	141.091934
4.250000	-0.198080	139.255884	-38.487335	-106.132771	-38.487335	-106.132771	-0.198411	139.133947
4.300000	-0.201803	137.283453	-38.264412	-108.638943	-38.264412	-108.638943	-0.202151	137.158485
4.350000	-0.205803	135.287116	-38.030912	-111.215160	-38.030912	-111.215160	-0.206169	135.158951
4.400000	-0.210080	133.266727	-37.788181	-113.854070	-37.788181	-113.854070	-0.210468	133.135204
4.450000	-0.214655	131.220863	-37.536559	-116.553623	-37.536559	-116.553623	-0.215066	131.085809
4.500000	-0.219561	129.146787	-37.275620	-119.315053	-37.275620	-119.315053	-0.219998	129.008013
4.550000	-0.224807	127.044064	-37.006323	-122.135159	-37.006323	-122.135159	-0.225273	126.901379
4.600000	-0.230530	124.901968	-36.724139	-125.028871	-36.724139	-125.028871	-0.231028	124.755106
4.650000	-0.236803	122.715636	-36.428296	-127.997862	-36.428296	-127.997862	-0.237338	122.564299
4.700000	-0.243652	120.484251	-36.120235	-131.037316	-36.120235	-131.037316	-0.244228	120.328129
4.750000	-0.251154	118.203205	-35.799548	-134.149188	-35.799548	-134.149188	-0.251778	118.041953
4.800000	-0.259523	115.858531	-35.461913	-137.346890	-35.461913	-137.346890	-0.260202	115.691701
4.850000	-0.268803	113.449623	-35.109607	-140.625056	-35.109607	-140.625056	-0.269546	113.276752
4.900000	-0.279152	110.968098	-34.741627	-143.988870	-34.741627	-143.988870	-0.279967	110.788653
4.950000	-0.290925	108.393854	-34.352965	-147.455080	-34.352965	-147.455080	-0.291828	108.207135
5.000000	-0.304236	105.724342	-33.946317	-151.020376	-33.946317	-151.020376	-0.305241	105.529612
5.050000	-0.319406	102.944619	-33.520045	-154.694894	-33.520045	-154.694894	-0.320533	102.741000
5.100000	-0.337078	100.024179	-33.068433	-158.501967	-33.068433	-158.501967	-0.338354	99.810514
5.150000	-0.357536	96.955610	-32.594674	-162.442555	-32.594674	-162.442555	-0.358992	96.730638
5.200000	-0.381486	93.710859	-32.096280	-166.536437	-32.096280	-166.536437	-0.383161	93.473029
5.250000	-0.410199	90.239790	-31.566887	-170.820297	-31.566887	-170.820297	-0.412151	89.987030
5.300000	-0.444378	86.525045	-31.010927	-175.302617	-31.010927	-175.302617	-0.446673	86.255031
5.350000	-0.485954	82.499824	-30.422855	179.968752	-30.422855	179.968752	-0.488689	82.209476
5.400000	-0.536841	78.108912	-29.803392	174.957246	-29.803392	174.957246	-0.540138	77.794442
5.450000	-0.600450	73.250499	-29.148530	169.593046	-29.148530	169.593046	-0.604485	72.906852
5.500000	-0.680786	67.819382	-28.459846	163.808300	-28.459846	163.808300	-0.685796	67.440081
5.550000	-0.783744	61.665493	-27.739250	157.508835	-27.739250	157.508835	-0.790060	61.242011
5.600000	-0.917674	54.586629	-26.992018	150.575414	-26.992018	150.575414	-0.925750	54.107619
5.650000	-1.094688	46.297664	-26.228906	142.854497	-26.228906	142.854497	-1.105149	45.747808
5.700000	-1.330775	36.428491	-25.471962	134.178254	-25.471962	134.178254	-1.344418	35.787455
5.750000	-1.646604	24.467421	-24.758626	124.368579	-24.758626	124.368579	-1.664305	23.708647
5.800000	-2.063303	9.748299	-24.149270	113.301272	-24.149270	113.301272	-2.085577	8.839382
5.850000	-2.588334	-8.565491	-23.732684	101.016860	-23.732684	101.016860	-2.614081	-9.657535
5.900000	-3.175137	-31.219565	-23.611204	87.949885	-23.611204	87.949885	-3.199321	-32.507774
5.950000	-3.671702	-58.240803	-23.847597	75.064996	-23.847597	75.064996	-3.684390	-59.675056
6.000000	-3.853013	-87.913078	-24.384245	63.565839	-24.384245	63.565839	-3.846208	-89.351099
6.050000	-3.625043	-116.838229	-25.039718	54.036202	-25.039718	54.036202	-3.602676	-118.118157
6.100000	-3.140271	-142.108268	-25.653849	45.972785	-25.653849	45.972785	-3.113332	-143.158706
6.150000	-2.608147	-162.817789	-26.199703	38.570804	-26.199703	38.570804	-2.584057	-163.653929
6.200000	-2.142835	-179.425804	-26.721933	31.463837	-26.721933	31.463837	-2.123828	179.906998
6.250000	-1.772143	167.199458	-27.254355	24.652194	-27.254355	24.652194	-1.757876	166.657627
6.300000	-1.487303	156.283868	-27.803896	18.222944	-27.803896	18.222944	-1.476738	155.833311
6.350000	-1.269867	147.200979	-28.364183	12.220527	-28.364183	12.220527	-1.262016	146.817011
6.400000	-1.103143	139.501234	-28.926042	6.644142	-28.926042	6.644142	-1.097247	139.166215
6.450000	-0.974041	132.857221	-29.481855	1.465277	-29.481855	1.465277	-0.969552	132.558567
6.500000	-0.873230	127.041425	-30.025617	-3.350087	-30.025617	-3.350087	-0.869761	126.769981
6.550000	-0.792943	121.854387	-30.555923	-7.854400	-30.555923	-7.854400	-0.790230	121.603714
6.600000	-0.728489	117.176797	-31.070749	-12.080785	-31.070749	-12.080785	-0.726342	116.942059
6.650000	-0.676175	112.909568	-31.569838	-16.062923	-31.569838	-16.062923	-0.674459	112.687150
6.700000	-0.633521	108.985567	-32.052335	-19.823424	-32.052335	-19.823424	-0.632134	108.772667
6.750000	-0.598027	105.327591	-32.521704	-23.398824	-32.521704	-23.398824	-0.596898	105.122188
6.800000	-0.568439	101.898904	-32.977853	-26.803032	-32.977853	-26.803032	-0.567515	101.699368
6.850000	-0.543607	98.662717	-33.422078	-30.052683	-33.422078	-30.052683	-0.542846	98.467771
6.900000	-0.522678	95.590974	-33.855414	-33.160081	-33.855414	-33.160081	-0.522049	95.399599
6.950000	-0.504947	92.659038	-34.279324	-36.136763	-34.279324	-36.136763	-0.504425	92.470422
7.000000	-0.489839	89.845755	-34.695536	-38.993270	-34.695536	-38.993270	-0.489405	89.659252
7.050000	-0.476930	87.135089	-35.105405	-41.736851	-35.105405	-41.736851	-0.476570	86.950175
7.100000	-0.465881	84.513675	-35.510260	-44.373225	-35.510260	-44.373225	-0.465582	84.329923
7.150000	-0.456418	81.970293	-35.911411	-46.906765	-35.911411	-46.906765	-0.456171	81.787351
7.200000	-0.448318	79.495463	-36.310143	-49.340630	-36.310143	-49.340630	-0.448115	79.313042
7.250000	-0.441398	77.081128	-36.707726	-51.676858	-36.707726	-51.676858	-0.441232	76.898989
7.300000	-0.435544	74.722383	-37.104718	-53.912206	-37.104718	-53.912206	-0.435410	74.540319
7.350000	-0.430545	72.408673	-37.503997	-56.056029	-37.503997	-56.056029	-0.430439	72.226529
7.400000	-0.426350	70.137652	-37.905883	-58.101989	-37.905883	-58.101989	-0.426268	69.955290
7.450000	-0.422871	67.904859	-38.311655	-60.047889	-38.311655	-60.047889	-0.422810	67.722163
7.500000	-0.420035	65.706402	-38.722614	-61.890352	-38.722614	-61.890352	-0.419992	65.523276
7.550000	-0.417803	63.540083	-39.139546	-63.619695	-39.139546	-63.619695	-0.417777	63.356444
7.600000	-0.416098	61.401472	-39.564404	-65.234029	-39.564404	-65.234029	-0.416087	61.217254
7.650000	-0.414877	59.287973	-39.998569	-66.725221	-39.998569	-66.725221	-0.414878	59.103122
7.700000	-0.414104	57.197288	-40.443454	-68.083079	-40.443454	-68.083079	-0.414117	57.011758
7.750000	-0.413748	55.127370	-40.900499	-69.294960	-40.900499	-69.294960	-0.413772	54.941123
7.800000	-0.413785	53.076395	-41.371152	-70.345267	-41.371152	-70.345267	-0.413818	52.889400
7.850000	-0.414193	51.042728	-41.856836	-71.214817	-41.856836	-71.214817	-0.414234	50.854960
7.900000	-0.414955	49.024901	-42.358887	-71.880049	-42.358887	-71.880049	-0.415004	48.836338
7.950000	-0.416056	47.021590	-42.878466	-72.312061	-42.878466	-72.312061	-0.416112	46.832216
8.000000	-0.417484	45.031599	-43.416398	-72.475445	-43.416398	-72.475445	-0.417548	44.841400
8.050000	-0.419232	43.053841	-43.972933	-72.326960	-43.972933	-72.326960	-0.419302	42.862806
8.100000	-0.421291	41.087327	-44.547373	-71.814129	-44.547373	-71.814129	-0.421367	40.895447
8.150000	-0.423657	39.131150	-45.137509	-70.874033	-45.137509	-70.874033	-0.423740	38.938418
8.200000	-0.426327	37.184481	-45.738793	-69.432847	-45.738793	-69.432847	-0.426416	36.990891
8.250000	-0.429299	35.246551	-46.343177	-67.407218	-46.343177	-67.407218	-0.429394	35.052099
8.300000	-0.432574	33.316650	-46.937621	-64.709302	-46.937621	-64.709302	-0.432675	33.121333
8.350000	-0.436144	31.393925	-47.505234	-61.282128	-47.505234	-61.282128	-0.436251	31.197740
8.400000	-0.440033	29.478240	-48.012355	-57.012259	-48.012355	-57.012259	-0.440148	29.281186
8.450000	-0.444229	27.568612	-48.428771	-51.948966	-48.428771	-51.948966	-0.444350	27.370686
8.500000	-0.448736	25.664510	-48.716509	-46.184173	-48.716509	-46.184173	-0.448865	25.465713
8.550000	-0.453560	23.765428	-48.841008	-39.916573	-48.841008	-39.916573	-0.453697	23.565760
8.600000	-0.458746	21.871325	-48.759716	-33.456152	-48.759716	-33.456152	-0.458892	21.670787
8.650000	-0.464269	19.981215	-48.493430	-27.194191	-48.493430	-27.194191	-0.464425	19.779809
8.700000	-0.470139	18.094611	-48.066303	-21.421420	-48.066303	-21.421420	-0.470305	17.892340
8.750000	-0.476364	16.211064	-47.513602	-16.330282	-47.513602	-16.330282	-0.476543	16.007932
8.800000	-0.482959	14.330129	-46.873352	-12.007125	-46.873352	-12.007125	-0.483150	14.126142
8.850000	-0.489937	12.451361	-46.179370	-8.452985	-46.179370	-8.452985	-0.490142	12.246527
8.900000	-0.497330	10.574369	-45.455207	-5.642113	-45.455207	-5.642113	-0.497550	10.368698
8.950000	-0.505170	8.698674	-44.719514	-3.502746	-44.719514	-3.502746	-0.505407	8.492182
9.000000	-0.513446	6.823696	-43.989998	-1.898048	-43.989998	-1.898048	-0.513700	6.616400
9.050000	-0.522177	4.948964	-43.273744	-0.749043	-43.273744	-0.749043	-0.522450	4.740886
9.100000	-0.531385	3.073994	-42.574714	0.013806	-42.574714	0.013806	-0.531679	2.865161
9.150000	-0.541094	1.198283	-41.894788	0.449807	-41.894788	0.449807	-0.541410	0.988729
9.200000	-0.551329	-0.678688	-41.234510	0.608615	-41.234510	0.608615	-0.551669	-0.888924
9.250000	-0.562170	-2.557684	-40.591075	0.512812	-40.591075	0.512812	-0.562534	-2.768545
9.300000	-0.573614	-4.439223	-39.965865	0.215010	-39.965865	0.215010	-0.574004	-4.650648
9.350000	-0.585682	-6.323867	-39.358417	-0.252786	-39.358417	-0.252786	-0.586098	-6.535782
9.400000	-0.598409	-8.212256	-38.767445	-0.868967	-38.767445	-0.868967	-0.598851	-8.424574
9.450000	-0.611835	-10.105067	-38.191638	-1.615821	-38.191638	-1.615821	-0.612304	-10.317686
9.500000	-0.626002	-12.003019	-37.629705	-2.478858	-37.629705	-2.478858	-0.626497	-12.215817
9.550000	-0.640979	-13.907041	-37.079850	-3.448569	-37.079850	-3.448569	-0.641498	-14.119874
9.600000	-0.656878	-15.818515	-36.539419	-4.520757	-36.539419	-4.520757	-0.657418	-16.031198
9.650000	-0.673684	-17.737768	-36.009407	-5.678761	-36.009407	-5.678761	-0.674242	-17.950103
9.700000	-0.691462	-19.665745	-35.488764	-6.916842	-35.488764	-6.916842	-0.692032	-19.877500
9.750000	-0.710227	-21.602927	-34.977610	-8.227015	-34.977610	-8.227015	-0.710802	-21.813851
9.800000	-0.730192	-23.551790	-34.472171	-9.615285	-34.472171	-9.615285	-0.730762	-23.761550
9.850000	-0.751384	-25.512957	-33.972991	-11.074916	-33.972991	-11.074916	-0.751938	-25.721188
9.900000	-0.773852	-27.487242	-33.480154	-12.601795	-33.480154	-12.601795	-0.774373	-27.693536
9.950000	-0.797830	-29.477464	-32.990826	-14.202101	-32.990826	-14.202101	-0.798298	-29.681306
10.000000	-0.823215	-31.482691	-32.507910	-15.865371	-32.507910	-15.865371	-0.823608	-31.683574
