! freq	dB(S11)	phase(S11)	dB(S12)	phase(S12)	
!     	dB(S21)	phase(S21)	dB(S22)	phase(S22)	
!S-par simulation data
#  GHz  S  DB  R 50
0.000000	-0.000000	0.000000	-340.328604	0.000000	-340.328604	0.000000	-0.000000	0.000000
0.050000	-0.001323	-2.037476	-68.665385	87.568435	-68.665385	87.568435	-0.001322	-2.037363
0.100000	-0.004414	-4.064856	-62.638444	85.753108	-62.638444	85.753108	-0.004413	-4.064633
0.150000	-0.007921	-6.081111	-59.120213	83.807820	-59.120213	83.807820	-0.007920	-6.080780
0.200000	-0.011153	-8.089793	-56.628683	81.828706	-56.628683	81.828706	-0.011152	-8.089354
0.250000	-0.014057	-10.094690	-54.699626	79.838724	-54.699626	79.838724	-0.014056	-10.094143
0.300000	-0.016696	-12.097105	-53.127109	77.844320	-53.127109	77.844320	-0.016694	-12.096451
0.350000	-0.019172	-14.097650	-51.801087	75.849201	-51.801087	75.849201	-0.019170	-14.096888
0.400000	-0.021562	-16.096370	-50.655909	73.855608	-50.655909	73.855608	-0.021561	-16.095502
0.450000	-0.023916	-18.092861	-49.649620	71.865488	-49.649620	71.865488	-0.023915	-18.091887
0.500000	-0.026266	-20.087004	-48.752630	69.879763	-48.752630	69.879763	-0.026264	-20.085925
0.550000	-0.028623	-22.078463	-47.944226	67.899378	-47.944226	67.899378	-0.028620	-22.077279
0.600000	-0.030991	-24.066905	-47.209087	65.925159	-47.209087	65.925159	-0.030988	-24.065617
0.650000	-0.033372	-26.052007	-46.535549	63.957842	-46.535549	63.957842	-0.033368	-26.050615
0.700000	-0.035762	-28.033465	-45.914523	61.998085	-45.914523	61.998085	-0.035758	-28.031971
0.750000	-0.038159	-30.010739	-45.339018	60.047008	-45.339018	60.047008	-0.038155	-30.009142
0.800000	-0.040558	-31.983552	-44.803122	58.105154	-44.803122	58.105154	-0.040553	-31.981854
0.850000	-0.042955	-33.952026	-44.301709	56.172226	-44.301709	56.172226	-0.042950	-33.950228
0.900000	-0.045347	-35.915904	-43.830841	54.248694	-43.830841	54.248694	-0.045342	-35.914006
0.950000	-0.047729	-37.874393	-43.387516	52.336082	-43.387516	52.336082	-0.047724	-37.872397
1.000000	-0.050100	-39.827986	-42.968434	50.433299	-42.968434	50.433299	-0.050094	-39.825891
1.050000	-0.052456	-41.776100	-42.571363	48.541394	-42.571363	48.541394	-0.052450	-41.773909
1.100000	-0.054796	-43.718680	-42.194111	46.660353	-42.194111	46.660353	-0.054790	-43.716393
1.150000	-0.057118	-45.655797	-41.834726	44.789905	-41.834726	44.789905	-0.057112	-45.653415
1.200000	-0.059421	-47.586763	-41.491779	42.931231	-41.491779	42.931231	-0.059415	-47.584288
1.250000	-0.061706	-49.512364	-41.163518	41.082694	-41.163518	41.082694	-0.061700	-49.509797
1.300000	-0.063969	-51.431223	-40.849025	39.246731	-40.849025	39.246731	-0.063963	-51.428564
1.350000	-0.066214	-53.344528	-40.546803	37.420990	-40.546803	37.420990	-0.066208	-53.341779
1.400000	-0.068438	-55.251244	-40.256026	35.607226	-40.256026	35.607226	-0.068431	-55.248407
1.450000	-0.070643	-57.151901	-39.975638	33.804351	-39.975638	33.804351	-0.070637	-57.148976
1.500000	-0.072829	-59.046192	-39.704819	32.012791	-39.704819	32.012791	-0.072823	-59.043181
1.550000	-0.074997	-60.933942	-39.442796	30.232739	-39.442796	30.232739	-0.074991	-60.930845
1.600000	-0.077149	-62.815603	-39.188810	28.463298	-39.188810	28.463298	-0.077143	-62.812422
1.650000	-0.079284	-64.690272	-38.942227	26.705939	-38.942227	26.705939	-0.079277	-64.687009
1.700000	-0.081402	-66.558301	-38.702384	24.959956	-38.702384	24.959956	-0.081396	-66.554956
1.750000	-0.083508	-68.420211	-38.468717	23.224372	-38.468717	23.224372	-0.083501	-68.416786
1.800000	-0.085601	-70.275627	-38.240681	21.499752	-38.240681	21.499752	-0.085594	-70.272122
1.850000	-0.087682	-72.124557	-38.017757	19.785995	-38.017757	19.785995	-0.087676	-72.120974
1.900000	-0.089754	-73.967020	-37.799455	18.082976	-37.799455	18.082976	-0.089747	-73.963360
1.950000	-0.091816	-75.803045	-37.585305	16.390542	-37.585305	16.390542	-0.091809	-75.799309
2.000000	-0.093870	-77.632668	-37.374859	14.708505	-37.374859	14.708505	-0.093863	-77.628857
2.050000	-0.095918	-79.455939	-37.167688	13.036642	-37.167688	13.036642	-0.095911	-79.452054
2.100000	-0.097961	-81.272914	-36.963374	11.374685	-36.963374	11.374685	-0.097954	-81.268956
2.150000	-0.100000	-83.083659	-36.761519	9.722318	-36.761519	9.722318	-0.099993	-83.079629
2.200000	-0.102037	-84.888251	-36.561736	8.079177	-36.561736	8.079177	-0.102030	-84.884150
2.250000	-0.104074	-86.686774	-36.363648	6.444844	-36.363648	6.444844	-0.104066	-86.682603
2.300000	-0.106111	-88.479323	-36.166895	4.818850	-36.166895	4.818850	-0.106103	-88.475082
2.350000	-0.108150	-90.266001	-35.971125	3.200667	-35.971125	3.200667	-0.108142	-90.261692
2.400000	-0.110192	-92.046921	-35.775997	1.589718	-35.775997	1.589718	-0.110185	-92.042544
2.450000	-0.112240	-93.822203	-35.581183	-0.014628	-35.581183	-0.014628	-0.112232	-93.817760
2.500000	-0.114294	-95.591979	-35.386365	-1.613050	-35.386365	-1.613050	-0.114287	-95.587469
2.550000	-0.116357	-97.356161	-35.191014	-3.206083	-35.191014	-3.206083	-0.116350	-97.351585
2.600000	-0.118430	-99.115138	-34.995023	-4.794753	-34.995023	-4.794753	-0.118423	-99.110497
2.650000	-0.120515	-100.869067	-34.798101	-6.379865	-34.798101	-6.379865	-0.120507	-100.864362
2.700000	-0.122612	-102.618117	-34.599970	-7.962253	-34.599970	-7.962253	-0.122605	-102.613347
2.750000	-0.124725	-104.362463	-34.400356	-9.542776	-34.400356	-9.542776	-0.124718	-104.357630
2.800000	-0.126854	-106.102290	-34.198995	-11.122311	-34.198995	-11.122311	-0.126847	-106.097394
2.850000	-0.129002	-107.837793	-33.995627	-12.701751	-33.995627	-12.701751	-0.128996	-107.832834
2.900000	-0.131171	-109.569176	-33.790001	-14.282000	-33.790001	-14.282000	-0.131165	-109.564155
2.950000	-0.133363	-111.296653	-33.581866	-15.863966	-33.581866	-15.863966	-0.133357	-111.291570
3.000000	-0.135579	-113.020446	-33.370976	-17.448563	-33.370976	-17.448563	-0.135573	-113.015302
3.050000	-0.137822	-114.740790	-33.157087	-19.036704	-33.157087	-19.036704	-0.137817	-114.735585
3.100000	-0.140095	-116.457930	-32.939953	-20.629302	-32.939953	-20.629302	-0.140090	-116.452663
3.150000	-0.142399	-118.172122	-32.719327	-22.227266	-32.719327	-22.227266	-0.142395	-118.166794
3.200000	-0.144739	-119.883633	-32.494961	-23.831505	-32.494961	-23.831505	-0.144735	-119.878244
3.250000	-0.147115	-121.592744	-32.266600	-25.442921	-32.266600	-25.442921	-0.147112	-121.587295
3.300000	-0.149532	-123.299750	-32.033983	-27.062416	-32.033983	-27.062416	-0.149530	-123.294240
3.350000	-0.151993	-125.004959	-31.796841	-28.690892	-31.796841	-28.690892	-0.151991	-124.999389
3.400000	-0.154502	-126.708696	-31.554894	-30.329248	-31.554894	-30.329248	-0.154500	-126.703065
3.450000	-0.157062	-128.411304	-31.307852	-31.978390	-31.307852	-31.978390	-0.157061	-128.405612
3.500000	-0.159678	-130.113142	-31.055407	-33.639229	-31.055407	-33.639229	-0.159678	-130.107389
3.550000	-0.162354	-131.814594	-30.797235	-35.312684	-30.797235	-35.312684	-0.162355	-131.808780
3.600000	-0.165097	-133.516064	-30.532995	-36.999690	-30.532995	-36.999690	-0.165098	-133.510189
3.650000	-0.167911	-135.217985	-30.262320	-38.701203	-30.262320	-38.701203	-0.167914	-135.212048
3.700000	-0.170805	-136.920816	-29.984819	-40.418202	-29.984819	-40.418202	-0.170808	-136.914817
3.750000	-0.173784	-138.625052	-29.700073	-42.151700	-29.700073	-42.151700	-0.173789	-138.618991
3.800000	-0.176864	-140.331336	-29.406823	-43.903567	-29.406823	-43.903567	-0.176869	-140.325212
3.850000	-0.180050	-142.040190	-29.105277	-45.674199	-29.105277	-45.674199	-0.180056	-142.034003
3.900000	-0.183354	-143.752247	-28.794884	-47.464775	-28.794884	-47.464775	-0.183361	-143.745996
3.950000	-0.186791	-145.468200	-28.475042	-49.276552	-28.475042	-49.276552	-0.186798	-145.461884
4.000000	-0.190375	-147.188812	-28.145090	-51.110886	-28.145090	-51.110886	-0.190384	-147.182430
4.050000	-0.194127	-148.914929	-27.804300	-52.969251	-27.804300	-52.969251	-0.194136	-148.908479
4.100000	-0.198069	-150.647492	-27.451863	-54.853264	-27.451863	-54.853264	-0.198079	-150.640974
4.150000	-0.202229	-152.387559	-27.086884	-56.764720	-27.086884	-56.764720	-0.202240	-152.380971
4.200000	-0.206613	-154.135368	-26.711403	-58.702568	-26.711403	-58.702568	-0.206625	-154.128709
4.250000	-0.211307	-155.893922	-26.318848	-60.674579	-26.318848	-60.674579	-0.211319	-155.887190
4.300000	-0.216339	-157.664045	-25.910463	-62.680815	-25.910463	-62.680815	-0.216352	-157.657237
4.350000	-0.221771	-159.447540	-25.484838	-64.724265	-25.484838	-64.724265	-0.221784	-159.440653
4.400000	-0.227685	-161.246713	-25.039880	-66.808908	-25.039880	-66.808908	-0.227698	-161.239745
4.450000	-0.234181	-163.064158	-24.573597	-68.939044	-24.573597	-68.939044	-0.234194	-163.057105
4.500000	-0.241379	-164.902723	-24.084268	-71.119245	-24.084268	-71.119245	-0.241393	-164.895581
4.550000	-0.249444	-166.766058	-23.569383	-73.355598	-23.569383	-73.355598	-0.249458	-166.758822
4.600000	-0.258591	-168.658629	-23.026006	-75.655599	-23.026006	-75.655599	-0.258603	-168.651292
4.650000	-0.269107	-170.585978	-22.450677	-78.028606	-22.450677	-78.028606	-0.269118	-170.578533
4.700000	-0.281310	-172.553432	-21.842115	-80.483223	-21.842115	-80.483223	-0.281321	-172.545871
4.750000	-0.295886	-174.573140	-21.189618	-83.041220	-21.189618	-83.041220	-0.295895	-174.565451
4.800000	-0.313542	-176.655134	-20.490065	-85.719491	-20.490065	-85.719491	-0.313548	-176.647303
4.850000	-0.335407	-178.814781	-19.736092	-88.544950	-19.736092	-88.544950	-0.335410	-178.806790
4.900000	-0.363173	178.927142	-18.918560	-91.554483	-18.918560	-91.554483	-0.363172	178.935315
4.950000	-0.399429	176.542370	-18.026526	-94.799093	-18.026526	-94.799093	-0.399422	176.550755
5.000000	-0.448511	173.988810	-17.043823	-98.356462	-17.043823	-98.356462	-0.448496	173.997450
5.050000	-0.517755	171.205810	-15.950701	-102.342020	-15.950701	-102.342020	-0.517729	171.214763
5.100000	-0.619917	168.106758	-14.725105	-106.928699	-14.725105	-106.928699	-0.619875	168.116110
5.150000	-0.780431	164.552850	-13.332974	-112.414569	-13.332974	-112.414569	-0.780363	164.562736
5.200000	-1.051648	160.344113	-11.738871	-119.299732	-11.738871	-119.299732	-1.051535	160.354757
5.250000	-1.555681	155.229622	-9.910222	-128.501886	-9.910222	-128.501886	-1.555482	155.241437
5.300000	-2.599410	149.298400	-7.877949	-141.677254	-7.877949	-141.677254	-2.598996	149.312206
5.350000	-4.919882	145.996615	-5.925841	-161.385049	-5.925841	-161.385049	-4.918713	146.013535
5.400000	-8.047896	165.367222	-4.924997	171.505764	-4.924997	171.505764	-8.044659	165.375845
5.450000	-5.564260	-169.479041	-5.674309	143.754791	-5.674309	143.754791	-5.562831	-169.483937
5.500000	-2.967585	-170.773551	-7.517328	123.010251	-7.517328	123.010251	-2.967197	-170.775231
5.550000	-1.777488	-176.510060	-9.514967	109.083692	-9.514967	109.083692	-1.777377	-176.509193
5.600000	-1.209519	178.303580	-11.322997	99.395095	-11.322997	99.395095	-1.209502	178.305950
5.650000	-0.908151	173.992926	-12.894276	92.156190	-12.894276	92.156190	-0.908173	173.996244
5.700000	-0.732196	170.335263	-14.261107	86.369092	-14.261107	86.369092	-0.732236	170.339228
5.750000	-0.622571	167.136035	-15.456176	81.506087	-15.456176	81.506087	-0.622621	167.140467
5.800000	-0.550213	164.252914	-16.514438	77.248076	-16.514438	77.248076	-0.550267	164.257700
5.850000	-0.500551	161.595224	-17.460039	73.409048	-17.460039	73.409048	-0.500607	161.600288
5.900000	-0.465336	159.100582	-18.313307	69.868050	-18.313307	69.868050	-0.465394	159.105869
5.950000	-0.439701	156.725746	-19.090884	66.544412	-19.090884	66.544412	-0.439759	156.731219
6.000000	-0.420731	154.441615	-19.804209	63.385311	-19.804209	63.385311	-0.420789	154.447244
6.050000	-0.406579	152.227770	-20.461267	60.354610	-20.461267	60.354610	-0.406637	152.233532
6.100000	-0.396062	150.070062	-21.066210	57.428136	-21.066210	57.428136	-0.396119	150.075938
6.150000	-0.387997	147.951738	-21.634453	54.576551	-21.634453	54.576551	-0.388054	147.957714
6.200000	-0.381896	145.865751	-22.167936	51.788515	-22.167936	51.788515	-0.381951	145.871815
6.250000	-0.377467	143.807672	-22.664520	49.058007	-22.664520	49.058007	-0.377522	143.813813
6.300000	-0.374169	141.768398	-23.136740	46.368822	-23.136740	46.368822	-0.374223	141.774608
6.350000	-0.371903	139.745913	-23.580790	43.719663	-23.580790	43.719663	-0.371956	139.752184
6.400000	-0.370423	137.735700	-24.001986	41.103082	-24.001986	41.103082	-0.370475	137.742024
6.450000	-0.369546	135.734299	-24.405157	38.513177	-24.405157	38.513177	-0.369597	135.740672
6.500000	-0.369264	133.740712	-24.785119	35.951656	-24.785119	35.951656	-0.369314	133.747127
6.550000	-0.369386	131.751643	-25.150538	33.411119	-25.150538	33.411119	-0.369435	131.758096
6.600000	-0.369878	129.765877	-25.500116	30.891518	-25.500116	30.891518	-0.369926	129.772363
6.650000	-0.370692	127.782042	-25.834159	28.391966	-25.834159	28.391966	-0.370739	127.788556
6.700000	-0.371771	125.798782	-26.154446	25.910907	-26.154446	25.910907	-0.371818	125.805321
6.750000	-0.373057	123.815106	-26.464056	23.445994	-26.464056	23.445994	-0.373102	123.821665
6.800000	-0.374531	121.830199	-26.762536	20.997529	-26.762536	20.997529	-0.374575	121.836775
6.850000	-0.376165	119.843327	-27.050742	18.565044	-27.050742	18.565044	-0.376209	119.849916
6.900000	-0.377936	117.853866	-27.329455	16.148235	-27.329455	16.148235	-0.377979	117.860464
6.950000	-0.379825	115.861285	-27.599394	13.746940	-27.599394	13.746940	-0.379866	115.867889
7.000000	-0.381813	113.865136	-27.861222	11.361118	-27.861222	11.361118	-0.381854	113.871743
7.050000	-0.383887	111.865044	-28.115554	8.990834	-28.115554	8.990834	-0.383928	111.871650
7.100000	-0.386035	109.860699	-28.362962	6.636252	-28.362962	6.636252	-0.386074	109.867300
7.150000	-0.388244	107.851847	-28.603986	4.297620	-28.603986	4.297620	-0.388283	107.858440
7.200000	-0.390506	105.838286	-28.839130	1.975269	-28.839130	1.975269	-0.390544	105.844866
7.250000	-0.392812	103.819862	-29.068875	-0.330391	-29.068875	-0.330391	-0.392850	103.826427
7.300000	-0.395155	101.796463	-29.293676	-2.618872	-29.293676	-2.618872	-0.395192	101.803009
7.350000	-0.397529	99.768019	-29.513967	-4.889609	-29.513967	-4.889609	-0.397565	99.774541
7.400000	-0.399927	97.734494	-29.730164	-7.141953	-29.730164	-7.141953	-0.399963	97.740988
7.450000	-0.402345	95.695888	-29.942666	-9.375175	-29.942666	-9.375175	-0.402380	95.702349
7.500000	-0.404778	93.652232	-30.151857	-11.588454	-30.151857	-11.588454	-0.404813	93.658656
7.550000	-0.407223	91.603374	-30.357785	-13.779919	-30.357785	-13.779919	-0.407257	91.609757
7.600000	-0.409675	89.549629	-30.561169	-15.949404	-30.561169	-15.949404	-0.409710	89.555965
7.650000	-0.412133	87.491114	-30.762346	-18.095765	-30.762346	-18.095765	-0.412167	87.497400
7.700000	-0.414593	85.427977	-30.961639	-20.217739	-30.961639	-20.217739	-0.414627	85.434205
7.750000	-0.417054	83.360384	-31.159357	-22.313935	-31.159357	-22.313935	-0.417087	83.366550
7.800000	-0.419512	81.288526	-31.355793	-24.382830	-31.355793	-24.382830	-0.419545	81.294625
7.850000	-0.421969	79.212616	-31.551221	-26.422754	-31.551221	-26.422754	-0.422001	79.218642
7.900000	-0.424421	77.132886	-31.745898	-28.431894	-31.745898	-28.431894	-0.424453	77.138833
7.950000	-0.426868	75.049586	-31.940055	-30.408282	-31.940055	-30.408282	-0.426900	75.055448
8.000000	-0.429310	72.962986	-32.133897	-32.349795	-32.133897	-32.349795	-0.429342	72.968757
8.050000	-0.431747	70.873371	-32.327603	-34.254156	-32.327603	-34.254156	-0.431779	70.879045
8.100000	-0.434179	68.781042	-32.521316	-36.118939	-32.521316	-36.118939	-0.434212	68.786612
8.150000	-0.436606	66.686316	-32.715140	-37.941575	-32.715140	-37.941575	-0.436639	66.691776
8.200000	-0.439030	64.589522	-32.909139	-39.719365	-32.909139	-39.719365	-0.439064	64.594866
8.250000	-0.441451	62.491003	-33.103329	-41.449503	-33.103329	-41.449503	-0.441486	62.496224
8.300000	-0.443872	60.391111	-33.297675	-43.129092	-33.297675	-43.129092	-0.443908	60.396203
8.350000	-0.446294	58.290212	-33.492084	-44.755187	-33.492084	-44.755187	-0.446331	58.295168
8.400000	-0.448719	56.188677	-33.686402	-46.324823	-33.686402	-46.324823	-0.448757	56.193493
8.450000	-0.451151	54.086890	-33.880413	-47.835069	-33.880413	-47.835069	-0.451191	54.091558
8.500000	-0.453592	51.985238	-34.073830	-49.283077	-34.073830	-49.283077	-0.453634	51.989753
8.550000	-0.456046	49.884116	-34.266300	-50.666145	-34.266300	-50.666145	-0.456091	49.888474
8.600000	-0.458518	47.783926	-34.457398	-51.981782	-34.457398	-51.981782	-0.458565	47.788121
8.650000	-0.461011	45.685070	-34.646632	-53.227780	-34.646632	-53.227780	-0.461061	45.689098
8.700000	-0.463531	43.587957	-34.833442	-54.402289	-34.833442	-54.402289	-0.463584	43.591813
8.750000	-0.466083	41.492994	-35.017211	-55.503889	-35.017211	-55.503889	-0.466140	41.496676
8.800000	-0.468675	39.400724	-35.196917	-56.528443	-35.196917	-56.528443	-0.468736	39.404229
8.850000	-0.471313	37.311463	-35.372151	-57.478865	-35.372151	-57.478865	-0.471378	37.314788
8.900000	-0.474003	35.225621	-35.542171	-58.355536	-35.542171	-58.355536	-0.474073	35.228765
8.950000	-0.476753	33.143604	-35.706224	-59.159517	-35.706224	-59.159517	-0.476828	33.146568
9.000000	-0.479571	31.065818	-35.863562	-59.892566	-35.863562	-59.892566	-0.479651	31.068601
9.050000	-0.482467	28.992664	-36.013457	-60.557146	-36.013457	-60.557146	-0.482552	28.995268
9.100000	-0.485448	26.924539	-36.155219	-61.156402	-36.155219	-61.156402	-0.485539	26.926967
9.150000	-0.488526	24.861835	-36.288216	-61.694118	-36.288216	-61.694118	-0.488622	24.864090
9.200000	-0.491711	22.804939	-36.411888	-62.174652	-36.411888	-62.174652	-0.491811	22.807026
9.250000	-0.495013	20.754232	-36.525761	-62.602847	-36.525761	-62.602847	-0.495118	20.756156
9.300000	-0.498444	18.710086	-36.629459	-62.983933	-36.629459	-62.983933	-0.498553	18.711854
9.350000	-0.502015	16.672869	-36.722714	-63.323404	-36.722714	-63.323404	-0.502128	16.674488
9.400000	-0.505740	14.642939	-36.805364	-63.626900	-36.805364	-63.626900	-0.505856	14.644418
9.450000	-0.509631	12.620648	-36.877362	-63.900082	-36.877362	-63.900082	-0.509749	12.621996
9.500000	-0.513702	10.606337	-36.938765	-64.148509	-36.938765	-64.148509	-0.513821	10.607565
9.550000	-0.517966	8.600340	-36.989734	-64.377531	-36.989734	-64.377531	-0.518084	8.601460
9.600000	-0.522437	6.602982	-37.030519	-64.592191	-37.030519	-64.592191	-0.522553	6.604006
9.650000	-0.527130	4.614580	-37.061451	-64.797145	-37.061451	-64.797145	-0.527243	4.615520
9.700000	-0.532060	2.635438	-37.082928	-64.996606	-37.082928	-64.996606	-0.532167	2.636310
9.750000	-0.537242	0.665854	-37.095399	-65.194298	-37.095399	-65.194298	-0.537340	0.666672
9.800000	-0.542692	-1.293883	-37.099353	-65.393437	-37.099353	-65.393437	-0.542778	-1.293106
9.850000	-0.548424	-3.243496	-37.095307	-65.596728	-37.095307	-65.596728	-0.548496	-3.242744
9.900000	-0.554455	-5.182717	-37.083786	-65.806373	-37.083786	-65.806373	-0.554508	-5.181974
9.950000	-0.560800	-7.111286	-37.065321	-66.024092	-37.065321	-66.024092	-0.560832	-7.110537
10.000000	-0.567475	-9.028953	-37.040435	-66.251161	-37.040435	-66.251161	-0.567481	-9.028183
