! freq	dB(S11)	phase(S11)	dB(S12)	phase(S12)	
!     	dB(S21)	phase(S21)	dB(S22)	phase(S22)	
!S-par simulation data
#  GHz  S  DB  R 50
0.000000	-0.000000	0.000000	-337.748920	0.000000	-337.748920	0.000000	0.000000	0.000000
0.050000	-0.000714	-1.174458	-108.174617	89.148046	-108.174617	89.148046	-0.000681	-1.049556
0.100000	-0.002458	-2.344053	-102.195683	87.959999	-102.195683	87.959999	-0.002275	-2.093953
0.150000	-0.004557	-3.507841	-98.741503	86.865731	-98.741503	86.865731	-0.004084	-3.132671
0.200000	-0.006575	-4.667383	-96.342454	85.818960	-96.342454	85.818960	-0.005744	-4.167630
0.250000	-0.008410	-5.824831	-94.526386	84.812719	-94.526386	84.812719	-0.007229	-5.200886
0.300000	-0.010060	-6.981115	-93.092566	83.855420	-93.092566	83.855420	-0.008574	-6.233253
0.350000	-0.011568	-8.136783	-91.932284	82.956854	-91.932284	82.956854	-0.009837	-7.265176
0.400000	-0.012979	-9.292023	-90.982371	82.130411	-90.982371	82.130411	-0.011062	-8.296811
0.450000	-0.014324	-10.446795	-90.209863	81.401142	-90.209863	81.401142	-0.012279	-9.328144
0.500000	-0.015636	-11.601044	-89.579277	80.780400	-89.579277	80.780400	-0.013504	-10.359142
0.550000	-0.016931	-12.754650	-89.072374	80.291449	-89.072374	80.291449	-0.014745	-11.389722
0.600000	-0.018221	-13.907485	-88.676608	79.963056	-88.676608	79.963056	-0.016001	-12.419783
0.650000	-0.019513	-15.059428	-88.383392	79.831206	-88.383392	79.831206	-0.017271	-13.449223
0.700000	-0.020813	-16.210363	-88.186976	79.941442	-88.186976	79.941442	-0.018552	-14.477932
0.750000	-0.022126	-17.360110	-88.089121	80.375290	-88.089121	80.375290	-0.019840	-15.505746
0.800000	-0.023452	-18.508567	-88.086449	81.221366	-88.086449	81.221366	-0.021132	-16.532549
0.850000	-0.024793	-19.655668	-88.173430	82.588504	-88.173430	82.588504	-0.022424	-17.558256
0.900000	-0.026148	-20.801435	-88.339405	84.571803	-88.339405	84.571803	-0.023716	-18.582858
0.950000	-0.027516	-21.945715	-88.580322	87.384668	-88.580322	87.384668	-0.025006	-19.606205
1.000000	-0.028897	-23.088440	-88.877483	91.257287	-88.877483	91.257287	-0.026294	-20.628219
1.050000	-0.030289	-24.229545	-89.195064	96.452490	-89.195064	96.452490	-0.027579	-21.648832
1.100000	-0.031692	-25.368972	-89.470356	103.211217	-89.470356	103.211217	-0.028863	-22.667981
1.150000	-0.033104	-26.506666	-89.607527	111.624731	-89.607527	111.624731	-0.030145	-23.685617
1.200000	-0.034523	-27.642576	-89.489467	121.435880	-89.489467	121.435880	-0.031426	-24.701691
1.250000	-0.035948	-28.776654	-89.022105	131.901155	-89.022105	131.901155	-0.032707	-25.716166
1.300000	-0.037377	-29.908771	-88.173876	141.909819	-88.173876	141.909819	-0.033988	-26.728933
1.350000	-0.038810	-31.038966	-87.043737	150.603173	-87.043737	150.603173	-0.035269	-27.740031
1.400000	-0.040244	-32.167199	-85.748847	157.644269	-85.748847	157.644269	-0.036551	-28.749432
1.450000	-0.041679	-33.293432	-84.389061	163.083086	-84.389061	163.083086	-0.037833	-29.757110
1.500000	-0.043115	-34.417630	-83.030011	167.148759	-83.030011	167.148759	-0.039115	-30.763040
1.550000	-0.044549	-35.539759	-81.708048	170.106678	-81.708048	170.106678	-0.040397	-31.767200
1.600000	-0.045982	-36.659786	-80.440326	172.194324	-80.440326	172.194324	-0.041680	-32.769568
1.650000	-0.047413	-37.777681	-79.232989	173.603594	-79.232989	173.603594	-0.042962	-33.770121
1.700000	-0.048842	-38.893415	-78.086372	174.482879	-78.086372	174.482879	-0.044244	-34.768838
1.750000	-0.050268	-40.006960	-76.997983	174.945032	-76.997983	174.945032	-0.045526	-35.765700
1.800000	-0.051691	-41.118288	-75.964116	175.075648	-75.964116	175.075648	-0.046808	-36.760685
1.850000	-0.053112	-42.227374	-74.980688	174.939938	-74.980688	174.939938	-0.048090	-37.753774
1.900000	-0.054530	-43.334195	-74.043659	174.587988	-74.043659	174.587988	-0.049371	-38.744946
1.950000	-0.055945	-44.438726	-73.149226	174.058646	-73.149226	174.058646	-0.050651	-39.734181
2.000000	-0.057358	-45.540946	-72.293897	173.382365	-72.293897	173.382365	-0.051932	-40.721460
2.050000	-0.058769	-46.640835	-71.474517	172.583264	-71.474517	172.583264	-0.053213	-41.706764
2.100000	-0.060179	-47.738371	-70.688246	171.680644	-70.688246	171.680644	-0.054494	-42.690073
2.150000	-0.061587	-48.833538	-69.932543	170.690102	-69.932543	170.690102	-0.055775	-43.671370
2.200000	-0.062994	-49.926317	-69.205134	169.624357	-69.205134	169.624357	-0.057058	-44.650635
2.250000	-0.064402	-51.016692	-68.503980	168.493874	-68.503980	168.493874	-0.058341	-45.627851
2.300000	-0.065809	-52.104647	-67.827255	167.307332	-67.827255	167.307332	-0.059626	-46.602999
2.350000	-0.067218	-53.190170	-67.173315	166.071981	-67.173315	166.071981	-0.060913	-47.576064
2.400000	-0.068629	-54.273246	-66.540680	164.793926	-66.540680	164.793926	-0.062203	-48.547028
2.450000	-0.070041	-55.353864	-65.928012	163.478339	-65.928012	163.478339	-0.063495	-49.515875
2.500000	-0.071457	-56.432014	-65.334100	162.129627	-65.334100	162.129627	-0.064791	-50.482589
2.550000	-0.072877	-57.507577	-64.756952	160.750449	-64.756952	160.750449	-0.066091	-51.447063
2.600000	-0.074301	-58.580654	-64.196559	159.345437	-64.196559	159.345437	-0.067395	-52.409373
2.650000	-0.075730	-59.651237	-63.651992	157.917366	-63.651992	157.917366	-0.068704	-53.369506
2.700000	-0.077166	-60.719320	-63.122404	156.468657	-63.122404	156.468657	-0.070019	-54.327450
2.750000	-0.078608	-61.784900	-62.607015	155.001428	-62.607015	155.001428	-0.071340	-55.283191
2.800000	-0.080058	-62.847973	-62.105112	153.517546	-62.105112	153.517546	-0.072668	-56.236720
2.850000	-0.081516	-63.908536	-61.616033	152.018658	-61.616033	152.018658	-0.074003	-57.188024
2.900000	-0.082983	-64.966589	-61.139171	150.506225	-61.139171	150.506225	-0.075345	-58.137093
2.950000	-0.084460	-66.022132	-60.673962	148.981547	-60.673962	148.981547	-0.076697	-59.083919
3.000000	-0.085947	-67.075167	-60.219882	147.445785	-60.219882	147.445785	-0.078057	-60.028493
3.050000	-0.087445	-68.125697	-59.776447	145.899978	-59.776447	145.899978	-0.079427	-60.970806
3.100000	-0.088956	-69.173725	-59.343202	144.345063	-59.343202	144.345063	-0.080807	-61.910853
3.150000	-0.090479	-70.219257	-58.919726	142.781880	-58.919726	142.781880	-0.082198	-62.848627
3.200000	-0.092016	-71.262299	-58.505625	141.211193	-58.505625	141.211193	-0.083600	-63.784122
3.250000	-0.093567	-72.302859	-58.100529	139.633692	-58.100529	139.633692	-0.085014	-64.717335
3.300000	-0.095132	-73.340945	-57.704092	138.050006	-57.704092	138.050006	-0.086441	-65.648261
3.350000	-0.096714	-74.376568	-57.315990	136.460708	-57.315990	136.460708	-0.087881	-66.576898
3.400000	-0.098311	-75.409739	-56.935916	134.866321	-56.935916	134.866321	-0.089334	-67.503243
3.450000	-0.099926	-76.440470	-56.563582	133.267327	-56.563582	133.267327	-0.090802	-68.427296
3.500000	-0.101558	-77.468774	-56.198717	131.664165	-56.198717	131.664165	-0.092285	-69.349057
3.550000	-0.103208	-78.494667	-55.841065	130.057242	-55.841065	130.057242	-0.093783	-70.268526
3.600000	-0.104877	-79.518164	-55.490383	128.446935	-55.490383	128.446935	-0.095296	-71.185704
3.650000	-0.106566	-80.539282	-55.146442	126.833589	-55.146442	126.833589	-0.096826	-72.100593
3.700000	-0.108275	-81.558039	-54.809025	125.217526	-54.809025	125.217526	-0.098374	-73.013198
3.750000	-0.110005	-82.574455	-54.477924	123.599046	-54.477924	123.599046	-0.099938	-73.923521
3.800000	-0.111757	-83.588449	-54.152683	121.978346	-54.152683	121.978346	-0.101522	-74.831468
3.850000	-0.113532	-84.600146	-53.833398	120.355788	-53.833398	120.355788	-0.103124	-75.737145
3.900000	-0.115329	-85.609568	-53.519889	118.731612	-53.519889	118.731612	-0.104745	-76.640558
3.950000	-0.117149	-86.616739	-53.211987	117.106044	-53.211987	117.106044	-0.106386	-77.541715
4.000000	-0.118994	-87.621683	-52.909528	115.479294	-52.909528	115.479294	-0.108047	-78.440622
4.050000	-0.120862	-88.624426	-52.612357	113.851560	-52.612357	113.851560	-0.109729	-79.337290
4.100000	-0.122756	-89.624996	-52.320324	112.223028	-52.320324	112.223028	-0.111431	-80.231728
4.150000	-0.124675	-90.623421	-52.033288	110.593874	-52.033288	110.593874	-0.113156	-81.123947
4.200000	-0.126621	-91.619729	-51.751112	108.964261	-51.751112	108.964261	-0.114903	-82.013957
4.250000	-0.128593	-92.613949	-51.473666	107.334345	-51.473666	107.334345	-0.116672	-82.901772
4.300000	-0.130592	-93.606115	-51.200824	105.704273	-51.200824	105.704273	-0.118464	-83.787402
4.350000	-0.132618	-94.596256	-50.932466	104.074182	-50.932466	104.074182	-0.120280	-84.670863
4.400000	-0.134673	-95.584407	-50.668476	102.444203	-50.668476	102.444203	-0.122121	-85.552168
4.450000	-0.136757	-96.570601	-50.408743	100.814459	-50.408743	100.814459	-0.123985	-86.431333
4.500000	-0.138870	-97.554873	-50.153160	99.185066	-50.153160	99.185066	-0.125875	-87.308372
4.550000	-0.141013	-98.537259	-49.901624	97.556132	-49.901624	97.556132	-0.127790	-88.183303
4.600000	-0.143185	-99.517796	-49.654036	95.927762	-49.654036	95.927762	-0.129732	-89.056143
4.650000	-0.145389	-100.496522	-49.410300	94.300052	-49.410300	94.300052	-0.131699	-89.926909
4.700000	-0.147623	-101.473474	-49.170324	92.673094	-49.170324	92.673094	-0.133694	-90.795620
4.750000	-0.149889	-102.448694	-48.934018	91.046974	-48.934018	91.046974	-0.135716	-91.662294
4.800000	-0.152187	-103.422220	-48.701297	89.421773	-48.701297	89.421773	-0.137765	-92.526953
4.850000	-0.154517	-104.394096	-48.472077	87.797568	-48.472077	87.797568	-0.139843	-93.389616
4.900000	-0.156881	-105.364363	-48.246278	86.174428	-48.246278	86.174428	-0.141950	-94.250304
4.950000	-0.159277	-106.333064	-48.023822	84.552421	-48.023822	84.552421	-0.144086	-95.109040
5.000000	-0.161708	-107.300243	-47.804634	82.931609	-47.804634	82.931609	-0.146251	-95.965845
5.050000	-0.164174	-108.265884	-47.588546	81.312106	-47.588546	81.312106	-0.148448	-96.820661
5.100000	-0.166675	-109.230099	-47.375591	79.693915	-47.375591	79.693915	-0.150675	-97.673595
5.150000	-0.169210	-110.192935	-47.165700	78.077083	-47.165700	78.077083	-0.152933	-98.524671
5.200000	-0.171781	-111.154439	-46.958806	76.461658	-46.958806	76.461658	-0.155222	-99.373915
5.250000	-0.174388	-112.114661	-46.754844	74.847680	-46.754844	74.847680	-0.157544	-100.221352
5.300000	-0.177031	-113.073649	-46.553753	73.235189	-46.553753	73.235189	-0.159897	-101.067007
5.350000	-0.179711	-114.031455	-46.355472	71.624219	-46.355472	71.624219	-0.162283	-101.910908
5.400000	-0.182428	-114.988129	-46.159943	70.014803	-46.159943	70.014803	-0.164703	-102.753081
5.450000	-0.185182	-115.943725	-45.967110	68.406969	-45.967110	68.406969	-0.167155	-103.593554
5.500000	-0.187974	-116.898294	-45.776918	66.800743	-45.776918	66.800743	-0.169642	-104.432356
5.550000	-0.190803	-117.851892	-45.589313	65.196150	-45.589313	65.196150	-0.172163	-105.269514
5.600000	-0.193672	-118.804574	-45.404245	63.593209	-45.404245	63.593209	-0.174719	-106.105058
5.650000	-0.196579	-119.756394	-45.221664	61.991940	-45.221664	61.991940	-0.177310	-106.939017
5.700000	-0.199525	-120.707410	-45.041522	60.392359	-45.041522	60.392359	-0.179936	-107.771423
5.750000	-0.202510	-121.657680	-44.863773	58.794480	-44.863773	58.794480	-0.182599	-108.602305
5.800000	-0.205536	-122.607262	-44.688371	57.198316	-44.688371	57.198316	-0.185298	-109.431694
5.850000	-0.208602	-123.556215	-44.515274	55.603877	-44.515274	55.603877	-0.188034	-110.259623
5.900000	-0.211708	-124.504600	-44.344440	54.011172	-44.344440	54.011172	-0.190807	-111.086123
5.950000	-0.214855	-125.452479	-44.175827	52.420209	-44.175827	52.420209	-0.193617	-111.911227
6.000000	-0.218043	-126.399914	-44.009398	50.830996	-44.009398	50.830996	-0.196466	-112.734968
6.050000	-0.221273	-127.346968	-43.845113	49.243537	-43.845113	49.243537	-0.199353	-113.557379
6.100000	-0.224544	-128.293705	-43.682938	47.657838	-43.682938	47.657838	-0.202279	-114.378495
6.150000	-0.227858	-129.240190	-43.522836	46.073904	-43.522836	46.073904	-0.205244	-115.198349
6.200000	-0.231214	-130.186491	-43.364774	44.491738	-43.364774	44.491738	-0.208248	-116.016976
6.250000	-0.234613	-131.132674	-43.208719	42.911345	-43.208719	42.911345	-0.211293	-116.834412
6.300000	-0.238079	-132.078821	-43.054216	41.333735	-43.054216	41.333735	-0.214400	-117.650061
6.350000	-0.241546	-133.024969	-42.902413	39.756126	-42.902413	39.756126	-0.217509	-118.465710
6.400000	-0.245096	-133.971308	-42.751881	38.181934	-42.751881	38.181934	-0.220695	-119.279297
6.450000	-0.248655	-134.917665	-42.603794	36.608053	-42.603794	36.608053	-0.223890	-120.092696
6.500000	-0.252290	-135.864458	-42.457106	35.037301	-42.457106	35.037301	-0.227156	-120.904355
6.550000	-0.255941	-136.811339	-42.312642	33.467175	-42.312642	33.467175	-0.230438	-121.715666
6.600000	-0.259663	-137.758856	-42.169681	31.899894	-42.169681	31.899894	-0.233786	-122.525535
6.650000	-0.263408	-138.706585	-42.028753	30.333561	-42.028753	30.333561	-0.237157	-123.334924
6.700000	-0.267202	-139.654878	-41.889567	28.769144	-41.889567	28.769144	-0.240573	-124.143422
6.750000	-0.271049	-140.603877	-41.752036	27.206897	-41.752036	27.206897	-0.244040	-124.950953
6.800000	-0.274944	-141.553576	-41.616230	25.646518	-41.616230	25.646518	-0.247552	-125.757711
6.850000	-0.278885	-142.504057	-41.482126	24.088025	-41.482126	24.088025	-0.251107	-126.563735
6.900000	-0.282873	-143.455400	-41.349707	22.531439	-41.349707	22.531439	-0.254708	-127.369066
6.950000	-0.286909	-144.407690	-41.218953	20.976783	-41.218953	20.976783	-0.258354	-128.173744
7.000000	-0.290993	-145.361011	-41.089846	19.424085	-41.089846	19.424085	-0.262045	-128.977812
7.050000	-0.295126	-146.315448	-40.962369	17.873372	-40.962369	17.873372	-0.265781	-129.781309
7.100000	-0.299308	-147.271090	-40.836505	16.324679	-40.836505	16.324679	-0.269564	-130.584279
7.150000	-0.303539	-148.228024	-40.712237	14.778039	-40.712237	14.778039	-0.273394	-131.386763
7.200000	-0.307820	-149.186340	-40.589550	13.233493	-40.589550	13.233493	-0.277270	-132.188804
7.250000	-0.312152	-150.146130	-40.468429	11.691083	-40.468429	11.691083	-0.281193	-132.990446
7.300000	-0.316534	-151.107486	-40.348859	10.150855	-40.348859	10.150855	-0.285164	-133.791730
7.350000	-0.320968	-152.070503	-40.230826	8.612859	-40.230826	8.612859	-0.289182	-134.592702
7.400000	-0.325453	-153.035276	-40.114315	7.077148	-40.114315	7.077148	-0.293249	-135.393405
7.450000	-0.329991	-154.001903	-39.999313	5.543780	-39.999313	5.543780	-0.297363	-136.193884
7.500000	-0.334583	-154.970482	-39.885807	4.012816	-39.885807	4.012816	-0.301526	-136.994183
7.550000	-0.339230	-155.941207	-39.773786	2.484433	-39.773786	2.484433	-0.305740	-137.794344
7.600000	-0.343931	-156.914097	-39.663236	0.958594	-39.663236	0.958594	-0.310003	-138.594420
7.650000	-0.348688	-157.889254	-39.554144	-0.564625	-39.554144	-0.564625	-0.314315	-139.394458
7.700000	-0.353500	-158.866785	-39.446498	-2.085147	-39.446498	-2.085147	-0.318677	-140.194503
7.750000	-0.358368	-159.846796	-39.340284	-3.602891	-39.340284	-3.602891	-0.323089	-140.994603
7.800000	-0.363294	-160.829396	-39.235489	-5.117771	-39.235489	-5.117771	-0.327550	-141.794804
7.850000	-0.368278	-161.814697	-39.132101	-6.629697	-39.132101	-6.629697	-0.332062	-142.595153
7.900000	-0.373321	-162.802810	-39.030105	-8.138577	-39.030105	-8.138577	-0.336624	-143.395699
7.950000	-0.378424	-163.793850	-38.929489	-9.644312	-38.929489	-9.644312	-0.341238	-144.196489
8.000000	-0.383588	-164.787933	-38.830238	-11.146804	-38.830238	-11.146804	-0.345901	-144.997573
8.050000	-0.388813	-165.785177	-38.732338	-12.645948	-38.732338	-12.645948	-0.350616	-145.798999
8.100000	-0.394102	-166.785703	-38.635775	-14.141636	-38.635775	-14.141636	-0.355382	-146.600815
8.150000	-0.399454	-167.789631	-38.540534	-15.633759	-38.540534	-15.633759	-0.360200	-147.403073
8.200000	-0.404871	-168.797086	-38.446600	-17.122202	-38.446600	-17.122202	-0.365069	-148.205821
8.250000	-0.410355	-169.808195	-38.353958	-18.606850	-38.353958	-18.606850	-0.369989	-149.009111
8.300000	-0.415907	-170.823084	-38.262590	-20.087583	-38.262590	-20.087583	-0.374962	-149.812992
8.350000	-0.421527	-171.841885	-38.172480	-21.564280	-38.172480	-21.564280	-0.379986	-150.617516
8.400000	-0.427218	-172.864728	-38.083612	-23.036818	-38.083612	-23.036818	-0.385062	-151.422735
8.450000	-0.432981	-173.891750	-37.995966	-24.505071	-37.995966	-24.505071	-0.390190	-152.228700
8.500000	-0.438817	-174.923085	-37.909525	-25.968911	-37.909525	-25.968911	-0.395370	-153.035464
8.550000	-0.444729	-175.958873	-37.824268	-27.428209	-37.824268	-27.428209	-0.400602	-153.843079
8.600000	-0.450718	-176.999255	-37.740177	-28.882836	-37.740177	-28.882836	-0.405886	-154.651598
8.650000	-0.456785	-178.044373	-37.657230	-30.332660	-37.657230	-30.332660	-0.411222	-155.461075
8.700000	-0.462934	-179.094374	-37.575407	-31.777549	-37.575407	-31.777549	-0.416610	-156.271563
8.750000	-0.469165	179.850596	-37.494684	-33.217371	-37.494684	-33.217371	-0.422051	-157.083117
8.800000	-0.475485	178.790153	-37.415053	-34.651761	-37.415053	-34.651761	-0.427545	-157.895843
8.850000	-0.481892	177.724364	-37.336476	-36.080805	-37.336476	-36.080805	-0.433091	-158.709749
8.900000	-0.488389	176.653074	-37.258927	-37.504373	-37.258927	-37.504373	-0.438689	-159.524890
8.950000	-0.494979	175.576125	-37.182382	-38.922333	-37.182382	-38.922333	-0.444339	-160.341323
9.000000	-0.501663	174.493357	-37.106813	-40.334554	-37.106813	-40.334554	-0.450040	-161.159104
9.050000	-0.508446	173.404610	-37.032194	-41.740907	-37.032194	-41.740907	-0.455793	-161.978289
9.100000	-0.515329	172.309718	-36.958496	-43.141264	-36.958496	-43.141264	-0.461597	-162.798936
9.150000	-0.522316	171.208514	-36.885689	-44.535499	-36.885689	-44.535499	-0.467451	-163.621102
9.200000	-0.529410	170.100830	-36.813746	-45.923487	-36.813746	-45.923487	-0.473357	-164.444844
9.250000	-0.536615	168.986493	-36.742634	-47.305107	-36.742634	-47.305107	-0.479312	-165.270221
9.300000	-0.543933	167.865331	-36.672322	-48.680240	-36.672322	-48.680240	-0.485318	-166.097291
9.350000	-0.551369	166.737167	-36.602779	-50.048769	-36.602779	-50.048769	-0.491374	-166.926114
9.400000	-0.558926	165.601822	-36.533970	-51.410579	-36.533970	-51.410579	-0.497479	-167.756749
9.450000	-0.566609	164.459116	-36.465862	-52.765560	-36.465862	-52.765560	-0.503633	-168.589256
9.500000	-0.574422	163.308866	-36.398421	-54.113606	-36.398421	-54.113606	-0.509835	-169.423695
9.550000	-0.582369	162.150888	-36.331610	-55.454611	-36.331610	-55.454611	-0.516086	-170.260126
9.600000	-0.590455	160.984993	-36.265394	-56.788476	-36.265394	-56.788476	-0.522384	-171.098611
9.650000	-0.598684	159.810993	-36.199736	-58.115105	-36.199736	-58.115105	-0.528729	-171.939211
9.700000	-0.607062	158.628696	-36.134598	-59.434406	-36.134598	-59.434406	-0.535120	-172.781988
9.750000	-0.615594	157.437911	-36.069941	-60.746289	-36.069941	-60.746289	-0.541558	-173.627004
9.800000	-0.624286	156.238440	-36.005726	-62.050672	-36.005726	-62.050672	-0.548041	-174.474321
9.850000	-0.633143	155.030089	-35.941914	-63.347475	-35.941914	-63.347475	-0.554568	-175.324003
9.900000	-0.642171	153.812659	-35.878464	-64.636623	-35.878464	-64.636623	-0.561139	-176.176113
9.950000	-0.651376	152.585951	-35.815335	-65.918045	-35.815335	-65.918045	-0.567753	-177.030715
10.000000	-0.660765	151.349763	-35.752485	-67.191676	-35.752485	-67.191676	-0.574409	-177.887872
