! freq	dB(S11)	phase(S11)	dB(S12)	phase(S12)	
!     	dB(S21)	phase(S21)	dB(S22)	phase(S22)	
!S-par simulation data
#  GHz  S  DB  R 50
0.000000	-0.000000	0.000000	-351.354526	180.000000	-351.354526	180.000000	-0.000000	0.000000
0.050000	-0.004267	-0.813711	-100.363401	13.442602	-100.363401	13.442602	-0.000086	-0.866638
0.100000	-0.005037	-1.609266	-99.988854	20.674203	-99.988854	20.674203	-0.000341	-1.733103
0.150000	-0.005407	-2.407745	-99.460371	28.093329	-99.460371	28.093329	-0.000760	-2.599228
0.200000	-0.005777	-3.207071	-98.843822	34.646647	-98.843822	34.646647	-0.001331	-3.464868
0.250000	-0.006208	-4.006567	-98.196204	40.142032	-98.196204	40.142032	-0.002051	-4.329844
0.300000	-0.006707	-4.805926	-97.567774	44.770095	-97.567774	44.770095	-0.002893	-5.194097
0.350000	-0.007278	-5.604993	-96.982446	48.640067	-96.982446	48.640067	-0.003848	-6.057503
0.400000	-0.007918	-6.403654	-96.456625	51.911386	-96.456625	51.911386	-0.004899	-6.919985
0.450000	-0.008623	-7.201825	-95.999580	54.730654	-95.999580	54.730654	-0.006031	-7.781481
0.500000	-0.009387	-7.999440	-95.616440	57.227505	-95.616440	57.227505	-0.007229	-8.641950
0.550000	-0.010206	-8.796442	-95.310136	59.517256	-95.310136	59.517256	-0.008478	-9.501365
0.600000	-0.011073	-9.592784	-95.082568	61.706155	-95.082568	61.706155	-0.009765	-10.359712
0.650000	-0.011983	-10.388428	-94.935230	63.897654	-94.935230	63.897654	-0.011077	-11.216988
0.700000	-0.012931	-11.183340	-94.869425	66.199370	-94.869425	66.199370	-0.012406	-12.073196
0.750000	-0.013911	-11.977491	-94.886095	68.730952	-94.886095	68.730952	-0.013742	-12.928348
0.800000	-0.014919	-12.770856	-94.985116	71.633229	-94.985116	71.633229	-0.015078	-13.782454
0.850000	-0.015950	-13.563416	-95.163775	75.078633	-95.163775	75.078633	-0.016408	-14.635529
0.900000	-0.016998	-14.355153	-95.413811	79.281456	-95.413811	79.281456	-0.017729	-15.487588
0.950000	-0.018062	-15.146052	-95.716141	84.502471	-95.716141	84.502471	-0.019036	-16.338644
1.000000	-0.019136	-15.936099	-96.032406	91.033453	-96.032406	91.033453	-0.020327	-17.188708
1.050000	-0.020219	-16.725283	-96.294304	99.132943	-96.294304	99.132943	-0.021601	-18.037791
1.100000	-0.021306	-17.513595	-96.397796	108.878873	-96.397796	108.878873	-0.022857	-18.885899
1.150000	-0.022397	-18.301024	-96.219312	119.952278	-96.219312	119.952278	-0.024094	-19.733036
1.200000	-0.023488	-19.087561	-95.667762	131.517327	-95.667762	131.517327	-0.025313	-20.579204
1.250000	-0.024578	-19.873199	-94.743267	142.463599	-94.743267	142.463599	-0.026514	-21.424401
1.300000	-0.025666	-20.657888	-93.522733	151.851773	-93.522733	151.851773	-0.027697	-22.268582
1.350000	-0.026751	-21.441659	-92.151391	159.449286	-92.151391	159.449286	-0.028865	-23.111781
1.400000	-0.027832	-22.224504	-90.729320	165.376904	-90.729320	165.376904	-0.030018	-23.953992
1.450000	-0.028907	-23.006412	-89.318762	169.904877	-89.318762	169.904877	-0.031157	-24.795202
1.500000	-0.029978	-23.787376	-87.952446	173.316374	-87.952446	173.316374	-0.032283	-25.635401
1.550000	-0.031043	-24.567383	-86.644791	175.854240	-86.644791	175.854240	-0.033399	-26.474574
1.600000	-0.032103	-25.346425	-85.400122	177.710470	-85.400122	177.710470	-0.034505	-27.312706
1.650000	-0.033157	-26.124490	-84.217636	179.031828	-84.217636	179.031828	-0.035602	-28.149783
1.700000	-0.034203	-26.901219	-83.065127	179.820664	-83.065127	179.820664	-0.036690	-28.985406
1.750000	-0.035248	-27.677428	-82.009503	-179.581029	-82.009503	-179.581029	-0.037775	-29.820463
1.800000	-0.036286	-28.452399	-80.986878	-179.294393	-80.986878	-179.294393	-0.038854	-30.654161
1.850000	-0.037320	-29.226486	-80.020072	-179.230378	-80.020072	-179.230378	-0.039929	-31.486890
1.900000	-0.038351	-29.999484	-79.092030	-179.347234	-79.092030	-179.347234	-0.041001	-32.318413
1.950000	-0.039378	-30.771394	-78.201176	-179.644960	-78.201176	-179.644960	-0.042071	-33.148731
2.000000	-0.040402	-31.542373	-77.352054	179.950504	-77.352054	179.950504	-0.043141	-33.978009
2.050000	-0.041423	-32.312047	-76.526118	179.396435	-76.526118	179.396435	-0.044210	-34.805834
2.100000	-0.042443	-33.081151	-75.750739	178.793025	-75.750739	178.793025	-0.045279	-35.633017
2.150000	-0.043460	-33.848772	-74.988385	178.067176	-74.988385	178.067176	-0.046350	-36.458537
2.200000	-0.044477	-34.615276	-74.252308	177.265804	-74.252308	177.265804	-0.047423	-37.282797
2.250000	-0.045494	-35.380648	-73.540715	176.397861	-73.540715	176.397861	-0.048499	-38.105779
2.300000	-0.046511	-36.144875	-72.851996	175.470900	-72.851996	175.470900	-0.049579	-38.927465
2.350000	-0.047529	-36.907941	-72.184703	174.491344	-72.184703	174.491344	-0.050662	-39.747836
2.400000	-0.048549	-37.669834	-71.537530	173.464693	-71.537530	173.464693	-0.051750	-40.566876
2.450000	-0.049571	-38.430540	-70.909295	172.395694	-70.909295	172.395694	-0.052843	-41.384566
2.500000	-0.050595	-39.190045	-70.298927	171.288471	-70.298927	171.288471	-0.053942	-42.200890
2.550000	-0.051622	-39.948282	-69.704429	170.145269	-69.704429	170.145269	-0.055046	-43.015771
2.600000	-0.052654	-40.705290	-69.126038	168.970866	-69.126038	168.970866	-0.056158	-43.829253
2.650000	-0.053689	-41.461056	-68.562928	167.768021	-68.562928	167.768021	-0.057276	-44.641320
2.700000	-0.054730	-42.215567	-68.014340	166.539191	-68.014340	166.539191	-0.058401	-45.451957
2.750000	-0.055775	-42.968811	-67.479577	165.286578	-67.479577	165.286578	-0.059534	-46.261150
2.800000	-0.056827	-43.720774	-66.957995	164.012160	-66.957995	164.012160	-0.060675	-47.068886
2.850000	-0.057885	-44.471446	-66.448998	162.717724	-66.448998	162.717724	-0.061825	-47.875150
2.900000	-0.058949	-45.220813	-65.952035	161.404892	-65.952035	161.404892	-0.062983	-48.679931
2.950000	-0.060021	-45.968866	-65.466592	160.075142	-65.466592	160.075142	-0.064150	-49.483216
3.000000	-0.061101	-46.715591	-64.992192	158.729823	-64.992192	158.729823	-0.065326	-50.284994
3.050000	-0.062188	-47.460979	-64.528388	157.370172	-64.528388	157.370172	-0.066512	-51.085253
3.100000	-0.063285	-48.205019	-64.074763	155.997330	-64.074763	155.997330	-0.067708	-51.883984
3.150000	-0.064390	-48.947701	-63.630924	154.612346	-63.630924	154.612346	-0.068914	-52.681176
3.200000	-0.065505	-49.689015	-63.196503	153.216195	-63.196503	153.216195	-0.070130	-53.476819
3.250000	-0.066630	-50.428951	-62.771153	151.809776	-62.771153	151.809776	-0.071357	-54.270906
3.300000	-0.067765	-51.167501	-62.354547	150.393928	-62.354547	150.393928	-0.072595	-55.063428
3.350000	-0.068912	-51.904410	-61.944518	148.968140	-61.944518	148.968140	-0.073846	-55.854101
3.400000	-0.070071	-52.639854	-61.542355	147.534107	-61.542355	147.534107	-0.075110	-56.643125
3.450000	-0.071237	-53.374559	-61.152898	146.096548	-61.152898	146.096548	-0.076380	-57.431320
3.500000	-0.072421	-54.107045	-60.765536	144.648411	-60.765536	144.648411	-0.077669	-58.217024
3.550000	-0.073609	-54.839033	-60.391596	143.198346	-60.391596	143.198346	-0.078962	-59.002171
3.600000	-0.074819	-55.568530	-60.018144	141.738638	-60.018144	141.738638	-0.080278	-59.784532
3.650000	-0.076032	-56.297775	-59.658654	140.278150	-59.658654	140.278150	-0.081596	-60.566612
3.700000	-0.077270	-57.024256	-59.298293	138.809076	-59.298293	138.809076	-0.082939	-61.345612
3.750000	-0.078508	-57.750737	-58.952288	137.340001	-58.952288	137.340001	-0.084283	-62.124612
3.800000	-0.079776	-58.474178	-58.604260	135.863475	-58.604260	135.863475	-0.085656	-62.900237
3.850000	-0.081043	-59.197619	-58.269640	134.386949	-58.269640	134.386949	-0.087029	-63.675862
3.900000	-0.082340	-59.918255	-57.934464	132.905114	-57.934464	132.905114	-0.088430	-64.448386
3.950000	-0.083639	-60.638636	-57.610607	131.422796	-57.610607	131.422796	-0.089834	-65.220629
4.000000	-0.084965	-61.356454	-57.287448	129.936844	-57.287448	129.936844	-0.091265	-65.990050
4.050000	-0.086296	-62.073759	-56.973772	128.450165	-56.973772	128.450165	-0.092702	-66.758906
4.100000	-0.087654	-62.788747	-56.661865	126.961134	-56.661865	126.961134	-0.094164	-67.525223
4.150000	-0.089020	-63.502963	-56.357823	125.471318	-56.357823	125.471318	-0.095635	-68.290693
4.200000	-0.090410	-64.215114	-56.056465	123.980102	-56.056465	123.980102	-0.097129	-69.053911
4.250000	-0.091811	-64.926232	-55.761542	122.488186	-55.761542	122.488186	-0.098636	-69.816001
4.300000	-0.093235	-65.635540	-55.470087	120.995548	-55.470087	120.995548	-0.100164	-70.576126
4.350000	-0.094675	-66.343554	-55.183799	119.502394	-55.183799	119.502394	-0.101708	-71.334846
4.400000	-0.096134	-67.050016	-54.901651	118.008975	-54.901651	118.008975	-0.103272	-72.091887
4.450000	-0.097612	-67.754924	-54.623542	116.515291	-54.623542	116.515291	-0.104856	-72.847251
4.500000	-0.099107	-68.458539	-54.350151	115.021620	-54.350151	115.021620	-0.106457	-73.601223
4.550000	-0.100627	-69.160343	-54.079793	113.527969	-54.079793	113.527969	-0.108082	-74.353247
4.600000	-0.102160	-69.861113	-53.814649	112.034473	-53.814649	112.034473	-0.109721	-75.104166
4.650000	-0.103722	-70.559817	-53.551639	110.541287	-53.551639	110.541287	-0.111390	-75.852874
4.700000	-0.105294	-71.257747	-53.294272	109.048297	-53.294272	109.048297	-0.113070	-76.600758
4.750000	-0.106900	-71.953359	-53.038233	107.555894	-53.038233	107.555894	-0.114784	-77.346174
4.800000	-0.108513	-72.648456	-52.788209	106.063657	-52.788209	106.063657	-0.116506	-78.091047
4.850000	-0.110164	-73.340986	-52.538786	104.572246	-52.538786	104.572246	-0.118268	-78.833201
4.900000	-0.111819	-74.033260	-52.295703	103.080929	-52.295703	103.080929	-0.120034	-79.575085
4.950000	-0.113517	-74.722723	-52.052569	101.590629	-52.052569	101.590629	-0.121846	-80.314010
5.000000	-0.115216	-75.412186	-51.816055	100.100329	-51.816055	100.100329	-0.123658	-81.052935
5.050000	-0.116963	-76.098599	-51.578902	98.611177	-51.578902	98.611177	-0.125521	-81.788667
5.100000	-0.118710	-76.785011	-51.348052	97.122024	-51.348052	97.122024	-0.127385	-82.524398
5.150000	-0.120504	-77.468647	-51.117158	95.633891	-51.117158	95.633891	-0.129299	-83.257240
5.200000	-0.122302	-78.152030	-50.891711	94.145852	-50.891711	94.145852	-0.131218	-83.989818
5.250000	-0.124144	-78.832907	-50.666761	92.658663	-50.666761	92.658663	-0.133183	-84.719805
5.300000	-0.125994	-79.513283	-50.446475	91.171644	-50.446475	91.171644	-0.135158	-85.449273
5.350000	-0.127885	-80.191424	-50.227178	89.685286	-50.227178	89.685286	-0.137178	-86.176443
5.400000	-0.129789	-80.868819	-50.011831	88.199148	-50.011831	88.199148	-0.139212	-86.902847
5.450000	-0.131731	-81.544247	-49.797921	86.713480	-49.797921	86.713480	-0.141287	-87.627240
5.500000	-0.133691	-82.218690	-49.587311	85.228046	-49.587311	85.228046	-0.143383	-88.350629
5.550000	-0.135685	-82.891430	-49.378545	83.742904	-49.378545	83.742904	-0.145516	-89.072289
5.600000	-0.137703	-83.562952	-49.172488	82.257971	-49.172488	82.257971	-0.147675	-89.792715
5.650000	-0.139751	-84.233031	-48.968646	80.773178	-48.968646	80.773178	-0.149868	-90.511686
5.700000	-0.141828	-84.901667	-48.766976	79.288525	-48.766976	79.288525	-0.152094	-91.229203
5.750000	-0.143931	-85.569115	-48.567855	77.803895	-48.567855	77.803895	-0.154348	-91.945533
5.800000	-0.146070	-86.234900	-48.370423	76.319296	-48.370423	76.319296	-0.156643	-92.660200
5.850000	-0.148229	-86.899748	-48.175841	74.834641	-48.175841	74.834641	-0.158961	-93.373937
5.900000	-0.150431	-87.562721	-47.982515	73.349872	-47.982515	73.349872	-0.161326	-94.085813
5.950000	-0.152649	-88.225002	-47.792307	71.865007	-47.792307	71.865007	-0.163710	-94.797009
6.000000	-0.154915	-88.885204	-47.602970	70.379855	-47.602970	70.379855	-0.166149	-95.506159
6.050000	-0.157192	-89.544953	-47.416986	68.894607	-47.416986	68.894607	-0.168600	-96.214866
6.100000	-0.159525	-90.202429	-47.231536	67.408878	-47.231536	67.408878	-0.171115	-96.921355
6.150000	-0.161864	-90.859681	-47.049640	65.923088	-47.049640	65.923088	-0.173636	-97.627629
6.200000	-0.164265	-91.514475	-46.867990	64.436617	-46.867990	64.436617	-0.176227	-98.331526
6.250000	-0.166667	-92.169269	-46.690060	62.950146	-46.690060	62.950146	-0.178820	-99.035423
6.300000	-0.169138	-92.821430	-46.512132	61.462800	-46.512132	61.462800	-0.181492	-99.736799
6.350000	-0.171610	-93.473590	-46.337776	59.975454	-46.337776	59.975454	-0.184164	-100.438176
6.400000	-0.174148	-94.123382	-46.163789	58.487223	-46.163789	58.487223	-0.186911	-101.137308
6.450000	-0.176692	-94.772959	-45.992946	56.998911	-45.992946	56.998911	-0.189666	-101.836237
6.500000	-0.179297	-95.420426	-45.822805	55.509757	-45.822805	55.509757	-0.192490	-102.533190
6.550000	-0.181915	-96.067471	-45.655424	54.020434	-45.655424	54.020434	-0.195329	-103.229748
6.600000	-0.184589	-96.712657	-45.489044	52.530356	-45.489044	52.530356	-0.198232	-103.924587
6.650000	-0.187282	-97.357224	-45.325083	51.040027	-45.325083	51.040027	-0.201156	-104.618853
6.700000	-0.190027	-98.000176	-45.162384	49.549066	-45.162384	49.549066	-0.204140	-105.311645
6.750000	-0.192798	-98.642320	-45.001805	48.057790	-45.001805	48.057790	-0.207152	-106.003700
6.800000	-0.195615	-99.283085	-44.842714	46.566029	-44.842714	46.566029	-0.210217	-106.694515
6.850000	-0.198465	-99.922864	-44.685485	45.073922	-44.685485	45.073922	-0.213320	-107.384443
6.900000	-0.201356	-100.561491	-44.529935	43.581487	-44.529935	43.581487	-0.216468	-108.073352
6.950000	-0.204287	-101.198965	-44.376026	42.088722	-44.376026	42.088722	-0.219662	-108.761241
7.000000	-0.207252	-101.835503	-44.223952	40.595781	-44.223952	40.595781	-0.222895	-109.448317
7.050000	-0.210266	-102.470733	-44.073333	39.102592	-44.073333	39.102592	-0.226182	-110.134255
7.100000	-0.213308	-103.105235	-43.924673	37.609358	-43.924673	37.609358	-0.229501	-110.819574
7.150000	-0.216406	-103.738283	-43.777317	36.116033	-43.777317	36.116033	-0.232882	-111.503654
7.200000	-0.219526	-104.370802	-43.632008	34.622761	-43.632008	34.622761	-0.236288	-112.187293
7.250000	-0.222710	-105.001732	-43.487882	33.129645	-43.487882	33.129645	-0.239765	-112.869609
7.300000	-0.225909	-105.632321	-43.345865	31.636629	-43.345865	31.636629	-0.243259	-113.551648
7.350000	-0.229180	-106.261201	-43.204933	30.144115	-43.204933	30.144115	-0.246833	-114.232299
7.400000	-0.232460	-106.889915	-43.066144	28.651689	-43.066144	28.651689	-0.250417	-114.912819
7.450000	-0.235821	-107.516811	-42.928366	27.160219	-42.928366	27.160219	-0.254089	-115.591904
7.500000	-0.239183	-108.143708	-42.792740	25.668749	-42.792740	25.668749	-0.257763	-116.270989
7.550000	-0.242634	-108.768690	-42.658068	24.178803	-42.658068	24.178803	-0.261534	-116.948612
7.600000	-0.246087	-109.393671	-42.525452	22.688856	-42.525452	22.688856	-0.265306	-117.626236
7.650000	-0.249622	-110.016964	-42.393913	21.200777	-42.393913	21.200777	-0.269169	-118.302617
7.700000	-0.253167	-110.640102	-42.264255	19.712866	-42.264255	19.712866	-0.273041	-118.978885
7.750000	-0.256789	-111.261765	-42.135765	18.227100	-42.135765	18.227100	-0.276996	-119.654115
7.800000	-0.260428	-111.883132	-42.009001	16.741762	-42.009001	16.741762	-0.280969	-120.329137
7.850000	-0.264136	-112.503227	-41.883468	15.258765	-41.883468	15.258765	-0.285017	-121.003310
7.900000	-0.267870	-113.122897	-41.759527	13.776550	-41.759527	13.776550	-0.289091	-121.677200
7.950000	-0.271667	-113.741486	-41.636852	12.296785	-41.636852	12.296785	-0.293231	-122.350412
8.000000	-0.275496	-114.359534	-41.515649	10.818246	-41.515649	10.818246	-0.297407	-123.023285
8.050000	-0.279382	-114.976681	-41.395727	9.342170	-41.395727	9.342170	-0.301640	-123.695635
8.100000	-0.283309	-115.593184	-41.277166	7.867855	-41.277166	7.867855	-0.305917	-124.367611
8.150000	-0.287286	-116.208953	-41.159886	6.395917	-41.159886	6.395917	-0.310244	-125.039200
8.200000	-0.291311	-116.823989	-41.043857	4.926355	-41.043857	4.926355	-0.314622	-125.710403
8.250000	-0.295379	-117.438447	-40.929099	3.458983	-40.929099	3.458983	-0.319043	-126.381336
8.300000	-0.299504	-118.052096	-40.815481	1.994676	-40.815481	1.994676	-0.323522	-127.051892
8.350000	-0.303663	-118.665310	-40.703118	0.532273	-40.703118	0.532273	-0.328035	-127.722276
8.400000	-0.307889	-119.277653	-40.591776	-0.926320	-40.591776	-0.926320	-0.332615	-128.392317
8.450000	-0.312141	-119.889690	-40.481676	-2.383382	-40.481676	-2.383382	-0.337222	-129.062262
8.500000	-0.316468	-120.500810	-40.372461	-3.835853	-40.372461	-3.835853	-0.341902	-129.731921
8.550000	-0.320813	-121.111740	-40.264482	-5.287247	-40.264482	-5.287247	-0.346601	-130.401540
8.600000	-0.325243	-121.721721	-40.157235	-6.733250	-40.157235	-6.733250	-0.351381	-131.070958
8.650000	-0.329682	-122.331615	-40.051230	-8.178692	-40.051230	-8.178692	-0.356172	-131.740367
8.700000	-0.334214	-122.940543	-39.945780	-9.617956	-39.945780	-9.617956	-0.361051	-132.409686
8.750000	-0.338748	-123.549471	-39.841594	-11.057220	-39.841594	-11.057220	-0.365933	-133.079004
8.800000	-0.343383	-124.157434	-39.737758	-12.489556	-39.737758	-12.489556	-0.370910	-133.748372
8.850000	-0.348020	-124.765396	-39.635148	-13.921892	-39.635148	-13.921892	-0.375889	-134.417740
8.900000	-0.352751	-125.372555	-39.532816	-15.347788	-39.532816	-15.347788	-0.380955	-135.087293
8.950000	-0.357492	-125.979641	-39.431593	-16.773100	-39.431593	-16.773100	-0.386031	-135.756863
9.000000	-0.362317	-126.586072	-39.330586	-18.192561	-39.330586	-18.192561	-0.391185	-136.426732
9.050000	-0.367162	-127.192371	-39.230552	-19.610853	-39.230552	-19.610853	-0.396356	-137.096661
9.100000	-0.372084	-127.798151	-39.130687	-21.023968	-39.130687	-21.023968	-0.401596	-137.766981
9.150000	-0.377032	-128.403756	-39.031636	-22.435356	-39.031636	-22.435356	-0.406861	-138.437432
9.200000	-0.382049	-129.008962	-38.932725	-23.842298	-38.932725	-23.842298	-0.412186	-139.108342
9.250000	-0.387102	-129.613968	-38.834444	-25.247016	-38.834444	-25.247016	-0.417542	-139.779482
9.300000	-0.392214	-130.218679	-38.736297	-26.648053	-38.736297	-26.648053	-0.422950	-140.451126
9.350000	-0.397370	-130.823181	-38.638564	-28.046460	-38.638564	-28.046460	-0.428396	-141.123130
9.400000	-0.402578	-131.427478	-38.540990	-29.441958	-38.540990	-29.441958	-0.433886	-141.795654
9.450000	-0.407837	-132.031573	-38.443581	-30.834547	-38.443581	-30.834547	-0.439419	-142.468700
9.500000	-0.413139	-132.635539	-38.346388	-32.224975	-38.346388	-32.224975	-0.444989	-143.142257
9.550000	-0.418501	-133.239325	-38.249072	-33.612377	-38.249072	-33.612377	-0.450607	-143.816530
9.600000	-0.423897	-133.843042	-38.152065	-34.998312	-38.152065	-34.998312	-0.456253	-144.491276
9.650000	-0.429360	-134.446622	-38.054609	-36.381311	-38.054609	-36.381311	-0.461953	-145.166969
9.700000	-0.434850	-135.050176	-37.957596	-37.763444	-37.957596	-37.763444	-0.467675	-145.843066
9.750000	-0.440414	-135.653651	-37.859764	-39.142977	-37.859764	-39.142977	-0.473454	-146.520376
9.800000	-0.445996	-136.257127	-37.762554	-40.522117	-37.762554	-40.522117	-0.479248	-147.197990
9.850000	-0.451659	-136.860605	-37.664109	-41.899289	-37.664109	-41.899289	-0.485102	-147.877123
9.900000	-0.457333	-137.464091	-37.566511	-43.276371	-37.566511	-43.276371	-0.490966	-148.556426
9.950000	-0.463094	-138.067676	-37.467217	-44.652461	-37.467217	-44.652461	-0.496893	-149.237594
10.000000	-0.468858	-138.671261	-37.369045	-46.028552	-37.369045	-46.028552	-0.502824	-149.918763
