! freq	dB(S11)	phase(S11)	dB(S12)	phase(S12)	
!     	dB(S21)	phase(S21)	dB(S22)	phase(S22)	
!S-par simulation data
#  GHz  S  DB  R 50
0.000000	-84.613535	0.000000	-0.000511	0.000000	-0.000511	0.000000	-84.613535	0.000000
0.050000	-36.621176	-92.796783	-0.003872	-3.001550	-0.003872	-3.001550	-36.619858	-92.797286
0.100000	-30.611015	-95.943659	-0.012574	-5.997105	-0.012574	-5.997105	-30.610326	-95.942854
0.150000	-27.107156	-99.024532	-0.024225	-8.980594	-0.024225	-8.980594	-27.107306	-99.018888
0.200000	-24.634438	-102.101055	-0.037258	-11.950466	-0.037258	-11.950466	-24.635230	-102.085877
0.250000	-22.733000	-105.184941	-0.051080	-14.907820	-0.051080	-14.907820	-22.733616	-105.156167
0.300000	-21.199542	-108.269782	-0.065567	-17.854805	-0.065567	-17.854805	-21.198582	-108.228491
0.350000	-19.924177	-111.334680	-0.080760	-20.793339	-0.080760	-20.793339	-19.920634	-111.289873
0.400000	-18.839775	-114.356168	-0.096753	-23.724121	-0.096753	-23.724121	-18.834025	-114.320254
0.450000	-17.901366	-117.322619	-0.113647	-26.646997	-0.113647	-26.646997	-17.895098	-117.301799
0.500000	-17.075390	-120.245999	-0.131416	-29.562205	-0.131416	-29.562205	-17.070090	-120.236893
0.550000	-16.340116	-123.141480	-0.150032	-32.469436	-0.150032	-32.469436	-16.336361	-123.137149
0.600000	-15.681490	-126.020611	-0.169471	-35.367924	-0.169471	-35.367924	-15.679141	-126.015259
0.650000	-15.087946	-128.890695	-0.189610	-38.257613	-0.189610	-38.257613	-15.086604	-128.881478
0.700000	-14.550998	-131.754351	-0.210335	-41.138306	-0.210335	-41.138306	-14.550286	-131.740364
0.750000	-14.064652	-134.611944	-0.231532	-44.009503	-0.231532	-44.009503	-14.064291	-134.593288
0.800000	-13.623440	-137.463189	-0.253052	-46.871101	-0.253052	-46.871101	-13.623251	-137.440366
0.850000	-13.222621	-140.307633	-0.274744	-49.723198	-0.274744	-49.723198	-13.222499	-140.281214
0.900000	-12.858382	-143.144822	-0.296452	-52.565902	-0.296452	-52.565902	-12.858271	-143.115314
0.950000	-12.527620	-145.974406	-0.318023	-55.399363	-0.318023	-55.399363	-12.527490	-145.942217
1.000000	-12.227629	-148.796236	-0.339299	-58.223873	-0.339299	-58.223873	-12.227469	-148.761673
1.050000	-11.956101	-151.610342	-0.360127	-61.039829	-0.360127	-61.039829	-11.955909	-151.573615
1.100000	-11.711054	-154.416911	-0.380356	-63.847723	-0.380356	-63.847723	-11.710833	-154.378156
1.150000	-11.490786	-157.216276	-0.399842	-66.648144	-0.399842	-66.648144	-11.490541	-157.175564
1.200000	-11.293834	-160.008898	-0.418446	-69.441767	-0.418446	-69.441767	-11.293570	-159.966247
1.250000	-11.118940	-162.795347	-0.436038	-72.229352	-0.436038	-72.229352	-11.118662	-162.750733
1.300000	-10.965601	-165.576130	-0.452456	-75.011589	-0.452456	-75.011589	-10.965315	-165.529493
1.350000	-10.832312	-168.352213	-0.467625	-77.789593	-0.467625	-77.789593	-10.832022	-168.303464
1.400000	-10.718300	-171.124424	-0.481445	-80.564334	-0.481445	-80.564334	-10.718007	-171.073450
1.450000	-10.622918	-173.893653	-0.493830	-83.336840	-0.493830	-83.336840	-10.622626	-173.840321
1.500000	-10.545642	-176.660841	-0.504704	-86.108181	-0.504704	-86.108181	-10.545350	-176.604997
1.550000	-10.486055	-179.426971	-0.514005	-88.879471	-0.514005	-88.879471	-10.485765	-179.368445
1.600000	-10.443847	177.806941	-0.521684	-91.651852	-0.521684	-91.651852	-10.443557	177.868337
1.650000	-10.418804	175.039854	-0.527706	-94.426494	-0.527706	-94.426494	-10.418513	175.104324
1.700000	-10.410811	172.270706	-0.532047	-97.204581	-0.532047	-97.204581	-10.410518	172.338474
1.750000	-10.419846	169.498431	-0.534698	-99.987312	-0.534698	-99.987312	-10.419550	169.569737
1.800000	-10.445984	166.721956	-0.535664	-102.775885	-0.535664	-102.775885	-10.445681	166.797061
1.850000	-10.489392	163.940219	-0.534962	-105.571498	-0.534962	-105.571498	-10.489079	164.019406
1.900000	-10.550337	161.152168	-0.532625	-108.375337	-0.532625	-108.375337	-10.550011	161.235745
1.950000	-10.629188	158.356779	-0.528696	-111.188570	-0.528696	-111.188570	-10.628844	158.445080
2.000000	-10.726419	155.553057	-0.523234	-114.012344	-0.523234	-114.012344	-10.726054	155.646448
2.050000	-10.842621	152.740050	-0.516310	-116.847770	-0.516310	-116.847770	-10.842230	152.838933
2.100000	-10.976938	149.917832	-0.508117	-119.694710	-0.508117	-119.694710	-10.976516	150.022607
2.150000	-11.133540	147.083557	-0.498507	-122.556701	-0.498507	-122.556701	-11.133081	147.194761
2.200000	-11.311682	144.237479	-0.487722	-125.433457	-0.487722	-125.433457	-11.311180	144.355660
2.250000	-11.512537	141.378927	-0.475880	-128.325896	-0.475880	-128.325896	-11.511985	141.504703
2.300000	-11.737470	138.507342	-0.463110	-131.234873	-0.463110	-131.234873	-11.736861	138.641408
2.350000	-11.988070	135.622285	-0.449551	-134.161166	-0.449551	-134.161166	-11.987395	135.765434
2.400000	-12.266184	132.723466	-0.435350	-137.105477	-0.435350	-137.105477	-12.265434	132.876604
2.450000	-12.573969	129.810764	-0.420661	-140.068423	-0.420661	-140.068423	-12.573132	129.974938
2.500000	-12.913947	126.884263	-0.405646	-143.050528	-0.405646	-143.050528	-12.913010	127.060692
2.550000	-13.289538	123.944012	-0.390472	-146.052652	-0.390472	-146.052652	-13.288486	124.134163
2.600000	-13.703825	120.990961	-0.375318	-149.074700	-0.375318	-149.074700	-13.702638	121.196546
2.650000	-14.161013	118.026133	-0.360357	-152.116882	-0.360357	-152.116882	-14.159669	118.249208
2.700000	-14.666182	115.051033	-0.345762	-155.179304	-0.345762	-155.179304	-14.664652	115.294098
2.750000	-15.225546	112.067787	-0.331707	-158.261957	-0.331707	-158.261957	-15.223791	112.333928
2.800000	-15.846811	109.079369	-0.318361	-161.364721	-0.318361	-161.364721	-15.844782	109.372454
2.850000	-16.539712	106.089938	-0.305890	-164.487363	-0.305890	-164.487363	-16.537341	106.414908
2.900000	-17.316790	103.105381	-0.294452	-167.629543	-0.294452	-167.629543	-17.313982	103.468688
2.950000	-18.196786	100.136534	-0.284321	-170.792634	-0.284321	-170.792634	-18.193397	100.547929
3.000000	-19.198086	97.193963	-0.275414	-173.972572	-0.275414	-173.972572	-19.193906	97.664988
3.050000	-20.354439	94.299727	-0.267953	-177.170378	-0.267953	-177.170378	-20.349127	94.848142
3.100000	-21.712871	91.489662	-0.262048	179.614679	-0.262048	179.614679	-21.705833	92.142672
3.150000	-23.347275	88.830571	-0.257793	176.383406	-0.257793	176.383406	-23.337379	89.633022
3.200000	-25.383822	86.464542	-0.255261	173.136671	-0.255261	173.136671	-25.368588	87.498627
3.250000	-28.065554	84.764150	-0.254509	169.875392	-0.254509	169.875392	-28.038245	86.207971
3.300000	-31.958239	85.199597	-0.255570	166.600521	-0.255570	166.600521	-31.891395	87.578053
3.350000	-38.652984	104.857184	-0.258433	163.313170	-0.258433	163.313170	-38.286673	108.552638
3.400000	-42.711533	173.816017	-0.263158	160.013859	-0.263158	160.013859	-41.925578	174.829072
3.450000	-34.699806	-126.634848	-0.269663	156.703863	-0.269663	156.703863	-34.591028	-129.985933
3.500000	-29.821678	-123.750306	-0.277891	153.384095	-0.277891	153.384095	-29.790834	-125.587094
3.550000	-26.732059	-124.918137	-0.287761	150.055409	-0.287761	150.055409	-26.718190	-126.187686
3.600000	-24.491245	-127.132770	-0.299171	146.718584	-0.299171	146.718584	-24.483582	-128.106924
3.650000	-22.747474	-129.778778	-0.311995	143.374307	-0.311995	143.374307	-22.742711	-130.571322
3.700000	-21.332242	-132.646466	-0.326089	140.023150	-0.326089	140.023150	-21.329045	-133.315762
3.750000	-20.148594	-135.637096	-0.341214	136.666070	-0.341214	136.666070	-20.146340	-136.215234
3.800000	-19.146429	-138.720865	-0.357367	133.302273	-0.357367	133.302273	-19.144762	-139.231801
3.850000	-18.284423	-141.860692	-0.374252	129.932489	-0.374252	129.932489	-18.283149	-142.318523
3.900000	-17.536729	-145.041206	-0.391663	126.556681	-0.391663	126.556681	-17.535731	-145.455885
3.950000	-16.884855	-148.252585	-0.409382	123.174624	-0.409382	123.174624	-16.884058	-148.631379
4.000000	-16.315190	-151.488370	-0.427185	119.785898	-0.427185	119.785898	-16.314541	-151.836725
4.050000	-15.817503	-154.744264	-0.444845	116.389875	-0.444845	116.389875	-15.816967	-155.066347
4.100000	-15.383998	-158.017435	-0.462130	112.985715	-0.462130	112.985715	-15.383550	-158.316487
4.150000	-15.009291	-161.306316	-0.478801	109.572204	-0.478801	109.572204	-15.008913	-161.584914
4.200000	-14.687292	-164.609290	-0.494661	106.148432	-0.494661	106.148432	-14.686969	-164.869395
4.250000	-14.415769	-167.926372	-0.509471	102.712572	-0.509471	102.712572	-14.415491	-168.169594
4.300000	-14.193015	-171.257813	-0.522992	99.262529	-0.522992	99.262529	-14.192772	-171.485438
4.350000	-14.016260	-174.603570	-0.535062	95.796616	-0.535062	95.796616	-14.016044	-174.816560
4.400000	-13.884544	-177.964209	-0.545509	92.312584	-0.545509	92.312584	-13.884347	-178.163287
4.450000	-13.797602	178.659561	-0.554184	88.807948	-0.554184	88.807948	-13.797417	178.473887
4.500000	-13.755867	175.266980	-0.560961	85.279981	-0.560961	85.279981	-13.755686	175.094404
4.550000	-13.760496	171.857353	-0.565748	81.725728	-0.565748	81.725728	-13.760310	171.697763
4.600000	-13.813444	168.430190	-0.568486	78.142000	-0.568486	78.142000	-13.813243	168.283677
4.650000	-13.917576	164.985406	-0.569158	74.525392	-0.569158	74.525392	-13.917347	164.852276
4.700000	-14.072378	161.524790	-0.567946	70.875515	-0.567946	70.875515	-14.072107	161.405529
4.750000	-14.291248	158.047404	-0.564625	67.182798	-0.564625	67.182798	-14.290911	157.942893
4.800000	-14.577370	154.557602	-0.559473	63.445881	-0.559473	63.445881	-14.576940	154.469047
4.850000	-14.939912	151.060998	-0.552689	59.660643	-0.552689	59.660643	-14.939349	150.990079
4.900000	-15.391058	147.567046	-0.544543	55.822857	-0.544543	55.822857	-15.390304	147.516092
4.950000	-15.948142	144.091820	-0.535373	51.927575	-0.535373	51.927575	-15.947108	144.064129
5.000000	-16.633714	140.662100	-0.525627	47.970660	-0.525627	47.970660	-16.632261	140.662369
5.050000	-17.479641	137.322842	-0.515836	43.948254	-0.515836	43.948254	-17.477538	137.357948
5.100000	-18.533872	134.154129	-0.506618	39.856294	-0.506618	39.856294	-18.530702	134.234632
5.150000	-19.871522	131.308467	-0.498694	35.690975	-0.498694	35.690975	-19.866465	131.451624
5.200000	-21.619440	129.108829	-0.492880	31.448870	-0.492880	31.448870	-21.610643	129.345350
5.250000	-24.015016	128.362265	-0.490093	27.127062	-0.490093	27.127062	-23.997387	128.753682
5.300000	-27.564213	131.725237	-0.491340	22.723291	-0.491340	22.723291	-27.518384	132.412148
5.350000	-33.203773	153.046228	-0.497709	18.236108	-0.497709	18.236108	-33.013528	154.103800
5.400000	-34.242953	-137.284375	-0.510354	13.665032	-0.510354	13.665032	-33.979630	-138.358918
5.450000	-27.797187	-106.618998	-0.530464	9.010699	-0.530464	9.010699	-27.729113	-107.721767
5.500000	-23.353122	-101.781732	-0.559239	4.274990	-0.559239	4.274990	-23.326212	-102.560743
5.550000	-20.239535	-102.500859	-0.597847	-0.538868	-0.597847	-0.538868	-20.225124	-103.110209
5.600000	-17.857419	-105.137301	-0.647389	-5.426309	-0.647389	-5.426309	-17.848331	-105.646519
5.650000	-15.932542	-108.682632	-0.709042	-10.382377	-0.709042	-10.382377	-15.926201	-109.126095
5.700000	-14.324358	-112.730805	-0.783494	-15.398938	-0.783494	-15.398938	-14.319622	-113.127249
5.750000	-12.951342	-117.090410	-0.871134	-20.466727	-0.871134	-20.466727	-12.947626	-117.451048
5.800000	-11.761434	-121.655232	-0.971679	-25.575279	-0.971679	-25.575279	-11.758406	-121.987216
5.850000	-10.720080	-126.373498	-1.085900	-30.717796	-1.085900	-30.717796	-10.717531	-126.682057
5.900000	-9.803727	-131.196921	-1.213223	-35.883803	-1.213223	-35.883803	-9.801523	-131.485647
5.950000	-8.994196	-136.090489	-1.352461	-41.063456	-1.352461	-41.063456	-8.992245	-136.361882
6.000000	-8.278582	-141.031234	-1.502554	-46.248752	-1.502554	-46.248752	-8.276817	-141.287151
6.050000	-7.645935	-145.999731	-1.661699	-51.432897	-1.661699	-51.432897	-7.644307	-146.241491
6.100000	-7.088086	-150.981989	-1.827862	-56.611197	-1.827862	-56.611197	-7.086557	-151.210529
6.150000	-6.598252	-155.967837	-1.998556	-61.781527	-1.998556	-61.781527	-6.596790	-156.183773
6.200000	-6.170435	-160.951054	-2.170963	-66.944947	-2.170963	-66.944947	-6.169011	-161.154721
6.250000	-5.800422	-165.929221	-2.341912	-72.105949	-2.341912	-72.105949	-5.799012	-166.120708
6.300000	-5.485449	-170.903854	-2.507696	-77.273576	-2.507696	-77.273576	-5.484026	-171.082993
6.350000	-5.222681	-175.880866	-2.664489	-82.461815	-2.664489	-82.461815	-5.221217	-176.047223
6.400000	-5.012993	179.128252	-2.807232	-87.693333	-2.807232	-87.693333	-5.011453	178.975455
6.450000	-4.852836	174.110323	-2.932954	-92.989968	-2.932954	-92.989968	-4.851180	173.972141
6.500000	-4.747432	169.042723	-3.035526	-98.392121	-3.035526	-98.392121	-4.745605	168.920739
6.550000	-4.700393	163.901261	-3.110386	-103.942192	-3.110386	-103.942192	-4.698319	163.797604
6.600000	-4.724249	158.646544	-3.150154	-109.714135	-3.150154	-109.714135	-4.721811	158.564364
6.650000	-4.833614	153.238652	-3.149542	-115.791021	-3.149542	-115.791021	-4.830629	153.182375
6.700000	-5.057114	147.627675	-3.102196	-122.298751	-3.102196	-122.298751	-5.053273	147.603954
6.750000	-5.438313	141.777521	-3.004904	-129.393086	-3.004904	-129.393086	-5.433066	141.796462
6.800000	-6.056730	135.693722	-2.857742	-137.298866	-2.857742	-137.298866	-6.048969	135.771887
6.850000	-7.056848	129.556659	-2.670764	-146.317241	-2.670764	-146.317241	-7.044041	129.723270
6.900000	-8.722061	124.194418	-2.474475	-156.842068	-2.474475	-156.842068	-8.697075	124.506221
6.950000	-11.613765	123.216729	-2.338435	-169.304093	-2.338435	-169.304093	-11.549347	123.780156
7.000000	-15.966020	144.070182	-2.389158	176.023468	-2.389158	176.023468	-15.744419	144.573582
7.050000	-13.950304	-167.469071	-2.803780	159.384018	-2.803780	159.384018	-13.782914	-168.537103
7.100000	-8.685683	-159.651515	-3.731627	141.878734	-3.731627	141.878734	-8.631753	-160.555470
7.150000	-5.467077	-167.294383	-5.178658	125.098952	-5.178658	125.098952	-5.442478	-167.991750
7.200000	-3.617754	-177.548319	-7.006125	110.204332	-7.006125	110.204332	-3.603587	-178.124418
7.250000	-2.548758	172.702879	-9.034071	97.503541	-9.034071	97.503541	-2.539370	172.203060
7.300000	-1.913744	164.122308	-11.132990	86.710214	-11.132990	86.710214	-1.906939	163.674719
7.350000	-1.523438	156.674541	-13.230422	77.379448	-13.230422	77.379448	-1.518188	156.265046
7.400000	-1.275078	150.167835	-15.286649	69.096775	-15.286649	69.096775	-1.270837	149.787456
7.450000	-1.109408	144.380958	-17.301425	61.497749	-17.301425	61.497749	-1.105867	144.023832
7.500000	-0.995735	139.163608	-19.260625	54.322943	-19.260625	54.322943	-0.992700	138.825551
7.550000	-0.915555	134.397185	-21.150640	47.352087	-21.150640	47.352087	-0.912897	134.075119
7.600000	-0.856783	129.976782	-22.976838	40.398298	-22.976838	40.398298	-0.854418	129.668469
7.650000	-0.812570	125.832987	-24.728786	33.317171	-24.728786	33.317171	-0.810438	125.536709
7.700000	-0.778537	121.913290	-26.389831	26.000507	-26.389831	26.000507	-0.776594	121.627703
7.750000	-0.752126	118.186265	-27.913558	18.371928	-27.913558	18.371928	-0.750340	117.910248
7.800000	-0.730749	114.603214	-29.313988	10.473438	-29.313988	10.473438	-0.729098	114.335952
7.850000	-0.713443	111.148299	-30.541321	2.388810	-30.541321	2.388810	-0.711907	110.889084
7.900000	-0.699290	107.802095	-31.569794	-5.700578	-31.569794	-5.700578	-0.697858	107.550338
7.950000	-0.687646	104.548920	-32.384969	-13.554740	-32.384969	-13.554740	-0.686306	104.304129
8.000000	-0.678051	101.375954	-32.987586	-20.924773	-32.987586	-20.924773	-0.676794	101.137711
8.050000	-0.670178	98.272583	-33.392437	-27.606182	-33.392437	-27.606182	-0.668999	98.040530
8.100000	-0.663797	95.229903	-33.623075	-33.474054	-33.623075	-33.474054	-0.662692	95.003732
8.150000	-0.658754	92.240342	-33.705340	-38.490907	-33.705340	-38.490907	-0.657720	92.019784
8.200000	-0.654955	89.297360	-33.662461	-42.693071	-33.662461	-42.693071	-0.653992	89.082176
8.250000	-0.652360	86.395210	-33.512707	-46.167891	-33.512707	-46.167891	-0.651467	86.185188
8.300000	-0.650981	83.528737	-33.269078	-49.031713	-33.269078	-49.031713	-0.650159	83.323682
8.350000	-0.650970	80.694598	-32.934268	-51.396509	-32.934268	-51.396509	-0.650223	80.494321
8.400000	-0.652076	77.882628	-32.538309	-53.454695	-32.538309	-53.454695	-0.651406	77.686991
8.450000	-0.655347	75.099109	-32.031590	-55.228452	-32.031590	-55.228452	-0.654765	74.907896
8.500000	-0.660434	72.328994	-31.458826	-56.945889	-31.458826	-56.945889	-0.659948	72.142062
8.550000	-0.667602	69.570060	-30.824719	-58.657145	-30.824719	-58.657145	-0.667224	69.387263
8.600000	-0.678429	66.820111	-30.085851	-60.495848	-30.085851	-60.495848	-0.678181	66.641240
8.650000	-0.693317	64.070035	-29.268835	-62.564291	-29.268835	-62.564291	-0.693223	63.894909
8.700000	-0.715617	61.312200	-28.315777	-65.086196	-28.315777	-65.086196	-0.715726	61.140554
8.750000	-0.747186	58.539506	-27.252152	-68.173370	-27.252152	-68.173370	-0.747558	58.371093
8.800000	-0.797844	55.739888	-25.982456	-72.347827	-25.982456	-72.347827	-0.798604	55.574375
8.850000	-0.875637	52.922459	-24.542402	-77.934012	-24.542402	-77.934012	-0.876966	52.759629
8.900000	-1.009233	50.151225	-22.839862	-86.215364	-22.839862	-86.215364	-1.011500	49.991312
8.950000	-1.237297	47.741532	-20.933995	-99.150801	-20.933995	-99.150801	-1.241133	47.586969
9.000000	-1.548740	46.702248	-19.199513	-119.781953	-19.199513	-119.781953	-1.554690	46.562624
9.050000	-1.594883	47.811269	-18.776655	-148.781735	-18.776655	-148.781735	-1.600896	47.701290
9.100000	-1.195809	47.365465	-20.436779	-176.139561	-20.436779	-176.139561	-1.198815	47.271586
9.150000	-0.869418	44.692547	-23.065495	165.085349	-23.065495	165.085349	-0.870265	44.599299
9.200000	-0.711663	41.548044	-25.716694	153.306067	-25.716694	153.306067	-0.711580	41.453223
9.250000	-0.638530	38.533261	-28.146111	145.368509	-28.146111	145.368509	-0.638065	38.438163
9.300000	-0.599940	35.669394	-30.480652	139.302310	-30.480652	139.302310	-0.599300	35.575130
9.350000	-0.580753	32.943151	-32.681716	134.451790	-32.681716	134.451790	-0.580048	32.850629
9.400000	-0.571697	30.325419	-34.766864	130.251840	-34.766864	130.251840	-0.570979	30.235290
9.450000	-0.566703	27.763733	-36.987445	126.268732	-36.987445	126.268732	-0.565991	27.676313
9.500000	-0.565185	25.268010	-39.239907	122.124403	-39.239907	122.124403	-0.564494	25.183634
9.550000	-0.565094	22.803836	-41.844983	117.548884	-41.844983	117.548884	-0.564429	22.722654
9.600000	-0.566635	20.383413	-44.755075	111.854779	-44.755075	111.854779	-0.566001	20.305619
9.650000	-0.569105	17.995715	-48.248133	101.294478	-48.248133	101.294478	-0.568503	17.921438
9.700000	-0.572094	15.627487	-52.837557	82.351081	-52.837557	82.351081	-0.571526	15.556800
9.750000	-0.575807	13.290325	-56.332232	32.523563	-56.332232	32.523563	-0.575272	13.223337
9.800000	-0.579942	10.973527	-54.850930	-6.654926	-54.850930	-6.654926	-0.579440	10.910304
9.850000	-0.584374	8.671199	-51.316231	-37.462813	-51.316231	-37.462813	-0.583904	8.611788
9.900000	-0.589320	6.395232	-48.473086	-46.002333	-48.473086	-46.002333	-0.588881	6.339715
9.950000	-0.594543	4.133625	-46.429696	-52.202740	-46.429696	-52.202740	-0.594134	4.082046
10.000000	-0.599999	1.884092	-44.843352	-56.436165	-44.843352	-56.436165	-0.599620	1.836491
