! freq	dB(S11)	phase(S11)	dB(S12)	phase(S12)	
!     	dB(S21)	phase(S21)	dB(S22)	phase(S22)	
!S-par simulation data
#  GHz  S  DB  R 50
0.000000	-89.844377	0.000000	-0.000280	0.000000	-0.000280	0.000000	-89.844377	0.000000
0.050000	-30.653400	-93.318292	-0.009327	-3.095632	-0.009327	-3.095632	-30.653421	-93.318523
0.100000	-24.688672	-96.553091	-0.025013	-6.146763	-0.025013	-6.146763	-24.688599	-96.553903
0.150000	-21.226484	-99.643905	-0.046818	-9.184617	-0.046818	-9.184617	-21.226436	-99.644811
0.200000	-18.786882	-102.681755	-0.075539	-12.207319	-0.075539	-12.207319	-18.786899	-102.682409
0.250000	-16.909806	-105.695457	-0.111009	-15.211023	-0.111009	-15.211023	-16.909877	-105.695853
0.300000	-15.391591	-108.688948	-0.152882	-18.192897	-0.152882	-18.192897	-15.391693	-108.689199
0.350000	-14.123718	-111.659644	-0.200795	-21.150681	-0.200795	-21.150681	-14.123834	-111.659852
0.400000	-13.041131	-114.604243	-0.254373	-24.082492	-0.254373	-24.082492	-13.041251	-114.604465
0.450000	-12.101641	-117.519978	-0.313237	-26.986616	-0.313237	-26.986616	-12.101760	-117.520235
0.500000	-11.276606	-120.404249	-0.377063	-29.861028	-0.377063	-29.861028	-11.276725	-120.404539
0.550000	-10.545141	-123.255450	-0.445438	-32.704287	-0.445438	-32.704287	-10.545261	-123.255754
0.600000	-9.891635	-126.072498	-0.517927	-35.515246	-0.517927	-35.515246	-9.891759	-126.072796
0.650000	-9.304424	-128.854130	-0.594134	-38.292492	-0.594134	-38.292492	-9.304555	-128.854400
0.700000	-8.774179	-131.599654	-0.673614	-41.035112	-0.673614	-41.035112	-8.774318	-131.599878
0.750000	-8.293253	-134.308941	-0.755907	-43.742735	-0.755907	-43.742735	-8.293401	-134.309104
0.800000	-7.855672	-136.981536	-0.840582	-46.414681	-0.840582	-46.414681	-7.855829	-136.981628
0.850000	-7.456450	-139.617253	-0.927205	-49.050531	-0.927205	-49.050531	-7.456616	-139.617267
0.900000	-7.091113	-142.216723	-1.015344	-51.650679	-1.015344	-51.650679	-7.091288	-142.216656
0.950000	-6.756197	-144.779978	-1.104602	-54.214941	-1.104602	-54.214941	-6.756381	-144.779830
1.000000	-6.448682	-147.307318	-1.194592	-56.743413	-1.194592	-56.743413	-6.448873	-147.307089
1.050000	-6.166058	-149.798924	-1.284935	-59.236098	-1.284935	-59.236098	-6.166256	-149.798617
1.100000	-5.905313	-152.257232	-1.375341	-61.695310	-1.375341	-61.695310	-5.905517	-152.256849
1.150000	-5.664800	-154.682146	-1.465485	-64.120866	-1.465485	-64.120866	-5.665009	-154.681690
1.200000	-5.442720	-157.074614	-1.555077	-66.513674	-1.555077	-66.513674	-5.442933	-157.074088
1.250000	-5.237478	-159.435661	-1.643851	-68.874756	-1.643851	-68.874756	-5.237695	-159.435069
1.300000	-5.047884	-161.765745	-1.731508	-71.204591	-1.731508	-71.204591	-5.048104	-161.765088
1.350000	-4.872423	-164.066698	-1.817855	-73.505065	-1.817855	-73.505065	-4.872646	-164.065977
1.400000	-4.709968	-166.339705	-1.902677	-75.777425	-1.902677	-75.777425	-4.710194	-166.338923
1.450000	-4.559508	-168.585986	-1.985775	-78.022955	-1.985775	-78.022955	-4.559737	-168.585141
1.500000	-4.420134	-170.806780	-2.066965	-80.242961	-2.066965	-80.242961	-4.420365	-170.805872
1.550000	-4.291027	-173.003341	-2.146079	-82.438760	-2.146079	-82.438760	-4.291261	-173.002368
1.600000	-4.171449	-175.176931	-2.222962	-84.611677	-2.222962	-84.611677	-4.171685	-175.175889
1.650000	-4.060734	-177.328810	-2.297473	-86.763030	-2.297473	-86.763030	-4.060973	-177.327697
1.700000	-3.958279	-179.460240	-2.369483	-88.894132	-2.369483	-88.894132	-3.958520	-179.459052
1.750000	-3.863539	178.427528	-2.438878	-91.006284	-2.438878	-91.006284	-3.863782	178.428796
1.800000	-3.776021	176.333252	-2.505550	-93.100772	-2.505550	-93.100772	-3.776267	176.334606
1.850000	-3.695278	174.255704	-2.569408	-95.178867	-2.569408	-95.178867	-3.695527	174.257151
1.900000	-3.620965	172.193827	-2.630328	-97.241672	-2.630328	-97.241672	-3.621217	172.195373
1.950000	-3.552708	170.146383	-2.688236	-99.290459	-2.688236	-99.290459	-3.552964	170.148035
2.000000	-3.490117	168.112028	-2.743100	-101.326608	-2.743100	-101.326608	-3.490376	168.113794
2.050000	-3.432895	166.089601	-2.794862	-103.351309	-2.794862	-103.351309	-3.433157	166.091490
2.100000	-3.380773	164.077963	-2.843470	-105.365736	-2.843470	-105.365736	-3.381040	164.079984
2.150000	-3.333512	162.075993	-2.888877	-107.371043	-2.888877	-107.371043	-3.333782	162.078154
2.200000	-3.290895	160.082586	-2.931045	-109.368365	-2.931045	-109.368365	-3.291169	160.084897
2.250000	-3.252730	158.096657	-2.969938	-111.358819	-2.969938	-111.358819	-3.253008	158.099128
2.300000	-3.219020	156.117354	-3.005376	-113.343321	-3.005376	-113.343321	-3.219302	156.119995
2.350000	-3.189220	154.143103	-3.037673	-115.323411	-3.037673	-115.323411	-3.189506	154.145924
2.400000	-3.163421	152.173195	-3.066620	-117.299866	-3.066620	-117.299866	-3.163711	152.176206
2.450000	-3.141509	150.206607	-3.092199	-119.273745	-3.092199	-119.273745	-3.141804	150.209819
2.500000	-3.123387	148.242328	-3.114396	-121.246095	-3.114396	-121.246095	-3.123685	148.245753
2.550000	-3.109132	146.279370	-3.133052	-123.217981	-3.133052	-123.217981	-3.109434	146.283017
2.600000	-3.098516	144.316644	-3.148308	-125.190497	-3.148308	-125.190497	-3.098822	144.320526
2.650000	-3.091493	142.353173	-3.160161	-127.164664	-3.160161	-127.164664	-3.091802	142.357300
2.700000	-3.088028	140.387984	-3.168607	-129.141499	-3.168607	-129.141499	-3.088341	140.392368
2.750000	-3.088103	138.420112	-3.173647	-131.122016	-3.173647	-131.122016	-3.088419	138.424764
2.800000	-3.091713	136.448597	-3.175285	-133.107229	-3.175285	-133.107229	-3.092033	136.453529
2.850000	-3.098869	134.472481	-3.173524	-135.098151	-3.173524	-135.098151	-3.099192	134.477704
2.900000	-3.109596	132.490807	-3.168372	-137.095798	-3.168372	-137.095798	-3.109922	132.496333
2.950000	-3.123934	130.502618	-3.159840	-139.101192	-3.159840	-139.101192	-3.124262	130.508459
3.000000	-3.141937	128.506958	-3.147938	-141.115360	-3.147938	-141.115360	-3.142267	128.513126
3.050000	-3.163676	126.502865	-3.132683	-143.139338	-3.132683	-143.139338	-3.164008	126.509372
3.100000	-3.189238	124.489375	-3.114089	-145.174172	-3.114089	-145.174172	-3.189572	124.496233
3.150000	-3.218215	122.467000	-3.092617	-147.219225	-3.092617	-147.219225	-3.218551	122.474221
3.200000	-3.251784	120.431798	-3.067373	-149.278970	-3.067373	-149.278970	-3.252121	120.439395
3.250000	-3.289546	118.384246	-3.038859	-151.352816	-3.038859	-151.352816	-3.289884	118.392232
3.300000	-3.331661	116.323348	-3.007104	-153.441873	-3.007104	-153.441873	-3.332000	116.331738
3.350000	-3.378317	114.248103	-2.972139	-155.547272	-2.972139	-155.547272	-3.378656	114.256908
3.400000	-3.429719	112.157493	-2.934001	-157.670164	-2.934001	-157.670164	-3.430059	112.166729
3.450000	-3.486104	110.050493	-2.892729	-159.811728	-2.892729	-159.811728	-3.486444	110.060174
3.500000	-3.547733	107.926066	-2.848368	-161.973168	-2.848368	-161.973168	-3.548072	107.936206
3.550000	-3.614900	105.783162	-2.800968	-164.155718	-2.800968	-164.155718	-3.615239	105.793776
3.600000	-3.687932	103.620719	-2.750584	-166.360641	-2.750584	-166.360641	-3.688270	103.631824
3.650000	-3.767195	101.437669	-2.697279	-168.589235	-2.697279	-168.589235	-3.767531	101.449281
3.700000	-3.853095	99.232931	-2.641119	-170.842831	-2.641119	-170.842831	-3.853429	99.245068
3.750000	-3.946085	97.005420	-2.582182	-173.122794	-2.582182	-173.122794	-3.946417	97.018100
3.800000	-4.046820	94.753505	-2.520486	-175.431167	-2.520486	-175.431167	-4.047151	94.766746
3.850000	-4.155733	92.476593	-2.456193	-177.768819	-2.456193	-177.768819	-4.156061	92.490417
3.900000	-4.273455	90.173607	-2.389409	179.862766	-2.389409	179.862766	-4.273780	90.188035
3.950000	-4.400693	87.843486	-2.320251	177.462067	-2.320251	177.462067	-4.401013	87.858540
4.000000	-4.538235	85.485196	-2.248849	175.027525	-2.248849	175.027525	-4.538552	85.500900
4.050000	-4.686970	83.097743	-2.175345	172.557545	-2.175345	172.557545	-4.687282	83.114122
4.100000	-4.847896	80.680191	-2.099899	170.050494	-2.099899	170.050494	-4.848201	80.697273
4.150000	-5.022135	78.231684	-2.022687	167.504711	-2.022687	167.504711	-5.022435	78.249496
4.200000	-5.210962	75.751470	-1.943904	164.918505	-1.943904	164.918505	-5.211253	75.770045
4.250000	-5.415817	73.238945	-1.863767	162.290161	-1.863767	162.290161	-5.416100	73.258315
4.300000	-5.638347	70.693690	-1.782511	159.617952	-1.782511	159.617952	-5.638618	70.713890
4.350000	-5.880430	68.115532	-1.700400	156.900140	-1.700400	156.900140	-5.880689	68.136602
4.400000	-6.144397	65.504275	-1.617711	154.134461	-1.617711	154.134461	-6.144642	65.526256
4.450000	-6.432789	62.860533	-1.534770	151.319143	-1.534770	151.319143	-6.433016	62.883470
4.500000	-6.748364	60.185841	-1.451941	148.453021	-1.451941	148.453021	-6.748571	60.209784
4.550000	-7.094540	57.482132	-1.369607	145.534471	-1.369607	145.534471	-7.094722	57.507135
4.600000	-7.475353	54.752344	-1.288180	142.561943	-1.288180	142.561943	-7.475505	54.778467
4.650000	-7.895618	52.000771	-1.208111	139.533990	-1.208111	139.533990	-7.895735	52.028080
4.700000	-8.361146	49.233560	-1.129887	136.449292	-1.129887	136.449292	-8.361219	49.262130
4.750000	-8.879032	46.459445	-1.054030	133.306693	-1.054030	133.306693	-8.879052	46.489362
4.800000	-9.458079	43.690849	-0.981101	130.105233	-0.981101	130.105233	-9.458032	43.722211
4.850000	-10.109396	40.945599	-0.911696	126.844189	-0.911696	126.844189	-10.109267	40.978522
4.900000	-10.847301	38.249709	-0.846448	123.523116	-0.846448	123.523116	-10.847066	38.284332
4.950000	-11.690704	35.642091	-0.786021	120.141887	-0.786021	120.141887	-11.690332	35.678583
5.000000	-12.665328	33.182959	-0.731108	116.700742	-0.731108	116.700742	-12.664774	33.221533
5.050000	-13.808318	30.978966	-0.682573	113.199063	-0.682573	113.199063	-13.807512	31.019905
5.100000	-15.172138	29.203054	-0.641043	109.639284	-0.641043	109.639284	-15.170970	29.246722
5.150000	-16.839048	28.190748	-0.607261	106.023022	-0.607261	106.023022	-16.837324	28.237611
5.200000	-18.943004	28.663322	-0.581971	102.352415	-0.581971	102.352415	-18.940344	28.713850
5.250000	-21.706533	32.455241	-0.565908	98.630140	-0.565908	98.630140	-21.702094	32.508958
5.300000	-25.384051	45.282602	-0.559784	94.859424	-0.559784	94.859424	-25.375903	45.330184
5.350000	-28.869704	80.830165	-0.563937	91.045247	-0.563937	91.045247	-28.858365	80.824531
5.400000	-26.605962	125.432934	-0.579720	87.189161	-0.579720	87.189161	-26.604383	125.402960
5.450000	-22.489180	143.111462	-0.607325	83.297560	-0.607325	83.297560	-22.491046	143.108021
5.500000	-19.301559	148.420005	-0.647250	79.375696	-0.647250	79.375696	-19.303859	148.432655
5.550000	-16.873826	149.335459	-0.699909	75.429205	-0.699909	75.429205	-16.876062	149.357461
5.600000	-14.946459	148.334476	-0.765622	71.464020	-0.765622	71.464020	-14.948555	148.362699
5.650000	-13.362017	146.341182	-0.844717	67.486228	-0.844717	67.486228	-13.363976	146.374021
5.700000	-12.025882	143.779425	-0.937308	63.502241	-0.937308	63.502241	-12.027722	143.815986
5.750000	-10.877638	140.871020	-1.043136	59.518348	-1.043136	59.518348	-10.879378	140.910769
5.800000	-9.877258	137.730852	-1.162380	55.540692	-1.162380	55.540692	-9.878914	137.773441
5.850000	-8.996475	134.438243	-1.294750	51.575235	-1.294750	51.575235	-8.998060	134.483442
5.900000	-8.214763	131.043766	-1.439967	47.627638	-1.439967	47.627638	-8.216287	131.091420
5.950000	-7.516717	127.582606	-1.597695	43.703272	-1.597695	43.703272	-7.518191	127.632609
6.000000	-6.890470	124.080457	-1.767536	39.807212	-1.767536	39.807212	-6.891901	124.132738
6.050000	-6.326316	120.556914	-1.948918	35.943634	-1.948918	35.943634	-6.327712	120.611424
6.100000	-5.816509	117.026613	-2.141303	32.116388	-2.141303	32.116388	-5.817875	117.083325
6.150000	-5.354859	113.501133	-2.344174	28.329262	-2.344174	28.329262	-5.356201	113.560033
6.200000	-4.935424	109.989077	-2.556806	24.583895	-2.556806	24.583895	-4.936746	110.050162
6.250000	-4.553952	106.497656	-2.778694	20.883223	-2.778694	20.883223	-4.555259	106.560931
6.300000	-4.206875	103.033129	-3.009277	17.230075	-3.009277	17.230075	-4.208170	103.098607
6.350000	-3.890319	99.599322	-3.247886	13.624770	-3.247886	13.624770	-3.891606	99.667021
6.400000	-3.601260	96.199512	-3.493954	10.068175	-3.493954	10.068175	-3.602542	96.269455
6.450000	-3.337031	92.836146	-3.746939	6.560769	-3.746939	6.560769	-3.338309	92.908360
6.500000	-3.095263	89.510984	-4.006330	3.102693	-4.006330	3.102693	-3.096539	89.585498
6.550000	-2.873849	86.225210	-4.271647	-0.306211	-4.271647	-0.306211	-2.875126	86.302056
6.600000	-2.670905	82.979532	-4.542448	-3.666356	-4.542448	-3.666356	-2.672182	83.058744
6.650000	-2.484741	79.774265	-4.818328	-6.978371	-4.818328	-6.978371	-2.486021	79.855877
6.700000	-2.313596	76.608478	-5.099032	-10.244126	-5.099032	-10.244126	-2.314878	76.692526
6.750000	-2.156724	73.484183	-5.383960	-13.461930	-5.383960	-13.461930	-2.158008	73.570705
6.800000	-2.012506	70.399524	-5.672968	-16.634450	-5.672968	-16.634450	-2.013791	70.488556
6.850000	-1.879834	67.353845	-5.965803	-19.762833	-5.965803	-19.762833	-1.881120	67.445424
6.900000	-1.757708	64.346366	-6.262248	-22.848289	-6.262248	-22.848289	-1.758995	64.440529
6.950000	-1.645367	61.376906	-6.561982	-25.891288	-6.561982	-25.891288	-1.646652	61.473691
7.000000	-1.541903	58.444138	-6.864910	-28.893524	-6.864910	-28.893524	-1.543185	58.543580
7.050000	-1.446023	55.544189	-7.171549	-31.859444	-7.171549	-31.859444	-1.447302	55.646322
7.100000	-1.358209	52.682074	-7.480463	-34.783643	-7.480463	-34.783643	-1.359481	52.786937
7.150000	-1.276644	49.850201	-7.793129	-37.674580	-7.793129	-37.674580	-1.277908	49.957826
7.200000	-1.201783	47.053236	-8.108089	-40.527197	-8.108089	-40.527197	-1.203037	47.163661
7.250000	-1.132395	44.285838	-8.426470	-43.347399	-8.426470	-43.347399	-1.133636	44.399095
7.300000	-1.068414	41.549377	-8.747633	-46.133702	-8.747633	-46.133702	-1.069642	41.665500
7.350000	-1.009338	38.842283	-9.071780	-48.887824	-9.071780	-48.887824	-1.010549	38.961307
7.400000	-0.954628	36.162485	-9.399338	-51.612011	-9.399338	-51.612011	-0.955820	36.284443
7.450000	-0.904326	33.511722	-9.729495	-54.304302	-9.729495	-54.304302	-0.905496	33.636650
7.500000	-0.857551	30.884954	-10.063816	-56.970171	-10.063816	-56.970171	-0.858698	31.012885
7.550000	-0.814747	28.286798	-10.400413	-59.604421	-10.400413	-59.604421	-0.815870	28.417771
7.600000	-0.774964	25.711047	-10.741470	-62.213798	-10.741470	-62.213798	-0.776060	25.845096
7.650000	-0.738435	23.160667	-11.085677	-64.794845	-11.085677	-64.794845	-0.739502	23.297832
7.700000	-0.704671	20.632606	-11.434163	-67.350793	-11.434163	-67.350793	-0.705709	20.772925
7.750000	-0.673579	18.127004	-11.786783	-69.881260	-11.786783	-69.881260	-0.674587	18.270517
7.800000	-0.645026	15.643570	-12.143571	-72.386312	-12.143571	-72.386312	-0.646002	15.790322
7.850000	-0.618670	13.179980	-12.505594	-74.868329	-12.505594	-74.868329	-0.619613	13.330014
7.900000	-0.594649	10.738355	-12.871750	-77.324467	-12.871750	-77.324467	-0.595560	10.891722
7.950000	-0.572473	8.314588	-13.244164	-79.759198	-13.244164	-79.759198	-0.573351	8.471335
8.000000	-0.552381	5.911800	-13.621168	-82.168264	-13.621168	-82.168264	-0.553227	6.071986
8.050000	-0.533942	3.526128	-14.004971	-84.555898	-14.004971	-84.555898	-0.534756	3.689806
8.100000	-0.517246	1.159116	-14.394765	-86.919535	-14.394765	-86.919535	-0.518029	1.326350
8.150000	-0.502102	-1.190809	-14.791613	-89.260534	-14.791613	-89.260534	-0.502855	-1.019956
8.200000	-0.488420	-3.524184	-15.196030	-91.578836	-15.196030	-91.578836	-0.489144	-3.349643
8.250000	-0.476198	-5.840578	-15.607887	-93.872944	-15.607887	-93.872944	-0.476895	-5.662273
8.300000	-0.465205	-8.142354	-16.029106	-96.145314	-16.029106	-96.145314	-0.465876	-7.960213
8.350000	-0.455591	-10.427333	-16.458310	-98.391465	-16.458310	-98.391465	-0.456238	-10.241266
8.400000	-0.447056	-12.698924	-16.898474	-100.615563	-16.898474	-100.615563	-0.447680	-12.508852
8.450000	-0.439741	-14.955100	-17.348293	-102.812731	-17.348293	-102.812731	-0.440344	-14.760923
8.500000	-0.433442	-17.198258	-17.810262	-104.985641	-17.810262	-104.985641	-0.434027	-16.999886
8.550000	-0.428192	-19.427845	-18.284376	-107.131406	-18.284376	-107.131406	-0.428758	-19.225175
8.600000	-0.423925	-21.644615	-18.771903	-109.249511	-18.771903	-109.249511	-0.424473	-21.437540
8.650000	-0.420563	-23.849552	-19.274555	-111.339846	-19.274555	-111.339846	-0.421094	-23.637967
8.700000	-0.418157	-26.042018	-19.792272	-113.398157	-19.792272	-113.398157	-0.418670	-25.825802
8.750000	-0.416539	-28.224300	-20.328752	-115.427674	-20.328752	-115.427674	-0.417031	-28.003347
8.800000	-0.415857	-30.394635	-20.882461	-117.419563	-20.882461	-117.419563	-0.416326	-30.168808
8.850000	-0.415910	-32.555806	-21.458526	-119.379049	-21.458526	-119.379049	-0.416353	-32.324992
8.900000	-0.416799	-34.706868	-22.056605	-121.298153	-22.056605	-121.298153	-0.417210	-34.470931
8.950000	-0.418431	-36.849321	-22.680738	-123.178041	-22.680738	-123.178041	-0.418801	-36.608134
9.000000	-0.420818	-38.983466	-23.333101	-125.014198	-23.333101	-125.014198	-0.421139	-38.736894
9.050000	-0.423965	-41.109821	-24.016532	-126.802537	-24.016532	-126.802537	-0.424224	-40.857726
9.100000	-0.427806	-43.229649	-24.736523	-128.543346	-24.736523	-128.543346	-0.427990	-42.971899
9.150000	-0.432437	-45.342836	-25.494532	-130.225768	-25.494532	-130.225768	-0.432528	-45.079277
9.200000	-0.437733	-47.451182	-26.300157	-131.855628	-26.300157	-131.855628	-0.437712	-47.181683
9.250000	-0.443840	-49.554625	-27.154756	-133.417393	-27.154756	-133.417393	-0.443683	-49.279020
9.300000	-0.450642	-51.654813	-28.071133	-134.918467	-28.071133	-134.918467	-0.450324	-51.372959
9.350000	-0.458243	-53.752398	-29.055304	-136.348576	-29.055304	-136.348576	-0.457733	-53.464125
9.400000	-0.466622	-55.848598	-30.121252	-137.711049	-30.121252	-137.711049	-0.465889	-55.553734
9.450000	-0.475810	-57.944613	-31.284345	-139.009223	-31.284345	-139.009223	-0.474820	-57.642969
9.500000	-0.485895	-60.041795	-32.560602	-140.250552	-32.560602	-140.250552	-0.484611	-59.733149
9.550000	-0.496823	-62.141359	-33.982759	-141.463817	-33.982759	-141.463817	-0.495210	-61.825486
9.600000	-0.508818	-64.245549	-35.569091	-142.702029	-35.569091	-142.702029	-0.506837	-63.922131
9.650000	-0.521763	-66.355196	-37.382001	-144.054128	-37.382001	-144.054128	-0.519383	-66.023917
9.700000	-0.535930	-68.473525	-39.452508	-145.774547	-39.452508	-145.774547	-0.533123	-68.133918
9.750000	-0.551272	-70.601579	-41.873032	-148.217000	-41.873032	-148.217000	-0.548020	-70.253131
9.800000	-0.568012	-72.742769	-44.679999	-152.351123	-44.679999	-152.351123	-0.564314	-72.384767
9.850000	-0.586277	-74.899698	-47.827852	-159.752673	-47.827852	-159.752673	-0.582154	-74.531239
9.900000	-0.606186	-77.074945	-50.913874	-171.841686	-50.913874	-171.841686	-0.601689	-76.694892
9.950000	-0.628133	-79.274310	-52.695471	174.970217	-52.695471	174.970217	-0.623366	-78.881012
10.000000	-0.652064	-81.498137	-52.956378	171.445375	-52.956378	171.445375	-0.647171	-81.089734
