! freq	dB(S11)	phase(S11)	dB(S12)	phase(S12)	
!     	dB(S21)	phase(S21)	dB(S22)	phase(S22)	
!S-par simulation data
#  GHz  S  DB  R 50
0.000000	-0.000000	0.000000	-358.624972	180.000000	-358.624972	180.000000	-0.000000	-0.000000
0.050000	-0.000159	-0.765285	-98.135311	173.985329	-98.135311	173.985329	-0.000139	-1.378331
0.100000	-0.000616	-1.529970	-97.184373	153.829899	-97.184373	153.829899	-0.000551	-2.756348
0.150000	-0.001320	-2.293590	-96.083296	140.132926	-96.083296	140.132926	-0.001228	-4.133747
0.200000	-0.002204	-3.055895	-94.954416	129.933587	-94.954416	129.933587	-0.002149	-5.510261
0.250000	-0.003209	-3.816715	-93.889566	122.239794	-93.889566	122.239794	-0.003311	-6.885561
0.300000	-0.004272	-4.576243	-92.934924	116.119811	-92.934924	116.119811	-0.004668	-8.259532
0.350000	-0.005362	-5.334542	-92.097988	111.214759	-92.097988	111.214759	-0.006204	-9.631942
0.400000	-0.006454	-6.091758	-91.377893	107.214206	-91.377893	107.214206	-0.007895	-11.002634
0.450000	-0.007535	-6.848028	-90.769397	103.915240	-90.769397	103.915240	-0.009714	-12.371484
0.500000	-0.008601	-7.603465	-90.266445	101.187308	-90.266445	101.187308	-0.011636	-13.738397
0.550000	-0.009650	-8.358155	-89.863620	98.950109	-89.863620	98.950109	-0.013636	-15.103304
0.600000	-0.010683	-9.112157	-89.556651	97.160326	-89.556651	97.160326	-0.015694	-16.466159
0.650000	-0.011704	-9.865509	-89.342499	95.804298	-89.342499	95.804298	-0.017791	-17.826932
0.700000	-0.012715	-10.618232	-89.219209	94.894918	-89.219209	94.894918	-0.019910	-19.185607
0.750000	-0.013718	-11.370334	-89.185570	94.471841	-89.185570	94.471841	-0.022038	-20.542175
0.800000	-0.014716	-12.121817	-89.240498	94.604612	-89.240498	94.604612	-0.024162	-21.896636
0.850000	-0.015711	-12.872673	-89.381919	95.398477	-89.381919	95.398477	-0.026273	-23.248992
0.900000	-0.016704	-13.622892	-89.604732	97.002195	-89.604732	97.002195	-0.028365	-24.599245
0.950000	-0.017696	-14.372460	-89.897143	99.615225	-89.897143	99.615225	-0.030433	-25.947398
1.000000	-0.018687	-15.121365	-90.234418	103.486497	-90.234418	103.486497	-0.032471	-27.293451
1.050000	-0.019678	-15.869589	-90.569481	108.886331	-90.569481	108.886331	-0.034479	-28.637401
1.100000	-0.020669	-16.617117	-90.822625	116.018943	-90.822625	116.018943	-0.036455	-29.979245
1.150000	-0.021659	-17.363934	-90.880424	124.846749	-90.880424	124.846749	-0.038398	-31.318972
1.200000	-0.022648	-18.110025	-90.622812	134.875695	-90.622812	134.875695	-0.040309	-32.656573
1.250000	-0.023637	-18.855373	-89.983154	145.125554	-89.983154	145.125554	-0.042189	-33.992031
1.300000	-0.024625	-19.599930	-88.977896	154.434832	-88.977896	154.434832	-0.044037	-35.325234
1.350000	-0.025612	-20.343713	-87.739302	162.161610	-87.739302	162.161610	-0.045858	-36.656257
1.400000	-0.026598	-21.086708	-86.386792	168.184527	-86.386792	168.184527	-0.047652	-37.985076
1.450000	-0.027581	-21.828901	-85.007323	172.680813	-85.007323	172.680813	-0.049422	-39.311668
1.500000	-0.028563	-22.570278	-83.652209	175.925364	-83.652209	175.925364	-0.051169	-40.636008
1.550000	-0.029544	-23.310823	-82.347231	178.185015	-82.347231	178.185015	-0.052897	-41.958071
1.600000	-0.030522	-24.050525	-81.102929	179.681732	-81.102929	179.681732	-0.054607	-43.277831
1.650000	-0.031499	-24.789368	-79.921642	-179.411458	-79.921642	-179.411458	-0.056301	-44.595262
1.700000	-0.032473	-25.527340	-78.801623	-178.963211	-78.801623	-178.963211	-0.057981	-45.910337
1.750000	-0.033447	-26.264426	-77.739294	-178.874572	-77.739294	-178.874572	-0.059649	-47.223032
1.800000	-0.034418	-27.000613	-76.730416	-179.070826	-76.730416	-179.070826	-0.061306	-48.533321
1.850000	-0.035388	-27.735887	-75.770679	-179.495162	-75.770679	-179.495162	-0.062956	-49.841181
1.900000	-0.036357	-28.470235	-74.855977	179.896027	-74.855977	179.896027	-0.064599	-51.146589
1.950000	-0.037326	-29.203644	-73.982525	179.136562	-73.982525	179.136562	-0.066237	-52.449525
2.000000	-0.038293	-29.936099	-73.146891	178.252956	-73.146891	178.252956	-0.067872	-53.749967
2.050000	-0.039260	-30.667587	-72.345994	177.266203	-72.345994	177.266203	-0.069505	-55.047899
2.100000	-0.040227	-31.398095	-71.577079	176.193097	-71.577079	176.193097	-0.071137	-56.343304
2.150000	-0.041195	-32.127610	-70.837683	175.047196	-70.837683	175.047196	-0.072769	-57.636167
2.200000	-0.042163	-32.856118	-70.125604	173.839538	-70.125604	173.839538	-0.074404	-58.926475
2.250000	-0.043132	-33.583606	-69.438874	172.579188	-69.438874	172.579188	-0.076042	-60.214219
2.300000	-0.044103	-34.310060	-68.775724	171.273642	-68.775724	171.273642	-0.077684	-61.499389
2.350000	-0.045075	-35.035468	-68.134567	169.929145	-68.134567	169.929145	-0.079332	-62.781981
2.400000	-0.046050	-35.759816	-67.513970	168.550931	-67.513970	168.550931	-0.080985	-64.061988
2.450000	-0.047027	-36.483093	-66.912638	167.143414	-66.912638	167.143414	-0.082646	-65.339411
2.500000	-0.048007	-37.205284	-66.329397	165.710337	-66.329397	165.710337	-0.084315	-66.614249
2.550000	-0.048991	-37.926330	-65.762318	164.254044	-65.762318	164.254044	-0.085993	-67.886392
2.600000	-0.049978	-38.646265	-65.211385	162.778322	-65.211385	162.778322	-0.087681	-69.155960
2.650000	-0.050970	-39.365076	-64.675698	161.285473	-64.675698	161.285473	-0.089379	-70.422959
2.700000	-0.051966	-40.082753	-64.154433	159.777492	-64.154433	159.777492	-0.091089	-71.687400
2.750000	-0.052968	-40.799283	-63.646835	158.256108	-63.646835	158.256108	-0.092811	-72.949295
2.800000	-0.053975	-41.514654	-63.152207	156.722828	-63.152207	156.722828	-0.094546	-74.208659
2.850000	-0.054988	-42.228856	-62.669911	155.178968	-62.669911	155.178968	-0.096294	-75.465509
2.900000	-0.056007	-42.941877	-62.199353	153.625682	-62.199353	153.625682	-0.098057	-76.719864
2.950000	-0.057032	-43.653706	-61.739986	152.063982	-61.739986	152.063982	-0.099834	-77.971747
3.000000	-0.058065	-44.364333	-61.291301	150.494762	-61.291301	150.494762	-0.101627	-79.221180
3.050000	-0.059105	-45.073748	-60.852828	148.918810	-60.852828	148.918810	-0.103436	-80.468192
3.100000	-0.060153	-45.781940	-60.424126	147.336822	-60.424126	147.336822	-0.105261	-81.712809
3.150000	-0.061209	-46.488900	-60.004786	145.749419	-60.004786	145.749419	-0.107104	-82.955063
3.200000	-0.062273	-47.194618	-59.594427	144.157149	-59.594427	144.157149	-0.108965	-84.194987
3.250000	-0.063347	-47.899085	-59.192690	142.560505	-59.192690	142.560505	-0.110845	-85.432616
3.300000	-0.064430	-48.602292	-58.799242	140.959923	-58.799242	140.959923	-0.112744	-86.667987
3.350000	-0.065522	-49.304230	-58.413768	139.355795	-58.413768	139.355795	-0.114663	-87.901141
3.400000	-0.066625	-50.004892	-58.035974	137.748473	-58.035974	137.748473	-0.116602	-89.132118
3.450000	-0.067737	-50.704269	-57.665584	136.138273	-57.665584	136.138273	-0.118562	-90.360963
3.500000	-0.068861	-51.402354	-57.302338	134.525479	-57.302338	134.525479	-0.120544	-91.587721
3.550000	-0.069996	-52.099139	-56.945989	132.910349	-56.945989	132.910349	-0.122549	-92.812440
3.600000	-0.071142	-52.794617	-56.596307	131.293116	-56.596307	131.293116	-0.124576	-94.035171
3.650000	-0.072300	-53.488782	-56.253073	129.673991	-56.253073	129.673991	-0.126626	-95.255964
3.700000	-0.073471	-54.181627	-55.916081	128.053166	-55.916081	128.053166	-0.128701	-96.474875
3.750000	-0.074654	-54.873145	-55.585135	126.430818	-55.585135	126.430818	-0.130801	-97.691959
3.800000	-0.075850	-55.563274	-55.259779	124.807055	-55.259779	124.807055	-0.132927	-98.907199
3.850000	-0.077060	-56.252065	-54.940130	123.182090	-54.940130	123.182090	-0.135079	-100.120736
3.900000	-0.078284	-56.939514	-54.626022	121.556058	-54.626022	121.556058	-0.137257	-101.332630
3.950000	-0.079521	-57.625615	-54.317295	119.929084	-54.317295	119.929084	-0.139463	-102.542946
4.000000	-0.080773	-58.310364	-54.013797	118.301284	-54.013797	118.301284	-0.141697	-103.751748
4.050000	-0.082040	-58.993757	-53.715386	116.672768	-53.715386	116.672768	-0.143960	-104.959105
4.100000	-0.083322	-59.675791	-53.421923	115.043636	-53.421923	115.043636	-0.146251	-106.165085
4.150000	-0.084619	-60.356461	-53.133279	113.413985	-53.133279	113.413985	-0.148573	-107.369760
4.200000	-0.085932	-61.035765	-52.849328	111.783905	-52.849328	111.783905	-0.150925	-108.573200
4.250000	-0.087262	-61.713699	-52.569952	110.153481	-52.569952	110.153481	-0.153307	-109.775482
4.300000	-0.088607	-62.390262	-52.295038	108.522795	-52.295038	108.522795	-0.155722	-110.976680
4.350000	-0.089970	-63.065451	-52.024476	106.891924	-52.024476	106.891924	-0.158169	-112.176872
4.400000	-0.091350	-63.739264	-51.758163	105.260944	-51.758163	105.260944	-0.160648	-113.376138
4.450000	-0.092748	-64.411700	-51.495999	103.629924	-51.495999	103.629924	-0.163162	-114.574557
4.500000	-0.094164	-65.082758	-51.237889	101.998934	-51.237889	101.998934	-0.165709	-115.772213
4.550000	-0.095598	-65.752435	-50.983741	100.368040	-50.983741	100.368040	-0.168291	-116.969190
4.600000	-0.097051	-66.420733	-50.733467	98.737306	-50.733467	98.737306	-0.170908	-118.165572
4.650000	-0.098523	-67.087649	-50.486982	97.106795	-50.486982	97.106795	-0.173561	-119.361447
4.700000	-0.100015	-67.753185	-50.244205	95.476567	-50.244205	95.476567	-0.176251	-120.556904
4.750000	-0.101526	-68.417341	-50.005057	93.846680	-50.005057	93.846680	-0.178978	-121.752033
4.800000	-0.103058	-69.080116	-49.769464	92.217192	-49.769464	92.217192	-0.181742	-122.946925
4.850000	-0.104610	-69.741513	-49.537352	90.588159	-49.537352	90.588159	-0.184545	-124.141673
4.900000	-0.106183	-70.401531	-49.308651	88.959635	-49.308651	88.959635	-0.187386	-125.336372
4.950000	-0.107778	-71.060173	-49.083293	87.331673	-49.083293	87.331673	-0.190267	-126.531119
5.000000	-0.109395	-71.717440	-48.861212	85.704324	-48.861212	85.704324	-0.193187	-127.726009
5.050000	-0.111034	-72.373273	-48.642246	84.077671	-48.642246	84.077671	-0.196150	-128.921159
5.100000	-0.112696	-73.027737	-48.426442	82.451735	-48.426442	82.451735	-0.199153	-130.116661
5.150000	-0.114381	-73.680832	-48.213738	80.826563	-48.213738	80.826563	-0.202197	-131.312618
5.200000	-0.116090	-74.332562	-48.004078	79.202204	-48.004078	79.202204	-0.205283	-132.509133
5.250000	-0.117822	-74.982929	-47.797405	77.578700	-47.797405	77.578700	-0.208411	-133.706311
5.300000	-0.119578	-75.631937	-47.593664	75.956096	-47.593664	75.956096	-0.211582	-134.904258
5.350000	-0.121359	-76.279590	-47.392802	74.334434	-47.392802	74.334434	-0.214796	-136.103081
5.400000	-0.123165	-76.925891	-47.194769	72.713756	-47.194769	72.713756	-0.218053	-137.302889
5.450000	-0.124996	-77.570845	-46.999513	71.094100	-46.999513	71.094100	-0.221354	-138.503792
5.500000	-0.126852	-78.214455	-46.806987	69.475505	-46.806987	69.475505	-0.224699	-139.705902
5.550000	-0.128735	-78.856727	-46.617144	67.858008	-46.617144	67.858008	-0.228088	-140.909331
5.600000	-0.130644	-79.497665	-46.429937	66.241644	-46.429937	66.241644	-0.231521	-142.114194
5.650000	-0.132581	-80.137273	-46.245323	64.626446	-46.245323	64.626446	-0.235000	-143.320606
5.700000	-0.134544	-80.775558	-46.063257	63.012448	-46.063257	63.012448	-0.238523	-144.528683
5.750000	-0.136535	-81.412525	-45.883699	61.399680	-45.883699	61.399680	-0.242092	-145.738544
5.800000	-0.138554	-82.048180	-45.706606	59.788172	-45.706606	59.788172	-0.245706	-146.950308
5.850000	-0.140602	-82.682528	-45.531940	58.177952	-45.531940	58.177952	-0.249366	-148.164095
5.900000	-0.142679	-83.315575	-45.359661	56.569046	-45.359661	56.569046	-0.253071	-149.380026
5.950000	-0.144784	-83.947329	-45.189732	54.961480	-45.189732	54.961480	-0.256822	-150.598227
6.000000	-0.146920	-84.577796	-45.022116	53.355278	-45.022116	53.355278	-0.260618	-151.818819
6.050000	-0.149086	-85.206982	-44.856778	51.750463	-44.856778	51.750463	-0.264461	-153.041929
6.100000	-0.151282	-85.834894	-44.693684	50.147056	-44.693684	50.147056	-0.268349	-154.267683
6.150000	-0.153509	-86.461541	-44.532800	48.545077	-44.532800	48.545077	-0.272282	-155.496210
6.200000	-0.155767	-87.086928	-44.374093	46.944546	-44.374093	46.944546	-0.276261	-156.727638
6.250000	-0.158057	-87.711065	-44.217533	45.345480	-44.217533	45.345480	-0.280286	-157.962097
6.300000	-0.160380	-88.333905	-44.063062	43.747964	-44.063062	43.747964	-0.284357	-159.199862
6.350000	-0.162736	-88.955510	-43.910680	42.151948	-43.910680	42.151948	-0.288474	-160.440934
6.400000	-0.165125	-89.575889	-43.760360	40.557448	-43.760360	40.557448	-0.292634	-161.685447
6.450000	-0.167547	-90.195050	-43.612074	38.964481	-43.612074	38.964481	-0.296840	-162.933535
6.500000	-0.170003	-90.813003	-43.465795	37.373059	-43.465795	37.373059	-0.301089	-164.185333
6.550000	-0.172493	-91.429755	-43.321496	35.783199	-43.321496	35.783199	-0.305381	-165.440979
6.600000	-0.175018	-92.045316	-43.179154	34.194914	-43.179154	34.194914	-0.309717	-166.700611
6.650000	-0.177577	-92.659695	-43.038744	32.608218	-43.038744	32.608218	-0.314095	-167.964365
6.700000	-0.180172	-93.272901	-42.900243	31.023125	-42.900243	31.023125	-0.318516	-169.232383
6.750000	-0.182802	-93.884944	-42.763629	29.439652	-42.763629	29.439652	-0.322978	-170.504804
6.800000	-0.185468	-94.495834	-42.628880	27.857812	-42.628880	27.857812	-0.327480	-171.781769
6.850000	-0.188171	-95.105581	-42.495976	26.277622	-42.495976	26.277622	-0.332023	-173.063421
6.900000	-0.190910	-95.714195	-42.364898	24.699099	-42.364898	24.699099	-0.336606	-174.349901
6.950000	-0.193687	-96.321685	-42.235627	23.122261	-42.235627	23.122261	-0.341227	-175.641352
7.000000	-0.196501	-96.928063	-42.108145	21.547127	-42.108145	21.547127	-0.345886	-176.937920
7.050000	-0.199354	-97.533339	-41.982435	19.973719	-41.982435	19.973719	-0.350583	-178.239747
7.100000	-0.202244	-98.137524	-41.858481	18.402058	-41.858481	18.402058	-0.355315	-179.546979
7.150000	-0.205173	-98.740629	-41.736268	16.832170	-41.736268	16.832170	-0.360083	179.140238
7.200000	-0.208142	-99.342665	-41.615781	15.264082	-41.615781	15.264082	-0.364886	177.821761
7.250000	-0.211149	-99.943643	-41.497006	13.697822	-41.497006	13.697822	-0.369722	176.497442
7.300000	-0.214196	-100.543574	-41.379931	12.133422	-41.379931	12.133422	-0.374590	175.167136
7.350000	-0.217284	-101.142471	-41.264542	10.570917	-41.264542	10.570917	-0.379490	173.830697
7.400000	-0.220412	-101.740345	-41.150830	9.010344	-41.150830	9.010344	-0.384420	172.487978
7.450000	-0.223580	-102.337208	-41.038781	7.451745	-41.038781	7.451745	-0.389379	171.138834
7.500000	-0.226790	-102.933072	-40.928388	5.895163	-40.928388	5.895163	-0.394365	169.783119
7.550000	-0.230043	-103.527907	-40.819652	4.340738	-40.819652	4.340738	-0.399380	168.420389
7.600000	-0.233338	-104.121768	-40.712555	2.788436	-40.712555	2.788436	-0.404420	167.050785
7.650000	-0.236675	-104.714669	-40.607089	1.238312	-40.607089	1.238312	-0.409484	165.674161
7.700000	-0.240055	-105.306622	-40.503246	-0.309573	-40.503246	-0.309573	-0.414571	164.290376
7.750000	-0.243477	-105.897640	-40.401018	-1.855153	-40.401018	-1.855153	-0.419680	162.899285
7.800000	-0.246943	-106.487737	-40.300399	-3.398358	-40.300399	-3.398358	-0.424809	161.500747
7.850000	-0.250452	-107.076924	-40.201382	-4.939115	-40.201382	-4.939115	-0.429957	160.094622
7.900000	-0.254004	-107.665217	-40.103962	-6.477344	-40.103962	-6.477344	-0.435123	158.680770
7.950000	-0.257601	-108.252627	-40.008133	-8.012960	-40.008133	-8.012960	-0.440305	157.259053
8.000000	-0.261242	-108.839170	-39.913890	-9.545873	-39.913890	-9.545873	-0.445502	155.829336
8.050000	-0.264928	-109.424858	-39.821228	-11.075989	-39.821228	-11.075989	-0.450713	154.391482
8.100000	-0.268658	-110.009706	-39.730142	-12.603208	-39.730142	-12.603208	-0.455936	152.945361
8.150000	-0.272434	-110.593728	-39.640628	-14.127423	-39.640628	-14.127423	-0.461170	151.490840
8.200000	-0.276255	-111.176938	-39.552683	-15.648523	-39.552683	-15.648523	-0.466414	150.027794
8.250000	-0.280122	-111.759352	-39.466300	-17.166391	-39.466300	-17.166391	-0.471666	148.556095
8.300000	-0.284035	-112.340982	-39.381478	-18.680905	-39.381478	-18.680905	-0.476925	147.075621
8.350000	-0.287994	-112.921845	-39.298212	-20.191938	-39.298212	-20.191938	-0.482191	145.586253
8.400000	-0.292000	-113.501956	-39.216498	-21.699354	-39.216498	-21.699354	-0.487461	144.087873
8.450000	-0.296052	-114.081328	-39.136332	-23.203015	-39.136332	-23.203015	-0.492735	142.580368
8.500000	-0.300151	-114.659979	-39.057711	-24.702777	-39.057711	-24.702777	-0.498011	141.063630
8.550000	-0.304298	-115.237923	-38.980630	-26.198489	-38.980630	-26.198489	-0.503289	139.537551
8.600000	-0.308491	-115.815175	-38.905085	-27.689996	-38.905085	-27.689996	-0.508566	138.002031
8.650000	-0.312733	-116.391753	-38.831072	-29.177137	-38.831072	-29.177137	-0.513843	136.456971
8.700000	-0.317022	-116.967671	-38.758586	-30.659746	-38.758586	-30.659746	-0.519118	134.902280
8.750000	-0.321359	-117.542946	-38.687623	-32.137653	-38.687623	-32.137653	-0.524391	133.337869
8.800000	-0.325747	-118.117568	-38.618219	-33.610462	-38.618219	-33.610462	-0.529659	131.763225
8.850000	-0.330183	-118.691582	-38.550329	-35.078195	-38.550329	-35.078195	-0.534922	130.178694
8.900000	-0.334667	-119.265004	-38.483946	-36.540668	-38.483946	-36.540668	-0.540180	128.584206
8.950000	-0.339200	-119.837851	-38.419065	-37.997692	-38.419065	-37.997692	-0.545431	126.979695
9.000000	-0.343782	-120.410140	-38.355678	-39.449073	-38.355678	-39.449073	-0.550675	125.365101
9.050000	-0.348413	-120.981889	-38.293779	-40.894614	-38.293779	-40.894614	-0.555911	123.740374
9.100000	-0.353094	-121.553115	-38.233360	-42.334116	-38.233360	-42.334116	-0.561137	122.105466
9.150000	-0.357823	-122.123836	-38.174413	-43.767374	-38.174413	-43.767374	-0.566354	120.460339
9.200000	-0.362602	-122.694070	-38.116929	-45.194183	-38.116929	-45.194183	-0.571560	118.804961
9.250000	-0.367431	-123.263834	-38.060900	-46.614334	-38.060900	-46.614334	-0.576753	117.139310
9.300000	-0.372309	-123.833148	-38.006315	-48.027617	-38.006315	-48.027617	-0.581933	115.463368
9.350000	-0.377237	-124.402030	-37.953165	-49.433818	-37.953165	-49.433818	-0.587099	113.777128
9.400000	-0.382215	-124.970498	-37.901440	-50.832723	-37.901440	-50.832723	-0.592249	112.080591
9.450000	-0.387243	-125.538572	-37.851128	-52.224118	-37.851128	-52.224118	-0.597382	110.373766
9.500000	-0.392321	-126.106270	-37.802218	-53.607786	-37.802218	-53.607786	-0.602495	108.656672
9.550000	-0.397450	-126.673613	-37.754698	-54.983510	-37.754698	-54.983510	-0.607587	106.929338
9.600000	-0.402624	-127.240646	-37.708457	-56.351807	-37.708457	-56.351807	-0.612657	105.192682
9.650000	-0.407853	-127.807331	-37.663690	-57.710921	-37.663690	-57.710921	-0.617699	103.444875
9.700000	-0.413132	-128.373720	-37.620275	-59.061438	-37.620275	-59.061438	-0.622710	101.686973
9.750000	-0.418461	-128.939834	-37.578197	-60.403143	-37.578197	-60.403143	-0.627689	99.919045
9.800000	-0.423841	-129.505693	-37.537442	-61.735823	-37.537442	-61.735823	-0.632629	98.141174
9.850000	-0.429271	-130.071319	-37.497996	-63.059265	-37.497996	-63.059265	-0.637527	96.353452
9.900000	-0.434752	-130.636731	-37.459842	-64.373262	-37.459842	-64.373262	-0.642378	94.555987
9.950000	-0.440282	-131.201952	-37.422967	-65.677604	-37.422967	-65.677604	-0.647174	92.748895
10.000000	-0.445863	-131.767004	-37.387355	-66.972088	-37.387355	-66.972088	-0.651909	90.932311
