! freq	dB(S11)	phase(S11)	dB(S12)	phase(S12)	
!     	dB(S21)	phase(S21)	dB(S22)	phase(S22)	
!S-par simulation data
#  GHz  S  DB  R 50
0.000000	-145.566498	0.000000	-0.000000	0.000000	-0.000000	0.000000	-145.566498	0.000000
0.050000	-47.124663	-91.950880	-0.004861	-2.773149	-0.004861	-2.773149	-47.119581	-91.209024
0.100000	-41.316097	-95.475582	-0.009324	-5.526465	-0.009324	-5.526465	-41.306960	-93.976534
0.150000	-37.927372	-98.997791	-0.013404	-8.271315	-0.013404	-8.271315	-37.917061	-96.698465
0.200000	-35.531491	-102.372278	-0.017533	-11.011896	-0.017533	-11.011896	-35.520593	-99.281617
0.250000	-33.685593	-105.665180	-0.021731	-13.749031	-0.021731	-13.749031	-33.672850	-101.789081
0.300000	-32.188856	-108.932918	-0.025944	-16.483790	-0.025944	-16.483790	-32.173707	-104.263687
0.350000	-30.932986	-112.193730	-0.030150	-19.217024	-0.030150	-19.217024	-30.916120	-106.719662
0.400000	-29.856400	-115.449147	-0.034353	-21.949144	-0.034353	-21.949144	-29.839186	-109.159129
0.450000	-28.919110	-118.696606	-0.038561	-24.680460	-0.038561	-24.680460	-28.902865	-111.582341
0.500000	-28.093036	-121.935719	-0.042784	-27.411135	-0.042784	-27.411135	-28.078559	-113.989924
0.550000	-27.360981	-125.167179	-0.047026	-30.141158	-0.047026	-30.141158	-27.348699	-116.380527
0.600000	-26.708574	-128.394058	-0.051287	-32.870536	-0.051287	-32.870536	-26.698579	-118.754578
0.650000	-26.123822	-131.619456	-0.055559	-35.599281	-0.055559	-35.599281	-26.116050	-121.113059
0.700000	-25.600346	-134.846354	-0.059835	-38.327328	-0.059835	-38.327328	-25.594708	-123.454768
0.750000	-25.130112	-138.077440	-0.064102	-41.054715	-0.064102	-41.054715	-25.126524	-125.780577
0.800000	-24.708092	-141.315100	-0.068345	-43.781455	-0.068345	-43.781455	-24.706512	-128.090048
0.850000	-24.329949	-144.561537	-0.072550	-46.507596	-0.072550	-46.507596	-24.330388	-130.382760
0.900000	-23.991853	-147.818678	-0.076701	-49.233214	-0.076701	-49.233214	-23.994370	-132.658283
0.950000	-23.690765	-151.088414	-0.080785	-51.958403	-0.080785	-51.958403	-23.695466	-134.915894
1.000000	-23.424157	-154.372627	-0.084789	-54.683278	-0.084789	-54.683278	-23.431192	-137.154684
1.050000	-23.189916	-157.673236	-0.088699	-57.407968	-0.088699	-57.407968	-23.199480	-139.373551
1.100000	-22.986275	-160.992245	-0.092507	-60.132619	-0.092507	-60.132619	-22.998607	-141.571202
1.150000	-22.811758	-164.331773	-0.096204	-62.857387	-0.096204	-62.857387	-22.827147	-143.746130
1.200000	-22.665136	-167.694082	-0.099784	-65.582436	-0.099784	-65.582436	-22.683924	-145.896602
1.250000	-22.545395	-171.081597	-0.103245	-68.307934	-0.103245	-68.307934	-22.567984	-148.020631
1.300000	-22.452245	-174.497580	-0.106582	-71.034068	-0.106582	-71.034068	-22.479118	-150.115257
1.350000	-22.384489	-177.944255	-0.109800	-73.760996	-0.109800	-73.760996	-22.416192	-152.178427
1.400000	-22.341637	178.575462	-0.112903	-76.488882	-0.112903	-76.488882	-22.378784	-154.207129
1.450000	-22.323371	175.058515	-0.115897	-79.217880	-0.115897	-79.217880	-22.366619	-156.197902
1.500000	-22.329582	171.501636	-0.118789	-81.948136	-0.118789	-81.948136	-22.379564	-158.146760
1.550000	-22.360422	167.901003	-0.121590	-84.679782	-0.121590	-84.679782	-22.417617	-160.049100
1.600000	-22.416353	164.251366	-0.124308	-87.412941	-0.124308	-87.412941	-22.480902	-161.899584
1.650000	-22.498064	160.544628	-0.126955	-90.147718	-0.126955	-90.147718	-22.569670	-163.692000
1.700000	-22.606188	156.768929	-0.129541	-92.884209	-0.129541	-92.884209	-22.684289	-165.419093
1.750000	-22.740934	152.909896	-0.132076	-95.622497	-0.132076	-95.622497	-22.825246	-167.072352
1.800000	-22.902075	148.953630	-0.134571	-98.362653	-0.134571	-98.362653	-22.993137	-168.641752
1.850000	-23.089349	144.888120	-0.137034	-101.104745	-0.137034	-101.104745	-23.188662	-170.115431
1.900000	-23.303045	140.700186	-0.139472	-103.848857	-0.139472	-103.848857	-23.412860	-171.477909
1.950000	-23.543540	136.375337	-0.141892	-106.595054	-0.141892	-106.595054	-23.666558	-172.711664
2.000000	-23.811160	131.896970	-0.144299	-109.343382	-0.144299	-109.343382	-23.950375	-173.797428
2.050000	-24.106420	127.242691	-0.146700	-112.093913	-0.146700	-112.093913	-24.265146	-174.710551
2.100000	-24.429629	122.385140	-0.149099	-114.846726	-0.149099	-114.846726	-24.611576	-175.421236
2.150000	-24.780712	117.291409	-0.151504	-117.601910	-0.151504	-117.601910	-24.990082	-175.893414
2.200000	-25.158985	111.922339	-0.153923	-120.359557	-0.153923	-120.359557	-25.400564	-176.083440
2.250000	-25.562825	106.231830	-0.156366	-123.119760	-0.156366	-123.119760	-25.842036	-175.938718
2.300000	-25.989213	100.166432	-0.158847	-125.882611	-0.158847	-125.882611	-26.312086	-175.396486
2.350000	-26.433091	93.665690	-0.161381	-128.648193	-0.161381	-128.648193	-26.806080	-174.383245
2.400000	-26.886526	86.664027	-0.163987	-131.416577	-0.163987	-131.416577	-27.316041	-172.815847
2.450000	-27.337725	79.095354	-0.166684	-134.187815	-0.166684	-134.187815	-27.829203	-170.605911
2.500000	-27.770034	70.901956	-0.169494	-136.961939	-0.169494	-136.961939	-28.326369	-167.670183
2.550000	-28.159540	62.034933	-0.172444	-139.739018	-0.172444	-139.739018	-28.778454	-163.932657
2.600000	-28.480018	52.520596	-0.175552	-142.518969	-0.175552	-142.518969	-29.151708	-159.410188
2.650000	-28.702261	42.438486	-0.178840	-145.301751	-0.178840	-145.301751	-29.407478	-154.196156
2.700000	-28.800013	31.946812	-0.182329	-148.087295	-0.182329	-148.087295	-29.510802	-148.497573
2.750000	-28.756299	21.272557	-0.186036	-150.875516	-0.186036	-150.875516	-29.440396	-142.619995
2.800000	-28.568345	10.675776	-0.189976	-153.666308	-0.189976	-153.666308	-29.196045	-136.908477
2.850000	-28.248409	0.399704	-0.194163	-156.459554	-0.194163	-156.459554	-28.798624	-131.668532
2.900000	-27.820024	-9.371546	-0.198605	-159.255123	-0.198605	-159.255123	-28.282729	-127.107678
2.950000	-27.311822	-18.531636	-0.203309	-162.052878	-0.203309	-162.052878	-27.686743	-123.320564
3.000000	-26.751850	-27.046438	-0.208277	-164.852678	-0.208277	-164.852678	-27.045216	-120.309837
3.050000	-26.164061	-34.934727	-0.213511	-167.654379	-0.213511	-167.654379	-26.385319	-118.020435
3.100000	-25.567038	-42.246590	-0.219007	-170.457839	-0.219007	-170.457839	-25.726473	-116.370171
3.150000	-24.973919	-49.041296	-0.224761	-173.262935	-0.224761	-173.262935	-25.081306	-115.275295
3.200000	-24.394107	-55.387699	-0.230765	-176.069530	-0.230765	-176.069530	-24.458069	-114.649171
3.250000	-23.833739	-61.353958	-0.237003	-178.877480	-0.237003	-178.877480	-23.861550	-114.411998
3.300000	-23.296249	-66.996040	-0.243464	178.313330	-0.243464	178.313330	-23.293916	-114.500706
3.350000	-22.783465	-72.362578	-0.250130	175.503007	-0.250130	175.503007	-22.755886	-114.862385
3.400000	-22.296142	-77.495154	-0.256984	172.691646	-0.256984	172.691646	-22.247282	-115.453055
3.450000	-21.834324	-82.429004	-0.264007	169.879328	-0.264007	169.879328	-21.767385	-116.236287
3.500000	-21.397607	-87.193870	-0.271177	167.066124	-0.271177	167.066124	-21.315172	-117.181911
3.550000	-20.985312	-91.814846	-0.278474	164.252089	-0.278474	164.252089	-20.889464	-118.264883
3.600000	-20.596601	-96.313133	-0.285874	161.437263	-0.285874	161.437263	-20.489025	-119.464338
3.650000	-20.230557	-100.706699	-0.293354	158.621676	-0.293354	158.621676	-20.112615	-120.762815
3.700000	-19.886229	-105.010838	-0.300889	155.805338	-0.300889	155.805338	-19.759032	-122.145625
3.750000	-19.562675	-109.238632	-0.308456	152.988249	-0.308456	152.988249	-19.427122	-123.600344
3.800000	-19.259166	-113.400139	-0.316029	150.170375	-0.316029	150.170375	-19.115999	-125.117527
3.850000	-18.974635	-117.506657	-0.323584	147.351700	-0.323584	147.351700	-18.824459	-126.686663
3.900000	-18.708228	-121.566576	-0.331096	144.532178	-0.331096	144.532178	-18.551543	-128.300050
3.950000	-18.459136	-125.587252	-0.338542	141.711751	-0.338542	141.711751	-18.296361	-129.951015
4.000000	-18.226594	-129.575167	-0.345901	138.890345	-0.345901	138.890345	-18.058084	-131.633750
4.050000	-18.009882	-133.536074	-0.353149	136.067877	-0.353149	136.067877	-17.835942	-133.343168
4.100000	-17.808319	-137.475103	-0.360266	133.244250	-0.360266	133.244250	-17.629218	-135.074794
4.150000	-17.621266	-141.396860	-0.367232	130.419355	-0.367232	130.419355	-17.437244	-136.824667
4.200000	-17.448115	-145.305500	-0.374030	127.593075	-0.374030	127.593075	-17.259398	-138.589267
4.250000	-17.288295	-149.204791	-0.380642	124.765282	-0.380642	124.765282	-17.095097	-140.365448
4.300000	-17.141262	-153.098165	-0.387053	121.935839	-0.387053	121.935839	-16.943793	-142.150389
4.350000	-17.006499	-156.988762	-0.393250	119.104603	-0.393250	119.104603	-16.804972	-143.941547
4.400000	-16.883620	-160.879492	-0.399217	116.271400	-0.399217	116.271400	-16.678255	-145.736641
4.450000	-16.772147	-164.773086	-0.404944	113.436069	-0.404944	113.436069	-16.563177	-147.533522
4.500000	-16.671519	-168.671968	-0.410425	110.598468	-0.410425	110.598468	-16.459191	-149.330264
4.550000	-16.581299	-172.578373	-0.415654	107.758433	-0.415654	107.758433	-16.365874	-151.125153
4.600000	-16.501063	-176.494356	-0.420626	104.915797	-0.420626	104.915797	-16.282826	-152.916628
4.650000	-16.430401	179.578199	-0.425338	102.070391	-0.425338	102.070391	-16.209657	-154.703269
4.700000	-16.368913	175.637569	-0.429789	99.222045	-0.429789	99.222045	-16.145992	-156.483794
4.750000	-16.316211	171.682197	-0.433980	96.370590	-0.433980	96.370590	-16.091465	-158.257043
4.800000	-16.271910	167.710685	-0.437914	93.515860	-0.437914	93.515860	-16.045722	-160.021985
4.850000	-16.235637	163.721796	-0.441594	90.657688	-0.441594	90.657688	-16.008415	-161.777708
4.900000	-16.207024	159.714464	-0.445027	87.795913	-0.445027	87.795913	-15.979201	-163.523427
4.950000	-16.185707	155.687792	-0.448221	84.930378	-0.448221	84.930378	-15.957746	-165.258479
5.000000	-16.171330	151.641063	-0.451183	82.060929	-0.451183	82.060929	-15.943720	-166.982331
5.050000	-16.163677	147.573288	-0.453920	79.187328	-0.453920	79.187328	-15.936943	-168.694323
5.100000	-16.162252	143.484582	-0.456448	76.309518	-0.456448	76.309518	-15.936933	-170.394448
5.150000	-16.166719	139.374825	-0.458780	73.427365	-0.458780	73.427365	-15.943375	-172.082600
5.200000	-16.176749	135.244112	-0.460929	70.540742	-0.460929	70.540742	-15.955958	-173.758822
5.250000	-16.192022	131.092757	-0.462910	67.649529	-0.462910	67.649529	-15.974379	-175.423319
5.300000	-16.212232	126.921303	-0.464737	64.753612	-0.464737	64.753612	-15.998341	-177.076459
5.350000	-16.237089	122.730530	-0.466426	61.852888	-0.466426	61.852888	-16.027559	-178.718780
5.400000	-16.266317	118.521457	-0.467993	58.947258	-0.467993	58.947258	-16.061757	179.649002
5.450000	-16.299663	114.295344	-0.469453	56.036633	-0.469453	56.036633	-16.100673	178.025993
5.500000	-16.336896	110.053699	-0.470822	53.120927	-0.470822	53.120927	-16.144061	176.411116
5.550000	-16.377814	105.798268	-0.472116	50.200066	-0.472116	50.200066	-16.191693	174.803107
5.600000	-16.422245	101.531036	-0.473351	47.273978	-0.473351	47.273978	-16.243360	173.200523
5.650000	-16.470085	97.254141	-0.474541	44.342539	-0.474541	44.342539	-16.298915	171.601757
5.700000	-16.521233	92.970107	-0.475702	41.405688	-0.475702	41.405688	-16.358196	170.004938
5.750000	-16.575604	88.681688	-0.476847	38.463424	-0.476847	38.463424	-16.421040	168.408041
5.800000	-16.633193	84.391723	-0.477991	35.515694	-0.477991	35.515694	-16.487354	166.808924
5.850000	-16.694047	80.103217	-0.479145	32.562446	-0.479145	32.562446	-16.557086	165.205296
5.900000	-16.758264	75.819322	-0.480321	29.603628	-0.480321	29.603628	-16.630217	163.594733
5.950000	-16.826002	71.543311	-0.481530	26.639188	-0.481530	26.639188	-16.706777	161.974691
6.000000	-16.897478	67.278563	-0.482781	23.669073	-0.482781	23.669073	-16.786834	160.342528
6.050000	-16.972968	63.028532	-0.484084	20.693226	-0.484084	20.693226	-16.870510	158.695516
6.100000	-17.052815	58.796732	-0.485446	17.711586	-0.485446	17.711586	-16.957971	157.030864
6.150000	-17.137427	54.586714	-0.486874	14.724088	-0.486874	14.724088	-17.049438	155.345738
6.200000	-17.227278	50.402052	-0.488376	11.730659	-0.488376	11.730659	-17.145184	153.637279
6.250000	-17.322913	46.246333	-0.489956	8.731219	-0.489956	8.731219	-17.245539	151.902620
6.300000	-17.425070	42.123939	-0.491623	5.725546	-0.491623	5.725546	-17.350979	150.138213
6.350000	-17.534336	38.037839	-0.493379	2.713672	-0.493379	2.713672	-17.461876	148.341807
6.400000	-17.651475	33.991643	-0.495230	-0.304512	-0.495230	-0.304512	-17.578739	146.510628
6.450000	-17.777325	29.988993	-0.497179	-3.329126	-0.497179	-3.329126	-17.702140	144.641963
6.500000	-17.912808	26.033587	-0.499233	-6.360301	-0.499233	-6.360301	-17.832716	142.733169
6.550000	-18.058930	22.129219	-0.501395	-9.398181	-0.501395	-9.398181	-17.971173	140.781680
6.600000	-18.216789	18.279828	-0.503672	-12.442922	-0.503672	-12.442922	-18.118287	138.785013
6.650000	-18.387583	14.489571	-0.506071	-15.494691	-0.506071	-15.494691	-18.274912	136.740771
6.700000	-18.572620	10.762902	-0.508598	-18.553670	-0.508598	-18.553670	-18.441985	134.646637
6.750000	-18.773332	7.104690	-0.511262	-21.620052	-0.511262	-21.620052	-18.620531	132.500373
6.800000	-18.991289	3.520352	-0.514074	-24.694042	-0.514074	-24.694042	-18.811675	130.299807
6.850000	-19.228222	0.016035	-0.517045	-27.775859	-0.517045	-27.775859	-19.016654	128.042816
6.900000	-19.486204	-3.400118	-0.520190	-30.865822	-0.520190	-30.865822	-19.236946	125.726651
6.950000	-19.767387	-6.719411	-0.523525	-33.964179	-0.523525	-33.964179	-19.474082	123.349148
7.000000	-20.073995	-9.932657	-0.527065	-37.071096	-0.527065	-37.071096	-19.729628	120.908810
7.050000	-20.408688	-13.027525	-0.530831	-40.186834	-0.530831	-40.186834	-20.005458	118.403410
7.100000	-20.774466	-15.988784	-0.534843	-43.311666	-0.534843	-43.311666	-20.303680	115.830558
7.150000	-21.174725	-18.797350	-0.539126	-46.445874	-0.539126	-46.445874	-20.626687	113.187607
7.200000	-21.613310	-21.428977	-0.543707	-49.589754	-0.543707	-49.589754	-20.977214	110.471533
7.250000	-22.094586	-23.852428	-0.548616	-52.743609	-0.548616	-52.743609	-21.358427	107.678757
7.300000	-22.623470	-26.026883	-0.553883	-55.907759	-0.553883	-55.907759	-21.774019	104.804907
7.350000	-23.205441	-27.898232	-0.559545	-59.082537	-0.559545	-59.082537	-22.228357	101.844472
7.400000	-23.846424	-29.393718	-0.565640	-62.268296	-0.565640	-62.268296	-22.726672	98.790305
7.450000	-24.552437	-30.414192	-0.572208	-65.465413	-0.572208	-65.465413	-23.275317	95.632868
7.500000	-25.328722	-30.823025	-0.579294	-68.674297	-0.579294	-68.674297	-23.882135	92.359089
7.550000	-26.177286	-30.407420	-0.586961	-71.895674	-0.586961	-71.895674	-24.557462	88.947003
7.600000	-27.092696	-28.913757	-0.595252	-75.129801	-0.595252	-75.129801	-25.313512	85.371555
7.650000	-28.053494	-25.988832	-0.604227	-78.377268	-0.604227	-78.377268	-26.166882	81.591047
7.700000	-29.006381	-21.215763	-0.613957	-81.638771	-0.613957	-81.638771	-27.139921	77.539849
7.750000	-29.845354	-14.245915	-0.624523	-84.915161	-0.624523	-84.915161	-28.263626	73.109597
7.800000	-30.405222	-5.126316	-0.636024	-88.207502	-0.636024	-88.207502	-29.582407	68.110470
7.850000	-30.514156	5.303461	-0.648585	-91.517164	-0.648585	-91.517164	-31.161904	62.184198
7.900000	-30.108748	15.494282	-0.662374	-94.845973	-0.662374	-94.845973	-33.100448	54.586932
7.950000	-29.290114	23.995413	-0.677628	-98.196428	-0.677628	-98.196428	-35.532543	43.584325
8.000000	-28.241207	30.142092	-0.694702	-101.572071	-0.694702	-101.572071	-38.500805	24.765678
8.050000	-27.120234	33.969566	-0.714164	-104.978094	-0.714164	-104.978094	-40.927222	-10.026525
8.100000	-26.027259	35.779448	-0.737000	-108.422390	-0.737000	-108.422390	-39.677077	-52.403099
8.150000	-25.021430	35.816265	-0.765127	-111.917977	-0.765127	-111.917977	-36.161451	-77.528051
8.200000	-24.152876	34.127581	-0.802585	-115.485799	-0.802585	-115.485799	-32.814503	-90.075969
8.250000	-23.505271	30.394601	-0.858829	-119.157683	-0.858829	-119.157683	-29.764040	-97.101306
8.300000	-23.315000	23.575933	-0.959060	-122.963400	-0.959060	-122.963400	-26.638825	-102.116286
8.350000	-24.633558	11.198495	-1.179631	-126.723334	-1.179631	-126.723334	-22.962991	-109.832135
8.400000	-35.047715	18.481729	-1.564631	-128.565000	-1.564631	-128.565000	-19.265108	-130.729176
8.450000	-23.799070	93.653622	-1.400934	-128.607602	-1.400934	-128.607602	-18.702178	-160.080457
8.500000	-19.826452	74.313274	-1.103439	-131.939564	-1.103439	-131.939564	-19.888930	-173.974382
8.550000	-18.413897	63.151920	-1.000710	-135.910917	-1.000710	-135.910917	-20.495677	-178.880829
8.600000	-17.555175	56.124097	-0.973617	-139.761162	-0.973617	-139.761162	-20.543059	178.315111
8.650000	-16.884448	51.036305	-0.975004	-143.492825	-0.975004	-143.492825	-20.288856	175.665010
8.700000	-16.302648	46.959848	-0.989121	-147.151159	-0.989121	-147.151159	-19.887377	172.719163
8.750000	-15.774061	43.438075	-1.009705	-150.768467	-1.009705	-150.768467	-19.421817	169.444151
8.800000	-15.284211	40.272215	-1.034419	-154.361325	-1.034419	-154.361325	-18.928987	165.871468
8.850000	-14.825080	37.337479	-1.061974	-157.941064	-1.061974	-157.941064	-18.429996	162.055640
8.900000	-14.391883	34.559241	-1.091666	-161.514712	-1.091666	-161.514712	-17.936011	158.047388
8.950000	-13.981576	31.899510	-1.123212	-165.086727	-1.123212	-165.086727	-17.451556	153.874898
9.000000	-13.591701	29.323386	-1.156290	-168.660250	-1.156290	-168.660250	-16.980275	149.575694
9.050000	-13.220521	26.814760	-1.190808	-172.237481	-1.190808	-172.237481	-16.522837	145.167523
9.100000	-12.866519	24.358719	-1.226635	-175.819906	-1.226635	-175.819906	-16.079801	140.670592
9.150000	-12.528496	21.946387	-1.263716	-179.408751	-1.263716	-179.408751	-15.650903	136.097985
9.200000	-12.205351	19.569644	-1.301967	176.995286	-1.301967	176.995286	-15.235944	131.463191
9.250000	-11.896168	17.222937	-1.341331	173.391621	-1.341331	173.391621	-14.834470	126.776188
9.300000	-11.600152	14.901810	-1.381756	169.779832	-1.381756	169.779832	-14.446009	122.045492
9.350000	-11.316614	12.602572	-1.423186	166.159622	-1.423186	166.159622	-14.070111	117.278449
9.400000	-11.045019	10.322346	-1.465576	162.530647	-1.465576	162.530647	-13.706334	112.481020
9.450000	-10.784855	8.058165	-1.508854	158.892848	-1.508854	158.892848	-13.354400	107.659120
9.500000	-10.535667	5.807333	-1.552939	155.246312	-1.552939	155.246312	-13.014115	102.817941
9.550000	-10.297151	3.567710	-1.597755	151.591001	-1.597755	151.591001	-12.685319	97.961557
9.600000	-10.069090	1.337288	-1.643211	147.926952	-1.643211	147.926952	-12.367968	93.093627
9.650000	-9.851358	-0.885770	-1.689200	144.254256	-1.689200	144.254256	-12.062146	88.217396
9.700000	-9.643848	-3.103151	-1.735599	140.573169	-1.735599	140.573169	-11.768026	83.335792
9.750000	-9.446576	-5.316181	-1.782270	136.883904	-1.782270	136.883904	-11.485889	78.451334
9.800000	-9.259644	-7.525849	-1.829061	133.186709	-1.829061	133.186709	-11.216126	73.566348
9.850000	-9.083235	-9.732728	-1.875795	129.481861	-1.875795	129.481861	-10.959242	68.683086
9.900000	-8.917608	-11.936871	-1.922276	125.769668	-1.922276	125.769668	-10.715852	63.803871
9.950000	-8.763092	-14.137708	-1.968285	122.050460	-1.968285	122.050460	-10.486677	58.931250
10.000000	-8.620067	-16.333926	-2.013574	118.324588	-2.013574	118.324588	-10.272533	54.068166
