! freq	dB(S11)	phase(S11)	dB(S12)	phase(S12)	
!     	dB(S21)	phase(S21)	dB(S22)	phase(S22)	
!S-par simulation data
#  GHz  S  DB  R 50
0.000000	-83.288763	0.000000	-0.000595	0.000000	-0.000595	0.000000	-83.288763	0.000000
0.050000	-60.873704	56.368521	-0.007902	-2.306812	-0.007902	-2.306812	-60.870038	56.361735
0.100000	-56.572840	66.604737	-0.009997	-4.597641	-0.009997	-4.597641	-56.570159	66.555403
0.150000	-53.465353	70.565553	-0.012688	-6.885253	-0.012688	-6.885253	-53.463288	70.486920
0.200000	-51.093992	71.783229	-0.015651	-9.167441	-0.015651	-9.167441	-51.092353	71.677646
0.250000	-49.190447	71.859044	-0.018601	-11.445546	-0.018601	-11.445546	-49.189178	71.727314
0.300000	-47.596218	71.268612	-0.021409	-13.720541	-0.021409	-13.720541	-47.595316	71.111364
0.350000	-46.220374	70.280443	-0.024040	-15.993557	-0.024040	-15.993557	-46.219850	70.098302
0.400000	-45.005633	69.033446	-0.026513	-18.265431	-0.026513	-18.265431	-45.005499	68.827096
0.450000	-43.913888	67.605829	-0.028864	-20.536726	-0.028864	-20.536726	-43.914154	67.376028
0.500000	-42.918648	66.044583	-0.031134	-22.807798	-0.031134	-22.807798	-42.919319	65.792161
0.550000	-42.000818	64.379451	-0.033359	-25.078870	-0.033359	-25.078870	-42.001897	64.105303
0.600000	-41.145350	62.627999	-0.035568	-27.350083	-0.035568	-27.350083	-41.146836	62.333104
0.650000	-40.342378	60.806175	-0.037785	-29.621514	-0.037785	-29.621514	-40.344266	60.491523
0.700000	-39.583784	58.924869	-0.040024	-31.893215	-0.040024	-31.893215	-39.586064	58.591457
0.750000	-38.861570	56.988296	-0.042297	-34.165237	-0.042297	-34.165237	-38.864234	56.637187
0.800000	-38.173347	55.008230	-0.044607	-36.437570	-0.044607	-36.437570	-38.176375	54.640365
0.850000	-37.510628	52.982217	-0.046962	-38.710292	-0.046962	-38.710292	-37.514007	52.598700
0.900000	-36.874678	50.922516	-0.049353	-40.983349	-0.049353	-40.983349	-36.878384	50.524235
0.950000	-36.258600	48.827150	-0.051783	-43.256810	-0.051783	-43.256810	-36.262611	48.415140
1.000000	-35.663313	46.704212	-0.054243	-45.530622	-0.054243	-45.530622	-35.667602	46.279351
1.050000	-35.085229	44.555093	-0.056729	-47.804798	-0.056729	-47.804798	-35.089768	44.118303
1.100000	-34.523370	42.383532	-0.059234	-50.079306	-0.059234	-50.079306	-34.528131	41.935684
1.150000	-33.977316	40.193301	-0.061753	-52.354097	-0.061753	-52.354097	-33.982270	39.735201
1.200000	-33.444287	37.985369	-0.064285	-54.629151	-0.064285	-54.629151	-33.449406	37.517864
1.250000	-32.926411	35.764470	-0.066828	-56.904387	-0.066828	-56.904387	-32.931669	35.288246
1.300000	-32.419372	33.529957	-0.069387	-59.179795	-0.069387	-59.179795	-32.424745	33.045812
1.350000	-31.926332	31.286096	-0.071965	-61.455312	-0.071965	-61.455312	-31.931800	30.794634
1.400000	-31.444458	29.032919	-0.074572	-63.730936	-0.074572	-63.730936	-31.450001	28.534793
1.450000	-30.974928	26.772543	-0.077214	-66.006652	-0.077214	-66.006652	-30.980531	26.268297
1.500000	-30.516957	24.505809	-0.079901	-68.282479	-0.079901	-68.282479	-30.522604	23.995959
1.550000	-30.070148	22.233549	-0.082643	-70.558446	-0.082643	-70.558446	-30.075830	21.718568
1.600000	-29.635220	19.956943	-0.085441	-72.834577	-0.085441	-72.834577	-29.640926	19.437222
1.650000	-29.210645	17.676104	-0.088310	-75.110941	-0.088310	-75.110941	-29.216367	17.152038
1.700000	-28.797026	15.391918	-0.091251	-77.387576	-0.091251	-77.387576	-28.802757	14.863828
1.750000	-28.394934	13.105121	-0.094262	-79.664499	-0.094262	-79.664499	-28.400669	12.573263
1.800000	-28.003745	10.815962	-0.097347	-81.941765	-0.097347	-81.941765	-28.009480	10.280572
1.850000	-27.623375	8.524845	-0.100509	-84.219407	-0.100509	-84.219407	-27.629107	7.986120
1.900000	-27.253745	6.232137	-0.103748	-86.497454	-0.103748	-86.497454	-27.259471	5.690240
1.950000	-26.894779	3.938177	-0.107063	-88.775929	-0.107063	-88.775929	-26.900499	3.393239
2.000000	-26.546405	1.643285	-0.110456	-91.054850	-0.110456	-91.054850	-26.552116	1.095406
2.050000	-26.208551	-0.652241	-0.113924	-93.334230	-0.113924	-93.334230	-26.214252	-1.202988
2.100000	-25.881146	-2.948115	-0.117469	-95.614076	-0.117469	-95.614076	-25.886839	-3.501683
2.150000	-25.564124	-5.244065	-0.121087	-97.894392	-0.121087	-97.894392	-25.569809	-5.800431
2.200000	-25.257419	-7.539831	-0.124779	-100.175178	-0.124779	-100.175178	-25.263096	-8.098998
2.250000	-24.960969	-9.835168	-0.128543	-102.456431	-0.128543	-102.456431	-24.966640	-10.397157
2.300000	-24.674712	-12.129839	-0.132377	-104.738143	-0.132377	-104.738143	-24.680380	-12.694694
2.350000	-24.398592	-14.423622	-0.136279	-107.020306	-0.136279	-107.020306	-24.404259	-14.991407
2.400000	-24.132557	-16.716307	-0.140248	-109.302910	-0.140248	-109.302910	-24.138224	-17.287105
2.450000	-23.876556	-19.007698	-0.144279	-111.585944	-0.144279	-111.585944	-23.882229	-19.581611
2.500000	-23.630548	-21.297611	-0.148371	-113.869394	-0.148371	-113.869394	-23.636228	-21.874760
2.550000	-23.394621	-23.585818	-0.152522	-116.153259	-0.152522	-116.153259	-23.400313	-24.166349
2.600000	-23.168649	-25.872215	-0.156725	-118.437513	-0.156725	-118.437513	-23.174358	-26.456286
2.650000	-22.952606	-28.156661	-0.160977	-120.722142	-0.160977	-120.722142	-22.958336	-28.744453
2.700000	-22.746472	-30.439033	-0.165272	-123.007135	-0.165272	-123.007135	-22.752229	-31.030741
2.750000	-22.550238	-32.719217	-0.169607	-125.292481	-0.169607	-125.292481	-22.556027	-33.315058
2.800000	-22.363903	-34.997113	-0.173974	-127.578170	-0.173974	-127.578170	-22.369729	-35.597324
2.850000	-22.187475	-37.272634	-0.178369	-129.864195	-0.178369	-129.864195	-22.193345	-37.877471
2.900000	-22.020975	-39.545702	-0.182784	-132.150550	-0.182784	-132.150550	-22.026896	-40.155443
2.950000	-21.864434	-41.816249	-0.187214	-134.437235	-0.187214	-134.437235	-21.870412	-42.431195
3.000000	-21.717896	-44.084214	-0.191650	-136.724250	-0.191650	-136.724250	-21.723939	-44.704687
3.050000	-21.581418	-46.349544	-0.196087	-139.011600	-0.196087	-139.011600	-21.587534	-46.975892
3.100000	-21.455074	-48.612188	-0.200515	-141.299292	-0.200515	-141.299292	-21.461271	-49.244783
3.150000	-21.339048	-50.872068	-0.204928	-143.587344	-0.204928	-143.587344	-21.345335	-51.511316
3.200000	-21.233457	-53.129134	-0.209316	-145.875772	-0.209316	-145.875772	-21.239845	-53.775471
3.250000	-21.138331	-55.383366	-0.213672	-148.164593	-0.213672	-148.164593	-21.144829	-56.037254
3.300000	-21.053811	-57.634707	-0.217989	-150.453835	-0.217989	-150.453835	-21.060431	-58.296644
3.350000	-20.980364	-59.883006	-0.222255	-152.743541	-0.222255	-152.743541	-20.987118	-60.553543
3.400000	-20.917096	-62.128499	-0.226470	-155.033696	-0.226470	-155.033696	-20.923995	-62.808169
3.450000	-20.865881	-64.370616	-0.230617	-157.324420	-0.230617	-157.324420	-20.872941	-65.060089
3.500000	-20.825476	-66.609676	-0.234695	-159.615686	-0.234695	-159.615686	-20.832710	-67.309586
3.550000	-20.797023	-68.845295	-0.238694	-161.907588	-0.238694	-161.907588	-20.804448	-69.556383
3.600000	-20.780594	-71.077381	-0.242607	-164.200171	-0.242607	-164.200171	-20.788228	-71.800437
3.650000	-20.775924	-73.305930	-0.246433	-166.493456	-0.246433	-166.493456	-20.783785	-74.041766
3.700000	-20.784311	-75.530435	-0.250158	-168.787564	-0.250158	-168.787564	-20.792421	-76.280006
3.750000	-20.806101	-77.750642	-0.253779	-171.082561	-0.253779	-171.082561	-20.814484	-78.514984
3.800000	-20.841240	-79.966397	-0.257294	-173.378486	-0.257294	-173.378486	-20.849922	-80.746605
3.850000	-20.890250	-82.177331	-0.260699	-175.675411	-0.260699	-175.675411	-20.899259	-82.974605
3.900000	-20.954486	-84.382703	-0.263986	-177.973477	-0.263986	-177.973477	-20.963856	-85.198441
3.950000	-21.033799	-86.582279	-0.267158	179.727296	-0.267158	179.727296	-21.043567	-87.417948
4.000000	-21.128892	-88.775460	-0.270215	177.426827	-0.270215	177.426827	-21.139100	-89.632684
4.050000	-21.241233	-90.961207	-0.273150	175.124974	-0.273150	175.124974	-21.251931	-91.841875
4.100000	-21.371323	-93.138826	-0.275967	172.821682	-0.275967	172.821682	-21.382566	-94.045002
4.150000	-21.519935	-95.307433	-0.278670	170.516889	-0.278670	170.516889	-21.531788	-96.241399
4.200000	-21.688666	-97.465554	-0.281259	168.210465	-0.281259	168.210465	-21.701205	-98.429954
4.250000	-21.878970	-99.611602	-0.283735	165.902308	-0.283735	165.902308	-21.892286	-100.609465
4.300000	-22.091803	-101.744211	-0.286108	163.592387	-0.286108	163.592387	-22.106001	-102.778890
4.350000	-22.329063	-103.861178	-0.288383	161.280601	-0.288383	161.280601	-22.344269	-104.936553
4.400000	-22.593540	-105.959148	-0.290561	158.966788	-0.290561	158.966788	-22.609911	-107.079900
4.450000	-22.886656	-108.035819	-0.292657	156.650961	-0.292657	156.650961	-22.904378	-109.207160
4.500000	-23.211136	-110.087412	-0.294678	154.333047	-0.294678	154.333047	-23.230438	-111.315441
4.550000	-23.571312	-112.107449	-0.296631	152.012861	-0.296631	152.012861	-23.592489	-113.399789
4.600000	-23.970185	-114.090851	-0.298530	149.690430	-0.298530	149.690430	-23.993599	-115.456287
4.650000	-24.412238	-116.030082	-0.300388	147.365707	-0.300388	147.365707	-24.438355	-117.479137
4.700000	-24.903980	-117.912834	-0.302216	145.038560	-0.302216	145.038560	-24.933416	-119.458864
4.750000	-25.452299	-119.725067	-0.304029	142.708958	-0.304029	142.708958	-25.485875	-121.384613
4.800000	-26.065426	-121.449547	-0.305841	140.376920	-0.305841	140.376920	-26.104250	-123.243015
4.850000	-26.755100	-123.058092	-0.307669	138.042370	-0.307669	138.042370	-26.800734	-125.012170
4.900000	-27.536809	-124.507145	-0.309528	135.705222	-0.309528	135.705222	-27.591548	-126.658081
4.950000	-28.429020	-125.744947	-0.311435	133.365563	-0.311435	133.365563	-28.496276	-128.139986
5.000000	-29.458586	-126.684560	-0.313407	131.023388	-0.313407	131.023388	-29.543738	-129.388996
5.050000	-30.665076	-127.155821	-0.315464	128.678579	-0.315464	128.678579	-30.777369	-130.268973
5.100000	-32.102836	-126.897457	-0.317624	126.331233	-0.317624	126.331233	-32.259046	-130.566116
5.150000	-33.854761	-125.385203	-0.319904	123.981373	-0.319904	123.981373	-34.088885	-129.838856
5.200000	-36.043331	-121.480102	-0.322323	121.629038	-0.322323	121.629038	-36.434342	-127.072378
5.250000	-38.804856	-112.368918	-0.324899	119.274274	-0.324899	119.274274	-39.567681	-119.435978
5.300000	-41.871979	-91.160096	-0.327650	116.917140	-0.327650	116.917140	-43.554802	-97.583603
5.350000	-42.859989	-53.910824	-0.330595	114.557705	-0.330595	114.557705	-45.027768	-50.547314
5.400000	-40.230146	-23.092696	-0.333752	112.196051	-0.333752	112.196051	-41.263448	-15.150765
5.450000	-36.999450	-8.776558	-0.337136	109.832268	-0.337136	109.832268	-37.445171	-2.379859
5.500000	-34.327645	-2.671886	-0.340765	107.466458	-0.340765	107.466458	-34.555029	2.221074
5.550000	-32.171123	-0.114296	-0.344654	105.098734	-0.344654	105.098734	-32.303277	3.762303
5.600000	-30.388514	0.704894	-0.348817	102.729217	-0.348817	102.729217	-30.472382	3.886343
5.650000	-28.876795	0.556350	-0.353272	100.358022	-0.353272	100.358022	-28.933365	3.242204
5.700000	-27.567862	-0.174914	-0.358030	97.985294	-0.358030	97.985294	-27.607681	2.142082
5.750000	-26.415775	-1.281036	-0.363098	95.611199	-0.363098	95.611199	-26.444652	0.751042
5.800000	-25.388315	-2.645297	-0.368487	93.235894	-0.368487	93.235894	-25.409697	-0.839313
5.850000	-24.462343	-4.194668	-0.374203	90.859539	-0.374203	90.859539	-24.478393	-2.572108
5.900000	-23.620747	-5.881233	-0.380251	88.482302	-0.380251	88.482302	-23.632882	-4.410227
5.950000	-22.850552	-7.672295	-0.386635	86.104357	-0.386635	86.104357	-22.859737	-6.328428
6.000000	-22.141701	-9.544782	-0.393356	83.725878	-0.393356	83.725878	-22.148616	-8.308941
6.050000	-21.486257	-11.481937	-0.400414	81.347044	-0.400414	81.347044	-21.491393	-10.338877
6.100000	-20.877847	-13.471277	-0.407805	78.968037	-0.407805	78.968037	-20.881573	-12.408640
6.150000	-20.311287	-15.503289	-0.415524	76.589035	-0.415524	76.589035	-20.313884	-14.510919
6.200000	-19.782305	-17.570576	-0.423563	74.210221	-0.423563	74.210221	-19.783995	-16.640022
6.250000	-19.287346	-19.667273	-0.431912	71.831771	-0.431912	71.831771	-19.288305	-18.791431
6.300000	-18.823534	-21.789099	-0.440564	69.453878	-0.440564	69.453878	-18.823911	-20.961833
6.350000	-18.388248	-23.931588	-0.449497	67.076705	-0.449497	67.076705	-18.388165	-23.147784
6.400000	-17.979323	-26.091559	-0.458694	64.700418	-0.458694	64.700418	-17.978881	-25.346809
6.450000	-17.594898	-28.266324	-0.468134	62.325175	-0.468134	62.325175	-17.594185	-27.556813
6.500000	-17.233366	-30.453594	-0.477796	59.951127	-0.477796	59.951127	-17.232456	-29.776000
6.550000	-16.893333	-32.651396	-0.487653	57.578417	-0.487653	57.578417	-16.892288	-32.002811
6.600000	-16.573582	-34.858015	-0.497680	55.207176	-0.497680	55.207176	-16.572454	-34.235883
6.650000	-16.273048	-37.071950	-0.507847	52.837525	-0.507847	52.837525	-16.271882	-36.474014
6.700000	-15.990799	-39.291877	-0.518123	50.469569	-0.518123	50.469569	-15.989628	-38.716135
6.750000	-15.726011	-41.516625	-0.528475	48.103404	-0.528475	48.103404	-15.724862	-40.961290
6.800000	-15.477960	-43.745151	-0.538869	45.739106	-0.538869	45.739106	-15.476853	-43.208625
6.850000	-15.246005	-45.976521	-0.549268	43.376740	-0.549268	43.376740	-15.244955	-45.457367
6.900000	-15.029691	-48.209917	-0.559634	41.016371	-0.559634	41.016371	-15.028706	-47.706824
6.950000	-14.828529	-50.444569	-0.569928	38.658027	-0.569928	38.658027	-14.827611	-49.956350
7.000000	-14.641972	-52.679790	-0.580109	36.301694	-0.580109	36.301694	-14.641119	-52.205377
7.050000	-14.469635	-54.914987	-0.590139	33.947358	-0.590139	33.947358	-14.468841	-54.453403
7.100000	-14.311181	-57.149627	-0.599974	31.594987	-0.599974	31.594987	-14.310438	-56.699975
7.150000	-14.166321	-59.383238	-0.609576	29.244525	-0.609576	29.244525	-14.165615	-58.944693
7.200000	-14.034807	-61.615402	-0.618902	26.895896	-0.618902	26.895896	-14.034124	-61.187200
7.250000	-13.916431	-63.845751	-0.627913	24.549000	-0.627913	24.549000	-13.915754	-63.427185
7.300000	-13.811026	-66.073964	-0.636567	22.203715	-0.636567	22.203715	-13.810337	-65.664377
7.350000	-13.718462	-68.299764	-0.644826	19.859897	-0.644826	19.859897	-13.717740	-67.898543
7.400000	-13.638646	-70.522915	-0.652651	17.517377	-0.652651	17.517377	-13.637871	-70.129488
7.450000	-13.571522	-72.743220	-0.660006	15.175965	-0.660006	15.175965	-13.570672	-72.357048
7.500000	-13.517072	-74.960516	-0.666856	12.835444	-0.666856	12.835444	-13.516127	-74.581093
7.550000	-13.475592	-77.174601	-0.673156	10.495587	-0.673156	10.495587	-13.474529	-76.801437
7.600000	-13.446877	-79.385438	-0.678887	8.156111	-0.678887	8.156111	-13.445674	-79.018078
7.650000	-13.431029	-81.592947	-0.684022	5.816735	-0.684022	5.816735	-13.429666	-81.230956
7.700000	-13.428196	-83.797067	-0.688537	3.477153	-0.688537	3.477153	-13.426652	-83.440024
7.750000	-13.438571	-85.997747	-0.692411	1.137041	-0.692411	1.137041	-13.436828	-85.645243
7.800000	-13.462402	-88.194942	-0.695629	-1.203943	-0.695629	-1.203943	-13.460441	-87.846576
7.850000	-13.499987	-90.388602	-0.698177	-3.546159	-0.698177	-3.546159	-13.497790	-90.043978
7.900000	-13.551687	-92.578664	-0.700048	-5.889982	-0.700048	-5.889982	-13.549238	-92.237385
7.950000	-13.617930	-94.765043	-0.701238	-8.235800	-0.701238	-8.235800	-13.615212	-94.426705
8.000000	-13.699213	-96.947613	-0.701752	-10.584012	-0.701752	-10.584012	-13.696212	-96.611803
8.050000	-13.796119	-99.126196	-0.701595	-12.935024	-0.701595	-12.935024	-13.792821	-98.792484
8.100000	-13.909320	-101.300539	-0.700782	-15.289248	-0.700782	-15.289248	-13.905711	-100.968474
8.150000	-14.039761	-103.470240	-0.699324	-17.647143	-0.699324	-17.647143	-14.035828	-103.139335
8.200000	-14.188348	-105.634804	-0.697249	-20.009133	-0.697249	-20.009133	-14.184077	-105.304534
8.250000	-14.355942	-107.793633	-0.694594	-22.375585	-0.694594	-22.375585	-14.351319	-107.463434
8.300000	-14.543725	-109.945876	-0.691398	-24.746894	-0.691398	-24.746894	-14.538734	-109.615125
8.350000	-14.753058	-112.090418	-0.687702	-27.123443	-0.687702	-27.123443	-14.747682	-111.758425
8.400000	-14.985514	-114.225813	-0.683557	-29.505596	-0.683557	-29.505596	-14.979730	-113.891807
8.450000	-15.242910	-116.350199	-0.679017	-31.893696	-0.679017	-31.893696	-15.236693	-116.013309
8.500000	-15.527361	-118.461178	-0.674140	-34.288062	-0.674140	-34.288062	-15.520679	-118.120414
8.550000	-15.841337	-120.555667	-0.668989	-36.688984	-0.668989	-36.688984	-15.834147	-120.209897
8.600000	-16.187739	-122.629701	-0.663633	-39.096723	-0.663633	-39.096723	-16.179988	-122.277616
8.650000	-16.569770	-124.678516	-0.658140	-41.511430	-0.658140	-41.511430	-16.561389	-124.318613
8.700000	-16.992103	-126.694589	-0.652582	-43.933499	-0.652582	-43.933499	-16.983001	-126.325051
8.750000	-17.459343	-128.669564	-0.647034	-46.362981	-0.647034	-46.362981	-17.449399	-128.288265
8.800000	-17.977770	-130.591031	-0.641573	-48.800095	-0.641573	-48.800095	-17.966820	-130.195382
8.850000	-18.554578	-132.443527	-0.636274	-51.244870	-0.636274	-51.244870	-18.542403	-132.030404
8.900000	-19.199084	-134.205168	-0.631209	-53.697392	-0.631209	-53.697392	-19.185381	-133.770710
8.950000	-19.923172	-135.845128	-0.626453	-56.157731	-0.626453	-56.157731	-19.907514	-135.384474
9.000000	-20.742303	-137.318728	-0.622078	-58.625944	-0.622078	-58.625944	-20.724075	-136.825642
9.050000	-21.677068	-138.558920	-0.618155	-61.102083	-0.618155	-61.102083	-21.655348	-138.025221
9.100000	-22.756614	-139.441177	-0.614777	-63.586508	-0.614777	-63.586508	-22.729940	-138.855302
9.150000	-24.018532	-139.814263	-0.611976	-66.078712	-0.611976	-66.078712	-23.984538	-139.161356
9.200000	-25.520736	-139.385072	-0.609823	-68.578839	-0.609823	-68.578839	-25.475258	-138.644732
9.250000	-27.348132	-137.475421	-0.608432	-71.087440	-0.608432	-71.087440	-27.282958	-136.618834
9.300000	-29.615968	-132.773335	-0.607857	-73.604343	-0.607857	-73.604343	-29.513600	-131.774868
9.350000	-32.408671	-122.051657	-0.608178	-76.129670	-0.608178	-76.129670	-32.229824	-120.972397
9.400000	-35.199428	-98.390290	-0.609483	-78.663555	-0.609483	-78.663555	-34.893559	-97.805231
9.450000	-35.440955	-61.953104	-0.611866	-81.206141	-0.611866	-81.206141	-35.148858	-62.728922
9.500000	-32.707631	-35.666662	-0.615427	-83.757577	-0.615427	-83.757577	-32.567145	-36.808140
9.550000	-29.730637	-23.552395	-0.620281	-86.318002	-0.620281	-86.318002	-29.668749	-24.461413
9.600000	-27.271069	-18.256903	-0.626556	-88.887584	-0.626556	-88.887584	-27.241103	-18.937441
9.650000	-25.272612	-16.065309	-0.634398	-91.466462	-0.634398	-91.466462	-25.256771	-16.581282
9.700000	-23.615868	-15.444034	-0.643937	-94.054596	-0.643937	-94.054596	-23.606885	-15.841547
9.750000	-22.211675	-15.717371	-0.655329	-96.651977	-0.655329	-96.651977	-22.206169	-16.026636
9.800000	-20.999451	-16.540054	-0.668742	-99.258524	-0.668742	-99.258524	-20.995667	-16.781092
9.850000	-19.937523	-17.719142	-0.684351	-101.874072	-0.684351	-101.874072	-19.934459	-17.905663
9.900000	-18.996408	-19.138697	-0.702340	-104.498361	-0.702340	-104.498361	-18.993442	-19.280418
9.950000	-18.154620	-20.724794	-0.722900	-107.131019	-0.722900	-107.131019	-18.151333	-20.828835
10.000000	-17.396063	-22.427926	-0.746224	-109.771562	-0.746224	-109.771562	-17.392154	-22.499667
