! freq	dB(S11)	phase(S11)	dB(S12)	phase(S12)	
!     	dB(S21)	phase(S21)	dB(S22)	phase(S22)	
!S-par simulation data
#  GHz  S  DB  R 50
0.000000	0.000000	0.000000	-360.596147	180.000000	-360.596147	180.000000	-0.000000	0.000000
0.050000	-0.000805	-1.258468	-110.045240	88.986553	-110.045240	88.986553	-0.000571	-0.881484
0.100000	-0.002715	-2.510980	-104.071347	87.978511	-104.071347	87.978511	-0.001898	-1.758601
0.150000	-0.004923	-3.756750	-100.627397	86.982450	-100.627397	86.982450	-0.003392	-2.630987
0.200000	-0.006979	-4.997887	-98.242949	86.008822	-98.242949	86.008822	-0.004755	-3.500306
0.250000	-0.008827	-6.236842	-96.443979	85.065278	-96.443979	85.065278	-0.005971	-4.368274
0.300000	-0.010498	-7.474607	-95.030187	84.166028	-95.030187	84.166028	-0.007075	-5.235564
0.350000	-0.012053	-8.711733	-93.892924	83.326606	-93.892924	83.326606	-0.008115	-6.102544
0.400000	-0.013546	-9.948407	-92.969437	82.566213	-92.969437	82.566213	-0.009130	-6.969347
0.450000	-0.015009	-11.184581	-92.228193	81.917570	-92.228193	81.917570	-0.010145	-7.835979
0.500000	-0.016468	-12.420201	-91.633529	81.397461	-91.633529	81.397461	-0.011171	-8.702420
0.550000	-0.017931	-13.655136	-91.168140	81.036327	-91.168140	81.036327	-0.012215	-9.568613
0.600000	-0.019402	-14.889242	-90.820541	80.871830	-90.820541	80.871830	-0.013274	-10.434489
0.650000	-0.020884	-16.122373	-90.583318	80.951699	-90.583318	80.951699	-0.014346	-11.299973
0.700000	-0.022376	-17.354382	-90.451962	81.337627	-90.451962	81.337627	-0.015427	-12.164984
0.750000	-0.023876	-18.585046	-90.430151	82.141305	-90.430151	82.141305	-0.016514	-13.029400
0.800000	-0.025384	-19.814221	-90.515093	83.490462	-90.515093	83.490462	-0.017602	-13.893133
0.850000	-0.026896	-21.041808	-90.700120	85.548285	-90.700120	85.548285	-0.018689	-14.756111
0.900000	-0.028413	-22.267814	-90.970854	88.464896	-90.970854	88.464896	-0.019775	-15.618324
0.950000	-0.029932	-23.492043	-91.314492	92.560016	-91.314492	92.560016	-0.020857	-16.479661
1.000000	-0.031453	-24.714396	-91.691629	98.169641	-91.691629	98.169641	-0.021937	-17.340067
1.050000	-0.032976	-25.934786	-92.027358	105.619323	-92.027358	105.619323	-0.023016	-18.199492
1.100000	-0.034499	-27.153133	-92.200180	115.046227	-92.200180	115.046227	-0.024093	-19.057897
1.150000	-0.036022	-28.369365	-92.058258	126.105826	-92.058258	126.105826	-0.025169	-19.915250
1.200000	-0.037546	-29.583416	-91.487664	137.780320	-91.487664	137.780320	-0.026246	-20.771522
1.250000	-0.039069	-30.795229	-90.493965	148.700758	-90.493965	148.700758	-0.027324	-21.626692
1.300000	-0.040591	-32.004647	-89.182666	157.782147	-89.182666	157.782147	-0.028403	-22.480692
1.350000	-0.042112	-33.211720	-87.728089	164.846242	-87.728089	164.846242	-0.029483	-23.333553
1.400000	-0.043632	-34.416401	-86.241354	170.111265	-86.241354	170.111265	-0.030566	-24.185261
1.450000	-0.045150	-35.618651	-84.785479	173.925552	-84.785479	173.925552	-0.031650	-25.035803
1.500000	-0.046666	-36.818430	-83.390107	176.619343	-83.390107	176.619343	-0.032735	-25.885166
1.550000	-0.048180	-38.015703	-82.065998	178.459593	-82.065998	178.459593	-0.033822	-26.733338
1.600000	-0.049691	-39.210435	-80.814372	179.648889	-80.814372	179.648889	-0.034910	-27.580306
1.650000	-0.051200	-40.402595	-79.632058	-179.662528	-79.632058	-179.662528	-0.035999	-28.426058
1.700000	-0.052707	-41.592152	-78.514137	-179.363664	-78.514137	-179.363664	-0.037089	-29.270582
1.750000	-0.054211	-42.779078	-77.455230	-179.372059	-77.455230	-179.372059	-0.038179	-30.113864
1.800000	-0.055713	-43.963346	-76.450096	-179.625833	-76.450096	-179.625833	-0.039270	-30.955892
1.850000	-0.057212	-45.144929	-75.493881	179.922014	-75.493881	179.922014	-0.040362	-31.796653
1.900000	-0.058709	-46.323803	-74.582204	179.307631	-74.582204	179.307631	-0.041454	-32.636134
1.950000	-0.060203	-47.499945	-73.711159	178.559174	-73.711159	178.559174	-0.042547	-33.474319
2.000000	-0.061696	-48.673332	-72.877282	177.698835	-72.877282	177.698835	-0.043640	-34.311197
2.050000	-0.063188	-49.843942	-72.077508	176.744306	-72.077508	176.744306	-0.044734	-35.146753
2.100000	-0.064678	-51.011757	-71.309125	175.709845	-71.309125	175.709845	-0.045829	-35.980972
2.150000	-0.066168	-52.176756	-70.569725	174.607051	-70.569725	174.607051	-0.046925	-36.813841
2.200000	-0.067657	-53.338923	-69.857168	173.445454	-69.857168	173.445454	-0.048023	-37.645346
2.250000	-0.069147	-54.498241	-69.169548	172.232948	-69.169548	172.232948	-0.049122	-38.475471
2.300000	-0.070637	-55.654694	-68.505157	170.976125	-68.505157	170.976125	-0.050223	-39.304205
2.350000	-0.072129	-56.808269	-67.862462	169.680530	-67.862462	169.680530	-0.051327	-40.131531
2.400000	-0.073623	-57.958952	-67.240083	168.350862	-67.240083	168.350862	-0.052433	-40.957436
2.450000	-0.075119	-59.106732	-66.636775	166.991125	-66.636775	166.991125	-0.053543	-41.781907
2.500000	-0.076619	-60.251598	-66.051406	165.604755	-66.051406	165.604755	-0.054655	-42.604929
2.550000	-0.078122	-61.393415	-65.482071	164.193808	-65.482071	164.193808	-0.055772	-43.426425
2.600000	-0.079631	-62.532301	-64.928809	162.761962	-64.928809	162.761962	-0.056893	-44.246445
2.650000	-0.081145	-63.668250	-64.390752	161.311419	-64.390752	161.311419	-0.058019	-45.064976
2.700000	-0.082665	-64.801257	-63.867105	159.844108	-63.867105	159.844108	-0.059150	-45.882006
2.750000	-0.084192	-65.931320	-63.357137	158.361732	-63.357137	158.361732	-0.060287	-46.697521
2.800000	-0.085727	-67.058435	-62.860176	156.865792	-62.860176	156.865792	-0.061430	-47.511509
2.850000	-0.087270	-68.182602	-62.375600	155.357625	-62.375600	155.357625	-0.062580	-48.323960
2.900000	-0.088822	-69.303822	-61.902835	153.838420	-61.902835	153.838420	-0.063736	-49.134861
2.950000	-0.090384	-70.422098	-61.441348	152.309238	-61.441348	152.309238	-0.064901	-49.944202
3.000000	-0.091956	-71.537432	-60.990643	150.771035	-60.990643	150.771035	-0.066073	-50.751972
3.050000	-0.093540	-72.649830	-60.550260	149.224667	-60.550260	149.224667	-0.067253	-51.558160
3.100000	-0.095136	-73.759299	-60.119767	147.670907	-60.119767	147.670907	-0.068443	-52.362758
3.150000	-0.096745	-74.865846	-59.698764	146.110457	-59.698764	146.110457	-0.069641	-53.165755
3.200000	-0.098367	-75.969480	-59.286872	144.543951	-59.286872	144.543951	-0.070850	-53.967143
3.250000	-0.100004	-77.070213	-58.883740	142.971966	-58.883740	142.971966	-0.072069	-54.766913
3.300000	-0.101655	-78.168057	-58.489035	141.395029	-58.489035	141.395029	-0.073299	-55.565057
3.350000	-0.103323	-79.263025	-58.102447	139.813621	-58.102447	139.813621	-0.074539	-56.361567
3.400000	-0.105006	-80.355132	-57.723680	138.228183	-57.723680	138.228183	-0.075792	-57.156436
3.450000	-0.106707	-81.444394	-57.352459	136.639118	-57.352459	136.639118	-0.077056	-57.949658
3.500000	-0.108426	-82.530831	-56.988520	135.046800	-56.988520	135.046800	-0.078334	-58.741227
3.550000	-0.110163	-83.614459	-56.631617	133.451569	-56.631617	133.451569	-0.079624	-59.531136
3.600000	-0.111919	-84.695301	-56.281516	131.853741	-56.281516	131.853741	-0.080927	-60.319380
3.650000	-0.113696	-85.773379	-55.937994	130.253610	-55.937994	130.253610	-0.082245	-61.105955
3.700000	-0.115492	-86.848714	-55.600840	128.651445	-55.600840	128.651445	-0.083577	-61.890856
3.750000	-0.117310	-87.921333	-55.269855	127.047498	-55.269855	127.047498	-0.084923	-62.674079
3.800000	-0.119150	-88.991144	-54.944580	125.441943	-54.944580	125.441943	-0.086286	-63.455549
3.850000	-0.121013	-90.058295	-54.625123	123.835073	-54.625123	123.835073	-0.087664	-64.235334
3.900000	-0.122899	-91.122812	-54.311310	122.227088	-54.311310	122.227088	-0.089058	-65.013433
3.950000	-0.124809	-92.184727	-54.002974	120.618174	-54.002974	120.618174	-0.090469	-65.789845
4.000000	-0.126743	-93.244070	-53.699957	119.008505	-53.699957	119.008505	-0.091896	-66.564567
4.050000	-0.128702	-94.300874	-53.402108	117.398243	-53.402108	117.398243	-0.093341	-67.337598
4.100000	-0.130686	-95.355172	-53.109282	115.787540	-53.109282	115.787540	-0.094804	-68.108940
4.150000	-0.132696	-96.406999	-52.821339	114.176540	-52.821339	114.176540	-0.096285	-68.878590
4.200000	-0.134733	-97.456392	-52.538149	112.565376	-52.538149	112.565376	-0.097785	-69.646551
4.250000	-0.136797	-98.503386	-52.259583	110.954172	-52.259583	110.954172	-0.099304	-70.412824
4.300000	-0.138888	-99.548022	-51.985521	109.343046	-51.985521	109.343046	-0.100842	-71.177409
4.350000	-0.141008	-100.590336	-51.715844	107.732110	-51.715844	107.732110	-0.102401	-71.940309
4.400000	-0.143157	-101.630372	-51.450441	106.121466	-51.450441	106.121466	-0.103979	-72.701527
4.450000	-0.145334	-102.668169	-51.189205	104.511212	-51.189205	104.511212	-0.105578	-73.461065
4.500000	-0.147542	-103.703770	-50.932031	102.901441	-50.932031	102.901441	-0.107199	-74.218927
4.550000	-0.149780	-104.737220	-50.678820	101.292238	-50.678820	101.292238	-0.108841	-74.975116
4.600000	-0.152049	-105.768562	-50.429476	99.683684	-50.429476	99.683684	-0.110505	-75.729637
4.650000	-0.154348	-106.797844	-50.183907	98.075858	-50.183907	98.075858	-0.112192	-76.482495
4.700000	-0.156680	-107.825110	-49.942023	96.468830	-49.942023	96.468830	-0.113901	-77.233695
4.750000	-0.159044	-108.850410	-49.703740	94.862669	-49.703740	94.862669	-0.115634	-77.983242
4.800000	-0.161441	-109.873791	-49.468975	93.257439	-49.468975	93.257439	-0.117390	-78.731143
4.850000	-0.163870	-110.895304	-49.237647	91.653201	-49.237647	91.653201	-0.119170	-79.477404
4.900000	-0.166334	-111.914999	-49.009680	90.050011	-49.009680	90.050011	-0.120975	-80.222032
4.950000	-0.168831	-112.932927	-48.785000	88.447924	-48.785000	88.447924	-0.122805	-80.965034
5.000000	-0.171363	-113.949141	-48.563535	86.846990	-48.563535	86.846990	-0.124660	-81.706419
5.050000	-0.173932	-114.963624	-48.345115	85.247312	-48.345115	85.247312	-0.126542	-82.446124
5.100000	-0.176535	-115.976506	-48.129780	83.648884	-48.129780	83.648884	-0.128450	-83.184229
5.150000	-0.179175	-116.987841	-47.917467	82.051749	-47.917467	82.051749	-0.130385	-83.920742
5.200000	-0.181851	-117.997685	-47.708111	80.455946	-47.708111	80.455946	-0.132347	-84.655673
5.250000	-0.184564	-119.006096	-47.501653	78.861513	-47.501653	78.861513	-0.134336	-85.389033
5.300000	-0.187313	-120.013131	-47.298033	77.268485	-47.298033	77.268485	-0.136353	-86.120830
5.350000	-0.190100	-121.018848	-47.097193	75.676897	-47.097193	75.676897	-0.138398	-86.851077
5.400000	-0.192925	-122.023306	-46.899079	74.086778	-46.899079	74.086778	-0.140472	-87.579782
5.450000	-0.195788	-123.026567	-46.703637	72.498160	-46.703637	72.498160	-0.142575	-88.306959
5.500000	-0.198690	-124.028689	-46.510816	70.911070	-46.510816	70.911070	-0.144708	-89.032618
5.550000	-0.201631	-125.029736	-46.320564	69.325534	-46.320564	69.325534	-0.146870	-89.756772
5.600000	-0.204611	-126.029770	-46.132833	67.741577	-46.132833	67.741577	-0.149063	-90.479433
5.650000	-0.207631	-127.028852	-45.947576	66.159223	-45.947576	66.159223	-0.151287	-91.200613
5.700000	-0.210691	-128.027048	-45.764748	64.578494	-45.764748	64.578494	-0.153541	-91.920326
5.750000	-0.213791	-129.024422	-45.584303	62.999410	-45.584303	62.999410	-0.155828	-92.638586
5.800000	-0.216932	-130.021039	-45.406198	61.421992	-45.406198	61.421992	-0.158146	-93.355405
5.850000	-0.220114	-131.016965	-45.230393	59.846256	-45.230393	59.846256	-0.160497	-94.070798
5.900000	-0.223337	-132.012267	-45.056845	58.272221	-45.056845	58.272221	-0.162880	-94.784780
5.950000	-0.226602	-133.007012	-44.885517	56.699903	-44.885517	56.699903	-0.165297	-95.497365
6.000000	-0.229909	-134.001268	-44.716370	55.129317	-44.716370	55.129317	-0.167747	-96.208569
6.050000	-0.233259	-134.995104	-44.549366	53.560478	-44.549366	53.560478	-0.170231	-96.918406
6.100000	-0.236651	-135.988589	-44.384470	51.993399	-44.384470	51.993399	-0.172750	-97.626892
6.150000	-0.240086	-136.981793	-44.221647	50.428092	-44.221647	50.428092	-0.175303	-98.334044
6.200000	-0.243564	-137.974788	-44.060864	48.864571	-44.060864	48.864571	-0.177892	-99.039877
6.250000	-0.247086	-138.967644	-43.902086	47.302846	-43.902086	47.302846	-0.180517	-99.744408
6.300000	-0.250653	-139.960434	-43.745245	45.743007	-43.745245	45.743007	-0.183179	-100.447599
6.350000	-0.254264	-140.953237	-43.590351	44.184986	-43.590351	44.184986	-0.185877	-101.149524
6.400000	-0.257920	-141.946126	-43.437374	42.628792	-43.437374	42.628792	-0.188613	-101.850201
6.450000	-0.261620	-142.939175	-43.286283	41.074434	-43.286283	41.074434	-0.191385	-102.549646
6.500000	-0.265365	-143.932459	-43.137051	39.521922	-43.137051	39.521922	-0.194196	-103.247879
6.550000	-0.269155	-144.926053	-42.989650	37.971262	-42.989650	37.971262	-0.197044	-103.944917
6.600000	-0.272990	-145.920033	-42.844053	36.422463	-42.844053	36.422463	-0.199931	-104.640779
6.650000	-0.276871	-146.914476	-42.700233	34.875532	-42.700233	34.875532	-0.202857	-105.335484
6.700000	-0.280797	-147.909458	-42.558166	33.330477	-42.558166	33.330477	-0.205822	-106.029052
6.750000	-0.284769	-148.905057	-42.417827	31.787303	-42.417827	31.787303	-0.208826	-106.721501
6.800000	-0.288787	-149.901351	-42.279192	30.246018	-42.279192	30.246018	-0.211871	-107.412851
6.850000	-0.292851	-150.898420	-42.142237	28.706628	-42.142237	28.706628	-0.214956	-108.103122
6.900000	-0.296962	-151.896342	-42.006941	27.169139	-42.006941	27.169139	-0.218081	-108.792335
6.950000	-0.301119	-152.895198	-41.873281	25.633557	-41.873281	25.633557	-0.221248	-109.480510
7.000000	-0.305322	-153.895067	-41.741236	24.099888	-41.741236	24.099888	-0.224456	-110.167668
7.050000	-0.309573	-154.896033	-41.610786	22.568139	-41.610786	22.568139	-0.227706	-110.853829
7.100000	-0.313870	-155.898175	-41.481910	21.038315	-41.481910	21.038315	-0.230998	-111.539015
7.150000	-0.318214	-156.901576	-41.354590	19.510421	-41.354590	19.510421	-0.234333	-112.223247
7.200000	-0.322606	-157.906319	-41.228805	17.984464	-41.228805	17.984464	-0.237711	-112.906548
7.250000	-0.327044	-158.912488	-41.104539	16.460450	-41.104539	16.460450	-0.241132	-113.588938
7.300000	-0.331530	-159.920165	-40.981773	14.938385	-40.981773	14.938385	-0.244597	-114.270441
7.350000	-0.336063	-160.929436	-40.860489	13.418275	-40.860489	13.418275	-0.248105	-114.951078
7.400000	-0.340643	-161.940385	-40.740673	11.900126	-40.740673	11.900126	-0.251658	-115.630873
7.450000	-0.345270	-162.953097	-40.622306	10.383945	-40.622306	10.383945	-0.255256	-116.309848
7.500000	-0.349945	-163.967659	-40.505374	8.869737	-40.505374	8.869737	-0.258898	-116.988026
7.550000	-0.354669	-164.984244	-40.389857	7.357597	-40.389857	7.357597	-0.262587	-117.665400
7.600000	-0.359441	-166.002860	-40.275746	5.847446	-40.275746	5.847446	-0.266323	-118.342026
7.650000	-0.364259	-167.023593	-40.163027	4.339291	-40.163027	4.339291	-0.270104	-119.017928
7.700000	-0.369125	-168.046532	-40.051686	2.833140	-40.051686	2.833140	-0.273931	-119.693132
7.750000	-0.374038	-169.071764	-39.941710	1.329001	-39.941710	1.329001	-0.277805	-120.367662
7.800000	-0.378997	-170.099378	-39.833086	-0.173119	-39.833086	-0.173119	-0.281725	-121.041541
7.850000	-0.384004	-171.129463	-39.725801	-1.673210	-39.725801	-1.673210	-0.285693	-121.714795
7.900000	-0.389057	-172.162109	-39.619843	-3.171263	-39.619843	-3.171263	-0.289707	-122.387450
7.950000	-0.394156	-173.197404	-39.515200	-4.667269	-39.515200	-4.667269	-0.293770	-123.059530
8.000000	-0.399302	-174.235439	-39.411860	-6.161218	-39.411860	-6.161218	-0.297880	-123.731061
8.050000	-0.404494	-175.276304	-39.309812	-7.653100	-39.309812	-7.653100	-0.302039	-124.402070
8.100000	-0.409732	-176.320089	-39.209046	-9.142903	-39.209046	-9.142903	-0.306245	-125.072581
8.150000	-0.415015	-177.366887	-39.109551	-10.630618	-39.109551	-10.630618	-0.310501	-125.742623
8.200000	-0.420343	-178.416787	-39.011316	-12.116231	-39.011316	-12.116231	-0.314805	-126.412220
8.250000	-0.425716	-179.469882	-38.914333	-13.599731	-38.914333	-13.599731	-0.319158	-127.081401
8.300000	-0.431134	179.473739	-38.818591	-15.081105	-38.818591	-15.081105	-0.323560	-127.750192
8.350000	-0.436596	178.413981	-38.724082	-16.560339	-38.724082	-16.560339	-0.328012	-128.418621
8.400000	-0.442102	177.350755	-38.630796	-18.037420	-38.630796	-18.037420	-0.332513	-129.086715
8.450000	-0.447651	176.283968	-38.538725	-19.512333	-38.538725	-19.512333	-0.337064	-129.754502
8.500000	-0.453242	175.213528	-38.447860	-20.985063	-38.447860	-20.985063	-0.341665	-130.422010
8.550000	-0.458877	174.139343	-38.358194	-22.455594	-38.358194	-22.455594	-0.346317	-131.089268
8.600000	-0.464552	173.061322	-38.269719	-23.923909	-38.269719	-23.923909	-0.351018	-131.756304
8.650000	-0.470269	171.979372	-38.182426	-25.389992	-38.182426	-25.389992	-0.355770	-132.423148
8.700000	-0.476027	170.893401	-38.096309	-26.853825	-38.096309	-26.853825	-0.360572	-133.089828
8.750000	-0.481824	169.803319	-38.011361	-28.315390	-38.011361	-28.315390	-0.365425	-133.756375
8.800000	-0.487662	168.708846	-37.927590	-29.774567	-37.927590	-29.774567	-0.370330	-134.422814
8.850000	-0.493538	167.610070	-37.844976	-31.231435	-37.844976	-31.231435	-0.375287	-135.089181
8.900000	-0.499452	166.506901	-37.763511	-32.685973	-37.763511	-32.685973	-0.380294	-135.755507
8.950000	-0.505402	165.399248	-37.683190	-34.138160	-37.683190	-34.138160	-0.385352	-136.421823
9.000000	-0.511388	164.287021	-37.604006	-35.587974	-37.604006	-35.587974	-0.390461	-137.088159
9.050000	-0.517410	163.170131	-37.525953	-37.035393	-37.525953	-37.035393	-0.395621	-137.754547
9.100000	-0.523465	162.048489	-37.449027	-38.480392	-37.449027	-38.480392	-0.400832	-138.421017
9.150000	-0.529553	160.922007	-37.373220	-39.922949	-37.373220	-39.922949	-0.406093	-139.087603
9.200000	-0.535672	159.790597	-37.298527	-41.363037	-37.298527	-41.363037	-0.411406	-139.754336
9.250000	-0.541823	158.654173	-37.224943	-42.800631	-37.224943	-42.800631	-0.416769	-140.421248
9.300000	-0.548003	157.512649	-37.152464	-44.235706	-37.152464	-44.235706	-0.422184	-141.088372
9.350000	-0.554211	156.365939	-37.081082	-45.668233	-37.081082	-45.668233	-0.427649	-141.755741
9.400000	-0.560447	155.213961	-37.010795	-47.098184	-37.010795	-47.098184	-0.433164	-142.423388
9.450000	-0.566708	154.056632	-36.941596	-48.525532	-36.941596	-48.525532	-0.438730	-143.091348
9.500000	-0.572994	152.893870	-36.873481	-49.950247	-36.873481	-49.950247	-0.444347	-143.759654
9.550000	-0.579302	151.725595	-36.806445	-51.372299	-36.806445	-51.372299	-0.450013	-144.428340
9.600000	-0.585632	150.551728	-36.740484	-52.791656	-36.740484	-52.791656	-0.455730	-145.097442
9.650000	-0.591981	149.372193	-36.675592	-54.208288	-36.675592	-54.208288	-0.461496	-145.766993
9.700000	-0.598349	148.186914	-36.611766	-55.622163	-36.611766	-55.622163	-0.467312	-146.437031
9.750000	-0.604733	146.995816	-36.549001	-57.033246	-36.549001	-57.033246	-0.473177	-147.107589
9.800000	-0.611132	145.798830	-36.487293	-58.441505	-36.487293	-58.441505	-0.479092	-147.778705
9.850000	-0.617544	144.595883	-36.426636	-59.846906	-36.426636	-59.846906	-0.485055	-148.450414
9.900000	-0.623966	143.386910	-36.367028	-61.249413	-36.367028	-61.249413	-0.491067	-149.122754
9.950000	-0.630399	142.171844	-36.308463	-62.648991	-36.308463	-62.648991	-0.497126	-149.795761
10.000000	-0.636838	140.950622	-36.250937	-64.045604	-36.250937	-64.045604	-0.503234	-150.469474
