! freq	dB(S11)	phase(S11)	dB(S12)	phase(S12)	
!     	dB(S21)	phase(S21)	dB(S22)	phase(S22)	
!S-par simulation data
#  GHz  S  DB  R 50
0.000000	-80.438300	0.000000	-0.000826	0.000000	-0.000826	0.000000	-80.438300	0.000000
0.050000	-44.601611	-78.038694	-0.021701	-2.988622	-0.021701	-2.988622	-44.836345	-76.938264
0.100000	-38.677079	-82.526030	-0.034995	-5.976877	-0.034995	-5.976877	-38.736594	-82.106521
0.150000	-35.258576	-86.911467	-0.045968	-8.956812	-0.045968	-8.956812	-35.249470	-86.729282
0.200000	-32.854531	-91.423119	-0.056160	-11.921850	-0.056160	-11.921850	-32.840036	-91.185432
0.250000	-30.993521	-95.764602	-0.065639	-14.877860	-0.065639	-14.877860	-30.989219	-95.412305
0.300000	-29.473361	-99.877054	-0.074480	-17.830026	-0.074480	-17.830026	-29.479154	-99.415208
0.350000	-28.189065	-103.790529	-0.082830	-20.781399	-0.082830	-20.781399	-28.201345	-103.232286
0.400000	-27.078801	-107.544525	-0.090827	-23.733432	-0.090827	-23.733432	-27.094010	-106.900191
0.450000	-26.102910	-111.172656	-0.098584	-26.686715	-0.098584	-26.686715	-26.118303	-110.448824
0.500000	-25.233846	-114.706439	-0.106193	-29.641276	-0.106193	-29.641276	-25.247649	-113.906623
0.550000	-24.451939	-118.167335	-0.113719	-32.596935	-0.113719	-32.596935	-24.463122	-117.293078
0.600000	-23.742610	-121.571026	-0.121210	-35.553443	-0.121210	-35.553443	-23.750683	-120.622495
0.650000	-23.094871	-124.928709	-0.128703	-38.510546	-0.128703	-38.510546	-23.099717	-123.905017
0.700000	-22.499960	-128.249944	-0.136227	-41.468008	-0.136227	-41.468008	-22.501728	-127.149381
0.750000	-21.950818	-131.542087	-0.143802	-44.425646	-0.143802	-44.425646	-21.949815	-130.362311
0.800000	-21.441804	-134.810435	-0.151445	-47.383335	-0.151445	-47.383335	-21.438419	-133.548569
0.850000	-20.968545	-138.058585	-0.159168	-50.340999	-0.159168	-50.340999	-20.963211	-136.711164
0.900000	-20.526766	-141.290881	-0.166977	-53.298614	-0.166977	-53.298614	-20.519905	-139.854235
0.950000	-20.113314	-144.509665	-0.174877	-56.256194	-0.174877	-56.256194	-20.105327	-142.979764
1.000000	-19.725367	-147.717153	-0.182869	-59.213791	-0.182869	-59.213791	-19.716615	-146.089731
1.050000	-19.360477	-150.915165	-0.190954	-62.171486	-0.190954	-62.171486	-19.351274	-149.185789
1.100000	-19.016500	-154.105213	-0.199132	-65.129389	-0.199132	-65.129389	-19.007109	-152.269338
1.150000	-18.691544	-157.288563	-0.207399	-68.087631	-0.207399	-68.087631	-18.682175	-155.341582
1.200000	-18.383915	-160.466289	-0.215755	-71.046362	-0.215755	-71.046362	-18.374732	-158.403579
1.250000	-18.092094	-163.639304	-0.224196	-74.005748	-0.224196	-74.005748	-18.083212	-161.456267
1.300000	-17.814802	-166.808331	-0.232723	-76.965989	-0.232723	-76.965989	-17.806298	-164.500327
1.350000	-17.550656	-169.974155	-0.241332	-79.927260	-0.241332	-79.927260	-17.542570	-167.536732
1.400000	-17.298495	-173.137381	-0.250023	-82.889758	-0.250023	-82.889758	-17.290837	-170.566195
1.450000	-17.057240	-176.298549	-0.258798	-85.853687	-0.258798	-85.853687	-17.049999	-173.589382
1.500000	-16.825890	-179.458146	-0.267657	-88.819252	-0.267657	-88.819252	-16.819039	-176.606922
1.550000	-16.603508	177.383384	-0.276605	-91.786666	-0.276605	-91.786666	-16.597005	-179.619411
1.600000	-16.389210	174.225632	-0.285646	-94.756138	-0.285646	-94.756138	-16.383010	177.372580
1.650000	-16.182168	171.068220	-0.294787	-97.727881	-0.294787	-97.727881	-16.176221	174.368504
1.700000	-15.981595	167.910798	-0.304037	-100.702105	-0.304037	-100.702105	-15.975854	171.367832
1.750000	-15.786749	164.753040	-0.313404	-103.679020	-0.313404	-103.679020	-15.781170	168.370054
1.800000	-15.596923	161.594643	-0.322902	-106.658831	-0.322902	-106.658831	-15.591470	165.374677
1.850000	-15.411449	158.435327	-0.332544	-109.641740	-0.332544	-109.641740	-15.406093	162.381218
1.900000	-15.229685	155.274822	-0.342346	-112.627983	-0.342346	-112.627983	-15.224408	159.389224
1.950000	-15.051014	152.112888	-0.352326	-115.617759	-0.352326	-115.617759	-15.045807	156.398227
2.000000	-14.874869	148.949335	-0.362502	-118.611217	-0.362502	-118.611217	-14.869733	153.407770
2.050000	-14.700714	145.783986	-0.372894	-121.608536	-0.372894	-121.608536	-14.695660	150.417428
2.100000	-14.528044	142.616694	-0.383525	-124.609889	-0.383525	-124.609889	-14.523091	147.426787
2.150000	-14.356387	139.447343	-0.394419	-127.615440	-0.394419	-127.615440	-14.351561	144.435447
2.200000	-14.185301	136.275847	-0.405601	-130.625343	-0.405601	-130.625343	-14.180635	141.443021
2.250000	-14.014378	133.102156	-0.417100	-133.639747	-0.417100	-133.639747	-14.009908	138.449135
2.300000	-13.843243	129.926250	-0.428944	-136.658787	-0.428944	-136.658787	-13.839008	135.453432
2.350000	-13.671554	126.748145	-0.441164	-139.682592	-0.441164	-139.682592	-13.667593	132.455569
2.400000	-13.499002	123.567889	-0.453793	-142.711277	-0.453793	-142.711277	-13.495353	129.455218
2.450000	-13.325311	120.385563	-0.466865	-145.744949	-0.466865	-145.744949	-13.322011	126.452070
2.500000	-13.150241	117.201279	-0.480415	-148.783700	-0.480415	-148.783700	-13.147322	123.445834
2.550000	-12.973467	114.015141	-0.494493	-151.827725	-0.494493	-151.827725	-12.970957	120.436158
2.600000	-12.794925	110.827362	-0.509128	-154.876980	-0.509128	-154.876980	-12.792844	117.422859
2.650000	-12.614477	107.638133	-0.524360	-157.931517	-0.524360	-157.931517	-12.612841	114.405709
2.700000	-12.432023	104.447669	-0.540232	-160.991374	-0.540232	-160.991374	-12.430836	111.384503
2.750000	-12.247491	101.256200	-0.556787	-164.056570	-0.556787	-164.056570	-12.246754	108.359061
2.800000	-12.060846	98.063970	-0.574071	-167.127108	-0.574071	-167.127108	-12.060550	105.329227
2.850000	-11.872083	94.871237	-0.592130	-170.202974	-0.592130	-170.202974	-11.872212	102.294877
2.900000	-11.681227	91.678264	-0.611012	-173.284132	-0.611012	-173.284132	-11.681760	99.255911
2.950000	-11.488335	88.485320	-0.630766	-176.370526	-0.630766	-176.370526	-11.489244	96.212264
3.000000	-11.293490	85.292678	-0.651443	-179.462077	-0.651443	-179.462077	-11.294743	93.163901
3.050000	-11.096802	82.100611	-0.673094	177.441316	-0.673094	177.441316	-11.098363	90.110821
3.100000	-10.898408	78.909390	-0.695772	174.339783	-0.695772	174.339783	-10.900236	87.053059
3.150000	-10.698400	75.719302	-0.719540	171.233427	-0.719540	171.233427	-10.700454	83.990636
3.200000	-10.496963	72.530623	-0.744455	168.122439	-0.744455	168.122439	-10.499200	80.923667
3.250000	-10.294365	69.343609	-0.770557	165.007085	-0.770557	165.007085	-10.296742	77.852352
3.300000	-10.090824	66.158525	-0.797901	161.887611	-0.797901	161.887611	-10.093301	74.776882
3.350000	-9.886575	62.975635	-0.826539	158.764296	-0.826539	158.764296	-9.889110	71.697489
3.400000	-9.681862	59.795207	-0.856523	155.637452	-0.856523	155.637452	-9.684418	68.614446
3.450000	-9.476945	56.617512	-0.887904	152.507424	-0.887904	152.507424	-9.479486	65.528068
3.500000	-9.272087	53.442827	-0.920730	149.374595	-0.920730	149.374595	-9.274582	62.438712
3.550000	-9.067563	50.271436	-0.955049	146.239382	-0.955049	146.239382	-9.069981	59.346778
3.600000	-8.863647	47.103636	-0.990904	143.102237	-0.990904	143.102237	-8.865963	56.252705
3.650000	-8.660619	43.939737	-1.028337	139.963652	-1.028337	139.963652	-8.662810	53.156976
3.700000	-8.458759	40.780064	-1.067383	136.824148	-1.067383	136.824148	-8.460803	50.060111
3.750000	-8.258344	37.624959	-1.108076	133.684287	-1.108076	133.684287	-8.260222	46.962670
3.800000	-8.059593	34.474903	-1.150475	130.544679	-1.150475	130.544679	-8.061289	43.865262
3.850000	-7.862846	31.330179	-1.194571	127.405958	-1.194571	127.405958	-7.864344	40.768533
3.900000	-7.668366	28.191195	-1.240379	124.268779	-1.240379	124.268779	-7.669650	37.673144
3.950000	-7.476407	25.058378	-1.287907	121.133822	-1.287907	121.133822	-7.477462	34.579786
4.000000	-7.287211	21.932178	-1.337157	118.001794	-1.337157	118.001794	-7.288022	31.489175
4.050000	-7.101011	18.813062	-1.388123	114.873417	-1.388123	114.873417	-7.101563	28.402046
4.100000	-6.918028	15.701518	-1.440791	111.749432	-1.440791	111.749432	-6.918305	25.319150
4.150000	-6.738469	12.598048	-1.495137	108.630591	-1.495137	108.630591	-6.738451	22.241251
4.200000	-6.562525	9.503167	-1.551131	105.517651	-1.551131	105.517651	-6.562194	19.169121
4.250000	-6.390375	6.417398	-1.608731	102.411374	-1.608731	102.411374	-6.389711	16.103533
4.300000	-6.222180	3.341270	-1.667888	99.312516	-1.667888	99.312516	-6.221161	13.045256
4.350000	-6.058088	0.275311	-1.728541	96.221826	-1.728541	96.221826	-6.056691	9.995054
4.400000	-5.898245	-2.779833	-1.790631	93.140143	-1.790631	93.140143	-5.896447	6.953779
4.450000	-5.742775	-5.823632	-1.854077	90.068205	-1.854077	90.068205	-5.740550	3.922185
4.500000	-5.591762	-8.855706	-1.918779	87.006604	-1.918779	87.006604	-5.589086	0.900880
4.550000	-5.445287	-11.875578	-1.984639	83.955995	-1.984639	83.955995	-5.442137	-2.109463
4.600000	-5.303418	-14.882802	-2.051553	80.917001	-2.051553	80.917001	-5.299770	-5.108203
4.650000	-5.166205	-17.876959	-2.119405	77.890200	-2.119405	77.890200	-5.162038	-8.094742
4.700000	-5.033685	-20.857672	-2.188074	74.876126	-2.188074	74.876126	-5.028979	-11.068521
4.750000	-4.905884	-23.824603	-2.257430	71.875265	-2.257430	71.875265	-4.900620	-14.029034
4.800000	-4.782811	-26.777460	-2.327336	68.888047	-2.327336	68.888047	-4.776975	-16.975823
4.850000	-4.664467	-29.716004	-2.397651	65.914844	-2.397651	65.914844	-4.658045	-19.908486
4.900000	-4.550840	-32.640049	-2.468225	62.955969	-2.468225	62.955969	-4.543823	-22.826679
4.950000	-4.441909	-35.549464	-2.538908	60.011671	-2.538908	60.011671	-4.434290	-25.730118
5.000000	-4.337643	-38.444181	-2.609540	57.082136	-2.609540	57.082136	-4.329419	-28.618584
5.050000	-4.238082	-41.323873	-2.679942	54.167804	-2.679942	54.167804	-4.229252	-31.491587
5.100000	-4.143106	-44.188922	-2.749963	51.268399	-2.749963	51.268399	-4.133674	-34.349369
5.150000	-4.052665	-47.039454	-2.819439	48.383894	-2.819439	48.383894	-4.042637	-37.191908
5.200000	-3.966703	-49.875660	-2.888202	45.514195	-2.888202	45.514195	-3.956087	-40.019253
5.250000	-3.885161	-52.697799	-2.956086	42.659135	-2.956086	42.659135	-3.873967	-42.831519
5.300000	-3.807977	-55.506196	-3.022923	39.818481	-3.022923	39.818481	-3.796219	-45.628888
5.350000	-3.735087	-58.301240	-3.088547	36.991926	-3.088547	36.991926	-3.722779	-48.411611
5.400000	-3.666428	-61.083388	-3.152792	34.179097	-3.152792	34.179097	-3.653585	-51.180004
5.450000	-3.601934	-63.853162	-3.215495	31.379554	-3.215495	31.379554	-3.588572	-53.934447
5.500000	-3.541543	-66.611145	-3.276495	28.592788	-3.276495	28.592788	-3.527677	-56.675388
5.550000	-3.485191	-69.357987	-3.335632	25.818225	-3.335632	25.818225	-3.470838	-59.403336
5.600000	-3.432820	-72.094397	-3.392751	23.055228	-3.392751	23.055228	-3.417994	-62.118865
5.650000	-3.384411	-74.821051	-3.447673	20.303205	-3.447673	20.303205	-3.369126	-64.822488
5.700000	-3.339911	-77.538810	-3.500244	17.561365	-3.500244	17.561365	-3.324178	-67.514925
5.750000	-3.299230	-80.248673	-3.550349	14.828762	-3.550349	14.828762	-3.283061	-70.197061
5.800000	-3.262325	-82.951593	-3.597850	12.104510	-3.597850	12.104510	-3.245725	-72.869711
5.850000	-3.229154	-85.648578	-3.642614	9.387663	-3.642614	9.387663	-3.212130	-75.533746
5.900000	-3.199684	-88.340696	-3.684511	6.677222	-3.684511	6.677222	-3.182237	-78.190091
5.950000	-3.173886	-91.029068	-3.723421	3.972127	-3.723421	3.972127	-3.156016	-80.839728
6.000000	-3.151739	-93.714875	-3.759225	1.271267	-3.759225	1.271267	-3.133443	-83.483691
6.050000	-3.133228	-96.399351	-3.791814	-1.426524	-3.791814	-1.426524	-3.114498	-86.123065
6.100000	-3.118344	-99.083787	-3.821083	-4.122468	-3.821083	-4.122468	-3.099171	-88.758988
6.150000	-3.107086	-101.769534	-3.846934	-6.817838	-3.846934	-6.817838	-3.087460	-91.392651
6.200000	-3.099464	-104.457996	-3.869277	-9.513959	-3.869277	-9.513959	-3.079369	-94.025293
6.250000	-3.095491	-107.150640	-3.888029	-12.212211	-3.888029	-12.212211	-3.074911	-96.658205
6.300000	-3.095274	-109.849151	-3.903032	-14.914137	-3.903032	-14.914137	-3.074190	-99.292795
6.350000	-3.098767	-112.555030	-3.914297	-17.621178	-3.914297	-17.621178	-3.077158	-101.930451
6.400000	-3.106014	-115.269930	-3.921765	-20.334873	-3.921765	-20.334873	-3.083858	-104.572617
6.450000	-3.117067	-117.995569	-3.925387	-23.056815	-3.925387	-23.056815	-3.094343	-107.220787
6.500000	-3.131990	-120.733734	-3.925120	-25.788647	-3.925120	-25.788647	-3.108675	-109.876504
6.550000	-3.150858	-123.486278	-3.920932	-28.532066	-3.920932	-28.532066	-3.126928	-112.541360
6.600000	-3.173755	-126.255127	-3.912804	-31.288820	-3.912804	-31.288820	-3.149188	-115.216999
6.650000	-3.200778	-129.042281	-3.900723	-34.060709	-3.900723	-34.060709	-3.175553	-117.905112
6.700000	-3.232032	-131.849791	-3.884694	-36.849565	-3.884694	-36.849565	-3.206128	-120.607423
6.750000	-3.267666	-134.679979	-3.864704	-39.657431	-3.864704	-39.657431	-3.241064	-123.325845
6.800000	-3.307772	-137.534863	-3.840817	-42.486077	-3.840817	-42.486077	-3.280455	-126.062061
6.850000	-3.352497	-140.416740	-3.813072	-45.337483	-3.813072	-45.337483	-3.324449	-128.817941
6.900000	-3.402076	-143.328541	-3.781457	-48.214139	-3.781457	-48.214139	-3.373285	-131.595808
6.950000	-3.456688	-146.272859	-3.746044	-51.118220	-3.746044	-51.118220	-3.427142	-134.397722
7.000000	-3.516436	-149.251752	-3.706987	-54.051409	-3.706987	-54.051409	-3.486128	-137.225321
7.050000	-3.581518	-152.267877	-3.664390	-57.015860	-3.664390	-57.015860	-3.550440	-140.080660
7.100000	-3.652142	-155.323984	-3.618376	-60.013756	-3.618376	-60.013756	-3.620289	-142.965836
7.150000	-3.728525	-158.422916	-3.569085	-63.047308	-3.569085	-63.047308	-3.695896	-145.882986
7.200000	-3.810945	-161.568031	-3.516653	-66.119094	-3.516653	-66.119094	-3.777537	-148.834600
7.250000	-3.899733	-164.763328	-3.461212	-69.232142	-3.461212	-69.232142	-3.865548	-151.823605
7.300000	-3.994997	-168.010748	-3.403057	-72.387715	-3.403057	-72.387715	-3.960035	-154.851360
7.350000	-4.096977	-171.313515	-3.342418	-75.588057	-3.342418	-75.588057	-4.061242	-157.920144
7.400000	-4.205916	-174.674939	-3.279549	-78.835394	-3.279549	-78.835394	-4.169412	-161.032263
7.450000	-4.322045	-178.098418	-3.214727	-82.131922	-3.214727	-82.131922	-4.284781	-164.190052
7.500000	-4.445584	178.412569	-3.148254	-85.479797	-3.148254	-85.479797	-4.407571	-167.395876
7.550000	-4.576924	174.851965	-3.080402	-88.883029	-3.080402	-88.883029	-4.538182	-170.653946
7.600000	-4.716026	171.218409	-3.011599	-92.341862	-3.011599	-92.341862	-4.676585	-173.965028
7.650000	-4.863002	167.508210	-2.942219	-95.858232	-2.942219	-95.858232	-4.822906	-177.331594
7.700000	-5.017905	163.717621	-2.872661	-99.433976	-2.872661	-99.433976	-4.977220	179.243834
7.750000	-5.180708	159.842858	-2.803344	-103.070815	-2.803344	-103.070815	-5.139532	175.758668
7.800000	-5.351287	155.880109	-2.734707	-106.770343	-2.734707	-106.770343	-5.309760	172.210232
7.850000	-5.529484	151.823085	-2.667234	-110.535712	-2.667234	-110.535712	-5.487811	168.593953
7.900000	-5.714800	147.669422	-2.601405	-114.367169	-2.601405	-114.367169	-5.673260	164.907908
7.950000	-5.906614	143.416169	-2.537699	-118.265308	-2.537699	-118.265308	-5.865584	161.149519
8.000000	-6.104127	139.059684	-2.476609	-122.231124	-2.476609	-122.231124	-6.064107	157.315398
8.050000	-6.306297	134.596485	-2.418635	-126.265462	-2.418635	-126.265462	-6.267939	153.401857
8.100000	-6.511800	130.023329	-2.364279	-130.369029	-2.364279	-130.369029	-6.475939	149.404853
8.150000	-6.718914	125.335333	-2.314119	-134.543613	-2.314119	-134.543613	-6.686618	145.318329
8.200000	-6.925550	120.529993	-2.268686	-138.789700	-2.268686	-138.789700	-6.898143	141.137105
8.250000	-7.129405	115.607564	-2.228413	-143.106455	-2.228413	-143.106455	-7.108463	136.857244
8.300000	-7.327742	110.567231	-2.193800	-147.494187	-2.193800	-147.494187	-7.315125	132.472791
8.350000	-7.517468	105.409291	-2.165343	-151.953164	-2.165343	-151.953164	-7.515312	127.977347
8.400000	-7.695155	100.135416	-2.143542	-156.483641	-2.143542	-156.483641	-7.705848	123.364176
8.450000	-7.856915	94.747981	-2.128970	-161.086496	-2.128970	-161.086496	-7.883053	118.625260
8.500000	-7.998361	89.250581	-2.122296	-165.763259	-2.122296	-165.763259	-8.042666	113.751335
8.550000	-8.116078	83.653484	-2.123871	-170.512373	-2.123871	-170.512373	-8.181165	108.739488
8.600000	-8.206277	77.966104	-2.134254	-175.334138	-2.134254	-175.334138	-8.294525	103.584617
8.650000	-8.265477	72.199769	-2.154043	179.771166	-2.154043	179.771166	-8.378828	98.283210
8.700000	-8.290710	66.367412	-2.183871	174.803335	-2.183871	174.803335	-8.430452	92.833900
8.750000	-8.279704	60.483063	-2.224425	169.762313	-2.224425	169.762313	-8.446276	87.237964
8.800000	-8.229725	54.560383	-2.276850	164.645788	-2.276850	164.645788	-8.422524	81.495035
8.850000	-8.141684	48.615247	-2.341570	159.456874	-2.341570	159.456874	-8.359023	75.617954
8.900000	-8.016780	42.660676	-2.419255	154.197573	-2.419255	154.197573	-8.255974	69.619033
8.950000	-7.855653	36.708069	-2.511161	148.867608	-2.511161	148.867608	-8.113019	63.508627
9.000000	-7.661544	30.766967	-2.618034	143.470476	-2.618034	143.470476	-7.932731	57.304314
9.050000	-7.438076	24.844620	-2.740769	138.009771	-2.740769	138.009771	-7.718311	51.023708
9.100000	-7.189562	18.946228	-2.880213	132.490181	-2.880213	132.490181	-7.473956	44.685234
9.150000	-6.920813	13.075298	-3.037124	126.917563	-3.037124	126.917563	-7.204637	38.307443
9.200000	-6.636741	7.234463	-3.212257	121.298596	-3.212257	121.298596	-6.915620	31.908431
9.250000	-6.342749	1.425327	-3.405935	115.641847	-3.405935	115.641847	-6.612894	25.505927
9.300000	-6.044061	-4.350603	-3.618215	109.956690	-3.618215	109.956690	-6.302352	19.116214
9.350000	-5.745529	-10.091293	-3.848900	104.252967	-3.848900	104.252967	-5.989515	12.754281
9.400000	-5.451625	-15.794062	-4.097409	98.540876	-4.097409	98.540876	-5.679484	6.433870
9.450000	-5.166319	-21.455758	-4.362689	92.830479	-4.362689	92.830479	-5.376808	0.167030
9.500000	-4.893095	-27.071608	-4.643364	87.131530	-4.643364	87.131530	-5.085425	-6.034185
9.550000	-4.634877	-32.637068	-4.937375	81.452746	-4.937375	81.452746	-4.808672	-12.160087
9.600000	-4.394056	-38.146879	-5.242162	75.801513	-5.242162	75.801513	-4.549264	-18.201737
9.650000	-4.172287	-43.596727	-5.554642	70.182848	-5.554642	70.182848	-4.309128	-24.152965
9.700000	-3.970883	-48.981843	-5.871145	64.599979	-5.871145	64.599979	-4.089790	-30.007762
9.750000	-3.790832	-54.297766	-6.187234	59.053824	-6.187234	59.053824	-3.892420	-35.761032
9.800000	-3.632378	-59.542459	-6.498057	53.541840	-6.498057	53.541840	-3.717419	-41.411278
9.850000	-3.495727	-64.713941	-6.797801	48.059311	-6.797801	48.059311	-3.565125	-46.956822
9.900000	-3.381109	-69.810576	-7.079268	42.598909	-7.079268	42.598909	-3.435888	-52.396057
9.950000	-3.288060	-74.833973	-7.334800	37.150085	-7.334800	37.150085	-3.329316	-57.731379
10.000000	-3.216349	-79.785711	-7.554806	31.700412	-7.554806	31.700412	-3.245224	-62.964486
