! freq	dB(S11)	phase(S11)	dB(S12)	phase(S12)	
!     	dB(S21)	phase(S21)	dB(S22)	phase(S22)	
!S-par simulation data
#  GHz  S  DB  R 50
0.000000	-0.000000	0.000000	-356.359653	0.000000	-356.359653	0.000000	0.000000	0.000000
0.050000	-0.000082	-0.811233	-116.822328	103.459530	-116.822328	103.459530	-0.000082	-0.811276
0.100000	-0.000324	-1.622302	-110.998666	95.956448	-110.998666	95.956448	-0.000327	-1.622385
0.150000	-0.000722	-2.433050	-107.590851	93.062194	-107.590851	93.062194	-0.000728	-2.433170
0.200000	-0.001264	-3.243340	-105.222587	91.377492	-105.222587	91.377492	-0.001273	-3.243490
0.250000	-0.001947	-4.053004	-103.451134	90.245049	-103.451134	90.245049	-0.001961	-4.053178
0.300000	-0.002745	-4.861989	-102.066232	89.402442	-102.066232	89.402442	-0.002764	-4.862178
0.350000	-0.003649	-5.670180	-100.964877	88.792379	-100.964877	88.792379	-0.003672	-5.670377
0.400000	-0.004643	-6.477505	-100.084343	88.388581	-100.084343	88.388581	-0.004672	-6.477703
0.450000	-0.005713	-7.283911	-99.385405	88.194234	-99.385405	88.194234	-0.005746	-7.284103
0.500000	-0.006844	-8.089363	-98.842618	88.232500	-98.842618	88.232500	-0.006880	-8.089544
0.550000	-0.008021	-8.893837	-98.439180	88.544358	-98.439180	88.544358	-0.008060	-8.894004
0.600000	-0.009233	-9.697326	-98.163921	89.190382	-98.163921	89.190382	-0.009274	-9.697475
0.650000	-0.010469	-10.499829	-98.009209	90.255498	-98.009209	90.255498	-0.010511	-10.499959
0.700000	-0.011718	-11.301354	-97.969071	91.856652	-97.969071	91.856652	-0.011761	-11.301465
0.750000	-0.012974	-12.101912	-98.036848	94.153328	-98.036848	94.153328	-0.013016	-12.102004
0.800000	-0.014229	-12.901519	-98.201482	97.359498	-98.201482	97.359498	-0.014269	-12.901594
0.850000	-0.015477	-13.700189	-98.441168	101.750989	-98.441168	101.750989	-0.015516	-13.700250
0.900000	-0.016716	-14.497940	-98.712982	107.650626	-98.712982	107.650626	-0.016753	-14.497989
0.950000	-0.017942	-15.294784	-98.939165	115.353545	-98.939165	115.353545	-0.017976	-15.294824
1.000000	-0.019153	-16.090736	-98.998898	124.946041	-98.998898	124.946041	-0.019184	-16.090770
1.050000	-0.020347	-16.885805	-98.748324	136.040039	-98.748324	136.040039	-0.020375	-16.885837
1.100000	-0.021524	-17.679999	-98.086427	147.641992	-98.086427	147.641992	-0.021549	-17.680031
1.150000	-0.022684	-18.473324	-97.025136	158.477150	-97.025136	158.477150	-0.022706	-18.473359
1.200000	-0.023827	-19.265780	-95.680511	167.624981	-95.680511	167.624981	-0.023846	-19.265822
1.250000	-0.024954	-20.057370	-94.194159	174.813832	-94.194159	174.813832	-0.024970	-20.057419
1.300000	-0.026065	-20.848050	-92.663460	-179.838064	-92.663460	-179.838064	-0.026078	-20.848110
1.350000	-0.027160	-21.637855	-91.165061	-175.904020	-91.165061	-175.904020	-0.027171	-21.637926
1.400000	-0.028243	-22.426776	-89.727409	-173.065448	-89.727409	-173.065448	-0.028251	-22.426861
1.450000	-0.029313	-23.214804	-88.360905	-171.065442	-88.360905	-171.065442	-0.029319	-23.214904
1.500000	-0.030372	-24.001929	-87.066766	-169.708454	-87.066766	-169.708454	-0.030376	-24.002044
1.550000	-0.031421	-24.788139	-85.841940	-168.848762	-85.841940	-168.848762	-0.031423	-24.788270
1.600000	-0.032461	-25.573419	-84.681639	-168.378165	-84.681639	-168.378165	-0.032462	-25.573567
1.650000	-0.033493	-26.357756	-83.580602	-168.215903	-83.580602	-168.215903	-0.033494	-26.357920
1.700000	-0.034518	-27.140794	-82.508905	-168.365729	-82.508905	-168.365729	-0.034517	-27.140973
1.750000	-0.035539	-27.923326	-81.522268	-168.627778	-81.522268	-168.627778	-0.035538	-27.923521
1.800000	-0.036556	-28.704642	-80.565439	-169.077251	-80.565439	-169.077251	-0.036554	-28.704853
1.850000	-0.037569	-29.485091	-79.658067	-169.660598	-79.658067	-169.660598	-0.037567	-29.485316
1.900000	-0.038580	-30.264460	-78.785074	-170.354935	-78.785074	-170.354935	-0.038578	-30.264699
1.950000	-0.039589	-31.042750	-77.945117	-171.160260	-77.945117	-171.160260	-0.039587	-31.043002
2.000000	-0.040598	-31.820108	-77.142345	-172.031965	-77.142345	-172.031965	-0.040596	-31.820372
2.050000	-0.041606	-32.596162	-76.360255	-172.996600	-76.360255	-172.996600	-0.041605	-32.596437
2.100000	-0.042616	-33.371445	-75.617094	-174.000553	-75.617094	-174.000553	-0.042615	-33.371730
2.150000	-0.043627	-34.145185	-74.885209	-175.083140	-74.885209	-175.083140	-0.043626	-34.145479
2.200000	-0.044639	-34.918328	-74.193291	-176.188120	-74.193291	-176.188120	-0.044639	-34.918630
2.250000	-0.045656	-35.689678	-73.505420	-177.360276	-73.505420	-177.360276	-0.045656	-35.689987
2.300000	-0.046673	-36.460618	-72.858055	-178.544001	-72.858055	-178.544001	-0.046674	-36.460933
2.350000	-0.047697	-37.229504	-72.209142	-179.785569	-72.209142	-179.785569	-0.047698	-37.229824
2.400000	-0.048722	-37.998178	-71.600907	178.968308	-71.600907	178.968308	-0.048723	-37.998502
2.450000	-0.049756	-38.764527	-70.986776	177.672078	-70.986776	177.672078	-0.049758	-38.764854
2.500000	-0.050789	-39.530875	-70.413214	176.375849	-70.413214	176.375849	-0.050792	-39.531205
2.550000	-0.051834	-40.294618	-69.830374	175.036043	-69.830374	175.036043	-0.051837	-40.294949
2.600000	-0.052880	-41.058361	-69.284197	173.696236	-69.284197	173.696236	-0.052883	-41.058693
2.650000	-0.053937	-41.819655	-68.733280	172.324302	-68.733280	172.324302	-0.053940	-41.819986
2.700000	-0.054995	-42.580726	-68.212065	170.949447	-68.212065	170.949447	-0.054999	-42.581056
2.750000	-0.056065	-43.339518	-67.689855	169.550965	-67.689855	169.550965	-0.056069	-43.339848
2.800000	-0.057138	-44.097856	-67.191516	168.147758	-67.191516	168.147758	-0.057142	-44.098183
2.850000	-0.058223	-44.854099	-66.695275	166.727303	-66.695275	166.727303	-0.058227	-44.854424
2.900000	-0.059312	-45.609644	-66.217995	165.301099	-66.217995	165.301099	-0.059315	-45.609967
2.950000	-0.060412	-46.363292	-65.745370	163.862463	-65.745370	163.862463	-0.060415	-46.363612
3.000000	-0.061518	-47.115991	-65.287558	162.417612	-65.287558	162.417612	-0.061521	-47.116309
3.050000	-0.062634	-47.867001	-64.836507	160.963969	-64.836507	160.963969	-0.062637	-47.867316
3.100000	-0.063758	-48.616805	-64.396754	159.504047	-64.396754	159.504047	-0.063761	-48.617116
3.150000	-0.064892	-49.365137	-63.965496	158.038076	-63.965496	158.038076	-0.064894	-49.365445
3.200000	-0.066036	-50.111999	-63.542545	156.566058	-63.542545	156.566058	-0.066038	-50.112304
3.250000	-0.067188	-50.857618	-63.129511	155.090037	-63.129511	155.090037	-0.067189	-50.857919
3.300000	-0.068353	-51.601496	-62.722235	153.608414	-62.722235	153.608414	-0.068353	-51.601795
3.350000	-0.069524	-52.344367	-62.326036	152.124288	-62.326036	152.124288	-0.069524	-52.344664
3.400000	-0.070710	-53.085225	-61.933417	150.635158	-61.933417	150.635158	-0.070710	-53.085519
3.450000	-0.071902	-53.825319	-61.552815	149.144594	-61.552815	149.144594	-0.071901	-53.825611
3.500000	-0.073112	-54.563122	-61.173928	147.649730	-61.173928	147.649730	-0.073109	-54.563412
3.550000	-0.074325	-55.300412	-60.807816	146.154159	-60.807816	146.154159	-0.074322	-55.300700
3.600000	-0.075559	-56.035132	-60.441817	144.655058	-60.441817	144.655058	-0.075555	-56.035420
3.650000	-0.076794	-56.769593	-60.089197	143.155708	-60.089197	143.155708	-0.076790	-56.769880
3.700000	-0.078053	-57.501204	-59.735312	141.653631	-59.735312	141.653631	-0.078048	-57.501491
3.750000	-0.079313	-58.232816	-59.395283	140.151553	-59.395283	140.151553	-0.079307	-58.233103
3.800000	-0.080599	-58.961298	-59.052801	138.647556	-59.052801	138.647556	-0.080592	-58.961585
3.850000	-0.081885	-59.689779	-58.723312	137.143559	-58.723312	137.143559	-0.081878	-59.690068
3.900000	-0.083197	-60.415376	-58.392810	135.638606	-58.392810	135.638606	-0.083189	-60.415666
3.950000	-0.084512	-61.140711	-58.073280	134.133566	-58.073280	134.133566	-0.084503	-61.141003
4.000000	-0.085851	-61.863412	-57.753988	132.628256	-57.753988	132.628256	-0.085842	-61.863706
4.050000	-0.087196	-62.585586	-57.443878	131.122891	-57.443878	131.122891	-0.087186	-62.585882
4.100000	-0.088564	-63.305382	-57.135097	129.617717	-57.135097	129.617717	-0.088554	-63.305681
4.150000	-0.089940	-64.024385	-56.833905	128.112605	-56.833905	128.112605	-0.089930	-64.024688
4.200000	-0.091338	-64.741271	-56.534995	126.607965	-56.534995	126.607965	-0.091327	-64.741577
4.250000	-0.092747	-65.457098	-56.242254	125.103559	-56.242254	125.103559	-0.092736	-65.457408
4.300000	-0.094176	-66.171070	-55.952631	123.599763	-55.952631	123.599763	-0.094166	-66.171383
4.350000	-0.095620	-66.883717	-55.667910	122.096404	-55.667910	122.096404	-0.095610	-66.884035
4.400000	-0.097082	-67.594774	-55.387036	120.593689	-55.387036	120.593689	-0.097072	-67.595097
4.450000	-0.098563	-68.304243	-55.109934	119.091618	-55.109934	119.091618	-0.098553	-68.304569
4.500000	-0.100059	-69.012388	-54.837318	117.590149	-54.837318	117.590149	-0.100050	-69.012719
4.550000	-0.101578	-69.718682	-54.567462	116.089523	-54.567462	116.089523	-0.101569	-69.719017
4.600000	-0.103111	-70.423919	-54.302655	114.589404	-54.302655	114.589404	-0.103102	-70.424259
4.650000	-0.104670	-71.127045	-54.039700	113.090302	-54.039700	113.090302	-0.104662	-71.127389
4.700000	-0.106240	-71.829382	-53.782287	111.591583	-53.782287	111.591583	-0.106233	-71.829729
4.750000	-0.107842	-72.529350	-53.525916	110.094019	-53.525916	110.094019	-0.107836	-72.529702
4.800000	-0.109451	-73.228794	-53.275518	108.596705	-53.275518	108.596705	-0.109446	-73.229150
4.850000	-0.111097	-73.925619	-53.025440	107.100639	-53.025440	107.100639	-0.111094	-73.925978
4.900000	-0.112748	-74.622183	-52.781709	105.604691	-52.781709	105.604691	-0.112745	-74.622545
4.950000	-0.114440	-75.315880	-52.537656	104.110039	-52.537656	104.110039	-0.114439	-75.316244
5.000000	-0.116133	-76.009577	-52.300273	102.615387	-52.300273	102.615387	-0.116133	-76.009943
5.050000	-0.117874	-76.700165	-52.062001	101.122029	-52.062001	101.122029	-0.117876	-76.700533
5.100000	-0.119616	-77.390753	-51.830091	99.628671	-51.830091	99.628671	-0.119619	-77.391123
5.150000	-0.121404	-78.078512	-51.597962	98.136368	-51.597962	98.136368	-0.121408	-78.078883
5.200000	-0.123196	-78.766014	-51.371322	96.644160	-51.371322	96.644160	-0.123202	-78.766385
5.250000	-0.125033	-79.450964	-51.145074	95.152776	-51.145074	95.152776	-0.125041	-79.451335
5.300000	-0.126878	-80.135404	-50.923522	93.661557	-50.923522	93.661557	-0.126888	-80.135774
5.350000	-0.128765	-80.817568	-50.702915	92.170955	-50.702915	92.170955	-0.128776	-80.817937
5.400000	-0.130666	-81.498973	-50.486288	90.680559	-50.486288	90.680559	-0.130679	-81.499340
5.450000	-0.132605	-82.178374	-50.271106	89.190602	-50.271106	89.190602	-0.132619	-82.178740
5.500000	-0.134564	-82.856775	-50.059259	87.700864	-50.059259	87.700864	-0.134580	-82.857138
5.550000	-0.136557	-83.533441	-49.849307	86.211421	-49.849307	86.211421	-0.136574	-83.533800
5.600000	-0.138576	-84.208868	-49.642114	84.722189	-49.642114	84.722189	-0.138594	-84.209224
5.650000	-0.140625	-84.882827	-49.437217	83.233145	-49.437217	83.233145	-0.140645	-84.883179
5.700000	-0.142706	-85.555317	-49.234569	81.744288	-49.234569	81.744288	-0.142727	-85.555664
5.750000	-0.144814	-86.226598	-49.034569	80.255544	-49.034569	80.255544	-0.144836	-86.226941
5.800000	-0.146959	-86.896187	-48.836372	78.766959	-48.836372	78.766959	-0.146982	-86.896525
5.850000	-0.149127	-87.564823	-48.641129	77.278445	-48.641129	77.278445	-0.149151	-87.565155
5.900000	-0.151339	-88.231551	-48.447307	75.790069	-48.447307	75.790069	-0.151363	-88.231877
5.950000	-0.153569	-88.897574	-48.256697	74.301741	-48.256697	74.301741	-0.153594	-88.897895
6.000000	-0.155850	-89.561483	-48.067188	72.813558	-48.067188	72.813558	-0.155875	-89.561799
6.050000	-0.158144	-90.224930	-47.881100	71.325413	-47.881100	71.325413	-0.158169	-90.225240
6.100000	-0.160496	-90.886064	-47.695857	69.837461	-47.695857	69.837461	-0.160521	-90.886369
6.150000	-0.162856	-91.546972	-47.514197	68.349536	-47.514197	68.349536	-0.162881	-91.547272
6.200000	-0.165283	-92.205378	-47.333185	66.861920	-47.333185	66.861920	-0.165306	-92.205674
6.250000	-0.167710	-92.863785	-47.155869	65.374303	-47.155869	65.374303	-0.167733	-92.864077
6.300000	-0.170213	-93.519513	-46.979070	63.887201	-46.979070	63.887201	-0.170234	-93.519802
6.350000	-0.172716	-94.175240	-46.805798	62.400098	-46.805798	62.400098	-0.172736	-94.175527
6.400000	-0.175291	-94.828560	-46.633435	60.913709	-46.633435	60.913709	-0.175308	-94.828847
6.450000	-0.177873	-95.481661	-46.464204	59.427385	-46.464204	59.427385	-0.177888	-95.481948
6.500000	-0.180522	-96.132619	-46.296227	57.942011	-46.296227	57.942011	-0.180534	-96.132908
6.550000	-0.183184	-96.783148	-46.131049	56.456826	-46.131049	56.456826	-0.183193	-96.783439
6.600000	-0.185909	-97.431790	-45.967422	54.972852	-45.967422	54.972852	-0.185914	-97.432088
6.650000	-0.188654	-98.079803	-45.806321	53.489282	-45.806321	53.489282	-0.188656	-98.080108
6.700000	-0.191457	-98.726180	-45.647023	52.007191	-45.647023	52.007191	-0.191454	-98.726495
6.750000	-0.194288	-99.371739	-45.490038	50.525840	-45.490038	50.525840	-0.194280	-99.372066
6.800000	-0.197170	-100.015902	-45.335062	49.046230	-45.335062	49.046230	-0.197157	-100.016246
6.850000	-0.200089	-100.659070	-45.182255	47.567863	-45.182255	47.567863	-0.200070	-100.659432
6.900000	-0.203053	-101.301076	-45.031612	46.091467	-45.031612	46.091467	-0.203027	-101.301460
6.950000	-0.206063	-101.941920	-44.883067	44.617044	-44.883067	44.617044	-0.206030	-101.942330
7.000000	-0.209111	-102.581825	-44.736791	43.144769	-44.736791	43.144769	-0.209071	-102.582266
7.050000	-0.212214	-103.220418	-44.592624	41.675501	-44.592624	41.675501	-0.212165	-103.220895
7.100000	-0.215348	-103.858286	-44.450780	40.208470	-44.450780	40.208470	-0.215291	-103.858803
7.150000	-0.218547	-104.494706	-44.311153	38.745909	-44.311153	38.745909	-0.218480	-104.495269
7.200000	-0.221771	-105.130603	-44.173844	37.285532	-44.173844	37.285532	-0.221694	-105.131217
7.250000	-0.225069	-105.764934	-44.038988	35.831708	-44.038988	35.831708	-0.224981	-105.765609
7.300000	-0.228386	-106.398932	-43.906371	34.379796	-43.906371	34.379796	-0.228286	-106.399672
7.350000	-0.231788	-107.031270	-43.776618	32.937445	-43.776618	32.937445	-0.231676	-107.032089
7.400000	-0.235200	-107.663450	-43.648929	31.496372	-43.648929	31.496372	-0.235075	-107.664350
7.450000	-0.238712	-108.293903	-43.524770	30.069348	-43.524770	30.069348	-0.238572	-108.294904
7.500000	-0.242225	-108.924356	-43.402361	28.642323	-43.402361	28.642323	-0.242071	-108.925458
7.550000	-0.245854	-109.553052	-43.284549	27.236323	-43.284549	27.236323	-0.245683	-109.554286
7.600000	-0.249485	-110.181749	-43.168314	25.830322	-43.168314	25.830322	-0.249297	-110.183114
7.650000	-0.253233	-110.808985	-43.057673	24.451830	-43.057673	24.451830	-0.253025	-110.810517
7.700000	-0.256993	-111.436087	-42.948788	23.075839	-42.948788	23.075839	-0.256765	-111.437790
7.750000	-0.260877	-112.062040	-42.846920	21.737612	-42.846920	21.737612	-0.260626	-112.063965
7.800000	-0.264787	-112.687764	-42.747354	20.406938	-42.747354	20.406938	-0.264512	-112.689919
7.850000	-0.268837	-113.312689	-42.657006	19.131836	-42.657006	19.131836	-0.268533	-113.315145
7.900000	-0.272934	-113.937347	-42.570259	17.875259	-42.570259	17.875259	-0.272601	-113.940128
7.950000	-0.277152	-114.561668	-42.492499	16.678217	-42.492499	16.678217	-0.276786	-114.564848
8.000000	-0.281533	-115.185754	-42.426810	15.569035	-42.426810	15.569035	-0.281129	-115.189439
8.050000	-0.286102	-115.809886	-42.375337	14.575629	-42.375337	14.575629	-0.285655	-115.814215
8.100000	-0.290929	-116.434349	-42.342919	13.759311	-42.342919	13.759311	-0.290434	-116.439524
8.150000	-0.296062	-117.059372	-42.332025	13.170919	-42.332025	13.170919	-0.295516	-117.065646
8.200000	-0.301837	-117.685697	-42.360884	13.113963	-42.360884	13.113963	-0.301240	-117.693619
8.250000	-0.308626	-118.313664	-42.435671	14.016092	-42.435671	14.016092	-0.308006	-118.324119
8.300000	-0.317425	-118.942714	-42.533605	17.156077	-42.533605	17.156077	-0.316902	-118.957387
8.350000	-0.330395	-119.565202	-42.283710	25.915811	-42.283710	25.915811	-0.330485	-119.586943
8.400000	-0.350411	-120.132927	-39.021520	37.611280	-39.021520	37.611280	-0.353048	-120.160110
8.450000	-0.358408	-120.554534	-36.263042	8.967066	-36.263042	8.967066	-0.363210	-120.556460
8.500000	-0.338027	-121.091574	-37.882809	-3.805534	-37.882809	-3.805534	-0.340240	-121.084003
8.550000	-0.329223	-121.750059	-38.739366	-6.661123	-38.739366	-6.661123	-0.330559	-121.744696
8.600000	-0.329236	-122.404277	-39.140905	-8.039652	-39.140905	-8.039652	-0.330215	-122.400048
8.650000	-0.332218	-123.043704	-39.335202	-9.180283	-39.335202	-9.180283	-0.332977	-123.040185
8.700000	-0.336195	-123.673933	-39.431088	-10.310259	-39.431088	-10.310259	-0.336798	-123.670970
8.750000	-0.340617	-124.298110	-39.468270	-11.470756	-39.468270	-11.470756	-0.341105	-124.295606
8.800000	-0.345269	-124.917924	-39.466170	-12.671730	-39.466170	-12.671730	-0.345672	-124.915802
8.850000	-0.350029	-125.535208	-39.442826	-13.902725	-39.442826	-13.902725	-0.350365	-125.533417
8.900000	-0.354865	-126.150582	-39.404308	-15.158379	-39.404308	-15.158379	-0.355147	-126.149078
8.950000	-0.359762	-126.764476	-39.354784	-16.434025	-39.354784	-16.434025	-0.360000	-126.763226
9.000000	-0.364719	-127.377021	-39.295950	-17.728093	-39.295950	-17.728093	-0.364921	-127.375990
9.050000	-0.369726	-127.988518	-39.230357	-19.036383	-39.230357	-19.036383	-0.369899	-127.987677
9.100000	-0.374742	-128.599928	-39.164697	-20.345780	-39.164697	-20.345780	-0.374887	-128.599276
9.150000	-0.379851	-129.209871	-39.090100	-21.674001	-39.090100	-21.674001	-0.379975	-129.209361
9.200000	-0.384962	-129.819814	-39.016138	-23.002221	-39.016138	-23.002221	-0.385066	-129.819447
9.250000	-0.390146	-130.428980	-38.937809	-24.339756	-38.937809	-24.339756	-0.390234	-130.428725
9.300000	-0.395356	-131.037874	-38.858449	-25.680550	-38.858449	-25.680550	-0.395431	-131.037721
9.350000	-0.400610	-131.646469	-38.777635	-27.025008	-38.777635	-27.025008	-0.400672	-131.646400
9.400000	-0.405920	-132.254659	-38.694666	-28.374403	-38.694666	-28.374403	-0.405972	-132.254653
9.450000	-0.411244	-132.862797	-38.611968	-29.724603	-38.611968	-29.724603	-0.411287	-132.862849
9.500000	-0.416664	-133.470526	-38.525975	-31.081240	-38.525975	-31.081240	-0.416700	-133.470595
9.550000	-0.422086	-134.078255	-38.440825	-32.437877	-38.440825	-32.437877	-0.422116	-134.078341
9.600000	-0.427549	-134.685920	-38.355018	-33.796906	-38.355018	-33.796906	-0.427574	-134.686005
9.650000	-0.433091	-135.293456	-38.267112	-35.160719	-38.267112	-35.160719	-0.433111	-135.293506
9.700000	-0.438635	-135.900993	-38.180088	-36.524532	-38.180088	-36.524532	-0.438652	-135.901006
9.750000	-0.444245	-136.508591	-38.091610	-37.892666	-38.091610	-37.892666	-0.444258	-136.508533
9.800000	-0.449908	-137.116238	-38.002191	-39.264257	-38.002191	-39.264257	-0.449919	-137.116083
9.850000	-0.455575	-137.723885	-37.913684	-40.635848	-37.913684	-40.635848	-0.455583	-137.723632
9.900000	-0.461330	-138.331846	-37.822899	-42.014763	-37.822899	-42.014763	-0.461336	-138.331439
9.950000	-0.467114	-138.939896	-37.732158	-43.395770	-37.732158	-43.395770	-0.467117	-138.939320
10.000000	-0.472902	-139.547946	-37.642355	-44.776776	-37.642355	-44.776776	-0.472903	-139.547201
