! freq	dB(S11)	phase(S11)	dB(S12)	phase(S12)	
!     	dB(S21)	phase(S21)	dB(S22)	phase(S22)	
!S-par simulation data
#  GHz  S  DB  R 50
0.000000	-0.000000	0.000000	-267.725057	0.000000	-267.725057	0.000000	-0.000000	0.000000
0.050000	-0.000132	-1.058711	-110.113432	88.974614	-110.113432	88.974614	-0.000130	-1.058650
0.100000	-0.000522	-2.117091	-104.140086	87.958829	-104.140086	87.958829	-0.000517	-2.116976
0.150000	-0.001155	-3.174834	-100.697097	86.962455	-100.697097	86.962455	-0.001144	-3.174675
0.200000	-0.002006	-4.231681	-98.308280	85.995472	-98.308280	85.995472	-0.001989	-4.231491
0.250000	-0.003060	-5.287338	-96.517565	85.071969	-96.517565	85.071969	-0.003036	-5.287133
0.300000	-0.004269	-6.341740	-95.111943	84.200998	-95.111943	84.200998	-0.004237	-6.341532
0.350000	-0.005609	-7.394720	-93.986683	83.398954	-93.986683	83.398954	-0.005572	-7.394523
0.400000	-0.007052	-8.446200	-93.078173	82.683482	-93.078173	82.683482	-0.007009	-8.446024
0.450000	-0.008570	-9.496141	-92.346504	82.075953	-92.346504	82.075953	-0.008523	-9.495993
0.500000	-0.010138	-10.544531	-91.765641	81.602763	-91.765641	81.602763	-0.010090	-10.544414
0.550000	-0.011737	-11.591379	-91.318332	81.297132	-91.318332	81.297132	-0.011689	-11.591293
0.600000	-0.013351	-12.636707	-90.993230	81.201617	-90.993230	81.201617	-0.013303	-12.636650
0.650000	-0.014967	-13.680543	-90.783128	81.371674	-90.783128	81.371674	-0.014921	-13.680512
0.700000	-0.016575	-14.722916	-90.683723	81.880730	-90.683723	81.880730	-0.016532	-14.722906
0.750000	-0.018168	-15.763854	-90.692500	82.827408	-90.692500	82.827408	-0.018130	-15.763858
0.800000	-0.019743	-16.803379	-90.807342	84.345611	-90.807342	84.345611	-0.019709	-16.803392
0.850000	-0.021296	-17.841507	-91.024256	86.617812	-91.024256	86.617812	-0.021266	-17.841524
0.900000	-0.022826	-18.878250	-91.333194	89.889990	-91.333194	89.889990	-0.022801	-18.878264
0.950000	-0.024333	-19.913611	-91.710367	94.480355	-91.710367	94.480355	-0.024312	-19.913618
1.000000	-0.025817	-20.947588	-92.105299	100.758143	-92.105299	100.758143	-0.025800	-20.947583
1.050000	-0.027279	-21.980172	-92.424027	109.041618	-92.424027	109.041618	-0.027266	-21.980153
1.100000	-0.028721	-23.011351	-92.522002	119.355380	-92.522002	119.355380	-0.028711	-23.011314
1.150000	-0.030144	-24.041107	-92.239028	131.097652	-92.239028	131.097652	-0.030136	-24.041051
1.200000	-0.031549	-25.069419	-91.490554	142.972920	-91.490554	142.972920	-0.031544	-25.069343
1.250000	-0.032938	-26.096263	-90.336065	153.575358	-90.336065	153.575358	-0.032935	-26.096166
1.300000	-0.034313	-27.121547	-88.915725	162.042454	-88.915725	162.042454	-0.034311	-27.121429
1.350000	-0.035675	-28.145306	-87.402161	168.450104	-87.402161	168.450104	-0.035674	-28.145167
1.400000	-0.037025	-29.167509	-85.890751	173.130116	-85.890751	173.130116	-0.037026	-29.167350
1.450000	-0.038366	-30.188127	-84.430152	176.461331	-84.430152	176.461331	-0.038367	-30.187948
1.500000	-0.039698	-31.207127	-83.040520	178.767867	-83.040520	178.767867	-0.039699	-31.206930
1.550000	-0.041022	-32.224477	-81.727116	-179.700231	-81.727116	-179.700231	-0.041023	-32.224264
1.600000	-0.042339	-33.240147	-80.488164	-178.757571	-80.488164	-178.757571	-0.042341	-33.239918
1.650000	-0.043651	-34.254103	-79.318926	-178.268229	-79.318926	-178.268229	-0.043652	-34.253860
1.700000	-0.044958	-35.266313	-78.213696	-178.132294	-78.213696	-178.132294	-0.044959	-35.266059
1.750000	-0.046262	-36.276748	-77.166729	-178.275657	-77.166729	-178.275657	-0.046262	-36.276482
1.800000	-0.047562	-37.285375	-76.172641	-178.642675	-76.172641	-178.642675	-0.047561	-37.285100
1.850000	-0.048859	-38.292165	-75.226551	-179.191021	-75.226551	-179.191021	-0.048858	-38.291882
1.900000	-0.050155	-39.297088	-74.324108	-179.888066	-74.324108	-179.888066	-0.050153	-39.296798
1.950000	-0.051449	-40.300115	-73.461465	179.291666	-73.461465	179.291666	-0.051447	-40.299820
2.000000	-0.052743	-41.301217	-72.635227	178.368307	-72.635227	178.368307	-0.052741	-41.300918
2.050000	-0.054037	-42.300369	-71.842399	177.357953	-71.842399	177.357953	-0.054034	-42.300067
2.100000	-0.055331	-43.297542	-71.080335	176.273606	-71.080335	176.273606	-0.055328	-43.297239
2.150000	-0.056626	-44.292713	-70.346693	175.125874	-70.346693	175.125874	-0.056622	-44.292408
2.200000	-0.057923	-45.285855	-69.639390	173.923493	-69.639390	173.923493	-0.057919	-45.285551
2.250000	-0.059221	-46.276946	-68.956570	172.673717	-68.956570	172.673717	-0.059217	-46.276642
2.300000	-0.060522	-47.265963	-68.296571	171.382620	-68.296571	171.382620	-0.060518	-47.265660
2.350000	-0.061826	-48.252883	-67.657903	170.055321	-67.657903	170.055321	-0.061822	-48.252583
2.400000	-0.063134	-49.237687	-67.039222	168.696166	-67.039222	168.696166	-0.063130	-49.237389
2.450000	-0.064445	-50.220353	-66.439314	167.308872	-66.439314	167.308872	-0.064441	-50.220058
2.500000	-0.065761	-51.200863	-65.857078	165.896629	-65.857078	165.896629	-0.065758	-51.200572
2.550000	-0.067082	-52.179105	-65.290640	164.461345	-65.290640	164.461345	-0.067079	-52.178818
2.600000	-0.068409	-53.155154	-64.740054	163.006457	-64.740054	163.006457	-0.068406	-53.154871
2.650000	-0.069741	-54.128995	-64.204472	161.534023	-64.204472	161.534023	-0.069738	-54.128717
2.700000	-0.071080	-55.100612	-63.683118	160.045850	-63.683118	160.045850	-0.071078	-55.100340
2.750000	-0.072426	-56.069993	-63.175277	158.543534	-63.175277	158.543534	-0.072424	-56.069726
2.800000	-0.073779	-57.037124	-62.680292	157.028487	-62.680292	157.028487	-0.073778	-57.036863
2.850000	-0.075141	-58.001993	-62.197554	155.501965	-62.197554	155.501965	-0.075140	-58.001737
2.900000	-0.076510	-58.964589	-61.726500	153.965089	-61.726500	153.965089	-0.076510	-58.964340
2.950000	-0.077889	-59.924902	-61.266607	152.418862	-61.266607	152.418862	-0.077889	-59.924659
3.000000	-0.079277	-60.882923	-60.817390	150.864184	-60.817390	150.864184	-0.079278	-60.882687
3.050000	-0.080676	-61.838644	-60.378396	149.301865	-60.378396	149.301865	-0.080677	-61.838414
3.100000	-0.082084	-62.792057	-59.949201	147.732639	-59.949201	147.732639	-0.082086	-62.791835
3.150000	-0.083504	-63.743156	-59.529411	146.157169	-59.529411	146.157169	-0.083507	-63.742942
3.200000	-0.084936	-64.691937	-59.118655	144.576056	-59.118655	144.576056	-0.084939	-64.691730
3.250000	-0.086379	-65.638394	-58.716586	142.989850	-58.716586	142.989850	-0.086383	-65.638195
3.300000	-0.087836	-66.582525	-58.322877	141.399049	-58.322877	141.399049	-0.087839	-66.582334
3.350000	-0.089305	-67.524326	-57.937222	139.804110	-57.937222	139.804110	-0.089309	-67.524144
3.400000	-0.090788	-68.463796	-57.559329	138.205453	-57.559329	138.205453	-0.090793	-68.463623
3.450000	-0.092286	-69.400935	-57.188926	136.603461	-57.188926	136.603461	-0.092291	-69.400771
3.500000	-0.093798	-70.335742	-56.825756	134.998488	-56.825756	134.998488	-0.093803	-70.335588
3.550000	-0.095325	-71.268219	-56.469572	133.390860	-56.469572	133.390860	-0.095331	-71.268076
3.600000	-0.096868	-72.198368	-56.120145	131.780875	-56.120145	131.780875	-0.096875	-72.198235
3.650000	-0.098428	-73.126192	-55.777254	130.168813	-55.777254	130.168813	-0.098435	-73.126070
3.700000	-0.100005	-74.051694	-55.440691	128.554930	-55.440691	128.554930	-0.100012	-74.051584
3.750000	-0.101599	-74.974879	-55.110258	126.939465	-55.110258	126.939465	-0.101606	-74.974781
3.800000	-0.103212	-75.895653	-54.785500	125.322589	-54.785500	125.322589	-0.103220	-75.895567
3.850000	-0.104843	-76.814122	-54.466525	123.704574	-54.466525	123.704574	-0.104851	-76.814049
3.900000	-0.106493	-77.730293	-54.153163	122.085610	-54.153163	122.085610	-0.106502	-77.730234
3.950000	-0.108163	-78.644176	-53.845246	120.465874	-53.845246	120.465874	-0.108172	-78.644131
4.000000	-0.109854	-79.555778	-53.542620	118.845530	-53.542620	118.845530	-0.109862	-79.555748
4.050000	-0.111564	-80.465110	-53.245134	117.224732	-53.245134	117.224732	-0.111573	-80.465096
4.100000	-0.113296	-81.372182	-52.952645	115.603626	-52.952645	115.603626	-0.113305	-81.372184
4.150000	-0.115050	-82.277005	-52.665015	113.982345	-52.665015	113.982345	-0.115059	-82.277023
4.200000	-0.116826	-83.179592	-52.382113	112.361015	-52.382113	112.361015	-0.116835	-83.179627
4.250000	-0.118624	-84.079955	-52.103813	110.739757	-52.103813	110.739757	-0.118634	-84.080008
4.300000	-0.120446	-84.978107	-51.829995	109.118679	-51.829995	109.118679	-0.120455	-84.978179
4.350000	-0.122291	-85.874064	-51.560543	107.497888	-51.560543	107.497888	-0.122301	-85.874155
4.400000	-0.124160	-86.767841	-51.295345	105.877481	-51.295345	105.877481	-0.124170	-86.767952
4.450000	-0.126055	-87.659452	-51.034295	104.257551	-51.034295	104.257551	-0.126065	-87.659583
4.500000	-0.127974	-88.548915	-50.777290	102.638184	-50.777290	102.638184	-0.127984	-88.549067
4.550000	-0.129919	-89.436246	-50.524232	101.019462	-50.524232	101.019462	-0.129929	-89.436421
4.600000	-0.131891	-90.321465	-50.275025	99.401463	-50.275025	99.401463	-0.131901	-90.321662
4.650000	-0.133889	-91.204588	-50.029577	97.784259	-50.029577	97.784259	-0.133899	-91.204809
4.700000	-0.135914	-92.085636	-49.787801	96.167919	-49.787801	96.167919	-0.135924	-92.085881
4.750000	-0.137966	-92.964629	-49.549612	94.552507	-49.549612	94.552507	-0.137976	-92.964899
4.800000	-0.140047	-93.841587	-49.314926	92.938085	-49.314926	92.938085	-0.140057	-93.841882
4.850000	-0.142156	-94.716531	-49.083667	91.324710	-49.083667	91.324710	-0.142167	-94.716853
4.900000	-0.144295	-95.589483	-48.855756	89.712437	-48.855756	89.712437	-0.144305	-95.589832
4.950000	-0.146463	-96.460466	-48.631121	88.101317	-48.631121	88.101317	-0.146473	-96.460842
5.000000	-0.148661	-97.329502	-48.409689	86.491399	-48.409689	86.491399	-0.148671	-97.329907
5.050000	-0.150890	-98.196533	-48.191291	84.882786	-48.191291	84.882786	-0.150901	-98.196967
5.100000	-0.153151	-99.061668	-47.975970	83.275468	-47.975970	83.275468	-0.153161	-99.062133
5.150000	-0.155443	-99.924932	-47.763659	81.669487	-47.763659	81.669487	-0.155453	-99.925427
5.200000	-0.157766	-100.786351	-47.554297	80.064881	-47.554297	80.064881	-0.157777	-100.786877
5.250000	-0.160122	-101.645949	-47.347823	78.461686	-47.347823	78.461686	-0.160133	-101.646508
5.300000	-0.162511	-102.503755	-47.144177	76.859937	-47.144177	76.859937	-0.162522	-102.504346
5.350000	-0.164933	-103.359795	-46.943304	75.259668	-46.943304	75.259668	-0.164944	-103.360420
5.400000	-0.167388	-104.214097	-46.745147	73.660908	-46.745147	73.660908	-0.167399	-104.214756
5.450000	-0.169889	-105.066107	-46.549056	72.064237	-46.549056	72.064237	-0.169900	-105.066802
5.500000	-0.172408	-105.917235	-46.356406	70.468378	-46.356406	70.468378	-0.172420	-105.917966
5.550000	-0.174970	-106.766367	-46.165967	68.874471	-46.165967	68.874471	-0.174981	-106.767134
5.600000	-0.177562	-107.614074	-45.978237	67.281958	-45.978237	67.281958	-0.177574	-107.614878
5.650000	-0.180192	-108.460134	-45.792916	65.691170	-45.792916	65.691170	-0.180204	-108.460976
5.700000	-0.182859	-109.304550	-45.609936	64.102105	-45.609936	64.102105	-0.182871	-109.305431
5.750000	-0.185558	-110.147651	-45.429529	62.514515	-45.429529	62.514515	-0.185570	-110.148572
5.800000	-0.188301	-110.988913	-45.251142	60.928990	-45.251142	60.928990	-0.188314	-110.989873
5.850000	-0.191071	-111.829170	-45.075456	59.344670	-45.075456	59.344670	-0.191084	-111.830171
5.900000	-0.193893	-112.667417	-44.901511	57.762763	-44.901511	57.762763	-0.193906	-112.668460
5.950000	-0.196735	-113.504947	-44.730366	56.181778	-44.730366	56.181778	-0.196748	-113.506033
6.000000	-0.199636	-114.340325	-44.560720	54.603559	-44.560720	54.603559	-0.199650	-114.341455
6.050000	-0.202552	-115.175250	-44.393946	53.025965	-44.393946	53.025965	-0.202567	-115.176423
6.100000	-0.205535	-116.007908	-44.228462	51.451495	-44.228462	51.451495	-0.205550	-116.009126
6.150000	-0.208526	-116.840351	-44.065899	49.877342	-44.065899	49.877342	-0.208541	-116.841615
6.200000	-0.211593	-117.670440	-43.904449	48.306673	-43.904449	48.306673	-0.211608	-117.671751
6.250000	-0.214660	-118.500529	-43.745946	46.736005	-43.745946	46.736005	-0.214676	-118.501887
6.300000	-0.217811	-119.328206	-43.588408	45.169182	-43.588408	45.169182	-0.217827	-119.329612
6.350000	-0.220963	-120.155883	-43.433676	43.602359	-43.433676	43.602359	-0.220980	-120.157338
6.400000	-0.224193	-120.981496	-43.280078	42.039095	-43.280078	42.039095	-0.224210	-120.983000
6.450000	-0.227431	-121.806920	-43.129009	40.476155	-43.129009	40.476155	-0.227449	-121.808475
6.500000	-0.230742	-122.630604	-42.979216	38.916475	-42.979216	38.916475	-0.230760	-122.632211
6.550000	-0.234068	-123.453940	-42.831705	37.357448	-42.831705	37.357448	-0.234086	-123.455600
6.600000	-0.237460	-124.275834	-42.685587	35.801374	-42.685587	35.801374	-0.237479	-124.277548
6.650000	-0.240875	-125.097248	-42.541536	34.246284	-42.541536	34.246284	-0.240895	-125.099016
6.700000	-0.244350	-125.917494	-42.398973	32.693830	-42.398973	32.693830	-0.244370	-125.919318
6.750000	-0.247856	-126.737157	-42.258288	31.142694	-42.258288	31.142694	-0.247876	-126.739036
6.800000	-0.251415	-127.555899	-42.119164	29.593873	-42.119164	29.593873	-0.251436	-127.557836
6.850000	-0.255012	-128.373983	-41.981755	28.046704	-41.981755	28.046704	-0.255034	-128.375979
6.900000	-0.258656	-129.191367	-41.845962	26.501523	-41.845962	26.501523	-0.258678	-129.193423
6.950000	-0.262347	-130.008051	-41.711744	24.958328	-41.711744	24.958328	-0.262369	-130.010167
7.000000	-0.266077	-130.824226	-41.579179	23.416789	-41.579179	23.416789	-0.266100	-130.826404
7.050000	-0.269862	-131.639690	-41.448071	21.877569	-41.448071	21.877569	-0.269885	-131.641931
7.100000	-0.273679	-132.454807	-41.318638	20.339674	-41.318638	20.339674	-0.273703	-132.457112
7.150000	-0.277559	-133.269234	-41.190564	18.804426	-41.190564	18.804426	-0.277584	-133.271604
7.200000	-0.281465	-134.083447	-41.064170	17.270170	-41.064170	17.270170	-0.281489	-134.085884
7.250000	-0.285441	-134.897023	-40.939057	15.738887	-40.939057	15.738887	-0.285467	-134.899529
7.300000	-0.289436	-135.710489	-40.815616	14.208263	-40.815616	14.208263	-0.289462	-135.713063
7.350000	-0.293510	-136.523404	-40.693395	12.680933	-40.693395	12.680933	-0.293536	-136.526050
7.400000	-0.297594	-137.336281	-40.572825	11.153932	-40.572825	11.153932	-0.297621	-137.338998
7.450000	-0.301767	-138.148729	-40.453430	9.630540	-40.453430	9.630540	-0.301794	-138.151520
7.500000	-0.305942	-138.961176	-40.335654	8.107148	-40.335654	8.107148	-0.305970	-138.964042
7.550000	-0.310214	-139.773353	-40.219024	6.587676	-40.219024	6.587676	-0.310243	-139.776296
7.600000	-0.314489	-140.585529	-40.103940	5.068203	-40.103940	5.068203	-0.314518	-140.588550
7.650000	-0.318853	-141.397639	-39.990046	3.552304	-39.990046	3.552304	-0.318882	-141.400741
7.700000	-0.323228	-142.209742	-39.877599	2.036729	-39.877599	2.036729	-0.323258	-142.212926
7.750000	-0.327685	-143.021954	-39.766373	0.524382	-39.766373	0.524382	-0.327715	-143.025222
7.800000	-0.332161	-143.834187	-39.656511	-0.987319	-39.656511	-0.987319	-0.332192	-143.837540
7.850000	-0.336712	-144.646672	-39.547888	-2.496134	-39.547888	-2.496134	-0.336743	-144.650113
7.900000	-0.341289	-145.459240	-39.440563	-4.003988	-39.440563	-4.003988	-0.341321	-145.462770
7.950000	-0.345934	-146.272171	-39.334483	-5.509295	-39.334483	-5.509295	-0.345966	-146.275792
8.000000	-0.350613	-147.085282	-39.229651	-7.013328	-39.229651	-7.013328	-0.350646	-147.088997
8.050000	-0.355352	-147.898834	-39.126056	-8.515151	-39.126056	-8.515151	-0.355385	-147.902645
8.100000	-0.360135	-148.712700	-39.023674	-10.015394	-39.023674	-10.015394	-0.360168	-148.716609
8.150000	-0.364968	-149.527051	-38.922512	-11.513756	-38.922512	-11.513756	-0.365002	-149.531060
8.200000	-0.369854	-150.341886	-38.822542	-13.010237	-38.822542	-13.010237	-0.369888	-150.345997
8.250000	-0.374783	-151.157216	-38.723763	-14.505163	-38.723763	-14.505163	-0.374817	-151.161432
8.300000	-0.379771	-151.973238	-38.626169	-15.997911	-38.626169	-15.997911	-0.379806	-151.977561
8.350000	-0.384795	-152.789729	-38.529726	-17.489425	-38.529726	-17.489425	-0.384830	-152.794162
8.400000	-0.389887	-153.607158	-38.434476	-18.978469	-38.434476	-18.978469	-0.389923	-153.611704
8.450000	-0.395006	-154.424994	-38.340327	-20.466594	-38.340327	-20.466594	-0.395042	-154.429655
8.500000	-0.400201	-155.244054	-38.247390	-21.951961	-38.247390	-21.951961	-0.400238	-155.248834
8.550000	-0.405416	-156.063423	-38.155495	-23.436719	-38.155495	-23.436719	-0.405453	-156.068324
8.600000	-0.410714	-156.884340	-38.064845	-24.918433	-38.064845	-24.918433	-0.410752	-156.889366
8.650000	-0.416024	-157.705432	-37.975166	-26.399845	-37.975166	-26.399845	-0.416062	-157.710583
8.700000	-0.421425	-158.528436	-37.886780	-27.877928	-37.886780	-27.877928	-0.421464	-158.533720
8.750000	-0.426830	-159.351441	-37.799284	-29.356011	-37.799284	-29.356011	-0.426869	-159.356856
8.800000	-0.432334	-160.176765	-37.713139	-30.830481	-37.713139	-30.830481	-0.432373	-160.182320
8.850000	-0.437841	-161.002090	-37.627840	-32.304952	-37.627840	-32.304952	-0.437881	-161.007783
8.900000	-0.443439	-161.829758	-37.543873	-33.776122	-37.543873	-33.776122	-0.443480	-161.835597
8.950000	-0.449048	-162.657638	-37.460756	-35.246993	-37.460756	-35.246993	-0.449089	-162.663624
9.000000	-0.454739	-163.487848	-37.378939	-36.714871	-37.378939	-36.714871	-0.454781	-163.493987
9.050000	-0.460450	-164.318524	-37.297987	-38.182150	-37.297987	-38.182150	-0.460492	-164.324817
9.100000	-0.466233	-165.151477	-37.218296	-39.646737	-37.218296	-39.646737	-0.466276	-165.157931
9.150000	-0.472044	-165.985190	-37.139498	-41.110427	-37.139498	-41.110427	-0.472088	-165.991807
9.200000	-0.477904	-166.820523	-37.061778	-42.572320	-37.061778	-42.572320	-0.477949	-166.827307
9.250000	-0.483820	-167.657730	-36.985175	-44.032189	-36.985175	-44.032189	-0.483865	-167.664687
9.300000	-0.489782	-168.496606	-36.909627	-45.490332	-36.909627	-45.490332	-0.489828	-168.503739
9.350000	-0.495791	-169.337206	-36.835131	-46.946743	-36.835131	-46.946743	-0.495838	-169.344520
9.400000	-0.501846	-170.179589	-36.761683	-48.401417	-36.761683	-48.401417	-0.501894	-170.187089
9.450000	-0.507948	-171.023812	-36.689281	-49.854349	-36.689281	-49.854349	-0.507997	-171.031504
9.500000	-0.514095	-171.869934	-36.617924	-51.305531	-36.617924	-51.305531	-0.514145	-171.877821
9.550000	-0.520287	-172.718013	-36.547608	-52.754955	-36.547608	-52.754955	-0.520338	-172.726101
9.600000	-0.526524	-173.568107	-36.478333	-54.202611	-36.478333	-54.202611	-0.526576	-173.576401
9.650000	-0.532804	-174.420275	-36.410098	-55.648488	-36.410098	-55.648488	-0.532858	-174.428782
9.700000	-0.539129	-175.274578	-36.342899	-57.092575	-36.342899	-57.092575	-0.539184	-175.283301
9.750000	-0.545496	-176.131074	-36.276738	-58.534859	-36.276738	-58.534859	-0.545552	-176.140020
9.800000	-0.551906	-176.989822	-36.211612	-59.975323	-36.211612	-59.975323	-0.551964	-176.998997
9.850000	-0.558357	-177.850885	-36.147521	-61.413954	-36.147521	-61.413954	-0.558417	-177.860294
9.900000	-0.564850	-178.714320	-36.084465	-62.850732	-36.084465	-62.850732	-0.564911	-178.723970
9.950000	-0.571383	-179.580190	-36.022443	-64.285641	-36.022443	-64.285641	-0.571446	-179.590086
10.000000	-0.577955	179.551445	-35.961455	-65.718658	-35.961455	-65.718658	-0.578020	179.541296
