! freq	dB(S11)	phase(S11)	dB(S12)	phase(S12)	
!     	dB(S21)	phase(S21)	dB(S22)	phase(S22)	
!S-par simulation data
#  GHz  S  DB  R 50
0.000000	-0.000000	0.000000	-287.627336	0.000000	-287.627336	0.000000	-0.000000	0.000000
0.050000	-0.000119	-1.197147	-92.092929	177.202604	-92.092929	177.202604	-0.000391	-0.803322
0.100000	-0.000473	-2.394040	-91.674957	162.306764	-91.674957	162.306764	-0.001298	-1.609495
0.150000	-0.001054	-3.590436	-91.152205	151.203587	-91.152205	151.203587	-0.002319	-2.418487
0.200000	-0.001846	-4.786119	-90.543924	141.953543	-90.543924	141.953543	-0.003279	-3.228953
0.250000	-0.002844	-5.980826	-89.897435	134.197459	-89.897435	134.197459	-0.004161	-4.039842
0.300000	-0.004011	-7.174467	-89.260300	127.545688	-89.260300	127.545688	-0.005005	-4.850539
0.350000	-0.005334	-8.366858	-88.654981	121.857519	-88.654981	121.857519	-0.005840	-5.660774
0.400000	-0.006790	-9.557877	-88.097304	116.965891	-88.097304	116.965891	-0.006688	-6.470397
0.450000	-0.008359	-10.747428	-87.596062	112.737622	-87.596062	112.737622	-0.007563	-7.279324
0.500000	-0.010017	-11.935444	-87.155752	109.070113	-87.155752	109.070113	-0.008471	-8.087504
0.550000	-0.011746	-13.121874	-86.778421	105.887146	-86.778421	105.887146	-0.009413	-8.894901
0.600000	-0.013527	-14.306691	-86.464840	103.134785	-86.464840	103.134785	-0.010390	-9.701486
0.650000	-0.015343	-15.489878	-86.215201	100.778047	-86.215201	100.778047	-0.011399	-10.507238
0.700000	-0.017180	-16.671433	-86.029522	98.798587	-86.029522	98.798587	-0.012436	-11.312136
0.750000	-0.019027	-17.851358	-85.907840	97.193457	-85.907840	97.193457	-0.013498	-12.116166
0.800000	-0.020873	-19.029664	-85.850261	95.974918	-85.850261	95.974918	-0.014581	-12.919313
0.850000	-0.022710	-20.206360	-85.856844	95.171318	-85.856844	95.171318	-0.015681	-13.721567
0.900000	-0.024533	-21.381461	-85.927323	94.829038	-85.927323	94.829038	-0.016793	-14.522919
0.950000	-0.026336	-22.554976	-86.060533	95.015445	-86.060533	95.015445	-0.017916	-15.323360
1.000000	-0.028116	-23.726917	-86.253412	95.822568	-86.253412	95.822568	-0.019045	-16.122883
1.050000	-0.029871	-24.897289	-86.499304	97.370499	-86.499304	97.370499	-0.020177	-16.921484
1.100000	-0.031600	-26.066097	-86.785233	99.808013	-86.785233	99.808013	-0.021310	-17.719156
1.150000	-0.033303	-27.233343	-87.087836	103.304838	-87.087836	103.304838	-0.022443	-18.515893
1.200000	-0.034979	-28.399025	-87.368239	108.025194	-87.368239	108.025194	-0.023573	-19.311691
1.250000	-0.036629	-29.563137	-87.567872	114.067999	-87.567872	114.067999	-0.024698	-20.106544
1.300000	-0.038254	-30.725602	-87.600153	121.403037	-87.600153	121.403037	-0.025818	-20.900404
1.350000	-0.039856	-31.886479	-87.393293	129.592573	-87.393293	129.592573	-0.026932	-21.693306
1.400000	-0.041437	-33.045754	-86.905294	138.000392	-86.905294	138.000392	-0.028039	-22.485242
1.450000	-0.042997	-34.203414	-86.149573	145.935412	-86.149573	145.935412	-0.029139	-23.276204
1.500000	-0.044540	-35.359441	-85.186299	152.888398	-85.186299	152.888398	-0.030232	-24.066185
1.550000	-0.046066	-36.513818	-84.092601	158.630321	-84.092601	158.630321	-0.031317	-24.855175
1.600000	-0.047578	-37.666528	-82.936804	163.162328	-82.936804	163.162328	-0.032395	-25.643164
1.650000	-0.049078	-38.817552	-81.768006	166.613080	-81.768006	166.613080	-0.033465	-26.430142
1.700000	-0.050567	-39.966870	-80.616839	169.154831	-80.616839	169.154831	-0.034529	-27.216097
1.750000	-0.052046	-41.114463	-79.500299	170.956301	-79.500299	170.956301	-0.035587	-28.001019
1.800000	-0.053518	-42.260312	-78.426564	172.163460	-78.426564	172.163460	-0.036638	-28.784895
1.850000	-0.054984	-43.404399	-77.398542	172.895424	-77.398542	172.895424	-0.037685	-29.567712
1.900000	-0.056445	-44.546704	-76.416178	173.246754	-76.416178	173.246754	-0.038726	-30.349458
1.950000	-0.057904	-45.687210	-75.477845	173.291672	-75.477845	173.291672	-0.039763	-31.130120
2.000000	-0.059360	-46.825900	-74.581161	173.088299	-74.581161	173.088299	-0.040796	-31.909683
2.050000	-0.060816	-47.962759	-73.723451	172.682263	-73.723451	172.682263	-0.041826	-32.688135
2.100000	-0.062273	-49.097772	-72.902001	172.109576	-72.902001	172.109576	-0.042854	-33.465460
2.150000	-0.063732	-50.230925	-72.114192	171.398853	-72.114192	171.398853	-0.043880	-34.241645
2.200000	-0.065193	-51.362205	-71.357564	170.572997	-71.357564	170.572997	-0.044904	-35.016676
2.250000	-0.066659	-52.491602	-70.629843	169.650477	-70.629843	169.650477	-0.045929	-35.790538
2.300000	-0.068129	-53.619106	-69.928949	168.646296	-69.928949	168.646296	-0.046953	-36.563217
2.350000	-0.069605	-54.744709	-69.252984	167.572731	-69.252984	167.572731	-0.047978	-37.334700
2.400000	-0.071088	-55.868405	-68.600222	166.439893	-68.600222	166.439893	-0.049004	-38.104970
2.450000	-0.072579	-56.990189	-67.969099	165.256166	-67.969099	165.256166	-0.050032	-38.874016
2.500000	-0.074078	-58.110058	-67.358191	164.028538	-67.358191	164.028538	-0.051063	-39.641822
2.550000	-0.075586	-59.227928	-66.765275	162.761450	-66.765275	162.761450	-0.052097	-40.408320
2.600000	-0.077104	-60.343882	-66.190208	161.461637	-66.190208	161.461637	-0.053135	-41.173551
2.650000	-0.078633	-61.457923	-65.631906	160.133196	-65.631906	160.133196	-0.054177	-41.937500
2.700000	-0.080173	-62.570057	-65.089377	158.779621	-65.089377	158.779621	-0.055224	-42.700156
2.750000	-0.081725	-63.680288	-64.561715	157.403900	-64.561715	157.403900	-0.056276	-43.461504
2.800000	-0.083289	-64.788627	-64.048092	156.008599	-64.048092	156.008599	-0.057334	-44.221533
2.850000	-0.084867	-65.895084	-63.547746	154.595928	-63.547746	154.595928	-0.058398	-44.980231
2.900000	-0.086459	-66.999671	-63.059978	153.167798	-63.059978	153.167798	-0.059469	-45.737585
2.950000	-0.088065	-68.102405	-62.584143	151.725863	-62.584143	151.725863	-0.060547	-46.493584
3.000000	-0.089686	-69.203301	-62.119647	150.271562	-62.119647	150.271562	-0.061634	-47.248218
3.050000	-0.091323	-70.302380	-61.665939	148.806146	-61.665939	148.806146	-0.062728	-48.001475
3.100000	-0.092976	-71.399664	-61.222511	147.330709	-61.222511	147.330709	-0.063831	-48.753344
3.150000	-0.094646	-72.495177	-60.788891	145.846205	-60.788891	145.846205	-0.064943	-49.503816
3.200000	-0.096333	-73.588946	-60.364639	144.353471	-60.364639	144.353471	-0.066065	-50.252881
3.250000	-0.098039	-74.681002	-59.949346	142.853242	-59.949346	142.853242	-0.067197	-51.000530
3.300000	-0.099764	-75.771375	-59.542632	141.346164	-59.542632	141.346164	-0.068339	-51.746753
3.350000	-0.101508	-76.860103	-59.144141	139.832806	-59.144141	139.832806	-0.069492	-52.491543
3.400000	-0.103272	-77.947223	-58.753541	138.313668	-58.753541	138.313668	-0.070656	-53.234891
3.450000	-0.105056	-79.032777	-58.370520	136.789192	-58.370520	136.789192	-0.071832	-53.976790
3.500000	-0.106863	-80.116810	-57.994787	135.259769	-57.994787	135.259769	-0.073019	-54.717232
3.550000	-0.108692	-81.199372	-57.626066	133.725745	-57.626066	133.725745	-0.074219	-55.456210
3.600000	-0.110543	-82.280514	-57.264100	132.187424	-57.264100	132.187424	-0.075432	-56.193718
3.650000	-0.112419	-83.360295	-56.908645	130.645077	-56.908645	130.645077	-0.076658	-56.929751
3.700000	-0.114319	-84.438774	-56.559472	129.098943	-56.559472	129.098943	-0.077898	-57.664302
3.750000	-0.116245	-85.516021	-56.216363	127.549231	-56.216363	127.549231	-0.079152	-58.397366
3.800000	-0.118199	-86.592059	-55.878799	125.995988	-55.878799	125.995988	-0.080420	-59.128873
3.850000	-0.120181	-87.667021	-55.546918	124.439530	-55.546918	124.439530	-0.081704	-59.858884
3.900000	-0.122191	-88.740995	-55.220532	122.879995	-55.220532	122.879995	-0.083002	-60.587395
3.950000	-0.124231	-89.814074	-54.899462	121.317504	-54.899462	121.317504	-0.084316	-61.314402
4.000000	-0.126303	-90.886361	-54.583536	119.752158	-54.583536	119.752158	-0.085646	-62.039903
4.050000	-0.128408	-91.957970	-54.272588	118.184040	-54.272588	118.184040	-0.086992	-62.763895
4.100000	-0.130548	-93.029025	-53.966459	116.613219	-53.966459	116.613219	-0.088354	-63.486375
4.150000	-0.132724	-94.099665	-53.664993	115.039741	-53.664993	115.039741	-0.089734	-64.207341
4.200000	-0.134938	-95.170045	-53.368039	113.463635	-53.368039	113.463635	-0.091131	-64.926793
4.250000	-0.137194	-96.240337	-53.075450	111.884911	-53.075450	111.884911	-0.092545	-65.644728
4.300000	-0.139494	-97.310736	-52.787076	110.303553	-52.787076	110.303553	-0.093978	-66.361148
4.350000	-0.141841	-98.381466	-52.502772	108.719519	-52.502772	108.719519	-0.095429	-67.076050
4.400000	-0.144239	-99.452779	-52.222389	107.132737	-52.222389	107.132737	-0.096899	-67.789436
4.450000	-0.146694	-100.524969	-51.945775	105.543095	-51.945775	105.543095	-0.098389	-68.501306
4.500000	-0.149211	-101.598380	-51.672773	103.950437	-51.672773	103.950437	-0.099898	-69.211660
4.550000	-0.151798	-102.673414	-51.403219	102.354549	-51.403219	102.354549	-0.101427	-69.920501
4.600000	-0.154464	-103.750551	-51.136935	100.755141	-51.136935	100.755141	-0.102977	-70.627829
4.650000	-0.157222	-104.830369	-50.873728	99.151829	-50.873728	99.151829	-0.104547	-71.333646
4.700000	-0.160086	-105.913576	-50.613383	97.544106	-50.613383	97.544106	-0.106139	-72.037956
4.750000	-0.163079	-107.001043	-50.355656	95.931294	-50.355656	95.931294	-0.107752	-72.740760
4.800000	-0.166229	-108.093870	-50.100259	94.312489	-50.100259	94.312489	-0.109387	-73.442061
4.850000	-0.169574	-109.193460	-49.846851	92.686469	-49.846851	92.686469	-0.111045	-74.141864
4.900000	-0.173171	-110.301643	-49.595008	91.051558	-49.595008	91.051558	-0.112726	-74.840170
4.950000	-0.177100	-111.420853	-49.344198	89.405420	-49.344198	89.405420	-0.114430	-75.536985
5.000000	-0.181482	-112.554405	-49.093727	87.744731	-49.093727	87.744731	-0.116158	-76.232311
5.050000	-0.186587	-113.709164	-48.841880	86.062289	-48.841880	86.062289	-0.117913	-76.926033
5.100000	-0.192586	-114.887990	-48.588846	84.354652	-48.588846	84.354652	-0.119691	-77.618411
5.150000	-0.200233	-116.106471	-48.331037	82.604079	-48.331037	82.604079	-0.121496	-78.309221
5.200000	-0.210365	-117.377398	-48.066712	80.794142	-48.066712	80.794142	-0.123329	-78.998611
5.250000	-0.225225	-118.732693	-47.790358	78.882513	-47.790358	78.882513	-0.125193	-79.686532
5.300000	-0.248922	-120.218726	-47.495271	76.800751	-47.495271	76.800751	-0.127093	-80.373038
5.350000	-0.293780	-121.946611	-47.166529	74.365445	-47.166529	74.365445	-0.129039	-81.058166
5.400000	-0.398839	-124.145994	-46.783710	71.093698	-46.783710	71.093698	-0.131015	-81.742249
5.450000	-0.739836	-127.230257	-46.372423	65.312188	-46.372423	65.312188	-0.132911	-82.425016
5.500000	-2.099716	-127.049386	-46.983698	52.705477	-46.983698	52.705477	-0.134822	-83.105707
5.550000	-1.393376	-115.829279	-49.433931	61.601833	-49.433931	61.601833	-0.136808	-83.784866
5.600000	-0.582062	-118.656860	-48.380455	69.082303	-48.380455	69.082303	-0.138840	-84.462670
5.650000	-0.380091	-121.284186	-47.635336	68.861370	-47.635336	68.861370	-0.140907	-85.139117
5.700000	-0.310029	-123.230923	-47.164192	67.482642	-47.164192	67.482642	-0.143005	-85.814185
5.750000	-0.279042	-124.840521	-46.811453	65.886974	-46.811453	65.886974	-0.145134	-86.487910
5.800000	-0.263912	-126.265592	-46.519655	64.245060	-46.519655	64.245060	-0.147293	-87.160276
5.850000	-0.256351	-127.580828	-46.263274	62.599869	-46.263274	62.599869	-0.149483	-87.831244
5.900000	-0.252582	-128.831217	-46.028422	60.961813	-46.028422	60.961813	-0.151704	-88.500899
5.950000	-0.251130	-130.036918	-45.808795	59.333034	-45.808795	59.333034	-0.153956	-89.169219
6.000000	-0.251132	-131.211724	-45.600315	57.713257	-45.600315	57.713257	-0.156240	-89.836213
6.050000	-0.252125	-132.363865	-45.400516	56.101851	-45.400516	56.101851	-0.158557	-90.501834
6.100000	-0.253754	-133.500808	-45.207481	54.497132	-45.207481	54.497132	-0.160906	-91.166222
6.150000	-0.255879	-134.625699	-45.020210	52.898626	-45.020210	52.898626	-0.163287	-91.829315
6.200000	-0.258376	-135.741566	-44.837868	51.305573	-44.837868	51.305573	-0.165701	-92.491125
6.250000	-0.261164	-136.850652	-44.659839	49.717346	-44.659839	49.717346	-0.168150	-93.151664
6.300000	-0.264193	-137.954499	-44.485662	48.133599	-44.485662	48.133599	-0.170634	-93.810888
6.350000	-0.267412	-139.054684	-44.314964	46.553712	-44.314964	46.553712	-0.173153	-94.468867
6.400000	-0.270793	-140.152232	-44.147468	44.977347	-44.147468	44.977347	-0.175707	-95.125611
6.450000	-0.274314	-141.247979	-43.982949	43.404223	-43.982949	43.404223	-0.178296	-95.781134
6.500000	-0.277959	-142.342616	-43.821222	41.834104	-43.821222	41.834104	-0.180921	-96.435448
6.550000	-0.281715	-143.436727	-43.662134	40.266790	-43.662134	40.266790	-0.183583	-97.088567
6.600000	-0.285572	-144.530812	-43.505554	38.702112	-43.505554	38.702112	-0.186281	-97.740504
6.650000	-0.289524	-145.625305	-43.351371	37.139922	-43.351371	37.139922	-0.189017	-98.391273
6.700000	-0.293564	-146.720589	-43.199486	35.580095	-43.199486	35.580095	-0.191790	-99.040887
6.750000	-0.297686	-147.817007	-43.049816	34.022518	-43.049816	34.022518	-0.194601	-99.689361
6.800000	-0.301888	-148.914868	-42.902285	32.467095	-42.902285	32.467095	-0.197450	-100.336708
6.850000	-0.306165	-150.014455	-42.756828	30.913738	-42.756828	30.913738	-0.200338	-100.982944
6.900000	-0.310515	-151.116031	-42.613384	29.362370	-42.613384	29.362370	-0.203266	-101.628082
6.950000	-0.314936	-152.219843	-42.471899	27.812922	-42.471899	27.812922	-0.206232	-102.272139
7.000000	-0.319426	-153.326119	-42.332325	26.265331	-42.332325	26.265331	-0.209239	-102.915129
7.050000	-0.323983	-154.435083	-42.194618	24.719541	-42.194618	24.719541	-0.212286	-103.557067
7.100000	-0.328605	-155.546943	-42.058738	23.175503	-42.058738	23.175503	-0.215374	-104.197968
7.150000	-0.333292	-156.661904	-41.924648	21.633172	-41.924648	21.633172	-0.218503	-104.837850
7.200000	-0.338043	-157.780163	-41.792314	20.092510	-41.792314	20.092510	-0.221674	-105.476727
7.250000	-0.342856	-158.901913	-41.661705	18.553483	-41.661705	18.553483	-0.224886	-106.114616
7.300000	-0.347731	-160.027343	-41.532794	17.016062	-41.532794	17.016062	-0.228140	-106.751533
7.350000	-0.352666	-161.156639	-41.405554	15.480225	-41.405554	15.480225	-0.231438	-107.387495
7.400000	-0.357662	-162.289986	-41.279961	13.945955	-41.279961	13.945955	-0.234778	-108.022519
7.450000	-0.362718	-163.427565	-41.155994	12.413238	-41.155994	12.413238	-0.238161	-108.656621
7.500000	-0.367832	-164.569559	-41.033633	10.882071	-41.033633	10.882071	-0.241589	-109.289819
7.550000	-0.373007	-165.716355	-40.912857	9.352520	-40.912857	9.352520	-0.245062	-109.922092
7.600000	-0.378241	-166.867943	-40.793654	7.824528	-40.793654	7.824528	-0.248580	-110.553497
7.650000	-0.383532	-168.024505	-40.676009	6.298109	-40.676009	6.298109	-0.252142	-111.184053
7.700000	-0.388880	-169.186220	-40.559910	4.773287	-40.559910	4.773287	-0.255750	-111.813778
7.750000	-0.394284	-170.353273	-40.445344	3.250092	-40.445344	3.250092	-0.259403	-112.442688
7.800000	-0.399745	-171.525847	-40.332299	1.728564	-40.332299	1.728564	-0.263102	-113.070804
7.850000	-0.405263	-172.704126	-40.220766	0.208751	-40.220766	0.208751	-0.266848	-113.698143
7.900000	-0.410836	-173.888297	-40.110736	-1.309290	-40.110736	-1.309290	-0.270639	-114.324725
7.950000	-0.416465	-175.078548	-40.002201	-2.825490	-40.002201	-2.825490	-0.274478	-114.950569
8.000000	-0.422150	-176.275071	-39.895154	-4.339772	-39.895154	-4.339772	-0.278364	-115.575693
8.050000	-0.427890	-177.478057	-39.789589	-5.852048	-39.789589	-5.852048	-0.282297	-116.200118
8.100000	-0.433686	-178.687701	-39.685500	-7.362218	-39.685500	-7.362218	-0.286278	-116.823863
8.150000	-0.439537	-179.904201	-39.582881	-8.870170	-39.582881	-8.870170	-0.290308	-117.446948
8.200000	-0.445444	178.872243	-39.481729	-10.375780	-39.481729	-10.375780	-0.294385	-118.069394
8.250000	-0.451407	177.641428	-39.382040	-11.878911	-39.382040	-11.878911	-0.298512	-118.691220
8.300000	-0.457427	176.403147	-39.283810	-13.379413	-39.283810	-13.379413	-0.302687	-119.312447
8.350000	-0.463503	175.157192	-39.187035	-14.877124	-39.187035	-14.877124	-0.306912	-119.933096
8.400000	-0.469637	173.903348	-39.091713	-16.371865	-39.091713	-16.371865	-0.311186	-120.553188
8.450000	-0.475828	172.641399	-38.997840	-17.863444	-38.997840	-17.863444	-0.315510	-121.172745
8.500000	-0.482079	171.371124	-38.905413	-19.351654	-38.905413	-19.351654	-0.319885	-121.791788
8.550000	-0.488390	170.092297	-38.814430	-20.836272	-38.814430	-20.836272	-0.324310	-122.410338
8.600000	-0.494762	168.804690	-38.724886	-22.317060	-38.724886	-22.317060	-0.328785	-123.028418
8.650000	-0.501197	167.508066	-38.636779	-23.793765	-38.636779	-23.793765	-0.333312	-123.646050
8.700000	-0.507697	166.202185	-38.550104	-25.266115	-38.550104	-25.266115	-0.337889	-124.263256
8.750000	-0.514262	164.886802	-38.464858	-26.733823	-38.464858	-26.733823	-0.342519	-124.880059
8.800000	-0.520900	163.561228	-38.381062	-28.196355	-38.381062	-28.196355	-0.347202	-125.496467
8.850000	-0.527608	162.225615	-38.298687	-29.653587	-38.298687	-29.653587	-0.351937	-126.112520
8.900000	-0.534390	160.879696	-38.217726	-31.105178	-38.217726	-31.105178	-0.356724	-126.728242
8.950000	-0.541250	159.523194	-38.138173	-32.550769	-38.138173	-32.550769	-0.361564	-127.343657
9.000000	-0.548190	158.155824	-38.060019	-33.989982	-38.060019	-33.989982	-0.366456	-127.958788
9.050000	-0.555214	156.777291	-37.983258	-35.422421	-37.983258	-35.422421	-0.371401	-128.573660
9.100000	-0.562326	155.387288	-37.907881	-36.847671	-37.907881	-36.847671	-0.376400	-129.188298
9.150000	-0.569531	153.985495	-37.833877	-38.265301	-37.833877	-38.265301	-0.381452	-129.802727
9.200000	-0.576834	152.571577	-37.761237	-39.674857	-37.761237	-39.674857	-0.386557	-130.416971
9.250000	-0.584238	151.145187	-37.689948	-41.075871	-37.689948	-41.075871	-0.391716	-131.031057
9.300000	-0.591750	149.705956	-37.620000	-42.467851	-37.620000	-42.467851	-0.396929	-131.645010
9.350000	-0.599373	148.253498	-37.551380	-43.850291	-37.551380	-43.850291	-0.402196	-132.258855
9.400000	-0.607114	146.787401	-37.484074	-45.222661	-37.484074	-45.222661	-0.407517	-132.872620
9.450000	-0.614978	145.307230	-37.418068	-46.584416	-37.418068	-46.584416	-0.412893	-133.486331
9.500000	-0.622968	143.812521	-37.353350	-47.934988	-37.353350	-47.934988	-0.418324	-134.100015
9.550000	-0.631088	142.302774	-37.289903	-49.273792	-37.289903	-49.273792	-0.423809	-134.713700
9.600000	-0.639341	140.777453	-37.227714	-50.600221	-37.227714	-50.600221	-0.429350	-135.327413
9.650000	-0.647727	139.235980	-37.166767	-51.913652	-37.166767	-51.913652	-0.434945	-135.941182
9.700000	-0.656246	137.677726	-37.107049	-53.213439	-37.107049	-53.213439	-0.440596	-136.555036
9.750000	-0.664890	136.102010	-37.048545	-54.498918	-37.048545	-54.498918	-0.446302	-137.169002
9.800000	-0.673652	134.508084	-36.991242	-55.769404	-36.991242	-55.769404	-0.452064	-137.783112
9.850000	-0.682515	132.895133	-36.935128	-57.024195	-36.935128	-57.024195	-0.457882	-138.397393
9.900000	-0.691455	131.262261	-36.880192	-58.262566	-36.880192	-58.262566	-0.463756	-139.011876
9.950000	-0.700438	129.608484	-36.826425	-59.483776	-36.826425	-59.483776	-0.469686	-139.626590
10.000000	-0.709416	127.932722	-36.773820	-60.687063	-36.773820	-60.687063	-0.475672	-140.241568
