! freq	dB(S11)	phase(S11)	dB(S12)	phase(S12)	
!     	dB(S21)	phase(S21)	dB(S22)	phase(S22)	
!S-par simulation data
#  GHz  S  DB  R 50
0.000000	-82.854450	0.000000	-0.000625	0.000000	-0.000625	0.000000	-82.854450	0.000000
0.050000	-43.266295	-91.137449	-0.005694	-2.892261	-0.005694	-2.892261	-43.275957	-92.090137
0.100000	-37.335481	-93.712216	-0.011729	-5.743439	-0.011729	-5.743439	-37.355302	-95.778045
0.150000	-33.878373	-96.330008	-0.016770	-8.585047	-0.016770	-8.585047	-33.897732	-99.483540
0.200000	-31.424751	-98.930625	-0.021765	-11.423242	-0.021765	-11.423242	-31.443336	-103.142293
0.250000	-29.524267	-101.482046	-0.026971	-14.258215	-0.026971	-14.258215	-29.543417	-106.741552
0.300000	-27.977019	-103.984812	-0.032410	-17.090433	-0.032410	-17.090433	-27.997501	-110.293594
0.350000	-26.675808	-106.446596	-0.038068	-19.920506	-0.038068	-19.920506	-26.697698	-113.810505
0.400000	-25.556621	-108.872941	-0.043950	-22.748879	-0.043950	-22.748879	-25.579603	-117.300285
0.450000	-24.579199	-111.266227	-0.050084	-25.575807	-0.050084	-25.575807	-24.602708	-120.768238
0.500000	-23.713926	-113.632685	-0.056462	-28.401639	-0.056462	-28.401639	-23.737364	-124.221699
0.550000	-22.940185	-115.975219	-0.063083	-31.226523	-0.063083	-31.226523	-22.963016	-127.665123
0.600000	-22.243064	-118.295521	-0.069947	-34.050526	-0.069947	-34.050526	-22.264839	-131.102157
0.650000	-21.611620	-120.594514	-0.077053	-36.873668	-0.077053	-36.873668	-21.631997	-134.536265
0.700000	-21.035767	-122.875058	-0.084364	-39.696039	-0.084364	-39.696039	-21.054570	-137.970564
0.750000	-20.508289	-125.138225	-0.091858	-42.517663	-0.091858	-42.517663	-20.525447	-141.407391
0.800000	-20.024030	-127.384072	-0.099513	-45.338524	-0.099513	-45.338524	-20.039555	-144.849165
0.850000	-19.577930	-129.613695	-0.107295	-48.158662	-0.107295	-48.158662	-19.591909	-148.297840
0.900000	-19.165851	-131.827806	-0.115171	-50.978113	-0.115171	-50.978113	-19.178411	-151.755027
0.950000	-18.784557	-134.026620	-0.123109	-53.796910	-0.123109	-53.796910	-18.795835	-155.222318
1.000000	-18.431250	-136.210247	-0.131080	-56.615100	-0.131080	-56.615100	-18.441377	-158.701132
1.050000	-18.103542	-138.378605	-0.139056	-59.432744	-0.139056	-59.432744	-18.112621	-162.192777
1.100000	-17.799379	-140.531429	-0.147012	-62.249924	-0.147012	-62.249924	-17.807476	-165.698481
1.150000	-17.516970	-142.668282	-0.154927	-65.066739	-0.154927	-65.066739	-17.524107	-169.219410
1.200000	-17.254744	-144.788575	-0.162781	-67.883314	-0.162781	-67.883314	-17.260895	-172.756680
1.250000	-17.011301	-146.891594	-0.170559	-70.699794	-0.170559	-70.699794	-17.016399	-176.311370
1.300000	-16.785625	-148.976106	-0.178244	-73.516359	-0.178244	-73.516359	-16.789559	-179.884957
1.350000	-16.576323	-151.041594	-0.185828	-76.333204	-0.185828	-76.333204	-16.578958	176.521908
1.400000	-16.382347	-153.087127	-0.193300	-79.150545	-0.193300	-79.150545	-16.383530	172.908218
1.450000	-16.202725	-155.111763	-0.200653	-81.968612	-0.200653	-81.968612	-16.202296	169.272978
1.500000	-16.036548	-157.114576	-0.207882	-84.787649	-0.207882	-84.787649	-16.034351	165.615216
1.550000	-15.882963	-159.094685	-0.214981	-87.607913	-0.214981	-87.607913	-15.878852	161.933977
1.600000	-15.741158	-161.051269	-0.221946	-90.429663	-0.221946	-90.429663	-15.735011	158.228329
1.650000	-15.610362	-162.983590	-0.228775	-93.253166	-0.228775	-93.253166	-15.602084	154.497370
1.700000	-15.489837	-164.891006	-0.235469	-96.078688	-0.235469	-96.078688	-15.479366	150.740235
1.750000	-15.378875	-166.772984	-0.242026	-98.906493	-0.242026	-98.906493	-15.366181	146.956099
1.800000	-15.276796	-168.629107	-0.248448	-101.736844	-0.248448	-101.736844	-15.261886	143.144191
1.850000	-15.182942	-170.459083	-0.254740	-104.569999	-0.254740	-104.569999	-15.165857	139.303802
1.900000	-15.096747	-172.262464	-0.260903	-107.406244	-0.260903	-107.406244	-15.077561	135.433976
1.950000	-15.017581	-174.039225	-0.266945	-110.245830	-0.266945	-110.245830	-14.996396	131.534148
2.000000	-14.944780	-175.789770	-0.272873	-113.088960	-0.272873	-113.088960	-14.921720	127.604192
2.050000	-14.877770	-177.514356	-0.278697	-115.935858	-0.278697	-115.935858	-14.852976	123.643780
2.100000	-14.815996	-179.213381	-0.284424	-118.786741	-0.284424	-118.786741	-14.789622	119.652710
2.150000	-14.758920	179.112615	-0.290067	-121.641814	-0.290067	-121.641814	-14.731125	115.630924
2.200000	-14.706025	177.462943	-0.295636	-124.501271	-0.295636	-124.501271	-14.676966	111.578515
2.250000	-14.656808	175.836770	-0.301143	-127.365298	-0.301143	-127.365298	-14.626641	107.495746
2.300000	-14.610788	174.233111	-0.306601	-130.234067	-0.306601	-130.234067	-14.579655	103.383059
2.350000	-14.567500	172.650832	-0.312022	-133.107741	-0.312022	-133.107741	-14.535534	99.241082
2.400000	-14.526500	171.088644	-0.317419	-135.986471	-0.317419	-135.986471	-14.493816	95.070645
2.450000	-14.487364	169.545106	-0.322805	-138.870399	-0.322805	-138.870399	-14.454063	90.872777
2.500000	-14.449691	168.018624	-0.328193	-141.759656	-0.328193	-141.759656	-14.415855	86.648715
2.550000	-14.413116	166.507741	-0.333595	-144.654485	-0.333595	-144.654485	-14.378812	82.399400
2.600000	-14.377259	165.010183	-0.339024	-147.554881	-0.339024	-147.554881	-14.342540	78.127062
2.650000	-14.341797	163.523902	-0.344491	-150.460947	-0.344491	-150.460947	-14.306706	73.833549
2.700000	-14.306439	162.046720	-0.350005	-153.372779	-0.350005	-153.372779	-14.271010	69.520890
2.750000	-14.270923	160.576332	-0.355576	-156.290466	-0.355576	-156.290466	-14.235192	65.191281
2.800000	-14.235024	159.110323	-0.361210	-159.214091	-0.361210	-159.214091	-14.199027	60.847057
2.850000	-14.198552	157.646182	-0.366915	-162.143733	-0.366915	-162.143733	-14.162336	56.490675
2.900000	-14.161354	156.181321	-0.372696	-165.079468	-0.372696	-165.079468	-14.124982	52.124684
2.950000	-14.123321	154.713092	-0.378554	-168.021370	-0.378554	-168.021370	-14.086872	47.751692
3.000000	-14.084383	153.238816	-0.384491	-170.969512	-0.384491	-170.969512	-14.047964	43.374342
3.050000	-14.044513	151.755801	-0.390507	-173.923969	-0.390507	-173.923969	-14.008257	38.995271
3.100000	-14.003727	150.261370	-0.396599	-176.884819	-0.396599	-176.884819	-13.967801	34.617080
3.150000	-13.962074	148.752708	-0.402762	-179.852215	-0.402762	-179.852215	-13.926681	30.242362
3.200000	-13.919662	147.227164	-0.408990	177.173750	-0.408990	177.173750	-13.885041	25.873623
3.250000	-13.876650	145.682427	-0.415272	174.193050	-0.415272	174.193050	-13.843076	21.513106
3.300000	-13.833228	144.116157	-0.421597	171.205574	-0.421597	171.205574	-13.801007	17.162928
3.350000	-13.789618	142.525070	-0.427952	168.210909	-0.427952	168.210909	-13.759109	12.825604
3.400000	-13.746102	140.909704	-0.434320	165.209618	-0.434320	165.209618	-13.717654	8.501459
3.450000	-13.702945	139.267825	-0.440685	162.201412	-0.440685	162.201412	-13.676942	4.192140
3.500000	-13.660561	137.593439	-0.447024	159.185026	-0.447024	159.185026	-13.637476	-0.098629
3.550000	-13.619228	135.889863	-0.453318	156.161463	-0.453318	156.161463	-13.599483	-4.372580
3.600000	-13.579286	134.156052	-0.459548	153.130532	-0.459548	153.130532	-13.563317	-8.629098
3.650000	-13.541348	132.386987	-0.465678	150.091004	-0.465678	150.091004	-13.529671	-12.865430
3.700000	-13.505749	130.584255	-0.471686	147.043171	-0.471686	147.043171	-13.498852	-17.082757
3.750000	-13.472793	128.749167	-0.477554	143.987190	-0.477554	143.987190	-13.471148	-21.282190
3.800000	-13.443097	126.879519	-0.483245	140.922244	-0.483245	140.922244	-13.447214	-25.463038
3.850000	-13.417406	124.973160	-0.488715	137.847373	-0.488715	137.847373	-13.427838	-29.624906
3.900000	-13.395777	123.034392	-0.493960	134.763292	-0.493960	134.763292	-13.413021	-33.770832
3.950000	-13.378667	121.063594	-0.498953	131.669616	-0.498953	131.669616	-13.403229	-37.901872
4.000000	-13.367508	119.055914	-0.503614	128.564089	-0.503614	128.564089	-13.400003	-42.017157
4.050000	-13.362035	117.017448	-0.507959	125.447847	-0.507959	125.447847	-13.403007	-46.120684
4.100000	-13.362707	114.949476	-0.511966	122.320494	-0.511966	122.320494	-13.412718	-50.214354
4.150000	-13.370624	112.850980	-0.515578	119.180529	-0.515578	119.180529	-13.430307	-54.299678
4.200000	-13.386308	110.724052	-0.518774	116.027494	-0.518774	116.027494	-13.456325	-58.379399
4.250000	-13.410635	108.570009	-0.521519	112.860355	-0.521519	112.860355	-13.491706	-62.456454
4.300000	-13.443887	106.392151	-0.523810	109.679038	-0.523810	109.679038	-13.536758	-66.534063
4.350000	-13.487236	104.191719	-0.525606	106.482057	-0.525606	106.482057	-13.592751	-70.615788
4.400000	-13.541248	101.971933	-0.526901	103.268925	-0.526901	103.268925	-13.660315	-74.705400
4.450000	-13.606791	99.735626	-0.527678	100.038709	-0.527678	100.038709	-13.740418	-78.807007
4.500000	-13.685179	97.485779	-0.527913	96.789869	-0.527913	96.789869	-13.834513	-82.925784
4.550000	-13.776926	95.226629	-0.527620	93.522148	-0.527620	93.522148	-13.943218	-87.065995
4.600000	-13.883885	92.962142	-0.526770	90.233371	-0.526770	90.233371	-14.068604	-91.234638
4.650000	-14.006841	90.697546	-0.525385	86.923090	-0.525385	86.923090	-14.211621	-95.437081
4.700000	-14.147433	88.438559	-0.523469	83.589741	-0.523469	83.589741	-14.374165	-99.680830
4.750000	-14.307613	86.192397	-0.521029	80.231494	-0.521029	80.231494	-14.558514	-103.975063
4.800000	-14.488602	83.966497	-0.518107	76.847826	-0.518107	76.847826	-14.766205	-108.327029
4.850000	-14.693627	81.772380	-0.514708	73.435597	-0.514708	73.435597	-15.001022	-112.751581
4.900000	-14.924197	79.620605	-0.510897	69.994507	-0.510897	69.994507	-15.264978	-117.258187
4.950000	-15.183658	77.527061	-0.506718	66.522047	-0.506718	66.522047	-15.562221	-121.864352
5.000000	-15.475457	75.511433	-0.502235	63.016096	-0.502235	63.016096	-15.897211	-126.590225
5.050000	-15.802668	73.594399	-0.497535	59.475686	-0.497535	59.475686	-16.274245	-131.455087
5.100000	-16.171316	71.814679	-0.492705	55.896424	-0.492705	55.896424	-16.701359	-136.499451
5.150000	-16.584988	70.204981	-0.487866	52.278204	-0.487866	52.278204	-17.184394	-141.752617
5.200000	-17.051467	68.834472	-0.483161	48.615852	-0.483161	48.615852	-17.735039	-147.285202
5.250000	-17.574995	67.757101	-0.478734	44.910204	-0.478734	44.910204	-18.362078	-153.148095
5.300000	-18.163653	67.075764	-0.474763	41.157356	-0.474763	41.157356	-19.081122	-159.448574
5.350000	-18.825557	66.960091	-0.471498	37.351965	-0.471498	37.351965	-19.912219	-166.372349
5.400000	-19.564389	67.593726	-0.469167	33.492798	-0.469167	33.492798	-20.875631	-174.140116
5.450000	-20.378452	69.284728	-0.468080	29.575434	-0.468080	29.575434	-21.995566	176.834357
5.500000	-21.249797	72.421724	-0.468560	25.596972	-0.468560	25.596972	-23.288304	165.913228
5.550000	-22.125323	77.522458	-0.471006	21.553217	-0.471006	21.553217	-24.731567	151.993622
5.600000	-22.887544	85.079042	-0.475873	17.439940	-0.475873	17.439940	-26.169165	133.456189
5.650000	-23.341459	95.125775	-0.483651	13.253517	-0.483651	13.253517	-27.142651	109.154813
5.700000	-23.261295	106.723210	-0.494992	8.988132	-0.494992	8.988132	-26.957533	81.381345
5.750000	-22.584931	117.932679	-0.510481	4.641006	-0.510481	4.641006	-25.580868	56.120593
5.800000	-21.435063	127.002536	-0.531047	0.204485	-0.531047	0.204485	-23.635298	36.495544
5.850000	-20.055617	133.424932	-0.557398	-4.323407	-0.557398	-4.323407	-21.657997	21.385079
5.900000	-18.607415	137.377518	-0.590773	-8.951202	-0.590773	-8.951202	-19.818877	9.267616
5.950000	-17.191805	139.448820	-0.632122	-13.681241	-0.632122	-13.681241	-18.157973	-1.096055
6.000000	-15.843696	140.077522	-0.682967	-18.521317	-0.682967	-18.521317	-16.657819	-10.371901
6.050000	-14.577341	139.647194	-0.744675	-23.475050	-0.744675	-23.475050	-15.297529	-18.997410
6.100000	-13.391685	138.407818	-0.819049	-28.548508	-0.819049	-28.548508	-14.054893	-27.229478
6.150000	-12.282485	136.543970	-0.907946	-33.745755	-0.907946	-33.745755	-12.912595	-35.238635
6.200000	-11.243360	134.179593	-1.013647	-39.071894	-1.013647	-39.071894	-11.856244	-43.137736
6.250000	-10.268868	131.407880	-1.138529	-44.529854	-1.138529	-44.529854	-10.875207	-51.006182
6.300000	-9.353768	128.292810	-1.285467	-50.123047	-1.285467	-50.123047	-9.960893	-58.900239
6.350000	-8.494361	124.886581	-1.457332	-55.851526	-1.457332	-55.851526	-9.107245	-66.859771
6.400000	-7.687500	121.227496	-1.657409	-61.714534	-1.657409	-61.714534	-8.309483	-74.912781
6.450000	-6.930864	117.346723	-1.889251	-67.709140	-1.889251	-67.709140	-7.564087	-83.078059
6.500000	-6.222800	113.270014	-2.156842	-73.830542	-2.156842	-73.830542	-6.868494	-91.367397
6.550000	-5.562376	109.022907	-2.464059	-80.069523	-2.464059	-80.069523	-6.221009	-99.784251
6.600000	-4.948958	104.629106	-2.815010	-86.414071	-2.815010	-86.414071	-5.620377	-108.326087
6.650000	-4.382146	100.112187	-3.213915	-92.848811	-3.213915	-92.848811	-5.065666	-116.984593
6.700000	-3.861829	95.495588	-3.665345	-99.355353	-3.665345	-99.355353	-4.556303	-125.746936
6.750000	-3.387354	90.806303	-4.172847	-105.909997	-4.172847	-105.909997	-4.091232	-134.592399
6.800000	-2.958269	86.069673	-4.740704	-112.487640	-4.740704	-112.487640	-3.669657	-143.498675
6.850000	-2.573686	81.312264	-5.372793	-119.059943	-5.372793	-119.059943	-3.290403	-152.439199
6.900000	-2.231992	76.560390	-6.072648	-125.596935	-6.072648	-125.596935	-2.951653	-161.384948
6.950000	-1.931844	71.839703	-6.844138	-132.066113	-6.844138	-132.066113	-2.651870	-170.305565
7.000000	-1.670261	67.172530	-7.691019	-138.437338	-7.691019	-138.437338	-2.388046	-179.172003
7.050000	-1.445506	62.581832	-8.617325	-144.674133	-8.617325	-144.674133	-2.158330	172.047097
7.100000	-1.253602	58.082425	-9.628755	-150.748396	-9.628755	-150.748396	-1.958878	163.375439
7.150000	-1.092304	53.691931	-10.730763	-156.619199	-10.730763	-156.619199	-1.787438	154.841595
7.200000	-0.957572	49.417653	-11.933318	-162.255042	-11.933318	-162.255042	-1.640193	146.462475
7.250000	-0.846696	45.269465	-13.247031	-167.605323	-13.247031	-167.605323	-1.514548	138.259595
7.300000	-0.756217	41.249378	-14.689878	-172.616753	-14.689878	-172.616753	-1.407298	130.244587
7.350000	-0.683340	37.359565	-16.285375	-177.203596	-16.285375	-177.203596	-1.315868	122.430053
7.400000	-0.625341	33.598730	-18.069183	178.764633	-18.069183	178.764633	-1.237792	114.823862
7.450000	-0.579697	29.962948	-20.096807	175.508990	-20.096807	175.508990	-1.170825	107.429794
7.500000	-0.544401	26.449447	-22.450446	173.481474	-22.450446	173.481474	-1.113212	100.253616
7.550000	-0.517382	23.050210	-25.273929	173.590362	-25.273929	173.590362	-1.063173	93.291328
7.600000	-0.497240	19.762307	-28.760392	178.393382	-28.760392	178.393382	-1.019545	86.547976
7.650000	-0.482410	16.575681	-32.972809	-165.311408	-32.972809	-165.311408	-0.981021	80.013746
7.700000	-0.471921	13.487237	-35.415377	-126.217145	-35.415377	-126.217145	-0.946851	73.692239
7.750000	-0.464799	10.490381	-33.049200	-93.013144	-33.049200	-93.013144	-0.916277	67.579122
7.800000	-0.460101	7.572829	-30.073653	-79.449986	-30.073653	-79.449986	-0.888514	61.654697
7.850000	-0.457381	4.733606	-27.816120	-75.388909	-27.816120	-75.388909	-0.863287	55.924707
7.900000	-0.456146	1.968072	-26.173217	-74.887417	-26.173217	-74.887417	-0.840257	50.386086
7.950000	-0.455938	-0.733115	-24.941888	-75.908307	-24.941888	-75.908307	-0.819039	45.021600
8.000000	-0.456482	-3.374615	-23.999730	-77.727352	-23.999730	-77.727352	-0.799439	39.824718
8.050000	-0.457588	-5.957482	-23.277344	-79.999121	-23.277344	-79.999121	-0.781392	34.798867
8.100000	-0.459052	-8.489722	-22.714913	-82.502182	-22.714913	-82.502182	-0.764689	29.926192
8.150000	-0.460771	-10.973456	-22.281965	-85.138385	-22.281965	-85.138385	-0.749293	25.205183
8.200000	-0.462661	-13.412316	-21.954102	-87.839176	-21.954102	-87.839176	-0.735154	20.629233
8.250000	-0.464673	-15.810251	-21.712737	-90.561648	-21.712737	-90.561648	-0.722221	16.189752
8.300000	-0.466773	-18.173462	-21.539680	-93.279090	-21.539680	-93.279090	-0.710380	11.869434
8.350000	-0.468973	-20.498640	-21.436743	-95.968499	-21.436743	-95.968499	-0.699831	7.683552
8.400000	-0.471266	-22.795010	-21.385498	-98.620903	-21.385498	-98.620903	-0.690360	3.602621
8.450000	-0.473689	-25.061306	-21.387883	-101.219187	-21.387883	-101.219187	-0.682138	-0.365452
8.500000	-0.476271	-27.301206	-21.438440	-103.754707	-21.438440	-103.754707	-0.675154	-4.231182
8.550000	-0.479037	-29.519107	-21.531328	-106.223651	-21.531328	-106.223651	-0.669350	-8.008627
8.600000	-0.482087	-31.713242	-21.674107	-108.599316	-21.674107	-108.599316	-0.665047	-11.686514
8.650000	-0.485430	-33.890038	-21.858892	-110.885236	-21.858892	-110.885236	-0.662072	-15.287848
8.700000	-0.489156	-36.050650	-22.090022	-113.059397	-22.090022	-113.059397	-0.660621	-18.813155
8.750000	-0.493373	-38.196936	-22.372801	-115.092759	-22.372801	-115.092759	-0.660927	-22.264946
8.800000	-0.498110	-40.333157	-22.706253	-116.975810	-22.706253	-116.975810	-0.662932	-25.658164
8.850000	-0.503578	-42.460878	-23.103436	-118.638907	-23.103436	-118.638907	-0.667154	-28.990632
8.900000	-0.509851	-44.584052	-23.568887	-120.042391	-23.568887	-120.042391	-0.673670	-32.274820
8.950000	-0.517072	-46.706050	-24.112902	-121.110776	-24.112902	-121.110776	-0.682753	-35.518728
9.000000	-0.525645	-48.831243	-24.759402	-121.633263	-24.759402	-121.633263	-0.695334	-38.725019
9.050000	-0.535638	-50.963519	-25.518050	-121.485433	-25.518050	-121.485433	-0.711444	-41.907864
9.100000	-0.547615	-53.109166	-26.416569	-120.209086	-26.416569	-120.209086	-0.732309	-45.074369
9.150000	-0.562126	-55.274761	-27.469944	-117.147125	-27.469944	-117.147125	-0.759038	-48.235831
9.200000	-0.579606	-57.465324	-28.660251	-111.499501	-28.660251	-111.499501	-0.792421	-51.403872
9.250000	-0.601856	-59.696414	-29.797091	-100.885551	-29.797091	-100.885551	-0.836112	-54.596215
9.300000	-0.629707	-61.973219	-30.434209	-84.852750	-30.434209	-84.852750	-0.891513	-57.825656
9.350000	-0.665389	-64.309409	-29.883463	-65.570700	-29.883463	-65.570700	-0.962786	-61.110869
9.400000	-0.712849	-66.725379	-27.968393	-49.258972	-27.968393	-49.258972	-1.057177	-64.477764
9.450000	-0.777631	-69.240347	-25.413375	-39.570789	-25.413375	-39.570789	-1.184495	-67.950720
9.500000	-0.867431	-71.869070	-22.791572	-35.270617	-22.791572	-35.270617	-1.358124	-71.545539
9.550000	-0.995313	-74.623109	-20.268849	-34.873087	-20.268849	-34.873087	-1.600753	-75.265642
9.600000	-1.182524	-77.487364	-17.870896	-37.479462	-17.870896	-37.479462	-1.949242	-79.061170
9.650000	-1.456652	-80.369796	-15.619683	-42.627512	-15.619683	-42.627512	-2.452512	-82.743046
9.700000	-1.857917	-82.998744	-13.530804	-50.353436	-13.530804	-50.353436	-3.183090	-85.757208
9.750000	-2.402654	-84.810331	-11.694273	-60.558154	-11.694273	-60.558154	-4.170125	-86.918135
9.800000	-3.033360	-84.895148	-10.229930	-73.003753	-10.229930	-73.003753	-5.257069	-84.166928
9.850000	-3.536748	-82.760691	-9.262543	-86.752121	-9.262543	-86.752121	-5.861636	-76.797766
9.900000	-3.680146	-79.507268	-8.814294	-100.381168	-8.814294	-100.381168	-5.509876	-69.066501
9.950000	-3.479041	-77.047975	-8.780703	-112.671194	-8.780703	-112.671194	-4.614904	-65.398475
10.000000	-3.134135	-76.193000	-8.999433	-123.078817	-8.999433	-123.078817	-3.743717	-65.486282
