! freq	dB(S11)	phase(S11)	dB(S12)	phase(S12)	
!     	dB(S21)	phase(S21)	dB(S22)	phase(S22)	
!S-par simulation data
#  GHz  S  DB  R 50
0.000000	-0.000000	0.000000	-359.428124	0.000000	-359.428124	0.000000	0.000000	0.000000
0.050000	-0.000119	-0.813168	-108.460707	21.469535	-108.460707	21.469535	-0.000121	-0.813221
0.100000	-0.000470	-1.626014	-106.921816	37.857112	-106.921816	37.857112	-0.000476	-1.626113
0.150000	-0.001033	-2.438247	-105.223345	48.588861	-105.223345	48.588861	-0.001045	-2.438378
0.200000	-0.001780	-3.249643	-103.674157	55.561714	-103.674157	55.561714	-0.001800	-3.249789
0.250000	-0.002689	-4.059966	-102.345994	60.102579	-102.345994	60.102579	-0.002716	-4.060108
0.300000	-0.003710	-4.869206	-101.234790	63.317297	-101.234790	63.317297	-0.003744	-4.869330
0.350000	-0.004820	-5.677273	-100.317350	65.633922	-100.317350	65.633922	-0.004859	-5.677368
0.400000	-0.005989	-6.484165	-99.572376	67.390617	-99.572376	67.390617	-0.006032	-6.484223
0.450000	-0.007195	-7.289911	-98.982912	68.812560	-98.982912	68.812560	-0.007239	-7.289928
0.500000	-0.008418	-8.094559	-98.536901	70.063750	-98.536901	70.063750	-0.008463	-8.094536
0.550000	-0.009645	-8.898167	-98.226777	71.277970	-98.226777	71.277970	-0.009688	-8.898108
0.600000	-0.010865	-9.700795	-98.048909	72.579765	-98.048909	72.579765	-0.010905	-9.700705
0.650000	-0.012073	-10.502498	-98.003060	74.101873	-98.003060	74.101873	-0.012109	-10.502384
0.700000	-0.013263	-11.303326	-98.091724	76.003650	-98.091724	76.003650	-0.013296	-11.303192
0.750000	-0.014436	-12.103317	-98.318884	78.494698	-98.318884	78.494698	-0.014464	-12.103171
0.800000	-0.015589	-12.902501	-98.687125	81.867966	-98.687125	81.867966	-0.015613	-12.902350
0.850000	-0.016724	-13.700901	-99.190596	86.544249	-99.190596	86.544249	-0.016744	-13.700749
0.900000	-0.017842	-14.498531	-99.798532	93.114319	-99.798532	93.114319	-0.017858	-14.498382
0.950000	-0.018944	-15.295397	-100.421289	102.306528	-100.421289	102.306528	-0.018957	-15.295255
1.000000	-0.020033	-16.091501	-100.861814	114.684667	-100.861814	114.684667	-0.020042	-16.091368
1.050000	-0.021109	-16.886838	-100.815204	129.886668	-100.815204	129.886668	-0.021115	-16.886717
1.100000	-0.022174	-17.681402	-100.042394	145.908882	-100.042394	145.908882	-0.022179	-17.681294
1.150000	-0.023230	-18.475180	-98.615769	159.997178	-98.615769	159.997178	-0.023233	-18.475087
1.200000	-0.024279	-19.268161	-96.842114	170.737188	-96.842114	170.737188	-0.024280	-19.268082
1.250000	-0.025321	-20.060329	-94.988887	178.335715	-94.988887	178.335715	-0.025321	-20.060263
1.300000	-0.026357	-20.851629	-93.182859	-176.507962	-93.182859	-176.507962	-0.026357	-20.851578
1.350000	-0.027389	-21.642081	-91.488741	-172.977888	-91.488741	-172.977888	-0.027388	-21.642042
1.400000	-0.028418	-22.431664	-89.913591	-170.592660	-89.913591	-170.592660	-0.028416	-22.431638
1.450000	-0.029443	-23.220361	-88.450370	-169.025432	-88.450370	-169.025432	-0.029442	-23.220346
1.500000	-0.030466	-24.008152	-87.087855	-168.055067	-87.087855	-168.055067	-0.030465	-24.008147
1.550000	-0.031488	-24.795018	-85.814488	-167.530024	-85.814488	-167.530024	-0.031487	-24.795022
1.600000	-0.032508	-25.580939	-84.619718	-167.344442	-84.619718	-167.344442	-0.032507	-25.580951
1.650000	-0.033527	-26.365896	-83.494346	-167.422794	-83.494346	-167.422794	-0.033526	-26.365916
1.700000	-0.034545	-27.149520	-82.406478	-167.763854	-82.406478	-167.763854	-0.034545	-27.149545
1.750000	-0.035563	-27.932625	-81.408102	-168.198966	-81.408102	-168.198966	-0.035564	-27.932655
1.800000	-0.036581	-28.714478	-80.444131	-168.789267	-80.444131	-168.789267	-0.036582	-28.714512
1.850000	-0.037600	-29.495438	-79.532472	-169.490418	-79.532472	-169.490418	-0.037601	-29.495475
1.900000	-0.038618	-30.275286	-78.657705	-170.282730	-78.657705	-170.282730	-0.038620	-30.275325
1.950000	-0.039638	-31.054022	-77.817861	-171.166201	-77.817861	-171.166201	-0.039640	-31.054063
2.000000	-0.040658	-31.831800	-77.016455	-172.104038	-77.016455	-172.104038	-0.040661	-31.831843
2.050000	-0.041679	-32.608237	-76.237125	-173.117986	-76.237125	-173.117986	-0.041682	-32.608280
2.100000	-0.042702	-33.383883	-75.497174	-174.164160	-75.497174	-174.164160	-0.042705	-33.383926
2.150000	-0.043726	-34.157948	-74.769627	-175.274786	-74.769627	-175.274786	-0.043730	-34.157991
2.200000	-0.044752	-34.931403	-74.081975	-176.403835	-74.081975	-176.403835	-0.044756	-34.931445
2.250000	-0.045781	-35.703026	-73.399335	-177.588153	-73.399335	-177.588153	-0.045785	-35.703067
2.300000	-0.046811	-36.474232	-72.756789	-178.782055	-72.756789	-178.782055	-0.046815	-36.474271
2.350000	-0.047845	-37.243347	-72.113540	179.976123	-72.113540	179.976123	-0.047849	-37.243384
2.400000	-0.048880	-38.012247	-71.510347	178.730488	-71.510347	178.730488	-0.048884	-38.012283
2.450000	-0.049921	-38.778790	-70.901995	177.442906	-70.901995	177.442906	-0.049925	-38.778825
2.500000	-0.050962	-39.545334	-70.333477	176.155323	-70.333477	176.155323	-0.050966	-39.545366
2.550000	-0.052011	-40.309244	-69.756307	174.830716	-69.756307	174.830716	-0.052014	-40.309275
2.600000	-0.053060	-41.073155	-69.215112	173.506108	-69.215112	173.506108	-0.053063	-41.073184
2.650000	-0.054117	-41.834600	-68.669507	172.153647	-68.669507	172.153647	-0.054121	-41.834627
2.700000	-0.055176	-42.595821	-68.153067	170.798654	-68.153067	170.798654	-0.055179	-42.595846
2.750000	-0.056244	-43.354755	-67.635740	169.422627	-67.635740	169.422627	-0.056246	-43.354778
2.800000	-0.057313	-44.113231	-67.141863	168.042392	-67.141863	168.042392	-0.057316	-44.113253
2.850000	-0.058392	-44.869611	-66.650033	166.646266	-66.650033	166.646266	-0.058394	-44.869631
2.900000	-0.059474	-45.625291	-66.176831	165.244842	-66.176831	165.244842	-0.059476	-45.625311
2.950000	-0.060566	-46.379076	-65.708126	163.831454	-65.708126	163.831454	-0.060568	-46.379094
3.000000	-0.061663	-47.131913	-65.253959	162.412083	-65.253959	162.412083	-0.061664	-47.131929
3.050000	-0.062769	-47.883064	-64.806336	160.983776	-64.806336	160.983776	-0.062770	-47.883080
3.100000	-0.063882	-48.633012	-64.369769	159.549086	-64.369769	159.549086	-0.063882	-48.633026
3.150000	-0.065003	-49.381494	-63.941455	158.107818	-63.941455	158.107818	-0.065004	-49.381507
3.200000	-0.066134	-50.128511	-63.521225	156.659971	-63.521225	156.659971	-0.066134	-50.128523
3.250000	-0.067273	-50.874290	-63.110672	155.207391	-63.110672	155.207391	-0.067272	-50.874301
3.300000	-0.068423	-51.618337	-62.705661	153.748185	-62.705661	153.748185	-0.068422	-51.618347
3.350000	-0.069580	-52.361382	-62.311508	152.285697	-62.311508	152.285697	-0.069580	-52.361392
3.400000	-0.070752	-53.102423	-61.920718	150.816646	-61.920718	150.816646	-0.070751	-53.102433
3.450000	-0.071930	-53.842706	-61.541763	149.345457	-61.541763	149.345457	-0.071929	-53.842715
3.500000	-0.073125	-54.580710	-61.164303	147.867853	-61.164303	147.867853	-0.073124	-54.580718
3.550000	-0.074325	-55.318204	-60.799478	146.389009	-60.799478	146.389009	-0.074323	-55.318211
3.600000	-0.075545	-56.053142	-60.434547	144.903965	-60.434547	144.903965	-0.075543	-56.053149
3.650000	-0.076768	-56.787823	-60.082897	143.418383	-60.082897	143.418383	-0.076766	-56.787829
3.700000	-0.078016	-57.519670	-59.729770	141.926873	-59.729770	141.926873	-0.078013	-57.519676
3.750000	-0.079263	-58.251517	-59.390441	140.435363	-59.390441	140.435363	-0.079261	-58.251522
3.800000	-0.080540	-58.980250	-59.048463	138.938245	-59.048463	138.938245	-0.080537	-58.980255
3.850000	-0.081817	-59.708984	-58.719441	137.441128	-58.719441	137.441128	-0.081814	-59.708988
3.900000	-0.083121	-60.434846	-58.389257	135.939574	-58.389257	135.939574	-0.083119	-60.434850
3.950000	-0.084429	-61.160448	-58.070014	134.437617	-58.070014	134.437617	-0.084426	-61.160451
4.000000	-0.085764	-61.883426	-57.750912	132.932205	-57.750912	132.932205	-0.085761	-61.883429
4.050000	-0.087104	-62.605881	-57.440964	131.426102	-57.440964	131.426102	-0.087101	-62.605882
4.100000	-0.088470	-63.325965	-57.132296	129.917365	-57.132296	129.917365	-0.088467	-63.325966
4.150000	-0.089844	-64.045260	-56.831197	128.407750	-56.831197	128.407750	-0.089841	-64.045260
4.200000	-0.091243	-64.762444	-56.532375	126.896184	-56.532375	126.896184	-0.091240	-64.762442
4.250000	-0.092654	-65.478571	-56.239715	125.383641	-56.239715	125.383641	-0.092651	-65.478569
4.300000	-0.094087	-66.192848	-55.950198	123.869709	-55.950198	123.869709	-0.094084	-66.192844
4.350000	-0.095536	-66.905803	-55.665598	122.354784	-55.665598	122.354784	-0.095533	-66.905798
4.400000	-0.097005	-67.617171	-55.384892	120.838922	-55.384892	120.838922	-0.097002	-67.617164
4.450000	-0.098494	-68.326951	-55.107998	119.322124	-55.107998	119.322124	-0.098491	-68.326944
4.500000	-0.100000	-69.035409	-54.835648	117.804747	-54.835648	117.804747	-0.099998	-69.035401
4.550000	-0.101531	-69.742017	-54.566132	116.286559	-54.566132	116.286559	-0.101528	-69.742007
4.600000	-0.103076	-70.447569	-54.301718	114.768060	-54.301718	114.768060	-0.103073	-70.447557
4.650000	-0.104650	-71.151009	-54.039272	113.248938	-54.039272	113.248938	-0.104647	-71.150996
4.700000	-0.106235	-71.853659	-53.782405	111.729692	-53.782405	111.729692	-0.106233	-71.853644
4.750000	-0.107854	-72.553939	-53.526742	110.210073	-53.526742	110.210073	-0.107852	-72.553922
4.800000	-0.109481	-73.253694	-53.277061	108.690440	-53.277061	108.690440	-0.109479	-73.253676
4.850000	-0.111146	-73.950826	-53.027908	107.170739	-53.027908	107.170739	-0.111145	-73.950806
4.900000	-0.112816	-74.647697	-52.785079	105.651065	-52.785079	105.651065	-0.112815	-74.647675
4.950000	-0.114531	-75.341694	-52.542179	104.131679	-52.542179	104.131679	-0.114529	-75.341671
5.000000	-0.116245	-76.035692	-52.305887	102.612293	-52.305887	102.612293	-0.116243	-76.035666
5.050000	-0.118009	-76.726574	-52.068998	101.093602	-52.068998	101.093602	-0.118008	-76.726546
5.100000	-0.119774	-77.417455	-51.838398	99.574911	-51.838398	99.574911	-0.119772	-77.417425
5.150000	-0.121586	-78.105499	-51.607841	98.057187	-51.607841	98.057187	-0.121584	-78.105467
5.200000	-0.123402	-78.793284	-51.382722	96.539552	-51.382722	96.539552	-0.123401	-78.793251
5.250000	-0.125263	-79.478510	-51.158214	95.023082	-51.158214	95.023082	-0.125262	-79.478474
5.300000	-0.127133	-80.163224	-50.938374	93.506846	-50.938374	93.506846	-0.127132	-80.163186
5.350000	-0.129044	-80.845653	-50.719648	91.991902	-50.719648	91.991902	-0.129043	-80.845613
5.400000	-0.130969	-81.527321	-50.504893	90.477389	-50.504893	90.477389	-0.130968	-81.527280
5.450000	-0.132931	-82.206978	-50.291698	88.964227	-50.291698	88.964227	-0.132930	-82.206935
5.500000	-0.134913	-82.885630	-50.081843	87.451742	-50.081843	87.451742	-0.134912	-82.885585
5.550000	-0.136928	-83.562541	-49.873940	85.940606	-49.873940	85.940606	-0.136927	-83.562494
5.600000	-0.138968	-84.238209	-49.668807	84.430434	-49.668807	84.430434	-0.138967	-84.238160
5.650000	-0.141038	-84.912402	-49.465974	82.921548	-49.465974	82.921548	-0.141037	-84.912352
5.700000	-0.143138	-85.585121	-49.265391	81.413951	-49.265391	81.413951	-0.143137	-85.585069
5.750000	-0.145264	-86.256627	-49.067413	79.907526	-49.067413	79.907526	-0.145263	-86.256573
5.800000	-0.147425	-86.926434	-48.871215	78.402742	-48.871215	78.402742	-0.147424	-86.926379
5.850000	-0.149607	-87.595285	-48.677891	76.898969	-48.677891	76.898969	-0.149607	-87.595228
5.900000	-0.151832	-88.262221	-48.485918	75.397216	-48.485918	75.397216	-0.151831	-88.262163
5.950000	-0.154073	-88.928450	-48.297056	73.896268	-48.297056	73.896268	-0.154072	-88.928391
6.000000	-0.156362	-89.592558	-48.109155	72.397735	-48.109155	72.397735	-0.156361	-89.592497
6.050000	-0.158663	-90.256202	-47.924573	70.899767	-47.924573	70.899767	-0.158661	-90.256140
6.100000	-0.161018	-90.917527	-47.740596	69.404619	-47.740596	69.404619	-0.161017	-90.917464
6.150000	-0.163379	-91.578623	-47.560120	67.909764	-47.560120	67.909764	-0.163378	-91.578560
6.200000	-0.165803	-92.237213	-47.379923	66.418138	-47.379923	66.418138	-0.165801	-92.237148
6.250000	-0.168227	-92.895802	-47.203389	64.926511	-47.203389	64.926511	-0.168225	-92.895737
6.300000	-0.170719	-93.551706	-47.026836	63.438515	-47.026836	63.438515	-0.170717	-93.551640
6.350000	-0.173212	-94.207609	-46.853799	61.950519	-46.853799	61.950519	-0.173211	-94.207543
6.400000	-0.175770	-94.861099	-46.681044	60.465924	-46.681044	60.465924	-0.175768	-94.861033
6.450000	-0.178335	-95.514370	-46.511381	58.981639	-46.511381	58.981639	-0.178332	-95.514303
6.500000	-0.180959	-96.165492	-46.342272	57.500489	-46.342272	57.500489	-0.180957	-96.165425
6.550000	-0.183596	-96.816183	-46.175863	56.019965	-46.175863	56.019965	-0.183593	-96.816117
6.600000	-0.186288	-97.464984	-46.010256	54.542280	-46.010256	54.542280	-0.186285	-97.464917
6.650000	-0.188999	-98.113154	-45.846987	53.065540	-45.846987	53.065540	-0.188996	-98.113087
6.700000	-0.191761	-98.759682	-45.684748	51.591318	-45.684748	51.591318	-0.191758	-98.759616
6.750000	-0.194548	-99.405389	-45.524510	50.118355	-45.524510	50.118355	-0.194544	-99.405323
6.800000	-0.197380	-100.049695	-45.365509	48.647573	-45.365509	48.647573	-0.197376	-100.049629
6.850000	-0.200244	-100.692999	-45.208198	47.178350	-45.208198	47.178350	-0.200240	-100.692934
6.900000	-0.203148	-101.335134	-45.052315	45.710963	-45.052315	45.710963	-0.203144	-101.335070
6.950000	-0.206091	-101.976100	-44.897834	44.245414	-44.897834	44.245414	-0.206087	-101.976036
7.000000	-0.209069	-102.616117	-44.744955	42.781357	-44.744955	42.781357	-0.209064	-102.616054
7.050000	-0.212093	-103.254808	-44.593211	41.319389	-44.593211	41.319389	-0.212088	-103.254745
7.100000	-0.215144	-103.892763	-44.443230	39.858574	-44.443230	39.858574	-0.215140	-103.892701
7.150000	-0.218251	-104.529246	-44.294138	38.400066	-44.294138	38.400066	-0.218246	-104.529184
7.200000	-0.221379	-105.165194	-44.146955	36.942386	-44.146955	36.942386	-0.221373	-105.165133
7.250000	-0.224569	-105.799538	-44.000435	35.487192	-44.000435	35.487192	-0.224563	-105.799478
7.300000	-0.227774	-106.433537	-43.855958	34.032522	-43.855958	34.032522	-0.227768	-106.433477
7.350000	-0.231050	-107.065812	-43.711938	32.580470	-43.711938	32.580470	-0.231044	-107.065752
7.400000	-0.234334	-107.697920	-43.570082	31.128665	-43.570082	31.128665	-0.234328	-107.697861
7.450000	-0.237697	-108.328198	-43.428496	29.679562	-43.428496	29.679562	-0.237691	-108.328140
7.500000	-0.241061	-108.958476	-43.289182	28.230459	-43.289182	28.230459	-0.241055	-108.958418
7.550000	-0.244513	-109.586832	-43.149972	26.784091	-43.149972	26.784091	-0.244507	-109.586773
7.600000	-0.247967	-110.215187	-43.012959	25.337722	-43.012959	25.337722	-0.247960	-110.215128
7.650000	-0.251502	-110.841848	-42.876244	23.893646	-42.876244	23.893646	-0.251495	-110.841789
7.700000	-0.255046	-111.468356	-42.741484	22.449778	-42.741484	22.449778	-0.255039	-111.468296
7.750000	-0.258666	-112.093389	-42.607203	21.007786	-42.607203	21.007786	-0.258659	-112.093328
7.800000	-0.262302	-112.718126	-42.474656	19.566169	-42.474656	19.566169	-0.262295	-112.718064
7.850000	-0.266009	-113.341595	-42.342758	18.126042	-42.342758	18.126042	-0.266001	-113.341531
7.900000	-0.269740	-113.964641	-42.212392	16.686413	-42.212392	16.686413	-0.269732	-113.964575
7.950000	-0.273534	-114.586612	-42.082831	15.247927	-42.082831	15.247927	-0.273526	-114.586545
8.000000	-0.277360	-115.208047	-41.954620	13.810012	-41.954620	13.810012	-0.277353	-115.207977
8.050000	-0.281244	-115.828589	-41.827358	12.372934	-41.827358	12.372934	-0.281236	-115.828516
8.100000	-0.285168	-116.448495	-41.701288	10.936454	-41.701288	10.936454	-0.285160	-116.448418
8.150000	-0.289142	-117.067677	-41.576295	9.500548	-41.576295	9.500548	-0.289134	-117.067596
8.200000	-0.293166	-117.686136	-41.452357	8.065217	-41.452357	8.065217	-0.293158	-117.686050
8.250000	-0.297233	-118.304028	-41.329609	6.630248	-41.329609	6.630248	-0.297225	-118.303937
8.300000	-0.301358	-118.921126	-41.207805	5.195784	-41.207805	5.195784	-0.301350	-118.921028
8.350000	-0.305519	-119.537799	-41.087284	3.761516	-41.087284	3.761516	-0.305510	-119.537695
8.400000	-0.309747	-120.153622	-40.967623	2.327640	-40.967623	2.327640	-0.309739	-120.153510
8.450000	-0.314004	-120.769148	-40.849322	0.893843	-40.849322	0.893843	-0.313995	-120.769028
8.500000	-0.318337	-121.383784	-40.731822	-0.539716	-40.731822	-0.539716	-0.318329	-121.383654
8.550000	-0.322691	-121.998237	-40.615738	-1.973264	-40.615738	-1.973264	-0.322682	-121.998097
8.600000	-0.327132	-122.611775	-40.500426	-3.406760	-40.500426	-3.406760	-0.327123	-122.611623
8.650000	-0.331584	-123.225229	-40.386562	-4.840272	-40.386562	-4.840272	-0.331575	-123.225065
8.700000	-0.336134	-123.837759	-40.273476	-6.273944	-40.273476	-6.273944	-0.336124	-123.837582
8.750000	-0.340686	-124.450290	-40.161842	-7.707617	-40.161842	-7.707617	-0.340677	-124.450098
8.800000	-0.345347	-125.061905	-40.051025	-9.141679	-40.051025	-9.141679	-0.345338	-125.061697
8.850000	-0.350011	-125.673520	-39.941603	-10.575741	-39.941603	-10.575741	-0.350001	-125.673295
8.900000	-0.354776	-126.284381	-39.833144	-12.010330	-39.833144	-12.010330	-0.354766	-126.284137
8.950000	-0.359553	-126.895174	-39.725987	-13.444966	-39.725987	-13.444966	-0.359543	-126.894910
9.000000	-0.364424	-127.505360	-39.619918	-14.880207	-39.619918	-14.880207	-0.364413	-127.505075
9.050000	-0.369316	-128.115425	-39.515085	-16.315568	-39.515085	-16.315568	-0.369305	-128.115117
9.100000	-0.374295	-128.725017	-39.411443	-17.751556	-39.411443	-17.751556	-0.374283	-128.724683
9.150000	-0.379304	-129.334450	-39.309003	-19.187752	-39.309003	-19.187752	-0.379292	-129.334091
9.200000	-0.384392	-129.943528	-39.207830	-20.624548	-39.207830	-20.624548	-0.384379	-129.943140
9.250000	-0.389521	-130.552427	-39.107858	-22.061645	-39.107858	-22.061645	-0.389508	-130.552009
9.300000	-0.394720	-131.161073	-39.009201	-23.499275	-39.009201	-23.499275	-0.394706	-131.160622
9.350000	-0.399970	-131.769537	-38.911778	-24.937287	-38.911778	-24.937287	-0.399956	-131.769052
9.400000	-0.405282	-132.377833	-38.815689	-26.375735	-38.815689	-26.375735	-0.405267	-132.377312
9.450000	-0.410656	-132.985961	-38.720903	-27.814619	-38.720903	-27.814619	-0.410640	-132.985402
9.500000	-0.416083	-133.593993	-38.627436	-29.253825	-38.627436	-29.253825	-0.416066	-133.593392
9.550000	-0.421583	-134.201887	-38.535377	-30.693481	-38.535377	-30.693481	-0.421565	-134.201243
9.600000	-0.427127	-134.809738	-38.444592	-32.133339	-38.444592	-32.133339	-0.427108	-134.809048
9.650000	-0.432755	-135.417501	-38.355356	-33.573599	-38.355356	-33.573599	-0.432735	-135.416762
9.700000	-0.438417	-136.025257	-38.267312	-35.013951	-38.267312	-35.013951	-0.438396	-136.024468
9.750000	-0.444175	-136.632993	-38.180997	-36.454580	-38.180997	-36.454580	-0.444153	-136.632149
9.800000	-0.449959	-137.240742	-38.095757	-37.895219	-38.095757	-37.895219	-0.449935	-137.239842
9.850000	-0.455850	-137.848556	-38.012463	-39.335908	-38.012463	-39.335908	-0.455824	-137.847594
9.900000	-0.461755	-138.456386	-37.930090	-40.776570	-37.930090	-40.776570	-0.461728	-138.455362
9.950000	-0.467782	-139.064384	-37.849915	-42.216938	-37.849915	-42.216938	-0.467753	-139.063293
10.000000	-0.473812	-139.672383	-37.770473	-43.657306	-37.770473	-43.657306	-0.473781	-139.671223
