! freq	dB(S11)	phase(S11)	dB(S12)	phase(S12)	
!     	dB(S21)	phase(S21)	dB(S22)	phase(S22)	
!S-par simulation data
#  GHz  S  DB  R 50
0.000000	-84.173086	0.000000	-0.000537	0.000000	-0.000537	0.000000	-84.173086	0.000000
0.050000	-44.511322	-91.780606	-0.002868	-2.583394	-0.002868	-2.583394	-44.511022	-91.781650
0.100000	-38.510582	-94.470686	-0.008485	-5.153311	-0.008485	-5.153311	-38.510309	-94.472727
0.150000	-35.022833	-96.993360	-0.015069	-7.708752	-0.015069	-7.708752	-35.022623	-96.996480
0.200000	-32.570684	-99.536887	-0.021354	-10.255454	-0.021354	-10.255454	-32.570573	-99.541421
0.250000	-30.686590	-102.174837	-0.027023	-12.798038	-0.027023	-12.798038	-30.686565	-102.181394
0.300000	-29.153165	-104.921673	-0.032185	-15.339129	-0.032185	-15.339129	-29.153131	-104.930668
0.350000	-27.851813	-107.723308	-0.037060	-17.879807	-0.037060	-17.879807	-27.851664	-107.734525
0.400000	-26.717431	-110.514850	-0.041820	-20.420359	-0.041820	-20.420359	-26.717130	-110.527742
0.450000	-25.713271	-113.257546	-0.046599	-22.960781	-0.046599	-22.960781	-25.712840	-113.271685
0.500000	-24.815882	-115.949831	-0.051485	-25.500972	-0.051485	-25.500972	-24.815361	-115.965073
0.550000	-24.007728	-118.601276	-0.056537	-28.040801	-0.056537	-28.040801	-24.007148	-118.617634
0.600000	-23.275353	-121.222059	-0.061802	-30.580114	-0.061802	-30.580114	-23.274733	-121.239614
0.650000	-22.607382	-123.822555	-0.067293	-33.118810	-0.067293	-33.118810	-22.606732	-123.841397
0.700000	-21.994731	-126.409127	-0.073019	-35.656800	-0.073019	-35.656800	-21.994056	-126.429336
0.750000	-21.430350	-128.985621	-0.078990	-38.193981	-0.078990	-38.193981	-21.429651	-129.007267
0.800000	-20.908234	-131.554884	-0.085203	-40.730288	-0.085203	-40.730288	-20.907511	-131.578027
0.850000	-20.423351	-134.118799	-0.091647	-43.265685	-0.091647	-43.265685	-20.422603	-134.143486
0.900000	-19.971577	-136.678534	-0.098312	-45.800143	-0.098312	-45.800143	-19.970804	-136.704805
0.950000	-19.549491	-139.234851	-0.105187	-48.333639	-0.105187	-48.333639	-19.548693	-139.262741
1.000000	-19.154165	-141.788291	-0.112257	-50.866170	-0.112257	-50.866170	-19.153341	-141.817830
1.050000	-18.783090	-144.339242	-0.119508	-53.397745	-0.119508	-53.397745	-18.782240	-144.370456
1.100000	-18.434099	-146.887989	-0.126925	-55.928385	-0.126925	-55.928385	-18.433222	-146.920901
1.150000	-18.105306	-149.434756	-0.134491	-58.458123	-0.134491	-58.458123	-18.104404	-149.469387
1.200000	-17.795060	-151.979727	-0.142189	-60.987004	-0.142189	-60.987004	-17.794132	-152.016094
1.250000	-17.501901	-154.523057	-0.150005	-63.515083	-0.150005	-63.515083	-17.500947	-154.561176
1.300000	-17.224669	-157.064860	-0.157924	-66.042412	-0.157924	-66.042412	-17.223690	-157.104745
1.350000	-16.962062	-159.605302	-0.165929	-68.569082	-0.165929	-68.569082	-16.961058	-159.646965
1.400000	-16.713040	-162.144510	-0.174005	-71.095179	-0.174005	-71.095179	-16.712011	-162.187960
1.450000	-16.476660	-164.682607	-0.182139	-73.620792	-0.182139	-73.620792	-16.475608	-164.727854
1.500000	-16.252071	-167.219714	-0.190318	-76.146021	-0.190318	-76.146021	-16.250994	-167.266765
1.550000	-16.038491	-169.755954	-0.198530	-78.670969	-0.198530	-78.670969	-16.037392	-169.804814
1.600000	-15.835206	-172.291448	-0.206766	-81.195745	-0.206766	-81.195745	-15.834084	-172.342120
1.650000	-15.641558	-174.826316	-0.215015	-83.720462	-0.215015	-83.720462	-15.640415	-174.878804
1.700000	-15.456854	-177.360686	-0.223270	-86.245233	-0.223270	-86.245233	-15.455689	-177.414990
1.750000	-15.280947	-179.894651	-0.231523	-88.770195	-0.231523	-88.770195	-15.279761	-179.950771
1.800000	-15.112643	177.571624	-0.239770	-91.295433	-0.239770	-91.295433	-15.111437	177.513691
1.850000	-14.951968	175.038043	-0.248005	-93.821105	-0.248005	-93.821105	-14.950742	174.978301
1.900000	-14.798210	172.504481	-0.256225	-96.347303	-0.256225	-96.347303	-14.796965	172.442936
1.950000	-14.650939	169.970820	-0.264428	-98.874144	-0.264428	-98.874144	-14.649675	169.907479
2.000000	-14.509961	167.436931	-0.272612	-101.401786	-0.272612	-101.401786	-14.508679	167.371805
2.050000	-14.374471	164.902733	-0.280779	-103.930244	-0.280779	-103.930244	-14.373171	164.835832
2.100000	-14.244693	162.368040	-0.288926	-106.459793	-0.288926	-106.459793	-14.243376	162.299379
2.150000	-14.119645	159.832835	-0.297059	-108.990339	-0.297059	-108.990339	-14.118310	159.762430
2.200000	-13.999524	157.296903	-0.305178	-111.522183	-0.305178	-111.522183	-13.998173	157.224773
2.250000	-13.883620	154.760234	-0.313287	-114.055256	-0.313287	-114.055256	-13.882254	154.686399
2.300000	-13.771837	152.222663	-0.321389	-116.589753	-0.321389	-116.589753	-13.770456	152.147147
2.350000	-13.663835	149.684108	-0.329490	-119.125733	-0.329490	-119.125733	-13.662439	149.606938
2.400000	-13.559247	147.144516	-0.337593	-121.663219	-0.337593	-121.663219	-13.557838	147.065721
2.450000	-13.458007	144.603691	-0.345704	-124.202444	-0.345704	-124.202444	-13.456585	144.523304
2.500000	-13.359566	142.061736	-0.353829	-126.743220	-0.353829	-126.743220	-13.358132	141.979790
2.550000	-13.264041	139.518300	-0.361974	-129.285983	-0.361974	-129.285983	-13.262596	139.434838
2.600000	-13.170862	136.973598	-0.370144	-131.830415	-0.370144	-131.830415	-13.169406	136.888658
2.650000	-13.080018	134.427349	-0.378346	-134.376857	-0.378346	-134.376857	-13.078553	134.340979
2.700000	-12.991180	131.879641	-0.386585	-136.925174	-0.386585	-136.925174	-12.989706	131.791887
2.750000	-12.904182	129.330368	-0.394868	-139.475488	-0.394868	-139.475488	-12.902701	129.241282
2.800000	-12.818847	126.779460	-0.403202	-142.027878	-0.403202	-142.027878	-12.817359	126.689098
2.850000	-12.734935	124.227012	-0.411590	-144.582221	-0.411590	-144.582221	-12.733441	124.135430
2.900000	-12.652345	121.672782	-0.420044	-147.138830	-0.420044	-147.138830	-12.650847	121.580045
2.950000	-12.570840	119.117044	-0.428560	-149.697364	-0.428560	-149.697364	-12.569339	119.023212
3.000000	-12.490315	116.559477	-0.437156	-152.258258	-0.437156	-152.258258	-12.488812	116.464625
3.050000	-12.410597	114.000375	-0.445827	-154.821155	-0.445827	-154.821155	-12.409093	113.904568
3.100000	-12.331555	111.439565	-0.454584	-157.386319	-0.454584	-157.386319	-12.330051	111.342880
3.150000	-12.253069	108.877165	-0.463430	-159.953635	-0.463430	-159.953635	-12.251566	108.779678
3.200000	-12.175026	106.313211	-0.472368	-162.523105	-0.472368	-162.523105	-12.173525	106.215000
3.250000	-12.097301	103.747655	-0.481408	-165.094860	-0.481408	-165.094860	-12.095805	103.648806
3.300000	-12.019851	101.180723	-0.490543	-167.668643	-0.490543	-167.668643	-12.018360	101.081314
3.350000	-11.942523	98.612263	-0.499791	-170.244763	-0.499791	-170.244763	-11.941038	98.512385
3.400000	-11.865289	96.042471	-0.509146	-172.823013	-0.509146	-172.823013	-11.863812	95.942212
3.450000	-11.788080	93.471396	-0.518613	-175.403418	-0.518613	-175.403418	-11.786612	93.370845
3.500000	-11.710845	90.899115	-0.528194	-177.985961	-0.528194	-177.985961	-11.709388	90.798363
3.550000	-11.633546	88.325712	-0.537892	179.429381	-0.537892	179.429381	-11.632100	88.224852
3.600000	-11.556154	85.751275	-0.547707	176.842631	-0.547707	176.842631	-11.554721	85.650399
3.650000	-11.478652	83.175896	-0.557641	174.253820	-0.557641	174.253820	-11.477234	83.075098
3.700000	-11.401033	80.599667	-0.567694	171.662978	-0.567694	171.662978	-11.399631	80.499042
3.750000	-11.323303	78.022685	-0.577865	169.070142	-0.577865	169.070142	-11.321918	77.922326
3.800000	-11.245460	75.445035	-0.588157	166.475310	-0.588157	166.475310	-11.244093	75.345039
3.850000	-11.167548	72.866830	-0.598564	163.878567	-0.598564	163.878567	-11.166200	72.767289
3.900000	-11.089604	70.288165	-0.609083	161.279959	-0.609083	161.279959	-11.088277	70.189173
3.950000	-11.011675	67.709136	-0.619712	158.679536	-0.619712	158.679536	-11.010370	67.610784
4.000000	-10.933819	65.129835	-0.630446	156.077347	-0.630446	156.077347	-10.932537	65.032214
4.050000	-10.856104	62.550353	-0.641278	153.473447	-0.641278	153.473447	-10.854845	62.453551
4.100000	-10.778606	59.970775	-0.652203	150.867891	-0.652203	150.867891	-10.777372	59.874880
4.150000	-10.701412	57.391184	-0.663211	148.260738	-0.663211	148.260738	-10.700203	57.296282
4.200000	-10.624617	54.811659	-0.674295	145.652045	-0.674295	145.652045	-10.623435	54.717833
4.250000	-10.548325	52.232272	-0.685443	143.041871	-0.685443	143.041871	-10.547170	52.139604
4.300000	-10.472650	49.653093	-0.696643	140.430277	-0.696643	140.430277	-10.471523	49.561660
4.350000	-10.397712	47.074182	-0.707882	137.817320	-0.707882	137.817320	-10.396613	46.984063
4.400000	-10.323644	44.495602	-0.719144	135.203044	-0.719144	135.203044	-10.322575	44.406870
4.450000	-10.250589	41.917404	-0.730412	132.587507	-0.730412	132.587507	-10.249549	41.830131
4.500000	-10.178689	39.339628	-0.741668	129.970775	-0.741668	129.970775	-10.177679	39.253883
4.550000	-10.108096	36.762311	-0.752890	127.352895	-0.752890	127.352895	-10.107116	36.678160
4.600000	-10.038967	34.185482	-0.764057	124.733910	-0.764057	124.733910	-10.038019	34.102988
4.650000	-9.971470	31.609165	-0.775144	122.113857	-0.775144	122.113857	-9.970553	31.528388
4.700000	-9.905775	29.033373	-0.786125	119.492765	-0.786125	119.492765	-9.904889	28.954372
4.750000	-9.842060	26.458115	-0.796973	116.870654	-0.796973	116.870654	-9.841205	26.380945
4.800000	-9.780510	23.883389	-0.807658	114.247534	-0.807658	114.247534	-9.779687	23.808102
4.850000	-9.721316	21.309185	-0.818148	111.623406	-0.818148	111.623406	-9.720525	21.235833
4.900000	-9.664675	18.735484	-0.828409	108.998254	-0.828409	108.998254	-9.663916	18.664115
4.950000	-9.610790	16.162257	-0.838405	106.372052	-0.838405	106.372052	-9.610062	16.092917
5.000000	-9.559870	13.589465	-0.848101	103.744754	-0.848101	103.744754	-9.559175	13.522199
5.050000	-9.512361	11.017081	-0.857428	101.116212	-0.857428	101.116212	-9.511698	10.951935
5.100000	-9.467980	8.444987	-0.866408	98.486544	-0.866408	98.486544	-9.467348	8.381999
5.150000	-9.427466	5.873153	-0.874937	95.855447	-0.874937	95.855447	-9.426866	5.812367
5.200000	-9.390715	3.301471	-0.883014	93.222934	-0.883014	93.222934	-9.390146	3.242925
5.250000	-9.358126	0.729843	-0.890575	90.588797	-0.890575	90.588797	-9.357589	0.673576
5.300000	-9.330040	-1.841849	-0.897565	87.952827	-0.897565	87.952827	-9.329535	-1.895796
5.350000	-9.306383	-4.413725	-0.903982	85.314971	-0.903982	85.314971	-9.305909	-4.465317
5.400000	-9.288087	-6.985975	-0.909694	82.674709	-0.909694	82.674709	-9.287644	-7.035167
5.450000	-9.274566	-9.558688	-0.914771	80.032191	-0.914771	80.032191	-9.274155	-9.605445
5.500000	-9.267184	-12.132169	-0.919024	77.386607	-0.919024	77.386607	-9.266803	-12.176445
5.550000	-9.265283	-14.706485	-0.922542	74.738134	-0.922542	74.738134	-9.264934	-14.748240
5.600000	-9.269916	-17.281967	-0.925181	72.086031	-0.925181	72.086031	-9.269597	-17.321153
5.650000	-9.281085	-19.858781	-0.926948	69.430108	-0.926948	69.430108	-9.280796	-19.895352
5.700000	-9.299188	-22.437177	-0.927800	66.769930	-0.927800	66.769930	-9.298930	-22.471082
5.750000	-9.325075	-25.017524	-0.927638	64.104752	-0.927638	64.104752	-9.324847	-25.048705
5.800000	-9.358319	-27.599863	-0.926539	61.434652	-0.926539	61.434652	-9.358120	-27.628266
5.850000	-9.400829	-30.184889	-0.924286	58.758083	-0.924286	58.758083	-9.400659	-30.210442
5.900000	-9.451515	-32.772402	-0.921053	56.075629	-0.921053	56.075629	-9.451374	-32.795041
5.950000	-9.512528	-35.363200	-0.916620	53.385464	-0.916620	53.385464	-9.512415	-35.382840
6.000000	-9.583245	-37.957146	-0.911114	50.687901	-0.911114	50.687901	-9.583160	-37.973707
6.050000	-9.665144	-40.554784	-0.904429	47.981586	-0.904429	47.981586	-9.665087	-40.568166
6.100000	-9.758813	-43.156293	-0.896574	45.265918	-0.896574	45.265918	-9.758783	-43.166389
6.150000	-9.864509	-45.761672	-0.887607	42.540626	-0.887607	42.540626	-9.864504	-45.768367
6.200000	-9.984203	-48.371438	-0.877428	39.803973	-0.877428	39.803973	-9.984223	-48.374594
6.250000	-10.118537	-50.985521	-0.866093	37.055453	-0.866093	37.055453	-10.118581	-50.984983
6.300000	-10.268936	-53.603963	-0.853605	34.293938	-0.853605	34.293938	-10.269002	-53.599556
6.350000	-10.436589	-56.226545	-0.840014	31.518637	-0.840014	31.518637	-10.436675	-56.218069
6.400000	-10.623052	-58.852924	-0.825360	28.728554	-0.825360	28.728554	-10.623156	-58.840150
6.450000	-10.830100	-61.482524	-0.809700	25.922670	-0.809700	25.922670	-10.830220	-61.465187
6.500000	-11.059768	-64.114455	-0.793101	23.099942	-0.793101	23.099942	-11.059901	-64.092248
6.550000	-11.314404	-66.747424	-0.775645	20.259312	-0.775645	20.259312	-11.314545	-66.719986
6.600000	-11.596735	-69.379602	-0.757431	17.399714	-0.757431	17.399714	-11.596879	-69.346510
6.650000	-11.909955	-72.008455	-0.738573	14.520079	-0.738573	14.520079	-11.910096	-71.969204
6.700000	-12.258611	-74.630119	-0.719188	11.618624	-0.719188	11.618624	-12.258740	-74.584081
6.750000	-12.645810	-77.240337	-0.699458	8.695642	-0.699458	8.695642	-12.645914	-77.186795
6.800000	-13.077629	-79.832376	-0.679534	5.749513	-0.679534	5.749513	-13.077691	-79.770430
6.850000	-13.560713	-82.397258	-0.659605	2.779275	-0.659605	2.779275	-13.560709	-82.325789
6.900000	-14.103647	-84.921886	-0.639882	-0.216255	-0.639882	-0.216255	-14.103543	-84.839464
6.950000	-14.716916	-87.387805	-0.620603	-3.237928	-0.620603	-3.237928	-14.716662	-87.292581
7.000000	-15.413610	-89.769340	-0.602015	-6.286195	-0.602015	-6.286195	-15.413127	-89.658902
7.050000	-16.211393	-92.027618	-0.584388	-9.361664	-0.584388	-9.361664	-16.210560	-91.898715
7.100000	-17.134189	-94.102580	-0.568009	-12.464809	-0.568009	-12.464809	-17.132808	-93.950692
7.150000	-18.215489	-95.896936	-0.553186	-15.595947	-0.553186	-15.595947	-18.213211	-95.715550
7.200000	-19.504032	-97.243073	-0.540238	-18.755217	-0.540238	-18.755217	-19.500214	-97.022381
7.250000	-21.074045	-97.827828	-0.529502	-21.942560	-0.529502	-21.942560	-21.067374	-97.552293
7.300000	-23.043777	-97.063114	-0.521261	-25.157105	-0.521261	-25.157105	-23.031301	-96.707826
7.350000	-25.608630	-93.306438	-0.516005	-28.399680	-0.516005	-28.399680	-25.582169	-92.827478
7.400000	-29.009870	-82.108639	-0.514022	-31.668754	-0.514022	-31.668754	-28.942933	-81.466428
7.450000	-32.487461	-51.005358	-0.515667	-34.963278	-0.515667	-34.963278	-32.318999	-50.574867
7.500000	-31.276592	-5.469576	-0.521291	-38.281922	-0.521291	-38.281922	-31.131497	-5.958830
7.550000	-27.246154	16.031957	-0.531304	-41.623407	-0.531304	-41.623407	-27.180799	15.483063
7.600000	-23.939004	23.468811	-0.545960	-44.985419	-0.545960	-44.985419	-23.904811	23.032502
7.650000	-21.392093	25.751396	-0.565466	-48.365492	-0.565466	-48.365492	-21.371036	25.403672
7.700000	-19.357815	25.734428	-0.590219	-51.761660	-0.590219	-51.761660	-19.343307	25.447835
7.750000	-17.676986	24.577085	-0.620386	-55.171005	-0.620386	-55.171005	-17.666215	24.334060
7.800000	-16.250854	22.765968	-0.656148	-58.590592	-0.656148	-58.590592	-16.242427	22.555303
7.850000	-15.016744	20.545559	-0.697679	-62.017326	-0.697679	-62.017326	-15.009891	20.359797
7.900000	-13.933086	18.057258	-0.745024	-65.447843	-0.745024	-65.447843	-13.927348	17.891305
7.950000	-12.970896	15.385247	-0.798181	-68.878742	-0.798181	-68.878742	-12.965980	15.235472
8.000000	-12.109254	12.583651	-0.857104	-72.306589	-0.857104	-72.306589	-12.104963	12.447373
8.050000	-11.332587	9.689623	-0.921683	-75.727946	-0.921683	-75.727946	-11.328783	9.564814
8.100000	-10.628978	6.729826	-0.991745	-79.139429	-0.991745	-79.139429	-10.625563	6.614915
8.150000	-9.989158	3.723956	-1.067076	-82.537670	-1.067076	-82.537670	-9.986057	3.617698
8.200000	-9.405666	0.687467	-1.147372	-85.919496	-1.147372	-85.919496	-9.402823	0.588864
8.250000	-8.872326	-2.367480	-1.232251	-89.282069	-1.232251	-89.282069	-8.869697	-2.459234
8.300000	-8.384068	-5.431329	-1.321302	-92.622727	-1.321302	-92.622727	-8.381618	-5.516902
8.350000	-7.937165	-8.496157	-1.414139	-95.938201	-1.414139	-95.938201	-7.934866	-8.576119
8.400000	-7.526860	-11.555813	-1.510083	-99.228229	-1.510083	-99.228229	-7.524690	-11.630612
8.450000	-7.150148	-14.605601	-1.608674	-102.490993	-1.608674	-102.490993	-7.148088	-14.675624
8.500000	-6.805416	-17.640324	-1.709402	-105.723130	-1.709402	-105.723130	-6.803450	-17.705925
8.550000	-6.489307	-20.657470	-1.811603	-108.925379	-1.811603	-108.925379	-6.487423	-20.718932
8.600000	-6.200283	-23.653765	-1.914647	-112.096061	-1.914647	-112.096061	-6.198470	-23.711338
8.650000	-5.935905	-26.628018	-2.017909	-115.236061	-2.017909	-115.236061	-5.934155	-26.681912
8.700000	-5.694928	-29.578319	-2.120700	-118.344771	-2.120700	-118.344771	-5.693232	-29.628717
8.750000	-5.475552	-32.504375	-2.222392	-121.423403	-2.222392	-121.423403	-5.473905	-32.551430
8.800000	-5.276644	-35.405649	-2.322283	-124.472603	-2.322283	-124.472603	-5.275041	-35.449491
8.850000	-5.096962	-38.282481	-2.419715	-127.493905	-2.419715	-127.493905	-5.095398	-38.323218
8.900000	-4.935444	-41.135602	-2.514027	-130.489156	-2.514027	-130.489156	-4.933915	-41.173322
8.950000	-4.791728	-43.965321	-2.604360	-133.459727	-2.604360	-133.459727	-4.790231	-44.000092
9.000000	-4.663725	-46.775086	-2.690537	-136.410155	-2.690537	-136.410155	-4.662257	-46.806956
9.050000	-4.552433	-49.564476	-2.771261	-139.341125	-2.771261	-139.341125	-4.550993	-49.593480
9.100000	-4.456447	-52.337089	-2.846225	-142.257327	-2.846225	-142.257327	-4.455031	-52.363239
9.150000	-4.375230	-55.095621	-2.914891	-145.162512	-2.914891	-145.162512	-4.373835	-55.118915
9.200000	-4.308797	-57.842692	-2.976509	-148.060514	-2.976509	-148.060514	-4.307421	-57.863113
9.250000	-4.257961	-60.581382	-3.029914	-150.956132	-3.029914	-150.956132	-4.256599	-60.598893
9.300000	-4.221764	-63.316134	-3.075058	-153.854849	-3.075058	-153.854849	-4.220413	-63.330681
9.350000	-4.200489	-66.050849	-3.111327	-156.762066	-3.111327	-156.762066	-4.199143	-66.062365
9.400000	-4.195366	-68.790267	-3.137636	-159.684790	-3.137636	-159.684790	-4.194019	-68.798665
9.450000	-4.207253	-71.539953	-3.153289	-162.630884	-3.153289	-162.630884	-4.205896	-71.545128
9.500000	-4.236473	-74.304956	-3.158141	-165.607262	-3.158141	-165.607262	-4.235096	-74.306790
9.550000	-4.284387	-77.090940	-3.151618	-168.622336	-3.151618	-168.622336	-4.282979	-77.089303
9.600000	-4.354486	-79.906729	-3.132196	-171.690220	-3.132196	-171.690220	-4.353030	-79.901466
9.650000	-4.447104	-82.756325	-3.100579	-174.817049	-3.100579	-174.817049	-4.445584	-82.747284
9.700000	-4.567581	-85.650524	-3.055115	-178.021825	-3.055115	-178.021825	-4.565976	-85.637535
9.750000	-4.719055	-88.595233	-2.995998	178.683366	-2.995998	178.683366	-4.717341	-88.578132
9.800000	-4.906998	-91.597782	-2.922946	175.281325	-2.922946	175.281325	-4.905148	-91.576415
9.850000	-5.138509	-94.664380	-2.835887	171.752488	-2.835887	171.752488	-5.136497	-94.638617
9.900000	-5.422837	-97.798629	-2.735060	168.074776	-2.735060	168.074776	-5.420639	-97.768378
9.950000	-5.772236	-100.999119	-2.621106	164.223178	-2.621106	164.223178	-5.769838	-100.964353
10.000000	-6.203144	-104.255014	-2.495217	160.169551	-2.495217	160.169551	-6.200554	-104.215791
