! freq	dB(S11)	phase(S11)	dB(S12)	phase(S12)	
!     	dB(S21)	phase(S21)	dB(S22)	phase(S22)	
!S-par simulation data
#  GHz  S  DB  R 50
0.000000	-81.233303	0.000000	-0.000750	0.000000	-0.000750	0.000000	-81.233300	0.000000
0.050000	-49.295856	-89.941424	-0.002290	-2.782430	-0.002290	-2.782430	-49.296612	-89.931842
0.100000	-43.455645	-92.926485	-0.006361	-5.558499	-0.006361	-5.558499	-43.457584	-92.919926
0.150000	-40.088050	-96.047965	-0.011854	-8.325141	-0.011854	-8.325141	-40.090035	-96.045873
0.200000	-37.699469	-99.262419	-0.017713	-11.083825	-0.017713	-11.083825	-37.701158	-99.261843
0.250000	-35.844584	-102.458181	-0.023345	-13.836397	-0.023345	-13.836397	-35.846035	-102.456958
0.300000	-34.330539	-105.596014	-0.028507	-16.585081	-0.028507	-16.585081	-34.331894	-105.593268
0.350000	-33.056856	-108.669685	-0.033160	-19.331564	-0.033160	-19.331564	-33.058234	-108.665268
0.400000	-31.962524	-111.688978	-0.037397	-22.076931	-0.037397	-22.076931	-31.963997	-111.682996
0.450000	-31.008773	-114.661852	-0.041307	-24.821732	-0.041307	-24.821732	-31.010382	-114.654467
0.500000	-30.170119	-117.595220	-0.044975	-27.566278	-0.044975	-27.566278	-30.171885	-117.586578
0.550000	-29.425605	-120.499328	-0.048497	-30.310729	-0.048497	-30.310729	-29.427533	-120.489514
0.600000	-28.760754	-123.379751	-0.051927	-33.055134	-0.051927	-33.055134	-28.762843	-123.368806
0.650000	-28.165597	-126.240400	-0.055306	-35.799504	-0.055306	-35.799504	-28.167844	-126.228328
0.700000	-27.631540	-129.085501	-0.058668	-38.543826	-0.058668	-38.543826	-27.633943	-129.072278
0.750000	-27.150600	-131.918758	-0.062034	-41.288084	-0.062034	-41.288084	-27.153154	-131.904343
0.800000	-26.717198	-134.742478	-0.065416	-44.032263	-0.065416	-44.032263	-26.719900	-134.726819
0.850000	-26.328600	-137.558112	-0.068822	-46.776344	-0.068822	-46.776344	-26.331448	-137.541151
0.900000	-25.979634	-140.367801	-0.072253	-49.520330	-0.072253	-49.520330	-25.982626	-140.349481
0.950000	-25.666774	-143.172865	-0.075707	-52.264229	-0.075707	-52.264229	-25.669910	-143.153133
1.000000	-25.387720	-145.974273	-0.079180	-55.008056	-0.079180	-55.008056	-25.391000	-145.953081
1.050000	-25.141808	-148.772787	-0.082665	-57.751843	-0.082665	-57.751843	-25.145232	-148.750087
1.100000	-24.925314	-151.569376	-0.086154	-60.495633	-0.086154	-60.495633	-24.928884	-151.545132
1.150000	-24.736666	-154.364627	-0.089638	-63.239478	-0.089638	-63.239478	-24.740384	-154.338810
1.200000	-24.575547	-157.159039	-0.093107	-65.983446	-0.093107	-65.983446	-24.579416	-157.131625
1.250000	-24.440952	-159.953127	-0.096552	-68.727622	-0.096552	-68.727622	-24.444977	-159.924099
1.300000	-24.330812	-162.747316	-0.099964	-71.472081	-0.099964	-71.472081	-24.334997	-162.716666
1.350000	-24.244351	-165.541957	-0.103336	-74.216912	-0.103336	-74.216912	-24.248702	-165.509683
1.400000	-24.182589	-168.337459	-0.106656	-76.962256	-0.106656	-76.962256	-24.187114	-168.303566
1.450000	-24.143768	-171.134115	-0.109920	-79.708206	-0.109920	-79.708206	-24.148476	-171.098616
1.500000	-24.127068	-173.932191	-0.113125	-82.454860	-0.113125	-82.454860	-24.131968	-173.895108
1.550000	-24.132444	-176.731985	-0.116266	-85.202341	-0.116266	-85.202341	-24.137549	-176.693344
1.600000	-24.161232	-179.533948	-0.119336	-87.950846	-0.119336	-87.950846	-24.166554	-179.493788
1.650000	-24.211540	177.661779	-0.122341	-90.700424	-0.122341	-90.700424	-24.217094	177.703414
1.700000	-24.283498	174.854888	-0.125279	-93.451196	-0.125279	-93.451196	-24.289301	174.897941
1.750000	-24.377761	172.044967	-0.128153	-96.203318	-0.128153	-96.203318	-24.383831	172.089372
1.800000	-24.494283	169.231676	-0.130967	-98.956894	-0.130967	-98.956894	-24.500641	169.277351
1.850000	-24.633318	166.414605	-0.133726	-101.712035	-0.133726	-101.712035	-24.639988	166.461454
1.900000	-24.795428	163.593243	-0.136436	-104.468867	-0.136436	-104.468867	-24.802436	163.641149
1.950000	-24.981044	160.767046	-0.139106	-107.227487	-0.139106	-107.227487	-24.988417	160.815868
2.000000	-25.190492	157.935449	-0.141745	-109.987966	-0.141745	-109.987966	-25.198264	157.985020
2.050000	-25.424436	155.097742	-0.144362	-112.750381	-0.144362	-112.750381	-25.432641	155.147862
2.100000	-25.683660	152.253096	-0.146968	-115.514798	-0.146968	-115.514798	-25.692340	152.303525
2.150000	-25.969091	149.400534	-0.149572	-118.281275	-0.149572	-118.281275	-25.978289	149.450980
2.200000	-26.281811	146.538898	-0.152185	-121.049856	-0.152185	-121.049856	-26.291579	146.589009
2.250000	-26.623083	143.666812	-0.154817	-123.820579	-0.154817	-123.820579	-26.633476	143.716162
2.300000	-26.994373	140.782629	-0.157478	-126.593469	-0.157478	-126.593469	-27.005456	140.830696
2.350000	-27.397390	137.884362	-0.160178	-129.368540	-0.160178	-129.368540	-27.409236	137.930510
2.400000	-27.834126	134.969606	-0.162925	-132.145801	-0.162925	-132.145801	-27.846819	135.013052
2.450000	-28.306910	132.035417	-0.165727	-134.925250	-0.165727	-134.925250	-28.320548	132.075195
2.500000	-28.818481	129.078166	-0.168590	-137.706879	-0.168590	-137.706879	-28.833175	129.113077
2.550000	-29.372234	126.092601	-0.171524	-140.490718	-0.171524	-140.490718	-29.388116	126.121103
2.600000	-29.971763	123.073418	-0.174529	-143.276701	-0.174529	-143.276701	-29.988986	123.093599
2.650000	-30.621662	120.013184	-0.177611	-146.064803	-0.177611	-146.064803	-30.640409	120.022610
2.700000	-31.327501	116.902228	-0.180771	-148.854996	-0.180771	-148.854996	-31.347986	116.897765
2.750000	-32.096103	113.727738	-0.184010	-151.647250	-0.184010	-151.647250	-32.118583	113.705301
2.800000	-32.935947	110.472382	-0.187328	-154.441536	-0.187328	-154.441536	-32.960731	110.426564
2.850000	-33.857740	107.112146	-0.190723	-157.237824	-0.190723	-157.237824	-33.885195	107.035667
2.900000	-34.875246	103.612807	-0.194193	-160.036084	-0.194193	-160.036084	-34.905809	103.495647
2.950000	-36.006561	99.923939	-0.197733	-162.836291	-0.197733	-162.836291	-36.040737	99.751956
3.000000	-37.276070	95.968219	-0.201340	-165.638419	-0.201340	-165.638419	-37.314408	95.720819
3.050000	-38.717620	91.621200	-0.205007	-168.442450	-0.205007	-168.442450	-38.760602	91.267232
3.100000	-40.379745	86.670294	-0.208727	-171.248368	-0.208727	-171.248368	-40.427430	86.160422
3.150000	-42.332959	80.704922	-0.212495	-174.056183	-0.212495	-174.056183	-42.383748	79.955047
3.200000	-44.682217	72.872680	-0.216301	-176.865888	-0.216301	-176.865888	-44.728519	71.730828
3.250000	-47.567863	61.215333	-0.220138	-179.677466	-0.220138	-179.677466	-47.579363	59.409225
3.300000	-50.985967	40.701349	-0.223996	177.509078	-0.223996	177.509078	-50.845258	37.958407
3.350000	-53.551846	3.506312	-0.227867	174.693729	-0.227867	174.693729	-53.039804	1.223955
3.400000	-52.463691	-37.264384	-0.231742	171.876470	-0.231742	171.876470	-51.868220	-36.983227
3.450000	-49.673150	-61.778306	-0.235613	169.057274	-0.235613	169.057274	-49.248352	-60.311647
3.500000	-47.266847	-75.190740	-0.239470	166.236109	-0.239470	166.236109	-46.961711	-73.498126
3.550000	-45.438918	-83.767002	-0.243307	163.412940	-0.243307	163.412940	-45.201235	-82.058180
3.600000	-44.059552	-90.064786	-0.247115	160.587723	-0.247115	160.587723	-43.861384	-88.366147
3.650000	-43.016717	-95.137642	-0.250887	157.760410	-0.250887	157.760410	-42.842738	-93.436310
3.700000	-42.236205	-99.474706	-0.254617	154.930950	-0.254617	154.930950	-42.077184	-97.749250
3.750000	-41.670547	-103.326819	-0.258299	152.099285	-0.258299	152.099285	-41.520309	-101.553696
3.800000	-41.293311	-106.825307	-0.261926	149.265306	-0.261926	149.265306	-41.147154	-104.978924
3.850000	-41.083389	-110.053825	-0.265497	146.428998	-0.265497	146.428998	-40.937395	-108.106552
3.900000	-41.032385	-113.049836	-0.269007	143.590295	-0.269007	143.590295	-40.882751	-110.969714
3.950000	-41.139759	-115.824562	-0.272455	140.749131	-0.272455	140.749131	-40.982282	-113.572793
4.000000	-41.412796	-118.365038	-0.275840	137.905438	-0.275840	137.905438	-41.242243	-115.892348
4.050000	-41.867887	-120.629471	-0.279160	135.059151	-0.279160	135.059151	-41.677033	-117.870593
4.100000	-42.533583	-122.532983	-0.282418	132.210200	-0.282418	132.210200	-42.311483	-119.397906
4.150000	-43.456633	-123.914212	-0.285615	129.358522	-0.285615	129.358522	-43.185120	-120.273935
4.200000	-44.713632	-124.455242	-0.288754	126.504052	-0.288754	126.504052	-44.359352	-120.119293
4.250000	-46.433653	-123.467685	-0.291838	123.646730	-0.291838	123.646730	-45.927539	-118.158347
4.300000	-48.837469	-119.221496	-0.294871	120.786498	-0.294871	120.786498	-48.014594	-112.633475
4.350000	-52.214669	-106.468577	-0.297859	117.923302	-0.297859	117.923302	-50.643418	-99.245269
4.400000	-55.406023	-69.788837	-0.300808	115.057059	-0.300808	115.057059	-52.699253	-69.955664
4.450000	-52.888890	-24.147552	-0.303723	112.187723	-0.303723	112.187723	-51.249297	-34.338592
4.500000	-48.483335	-5.170838	-0.306612	109.315287	-0.306612	109.315287	-47.854716	-14.319686
4.550000	-45.007778	1.249554	-0.309483	106.439718	-0.309483	106.439718	-44.737489	-5.723953
4.600000	-42.306327	3.200509	-0.312343	103.560987	-0.312343	103.560987	-42.173227	-2.274986
4.650000	-40.117093	3.226214	-0.315200	100.679072	-0.315200	100.679072	-40.045441	-1.255483
4.700000	-38.280129	2.270897	-0.318061	97.793956	-0.318061	97.793956	-38.239542	-1.523494
4.750000	-36.698961	0.753639	-0.320934	94.905627	-0.320934	94.905627	-36.675516	-2.543832
4.800000	-35.312345	-1.113389	-0.323826	92.014081	-0.323826	92.014081	-35.298991	-4.037947
4.850000	-34.079339	-3.211905	-0.326744	89.119316	-0.326744	89.119316	-34.072220	-5.848083
4.900000	-32.971333	-5.470984	-0.329693	86.221338	-0.329693	86.221338	-32.968217	-7.878726
4.950000	-31.967596	-7.845624	-0.332681	83.320154	-0.332681	83.320154	-31.967129	-10.068879
5.000000	-31.052643	-10.305947	-0.335711	80.415778	-0.335711	80.415778	-31.053977	-12.377869
5.050000	-30.214484	-12.832451	-0.338788	77.508154	-0.338788	77.508154	-30.217064	-14.779098
5.100000	-29.444174	-15.408975	-0.341914	74.597372	-0.341914	74.597372	-29.447642	-17.250409
5.150000	-28.734315	-18.025052	-0.345092	71.683448	-0.345092	71.683448	-28.738428	-19.777450
5.200000	-28.078947	-20.672850	-0.348321	68.766401	-0.348321	68.766401	-28.083540	-22.349477
5.250000	-27.473214	-23.346405	-0.351602	65.846250	-0.351602	65.846250	-27.478175	-24.958302
5.300000	-26.913124	-26.041093	-0.354931	62.923009	-0.354931	62.923009	-26.918377	-27.597587
5.350000	-26.395374	-28.753276	-0.358307	59.996691	-0.358307	59.996691	-26.400866	-30.262352
5.400000	-25.917221	-31.480046	-0.361724	57.067303	-0.361724	57.067303	-25.922918	-32.948637
5.450000	-25.476382	-34.219042	-0.365176	54.134846	-0.365176	54.134846	-25.482264	-35.653246
5.500000	-25.070963	-36.968321	-0.368658	51.199314	-0.368658	51.199314	-25.077017	-38.373574
5.550000	-24.699398	-39.726249	-0.372160	48.260694	-0.372160	48.260694	-24.705622	-41.107462
5.600000	-24.360412	-42.491427	-0.375675	45.318962	-0.375675	45.318962	-24.366807	-43.853102
5.650000	-24.053208	-45.262680	-0.379191	42.374047	-0.379191	42.374047	-24.059782	-46.609045
5.700000	-23.777041	-48.038868	-0.382699	39.425901	-0.382699	39.425901	-23.783806	-49.373907
5.750000	-23.531112	-50.818898	-0.386185	36.474497	-0.386185	36.474497	-23.538085	-52.146391
5.800000	-23.315035	-53.601783	-0.389640	33.519760	-0.389640	33.519760	-23.322236	-54.925407
5.850000	-23.128615	-56.386533	-0.393051	30.561598	-0.393051	30.561598	-23.136071	-57.709928
5.900000	-22.971847	-59.172126	-0.396407	27.599906	-0.396407	27.599906	-22.979591	-60.498950
5.950000	-22.844919	-61.957473	-0.399696	24.634562	-0.399696	24.634562	-22.852989	-63.291457
6.000000	-22.748215	-64.741375	-0.402908	21.665426	-0.402908	21.665426	-22.756658	-66.086391
6.050000	-22.682332	-67.522485	-0.406034	18.692343	-0.406034	18.692343	-22.691204	-68.882607
6.100000	-22.648091	-70.299254	-0.409065	15.715141	-0.409065	15.715141	-22.657460	-71.678836
6.150000	-22.646568	-73.069870	-0.411993	12.733632	-0.411993	12.733632	-22.656517	-74.473632
6.200000	-22.679122	-75.832182	-0.414816	9.747610	-0.414816	9.747610	-22.689752	-77.265314
6.250000	-22.747445	-78.583599	-0.417529	6.756859	-0.417529	6.756859	-22.758879	-80.051888
6.300000	-22.854450	-81.320566	-0.420132	3.761030	-0.420132	3.761030	-22.866846	-82.830717
6.350000	-23.001911	-84.039355	-0.422628	0.759983	-0.422628	0.759983	-23.015463	-85.598917
6.400000	-23.192936	-86.734994	-0.425024	-2.246541	-0.425024	-2.246541	-23.207890	-88.352754
6.450000	-23.431331	-89.401163	-0.427330	-5.258805	-0.427330	-5.258805	-23.448003	-91.087494
6.500000	-23.721781	-92.029698	-0.429559	-8.277079	-0.429559	-8.277079	-23.740583	-93.797035
6.550000	-24.070102	-94.609874	-0.431729	-11.301639	-0.431729	-11.301639	-24.091579	-96.473368
6.600000	-24.483584	-97.127319	-0.433860	-14.332759	-0.433860	-14.332759	-24.508476	-99.105757
6.650000	-24.971494	-99.562331	-0.435977	-17.370713	-0.435977	-17.370713	-25.000830	-101.679466
6.700000	-25.544495	-101.890720	-0.438110	-20.415599	-0.438110	-20.415599	-25.579716	-104.176294
6.750000	-26.221559	-104.064347	-0.440294	-23.468090	-0.440294	-23.468090	-26.264872	-106.560234
6.800000	-27.022160	-106.025574	-0.442566	-26.528194	-0.442566	-26.528194	-27.076929	-108.787579
6.850000	-27.975845	-107.677178	-0.444968	-29.596140	-0.444968	-29.596140	-28.047546	-110.784264
6.900000	-29.124978	-108.855925	-0.447547	-32.672137	-0.447547	-32.672137	-29.223142	-112.424491
6.950000	-30.532883	-109.259994	-0.450352	-35.756413	-0.450352	-35.756413	-30.675656	-113.471354
7.000000	-32.296193	-108.291841	-0.453436	-38.849120	-0.453436	-38.849120	-32.522283	-113.440470
7.050000	-34.562272	-104.683989	-0.456847	-41.950220	-0.456847	-41.950220	-34.966855	-111.239617
7.100000	-37.493153	-94.799079	-0.460654	-45.060079	-0.460654	-45.060079	-38.365913	-103.272643
7.150000	-40.579427	-69.653706	-0.464914	-48.178704	-0.464914	-48.178704	-42.685715	-76.478994
7.200000	-40.585483	-29.069382	-0.469672	-51.305892	-0.469672	-51.305892	-42.776333	-22.945804
7.250000	-37.203219	-2.630248	-0.474995	-54.441752	-0.474995	-54.441752	-38.103914	5.539165
7.300000	-33.868300	7.679128	-0.480957	-57.586453	-0.480957	-57.586453	-34.275223	13.858167
7.350000	-31.216888	11.585476	-0.487586	-60.739524	-0.487586	-60.739524	-31.437715	16.291063
7.400000	-29.080199	12.650329	-0.494933	-63.900826	-0.494933	-63.900826	-29.216043	16.380083
7.450000	-27.303807	12.226214	-0.503087	-67.070623	-0.503087	-67.070623	-27.395009	15.298230
7.500000	-25.792391	11.015345	-0.512049	-70.248243	-0.512049	-70.248243	-25.857238	13.612060
7.550000	-24.480437	9.311979	-0.521851	-73.433424	-0.521851	-73.433424	-24.528506	11.552014
7.600000	-23.323670	7.271456	-0.532555	-76.626165	-0.532555	-76.626165	-23.360466	9.237810
7.650000	-22.292587	5.007033	-0.544141	-79.825833	-0.544141	-79.825833	-22.321416	6.755520
7.700000	-21.365089	2.574092	-0.556655	-83.032383	-0.556655	-83.032383	-21.388098	4.147030
7.750000	-20.525319	0.019185	-0.570074	-86.245292	-0.570074	-86.245292	-20.543934	1.447344
7.800000	-19.761072	-2.629855	-0.584389	-89.464257	-0.584389	-89.464257	-19.776283	-1.322645
7.850000	-19.063073	-5.353466	-0.599589	-92.689031	-0.599589	-92.689031	-19.075590	-4.148251
7.900000	-18.423608	-8.133703	-0.615597	-95.919037	-0.615597	-95.919037	-18.433944	-7.016010
7.950000	-17.837354	-10.962700	-0.632413	-99.154333	-0.632413	-99.154333	-17.845898	-9.919961
8.000000	-17.299094	-13.829306	-0.649936	-102.394419	-0.649936	-102.394419	-17.306135	-12.851697
8.050000	-16.804925	-16.726951	-0.668094	-105.639122	-0.668094	-105.639122	-16.810685	-15.806210
8.100000	-16.352456	-19.651319	-0.686823	-108.888544	-0.686823	-108.888544	-16.357109	-18.780131
8.150000	-15.938621	-22.596862	-0.706003	-112.142492	-0.706003	-112.142492	-15.942301	-21.769195
8.200000	-15.561146	-25.559674	-0.725523	-115.400985	-0.725523	-115.400985	-15.563955	-24.770342
8.250000	-15.218981	-28.536980	-0.745272	-118.664345	-0.745272	-118.664345	-15.220998	-27.781296
8.300000	-14.910816	-31.525807	-0.765116	-121.932869	-0.765116	-121.932869	-14.912099	-30.799635
8.350000	-14.634831	-34.523276	-0.784927	-125.206789	-0.784927	-125.206789	-14.635424	-33.823039
8.400000	-14.391280	-37.527403	-0.804560	-128.486915	-0.804560	-128.486915	-14.391210	-36.849714
8.450000	-14.179470	-40.535852	-0.823876	-131.773925	-0.823876	-131.773925	-14.178752	-39.877640
8.500000	-13.999411	-43.546445	-0.842730	-135.068785	-0.842730	-135.068785	-13.998047	-42.904832
8.550000	-13.851000	-46.556958	-0.860988	-138.372528	-0.860988	-138.372528	-13.848979	-45.929245
8.600000	-13.734612	-49.565084	-0.878519	-141.686425	-0.878519	-141.686425	-13.731912	-48.948675
8.650000	-13.651275	-52.568206	-0.895191	-145.012088	-0.895191	-145.012088	-13.647860	-51.960535
8.700000	-13.601069	-55.563658	-0.910923	-148.350815	-0.910923	-148.350815	-13.596889	-54.962239
8.750000	-13.585847	-58.547983	-0.925608	-151.704648	-0.925608	-151.704648	-13.580833	-57.950251
8.800000	-13.607987	-61.516749	-0.939155	-155.075960	-0.939155	-155.075960	-13.602046	-60.920001
8.850000	-13.669149	-64.464982	-0.951539	-158.466758	-0.951539	-158.466758	-13.662165	-63.866403
8.900000	-13.772140	-67.386088	-0.962746	-161.879492	-0.962746	-161.879492	-13.763961	-66.782636
8.950000	-13.920467	-70.271472	-0.972797	-165.316794	-0.972797	-165.316794	-13.910896	-69.659786
9.000000	-14.118504	-73.109722	-0.981757	-168.781472	-0.981757	-168.781472	-14.107287	-72.486014
9.050000	-14.371718	-75.885419	-0.989735	-172.276490	-0.989735	-172.276490	-14.358516	-75.245326
9.100000	-14.687427	-78.576432	-0.996890	-175.805249	-0.996890	-175.805249	-14.671784	-77.914777
9.150000	-15.074073	-81.152817	-1.003453	-179.370821	-1.003453	-179.370821	-15.055367	-80.463411
9.200000	-15.542321	-83.572472	-1.009718	177.023774	-1.009718	177.023774	-15.519679	-82.847802
9.250000	-16.107287	-85.768768	-1.016050	173.374649	-1.016050	173.374649	-16.079441	-84.999359
9.300000	-16.786921	-87.645991	-1.022898	169.678902	-1.022898	169.678902	-16.751980	-86.820011
9.350000	-17.604454	-89.060147	-1.030769	165.934032	-1.030769	165.934032	-17.559497	-88.162946
9.400000	-18.593646	-89.744445	-1.040322	162.135563	-1.040322	162.135563	-18.533841	-88.757605
9.450000	-19.792628	-89.273514	-1.052255	158.281603	-1.052255	158.281603	-19.709722	-88.177567
9.500000	-21.242688	-86.866780	-1.067371	154.369850	-1.067371	154.369850	-21.121907	-85.652041
9.550000	-22.949091	-81.000485	-1.086626	150.397781	-1.086626	150.397781	-22.764083	-79.714673
9.600000	-24.732141	-69.187323	-1.110957	146.365046	-1.110957	146.365046	-24.447032	-68.085811
9.650000	-25.835319	-49.217973	-1.141513	142.270442	-1.141513	142.270442	-25.461640	-48.944584
9.700000	-25.183943	-26.156630	-1.179426	138.114760	-1.179426	138.114760	-24.854096	-26.977510
9.750000	-23.134885	-9.478817	-1.225861	133.899741	-1.225861	133.899741	-22.923689	-10.722924
9.800000	-20.790021	-0.686630	-1.282205	129.627202	-1.282205	129.627202	-20.665067	-1.874927
9.850000	-18.643931	3.143091	-1.349540	125.301989	-1.349540	125.301989	-18.567588	2.116638
9.900000	-16.770727	4.088356	-1.429189	120.928802	-1.429189	120.928802	-16.721596	3.214945
9.950000	-15.145472	3.334540	-1.522284	116.514369	-1.522284	116.514369	-15.112350	2.585206
10.000000	-13.728325	1.522527	-1.629748	112.066815	-1.629748	112.066815	-13.705165	0.870894
