! freq	dB(S11)	phase(S11)	dB(S12)	phase(S12)	
!     	dB(S21)	phase(S21)	dB(S22)	phase(S22)	
!S-par simulation data
#  GHz  S  DB  R 50
0.000000	-84.584893	0.000000	-0.000512	0.000000	-0.000512	0.000000	-84.584893	0.000000
0.050000	-39.924961	-92.403935	-0.006303	-2.700010	-0.006303	-2.700010	-39.917707	-92.360361
0.100000	-33.907975	-95.313590	-0.012665	-5.356214	-0.012665	-5.356214	-33.901399	-95.225187
0.150000	-30.391952	-98.109810	-0.018264	-8.006500	-0.018264	-8.006500	-30.386358	-97.975299
0.200000	-27.901262	-100.875716	-0.024400	-10.655562	-0.024400	-10.655562	-27.896787	-100.693598
0.250000	-25.973401	-103.627320	-0.031405	-13.302857	-0.031405	-13.302857	-25.970000	-103.396427
0.300000	-24.402276	-106.369016	-0.039305	-15.948071	-0.039305	-15.948071	-24.399744	-106.088972
0.350000	-23.077834	-109.101949	-0.048061	-18.591303	-0.048061	-18.591303	-23.075864	-108.773437
0.400000	-21.934239	-111.826272	-0.057637	-21.232846	-0.057637	-21.232846	-21.932497	-111.451027
0.450000	-20.928968	-114.541906	-0.068020	-23.873022	-0.068020	-23.873022	-20.927157	-114.122489
0.500000	-20.032949	-117.248963	-0.079218	-26.512130	-0.079218	-26.512130	-20.030853	-116.788359
0.550000	-19.224759	-119.948975	-0.091141	-29.150510	-0.091141	-29.150510	-19.222276	-119.449740
0.600000	-18.489524	-122.641987	-0.103872	-31.788274	-0.103872	-31.788274	-18.486617	-122.106566
0.650000	-17.815304	-125.329320	-0.117367	-34.425603	-0.117367	-34.425603	-17.811996	-124.759519
0.700000	-17.193000	-128.011941	-0.131610	-37.062613	-0.131610	-37.062613	-17.189345	-127.409081
0.750000	-16.615720	-130.690283	-0.146646	-39.699375	-0.146646	-39.699375	-16.611785	-130.055455
0.800000	-16.077620	-133.365098	-0.162445	-42.335973	-0.162445	-42.335973	-16.073473	-132.699223
0.850000	-15.574148	-136.036731	-0.179023	-44.972473	-0.179023	-44.972473	-15.569851	-135.340819
0.900000	-15.101265	-138.705687	-0.196333	-47.608947	-0.196333	-47.608947	-15.096868	-137.980863
0.950000	-14.655817	-141.372157	-0.214382	-50.245460	-0.214382	-50.245460	-14.651359	-140.619811
1.000000	-14.235060	-144.036371	-0.233162	-52.882090	-0.233162	-52.882090	-14.230570	-143.258156
1.050000	-13.836638	-146.698537	-0.252666	-55.518922	-0.252666	-55.518922	-13.832137	-145.896370
1.100000	-13.458509	-149.358852	-0.272884	-58.156054	-0.272884	-58.156054	-13.454010	-148.534893
1.150000	-13.098883	-152.017509	-0.293812	-60.793597	-0.293812	-60.793597	-13.094395	-151.174135
1.200000	-12.756182	-154.674693	-0.315445	-63.431675	-0.315445	-63.431675	-12.751711	-153.814478
1.250000	-12.429005	-157.330585	-0.337777	-66.070427	-0.337777	-66.070427	-12.424555	-156.456280
1.300000	-12.116149	-159.985337	-0.360821	-68.710031	-0.360821	-68.710031	-12.111725	-159.099931
1.350000	-11.816431	-162.639147	-0.384563	-71.350643	-0.384563	-71.350643	-11.812040	-161.745730
1.400000	-11.528836	-165.292178	-0.409004	-73.992447	-0.409004	-73.992447	-11.524484	-164.394004
1.450000	-11.252442	-167.944591	-0.434148	-76.635643	-0.434148	-76.635643	-11.248139	-167.045081
1.500000	-10.986414	-170.596547	-0.460000	-79.280444	-0.460000	-79.280444	-10.982169	-169.699293
1.550000	-10.729985	-173.248205	-0.486569	-81.927075	-0.486569	-81.927075	-10.725811	-172.356979
1.600000	-10.482457	-175.899725	-0.513865	-84.575773	-0.513865	-84.575773	-10.478367	-175.018490
1.650000	-10.243186	-178.551270	-0.541901	-87.226788	-0.541901	-87.226788	-10.239195	-177.684185
1.700000	-10.011561	178.797002	-0.570679	-89.880323	-0.570679	-89.880323	-10.007684	179.645653
1.750000	-9.787132	176.144881	-0.600280	-92.536918	-0.600280	-92.536918	-9.783387	176.970177
1.800000	-9.569242	173.492266	-0.630625	-95.196407	-0.630625	-95.196407	-9.565644	174.289744
1.850000	-9.357532	170.838913	-0.661819	-97.859448	-0.661819	-97.859448	-9.354100	171.603311
1.900000	-9.151521	168.184691	-0.693847	-100.526122	-0.693847	-100.526122	-9.148274	168.910807
1.950000	-8.950810	165.529411	-0.726746	-103.196762	-0.726746	-103.196762	-8.947766	166.211743
2.000000	-8.755042	162.872837	-0.760586	-105.871863	-0.760586	-105.871863	-8.752224	163.505358
2.050000	-8.563842	160.214860	-0.795359	-108.551479	-0.795359	-108.551479	-8.561270	160.791618
2.100000	-8.376890	157.555308	-0.831102	-111.235897	-0.831102	-111.235897	-8.374585	158.070101
2.150000	-8.193886	154.894013	-0.867858	-113.925402	-0.867858	-113.925402	-8.191873	155.340384
2.200000	-8.014553	152.230807	-0.905672	-116.620281	-0.905672	-116.620281	-8.012855	152.602040
2.250000	-7.838621	149.565458	-0.944621	-119.321003	-0.944621	-119.321003	-7.837265	149.854353
2.300000	-7.665815	146.897661	-0.984819	-122.028218	-0.984819	-122.028218	-7.664834	147.096317
2.350000	-7.495934	144.227442	-1.026241	-124.741716	-1.026241	-124.741716	-7.495356	144.328293
2.400000	-7.328770	141.554652	-1.068947	-127.461775	-1.068947	-127.461775	-7.328626	141.549860
2.450000	-7.164131	138.879148	-1.113001	-130.188668	-1.113001	-130.188668	-7.164454	138.760603
2.500000	-7.001838	136.200795	-1.158473	-132.922665	-1.158473	-132.922665	-7.002663	135.960111
2.550000	-6.841727	133.519464	-1.205434	-135.664031	-1.205434	-135.664031	-6.843091	133.147976
2.600000	-6.683570	130.834779	-1.254070	-138.413653	-1.254070	-138.413653	-6.685517	130.322806
2.650000	-6.527261	128.146749	-1.304415	-141.171490	-1.304415	-141.171490	-6.529834	127.484673
2.700000	-6.372706	125.455391	-1.356509	-143.937503	-1.356509	-143.937503	-6.375950	124.633636
2.750000	-6.219793	122.760615	-1.410442	-146.711930	-1.410442	-146.711930	-6.223753	121.769317
2.800000	-6.068421	120.062345	-1.466311	-149.495000	-1.466311	-149.495000	-6.073146	118.891345
2.850000	-5.918498	117.360515	-1.524218	-152.286936	-1.524218	-152.286936	-5.924038	115.999356
2.900000	-5.769930	114.655026	-1.584291	-155.088063	-1.584291	-155.088063	-5.776339	113.092810
2.950000	-5.622532	111.945495	-1.646823	-157.899465	-1.646823	-157.899465	-5.629876	110.169961
3.000000	-5.476372	109.232276	-1.711748	-160.720382	-1.711748	-160.720382	-5.484709	107.231972
3.050000	-5.331401	106.515357	-1.779193	-163.550998	-1.779193	-163.550998	-5.340794	104.278506
3.100000	-5.187580	103.794740	-1.849289	-166.391486	-1.849289	-166.391486	-5.198095	101.309229
3.150000	-5.044878	101.070441	-1.922174	-169.242008	-1.922174	-169.242008	-5.056583	98.323814
3.200000	-4.903272	98.342488	-1.997996	-172.102719	-1.997996	-172.102719	-4.916241	95.321932
3.250000	-4.762676	95.610711	-2.077061	-174.974405	-2.077061	-174.974405	-4.776994	92.302205
3.300000	-4.623097	92.875201	-2.159532	-177.857154	-2.159532	-177.857154	-4.638852	89.264359
3.350000	-4.484636	90.136334	-2.245368	179.249799	-2.245368	179.249799	-4.501912	86.209518
3.400000	-4.347287	87.394158	-2.334770	176.346230	-2.334770	176.346230	-4.366173	83.137169
3.450000	-4.210947	84.648404	-2.428275	173.430749	-2.428275	173.430749	-4.231557	80.044796
3.500000	-4.075780	81.899641	-2.525691	170.504748	-2.525691	170.504748	-4.098213	76.934543
3.550000	-3.941742	79.147770	-2.627474	167.567270	-2.627474	167.567270	-3.966118	73.804543
3.600000	-3.808888	76.393006	-2.733798	164.618443	-2.733798	164.618443	-3.835331	70.654751
3.650000	-3.677289	73.635628	-2.844779	161.658616	-2.844779	161.658616	-3.705925	67.485494
3.700000	-3.546922	70.875568	-2.961022	158.686599	-2.961022	158.686599	-3.577906	64.294314
3.750000	-3.417935	68.113393	-3.082246	155.704086	-3.082246	155.704086	-3.451398	61.083931
3.800000	-3.290266	65.348844	-3.209561	152.708515	-3.209561	152.708515	-3.326402	57.849193
3.850000	-3.164074	62.582568	-3.342467	149.702269	-3.342467	149.702269	-3.203037	54.594132
3.900000	-3.039359	59.814504	-3.481945	146.683416	-3.481945	146.683416	-3.081357	51.314548
3.950000	-2.916208	57.045029	-3.627972	143.652979	-3.627972	143.652979	-2.961437	48.011921
4.000000	-2.794677	54.274313	-3.781133	140.610347	-3.781133	140.610347	-2.843362	44.684444
4.050000	-2.674829	51.502554	-3.941980	137.555112	-3.941980	137.555112	-2.727219	41.330645
4.100000	-2.556722	48.730035	-4.110638	134.488036	-4.110638	134.488036	-2.613060	37.951466
4.150000	-2.440446	45.956865	-4.288357	131.407169	-4.288357	131.407169	-2.501046	34.541932
4.200000	-2.326013	43.183317	-4.474828	128.314480	-4.474828	128.314480	-2.391145	31.105652
4.250000	-2.213569	40.409493	-4.671829	125.207094	-4.671829	125.207094	-2.283614	27.635160
4.300000	-2.103088	37.635562	-4.879126	122.086983	-4.879126	122.086983	-2.178376	24.134182
4.350000	-1.994707	34.861613	-5.098310	118.952114	-5.098310	118.952114	-2.075660	20.596784
4.400000	-1.888446	32.087703	-5.330011	115.802838	-5.330011	115.802838	-1.975491	17.022750
4.450000	-1.784369	29.313837	-5.575365	112.638627	-5.575365	112.638627	-1.877973	13.409495
4.500000	-1.682597	26.539961	-5.836139	109.457998	-5.836139	109.457998	-1.783312	9.751673
4.550000	-1.583068	23.765964	-6.112919	106.262202	-6.112919	106.262202	-1.691414	6.051165
4.600000	-1.486068	20.991595	-6.409020	103.047684	-6.409020	103.047684	-1.602760	2.295772
4.650000	-1.391414	18.216652	-6.724752	99.817155	-6.724752	99.817155	-1.517068	-1.508777
4.700000	-1.299445	15.440589	-7.064389	96.566952	-7.064389	96.566952	-1.434913	-5.377140
4.750000	-1.210034	12.663064	-7.429437	93.299151	-7.429437	93.299151	-1.356117	-9.306498
4.800000	-1.123424	9.883301	-7.824443	90.012202	-7.824443	90.012202	-1.281101	-13.308186
4.850000	-1.039698	7.100573	-8.253582	86.706822	-8.253582	86.706822	-1.210033	-17.387754
4.900000	-0.958916	4.314100	-8.721662	83.384831	-8.721662	83.384831	-1.143043	-21.549870
4.950000	-0.881481	1.522366	-9.237236	80.047145	-9.237236	80.047145	-1.080819	-25.812207
5.000000	-0.807190	-1.274970	-9.805778	76.699946	-9.805778	76.699946	-1.023058	-30.169179
5.050000	-0.736744	-4.080335	-10.441931	73.349465	-10.441931	73.349465	-0.970925	-34.649119
5.100000	-0.670269	-6.894869	-11.159012	70.009689	-11.159012	70.009689	-0.924639	-39.257838
5.150000	-0.608148	-9.720255	-11.976942	66.703102	-11.976942	66.703102	-0.884822	-44.009803
5.200000	-0.550849	-12.558272	-12.923481	63.468423	-12.923481	63.468423	-0.852213	-48.921301
5.250000	-0.498943	-15.410727	-14.038809	60.374490	-14.038809	60.374490	-0.827698	-54.010638
5.300000	-0.453129	-18.279363	-15.383967	57.550235	-15.383967	57.550235	-0.812329	-59.298334
5.350000	-0.414255	-21.165714	-17.057737	55.257177	-17.057737	55.257177	-0.807354	-64.807313
5.400000	-0.383342	-24.070894	-19.233855	54.093715	-19.233855	54.093715	-0.814245	-70.563064
5.450000	-0.361710	-26.995493	-22.251205	55.787500	-22.251205	55.787500	-0.834872	-76.596719
5.500000	-0.350790	-29.938672	-26.763696	67.118404	-26.763696	67.118404	-0.871199	-82.938511
5.550000	-0.352212	-32.897918	-31.097590	116.250318	-31.097590	116.250318	-0.925417	-89.620671
5.600000	-0.367867	-35.868479	-26.394224	165.208686	-26.394224	165.208686	-1.000011	-96.678985
5.650000	-0.399828	-38.842453	-21.465314	176.355404	-21.465314	176.355404	-1.097616	-104.150836
5.700000	-0.450250	-41.807875	-18.042156	177.247445	-18.042156	177.247445	-1.220856	-112.074172
5.750000	-0.521230	-44.747783	-15.482784	174.860309	-15.482784	174.860309	-1.372086	-120.485967
5.800000	-0.614561	-47.639462	-13.454751	170.973777	-13.454751	170.973777	-1.553002	-129.420039
5.850000	-0.731517	-50.453564	-11.790144	166.227912	-11.790144	166.227912	-1.764209	-138.906843
5.900000	-0.872302	-53.154332	-10.396690	160.920878	-10.396690	160.920878	-2.004317	-148.966900
5.950000	-1.035151	-55.705611	-9.218811	155.229960	-9.218811	155.229960	-2.268827	-159.592132
6.000000	-1.217077	-58.066330	-8.221524	149.266661	-8.221524	149.266661	-2.550549	-170.771282
6.050000	-1.412686	-60.201826	-7.380622	143.126685	-7.380622	143.126685	-2.838366	177.544295
6.100000	-1.614684	-62.085275	-6.678478	136.892752	-6.678478	136.892752	-3.117880	165.433541
6.150000	-1.814271	-63.705954	-6.100471	130.640851	-6.100471	130.640851	-3.372745	153.016432
6.200000	-2.002652	-65.076772	-5.631958	124.436851	-5.631958	124.436851	-3.588233	140.449155
6.250000	-2.171364	-66.221755	-5.261447	118.338086	-5.261447	118.338086	-3.751496	127.906409
6.300000	-2.313309	-67.181780	-4.978085	112.394165	-4.978085	112.394165	-3.854493	115.580197
6.350000	-2.424836	-68.012980	-4.769334	106.638546	-4.769334	106.638546	-3.897462	103.642375
6.400000	-2.504684	-68.770330	-4.624467	101.095107	-4.624467	101.095107	-3.885487	92.232395
6.450000	-2.554038	-69.504400	-4.533606	95.777696	-4.533606	95.777696	-3.827530	81.446451
6.500000	-2.575903	-70.256855	-4.487848	90.691703	-4.487848	90.691703	-3.734276	71.336178
6.550000	-2.574362	-71.058421	-4.479326	85.835833	-4.479326	85.835833	-3.616316	61.914551
6.600000	-2.553897	-71.928985	-4.501218	81.203853	-4.501218	81.203853	-3.482975	53.165392
6.650000	-2.518882	-72.879079	-4.547689	76.786135	-4.547689	76.786135	-3.341786	45.053292
6.700000	-2.473023	-73.914612	-4.614284	72.577073	-4.614284	72.577073	-3.198438	37.549473
6.750000	-2.420217	-75.028568	-4.695862	68.551698	-4.695862	68.551698	-3.057084	30.568313
6.800000	-2.362886	-76.218299	-4.789557	64.702625	-4.789557	64.702625	-2.920321	24.075882
6.850000	-2.303178	-77.476949	-4.892554	61.016745	-4.892554	61.016745	-2.789849	18.023382
6.900000	-2.242731	-78.797473	-5.002577	57.482914	-5.002577	57.482914	-2.666692	12.369385
6.950000	-2.182789	-80.171927	-5.117674	54.088786	-5.117674	54.088786	-2.551296	7.071526
7.000000	-2.124221	-81.592336	-5.236254	50.821602	-5.236254	50.821602	-2.443666	2.088933
7.050000	-2.067622	-83.051989	-5.357070	47.671079	-5.357070	47.671079	-2.343642	-2.610933
7.100000	-2.013390	-84.544868	-5.479098	44.627762	-5.479098	44.627762	-2.250928	-7.056880
7.150000	-1.961770	-86.065667	-5.601504	41.683002	-5.601504	41.683002	-2.165146	-11.274343
7.200000	-1.912899	-87.609769	-5.723606	38.828911	-5.723606	38.828911	-2.085881	-15.285762
7.250000	-1.866831	-89.173197	-5.844846	36.058302	-5.844846	36.058302	-2.012703	-19.110934
7.300000	-1.823675	-90.753076	-5.964618	33.367637	-5.964618	33.367637	-1.945393	-22.760904
7.350000	-1.783135	-92.345261	-6.082877	30.744047	-6.082877	30.744047	-1.883074	-26.266056
7.400000	-1.745284	-93.948111	-6.199145	28.186174	-6.199145	28.186174	-1.825632	-29.631266
7.450000	-1.710031	-95.559567	-6.313170	25.689073	-6.313170	25.689073	-1.772705	-32.868751
7.500000	-1.677280	-97.177916	-6.424747	23.248235	-6.424747	23.248235	-1.723957	-35.989380
7.550000	-1.647020	-98.801920	-6.533530	20.861631	-6.533530	20.861631	-1.679224	-38.998597
7.600000	-1.619042	-100.430148	-6.639556	18.523096	-6.639556	18.523096	-1.638056	-41.910022
7.650000	-1.593239	-102.061678	-6.742719	16.229218	-6.742719	16.229218	-1.600196	-44.731322
7.700000	-1.569508	-103.695772	-6.842929	13.976863	-6.842929	13.976863	-1.565410	-47.469399
7.750000	-1.547750	-105.331848	-6.940117	11.763144	-6.940117	11.763144	-1.533481	-50.130483
7.800000	-1.527870	-106.969462	-7.034226	9.585395	-7.034226	9.585395	-1.504217	-52.720212
7.850000	-1.509778	-108.608286	-7.125211	7.441154	-7.125211	7.441154	-1.477439	-55.243701
7.900000	-1.493389	-110.248093	-7.213036	5.328134	-7.213036	5.328134	-1.452985	-57.705606
7.950000	-1.478622	-111.888747	-7.297674	3.244211	-7.297674	3.244211	-1.430707	-60.110174
8.000000	-1.465403	-113.530187	-7.379106	1.187409	-7.379106	1.187409	-1.410473	-62.461287
8.050000	-1.453663	-115.172420	-7.457317	-0.844120	-7.457317	-0.844120	-1.392159	-64.762508
8.100000	-1.443335	-116.815514	-7.532298	-2.852106	-7.532298	-2.852106	-1.375654	-67.017112
8.150000	-1.434359	-118.459589	-7.604041	-4.838170	-7.604041	-4.838170	-1.360857	-69.228118
8.200000	-1.426679	-120.104810	-7.672547	-6.803838	-7.672547	-6.803838	-1.347675	-71.398316
8.250000	-1.420242	-121.751389	-7.737815	-8.750550	-7.737815	-8.750550	-1.336023	-73.530290
8.300000	-1.415000	-123.399571	-7.799849	-10.679664	-7.799849	-10.679664	-1.325825	-75.626443
8.350000	-1.410971	-125.049776	-7.858447	-12.591629	-7.858447	-12.591629	-1.317085	-77.687243
8.400000	-1.407847	-126.701711	-7.914491	-14.491160	-7.914491	-14.491160	-1.309427	-79.722157
8.450000	-1.406125	-128.357022	-7.966213	-16.372516	-7.966213	-16.372516	-1.303419	-81.718447
8.500000	-1.405273	-130.014927	-8.015272	-18.243296	-8.015272	-18.243296	-1.298424	-83.691689
8.550000	-1.405278	-131.675599	-8.061648	-20.103953	-8.061648	-20.103953	-1.294423	-85.642611
8.600000	-1.406415	-133.340534	-8.104293	-21.952024	-8.104293	-21.952024	-1.291722	-87.565051
8.650000	-1.408567	-135.010123	-8.143507	-23.789829	-8.143507	-23.789829	-1.290175	-89.463223
8.700000	-1.411499	-136.683732	-8.180070	-25.620271	-8.180070	-25.620271	-1.289510	-91.343405
8.750000	-1.415202	-138.361568	-8.213970	-27.443754	-8.213970	-27.443754	-1.289711	-93.206211
8.800000	-1.420126	-140.047316	-8.243480	-29.257585	-8.243480	-29.257585	-1.291274	-95.043175
8.850000	-1.425775	-141.738544	-8.270374	-31.066539	-8.270374	-31.066539	-1.293639	-96.865832
8.900000	-1.432144	-143.435502	-8.294647	-32.870975	-8.294647	-32.870975	-1.296797	-98.674695
8.950000	-1.439415	-145.140303	-8.315577	-34.670464	-8.315577	-34.670464	-1.300944	-100.467138
9.000000	-1.447633	-146.854493	-8.332960	-36.465966	-8.332960	-36.465966	-1.306124	-102.243811
9.050000	-1.456539	-148.576120	-8.347766	-38.259231	-8.347766	-38.259231	-1.312049	-104.009846
9.100000	-1.466133	-150.305464	-8.359996	-40.050601	-8.359996	-40.050601	-1.318716	-105.765702
9.150000	-1.476772	-152.047861	-8.368271	-41.840350	-8.368271	-41.840350	-1.326508	-107.507549
9.200000	-1.488150	-153.800389	-8.373786	-43.629962	-8.373786	-43.629962	-1.335087	-109.240799
9.250000	-1.500205	-155.562607	-8.376778	-45.419866	-8.376778	-45.419866	-1.344387	-110.966690
9.300000	-1.513062	-157.336847	-8.376804	-47.210711	-8.376804	-47.210711	-1.354535	-112.684627
9.350000	-1.526905	-159.127237	-8.373220	-49.004053	-8.373220	-49.004053	-1.365723	-114.394406
9.400000	-1.541439	-160.929529	-8.367175	-50.799876	-8.367175	-50.799876	-1.377634	-116.099480
9.450000	-1.556670	-162.744087	-8.358684	-52.598518	-8.358684	-52.598518	-1.390270	-117.800246
9.500000	-1.572917	-164.577708	-8.346666	-54.402385	-8.346666	-54.402385	-1.403961	-119.496044
9.550000	-1.590016	-166.428089	-8.331820	-56.211633	-8.331820	-56.211633	-1.418528	-121.189082
9.600000	-1.607854	-168.293265	-8.314609	-58.025969	-8.314609	-58.025969	-1.433847	-122.880373
9.650000	-1.626507	-170.175141	-8.294840	-59.846342	-8.294840	-59.846342	-1.449995	-124.570293
9.700000	-1.646339	-172.082502	-8.271483	-61.676827	-8.271483	-61.676827	-1.467334	-126.259941
9.750000	-1.666980	-174.007475	-8.245865	-63.514797	-8.245865	-63.514797	-1.485479	-127.950404
9.800000	-1.688447	-175.950526	-8.218015	-65.360640	-8.218015	-65.360640	-1.504440	-129.642081
9.850000	-1.711061	-177.919509	-8.187141	-67.218279	-8.187141	-67.218279	-1.524533	-131.336507
9.900000	-1.734806	-179.914410	-8.153521	-69.088337	-8.153521	-69.088337	-1.545726	-133.034924
9.950000	-1.759489	178.069432	-8.117816	-70.968882	-8.117816	-70.968882	-1.567822	-134.737203
10.000000	-1.785136	176.031506	-8.080067	-72.860331	-8.080067	-72.860331	-1.590840	-136.443760
