! freq	dB(S11)	phase(S11)	dB(S12)	phase(S12)	
!     	dB(S21)	phase(S21)	dB(S22)	phase(S22)	
!S-par simulation data
#  GHz  S  DB  R 50
0.000000	-84.244154	0.000000	-0.000533	0.000000	-0.000533	0.000000	-84.244154	0.000000
0.050000	-40.464223	-91.789879	-0.004518	-2.723977	-0.004518	-2.723977	-40.474517	-92.332644
0.100000	-34.499417	-94.457370	-0.011183	-5.414766	-0.011183	-5.414766	-34.505298	-95.487985
0.150000	-31.019918	-97.106033	-0.017364	-8.090814	-0.017364	-8.090814	-31.025268	-98.627057
0.200000	-28.555213	-99.716270	-0.023488	-10.762684	-0.023488	-10.762684	-28.560773	-101.737127
0.250000	-26.648524	-102.283496	-0.030040	-13.432349	-0.030040	-13.432349	-26.654222	-104.808716
0.300000	-25.096327	-104.814919	-0.037223	-16.099807	-0.037223	-16.099807	-25.102004	-107.845768
0.350000	-23.789427	-107.319662	-0.045058	-18.764903	-0.045058	-18.764903	-23.794966	-110.855912
0.400000	-22.662920	-109.803772	-0.053535	-21.427466	-0.053535	-21.427466	-22.668233	-113.844588
0.450000	-21.675346	-112.271322	-0.062652	-24.087288	-0.062652	-24.087288	-21.680360	-116.815582
0.500000	-20.797586	-114.726537	-0.072346	-26.744455	-0.072346	-26.744455	-20.802248	-119.773122
0.550000	-20.009277	-117.171718	-0.082587	-29.398925	-0.082587	-29.398925	-20.013541	-122.719527
0.600000	-19.295837	-119.608176	-0.093370	-32.050518	-0.093370	-32.050518	-19.299661	-125.656097
0.650000	-18.645487	-122.037453	-0.104650	-34.699276	-0.104650	-34.699276	-18.648838	-128.584443
0.700000	-18.049245	-124.460478	-0.116394	-37.345162	-0.116394	-37.345162	-18.052097	-131.505515
0.750000	-17.500345	-126.877726	-0.128588	-39.988014	-0.128588	-39.988014	-17.502669	-134.419736
0.800000	-16.993047	-129.289730	-0.141200	-42.627767	-0.141200	-42.627767	-16.994820	-137.327597
0.850000	-16.522285	-131.697088	-0.154185	-45.264487	-0.154185	-45.264487	-16.523489	-140.229666
0.900000	-16.084712	-134.099857	-0.167531	-47.897933	-0.167531	-47.897933	-16.085323	-143.125825
0.950000	-15.676783	-136.498462	-0.181194	-50.528150	-0.181194	-50.528150	-15.676783	-146.016400
1.000000	-15.295712	-138.893167	-0.195139	-53.155112	-0.195139	-53.155112	-15.295081	-148.901496
1.050000	-14.939107	-141.284223	-0.209331	-55.778806	-0.209331	-55.778806	-14.937826	-151.781179
1.100000	-14.604894	-143.671879	-0.223734	-58.399239	-0.223734	-58.399239	-14.602945	-154.655489
1.150000	-14.291268	-146.056392	-0.238311	-61.016433	-0.238311	-61.016433	-14.288632	-157.524444
1.200000	-13.996640	-148.438025	-0.253026	-63.630429	-0.253026	-63.630429	-13.993297	-160.388049
1.250000	-13.719605	-150.817060	-0.267842	-66.241284	-0.267842	-66.241284	-13.715537	-163.246296
1.300000	-13.459028	-153.193764	-0.282722	-68.849028	-0.282722	-68.849028	-13.454216	-166.099089
1.350000	-13.213674	-155.568494	-0.297631	-71.453797	-0.297631	-71.453797	-13.208098	-168.946481
1.400000	-12.982828	-157.941543	-0.312533	-74.055588	-0.312533	-74.055588	-12.976468	-171.788232
1.450000	-12.764927	-160.313390	-0.327398	-76.654760	-0.327398	-76.654760	-12.757765	-174.624779
1.500000	-12.559553	-162.684355	-0.342194	-79.251297	-0.342194	-79.251297	-12.551570	-177.455789
1.550000	-12.366092	-165.054839	-0.356887	-81.845293	-0.356887	-81.845293	-12.357267	179.718892
1.600000	-12.183321	-167.425297	-0.371462	-84.437085	-0.371462	-84.437085	-12.173635	176.898887
1.650000	-12.011538	-169.796229	-0.385871	-87.026535	-0.385871	-87.026535	-12.000966	174.085024
1.700000	-11.849116	-172.168036	-0.400119	-89.614149	-0.400119	-89.614149	-11.837640	171.276486
1.750000	-11.696209	-174.541316	-0.414166	-92.199903	-0.414166	-92.199903	-11.683802	168.473943
1.800000	-11.552129	-176.916588	-0.428000	-94.784053	-0.428000	-94.784053	-11.538768	165.677321
1.850000	-11.416421	-179.294421	-0.441605	-97.366806	-0.441605	-97.366806	-11.402078	162.886725
1.900000	-11.288721	178.324551	-0.454965	-99.948373	-0.454965	-99.948373	-11.273366	160.102342
1.950000	-11.168626	175.939685	-0.468068	-102.528992	-0.468068	-102.528992	-11.152227	157.324314
2.000000	-11.055700	173.550369	-0.480907	-105.108918	-0.480907	-105.108918	-11.038223	154.552729
2.050000	-10.949593	171.155933	-0.493472	-107.688398	-0.493472	-107.688398	-10.931000	151.787761
2.100000	-10.850420	168.755105	-0.505729	-110.267694	-0.505729	-110.267694	-10.830664	149.030223
2.150000	-10.756919	166.348339	-0.517726	-112.847060	-0.517726	-112.847060	-10.735961	146.279047
2.200000	-10.669310	163.934320	-0.529428	-115.426732	-0.529428	-115.426732	-10.647101	143.535150
2.250000	-10.587316	161.512291	-0.540827	-118.006956	-0.540827	-118.006956	-10.563804	140.798806
2.300000	-10.510673	159.081473	-0.551920	-120.587973	-0.551920	-120.587973	-10.485801	138.070319
2.350000	-10.439129	156.641072	-0.562702	-123.170014	-0.562702	-123.170014	-10.412837	135.350027
2.400000	-10.372443	154.190276	-0.573169	-125.753303	-0.573169	-125.753303	-10.344669	132.638298
2.450000	-10.310385	151.728261	-0.583321	-128.338053	-0.583321	-128.338053	-10.281064	129.935535
2.500000	-10.252732	149.254190	-0.593157	-130.924469	-0.593157	-130.924469	-10.221800	127.242174
2.550000	-10.199432	146.766616	-0.602665	-133.512840	-0.602665	-133.512840	-10.166821	124.559136
2.600000	-10.150104	144.265210	-0.611862	-136.103280	-0.611862	-136.103280	-10.115752	121.886516
2.650000	-10.104550	141.749115	-0.620753	-138.695971	-0.620753	-138.695971	-10.068399	119.224843
2.700000	-10.062579	139.217469	-0.629342	-141.291090	-0.629342	-141.291090	-10.024574	116.574674
2.750000	-10.024007	136.669407	-0.637639	-143.888805	-0.637639	-143.888805	-9.984096	113.936585
2.800000	-9.988654	134.104062	-0.645649	-146.489282	-0.645649	-146.489282	-9.946790	111.311173
2.850000	-9.956349	131.520558	-0.653382	-149.092677	-0.653382	-149.092677	-9.912485	108.699052
2.900000	-9.926923	128.918015	-0.660849	-151.699147	-0.660849	-151.699147	-9.881015	106.100848
2.950000	-9.900216	126.295545	-0.668058	-154.308839	-0.668058	-154.308839	-9.852218	103.517202
3.000000	-9.876068	123.652248	-0.675023	-156.921898	-0.675023	-156.921898	-9.825932	100.948764
3.050000	-9.854324	120.987217	-0.681754	-159.538465	-0.681754	-159.538465	-9.802000	98.396193
3.100000	-9.834831	118.299536	-0.688263	-162.158673	-0.688263	-162.158673	-9.780264	95.860155
3.150000	-9.817437	115.588285	-0.694564	-164.782655	-0.694564	-164.782655	-9.760567	93.341323
3.200000	-9.801988	112.852544	-0.700671	-167.410538	-0.700671	-167.410538	-9.742752	90.840369
3.250000	-9.788333	110.091398	-0.706596	-170.042443	-0.706596	-170.042443	-9.726665	88.357967
3.300000	-9.776318	107.303942	-0.712354	-172.678489	-0.712354	-172.678489	-9.712147	85.894786
3.350000	-9.765787	104.489291	-0.717960	-175.318790	-0.717960	-175.318790	-9.699041	83.451488
3.400000	-9.756584	101.646583	-0.723429	-177.963455	-0.723429	-177.963455	-9.687189	81.028722
3.450000	-9.748551	98.774986	-0.728776	179.387409	-0.728776	179.387409	-9.676432	78.627120
3.500000	-9.741527	95.873703	-0.734018	176.733702	-0.734018	176.733702	-9.666610	76.247294
3.550000	-9.735351	92.941982	-0.739170	174.075329	-0.739170	174.075329	-9.657561	73.889828
3.600000	-9.729861	89.979116	-0.744249	171.412196	-0.744249	171.412196	-9.649124	71.555271
3.650000	-9.724891	86.984451	-0.749273	168.744218	-0.749273	168.744218	-9.641134	69.244135
3.700000	-9.720278	83.957395	-0.754258	166.071313	-0.754258	166.071313	-9.633428	66.956886
3.750000	-9.715855	80.897415	-0.759223	163.393407	-0.759223	163.393407	-9.625841	64.693940
3.800000	-9.711451	77.802582	-0.764186	160.710203	-0.764186	160.710203	-9.618199	62.456742
3.850000	-9.706892	74.673950	-0.769167	158.021858	-0.769167	158.021858	-9.610331	60.244519
3.900000	-9.702014	71.511226	-0.774184	155.328314	-0.774184	155.328314	-9.602075	58.057488
3.950000	-9.696654	68.314199	-0.779256	152.629520	-0.779256	152.629520	-9.593267	55.895787
4.000000	-9.690654	65.082748	-0.784402	149.925433	-0.784402	149.925433	-9.583747	53.759477
4.050000	-9.683856	61.816848	-0.789642	147.216016	-0.789642	147.216016	-9.573357	51.648531
4.100000	-9.676107	58.516568	-0.794994	144.501240	-0.794994	144.501240	-9.561943	49.562835
4.150000	-9.667261	55.182079	-0.800476	141.781083	-0.800476	141.781083	-9.549357	47.502183
4.200000	-9.657176	51.813654	-0.806109	139.055531	-0.806109	139.055531	-9.535454	45.466274
4.250000	-9.645719	48.411669	-0.811910	136.324576	-0.811910	136.324576	-9.520097	43.454711
4.300000	-9.632764	44.976601	-0.817898	133.588220	-0.817898	133.588220	-9.503158	41.467001
4.350000	-9.618196	41.509032	-0.824090	130.846470	-0.824090	130.846470	-9.484517	39.502558
4.400000	-9.601909	38.009644	-0.830504	128.099344	-0.830504	128.099344	-9.464065	37.560699
4.450000	-9.583811	34.479215	-0.837156	125.346863	-0.837156	125.346863	-9.441704	35.640654
4.500000	-9.563823	30.918615	-0.844061	122.589058	-0.844061	122.589058	-9.417349	33.741564
4.550000	-9.541878	27.328803	-0.851234	119.825966	-0.851234	119.825966	-9.390928	31.862492
4.600000	-9.518110	23.713149	-0.858665	117.058081	-0.858665	117.058081	-9.362583	30.000886
4.650000	-9.492095	20.067708	-0.866418	114.284490	-0.866418	114.284490	-9.331854	28.159030
4.700000	-9.464019	16.396395	-0.874477	111.505762	-0.874477	111.505762	-9.298936	26.333942
4.750000	-9.433881	12.700434	-0.882854	108.721955	-0.882854	108.721955	-9.263821	24.524436
4.800000	-9.401699	8.981091	-0.891555	105.933135	-0.891555	105.933135	-9.226520	22.729286
4.850000	-9.367507	5.239660	-0.900588	103.139369	-0.900588	103.139369	-9.187061	20.947242
4.900000	-9.331359	1.477451	-0.909959	100.340728	-0.909959	100.340728	-9.145490	19.177038
4.950000	-9.293325	-2.304222	-0.919670	97.537283	-0.919670	97.537283	-9.101872	17.417402
5.000000	-9.253491	-6.104056	-0.929724	94.729109	-0.929724	94.729109	-9.056287	15.667069
5.050000	-9.211924	-9.921106	-0.940127	91.916178	-0.940127	91.916178	-9.008791	13.924941
5.100000	-9.168785	-13.753734	-0.950869	89.098665	-0.950869	89.098665	-8.959545	12.189598
5.150000	-9.124210	-17.600741	-0.961945	86.276637	-0.961945	86.276637	-8.908681	10.459863
5.200000	-9.078346	-21.460991	-0.973349	83.450159	-0.973349	83.450159	-8.856343	8.734604
5.250000	-9.031353	-25.333414	-0.985070	80.619289	-0.985070	80.619289	-8.802690	7.012748
5.300000	-8.983402	-29.217021	-0.997097	77.784078	-0.997097	77.784078	-8.747889	5.293281
5.350000	-8.934671	-33.110909	-1.009416	74.944569	-1.009416	74.944569	-8.692121	3.575257
5.400000	-8.885348	-37.014268	-1.022010	72.100793	-1.022010	72.100793	-8.635573	1.857803
5.450000	-8.835625	-40.926393	-1.034861	69.252771	-1.034861	69.252771	-8.578441	0.140120
5.500000	-8.785701	-44.846681	-1.047947	66.400506	-1.047947	66.400506	-8.520927	-1.578516
5.550000	-8.735775	-48.774640	-1.061244	63.543989	-1.061244	63.543989	-8.463236	-3.298749
5.600000	-8.686049	-52.709891	-1.074727	60.683190	-1.074727	60.683190	-8.405577	-5.021148
5.650000	-8.636729	-56.652244	-1.088368	57.818012	-1.088368	57.818012	-8.348161	-6.746242
5.700000	-8.588023	-60.601549	-1.102135	54.948381	-1.102135	54.948381	-8.291208	-8.474464
5.750000	-8.540129	-64.557702	-1.115995	52.074247	-1.115995	52.074247	-8.234929	-10.206136
5.800000	-8.493242	-68.520791	-1.129913	49.195485	-1.129913	49.195485	-8.179534	-11.941545
5.850000	-8.447551	-72.491012	-1.143853	46.311944	-1.143853	46.311944	-8.125228	-13.680921
5.900000	-8.403244	-76.468674	-1.157777	43.423440	-1.157777	43.423440	-8.072214	-15.424444
5.950000	-8.360500	-80.454185	-1.171646	40.529757	-1.171646	40.529757	-8.020692	-17.172251
6.000000	-8.319491	-84.448057	-1.185421	37.630646	-1.185421	37.630646	-7.970855	-18.924440
6.050000	-8.280385	-88.450895	-1.199059	34.725820	-1.199059	34.725820	-7.922894	-20.681086
6.100000	-8.243339	-92.463395	-1.212519	31.814954	-1.212519	31.814954	-7.876994	-22.442241
6.150000	-8.208508	-96.486332	-1.225760	28.897682	-1.225760	28.897682	-7.833334	-24.207949
6.200000	-8.176033	-100.520561	-1.238738	25.973596	-1.238738	25.973596	-7.792089	-25.978253
6.250000	-8.146053	-104.567002	-1.251411	23.042246	-1.251411	23.042246	-7.753430	-27.753208
6.300000	-8.118754	-108.626945	-1.263729	20.102952	-1.263729	20.102952	-7.717584	-29.532992
6.350000	-8.094208	-112.701158	-1.275658	17.155324	-1.275658	17.155324	-7.684661	-31.317614
6.400000	-8.072529	-116.790714	-1.287156	14.198764	-1.287156	14.198764	-7.654821	-33.107227
6.450000	-8.053827	-120.896711	-1.298186	11.232623	-1.298186	11.232623	-7.628223	-34.902043
6.500000	-8.038205	-125.020266	-1.308708	8.256198	-1.308708	8.256198	-7.605023	-36.702347
6.550000	-8.025762	-129.162496	-1.318686	5.268730	-1.318686	5.268730	-7.585381	-38.508508
6.600000	-8.016593	-133.324506	-1.328085	2.269401	-1.328085	2.269401	-7.569458	-40.320999
6.650000	-8.010790	-137.507373	-1.336872	-0.742666	-1.336872	-0.742666	-7.557418	-42.140416
6.700000	-8.008472	-141.712296	-1.345010	-3.768520	-1.345010	-3.768520	-7.549466	-43.967547
6.750000	-8.009717	-145.940179	-1.352472	-6.809157	-1.352472	-6.809157	-7.545773	-45.803301
6.800000	-8.014719	-150.192544	-1.359211	-9.866098	-1.359211	-9.866098	-7.546656	-47.649037
6.850000	-8.023277	-154.468187	-1.365259	-12.939165	-1.365259	-12.939165	-7.551955	-49.505201
6.900000	-8.035595	-158.768389	-1.370573	-16.030004	-1.370573	-16.030004	-7.562019	-51.373548
6.950000	-8.052263	-163.096667	-1.375039	-19.142333	-1.375039	-19.142333	-7.577723	-53.257678
7.000000	-8.072602	-167.448089	-1.378793	-22.273494	-1.378793	-22.273494	-7.598296	-55.156609
7.050000	-8.097376	-171.826578	-1.381697	-25.428236	-1.381697	-25.428236	-7.624884	-57.075382
7.100000	-8.126650	-176.231093	-1.383753	-28.607746	-1.383753	-28.607746	-7.657730	-59.016666
7.150000	-8.160441	179.340046	-1.384981	-31.812796	-1.384981	-31.812796	-7.697008	-60.982918
7.200000	-8.199232	174.886604	-1.385319	-35.046840	-1.385319	-35.046840	-7.743581	-62.979700
7.250000	-8.243104	170.411153	-1.384792	-38.310848	-1.384792	-38.310848	-7.797746	-65.010487
7.300000	-8.292476	165.915364	-1.383372	-41.607711	-1.383372	-41.607711	-7.860319	-67.081334
7.350000	-8.347826	161.401852	-1.381037	-44.940556	-1.381037	-44.940556	-7.932242	-69.199422
7.400000	-8.409426	156.874643	-1.377811	-48.310979	-1.377811	-48.310979	-8.014162	-71.370449
7.450000	-8.478559	152.337495	-1.373594	-51.726822	-1.373594	-51.726822	-8.108402	-73.610495
7.500000	-8.555039	147.797126	-1.368510	-55.186145	-1.368510	-55.186145	-8.214948	-75.921480
7.550000	-8.639607	143.259719	-1.362567	-58.692704	-1.362567	-58.692704	-8.335345	-78.314622
7.600000	-8.733910	138.734518	-1.355710	-62.255674	-1.355710	-62.255674	-8.472807	-80.812882
7.650000	-8.838743	134.232073	-1.348018	-65.878425	-1.348018	-65.878425	-8.629276	-83.430697
7.700000	-8.955842	129.768046	-1.339537	-69.569996	-1.339537	-69.569996	-8.808617	-86.196713
7.750000	-9.086074	125.357553	-1.330427	-73.333765	-1.330427	-73.333765	-9.013486	-89.130209
7.800000	-9.231518	121.024763	-1.320842	-77.180880	-1.320842	-77.180880	-9.249356	-92.272375
7.850000	-9.393788	116.797528	-1.311057	-81.120238	-1.311057	-81.120238	-9.521768	-95.665796
7.900000	-9.574414	112.709419	-1.301449	-85.161503	-1.301449	-85.161503	-9.837374	-99.362435
7.950000	-9.775603	108.815494	-1.292607	-89.322862	-1.292607	-89.322862	-10.206860	-103.455077
8.000000	-9.997432	105.165745	-1.285272	-93.613475	-1.285272	-93.613475	-10.639353	-108.025933
8.050000	-10.240036	101.850708	-1.280650	-98.057259	-1.280650	-98.057259	-11.150818	-113.244098
8.100000	-10.499706	98.964141	-1.280281	-102.671644	-1.280281	-102.671644	-11.756626	-119.308941
8.150000	-10.768423	96.625971	-1.286302	-107.479633	-1.286302	-107.479633	-12.474746	-126.527922
8.200000	-11.028790	95.002514	-1.302101	-112.515628	-1.302101	-112.515628	-13.321289	-135.450322
8.250000	-11.252535	94.201597	-1.331361	-117.799366	-1.331361	-117.799366	-14.288988	-146.750832
8.300000	-11.390682	94.347961	-1.380372	-123.373540	-1.380372	-123.373540	-15.306829	-161.656768
8.350000	-11.378440	95.385909	-1.456890	-129.270417	-1.456890	-129.270417	-16.133063	178.601459
8.400000	-11.146663	97.018402	-1.571277	-135.521854	-1.571277	-135.521854	-16.291420	154.169342
8.450000	-10.648966	98.672257	-1.737093	-142.153942	-1.737093	-142.153942	-15.399211	128.457034
8.500000	-9.889829	99.625264	-1.971702	-149.179845	-1.971702	-149.179845	-13.683497	105.753554
8.550000	-8.931150	99.263968	-2.296082	-156.587284	-2.296082	-156.587284	-11.683225	87.246331
8.600000	-7.867653	97.284423	-2.733723	-164.325535	-2.733723	-164.325535	-9.748243	71.952008
8.650000	-6.792155	93.688460	-3.309816	-172.297802	-3.309816	-172.297802	-8.015461	58.736045
8.700000	-5.777635	88.689970	-4.048681	179.646749	-4.048681	179.646749	-6.523828	46.855528
8.750000	-4.871834	82.607603	-4.971236	171.711291	-4.971236	171.711291	-5.274720	35.917119
8.800000	-4.099678	75.782694	-6.093572	164.146318	-6.093572	164.146318	-4.254525	25.753548
8.850000	-3.466315	68.540420	-7.425499	157.230562	-7.425499	157.230562	-3.439834	16.304829
8.900000	-2.963646	61.142975	-8.974670	151.278981	-8.974670	151.278981	-2.802751	7.562508
8.950000	-2.575753	53.785199	-10.748567	146.673684	-10.748567	146.673684	-2.313698	-0.477555
9.000000	-2.283630	46.597034	-12.753901	143.948461	-12.753901	143.948461	-1.944238	-7.832701
9.050000	-2.069103	39.658317	-14.977403	144.006672	-14.977403	144.006672	-1.669738	-14.529656
9.100000	-1.912540	32.990553	-17.370576	148.028876	-17.370576	148.028876	-1.465415	-20.646558
9.150000	-1.802613	26.616673	-19.623677	158.064766	-19.623677	158.064766	-1.317089	-26.209108
9.200000	-1.726435	20.517831	-21.099582	174.127596	-21.099582	174.127596	-1.209148	-31.295915
9.250000	-1.675478	14.675667	-21.219465	-168.415869	-21.219465	-168.415869	-1.131294	-35.964173
9.300000	-1.643825	9.077115	-20.301920	-155.665781	-20.301920	-155.665781	-1.076378	-40.253406
9.350000	-1.625789	3.688446	-19.105425	-148.310984	-19.105425	-148.310984	-1.037564	-44.227925
9.400000	-1.618346	-1.502894	-17.977724	-144.888446	-17.977724	-144.888446	-1.011146	-47.915430
9.450000	-1.618619	-6.520683	-17.017162	-143.773159	-17.017162	-143.773159	-0.993608	-51.357261
9.500000	-1.624708	-11.383346	-16.220908	-144.044061	-16.220908	-144.044061	-0.982589	-54.584368
9.550000	-1.634898	-16.118456	-15.558622	-145.106020	-15.558622	-145.106020	-0.975994	-57.638219
9.600000	-1.648843	-20.718576	-15.017796	-146.758780	-15.017796	-146.758780	-0.973228	-60.511720
9.650000	-1.665216	-25.219591	-14.563525	-148.721216	-14.563525	-148.721216	-0.972742	-63.254610
9.700000	-1.683921	-29.615278	-14.188854	-150.926862	-14.188854	-150.926862	-0.974234	-65.859984
9.750000	-1.704314	-33.928874	-13.872881	-153.273009	-13.872881	-153.273009	-0.976976	-68.358752
9.800000	-1.726254	-38.163511	-13.608298	-155.720274	-13.608298	-155.720274	-0.980692	-70.754988
9.850000	-1.749517	-42.329325	-13.385688	-158.233574	-13.385688	-158.233574	-0.985098	-73.061316
9.900000	-1.773914	-46.436749	-13.196944	-160.788133	-13.196944	-160.788133	-0.989979	-75.290318
9.950000	-1.799432	-50.487742	-13.039131	-163.371658	-13.039131	-163.371658	-0.995237	-77.442857
10.000000	-1.825838	-54.496726	-12.904047	-165.970118	-12.904047	-165.970118	-1.000729	-79.536501
