! freq	dB(S11)	phase(S11)	dB(S12)	phase(S12)	
!     	dB(S21)	phase(S21)	dB(S22)	phase(S22)	
!S-par simulation data
#  GHz  S  DB  R 50
0.000000	-0.000000	0.000000	-315.263698	180.000000	-315.263698	180.000000	0.000000	-0.000000
0.050000	-0.005141	-2.020557	-82.611659	87.839495	-82.611659	87.839495	-0.007239	-2.292671
0.100000	-0.008821	-3.999934	-76.607672	85.711496	-76.607672	85.711496	-0.010817	-4.535321
0.150000	-0.010625	-5.977647	-73.109024	83.609614	-73.109024	83.609614	-0.012486	-6.779991
0.200000	-0.012020	-7.956610	-70.637521	81.520723	-70.637521	81.520723	-0.013895	-9.026014
0.250000	-0.013400	-9.935851	-68.732523	79.440983	-68.732523	79.440983	-0.015385	-11.271547
0.300000	-0.014901	-11.914428	-67.189454	77.370666	-67.189454	77.370666	-0.017062	-13.515239
0.350000	-0.016547	-13.891841	-65.896162	75.309978	-65.896162	75.309978	-0.018923	-15.756520
0.400000	-0.018350	-15.867632	-64.788198	73.261178	-64.788198	73.261178	-0.020974	-17.994690
0.450000	-0.020304	-17.841466	-63.823328	71.226271	-63.823328	71.226271	-0.023201	-20.229241
0.500000	-0.022408	-19.812848	-62.974474	69.208985	-62.974474	69.208985	-0.025600	-22.459325
0.550000	-0.024638	-21.781685	-62.219650	67.210582	-62.219650	67.210582	-0.028138	-24.684793
0.600000	-0.026973	-23.747852	-61.543142	65.232788	-61.543142	65.232788	-0.030789	-26.905413
0.650000	-0.029398	-25.711195	-60.933367	63.277759	-60.933367	63.277759	-0.033536	-29.120884
0.700000	-0.031897	-27.671583	-60.381293	61.347696	-60.381293	61.347696	-0.036357	-31.330936
0.750000	-0.034456	-29.628907	-59.879737	59.444849	-59.879737	59.444849	-0.039236	-33.535324
0.800000	-0.037061	-31.582992	-59.423321	57.572313	-59.423321	57.572313	-0.042158	-35.733677
0.850000	-0.039701	-33.533533	-59.008412	55.734938	-59.008412	55.734938	-0.045106	-37.925359
0.900000	-0.042362	-35.480760	-58.629314	53.932431	-58.629314	53.932431	-0.048065	-40.110740
0.950000	-0.045034	-37.424621	-58.282638	52.167332	-58.282638	52.167332	-0.051025	-42.289657
1.000000	-0.047708	-39.365074	-57.965471	50.442259	-57.965471	50.442259	-0.053975	-44.461965
1.050000	-0.050378	-41.302086	-57.675281	48.759913	-57.675281	48.759913	-0.056908	-46.627530
1.100000	-0.053038	-43.235629	-57.409835	47.123070	-57.409835	47.123070	-0.059817	-48.786234
1.150000	-0.055682	-45.165427	-57.168226	45.538372	-57.168226	45.538372	-0.062694	-50.937446
1.200000	-0.058306	-47.091571	-56.948082	44.007678	-56.948082	44.007678	-0.065536	-53.081272
1.250000	-0.060908	-49.014207	-56.747082	42.531899	-56.747082	42.531899	-0.068341	-55.217928
1.300000	-0.063487	-50.933332	-56.563671	41.114085	-56.563671	41.114085	-0.071107	-57.347340
1.350000	-0.066041	-52.848951	-56.396380	39.757309	-56.396380	39.757309	-0.073833	-59.469444
1.400000	-0.068569	-54.761073	-56.243800	38.464646	-56.243800	38.464646	-0.076518	-61.584187
1.450000	-0.071072	-56.669691	-56.104618	37.239568	-56.104618	37.239568	-0.079163	-63.691478
1.500000	-0.073546	-58.574465	-55.978396	36.092697	-55.978396	36.092697	-0.081763	-65.790503
1.550000	-0.075996	-60.475807	-55.862579	35.019341	-55.862579	35.019341	-0.084324	-67.882059
1.600000	-0.078423	-62.373746	-55.755786	34.022086	-55.755786	34.022086	-0.086848	-69.966134
1.650000	-0.080829	-64.268320	-55.656612	33.103233	-55.656612	33.103233	-0.089335	-72.042723
1.700000	-0.083212	-66.159376	-55.563842	32.269540	-55.563842	32.269540	-0.091787	-74.111393
1.750000	-0.085578	-68.047207	-55.475573	31.516635	-55.475573	31.516635	-0.094207	-76.172704
1.800000	-0.087926	-69.931769	-55.390383	30.847712	-55.390383	30.847712	-0.096596	-78.226463
1.850000	-0.090260	-71.813127	-55.306641	30.262849	-55.306641	30.262849	-0.098957	-80.272708
1.900000	-0.092580	-73.691349	-55.222685	29.761222	-55.222685	29.761222	-0.101292	-82.311487
1.950000	-0.094890	-75.566512	-55.136828	29.340978	-55.136828	29.340978	-0.103603	-84.342860
2.000000	-0.097191	-77.438698	-55.047380	28.999118	-55.047380	28.999118	-0.105893	-86.366894
2.050000	-0.099485	-79.307999	-54.952672	28.731398	-54.952672	28.731398	-0.108164	-88.383668
2.100000	-0.101775	-81.174510	-54.851088	28.532262	-54.851088	28.532262	-0.110419	-90.393271
2.150000	-0.104063	-83.038337	-54.741093	28.394817	-54.741093	28.394817	-0.112658	-92.395800
2.200000	-0.106351	-84.899591	-54.621278	28.310863	-54.621278	28.310863	-0.114886	-94.391363
2.250000	-0.108640	-86.758391	-54.490388	28.270975	-54.490388	28.270975	-0.117104	-96.380077
2.300000	-0.110933	-88.614862	-54.347367	28.264652	-54.347367	28.264652	-0.119314	-98.362067
2.350000	-0.113232	-90.469139	-54.191383	28.280518	-54.191383	28.280518	-0.121518	-100.337469
2.400000	-0.115539	-92.321362	-54.021854	28.306585	-54.021854	28.306585	-0.123719	-102.306424
2.450000	-0.117856	-94.171679	-53.838461	28.330541	-53.838461	28.330541	-0.125917	-104.269086
2.500000	-0.120184	-96.020246	-53.641155	28.340067	-53.641155	28.340067	-0.128117	-106.225612
2.550000	-0.122526	-97.867164	-53.429333	28.321470	-53.429333	28.321470	-0.130318	-108.175920
2.600000	-0.124883	-99.712682	-53.204268	28.264086	-53.204268	28.264086	-0.132523	-110.120453
2.650000	-0.127257	-101.556977	-52.966657	28.157530	-52.966657	28.157530	-0.134734	-112.059393
2.700000	-0.129650	-103.400236	-52.717380	27.992507	-52.717380	27.992507	-0.136952	-113.992931
2.750000	-0.132063	-105.242650	-52.457452	27.760948	-52.457452	27.760948	-0.139179	-115.921263
2.800000	-0.134498	-107.084421	-52.187992	27.456073	-52.187992	27.456073	-0.141417	-117.844594
2.850000	-0.136957	-108.925755	-51.910178	27.072406	-51.910178	27.072406	-0.143666	-119.763132
2.900000	-0.139440	-110.766867	-51.625214	26.605732	-51.625214	26.605732	-0.145929	-121.677093
2.950000	-0.141949	-112.607978	-51.334297	26.053025	-51.334297	26.053025	-0.148206	-123.586697
3.000000	-0.144486	-114.449315	-51.038593	25.412340	-51.038593	25.412340	-0.150499	-125.492172
3.050000	-0.147052	-116.291114	-50.739216	24.682691	-50.739216	24.682691	-0.152810	-127.393749
3.100000	-0.149648	-118.133616	-50.437213	23.863917	-50.437213	23.863917	-0.155138	-129.291664
3.150000	-0.152275	-119.977069	-50.133549	22.956552	-50.133549	22.956552	-0.157486	-131.186157
3.200000	-0.154936	-121.821729	-49.829111	21.961695	-49.829111	21.961695	-0.159854	-133.077475
3.250000	-0.157630	-123.667855	-49.524695	20.880888	-49.524695	20.880888	-0.162243	-134.965867
3.300000	-0.160359	-125.515717	-49.221012	19.716014	-49.221012	19.716014	-0.164654	-136.851585
3.350000	-0.163124	-127.365588	-48.918688	18.469198	-48.918688	18.469198	-0.167089	-138.734887
3.400000	-0.165927	-129.217748	-48.618272	17.142725	-48.618272	17.142725	-0.169547	-140.616034
3.450000	-0.168768	-131.072484	-48.320232	15.738973	-48.320232	15.738973	-0.172030	-142.495288
3.500000	-0.171648	-132.930086	-48.024972	14.260352	-48.024972	14.260352	-0.174539	-144.372917
3.550000	-0.174568	-134.790855	-47.732826	12.709263	-47.732826	12.709263	-0.177073	-146.249189
3.600000	-0.177530	-136.655093	-47.444073	11.088056	-47.444073	11.088056	-0.179633	-148.124376
3.650000	-0.180533	-138.523109	-47.158938	9.399002	-47.158938	9.399002	-0.182221	-149.998753
3.700000	-0.183579	-140.395220	-46.877596	7.644276	-46.877596	7.644276	-0.184836	-151.872596
3.750000	-0.186668	-142.271745	-46.600181	5.825934	-46.600181	5.825934	-0.187479	-153.746183
3.800000	-0.189804	-144.153230	-46.326596	3.943310	-46.326596	3.943310	-0.190152	-155.619808
3.850000	-0.192985	-146.039817	-46.057116	2.000946	-46.057116	2.000946	-0.192853	-157.493764
3.900000	-0.196211	-147.931840	-45.791765	0.000483	-45.791765	0.000483	-0.195583	-159.368334
3.950000	-0.199483	-149.829640	-45.530536	-2.056580	-45.530536	-2.056580	-0.198341	-161.243803
4.000000	-0.202802	-151.733564	-45.273401	-4.168880	-45.273401	-4.168880	-0.201129	-163.120454
4.050000	-0.206169	-153.643959	-45.020305	-6.335191	-45.020305	-6.335191	-0.203947	-164.998575
4.100000	-0.209582	-155.561179	-44.771174	-8.554418	-44.771174	-8.554418	-0.206793	-166.878450
4.150000	-0.213044	-157.485583	-44.525911	-10.825594	-44.525911	-10.825594	-0.209669	-168.760366
4.200000	-0.216554	-159.417531	-44.284403	-13.147876	-44.284403	-13.147876	-0.212574	-170.644610
4.250000	-0.220113	-161.357387	-44.046518	-15.520537	-44.046518	-15.520537	-0.215507	-172.531469
4.300000	-0.223721	-163.305518	-43.812108	-17.942961	-43.812108	-17.942961	-0.218470	-174.421228
4.350000	-0.227377	-165.262295	-43.581007	-20.414637	-43.581007	-20.414637	-0.221462	-176.314173
4.400000	-0.231082	-167.228089	-43.353033	-22.935151	-43.353033	-22.935151	-0.224482	-178.210589
4.450000	-0.234837	-169.203277	-43.127987	-25.504183	-43.127987	-25.504183	-0.227530	179.889239
4.500000	-0.238640	-171.188232	-42.905655	-28.121491	-42.905655	-28.121491	-0.230606	177.985029
4.550000	-0.242492	-173.183334	-42.685805	-30.786913	-42.685805	-30.786913	-0.233709	176.076499
4.600000	-0.246393	-175.188961	-42.468187	-33.500352	-42.468187	-33.500352	-0.236839	174.163369
4.650000	-0.250343	-177.205492	-42.252535	-36.261768	-42.252535	-36.261768	-0.239997	172.245360
4.700000	-0.254340	-179.233306	-42.038563	-39.071172	-42.038563	-39.071172	-0.243180	170.322196
4.750000	-0.258386	178.727219	-41.825966	-41.928613	-41.825966	-41.928613	-0.246389	168.393601
4.800000	-0.262479	176.675704	-41.614419	-44.834168	-41.614419	-44.834168	-0.249624	166.459304
4.850000	-0.266619	174.611773	-41.403578	-47.787929	-41.403578	-47.787929	-0.252883	164.519035
4.900000	-0.270805	172.535052	-41.193073	-50.789996	-41.193073	-50.789996	-0.256167	162.572527
4.950000	-0.275037	170.445168	-40.982514	-53.840456	-40.982514	-53.840456	-0.259475	160.619515
5.000000	-0.279315	168.341752	-40.771489	-56.939377	-40.771489	-56.939377	-0.262806	158.659738
5.050000	-0.283638	166.223818	-40.559269	-60.088893	-40.559269	-60.088893	-0.266162	156.692620
5.100000	-0.288006	164.091592	-40.345627	-63.286863	-40.345627	-63.286863	-0.269540	154.718201
5.150000	-0.292417	161.944719	-40.130066	-66.533180	-40.130066	-66.533180	-0.272941	152.736229
5.200000	-0.296871	159.782846	-39.912063	-69.827646	-39.912063	-69.827646	-0.276364	150.746457
5.250000	-0.301367	157.605631	-39.691067	-73.169956	-39.691067	-73.169956	-0.279810	148.748641
5.300000	-0.305905	155.412732	-39.466498	-76.559678	-39.466498	-76.559678	-0.283278	146.742539
5.350000	-0.310483	153.203817	-39.237753	-79.996240	-39.237753	-79.996240	-0.286769	144.727913
5.400000	-0.315102	150.978560	-39.004198	-83.478908	-39.004198	-83.478908	-0.290283	142.704529
5.450000	-0.319762	148.736643	-38.765173	-87.006773	-38.765173	-87.006773	-0.293820	140.672154
5.500000	-0.324463	146.477753	-38.519991	-90.578740	-38.519991	-90.578740	-0.297383	138.630559
5.550000	-0.329205	144.201585	-38.267941	-94.193511	-38.267941	-94.193511	-0.300971	136.579516
5.600000	-0.333988	141.907839	-38.008286	-97.849582	-38.008286	-97.849582	-0.304587	134.518799
5.650000	-0.338815	139.596222	-37.740262	-101.545234	-37.740262	-101.545234	-0.308233	132.448182
5.700000	-0.343687	137.266444	-37.463083	-105.278537	-37.463083	-105.278537	-0.311912	130.367436
5.750000	-0.348605	134.918219	-37.175938	-109.047354	-37.175938	-109.047354	-0.315627	128.276332
5.800000	-0.353575	132.551261	-36.877990	-112.849351	-36.877990	-112.849351	-0.319382	126.174638
5.850000	-0.358600	130.165282	-36.568376	-116.682015	-36.568376	-116.682015	-0.323183	124.062112
5.900000	-0.363685	127.759986	-36.246201	-120.542685	-36.246201	-120.542685	-0.327036	121.938505
5.950000	-0.368839	125.335067	-35.910540	-124.428577	-35.910540	-124.428577	-0.330948	119.803556
6.000000	-0.374071	122.890201	-35.560424	-128.336835	-35.560424	-128.336835	-0.334929	117.656984
6.050000	-0.379393	120.425038	-35.194838	-132.264575	-35.194838	-132.264575	-0.338991	115.498488
6.100000	-0.384820	117.939189	-34.812706	-136.208953	-34.812706	-136.208953	-0.343148	113.327734
6.150000	-0.390371	115.432216	-34.412874	-140.167232	-34.412874	-140.167232	-0.347417	111.144351
6.200000	-0.396071	112.903608	-33.994096	-144.136873	-33.994096	-144.136873	-0.351820	108.947918
6.250000	-0.401951	110.352764	-33.555005	-148.115630	-33.555005	-148.115630	-0.356383	106.737948
6.300000	-0.408060	107.778174	-33.092410	-152.101859	-33.092410	-152.101859	-0.361148	104.513383
6.350000	-0.414443	105.179654	-32.605920	-156.094075	-32.605920	-156.094075	-0.366152	102.273976
6.400000	-0.421168	102.556068	-32.093499	-160.091841	-32.093499	-160.091841	-0.371450	100.018887
6.450000	-0.428323	99.905977	-31.552777	-164.095708	-31.552777	-164.095708	-0.377111	97.747088
6.500000	-0.436025	97.227539	-30.980966	-168.107515	-30.980966	-168.107515	-0.383229	95.457299
6.550000	-0.444429	94.518366	-30.374743	-172.130788	-30.374743	-172.130788	-0.389924	93.147901
6.600000	-0.453748	91.775332	-29.730099	-176.171283	-29.730099	-176.171283	-0.397359	90.816826
6.650000	-0.464276	88.994282	-29.042143	179.762230	-29.042143	179.762230	-0.405759	88.461388
6.700000	-0.476379	86.170824	-28.307757	175.658199	-28.307757	175.658199	-0.415397	86.078803
6.750000	-0.490778	83.294527	-27.512480	171.494860	-27.512480	171.494860	-0.426814	83.662534
6.800000	-0.508334	80.356154	-26.650242	167.245925	-26.650242	167.245925	-0.440642	81.206978
6.850000	-0.530468	77.340474	-25.708470	162.870701	-25.708470	162.870701	-0.457917	78.702990
6.900000	-0.559340	74.227068	-24.674053	158.311652	-24.674053	158.311652	-0.480196	76.138583
6.950000	-0.599112	70.979326	-23.517835	153.466804	-23.517835	153.466804	-0.510448	73.492562
7.000000	-0.656760	67.547845	-22.213031	148.185247	-22.213031	148.185247	-0.553564	70.737495
7.050000	-0.746049	63.852664	-20.718434	142.205813	-20.718434	142.205813	-0.619021	67.831019
7.100000	-0.897048	59.764706	-18.972934	135.042382	-18.972934	135.042382	-0.727004	64.711183
7.150000	-1.182076	55.107251	-16.901555	125.740467	-16.901555	125.740467	-0.924059	61.318464
7.200000	-1.797101	49.872598	-14.450130	112.273308	-14.450130	112.273308	-1.326179	57.799176
7.250000	-3.245596	46.426272	-11.828683	90.451012	-11.828683	90.451012	-2.164792	55.912275
7.300000	-4.957278	58.106891	-10.363513	56.622981	-10.363513	56.622981	-2.925813	61.820665
7.350000	-3.192172	69.733057	-11.631362	22.359653	-11.631362	22.359653	-2.000498	66.985364
7.400000	-1.721684	65.936268	-14.168996	0.135860	-14.168996	0.135860	-1.157596	64.280751
7.450000	-1.118502	60.461945	-16.570172	-13.297111	-16.570172	-13.297111	-0.788835	60.338113
7.500000	-0.850201	55.673348	-18.593630	-22.264648	-18.593630	-22.264648	-0.623046	56.715623
7.550000	-0.715011	51.511938	-20.286006	-28.869741	-20.286006	-28.869741	-0.540492	53.448521
7.600000	-0.639511	47.771330	-21.724906	-34.112606	-21.724906	-34.112606	-0.495541	50.429062
7.650000	-0.593961	44.308614	-22.973587	-38.499599	-22.973587	-38.499599	-0.469428	47.574210
7.700000	-0.565097	41.038161	-24.073335	-42.298485	-24.073335	-42.298485	-0.453760	44.832307
7.750000	-0.546322	37.908380	-25.049745	-45.659559	-25.049745	-45.659559	-0.444369	42.171452
7.800000	-0.533585	34.878408	-25.936372	-48.699955	-25.936372	-48.699955	-0.438713	39.566475
7.850000	-0.524977	31.928079	-26.744702	-51.474308	-26.744702	-51.474308	-0.435602	37.004508
7.900000	-0.519203	29.041563	-27.487583	-54.025824	-27.487583	-54.025824	-0.434237	34.475475
7.950000	-0.515445	26.207807	-28.174940	-56.384545	-28.174940	-56.384545	-0.434118	31.972270
8.000000	-0.513165	23.418943	-28.814545	-58.571914	-28.814545	-58.571914	-0.434921	29.489778
8.050000	-0.512001	20.669278	-29.412548	-60.603580	-29.412548	-60.603580	-0.436431	27.024248
8.100000	-0.511704	17.954633	-29.973858	-62.491209	-29.973858	-62.491209	-0.438504	24.572886
8.150000	-0.512102	15.272230	-30.501765	-64.242275	-30.501765	-64.242275	-0.441042	22.133691
8.200000	-0.513067	12.619689	-30.999639	-65.863837	-30.999639	-65.863837	-0.443976	19.705006
8.250000	-0.514501	9.994944	-31.470690	-67.362747	-31.470690	-67.362747	-0.447252	17.285463
8.300000	-0.516338	7.396684	-31.916919	-68.743404	-31.916919	-68.743404	-0.450838	14.874089
8.350000	-0.518539	4.824620	-32.338735	-70.006295	-32.338735	-70.006295	-0.454719	12.470296
8.400000	-0.521035	2.275457	-32.741570	-71.166003	-32.741570	-71.166003	-0.458854	10.072769
8.450000	-0.523846	-0.247625	-33.120299	-72.208415	-33.120299	-72.208415	-0.463275	7.681970
8.500000	-0.526914	-2.748339	-33.480722	-73.150782	-33.480722	-73.150782	-0.467943	5.296622
8.550000	-0.530244	-5.225248	-33.820731	-73.987633	-33.820731	-73.987633	-0.472877	2.916753
8.600000	-0.533821	-7.679112	-34.141316	-74.723509	-34.141316	-74.723509	-0.478073	0.541884
8.650000	-0.537628	-10.111072	-34.443973	-75.364771	-34.443973	-75.364771	-0.483528	-1.828532
8.700000	-0.541682	-12.519178	-34.725995	-75.904605	-34.725995	-75.904605	-0.489274	-4.194436
8.750000	-0.545946	-14.907084	-34.991777	-76.359948	-34.991777	-76.359948	-0.495277	-6.556830
8.800000	-0.550465	-17.270285	-35.235643	-76.713595	-35.235643	-76.713595	-0.501611	-8.915372
8.850000	-0.555193	-19.613638	-35.463025	-76.986639	-35.463025	-76.986639	-0.508228	-11.271226
8.900000	-0.560164	-21.933966	-35.669952	-77.166823	-35.669952	-77.166823	-0.515192	-13.624503
8.950000	-0.565360	-24.233548	-35.858543	-77.263190	-35.858543	-77.263190	-0.522495	-15.976045
9.000000	-0.570794	-26.511760	-36.027639	-77.271791	-36.027639	-77.271791	-0.530179	-18.326553
9.050000	-0.576474	-28.768409	-36.176391	-77.188618	-36.176391	-77.188618	-0.538287	-20.676946
9.100000	-0.582389	-31.005342	-36.305986	-77.016155	-36.305986	-77.016155	-0.546833	-23.028326
9.150000	-0.588581	-33.220011	-36.412421	-76.732747	-36.412421	-76.732747	-0.555952	-25.382440
9.200000	-0.595018	-35.416236	-36.498348	-76.344621	-36.498348	-76.344621	-0.565637	-27.740576
9.250000	-0.601769	-37.590411	-36.556549	-75.807179	-36.556549	-75.807179	-0.576162	-30.106494
9.300000	-0.608808	-39.746306	-36.587794	-75.116670	-36.587794	-75.116670	-0.587599	-32.482274
9.350000	-0.616206	-41.881978	-36.581437	-74.208813	-36.581437	-74.208813	-0.600433	-34.874486
9.400000	-0.623997	-43.998878	-36.527827	-73.036214	-36.527827	-73.036214	-0.615187	-37.289454
9.450000	-0.632261	-46.097555	-36.406538	-71.522301	-36.406538	-71.522301	-0.632947	-39.737727
9.500000	-0.641182	-48.176982	-36.170776	-69.543380	-36.170776	-69.543380	-0.656345	-42.239609
9.550000	-0.651009	-50.237759	-35.745938	-67.060917	-35.745938	-67.060917	-0.690558	-44.820781
9.600000	-0.662299	-52.277004	-34.967647	-64.312097	-34.967647	-64.312097	-0.750163	-47.522946
9.650000	-0.675830	-54.284808	-33.583137	-62.800833	-33.583137	-62.800833	-0.874007	-50.342056
9.700000	-0.689876	-56.224684	-31.481146	-68.079588	-31.481146	-68.079588	-1.154656	-52.710424
9.750000	-0.688830	-58.109933	-30.273508	-86.489928	-30.273508	-86.489928	-1.402449	-52.534338
9.800000	-0.682389	-60.098553	-31.560951	-102.196173	-31.560951	-102.196173	-1.165088	-52.860540
9.850000	-0.686873	-62.099091	-33.155387	-106.743593	-33.155387	-106.743593	-0.967605	-55.170150
9.900000	-0.695625	-64.066935	-34.182629	-106.739284	-34.182629	-106.739284	-0.883780	-57.810630
9.950000	-0.705527	-66.008438	-34.786959	-105.736654	-34.786959	-105.736654	-0.850189	-60.410444
10.000000	-0.715838	-67.929057	-35.137409	-104.742091	-35.137409	-104.742091	-0.839280	-62.947250
