! freq	dB(S11)	phase(S11)	dB(S12)	phase(S12)	
!     	dB(S21)	phase(S21)	dB(S22)	phase(S22)	
!S-par simulation data
#  GHz  S  DB  R 50
0.000000	-0.000000	0.000000	-350.255626	0.000000	-350.255626	0.000000	-0.000000	0.000000
0.050000	-0.006091	-2.583263	-99.716082	83.186086	-99.716082	83.186086	-0.000372	-0.839283
0.100000	-0.015320	-5.224300	-94.192729	82.537292	-94.192729	82.537292	-0.001371	-1.680573
0.150000	-0.021565	-7.890442	-90.884895	81.891201	-90.884895	81.891201	-0.002746	-2.524894
0.200000	-0.025577	-10.558212	-88.533381	80.909256	-88.533381	80.909256	-0.004241	-3.372017
0.250000	-0.028448	-13.221136	-86.734785	79.731101	-86.734785	79.731101	-0.005703	-4.221212
0.300000	-0.030804	-15.877484	-85.302035	78.455938	-85.302035	78.455938	-0.007061	-5.071604
0.350000	-0.032958	-18.526644	-84.132955	77.142732	-84.132955	77.142732	-0.008302	-5.922462
0.400000	-0.035062	-21.168161	-83.165921	75.829742	-83.165921	75.829742	-0.009440	-6.773254
0.450000	-0.037194	-23.801551	-82.361197	74.545208	-82.361197	74.545208	-0.010499	-7.623620
0.500000	-0.039390	-26.426280	-81.691946	73.312910	-81.691946	73.312910	-0.011503	-8.473330
0.550000	-0.041668	-29.041783	-81.139450	72.155324	-81.139450	72.155324	-0.012473	-9.322235
0.600000	-0.044032	-31.647482	-80.690395	71.095705	-80.690395	71.095705	-0.013426	-10.170241
0.650000	-0.046481	-34.242680	-80.336040	70.161432	-80.336040	70.161432	-0.014372	-11.017280
0.700000	-0.049006	-36.826798	-80.069522	69.383456	-80.069522	69.383456	-0.015321	-11.863312
0.750000	-0.051599	-39.399407	-79.885073	68.796494	-79.885073	68.796494	-0.016278	-12.708325
0.800000	-0.054249	-41.959995	-79.779116	68.444749	-79.779116	68.444749	-0.017247	-13.552303
0.850000	-0.056945	-44.508079	-79.748914	68.383270	-79.748914	68.383270	-0.018230	-14.395238
0.900000	-0.059677	-47.043207	-79.791976	68.681347	-79.791976	68.681347	-0.019226	-15.237121
0.950000	-0.062433	-49.564964	-79.905232	69.426607	-79.905232	69.426607	-0.020237	-16.077947
1.000000	-0.065203	-52.072967	-80.083783	70.729498	-80.083783	70.729498	-0.021260	-16.917712
1.050000	-0.067978	-54.566870	-80.318926	72.727005	-80.318926	72.727005	-0.022296	-17.756411
1.100000	-0.070749	-57.046361	-80.595079	75.582499	-80.595079	75.582499	-0.023342	-18.594041
1.150000	-0.073509	-59.511161	-80.885384	79.475040	-80.885384	79.475040	-0.024397	-19.430597
1.200000	-0.076249	-61.961028	-81.146513	84.566242	-81.146513	84.566242	-0.025460	-20.266075
1.250000	-0.078963	-64.395751	-81.315406	90.930549	-81.315406	90.930549	-0.026529	-21.100468
1.300000	-0.081647	-66.814815	-81.308710	98.465475	-81.308710	98.465475	-0.027603	-21.933747
1.350000	-0.084295	-69.218406	-81.056861	106.722986	-81.056861	106.722986	-0.028681	-22.765930
1.400000	-0.086904	-71.606408	-80.526298	115.050258	-80.526298	115.050258	-0.029761	-23.597007
1.450000	-0.089471	-73.978737	-79.739075	122.774895	-79.739075	122.774895	-0.030843	-24.426972
1.500000	-0.091995	-76.335336	-78.759833	129.429845	-78.759833	129.429845	-0.031926	-25.255815
1.550000	-0.094473	-78.676173	-77.665319	134.831280	-77.665319	134.831280	-0.033009	-26.083528
1.600000	-0.096904	-81.001246	-76.520753	139.013948	-76.520753	139.013948	-0.034092	-26.910099
1.650000	-0.099290	-83.310573	-75.371654	142.124482	-75.371654	142.124482	-0.035174	-27.735519
1.700000	-0.101628	-85.604197	-74.245756	144.341115	-74.245756	144.341115	-0.036255	-28.559776
1.750000	-0.103921	-87.882185	-73.158071	145.832012	-73.158071	145.832012	-0.037335	-29.382858
1.800000	-0.106169	-90.144622	-72.115540	146.740044	-72.115540	146.740044	-0.038413	-30.204754
1.850000	-0.108374	-92.391615	-71.120345	147.180793	-71.120345	147.180793	-0.039491	-31.025450
1.900000	-0.110537	-94.623124	-70.171444	147.242455	-70.171444	147.242455	-0.040567	-31.844920
1.950000	-0.112659	-96.839298	-69.267209	146.998701	-69.267209	146.998701	-0.041642	-32.663151
2.000000	-0.114743	-99.040464	-68.405740	146.509075	-68.405740	146.509075	-0.042717	-33.480141
2.050000	-0.116792	-101.226798	-67.584258	145.817368	-67.584258	145.817368	-0.043791	-34.295878
2.100000	-0.118807	-103.398491	-66.799997	144.958370	-66.799997	144.958370	-0.044864	-35.110348
2.150000	-0.120792	-105.555747	-66.050313	143.959913	-66.050313	143.959913	-0.045938	-35.923535
2.200000	-0.122748	-107.698782	-65.332738	142.844441	-65.332738	142.844441	-0.047012	-36.735426
2.250000	-0.124678	-109.827826	-64.644997	141.630188	-64.644997	141.630188	-0.048088	-37.546007
2.300000	-0.126585	-111.943117	-63.985009	140.332085	-63.985009	140.332085	-0.049164	-38.355263
2.350000	-0.128471	-114.044905	-63.350881	138.962446	-63.350881	138.962446	-0.050242	-39.163181
2.400000	-0.130338	-116.133447	-62.740891	137.531497	-62.740891	137.531497	-0.051323	-39.969746
2.450000	-0.132189	-118.209009	-62.153475	136.047791	-62.153475	136.047791	-0.052406	-40.774944
2.500000	-0.134027	-120.271866	-61.587211	134.518519	-61.587211	134.518519	-0.053492	-41.578762
2.550000	-0.135853	-122.322033	-61.040492	132.949032	-61.040492	132.949032	-0.054582	-42.381155
2.600000	-0.137670	-124.360075	-60.512503	131.345442	-60.512503	131.345442	-0.055676	-43.182139
2.650000	-0.139480	-126.386284	-60.002163	129.712135	-60.002163	129.712135	-0.056774	-43.981701
2.700000	-0.141284	-128.400955	-59.508484	128.052882	-59.508484	128.052882	-0.057878	-44.779830
2.750000	-0.143086	-130.404390	-59.030560	126.370940	-59.030560	126.370940	-0.058987	-45.576510
2.800000	-0.144887	-132.396892	-58.567559	124.669133	-58.567559	124.669133	-0.060102	-46.371732
2.850000	-0.146688	-134.378769	-58.118720	122.949919	-58.118720	122.949919	-0.061223	-47.165481
2.900000	-0.148492	-136.350329	-57.683338	121.215447	-57.683338	121.215447	-0.062351	-47.957748
2.950000	-0.150299	-138.311884	-57.260764	119.467597	-57.260764	119.467597	-0.063487	-48.748519
3.000000	-0.152111	-140.263746	-56.850400	117.708024	-56.850400	117.708024	-0.064631	-49.537785
3.050000	-0.153929	-142.206228	-56.451688	115.938186	-56.451688	115.938186	-0.065783	-50.325534
3.100000	-0.155755	-144.139644	-56.064114	114.159372	-56.064114	114.159372	-0.066943	-51.111757
3.150000	-0.157589	-146.064216	-55.687138	112.372649	-55.687138	112.372649	-0.068113	-51.896426
3.200000	-0.159433	-147.980269	-55.320328	110.579064	-55.320328	110.579064	-0.069293	-52.679533
3.250000	-0.161288	-149.888209	-54.963335	108.779598	-54.963335	108.779598	-0.070483	-53.461084
3.300000	-0.163154	-151.788349	-54.615769	106.975051	-54.615769	106.975051	-0.071684	-54.241071
3.350000	-0.165031	-153.680998	-54.277269	105.166140	-54.277269	105.166140	-0.072895	-55.019486
3.400000	-0.166921	-155.566466	-53.947494	103.353508	-53.947494	103.353508	-0.074118	-55.796322
3.450000	-0.168824	-157.445058	-53.626126	101.537731	-53.626126	101.537731	-0.075353	-56.571570
3.500000	-0.170741	-159.317079	-53.312868	99.719331	-53.312868	99.719331	-0.076601	-57.345225
3.550000	-0.172670	-161.182830	-53.007442	97.898777	-53.007442	97.898777	-0.077861	-58.117280
3.600000	-0.174614	-163.042612	-52.709584	96.076495	-52.709584	96.076495	-0.079134	-58.887730
3.650000	-0.176571	-164.896718	-52.419048	94.252870	-52.419048	94.252870	-0.080421	-59.656567
3.700000	-0.178542	-166.745443	-52.135603	92.428254	-52.135603	92.428254	-0.081722	-60.423789
3.750000	-0.180526	-168.589076	-51.859031	90.602967	-51.859031	90.602967	-0.083037	-61.189390
3.800000	-0.182525	-170.427803	-51.589090	88.777299	-51.589090	88.777299	-0.084368	-61.953330
3.850000	-0.184537	-172.262019	-51.325633	86.951535	-51.325633	86.951535	-0.085714	-62.715642
3.900000	-0.186562	-174.091999	-51.068476	85.125920	-51.068476	85.125920	-0.087075	-63.476322
3.950000	-0.188600	-175.918018	-50.817448	83.300684	-50.817448	83.300684	-0.088453	-64.235367
4.000000	-0.190650	-177.740344	-50.572385	81.476039	-50.572385	81.476039	-0.089848	-64.992776
4.050000	-0.192712	-179.559243	-50.333134	79.652184	-50.333134	79.652184	-0.091259	-65.748547
4.100000	-0.194785	178.625027	-50.099550	77.829307	-50.099550	77.829307	-0.092688	-66.502677
4.150000	-0.196869	176.812211	-49.871496	76.007584	-49.871496	76.007584	-0.094134	-67.255167
4.200000	-0.198963	175.002058	-49.648842	74.187182	-49.648842	74.187182	-0.095599	-68.006016
4.250000	-0.201066	173.194325	-49.431466	72.368262	-49.431466	72.368262	-0.097083	-68.755225
4.300000	-0.203177	171.388771	-49.219253	70.550977	-49.219253	70.550977	-0.098585	-69.502792
4.350000	-0.205295	169.585162	-49.012093	68.735478	-49.012093	68.735478	-0.100107	-70.248720
4.400000	-0.207421	167.783287	-48.809885	66.921931	-48.809885	66.921931	-0.101649	-70.992992
4.450000	-0.209552	165.982914	-48.612535	65.110483	-48.612535	65.110483	-0.103212	-71.735609
4.500000	-0.211688	164.183810	-48.419951	63.301253	-48.419951	63.301253	-0.104796	-72.476592
4.550000	-0.213827	162.385763	-48.232043	61.494380	-48.232043	61.494380	-0.106400	-73.215944
4.600000	-0.215969	160.588569	-48.048729	59.690003	-48.048729	59.690003	-0.108026	-73.953666
4.650000	-0.218112	158.792030	-47.869931	57.888260	-47.869931	57.888260	-0.109675	-74.689764
4.700000	-0.220256	156.995954	-47.695573	56.089290	-47.695573	56.089290	-0.111345	-75.424240
4.750000	-0.222398	155.200156	-47.525586	54.293236	-47.525586	54.293236	-0.113038	-76.157099
4.800000	-0.224539	153.404457	-47.359904	52.500240	-47.359904	52.500240	-0.114755	-76.888346
4.850000	-0.226676	151.608686	-47.198462	50.710451	-47.198462	50.710451	-0.116495	-77.617985
4.900000	-0.228809	149.812676	-47.041203	48.924017	-47.041203	48.924017	-0.118260	-78.346022
4.950000	-0.230936	148.016271	-46.888069	47.141092	-46.888069	47.141092	-0.120048	-79.072463
5.000000	-0.233056	146.219318	-46.739008	45.361836	-46.739008	45.361836	-0.121862	-79.797314
5.050000	-0.235167	144.421648	-46.594022	43.586540	-46.594022	43.586540	-0.123702	-80.520530
5.100000	-0.237268	142.623142	-46.453016	41.815256	-46.453016	41.815256	-0.125568	-81.242170
5.150000	-0.239358	140.823672	-46.315945	40.048159	-46.315945	40.048159	-0.127460	-81.962241
5.200000	-0.241436	139.023117	-46.182767	38.285430	-46.182767	38.285430	-0.129378	-82.680752
5.250000	-0.243499	137.221364	-46.053441	36.527259	-46.053441	36.527259	-0.131324	-83.397709
5.300000	-0.245548	135.418308	-45.927929	34.773839	-45.927929	34.773839	-0.133297	-84.113122
5.350000	-0.247581	133.613852	-45.806195	33.025376	-45.806195	33.025376	-0.135297	-84.827000
5.400000	-0.249596	131.807907	-45.688203	31.282080	-45.688203	31.282080	-0.137327	-85.539350
5.450000	-0.251592	130.000390	-45.573923	29.544171	-45.573923	29.544171	-0.139384	-86.250184
5.500000	-0.253568	128.191230	-45.463322	27.811879	-45.463322	27.811879	-0.141471	-86.959510
5.550000	-0.255522	126.380362	-45.356372	26.085441	-45.356372	26.085441	-0.143588	-87.667339
5.600000	-0.257454	124.567728	-45.253044	24.365106	-45.253044	24.365106	-0.145735	-88.373680
5.650000	-0.259366	122.753523	-45.152991	22.650268	-45.152991	22.650268	-0.147907	-89.078737
5.700000	-0.261249	120.937206	-45.056849	20.942963	-45.056849	20.942963	-0.150115	-89.782120
5.750000	-0.263107	119.119004	-44.964256	19.242575	-44.964256	19.242575	-0.152355	-90.484050
5.800000	-0.264938	117.298893	-44.875186	17.549397	-44.875186	17.549397	-0.154625	-91.184537
5.850000	-0.266741	115.476860	-44.789618	15.863734	-44.789618	15.863734	-0.156928	-91.883595
5.900000	-0.268515	113.652900	-44.707530	14.185903	-44.707530	14.185903	-0.159264	-92.581235
5.950000	-0.270259	111.827015	-44.628899	12.516235	-44.628899	12.516235	-0.161632	-93.277470
6.000000	-0.271974	109.999219	-44.553705	10.855076	-44.553705	10.855076	-0.164033	-93.972313
6.050000	-0.273657	108.169530	-44.481928	9.202783	-44.481928	9.202783	-0.166469	-94.665777
6.100000	-0.275309	106.337980	-44.413545	7.559731	-44.413545	7.559731	-0.168938	-95.357875
6.150000	-0.276928	104.504605	-44.348538	5.926308	-44.348538	5.926308	-0.171442	-96.048621
6.200000	-0.278515	102.669451	-44.286884	4.302918	-44.286884	4.302918	-0.173981	-96.738029
6.250000	-0.280069	100.832573	-44.228563	2.689984	-44.228563	2.689984	-0.176555	-97.426114
6.300000	-0.281588	98.994000	-44.173617	1.088189	-44.173617	1.088189	-0.179165	-98.112862
6.350000	-0.283075	97.153840	-44.121961	-0.502237	-44.121961	-0.502237	-0.181812	-98.798316
6.400000	-0.284528	95.312175	-44.073569	-2.080820	-44.073569	-2.080820	-0.184495	-99.482491
6.450000	-0.285947	93.469091	-44.028418	-3.647069	-44.028418	-3.647069	-0.187215	-100.165403
6.500000	-0.287333	91.624685	-43.986482	-5.200471	-43.986482	-5.200471	-0.189972	-100.847068
6.550000	-0.288687	89.779060	-43.947732	-6.740497	-43.947732	-6.740497	-0.192767	-101.527501
6.600000	-0.290007	87.932328	-43.912138	-8.266598	-43.912138	-8.266598	-0.195601	-102.206719
6.650000	-0.291296	86.084607	-43.879669	-9.778204	-43.879669	-9.778204	-0.198472	-102.884737
6.700000	-0.292553	84.236023	-43.850290	-11.274725	-43.850290	-11.274725	-0.201383	-103.561572
6.750000	-0.293779	82.386709	-43.823965	-12.755552	-43.823965	-12.755552	-0.204332	-104.237242
6.800000	-0.294975	80.536805	-43.800652	-14.220055	-43.800652	-14.220055	-0.207321	-104.911763
6.850000	-0.296143	78.686457	-43.780309	-15.667584	-43.780309	-15.667584	-0.210351	-105.585153
6.900000	-0.297282	76.835816	-43.762917	-17.097268	-43.762917	-17.097268	-0.213421	-106.257417
6.950000	-0.298394	74.985045	-43.748425	-18.508393	-43.748425	-18.508393	-0.216532	-106.928573
7.000000	-0.299482	73.134313	-43.736744	-19.900439	-43.736744	-19.900439	-0.219684	-107.598653
7.050000	-0.300546	71.283790	-43.727811	-21.272676	-43.727811	-21.272676	-0.222877	-108.267674
7.100000	-0.301588	69.433651	-43.721560	-22.624357	-43.721560	-22.624357	-0.226112	-108.935654
7.150000	-0.302609	67.584075	-43.717915	-23.954717	-43.717915	-23.954717	-0.229390	-109.602613
7.200000	-0.303613	65.735247	-43.716798	-25.262976	-43.716798	-25.262976	-0.232709	-110.268570
7.250000	-0.304600	63.887355	-43.718121	-26.548341	-43.718121	-26.548341	-0.236072	-110.933543
7.300000	-0.305573	62.040592	-43.721787	-27.810006	-43.721787	-27.810006	-0.239478	-111.597552
7.350000	-0.306534	60.195153	-43.727696	-29.047158	-43.727696	-29.047158	-0.242927	-112.260617
7.400000	-0.307485	58.351236	-43.735733	-30.258977	-43.735733	-30.258977	-0.246420	-112.922758
7.450000	-0.308429	56.509043	-43.745777	-31.444639	-43.745777	-31.444639	-0.249957	-113.583994
7.500000	-0.309368	54.668778	-43.757698	-32.603323	-43.757698	-32.603323	-0.253538	-114.244347
7.550000	-0.310305	52.830720	-43.771404	-33.733282	-43.771404	-33.733282	-0.257165	-114.903808
7.600000	-0.311244	50.995017	-43.786681	-34.834588	-43.786681	-34.834588	-0.260838	-115.562429
7.650000	-0.312186	49.161876	-43.803361	-35.906453	-43.803361	-35.906453	-0.264556	-116.220229
7.700000	-0.313135	47.331506	-43.821267	-36.948114	-43.821267	-36.948114	-0.268319	-116.877231
7.750000	-0.314093	45.504116	-43.840208	-37.958839	-43.840208	-37.958839	-0.272129	-117.533455
7.800000	-0.315064	43.679915	-43.859983	-38.937936	-43.859983	-38.937936	-0.275984	-118.188923
7.850000	-0.316052	41.859112	-43.880373	-39.884758	-43.880373	-39.884758	-0.279887	-118.843658
7.900000	-0.317058	40.041916	-43.901150	-40.798718	-43.901150	-40.798718	-0.283835	-119.497681
7.950000	-0.318085	38.228142	-43.922083	-41.682598	-43.922083	-41.682598	-0.287827	-120.151080
8.000000	-0.319139	36.418710	-43.942925	-42.529755	-43.942925	-42.529755	-0.291870	-120.803751
8.050000	-0.320222	34.613495	-43.963394	-43.342725	-43.963394	-43.342725	-0.295960	-121.455778
8.100000	-0.321337	32.812699	-43.983211	-44.121248	-43.983211	-44.121248	-0.300098	-122.107184
8.150000	-0.322489	31.016572	-44.002069	-44.864798	-44.002069	-44.864798	-0.304284	-122.757985
8.200000	-0.323681	29.225317	-44.019658	-45.573357	-44.019658	-45.573357	-0.308520	-123.408206
8.250000	-0.324915	27.439076	-44.035675	-46.247421	-44.035675	-46.247421	-0.312804	-124.057877
8.300000	-0.326196	25.658040	-44.049803	-46.887260	-44.049803	-46.887260	-0.317136	-124.707022
8.350000	-0.327527	23.882392	-44.061717	-47.493302	-44.061717	-47.493302	-0.321518	-125.355665
8.400000	-0.328911	22.112314	-44.071088	-48.066143	-44.071088	-48.066143	-0.325948	-126.003831
8.450000	-0.330352	20.347983	-44.077590	-48.606556	-44.077590	-48.606556	-0.330428	-126.651544
8.500000	-0.331853	18.589572	-44.080894	-49.115498	-44.080894	-49.115498	-0.334958	-127.298828
8.550000	-0.333418	16.837249	-44.080681	-49.594113	-44.080681	-49.594113	-0.339537	-127.945710
8.600000	-0.335049	15.091175	-44.076635	-50.043734	-44.076635	-50.043734	-0.344167	-128.592215
8.650000	-0.336752	13.351510	-44.068456	-50.465883	-44.068456	-50.465883	-0.348846	-129.238367
8.700000	-0.338528	11.618405	-44.055855	-50.862267	-44.055855	-50.862267	-0.353576	-129.884194
8.750000	-0.340381	9.892006	-44.038563	-51.234772	-44.038563	-51.234772	-0.358356	-130.529720
8.800000	-0.342316	8.172609	-44.016218	-51.585028	-44.016218	-51.585028	-0.363188	-131.174967
8.850000	-0.344335	6.460201	-43.988703	-51.915773	-43.988703	-51.915773	-0.368070	-131.819969
8.900000	-0.346441	4.754913	-43.955821	-52.229361	-43.955821	-52.229361	-0.373004	-132.464751
8.950000	-0.348636	3.056866	-43.917412	-52.528261	-43.917412	-52.528261	-0.377988	-133.109341
9.000000	-0.350925	1.366180	-43.873343	-52.815035	-43.873343	-52.815035	-0.383024	-133.753766
9.050000	-0.353309	-0.317036	-43.823519	-53.092315	-43.823519	-53.092315	-0.388111	-134.398054
9.100000	-0.355792	-1.992675	-43.767878	-53.362774	-43.767878	-53.362774	-0.393249	-135.042233
9.150000	-0.358376	-3.660640	-43.706395	-53.629102	-43.706395	-53.629102	-0.398438	-135.686330
9.200000	-0.361075	-5.320069	-43.638461	-53.894057	-43.638461	-53.894057	-0.403684	-136.330372
9.250000	-0.363873	-6.972318	-43.565290	-54.160418	-43.565290	-54.160418	-0.408977	-136.974396
9.300000	-0.366779	-8.616631	-43.486416	-54.430586	-43.486416	-54.430586	-0.414322	-137.618425
9.350000	-0.369798	-10.252935	-43.401952	-54.707041	-43.401952	-54.707041	-0.419719	-138.262488
9.400000	-0.372932	-11.881161	-43.312040	-54.992152	-43.312040	-54.992152	-0.425167	-138.906616
9.450000	-0.376182	-13.501249	-43.216848	-55.288160	-43.216848	-55.288160	-0.430668	-139.550838
9.500000	-0.379552	-15.113142	-43.116572	-55.597158	-43.116572	-55.597158	-0.436220	-140.195184
9.550000	-0.383043	-16.716791	-43.011424	-55.921084	-43.011424	-55.921084	-0.441823	-140.839684
9.600000	-0.386657	-18.312151	-42.901638	-56.261704	-42.901638	-56.261704	-0.447479	-141.484369
9.650000	-0.390397	-19.899186	-42.787461	-56.620615	-42.787461	-56.620615	-0.453187	-142.129270
9.700000	-0.394265	-21.477862	-42.669149	-56.999234	-42.669149	-56.999234	-0.458946	-142.774418
9.750000	-0.398263	-23.048153	-42.546968	-57.398800	-42.546968	-57.398800	-0.464757	-143.419845
9.800000	-0.402391	-24.610038	-42.421190	-57.820379	-42.421190	-57.820379	-0.470620	-144.065582
9.850000	-0.406653	-26.163500	-42.292085	-58.264867	-42.292085	-58.264867	-0.476535	-144.711663
9.900000	-0.411050	-27.708530	-42.159927	-58.732993	-42.159927	-58.732993	-0.482502	-145.358118
9.950000	-0.415583	-29.245122	-42.024982	-59.225335	-42.024982	-59.225335	-0.488520	-146.004982
10.000000	-0.420254	-30.773275	-41.887516	-59.742323	-41.887516	-59.742323	-0.494589	-146.652287
