! freq	dB(S11)	phase(S11)	dB(S12)	phase(S12)	
!     	dB(S21)	phase(S21)	dB(S22)	phase(S22)	
!S-par simulation data
#  GHz  S  DB  R 50
0.000000	-0.000000	0.000000	-361.529312	180.000000	-361.529312	180.000000	-0.000000	0.000000
0.050000	-0.002255	-1.658772	-99.950452	88.565131	-99.950452	88.565131	-0.003252	-1.170238
0.100000	-0.005575	-3.296065	-93.956991	87.227029	-93.956991	87.227029	-0.005216	-2.316248
0.150000	-0.007906	-4.924230	-90.478878	85.879086	-90.478878	85.879086	-0.006168	-3.462348
0.200000	-0.009561	-6.550469	-88.040037	84.540989	-88.040037	84.540989	-0.006928	-4.609385
0.250000	-0.010939	-8.176380	-86.179102	83.221462	-86.179102	83.221462	-0.007711	-5.756623
0.300000	-0.012239	-9.801933	-84.692394	81.928493	-84.692394	81.928493	-0.008577	-6.903553
0.350000	-0.013565	-11.426844	-83.466459	80.666641	-83.466459	80.666641	-0.009535	-8.049877
0.400000	-0.014988	-13.050400	-82.452646	79.457228	-82.452646	79.457228	-0.010615	-9.195063
0.450000	-0.016442	-14.673510	-81.561998	78.264505	-81.561998	78.264505	-0.011732	-10.339883
0.500000	-0.018060	-16.294015	-80.834786	77.165830	-80.834786	77.165830	-0.012987	-11.482744
0.550000	-0.019720	-17.913660	-80.187029	76.099913	-80.187029	76.099913	-0.014273	-12.624998
0.600000	-0.021504	-19.530766	-79.648260	75.131284	-79.648260	75.131284	-0.015645	-13.765472
0.650000	-0.023359	-21.145947	-79.185430	74.245802	-79.185430	74.245802	-0.017058	-14.904663
0.700000	-0.025285	-22.759205	-78.788500	73.443466	-78.788500	73.443466	-0.018514	-16.042572
0.750000	-0.027299	-24.369193	-78.476584	72.806933	-78.476584	72.806933	-0.020013	-17.178389
0.800000	-0.029342	-25.978041	-78.198288	72.229553	-78.198288	72.229553	-0.021526	-18.313479
0.850000	-0.031472	-27.582377	-78.013934	71.928814	-78.013934	71.928814	-0.023072	-19.445772
0.900000	-0.033619	-29.185272	-77.858683	71.737577	-77.858683	71.737577	-0.024623	-20.577194
0.950000	-0.035811	-30.784666	-77.766759	71.812270	-77.766759	71.812270	-0.026186	-21.706500
1.000000	-0.038024	-32.381177	-77.720247	72.163618	-77.720247	72.163618	-0.027749	-22.834093
1.050000	-0.040253	-33.975379	-77.709516	72.736289	-77.709516	72.736289	-0.029314	-23.960315
1.100000	-0.042497	-35.565158	-77.753647	73.849719	-77.753647	73.849719	-0.030872	-25.083936
1.150000	-0.044744	-37.153499	-77.813662	75.153985	-77.813662	75.153985	-0.032427	-26.206714
1.200000	-0.046990	-38.736735	-77.912556	77.246800	-77.912556	77.246800	-0.033970	-27.326504
1.250000	-0.049231	-40.317989	-78.011573	79.710184	-78.011573	79.710184	-0.035505	-28.445132
1.300000	-0.051463	-41.895519	-78.109799	82.870239	-78.109799	82.870239	-0.037029	-29.561578
1.350000	-0.053679	-43.469493	-78.163911	86.750690	-78.163911	86.750690	-0.038541	-30.675925
1.400000	-0.055885	-45.041204	-78.189518	91.089577	-78.189518	91.089577	-0.040044	-31.788938
1.450000	-0.058062	-46.607747	-78.069508	96.310441	-78.069508	96.310441	-0.041530	-32.898869
1.500000	-0.060230	-48.172722	-77.895360	101.715955	-77.895360	101.715955	-0.043010	-34.007858
1.550000	-0.062365	-49.732552	-77.512260	107.485127	-77.512260	107.485127	-0.044473	-35.113735
1.600000	-0.064485	-51.289956	-77.028187	113.098165	-77.028187	113.098165	-0.045929	-36.218119
1.650000	-0.066580	-52.843762	-76.407519	118.479694	-76.407519	118.479694	-0.047374	-37.320289
1.700000	-0.068645	-54.393126	-75.634284	123.122793	-75.634284	123.122793	-0.048807	-38.419669
1.750000	-0.070696	-55.940269	-74.836355	127.396677	-74.836355	127.396677	-0.050234	-39.517653
1.800000	-0.072720	-57.483160	-73.960303	130.856028	-73.960303	130.856028	-0.051653	-40.612901
1.850000	-0.074725	-59.023014	-73.071164	133.733569	-73.071164	133.733569	-0.053064	-41.706193
1.900000	-0.076710	-60.559226	-72.172163	136.014532	-72.172163	136.014532	-0.054470	-42.797075
1.950000	-0.078674	-62.091795	-71.274187	137.698917	-71.274187	137.698917	-0.055870	-43.885546
2.000000	-0.080624	-63.621343	-70.402518	139.010382	-70.402518	139.010382	-0.057266	-44.971957
2.050000	-0.082554	-65.146660	-69.536974	139.799759	-69.536974	139.799759	-0.058658	-46.055482
2.100000	-0.084475	-66.669579	-68.713981	140.374575	-68.713981	140.374575	-0.060049	-47.137321
2.150000	-0.086378	-68.187701	-67.896733	140.520271	-67.896733	140.520271	-0.061436	-48.215784
2.200000	-0.088277	-69.704047	-67.128215	140.550645	-67.128215	140.550645	-0.062824	-49.292954
2.250000	-0.090162	-71.215060	-66.362755	140.235053	-66.362755	140.235053	-0.064210	-50.366245
2.300000	-0.092045	-72.724908	-65.647487	139.863685	-65.647487	139.863685	-0.065598	-51.438658
2.350000	-0.093920	-74.228928	-64.932033	139.213437	-64.932033	139.213437	-0.066988	-52.506677
2.400000	-0.095796	-75.732376	-64.266091	138.542591	-64.266091	138.542591	-0.068379	-53.574250
2.450000	-0.097670	-77.229546	-63.596928	137.645170	-63.596928	137.645170	-0.069775	-54.636909
2.500000	-0.099544	-78.726715	-62.975651	136.747750	-62.975651	136.747750	-0.071171	-55.699567
2.550000	-0.101426	-80.217209	-62.348601	135.664253	-62.348601	135.664253	-0.072577	-56.756785
2.600000	-0.103307	-81.707703	-61.763788	134.580757	-61.763788	134.580757	-0.073983	-57.814004
2.650000	-0.105203	-83.192266	-61.178453	133.366464	-61.178453	133.366464	-0.075401	-58.866174
2.700000	-0.107100	-84.676290	-60.626898	132.140280	-60.626898	132.140280	-0.076819	-59.917885
2.750000	-0.109016	-86.155122	-60.078652	130.821351	-60.078652	130.821351	-0.078250	-60.964961
2.800000	-0.110936	-87.632915	-59.557392	129.483874	-59.557392	129.483874	-0.079684	-62.011109
2.850000	-0.112878	-89.106238	-59.042274	128.080277	-59.042274	128.080277	-0.081132	-63.053053
2.900000	-0.114828	-90.578070	-58.548649	126.654640	-58.548649	126.654640	-0.082584	-64.093595
2.950000	-0.116802	-92.046132	-58.063274	125.181801	-58.063274	125.181801	-0.084050	-65.130378
3.000000	-0.118788	-93.512308	-57.594929	123.685359	-57.594929	123.685359	-0.085523	-66.165282
3.050000	-0.120798	-94.975381	-57.136397	122.155333	-57.136397	122.155333	-0.087010	-67.196885
3.100000	-0.122826	-96.436238	-56.691259	120.601318	-56.691259	120.601318	-0.088506	-68.226131
3.150000	-0.124877	-97.894620	-56.257075	119.023638	-56.257075	119.023638	-0.090016	-69.252544
3.200000	-0.126951	-99.350529	-55.833324	117.422292	-55.833324	117.422292	-0.091538	-70.276124
3.250000	-0.129047	-100.804544	-55.421331	115.804574	-55.421331	115.804574	-0.093073	-71.297344
3.300000	-0.131173	-102.255907	-55.017362	114.163935	-55.017362	114.163935	-0.094624	-72.315262
3.350000	-0.133317	-103.705902	-54.625687	112.512328	-54.625687	112.512328	-0.096185	-73.331298
3.400000	-0.135498	-105.153159	-54.240081	110.838784	-54.240081	110.838784	-0.097767	-74.343570
3.450000	-0.137694	-106.599507	-53.867089	109.158297	-53.867089	109.158297	-0.099357	-75.354436
3.500000	-0.139933	-108.043128	-53.498586	107.456978	-53.498586	107.456978	-0.100973	-76.361087
3.550000	-0.142184	-109.486226	-53.142840	105.751723	-53.142840	105.751723	-0.102594	-77.366809
3.600000	-0.144485	-110.926713	-52.790317	104.026790	-52.790317	104.026790	-0.104245	-78.367878
3.650000	-0.146793	-112.366983	-52.450546	102.300171	-52.450546	102.300171	-0.105900	-79.368486
3.700000	-0.149159	-113.804872	-52.112995	100.555019	-52.112995	100.555019	-0.107589	-80.364022
3.750000	-0.151526	-115.242760	-51.788072	98.809866	-51.788072	98.809866	-0.109279	-81.359557
3.800000	-0.153959	-116.678617	-51.464584	97.047283	-51.464584	97.047283	-0.111009	-82.349618
3.850000	-0.156393	-118.114474	-51.152711	95.284699	-51.152711	95.284699	-0.112739	-83.339679
3.900000	-0.158890	-119.549018	-50.843251	93.508236	-50.843251	93.508236	-0.114508	-84.324785
3.950000	-0.161393	-120.983442	-50.543701	91.730512	-50.543701	91.730512	-0.116281	-85.309440
4.000000	-0.163955	-122.417197	-50.247341	89.941737	-50.247341	89.941737	-0.118092	-86.289656
4.050000	-0.166530	-123.850817	-49.959445	88.150752	-49.959445	88.150752	-0.119910	-87.268985
4.100000	-0.169159	-125.284329	-49.675347	86.350969	-49.675347	86.350969	-0.121764	-88.244385
4.150000	-0.171806	-126.717806	-49.398491	84.548253	-49.398491	84.548253	-0.123630	-89.218476
4.200000	-0.174504	-128.151645	-49.125893	82.738536	-49.125893	82.738536	-0.125529	-90.189140
4.250000	-0.177226	-129.585666	-48.859508	80.925319	-48.859508	80.925319	-0.127445	-91.158090
4.300000	-0.179993	-131.020425	-48.597717	79.106535	-48.597717	79.106535	-0.129392	-92.124105
4.350000	-0.182793	-132.455710	-48.341274	77.283776	-48.341274	77.283776	-0.131360	-93.088023
4.400000	-0.185631	-133.892001	-48.089653	75.456605	-48.089653	75.456605	-0.133355	-94.049482
4.450000	-0.188508	-135.329297	-47.842656	73.625022	-47.842656	73.625022	-0.135378	-95.008482
4.500000	-0.191419	-136.767756	-47.600622	71.789968	-47.600622	71.789968	-0.137425	-95.965485
4.550000	-0.194375	-138.207840	-47.362607	69.950054	-47.362607	69.950054	-0.139504	-96.919693
4.600000	-0.197360	-139.649122	-47.129622	68.107456	-47.129622	68.107456	-0.141604	-97.872347
4.650000	-0.200398	-141.092800	-46.900152	66.259490	-46.900152	66.259490	-0.143743	-98.821894
4.700000	-0.203457	-142.537583	-46.675715	64.409528	-46.675715	64.409528	-0.145897	-99.770312
4.750000	-0.206577	-143.985685	-46.454377	62.553581	-46.454377	62.553581	-0.148098	-100.715340
4.800000	-0.209713	-145.434669	-46.238026	60.696282	-46.238026	60.696282	-0.150309	-101.659640
4.850000	-0.212917	-146.888057	-46.024428	58.832223	-46.024428	58.832223	-0.152573	-102.600299
4.900000	-0.216130	-148.341959	-45.815730	56.967459	-45.815730	56.967459	-0.154843	-103.540606
4.950000	-0.219420	-149.801521	-45.609500	55.094949	-45.609500	55.094949	-0.157172	-104.477052
5.000000	-0.222711	-151.261083	-45.408053	53.222438	-45.408053	53.222438	-0.159503	-105.413498
5.050000	-0.226088	-152.727734	-45.208834	51.340929	-45.208834	51.340929	-0.161900	-106.345896
5.100000	-0.229466	-154.194385	-45.014083	49.459419	-45.014083	49.459419	-0.164299	-107.278294
5.150000	-0.232923	-155.668400	-44.821711	47.568954	-44.821711	47.568954	-0.166761	-108.207141
5.200000	-0.236389	-157.143084	-44.633339	45.677674	-44.633339	45.677674	-0.169229	-109.135665
5.250000	-0.239929	-158.625272	-44.447445	43.777415	-44.447445	43.777415	-0.171758	-110.061112
5.300000	-0.243484	-160.108960	-44.265147	41.875360	-44.265147	41.875360	-0.174299	-110.985943
5.350000	-0.247106	-161.600151	-44.085377	39.964277	-44.085377	39.964277	-0.176895	-111.908148
5.400000	-0.250752	-163.093843	-43.908854	38.050183	-43.908854	38.050183	-0.179511	-112.829476
5.450000	-0.254458	-164.594890	-43.734873	36.127031	-43.734873	36.127031	-0.182177	-113.748603
5.500000	-0.258195	-166.099614	-43.563829	34.199349	-43.563829	34.199349	-0.184869	-114.666628
5.550000	-0.261985	-167.611390	-43.395308	32.262648	-43.395308	32.262648	-0.187607	-115.582847
5.600000	-0.265815	-169.128204	-43.229448	30.319503	-43.229448	30.319503	-0.190378	-116.497776
5.650000	-0.269691	-170.651607	-43.066067	28.367500	-43.066067	28.367500	-0.193189	-117.411267
5.700000	-0.273615	-172.181599	-42.905085	26.406639	-42.905085	26.406639	-0.196040	-118.323319
5.750000	-0.277578	-173.717549	-42.746522	24.437271	-42.746522	24.437271	-0.198927	-119.234267
5.800000	-0.281596	-175.261840	-42.590100	22.455992	-42.590100	22.455992	-0.201861	-120.143670
5.850000	-0.285646	-176.811283	-42.436026	20.466826	-42.436026	20.466826	-0.204825	-121.052271
5.900000	-0.289761	-178.371030	-42.283816	18.461886	-42.283816	18.461886	-0.207845	-121.959267
5.950000	-0.293900	-179.934939	-42.133888	16.450053	-42.133888	16.450053	-0.210887	-122.865725
6.000000	-0.298113	178.488664	-41.985502	14.417544	-41.985502	14.417544	-0.213995	-123.770568
6.050000	-0.302344	176.909287	-41.839348	12.379649	-41.839348	12.379649	-0.217118	-124.675099
6.100000	-0.306657	175.315004	-41.694335	10.314830	-41.694335	10.314830	-0.220316	-125.578061
6.150000	-0.310980	173.719124	-41.551546	8.246834	-41.551546	8.246834	-0.223523	-126.480891
6.200000	-0.315398	172.105667	-41.409363	6.143910	-41.409363	6.143910	-0.226813	-127.382263
6.250000	-0.319818	170.492211	-41.269470	4.040986	-41.269470	4.040986	-0.230105	-128.283635
6.300000	-0.324318	168.863538	-41.130119	1.905143	-41.130119	1.905143	-0.233468	-129.184007
6.350000	-0.328873	167.224701	-40.991694	-0.254336	-40.991694	-0.254336	-0.236878	-130.083847
6.400000	-0.333483	165.575368	-40.853986	-2.439598	-40.853986	-2.439598	-0.240336	-130.983234
6.450000	-0.338153	163.915201	-40.716759	-4.653038	-40.716759	-4.653038	-0.243842	-131.882251
6.500000	-0.342884	162.243848	-40.579745	-6.897334	-40.579745	-6.897334	-0.247398	-132.780989
6.550000	-0.347680	160.560945	-40.442636	-9.175493	-40.442636	-9.175493	-0.251005	-133.679540
6.600000	-0.352546	158.866113	-40.305076	-11.490890	-40.305076	-11.490890	-0.254664	-134.578004
6.650000	-0.357486	157.158955	-40.166652	-13.847332	-40.166652	-13.847332	-0.258377	-135.476488
6.700000	-0.362526	155.435972	-40.025879	-16.261033	-40.025879	-16.261033	-0.262159	-136.375171
6.750000	-0.367607	153.706968	-39.885590	-18.696957	-39.885590	-18.696957	-0.265968	-137.273946
6.800000	-0.372844	151.955819	-39.739611	-21.223666	-39.739611	-21.223666	-0.269872	-138.173366
6.850000	-0.378135	150.198085	-39.593231	-23.780028	-39.593231	-23.780028	-0.273807	-139.073059
6.900000	-0.383590	148.419913	-39.440184	-26.431173	-39.440184	-26.431173	-0.277833	-139.973683
6.950000	-0.389165	146.629276	-39.282737	-29.147817	-39.282737	-29.147817	-0.281917	-140.875089
7.000000	-0.394880	144.823909	-39.119918	-31.941871	-39.119918	-31.941871	-0.286069	-141.777420
7.050000	-0.400834	142.997332	-38.945077	-34.862128	-38.945077	-34.862128	-0.290325	-142.681477
7.100000	-0.406884	141.162597	-38.768029	-37.830924	-38.768029	-37.830924	-0.294622	-143.586198
7.150000	-0.413369	139.296260	-38.566503	-41.011686	-38.566503	-41.011686	-0.299085	-144.494125
7.200000	-0.420017	137.420609	-38.359104	-44.261855	-38.359104	-44.261855	-0.303606	-145.403194
7.250000	-0.427125	135.518350	-38.127132	-47.711287	-38.127132	-47.711287	-0.308284	-146.315553
7.300000	-0.434685	133.595507	-37.872168	-51.329989	-37.872168	-51.329989	-0.313106	-147.230960
7.350000	-0.442676	131.653191	-37.597875	-55.108812	-37.597875	-55.108812	-0.318063	-148.149251
7.400000	-0.451377	129.684548	-37.288631	-59.117269	-37.288631	-59.117269	-0.323233	-149.072019
7.450000	-0.461058	127.684275	-36.932392	-63.408278	-36.932392	-63.408278	-0.328688	-150.000633
7.500000	-0.472014	125.649715	-36.518875	-68.010534	-36.518875	-68.010534	-0.334507	-150.936280
7.550000	-0.484567	123.578856	-36.040630	-72.940371	-36.040630	-72.940371	-0.340776	-151.880050
7.600000	-0.499290	121.466106	-35.483121	-78.239405	-35.483121	-78.239405	-0.347656	-152.833940
7.650000	-0.517036	119.304024	-34.828677	-83.955750	-34.828677	-83.955750	-0.355394	-153.800634
7.700000	-0.539124	117.082532	-34.055909	-90.147563	-34.055909	-90.147563	-0.364377	-154.783801
7.750000	-0.567601	114.788384	-33.141017	-96.885654	-33.141017	-96.885654	-0.375223	-155.788353
7.800000	-0.606970	112.394142	-32.028466	-104.333957	-32.028466	-104.333957	-0.389312	-156.824079
7.850000	-0.664009	109.874320	-30.686818	-112.653495	-30.686818	-112.653495	-0.408788	-157.901013
7.900000	-0.753384	107.187899	-29.054227	-122.210119	-29.054227	-122.210119	-0.438358	-159.035255
7.950000	-0.905382	104.305081	-27.073792	-133.678126	-27.073792	-133.678126	-0.487870	-160.240985
8.000000	-1.188736	101.314541	-24.699898	-148.470857	-24.699898	-148.470857	-0.579657	-161.497140
8.050000	-1.738250	99.066030	-22.036518	-169.466867	-22.036518	-169.466867	-0.756879	-162.551499
8.100000	-2.458408	100.959915	-19.858040	159.800443	-19.858040	159.800443	-0.999684	-162.414416
8.150000	-2.222580	106.181840	-19.665770	124.107655	-19.665770	124.107655	-0.998120	-161.064388
8.200000	-1.453246	105.821409	-21.156431	96.380563	-21.156431	96.380563	-0.789350	-161.029174
8.250000	-1.018100	102.679995	-22.860497	78.263378	-22.860497	78.263378	-0.643143	-162.000006
8.300000	-0.815308	99.313212	-24.234413	65.906115	-24.234413	65.906115	-0.567184	-163.169609
8.350000	-0.718043	96.129892	-25.232905	56.768502	-25.232905	56.768502	-0.528222	-164.328368
8.400000	-0.671162	93.109515	-25.904712	49.571411	-25.904712	49.571411	-0.508254	-165.447253
8.450000	-0.651153	90.183188	-26.305614	43.617928	-26.305614	43.617928	-0.498664	-166.532805
8.500000	-0.648528	87.292239	-26.467726	38.527813	-26.467726	38.527813	-0.495560	-167.594938
8.550000	-0.658835	84.385187	-26.423965	34.001356	-26.423965	34.001356	-0.496760	-168.643789
8.600000	-0.682104	81.415965	-26.179170	29.857490	-26.179170	29.857490	-0.501584	-169.686382
8.650000	-0.719984	78.337326	-25.744767	25.897284	-25.744767	25.897284	-0.509718	-170.729636
8.700000	-0.780188	75.069128	-25.090538	21.926861	-25.090538	21.926861	-0.522047	-171.780585
8.750000	-0.875448	71.514596	-24.199589	17.662766	-24.199589	17.662766	-0.540014	-172.846586
8.800000	-1.035245	67.509604	-23.024835	12.665488	-23.024835	12.665488	-0.567151	-173.935270
8.850000	-1.326630	62.809723	-21.508628	6.174556	-21.508628	6.174556	-0.610748	-175.047907
8.900000	-1.927618	57.129791	-19.588527	-3.316239	-19.588527	-3.316239	-0.686589	-176.148592
8.950000	-3.376903	51.228382	-17.312394	-19.013400	-17.312394	-19.013400	-0.822640	-177.008637
9.000000	-6.580011	57.673161	-15.431486	-45.814986	-15.431486	-45.814986	-0.982941	-176.833780
9.050000	-5.477604	87.375573	-15.834822	-79.765294	-15.834822	-79.765294	-0.895645	-175.972637
9.100000	-2.565009	86.170648	-18.300152	-104.693453	-18.300152	-104.693453	-0.691622	-176.614201
9.150000	-1.447044	79.101333	-20.995172	-118.854694	-20.995172	-118.854694	-0.587552	-177.908327
9.200000	-0.998803	73.231550	-23.326940	-127.125041	-23.326940	-127.125041	-0.545177	-179.194761
9.250000	-0.789472	68.518028	-25.279977	-132.385334	-25.279977	-132.385334	-0.528410	179.605275
9.300000	-0.678057	64.536109	-26.939674	-136.014320	-26.939674	-136.014320	-0.522571	178.471431
9.350000	-0.613498	61.021333	-28.370913	-138.666510	-28.370913	-138.666510	-0.521977	177.382185
9.400000	-0.573611	57.814710	-29.624568	-140.697223	-29.624568	-140.697223	-0.524108	176.322454
9.450000	-0.547930	54.822709	-30.733888	-142.305925	-30.733888	-142.305925	-0.527758	175.282637
9.500000	-0.530760	51.982332	-31.730036	-143.622286	-31.730036	-143.622286	-0.532262	174.256141
9.550000	-0.518672	49.246261	-32.649540	-144.740278	-32.649540	-144.740278	-0.537237	173.238238
9.600000	-0.510604	46.604724	-33.478073	-145.679427	-33.478073	-145.679427	-0.542570	172.227437
9.650000	-0.504807	44.024075	-34.258110	-146.502334	-34.258110	-146.502334	-0.548112	171.220560
9.700000	-0.500954	41.502054	-34.978199	-147.209665	-34.978199	-147.209665	-0.553840	170.216637
9.750000	-0.498535	39.029496	-35.645311	-147.811828	-35.645311	-147.811828	-0.559710	169.214195
9.800000	-0.496811	36.583158	-36.303598	-148.353435	-36.303598	-148.353435	-0.565653	168.212103
9.850000	-0.496032	34.175638	-36.918132	-148.796832	-36.918132	-148.796832	-0.571693	167.209887
9.900000	-0.495902	31.798530	-37.504820	-149.146256	-37.504820	-149.146256	-0.577798	166.206652
9.950000	-0.496209	29.443345	-38.079926	-149.417654	-38.079926	-149.417654	-0.583949	165.202273
10.000000	-0.496912	27.108956	-38.643288	-149.608634	-38.643288	-149.608634	-0.590141	164.196556
