! freq	dB(S11)	phase(S11)	dB(S12)	phase(S12)	
!     	dB(S21)	phase(S21)	dB(S22)	phase(S22)	
!S-par simulation data
#  GHz  S  DB  R 50
0.000000	0.000000	-0.000000	-325.886752	180.000000	-325.886752	180.000000	-0.000000	-0.000000
0.050000	-0.000124	-1.242457	-104.022263	113.718252	-104.022263	113.718252	-0.000112	-0.764623
0.100000	-0.000494	-2.484646	-98.715262	101.134733	-98.715262	101.134733	-0.000443	-1.528938
0.150000	-0.001100	-3.726311	-95.369364	95.876454	-95.369364	95.876454	-0.000974	-2.292672
0.200000	-0.001926	-4.967227	-92.968610	92.708169	-92.968610	92.708169	-0.001675	-3.055616
0.250000	-0.002967	-6.207116	-91.116549	90.460424	-91.116549	90.460424	-0.002526	-3.817552
0.300000	-0.004183	-7.445885	-89.620796	88.638271	-89.620796	88.638271	-0.003480	-4.578482
0.350000	-0.005560	-8.683342	-88.378460	87.099693	-88.378460	87.099693	-0.004514	-5.338331
0.400000	-0.007076	-9.919360	-87.326572	85.753980	-87.326572	85.753980	-0.005602	-6.097105
0.450000	-0.008708	-11.153842	-86.424214	84.553720	-86.424214	84.553720	-0.006723	-6.854839
0.500000	-0.010432	-12.386715	-85.643372	83.473478	-85.643372	83.473478	-0.007858	-7.611585
0.550000	-0.012229	-13.617931	-84.964071	82.500174	-84.964071	82.500174	-0.008998	-8.367398
0.600000	-0.014079	-14.847460	-84.371604	81.628358	-84.371604	81.628358	-0.010132	-9.122336
0.650000	-0.015965	-16.075286	-83.854853	80.857747	-83.854853	80.857747	-0.011256	-9.876451
0.700000	-0.017873	-17.301406	-83.405215	80.191907	-83.405215	80.191907	-0.012367	-10.629785
0.750000	-0.019791	-18.525822	-83.015891	79.637565	-83.015891	79.637565	-0.013463	-11.382375
0.800000	-0.021709	-19.748543	-82.681390	79.204279	-82.681390	79.204279	-0.014544	-12.134245
0.850000	-0.023618	-20.969580	-82.397157	78.904343	-82.397157	78.904343	-0.015612	-12.885414
0.900000	-0.025513	-22.188944	-82.159288	78.752826	-82.159288	78.752826	-0.016665	-13.635895
0.950000	-0.027388	-23.406644	-81.964290	78.767713	-81.964290	78.767713	-0.017707	-14.385691
1.000000	-0.029241	-24.622689	-81.808847	78.970085	-81.808847	78.970085	-0.018738	-15.134805
1.050000	-0.031069	-25.837084	-81.689604	79.384282	-81.689604	79.384282	-0.019759	-15.883231
1.100000	-0.032872	-27.049830	-81.602916	80.037986	-81.602916	80.037986	-0.020772	-16.630964
1.150000	-0.034648	-28.260927	-81.544566	80.962085	-81.544566	80.962085	-0.021778	-17.377995
1.200000	-0.036398	-29.470370	-81.509450	82.190164	-81.509450	82.190164	-0.022777	-18.124311
1.250000	-0.038123	-30.678153	-81.491205	83.757361	-81.491205	83.757361	-0.023771	-18.869901
1.300000	-0.039823	-31.884191	-81.481718	85.715920	-81.481718	85.715920	-0.024760	-19.614718
1.350000	-0.041500	-33.088545	-81.469920	88.080487	-81.469920	88.080487	-0.025745	-20.358779
1.400000	-0.043156	-34.291199	-81.443224	90.869934	-81.443224	90.869934	-0.026726	-21.102069
1.450000	-0.044792	-35.492138	-81.386937	94.085402	-81.386937	94.085402	-0.027705	-21.844573
1.500000	-0.046410	-36.691342	-81.284963	97.702434	-81.284963	97.702434	-0.028680	-22.586275
1.550000	-0.048012	-37.888795	-81.121188	101.664550	-81.121188	101.664550	-0.029654	-23.327159
1.600000	-0.049599	-39.084475	-80.881506	105.881189	-80.881506	105.881189	-0.030626	-24.067210
1.650000	-0.051173	-40.278363	-80.556058	110.232640	-80.556058	110.232640	-0.031596	-24.806413
1.700000	-0.052736	-41.470439	-80.141034	114.582416	-80.141034	114.582416	-0.032565	-25.544751
1.750000	-0.054289	-42.660682	-79.639322	118.794355	-79.639322	118.794355	-0.033533	-26.282210
1.800000	-0.055834	-43.849074	-79.059775	122.749483	-79.059775	122.749483	-0.034499	-27.018774
1.850000	-0.057372	-45.035594	-78.415384	126.357842	-78.415384	126.357842	-0.035466	-27.754427
1.900000	-0.058905	-46.220224	-77.721034	129.563041	-77.721034	129.563041	-0.036432	-28.489156
1.950000	-0.060433	-47.402946	-76.991521	132.340157	-76.991521	132.340157	-0.037398	-29.222945
2.000000	-0.061959	-48.583745	-76.240173	134.689524	-76.240173	134.689524	-0.038364	-29.955781
2.050000	-0.063483	-49.762603	-75.478167	136.629132	-75.478167	136.629132	-0.039331	-30.687647
2.100000	-0.065007	-50.939507	-74.714357	138.187605	-74.714357	138.187605	-0.040299	-31.418531
2.150000	-0.066532	-52.114444	-73.955442	139.398685	-73.955442	139.398685	-0.041267	-32.148419
2.200000	-0.068058	-53.287401	-73.206284	140.297396	-73.206284	140.297396	-0.042237	-32.877297
2.250000	-0.069586	-54.458369	-72.470263	140.917647	-72.470263	140.917647	-0.043208	-33.605152
2.300000	-0.071119	-55.627339	-71.749615	141.290899	-71.749615	141.290899	-0.044182	-34.331971
2.350000	-0.072656	-56.794305	-71.045715	141.445561	-71.045715	141.445561	-0.045157	-35.057740
2.400000	-0.074198	-57.959260	-70.359303	141.406832	-70.359303	141.406832	-0.046135	-35.782447
2.450000	-0.075747	-59.122202	-69.690664	141.196798	-69.690664	141.196798	-0.047116	-36.506081
2.500000	-0.077302	-60.283128	-69.039760	140.834672	-69.039760	140.834672	-0.048101	-37.228628
2.550000	-0.078866	-61.441951	-68.405117	140.331859	-68.405117	140.331859	-0.049088	-37.950029
2.600000	-0.080439	-62.598761	-67.787699	139.709011	-67.787699	139.709011	-0.050080	-38.670321
2.650000	-0.082021	-63.753562	-67.186969	138.978214	-67.186969	138.978214	-0.051076	-39.389492
2.700000	-0.083614	-64.906359	-66.602337	138.149855	-66.602337	138.149855	-0.052077	-40.107531
2.750000	-0.085217	-66.057161	-66.033183	137.232836	-66.033183	137.232836	-0.053083	-40.824429
2.800000	-0.086832	-67.205977	-65.478877	136.234769	-65.478877	136.234769	-0.054094	-41.540176
2.850000	-0.088460	-68.352820	-64.938789	135.162133	-64.938789	135.162133	-0.055111	-42.254762
2.900000	-0.090100	-69.497703	-64.412299	134.020411	-64.412299	134.020411	-0.056134	-42.968180
2.950000	-0.091755	-70.640643	-63.898800	132.814204	-63.898800	132.814204	-0.057163	-43.680420
3.000000	-0.093424	-71.781657	-63.397704	131.547317	-63.397704	131.547317	-0.058200	-44.391476
3.050000	-0.095108	-72.920767	-62.908439	130.222837	-62.908439	130.222837	-0.059243	-45.101339
3.100000	-0.096808	-74.057996	-62.430455	128.843186	-62.430455	128.843186	-0.060294	-45.810005
3.150000	-0.098525	-75.193367	-61.963215	127.410163	-61.963215	127.410163	-0.061354	-46.517468
3.200000	-0.100259	-76.326910	-61.506199	125.924967	-61.506199	125.924967	-0.062421	-47.223722
3.250000	-0.102012	-77.458654	-61.058901	124.388212	-61.058901	124.388212	-0.063498	-47.928765
3.300000	-0.103783	-78.588632	-60.620821	122.799920	-60.620821	122.799920	-0.064584	-48.632593
3.350000	-0.105576	-79.716767	-60.190605	121.155845	-60.190605	121.155845	-0.065680	-49.335124
3.400000	-0.107385	-80.843491	-59.770777	119.467712	-59.770777	119.467712	-0.066785	-50.036644
3.450000	-0.109221	-81.968104	-59.355160	117.708165	-59.355160	117.708165	-0.067903	-50.736606
3.500000	-0.111076	-83.091443	-58.949149	115.901254	-58.949149	115.901254	-0.069031	-51.435599
3.550000	-0.112948	-84.213505	-58.552112	114.045654	-58.552112	114.045654	-0.070167	-52.133613
3.600000	-0.114855	-85.333414	-58.155894	112.094475	-58.155894	112.094475	-0.071322	-52.829907
3.650000	-0.116782	-86.452195	-57.767406	110.082895	-57.767406	110.082895	-0.072486	-53.525259
3.700000	-0.118729	-87.569865	-57.386205	108.009024	-57.386205	108.009024	-0.073662	-54.219672
3.750000	-0.120711	-88.685837	-57.005127	105.820441	-57.005127	105.820441	-0.074856	-54.912590
3.800000	-0.122719	-89.800696	-56.627352	103.532521	-56.627352	103.532521	-0.076064	-55.604465
3.850000	-0.124752	-90.914658	-56.254233	101.153362	-56.254233	101.153362	-0.077286	-56.295474
3.900000	-0.126820	-92.027439	-55.879448	98.626218	-55.879448	98.626218	-0.078527	-56.985287
3.950000	-0.128925	-93.139303	-55.500484	95.921277	-55.500484	95.921277	-0.079790	-57.674058
4.000000	-0.131059	-94.250612	-55.121011	93.065559	-55.121011	93.065559	-0.081070	-58.362134
4.050000	-0.133232	-95.361341	-54.735576	90.002152	-54.735576	90.002152	-0.082373	-59.049407
4.100000	-0.135462	-96.471776	-54.328902	86.591777	-54.328902	86.591777	-0.083713	-59.735944
4.150000	-0.137736	-97.582340	-53.908104	82.898027	-53.908104	82.898027	-0.085083	-60.422225
4.200000	-0.140060	-98.693144	-53.471459	78.885928	-53.471459	78.885928	-0.086486	-61.108312
4.250000	-0.142484	-99.805239	-52.976742	74.230857	-52.976742	74.230857	-0.087961	-61.794797
4.300000	-0.145017	-100.919248	-52.420009	68.921183	-52.420009	68.921183	-0.089519	-62.482290
4.350000	-0.147716	-102.036496	-51.767193	62.749643	-51.767193	62.749643	-0.091205	-63.171822
4.400000	-0.150706	-103.159527	-50.950602	55.356716	-50.950602	55.356716	-0.093124	-63.865385
4.450000	-0.154267	-104.292851	-49.860829	46.284065	-49.860829	46.284065	-0.095507	-64.566632
4.500000	-0.159069	-105.444721	-48.332523	34.931769	-48.332523	34.931769	-0.098910	-65.282310
4.550000	-0.167428	-106.635671	-46.015949	20.045556	-46.015949	20.045556	-0.105248	-66.029177
4.600000	-0.190358	-107.918375	-42.216908	-1.758745	-42.216908	-1.758745	-0.123613	-66.850171
4.650000	-0.306678	-109.176997	-36.000555	-48.062967	-36.000555	-48.062967	-0.218637	-67.647553
4.700000	-0.283453	-108.895279	-36.775874	-137.961370	-36.775874	-137.961370	-0.198369	-67.183450
4.750000	-0.198813	-110.188649	-41.971259	-176.364697	-41.971259	-176.364697	-0.128244	-68.011332
4.800000	-0.183411	-111.436695	-44.810075	164.258166	-44.810075	164.258166	-0.114972	-68.800330
4.850000	-0.179884	-112.613263	-46.410203	150.745375	-46.410203	150.745375	-0.111434	-69.529239
4.900000	-0.179822	-113.756347	-47.320570	140.411840	-47.320570	140.411840	-0.110725	-70.229300
4.950000	-0.181094	-114.882429	-47.838218	132.138536	-47.838218	132.138536	-0.111095	-70.914028
5.000000	-0.183004	-115.998890	-48.120399	125.309881	-48.120399	125.309881	-0.111975	-71.589436
5.050000	-0.185277	-117.109361	-48.252427	119.556223	-48.252427	119.556223	-0.113138	-72.258406
5.100000	-0.187769	-118.216148	-48.291352	114.574469	-48.291352	114.574469	-0.114468	-72.922811
5.150000	-0.190415	-119.320499	-48.267629	110.182239	-48.267629	110.182239	-0.115912	-73.583609
5.200000	-0.193179	-120.423243	-48.200851	106.247873	-48.200851	106.247873	-0.117440	-74.241413
5.250000	-0.196037	-121.524961	-48.103949	102.674650	-48.103949	102.674650	-0.119032	-74.896634
5.300000	-0.198977	-122.626088	-47.985674	99.390354	-47.985674	99.390354	-0.120678	-75.549557
5.350000	-0.201988	-123.726956	-47.852084	96.340249	-47.852084	96.340249	-0.122370	-76.200385
5.400000	-0.205065	-124.827839	-47.707461	93.482260	-47.707461	93.482260	-0.124104	-76.849270
5.450000	-0.208203	-125.928964	-47.554891	90.783614	-47.554891	90.783614	-0.125875	-77.496325
5.500000	-0.211401	-127.030529	-47.396634	88.218475	-47.396634	88.218475	-0.127683	-78.141638
5.550000	-0.214656	-128.132710	-47.234373	85.766244	-47.234373	85.766244	-0.129524	-78.785279
5.600000	-0.217967	-129.235669	-47.069376	83.410330	-47.069376	83.410330	-0.131398	-79.427304
5.650000	-0.221332	-130.339557	-46.902610	81.137240	-46.902610	81.137240	-0.133304	-80.067759
5.700000	-0.224752	-131.444517	-46.734822	78.935906	-46.734822	78.935906	-0.135242	-80.706682
5.750000	-0.228225	-132.550686	-46.566595	76.797177	-46.566595	76.797177	-0.137211	-81.344105
5.800000	-0.231753	-133.658198	-46.398384	74.713429	-46.398384	74.713429	-0.139211	-81.980058
5.850000	-0.235334	-134.767183	-46.230552	72.678270	-46.230552	72.678270	-0.141243	-82.614564
5.900000	-0.238969	-135.877770	-46.063386	70.686310	-46.063386	70.686310	-0.143306	-83.247646
5.950000	-0.242657	-136.990087	-45.897118	68.732975	-45.897118	68.732975	-0.145400	-83.879324
6.000000	-0.246400	-138.104261	-45.731933	66.814367	-45.731933	66.814367	-0.147526	-84.509616
6.050000	-0.250197	-139.220419	-45.567983	64.927149	-45.567983	64.927149	-0.149684	-85.138538
6.100000	-0.254048	-140.338689	-45.405388	63.068453	-45.405388	63.068453	-0.151874	-85.766107
6.150000	-0.257954	-141.459199	-45.244248	61.235809	-45.244248	61.235809	-0.154096	-86.392338
6.200000	-0.261916	-142.582078	-45.084646	59.427083	-45.084646	59.427083	-0.156351	-87.017245
6.250000	-0.265932	-143.707456	-44.926647	57.640425	-44.926647	57.640425	-0.158639	-87.640841
6.300000	-0.270006	-144.835585	-44.770262	55.875062	-44.770262	55.875062	-0.160961	-88.263084
6.350000	-0.274137	-145.966489	-44.615590	54.128675	-44.615590	54.128675	-0.163317	-88.884045
6.400000	-0.278323	-147.100303	-44.462669	52.400089	-44.462669	52.400089	-0.165707	-89.503736
6.450000	-0.282567	-148.237163	-44.311531	50.688291	-44.311531	50.688291	-0.168132	-90.122170
6.500000	-0.286867	-149.377209	-44.162203	48.992413	-44.162203	48.992413	-0.170591	-90.739360
6.550000	-0.291225	-150.520578	-44.014708	47.311716	-44.014708	47.311716	-0.173086	-91.355318
6.600000	-0.295640	-151.667415	-43.869066	45.645581	-43.869066	45.645581	-0.175616	-91.970057
6.650000	-0.300114	-152.817864	-43.725296	43.993497	-43.725296	43.993497	-0.178183	-92.583590
6.700000	-0.304642	-153.971846	-43.583437	42.354286	-43.583437	42.354286	-0.180784	-93.195999
6.750000	-0.309230	-155.129772	-43.443471	40.728610	-43.443471	40.728610	-0.183422	-93.807210
6.800000	-0.313879	-156.291908	-43.305413	39.116563	-43.305413	39.116563	-0.186099	-94.417209
6.850000	-0.318591	-157.458452	-43.169284	37.518087	-43.169284	37.518087	-0.188816	-95.026003
6.900000	-0.323361	-158.629308	-43.035118	35.932374	-43.035118	35.932374	-0.191571	-95.633676
6.950000	-0.328191	-159.804632	-42.902931	34.359492	-42.902931	34.359492	-0.194364	-96.240241
7.000000	-0.333080	-160.984581	-42.772737	32.799604	-42.772737	32.799604	-0.197196	-96.845713
7.050000	-0.338030	-162.169316	-42.644558	31.252969	-42.644558	31.252969	-0.200067	-97.450105
7.100000	-0.343041	-163.359002	-42.518413	29.719951	-42.518413	29.719951	-0.202979	-98.053432
7.150000	-0.348119	-164.554359	-42.394362	28.202563	-42.394362	28.202563	-0.205935	-98.655601
7.200000	-0.353259	-165.755108	-42.272419	26.700206	-42.272419	26.700206	-0.208934	-99.256727
7.250000	-0.358462	-166.961365	-42.152613	25.213503	-42.152613	25.213503	-0.211974	-99.856838
7.300000	-0.363727	-168.173314	-42.034978	23.743419	-42.034978	23.743419	-0.215058	-100.455953
7.350000	-0.369056	-169.391145	-41.919556	22.291120	-41.919556	22.291120	-0.218185	-101.054088
7.400000	-0.374450	-170.615055	-41.806393	20.858003	-41.806393	20.858003	-0.221356	-101.651264
7.450000	-0.379912	-171.845486	-41.695577	19.446585	-41.695577	19.446585	-0.224575	-102.247466
7.500000	-0.385446	-173.082962	-41.587224	18.060183	-41.587224	18.060183	-0.227845	-102.842681
7.550000	-0.391049	-174.327204	-41.481329	16.699636	-41.481329	16.699636	-0.231163	-103.437007
7.600000	-0.396723	-175.578450	-41.377964	15.367981	-41.377964	15.367981	-0.234530	-104.030471
7.650000	-0.402472	-176.836952	-41.277205	14.068897	-41.277205	14.068897	-0.237949	-104.623100
7.700000	-0.408300	-178.102984	-41.179134	12.806854	-41.179134	12.806854	-0.241422	-105.214928
7.750000	-0.414212	-179.376842	-41.083833	11.587324	-41.083833	11.587324	-0.244951	-105.805990
7.800000	-0.420224	179.340414	-40.991547	10.422028	-40.991547	10.422028	-0.248544	-106.396269
7.850000	-0.426342	178.048813	-40.902249	9.318080	-40.902249	9.318080	-0.252203	-106.985860
7.900000	-0.432577	176.748171	-40.815902	8.285267	-40.815902	8.285267	-0.255931	-107.574843
7.950000	-0.438947	175.437982	-40.732451	7.338077	-40.732451	7.338077	-0.259733	-108.163289
8.000000	-0.445476	174.117641	-40.651716	6.495272	-40.651716	6.495272	-0.263619	-108.751283
8.050000	-0.452198	172.786415	-40.573284	5.781495	-40.573284	5.781495	-0.267600	-109.338931
8.100000	-0.459179	171.442612	-40.496284	5.242136	-40.496284	5.242136	-0.271699	-109.926369
8.150000	-0.466483	170.085546	-40.418964	4.917095	-40.418964	4.917095	-0.275934	-110.513794
8.200000	-0.474227	168.713618	-40.337944	4.872900	-40.337944	4.872900	-0.280339	-111.101468
8.250000	-0.482637	167.323460	-40.246214	5.227230	-40.246214	5.227230	-0.284981	-111.689779
8.300000	-0.491936	165.913885	-40.133539	6.065511	-40.133539	6.065511	-0.289916	-112.279131
8.350000	-0.502810	164.477229	-39.972482	7.649989	-39.972482	7.649989	-0.295329	-112.870407
8.400000	-0.516423	163.005227	-39.708908	10.264625	-39.708908	10.264625	-0.301508	-113.464778
8.450000	-0.535280	161.483968	-39.229121	14.234881	-39.229121	14.234881	-0.309037	-114.063934
8.500000	-0.565349	159.891244	-38.303526	19.648882	-38.303526	19.648882	-0.319213	-114.669799
8.550000	-0.624667	158.199135	-36.472918	25.250230	-36.472918	25.250230	-0.335610	-115.280677
8.600000	-0.770186	156.541025	-33.212521	24.747113	-33.212521	24.747113	-0.367453	-115.850510
8.650000	-1.014044	156.422371	-29.696862	3.273752	-29.696862	3.273752	-0.404091	-116.105817
8.700000	-0.830318	156.943970	-30.314638	-27.526012	-30.314638	-27.526012	-0.359348	-116.386827
8.750000	-0.655597	155.312962	-32.515024	-39.823848	-32.515024	-39.823848	-0.331459	-117.051572
8.800000	-0.597925	153.501779	-34.039161	-43.328732	-34.039161	-43.328732	-0.326432	-117.711797
8.850000	-0.578560	151.792822	-34.988374	-44.393480	-34.988374	-44.393480	-0.327810	-118.338331
8.900000	-0.572761	150.153971	-35.591484	-44.848175	-35.591484	-44.848175	-0.331185	-118.944685
8.950000	-0.572698	148.553629	-35.984975	-45.230231	-35.984975	-45.230231	-0.335313	-119.539178
9.000000	-0.575257	146.971898	-36.255851	-45.687352	-36.255851	-45.687352	-0.339756	-120.126724
9.050000	-0.579322	145.399319	-36.441320	-46.256908	-36.441320	-46.256908	-0.344371	-120.709374
9.100000	-0.584293	143.829177	-36.566058	-46.946230	-36.566058	-46.946230	-0.349092	-121.288388
9.150000	-0.589770	142.257127	-36.652065	-47.733282	-36.652065	-47.733282	-0.353879	-121.864923
9.200000	-0.595609	140.680000	-36.707202	-48.612136	-36.707202	-48.612136	-0.358725	-122.439330
9.250000	-0.601652	139.096739	-36.743183	-49.556281	-36.743183	-49.556281	-0.363614	-123.012286
9.300000	-0.607855	137.505641	-36.762962	-50.560753	-36.762962	-50.560753	-0.368547	-123.583908
9.350000	-0.614169	135.905684	-36.770396	-51.615574	-36.770396	-51.615574	-0.373523	-124.154401
9.400000	-0.620561	134.296092	-36.768315	-52.712435	-36.768315	-52.712435	-0.378542	-124.723919
9.450000	-0.627007	132.676263	-36.758839	-53.844439	-36.758839	-53.844439	-0.383603	-125.292583
9.500000	-0.633490	131.045724	-36.743583	-55.005856	-36.743583	-55.005856	-0.388707	-125.860488
9.550000	-0.639995	129.404096	-36.723799	-56.191903	-36.723799	-56.191903	-0.393854	-126.427715
9.600000	-0.646511	127.751076	-36.700471	-57.398573	-36.700471	-57.398573	-0.399045	-126.994330
9.650000	-0.653031	126.086419	-36.674382	-58.622488	-36.674382	-58.622488	-0.404280	-127.560390
9.700000	-0.659545	124.409929	-36.646165	-59.860783	-36.646165	-59.860783	-0.409560	-128.125944
9.750000	-0.666048	122.721449	-36.616335	-61.111015	-36.616335	-61.111015	-0.414885	-128.691038
9.800000	-0.672534	121.020860	-36.585317	-62.371093	-36.585317	-62.371093	-0.420254	-129.255711
9.850000	-0.678996	119.308072	-36.553464	-63.639214	-36.553464	-63.639214	-0.425669	-129.820001
9.900000	-0.685431	117.583026	-36.521072	-64.913817	-36.521072	-64.913817	-0.431130	-130.383941
9.950000	-0.691834	115.845688	-36.488389	-66.193547	-36.488389	-66.193547	-0.436637	-130.947564
10.000000	-0.698199	114.096048	-36.455630	-67.477222	-36.455630	-67.477222	-0.442189	-131.510901
