! freq	dB(S11)	phase(S11)	dB(S12)	phase(S12)	
!     	dB(S21)	phase(S21)	dB(S22)	phase(S22)	
!S-par simulation data
#  GHz  S  DB  R 50
0.000000	-0.000000	0.000000	-375.612532	180.000000	-375.612532	180.000000	-0.000000	-0.000000
0.050000	-0.000631	-0.780232	-112.430903	89.326256	-112.430903	89.326256	-0.000848	-1.060558
0.100000	-0.002020	-1.555631	-106.436884	88.370588	-106.436884	88.370588	-0.002799	-2.115274
0.150000	-0.003476	-2.326566	-102.981677	87.458436	-102.981677	87.458436	-0.004939	-3.163993
0.200000	-0.004725	-3.095191	-100.585208	86.593724	-100.585208	86.593724	-0.006803	-4.209102
0.250000	-0.005783	-3.863066	-98.778063	85.774905	-98.778063	85.774905	-0.008354	-5.252755
0.300000	-0.006693	-4.630699	-97.367190	85.018245	-97.367190	85.018245	-0.009631	-6.295749
0.350000	-0.007536	-5.398258	-96.224026	84.322150	-96.224026	84.322150	-0.010768	-7.338495
0.400000	-0.008334	-6.165715	-95.292101	83.705012	-95.292101	83.705012	-0.011804	-8.381003
0.450000	-0.009112	-6.933008	-94.530913	83.183386	-94.530913	83.183386	-0.012786	-9.423237
0.500000	-0.009887	-7.700058	-93.913779	82.777226	-93.913779	82.777226	-0.013748	-10.465117
0.550000	-0.010673	-8.466737	-93.435148	82.534999	-93.435148	82.534999	-0.014717	-11.506473
0.600000	-0.011478	-9.232936	-93.086355	82.512098	-93.086355	82.512098	-0.015714	-12.547147
0.650000	-0.012300	-9.998729	-92.830662	82.697351	-92.830662	82.697351	-0.016739	-13.587228
0.700000	-0.013140	-10.764086	-92.663003	83.119071	-92.663003	83.119071	-0.017796	-14.626670
0.750000	-0.014007	-11.528744	-92.618538	83.986612	-92.618538	83.986612	-0.018904	-15.665052
0.800000	-0.014895	-12.292777	-92.670800	85.366363	-92.670800	85.366363	-0.020057	-16.702456
0.850000	-0.015801	-13.056259	-92.801303	87.282857	-92.801303	87.282857	-0.021246	-17.738982
0.900000	-0.016725	-13.819120	-93.016208	89.878831	-93.016208	89.878831	-0.022475	-18.774505
0.950000	-0.017671	-14.581050	-93.319596	93.861909	-93.319596	93.861909	-0.023754	-19.808479
1.000000	-0.018630	-15.342351	-93.642438	99.060643	-93.642438	99.060643	-0.025063	-20.841384
1.050000	-0.019600	-16.103012	-93.955143	105.580292	-93.955143	105.580292	-0.026399	-21.873197
1.100000	-0.020584	-16.862777	-94.148788	114.168274	-94.148788	114.168274	-0.027767	-22.903456
1.150000	-0.021578	-17.621676	-94.042746	124.367241	-94.042746	124.367241	-0.029159	-23.932197
1.200000	-0.022579	-18.379883	-93.627281	135.135023	-93.627281	135.135023	-0.030565	-24.959718
1.250000	-0.023585	-19.137389	-92.901106	146.073362	-92.901106	146.073362	-0.031985	-25.986001
1.300000	-0.024598	-19.893721	-91.683650	155.263079	-91.683650	155.263079	-0.033416	-27.010202
1.350000	-0.025613	-20.649318	-90.347322	162.924030	-90.347322	162.924030	-0.034850	-28.033101
1.400000	-0.026629	-21.404176	-88.969593	169.125493	-88.969593	169.125493	-0.036285	-29.054691
1.450000	-0.027647	-22.158079	-87.559583	173.623729	-87.559583	173.623729	-0.037719	-30.074597
1.500000	-0.028665	-22.910940	-86.164091	176.779529	-86.164091	176.779529	-0.039147	-31.092674
1.550000	-0.029681	-23.663027	-84.852281	179.166819	-84.852281	179.166819	-0.040568	-32.109400
1.600000	-0.030697	-24.414335	-83.619523	-179.114478	-83.619523	-179.114478	-0.041983	-33.124769
1.650000	-0.031709	-25.164421	-82.417789	-178.136255	-82.417789	-178.136255	-0.043385	-34.138023
1.700000	-0.032720	-25.913739	-81.296692	-177.490406	-81.296692	-177.490406	-0.044777	-35.149961
1.750000	-0.033727	-26.662049	-80.228170	-177.213862	-80.228170	-177.213862	-0.046159	-36.160176
1.800000	-0.034732	-27.409395	-79.212894	-177.209729	-79.212894	-177.209729	-0.047529	-37.168752
1.850000	-0.035733	-28.155765	-78.246346	-177.425518	-78.246346	-177.425518	-0.048888	-38.175676
1.900000	-0.036731	-28.901149	-77.324329	-177.820803	-77.324329	-177.820803	-0.050237	-39.180940
1.950000	-0.037725	-29.645536	-76.443033	-178.364091	-76.443033	-178.364091	-0.051577	-40.184531
2.000000	-0.038717	-30.388913	-75.599038	-179.030567	-75.599038	-179.030567	-0.052909	-41.186438
2.050000	-0.039706	-31.131271	-74.789292	-179.800460	-74.789292	-179.800460	-0.054233	-42.186647
2.100000	-0.040693	-31.872598	-74.011074	179.342147	-74.011074	179.342147	-0.055550	-43.185145
2.150000	-0.041678	-32.612882	-73.261961	178.410198	-73.261961	178.410198	-0.056863	-44.181920
2.200000	-0.042660	-33.352113	-72.539790	177.414320	-72.539790	177.414320	-0.058172	-45.176957
2.250000	-0.043642	-34.090279	-71.842627	176.363317	-71.842627	176.363317	-0.059478	-46.170243
2.300000	-0.044622	-34.827368	-71.168734	175.264544	-71.168734	175.264544	-0.060782	-47.161762
2.350000	-0.045602	-35.563369	-70.516550	174.124201	-70.516550	174.124201	-0.062087	-48.151502
2.400000	-0.046583	-36.298271	-69.884663	172.947556	-69.884663	172.947556	-0.063392	-49.139449
2.450000	-0.047563	-37.032062	-69.271791	171.739121	-69.271791	171.739121	-0.064700	-50.125588
2.500000	-0.048546	-37.764730	-68.676767	170.502795	-68.676767	170.502795	-0.066011	-51.109907
2.550000	-0.049529	-38.496214	-68.097575	169.241048	-68.097575	169.241048	-0.067326	-52.092313
2.600000	-0.050516	-39.226552	-67.534261	167.958021	-67.534261	167.958021	-0.068647	-53.072872
2.650000	-0.051505	-39.955732	-66.985887	166.656296	-66.985887	166.656296	-0.069975	-54.051573
2.700000	-0.052497	-40.683742	-66.451571	165.338156	-66.451571	165.338156	-0.071309	-55.028406
2.750000	-0.053494	-41.410573	-65.930463	164.005583	-65.930463	164.005583	-0.072652	-56.003360
2.800000	-0.054495	-42.136212	-65.421741	162.660228	-65.421741	162.660228	-0.074003	-56.976426
2.850000	-0.055502	-42.860649	-64.924584	161.303310	-64.924584	161.303310	-0.075364	-57.947596
2.900000	-0.056514	-43.583873	-64.438174	159.935428	-64.438174	159.935428	-0.076736	-58.916862
2.950000	-0.057532	-44.305873	-63.961704	158.556264	-63.961704	158.556264	-0.078119	-59.884217
3.000000	-0.058557	-45.026640	-63.494427	157.164227	-63.494427	157.164227	-0.079514	-60.849656
3.050000	-0.059590	-45.746162	-63.035767	155.756224	-63.035767	155.756224	-0.080921	-61.813175
3.100000	-0.060631	-46.464429	-62.585492	154.327973	-62.585492	154.327973	-0.082341	-62.774769
3.150000	-0.061680	-47.181433	-62.143859	152.875336	-62.143859	152.875336	-0.083775	-63.734435
3.200000	-0.062738	-47.897163	-61.711597	151.396560	-61.711597	151.396560	-0.085224	-64.692173
3.250000	-0.063805	-48.611610	-61.289586	149.894196	-61.289586	149.894196	-0.086687	-65.647980
3.300000	-0.064882	-49.324765	-60.878389	148.374995	-60.878389	148.374995	-0.088165	-66.601858
3.350000	-0.065970	-50.036620	-60.477924	146.847478	-60.477924	146.847478	-0.089660	-67.553807
3.400000	-0.067068	-50.747165	-60.087510	145.318876	-60.087510	145.318876	-0.091171	-68.503831
3.450000	-0.068178	-51.456393	-59.706181	143.793468	-59.706181	143.793468	-0.092698	-69.451931
3.500000	-0.069300	-52.164296	-59.332980	142.272729	-59.332980	142.272729	-0.094244	-70.398113
3.550000	-0.070433	-52.870866	-58.967129	140.756359	-58.967129	140.756359	-0.095807	-71.342381
3.600000	-0.071580	-53.576096	-58.608047	139.243291	-58.608047	139.243291	-0.097389	-72.284742
3.650000	-0.072739	-54.279979	-58.255315	137.732310	-58.255315	137.732310	-0.098989	-73.225204
3.700000	-0.073912	-54.982508	-57.908628	136.222343	-57.908628	136.222343	-0.100609	-74.163773
3.750000	-0.075098	-55.683677	-57.567752	134.712553	-57.567752	134.712553	-0.102249	-75.100459
3.800000	-0.076299	-56.383421	-57.232182	133.202288	-57.232182	133.202288	-0.103911	-76.035192
3.850000	-0.077515	-57.081793	-56.902094	131.691142	-56.902094	131.691142	-0.105593	-76.968064
3.900000	-0.078746	-57.778788	-56.577342	130.178855	-56.577342	130.178855	-0.107297	-77.899087
3.950000	-0.079992	-58.474401	-56.257790	128.665270	-56.257790	128.665270	-0.109022	-78.828275
4.000000	-0.081253	-59.168628	-55.943309	127.150308	-55.943309	127.150308	-0.110770	-79.755641
4.050000	-0.082531	-59.861464	-55.633775	125.633942	-55.633775	125.633942	-0.112541	-80.681200
4.100000	-0.083824	-60.552906	-55.329071	124.116184	-55.329071	124.116184	-0.114335	-81.604968
4.150000	-0.085135	-61.242951	-55.029080	122.597076	-55.029080	122.597076	-0.116153	-82.526960
4.200000	-0.086462	-61.931594	-54.733693	121.076675	-54.733693	121.076675	-0.117995	-83.447196
4.250000	-0.087807	-62.618835	-54.442802	119.555054	-54.442802	119.555054	-0.119862	-84.365692
4.300000	-0.089169	-63.304669	-54.156303	118.032295	-54.156303	118.032295	-0.121755	-85.282468
4.350000	-0.090549	-63.989096	-53.874096	116.508485	-53.874096	116.508485	-0.123673	-86.197544
4.400000	-0.091947	-64.672114	-53.596084	114.983714	-53.596084	114.983714	-0.125618	-87.110941
4.450000	-0.093364	-65.353721	-53.322173	113.458075	-53.322173	113.458075	-0.127589	-88.022680
4.500000	-0.094799	-66.033916	-53.052271	111.931663	-53.052271	111.931663	-0.129588	-88.932783
4.550000	-0.096254	-66.712700	-52.786292	110.404571	-52.786292	110.404571	-0.131615	-89.841274
4.600000	-0.097728	-67.390071	-52.524149	108.876894	-52.524149	108.876894	-0.133670	-90.748177
4.650000	-0.099221	-68.066031	-52.265760	107.348725	-52.265760	107.348725	-0.135754	-91.653516
4.700000	-0.100735	-68.740579	-52.011046	105.820155	-52.011046	105.820155	-0.137867	-92.557318
4.750000	-0.102269	-69.413716	-51.759929	104.291275	-51.759929	104.291275	-0.140010	-93.459607
4.800000	-0.103823	-70.085444	-51.512333	102.762174	-51.512333	102.762174	-0.142184	-94.360412
4.850000	-0.105399	-70.755764	-51.268188	101.232941	-51.268188	101.232941	-0.144389	-95.259759
4.900000	-0.106995	-71.424677	-51.027421	99.703661	-51.027421	99.703661	-0.146625	-96.157678
4.950000	-0.108613	-72.092187	-50.789964	98.174419	-50.789964	98.174419	-0.148893	-97.054198
5.000000	-0.110254	-72.758295	-50.555751	96.645297	-50.555751	96.645297	-0.151194	-97.949349
5.050000	-0.111917	-73.422944	-50.324590	95.116389	-50.324590	95.116389	-0.153529	-98.843105
5.100000	-0.113602	-74.086197	-50.096553	93.587768	-50.096553	93.587768	-0.155897	-99.735556
5.150000	-0.115311	-74.748059	-49.871580	92.059512	-49.871580	92.059512	-0.158300	-100.626735
5.200000	-0.117043	-75.408532	-49.649611	90.531696	-49.649611	90.531696	-0.160737	-101.516675
5.250000	-0.118798	-76.067622	-49.430586	89.004391	-49.430586	89.004391	-0.163210	-102.405409
5.300000	-0.120577	-76.725331	-49.214450	87.477671	-49.214450	87.477671	-0.165718	-103.292973
5.350000	-0.122381	-77.381666	-49.001146	85.951603	-49.001146	85.951603	-0.168262	-104.179400
5.400000	-0.124209	-78.036630	-48.790620	84.426255	-48.790620	84.426255	-0.170843	-105.064726
5.450000	-0.126062	-78.690229	-48.582819	82.901691	-48.582819	82.901691	-0.173461	-105.948988
5.500000	-0.127940	-79.342469	-48.377692	81.377975	-48.377692	81.377975	-0.176116	-106.832224
5.550000	-0.129844	-79.993354	-48.175188	79.855166	-48.175188	79.855166	-0.178810	-107.714469
5.600000	-0.131774	-80.642891	-47.975258	78.333324	-47.975258	78.333324	-0.181542	-108.595764
5.650000	-0.133731	-81.291086	-47.777853	76.812503	-47.777853	76.812503	-0.184314	-109.476146
5.700000	-0.135714	-81.937946	-47.582927	75.292759	-47.582927	75.292759	-0.187125	-110.355656
5.750000	-0.137725	-82.583477	-47.390432	73.774141	-47.390432	73.774141	-0.189976	-111.234333
5.800000	-0.139763	-83.227686	-47.200325	72.256699	-47.200325	72.256699	-0.192868	-112.112220
5.850000	-0.141829	-83.870580	-47.012560	70.740480	-47.012560	70.740480	-0.195801	-112.989358
5.900000	-0.143924	-84.512166	-46.827095	69.225528	-46.827095	69.225528	-0.198775	-113.865788
5.950000	-0.146047	-85.152452	-46.643887	67.711884	-46.643887	67.711884	-0.201792	-114.741554
6.000000	-0.148200	-85.791446	-46.462895	66.199588	-46.462895	66.199588	-0.204851	-115.616700
6.050000	-0.150383	-86.429156	-46.284079	64.688676	-46.284079	64.688676	-0.207953	-116.491270
6.100000	-0.152595	-87.065589	-46.107397	63.179184	-46.107397	63.179184	-0.211098	-117.365309
6.150000	-0.154838	-87.700755	-45.932813	61.671143	-45.932813	61.671143	-0.214287	-118.238862
6.200000	-0.157112	-88.334661	-45.760287	60.164584	-45.760287	60.164584	-0.217521	-119.111976
6.250000	-0.159418	-88.967317	-45.589783	58.659533	-45.589783	58.659533	-0.220799	-119.984698
6.300000	-0.161773	-89.598035	-45.420540	57.156896	-45.420540	57.156896	-0.224148	-120.856910
6.350000	-0.164129	-90.228753	-45.254532	55.654260	-45.254532	55.654260	-0.227498	-121.729122
6.400000	-0.166547	-90.857134	-45.089309	54.154645	-45.089309	54.154645	-0.230935	-122.600874
6.450000	-0.168971	-91.485302	-44.926962	52.655305	-44.926962	52.655305	-0.234381	-123.472585
6.500000	-0.171453	-92.111380	-44.765607	51.158775	-44.765607	51.158775	-0.237908	-124.344059
6.550000	-0.173947	-92.737040	-44.606804	49.662806	-44.606804	49.662806	-0.241452	-125.215487
6.600000	-0.176495	-93.360852	-44.449172	48.169410	-44.449172	48.169410	-0.245071	-126.086870
6.650000	-0.179061	-93.984048	-44.293799	46.676871	-44.293799	46.676871	-0.248715	-126.958239
6.700000	-0.181677	-94.605631	-44.139755	45.186648	-44.139755	45.186648	-0.252426	-127.829724
6.750000	-0.184317	-95.226408	-43.987706	43.697582	-43.987706	43.697582	-0.256172	-128.701266
6.800000	-0.187001	-95.845800	-43.837120	42.210560	-43.837120	42.210560	-0.259978	-129.573047
6.850000	-0.189718	-96.464205	-43.688292	40.724997	-43.688292	40.724997	-0.263827	-130.444999
6.900000	-0.192472	-97.081447	-43.541044	39.241197	-43.541044	39.241197	-0.267728	-131.317278
6.950000	-0.195266	-97.697527	-43.395340	37.759158	-43.395340	37.759158	-0.271682	-132.189885
7.000000	-0.198093	-98.312661	-43.251317	36.278593	-43.251317	36.278593	-0.275681	-133.062868
7.050000	-0.200966	-98.926468	-43.108646	34.800092	-43.108646	34.800092	-0.279742	-133.936379
7.100000	-0.203866	-99.539534	-42.967740	33.322774	-42.967740	33.322774	-0.283839	-134.810277
7.150000	-0.206820	-100.151120	-42.828018	31.847821	-42.828018	31.847821	-0.288008	-135.684949
7.200000	-0.209795	-100.762163	-42.690128	30.373759	-42.690128	30.373759	-0.292205	-136.559978
7.250000	-0.212831	-101.371581	-42.553275	28.902366	-42.553275	28.902366	-0.296484	-137.436076
7.300000	-0.215882	-101.980648	-42.418310	27.431569	-42.418310	27.431569	-0.300782	-138.312456
7.350000	-0.219003	-102.587955	-42.284253	25.963752	-42.284253	25.963752	-0.305172	-139.190250
7.400000	-0.222131	-103.195090	-42.152124	24.496236	-42.152124	24.496236	-0.309573	-140.068209
7.450000	-0.225337	-103.800344	-42.020796	23.032021	-42.020796	23.032021	-0.314075	-140.947976
7.500000	-0.228545	-104.405598	-41.891424	21.567806	-41.891424	21.567806	-0.318580	-141.827744
7.550000	-0.231838	-105.008859	-41.762763	20.107234	-41.762763	20.107234	-0.323196	-142.709770
7.600000	-0.235132	-105.612121	-41.635981	18.646661	-41.635981	18.646661	-0.327815	-143.591796
7.650000	-0.238507	-106.213614	-41.510025	17.189480	-41.510025	17.189480	-0.332537	-144.476161
7.700000	-0.241890	-106.814946	-41.385780	15.732608	-41.385780	15.732608	-0.337272	-145.360738
7.750000	-0.245346	-107.414726	-41.262462	14.278888	-41.262462	14.278888	-0.342102	-146.247690
7.800000	-0.248819	-108.014195	-41.140708	12.825799	-41.140708	12.825799	-0.346953	-147.135118
7.850000	-0.252359	-108.612319	-41.019968	11.375631	-41.019968	11.375631	-0.351891	-148.024914
7.900000	-0.255922	-109.209995	-40.900663	9.926437	-40.900663	9.926437	-0.356860	-148.915499
7.950000	-0.259531	-109.806803	-40.782570	8.479249	-40.782570	8.479249	-0.361889	-149.807793
8.000000	-0.263192	-110.402652	-40.665630	7.034353	-40.665630	7.034353	-0.366985	-150.702078
8.050000	-0.266898	-110.997706	-40.549901	5.591463	-40.549901	5.591463	-0.372138	-151.598151
8.100000	-0.270649	-111.591981	-40.435374	4.150626	-40.435374	4.150626	-0.377349	-152.496086
8.150000	-0.274445	-112.185498	-40.322041	2.711895	-40.322041	2.711895	-0.382619	-153.395960
8.200000	-0.278287	-112.778274	-40.209893	1.275329	-40.209893	1.275329	-0.387947	-154.297850
8.250000	-0.282174	-113.370329	-40.098921	-0.159009	-40.098921	-0.159009	-0.393334	-155.201832
8.300000	-0.286107	-113.961682	-39.989118	-1.591049	-39.989118	-1.591049	-0.398780	-156.107987
8.350000	-0.290090	-114.552317	-39.880466	-3.020571	-39.880466	-3.020571	-0.404288	-157.016530
8.400000	-0.294111	-115.142412	-39.773002	-4.448114	-39.773002	-4.448114	-0.409846	-157.926952
8.450000	-0.298193	-115.731671	-39.666635	-5.872305	-39.666635	-5.872305	-0.415481	-158.840552
8.500000	-0.302317	-116.320411	-39.561437	-7.294223	-39.561437	-7.294223	-0.421167	-159.756298
8.550000	-0.306481	-116.908644	-39.457391	-8.713822	-39.457391	-8.713822	-0.426905	-160.674226
8.600000	-0.310701	-117.496210	-39.354455	-10.130133	-39.354455	-10.130133	-0.432713	-161.595227
8.650000	-0.314974	-118.083191	-39.252642	-11.543198	-39.252642	-11.543198	-0.438586	-162.519225
8.700000	-0.319290	-118.669731	-39.151958	-12.953615	-39.151958	-12.953615	-0.444511	-163.445642
8.750000	-0.323648	-119.255840	-39.052386	-14.361330	-39.052386	-14.361330	-0.450489	-164.374517
8.800000	-0.328076	-119.841293	-38.953914	-15.764352	-38.953914	-15.764352	-0.456550	-165.307583
8.850000	-0.332549	-120.426378	-38.856550	-17.164328	-38.856550	-17.164328	-0.462665	-166.243315
8.900000	-0.337066	-121.011105	-38.760279	-18.561188	-38.760279	-18.561188	-0.468832	-167.181753
8.950000	-0.341640	-121.595405	-38.665096	-19.953925	-38.665096	-19.953925	-0.475066	-168.123722
9.000000	-0.346276	-122.179291	-38.571009	-21.341965	-38.571009	-21.341965	-0.481370	-169.069621
9.050000	-0.350960	-122.762901	-38.477993	-22.726399	-38.477993	-22.726399	-0.487729	-170.018484
9.100000	-0.355692	-123.346246	-38.386031	-24.107145	-38.386031	-24.107145	-0.494141	-170.970349
9.150000	-0.360498	-123.929233	-38.295165	-25.481862	-38.295165	-25.481862	-0.500633	-171.927013
9.200000	-0.365359	-124.512009	-38.205353	-26.852050	-38.205353	-26.852050	-0.507184	-172.887187
9.250000	-0.370271	-125.094608	-38.116572	-28.217966	-38.116572	-28.217966	-0.513789	-173.850632
9.300000	-0.375245	-125.677023	-38.028831	-29.578664	-38.028831	-29.578664	-0.520456	-174.818017
9.350000	-0.380296	-126.259270	-37.942164	-30.932530	-37.942164	-30.932530	-0.527201	-175.790419
9.400000	-0.385404	-126.841434	-37.856501	-32.281460	-37.856501	-32.281460	-0.533999	-176.766368
9.450000	-0.390568	-127.423532	-37.771825	-33.625342	-37.771825	-33.625342	-0.540852	-177.745906
9.500000	-0.395818	-128.005582	-37.688201	-34.961515	-37.688201	-34.961515	-0.547781	-178.730807
9.550000	-0.401139	-128.587644	-37.605578	-36.291041	-37.605578	-36.291041	-0.554774	-179.720209
9.600000	-0.406524	-129.169742	-37.523911	-37.614756	-37.523911	-37.614756	-0.561822	179.286514
9.650000	-0.411980	-129.751899	-37.443202	-38.931965	-37.443202	-38.931965	-0.568928	178.288950
9.700000	-0.417540	-130.334211	-37.363529	-40.239409	-37.363529	-40.239409	-0.576116	177.285120
9.750000	-0.423171	-130.916666	-37.284775	-41.540200	-37.284775	-41.540200	-0.583358	176.277123
9.800000	-0.428876	-131.499280	-37.206924	-42.834199	-37.206924	-42.834199	-0.590654	175.264912
9.850000	-0.434684	-132.082158	-37.130037	-44.118557	-37.130037	-44.118557	-0.598023	174.246831
9.900000	-0.440593	-132.665344	-37.054083	-45.393410	-37.054083	-45.393410	-0.605460	173.223109
9.950000	-0.446586	-133.248802	-36.978991	-46.660533	-36.978991	-46.660533	-0.612951	172.194874
10.000000	-0.452666	-133.832549	-36.904747	-47.919776	-36.904747	-47.919776	-0.620496	171.162077
