! freq	dB(S11)	phase(S11)	dB(S12)	phase(S12)	
!     	dB(S21)	phase(S21)	dB(S22)	phase(S22)	
!S-par simulation data
#  GHz  S  DB  R 50
0.000000	-87.219703	0.000000	-0.000378	0.000000	-0.000378	0.000000	-87.219703	0.000000
0.050000	-31.907579	-92.935633	-0.005604	-3.055314	-0.005604	-3.055314	-31.909143	-93.238072
0.100000	-25.910886	-95.996275	-0.019682	-6.090597	-0.019682	-6.090597	-25.912814	-96.600454
0.150000	-22.426105	-98.984764	-0.039968	-9.101074	-0.039968	-9.101074	-22.428485	-99.889814
0.200000	-19.975451	-101.919387	-0.064934	-12.090486	-0.064934	-12.090486	-19.978257	-103.124913
0.250000	-18.093863	-104.806949	-0.094002	-15.062671	-0.094002	-15.062671	-18.097012	-106.313309
0.300000	-16.574268	-107.652967	-0.127098	-18.018322	-0.127098	-18.018322	-16.577670	-109.461220
0.350000	-15.306195	-110.462400	-0.164199	-20.956311	-0.164199	-20.956311	-15.309782	-112.574156
0.400000	-14.223421	-113.239258	-0.205167	-23.874993	-0.205167	-23.874993	-14.227149	-115.656502
0.450000	-13.283897	-115.985217	-0.249886	-26.771986	-0.249886	-26.771986	-13.287744	-118.710275
0.500000	-12.458329	-118.701665	-0.298074	-29.645585	-0.298074	-29.645585	-12.462287	-121.737099
0.550000	-11.726076	-121.388755	-0.349455	-32.494006	-0.349455	-32.494006	-11.730147	-124.737386
0.600000	-11.071975	-124.046018	-0.403723	-35.315555	-0.403723	-35.315555	-11.076167	-127.710953
0.650000	-10.484009	-126.673387	-0.460499	-38.109401	-0.460499	-38.109401	-10.488332	-130.657965
0.700000	-9.953285	-129.269927	-0.519448	-40.874247	-0.519448	-40.874247	-9.957751	-133.577824
0.750000	-9.472266	-131.835417	-0.580180	-43.609699	-0.580180	-43.609699	-9.476889	-136.470583
0.800000	-9.034938	-134.369519	-0.642324	-46.315417	-0.642324	-46.315417	-9.039729	-139.336223
0.850000	-8.636577	-136.871579	-0.705516	-48.990871	-0.705516	-48.990871	-8.641549	-142.174489
0.900000	-8.272704	-139.342044	-0.769384	-51.636650	-0.769384	-51.636650	-8.277870	-144.986103
0.950000	-7.939970	-141.780657	-0.833579	-54.252738	-0.833579	-54.252738	-7.945340	-147.771232
1.000000	-7.635435	-144.187445	-0.897754	-56.839430	-0.897754	-56.839430	-7.641023	-150.530329
1.050000	-7.356357	-146.563000	-0.961585	-59.397580	-0.961585	-59.397580	-7.362175	-153.264355
1.100000	-7.100473	-148.907781	-1.024765	-61.927944	-1.024765	-61.927944	-7.106534	-155.974202
1.150000	-6.865953	-151.222041	-1.086981	-64.431123	-1.086981	-64.431123	-6.872270	-158.660656
1.200000	-6.650685	-153.507252	-1.148003	-66.908812	-1.148003	-66.908812	-6.657273	-161.325459
1.250000	-6.453368	-155.763675	-1.207551	-69.361659	-1.207551	-69.361659	-6.460242	-163.969486
1.300000	-6.272902	-157.991546	-1.265334	-71.790345	-1.265334	-71.790345	-6.280079	-166.593696
1.350000	-6.107800	-160.192379	-1.321171	-74.196649	-1.321171	-74.196649	-6.115300	-169.199981
1.400000	-5.956993	-162.367104	-1.374859	-76.581869	-1.374859	-76.581869	-5.964835	-171.789855
1.450000	-5.819528	-164.516687	-1.426209	-78.947350	-1.426209	-78.947350	-5.827736	-174.364902
1.500000	-5.694557	-166.642117	-1.475051	-81.294477	-1.475051	-81.294477	-5.703156	-176.926765
1.550000	-5.581325	-168.744399	-1.521229	-83.624665	-1.521229	-83.624665	-5.590342	-179.477140
1.600000	-5.479159	-170.824544	-1.564603	-85.939356	-1.564603	-85.939356	-5.488625	177.982226
1.650000	-5.387462	-172.883560	-1.605048	-88.240008	-1.605048	-88.240008	-5.397412	175.449543
1.700000	-5.305705	-174.922447	-1.642452	-90.528097	-1.642452	-90.528097	-5.316178	172.922978
1.750000	-5.233422	-176.942188	-1.676718	-92.805108	-1.676718	-92.805108	-5.244458	170.400657
1.800000	-5.170201	-178.943743	-1.707759	-95.072531	-1.707759	-95.072531	-5.181847	167.880669
1.850000	-5.115685	179.071954	-1.735504	-97.331865	-1.735504	-97.331865	-5.127993	165.361065
1.900000	-5.069651	177.104174	-1.759855	-99.584551	-1.759855	-99.584551	-5.082679	162.839812
1.950000	-5.031831	175.152033	-1.780762	-101.832139	-1.780762	-101.832139	-5.045643	160.314811
2.000000	-5.001917	173.214546	-1.798226	-104.076197	-1.798226	-104.076197	-5.016581	157.784001
2.050000	-4.979730	171.290958	-1.812221	-106.318217	-1.812221	-106.318217	-4.995324	155.245259
2.100000	-4.965130	169.380577	-1.822732	-108.559690	-1.822732	-108.559690	-4.981738	152.696411
2.150000	-4.958011	167.482775	-1.829754	-110.802099	-1.829754	-110.802099	-4.975728	150.135228
2.200000	-4.958305	165.597000	-1.833293	-113.046923	-1.833293	-113.046923	-4.977234	147.559419
2.250000	-4.965978	163.722781	-1.833366	-115.295634	-1.833366	-115.295634	-4.986232	144.966628
2.300000	-4.981027	161.859742	-1.830000	-117.549698	-1.830000	-117.549698	-5.002734	142.354422
2.350000	-5.003484	160.007609	-1.823231	-119.810571	-1.823231	-119.810571	-5.026782	139.720287
2.400000	-5.033412	158.166224	-1.813108	-122.079701	-1.813108	-122.079701	-5.058458	137.061616
2.450000	-5.070906	156.335558	-1.799688	-124.358526	-1.799688	-124.358526	-5.097871	134.375699
2.500000	-5.116095	154.515726	-1.783042	-126.648471	-1.783042	-126.648471	-5.145170	131.659711
2.550000	-5.169303	152.707262	-1.763183	-128.951254	-1.763183	-128.951254	-5.200707	128.909905
2.600000	-5.230560	150.910407	-1.740273	-131.268027	-1.740273	-131.268027	-5.264531	126.123824
2.650000	-5.300091	149.125850	-1.714417	-133.600168	-1.714417	-133.600168	-5.336895	123.298190
2.700000	-5.378151	147.354518	-1.685733	-135.949031	-1.685733	-135.949031	-5.418087	120.429539
2.750000	-5.465029	145.597612	-1.654348	-138.315945	-1.654348	-138.315945	-5.508434	117.514198
2.800000	-5.561046	143.856636	-1.620404	-140.702210	-1.620404	-140.702210	-5.608296	114.548252
2.850000	-5.666553	142.133451	-1.584057	-143.109089	-1.584057	-143.109089	-5.718076	111.527515
2.900000	-5.781933	140.430314	-1.545474	-145.537806	-1.545474	-145.537806	-5.838211	108.447488
2.950000	-5.907598	138.749942	-1.504839	-147.989540	-1.504839	-147.989540	-5.969181	105.303317
3.000000	-6.043990	137.095575	-1.462347	-150.465414	-1.462347	-150.465414	-6.111500	102.089739
3.050000	-6.191572	135.471051	-1.418208	-152.966489	-1.418208	-152.966489	-6.265721	98.801018
3.100000	-6.350830	133.880890	-1.372646	-155.493757	-1.372646	-155.493757	-6.432434	95.430869
3.150000	-6.522362	132.330901	-1.325889	-158.048433	-1.325889	-158.048433	-6.612364	91.971328
3.200000	-6.706671	130.827531	-1.278196	-160.631363	-1.278196	-160.631363	-6.806158	88.414448
3.250000	-6.904151	129.377657	-1.229852	-163.242963	-1.229852	-163.242963	-7.014372	84.752602
3.300000	-7.115271	127.989765	-1.181135	-165.883832	-1.181135	-165.883832	-7.237669	80.976179
3.350000	-7.340453	126.673685	-1.132339	-168.554444	-1.132339	-168.554444	-7.476703	77.074377
3.400000	-7.580042	125.440765	-1.083767	-171.255134	-1.083767	-171.255134	-7.732090	73.034997
3.450000	-7.834267	124.304052	-1.035733	-173.986087	-1.035733	-173.986087	-8.004373	68.844217
3.500000	-8.103189	123.278481	-0.988557	-176.747329	-0.988557	-176.747329	-8.293982	64.486332
3.550000	-8.386634	122.381044	-0.942568	-179.538711	-0.942568	-179.538711	-8.601166	59.943481
3.600000	-8.684105	121.630923	-0.898096	177.640097	-0.898096	177.640097	-8.925907	55.195361
3.650000	-8.994667	121.049541	-0.855475	174.789618	-0.855475	174.789618	-9.267805	50.218971
3.700000	-9.316815	120.660476	-0.815035	171.910572	-0.815035	171.910572	-9.625927	44.988429
3.750000	-9.648299	120.489142	-0.777103	169.003884	-0.777103	169.003884	-9.998601	39.474953
3.800000	-9.985674	120.568058	-0.742063	166.070141	-0.742063	166.070141	-10.382958	33.639552
3.850000	-10.324594	120.918993	-0.710171	163.111296	-0.710171	163.111296	-10.774975	27.455116
3.900000	-10.659281	121.566314	-0.681718	160.128903	-0.681718	160.128903	-11.168946	20.888459
3.950000	-10.982447	122.529434	-0.656973	157.124711	-0.656973	157.124711	-11.557155	13.909409
4.000000	-11.285273	123.819077	-0.636186	154.100652	-0.636186	154.100652	-11.929605	6.495331
4.050000	-11.557618	125.432850	-0.619578	151.058827	-0.619578	151.058827	-12.273990	-1.362690
4.100000	-11.788540	127.350756	-0.607340	148.001488	-0.607340	148.001488	-12.576077	-9.652414
4.150000	-11.967188	129.531740	-0.599632	144.931017	-0.599632	144.931017	-12.820696	-18.333151
4.200000	-12.084006	131.912674	-0.596579	141.849899	-0.596579	141.849899	-12.993415	-27.330978
4.250000	-12.132056	134.411036	-0.598267	138.760698	-0.598267	138.760698	-13.082687	-36.539379
4.300000	-12.108128	136.931657	-0.604747	135.666029	-0.604747	135.666029	-13.081963	-45.827292
4.350000	-12.013298	139.376513	-0.616027	132.568524	-0.616027	132.568524	-12.991042	-55.053949
4.400000	-11.852078	141.652647	-0.632131	129.470832	-0.632131	129.470832	-12.815283	-64.083391
4.450000	-11.633160	143.684441	-0.652987	126.375619	-0.652987	126.375619	-12.566388	-72.804169
4.500000	-11.368363	145.427154	-0.678375	123.285299	-0.678375	123.285299	-12.260519	-81.150140
4.550000	-11.067569	146.845124	-0.708254	120.202381	-0.708254	120.202381	-11.911396	-89.071904
4.600000	-10.741839	147.930877	-0.742411	117.129114	-0.742411	117.129114	-11.533849	-96.560006
4.650000	-10.400652	148.689859	-0.780642	114.067638	-0.780642	114.067638	-11.140217	-103.623250
4.700000	-10.051973	149.137410	-0.822726	111.019970	-0.822726	111.019970	-10.740481	-110.283236
4.750000	-9.702251	149.295022	-0.868422	107.988016	-0.868422	107.988016	-10.342377	-116.568613
4.800000	-9.356523	149.186238	-0.917484	104.973674	-0.917484	104.973674	-9.951665	-122.509369
4.850000	-9.018818	148.849777	-0.969485	101.977451	-0.969485	101.977451	-9.572665	-128.154033
4.900000	-8.691564	148.304870	-1.024205	99.001027	-1.024205	99.001027	-9.207819	-133.525009
4.950000	-8.376604	147.576298	-1.081334	96.045408	-1.081334	96.045408	-8.858834	-138.651298
5.000000	-8.075125	146.686836	-1.140556	93.111401	-1.140556	93.111401	-8.526666	-143.559014
5.050000	-7.787926	145.654415	-1.201573	90.200114	-1.201573	90.200114	-8.211868	-148.267608
5.100000	-7.515231	144.500721	-1.264033	87.311491	-1.264033	87.311491	-7.914355	-152.802154
5.150000	-7.257045	143.241817	-1.327622	84.445768	-1.327622	84.445768	-7.633851	-157.180526
5.200000	-7.013172	141.891809	-1.392032	81.603014	-1.392032	81.603014	-7.369900	-161.418443
5.250000	-6.783281	140.463031	-1.456964	78.783144	-1.456964	78.783144	-7.121930	-165.529744
5.300000	-6.566944	138.966229	-1.522127	75.985928	-1.522127	75.985928	-6.889296	-169.526643
5.350000	-6.363673	137.410739	-1.587242	73.211001	-1.587242	73.211001	-6.671317	-173.419962
5.400000	-6.172944	135.804661	-1.652039	70.457884	-1.652039	70.457884	-6.467296	-177.219328
5.450000	-5.994216	134.155003	-1.716264	67.725987	-1.716264	67.725987	-6.276542	179.066655
5.500000	-5.826945	132.467825	-1.779673	65.014623	-1.779673	65.014623	-6.098376	175.430255
5.550000	-5.670595	130.748357	-1.842036	62.323022	-1.842036	62.323022	-5.932145	171.864493
5.600000	-5.524643	129.001108	-1.903138	59.650338	-1.903138	59.650338	-5.777223	168.363028
5.650000	-5.388667	127.229735	-1.962752	56.995844	-1.962752	56.995844	-5.633103	164.920653
5.700000	-5.262181	125.437667	-2.020685	54.358538	-2.020685	54.358538	-5.499217	161.531894
5.750000	-5.144646	123.627995	-2.076780	51.737206	-2.076780	51.737206	-5.374953	158.191246
5.800000	-5.035635	121.803143	-2.130876	49.130789	-2.130876	49.130789	-5.259820	154.894192
5.850000	-4.934746	119.965181	-2.182820	46.538192	-2.182820	46.538192	-5.153364	151.636526
5.900000	-4.841607	118.115876	-2.232475	43.958295	-2.232475	43.958295	-5.055165	148.414307
5.950000	-4.755871	116.256728	-2.279712	41.389951	-2.279712	41.389951	-4.964836	145.223830
6.000000	-4.677219	114.389009	-2.324415	38.831996	-2.324415	38.831996	-4.882021	142.061594
6.050000	-4.605359	112.513793	-2.366476	36.283247	-2.366476	36.283247	-4.806397	138.924276
6.100000	-4.540023	110.631984	-2.405800	33.742511	-2.405800	33.742511	-4.737669	135.808713
6.150000	-4.480969	108.744339	-2.442298	31.208581	-2.442298	31.208581	-4.675572	132.711875
6.200000	-4.427980	106.851490	-2.475893	28.680244	-2.475893	28.680244	-4.619869	129.630852
6.250000	-4.380860	104.953963	-2.506513	26.156275	-2.506513	26.156275	-4.570349	126.562836
6.300000	-4.339556	103.052110	-2.534028	23.635486	-2.534028	23.635486	-4.526949	123.505266
6.350000	-4.303797	101.146389	-2.558451	21.116543	-2.558451	21.116543	-4.489384	120.455217
6.400000	-4.273456	99.237097	-2.579734	18.598204	-2.579734	18.598204	-4.457518	117.410105
6.450000	-4.248428	97.324482	-2.597838	16.079218	-2.597838	16.079218	-4.431243	114.367392
6.500000	-4.228627	95.408756	-2.612729	13.558328	-2.612729	13.558328	-4.410470	111.324577
6.550000	-4.213992	93.490105	-2.624380	11.034269	-2.624380	11.034269	-4.395138	108.279183
6.600000	-4.204476	91.568696	-2.632770	8.505765	-2.632770	8.505765	-4.385207	105.228746
6.650000	-4.200059	89.644694	-2.637885	5.971533	-2.637885	5.971533	-4.380661	102.170805
6.700000	-4.200731	87.718264	-2.639718	3.430286	-2.639718	3.430286	-4.381501	99.102902
6.750000	-4.206548	85.789569	-2.638244	0.880648	-2.638244	0.880648	-4.387797	96.022445
6.800000	-4.217497	83.858832	-2.633499	-1.678624	-2.633499	-1.678624	-4.399552	92.927030
6.850000	-4.233640	81.926281	-2.625492	-4.248857	-2.625492	-4.248857	-4.416847	89.814113
6.900000	-4.255149	79.992169	-2.614183	-6.831634	-2.614183	-6.831634	-4.439887	86.680697
6.950000	-4.282134	78.056844	-2.599594	-9.428389	-2.599594	-9.428389	-4.468811	83.523975
7.000000	-4.314632	76.120732	-2.581810	-12.040298	-2.581810	-12.040298	-4.503688	80.341525
7.050000	-4.352796	74.184321	-2.560868	-14.668776	-2.560868	-14.668776	-4.544711	77.130472
7.100000	-4.396803	72.248198	-2.536812	-17.315264	-2.536812	-17.315264	-4.592106	73.887819
7.150000	-4.446857	70.313068	-2.509692	-19.981230	-2.509692	-19.981230	-4.646134	70.610423
7.200000	-4.503242	68.379804	-2.479542	-22.668366	-2.479542	-22.668366	-4.707149	67.294621
7.250000	-4.566330	66.449516	-2.446382	-25.378649	-2.446382	-25.378649	-4.775614	63.936049
7.300000	-4.636258	64.523383	-2.410372	-28.113097	-2.410372	-28.113097	-4.851741	60.531958
7.350000	-4.713347	62.602869	-2.371603	-30.873302	-2.371603	-30.873302	-4.935955	57.078353
7.400000	-4.797952	60.689707	-2.330178	-33.660890	-2.330178	-33.660890	-5.028731	53.570944
7.450000	-4.890684	58.786326	-2.286132	-36.478469	-2.286132	-36.478469	-5.130856	50.003136
7.500000	-4.991294	56.894038	-2.239838	-39.324876	-2.239838	-39.324876	-5.242144	46.375808
7.550000	-5.101130	55.017344	-2.191130	-42.205653	-2.191130	-42.205653	-5.364280	42.675448
7.600000	-5.220252	53.158955	-2.140328	-45.120708	-2.140328	-45.120708	-5.497486	38.899807
7.650000	-5.349180	51.322914	-2.087616	-48.071804	-2.087616	-48.071804	-5.642554	35.042220
7.700000	-5.488466	49.513978	-2.033196	-51.060716	-2.033196	-51.060716	-5.800355	31.095292
7.750000	-5.638851	47.738492	-1.977261	-54.090019	-1.977261	-54.090019	-5.972054	27.048733
7.800000	-5.800799	46.002741	-1.920093	-57.160929	-1.920093	-57.160929	-6.158542	22.894499
7.850000	-5.974866	44.314401	-1.861974	-60.275057	-1.861974	-60.275057	-6.360908	18.622413
7.900000	-6.161627	42.682625	-1.803206	-63.434136	-1.803206	-63.434136	-6.580372	14.220463
7.950000	-6.361747	41.119340	-1.744112	-66.640592	-1.744112	-66.640592	-6.818430	9.672448
8.000000	-6.575604	39.636968	-1.685069	-69.895728	-1.685069	-69.895728	-7.076373	4.963053
8.050000	-6.803444	38.249688	-1.626477	-73.200708	-1.626477	-73.200708	-7.355526	0.074758
8.100000	-7.045382	36.974525	-1.568759	-76.556935	-1.568759	-76.556935	-7.657319	-5.014219
8.150000	-7.301307	35.832834	-1.512392	-79.966278	-1.512392	-79.966278	-7.983273	-10.332447
8.200000	-7.570573	34.847752	-1.457882	-83.429839	-1.457882	-83.429839	-8.334583	-15.911363
8.250000	-7.851910	34.043043	-1.405743	-86.947852	-1.405743	-86.947852	-8.711984	-21.784653
8.300000	-8.143350	33.446578	-1.356529	-90.520899	-1.356529	-90.520899	-9.115799	-27.995383
8.350000	-8.441847	33.090284	-1.310851	-94.149684	-1.310851	-94.149684	-9.545434	-34.597862
8.400000	-8.742897	33.007744	-1.269361	-97.834562	-1.269361	-97.834562	-9.998654	-41.656971
8.450000	-9.040605	33.224511	-1.232633	-101.574220	-1.232633	-101.574220	-10.470938	-49.235329
8.500000	-9.327207	33.765126	-1.201302	-105.367775	-1.201302	-105.367775	-10.954544	-57.408262
8.550000	-9.592872	34.646229	-1.176030	-109.214084	-1.176030	-109.214084	-11.436966	-66.255415
8.600000	-9.825311	35.873056	-1.157568	-113.112048	-1.157568	-113.112048	-11.898706	-75.856746
8.650000	-10.012539	37.417249	-1.146413	-117.058312	-1.146413	-117.058312	-12.315020	-86.236403
8.700000	-10.142044	39.230983	-1.143149	-121.050020	-1.143149	-121.050020	-12.654615	-97.375627
8.750000	-10.202960	41.238985	-1.148319	-125.083815	-1.148319	-125.083815	-12.883719	-109.172073
8.800000	-10.185986	43.341947	-1.162624	-129.156647	-1.162624	-129.156647	-12.969188	-121.429587
8.850000	-10.090327	45.421789	-1.186282	-133.263248	-1.186282	-133.263248	-12.897604	-133.846911
8.900000	-9.918672	47.363730	-1.219669	-137.399033	-1.219669	-137.399033	-12.670548	-146.108618
8.950000	-9.679019	49.066457	-1.263030	-141.558935	-1.263030	-141.558935	-12.308291	-157.936753
9.000000	-9.383021	50.453440	-1.316492	-145.737636	-1.316492	-145.737636	-11.842756	-169.142297
9.050000	-9.044040	51.476430	-1.380077	-149.929711	-1.380077	-149.929711	-11.308789	-179.634305
9.100000	-8.675543	52.114522	-1.453692	-154.129706	-1.453692	-154.129706	-10.737877	170.597641
9.150000	-8.289887	52.369390	-1.537120	-158.332260	-1.537120	-158.332260	-10.155067	161.512276
9.200000	-7.897487	52.255819	-1.630103	-162.532140	-1.630103	-162.532140	-9.578362	153.047906
9.250000	-7.507127	51.804658	-1.732130	-166.724431	-1.732130	-166.724431	-9.020363	145.125567
9.300000	-7.125438	51.051518	-1.842589	-170.904750	-1.842589	-170.904750	-8.488796	137.670604
9.350000	-6.757215	50.031881	-1.960804	-175.069228	-1.960804	-175.069228	-7.988007	130.618666
9.400000	-6.405828	48.780564	-2.086005	-179.214601	-2.086005	-179.214601	-7.520127	123.914039
9.450000	-6.073512	47.330345	-2.217336	176.661713	-2.217336	176.661713	-7.085832	117.509366
9.500000	-5.761636	45.711260	-2.353863	172.561558	-2.353863	172.561558	-6.684870	111.364683
9.550000	-5.470913	43.950335	-2.494587	168.485991	-2.494587	168.485991	-6.316422	105.446234
9.600000	-5.201647	42.071137	-2.638446	164.435359	-2.638446	164.435359	-5.979449	99.726156
9.650000	-4.953822	40.094793	-2.784305	160.409115	-2.784305	160.409115	-5.672780	94.180182
9.700000	-4.726971	38.040994	-2.930999	156.405446	-2.930999	156.405446	-5.394941	88.785017
9.750000	-4.520598	35.926068	-3.077329	152.421848	-3.077329	152.421848	-5.144681	83.521659
9.800000	-4.334113	33.764420	-3.222055	148.454835	-3.222055	148.454835	-4.920872	78.372908
9.850000	-4.166871	31.568845	-3.363896	144.499882	-3.363896	144.499882	-4.722549	73.322884
9.900000	-4.018199	29.350798	-3.501521	140.551343	-3.501521	140.551343	-4.548952	68.356625
9.950000	-3.887411	27.120649	-3.633551	136.602337	-3.633551	136.602337	-4.399561	63.459759
10.000000	-3.773811	24.887905	-3.758547	132.644597	-3.758547	132.644597	-4.274134	58.618219
