! freq	dB(S11)	phase(S11)	dB(S12)	phase(S12)	
!     	dB(S21)	phase(S21)	dB(S22)	phase(S22)	
!S-par simulation data
#  GHz  S  DB  R 50
0.000000	-81.970749	0.000000	-0.000692	0.000000	-0.000692	0.000000	-81.970749	0.000000
0.050000	-38.963968	-92.302174	-0.006038	-3.129390	-0.006038	-3.129390	-38.955790	-91.935016
0.100000	-33.023723	-95.812696	-0.014366	-6.214741	-0.014366	-6.214741	-33.019109	-95.157933
0.150000	-29.554253	-99.305875	-0.022048	-9.283620	-0.022048	-9.283620	-29.549110	-98.347030
0.200000	-27.098833	-102.739011	-0.029897	-12.347362	-0.029897	-12.347362	-27.093048	-101.465792
0.250000	-25.204076	-106.119990	-0.038467	-15.407357	-0.038467	-15.407357	-25.197925	-104.528987
0.300000	-23.668055	-109.460314	-0.047929	-18.463109	-0.047929	-18.463109	-23.661726	-107.550360
0.350000	-22.380810	-112.771172	-0.058207	-21.514569	-0.058207	-21.514569	-22.374405	-110.541788
0.400000	-21.277630	-116.057824	-0.069257	-24.561516	-0.069257	-24.561516	-21.271201	-113.508631
0.450000	-20.318211	-119.323250	-0.081060	-27.603481	-0.081060	-27.603481	-20.311785	-116.453733
0.500000	-19.471524	-122.573013	-0.093465	-30.640972	-0.093465	-30.640972	-19.465113	-119.382527
0.550000	-18.718990	-125.808165	-0.106455	-33.673504	-0.106455	-33.673504	-18.712600	-122.295760
0.600000	-18.044461	-129.031512	-0.119926	-36.701288	-0.119926	-36.701288	-18.038095	-125.196033
0.650000	-17.436950	-132.244383	-0.133811	-39.724164	-0.133811	-39.724164	-17.430613	-128.084392
0.700000	-16.887224	-135.448235	-0.148026	-42.742184	-0.148026	-42.742184	-16.880920	-130.962073
0.750000	-16.388416	-138.644035	-0.162491	-45.755289	-0.162491	-45.755289	-16.382154	-133.829789
0.800000	-15.934807	-141.832684	-0.177121	-48.763507	-0.177121	-48.763507	-15.928598	-136.688213
0.850000	-15.522150	-145.014823	-0.191829	-51.766798	-0.191829	-51.766798	-15.516006	-139.537709
0.900000	-15.145834	-148.191381	-0.206526	-54.765465	-0.206526	-54.765465	-15.139771	-142.379084
0.950000	-14.803016	-151.362857	-0.221127	-57.759571	-0.221127	-57.759571	-14.797047	-145.212573
1.000000	-14.491005	-154.529840	-0.235545	-60.749319	-0.235545	-60.749319	-14.485149	-148.038546
1.050000	-14.207528	-157.692909	-0.249694	-63.734967	-0.249694	-63.734967	-14.201803	-150.857354
1.100000	-13.950648	-160.852644	-0.263491	-66.716827	-0.263491	-66.716827	-13.945070	-153.669347
1.150000	-13.718711	-164.009636	-0.276854	-69.695265	-0.276854	-69.695265	-13.713300	-156.474874
1.200000	-13.510305	-167.164497	-0.289705	-72.670697	-0.289705	-72.670697	-13.505078	-159.274296
1.250000	-13.324221	-170.317863	-0.301972	-75.643591	-0.301972	-75.643591	-13.319196	-162.067983
1.300000	-13.159815	-173.470397	-0.313567	-78.614432	-0.313567	-78.614432	-13.155010	-164.856214
1.350000	-13.015829	-176.622833	-0.324441	-81.583838	-0.324441	-81.583838	-13.011260	-167.639512
1.400000	-12.891533	-179.775904	-0.334534	-84.552415	-0.334534	-84.552415	-12.887216	-170.418286
1.450000	-12.786326	177.069622	-0.343793	-87.520807	-0.343793	-87.520807	-12.782275	-173.192955
1.500000	-12.699723	173.912941	-0.352170	-90.489694	-0.352170	-90.489694	-12.695953	-175.963944
1.550000	-12.631351	170.753212	-0.359626	-93.459788	-0.359626	-93.459788	-12.627874	-178.731678
1.600000	-12.580939	167.589561	-0.366126	-96.431828	-0.366126	-96.431828	-12.577768	178.503423
1.650000	-12.548320	164.421075	-0.371643	-99.406579	-0.371643	-99.406579	-12.545466	175.740951
1.700000	-12.533422	161.246807	-0.376157	-102.384828	-0.376157	-102.384828	-12.530896	172.980515
1.750000	-12.536277	158.065770	-0.379656	-105.367378	-0.379656	-105.367378	-12.534087	170.221756
1.800000	-12.557013	154.876942	-0.382136	-108.355048	-0.382136	-108.355048	-12.555169	167.464351
1.850000	-12.595866	151.679259	-0.383598	-111.348666	-0.383598	-111.348666	-12.594376	164.708031
1.900000	-12.653379	148.471496	-0.384044	-114.349150	-0.384044	-114.349150	-12.652249	161.952599
1.950000	-12.730022	145.252460	-0.383493	-117.357366	-0.383493	-117.357366	-12.729257	159.197935
2.000000	-12.826185	142.021055	-0.381982	-120.374078	-0.381982	-120.374078	-12.825790	156.444024
2.050000	-12.942599	138.776016	-0.379548	-123.400117	-0.379548	-123.400117	-12.942574	153.690994
2.100000	-13.080147	135.516011	-0.376233	-126.436308	-0.376233	-126.436308	-13.080492	150.939135
2.150000	-13.239889	132.239625	-0.372089	-129.483461	-0.372089	-129.483461	-13.240600	148.188945
2.200000	-13.423089	128.945346	-0.367175	-132.542371	-0.367175	-132.542371	-13.424153	145.441174
2.250000	-13.631239	125.631535	-0.361559	-135.613812	-0.361559	-135.613812	-13.632640	142.696892
2.300000	-13.866111	122.296397	-0.355315	-138.698536	-0.355315	-138.698536	-13.867820	139.957566
2.350000	-14.129799	118.937939	-0.348527	-141.797263	-0.348527	-141.797263	-14.131773	137.225170
2.400000	-14.424794	115.553901	-0.341283	-144.910685	-0.341283	-144.910685	-14.426968	134.502323
2.450000	-14.754066	112.141680	-0.333683	-148.039457	-0.333683	-148.039457	-14.756347	131.792486
2.500000	-15.121182	108.698206	-0.325829	-151.184192	-0.325829	-151.184192	-15.123432	129.100218
2.550000	-15.531021	105.218909	-0.317832	-154.345834	-0.317832	-154.345834	-15.533036	126.432250
2.600000	-15.988353	101.699804	-0.309814	-157.524554	-0.309814	-157.524554	-15.989836	123.796414
2.650000	-16.499719	98.134932	-0.301900	-160.720820	-0.301900	-160.720820	-16.500233	121.203798
2.700000	-17.073333	94.516457	-0.294218	-163.935044	-0.294218	-163.935044	-17.072223	118.669605
2.750000	-17.719686	90.833728	-0.286899	-167.167580	-0.286899	-167.167580	-17.715954	116.215096
2.800000	-18.452458	87.071758	-0.280080	-170.418718	-0.280080	-170.418718	-18.444541	113.870752
2.850000	-19.289939	83.208595	-0.273902	-173.688683	-0.273902	-173.688683	-19.275317	111.681632
2.900000	-20.257343	79.210578	-0.268506	-176.977634	-0.268506	-176.977634	-20.231782	109.716953
2.950000	-21.390772	75.023158	-0.264038	179.714343	-0.264038	179.714343	-21.346773	108.088249
3.000000	-22.744475	70.551615	-0.260640	176.387232	-0.260640	176.387232	-22.667808	106.986416
3.050000	-24.405278	65.616018	-0.258458	173.041091	-0.258458	173.041091	-24.266306	106.764370
3.100000	-26.524502	59.829935	-0.257635	169.676054	-0.257635	169.676054	-26.253007	108.142494
3.150000	-29.399329	52.148835	-0.258330	166.292127	-0.258330	166.292127	-28.792781	112.869085
3.200000	-33.698519	38.666258	-0.260685	162.889605	-0.260685	162.889605	-31.997757	125.761707
3.250000	-40.133452	-4.637784	-0.264817	159.469052	-0.264817	159.469052	-34.737586	156.961618
3.300000	-37.441491	-82.339188	-0.270853	156.030898	-0.270853	156.030898	-33.413269	-164.191448
3.350000	-31.536711	-109.319559	-0.278852	152.576125	-0.278852	152.576125	-29.944427	-143.394686
3.400000	-27.691921	-119.722213	-0.289056	149.104263	-0.289056	149.104263	-26.876329	-135.791897
3.450000	-24.955359	-126.609530	-0.301503	145.616499	-0.301503	145.616499	-24.450722	-133.208234
3.500000	-22.837857	-132.157450	-0.316287	142.113520	-0.316287	142.113520	-22.487282	-132.916105
3.550000	-21.112291	-137.064601	-0.333491	138.596063	-0.333491	138.596063	-20.849782	-133.827920
3.600000	-19.657075	-141.619736	-0.353188	135.064913	-0.353188	135.064913	-19.450160	-135.444894
3.650000	-18.399981	-145.962862	-0.375436	131.520891	-0.375436	131.520891	-18.230796	-137.509956
3.700000	-17.294730	-150.169639	-0.400280	127.964853	-0.400280	127.964853	-17.152601	-139.878029
3.750000	-16.309932	-154.284250	-0.427752	124.397678	-0.427752	124.397678	-16.188065	-142.461216
3.800000	-15.423325	-158.333339	-0.457905	120.820127	-0.457905	120.820127	-15.317173	-145.204861
3.850000	-14.618616	-162.335530	-0.490703	117.233265	-0.490703	117.233265	-14.525023	-148.068603
3.900000	-13.883472	-166.301978	-0.526166	113.637885	-0.526166	113.637885	-13.800168	-151.027427
3.950000	-13.208236	-170.241491	-0.564187	110.035124	-0.564187	110.035124	-13.133548	-154.059933
4.000000	-12.585360	-174.159008	-0.604758	106.425718	-0.604758	106.425718	-12.518021	-157.153509
4.050000	-12.008750	-178.058385	-0.647814	102.810518	-0.647814	102.810518	-11.947785	-160.297400
4.100000	-11.473428	178.057665	-0.693272	99.190332	-0.693272	99.190332	-11.418072	-163.483255
4.150000	-10.975272	174.187230	-0.741033	95.565927	-0.741033	95.565927	-10.924918	-166.704475
4.200000	-10.510831	170.328961	-0.790979	91.938009	-0.790979	91.938009	-10.464988	-169.955779
4.250000	-10.077184	166.481909	-0.842975	88.307222	-0.842975	88.307222	-10.035453	-173.232895
4.300000	-9.671937	162.645519	-0.896884	84.674109	-0.896884	84.674109	-9.633987	-176.532569
4.350000	-9.292904	158.819237	-0.952522	81.039173	-0.952522	81.039173	-9.258460	-179.851782
4.400000	-8.938184	155.002639	-1.009689	77.402804	-1.009689	77.402804	-8.907011	176.811880
4.450000	-8.606163	151.195426	-1.068177	73.765270	-1.068177	73.765270	-8.578061	173.460265
4.500000	-8.295432	147.397316	-1.127759	70.126718	-1.127759	70.126718	-8.270228	170.094840
4.550000	-8.004762	143.608012	-1.188189	66.487161	-1.188189	66.487161	-7.982302	166.716729
4.600000	-7.733079	139.827174	-1.249200	62.846461	-1.249200	62.846461	-7.713226	163.326750
4.650000	-7.479446	136.054390	-1.310508	59.204318	-1.310508	59.204318	-7.462077	159.925431
4.700000	-7.243056	132.289153	-1.371806	55.560248	-1.371806	55.560248	-7.228056	156.513029
4.750000	-7.023214	128.530842	-1.432766	51.913567	-1.432766	51.913567	-7.010477	153.089538
4.800000	-6.819339	124.778699	-1.493039	48.263366	-1.493039	48.263366	-6.808763	149.654688
4.850000	-6.630956	121.031805	-1.552253	44.608486	-1.552253	44.608486	-6.622442	146.207945
4.900000	-6.457693	117.289064	-1.610013	40.947493	-1.610013	40.947493	-6.451146	142.748506
4.950000	-6.299309	113.549176	-1.665893	37.278624	-1.665893	37.278624	-6.294634	139.275263
5.000000	-6.155833	109.810595	-1.719401	33.599594	-1.719401	33.599594	-6.152934	135.786587
5.050000	-6.027059	106.071477	-1.770097	29.908012	-1.770097	29.908012	-6.025838	132.280974
5.100000	-5.913096	102.329730	-1.817478	26.200906	-1.817478	26.200906	-5.913454	128.756358
5.150000	-5.814204	98.582935	-1.861009	22.474785	-1.861009	22.474785	-5.816041	125.210291
5.200000	-5.730818	94.828315	-1.900127	18.725558	-1.900127	18.725558	-5.734027	121.639907
5.250000	-5.663573	91.062685	-1.934234	14.948438	-1.934234	14.948438	-5.668046	118.041874
5.300000	-5.613347	87.282416	-1.962701	11.137833	-1.962701	11.137833	-5.618972	114.412349
5.350000	-5.581314	83.483386	-1.984870	7.287201	-1.984870	7.287201	-5.587973	110.746914
5.400000	-5.569008	79.660945	-2.000052	3.388884	-2.000052	3.388884	-5.576580	107.040526
5.450000	-5.578420	75.809883	-2.007536	-0.566098	-2.007536	-0.566098	-5.586779	103.287459
5.500000	-5.612120	71.924433	-2.006597	-4.588301	-2.006597	-4.588301	-5.621138	99.481267
5.550000	-5.673427	67.998318	-1.996511	-8.690160	-1.996511	-8.690160	-5.682973	95.614776
5.600000	-5.766641	64.024900	-1.976579	-12.886363	-1.976579	-12.886363	-5.776588	91.680146
5.650000	-5.897734	59.996977	-1.946069	-17.195436	-1.946069	-17.195436	-5.907963	87.668345
5.700000	-6.074287	55.908353	-1.904453	-21.638620	-1.904453	-21.638620	-6.084701	83.570869
5.750000	-6.305276	51.756087	-1.851647	-26.237627	-1.851647	-26.237627	-6.315825	79.382123
5.800000	-6.605021	47.539213	-1.787479	-31.024586	-1.787479	-31.024586	-6.615744	75.096047
5.850000	-6.991667	43.267197	-1.712580	-36.033157	-1.712580	-36.033157	-7.002783	70.715430
5.900000	-7.491210	38.966921	-1.628300	-41.304189	-1.628300	-41.304189	-7.503299	66.256539
5.950000	-8.141164	34.701208	-1.537167	-46.885221	-1.537167	-46.885221	-8.155569	61.765013
6.000000	-8.998437	30.610326	-1.443437	-52.833023	-1.443437	-52.833023	-9.018262	57.350853
6.050000	-10.149169	27.004382	-1.353894	-59.206721	-1.353894	-59.206721	-10.181914	53.269698
6.100000	-11.730436	24.606890	-1.278582	-66.067385	-1.278582	-66.067385	-11.796227	50.138637
6.150000	-13.956696	25.307184	-1.231770	-73.472410	-1.231770	-73.472410	-14.119570	49.640028
6.200000	-17.010657	34.733630	-1.232667	-81.463047	-1.232667	-81.463047	-17.518784	57.321813
6.250000	-19.406535	65.478939	-1.305260	-90.046711	-1.305260	-90.046711	-20.827454	90.268682
6.300000	-16.843608	100.097321	-1.477688	-99.181663	-1.477688	-99.181663	-17.917445	131.681161
6.350000	-12.820184	111.025366	-1.777052	-108.750036	-1.777052	-108.750036	-13.363648	142.738904
6.400000	-9.684280	110.399984	-2.224973	-118.563703	-2.224973	-118.563703	-10.017127	141.325538
6.450000	-7.366860	105.462262	-2.831806	-128.383467	-2.831806	-128.383467	-7.603855	135.745131
6.500000	-5.648341	98.814971	-3.593784	-137.960670	-3.593784	-137.960670	-5.833741	128.603858
6.550000	-4.370741	91.589051	-4.494184	-147.083425	-4.494184	-147.083425	-4.524781	120.980005
6.600000	-3.420818	84.347658	-5.508411	-155.607945	-5.508411	-155.607945	-3.554051	113.400678
6.650000	-2.714845	77.377548	-6.609679	-163.460794	-6.609679	-163.460794	-2.833347	106.130741
6.700000	-2.188235	70.806447	-7.774437	-170.635866	-7.774437	-170.635866	-2.295753	99.284142
6.750000	-1.794680	64.680564	-8.982128	-177.154551	-8.982128	-177.154551	-1.893683	92.898677
6.800000	-1.498080	58.989596	-10.219444	176.928562	-10.219444	176.928562	-1.590247	86.958269
6.850000	-1.272815	53.703106	-11.477005	171.557515	-11.477005	171.557515	-1.359338	81.428726
6.900000	-1.100245	48.781336	-12.749191	166.677952	-12.749191	166.677952	-1.181994	76.267719
6.950000	-0.966831	44.182888	-14.033301	162.241733	-14.033301	162.241733	-1.044456	71.432062
7.000000	-0.862725	39.868579	-15.328842	158.209155	-15.328842	158.209155	-0.936720	66.881325
7.050000	-0.780736	35.803094	-16.637003	154.549891	-16.637003	154.549891	-0.851485	62.579323
7.100000	-0.715645	31.956381	-17.959379	151.245036	-17.959379	151.245036	-0.783450	58.495398
7.150000	-0.663554	28.302147	-19.298613	148.285868	-19.298613	148.285868	-0.728654	54.602840
7.200000	-0.621432	24.815525	-20.660921	145.670012	-20.660921	145.670012	-0.684019	50.876533
7.250000	-0.587273	21.480327	-22.046734	143.419909	-22.046734	143.419909	-0.647506	47.300100
7.300000	-0.559119	18.273525	-23.470851	141.549168	-23.470851	141.549168	-0.617121	43.850510
7.350000	-0.535928	15.184816	-24.934273	140.112354	-24.934273	140.112354	-0.591808	40.517413
7.400000	-0.516574	12.197766	-26.453313	139.162337	-26.453313	139.162337	-0.570418	37.284469
7.450000	-0.500651	9.311491	-28.012971	138.859708	-28.012971	138.859708	-0.552538	34.150717
7.500000	-0.487138	6.503155	-29.655077	139.245063	-29.655077	139.245063	-0.537128	31.093635
7.550000	-0.476077	3.782060	-31.327594	140.730010	-31.327594	140.730010	-0.524232	28.122359
7.600000	-0.466672	1.125314	-33.077690	143.383752	-33.077690	143.383752	-0.513037	25.214389
7.650000	-0.458909	-1.462372	-34.828133	147.819728	-34.828133	147.819728	-0.503532	22.374399
7.700000	-0.452420	-3.992334	-36.539408	154.283752	-36.539408	154.283752	-0.495340	19.591294
7.750000	-0.447074	-6.466965	-38.064970	163.101250	-38.064970	163.101250	-0.488327	16.862790
7.800000	-0.442744	-8.889387	-39.208338	173.973400	-39.208338	173.973400	-0.482367	14.185906
7.850000	-0.439241	-11.267064	-39.872445	-174.392836	-39.872445	-174.392836	-0.477266	11.553358
7.900000	-0.436580	-13.597205	-39.990334	-163.670302	-39.990334	-163.670302	-0.473042	8.968041
7.950000	-0.434555	-15.890193	-39.791633	-154.774398	-39.791633	-154.774398	-0.469483	6.419746
8.000000	-0.433231	-18.141164	-39.411251	-148.358885	-39.411251	-148.358885	-0.466658	3.913467
8.050000	-0.432449	-20.359098	-39.003686	-143.772963	-39.003686	-143.772963	-0.464405	1.440346
8.100000	-0.432323	-22.536760	-38.645397	-141.009709	-38.645397	-141.009709	-0.462846	-0.992175
8.150000	-0.432604	-24.689633	-38.352111	-139.107269	-38.352111	-139.107269	-0.461719	-3.399569
8.200000	-0.433301	-26.817233	-38.126484	-138.006795	-38.126484	-138.006795	-0.461037	-5.781299
8.250000	-0.434571	-28.910741	-38.005861	-137.736391	-38.005861	-137.736391	-0.460968	-8.128215
8.300000	-0.436285	-30.978990	-37.971498	-137.931956	-37.971498	-137.931956	-0.461376	-10.449149
8.350000	-0.438351	-33.027749	-38.005554	-138.451922	-38.005554	-138.451922	-0.462164	-12.749962
8.400000	-0.440864	-35.052658	-38.128566	-139.317329	-38.128566	-139.317329	-0.463437	-15.026029
8.450000	-0.443787	-37.057011	-38.335362	-140.445678	-38.335362	-140.445678	-0.465154	-17.280634
8.500000	-0.447182	-39.039337	-38.642322	-141.836424	-38.642322	-141.836424	-0.467385	-19.512074
8.550000	-0.450991	-41.004011	-39.044380	-143.439265	-39.044380	-143.439265	-0.470068	-21.724800
8.600000	-0.455210	-42.952753	-39.549979	-145.251899	-39.549979	-145.251899	-0.473198	-23.920516
8.650000	-0.459843	-44.886863	-40.174249	-147.292909	-40.174249	-147.292909	-0.476781	-26.100490
8.700000	-0.464897	-46.807638	-40.939401	-149.603130	-40.939401	-149.603130	-0.480825	-28.265997
8.750000	-0.470383	-48.716384	-41.878400	-152.257459	-41.878400	-152.257459	-0.485340	-30.418328
8.800000	-0.476311	-50.614420	-43.041662	-155.385100	-43.041662	-155.385100	-0.490339	-32.558796
8.850000	-0.482744	-52.502347	-44.521430	-159.340187	-44.521430	-159.340187	-0.495889	-34.687895
8.900000	-0.489701	-54.382130	-46.454389	-164.939237	-46.454389	-164.939237	-0.502009	-36.807626
8.950000	-0.497164	-56.256040	-49.057475	-174.167868	-49.057475	-174.167868	-0.508679	-38.920392
9.000000	-0.505159	-58.125606	-52.518556	165.775000	-52.518556	165.775000	-0.515926	-41.027763
9.050000	-0.513717	-59.992434	-55.122954	125.802775	-55.122954	125.802775	-0.523782	-43.131399
9.100000	-0.522873	-61.858219	-53.431984	77.038289	-53.431984	77.038289	-0.532282	-45.233057
9.150000	-0.532666	-63.724760	-49.114105	50.588396	-49.114105	50.588396	-0.541469	-47.334613
9.200000	-0.543168	-65.594155	-45.621126	39.549312	-45.621126	39.549312	-0.551416	-49.438229
9.250000	-0.554540	-67.469743	-42.887424	33.259349	-42.887424	33.259349	-0.562292	-51.547302
9.300000	-0.566746	-69.353496	-40.669929	28.586738	-40.669929	28.586738	-0.574057	-53.664046
9.350000	-0.579870	-71.248038	-38.792311	24.804510	-38.792311	24.804510	-0.586797	-55.791222
9.400000	-0.594007	-73.156257	-37.153159	21.532383	-37.153159	21.532383	-0.600608	-57.931870
9.450000	-0.609270	-75.081343	-35.689082	18.567360	-35.689082	18.567360	-0.615608	-60.089348
9.500000	-0.625792	-77.026837	-34.357976	15.792921	-34.357976	15.792921	-0.631931	-62.267377
9.550000	-0.643729	-78.996684	-33.130483	13.137125	-33.130483	13.137125	-0.649738	-64.470091
9.600000	-0.663557	-81.000875	-31.973138	10.556750	-31.973138	10.556750	-0.669518	-66.707821
9.650000	-0.685388	-83.042596	-30.879759	8.005405	-30.879759	8.005405	-0.691383	-68.983956
9.700000	-0.709482	-85.127227	-29.840188	5.458664	-29.840188	5.458664	-0.715590	-71.304078
9.750000	-0.735824	-87.254312	-28.854182	2.901652	-28.854182	2.901652	-0.742115	-73.667745
9.800000	-0.765677	-89.447925	-27.892277	0.309275	-27.892277	0.309275	-0.772246	-76.099636
9.850000	-0.799350	-91.712471	-26.957248	-2.334360	-26.957248	-2.334360	-0.806274	-78.604165
9.900000	-0.837482	-94.057642	-26.046018	-5.044706	-26.046018	-5.044706	-0.844823	-81.191054
9.950000	-0.881601	-96.507720	-25.146502	-7.848304	-25.146502	-7.848304	-0.889394	-83.884728
10.000000	-0.932067	-99.063958	-24.266491	-10.749901	-24.266491	-10.749901	-0.940300	-86.685974
