! freq	dB(S11)	phase(S11)	dB(S12)	phase(S12)	
!     	dB(S21)	phase(S21)	dB(S22)	phase(S22)	
!S-par simulation data
#  GHz  S  DB  R 50
0.000000	-0.000000	0.000000	-326.341465	0.000000	-326.341465	0.000000	-0.000000	0.000000
0.050000	-0.000809	-1.356855	-101.730168	88.937030	-101.730168	88.937030	-0.000807	-1.356882
0.100000	-0.002835	-2.708618	-95.744963	87.486935	-95.744963	87.486935	-0.002832	-2.708720
0.150000	-0.005353	-4.053960	-92.276204	86.135420	-92.276204	86.135420	-0.005355	-4.054174
0.200000	-0.007836	-5.394236	-89.854862	84.826872	-89.854862	84.826872	-0.007847	-5.394564
0.250000	-0.010113	-6.731794	-88.011089	83.550714	-88.011089	83.550714	-0.010133	-6.732224
0.300000	-0.012149	-8.067681	-86.542833	82.311254	-86.542833	82.311254	-0.012177	-8.068199
0.350000	-0.013981	-9.402565	-85.340888	81.114091	-85.340888	81.114091	-0.014014	-9.403154
0.400000	-0.015658	-10.736685	-84.341213	79.967305	-84.341213	79.967305	-0.015693	-10.737337
0.450000	-0.017220	-12.069982	-83.508199	78.886365	-83.508199	78.886365	-0.017254	-12.070689
0.500000	-0.018716	-13.402420	-82.807422	77.876743	-82.807422	77.876743	-0.018748	-13.403178
0.550000	-0.020173	-14.733852	-82.219506	76.951140	-82.219506	76.951140	-0.020201	-14.734658
0.600000	-0.021610	-16.064120	-81.730593	76.124576	-81.730593	76.124576	-0.021634	-16.064975
0.650000	-0.023041	-17.393069	-81.330620	75.414962	-81.330620	75.414962	-0.023060	-17.393972
0.700000	-0.024477	-18.720549	-81.012227	74.843828	-81.012227	74.843828	-0.024491	-18.721503
0.750000	-0.025926	-20.046314	-80.774153	74.449425	-80.774153	74.449425	-0.025935	-20.047321
0.800000	-0.027392	-21.370224	-80.611979	74.268700	-80.611979	74.268700	-0.027397	-21.371287
0.850000	-0.028879	-22.692189	-80.520844	74.343284	-80.520844	74.343284	-0.028879	-22.693310
0.900000	-0.030385	-24.012240	-80.493290	74.704457	-80.493290	74.704457	-0.030383	-24.013421
0.950000	-0.031914	-25.330156	-80.530525	75.433342	-80.530525	75.433342	-0.031908	-25.331398
1.000000	-0.033463	-26.645832	-80.628841	76.613277	-80.628841	76.613277	-0.033455	-26.647138
1.050000	-0.035033	-27.959170	-80.782354	78.347182	-80.782354	78.347182	-0.035023	-27.960541
1.100000	-0.036621	-29.270079	-80.981142	80.759077	-80.981142	80.759077	-0.036610	-29.271515
1.150000	-0.038226	-30.578471	-81.208531	83.991145	-81.208531	83.991145	-0.038214	-30.579974
1.200000	-0.039846	-31.884266	-81.437512	88.190674	-81.437512	88.190674	-0.039834	-31.885835
1.250000	-0.041479	-33.187385	-81.627036	93.478041	-81.627036	93.478041	-0.041467	-33.189020
1.300000	-0.043123	-34.487633	-81.713337	99.927983	-81.713337	99.927983	-0.043112	-34.489334
1.350000	-0.044776	-35.785059	-81.632075	107.326455	-81.632075	107.326455	-0.044766	-35.786824
1.400000	-0.046434	-37.079598	-81.327443	115.279449	-81.327443	115.279449	-0.046426	-37.081426
1.450000	-0.048098	-38.371190	-80.777012	123.232166	-80.777012	123.232166	-0.048092	-38.373080
1.500000	-0.049763	-39.659778	-80.002025	130.637955	-80.002025	130.637955	-0.049759	-39.661728
1.550000	-0.051430	-40.945309	-79.056055	137.115742	-79.056055	137.115742	-0.051428	-40.947317
1.600000	-0.053096	-42.227732	-78.002504	142.501156	-78.002504	142.501156	-0.053096	-42.229796
1.650000	-0.054759	-43.507000	-76.896900	146.802814	-76.896900	146.802814	-0.054763	-43.509120
1.700000	-0.056419	-44.783069	-75.779843	150.127152	-75.779843	150.127152	-0.056425	-44.785242
1.750000	-0.058075	-46.055897	-74.677534	152.616657	-74.677534	152.616657	-0.058083	-46.058123
1.800000	-0.059725	-47.325448	-73.605213	154.413566	-73.605213	154.413566	-0.059735	-47.327725
1.850000	-0.061369	-48.591683	-72.570750	155.643765	-72.570750	155.643765	-0.061381	-48.594011
1.900000	-0.063006	-49.854572	-71.577416	156.412323	-71.577416	156.412323	-0.063020	-49.856949
1.950000	-0.064636	-51.114083	-70.625762	156.804431	-70.625762	156.804431	-0.064652	-51.116508
2.000000	-0.066259	-52.370187	-69.714812	156.888259	-69.714812	156.888259	-0.066276	-52.372662
2.050000	-0.067873	-53.622860	-68.842793	156.718137	-68.842793	156.718137	-0.067891	-53.625383
2.100000	-0.069480	-54.872077	-68.007559	156.337413	-68.007559	156.337413	-0.069499	-54.874650
2.150000	-0.071080	-56.117818	-67.206848	155.780813	-67.206848	155.780813	-0.071099	-56.120441
2.200000	-0.072672	-57.360063	-66.438418	155.076319	-66.438418	155.076319	-0.072692	-57.362737
2.250000	-0.074257	-58.598795	-65.700126	154.246625	-65.700126	154.246625	-0.074277	-58.601521
2.300000	-0.075836	-59.834001	-64.989961	153.310271	-64.989961	153.310271	-0.075856	-59.836780
2.350000	-0.077409	-61.065667	-64.306058	152.282507	-64.306058	152.282507	-0.077429	-61.068501
2.400000	-0.078978	-62.293781	-63.646703	151.175968	-63.646703	151.175968	-0.078996	-62.296672
2.450000	-0.080542	-63.518337	-63.010323	150.001192	-63.010323	150.001192	-0.080559	-63.521286
2.500000	-0.082102	-64.739326	-62.395482	148.767029	-62.395482	148.767029	-0.082119	-64.742335
2.550000	-0.083660	-65.956588	-61.799979	147.478993	-61.799979	147.478993	-0.083676	-65.959659
2.600000	-0.085217	-67.170276	-61.223619	146.145884	-61.223619	146.145884	-0.085232	-67.173411
2.650000	-0.086773	-68.380388	-60.665286	144.773026	-60.665286	144.773026	-0.086787	-68.383590
2.700000	-0.088331	-69.586926	-60.123962	143.365008	-60.123962	143.365008	-0.088344	-69.590196
2.750000	-0.089890	-70.789891	-59.598713	141.925798	-59.598713	141.925798	-0.089902	-70.793231
2.800000	-0.091453	-71.989289	-59.088684	140.458849	-59.088684	140.458849	-0.091463	-71.992701
2.850000	-0.093019	-73.185125	-58.593087	138.967174	-58.593087	138.967174	-0.093029	-73.188611
2.900000	-0.094592	-74.377408	-58.111195	137.453419	-58.111195	137.453419	-0.094601	-74.380968
2.950000	-0.096171	-75.566146	-57.642340	135.919911	-57.642340	135.919911	-0.096180	-75.569782
3.000000	-0.097758	-76.751351	-57.185902	134.368709	-57.185902	134.368709	-0.097767	-76.755065
3.050000	-0.099355	-77.933036	-56.741308	132.801641	-56.741308	132.801641	-0.099363	-77.936828
3.100000	-0.100962	-79.111215	-56.308024	131.220333	-56.308024	131.220333	-0.100970	-79.115086
3.150000	-0.102582	-80.285904	-55.885556	129.626239	-55.885556	129.626239	-0.102589	-80.289855
3.200000	-0.104214	-81.457121	-55.473443	128.020663	-55.473443	128.020663	-0.104222	-81.461152
3.250000	-0.105860	-82.624885	-55.071254	126.404776	-55.071254	126.404776	-0.105869	-82.628997
3.300000	-0.107522	-83.789218	-54.678587	124.779636	-54.678587	124.779636	-0.107531	-83.793410
3.350000	-0.109201	-84.950141	-54.295065	123.146201	-54.295065	123.146201	-0.109210	-84.954413
3.400000	-0.110897	-86.107678	-53.920335	121.505336	-53.920335	121.505336	-0.110908	-86.112031
3.450000	-0.112612	-87.261856	-53.554065	119.857832	-53.554065	119.857832	-0.112624	-87.266288
3.500000	-0.114347	-88.412700	-53.195943	118.204409	-53.195943	118.204409	-0.114360	-88.417211
3.550000	-0.116103	-89.560240	-52.845675	116.545723	-52.845675	116.545723	-0.116118	-89.564829
3.600000	-0.117881	-90.704506	-52.502983	114.882377	-52.502983	114.882377	-0.117897	-90.709171
3.650000	-0.119683	-91.845528	-52.167606	113.214923	-52.167606	113.214923	-0.119700	-91.850270
3.700000	-0.121508	-92.983340	-51.839296	111.543871	-51.839296	111.543871	-0.121526	-92.988157
3.750000	-0.123358	-94.117977	-51.517817	109.869689	-51.517817	109.869689	-0.123378	-94.122868
3.800000	-0.125235	-95.249339	-51.202740	108.192709	-51.202740	108.192709	-0.125256	-95.254302
3.850000	-0.127138	-96.377601	-50.894081	106.513464	-50.894081	106.513464	-0.127161	-96.382636
3.900000	-0.129069	-97.502803	-50.591639	104.832319	-50.591639	104.832319	-0.129093	-97.507908
3.950000	-0.131027	-98.624984	-50.295220	103.149612	-50.295220	103.149612	-0.131053	-98.630159
4.000000	-0.133015	-99.744187	-50.004640	101.465660	-50.004640	101.465660	-0.133042	-99.749430
4.050000	-0.135032	-100.860453	-49.719724	99.780753	-49.719724	99.780753	-0.135060	-100.865764
4.100000	-0.137079	-101.973828	-49.440304	98.095163	-49.440304	98.095163	-0.137108	-101.979206
4.150000	-0.139156	-103.084357	-49.166222	96.409143	-49.166222	96.409143	-0.139186	-103.089801
4.200000	-0.141265	-104.192087	-48.897322	94.722927	-48.897322	94.722927	-0.141295	-104.197596
4.250000	-0.143405	-105.297065	-48.633460	93.036733	-48.633460	93.036733	-0.143436	-105.302639
4.300000	-0.145577	-106.399342	-48.374495	91.350764	-48.374495	91.350764	-0.145608	-106.404980
4.350000	-0.147781	-107.498968	-48.120292	89.665208	-48.120292	89.665208	-0.147813	-107.504670
4.400000	-0.150018	-108.595995	-47.870722	87.980242	-47.870722	87.980242	-0.150050	-108.601761
4.450000	-0.152288	-109.690476	-47.625662	86.296026	-47.625662	86.296026	-0.152320	-109.696306
4.500000	-0.154592	-110.782465	-47.384992	84.612713	-47.384992	84.612713	-0.154623	-110.788360
4.550000	-0.156929	-111.872019	-47.148597	82.930441	-47.148597	82.930441	-0.156959	-111.877979
4.600000	-0.159300	-112.959194	-46.916369	81.249341	-46.916369	81.249341	-0.159330	-112.965219
4.650000	-0.161706	-114.044048	-46.688200	79.569531	-46.688200	79.569531	-0.161734	-114.050138
4.700000	-0.164145	-115.126639	-46.463989	77.891123	-46.463989	77.891123	-0.164172	-115.132797
4.750000	-0.166619	-116.207029	-46.243639	76.214218	-46.243639	76.214218	-0.166645	-116.213255
4.800000	-0.169128	-117.285279	-46.027053	74.538908	-46.027053	74.538908	-0.169152	-117.291573
4.850000	-0.171671	-118.361451	-45.814142	72.865281	-45.814142	72.865281	-0.171694	-118.367815
4.900000	-0.174249	-119.435608	-45.604818	71.193413	-45.604818	71.193413	-0.174271	-119.442044
4.950000	-0.176863	-120.507816	-45.398996	69.523377	-45.398996	69.523377	-0.176882	-120.514324
5.000000	-0.179511	-121.578140	-45.196594	67.855238	-45.196594	67.855238	-0.179529	-121.584721
5.050000	-0.182196	-122.646570	-44.997482	66.189142	-44.997482	66.189142	-0.182212	-122.653227
5.100000	-0.184916	-123.713257	-44.801642	64.525058	-44.801642	64.525058	-0.184930	-123.719991
5.150000	-0.187672	-124.778269	-44.609002	62.863035	-44.609002	62.863035	-0.187684	-124.785082
5.200000	-0.190463	-125.841676	-44.419491	61.203115	-44.419491	61.203115	-0.190473	-125.848569
5.250000	-0.193289	-126.903548	-44.233040	59.545337	-44.233040	59.545337	-0.193298	-126.910524
5.300000	-0.196151	-127.963958	-44.049585	57.889733	-44.049585	57.889733	-0.196158	-127.971018
5.350000	-0.199048	-129.022978	-43.869062	56.236336	-43.869062	56.236336	-0.199055	-129.030123
5.400000	-0.201982	-130.080681	-43.691411	54.585171	-43.691411	54.585171	-0.201986	-130.087912
5.450000	-0.204951	-131.137141	-43.516572	52.936263	-43.516572	52.936263	-0.204954	-131.144461
5.500000	-0.207956	-132.192434	-43.344491	51.289634	-43.344491	51.289634	-0.207958	-132.199844
5.550000	-0.210997	-133.246636	-43.175111	49.645303	-43.175111	49.645303	-0.210998	-133.254137
5.600000	-0.214074	-134.299822	-43.008383	48.003287	-43.008383	48.003287	-0.214075	-134.307416
5.650000	-0.217188	-135.352071	-42.844255	46.363604	-42.844255	46.363604	-0.217188	-135.359760
5.700000	-0.220338	-136.403462	-42.682680	44.726267	-42.682680	44.726267	-0.220338	-136.411245
5.750000	-0.223525	-137.454072	-42.523611	43.091291	-42.523611	43.091291	-0.223525	-137.461952
5.800000	-0.226749	-138.503982	-42.367005	41.458690	-42.367005	41.458690	-0.226749	-138.511960
5.850000	-0.230009	-139.553272	-42.212818	39.828479	-42.212818	39.828479	-0.230010	-139.561349
5.900000	-0.233308	-140.602024	-42.061011	38.200670	-42.061011	38.200670	-0.233309	-140.610201
5.950000	-0.236644	-141.650319	-41.911543	36.575278	-41.911543	36.575278	-0.236646	-141.658597
6.000000	-0.240018	-142.698240	-41.764378	34.952321	-41.764378	34.952321	-0.240021	-142.706620
6.050000	-0.243431	-143.745870	-41.619480	33.331814	-41.619480	33.331814	-0.243435	-143.754353
6.100000	-0.246882	-144.793293	-41.476814	31.713776	-41.476814	31.713776	-0.246887	-144.801879
6.150000	-0.250372	-145.840594	-41.336347	30.098228	-41.336347	30.098228	-0.250379	-145.849283
6.200000	-0.253902	-146.887856	-41.198048	28.485193	-41.198048	28.485193	-0.253911	-146.896651
6.250000	-0.257472	-147.935167	-41.061886	26.874696	-41.061886	26.874696	-0.257483	-147.944067
6.300000	-0.261084	-148.982622	-40.927834	25.266879	-40.927834	25.266879	-0.261097	-148.991628
6.350000	-0.264737	-150.030306	-40.795867	23.661664	-40.795867	23.661664	-0.264753	-150.039419
6.400000	-0.268432	-151.078307	-40.665956	22.059085	-40.665956	22.059085	-0.268450	-151.087528
6.450000	-0.272168	-152.126713	-40.538077	20.459181	-40.538077	20.459181	-0.272189	-152.136042
6.500000	-0.275948	-153.175612	-40.412204	18.861994	-40.412204	18.861994	-0.275971	-153.185050
6.550000	-0.279771	-154.225094	-40.288314	17.267572	-40.288314	17.267572	-0.279796	-154.234642
6.600000	-0.283637	-155.275249	-40.166384	15.675964	-40.166384	15.675964	-0.283666	-155.284908
6.650000	-0.287549	-156.326167	-40.046392	14.087226	-40.046392	14.087226	-0.287580	-156.335938
6.700000	-0.291506	-157.377939	-39.928317	12.501417	-39.928317	12.501417	-0.291540	-157.387823
6.750000	-0.295509	-158.430657	-39.812137	10.918600	-39.812137	10.918600	-0.295546	-158.440655
6.800000	-0.299559	-159.484413	-39.697833	9.338842	-39.697833	9.338842	-0.299599	-159.494527
6.850000	-0.303657	-160.539300	-39.585385	7.762217	-39.585385	7.762217	-0.303699	-160.549531
6.900000	-0.307803	-161.595412	-39.474774	6.188801	-39.474774	6.188801	-0.307848	-161.605761
6.950000	-0.311999	-162.652843	-39.365981	4.618675	-39.365981	4.618675	-0.312046	-162.663312
7.000000	-0.316245	-163.711687	-39.258988	3.051923	-39.258988	3.051923	-0.316295	-163.722280
7.050000	-0.320542	-164.772042	-39.153777	1.488634	-39.153777	1.488634	-0.320594	-164.782759
7.100000	-0.324891	-165.834002	-39.050330	-0.071098	-39.050330	-0.071098	-0.324946	-165.844847
7.150000	-0.329293	-166.897667	-38.948629	-1.627178	-38.948629	-1.627178	-0.329350	-166.908641
7.200000	-0.333749	-167.963133	-38.848658	-3.179508	-38.848658	-3.179508	-0.333808	-167.974241
7.250000	-0.338261	-169.030501	-38.750397	-4.727985	-38.750397	-4.727985	-0.338322	-169.041744
7.300000	-0.342828	-170.099871	-38.653831	-6.272506	-38.653831	-6.272506	-0.342891	-170.111253
7.350000	-0.347453	-171.171344	-38.558941	-7.812966	-38.558941	-7.812966	-0.347517	-171.182869
7.400000	-0.352136	-172.245023	-38.465710	-9.349257	-38.465710	-9.349257	-0.352201	-172.256695
7.450000	-0.356878	-173.321011	-38.374121	-10.881275	-38.374121	-10.881275	-0.356944	-173.332834
7.500000	-0.361680	-174.399416	-38.284155	-12.408913	-38.284155	-12.408913	-0.361748	-174.411394
7.550000	-0.366547	-175.480457	-38.195826	-13.931868	-38.195826	-13.931868	-0.366615	-175.492596
7.600000	-0.371477	-176.564140	-38.109087	-15.450228	-38.109087	-15.450228	-0.371546	-176.576444
7.650000	-0.376471	-177.650576	-38.023920	-16.963897	-38.023920	-16.963897	-0.376540	-177.663050
7.700000	-0.381530	-178.739877	-37.940306	-18.472783	-37.940306	-18.472783	-0.381600	-178.752527
7.750000	-0.386657	-179.832160	-37.858229	-19.976802	-37.858229	-19.976802	-0.386726	-179.844991
7.800000	-0.391851	179.072459	-37.777669	-21.475878	-37.777669	-21.475878	-0.391921	179.059440
7.850000	-0.397116	177.973857	-37.698610	-22.969945	-37.698610	-22.969945	-0.397185	177.960645
7.900000	-0.402451	176.871911	-37.621034	-24.458951	-37.621034	-24.458951	-0.402521	176.858499
7.950000	-0.407860	175.766493	-37.544924	-25.942860	-37.544924	-25.942860	-0.407930	175.752874
8.000000	-0.413343	174.657472	-37.470265	-27.421651	-37.470265	-27.421651	-0.413413	174.643639
8.050000	-0.418903	173.544710	-37.397040	-28.895329	-37.397040	-28.895329	-0.418973	173.530658
8.100000	-0.424542	172.428069	-37.325236	-30.363918	-37.325236	-30.363918	-0.424612	172.413789
8.150000	-0.430262	171.307401	-37.254840	-31.827476	-37.254840	-31.827476	-0.430332	171.292886
8.200000	-0.436065	170.182554	-37.185840	-33.286093	-37.185840	-33.286093	-0.436135	170.167797
8.250000	-0.441955	169.053369	-37.118228	-34.739896	-37.118228	-34.739896	-0.442025	169.038363
8.300000	-0.447934	167.919679	-37.051998	-36.189062	-37.051998	-36.189062	-0.448005	167.904417
8.350000	-0.454006	166.781310	-36.987146	-37.633815	-36.987146	-37.633815	-0.454078	166.765784
8.400000	-0.460176	165.638078	-36.923674	-39.074445	-36.923674	-39.074445	-0.460249	165.622280
8.450000	-0.466446	164.489787	-36.861587	-40.511309	-36.861587	-40.511309	-0.466522	164.473709
8.500000	-0.472824	163.336230	-36.800897	-41.944849	-36.800897	-41.944849	-0.472902	163.319865
8.550000	-0.479316	162.177188	-36.741623	-43.375603	-36.741623	-43.375603	-0.479395	162.160528
8.600000	-0.485927	161.012424	-36.683791	-44.804218	-36.683791	-44.804218	-0.486010	160.995463
8.650000	-0.492667	159.841689	-36.627440	-46.231476	-36.627440	-46.231476	-0.492753	159.824417
8.700000	-0.499545	158.664710	-36.572620	-47.658312	-36.572620	-47.658312	-0.499636	158.647121
8.750000	-0.506574	157.481195	-36.519394	-49.085841	-36.519394	-49.085841	-0.506670	157.463281
8.800000	-0.513774	156.290514	-36.467913	-50.515560	-36.467913	-50.515560	-0.513876	156.272267
8.850000	-0.521156	155.092603	-36.418231	-51.949069	-36.418231	-51.949069	-0.521264	155.074016
8.900000	-0.528740	153.887084	-36.370487	-53.388313	-36.370487	-53.388313	-0.528856	153.868148
8.950000	-0.536550	152.673542	-36.324854	-54.835620	-36.324854	-54.835620	-0.536674	152.654250
9.000000	-0.544615	151.451523	-36.281551	-56.293780	-36.281551	-56.293780	-0.544749	151.431866
9.050000	-0.552970	150.220528	-36.240854	-57.766143	-36.240854	-57.766143	-0.553114	150.200498
9.100000	-0.561657	148.980008	-36.203106	-59.256752	-36.203106	-59.256752	-0.561812	148.959594
9.150000	-0.570726	147.729358	-36.168744	-60.770499	-36.168744	-60.770499	-0.570895	147.708548
9.200000	-0.580212	146.468572	-36.138060	-62.311266	-36.138060	-62.311266	-0.580395	146.447356
9.250000	-0.590217	145.196179	-36.111986	-63.887967	-36.111986	-63.887967	-0.590414	145.174539
9.300000	-0.600852	143.910995	-36.091612	-65.511167	-36.091612	-65.511167	-0.601067	143.888913
9.350000	-0.612249	142.611948	-36.078275	-67.193398	-36.078275	-67.193398	-0.612483	142.589398
9.400000	-0.624508	141.298830	-36.073153	-68.945396	-36.073153	-68.945396	-0.624762	141.275783
9.450000	-0.637795	139.970599	-36.078246	-70.784045	-36.078246	-70.784045	-0.638073	139.947017
9.500000	-0.652316	138.626125	-36.096231	-72.730653	-36.096231	-72.730653	-0.652621	138.601962
9.550000	-0.668326	137.264201	-36.130756	-74.812366	-36.130756	-74.812366	-0.668662	137.239396
9.600000	-0.686137	135.883552	-36.186884	-77.064109	-36.186884	-77.064109	-0.686509	135.858027
9.650000	-0.706409	134.480645	-36.275749	-79.560038	-36.275749	-79.560038	-0.706827	134.454289
9.700000	-0.729302	133.057180	-36.403867	-82.328646	-36.403867	-82.328646	-0.729778	133.029870
9.750000	-0.755638	131.610480	-36.591296	-85.476507	-36.591296	-85.476507	-0.756189	131.582050
9.800000	-0.786276	130.139405	-36.867300	-89.131441	-36.867300	-89.131441	-0.786929	130.109646
9.850000	-0.822180	128.643936	-37.278130	-93.455449	-37.278130	-93.455449	-0.822977	128.612595
9.900000	-0.864393	127.125403	-37.899022	-98.644656	-37.899022	-98.644656	-0.865389	127.092194
9.950000	-0.914525	125.585431	-38.881859	-105.000244	-38.881859	-105.000244	-0.915805	125.550033
10.000000	-0.974341	124.028807	-40.531358	-112.835601	-40.531358	-112.835601	-0.976029	123.990902
