! freq	dB(S11)	phase(S11)	dB(S12)	phase(S12)	
!     	dB(S21)	phase(S21)	dB(S22)	phase(S22)	
!S-par simulation data
#  GHz  S  DB  R 50
0.000000	-0.000000	0.000000	-369.379506	0.000000	-369.379506	0.000000	-0.000000	0.000000
0.050000	-0.000232	-2.205266	-77.170053	-70.612834	-77.170053	-70.612834	-0.000232	-2.205818
0.100000	-0.000919	-4.409938	-72.309964	-54.439774	-72.309964	-54.439774	-0.000919	-4.411044
0.150000	-0.002049	-6.613428	-70.234324	-42.257141	-70.234324	-42.257141	-0.002050	-6.615085
0.200000	-0.003586	-8.815230	-69.185339	-33.186245	-69.185339	-33.186245	-0.003588	-8.817438
0.250000	-0.005500	-11.014849	-68.613850	-26.316663	-68.613850	-26.316663	-0.005504	-11.017606
0.300000	-0.007752	-13.211851	-68.286946	-20.927435	-68.286946	-20.927435	-0.007757	-13.215157
0.350000	-0.010298	-15.405867	-68.097126	-16.535817	-68.097126	-16.535817	-0.010305	-15.409720
0.400000	-0.013093	-17.596586	-67.990398	-12.825104	-67.990398	-12.825104	-0.013101	-17.600985
0.450000	-0.016091	-19.783758	-67.937606	-9.584162	-67.937606	-9.584162	-0.016100	-19.788702
0.500000	-0.019249	-21.967189	-67.921956	-6.667930	-67.921956	-6.667930	-0.019260	-21.972677
0.550000	-0.022527	-24.146730	-67.933177	-3.973111	-67.933177	-3.973111	-0.022539	-24.152762
0.600000	-0.025887	-26.322275	-67.964582	-1.423281	-67.964582	-1.423281	-0.025901	-26.328851
0.650000	-0.029299	-28.493705	-68.011640	1.039963	-68.011640	1.039963	-0.029314	-28.500825
0.700000	-0.032734	-30.660971	-68.070729	3.464971	-68.070729	3.464971	-0.032750	-30.668635
0.750000	-0.036168	-32.824089	-68.138791	5.891299	-68.138791	5.891299	-0.036185	-32.832299
0.800000	-0.039584	-34.983046	-68.213163	8.352158	-68.213163	8.352158	-0.039601	-34.991802
0.850000	-0.042966	-37.137833	-68.291172	10.876787	-68.291172	10.876787	-0.042984	-37.147137
0.900000	-0.046303	-39.288452	-68.369954	13.491274	-68.369954	13.491274	-0.046323	-39.298305
0.950000	-0.049589	-41.434904	-68.446301	16.218871	-68.446301	16.218871	-0.049609	-41.445307
1.000000	-0.052817	-43.577193	-68.516545	19.079867	-68.516545	19.079867	-0.052837	-43.588149
1.050000	-0.055984	-45.715323	-68.576464	22.091053	-68.576464	22.091053	-0.056005	-45.726833
1.100000	-0.059089	-47.849299	-68.621241	25.264804	-68.621241	25.264804	-0.059111	-47.861366
1.150000	-0.062132	-49.979124	-68.645473	28.607841	-68.645473	28.607841	-0.062154	-49.991750
1.200000	-0.065114	-52.104804	-68.643272	32.119773	-68.643272	32.119773	-0.065137	-52.117991
1.250000	-0.068037	-54.226344	-68.608460	35.791629	-68.608460	35.791629	-0.068060	-54.240094
1.300000	-0.070902	-56.343660	-68.533881	39.607048	-68.533881	39.607048	-0.070926	-56.357976
1.350000	-0.073714	-58.456852	-68.414534	43.532694	-68.414534	43.532694	-0.073739	-58.471737
1.400000	-0.076477	-60.565931	-68.245655	47.528906	-68.245655	47.528906	-0.076503	-60.581388
1.450000	-0.079194	-62.670913	-68.023883	51.547967	-68.023883	51.547967	-0.079220	-62.686945
1.500000	-0.081869	-64.771818	-67.747622	55.537020	-67.747622	55.537020	-0.081895	-64.788428
1.550000	-0.084504	-66.868671	-67.417213	59.441771	-67.417213	59.441771	-0.084532	-66.885862
1.600000	-0.087105	-68.961499	-67.034893	63.210380	-67.034893	63.210380	-0.087134	-68.979275
1.650000	-0.089675	-71.050341	-66.604535	66.796899	-66.604535	66.796899	-0.089705	-71.068705
1.700000	-0.092217	-73.135237	-66.131230	70.163720	-66.131230	70.163720	-0.092247	-73.154193
1.750000	-0.094734	-75.216237	-65.620813	73.282816	-65.620813	73.282816	-0.094766	-75.235789
1.800000	-0.097230	-77.293395	-65.079395	76.135796	-65.079395	76.135796	-0.097263	-77.313547
1.850000	-0.099708	-79.366776	-64.512975	78.713062	-64.512975	78.713062	-0.099742	-79.387532
1.900000	-0.102171	-81.436409	-63.926562	81.009406	-63.926562	81.009406	-0.102205	-81.457774
1.950000	-0.104621	-83.502377	-63.325282	83.028617	-63.325282	83.028617	-0.104657	-83.524355
2.000000	-0.107061	-85.564804	-62.714149	84.781569	-62.714149	84.781569	-0.107098	-85.587402
2.050000	-0.109494	-87.623787	-62.096893	86.278716	-62.096893	86.278716	-0.109532	-87.647008
2.100000	-0.111922	-89.679426	-61.476626	87.531993	-61.476626	87.531993	-0.111962	-89.703276
2.150000	-0.114347	-91.731831	-60.855910	88.553970	-60.855910	88.553970	-0.114388	-91.756316
2.200000	-0.116772	-93.781120	-60.236831	89.357229	-60.236831	89.357229	-0.116814	-93.806245
2.250000	-0.119197	-95.827417	-59.621080	89.953961	-59.621080	89.953961	-0.119241	-95.853189
2.300000	-0.121626	-97.870855	-59.010019	90.355700	-59.010019	90.355700	-0.121672	-97.897279
2.350000	-0.124059	-99.911574	-58.404754	90.573182	-58.404754	90.573182	-0.124107	-99.938658
2.400000	-0.126499	-101.949721	-57.806186	90.616294	-57.806186	90.616294	-0.126548	-101.977472
2.450000	-0.128947	-103.985451	-57.215059	90.494072	-57.215059	90.494072	-0.128997	-104.013875
2.500000	-0.131404	-106.018926	-56.632003	90.214743	-56.632003	90.214743	-0.131456	-106.048030
2.550000	-0.133871	-108.050272	-56.056944	89.782703	-56.056944	89.782703	-0.133925	-108.080065
2.600000	-0.136351	-110.079713	-55.491056	89.208161	-55.491056	89.208161	-0.136407	-110.110202
2.650000	-0.138844	-112.107431	-54.934786	88.497352	-54.934786	88.497352	-0.138901	-112.138625
2.700000	-0.141351	-114.133614	-54.388556	87.656052	-54.388556	87.656052	-0.141410	-114.165521
2.750000	-0.143873	-116.158456	-53.852778	86.689672	-53.852778	86.689672	-0.143934	-116.191084
2.800000	-0.146411	-118.182154	-53.327857	85.603351	-53.327857	85.603351	-0.146474	-118.215514
2.850000	-0.148966	-120.204915	-52.814200	84.402043	-52.814200	84.402043	-0.149031	-120.239015
2.900000	-0.151539	-122.226947	-52.312211	83.090597	-52.312211	83.090597	-0.151605	-122.261797
2.950000	-0.154130	-124.248466	-51.822296	81.673833	-51.822296	81.673833	-0.154199	-124.284075
3.000000	-0.156740	-126.269689	-51.344857	80.156605	-51.344857	80.156605	-0.156811	-126.306068
3.050000	-0.159371	-128.290840	-50.880290	78.543858	-50.880290	78.543858	-0.159444	-128.327999
3.100000	-0.162022	-130.312147	-50.428975	76.840665	-50.428975	76.840665	-0.162097	-130.350097
3.150000	-0.164693	-132.333847	-49.991192	75.051402	-49.991192	75.051402	-0.164771	-132.372599
3.200000	-0.167387	-134.356182	-49.567327	73.181677	-49.567327	73.181677	-0.167467	-134.395747
3.250000	-0.170102	-136.379385	-49.157770	71.238027	-49.157770	71.238027	-0.170184	-136.419776
3.300000	-0.172839	-138.403697	-48.762760	69.226232	-48.762760	69.226232	-0.172923	-138.444925
3.350000	-0.175598	-140.429361	-48.382482	67.152209	-48.382482	67.152209	-0.175685	-140.471438
3.400000	-0.178380	-142.456619	-48.017059	65.021978	-48.017059	65.021978	-0.178469	-142.499558
3.450000	-0.181184	-144.485720	-47.666545	62.841607	-47.666545	62.841607	-0.181275	-144.529533
3.500000	-0.184010	-146.516910	-47.330923	60.617150	-47.330923	60.617150	-0.184104	-146.561610
3.550000	-0.186859	-148.550437	-47.010101	58.354587	-47.010101	58.354587	-0.186955	-148.596038
3.600000	-0.189730	-150.586551	-46.703914	56.059751	-46.703914	56.059751	-0.189829	-150.633065
3.650000	-0.192623	-152.625500	-46.412124	53.738256	-46.412124	53.738256	-0.192724	-152.672942
3.700000	-0.195537	-154.667534	-46.134427	51.395439	-46.134427	51.395439	-0.195642	-154.715918
3.750000	-0.198473	-156.712901	-45.870457	49.036290	-45.870457	49.036290	-0.198581	-156.762240
3.800000	-0.201431	-158.761931	-45.619924	46.665252	-45.619924	46.665252	-0.201541	-158.812240
3.850000	-0.204408	-160.814798	-45.382241	44.286809	-45.382241	44.286809	-0.204521	-160.866093
3.900000	-0.207406	-162.871747	-45.156900	41.904621	-45.156900	41.904621	-0.207521	-162.924040
3.950000	-0.210422	-164.933017	-44.943370	39.521862	-44.943370	39.521862	-0.210540	-164.986325
4.000000	-0.213456	-166.998849	-44.741105	37.141211	-44.741105	37.141211	-0.213577	-167.053186
4.050000	-0.216508	-169.069476	-44.549555	34.764856	-44.549555	34.764856	-0.216632	-169.124858
4.100000	-0.219576	-171.145132	-44.368177	32.394512	-44.368177	32.394512	-0.219702	-171.201573
4.150000	-0.222658	-173.226041	-44.196439	30.031441	-44.196439	30.031441	-0.222788	-173.283558
4.200000	-0.225755	-175.312428	-44.033834	27.676478	-44.033834	27.676478	-0.225887	-175.371036
4.250000	-0.228864	-177.404509	-43.879881	25.330074	-43.879881	25.330074	-0.228999	-177.464223
4.300000	-0.231984	-179.502496	-43.734134	22.992325	-43.734134	22.992325	-0.232122	-179.563331
4.350000	-0.235113	178.393408	-43.596189	20.663021	-43.596189	20.663021	-0.235255	178.331435
4.400000	-0.238251	176.282933	-43.465738	18.341767	-43.465738	18.341767	-0.238395	176.219807
4.450000	-0.241394	174.165883	-43.342462	16.027835	-43.342462	16.027835	-0.241542	174.101589
4.500000	-0.244542	172.042146	-43.226035	13.720254	-43.226035	13.720254	-0.244692	171.976667
4.550000	-0.247692	169.911548	-43.116241	11.418013	-43.116241	11.418013	-0.247845	169.844870
4.600000	-0.250842	167.773926	-43.012911	9.120012	-43.012911	9.120012	-0.250999	167.706033
4.650000	-0.253991	165.629127	-42.915929	6.825103	-42.915929	6.825103	-0.254150	165.560004
4.700000	-0.257135	163.477008	-42.825225	4.532136	-42.825225	4.532136	-0.257297	163.406640
4.750000	-0.260273	161.317437	-42.740779	2.239988	-42.740779	2.239988	-0.260438	161.245810
4.800000	-0.263401	159.150295	-42.662617	-0.052393	-42.662617	-0.052393	-0.263569	159.077394
4.850000	-0.266519	156.975473	-42.590809	-2.345957	-42.590809	-2.345957	-0.266689	156.901285
4.900000	-0.269622	154.792879	-42.525466	-4.641521	-42.525466	-4.641521	-0.269796	154.717389
4.950000	-0.272708	152.602430	-42.466739	-6.939731	-42.466739	-6.939731	-0.272885	152.525625
5.000000	-0.275776	150.404061	-42.414812	-9.241039	-42.414812	-9.241039	-0.275955	150.325928
5.050000	-0.278820	148.197545	-42.370058	-11.545745	-42.370058	-11.545745	-0.279002	148.118072
5.100000	-0.281839	145.983020	-42.332581	-13.853742	-42.332581	-13.853742	-0.282024	145.902194
5.150000	-0.284831	143.760466	-42.302648	-16.164722	-42.302648	-16.164722	-0.285018	143.678276
5.200000	-0.287791	141.529881	-42.280543	-18.478083	-42.280543	-18.478083	-0.287981	141.446316
5.250000	-0.290717	139.291278	-42.266561	-20.792923	-42.266561	-20.792923	-0.290909	139.206329
5.300000	-0.293607	137.044690	-42.261004	-23.108024	-42.261004	-23.108024	-0.293802	136.958347
5.350000	-0.296457	134.790167	-42.264173	-25.421848	-42.264173	-25.421848	-0.296654	134.702421
5.400000	-0.299264	132.527777	-42.276363	-27.732538	-42.276363	-27.732538	-0.299464	132.438619
5.450000	-0.302026	130.257606	-42.297860	-30.037917	-42.297860	-30.037917	-0.302228	130.167030
5.500000	-0.304740	127.979760	-42.328928	-32.335506	-42.328928	-32.335506	-0.304944	127.887760
5.550000	-0.307403	125.694366	-42.369811	-34.622528	-42.369811	-34.622528	-0.307608	125.600935
5.600000	-0.310012	123.401568	-42.420724	-36.895937	-42.420724	-36.895937	-0.310219	123.306702
5.650000	-0.312564	121.101453	-42.481958	-39.152209	-42.481958	-39.152209	-0.312773	121.005149
5.700000	-0.315057	118.794213	-42.553653	-41.387697	-42.553653	-41.387697	-0.315268	118.696468
5.750000	-0.317488	116.480134	-42.635806	-43.598856	-42.635806	-43.598856	-0.317702	116.380945
5.800000	-0.319857	114.159439	-42.728473	-45.781802	-42.728473	-45.781802	-0.320072	114.058807
5.850000	-0.322160	111.832375	-42.831670	-47.932520	-42.831670	-47.932520	-0.322377	111.730300
5.900000	-0.324396	109.499207	-42.945366	-50.046899	-42.945366	-50.046899	-0.324614	109.395690
5.950000	-0.326563	107.160218	-43.069489	-52.120762	-43.069489	-52.120762	-0.326783	107.055262
6.000000	-0.328660	104.815712	-43.203922	-54.149885	-43.203922	-54.149885	-0.328882	104.709320
6.050000	-0.330687	102.466011	-43.348505	-56.130023	-43.348505	-56.130023	-0.330910	102.358188
6.100000	-0.332641	100.111453	-43.503041	-58.056923	-43.503041	-58.056923	-0.332866	100.002205
6.150000	-0.334522	97.752397	-43.667294	-59.926334	-43.667294	-59.926334	-0.334749	97.641730
6.200000	-0.336331	95.389216	-43.840991	-61.734007	-43.840991	-61.734007	-0.336559	95.277139
6.250000	-0.338066	93.022300	-44.023828	-63.475697	-44.023828	-63.475697	-0.338296	92.908822
6.300000	-0.339727	90.651991	-44.215551	-65.145523	-44.215551	-65.145523	-0.339959	90.537123
6.350000	-0.341316	88.278793	-44.415668	-66.740632	-44.415668	-66.740632	-0.341550	88.162544
6.400000	-0.342834	85.903138	-44.623774	-68.256690	-44.623774	-68.256690	-0.343069	85.785522
6.450000	-0.344281	83.525472	-44.839428	-69.689287	-44.839428	-69.689287	-0.344519	83.406501
6.500000	-0.345661	81.146253	-45.062151	-71.033907	-45.062151	-71.033907	-0.345900	81.025942
6.550000	-0.346973	78.765948	-45.291421	-72.285896	-45.291421	-72.285896	-0.347215	78.644310
6.600000	-0.348222	76.385031	-45.526662	-73.440436	-45.526662	-73.440436	-0.348466	76.262084
6.650000	-0.349410	74.003987	-45.767239	-74.492515	-45.767239	-74.492515	-0.349656	73.879746
6.700000	-0.350539	71.623303	-46.012437	-75.436909	-46.012437	-75.436909	-0.350788	71.497785
6.750000	-0.351612	69.243475	-46.261454	-76.268182	-46.261454	-76.268182	-0.351864	69.116697
6.800000	-0.352635	66.864997	-46.513373	-76.980688	-46.513373	-76.980688	-0.352890	66.736979
6.850000	-0.353610	64.488370	-46.767146	-77.568614	-46.767146	-77.568614	-0.353868	64.359129
6.900000	-0.354541	62.114123	-47.021476	-78.024565	-47.021476	-78.024565	-0.354803	61.983679
6.950000	-0.355434	59.742770	-47.274915	-78.342448	-47.274915	-78.342448	-0.355700	59.611143
7.000000	-0.356293	57.374782	-47.525916	-78.518000	-47.525916	-78.518000	-0.356563	57.241990
7.050000	-0.357125	55.010649	-47.772610	-78.545993	-47.772610	-78.545993	-0.357399	54.876712
7.100000	-0.357934	52.650857	-48.012854	-78.421981	-48.012854	-78.421981	-0.358213	52.515795
7.150000	-0.358726	50.295882	-48.244215	-78.142722	-48.244215	-78.142722	-0.359010	50.159715
7.200000	-0.359507	47.946197	-48.463963	-77.706689	-48.463963	-77.706689	-0.359797	47.808942
7.250000	-0.360284	45.602259	-48.669083	-77.114670	-48.669083	-77.114670	-0.360580	45.463937
7.300000	-0.361063	43.264519	-48.856315	-76.370415	-48.856315	-76.370415	-0.361365	43.125147
7.350000	-0.361851	40.933412	-49.022224	-75.481309	-49.022224	-75.481309	-0.362159	40.793009
7.400000	-0.362653	38.609362	-49.163310	-74.458973	-49.163310	-74.458973	-0.362969	38.467946
7.450000	-0.363478	36.292778	-49.276152	-73.319728	-49.276152	-73.319728	-0.363801	36.150364
7.500000	-0.364332	33.984052	-49.357586	-72.084793	-49.357586	-72.084793	-0.364663	33.840656
7.550000	-0.365223	31.683746	-49.404115	-70.779323	-49.404115	-70.779323	-0.365563	31.539385
7.600000	-0.366159	29.392049	-49.414433	-69.435823	-49.414433	-69.435823	-0.366507	29.246735
7.650000	-0.367145	27.109297	-49.387365	-68.087755	-49.387365	-68.087755	-0.367502	26.963043
7.700000	-0.368190	24.835809	-49.322699	-66.770251	-49.322699	-66.770251	-0.368557	24.688627
7.750000	-0.369300	22.571884	-49.221228	-65.518506	-49.221228	-65.518506	-0.369678	22.423784
7.800000	-0.370484	20.317800	-49.084728	-64.366164	-49.084728	-64.366164	-0.370873	20.168790
7.850000	-0.371748	18.073813	-48.915852	-63.343863	-48.915852	-63.343863	-0.372149	17.923899
7.900000	-0.373100	15.840156	-48.717972	-62.478107	-48.717972	-62.478107	-0.373513	15.689346
7.950000	-0.374548	13.617043	-48.494989	-61.790531	-48.494989	-61.790531	-0.374973	13.465339
8.000000	-0.376098	11.404662	-48.251137	-61.297580	-48.251137	-61.297580	-0.376536	11.252066
8.050000	-0.377757	9.203179	-47.990797	-61.010555	-47.990797	-61.010555	-0.378209	9.049691
8.100000	-0.379534	7.012737	-47.718344	-60.935929	-47.718344	-60.935929	-0.380000	6.858356
8.150000	-0.381436	4.833578	-47.437884	-61.078148	-47.437884	-61.078148	-0.381917	4.678299
8.200000	-0.383470	2.665800	-47.153574	-61.435407	-47.153574	-61.435407	-0.383967	2.509617
8.250000	-0.385644	0.509352	-46.869352	-62.000352	-46.869352	-62.000352	-0.386157	0.352256
8.300000	-0.387962	-1.635719	-46.588668	-62.765358	-46.588668	-62.765358	-0.388492	-1.793740
8.350000	-0.390432	-3.769392	-46.314650	-63.720656	-46.314650	-63.720656	-0.390980	-3.928349
8.400000	-0.393062	-5.891666	-46.050096	-64.854726	-46.050096	-64.854726	-0.393628	-6.051577
8.450000	-0.395857	-8.002566	-45.797476	-66.154627	-45.797476	-66.154627	-0.396442	-8.163449
8.500000	-0.398824	-10.102141	-45.558934	-67.606291	-45.558934	-67.606291	-0.399429	-10.264017
8.550000	-0.401970	-12.190461	-45.336286	-69.194772	-45.336286	-69.194772	-0.402596	-12.353355
8.600000	-0.405302	-14.267623	-45.131029	-70.904494	-45.131029	-70.904494	-0.405949	-14.431561
8.650000	-0.408826	-16.333743	-44.944339	-72.719484	-44.944339	-72.719484	-0.409495	-16.498756
8.700000	-0.412548	-18.388964	-44.777079	-74.623610	-44.777079	-74.623610	-0.413241	-18.555085
8.750000	-0.416475	-20.433448	-44.629804	-76.600826	-44.629804	-76.600826	-0.417192	-20.600714
8.800000	-0.420619	-22.467160	-44.503183	-78.636305	-44.503183	-78.636305	-0.421361	-22.635610
8.850000	-0.424980	-24.490542	-44.396803	-80.713335	-44.396803	-80.713335	-0.425750	-24.660222
8.900000	-0.429567	-26.503830	-44.310369	-82.817595	-44.310369	-82.817595	-0.430364	-26.674785
8.950000	-0.434386	-28.507280	-44.243362	-84.935735	-44.243362	-84.935735	-0.435211	-28.679561
9.000000	-0.439443	-30.501169	-44.195068	-87.055535	-44.195068	-87.055535	-0.440298	-30.674832
9.050000	-0.444745	-32.485800	-44.164614	-89.166005	-44.164614	-89.166005	-0.445631	-32.660903
9.100000	-0.450299	-34.461496	-44.151003	-91.257454	-44.151003	-91.257454	-0.451218	-34.638102
9.150000	-0.456113	-36.428604	-44.153145	-93.321511	-44.153145	-93.321511	-0.457066	-36.606780
9.200000	-0.462193	-38.387491	-44.169895	-95.351109	-44.169895	-95.351109	-0.463182	-38.567309
9.250000	-0.468547	-40.338551	-44.200075	-97.340437	-44.200075	-97.340437	-0.469573	-40.520088
9.300000	-0.475183	-42.282197	-44.242507	-99.284861	-44.242507	-99.284861	-0.476249	-42.465535
9.350000	-0.482108	-44.218869	-44.296032	-101.180830	-44.296032	-101.180830	-0.483216	-44.404094
9.400000	-0.489336	-46.148961	-44.359614	-103.025194	-44.359614	-103.025194	-0.490486	-46.336168
9.450000	-0.496873	-48.072979	-44.432142	-104.816205	-44.432142	-104.816205	-0.498069	-48.262266
9.500000	-0.504727	-49.991504	-44.512501	-106.553494	-44.512501	-106.553494	-0.505971	-50.182977
9.550000	-0.512906	-51.905075	-44.599748	-108.236759	-44.599748	-108.236759	-0.514201	-52.098843
9.600000	-0.521421	-53.814254	-44.693011	-109.866219	-44.693011	-109.866219	-0.522770	-54.010437
9.650000	-0.530281	-55.719633	-44.791488	-111.442519	-44.791488	-111.442519	-0.531687	-55.918354
9.700000	-0.539499	-57.621828	-44.894447	-112.966642	-44.894447	-112.966642	-0.540965	-57.823220
9.750000	-0.549085	-59.521486	-45.001225	-114.439839	-45.001225	-114.439839	-0.550614	-59.725688
9.800000	-0.559052	-61.419282	-45.111221	-115.863560	-45.111221	-115.863560	-0.560649	-61.626445
9.850000	-0.569412	-63.315925	-45.223898	-117.239403	-45.223898	-117.239403	-0.571081	-63.526204
9.900000	-0.580180	-65.212151	-45.338775	-118.569064	-45.338775	-118.569064	-0.581925	-65.425715
9.950000	-0.591370	-67.108736	-45.455423	-119.854300	-45.455423	-119.854300	-0.593195	-67.325759
10.000000	-0.602997	-69.006485	-45.573461	-121.096899	-45.573461	-121.096899	-0.604909	-69.227157
