! freq	dB(S11)	phase(S11)	dB(S12)	phase(S12)	
!     	dB(S21)	phase(S21)	dB(S22)	phase(S22)	
!S-par simulation data
#  GHz  S  DB  R 50
0.000000	-0.000000	0.000000	-362.115268	180.000000	-362.115268	180.000000	-0.000000	0.000000
0.050000	-0.000870	-1.407448	-105.944215	89.005479	-105.944215	89.005479	-0.000657	-1.038779
0.100000	-0.002986	-2.808826	-99.964395	87.727624	-99.964395	87.727624	-0.002222	-2.072758
0.150000	-0.005515	-4.202980	-96.507058	86.529342	-96.507058	86.529342	-0.004039	-3.101295
0.200000	-0.007933	-5.591835	-94.103037	85.373156	-94.103037	85.373156	-0.005738	-4.126112
0.250000	-0.010128	-6.978021	-92.280720	84.253484	-92.280720	84.253484	-0.007269	-5.149219
0.300000	-0.012103	-8.362634	-90.839057	83.178104	-90.839057	83.178104	-0.008652	-6.171453
0.350000	-0.013914	-9.746310	-89.669195	82.155891	-89.669195	82.155891	-0.009940	-7.193291
0.400000	-0.015613	-11.129243	-88.707725	81.198832	-88.707725	81.198832	-0.011171	-8.214905
0.450000	-0.017240	-12.511324	-87.921016	80.329217	-87.921016	80.329217	-0.012376	-9.236290
0.500000	-0.018829	-13.892479	-87.273788	79.556757	-87.273788	79.556757	-0.013574	-10.257402
0.550000	-0.020400	-15.272527	-86.747489	78.901577	-86.747489	78.901577	-0.014774	-11.278150
0.600000	-0.021965	-16.651275	-86.329216	78.388275	-86.329216	78.388275	-0.015980	-12.298434
0.650000	-0.023531	-18.028540	-86.009992	78.047253	-86.009992	78.047253	-0.017194	-13.318151
0.700000	-0.025104	-19.404142	-85.783658	77.916498	-85.783658	77.916498	-0.018418	-14.337204
0.750000	-0.026688	-20.777796	-85.651285	78.063757	-85.651285	78.063757	-0.019650	-15.355447
0.800000	-0.028285	-22.149339	-85.609406	78.560801	-85.609406	78.560801	-0.020891	-16.372787
0.850000	-0.029895	-23.518664	-85.653084	79.494236	-85.653084	79.494236	-0.022140	-17.389160
0.900000	-0.031518	-24.885809	-85.773160	80.937864	-85.773160	80.937864	-0.023394	-18.404568
0.950000	-0.033152	-26.250523	-85.968646	83.062207	-85.968646	83.062207	-0.024655	-19.418891
1.000000	-0.034798	-27.612689	-86.227844	86.052515	-86.227844	86.052515	-0.025920	-20.432069
1.050000	-0.036453	-28.972201	-86.528156	90.131618	-86.528156	90.131618	-0.027190	-21.444051
1.100000	-0.038116	-30.328959	-86.828668	95.537415	-86.828668	95.537415	-0.028463	-22.454789
1.150000	-0.039786	-31.682870	-87.062105	102.455924	-87.062105	102.455924	-0.029740	-23.464243
1.200000	-0.041461	-33.033847	-87.133160	110.887221	-87.133160	110.887221	-0.031019	-24.472375
1.250000	-0.043138	-34.381810	-86.936804	120.471276	-86.936804	120.471276	-0.032300	-25.479152
1.300000	-0.044817	-35.726544	-86.386168	130.398681	-86.386168	130.398681	-0.033582	-26.484483
1.350000	-0.046496	-37.068109	-85.508950	139.678381	-85.508950	139.678381	-0.034866	-27.488399
1.400000	-0.048173	-38.406439	-84.390114	147.652923	-84.390114	147.652923	-0.036151	-28.490876
1.450000	-0.049848	-39.741471	-83.133998	154.087630	-83.133998	154.087630	-0.037436	-29.491893
1.500000	-0.051519	-41.073147	-81.826100	159.054846	-81.826100	159.054846	-0.038722	-30.491426
1.550000	-0.053186	-42.401411	-80.522342	162.765478	-80.522342	162.765478	-0.040007	-31.489458
1.600000	-0.054847	-43.726212	-79.254039	165.456485	-79.254039	165.456485	-0.041293	-32.485969
1.650000	-0.056502	-45.047501	-78.036287	167.339871	-78.036287	167.339871	-0.042578	-33.480942
1.700000	-0.058152	-46.365233	-76.874699	168.588276	-76.874699	168.588276	-0.043863	-34.474359
1.750000	-0.059794	-47.679366	-75.769769	169.336542	-75.769769	169.336542	-0.045148	-35.466204
1.800000	-0.061431	-48.989860	-74.719421	169.688275	-74.719421	169.688275	-0.046432	-36.456463
1.850000	-0.063061	-50.296678	-73.720420	169.722814	-73.720420	169.722814	-0.047717	-37.445119
1.900000	-0.064684	-51.599787	-72.769133	169.501135	-72.769133	169.501135	-0.049001	-38.432157
1.950000	-0.066301	-52.899155	-71.861914	169.070442	-71.861914	169.070442	-0.050286	-39.417564
2.000000	-0.067913	-54.194754	-70.995298	168.467604	-70.995298	168.467604	-0.051571	-40.401325
2.050000	-0.069519	-55.486559	-70.166079	167.721698	-70.166079	167.721698	-0.052857	-41.383426
2.100000	-0.071120	-56.774547	-69.371334	166.855883	-69.371334	166.855883	-0.054144	-42.363855
2.150000	-0.072717	-58.058695	-68.608424	165.888782	-68.608424	165.888782	-0.055433	-43.342598
2.200000	-0.074310	-59.338988	-67.874972	164.835507	-67.874972	164.835507	-0.056723	-44.319642
2.250000	-0.075901	-60.615409	-67.168842	163.708432	-67.168842	163.708432	-0.058016	-45.294976
2.300000	-0.077490	-61.887946	-66.488111	162.517771	-66.488111	162.517771	-0.059311	-46.268588
2.350000	-0.079077	-63.156588	-65.831051	161.272019	-65.831051	161.272019	-0.060610	-47.240465
2.400000	-0.080664	-64.421327	-65.196104	159.978299	-65.196104	159.978299	-0.061912	-48.210598
2.450000	-0.082251	-65.682159	-64.581860	158.642617	-64.581860	158.642617	-0.063219	-49.178976
2.500000	-0.083840	-66.939080	-63.987043	157.270074	-63.987043	157.270074	-0.064530	-50.145589
2.550000	-0.085431	-68.191921	-63.409630	155.863790	-63.409630	155.863790	-0.065847	-51.110349
2.600000	-0.087026	-69.440854	-62.849535	154.429034	-62.849535	154.429034	-0.067169	-52.073325
2.650000	-0.088624	-70.685884	-62.305783	152.968978	-62.305783	152.968978	-0.068498	-53.034508
2.700000	-0.090228	-71.927020	-61.777483	151.486382	-61.777483	151.486382	-0.069834	-53.993891
2.750000	-0.091838	-73.164271	-61.263819	149.983653	-61.263819	149.983653	-0.071178	-54.951467
2.800000	-0.093455	-74.397651	-60.764041	148.462905	-60.764041	148.462905	-0.072530	-55.907229
2.850000	-0.095080	-75.627174	-60.277459	146.925998	-60.277459	146.925998	-0.073890	-56.861171
2.900000	-0.096714	-76.852859	-59.803434	145.374575	-59.803434	145.374575	-0.075260	-57.813289
2.950000	-0.098358	-78.074726	-59.341378	143.810095	-59.341378	143.810095	-0.076639	-58.763577
3.000000	-0.100013	-79.292798	-58.890744	142.233856	-58.890744	142.233856	-0.078029	-59.712033
3.050000	-0.101679	-80.507101	-58.451024	140.647016	-58.451024	140.647016	-0.079431	-60.658653
3.100000	-0.103358	-81.717662	-58.021748	139.050615	-58.021748	139.050615	-0.080843	-61.603435
3.150000	-0.105051	-82.924512	-57.602474	137.445585	-57.602474	137.445585	-0.082268	-62.546377
3.200000	-0.106758	-84.127685	-57.192792	135.832766	-57.192792	135.832766	-0.083706	-63.487480
3.250000	-0.108481	-85.327216	-56.792317	134.212919	-56.792317	134.212919	-0.085157	-64.426741
3.300000	-0.110220	-86.523144	-56.400690	132.586732	-56.400690	132.586732	-0.086623	-65.364164
3.350000	-0.111976	-87.715510	-56.017572	130.954831	-56.017572	130.954831	-0.088102	-66.299748
3.400000	-0.113749	-88.904358	-55.642647	129.317784	-55.642647	129.317784	-0.089597	-67.233497
3.450000	-0.115542	-90.089734	-55.275614	127.676111	-55.275614	127.676111	-0.091108	-68.165414
3.500000	-0.117354	-91.271689	-54.916192	126.030289	-54.916192	126.030289	-0.092634	-69.095502
3.550000	-0.119187	-92.450273	-54.564116	124.380753	-54.564116	124.380753	-0.094178	-70.023767
3.600000	-0.121041	-93.625543	-54.219133	122.727903	-54.219133	122.727903	-0.095739	-70.950213
3.650000	-0.122917	-94.797558	-53.881007	121.072109	-53.881007	121.072109	-0.097317	-71.874848
3.700000	-0.124817	-95.966377	-53.549511	119.413711	-53.549511	119.413711	-0.098915	-72.797679
3.750000	-0.126740	-97.132067	-53.224432	117.753022	-53.224432	117.753022	-0.100531	-73.718713
3.800000	-0.128689	-98.294565	-52.905329	116.090260	-52.905329	116.090260	-0.102167	-74.637882
3.850000	-0.130663	-99.454079	-52.592268	114.425791	-52.592268	114.425791	-0.103824	-75.555275
3.900000	-0.132664	-100.610686	-52.285064	112.759862	-52.285064	112.759862	-0.105501	-76.470901
3.950000	-0.134692	-101.764465	-51.983539	111.092704	-51.983539	111.092704	-0.107200	-77.384772
4.000000	-0.136748	-102.915500	-51.687526	109.424531	-51.687526	109.424531	-0.108920	-78.296900
4.050000	-0.138833	-104.063880	-51.396862	107.755542	-51.396862	107.755542	-0.110663	-79.207298
4.100000	-0.140949	-105.209698	-51.111395	106.085922	-51.111395	106.085922	-0.112428	-80.115981
4.150000	-0.143095	-106.353052	-50.830976	104.415845	-50.830976	104.415845	-0.114217	-81.022962
4.200000	-0.145273	-107.494047	-50.555465	102.745473	-50.555465	102.745473	-0.116029	-81.928257
4.250000	-0.147484	-108.632792	-50.284727	101.074955	-50.284727	101.074955	-0.117866	-82.831882
4.300000	-0.149729	-109.769405	-50.018630	99.404431	-50.018630	99.404431	-0.119727	-83.733854
4.350000	-0.152010	-110.904010	-49.757051	97.734030	-49.757051	97.734030	-0.121614	-84.634191
4.400000	-0.154327	-112.036740	-49.499868	96.063873	-49.499868	96.063873	-0.123527	-85.532912
4.450000	-0.156682	-113.167736	-49.246966	94.394072	-49.246966	94.394072	-0.125466	-86.430036
4.500000	-0.159077	-114.297149	-48.998234	92.724729	-48.998234	92.724729	-0.127431	-87.325582
4.550000	-0.161512	-115.425144	-48.753563	91.055938	-48.753563	91.055938	-0.129424	-88.219572
4.600000	-0.163991	-116.551897	-48.512849	89.387784	-48.512849	89.387784	-0.131445	-89.112027
4.650000	-0.166514	-117.677598	-48.275990	87.720345	-48.275990	87.720345	-0.133493	-90.002969
4.700000	-0.169084	-118.802457	-48.042889	86.053691	-48.042889	86.053691	-0.135571	-90.892422
4.750000	-0.171704	-119.926700	-47.813450	84.387880	-47.813450	84.387880	-0.137677	-91.780408
4.800000	-0.174377	-121.050579	-47.587582	82.722967	-47.587582	82.722967	-0.139813	-92.666953
4.850000	-0.177106	-122.174369	-47.365192	81.058992	-47.365192	81.058992	-0.141979	-93.552081
4.900000	-0.179895	-123.298380	-47.146193	79.395990	-47.146193	79.395990	-0.144176	-94.435818
4.950000	-0.182748	-124.422955	-46.930498	77.733983	-46.930498	77.733983	-0.146403	-95.318190
5.000000	-0.185672	-125.548483	-46.718021	76.072982	-46.718021	76.072982	-0.148662	-96.199224
5.050000	-0.188690	-126.675803	-46.508261	74.413204	-46.508261	74.413204	-0.150960	-97.078668
5.100000	-0.191785	-127.804952	-46.301857	72.754256	-46.301857	72.754256	-0.153286	-97.957031
5.150000	-0.194960	-128.936205	-46.098695	71.096120	-46.098695	71.096120	-0.155640	-98.834328
5.200000	-0.198248	-130.070755	-45.898262	69.438974	-45.898262	69.438974	-0.158029	-99.710293
5.250000	-0.201683	-131.210134	-45.700349	67.782765	-45.700349	67.782765	-0.160459	-100.584882
5.300000	-0.205243	-132.353936	-45.505408	66.127141	-45.505408	66.127141	-0.162919	-101.458487
5.350000	-0.208938	-133.502634	-45.313335	64.472045	-45.313335	64.472045	-0.165408	-102.331124
5.400000	-0.212893	-134.661115	-45.123257	62.817471	-45.123257	62.817471	-0.167946	-103.202317
5.450000	-0.217089	-135.828792	-44.935713	61.162929	-44.935713	61.162929	-0.170519	-104.072536
5.500000	-0.221542	-137.006210	-44.750724	59.508209	-44.750724	59.508209	-0.173124	-104.941883
5.550000	-0.226348	-138.196993	-44.567919	57.852986	-44.567919	57.852986	-0.175768	-105.810225
5.600000	-0.231669	-139.406482	-44.387031	56.196465	-44.387031	56.196465	-0.178454	-106.677559
5.650000	-0.237632	-140.638419	-44.207964	54.537916	-44.207964	54.537916	-0.181181	-107.543957
5.700000	-0.244444	-141.898336	-44.030573	52.876257	-44.030573	52.876257	-0.183948	-108.409499
5.750000	-0.252504	-143.196632	-43.854471	51.209650	-43.854471	51.209650	-0.186758	-109.274174
5.800000	-0.262155	-144.539988	-43.679592	49.536495	-43.679592	49.536495	-0.189606	-110.138116
5.850000	-0.274431	-145.951130	-43.505188	47.852477	-43.505188	47.852477	-0.192497	-111.001275
5.900000	-0.290809	-147.456176	-43.330655	46.151891	-43.330655	46.151891	-0.195430	-111.863716
5.950000	-0.313974	-149.096598	-43.155091	44.425238	-43.155091	44.425238	-0.198404	-112.725490
6.000000	-0.349367	-150.944173	-42.977094	42.655035	-42.977094	42.655035	-0.201421	-113.586640
6.050000	-0.408394	-153.120984	-42.794776	40.808741	-42.794776	40.808741	-0.204479	-114.447213
6.100000	-0.523172	-155.897304	-42.605286	38.806421	-42.605286	38.806421	-0.207581	-115.307235
6.150000	-0.792081	-159.809585	-42.409843	36.453303	-42.409843	36.453303	-0.210725	-116.166759
6.200000	-1.646056	-165.778825	-42.254233	33.183896	-42.254233	33.183896	-0.213913	-117.025827
6.250000	-4.985616	-163.901206	-42.546039	28.829470	-42.546039	28.829470	-0.217144	-117.884483
6.300000	-3.208430	-134.444424	-43.018330	31.022159	-43.018330	31.022159	-0.220420	-118.742772
6.350000	-1.208933	-139.902424	-42.639991	32.031379	-42.639991	32.031379	-0.223740	-119.600741
6.400000	-0.695607	-144.884616	-42.320587	30.934801	-42.320587	30.934801	-0.227105	-120.458436
6.450000	-0.512594	-148.210750	-42.083501	29.418376	-42.083501	29.418376	-0.230517	-121.315903
6.500000	-0.429683	-150.689956	-41.887404	27.812453	-41.887404	27.812453	-0.233973	-122.173192
6.550000	-0.386608	-152.710356	-41.713538	26.187179	-41.713538	26.187179	-0.237477	-123.030352
6.600000	-0.362519	-154.456812	-41.553294	24.560899	-41.553294	24.560899	-0.241027	-123.887431
6.650000	-0.348306	-156.033202	-41.402041	22.938675	-41.402041	22.938675	-0.244625	-124.744481
6.700000	-0.339805	-157.496316	-41.257300	21.321644	-41.257300	21.321644	-0.248271	-125.601553
6.750000	-0.334852	-158.880387	-41.117602	19.709791	-41.117602	19.709791	-0.251964	-126.458696
6.800000	-0.332252	-160.206577	-40.982042	18.102857	-40.982042	18.102857	-0.255706	-127.315964
6.850000	-0.331261	-161.489777	-40.849997	16.500465	-40.849997	16.500465	-0.259497	-128.173409
6.900000	-0.331527	-162.736816	-40.721162	14.902811	-40.721162	14.902811	-0.263345	-129.031125
6.950000	-0.332490	-163.962704	-40.594963	13.308503	-40.594963	13.308503	-0.267235	-129.889098
7.000000	-0.334088	-165.168701	-40.471318	11.717841	-40.471318	11.717841	-0.271177	-130.747411
7.050000	-0.336176	-166.358948	-40.350055	10.130628	-40.350055	10.130628	-0.275168	-131.606123
7.100000	-0.338650	-167.536628	-40.231040	8.546706	-40.231040	8.546706	-0.279211	-132.465287
7.150000	-0.341436	-168.704236	-40.114169	6.965955	-40.114169	6.965955	-0.283306	-133.324963
7.200000	-0.344476	-169.863760	-39.999358	5.388282	-39.999358	5.388282	-0.287452	-134.185208
7.250000	-0.347729	-171.016809	-39.886539	3.813620	-39.886539	3.813620	-0.291650	-135.046080
7.300000	-0.351162	-172.164703	-39.775654	2.241920	-39.775654	2.241920	-0.295901	-135.907640
7.350000	-0.354750	-173.308541	-39.666658	0.673154	-39.666658	0.673154	-0.300205	-136.769946
7.400000	-0.358473	-174.449248	-39.559510	-0.892692	-39.559510	-0.892692	-0.304563	-137.633061
7.450000	-0.362314	-175.587613	-39.454176	-2.455618	-39.454176	-2.455618	-0.308974	-138.497046
7.500000	-0.366262	-176.724314	-39.350626	-4.015614	-39.350626	-4.015614	-0.313439	-139.361964
7.550000	-0.370310	-177.859921	-39.248860	-5.572528	-39.248860	-5.572528	-0.317960	-140.227924
7.600000	-0.374444	-178.995016	-39.148833	-7.126454	-39.148833	-7.126454	-0.322537	-141.094949
7.650000	-0.378658	179.869946	-39.050524	-8.677349	-39.050524	-8.677349	-0.327168	-141.963105
7.700000	-0.382945	178.734557	-38.953916	-10.225164	-38.953916	-10.225164	-0.331854	-142.832458
7.750000	-0.387302	177.598448	-38.858994	-11.769841	-38.858994	-11.769841	-0.336597	-143.703074
7.800000	-0.391723	176.461284	-38.765742	-13.311315	-38.765742	-13.311315	-0.341395	-144.575020
7.850000	-0.396206	175.322755	-38.674149	-14.849514	-38.674149	-14.849514	-0.346249	-145.448365
7.900000	-0.400747	174.182575	-38.584200	-16.384359	-38.584200	-16.384359	-0.351159	-146.323178
7.950000	-0.405343	173.040480	-38.495886	-17.915767	-38.495886	-17.915767	-0.356126	-147.199529
8.000000	-0.409993	171.896221	-38.409196	-19.443647	-38.409196	-19.443647	-0.361150	-148.077488
8.050000	-0.414694	170.749563	-38.324120	-20.967901	-38.324120	-20.967901	-0.366231	-148.957127
8.100000	-0.419444	169.600285	-38.240647	-22.488429	-38.240647	-22.488429	-0.371369	-149.838518
8.150000	-0.424242	168.448176	-38.158769	-24.005123	-38.158769	-24.005123	-0.376565	-150.721735
8.200000	-0.429087	167.293036	-38.078477	-25.517872	-38.078477	-25.517872	-0.381818	-151.606853
8.250000	-0.433977	166.134672	-37.999761	-27.026558	-37.999761	-27.026558	-0.387129	-152.493945
8.300000	-0.438911	164.972897	-37.922613	-28.531060	-37.922613	-28.531060	-0.392498	-153.383089
8.350000	-0.443888	163.807534	-37.847024	-30.031252	-37.847024	-30.031252	-0.397925	-154.274361
8.400000	-0.448907	162.638409	-37.772985	-31.527004	-37.772985	-31.527004	-0.403410	-155.167838
8.450000	-0.453968	161.465353	-37.700487	-33.018183	-37.700487	-33.018183	-0.408953	-156.063600
8.500000	-0.459070	160.288204	-37.629521	-34.504649	-37.629521	-34.504649	-0.414554	-156.961727
8.550000	-0.464212	159.106801	-37.560076	-35.986264	-37.560076	-35.986264	-0.420214	-157.862298
8.600000	-0.469393	157.920989	-37.492144	-37.462881	-37.492144	-37.462881	-0.425932	-158.765396
8.650000	-0.474614	156.730615	-37.425714	-38.934355	-37.425714	-38.934355	-0.431708	-159.671103
8.700000	-0.479873	155.535531	-37.360776	-40.400534	-37.360776	-40.400534	-0.437542	-160.579502
8.750000	-0.485170	154.335590	-37.297318	-41.861268	-37.297318	-41.861268	-0.443435	-161.490678
8.800000	-0.490506	153.130424	-37.235374	-43.316151	-37.235374	-43.316151	-0.449388	-162.404844
8.850000	-0.495880	151.920105	-37.174888	-44.765263	-37.174888	-44.765263	-0.455399	-163.321967
8.900000	-0.501291	150.704494	-37.115848	-46.208446	-37.115848	-46.208446	-0.461467	-164.242134
8.950000	-0.506739	149.483455	-37.058241	-47.645541	-37.058241	-47.645541	-0.467594	-165.165433
9.000000	-0.512224	148.256856	-37.002053	-49.076389	-37.002053	-49.076389	-0.473777	-166.091953
9.050000	-0.517745	147.024564	-36.947270	-50.500827	-36.947270	-50.500827	-0.480018	-167.021786
9.100000	-0.523303	145.786452	-36.893878	-51.918696	-36.893878	-51.918696	-0.486316	-167.955022
9.150000	-0.528897	144.542394	-36.841861	-53.329834	-36.841861	-53.329834	-0.492670	-168.891753
9.200000	-0.534528	143.292263	-36.791204	-54.734080	-36.791204	-54.734080	-0.499081	-169.832074
9.250000	-0.540195	142.035940	-36.741890	-56.131273	-36.741890	-56.131273	-0.505547	-170.776078
9.300000	-0.545899	140.773304	-36.693903	-57.521255	-36.693903	-57.521255	-0.512069	-171.723861
9.350000	-0.551639	139.504238	-36.647225	-58.903865	-36.647225	-58.903865	-0.518646	-172.675518
9.400000	-0.557416	138.228628	-36.601838	-60.278947	-36.601838	-60.278947	-0.525277	-173.631148
9.450000	-0.563230	136.946363	-36.557724	-61.646345	-36.557724	-61.646345	-0.531962	-174.590847
9.500000	-0.569081	135.657331	-36.514865	-63.005905	-36.514865	-63.005905	-0.538700	-175.554717
9.550000	-0.574969	134.361428	-36.473239	-64.357474	-36.473239	-64.357474	-0.545490	-176.522855
9.600000	-0.580896	133.058551	-36.432829	-65.700904	-36.432829	-65.700904	-0.552333	-177.495364
9.650000	-0.586860	131.748597	-36.393612	-67.036046	-36.393612	-67.036046	-0.559227	-178.472346
9.700000	-0.592863	130.431472	-36.355569	-68.362756	-36.355569	-68.362756	-0.566170	-179.453902
9.750000	-0.598905	129.107080	-36.318677	-69.680893	-36.318677	-69.680893	-0.573164	179.559862
9.800000	-0.604987	127.775332	-36.282916	-70.990317	-36.282916	-70.990317	-0.580205	178.568844
9.850000	-0.611109	126.436141	-36.248263	-72.290893	-36.248263	-72.290893	-0.587294	177.572936
9.900000	-0.617271	125.089426	-36.214697	-73.582490	-36.214697	-73.582490	-0.594429	176.572033
9.950000	-0.623475	123.735106	-36.182193	-74.864978	-36.182193	-74.864978	-0.601610	175.566028
10.000000	-0.629722	122.373110	-36.150730	-76.138233	-36.150730	-76.138233	-0.608834	174.554813
