! freq	dB(S11)	phase(S11)	dB(S12)	phase(S12)	
!     	dB(S21)	phase(S21)	dB(S22)	phase(S22)	
!S-par simulation data
#  GHz  S  DB  R 50
0.000000	-0.000000	0.000000	-406.492007	0.000000	-406.492007	0.000000	-0.000000	0.000000
0.050000	-0.000222	-0.771867	-101.522170	1.597069	-101.522170	1.597069	-0.000249	-0.772339
0.100000	-0.000841	-1.542672	-101.190026	13.166560	-101.190026	13.166560	-0.000933	-1.543384
0.150000	-0.001751	-2.311670	-100.758418	21.582049	-100.758418	21.582049	-0.001914	-2.312310
0.200000	-0.002816	-3.078796	-100.257286	28.530477	-100.257286	28.530477	-0.003029	-3.079151
0.250000	-0.003946	-3.844116	-99.727713	34.307174	-99.727713	34.307174	-0.004181	-3.844093
0.300000	-0.005077	-4.607781	-99.206922	39.038949	-99.206922	39.038949	-0.005306	-4.607397
0.350000	-0.006179	-5.370343	-98.724073	43.063720	-98.724073	43.063720	-0.006387	-5.369666
0.400000	-0.007241	-6.131875	-98.298021	46.431142	-98.298021	46.431142	-0.007417	-6.130998
0.450000	-0.008256	-6.892434	-97.962753	49.243653	-97.962753	49.243653	-0.008399	-6.891460
0.500000	-0.009254	-7.652622	-97.670058	51.852219	-97.670058	51.852219	-0.009363	-7.651590
0.550000	-0.010227	-8.412106	-97.482713	54.249124	-97.482713	54.249124	-0.010307	-8.411074
0.600000	-0.011184	-9.171088	-97.366961	56.494842	-97.366961	56.494842	-0.011236	-9.170094
0.650000	-0.012133	-9.929501	-97.354185	58.821839	-97.354185	58.821839	-0.012164	-9.928567
0.700000	-0.013076	-10.687345	-97.443930	61.230116	-97.443930	61.230116	-0.013089	-10.686490
0.750000	-0.014020	-11.444693	-97.628714	64.008092	-97.628714	64.008092	-0.014019	-11.443922
0.800000	-0.014966	-12.201347	-97.953950	67.303649	-97.953950	67.303649	-0.014955	-12.200665
0.850000	-0.015916	-12.957575	-98.357944	71.342767	-98.357944	71.342767	-0.015897	-12.956979
0.900000	-0.016871	-13.712950	-98.922126	76.869005	-98.922126	76.869005	-0.016848	-13.712435
0.950000	-0.017830	-14.467981	-99.514343	83.574011	-99.514343	83.574011	-0.017803	-14.467545
1.000000	-0.018797	-15.221980	-100.113946	93.815320	-100.113946	93.815320	-0.018769	-15.221613
1.050000	-0.019765	-15.975735	-100.610096	104.939084	-100.610096	104.939084	-0.019737	-15.975435
1.100000	-0.020742	-16.728270	-100.390086	120.475122	-100.390086	120.475122	-0.020714	-16.728023
1.150000	-0.021719	-17.480675	-100.047331	135.798455	-100.047331	135.798455	-0.021693	-17.480482
1.200000	-0.022701	-18.231664	-98.464929	148.782029	-98.464929	148.782029	-0.022678	-18.231511
1.250000	-0.023684	-18.982652	-97.126867	161.765604	-97.126867	161.765604	-0.023663	-18.982540
1.300000	-0.024670	-19.732435	-95.332108	169.920775	-95.332108	169.920775	-0.024651	-19.732354
1.350000	-0.025656	-20.481426	-93.578205	175.721078	-93.578205	175.721078	-0.025641	-20.481370
1.400000	-0.026644	-21.229609	-91.920226	179.822764	-91.920226	179.822764	-0.026631	-21.229575
1.450000	-0.027631	-21.976971	-90.371649	-177.287038	-90.371649	-177.287038	-0.027621	-21.976954
1.500000	-0.028617	-22.723497	-88.929040	-175.270029	-88.929040	-175.270029	-0.028610	-22.723493
1.550000	-0.029603	-23.469172	-87.583190	-173.894559	-87.583190	-173.894559	-0.029598	-23.469180
1.600000	-0.030587	-24.213985	-86.323699	-173.000766	-86.323699	-173.000766	-0.030584	-24.214000
1.650000	-0.031570	-24.957921	-85.140711	-172.476470	-85.140711	-172.476470	-0.031569	-24.957941
1.700000	-0.032551	-25.700651	-83.999171	-172.314915	-83.999171	-172.314915	-0.032552	-25.700674
1.750000	-0.033531	-26.442912	-82.955825	-172.282732	-82.955825	-172.282732	-0.033534	-26.442938
1.800000	-0.034510	-27.184051	-81.950051	-172.461659	-81.950051	-172.461659	-0.034514	-27.184077
1.850000	-0.035487	-27.924389	-81.001163	-172.791377	-81.001163	-172.791377	-0.035492	-27.924415
1.900000	-0.036463	-28.663737	-80.092143	-173.244279	-80.092143	-173.244279	-0.036469	-28.663761
1.950000	-0.037437	-29.402095	-79.220785	-173.820365	-79.220785	-173.820365	-0.037444	-29.402117
2.000000	-0.038411	-30.139604	-78.390629	-174.469919	-78.390629	-174.469919	-0.038419	-30.139624
2.050000	-0.039384	-30.875925	-77.584049	-175.222329	-77.584049	-175.222329	-0.039392	-30.875942
2.100000	-0.040356	-31.611549	-76.819449	-176.018516	-76.819449	-176.018516	-0.040365	-31.611563
2.150000	-0.041329	-32.345778	-76.067898	-176.902257	-76.067898	-176.902257	-0.041337	-32.345788
2.200000	-0.042301	-33.079469	-75.358729	-177.811252	-75.358729	-177.811252	-0.042310	-33.079477
2.250000	-0.043275	-33.811550	-74.654617	-178.796008	-74.654617	-178.796008	-0.043283	-33.811554
2.300000	-0.044249	-34.543263	-73.993005	-179.794056	-73.993005	-179.794056	-0.044257	-34.543264
2.350000	-0.045225	-35.273139	-73.330315	179.141433	-73.330315	179.141433	-0.045233	-35.273137
2.400000	-0.046201	-36.002828	-72.710022	178.071561	-72.710022	178.071561	-0.046209	-36.002823
2.450000	-0.047182	-36.730446	-72.083901	176.942717	-72.083901	176.942717	-0.047190	-36.730438
2.500000	-0.048162	-37.458064	-71.499895	175.813872	-71.499895	175.813872	-0.048170	-37.458054
2.550000	-0.049149	-38.183371	-70.906368	174.632211	-70.906368	174.632211	-0.049156	-38.183358
2.600000	-0.050136	-38.908678	-70.350818	173.450549	-70.350818	173.450549	-0.050143	-38.908663
2.650000	-0.051131	-39.631818	-69.790299	172.228558	-69.790299	172.228558	-0.051137	-39.631801
2.700000	-0.052126	-40.354761	-69.260495	171.002900	-69.260495	171.002900	-0.052132	-40.354742
2.750000	-0.053130	-41.075693	-68.729504	169.746339	-68.729504	169.746339	-0.053135	-41.075672
2.800000	-0.054135	-41.796222	-68.223149	168.483597	-68.223149	168.483597	-0.054140	-41.796199
2.850000	-0.055150	-42.514904	-67.718755	167.197184	-67.718755	167.197184	-0.055154	-42.514880
2.900000	-0.056167	-43.232971	-67.233882	165.902881	-67.233882	165.902881	-0.056171	-43.232945
2.950000	-0.057194	-43.949364	-66.753594	164.590534	-66.753594	164.590534	-0.057197	-43.949337
3.000000	-0.058225	-44.664922	-66.288505	163.269166	-66.288505	163.269166	-0.058228	-44.664893
3.050000	-0.059266	-45.378990	-65.830184	161.934178	-65.830184	161.934178	-0.059268	-45.378960
3.100000	-0.060313	-46.091994	-65.383394	160.589463	-65.383394	160.589463	-0.060315	-46.091963
3.150000	-0.061369	-46.803701	-64.945188	159.234637	-64.945188	159.234637	-0.061370	-46.803668
3.200000	-0.062434	-47.514110	-64.515396	157.869698	-64.515396	157.869698	-0.062435	-47.514075
3.250000	-0.063507	-48.223421	-64.095691	156.497441	-64.095691	156.497441	-0.063507	-48.223385
3.300000	-0.064591	-48.931196	-63.681743	155.114937	-63.681743	155.114937	-0.064591	-48.931158
3.350000	-0.065682	-49.638081	-63.279120	153.727342	-63.279120	153.727342	-0.065682	-49.638041
3.400000	-0.066787	-50.343185	-62.879988	152.329562	-62.879988	152.329562	-0.066787	-50.343143
3.450000	-0.067898	-51.047613	-62.493192	150.928463	-62.493192	150.928463	-0.067898	-51.047569
3.500000	-0.069027	-51.750013	-62.107954	149.517403	-62.107954	149.517403	-0.069026	-51.749967
3.550000	-0.070159	-52.451957	-61.735871	148.104421	-61.735871	148.104421	-0.070158	-52.451908
3.600000	-0.071311	-53.151622	-61.363695	146.681835	-61.363695	146.681835	-0.071310	-53.151570
3.650000	-0.072466	-53.851057	-61.005327	145.258417	-61.005327	145.258417	-0.072465	-53.851002
3.700000	-0.073645	-54.547959	-60.645458	143.825859	-60.645458	143.825859	-0.073644	-54.547901
3.750000	-0.074824	-55.244861	-60.299908	142.393301	-60.299908	142.393301	-0.074823	-55.244800
3.800000	-0.076031	-55.938976	-59.951658	140.952162	-59.951658	140.952162	-0.076029	-55.938911
3.850000	-0.077238	-56.633091	-59.616834	139.511023	-59.616834	139.511023	-0.077236	-56.633022
3.900000	-0.078471	-57.324630	-59.280855	138.063163	-59.280855	138.063163	-0.078469	-57.324557
3.950000	-0.079707	-58.015936	-58.956201	136.614692	-58.956201	136.614692	-0.079706	-58.015859
4.000000	-0.080969	-58.704886	-58.631734	135.161049	-58.631734	135.161049	-0.080967	-58.704804
4.050000	-0.082236	-59.393364	-58.316734	133.706373	-58.316734	133.706373	-0.082235	-59.393277
4.100000	-0.083528	-60.079711	-58.003090	132.247810	-58.003090	132.247810	-0.083526	-60.079618
4.150000	-0.084828	-60.765346	-57.697267	130.787950	-57.697267	130.787950	-0.084826	-60.765248
4.200000	-0.086150	-61.449078	-57.393814	129.325254	-57.393814	129.325254	-0.086148	-61.448975
4.250000	-0.087484	-62.131859	-57.096724	127.861140	-57.096724	127.861140	-0.087482	-62.131749
4.300000	-0.088839	-62.812969	-56.802880	126.395037	-56.802880	126.395037	-0.088837	-62.812853
4.350000	-0.090208	-63.492885	-56.514108	124.927512	-56.514108	124.927512	-0.090207	-63.492763
4.400000	-0.091597	-64.171367	-56.229341	123.458667	-56.229341	123.458667	-0.091595	-64.171237
4.450000	-0.093003	-64.848413	-55.948497	121.988501	-55.948497	121.988501	-0.093002	-64.848276
4.500000	-0.094426	-65.524262	-55.672315	120.517525	-55.672315	120.517525	-0.094425	-65.524118
4.550000	-0.095872	-66.198436	-55.399033	119.045415	-55.399033	119.045415	-0.095871	-66.198284
4.600000	-0.097331	-66.871652	-55.130979	117.572870	-55.130979	117.572870	-0.097330	-66.871493
4.650000	-0.098817	-67.542953	-54.864916	116.099452	-54.864916	116.099452	-0.098816	-67.542785
4.700000	-0.100313	-68.213537	-54.604567	114.625850	-54.604567	114.625850	-0.100312	-68.213361
4.750000	-0.101841	-68.881968	-54.345399	113.151698	-54.345399	113.151698	-0.101840	-68.881784
4.800000	-0.103376	-69.549923	-54.092360	111.677510	-54.092360	111.677510	-0.103375	-69.549730
4.850000	-0.104948	-70.215492	-53.839781	110.203141	-53.839781	110.203141	-0.104946	-70.215290
4.900000	-0.106523	-70.880823	-53.593688	108.728793	-53.593688	108.728793	-0.106522	-70.880612
4.950000	-0.108139	-71.543539	-53.347407	107.254673	-53.347407	107.254673	-0.108138	-71.543319
5.000000	-0.109755	-72.206255	-53.107918	105.780554	-53.107918	105.780554	-0.109754	-72.206025
5.050000	-0.111418	-72.866131	-52.867663	104.307096	-52.867663	104.307096	-0.111417	-72.865891
5.100000	-0.113081	-73.526006	-52.633875	102.833639	-52.633875	102.833639	-0.113080	-73.525756
5.150000	-0.114788	-74.183292	-52.399969	101.361126	-52.399969	101.361126	-0.114787	-74.183032
5.200000	-0.116499	-74.840343	-52.171645	99.888698	-52.171645	99.888698	-0.116498	-74.840072
5.250000	-0.118252	-75.495055	-51.943784	98.417396	-51.943784	98.417396	-0.118250	-75.494774
5.300000	-0.120013	-76.149300	-51.720699	96.946320	-51.720699	96.946320	-0.120011	-76.149008
5.350000	-0.121812	-76.801456	-51.498597	95.476464	-51.498597	95.476464	-0.121811	-76.801154
5.400000	-0.123624	-77.452916	-51.280538	94.007016	-51.280538	94.007016	-0.123623	-77.452603
5.450000	-0.125472	-78.102537	-51.063929	92.538812	-51.063929	92.538812	-0.125470	-78.102213
5.500000	-0.127337	-78.751239	-50.850694	91.071229	-50.850694	91.071229	-0.127336	-78.750903
5.550000	-0.129234	-79.398347	-50.639331	89.604851	-50.639331	89.604851	-0.129233	-79.397999
5.600000	-0.131154	-80.044317	-50.430730	88.139333	-50.430730	88.139333	-0.131153	-80.043958
5.650000	-0.133103	-80.688938	-50.224379	86.674928	-50.224379	86.674928	-0.133101	-80.688567
5.700000	-0.135079	-81.332208	-50.020235	85.211636	-50.020235	85.211636	-0.135077	-81.331826
5.750000	-0.137080	-81.974369	-49.818679	83.749325	-49.818679	83.749325	-0.137078	-81.973974
5.800000	-0.139114	-82.614975	-49.618823	82.288387	-49.618823	82.288387	-0.139112	-82.614568
5.850000	-0.141169	-83.254706	-49.421862	80.828265	-49.421862	80.828265	-0.141166	-83.254286
5.900000	-0.143263	-83.892686	-49.226137	79.369776	-49.226137	79.369776	-0.143260	-83.892253
5.950000	-0.145373	-84.530020	-49.033581	77.911917	-49.033581	77.911917	-0.145370	-84.529574
6.000000	-0.147528	-85.165416	-48.841842	76.455944	-48.841842	76.455944	-0.147526	-85.164957
6.050000	-0.149695	-85.800389	-48.653517	75.000396	-48.653517	75.000396	-0.149692	-85.799917
6.100000	-0.151914	-86.433247	-48.465629	73.546978	-48.465629	73.546978	-0.151911	-86.432761
6.150000	-0.154139	-87.065898	-48.281372	72.093773	-48.281372	72.093773	-0.154136	-87.065399
6.200000	-0.156424	-87.696270	-48.097209	70.642923	-48.097209	70.642923	-0.156420	-87.695756
6.250000	-0.158709	-88.326642	-47.916870	69.192072	-47.916870	69.192072	-0.158705	-88.326113
6.300000	-0.161060	-88.954582	-47.736320	67.743781	-47.736320	67.743781	-0.161057	-88.954039
6.350000	-0.163413	-89.582523	-47.559446	66.295491	-47.559446	66.295491	-0.163409	-89.581964
6.400000	-0.165828	-90.208292	-47.382717	64.849521	-47.382717	64.849521	-0.165824	-90.207717
6.450000	-0.168249	-90.833864	-47.209212	63.403761	-47.209212	63.403761	-0.168245	-90.833273
6.500000	-0.170730	-91.457519	-47.036181	61.960073	-47.036181	61.960073	-0.170725	-91.456911
6.550000	-0.173222	-92.080790	-46.865957	60.516800	-46.865957	60.516800	-0.173218	-92.080165
6.600000	-0.175770	-92.702394	-46.696509	59.075344	-46.696509	59.075344	-0.175765	-92.701750
6.650000	-0.178336	-93.323442	-46.529488	57.634494	-46.529488	57.634494	-0.178331	-93.322779
6.700000	-0.180953	-93.943066	-46.363520	56.195210	-46.363520	56.195210	-0.180947	-93.942383
6.750000	-0.183595	-94.561978	-46.199633	54.756709	-46.199633	54.756709	-0.183589	-94.561275
6.800000	-0.186283	-95.179702	-46.037048	53.319525	-46.037048	53.319525	-0.186277	-95.178978
6.850000	-0.189003	-95.796578	-45.876233	51.883282	-45.876233	51.883282	-0.188998	-95.795831
6.900000	-0.191765	-96.412495	-45.716942	50.448115	-45.716942	50.448115	-0.191759	-96.411724
6.950000	-0.194567	-97.027453	-45.559143	49.014025	-45.559143	49.014025	-0.194561	-97.026657
7.000000	-0.197405	-97.641670	-45.403061	47.580777	-45.403061	47.580777	-0.197399	-97.640848
7.050000	-0.200293	-98.254851	-45.248224	46.148709	-45.248224	46.148709	-0.200286	-98.254000
7.100000	-0.203210	-98.867497	-45.095268	44.717259	-45.095268	44.717259	-0.203203	-98.866616
7.150000	-0.206187	-99.479073	-44.943331	43.287045	-44.943331	43.287045	-0.206179	-99.478159
7.200000	-0.209188	-100.090302	-44.793414	41.857233	-44.793414	41.857233	-0.209180	-100.089355
7.250000	-0.212259	-100.700493	-44.644297	40.428627	-44.644297	40.428627	-0.212251	-100.699507
7.300000	-0.215349	-101.310500	-44.497316	39.000223	-44.497316	39.000223	-0.215340	-101.309476
7.350000	-0.218522	-101.919592	-44.350901	37.572828	-44.350901	37.572828	-0.218513	-101.918523
7.400000	-0.221707	-102.528624	-44.206720	36.145474	-44.206720	36.145474	-0.221697	-102.527510
7.450000	-0.224994	-103.137010	-44.062797	34.718574	-44.062797	34.718574	-0.224983	-103.135843
7.500000	-0.228282	-103.745395	-43.921220	33.291674	-43.921220	33.291674	-0.228271	-103.744175
7.550000	-0.231699	-104.353637	-43.779393	31.863854	-43.779393	31.863854	-0.231687	-104.352353
7.600000	-0.235118	-104.961879	-43.639845	30.436033	-43.639845	30.436033	-0.235104	-104.960531
7.650000	-0.238681	-105.570772	-43.499589	29.004581	-43.499589	29.004581	-0.238666	-105.569346
7.700000	-0.242258	-106.179724	-43.361300	27.572799	-43.361300	27.572799	-0.242242	-106.178219
7.750000	-0.246012	-106.790422	-43.221188	26.131776	-43.221188	26.131776	-0.245994	-106.788822
7.800000	-0.249802	-107.401470	-43.082514	24.688905	-43.082514	24.688905	-0.249782	-107.399770
7.850000	-0.253835	-108.015921	-42.939502	23.223795	-42.939502	23.223795	-0.253811	-108.014102
7.900000	-0.257949	-108.631506	-42.796671	21.751271	-42.796671	21.751271	-0.257923	-108.629561
7.950000	-0.262322	-109.251143	-42.648298	20.244926	-42.648298	20.244926	-0.262291	-109.249054
8.000000	-0.267080	-109.876880	-42.489998	18.678323	-42.489998	18.678323	-0.267046	-109.874625
8.050000	-0.272370	-110.510682	-42.316613	17.010531	-42.316613	17.010531	-0.272331	-110.508241
8.100000	-0.278517	-111.156484	-42.117523	15.150706	-42.117523	15.150706	-0.278476	-111.153834
8.150000	-0.285835	-111.817100	-41.884625	12.998246	-41.884625	12.998246	-0.285794	-111.814225
8.200000	-0.296150	-112.509303	-41.570091	9.996732	-41.570091	9.996732	-0.296124	-112.506182
8.250000	-0.312631	-113.249901	-41.129838	5.070050	-41.129838	5.070050	-0.312666	-113.246499
8.300000	-0.345798	-114.072121	-40.519694	-5.279779	-40.519694	-5.279779	-0.346040	-114.068111
8.350000	-0.434337	-114.946417	-40.139377	-34.188955	-40.139377	-34.188955	-0.435187	-114.938651
8.400000	-0.608353	-114.992068	-41.899685	-133.867652	-41.899685	-133.867652	-0.608704	-114.965233
8.450000	-0.603344	-114.261052	-36.319054	94.043783	-36.319054	94.043783	-0.598022	-114.242543
8.500000	-0.474154	-114.218632	-36.017767	35.743381	-36.017767	35.743381	-0.470447	-114.230233
8.550000	-0.381083	-114.975008	-37.510280	15.074681	-37.510280	15.074681	-0.379454	-114.987712
8.600000	-0.347948	-115.790963	-38.495300	6.940255	-38.495300	6.940255	-0.347151	-115.800973
8.650000	-0.336466	-116.533896	-39.054116	2.818275	-39.054116	2.818275	-0.336025	-116.541703
8.700000	-0.332784	-117.226020	-39.374099	0.140432	-39.374099	0.140432	-0.332521	-117.232259
8.750000	-0.332693	-117.884995	-39.549517	-1.896762	-39.549517	-1.896762	-0.332524	-117.890128
8.800000	-0.334384	-118.522717	-39.639055	-3.640421	-39.639055	-3.640421	-0.334270	-118.527046
8.850000	-0.336998	-119.147364	-39.679428	-5.246629	-39.679428	-5.246629	-0.336920	-119.151069
8.900000	-0.340221	-119.762187	-39.685493	-6.771941	-39.685493	-6.771941	-0.340167	-119.765401
8.950000	-0.343851	-120.369742	-39.668246	-8.250232	-39.668246	-8.250232	-0.343813	-120.372559
9.000000	-0.347845	-120.970199	-39.630703	-9.693754	-39.630703	-9.693754	-0.347818	-120.972706
9.050000	-0.351923	-121.568978	-39.588859	-11.130249	-39.588859	-11.130249	-0.351906	-121.571194
9.100000	-0.356272	-122.162148	-39.533583	-12.547258	-39.533583	-12.547258	-0.356260	-122.164135
9.150000	-0.360699	-122.753722	-39.475416	-13.960095	-39.475416	-13.960095	-0.360692	-122.755495
9.200000	-0.365263	-123.342472	-39.411945	-15.365552	-39.411945	-15.365552	-0.365259	-123.344059
9.250000	-0.369932	-123.929154	-39.345543	-16.766469	-39.345543	-16.766469	-0.369932	-123.930574
9.300000	-0.374667	-124.514597	-39.277627	-18.164660	-39.277627	-18.164660	-0.374668	-124.515859
9.350000	-0.379528	-125.097751	-39.207339	-19.558024	-39.207339	-19.558024	-0.379530	-125.098871
9.400000	-0.384426	-125.680303	-39.136969	-20.950061	-39.136969	-20.950061	-0.384428	-125.681287
9.450000	-0.389433	-126.261105	-39.065589	-22.338091	-39.065589	-22.338091	-0.389435	-126.261963
9.500000	-0.394490	-126.841201	-38.994409	-23.724210	-38.994409	-23.724210	-0.394492	-126.841936
9.550000	-0.399618	-127.420309	-38.923277	-25.107655	-38.923277	-25.107655	-0.399619	-127.420924
9.600000	-0.404823	-127.998454	-38.852563	-26.487880	-38.852563	-26.487880	-0.404822	-127.998954
9.650000	-0.410066	-128.576148	-38.782345	-27.866593	-38.782345	-27.866593	-0.410064	-128.576534
9.700000	-0.415411	-129.152715	-38.712940	-29.240551	-38.712940	-29.240551	-0.415407	-129.152990
9.750000	-0.420787	-129.729005	-38.644236	-30.613097	-38.644236	-30.613097	-0.420780	-129.729168
9.800000	-0.426247	-130.304492	-38.576583	-31.981343	-38.576583	-31.981343	-0.426238	-130.304544
9.850000	-0.431758	-130.879573	-38.509900	-33.346812	-38.509900	-33.346812	-0.431745	-130.879512
9.900000	-0.437326	-131.454198	-38.444223	-34.709178	-38.444223	-34.709178	-0.437309	-131.454025
9.950000	-0.442970	-132.028284	-38.379912	-36.066861	-38.379912	-36.066861	-0.442949	-132.027996
10.000000	-0.448644	-132.602176	-38.316385	-37.422866	-38.316385	-37.422866	-0.448619	-132.601773
