! freq	dB(S11)	phase(S11)	dB(S12)	phase(S12)	
!     	dB(S21)	phase(S21)	dB(S22)	phase(S22)	
!S-par simulation data
#  GHz  S  DB  R 50
0.000000	0.000000	0.000000	-368.204797	0.000000	-368.204797	0.000000	-0.000000	0.000000
0.050000	-0.000759	-1.286113	-101.151623	88.989257	-101.151623	88.989257	-0.000481	-0.826191
0.100000	-0.002672	-2.567596	-95.145104	87.980725	-95.145104	87.980725	-0.001688	-1.649442
0.150000	-0.005073	-3.843149	-91.646821	86.976655	-91.646821	86.976655	-0.003192	-2.469000
0.200000	-0.007457	-5.113919	-89.182741	85.979895	-89.182741	85.979895	-0.004677	-3.285685
0.250000	-0.009649	-6.382062	-87.286845	84.991830	-87.286845	84.991830	-0.006038	-4.100882
0.300000	-0.011606	-7.648549	-85.754823	84.015368	-85.754823	84.015368	-0.007255	-4.915235
0.350000	-0.013360	-8.914015	-84.477010	83.053378	-84.477010	83.053378	-0.008348	-5.729161
0.400000	-0.014955	-10.178699	-83.388424	82.109429	-83.388424	82.109429	-0.009349	-6.542833
0.450000	-0.016430	-11.442553	-82.449658	81.189929	-82.449658	81.189929	-0.010282	-7.356274
0.500000	-0.017838	-12.705555	-81.629111	80.297664	-81.629111	80.297664	-0.011178	-8.169473
0.550000	-0.019203	-13.967574	-80.906434	79.438039	-80.906434	79.438039	-0.012052	-8.982379
0.600000	-0.020546	-15.228465	-80.266599	78.617091	-80.266599	78.617091	-0.012918	-9.794932
0.650000	-0.021883	-16.488081	-79.698154	77.841346	-79.698154	77.841346	-0.013784	-10.607072
0.700000	-0.023224	-17.746284	-79.192129	77.117646	-79.192129	77.117646	-0.014655	-11.418745
0.750000	-0.024576	-19.002839	-78.743085	76.457087	-78.743085	76.457087	-0.015537	-12.229863
0.800000	-0.025947	-20.257610	-78.344872	75.867534	-78.344872	75.867534	-0.016434	-13.040376
0.850000	-0.027339	-21.510510	-77.991823	75.355490	-77.991823	75.355490	-0.017345	-13.850250
0.900000	-0.028752	-22.761568	-77.677838	74.922730	-77.677838	74.922730	-0.018271	-14.659494
0.950000	-0.030187	-24.010568	-77.401045	74.582187	-77.401045	74.582187	-0.019212	-15.468033
1.000000	-0.031644	-25.257407	-77.158361	74.343163	-77.158361	74.343163	-0.020169	-16.275835
1.050000	-0.033123	-26.501987	-76.947022	74.215927	-76.947022	74.215927	-0.021140	-17.082866
1.100000	-0.034623	-27.744215	-76.764455	74.211856	-76.764455	74.211856	-0.022125	-17.889097
1.150000	-0.036141	-28.984005	-76.608168	74.343519	-76.608168	74.343519	-0.023123	-18.694502
1.200000	-0.037675	-30.221271	-76.475631	74.624685	-76.475631	74.624685	-0.024131	-19.499055
1.250000	-0.039224	-31.455936	-76.364166	75.070242	-76.364166	75.070242	-0.025150	-20.302732
1.300000	-0.040786	-32.687805	-76.271419	75.704607	-76.271419	75.704607	-0.026177	-21.105471
1.350000	-0.042357	-33.916920	-76.193129	76.537005	-76.193129	76.537005	-0.027212	-21.907291
1.400000	-0.043937	-35.143215	-76.125347	77.583628	-76.125347	77.583628	-0.028254	-22.708171
1.450000	-0.045522	-36.366626	-76.063481	78.859542	-76.063481	78.859542	-0.029300	-23.508095
1.500000	-0.047111	-37.587093	-76.002212	80.377396	-76.002212	80.377396	-0.030350	-24.307045
1.550000	-0.048702	-38.804560	-75.935448	82.145753	-75.935448	82.145753	-0.031403	-25.105005
1.600000	-0.050293	-40.018972	-75.856367	84.167086	-75.856367	84.167086	-0.032458	-25.901961
1.650000	-0.051882	-41.230281	-75.757567	86.435598	-75.757567	86.435598	-0.033514	-26.697897
1.700000	-0.053469	-42.438438	-75.631362	88.935169	-75.631362	88.935169	-0.034571	-27.492800
1.750000	-0.055051	-43.643397	-75.470237	91.637860	-75.470237	91.637860	-0.035628	-28.286656
1.800000	-0.056627	-44.845118	-75.267416	94.503497	-75.267416	94.503497	-0.036685	-29.079454
1.850000	-0.058197	-46.043561	-75.017497	97.480762	-75.017497	97.480762	-0.037740	-29.871181
1.900000	-0.059760	-47.238688	-74.717016	100.509953	-74.717016	100.509953	-0.038794	-30.661825
1.950000	-0.061315	-48.430465	-74.364829	103.527186	-74.364829	103.527186	-0.039847	-31.451376
2.000000	-0.062862	-49.618859	-73.962208	106.469350	-73.962208	106.469350	-0.040898	-32.239822
2.050000	-0.064400	-50.803840	-73.512633	109.278924	-73.512633	109.278924	-0.041947	-33.027152
2.100000	-0.065930	-51.985379	-73.021327	111.907789	-73.021327	111.907789	-0.042995	-33.813357
2.150000	-0.067451	-53.163451	-72.494649	114.319489	-72.494649	114.319489	-0.044041	-34.598427
2.200000	-0.068963	-54.338031	-71.939465	116.489819	-71.939465	116.489819	-0.045086	-35.382352
2.250000	-0.070468	-55.509096	-71.362604	118.406028	-71.362604	118.406028	-0.046129	-36.165123
2.300000	-0.071964	-56.676626	-70.770454	120.065089	-70.770454	120.065089	-0.047172	-36.946730
2.350000	-0.073454	-57.840602	-70.168712	121.471570	-70.168712	121.471570	-0.048214	-37.727165
2.400000	-0.074937	-59.001007	-69.562261	122.635483	-69.562261	122.635483	-0.049256	-38.506419
2.450000	-0.076414	-60.157825	-68.955156	123.570382	-68.955156	123.570382	-0.050298	-39.284485
2.500000	-0.077887	-61.311041	-68.350669	124.291810	-68.350669	124.291810	-0.051341	-40.061352
2.550000	-0.079356	-62.460487	-67.749910	124.808346	-67.749910	124.808346	-0.052385	-40.836963
2.600000	-0.080821	-63.606306	-67.156538	125.145580	-67.156538	125.145580	-0.053431	-41.611360
2.650000	-0.082286	-64.748491	-66.571990	125.319197	-66.571990	125.319197	-0.054480	-42.384537
2.700000	-0.083750	-65.887034	-65.997299	125.343962	-65.997299	125.343962	-0.055531	-43.156487
2.750000	-0.085214	-67.021926	-65.433170	125.233567	-65.433170	125.233567	-0.056586	-43.927204
2.800000	-0.086681	-68.153165	-64.880054	125.000565	-64.880054	125.000565	-0.057645	-44.696681
2.850000	-0.088150	-69.280745	-64.338201	124.656379	-64.338201	124.656379	-0.058710	-45.464914
2.900000	-0.089624	-70.404666	-63.807705	124.211345	-63.807705	124.211345	-0.059779	-46.231896
2.950000	-0.091104	-71.524924	-63.288544	123.674779	-63.288544	123.674779	-0.060855	-46.997623
3.000000	-0.092591	-72.641522	-62.780605	123.055052	-62.780605	123.055052	-0.061938	-47.762090
3.050000	-0.094086	-73.754460	-62.283711	122.359679	-62.283711	122.359679	-0.063028	-48.525295
3.100000	-0.095590	-74.863741	-61.797636	121.595397	-61.797636	121.595397	-0.064126	-49.287232
3.150000	-0.097105	-75.969371	-61.322120	120.768242	-61.322120	120.768242	-0.065233	-50.047901
3.200000	-0.098632	-77.071354	-60.856881	119.883623	-60.856881	119.883623	-0.066350	-50.807298
3.250000	-0.100173	-78.169698	-60.401621	118.946391	-60.401621	118.946391	-0.067477	-51.565422
3.300000	-0.101727	-79.264410	-59.956035	117.960893	-59.956035	117.960893	-0.068614	-52.322273
3.350000	-0.103297	-80.355501	-59.519814	116.931032	-59.519814	116.931032	-0.069764	-53.077850
3.400000	-0.104883	-81.442981	-59.092648	115.860312	-59.092648	115.860312	-0.070925	-53.832154
3.450000	-0.106486	-82.526864	-58.674232	114.751882	-58.674232	114.751882	-0.072099	-54.585187
3.500000	-0.108108	-83.607161	-58.264264	113.608572	-58.264264	113.608572	-0.073286	-55.336952
3.550000	-0.109749	-84.683888	-57.862447	112.432930	-57.862447	112.432930	-0.074487	-56.087450
3.600000	-0.111411	-85.757062	-57.468495	111.227247	-57.468495	111.227247	-0.075703	-56.836688
3.650000	-0.113093	-86.826700	-57.082125	109.993584	-57.082125	109.993584	-0.076934	-57.584671
3.700000	-0.114797	-87.892820	-56.703065	108.733797	-56.703065	108.733797	-0.078181	-58.331405
3.750000	-0.116524	-88.955443	-56.331048	107.449555	-56.331048	107.449555	-0.079445	-59.076899
3.800000	-0.118276	-90.014441	-55.965447	106.141424	-55.965447	106.141424	-0.080726	-59.821108
3.850000	-0.120051	-91.069987	-55.606407	104.811790	-55.606407	104.811790	-0.082025	-60.564097
3.900000	-0.121851	-92.122107	-55.253683	103.461841	-55.253683	103.461841	-0.083342	-61.305880
3.950000	-0.123675	-93.170825	-54.907037	102.092637	-54.907037	102.092637	-0.084678	-62.046470
4.000000	-0.125526	-94.216169	-54.566237	100.705119	-54.566237	100.705119	-0.086033	-62.785883
4.050000	-0.127402	-95.258167	-54.231058	99.300120	-54.231058	99.300120	-0.087408	-63.524138
4.100000	-0.129305	-96.296847	-53.901280	97.878369	-53.901280	97.878369	-0.088804	-64.261254
4.150000	-0.131235	-97.332240	-53.576688	96.440502	-53.576688	96.440502	-0.090221	-64.997255
4.200000	-0.133191	-98.364378	-53.257071	94.987060	-53.257071	94.987060	-0.091660	-65.732166
4.250000	-0.135175	-99.393294	-52.942223	93.518498	-52.942223	93.518498	-0.093122	-66.466014
4.300000	-0.137187	-100.419022	-52.631940	92.035185	-52.631940	92.035185	-0.094606	-67.198832
4.350000	-0.139227	-101.441597	-52.326020	90.537409	-52.326020	90.537409	-0.096114	-67.930654
4.400000	-0.141295	-102.461055	-52.024263	89.025374	-52.024263	89.025374	-0.097647	-68.661518
4.450000	-0.143391	-103.477435	-51.726468	87.499203	-51.726468	87.499203	-0.099205	-69.391469
4.500000	-0.145516	-104.490773	-51.432436	85.958936	-51.432436	85.958936	-0.100789	-70.120553
4.550000	-0.147669	-105.501112	-51.141963	84.404528	-51.141963	84.404528	-0.102400	-70.848824
4.600000	-0.149851	-106.508490	-50.854846	82.835845	-50.854846	82.835845	-0.104039	-71.576342
4.650000	-0.152061	-107.512951	-50.570875	81.252662	-50.570875	81.252662	-0.105707	-72.303172
4.700000	-0.154301	-108.514536	-50.289835	79.654654	-50.289835	79.654654	-0.107406	-73.029389
4.750000	-0.156569	-109.513291	-50.011505	78.041390	-50.011505	78.041390	-0.109136	-73.755076
4.800000	-0.158866	-110.509260	-49.735653	76.412326	-49.735653	76.412326	-0.110899	-74.480327
4.850000	-0.161193	-111.502489	-49.462037	74.766788	-49.462037	74.766788	-0.112696	-75.205246
4.900000	-0.163548	-112.493024	-49.190401	73.103963	-49.190401	73.103963	-0.114531	-75.929952
4.950000	-0.165932	-113.480915	-48.920469	71.422878	-48.920469	71.422878	-0.116405	-76.654579
5.000000	-0.168346	-114.466210	-48.651949	69.722383	-48.651949	69.722383	-0.118320	-77.379281
5.050000	-0.170799	-115.447982	-48.381598	67.992377	-48.381598	67.992377	-0.120299	-78.104408
5.100000	-0.173267	-116.428628	-48.115868	66.251411	-48.115868	66.251411	-0.122303	-78.829828
5.150000	-0.175771	-117.406132	-47.848444	64.479872	-47.848444	64.479872	-0.124373	-79.556064
5.200000	-0.178302	-118.381469	-47.581280	62.682768	-47.581280	62.682768	-0.126500	-80.283331
5.250000	-0.180857	-119.354867	-47.315384	60.862791	-47.315384	60.862791	-0.128678	-81.011521
5.300000	-0.183452	-120.325147	-47.044462	58.997198	-47.044462	58.997198	-0.130962	-81.742136
5.350000	-0.186060	-121.294398	-46.777371	57.115715	-46.777371	57.115715	-0.133283	-82.473644
5.400000	-0.188715	-122.260093	-46.500646	55.168169	-46.500646	55.168169	-0.135763	-83.209461
5.450000	-0.191387	-123.224645	-46.225268	53.192906	-46.225268	53.192906	-0.138315	-83.947396
5.500000	-0.194092	-124.186761	-45.943500	51.158595	-45.943500	51.158595	-0.141021	-84.689841
5.550000	-0.196826	-125.146904	-45.654725	49.060017	-45.654725	49.060017	-0.143908	-85.437866
5.600000	-0.199581	-126.105636	-45.364289	46.915533	-45.364289	46.915533	-0.146927	-86.189875
5.650000	-0.202377	-127.061683	-45.054546	44.649359	-45.054546	44.649359	-0.150334	-86.953643
5.700000	-0.205184	-128.016999	-44.746928	42.346029	-44.746928	42.346029	-0.153866	-87.721119
5.750000	-0.208028	-128.969994	-44.416142	39.893692	-44.416142	39.893692	-0.157944	-88.504314
5.800000	-0.210899	-129.921438	-44.067261	37.306291	-44.067261	37.306291	-0.162580	-89.302673
5.850000	-0.213795	-130.871433	-43.695566	34.554540	-43.695566	34.554540	-0.167975	-90.120373
5.900000	-0.216717	-131.820098	-43.294888	31.599858	-43.294888	31.599858	-0.174428	-90.963086
5.950000	-0.219663	-132.767584	-42.857010	28.390340	-42.857010	28.390340	-0.182399	-91.838693
6.000000	-0.222636	-133.714057	-42.367807	24.841004	-42.367807	24.841004	-0.192738	-92.760333
6.050000	-0.225639	-134.659793	-41.807717	20.830057	-41.807717	20.830057	-0.206912	-93.747666
6.100000	-0.228679	-135.605251	-41.154300	16.202462	-41.154300	16.202462	-0.227365	-94.827242
6.150000	-0.231780	-136.551076	-40.372124	10.702350	-40.372124	10.702350	-0.258889	-96.043175
6.200000	-0.235016	-137.498481	-39.389619	3.806559	-39.389619	3.806559	-0.313408	-97.484374
6.250000	-0.238602	-138.449611	-38.116868	-5.357355	-38.116868	-5.357355	-0.418649	-99.288295
6.300000	-0.243300	-139.408432	-36.406555	-18.790241	-36.406555	-18.790241	-0.658994	-101.675990
6.350000	-0.252076	-140.376813	-34.173955	-41.539410	-34.173955	-41.539410	-1.327800	-104.380294
6.400000	-0.270253	-141.296745	-32.568507	-83.828470	-32.568507	-83.828470	-2.803614	-100.035801
6.450000	-0.275438	-142.114159	-35.054867	-135.716700	-35.054867	-135.716700	-2.037676	-88.245940
6.500000	-0.270193	-143.010530	-39.509226	-171.847078	-39.509226	-171.847078	-0.973122	-89.225538
6.550000	-0.268730	-143.942216	-43.168298	160.639379	-43.168298	160.639379	-0.586420	-91.698874
6.600000	-0.269669	-144.877641	-45.554342	135.921194	-45.554342	135.921194	-0.427978	-93.643973
6.650000	-0.271736	-145.811796	-46.724746	114.155624	-46.724746	114.155624	-0.351300	-95.171480
6.700000	-0.274388	-146.744191	-47.044831	96.588303	-47.044831	96.588303	-0.309672	-96.437709
6.750000	-0.277366	-147.675110	-46.936485	82.938915	-46.936485	82.938915	-0.284720	-97.545110
6.800000	-0.280564	-148.604769	-46.639734	72.466561	-46.639734	72.466561	-0.269287	-98.543534
6.850000	-0.283915	-149.533392	-46.282551	64.268930	-46.282551	64.268930	-0.259482	-99.466815
6.900000	-0.287397	-150.461061	-45.919467	57.817762	-45.919467	57.817762	-0.253552	-100.330707
6.950000	-0.290957	-151.388130	-45.572123	52.298257	-45.572123	52.298257	-0.249571	-101.161275
7.000000	-0.294597	-152.314614	-45.245453	47.597912	-45.245453	47.597912	-0.247252	-101.961190
7.050000	-0.298306	-153.240618	-44.940695	43.501079	-44.940695	43.501079	-0.246125	-102.737210
7.100000	-0.302078	-154.166237	-44.656676	39.859092	-44.656676	39.859092	-0.245881	-103.494214
7.150000	-0.305907	-155.091558	-44.391426	36.567231	-44.391426	36.567231	-0.246309	-104.235804
7.200000	-0.309791	-156.016662	-44.142849	33.550099	-44.142849	33.550099	-0.247262	-104.964700
7.250000	-0.313725	-156.941626	-43.908988	30.752268	-43.908988	30.752268	-0.248634	-105.682996
7.300000	-0.317709	-157.866522	-43.688107	28.132206	-43.688107	28.132206	-0.250348	-106.392328
7.350000	-0.321741	-158.791422	-43.478705	25.658243	-43.478705	25.658243	-0.252347	-107.093995
7.400000	-0.325818	-159.716394	-43.279501	23.305851	-43.279501	23.305851	-0.254588	-107.789044
7.450000	-0.329941	-160.641507	-43.089405	21.055764	-43.089405	21.055764	-0.257036	-108.478328
7.500000	-0.334108	-161.566827	-42.907489	18.892650	-42.907489	18.892650	-0.259666	-109.162550
7.550000	-0.338320	-162.492435	-42.733110	16.806952	-42.733110	16.806952	-0.262464	-109.842124
7.600000	-0.342574	-163.418388	-42.565424	14.785133	-42.565424	14.785133	-0.265407	-110.517753
7.650000	-0.346871	-164.344752	-42.403864	12.819157	-42.403864	12.819157	-0.268482	-111.189850
7.700000	-0.351208	-165.271590	-42.247942	10.902354	-42.247942	10.902354	-0.271679	-111.858767
7.750000	-0.355586	-166.198968	-42.097241	9.029150	-42.097241	9.029150	-0.274991	-112.524812
7.800000	-0.360005	-167.126950	-41.951399	7.194857	-41.951399	7.194857	-0.278411	-113.188255
7.850000	-0.364462	-168.055602	-41.810106	5.395511	-41.810106	5.395511	-0.281934	-113.849333
7.900000	-0.368958	-168.984989	-41.673092	3.627742	-41.673092	3.627742	-0.285556	-114.508258
7.950000	-0.373493	-169.915175	-41.540124	1.888678	-41.540124	1.888678	-0.289273	-115.165220
8.000000	-0.378065	-170.846225	-41.411002	0.175859	-41.411002	0.175859	-0.293083	-115.820391
8.050000	-0.382674	-171.778207	-41.285552	-1.512821	-41.285552	-1.512821	-0.296984	-116.473930
8.100000	-0.387320	-172.711184	-41.163627	-3.179173	-41.163627	-3.179173	-0.300974	-117.125980
8.150000	-0.392001	-173.645223	-41.045100	-4.824750	-41.045100	-4.824750	-0.305052	-117.776679
8.200000	-0.396717	-174.580392	-40.929865	-6.450881	-40.929865	-6.450881	-0.309218	-118.426152
8.250000	-0.401468	-175.516756	-40.817836	-8.058700	-40.817836	-8.058700	-0.313470	-119.074522
8.300000	-0.406253	-176.454383	-40.708941	-9.649167	-40.708941	-9.649167	-0.317809	-119.721904
8.350000	-0.411074	-177.393507	-40.603338	-11.221287	-40.603338	-11.221287	-0.322244	-120.368330
8.400000	-0.415926	-178.333923	-40.500638	-12.778628	-40.500638	-12.778628	-0.326761	-121.014038
8.450000	-0.420810	-179.275894	-40.401058	-14.320201	-40.401058	-14.320201	-0.331368	-121.659114
8.500000	-0.425717	179.781087	-40.303888	-15.851140	-40.303888	-15.851140	-0.336038	-122.303764
8.550000	-0.430669	178.835645	-40.210734	-17.360138	-40.210734	-17.360138	-0.340840	-122.947790
8.600000	-0.435636	177.889435	-40.119505	-18.862449	-40.119505	-18.862449	-0.345685	-123.591670
8.650000	-0.440646	176.940576	-40.032451	-20.342716	-40.032451	-20.342716	-0.350668	-124.235224
8.700000	-0.445676	175.990455	-39.947845	-21.813043	-39.947845	-21.813043	-0.355715	-124.878779
8.750000	-0.450736	175.038353	-39.866523	-23.267748	-39.866523	-23.267748	-0.360863	-125.522338
8.800000	-0.455826	174.083991	-39.788902	-24.705050	-39.788902	-24.705050	-0.366122	-126.166174
8.850000	-0.460934	173.128427	-39.713522	-26.133095	-39.713522	-26.133095	-0.371441	-126.810158
8.900000	-0.466083	172.169484	-39.643429	-27.534910	-39.643429	-27.534910	-0.376923	-127.454972
8.950000	-0.471244	171.209528	-39.575357	-28.928628	-39.575357	-28.928628	-0.382456	-128.100127
9.000000	-0.476441	170.246368	-39.512511	-30.296426	-39.512511	-30.296426	-0.388145	-128.746485
9.050000	-0.481658	169.281367	-39.453053	-31.648210	-39.453053	-31.648210	-0.393927	-129.393799
9.100000	-0.486899	168.314067	-39.397643	-32.979980	-39.397643	-32.979980	-0.399824	-130.042307
9.150000	-0.492170	167.343669	-39.347990	-34.281799	-39.347990	-34.281799	-0.405885	-130.692930
9.200000	-0.497455	166.371996	-39.300831	-35.571286	-39.300831	-35.571286	-0.412014	-131.344425
9.250000	-0.502778	165.395843	-39.262579	-36.811069	-39.262579	-36.811069	-0.418398	-131.999855
9.300000	-0.508114	164.418417	-39.227224	-38.034392	-39.227224	-38.034392	-0.424866	-132.656676
9.350000	-0.513481	163.437288	-39.200018	-39.209062	-39.200018	-39.209062	-0.431573	-133.317637
9.400000	-0.518870	162.453615	-39.179134	-40.342839	-39.179134	-40.342839	-0.438478	-133.982213
9.450000	-0.524280	161.467396	-39.164526	-41.435723	-39.164526	-41.435723	-0.445582	-134.650407
9.500000	-0.529723	160.477102	-39.161325	-42.445842	-39.161325	-42.445842	-0.453081	-135.326008
9.550000	-0.535179	159.485393	-39.162141	-43.426259	-39.162141	-43.426259	-0.460727	-136.004264
9.600000	-0.540677	158.488256	-39.180328	-44.262465	-39.180328	-44.262465	-0.469081	-136.695283
9.650000	-0.546191	157.489417	-39.204753	-45.037310	-39.204753	-45.037310	-0.477759	-137.391560
9.700000	-0.551737	156.486445	-39.244369	-45.663134	-39.244369	-45.663134	-0.487215	-138.100609
9.750000	-0.557304	155.481125	-39.293572	-46.178631	-39.293572	-46.178631	-0.497288	-138.818763
9.800000	-0.562907	154.471374	-39.361397	-46.453052	-39.361397	-46.453052	-0.508761	-139.556299
9.850000	-0.568542	153.457974	-39.445293	-46.467749	-39.445293	-46.467749	-0.521866	-140.313710
9.900000	-0.574209	152.440982	-39.544566	-46.157259	-39.544566	-46.157259	-0.537185	-141.094765
9.950000	-0.579912	151.419948	-39.658279	-45.375997	-39.658279	-45.375997	-0.556015	-141.908065
10.000000	-0.585649	150.395382	-39.778934	-44.062814	-39.778934	-44.062814	-0.579257	-142.755407
