! freq	dB(S11)	phase(S11)	dB(S12)	phase(S12)	
!     	dB(S21)	phase(S21)	dB(S22)	phase(S22)	
!S-par simulation data
#  GHz  S  DB  R 50
0.000000	-0.000000	-0.000000	-363.167451	180.000000	-363.167451	180.000000	-0.000000	-0.000000
0.050000	-0.000096	-0.908308	-102.346305	40.799814	-102.346305	40.799814	-0.000096	-0.908308
0.100000	-0.000383	-1.816412	-100.934210	39.058675	-100.934210	39.058675	-0.000383	-1.816412
0.150000	-0.000852	-2.724117	-99.924655	43.510535	-99.924655	43.510535	-0.000851	-2.724118
0.200000	-0.001489	-3.631253	-98.948537	48.316763	-98.948537	48.316763	-0.001488	-3.631255
0.250000	-0.002289	-4.537617	-98.024601	52.391291	-98.024601	52.391291	-0.002288	-4.537620
0.300000	-0.003219	-5.443147	-97.188096	55.719779	-97.188096	55.719779	-0.003219	-5.443152
0.350000	-0.004269	-6.347709	-96.451726	58.393986	-96.451726	58.393986	-0.004268	-6.347716
0.400000	-0.005419	-7.251223	-95.820926	60.570393	-95.820926	60.570393	-0.005418	-7.251232
0.450000	-0.006650	-8.153631	-95.296191	62.394269	-95.296191	62.394269	-0.006648	-8.153643
0.500000	-0.007944	-9.054899	-94.876279	63.991864	-94.876279	63.991864	-0.007942	-9.054914
0.550000	-0.009285	-9.955008	-94.559908	65.474867	-94.559908	65.474867	-0.009283	-9.955026
0.600000	-0.010659	-10.853955	-94.346585	66.948126	-94.346585	66.948126	-0.010657	-10.853976
0.650000	-0.012053	-11.751746	-94.236947	68.518473	-94.236947	68.518473	-0.012051	-11.751770
0.700000	-0.013456	-12.648393	-94.232751	70.304798	-94.232751	70.304798	-0.013454	-12.648421
0.750000	-0.014860	-13.543917	-94.336465	72.450464	-94.336465	72.450464	-0.014858	-13.543947
0.800000	-0.016258	-14.438334	-94.550128	75.139570	-94.550128	75.139570	-0.016256	-14.438368
0.850000	-0.017646	-15.331667	-94.872719	78.618255	-94.872719	78.618255	-0.017644	-15.331703
0.900000	-0.019018	-16.223931	-95.294430	83.219271	-95.294430	83.219271	-0.019016	-16.223971
0.950000	-0.020373	-17.115144	-95.785015	89.376711	-95.785015	89.376711	-0.020372	-17.115186
1.000000	-0.021709	-18.005318	-96.273116	97.586650	-96.273116	97.586650	-0.021708	-18.005362
1.050000	-0.023025	-18.894462	-96.620681	108.217595	-96.620681	108.217595	-0.023024	-18.894509
1.100000	-0.024321	-19.782582	-96.623597	121.084425	-96.623597	121.084425	-0.024320	-19.782631
1.150000	-0.025598	-20.669681	-96.097646	135.001378	-96.097646	135.001378	-0.025597	-20.669731
1.200000	-0.026855	-21.555757	-95.025064	148.072790	-95.025064	148.072790	-0.026854	-21.555809
1.250000	-0.028095	-22.440806	-93.574360	158.873052	-93.574360	158.873052	-0.028094	-22.440860
1.300000	-0.029317	-23.324776	-91.942853	166.981386	-91.942853	166.981386	-0.029316	-23.324832
1.350000	-0.030524	-24.207701	-90.298113	172.903357	-90.298113	172.903357	-0.030523	-24.207759
1.400000	-0.031716	-25.089571	-88.710488	177.150930	-88.710488	177.150930	-0.031716	-25.089631
1.450000	-0.032897	-25.970371	-87.207096	-179.842583	-87.207096	-179.842583	-0.032896	-25.970432
1.500000	-0.034066	-26.850085	-85.793852	-177.752581	-85.793852	-177.752581	-0.034066	-26.850148
1.550000	-0.035225	-27.728697	-84.467457	-176.345911	-84.467457	-176.345911	-0.035225	-27.728762
1.600000	-0.036376	-28.606190	-83.221181	-175.456577	-83.221181	-175.456577	-0.036376	-28.606256
1.650000	-0.037520	-29.482543	-82.047450	-174.965649	-82.047450	-174.965649	-0.037520	-29.482611
1.700000	-0.038658	-30.357738	-80.938948	-174.786803	-80.938948	-174.786803	-0.038658	-30.357808
1.750000	-0.039792	-31.231756	-79.889018	-174.856392	-79.889018	-174.856392	-0.039792	-31.231826
1.800000	-0.040921	-32.104574	-78.891769	-175.126716	-78.891769	-175.126716	-0.040921	-32.104647
1.850000	-0.042048	-32.976174	-77.942051	-175.561452	-77.942051	-175.561452	-0.042048	-32.976248
1.900000	-0.043173	-33.846534	-77.035381	-176.132518	-77.035381	-176.132518	-0.043173	-33.846610
1.950000	-0.044298	-34.715634	-76.167858	-176.817897	-76.167858	-176.817897	-0.044298	-34.715712
2.000000	-0.045422	-35.583453	-75.336082	-177.600094	-75.336082	-177.600094	-0.045422	-35.583533
2.050000	-0.046547	-36.449971	-74.537078	-178.465041	-74.537078	-178.465041	-0.046547	-36.450053
2.100000	-0.047674	-37.315168	-73.768238	-179.401297	-73.768238	-179.401297	-0.047674	-37.315251
2.150000	-0.048803	-38.179024	-73.027259	179.600537	-73.027259	179.600537	-0.048803	-38.179109
2.200000	-0.049934	-39.041519	-72.312103	178.548261	-72.312103	178.548261	-0.049934	-39.041607
2.250000	-0.051069	-39.902635	-71.620961	177.448400	-71.620961	177.448400	-0.051069	-39.902725
2.300000	-0.052208	-40.762354	-70.952215	176.306464	-70.952215	176.306464	-0.052207	-40.762446
2.350000	-0.053351	-41.620656	-70.304415	175.127133	-70.304415	175.127133	-0.053350	-41.620750
2.400000	-0.054498	-42.477525	-69.676258	173.914421	-69.676258	173.914421	-0.054498	-42.477622
2.450000	-0.055652	-43.332944	-69.066564	172.671783	-69.066564	172.671783	-0.055651	-43.333043
2.500000	-0.056810	-44.186896	-68.474268	171.402220	-68.474268	171.402220	-0.056810	-44.186997
2.550000	-0.057976	-45.039301	-67.897458	170.107399	-67.897458	170.107399	-0.057975	-45.039404
2.600000	-0.059147	-45.890206	-67.336287	168.790749	-67.336287	168.790749	-0.059147	-45.890312
2.650000	-0.060326	-46.739598	-66.789935	167.454261	-66.789935	167.454261	-0.060326	-46.739706
2.700000	-0.061512	-47.587462	-66.257648	166.099706	-66.257648	166.099706	-0.061512	-47.587573
2.750000	-0.062706	-48.433786	-65.738735	164.728661	-65.738735	164.728661	-0.062705	-48.433899
2.800000	-0.063907	-49.278556	-65.232558	163.342540	-65.232558	163.342540	-0.063907	-49.278672
2.850000	-0.065117	-50.121761	-64.738525	161.942612	-64.738525	161.942612	-0.065117	-50.121879
2.900000	-0.066336	-50.963390	-64.256092	160.530023	-64.256092	160.530023	-0.066335	-50.963510
2.950000	-0.067563	-51.803431	-63.784750	159.105810	-63.784750	159.105810	-0.067563	-51.803554
3.000000	-0.068800	-52.641875	-63.324026	157.670917	-63.324026	157.670917	-0.068800	-52.642000
3.050000	-0.070047	-53.478712	-62.873481	156.226203	-62.873481	156.226203	-0.070046	-53.478840
3.100000	-0.071303	-54.313933	-62.432701	154.772453	-62.432701	154.772453	-0.071303	-54.314063
3.150000	-0.072570	-55.147531	-62.001303	153.310389	-62.001303	153.310389	-0.072570	-55.147664
3.200000	-0.073848	-55.979498	-61.578923	151.840671	-61.578923	151.840671	-0.073847	-55.979633
3.250000	-0.075136	-56.809826	-61.165223	150.363911	-61.165223	150.363911	-0.075136	-56.809964
3.300000	-0.076436	-57.638511	-60.759882	148.880672	-60.759882	148.880672	-0.076436	-57.638651
3.350000	-0.077748	-58.465545	-60.362600	147.391476	-60.362600	147.391476	-0.077748	-58.465688
3.400000	-0.079072	-59.290925	-59.973092	145.896806	-59.973092	145.896806	-0.079072	-59.291070
3.450000	-0.080408	-60.114645	-59.591088	144.397114	-59.591088	144.397114	-0.080408	-60.114793
3.500000	-0.081757	-60.936703	-59.216334	142.892818	-59.216334	142.892818	-0.081757	-60.936853
3.550000	-0.083120	-61.757094	-58.848589	141.384307	-58.848589	141.384307	-0.083120	-61.757247
3.600000	-0.084496	-62.575817	-58.487623	139.871947	-58.487623	139.871947	-0.084496	-62.575973
3.650000	-0.085886	-63.392869	-58.133219	138.356078	-58.133219	138.356078	-0.085886	-63.393027
3.700000	-0.087291	-64.208250	-57.785169	136.837020	-57.785169	136.837020	-0.087291	-64.208410
3.750000	-0.088711	-65.021957	-57.443276	135.315071	-57.443276	135.315071	-0.088710	-65.022120
3.800000	-0.090146	-65.833919	-57.107049	133.790410	-57.107049	133.790410	-0.090146	-65.834084
3.850000	-0.091598	-66.644208	-56.776633	132.263424	-56.776633	132.263424	-0.091598	-66.644375
3.900000	-0.093065	-67.452825	-56.451856	130.734357	-56.451856	130.734357	-0.093065	-67.452995
3.950000	-0.094550	-68.259773	-56.132551	129.203440	-56.132551	129.203440	-0.094550	-68.259945
4.000000	-0.096051	-69.065052	-55.818561	127.670889	-55.818561	127.670889	-0.096051	-69.065227
4.050000	-0.097571	-69.868667	-55.509734	126.136908	-55.509734	126.136908	-0.097570	-69.868844
4.100000	-0.099108	-70.670619	-55.205923	124.601688	-55.205923	124.601688	-0.099108	-70.670799
4.150000	-0.100664	-71.470913	-54.906990	123.065409	-54.906990	123.065409	-0.100664	-71.471095
4.200000	-0.102246	-72.268980	-54.610995	121.528007	-54.610995	121.528007	-0.102245	-72.269165
4.250000	-0.103838	-73.066185	-54.322134	119.990196	-54.322134	119.990196	-0.103837	-73.066373
4.300000	-0.105454	-73.861392	-54.036670	118.451750	-54.036670	118.451750	-0.105454	-73.861582
4.350000	-0.107088	-74.655171	-53.756209	116.912849	-53.756209	116.912849	-0.107088	-74.655364
4.400000	-0.108745	-75.447251	-53.479800	115.373693	-53.479800	115.373693	-0.108744	-75.447446
4.450000	-0.110423	-76.237632	-53.207340	113.834283	-53.207340	113.834283	-0.110423	-76.237829
4.500000	-0.112121	-77.026609	-52.939490	112.294872	-52.939490	112.294872	-0.112121	-77.026810
4.550000	-0.113846	-77.813623	-52.674660	110.755462	-52.674660	110.755462	-0.113846	-77.813826
4.600000	-0.115588	-78.599527	-52.414913	109.216200	-52.414913	109.216200	-0.115588	-78.599733
4.650000	-0.117362	-79.383211	-52.157363	107.677236	-52.157363	107.677236	-0.117362	-79.383419
4.700000	-0.119149	-80.166072	-51.905297	106.138481	-51.905297	106.138481	-0.119148	-80.166283
4.750000	-0.120974	-80.946466	-51.654701	104.600354	-51.654701	104.600354	-0.120974	-80.946680
4.800000	-0.122808	-81.726320	-51.409925	103.062423	-51.409925	103.062423	-0.122808	-81.726536
4.850000	-0.124687	-82.503469	-51.165978	101.525472	-51.165978	101.525472	-0.124686	-82.503689
4.900000	-0.126570	-83.280353	-50.928129	99.988645	-50.928129	99.988645	-0.126570	-83.280575
4.950000	-0.128505	-84.054308	-50.690545	98.453168	-50.690545	98.453168	-0.128504	-84.054533
5.000000	-0.130439	-84.828263	-50.459287	96.917690	-50.459287	96.917690	-0.130438	-84.828491
5.050000	-0.132431	-85.599076	-50.227796	95.383943	-50.227796	95.383943	-0.132430	-85.599307
5.100000	-0.134423	-86.369889	-50.002316	93.850195	-50.002316	93.850195	-0.134422	-86.370123
5.150000	-0.136470	-87.137876	-49.777168	92.318238	-49.777168	92.318238	-0.136469	-87.138113
5.200000	-0.138523	-87.905605	-49.557234	90.786443	-49.557234	90.786443	-0.138522	-87.905845
5.250000	-0.140627	-88.670817	-49.338134	89.256436	-49.338134	89.256436	-0.140626	-88.671060
5.300000	-0.142742	-89.435524	-49.123529	87.726787	-49.123529	87.726787	-0.142740	-89.435770
5.350000	-0.144904	-90.198014	-48.910202	86.198874	-48.910202	86.198874	-0.144903	-90.198264
5.400000	-0.147084	-90.959765	-48.700722	84.671539	-48.700722	84.671539	-0.147082	-90.960018
5.450000	-0.149307	-91.719592	-48.492913	83.145844	-48.492913	83.145844	-0.149306	-91.719848
5.500000	-0.151553	-92.478456	-48.288367	81.620970	-48.288367	81.620970	-0.151551	-92.478716
5.550000	-0.153839	-93.235680	-48.085838	80.097607	-48.085838	80.097607	-0.153837	-93.235943
5.600000	-0.156153	-93.991731	-47.886048	78.575323	-47.886048	78.575323	-0.156152	-93.991997
5.650000	-0.158503	-94.746415	-47.688578	77.054392	-47.688578	77.054392	-0.158501	-94.746685
5.700000	-0.160889	-95.499731	-47.493374	75.534815	-47.493374	75.534815	-0.160887	-95.500004
5.750000	-0.163304	-96.251941	-47.300757	74.016409	-47.300757	74.016409	-0.163302	-96.252218
5.800000	-0.165763	-97.002603	-47.109984	72.499643	-47.109984	72.499643	-0.165760	-97.002884
5.850000	-0.168246	-97.752409	-46.922027	70.983847	-46.922027	70.983847	-0.168244	-97.752694
5.900000	-0.170779	-98.500503	-46.735538	69.469991	-46.735538	69.469991	-0.170776	-98.500792
5.950000	-0.173331	-99.247977	-46.552063	67.956887	-46.552063	67.956887	-0.173329	-99.248270
6.000000	-0.175941	-99.993592	-46.369720	66.446036	-46.369720	66.446036	-0.175938	-99.993889
6.050000	-0.178564	-100.738809	-46.190559	64.935701	-46.190559	64.935701	-0.178561	-100.739110
6.100000	-0.181252	-101.482039	-46.012236	63.427947	-46.012236	63.427947	-0.181249	-101.482343
6.150000	-0.183947	-102.225077	-45.837233	61.920460	-45.837233	61.920460	-0.183945	-102.225386
6.200000	-0.186716	-102.966018	-45.662809	60.415898	-45.662809	60.415898	-0.186713	-102.966331
6.250000	-0.189485	-103.706959	-45.491819	58.911336	-45.491819	58.911336	-0.189482	-103.707276
6.300000	-0.192336	-104.445712	-45.321182	57.410064	-45.321182	57.410064	-0.192333	-104.446034
6.350000	-0.195187	-105.184466	-45.153834	55.908791	-45.153834	55.908791	-0.195184	-105.184792
6.400000	-0.198115	-105.921311	-44.987116	54.410629	-44.987116	54.410629	-0.198112	-105.921642
6.450000	-0.201050	-106.657982	-44.823312	52.912749	-44.823312	52.912749	-0.201047	-106.658318
6.500000	-0.204056	-107.393010	-44.660384	51.417789	-44.660384	51.417789	-0.204053	-107.393350
6.550000	-0.207077	-108.127708	-44.500034	49.923413	-44.500034	49.923413	-0.207074	-108.128054
6.600000	-0.210163	-108.861012	-44.340778	48.431754	-44.340778	48.431754	-0.210160	-108.861363
6.650000	-0.213271	-109.593851	-44.183796	46.941001	-44.183796	46.941001	-0.213268	-109.594207
6.700000	-0.216438	-110.325529	-44.028099	45.452750	-44.028099	45.452750	-0.216435	-110.325890
6.750000	-0.219635	-111.056625	-43.874406	43.965750	-43.874406	43.965750	-0.219632	-111.056992
6.800000	-0.222885	-111.786776	-43.722162	42.481023	-43.722162	42.481023	-0.222881	-111.787149
6.850000	-0.226172	-112.516252	-43.571683	40.997918	-43.571683	40.997918	-0.226169	-112.516630
6.900000	-0.229506	-113.244980	-43.422793	39.516837	-43.422793	39.516837	-0.229502	-113.245364
6.950000	-0.232885	-113.972961	-43.275457	38.037781	-43.275457	38.037781	-0.232881	-113.973351
7.000000	-0.236304	-114.700372	-43.129828	36.560482	-43.129828	36.560482	-0.236300	-114.700769
7.050000	-0.239776	-115.426988	-42.985567	35.085641	-42.985567	35.085641	-0.239773	-115.427391
7.100000	-0.243281	-116.153192	-42.843109	33.612265	-42.843109	33.612265	-0.243277	-116.153602
7.150000	-0.246849	-116.878576	-42.701860	32.141818	-42.701860	32.141818	-0.246845	-116.878993
7.200000	-0.250442	-117.603687	-42.562489	30.672519	-42.562489	30.672519	-0.250438	-117.604111
7.250000	-0.254106	-118.327979	-42.424191	29.206660	-42.424191	29.206660	-0.254102	-118.328410
7.300000	-0.257788	-119.052112	-42.287826	27.741600	-42.287826	27.741600	-0.257784	-119.052551
7.350000	-0.261550	-119.775454	-42.152419	26.280534	-42.152419	26.280534	-0.261546	-119.775901
7.400000	-0.265322	-120.498730	-42.018983	24.819885	-42.018983	24.819885	-0.265318	-120.499185
7.450000	-0.269184	-121.221270	-41.886410	23.363829	-41.886410	23.363829	-0.269180	-121.221734
7.500000	-0.273048	-121.943810	-41.755830	21.907773	-41.755830	21.907773	-0.273043	-121.944283
7.550000	-0.277011	-122.665701	-41.626035	20.456957	-41.626035	20.456957	-0.277006	-122.666183
7.600000	-0.280976	-123.387592	-41.498150	19.006140	-41.498150	19.006140	-0.280971	-123.388083
7.650000	-0.285033	-124.109031	-41.371166	17.560346	-41.371166	17.560346	-0.285028	-124.109532
7.700000	-0.289100	-124.830429	-41.245925	16.115008	-41.245925	16.115008	-0.289095	-124.830940
7.750000	-0.293254	-125.551552	-41.121679	14.674444	-41.121679	14.674444	-0.293248	-125.552074
7.800000	-0.297426	-126.272619	-40.999030	13.234834	-40.999030	13.234834	-0.297420	-126.273152
7.850000	-0.301676	-126.993564	-40.877452	11.799713	-40.877452	11.799713	-0.301670	-126.994108
7.900000	-0.305954	-127.714467	-40.757344	10.366088	-40.757344	10.366088	-0.305948	-127.715024
7.950000	-0.310303	-128.435376	-40.638366	8.936629	-40.638366	8.936629	-0.310297	-128.435945
8.000000	-0.314688	-129.156288	-40.520745	7.509252	-40.520745	7.509252	-0.314682	-129.156870
8.050000	-0.319137	-129.877307	-40.404299	6.085676	-40.404299	6.085676	-0.319131	-129.877903
8.100000	-0.323633	-130.598404	-40.289113	4.664815	-40.289113	4.664815	-0.323626	-130.599013
8.150000	-0.328184	-131.319684	-40.175131	3.247347	-40.175131	3.247347	-0.328177	-131.320308
8.200000	-0.332790	-132.041148	-40.062326	1.833272	-40.062326	1.833272	-0.332783	-132.041787
8.250000	-0.337444	-132.762843	-39.950743	0.422139	-39.950743	0.422139	-0.337437	-132.763498
8.300000	-0.342164	-133.484862	-39.840264	-0.984878	-39.840264	-0.984878	-0.342157	-133.485534
8.350000	-0.346924	-134.207131	-39.731013	-2.389451	-39.731013	-2.389451	-0.346916	-134.207820
8.400000	-0.351759	-134.929898	-39.622804	-3.789139	-39.622804	-3.789139	-0.351752	-134.930606
8.450000	-0.356626	-135.652903	-39.515820	-5.186928	-39.515820	-5.186928	-0.356618	-135.653629
8.500000	-0.361579	-136.376619	-39.409823	-6.579021	-39.409823	-6.579021	-0.361571	-136.377364
8.550000	-0.366554	-137.100526	-39.305040	-7.969803	-39.305040	-7.969803	-0.366546	-137.101292
8.600000	-0.371627	-137.825395	-39.201194	-9.354038	-39.201194	-9.354038	-0.371619	-137.826182
8.650000	-0.376713	-138.550377	-39.098547	-10.737597	-39.098547	-10.737597	-0.376705	-138.551186
8.700000	-0.381909	-139.276609	-38.996793	-12.113719	-38.996793	-12.113719	-0.381901	-139.277442
8.750000	-0.387108	-140.002841	-38.896216	-13.489841	-38.896216	-13.489841	-0.387099	-140.003698
8.800000	-0.392429	-140.730655	-38.796489	-14.857605	-38.796489	-14.857605	-0.392420	-140.731537
8.850000	-0.397753	-141.458469	-38.697894	-16.225369	-38.697894	-16.225369	-0.397745	-141.459377
8.900000	-0.403192	-142.187937	-38.600153	-17.585258	-38.600153	-17.585258	-0.403183	-142.188873
8.950000	-0.408645	-142.917556	-38.503477	-18.944430	-38.503477	-18.944430	-0.408636	-142.918520
9.000000	-0.414204	-143.648872	-38.407653	-20.296258	-38.407653	-20.296258	-0.414195	-143.649865
9.050000	-0.419788	-144.380527	-38.312832	-21.646617	-38.312832	-21.646617	-0.419779	-144.381550
9.100000	-0.425471	-145.113886	-38.218855	-22.990211	-38.218855	-22.990211	-0.425462	-145.114942
9.150000	-0.431189	-145.847813	-38.125823	-24.331550	-38.125823	-24.331550	-0.431180	-145.848902
9.200000	-0.436998	-146.583419	-38.033622	-25.666750	-38.033622	-25.666750	-0.436989	-146.584543
9.250000	-0.442854	-147.319864	-37.942313	-26.998879	-37.942313	-26.998879	-0.442845	-147.321023
9.300000	-0.448792	-148.057923	-37.851819	-28.325537	-37.851819	-28.325537	-0.448784	-148.059120
9.350000	-0.454790	-148.797137	-37.762163	-29.648285	-37.762163	-29.648285	-0.454782	-148.798372
9.400000	-0.460861	-149.537864	-37.673307	-30.966266	-37.673307	-30.966266	-0.460853	-149.539140
9.450000	-0.467004	-150.280104	-37.585234	-32.279479	-37.585234	-32.279479	-0.466997	-150.281422
9.500000	-0.473211	-151.023717	-37.497945	-33.588665	-37.497945	-33.588665	-0.473204	-151.025079
9.550000	-0.479504	-151.769252	-37.411385	-34.892212	-37.411385	-34.892212	-0.479498	-151.770659
9.600000	-0.485851	-152.515976	-37.325594	-36.192500	-37.325594	-36.192500	-0.485844	-152.517430
9.650000	-0.492299	-153.265079	-37.240474	-37.486270	-37.240474	-37.486270	-0.492293	-153.266582
9.700000	-0.498789	-154.015145	-37.156112	-38.777572	-37.156112	-38.777572	-0.498784	-154.016698
9.750000	-0.505396	-154.768099	-37.072359	-40.061475	-37.072359	-40.061475	-0.505392	-154.769704
9.800000	-0.512034	-155.521743	-36.989357	-41.343723	-36.989357	-41.343723	-0.512030	-155.523402
9.850000	-0.518806	-156.278838	-36.906899	-42.617694	-36.906899	-42.617694	-0.518803	-156.280555
9.900000	-0.525596	-157.036304	-36.825189	-43.890834	-36.825189	-43.890834	-0.525594	-157.038078
9.950000	-0.532538	-157.797840	-36.743951	-45.154831	-36.743951	-45.154831	-0.532537	-157.799676
10.000000	-0.539485	-158.559376	-36.663466	-46.418827	-36.663466	-46.418827	-0.539486	-158.561274
