! freq	dB(S11)	phase(S11)	dB(S12)	phase(S12)	
!     	dB(S21)	phase(S21)	dB(S22)	phase(S22)	
!S-par simulation data
#  GHz  S  DB  R 50
0.000000	-0.000000	0.000000	-431.684712	180.000000	-431.684712	180.000000	-0.000000	0.000000
0.050000	-0.000118	-0.761579	-105.266141	11.700174	-105.266141	11.700174	-0.000118	-0.761583
0.100000	-0.000464	-1.522827	-104.755962	22.040611	-104.755962	22.040611	-0.000465	-1.522834
0.150000	-0.001024	-2.283425	-104.044564	30.724753	-104.044564	30.724753	-0.001025	-2.283434
0.200000	-0.001754	-3.043205	-103.265129	37.777437	-103.265129	37.777437	-0.001756	-3.043212
0.250000	-0.002628	-3.801986	-102.495718	43.349698	-102.495718	43.349698	-0.002631	-3.801990
0.300000	-0.003620	-4.559570	-101.789376	47.638919	-101.789376	47.638919	-0.003624	-4.559569
0.350000	-0.004681	-5.316118	-101.171079	51.118175	-101.171079	51.118175	-0.004685	-5.316110
0.400000	-0.005795	-6.071484	-100.659253	53.893786	-100.659253	53.893786	-0.005799	-6.071469
0.450000	-0.006933	-6.825817	-100.255633	56.225591	-100.255633	56.225591	-0.006938	-6.825795
0.500000	-0.008082	-7.579133	-99.968254	58.253655	-99.968254	58.253655	-0.008087	-7.579103
0.550000	-0.009228	-8.331508	-99.801556	60.128400	-99.801556	60.128400	-0.009232	-8.331472
0.600000	-0.010363	-9.083009	-99.762167	61.992148	-99.762167	61.992148	-0.010366	-9.082968
0.650000	-0.011481	-9.833695	-99.859303	64.000572	-99.859303	64.000572	-0.011484	-9.833650
0.700000	-0.012582	-10.583616	-100.105438	66.345847	-100.105438	66.345847	-0.012584	-10.583568
0.750000	-0.013663	-11.332812	-100.516290	69.292286	-100.516290	69.292286	-0.013665	-11.332762
0.800000	-0.014726	-12.081313	-101.108715	73.235715	-101.108715	73.235715	-0.014727	-12.081261
0.850000	-0.015769	-12.829026	-101.890713	79.422506	-101.890713	79.422506	-0.015769	-12.828973
0.900000	-0.016795	-13.576049	-102.835960	88.375513	-102.835960	88.375513	-0.016795	-13.575996
0.950000	-0.017816	-14.322730	-103.702185	99.691754	-103.702185	99.691754	-0.017815	-14.322677
1.000000	-0.018816	-15.068386	-104.042356	118.097696	-104.042356	118.097696	-0.018816	-15.068334
1.050000	-0.019814	-15.813810	-103.987455	136.319610	-103.987455	136.319610	-0.019813	-15.813759
1.100000	-0.020796	-16.558078	-102.145330	153.621383	-102.145330	153.621383	-0.020796	-16.558027
1.150000	-0.021778	-17.302226	-100.509813	170.129478	-100.509813	170.129478	-0.021777	-17.302176
1.200000	-0.022748	-18.045058	-98.109978	177.907104	-98.109978	177.907104	-0.022747	-18.045008
1.250000	-0.023718	-18.787890	-96.231688	-174.315270	-96.231688	-174.315270	-0.023717	-18.787840
1.300000	-0.024682	-19.529606	-94.307385	-170.476075	-94.307385	-170.476075	-0.024681	-19.529557
1.350000	-0.025643	-20.270588	-92.556944	-167.971941	-92.556944	-167.971941	-0.025642	-20.270538
1.400000	-0.026602	-21.010818	-90.957886	-166.369309	-90.957886	-166.369309	-0.026601	-21.010768
1.450000	-0.027559	-21.750280	-89.487756	-165.397362	-89.487756	-165.397362	-0.027558	-21.750230
1.500000	-0.028515	-22.488957	-88.127225	-164.881495	-88.127225	-164.881495	-0.028515	-22.488906
1.550000	-0.029471	-23.226832	-86.860388	-164.705344	-86.860388	-164.705344	-0.029470	-23.226780
1.600000	-0.030426	-23.963888	-85.674325	-164.788874	-85.674325	-164.788874	-0.030426	-23.963835
1.650000	-0.031381	-24.700108	-84.558525	-165.075436	-84.558525	-165.075436	-0.031381	-24.700053
1.700000	-0.032336	-25.435171	-83.481039	-165.566077	-83.481039	-165.566077	-0.032336	-25.435115
1.750000	-0.033291	-26.169783	-82.491792	-166.130006	-82.491792	-166.130006	-0.033291	-26.169725
1.800000	-0.034247	-26.903310	-81.536798	-166.816741	-81.536798	-166.816741	-0.034247	-26.903251
1.850000	-0.035204	-27.636062	-80.633420	-167.591195	-80.633420	-167.591195	-0.035204	-27.636000
1.900000	-0.036161	-28.367848	-79.766337	-168.439283	-79.766337	-168.439283	-0.036162	-28.367785
1.950000	-0.037119	-29.098670	-78.933617	-169.361004	-78.933617	-169.361004	-0.037120	-29.098605
2.000000	-0.038079	-29.828661	-78.138618	-170.327570	-78.138618	-170.327570	-0.038079	-29.828593
2.050000	-0.039040	-30.557487	-77.365246	-171.356917	-77.365246	-171.356917	-0.039040	-30.557417
2.100000	-0.040002	-31.285628	-76.630554	-172.413413	-76.630554	-172.413413	-0.040002	-31.285555
2.150000	-0.040966	-32.012395	-75.907888	-173.524202	-75.907888	-173.524202	-0.040967	-32.012320
2.200000	-0.041931	-32.738632	-75.224495	-174.650839	-75.224495	-174.650839	-0.041932	-32.738555
2.250000	-0.042899	-33.463279	-74.545773	-175.825018	-74.545773	-175.825018	-0.042900	-33.463199
2.300000	-0.043868	-34.187563	-73.906626	-177.007615	-73.906626	-177.007615	-0.043869	-34.187481
2.350000	-0.044842	-34.910032	-73.266444	-178.232298	-73.266444	-178.232298	-0.044843	-34.909947
2.400000	-0.045816	-35.632313	-72.665911	-179.460401	-72.665911	-179.460401	-0.045817	-35.632226
2.450000	-0.046795	-36.352546	-72.059874	179.273881	-72.059874	179.273881	-0.046796	-36.352457
2.500000	-0.047775	-37.072779	-71.493378	178.008163	-71.493378	178.008163	-0.047776	-37.072687
2.550000	-0.048762	-37.790722	-70.917857	176.708542	-70.917857	176.708542	-0.048763	-37.790628
2.600000	-0.049749	-38.508665	-70.378112	175.408921	-70.378112	175.408921	-0.049750	-38.508568
2.650000	-0.050744	-39.224461	-69.833583	174.083252	-69.833583	174.083252	-0.050745	-39.224363
2.700000	-0.051740	-39.940062	-69.318077	172.755215	-69.318077	172.755215	-0.051740	-39.939962
2.750000	-0.052744	-40.653671	-68.801330	171.407079	-68.801330	171.407079	-0.052744	-40.653568
2.800000	-0.053750	-41.366880	-68.307921	170.054924	-68.307921	170.054924	-0.053750	-41.366776
2.850000	-0.054764	-42.078261	-67.816237	168.687247	-67.816237	168.687247	-0.054764	-42.078155
2.900000	-0.055781	-42.789032	-67.343079	167.314397	-67.343079	167.314397	-0.055782	-42.788924
2.950000	-0.056808	-43.498147	-66.874138	165.929596	-66.874138	165.929596	-0.056808	-43.498037
3.000000	-0.057838	-44.206433	-66.419628	164.538819	-66.419628	164.538819	-0.057838	-44.206322
3.050000	-0.058877	-44.913246	-65.971431	163.138909	-65.971431	163.138909	-0.058877	-44.913132
3.100000	-0.059922	-45.619005	-65.534167	161.732476	-65.534167	161.732476	-0.059922	-45.618890
3.150000	-0.060976	-46.323481	-65.104979	160.319158	-65.104979	160.319158	-0.060976	-46.323364
3.200000	-0.062038	-47.026673	-64.683726	158.898955	-64.683726	158.898955	-0.062037	-47.026555
3.250000	-0.063107	-47.728779	-64.272031	157.473676	-64.272031	157.473676	-0.063107	-47.728659
3.300000	-0.064187	-48.429364	-63.865697	156.041292	-63.865697	156.041292	-0.064186	-48.429244
3.350000	-0.065273	-49.129070	-63.470161	154.605300	-63.470161	154.605300	-0.065273	-49.128948
3.400000	-0.066373	-49.827014	-63.077773	153.162092	-63.077773	153.162092	-0.066373	-49.826891
3.450000	-0.067478	-50.524290	-62.697220	151.716470	-62.697220	151.716470	-0.067478	-50.524165
3.500000	-0.068600	-51.219559	-62.317907	150.263610	-62.317907	150.263610	-0.068599	-51.219433
3.550000	-0.069725	-51.914377	-61.951289	148.809313	-61.951289	148.809313	-0.069724	-51.914250
3.600000	-0.070870	-52.606941	-61.584270	147.347830	-61.584270	147.347830	-0.070869	-52.606813
3.650000	-0.072017	-53.299277	-61.230652	145.885705	-61.230652	145.885705	-0.072016	-53.299148
3.700000	-0.073187	-53.989107	-60.875223	144.416514	-60.875223	144.416514	-0.073186	-53.988976
3.750000	-0.074357	-54.678937	-60.533768	142.947323	-60.533768	142.947323	-0.074356	-54.678805
3.800000	-0.075554	-55.366007	-60.189290	141.471247	-60.189290	141.471247	-0.075553	-55.365875
3.850000	-0.076750	-56.053078	-59.857954	139.995172	-59.857954	139.995172	-0.076750	-56.052945
3.900000	-0.077974	-56.737598	-59.525137	138.513475	-59.525137	138.513475	-0.077973	-56.737464
3.950000	-0.079199	-57.421886	-59.203407	137.031267	-59.203407	137.031267	-0.079198	-57.421751
4.000000	-0.080450	-58.103839	-58.881552	135.544530	-58.881552	135.544530	-0.080449	-58.103703
4.050000	-0.081706	-58.785325	-58.568959	134.056886	-58.568959	134.056886	-0.081705	-58.785188
4.100000	-0.082986	-59.464696	-58.257434	132.565655	-58.257434	132.565655	-0.082985	-59.464558
4.150000	-0.084274	-60.143361	-57.953547	131.073227	-57.953547	131.073227	-0.084273	-60.143223
4.200000	-0.085585	-60.820137	-57.651776	129.578020	-57.651776	129.578020	-0.085584	-60.819997
4.250000	-0.086906	-61.495967	-57.356197	128.081424	-57.356197	128.081424	-0.086906	-61.495827
4.300000	-0.088249	-62.170136	-57.063653	126.582741	-57.063653	126.582741	-0.088248	-62.169996
4.350000	-0.089606	-62.843119	-56.776016	125.082565	-56.776016	125.082565	-0.089606	-62.842978
4.400000	-0.090982	-63.514674	-56.492215	123.580883	-56.492215	123.580883	-0.090982	-63.514532
4.450000	-0.092377	-64.184800	-56.212180	122.077695	-56.212180	122.077695	-0.092376	-64.184657
4.500000	-0.093788	-64.853732	-55.936678	120.573479	-55.936678	120.573479	-0.093787	-64.853589
4.550000	-0.095221	-65.520994	-55.663927	119.067824	-55.663927	119.067824	-0.095220	-65.520851
4.600000	-0.096668	-66.187300	-55.396313	117.561526	-55.396313	117.561526	-0.096667	-66.187156
4.650000	-0.098142	-66.851694	-55.130551	116.053938	-55.130551	116.053938	-0.098141	-66.851550
4.700000	-0.099627	-67.515370	-54.870444	114.545997	-54.870444	114.545997	-0.099626	-67.515226
4.750000	-0.101143	-68.176894	-54.611392	113.036996	-54.611392	113.036996	-0.101142	-68.176749
4.800000	-0.102666	-68.837939	-54.358441	111.527842	-54.358441	111.527842	-0.102665	-68.837794
4.850000	-0.104225	-69.496594	-54.105838	110.017932	-54.105838	110.017932	-0.104225	-69.496449
4.900000	-0.105789	-70.155010	-53.859713	108.507987	-53.859713	108.507987	-0.105788	-70.154865
4.950000	-0.107394	-70.810799	-53.613310	106.997662	-53.613310	106.997662	-0.107393	-70.810654
5.000000	-0.108999	-71.466588	-53.373704	105.487336	-53.373704	105.487336	-0.108998	-71.466443
5.050000	-0.110650	-72.119518	-53.133266	103.977075	-53.133266	103.977075	-0.110650	-72.119373
5.100000	-0.112302	-72.772448	-52.899305	102.466814	-52.899305	102.466814	-0.112301	-72.772303
5.150000	-0.113998	-73.422764	-52.665195	100.957039	-52.665195	100.957039	-0.113997	-73.422620
5.200000	-0.115698	-74.072843	-52.436673	99.447309	-52.436673	99.447309	-0.115698	-74.072699
5.250000	-0.117440	-74.720555	-52.208611	97.938395	-52.208611	97.938395	-0.117439	-74.720412
5.300000	-0.119190	-75.367794	-51.985333	96.429645	-51.985333	96.429645	-0.119189	-75.367652
5.350000	-0.120978	-76.012914	-51.763055	94.921954	-51.763055	94.921954	-0.120977	-76.012771
5.400000	-0.122780	-76.657326	-51.544830	93.414617	-51.544830	93.414617	-0.122779	-76.657185
5.450000	-0.124616	-77.299865	-51.328087	91.908496	-51.328087	91.908496	-0.124615	-77.299725
5.500000	-0.126470	-77.941467	-51.114734	90.402984	-51.114734	90.402984	-0.126469	-77.941328
5.550000	-0.128356	-78.581440	-50.903289	88.898764	-50.903289	88.898764	-0.128355	-78.581302
5.600000	-0.130265	-79.220250	-50.694632	87.395467	-50.694632	87.395467	-0.130264	-79.220113
5.650000	-0.132201	-79.857674	-50.488260	85.893461	-50.488260	85.893461	-0.132200	-79.857538
5.700000	-0.134165	-80.493712	-50.284128	84.392747	-50.284128	84.392747	-0.134164	-80.493577
5.750000	-0.136154	-81.128604	-50.082616	82.893249	-50.082616	82.893249	-0.136153	-81.128471
5.800000	-0.138175	-81.761893	-49.882844	81.395456	-49.882844	81.395456	-0.138174	-81.761762
5.850000	-0.140216	-82.394274	-49.685988	79.898740	-49.685988	79.898740	-0.140215	-82.394144
5.900000	-0.142297	-83.024839	-49.490415	78.404178	-49.490415	78.404178	-0.142295	-83.024711
5.950000	-0.144392	-83.654729	-49.298022	76.910494	-49.298022	76.910494	-0.144391	-83.654604
6.000000	-0.146533	-84.282597	-49.106492	75.419443	-49.106492	75.419443	-0.146531	-84.282473
6.050000	-0.148683	-84.910020	-48.918377	73.929018	-48.918377	73.929018	-0.148682	-84.909899
6.100000	-0.150885	-85.535219	-48.730737	72.441722	-48.730737	72.441722	-0.150884	-85.535101
6.150000	-0.153093	-86.160199	-48.546723	70.954758	-48.546723	70.954758	-0.153092	-86.160084
6.200000	-0.155358	-86.782762	-48.362828	69.471428	-48.362828	69.471428	-0.155356	-86.782650
6.250000	-0.157623	-87.405326	-48.182746	67.988098	-48.182746	67.988098	-0.157622	-87.405216
6.300000	-0.159953	-88.025285	-48.002452	66.508906	-48.002452	66.508906	-0.159951	-88.025179
6.350000	-0.162283	-88.645245	-47.825824	65.029714	-47.825824	65.029714	-0.162281	-88.645142
6.400000	-0.164673	-89.262851	-47.649309	63.554437	-47.649309	63.554437	-0.164671	-89.262751
6.450000	-0.167068	-89.880242	-47.476006	62.079517	-47.476006	62.079517	-0.167067	-89.880146
6.500000	-0.169520	-90.495525	-47.303113	60.608234	-47.303113	60.608234	-0.169518	-90.495433
6.550000	-0.171983	-91.110385	-47.133010	59.137678	-47.133010	59.137678	-0.171981	-91.110297
6.600000	-0.174498	-91.723377	-46.963588	57.670436	-46.963588	57.670436	-0.174496	-91.723293
6.650000	-0.177030	-92.335745	-46.796563	56.204298	-46.796563	56.204298	-0.177028	-92.335666
6.700000	-0.179608	-92.946479	-46.630471	54.741112	-46.630471	54.741112	-0.179606	-92.946404
6.750000	-0.182210	-93.556396	-46.466408	53.279403	-46.466408	53.279403	-0.182208	-93.556326
6.800000	-0.184854	-94.164908	-46.303511	51.820259	-46.303511	51.820259	-0.184852	-94.164843
6.850000	-0.187528	-94.772416	-46.142299	50.362947	-46.142299	50.362947	-0.187526	-94.772356
6.900000	-0.190239	-95.378741	-45.982470	48.907798	-45.982470	48.907798	-0.190237	-95.378687
6.950000	-0.192986	-95.983884	-45.824003	47.454810	-45.824003	47.454810	-0.192984	-95.983835
7.000000	-0.195764	-96.588061	-45.667122	46.003578	-45.667122	46.003578	-0.195762	-96.588018
7.050000	-0.198586	-97.190886	-45.511301	44.554801	-45.511301	44.554801	-0.198584	-97.190848
7.100000	-0.201433	-97.792953	-45.357255	43.107376	-45.357255	43.107376	-0.201431	-97.792921
7.150000	-0.204331	-98.393505	-45.203986	41.662655	-45.203986	41.662655	-0.204329	-98.393481
7.200000	-0.207249	-98.993502	-45.052671	40.218898	-45.052671	40.218898	-0.207247	-98.993484
7.250000	-0.210225	-99.591833	-44.901868	38.778037	-44.901868	38.778037	-0.210222	-99.591821
7.300000	-0.213214	-100.189801	-44.753185	37.337780	-44.753185	37.337780	-0.213212	-100.189796
7.350000	-0.216269	-100.785959	-44.604769	35.900545	-44.604769	35.900545	-0.216266	-100.785961
7.400000	-0.219331	-101.381941	-44.458627	34.463590	-44.458627	34.463590	-0.219329	-101.381950
7.450000	-0.222467	-101.975979	-44.312526	33.029712	-44.312526	33.029712	-0.222464	-101.975996
7.500000	-0.225603	-102.570017	-44.168843	31.595833	-44.168843	31.595833	-0.225601	-102.570042
7.550000	-0.228821	-103.161989	-44.024994	30.165006	-44.024994	30.165006	-0.228819	-103.162021
7.600000	-0.232040	-103.753960	-43.883489	28.734179	-43.883489	28.734179	-0.232038	-103.754001
7.650000	-0.235335	-104.344088	-43.742042	27.305840	-43.742042	27.305840	-0.235333	-104.344136
7.700000	-0.238638	-104.934048	-43.602663	25.877728	-43.602663	25.877728	-0.238636	-104.934104
7.750000	-0.242012	-105.522378	-43.463555	24.451572	-43.463555	24.451572	-0.242009	-105.522443
7.800000	-0.245400	-106.110382	-43.326260	23.025808	-43.326260	23.025808	-0.245398	-106.110456
7.850000	-0.248854	-106.696962	-43.189438	21.601509	-43.189438	21.601509	-0.248851	-106.697045
7.900000	-0.252330	-107.283068	-43.054192	20.177700	-43.054192	20.177700	-0.252327	-107.283160
7.950000	-0.255864	-107.867948	-42.919611	18.754918	-42.919611	18.754918	-0.255862	-107.868049
8.000000	-0.259429	-108.452214	-42.786390	17.332649	-42.786390	17.332649	-0.259427	-108.452325
8.050000	-0.263047	-109.035443	-42.654013	15.911025	-42.654013	15.911025	-0.263045	-109.035563
8.100000	-0.266703	-109.617930	-42.522802	14.489862	-42.522802	14.489862	-0.266700	-109.618059
8.150000	-0.270404	-110.199558	-42.392602	13.069028	-42.392602	13.069028	-0.270402	-110.199697
8.200000	-0.274153	-110.780326	-42.263398	11.648524	-42.263398	11.648524	-0.274151	-110.780475
8.250000	-0.277940	-111.360405	-42.135355	10.228103	-42.135355	10.228103	-0.277938	-111.360564
8.300000	-0.281783	-111.939518	-42.008164	8.807800	-42.008164	8.807800	-0.281781	-111.939687
8.350000	-0.285658	-112.518100	-41.882269	7.387410	-41.882269	7.387410	-0.285656	-112.518279
8.400000	-0.289597	-113.095620	-41.757108	5.966847	-41.757108	5.966847	-0.289595	-113.095810
8.450000	-0.293561	-113.672759	-41.633359	4.546105	-41.633359	4.546105	-0.293559	-113.672959
8.500000	-0.297597	-114.248751	-41.510259	3.124824	-41.510259	3.124824	-0.297595	-114.248962
8.550000	-0.301652	-114.824500	-41.388662	1.703348	-41.388662	1.703348	-0.301650	-114.824722
8.600000	-0.305789	-115.399031	-41.267665	0.280898	-41.267665	0.280898	-0.305787	-115.399263
8.650000	-0.309936	-115.973445	-41.148235	-1.141685	-41.148235	-1.141685	-0.309934	-115.973688
8.700000	-0.314175	-116.546580	-41.029393	-2.565738	-41.029393	-2.565738	-0.314172	-116.546834
8.750000	-0.318415	-117.119715	-40.912155	-3.989792	-40.912155	-3.989792	-0.318413	-117.119980
8.800000	-0.322758	-117.691522	-40.795534	-5.415861	-40.795534	-5.415861	-0.322756	-117.691799
8.850000	-0.327103	-118.263330	-40.680458	-6.841930	-40.680458	-6.841930	-0.327101	-118.263617
8.900000	-0.331544	-118.833983	-40.566198	-8.270196	-40.566198	-8.270196	-0.331541	-118.834282
8.950000	-0.335995	-119.404532	-40.453359	-9.698663	-40.453359	-9.698663	-0.335992	-119.404842
9.000000	-0.340535	-119.974089	-40.341514	-11.129413	-40.341514	-11.129413	-0.340532	-119.974411
9.050000	-0.345095	-120.543449	-40.231000	-12.560619	-40.231000	-12.560619	-0.345092	-120.543782
9.100000	-0.349736	-121.111970	-40.121632	-13.994103	-40.121632	-13.994103	-0.349733	-121.112314
9.150000	-0.354407	-121.680211	-40.013543	-15.428345	-40.013543	-15.428345	-0.354403	-121.680566
9.200000	-0.359152	-122.247754	-39.906721	-16.864771	-39.906721	-16.864771	-0.359148	-122.248121
9.250000	-0.363935	-122.814949	-39.801166	-18.302289	-39.801166	-18.302289	-0.363931	-122.815327
9.300000	-0.368785	-123.381575	-39.696967	-19.741818	-39.696967	-19.741818	-0.368781	-123.381965
9.350000	-0.373684	-123.947796	-39.594066	-21.182783	-39.594066	-21.182783	-0.373679	-123.948196
9.400000	-0.378642	-124.513566	-39.492575	-22.625523	-39.492575	-22.625523	-0.378637	-124.513978
9.450000	-0.383658	-125.078886	-39.392457	-24.070037	-39.392457	-24.070037	-0.383653	-125.079309
9.500000	-0.388725	-125.643861	-39.293762	-25.516036	-39.293762	-25.516036	-0.388719	-125.644295
9.550000	-0.393862	-126.208355	-39.196566	-26.964115	-39.196566	-26.964115	-0.393856	-126.208800
9.600000	-0.399041	-126.772598	-39.100762	-28.413356	-39.100762	-28.413356	-0.399034	-126.773054
9.650000	-0.404301	-127.336341	-39.006630	-29.864922	-39.006630	-29.864922	-0.404293	-127.336808
9.700000	-0.409593	-127.899915	-38.913817	-31.317318	-38.913817	-31.317318	-0.409585	-127.900392
9.750000	-0.414978	-128.462983	-38.822901	-32.772198	-38.822901	-32.772198	-0.414969	-128.463471
9.800000	-0.420387	-129.025951	-38.733180	-34.227584	-38.733180	-34.227584	-0.420377	-129.026449
9.850000	-0.425901	-129.588420	-38.645633	-35.685496	-38.645633	-35.685496	-0.425890	-129.588929
9.900000	-0.431428	-130.150846	-38.559110	-37.143628	-38.559110	-37.143628	-0.431416	-130.151366
9.950000	-0.437073	-130.712796	-38.475087	-38.604179	-38.475087	-38.604179	-0.437060	-130.713325
10.000000	-0.442721	-131.274745	-38.391868	-40.064729	-38.391868	-40.064729	-0.442707	-131.275284
