! freq	dB(S11)	phase(S11)	dB(S12)	phase(S12)	
!     	dB(S21)	phase(S21)	dB(S22)	phase(S22)	
!S-par simulation data
#  GHz  S  DB  R 50
0.000000	-0.000000	0.000000	-367.764881	0.000000	-367.764881	0.000000	-0.000000	0.000000
0.050000	-0.001622	-2.673201	-102.922334	88.338555	-102.922334	88.338555	-0.000666	-0.764862
0.100000	-0.005689	-5.334879	-96.943170	86.684592	-96.943170	86.684592	-0.001767	-1.532603
0.150000	-0.010701	-7.981500	-93.490727	85.045823	-93.490727	85.045823	-0.002949	-2.299211
0.200000	-0.015644	-10.615641	-91.087476	83.429547	-91.087476	83.429547	-0.004204	-3.063572
0.250000	-0.020120	-13.240082	-89.273941	81.845050	-89.273941	81.845050	-0.005481	-3.825644
0.300000	-0.024082	-15.856618	-87.845894	80.302719	-87.845894	80.302719	-0.006721	-4.585753
0.350000	-0.027632	-18.465992	-86.691691	78.811938	-86.691691	78.811938	-0.007892	-5.344362
0.400000	-0.030869	-21.067791	-85.747585	77.385251	-85.747585	77.385251	-0.008980	-6.101809
0.450000	-0.033870	-23.660794	-84.976676	76.041284	-84.976676	76.041284	-0.009983	-6.858337
0.500000	-0.036715	-26.244419	-84.347535	74.793698	-84.347535	74.793698	-0.010912	-7.614194
0.550000	-0.039452	-28.817641	-83.841682	73.663004	-83.841682	73.663004	-0.011778	-8.369513
0.600000	-0.042114	-31.378858	-83.450482	72.682295	-83.450482	72.682295	-0.012592	-9.124360
0.650000	-0.044728	-33.927465	-83.161916	71.879586	-83.161916	71.879586	-0.013366	-9.878805
0.700000	-0.047312	-36.462672	-82.969065	71.293007	-82.969065	71.293007	-0.014111	-10.632883
0.750000	-0.049876	-38.983163	-82.870723	70.982833	-82.870723	70.982833	-0.014833	-11.386595
0.800000	-0.052428	-41.488133	-82.863965	71.018698	-82.863965	71.018698	-0.015541	-12.139948
0.850000	-0.054971	-43.977007	-82.945466	71.486944	-82.945466	71.486944	-0.016242	-12.892945
0.900000	-0.057507	-46.449136	-83.112101	72.503702	-83.112101	72.503702	-0.016943	-13.645585
0.950000	-0.060033	-48.903825	-83.358665	74.224246	-83.358665	74.224246	-0.017650	-14.397858
1.000000	-0.062550	-51.340498	-83.673558	76.845851	-83.673558	76.845851	-0.018370	-15.149758
1.050000	-0.065052	-53.758638	-84.033516	80.609000	-84.033516	80.609000	-0.019112	-15.901269
1.100000	-0.067537	-56.157782	-84.395244	85.773556	-84.395244	85.773556	-0.019886	-16.652365
1.150000	-0.070001	-58.537525	-84.686157	92.542276	-84.686157	92.542276	-0.020703	-17.403002
1.200000	-0.072440	-60.897512	-84.802707	100.904875	-84.802707	100.904875	-0.021577	-18.153107
1.250000	-0.074849	-63.237441	-84.632510	110.444881	-84.632510	110.444881	-0.022516	-18.902569
1.300000	-0.077226	-65.556610	-84.097181	120.282094	-84.097181	120.282094	-0.023528	-19.651223
1.350000	-0.079565	-67.855252	-83.224944	129.391963	-83.224944	129.391963	-0.024608	-20.398916
1.400000	-0.081866	-70.133207	-82.110080	137.097617	-82.110080	137.097617	-0.025744	-21.145490
1.450000	-0.084124	-72.390359	-80.863721	143.184174	-80.863721	143.184174	-0.026914	-21.890838
1.500000	-0.086337	-74.626631	-79.573785	147.759963	-79.573785	147.759963	-0.028092	-22.634919
1.550000	-0.088505	-76.841987	-78.295705	151.066735	-78.295705	151.066735	-0.029258	-23.377765
1.600000	-0.090624	-79.036423	-77.059249	153.360370	-77.059249	153.360370	-0.030393	-24.119453
1.650000	-0.092695	-81.209974	-75.877923	154.862099	-75.877923	154.862099	-0.031493	-24.860075
1.700000	-0.094717	-83.362704	-74.756062	155.748025	-74.756062	155.748025	-0.032554	-25.599718
1.750000	-0.096690	-85.494707	-73.693212	156.153552	-73.693212	156.153552	-0.033582	-26.338443
1.800000	-0.098615	-87.606106	-72.686621	156.181565	-72.686621	156.181565	-0.034581	-27.076289
1.850000	-0.100491	-89.697049	-71.732576	155.910213	-71.732576	155.910213	-0.035560	-27.813273
1.900000	-0.102319	-91.767491	-70.826612	155.397107	-70.826612	155.397107	-0.036522	-28.549386
1.950000	-0.104102	-93.817632	-69.964994	154.689415	-69.964994	154.689415	-0.037475	-29.284616
2.000000	-0.105841	-95.847910	-69.144573	153.824933	-69.144573	153.824933	-0.038421	-30.018956
2.050000	-0.107538	-97.858559	-68.361969	152.831379	-68.361969	152.831379	-0.039364	-30.752386
2.100000	-0.109195	-99.849829	-67.614128	151.730791	-67.614128	151.730791	-0.040306	-31.484884
2.150000	-0.110814	-101.821988	-66.898307	150.540849	-66.898307	150.540849	-0.041250	-32.216427
2.200000	-0.112399	-103.775314	-66.212049	149.275867	-66.212049	149.275867	-0.042196	-32.946994
2.250000	-0.113951	-105.710101	-65.553155	147.947525	-65.553155	147.947525	-0.043145	-33.676563
2.300000	-0.115473	-107.626649	-64.919651	146.565429	-64.919651	146.565429	-0.044098	-34.405115
2.350000	-0.116969	-109.525274	-64.309768	145.137534	-64.309768	145.137534	-0.045057	-35.132631
2.400000	-0.118440	-111.406294	-63.721912	143.670473	-63.721912	143.670473	-0.046020	-35.859091
2.450000	-0.119891	-113.270040	-63.154648	142.169811	-63.154648	142.169811	-0.046989	-36.584480
2.500000	-0.121322	-115.116844	-62.606678	140.640242	-62.606678	140.640242	-0.047963	-37.308780
2.550000	-0.122738	-116.946518	-62.076360	139.085035	-62.076360	139.085035	-0.048944	-38.031940
2.600000	-0.124141	-118.759959	-61.563154	137.508495	-61.563154	137.508495	-0.049930	-38.753981
2.650000	-0.125534	-120.557516	-61.066080	135.913485	-61.066080	135.913485	-0.050923	-39.474887
2.700000	-0.126920	-122.339541	-60.584240	134.302468	-60.584240	134.302468	-0.051922	-40.194646
2.750000	-0.128301	-124.106388	-60.116815	132.677575	-60.116815	132.677575	-0.052928	-40.913245
2.800000	-0.129680	-125.858410	-59.663052	131.040654	-59.663052	131.040654	-0.053941	-41.630671
2.850000	-0.131058	-127.595965	-59.222261	129.393314	-59.222261	129.393314	-0.054960	-42.346913
2.900000	-0.132440	-129.319408	-58.793804	127.736960	-58.793804	127.736960	-0.055986	-43.061958
2.950000	-0.133826	-131.029094	-58.377092	126.072824	-58.377092	126.072824	-0.057020	-43.775797
3.000000	-0.135219	-132.725381	-57.971581	124.401989	-57.971581	124.401989	-0.058061	-44.488418
3.050000	-0.136620	-134.408621	-57.576767	122.725409	-57.576767	122.725409	-0.059110	-45.199811
3.100000	-0.138032	-136.079169	-57.192180	121.043926	-57.192180	121.043926	-0.060167	-45.909966
3.150000	-0.139456	-137.737376	-56.817383	119.358289	-56.817383	119.358289	-0.061232	-46.618874
3.200000	-0.140893	-139.383590	-56.451969	117.669162	-56.451969	117.669162	-0.062306	-47.326526
3.250000	-0.142346	-141.018161	-56.095557	115.977137	-56.095557	115.977137	-0.063388	-48.032913
3.300000	-0.143815	-142.641432	-55.747791	114.282745	-55.747791	114.282745	-0.064480	-48.738027
3.350000	-0.145302	-144.253745	-55.408337	112.586459	-55.408337	112.586459	-0.065580	-49.441859
3.400000	-0.146808	-145.855441	-55.076881	110.888707	-55.076881	110.888707	-0.066691	-50.144402
3.450000	-0.148334	-147.446855	-54.753127	109.189873	-54.753127	109.189873	-0.067811	-50.845647
3.500000	-0.149881	-149.028320	-54.436798	107.490304	-54.436798	107.490304	-0.068942	-51.545589
3.550000	-0.151449	-150.600168	-54.127631	105.790315	-54.127631	105.790315	-0.070083	-52.244221
3.600000	-0.153039	-152.162724	-53.825379	104.090194	-53.825379	104.090194	-0.071235	-52.941535
3.650000	-0.154652	-153.716312	-53.529808	102.390200	-53.529808	102.390200	-0.072398	-53.637525
3.700000	-0.156288	-155.261251	-53.240694	100.690574	-53.240694	100.690574	-0.073573	-54.332186
3.750000	-0.157948	-156.797857	-52.957828	98.991535	-52.957828	98.991535	-0.074760	-55.025512
3.800000	-0.159633	-158.326110	-52.680889	97.293326	-52.680889	97.293326	-0.075960	-55.717439
3.850000	-0.161342	-159.846679	-52.409824	95.596107	-52.409824	95.596107	-0.077173	-56.408021
3.900000	-0.163076	-161.359870	-52.144451	93.900048	-52.144451	93.900048	-0.078399	-57.097252
3.950000	-0.164834	-162.865983	-51.884597	92.205306	-51.884597	92.205306	-0.079639	-57.785128
4.000000	-0.166616	-164.365315	-51.630096	90.512030	-51.630096	90.512030	-0.080892	-58.471646
4.050000	-0.168423	-165.858160	-51.380792	88.820355	-51.380792	88.820355	-0.082160	-59.156800
4.100000	-0.170254	-167.344809	-51.136535	87.130411	-51.136535	87.130411	-0.083442	-59.840589
4.150000	-0.172110	-168.825546	-50.897181	85.442317	-50.897181	85.442317	-0.084740	-60.523009
4.200000	-0.173989	-170.300655	-50.662594	83.756185	-50.662594	83.756185	-0.086053	-61.204056
4.250000	-0.175892	-171.770414	-50.432644	82.072122	-50.432644	82.072122	-0.087382	-61.883728
4.300000	-0.177819	-173.235099	-50.207205	80.390225	-50.207205	80.390225	-0.088728	-62.562024
4.350000	-0.179768	-174.694980	-49.986160	78.710589	-49.986160	78.710589	-0.090090	-63.238940
4.400000	-0.181741	-176.150326	-49.769393	77.033301	-49.769393	77.033301	-0.091469	-63.914475
4.450000	-0.183736	-177.601401	-49.556796	75.358443	-49.556796	75.358443	-0.092866	-64.588628
4.500000	-0.185753	-179.048466	-49.348266	73.686094	-49.348266	73.686094	-0.094280	-65.261398
4.550000	-0.187791	179.508223	-49.143702	72.016326	-49.143702	72.016326	-0.095714	-65.932783
4.600000	-0.189851	178.068411	-48.943010	70.349209	-48.943010	70.349209	-0.097165	-66.602783
4.650000	-0.191931	176.631848	-48.746098	68.684807	-48.746098	68.684807	-0.098636	-67.271398
4.700000	-0.194031	175.198288	-48.552881	67.023182	-48.552881	67.023182	-0.100127	-67.938628
4.750000	-0.196152	173.767487	-48.363275	65.364392	-48.363275	65.364392	-0.101638	-68.604473
4.800000	-0.198291	172.339205	-48.177202	63.708491	-48.177202	63.708491	-0.103169	-69.268933
4.850000	-0.200450	170.913207	-47.994585	62.055530	-47.994585	62.055530	-0.104721	-69.932009
4.900000	-0.202626	169.489258	-47.815354	60.405560	-47.815354	60.405560	-0.106294	-70.593703
4.950000	-0.204821	168.067129	-47.639438	58.758626	-47.639438	58.758626	-0.107888	-71.254016
5.000000	-0.207032	166.646593	-47.466773	57.114772	-47.466773	57.114772	-0.109505	-71.912949
5.050000	-0.209262	165.227476	-47.297292	55.474180	-47.297292	55.474180	-0.111145	-72.570444
5.100000	-0.211507	163.809490	-47.130946	53.836756	-47.130946	53.836756	-0.112808	-73.226564
5.150000	-0.213769	162.392419	-46.967678	52.202540	-46.967678	52.202540	-0.114495	-73.881311
5.200000	-0.216045	160.976048	-46.807434	50.571570	-46.807434	50.571570	-0.116205	-74.534688
5.250000	-0.218337	159.560169	-46.650164	48.943886	-46.650164	48.943886	-0.117939	-75.186698
5.300000	-0.220643	158.144575	-46.495819	47.319526	-46.495819	47.319526	-0.119698	-75.837344
5.350000	-0.222963	156.729063	-46.344352	45.698529	-46.344352	45.698529	-0.121482	-76.486629
5.400000	-0.225296	155.313433	-46.195722	44.080935	-46.195722	44.080935	-0.123291	-77.134558
5.450000	-0.227643	153.897487	-46.049885	42.466784	-46.049885	42.466784	-0.125125	-77.781134
5.500000	-0.230002	152.481033	-45.906803	40.856120	-45.906803	40.856120	-0.126986	-78.426362
5.550000	-0.232374	151.063879	-45.766440	39.248986	-45.766440	39.248986	-0.128874	-79.070246
5.600000	-0.234757	149.645839	-45.628759	37.645429	-45.628759	37.645429	-0.130788	-79.712791
5.650000	-0.237152	148.226728	-45.493729	36.045500	-45.493729	36.045500	-0.132730	-80.354001
5.700000	-0.239558	146.806367	-45.361317	34.449252	-45.361317	34.449252	-0.134699	-80.993883
5.750000	-0.241975	145.384578	-45.231495	32.856741	-45.231495	32.856741	-0.136696	-81.632441
5.800000	-0.244402	143.961185	-45.104233	31.268028	-45.104233	31.268028	-0.138722	-82.269682
5.850000	-0.246839	142.536020	-44.979507	29.683180	-44.979507	29.683180	-0.140777	-82.905610
5.900000	-0.249286	141.108914	-44.857291	28.102266	-44.857291	28.102266	-0.142862	-83.540233
5.950000	-0.251742	139.679704	-44.737561	26.525362	-44.737561	26.525362	-0.144975	-84.173557
6.000000	-0.254207	138.248228	-44.620294	24.952551	-44.620294	24.952551	-0.147119	-84.805589
6.050000	-0.256681	136.814329	-44.505470	23.383920	-44.505470	23.383920	-0.149294	-85.436335
6.100000	-0.259164	135.377854	-44.393067	21.819563	-44.393067	21.819563	-0.151499	-86.065802
6.150000	-0.261654	133.938652	-44.283067	20.259581	-44.283067	20.259581	-0.153736	-86.693998
6.200000	-0.264153	132.496576	-44.175450	18.704082	-44.175450	18.704082	-0.156004	-87.320930
6.250000	-0.266658	131.051484	-44.070198	17.153182	-44.070198	17.153182	-0.158304	-87.946606
6.300000	-0.269172	129.603091	-43.967343	15.607214	-43.967343	15.607214	-0.160638	-88.570980
6.350000	-0.271692	128.151395	-43.866823	14.066111	-43.866823	14.066111	-0.163004	-89.194115
6.400000	-0.274219	126.696262	-43.768619	12.530013	-43.768619	12.530013	-0.165404	-89.816019
6.450000	-0.276753	125.237566	-43.672715	10.999066	-43.672715	10.999066	-0.167837	-90.436702
6.500000	-0.279293	123.775182	-43.579093	9.473428	-43.579093	9.473428	-0.170304	-91.056170
6.550000	-0.281839	122.308990	-43.487738	7.953261	-43.487738	7.953261	-0.172806	-91.674435
6.600000	-0.284391	120.838874	-43.398631	6.438740	-43.398631	6.438740	-0.175342	-92.291504
6.650000	-0.286949	119.364721	-43.311756	4.930043	-43.311756	4.930043	-0.177913	-92.907387
6.700000	-0.289512	117.886423	-43.227095	3.427361	-43.227095	3.427361	-0.180519	-93.522094
6.750000	-0.292080	116.403877	-43.144629	1.930890	-43.144629	1.930890	-0.183161	-94.135635
6.800000	-0.294653	114.916982	-43.064339	0.440835	-43.064339	0.440835	-0.185840	-94.748020
6.850000	-0.297231	113.425642	-42.986205	-1.042590	-42.986205	-1.042590	-0.188554	-95.359258
6.900000	-0.299815	111.929767	-42.910208	-2.519167	-42.910208	-2.519167	-0.191306	-95.969360
6.950000	-0.302403	110.429269	-42.836325	-3.988666	-42.836325	-3.988666	-0.194094	-96.578337
7.000000	-0.304995	108.924066	-42.764533	-5.450854	-42.764533	-5.450854	-0.196921	-97.186200
7.050000	-0.307593	107.414079	-42.694810	-6.905488	-42.694810	-6.905488	-0.199784	-97.792959
7.100000	-0.310194	105.899236	-42.627129	-8.352320	-42.627129	-8.352320	-0.202687	-98.398625
7.150000	-0.312801	104.379467	-42.561464	-9.791096	-42.561464	-9.791096	-0.205627	-99.003209
7.200000	-0.315412	102.854707	-42.497788	-11.221557	-42.497788	-11.221557	-0.208607	-99.606724
7.250000	-0.318029	101.324899	-42.436071	-12.643437	-42.436071	-12.643437	-0.211626	-100.209180
7.300000	-0.320650	99.789986	-42.376282	-14.056466	-42.376282	-14.056466	-0.214684	-100.810590
7.350000	-0.323276	98.249920	-42.318388	-15.460370	-42.318388	-15.460370	-0.217783	-101.410965
7.400000	-0.325908	96.704655	-42.262355	-16.854869	-42.262355	-16.854869	-0.220921	-102.010318
7.450000	-0.328546	95.154152	-42.208146	-18.239683	-42.208146	-18.239683	-0.224100	-102.608661
7.500000	-0.331190	93.598376	-42.155723	-19.614525	-42.155723	-19.614525	-0.227320	-103.206005
7.550000	-0.333841	92.037065	-42.105108	-20.978649	-42.105108	-20.978649	-0.230583	-103.802323
7.600000	-0.336500	90.470426	-42.056194	-22.332197	-42.056194	-22.332197	-0.233888	-104.397669
7.650000	-0.339167	88.898440	-42.008936	-23.674879	-42.008936	-23.674879	-0.237234	-104.992057
7.700000	-0.341843	87.321094	-41.963289	-25.006400	-41.963289	-25.006400	-0.240623	-105.585500
7.750000	-0.344529	85.738379	-41.919202	-26.326468	-41.919202	-26.326468	-0.244055	-106.178011
7.800000	-0.347226	84.150294	-41.876624	-27.634789	-41.876624	-27.634789	-0.247529	-106.769604
7.850000	-0.349935	82.556842	-41.835503	-28.931069	-41.835503	-28.931069	-0.251046	-107.360291
7.900000	-0.352657	80.958031	-41.795782	-30.215014	-41.795782	-30.215014	-0.254607	-107.950088
7.950000	-0.355395	79.353875	-41.757403	-31.486332	-41.757403	-31.486332	-0.258211	-108.539008
8.000000	-0.358150	77.744394	-41.720307	-32.744730	-41.720307	-32.744730	-0.261860	-109.127065
8.050000	-0.360923	76.129613	-41.684429	-33.989919	-41.684429	-33.989919	-0.265553	-109.714273
8.100000	-0.363717	74.509562	-41.649706	-35.221609	-41.649706	-35.221609	-0.269291	-110.300647
8.150000	-0.366533	72.884279	-41.616070	-36.439514	-41.616070	-36.439514	-0.273074	-110.886200
8.200000	-0.369376	71.253804	-41.583450	-37.643347	-41.583450	-37.643347	-0.276902	-111.470949
8.250000	-0.372246	69.618186	-41.551773	-38.832824	-41.551773	-38.832824	-0.280775	-112.054907
8.300000	-0.375148	67.977479	-41.520966	-40.007665	-41.520966	-40.007665	-0.284695	-112.638089
8.350000	-0.378084	66.331740	-41.490949	-41.167589	-41.490949	-41.167589	-0.288660	-113.220512
8.400000	-0.381057	64.681035	-41.461642	-42.312318	-41.461642	-42.312318	-0.292672	-113.802189
8.450000	-0.384073	63.025433	-41.432962	-43.441576	-41.432962	-43.441576	-0.296730	-114.383137
8.500000	-0.387134	61.365012	-41.404822	-44.555088	-41.404822	-44.555088	-0.300836	-114.963371
8.550000	-0.390245	59.699852	-41.377133	-45.652580	-41.377133	-45.652580	-0.304989	-115.542907
8.600000	-0.393410	58.030040	-41.349803	-46.733779	-41.349803	-46.733779	-0.309189	-116.121760
8.650000	-0.396636	56.355670	-41.322736	-47.798414	-41.322736	-47.798414	-0.313437	-116.699947
8.700000	-0.399926	54.676840	-41.295832	-48.846213	-41.295832	-48.846213	-0.317732	-117.277484
8.750000	-0.403287	52.993653	-41.268991	-49.876904	-41.268991	-49.876904	-0.322076	-117.854387
8.800000	-0.406728	51.306040	-41.242093	-50.889447	-41.242093	-50.889447	-0.326471	-118.430647
8.850000	-0.410254	49.614306	-41.215030	-51.884310	-41.215030	-51.884310	-0.330914	-119.006307
8.900000	-0.413870	47.918571	-41.187686	-52.861217	-41.187686	-52.861217	-0.335406	-119.581386
8.950000	-0.417584	46.218962	-41.159942	-53.819891	-41.159942	-53.819891	-0.339948	-120.155899
9.000000	-0.421403	44.515610	-41.131673	-54.760047	-41.131673	-54.760047	-0.344538	-120.729863
9.050000	-0.425337	42.808652	-41.102750	-55.681399	-41.102750	-55.681399	-0.349179	-121.303297
9.100000	-0.429392	41.098230	-41.073037	-56.583654	-41.073037	-56.583654	-0.353869	-121.876217
9.150000	-0.433579	39.384491	-41.042394	-57.466515	-41.042394	-57.466515	-0.358609	-122.448641
9.200000	-0.437906	37.667586	-41.010673	-58.329673	-41.010673	-58.329673	-0.363400	-123.020587
9.250000	-0.442383	35.947672	-40.977719	-59.172816	-40.977719	-59.172816	-0.368241	-123.592073
9.300000	-0.447020	34.224911	-40.943371	-59.995616	-40.943371	-59.995616	-0.373133	-124.163116
9.350000	-0.451828	32.499469	-40.907458	-60.797739	-40.907458	-60.797739	-0.378075	-124.733735
9.400000	-0.456818	30.771516	-40.869801	-61.578834	-40.869801	-61.578834	-0.383069	-125.303948
9.450000	-0.462000	29.041228	-40.830210	-62.338539	-40.830210	-62.338539	-0.388114	-125.873774
9.500000	-0.467388	27.308784	-40.788487	-63.076473	-40.788487	-63.076473	-0.393210	-126.443231
9.550000	-0.472993	25.574369	-40.744419	-63.792238	-40.744419	-63.792238	-0.398357	-127.012338
9.600000	-0.478807	23.838305	-40.698055	-64.487427	-40.698055	-64.487427	-0.403552	-127.581142
9.650000	-0.484886	22.100483	-40.648600	-65.157365	-40.648600	-65.157365	-0.408804	-128.149602
9.700000	-0.491221	20.361269	-40.596079	-65.803802	-40.596079	-65.803802	-0.414108	-128.717770
9.750000	-0.497826	18.620865	-40.540218	-66.426244	-40.540218	-66.426244	-0.419464	-129.285666
9.800000	-0.504714	16.879472	-40.480726	-67.024166	-40.480726	-67.024166	-0.424872	-129.853309
9.850000	-0.511901	15.137300	-40.417290	-67.597009	-40.417290	-67.597009	-0.430332	-130.420719
9.900000	-0.519401	13.394557	-40.349574	-68.144177	-40.349574	-68.144177	-0.435845	-130.987917
9.950000	-0.527229	11.651459	-40.277215	-68.665031	-40.277215	-68.665031	-0.441411	-131.554922
10.000000	-0.535399	9.908221	-40.199819	-69.158886	-40.199819	-69.158886	-0.447029	-132.121754
