! freq	dB(S11)	phase(S11)	dB(S12)	phase(S12)	
!     	dB(S21)	phase(S21)	dB(S22)	phase(S22)	
!S-par simulation data
#  GHz  S  DB  R 50
0.000000	-85.185525	0.000000	-0.000478	0.000000	-0.000478	0.000000	-85.185525	0.000000
0.050000	-35.013314	-92.984170	-0.007582	-3.153767	-0.007582	-3.153767	-35.010629	-92.673934
0.100000	-29.058661	-96.529122	-0.016830	-6.261538	-0.016830	-6.261538	-29.055353	-95.914947
0.150000	-25.593894	-99.972061	-0.027498	-9.358835	-0.027498	-9.358835	-25.589838	-99.052776
0.200000	-23.151746	-103.326946	-0.040524	-12.446399	-0.040524	-12.446399	-23.147120	-102.099890
0.250000	-21.272815	-106.628739	-0.055899	-15.522855	-0.055899	-15.522855	-21.267747	-105.089678
0.300000	-19.752804	-109.899657	-0.073452	-18.587845	-0.073452	-18.587845	-19.747350	-108.043112
0.350000	-18.483562	-113.150563	-0.093065	-21.641154	-0.093065	-21.641154	-18.477735	-110.969804
0.400000	-17.399748	-116.387181	-0.114544	-24.683044	-0.114544	-24.683044	-17.393544	-113.874477
0.450000	-16.460375	-119.611565	-0.137763	-27.713030	-0.137763	-27.713030	-16.453784	-116.757684
0.500000	-15.635954	-122.825269	-0.162459	-30.731194	-0.162459	-30.731194	-15.628965	-119.619980
0.550000	-14.906919	-126.028580	-0.188450	-33.736625	-0.188450	-33.736625	-14.899520	-122.459839
0.600000	-14.257296	-129.222353	-0.215460	-36.729167	-0.215460	-36.729167	-14.249476	-125.276991
0.650000	-13.676118	-132.406972	-0.243273	-39.707977	-0.243273	-39.707977	-13.667860	-128.069874
0.700000	-13.153936	-135.583355	-0.271643	-42.672881	-0.271643	-42.672881	-13.145221	-130.837961
0.750000	-12.683788	-138.752406	-0.300343	-45.623517	-0.300343	-45.623517	-12.674587	-133.580176
0.800000	-12.259804	-141.915338	-0.329142	-48.559874	-0.329142	-48.559874	-12.250080	-136.295835
0.850000	-11.877668	-145.073521	-0.357803	-51.481828	-0.357803	-51.481828	-11.867372	-138.983728
0.900000	-11.532500	-148.228788	-0.386117	-54.390308	-0.386117	-54.390308	-11.521575	-141.644428
0.950000	-11.221411	-151.382929	-0.413863	-57.285567	-0.413863	-57.285567	-11.209786	-144.276934
1.000000	-10.941616	-154.538053	-0.440831	-60.168281	-0.440831	-60.168281	-10.929208	-146.880781
1.050000	-10.690756	-157.696502	-0.466819	-63.039269	-0.466819	-63.039269	-10.677467	-149.455513
1.100000	-10.466825	-160.860853	-0.491636	-65.899484	-0.491636	-65.899484	-10.452544	-152.000655
1.150000	-10.268114	-164.033925	-0.515102	-68.750002	-0.515102	-68.750002	-10.252716	-154.515689
1.200000	-10.093166	-167.218794	-0.537053	-71.592008	-0.537053	-71.592008	-10.076512	-157.000020
1.250000	-9.940744	-170.418799	-0.557337	-74.426785	-0.557337	-74.426785	-9.922679	-159.452944
1.300000	-9.810210	-173.638066	-0.575776	-77.255614	-0.575776	-77.255614	-9.790557	-161.872890
1.350000	-9.700266	-176.880223	-0.592292	-80.080113	-0.592292	-80.080113	-9.678832	-164.259499
1.400000	-9.610181	179.850437	-0.606784	-82.901811	-0.606784	-82.901811	-9.586756	-166.611502
1.450000	-9.539363	176.549253	-0.619172	-85.722299	-0.619172	-85.722299	-9.513710	-168.927356
1.500000	-9.487338	173.211157	-0.629392	-88.543219	-0.629392	-88.543219	-9.459193	-171.205194
1.550000	-9.453744	169.830624	-0.637402	-91.366261	-0.637402	-91.366261	-9.422811	-173.442759
1.600000	-9.438319	166.401619	-0.643179	-94.193150	-0.643179	-94.193150	-9.404265	-175.637342
1.650000	-9.440893	162.917528	-0.646719	-97.025641	-0.646719	-97.025641	-9.403339	-177.785703
1.700000	-9.461379	159.371085	-0.648042	-99.865514	-0.648042	-99.865514	-9.419894	-179.883983
1.750000	-9.499761	155.754279	-0.647187	-102.714559	-0.647187	-102.714559	-9.453850	178.072400
1.800000	-9.556087	152.058247	-0.644216	-105.574576	-0.644216	-105.574576	-9.505181	176.088864
1.850000	-9.630453	148.273148	-0.639214	-108.447360	-0.639214	-108.447360	-9.573894	174.171794
1.900000	-9.723173	144.386798	-0.632270	-111.334874	-0.632270	-111.334874	-9.660191	172.329598
1.950000	-9.834372	140.386475	-0.623525	-114.238935	-0.623525	-114.238935	-9.764072	170.571417
2.000000	-9.963974	136.259426	-0.613159	-117.161102	-0.613159	-117.161102	-9.885321	168.906823
2.050000	-10.112030	131.990100	-0.601359	-120.103041	-0.601359	-120.103041	-10.023820	167.347876
2.100000	-10.278479	127.561009	-0.588338	-123.066345	-0.588338	-123.066345	-10.179313	165.908526
2.150000	-10.463078	122.952497	-0.574337	-126.052517	-0.574337	-126.052517	-10.351334	164.604798
2.200000	-10.665309	118.142522	-0.559622	-129.062953	-0.559622	-129.062953	-10.539115	163.454952
2.250000	-10.884257	113.106501	-0.544486	-132.098913	-0.544486	-132.098913	-10.741471	162.479550
2.300000	-11.118449	107.817274	-0.529247	-135.161506	-0.529247	-135.161506	-10.956649	161.701379
2.350000	-11.365657	102.245290	-0.514246	-138.251662	-0.514246	-138.251662	-11.182151	161.145130
2.400000	-11.622651	96.359175	-0.499846	-141.370111	-0.499846	-141.370111	-11.414525	160.836699
2.450000	-11.884910	90.126875	-0.486429	-144.517359	-0.486429	-144.517359	-11.649136	160.801926
2.500000	-12.146322	83.517668	-0.474396	-147.693667	-0.474396	-147.693667	-11.879944	161.064593
2.550000	-12.398342	76.496145	-0.464205	-150.899658	-0.464205	-150.899658	-12.098774	161.650584
2.600000	-12.631065	69.054209	-0.456246	-154.134394	-0.456246	-154.134394	-12.296563	162.562382
2.650000	-12.832527	61.191077	-0.450945	-157.397268	-0.450945	-157.397268	-12.462687	163.794753
2.700000	-12.989453	52.927992	-0.448721	-160.687368	-0.448721	-160.687368	-12.585768	165.323479
2.750000	-13.088375	44.313765	-0.449989	-164.003462	-0.449989	-164.003462	-12.654666	167.101830
2.800000	-13.117263	35.427087	-0.455150	-167.344004	-0.455150	-167.344004	-12.659803	169.059887
2.850000	-13.067400	26.373474	-0.464584	-170.707131	-0.464584	-170.707131	-12.594581	171.108044
2.900000	-12.934991	17.275986	-0.478647	-174.090679	-0.478647	-174.090679	-12.456504	173.144890
2.950000	-12.721955	8.261292	-0.497659	-177.492196	-0.497659	-177.492196	-12.247665	175.068075
3.000000	-12.435587	-0.555246	-0.521908	179.091031	-0.521908	179.091031	-11.974407	176.785503
3.050000	-12.087221	-9.081273	-0.551632	175.661951	-0.551632	175.661951	-11.646288	178.224021
3.100000	-11.690386	-17.253305	-0.587025	172.223711	-0.587025	172.223711	-11.274677	179.333859
3.150000	-11.258529	-25.032211	-0.628287	168.779591	-0.628287	168.779591	-10.870943	-179.915216
3.200000	-10.804924	-32.407803	-0.675502	165.333124	-0.675502	165.333124	-10.446520	-179.528813
3.250000	-10.341283	-39.392657	-0.728629	161.887855	-0.728629	161.887855	-10.011719	-179.492681
3.300000	-9.876640	-46.006249	-0.787630	158.447271	-0.787630	158.447271	-9.574664	-179.786254
3.350000	-9.418000	-52.274142	-0.852411	155.014820	-0.852411	155.014820	-9.141817	179.617024
3.400000	-8.970567	-58.224312	-0.922819	151.593858	-0.922819	151.593858	-8.718113	178.746474
3.450000	-8.538048	-63.884738	-0.998650	148.187603	-0.998650	148.187603	-8.307177	177.631914
3.500000	-8.122942	-69.281974	-1.079647	144.799098	-1.079647	144.799098	-7.911552	176.302203
3.550000	-7.726817	-74.440409	-1.165511	141.431170	-1.165511	141.431170	-7.532921	174.784369
3.600000	-7.350527	-79.381998	-1.255901	138.086404	-1.255901	138.086404	-7.172291	173.103169
3.650000	-6.994396	-84.126251	-1.350441	134.767116	-1.350441	134.767116	-6.830152	171.280930
3.700000	-6.658358	-88.690392	-1.448729	131.475336	-1.448729	131.475336	-6.506608	169.337553
3.750000	-6.342065	-93.089580	-1.550338	128.212800	-1.550338	128.212800	-6.201470	167.290626
3.800000	-6.045170	-97.334143	-1.654850	124.981636	-1.654850	124.981636	-5.914532	165.153989
3.850000	-5.766813	-101.439358	-1.761764	121.782326	-1.761764	121.782326	-5.645081	162.943246
3.900000	-5.506217	-105.415598	-1.870622	118.615692	-1.870622	118.615692	-5.392459	160.669997
3.950000	-5.262554	-109.272124	-1.980965	115.482279	-1.980965	115.482279	-5.155949	158.344276
4.000000	-5.034976	-113.017257	-2.092336	112.382365	-2.092336	112.382365	-4.934796	155.974725
4.050000	-4.822633	-116.658528	-2.204290	109.315975	-2.204290	109.315975	-4.728234	153.568755
4.100000	-4.624685	-120.202800	-2.316387	106.282906	-2.316387	106.282906	-4.535496	151.132686
4.150000	-4.440316	-123.656375	-2.428203	103.282741	-2.428203	103.282741	-4.355828	148.671880
4.200000	-4.268739	-127.025076	-2.539327	100.314867	-2.539327	100.314867	-4.188497	146.190860
4.250000	-4.109200	-130.314321	-2.649364	97.378501	-2.649364	97.378501	-4.032800	143.693406
4.300000	-3.960987	-133.529181	-2.757938	94.472703	-2.757938	94.472703	-3.888061	141.182653
4.350000	-3.823424	-136.674431	-2.864687	91.596395	-2.864687	91.596395	-3.753643	138.661171
4.400000	-3.695962	-139.753926	-2.969228	88.748671	-2.969228	88.748671	-3.629024	136.130958
4.450000	-3.577999	-142.772099	-3.071228	85.928177	-3.071228	85.928177	-3.513628	133.593703
4.500000	-3.468899	-145.733741	-3.170418	83.133204	-3.170418	83.133204	-3.406843	131.050743
4.550000	-3.368154	-148.642772	-3.266507	80.362266	-3.266507	80.362266	-3.308178	128.503001
4.600000	-3.275860	-151.499087	-3.358818	77.615600	-3.358818	77.615600	-3.217732	125.950801
4.650000	-3.190366	-154.314840	-3.447932	74.887656	-3.447932	74.887656	-3.133896	123.395230
4.700000	-3.111942	-157.088839	-3.533167	72.178946	-3.533167	72.178946	-3.056936	120.836085
4.750000	-3.040232	-159.824523	-3.614289	69.487752	-3.614289	69.487752	-2.986503	118.273377
4.800000	-2.974916	-162.525254	-3.691074	66.812313	-3.691074	66.812313	-2.922282	115.706949
4.850000	-2.915705	-165.194323	-3.763310	64.150822	-3.763310	64.150822	-2.863990	113.136507
4.900000	-2.862347	-167.834969	-3.830794	61.501429	-3.830794	61.501429	-2.811376	110.561630
4.950000	-2.814620	-170.450395	-3.893330	58.862244	-3.893330	58.862244	-2.764220	107.981789
5.000000	-2.772335	-173.043777	-3.950730	56.231327	-3.950730	56.231327	-2.722332	105.396361
5.050000	-2.735551	-175.617613	-4.002562	53.606872	-4.002562	53.606872	-2.685761	102.804324
5.100000	-2.703919	-178.176038	-4.048891	50.986471	-4.048891	50.986471	-2.654160	100.205128
5.150000	-2.677347	179.277745	-4.089544	48.368020	-4.089544	48.368020	-2.627432	97.597912
5.200000	-2.655777	176.740491	-4.124352	45.749347	-4.124352	45.749347	-2.605507	94.981756
5.250000	-2.639181	174.208888	-4.153148	43.128203	-4.153148	43.128203	-2.588349	92.355684
5.300000	-2.627570	171.679543	-4.175768	40.502253	-4.175768	40.502253	-2.575953	89.718672
5.350000	-2.620986	169.148955	-4.192047	37.869064	-4.192047	37.869064	-2.568345	87.069652
5.400000	-2.619514	166.613488	-4.201823	35.226092	-4.201823	35.226092	-2.565589	84.407510
5.450000	-2.623279	164.069344	-4.204934	32.570665	-4.204934	32.570665	-2.567783	81.731101
5.500000	-2.632452	161.512531	-4.201217	29.899964	-4.201217	29.899964	-2.575070	79.039243
5.550000	-2.647253	158.938823	-4.190512	27.211008	-4.190512	27.211008	-2.587633	76.330731
5.600000	-2.667962	156.343723	-4.172658	24.500627	-4.172658	24.500627	-2.605705	73.604340
5.650000	-2.694917	153.722409	-4.147496	21.765438	-4.147496	21.765438	-2.629574	70.858837
5.700000	-2.728534	151.069685	-4.114871	19.001817	-4.114871	19.001817	-2.659588	68.092994
5.750000	-2.769306	148.379911	-4.074630	16.205870	-4.074630	16.205870	-2.696164	65.305606
5.800000	-2.817826	145.646932	-4.026628	13.373391	-4.026628	13.373391	-2.739798	62.495515
5.850000	-2.874797	142.863985	-3.970730	10.499828	-3.970730	10.499828	-2.791076	59.661648
5.900000	-2.941052	140.023602	-3.906813	7.580240	-3.906813	7.580240	-2.850689	56.803057
5.950000	-3.017581	137.117478	-3.834772	4.609242	-3.834772	4.609242	-2.919447	53.918991
6.000000	-3.105554	134.136330	-3.754529	1.580958	-3.754529	1.580958	-2.998303	51.008973
6.050000	-3.205772	131.074146	-3.666444	-1.507840	-3.666444	-1.507840	-3.087860	48.074025
6.100000	-3.321169	127.909598	-3.569605	-4.671114	-3.569605	-4.671114	-3.190540	45.112098
6.150000	-3.453068	124.633990	-3.464567	-7.913021	-3.464567	-7.913021	-3.307307	42.125888
6.200000	-3.603844	121.231771	-3.351461	-11.242049	-3.351461	-11.242049	-3.439969	39.117771
6.250000	-3.776353	117.684937	-3.230515	-14.667496	-3.230515	-14.667496	-3.590648	36.091643
6.300000	-3.974567	113.968285	-3.101884	-18.202104	-3.101884	-18.202104	-3.762256	33.053443
6.350000	-4.202292	110.059820	-2.966294	-21.854930	-2.966294	-21.854930	-3.957373	30.012740
6.400000	-4.464647	105.929485	-2.824464	-25.638049	-2.824464	-25.638049	-4.179392	26.982877
6.450000	-4.767897	101.540796	-2.677366	-29.564442	-2.677366	-29.564442	-4.432221	23.983004
6.500000	-5.119730	96.848682	-2.526279	-33.647897	-2.526279	-33.647897	-4.720294	21.040351
6.550000	-5.529614	91.796250	-2.372857	-37.902835	-2.372857	-37.902835	-5.048515	18.193381
6.600000	-6.007652	86.325702	-2.219210	-42.337968	-2.219210	-42.337968	-5.421104	15.489416
6.650000	-6.571558	80.307297	-2.067859	-46.980651	-2.067859	-46.980651	-5.845199	13.015900
6.700000	-7.237311	73.618917	-1.922156	-51.838144	-1.922156	-51.838144	-6.323580	10.872667
6.750000	-8.025743	66.065158	-1.785974	-56.921853	-1.785974	-56.921853	-6.857113	9.200881
6.800000	-8.960301	57.342132	-1.663962	-62.241531	-1.663962	-62.241531	-7.440340	8.191383
6.850000	-10.061477	46.973989	-1.561455	-67.801889	-1.561455	-67.801889	-8.055468	8.079544
6.900000	-11.329977	34.228294	-1.484101	-73.598594	-1.484101	-73.598594	-8.664592	9.105238
6.950000	-12.696638	17.909032	-1.438619	-79.625340	-1.438619	-79.625340	-9.198587	11.472228
7.000000	-13.923306	-3.162124	-1.430441	-85.857394	-1.430441	-85.857394	-9.565649	15.105314
7.050000	-14.483164	-28.964433	-1.466776	-92.270889	-1.466776	-92.270889	-9.659679	19.584904
7.100000	-13.991041	-55.694151	-1.551067	-98.820667	-1.551067	-98.820667	-9.440653	24.057832
7.150000	-12.660077	-78.720807	-1.688665	-105.462685	-1.688665	-105.462685	-8.931872	27.609350
7.200000	-11.069312	-96.962838	-1.879951	-112.141509	-1.879951	-112.141509	-8.238186	29.703349
7.250000	-9.543737	-111.375638	-2.126000	-118.802679	-2.126000	-118.802679	-7.461950	30.181496
7.300000	-8.199561	-123.224395	-2.424094	-125.394331	-2.424094	-125.394331	-6.686574	29.237586
7.350000	-7.051622	-133.317337	-2.770884	-131.869644	-2.770884	-131.869644	-5.960405	27.143006
7.400000	-6.083257	-142.164020	-3.161373	-138.191206	-3.161373	-138.191206	-5.307088	24.181222
7.450000	-5.269678	-150.080732	-3.589705	-144.332940	-3.589705	-144.332940	-4.733966	20.593690
7.500000	-4.587674	-157.252279	-4.050043	-150.275135	-4.050043	-150.275135	-4.240266	16.556537
7.550000	-4.014415	-163.824238	-4.536434	-156.014424	-4.536434	-156.014424	-3.819186	12.212640
7.600000	-3.533946	-169.868735	-5.043086	-161.542554	-5.043086	-161.542554	-3.465088	7.648989
7.650000	-3.128105	-175.479601	-5.565607	-166.875446	-5.565607	-166.875446	-3.167757	2.940831
7.700000	-2.784856	179.293946	-6.099841	-172.021229	-6.099841	-172.021229	-2.920263	-1.871105
7.750000	-2.493647	174.406083	-6.642415	-176.993433	-6.642415	-176.993433	-2.715829	-6.759460
7.800000	-2.246007	169.820011	-7.190340	178.193786	-7.190340	178.193786	-2.548754	-11.708854
7.850000	-2.034635	165.501233	-7.741472	173.523760	-7.741472	173.523760	-2.413836	-16.711753
7.900000	-1.853495	161.419414	-8.294242	168.979461	-8.294242	168.979461	-2.306639	-21.766712
7.950000	-1.697882	157.550522	-8.847106	164.545416	-8.847106	164.545416	-2.223711	-26.877406
8.000000	-1.563612	153.870396	-9.399389	160.204897	-9.399389	160.204897	-2.161853	-32.049947
8.050000	-1.447273	150.358033	-9.950733	155.942134	-9.950733	155.942134	-2.118424	-37.292569
8.100000	-1.346134	146.995740	-10.500835	151.742554	-10.500835	151.742554	-2.091313	-42.615343
8.150000	-1.257931	143.767822	-11.049565	147.592246	-11.049565	147.592246	-2.078745	-48.029470
8.200000	-1.180781	140.660322	-11.596908	143.477898	-11.596908	143.477898	-2.079213	-53.546947
8.250000	-1.113119	137.660800	-12.142917	139.386697	-12.142917	139.386697	-2.091411	-59.180306
8.300000	-1.053637	134.758130	-12.687658	135.306204	-12.687658	135.306204	-2.114183	-64.942389
8.350000	-1.001270	131.942699	-13.230988	131.224122	-13.230988	131.224122	-2.146503	-70.846875
8.400000	-0.955117	129.205710	-13.772660	127.127921	-13.772660	127.127921	-2.187371	-76.907557
8.450000	-0.914354	126.538182	-14.312752	123.005151	-14.312752	123.005151	-2.235670	-83.135432
8.500000	-0.878345	123.932673	-14.850730	118.842796	-14.850730	118.842796	-2.290331	-89.542133
8.550000	-0.846562	121.382310	-15.385684	114.626897	-15.385684	114.626897	-2.350194	-96.138201
8.600000	-0.818570	118.880673	-15.916182	110.342061	-15.916182	110.342061	-2.413984	-102.932654
8.650000	-0.794016	116.421675	-16.440107	105.970848	-16.440107	105.970848	-2.480282	-109.932504
8.700000	-0.772625	113.999435	-16.954433	101.493003	-16.954433	101.493003	-2.547516	-117.142237
8.750000	-0.754197	111.608140	-17.454959	96.884531	-17.454959	96.884531	-2.613975	-124.563291
8.800000	-0.738647	109.242149	-17.935215	92.113763	-17.935215	92.113763	-2.677764	-132.196521
8.850000	-0.725900	106.894786	-18.388118	87.147374	-18.388118	87.147374	-2.737046	-140.032729
8.900000	-0.716028	104.559249	-18.803496	81.942786	-18.803496	81.942786	-2.790034	-148.061850
8.950000	-0.709242	102.227801	-19.168099	76.448912	-19.168099	76.448912	-2.835168	-156.270228
9.000000	-0.705951	99.891257	-19.464884	70.605360	-19.464884	70.605360	-2.871311	-164.641527
9.050000	-0.706862	97.538247	-19.672238	64.342115	-19.672238	64.342115	-2.898010	-173.158435
9.100000	-0.713164	95.154104	-19.763189	57.579566	-19.763189	57.579566	-2.915849	178.194610
9.150000	-0.726850	92.719162	-19.704745	50.227850	-19.704745	50.227850	-2.926986	169.427262
9.200000	-0.751528	90.205005	-19.455066	42.174469	-19.455066	42.174469	-2.936117	160.535662
9.250000	-0.793604	87.571921	-18.967458	33.284097	-18.967458	33.284097	-2.952525	151.495147
9.300000	-0.865331	84.763623	-18.189740	23.348623	-18.189740	23.348623	-2.994044	142.244858
9.350000	-0.990871	81.708958	-17.072423	12.007850	-17.072423	12.007850	-3.095882	132.676629
9.400000	-1.228338	78.337333	-15.550362	-1.561158	-15.550362	-1.561158	-3.343476	122.620552
9.450000	-1.708884	74.849781	-13.629553	-18.963005	-13.629553	-18.963005	-3.945915	112.127574
9.500000	-2.670607	73.125122	-11.565763	-43.168424	-11.565763	-43.168424	-5.394067	103.504266
9.550000	-3.697060	79.298494	-10.356552	-75.974455	-10.356552	-75.974455	-7.421614	108.893983
9.600000	-3.009319	87.735491	-11.107211	-109.712086	-11.107211	-109.712086	-6.145444	121.348429
9.650000	-1.932559	87.499727	-13.046349	-134.700998	-13.046349	-134.700998	-4.201554	116.999990
9.700000	-1.348108	84.359906	-15.046537	-151.583921	-15.046537	-151.583921	-3.191844	108.414178
9.750000	-1.053720	81.099260	-16.765296	-163.608223	-16.765296	-163.608223	-2.654778	100.118773
9.800000	-0.892492	78.134150	-18.198774	-172.845426	-18.198774	-172.845426	-2.324798	92.586789
9.850000	-0.796609	75.444148	-19.398599	179.644706	-19.398599	179.644706	-2.096228	85.720304
9.900000	-0.735703	72.963308	-20.414685	173.287611	-20.414685	173.287611	-1.923478	79.392793
9.950000	-0.694629	70.633820	-21.292683	167.729324	-21.292683	167.729324	-1.784215	73.498785
10.000000	-0.665508	68.413818	-22.068807	162.743931	-22.068807	162.743931	-1.666805	67.958181
