! freq	dB(S11)	phase(S11)	dB(S12)	phase(S12)	
!     	dB(S21)	phase(S21)	dB(S22)	phase(S22)	
!S-par simulation data
#  GHz  S  DB  R 50
0.000000	-83.409143	0.000000	-0.000587	0.000000	-0.000587	0.000000	-83.409143	0.000000
0.050000	-41.647496	-92.570565	-0.007102	-2.791719	-0.007102	-2.791719	-41.523767	-90.385027
0.100000	-35.631690	-95.772428	-0.011844	-5.568054	-0.011844	-5.568054	-35.611138	-93.984828
0.150000	-32.167231	-98.702834	-0.017535	-8.329807	-0.017535	-8.329807	-32.141539	-96.933782
0.200000	-29.727544	-102.071037	-0.023322	-11.082333	-0.023322	-11.082333	-29.688795	-99.663440
0.250000	-27.814549	-105.281803	-0.029085	-13.829102	-0.029085	-13.829102	-27.799524	-102.281295
0.300000	-26.268187	-108.406085	-0.034955	-16.572568	-0.034955	-16.572568	-26.268655	-104.843344
0.350000	-24.977248	-111.507015	-0.041075	-19.313434	-0.041075	-19.313434	-24.987674	-107.371668
0.400000	-23.874479	-114.598820	-0.047536	-22.051839	-0.047536	-22.051839	-23.891479	-109.878519
0.450000	-22.917577	-117.685426	-0.054405	-24.787534	-0.054405	-24.787534	-22.938855	-112.369693
0.500000	-22.076907	-120.768493	-0.061695	-27.520301	-0.061695	-27.520301	-22.100813	-114.848693
0.550000	-21.331644	-123.848638	-0.069415	-30.249895	-0.069415	-30.249895	-21.356903	-117.317043
0.600000	-20.666568	-126.925926	-0.077572	-32.976145	-0.077572	-32.976145	-20.692111	-119.775302
0.650000	-20.070642	-129.999667	-0.086188	-35.699004	-0.086188	-35.699004	-20.095447	-122.223289
0.700000	-19.535132	-133.067516	-0.095278	-38.418910	-0.095278	-38.418910	-19.557963	-124.660680
0.750000	-19.054212	-136.121946	-0.104812	-41.136911	-0.104812	-41.136911	-19.072406	-127.087013
0.800000	-18.635048	-139.170500	-0.114629	-43.854470	-0.114629	-43.854470	-18.633200	-129.501572
0.850000	-18.235085	-142.499278	-0.124344	-46.572486	-0.124344	-46.572486	-18.236638	-131.903099
0.900000	-17.862944	-145.528527	-0.133551	-49.289835	-0.133551	-49.289835	-17.877958	-134.291471
0.950000	-17.540692	-148.585343	-0.142105	-52.004236	-0.142105	-52.004236	-17.554551	-136.665782
1.000000	-17.252597	-151.662958	-0.150123	-54.714187	-0.150123	-54.714187	-17.263928	-139.025483
1.050000	-16.995405	-154.751594	-0.157771	-57.419617	-0.157771	-57.419617	-17.004020	-141.370156
1.100000	-16.767115	-157.849031	-0.165133	-60.121234	-0.165133	-60.121234	-16.773104	-143.699492
1.150000	-16.566162	-160.955175	-0.172213	-62.819892	-0.172213	-62.819892	-16.569732	-146.013237
1.200000	-16.391270	-164.070758	-0.178976	-65.516365	-0.178976	-65.516365	-16.392694	-148.311136
1.250000	-16.241397	-167.196949	-0.185370	-68.211320	-0.185370	-68.211320	-16.240978	-150.592858
1.300000	-16.116179	-170.335511	-0.191337	-70.905347	-0.191337	-70.905347	-16.114240	-152.857565
1.350000	-16.014483	-173.487938	-0.196839	-73.599037	-0.196839	-73.599037	-16.011331	-155.104952
1.400000	-15.935812	-176.656187	-0.201837	-76.292933	-0.201837	-76.292933	-15.931737	-157.334138
1.450000	-15.879829	-179.842457	-0.206303	-78.987572	-0.206303	-78.987572	-15.875098	-159.543992
1.500000	-15.846340	176.950790	-0.210211	-81.683495	-0.210211	-81.683495	-15.841196	-161.733101
1.550000	-15.835296	173.720798	-0.213546	-84.381247	-0.213546	-84.381247	-15.829954	-163.899733
1.600000	-15.846789	170.464471	-0.216301	-87.081376	-0.216301	-87.081376	-15.841443	-166.041794
1.650000	-15.881054	167.178323	-0.218472	-89.784431	-0.218472	-89.784431	-15.875876	-168.156774
1.700000	-15.938476	163.858404	-0.220066	-92.490963	-0.220066	-92.490963	-15.933615	-170.241673
1.750000	-16.019592	160.500216	-0.221096	-95.201521	-0.221096	-95.201521	-16.015183	-172.292905
1.800000	-16.125107	157.098598	-0.221580	-97.916646	-0.221580	-97.916646	-16.121264	-174.306181
1.850000	-16.255901	153.647587	-0.221545	-100.636873	-0.221545	-100.636873	-16.252723	-176.276349
1.900000	-16.413317	150.139526	-0.221019	-103.362793	-0.221019	-103.362793	-16.410886	-178.196585
1.950000	-16.598660	146.565912	-0.220042	-106.094929	-0.220042	-106.094929	-16.597034	179.940946
2.000000	-16.813205	142.917524	-0.218667	-108.833711	-0.218667	-108.833711	-16.812420	178.145007
2.050000	-17.058761	139.182548	-0.216943	-111.579606	-0.216943	-111.579606	-17.058820	176.427020
2.100000	-17.337444	135.346641	-0.214930	-114.333060	-0.214930	-114.333060	-17.338307	174.801120
2.150000	-17.651717	131.392178	-0.212692	-117.094487	-0.212692	-117.094487	-17.653285	173.284935
2.200000	-18.004430	127.297247	-0.210295	-119.864277	-0.210295	-119.864277	-18.006520	171.900658
2.250000	-18.398865	123.034256	-0.207815	-122.642782	-0.207815	-122.642782	-18.401171	170.676487
2.300000	-18.838761	118.568006	-0.205331	-125.430320	-0.205331	-125.430320	-18.840800	169.648636
2.350000	-19.328316	113.852983	-0.202924	-128.227170	-0.202924	-128.227170	-19.329332	168.864108
2.400000	-19.872112	108.829542	-0.200681	-131.033570	-0.200681	-131.033570	-19.870940	168.384580
2.450000	-20.474891	103.418496	-0.198693	-133.849715	-0.198693	-133.849715	-20.469735	168.291813
2.500000	-21.141020	97.513519	-0.197052	-136.675753	-0.197052	-136.675753	-21.129102	168.695081
2.550000	-21.873265	90.952370	-0.195867	-139.512001	-0.195867	-139.512001	-21.850186	169.759451
2.600000	-22.669622	83.546640	-0.195226	-142.358292	-0.195226	-142.358292	-22.628632	171.673758
2.650000	-23.519307	75.032044	-0.195229	-145.214621	-0.195229	-145.214621	-23.450129	174.696233
2.700000	-24.393345	65.078557	-0.195974	-148.080928	-0.195974	-148.080928	-24.281067	179.135441
2.750000	-25.230466	53.335612	-0.197562	-150.957104	-0.197562	-150.957104	-25.055859	-174.708717
2.800000	-25.922824	39.583864	-0.200089	-153.842982	-0.200089	-153.842982	-25.667223	-166.704829
2.850000	-26.322216	24.025155	-0.203653	-156.738341	-0.203653	-156.738341	-25.979604	-157.148900
2.900000	-26.296971	7.529138	-0.208349	-159.642910	-0.208349	-159.642910	-25.886189	-146.922132
2.950000	-25.819507	-8.572958	-0.214267	-162.556361	-0.214267	-162.556361	-25.379498	-137.230498
3.000000	-24.988716	-23.156072	-0.221495	-165.478316	-0.221495	-165.478316	-24.557288	-129.027345
3.050000	-23.956632	-35.756762	-0.230116	-168.408348	-0.230116	-168.408348	-23.555859	-122.682268
3.100000	-22.850648	-46.466651	-0.240209	-171.345984	-0.240209	-171.345984	-22.487646	-118.099774
3.150000	-21.748495	-55.600194	-0.251863	-174.290776	-0.251863	-174.290776	-21.422087	-114.998781
3.200000	-20.690965	-63.516957	-0.265145	-177.242146	-0.265145	-177.242146	-20.396721	-113.055888
3.250000	-19.695269	-70.521508	-0.280097	179.800581	-0.280097	179.800581	-19.428166	-111.992491
3.300000	-18.765377	-76.833441	-0.296769	176.838032	-0.296769	176.838032	-18.520853	-111.604767
3.350000	-17.899667	-82.615558	-0.315203	173.870862	-0.315203	173.870862	-17.673874	-111.739228
3.400000	-17.094129	-87.987715	-0.335432	170.899746	-0.335432	170.899746	-16.883928	-112.281198
3.450000	-16.343962	-93.038483	-0.357483	167.925373	-0.357483	167.925373	-16.146818	-113.144730
3.500000	-15.644326	-97.833906	-0.381369	164.948445	-0.381369	164.948445	-15.458197	-114.264847
3.550000	-14.990668	-102.423778	-0.407099	161.969664	-0.407099	161.969664	-14.813905	-115.591873
3.600000	-14.378846	-106.846093	-0.434671	158.989729	-0.434671	158.989729	-14.210113	-117.087365
3.650000	-13.805155	-111.130183	-0.464072	156.009330	-0.464072	156.009330	-13.643365	-118.721202
3.700000	-13.266306	-115.298950	-0.495284	153.029145	-0.495284	153.029145	-13.110566	-120.469505
3.750000	-12.759385	-119.370472	-0.528277	150.049825	-0.528277	150.049825	-12.608960	-122.313124
3.800000	-12.281858	-123.357630	-0.563050	147.072044	-0.563050	147.072044	-12.136141	-124.237985
3.850000	-11.831412	-127.273976	-0.599523	144.096375	-0.599523	144.096375	-11.689897	-126.229489
3.900000	-11.405993	-131.128817	-0.637644	141.123371	-0.637644	141.123371	-11.268260	-128.277290
3.950000	-11.003766	-134.929794	-0.677356	138.153542	-0.677356	138.153542	-10.869463	-130.372777
4.000000	-10.623083	-138.683231	-0.718597	135.187350	-0.718597	135.187350	-10.491915	-132.508739
4.050000	-10.262455	-142.394404	-0.761299	132.225206	-0.761299	132.225206	-10.134176	-134.679112
4.100000	-9.920535	-146.067756	-0.805392	129.267466	-0.805392	129.267466	-9.794937	-136.878776
4.150000	-9.596094	-149.707056	-0.850803	126.314426	-0.850803	126.314426	-9.473003	-139.103403
4.200000	-9.288010	-153.315532	-0.897456	123.366321	-0.897456	123.366321	-9.167279	-141.349328
4.250000	-8.995249	-156.895975	-0.945274	120.423324	-0.945274	120.423324	-8.876758	-143.613456
4.300000	-8.716859	-160.450820	-0.994182	117.485539	-0.994182	117.485539	-8.600505	-145.893186
4.350000	-8.451957	-163.982216	-1.044104	114.553001	-1.044104	114.553001	-8.337655	-148.186343
4.400000	-8.199772	-167.491867	-1.094975	111.625729	-1.094975	111.625729	-8.087455	-150.491246
4.450000	-7.959534	-170.981558	-1.146722	108.703606	-1.146722	108.703606	-7.849145	-152.806405
4.500000	-7.730462	-174.453101	-1.199275	105.786383	-1.199275	105.786383	-7.621958	-155.130574
4.550000	-7.511874	-177.907961	-1.252576	102.873783	-1.252576	102.873783	-7.405220	-157.462917
4.600000	-7.303119	178.652478	-1.306576	99.965445	-1.306576	99.965445	-7.198291	-159.802870
4.650000	-7.103578	175.226887	-1.361235	97.060914	-1.361235	97.060914	-7.000560	-162.150128
4.700000	-6.912656	171.813970	-1.416525	94.159637	-1.416525	94.159637	-6.811441	-164.504642
4.750000	-6.729778	168.412435	-1.472430	91.260949	-1.472430	91.260949	-6.630366	-166.866623
4.800000	-6.554383	165.020972	-1.528955	88.364061	-1.528955	88.364061	-6.456783	-169.236552
4.850000	-6.385918	161.638221	-1.586122	85.468045	-1.586122	85.468045	-6.290147	-171.615199
4.900000	-6.223833	158.262736	-1.643982	82.571808	-1.643982	82.571808	-6.129918	-174.003655
4.950000	-6.067572	154.892950	-1.702614	79.674065	-1.702614	79.674065	-5.975552	-176.403372
5.000000	-5.916569	151.527114	-1.762140	76.773296	-1.762140	76.773296	-5.826491	-178.816232
5.050000	-5.770303	148.163215	-1.822770	73.867385	-1.822770	73.867385	-5.682240	178.754531
5.100000	-5.627992	144.798734	-1.884708	70.954452	-1.884708	70.954452	-5.542026	176.306855
5.150000	-5.488987	141.431032	-1.948263	68.032046	-1.948263	68.032046	-5.405223	173.837098
5.200000	-5.352566	138.056587	-2.013913	65.096720	-2.013913	65.096720	-5.271147	171.339715
5.250000	-5.217783	134.670294	-2.082387	62.143651	-2.082387	62.143651	-5.138909	168.806709
5.300000	-5.083631	131.267025	-2.154415	59.168813	-2.154415	59.168813	-5.007552	166.231636
5.350000	-4.948956	127.839565	-2.231125	56.166189	-2.231125	56.166189	-4.876008	163.603915
5.400000	-4.811980	124.375243	-2.314567	53.125255	-2.314567	53.125255	-4.742672	160.904035
5.450000	-4.670684	120.858464	-2.407335	50.034886	-2.407335	50.034886	-4.605750	158.110059
5.500000	-4.522761	117.268590	-2.513008	46.881799	-2.513008	46.881799	-4.463255	155.193420
5.550000	-4.365063	113.573453	-2.637313	43.646791	-2.637313	43.646791	-4.312574	152.109380
5.600000	-4.191713	109.705350	-2.792446	40.293591	-2.792446	40.293591	-4.149074	148.764092
5.650000	-3.997451	105.575687	-2.995533	36.790367	-2.995533	36.790367	-3.969293	145.041410
5.700000	-3.773630	100.990614	-3.285225	33.089898	-3.285225	33.089898	-3.768885	140.688712
5.750000	-3.515705	95.602192	-3.737412	29.202953	-3.737412	29.202953	-3.552074	135.267969
5.800000	-3.241660	88.620363	-4.540689	25.503283	-4.540689	25.503283	-3.360428	127.806718
5.850000	-3.113967	78.349161	-6.124054	24.940452	-6.124054	24.940452	-3.428838	116.262346
5.900000	-3.997133	63.118418	-7.686411	42.471154	-7.686411	42.471154	-4.905220	98.577606
5.950000	-7.368841	56.404651	-4.423956	55.434157	-4.423956	55.434157	-10.190173	93.821822
6.000000	-9.068586	73.661447	-2.477424	45.363143	-2.477424	45.363143	-11.692220	130.933846
6.050000	-8.086482	82.596965	-2.002969	36.210197	-2.002969	36.210197	-9.132214	141.294516
6.100000	-7.174487	83.236284	-1.920318	29.592749	-1.920318	29.592749	-7.684462	140.323426
6.150000	-6.577729	81.328045	-1.939280	24.430619	-1.939280	24.430619	-6.879332	137.506309
6.200000	-6.174482	78.632055	-1.984197	20.053539	-1.984197	20.053539	-6.375394	134.418322
6.250000	-5.888615	75.650582	-2.034066	16.146221	-2.034066	16.146221	-6.034388	131.350685
6.300000	-5.679153	72.562653	-2.081785	12.543907	-2.081785	12.543907	-5.792529	128.361517
6.350000	-5.513960	69.443602	-2.125992	9.114022	-2.125992	9.114022	-5.605819	125.436165
6.400000	-5.384888	66.317502	-2.165633	5.823362	-2.165633	5.823362	-5.462761	122.570726
6.450000	-5.280026	63.197335	-2.201237	2.621841	-2.201237	2.621841	-5.348251	119.745983
6.500000	-5.194298	60.088997	-2.232915	-0.513081	-2.232915	-0.513081	-5.255851	116.951086
6.550000	-5.124001	56.995122	-2.260893	-3.598221	-2.260893	-3.598221	-5.180970	114.176388
6.600000	-5.065343	53.915482	-2.285724	-6.649638	-2.285724	-6.649638	-5.119096	111.412522
6.650000	-5.017782	50.852299	-2.307213	-9.672756	-2.307213	-9.672756	-5.069446	108.653797
6.700000	-4.978243	47.802817	-2.326096	-12.678749	-2.326096	-12.678749	-5.028513	105.894312
6.750000	-4.947207	44.769661	-2.342001	-15.670198	-2.342001	-15.670198	-4.996707	103.128733
6.800000	-4.922590	41.749985	-2.355542	-18.653630	-2.355542	-18.653630	-4.971712	100.354273
6.850000	-4.904554	38.745188	-2.366546	-21.631853	-2.366546	-21.631853	-4.953627	97.566207
6.900000	-4.892281	35.754209	-2.375256	-24.608162	-2.375256	-24.608162	-4.941538	94.762272
6.950000	-4.885420	32.776851	-2.381759	-27.585170	-2.381759	-27.585170	-4.935034	91.939685
7.000000	-4.884015	29.813756	-2.386004	-30.565281	-2.386004	-30.565281	-4.934123	89.094695
7.050000	-4.887276	26.863235	-2.388304	-33.550038	-2.388304	-33.550038	-4.937967	86.227568
7.100000	-4.895923	23.927570	-2.388358	-36.542349	-2.388358	-36.542349	-4.947276	83.331632
7.150000	-4.908925	21.004125	-2.386609	-39.542439	-2.386609	-39.542439	-4.960993	80.409942
7.200000	-4.927051	18.095251	-2.382763	-42.553494	-2.382763	-42.553494	-4.979888	77.455288
7.250000	-4.949644	15.199169	-2.377127	-45.575548	-2.377127	-45.575548	-5.003298	74.469835
7.300000	-4.977068	12.317009	-2.369599	-48.610958	-2.369599	-48.610958	-5.031598	71.448975
7.350000	-5.009263	9.448626	-2.360258	-51.660831	-2.360258	-51.660831	-5.064740	68.391361
7.400000	-5.046100	6.593644	-2.349215	-54.725910	-2.349215	-54.725910	-5.102613	65.296424
7.450000	-5.088102	3.753613	-2.336345	-57.809105	-2.336345	-57.809105	-5.145780	62.158262
7.500000	-5.134629	0.926576	-2.321959	-60.908947	-2.321959	-60.908947	-5.193613	58.981290
7.550000	-5.186800	-1.884092	-2.305751	-64.030810	-2.305751	-64.030810	-5.247315	55.753988
7.600000	-5.243715	-4.681174	-2.288119	-67.171715	-2.288119	-67.171715	-5.305994	52.483881
7.650000	-5.306262	-7.461928	-2.268874	-70.336261	-2.268874	-70.336261	-5.370643	49.161322
7.700000	-5.374116	-10.227384	-2.248223	-73.523548	-2.248223	-73.523548	-5.440976	45.788857
7.750000	-5.447631	-12.976373	-2.226173	-76.735810	-2.226173	-76.735810	-5.517447	42.362056
7.800000	-5.527083	-15.707934	-2.202767	-79.974860	-2.202767	-79.974860	-5.600440	38.877354
7.850000	-5.612255	-18.422688	-2.178185	-83.239940	-2.178185	-83.239940	-5.689802	35.336648
7.900000	-5.704056	-21.117320	-2.152338	-86.536220	-2.152338	-86.536220	-5.786660	31.728992
7.950000	-5.801765	-23.794193	-2.125523	-89.859915	-2.125523	-89.859915	-5.890300	28.062557
8.000000	-5.906638	-26.448293	-2.097625	-93.218373	-2.097625	-93.218373	-6.002313	24.321489
8.050000	-6.017947	-29.082041	-2.068927	-96.607387	-2.068927	-96.607387	-6.121979	20.514612
8.100000	-6.136548	-31.691399	-2.039436	-100.032209	-2.039436	-100.032209	-6.250491	16.630208
8.150000	-6.262346	-34.276144	-2.009321	-103.492190	-2.009321	-103.492190	-6.387908	12.669126
8.200000	-6.395557	-36.834461	-1.978712	-106.988699	-1.978712	-106.988699	-6.534705	8.627615
8.250000	-6.536717	-39.362672	-1.947717	-110.525299	-1.947717	-110.525299	-6.691809	4.496792
8.300000	-6.685385	-41.862005	-1.916529	-114.098795	-1.916529	-114.098795	-6.858883	0.282609
8.350000	-6.842685	-44.324200	-1.885264	-117.717604	-1.885264	-117.717604	-7.037795	-4.035691
8.400000	-7.007741	-46.753186	-1.854107	-121.374995	-1.854107	-121.374995	-7.227633	-8.444380
8.450000	-7.181562	-49.139240	-1.823243	-125.079768	-1.823243	-125.079768	-7.430321	-12.966560
8.500000	-7.363551	-51.484544	-1.792821	-128.827211	-1.792821	-128.827211	-7.645402	-17.593492
8.550000	-7.554073	-53.782053	-1.763057	-132.622085	-1.763057	-132.622085	-7.874060	-22.340147
8.600000	-7.752985	-56.028876	-1.734129	-136.464691	-1.734129	-136.464691	-8.116736	-27.210960
8.650000	-7.959993	-58.223092	-1.706197	-140.354333	-1.706197	-140.354333	-8.373697	-32.208275
8.700000	-8.175142	-60.355175	-1.679557	-144.296905	-1.679557	-144.296905	-8.646162	-37.353138
8.750000	-8.397701	-62.430579	-1.654207	-148.285689	-1.654207	-148.285689	-8.933567	-42.631792
8.800000	-8.627473	-64.431754	-1.630653	-152.332703	-1.630653	-152.332703	-9.237582	-48.086222
8.850000	-8.863632	-66.369699	-1.608740	-156.427847	-1.608740	-156.427847	-9.557302	-53.692377
8.900000	-9.105400	-68.232858	-1.588872	-160.578942	-1.588872	-160.578942	-9.893484	-59.482497
8.950000	-9.351852	-70.022377	-1.571147	-164.784898	-1.571147	-164.784898	-10.245888	-65.461269
9.000000	-9.601928	-71.738151	-1.555719	-169.046579	-1.555719	-169.046579	-10.614199	-71.640149
9.050000	-9.854477	-73.381604	-1.542728	-173.364981	-1.542728	-173.364981	-10.997827	-78.031209
9.100000	-10.108108	-74.954532	-1.532369	-177.742667	-1.532369	-177.742667	-11.395679	-84.652586
9.150000	-10.361704	-76.464227	-1.524707	177.820192	-1.524707	177.820192	-11.806337	-91.512322
9.200000	-10.614261	-77.919767	-1.519805	173.322858	-1.519805	173.322858	-12.227988	-98.618598
9.250000	-10.864934	-79.332206	-1.517724	168.763945	-1.517724	168.763945	-12.658314	-105.979276
9.300000	-11.113201	-80.715041	-1.518507	164.141871	-1.518507	164.141871	-13.094530	-113.598774
9.350000	-11.358966	-82.083883	-1.522174	159.454812	-1.522174	159.454812	-13.533464	-121.476686
9.400000	-11.602525	-83.456307	-1.528776	154.699446	-1.528776	154.699446	-13.971265	-129.610392
9.450000	-11.844983	-84.851315	-1.538300	149.873160	-1.538300	149.873160	-14.404440	-137.984331
9.500000	-12.088209	-86.287048	-1.550672	144.974183	-1.550672	144.974183	-14.830527	-146.570066
9.550000	-12.334558	-87.780993	-1.565865	139.999103	-1.565865	139.999103	-15.247618	-155.334253
9.600000	-12.586993	-89.349236	-1.583859	134.943963	-1.583859	134.943963	-15.655323	-164.234895
9.650000	-12.849041	-91.005960	-1.604654	129.804202	-1.604654	129.804202	-16.055360	-173.222989
9.700000	-13.124805	-92.764127	-1.628308	124.573774	-1.628308	124.573774	-16.451983	177.755054
9.750000	-13.419046	-94.635792	-1.654959	119.244830	-1.654959	119.244830	-16.852867	168.756344
9.800000	-13.736496	-96.626086	-1.684702	113.812964	-1.684702	113.812964	-17.269883	159.833891
9.850000	-14.082419	-98.741422	-1.717806	108.270685	-1.717806	108.270685	-17.718386	151.035164
9.900000	-14.462525	-100.987634	-1.754673	102.609758	-1.754673	102.609758	-18.218477	142.401719
9.950000	-14.883068	-103.370971	-1.795871	96.821265	-1.795871	96.821265	-18.796308	133.969837
10.000000	-15.351025	-105.899375	-1.842177	90.895711	-1.842177	90.895711	-19.486571	125.773554
