! freq	dB(S11)	phase(S11)	dB(S12)	phase(S12)	
!     	dB(S21)	phase(S21)	dB(S22)	phase(S22)	
!S-par simulation data
#  GHz  S  DB  R 50
0.000000	-0.000000	0.000000	-353.574926	0.000000	-353.574926	0.000000	-0.000000	0.000000
0.050000	-0.001665	-1.170155	-107.778970	86.838746	-107.778970	86.838746	-0.001650	-1.169521
0.100000	-0.003998	-2.324522	-101.865954	86.775548	-101.865954	86.775548	-0.003980	-2.323379
0.150000	-0.005554	-3.472914	-98.430127	86.100810	-98.430127	86.100810	-0.005541	-3.471218
0.200000	-0.006677	-4.620427	-96.033094	85.280969	-96.033094	85.280969	-0.006668	-4.618147
0.250000	-0.007626	-5.767920	-94.224113	84.422568	-94.224113	84.422568	-0.007619	-5.765046
0.300000	-0.008543	-6.915324	-92.803949	83.575613	-92.803949	83.575613	-0.008536	-6.911855
0.350000	-0.009491	-8.062442	-91.654038	82.766217	-91.654038	82.766217	-0.009483	-8.058380
0.400000	-0.010494	-9.209069	-90.714632	82.017196	-90.714632	82.017196	-0.010485	-9.204418
0.450000	-0.011565	-10.355033	-89.945323	81.349914	-89.945323	81.349914	-0.011553	-10.349798
0.500000	-0.012712	-11.500109	-89.327551	80.799513	-89.327551	80.799513	-0.012697	-11.494294
0.550000	-0.013928	-12.644218	-88.837362	80.389526	-88.837362	80.389526	-0.013911	-12.637828
0.600000	-0.015207	-13.787285	-88.460266	80.151090	-88.460266	80.151090	-0.015187	-13.780322
0.650000	-0.016544	-14.929225	-88.187887	80.126212	-88.187887	80.126212	-0.016521	-14.921693
0.700000	-0.017932	-16.069964	-88.014633	80.368080	-88.014633	80.368080	-0.017906	-16.061868
0.750000	-0.019365	-17.209439	-87.936793	80.944986	-87.936793	80.944986	-0.019337	-17.200781
0.800000	-0.020838	-18.347562	-87.953820	81.959008	-87.953820	81.959008	-0.020808	-18.338344
0.850000	-0.022346	-19.484184	-88.067901	83.582240	-88.067901	83.582240	-0.022314	-19.474410
0.900000	-0.023880	-20.619386	-88.264036	85.936723	-88.264036	85.936723	-0.023846	-20.609058
0.950000	-0.025434	-21.753132	-88.529226	89.229898	-88.529226	89.229898	-0.025398	-21.742251
1.000000	-0.027004	-22.885389	-88.837971	93.711910	-88.837971	93.711910	-0.026967	-22.873956
1.050000	-0.028585	-24.016126	-89.143501	99.647776	-89.143501	99.647776	-0.028547	-24.004143
1.100000	-0.030173	-25.145317	-89.368541	107.235049	-89.368541	107.235049	-0.030134	-25.132785
1.150000	-0.031765	-26.272820	-89.381910	116.528735	-89.381910	116.528735	-0.031725	-26.259740
1.200000	-0.033357	-27.398658	-89.063773	126.888755	-89.063773	126.888755	-0.033317	-27.385030
1.250000	-0.034946	-28.522878	-88.374122	137.288371	-88.374122	137.288371	-0.034905	-28.508702
1.300000	-0.036530	-29.645459	-87.356644	146.763271	-87.356644	146.763271	-0.036489	-29.630736
1.350000	-0.038107	-30.766384	-86.117245	154.715294	-86.117245	154.715294	-0.038067	-30.751113
1.400000	-0.039677	-31.885634	-84.767414	160.993678	-84.767414	160.993678	-0.039637	-31.869815
1.450000	-0.041237	-33.003180	-83.389089	165.734738	-83.389089	165.734738	-0.041197	-32.986815
1.500000	-0.042786	-34.118827	-82.016947	169.094838	-82.016947	169.094838	-0.042747	-34.101914
1.550000	-0.044324	-35.232744	-80.699529	171.490728	-80.699529	171.490728	-0.044286	-35.215284
1.600000	-0.045852	-36.344914	-79.445351	173.131459	-79.445351	173.131459	-0.045814	-36.326907
1.650000	-0.047369	-37.455323	-78.255646	174.181055	-78.255646	174.181055	-0.047331	-37.436768
1.700000	-0.048874	-38.563847	-77.123342	174.743879	-77.123342	174.743879	-0.048837	-38.544745
1.750000	-0.050369	-39.670600	-76.051338	174.949968	-76.051338	174.949968	-0.050332	-39.650951
1.800000	-0.051854	-40.775512	-75.032746	174.859551	-75.032746	174.859551	-0.051817	-40.755317
1.850000	-0.053329	-41.878569	-74.063319	174.529706	-74.063319	174.529706	-0.053292	-41.857827
1.900000	-0.054795	-42.979753	-73.139010	174.004427	-73.139010	174.004427	-0.054759	-42.958466
1.950000	-0.056252	-44.079051	-72.256085	173.317990	-72.256085	173.317990	-0.056216	-44.057218
2.000000	-0.057703	-45.176447	-71.411155	172.497388	-71.411155	172.497388	-0.057667	-45.154069
2.050000	-0.059146	-46.271927	-70.601177	171.564112	-70.601177	171.564112	-0.059110	-46.249004
2.100000	-0.060584	-47.365476	-69.823425	170.535444	-69.823425	170.535444	-0.060548	-47.342010
2.150000	-0.062018	-48.457082	-69.075464	169.425422	-69.075464	169.425422	-0.061981	-48.433073
2.200000	-0.063447	-49.546732	-68.355116	168.245550	-68.355116	168.245550	-0.063410	-49.522180
2.250000	-0.064874	-50.634414	-67.660430	167.005342	-67.660430	167.005342	-0.064836	-50.609321
2.300000	-0.066300	-51.720116	-66.989656	165.712725	-66.989656	165.712725	-0.066260	-51.694482
2.350000	-0.067724	-52.803829	-66.341220	164.374359	-66.341220	164.374359	-0.067684	-52.777655
2.400000	-0.069149	-53.885541	-65.713702	162.995874	-65.713702	162.995874	-0.069108	-53.858829
2.450000	-0.070576	-54.965246	-65.105815	161.582064	-65.105815	161.582064	-0.070533	-54.937996
2.500000	-0.072005	-56.042934	-64.516394	160.137037	-64.516394	160.137037	-0.071961	-56.015147
2.550000	-0.073437	-57.118510	-63.943503	158.663272	-63.943503	158.663272	-0.073392	-57.090189
2.600000	-0.074875	-58.192057	-63.387149	157.165132	-63.387149	157.165132	-0.074828	-58.163202
2.650000	-0.076317	-59.263570	-62.846436	155.645240	-62.846436	155.645240	-0.076269	-59.234181
2.700000	-0.077767	-60.333045	-62.320541	154.105895	-62.320541	154.105895	-0.077717	-60.303124
2.750000	-0.079224	-61.400480	-61.808707	152.549121	-61.808707	152.549121	-0.079172	-61.370028
2.800000	-0.080689	-62.465873	-61.310238	150.976704	-61.310238	150.976704	-0.080635	-62.434891
2.850000	-0.082164	-63.529223	-60.824490	149.390230	-60.824490	149.390230	-0.082108	-63.497712
2.900000	-0.083649	-64.590533	-60.350868	147.791109	-60.350868	147.791109	-0.083591	-64.558494
2.950000	-0.085145	-65.649803	-59.888817	146.180603	-59.888817	146.180603	-0.085085	-65.617237
3.000000	-0.086654	-66.707037	-59.437825	144.559840	-59.437825	144.559840	-0.086592	-66.673945
3.050000	-0.088175	-67.762239	-58.997412	142.929833	-58.997412	142.929833	-0.088111	-67.728622
3.100000	-0.089711	-68.815416	-58.567131	141.291494	-58.567131	141.291494	-0.089644	-68.781275
3.150000	-0.091261	-69.866574	-58.146563	139.645649	-58.146563	139.645649	-0.091192	-69.831909
3.200000	-0.092826	-70.915721	-57.735316	137.993043	-57.735316	137.993043	-0.092755	-70.880533
3.250000	-0.094408	-71.962866	-57.333023	136.334352	-57.333023	136.334352	-0.094334	-71.927157
3.300000	-0.096007	-73.008021	-56.939338	134.670189	-56.939338	134.670189	-0.095931	-72.971790
3.350000	-0.097624	-74.051197	-56.553935	133.001113	-56.553935	133.001113	-0.097545	-74.014445
3.400000	-0.099259	-75.092408	-56.176506	131.327633	-56.176506	131.327633	-0.099178	-75.055135
3.450000	-0.100913	-76.131667	-55.806764	129.650213	-55.806764	129.650213	-0.100831	-76.093873
3.500000	-0.102588	-77.168991	-55.444432	127.969276	-55.444432	127.969276	-0.102503	-77.130677
3.550000	-0.104284	-78.204396	-55.089253	126.285210	-55.089253	126.285210	-0.104196	-78.165562
3.600000	-0.106001	-79.237901	-54.740979	124.598369	-54.740979	124.598369	-0.105911	-79.198546
3.650000	-0.107740	-80.269525	-54.399379	122.909076	-54.399379	122.909076	-0.107648	-80.229649
3.700000	-0.109502	-81.299288	-54.064231	121.217628	-54.064231	121.217628	-0.109408	-81.258891
3.750000	-0.111287	-82.327213	-53.735323	119.524296	-53.735323	119.524296	-0.111192	-82.286294
3.800000	-0.113098	-83.353246	-53.412198	117.829267	-53.412198	117.829267	-0.113001	-83.311804
3.850000	-0.114933	-84.377489	-53.094944	116.132847	-53.094944	116.132847	-0.114835	-84.335524
3.900000	-0.116794	-85.399970	-52.783377	114.435240	-52.783377	114.435240	-0.116694	-85.357479
3.950000	-0.118681	-86.420715	-52.477321	112.736633	-52.477321	112.736633	-0.118579	-86.377698
4.000000	-0.120594	-87.439752	-52.176611	111.037195	-52.176611	111.037195	-0.120492	-87.396207
4.050000	-0.122535	-88.457110	-51.881086	109.337081	-51.881086	109.337081	-0.122431	-88.413035
4.100000	-0.124503	-89.472820	-51.590594	107.636432	-51.590594	107.636432	-0.124399	-89.428213
4.150000	-0.126500	-90.486914	-51.304989	105.935373	-51.304989	105.935373	-0.126395	-90.441771
4.200000	-0.128525	-91.499423	-51.024131	104.234020	-51.024131	104.234020	-0.128419	-91.453743
4.250000	-0.130580	-92.510381	-50.747886	102.532474	-50.747886	102.532474	-0.130474	-92.464160
4.300000	-0.132664	-93.519824	-50.476127	100.830827	-50.476127	100.830827	-0.132558	-93.473057
4.350000	-0.134779	-94.527787	-50.208731	99.129161	-50.208731	99.129161	-0.134673	-94.480470
4.400000	-0.136924	-95.534305	-49.945580	97.427547	-49.945580	97.427547	-0.136818	-95.486434
4.450000	-0.139101	-96.539418	-49.686561	95.726048	-49.686561	95.726048	-0.138995	-96.490986
4.500000	-0.141308	-97.543163	-49.431566	94.024716	-49.431566	94.024716	-0.141203	-97.494163
4.550000	-0.143548	-98.545579	-49.180492	92.323599	-49.180492	92.323599	-0.143443	-98.496004
4.600000	-0.145818	-99.546705	-48.933238	90.622733	-48.933238	90.622733	-0.145714	-99.496547
4.650000	-0.148121	-100.546583	-48.689709	88.922150	-48.689709	88.922150	-0.148017	-100.495831
4.700000	-0.150456	-101.545254	-48.449813	87.221873	-48.449813	87.221873	-0.150352	-101.493895
4.750000	-0.152822	-102.542757	-48.213461	85.521919	-48.213461	85.521919	-0.152717	-102.490779
4.800000	-0.155219	-103.539135	-47.980570	83.822298	-47.980570	83.822298	-0.155112	-103.486522
4.850000	-0.157646	-104.534429	-47.751057	82.123016	-47.751057	82.123016	-0.157536	-104.481164
4.900000	-0.160102	-105.528681	-47.524845	80.424071	-47.524845	80.424071	-0.159987	-105.474743
4.950000	-0.162585	-106.521932	-47.301859	78.725457	-47.301859	78.725457	-0.162462	-106.467300
5.000000	-0.165093	-107.514224	-47.082027	77.027161	-47.082027	77.027161	-0.164956	-107.458875
5.050000	-0.167623	-108.505563	-46.865179	75.329178	-46.865179	75.329178	-0.167464	-108.449473
5.100000	-0.170168	-109.496034	-46.651357	73.631471	-46.651357	73.631471	-0.169977	-109.439190
5.150000	-0.172720	-110.485688	-46.440497	71.934011	-46.440497	71.934011	-0.172482	-110.428093
5.200000	-0.175269	-111.474586	-46.232539	70.236765	-46.232539	70.236765	-0.174966	-111.416277
5.250000	-0.177802	-112.462810	-46.027423	68.539696	-46.027423	68.539696	-0.177409	-112.403890
5.300000	-0.180301	-113.450481	-45.825094	66.842759	-45.825094	66.842759	-0.179792	-113.391160
5.350000	-0.182744	-114.437785	-45.625499	65.145906	-45.625499	65.145906	-0.182105	-114.378429
5.400000	-0.185114	-115.425014	-45.428586	63.449085	-45.428586	63.449085	-0.184356	-115.366150
5.450000	-0.187402	-116.412593	-45.234306	61.752235	-45.234306	61.752235	-0.186593	-116.354802
5.500000	-0.189632	-117.401060	-45.042614	60.055294	-45.042614	60.055294	-0.188907	-117.344684
5.550000	-0.191877	-118.390927	-44.853465	58.358191	-44.853465	58.358191	-0.191407	-118.335702
5.600000	-0.194258	-119.382404	-44.666817	56.660848	-44.666817	56.660848	-0.194172	-119.327347
5.650000	-0.196901	-120.375175	-44.482632	54.963183	-44.482632	54.963183	-0.197216	-120.318940
5.700000	-0.199876	-121.368467	-44.300871	53.265105	-44.300871	53.265105	-0.200492	-121.309957
5.750000	-0.203165	-122.361445	-44.121501	51.566515	-44.121501	51.566515	-0.203928	-122.300193
5.800000	-0.206686	-123.353594	-43.944488	49.867306	-43.944488	49.867306	-0.207458	-123.289715
5.850000	-0.210345	-124.344826	-43.769803	48.167358	-43.769803	48.167358	-0.211038	-124.278732
5.900000	-0.214069	-125.335341	-43.597418	46.466544	-43.597418	46.466544	-0.214645	-125.267492
5.950000	-0.217818	-126.325447	-43.427310	44.764722	-43.427310	44.764722	-0.218268	-126.256226
6.000000	-0.221572	-127.315451	-43.259455	43.061735	-43.259455	43.061735	-0.221905	-127.245135
6.050000	-0.225328	-128.305615	-43.093837	41.357410	-43.093837	41.357410	-0.225558	-128.234387
6.100000	-0.229087	-129.296151	-42.930439	39.651557	-42.930439	39.651557	-0.229230	-129.224125
6.150000	-0.232855	-130.287232	-42.769252	37.943962	-42.769252	37.943962	-0.232926	-130.214476
6.200000	-0.236637	-131.279005	-42.610270	36.234389	-42.610270	36.234389	-0.236647	-131.205552
6.250000	-0.240439	-132.271593	-42.453491	34.522570	-42.453491	34.522570	-0.240399	-132.197459
6.300000	-0.244267	-133.265156	-42.298903	32.808081	-42.298903	32.808081	-0.244186	-133.190342
6.350000	-0.248123	-134.259763	-42.146549	31.090679	-42.146549	31.090679	-0.248008	-134.184262
6.400000	-0.252012	-135.255513	-41.996454	29.369979	-41.996454	29.369979	-0.251868	-135.179314
6.450000	-0.255937	-136.252504	-41.848658	27.645548	-41.848658	27.645548	-0.255768	-136.175593
6.500000	-0.259899	-137.250833	-41.703216	25.916900	-41.703216	25.916900	-0.259709	-137.173193
6.550000	-0.263901	-138.250595	-41.560202	24.183492	-41.560202	24.183492	-0.263692	-138.172210
6.600000	-0.267944	-139.251888	-41.419720	22.444722	-41.419720	22.444722	-0.267720	-139.172739
6.650000	-0.272030	-140.254808	-41.281905	20.699932	-41.281905	20.699932	-0.271793	-140.174877
6.700000	-0.276160	-141.259454	-41.146939	18.948425	-41.146939	18.948425	-0.275911	-141.178722
6.750000	-0.280336	-142.265925	-41.015060	17.189492	-41.015060	17.189492	-0.280076	-142.184374
6.800000	-0.284558	-143.274321	-40.886585	15.422471	-40.886585	15.422471	-0.284289	-143.191932
6.850000	-0.288828	-144.284745	-40.761926	13.646856	-40.761926	13.646856	-0.288550	-144.201500
6.900000	-0.293145	-145.297300	-40.641618	11.862479	-40.641618	11.862479	-0.292860	-145.213180
6.950000	-0.297511	-146.312091	-40.526351	10.069825	-40.526351	10.069825	-0.297219	-146.227077
7.000000	-0.301927	-147.329225	-40.416989	8.270529	-40.416989	8.270529	-0.301628	-147.243298
7.050000	-0.306392	-148.348810	-40.314579	6.468147	-40.314579	6.468147	-0.306087	-148.261951
7.100000	-0.310908	-149.370956	-40.220304	4.669259	-40.220304	4.669259	-0.310597	-149.283146
7.150000	-0.315474	-150.395773	-40.135339	2.884871	-40.135339	2.884871	-0.315158	-150.306995
7.200000	-0.320092	-151.423377	-40.060528	1.131806	-40.060528	1.131806	-0.319771	-151.333609
7.250000	-0.324761	-152.453880	-39.995817	-0.566809	-39.995817	-0.566809	-0.324436	-152.363105
7.300000	-0.329483	-153.487401	-39.939473	-2.183541	-39.939473	-2.183541	-0.329153	-153.395598
7.350000	-0.334257	-154.524057	-39.887372	-3.693043	-39.887372	-3.693043	-0.333922	-154.431206
7.400000	-0.339083	-155.563968	-39.832979	-5.083020	-39.832979	-5.083020	-0.338744	-155.470050
7.450000	-0.343962	-156.607257	-39.768727	-6.365414	-39.768727	-6.365414	-0.343619	-156.512251
7.500000	-0.348895	-157.654046	-39.688662	-7.578898	-39.688662	-7.578898	-0.348548	-157.557933
7.550000	-0.353883	-158.704626	-39.590101	-8.778532	-39.590101	-8.778532	-0.353531	-158.607383
7.600000	-0.358925	-159.758971	-39.476514	-10.013854	-39.476514	-10.013854	-0.358569	-159.660577
7.650000	-0.364021	-160.817211	-39.352854	-11.312004	-39.352854	-11.312004	-0.363661	-160.717645
7.700000	-0.369171	-161.879477	-39.224202	-12.680999	-39.224202	-12.680999	-0.368806	-161.778718
7.750000	-0.374374	-162.945903	-39.094602	-14.116133	-39.094602	-14.116133	-0.374005	-162.843927
7.800000	-0.379633	-164.016622	-38.966769	-15.606721	-38.966769	-15.606721	-0.379259	-163.913409
7.850000	-0.384945	-165.091772	-38.842283	-17.140731	-38.842283	-17.140731	-0.384567	-164.987298
7.900000	-0.390312	-166.171491	-38.721917	-18.707164	-38.721917	-18.707164	-0.389929	-166.065734
7.950000	-0.395733	-167.255920	-38.605939	-20.296930	-38.605939	-20.296930	-0.395345	-167.148856
8.000000	-0.401209	-168.345201	-38.494328	-21.902914	-38.494328	-21.902914	-0.400816	-168.236807
8.050000	-0.406739	-169.439479	-38.386914	-23.519717	-38.386914	-23.519717	-0.406342	-169.329730
8.100000	-0.412324	-170.538899	-38.283466	-25.143309	-38.283466	-25.143309	-0.411921	-170.427771
8.150000	-0.417963	-171.643609	-38.183736	-26.770698	-38.183736	-26.770698	-0.417555	-171.531078
8.200000	-0.423657	-172.753760	-38.087484	-28.399672	-38.087484	-28.399672	-0.423244	-172.639800
8.250000	-0.429405	-173.869502	-37.994489	-30.028581	-37.994489	-30.028581	-0.428986	-173.754088
8.300000	-0.435207	-174.990989	-37.904554	-31.656193	-37.904554	-31.656193	-0.434782	-174.874096
8.350000	-0.441063	-176.118377	-37.817505	-33.281573	-37.817505	-33.281573	-0.440633	-175.999977
8.400000	-0.446974	-177.251822	-37.733189	-34.904005	-37.733189	-34.904005	-0.446536	-177.131890
8.450000	-0.452937	-178.391483	-37.651473	-36.522929	-37.651473	-36.522929	-0.452494	-178.269991
8.500000	-0.458955	-179.537520	-37.572242	-38.137904	-37.572242	-38.137904	-0.458505	-179.414442
8.550000	-0.465025	179.309904	-37.495394	-39.748570	-37.495394	-39.748570	-0.464568	179.434597
8.600000	-0.471148	178.150626	-37.420839	-41.354630	-37.420839	-41.354630	-0.470684	178.276961
8.650000	-0.477324	176.984481	-37.348499	-42.955831	-37.348499	-42.955831	-0.476853	177.112486
8.700000	-0.483552	175.811301	-37.278304	-44.551956	-37.278304	-44.551956	-0.483073	175.941005
8.750000	-0.489832	174.630919	-37.210190	-46.142811	-37.210190	-46.142811	-0.489346	174.762350
8.800000	-0.496165	173.442835	-37.144165	-47.727977	-37.144165	-47.727977	-0.495671	173.576025
8.850000	-0.502549	172.247193	-37.080112	-49.307525	-37.080112	-49.307525	-0.502046	172.382171
8.900000	-0.508983	171.043819	-37.017981	-50.881305	-37.017981	-50.881305	-0.508472	171.180615
8.950000	-0.515467	169.832540	-36.957731	-52.449177	-36.957731	-52.449177	-0.514947	169.971184
9.000000	-0.521999	168.613182	-36.899319	-54.011006	-36.899319	-54.011006	-0.521471	168.753703
9.050000	-0.528580	167.385568	-36.842707	-55.566664	-36.842707	-55.566664	-0.528043	167.527999
9.100000	-0.535209	166.149524	-36.787858	-57.116026	-36.787858	-57.116026	-0.534662	166.293894
9.150000	-0.541884	164.904871	-36.734737	-58.658971	-36.734737	-58.658971	-0.541328	165.051211
9.200000	-0.548606	163.651432	-36.683311	-60.195382	-36.683311	-60.195382	-0.548039	163.799774
9.250000	-0.555372	162.389030	-36.633547	-61.725144	-36.633547	-61.725144	-0.554796	162.539405
9.300000	-0.562183	161.117486	-36.585413	-63.248147	-36.585413	-63.248147	-0.561596	161.269925
9.350000	-0.569037	159.836623	-36.538880	-64.764284	-36.538880	-64.764284	-0.568439	159.991158
9.400000	-0.575933	158.546262	-36.493916	-66.273448	-36.493916	-66.273448	-0.575325	158.702924
9.450000	-0.582870	157.246226	-36.450493	-67.775540	-36.450493	-67.775540	-0.582250	157.405047
9.500000	-0.589846	155.936339	-36.408582	-69.270460	-36.408582	-69.270460	-0.589216	156.097349
9.550000	-0.596862	154.616424	-36.368153	-70.758114	-36.368153	-70.758114	-0.596219	154.779655
9.600000	-0.603914	153.286305	-36.329179	-72.238409	-36.329179	-72.238409	-0.603260	153.451790
9.650000	-0.611002	151.945811	-36.291632	-73.711258	-36.291632	-73.711258	-0.610336	152.113578
9.700000	-0.618124	150.594768	-36.255484	-75.176576	-36.255484	-75.176576	-0.617446	150.764850
9.750000	-0.625279	149.233006	-36.220707	-76.634282	-36.220707	-76.634282	-0.624588	149.405433
9.800000	-0.632465	147.860358	-36.187275	-78.084299	-36.187275	-78.084299	-0.631761	148.035160
9.850000	-0.639680	146.476658	-36.155159	-79.526554	-36.155159	-79.526554	-0.638964	146.653865
9.900000	-0.646923	145.081745	-36.124334	-80.960976	-36.124334	-80.960976	-0.646194	145.261386
9.950000	-0.654192	143.675458	-36.094772	-82.387501	-36.094772	-82.387501	-0.653449	143.857562
10.000000	-0.661484	142.257644	-36.066447	-83.806067	-36.066447	-83.806067	-0.660728	142.442239
