! freq	dB(S11)	phase(S11)	dB(S12)	phase(S12)	
!     	dB(S21)	phase(S21)	dB(S22)	phase(S22)	
!S-par simulation data
#  GHz  S  DB  R 50
0.000000	-0.000000	0.000000	-350.343965	180.000000	-350.343965	180.000000	-0.000000	0.000000
0.050000	-0.001135	-3.534255	-99.436382	84.443767	-99.436382	84.443767	-0.000602	-0.768826
0.100000	-0.004294	-7.061676	-93.500783	84.134334	-93.500783	84.134334	-0.001923	-1.532580
0.150000	-0.008921	-10.577036	-90.053693	82.681936	-90.053693	82.681936	-0.003280	-2.291397
0.200000	-0.014342	-14.077858	-87.649795	80.962611	-87.649795	80.962611	-0.004430	-3.047566
0.250000	-0.020057	-17.562785	-85.831821	79.151908	-85.831821	79.151908	-0.005387	-3.802533
0.300000	-0.025727	-21.031221	-84.395498	77.317784	-84.395498	77.317784	-0.006222	-4.556975
0.350000	-0.031173	-24.482562	-83.232192	75.495130	-83.232192	75.495130	-0.006997	-5.311120
0.400000	-0.036323	-27.915930	-82.277552	73.707466	-82.277552	73.707466	-0.007756	-6.065011
0.450000	-0.041165	-31.330147	-81.490630	71.974413	-81.490630	71.974413	-0.008526	-6.818617
0.500000	-0.045718	-34.723814	-80.844066	70.314986	-80.844066	70.314986	-0.009328	-7.571894
0.550000	-0.050013	-38.095416	-80.318984	68.749464	-80.318984	68.749464	-0.010175	-8.324805
0.600000	-0.054084	-41.443413	-79.902109	67.300791	-79.902109	67.300791	-0.011077	-9.077337
0.650000	-0.057959	-44.766015	-79.584949	65.997843	-79.584949	65.997843	-0.012042	-9.829511
0.700000	-0.061667	-48.061762	-79.360878	64.874464	-79.360878	64.874464	-0.013067	-10.581386
0.750000	-0.065231	-51.329637	-79.224328	63.969649	-79.224328	63.969649	-0.014143	-11.333048
0.800000	-0.068671	-54.568480	-79.172020	63.334089	-79.172020	63.334089	-0.015246	-12.084552
0.850000	-0.072000	-57.777273	-79.201470	63.031911	-79.201470	63.031911	-0.016344	-12.835875
0.900000	-0.075229	-60.955142	-79.310280	63.144916	-79.310280	63.144916	-0.017408	-13.586881
0.950000	-0.078366	-64.101354	-79.495101	63.777789	-79.495101	63.777789	-0.018421	-14.337359
1.000000	-0.081419	-67.215322	-79.749975	65.063734	-79.749975	65.063734	-0.019385	-15.087096
1.050000	-0.084391	-70.296591	-80.063627	67.168649	-80.063627	67.168649	-0.020313	-15.835942
1.100000	-0.087287	-73.344842	-80.415203	70.288758	-80.415203	70.288758	-0.021219	-16.583823
1.150000	-0.090110	-76.359878	-80.768273	74.630745	-80.768273	74.630745	-0.022119	-17.330723
1.200000	-0.092861	-79.341623	-81.064507	80.356116	-81.064507	80.356116	-0.023020	-18.076657
1.250000	-0.095542	-82.290114	-81.222356	87.473548	-81.222356	87.473548	-0.023929	-18.821647
1.300000	-0.098154	-85.204778	-81.143950	95.711133	-81.143950	95.711133	-0.024847	-19.565698
1.350000	-0.100700	-88.086583	-80.767873	104.392583	-80.767873	104.392583	-0.025774	-20.308847
1.400000	-0.103181	-90.935868	-80.091087	112.713713	-80.091087	112.713713	-0.026710	-21.051106
1.450000	-0.105600	-93.753051	-79.172732	120.020627	-79.172732	120.020627	-0.027653	-21.792480
1.500000	-0.107958	-96.538633	-78.100498	125.991820	-78.100498	125.991820	-0.028603	-22.532971
1.550000	-0.110258	-99.293180	-76.955304	130.605996	-76.955304	130.605996	-0.029557	-23.272578
1.600000	-0.112502	-102.017327	-75.795339	134.010803	-75.795339	134.010803	-0.030515	-24.011297
1.650000	-0.114693	-104.711767	-74.656184	136.409511	-74.656184	136.409511	-0.031477	-24.749120
1.700000	-0.116835	-107.377246	-73.556904	137.999201	-73.556904	137.999201	-0.032440	-25.486042
1.750000	-0.118929	-110.014560	-72.506164	138.947471	-72.506164	138.947471	-0.033404	-26.222053
1.800000	-0.120981	-112.624548	-71.506616	139.388709	-71.506616	139.388709	-0.034370	-26.957143
1.850000	-0.122993	-115.208091	-70.557662	139.427894	-70.557662	139.427894	-0.035336	-27.691304
1.900000	-0.124966	-117.762636	-69.650971	139.110253	-69.650971	139.110253	-0.036303	-28.424389
1.950000	-0.126912	-120.295957	-68.796132	138.575424	-68.796132	138.575424	-0.037270	-29.156644
2.000000	-0.128832	-122.805704	-67.983453	137.830598	-67.983453	137.830598	-0.038238	-29.887937
2.050000	-0.130729	-125.292883	-67.209792	136.913990	-67.209792	136.913990	-0.039205	-30.618254
2.100000	-0.132609	-127.758525	-66.472163	135.855689	-66.472163	135.855689	-0.040174	-31.347585
2.150000	-0.134476	-130.203686	-65.767807	134.679572	-65.767807	134.679572	-0.041142	-32.075917
2.200000	-0.136334	-132.629444	-65.094199	133.404724	-65.094199	133.404724	-0.042112	-32.803239
2.250000	-0.138190	-135.036894	-64.449053	132.046520	-64.449053	132.046520	-0.043083	-33.529538
2.300000	-0.140047	-137.427156	-63.830304	130.617428	-63.830304	130.617428	-0.044055	-34.254802
2.350000	-0.141912	-139.801366	-63.236095	129.127629	-63.236095	129.127629	-0.045028	-34.979020
2.400000	-0.143788	-142.160680	-62.664753	127.585482	-62.664753	127.585482	-0.046004	-35.702177
2.450000	-0.145682	-144.506276	-62.114772	125.997889	-62.114772	125.997889	-0.046982	-36.424264
2.500000	-0.147599	-146.839348	-61.584796	124.370580	-61.584796	124.370580	-0.047963	-37.145267
2.550000	-0.149546	-149.160684	-61.073112	122.706998	-61.073112	122.706998	-0.048948	-37.865127
2.600000	-0.151527	-151.472070	-60.579193	121.012770	-60.579193	121.012770	-0.049935	-38.583879
2.650000	-0.153549	-153.774775	-60.102034	119.291179	-60.102034	119.291179	-0.050927	-39.301510
2.700000	-0.155616	-156.070094	-59.640724	117.544995	-59.640724	117.544995	-0.051923	-40.018009
2.750000	-0.157736	-158.359351	-59.194442	115.776562	-59.194442	115.776562	-0.052924	-40.733366
2.800000	-0.159914	-160.643900	-58.762441	113.987862	-58.762441	113.987862	-0.053930	-41.447568
2.850000	-0.162157	-162.925131	-58.344046	112.180576	-58.344046	112.180576	-0.054942	-42.160604
2.900000	-0.164471	-165.204474	-57.938644	110.356128	-57.938644	110.356128	-0.055959	-42.872464
2.950000	-0.166865	-167.483399	-57.545680	108.515722	-57.545680	108.515722	-0.056983	-43.583137
3.000000	-0.169344	-169.763425	-57.164648	106.660375	-57.164648	106.660375	-0.058014	-44.292612
3.050000	-0.171918	-172.046121	-56.795091	104.790941	-56.795091	104.790941	-0.059052	-45.000879
3.100000	-0.174593	-174.333117	-56.436596	102.908129	-56.436596	102.908129	-0.060098	-45.707928
3.150000	-0.177380	-176.626105	-56.088788	101.012526	-56.088788	101.012526	-0.061152	-46.413750
3.200000	-0.180287	-178.926848	-55.751328	99.104609	-55.751328	99.104609	-0.062214	-47.118335
3.250000	-0.183324	178.762812	-55.423915	97.184753	-55.423915	97.184753	-0.063285	-47.821673
3.300000	-0.186503	176.440943	-55.106278	95.253244	-55.106278	95.253244	-0.064366	-48.523756
3.350000	-0.189832	174.105837	-54.798200	93.310504	-54.798200	93.310504	-0.065455	-49.224600
3.400000	-0.193333	171.754504	-54.499401	91.356049	-54.499401	91.356049	-0.066555	-49.924128
3.450000	-0.197014	169.385230	-54.209762	89.390372	-54.209762	89.390372	-0.067666	-50.622379
3.500000	-0.200889	166.995648	-53.929126	87.413456	-53.929126	87.413456	-0.068787	-51.319348
3.550000	-0.204977	164.583243	-53.657363	85.425220	-53.657363	85.425220	-0.069919	-52.015025
3.600000	-0.209295	162.145337	-53.394372	83.425522	-53.394372	83.425522	-0.071063	-52.709405
3.650000	-0.213864	159.679076	-53.140079	81.414157	-53.140079	81.414157	-0.072218	-53.402480
3.700000	-0.218706	157.181401	-52.894443	79.390857	-52.894443	79.390857	-0.073386	-54.094243
3.750000	-0.223846	154.649033	-52.657451	77.355295	-52.657451	77.355295	-0.074566	-54.784690
3.800000	-0.229331	152.076302	-52.429273	75.306413	-52.429273	75.306413	-0.075760	-55.473744
3.850000	-0.235177	149.461152	-52.209868	73.244388	-52.209868	73.244388	-0.076967	-56.161470
3.900000	-0.241418	146.799425	-51.999335	71.168708	-51.999335	71.168708	-0.078188	-56.847861
3.950000	-0.248096	144.086611	-51.797816	69.078805	-51.797816	69.078805	-0.079423	-57.532913
4.000000	-0.255255	141.317809	-51.605503	66.974057	-51.605503	66.974057	-0.080673	-58.216620
4.050000	-0.262944	138.487679	-51.422639	64.853795	-51.422639	64.853795	-0.081937	-58.898980
4.100000	-0.271238	135.588493	-51.249707	62.716873	-51.249707	62.716873	-0.083217	-59.579952
4.150000	-0.280193	132.614747	-51.087010	60.562806	-51.087010	60.562806	-0.084513	-60.259557
4.200000	-0.289877	129.559968	-50.934958	58.390990	-50.934958	58.390990	-0.085824	-60.937802
4.250000	-0.300373	126.416407	-50.794106	56.200699	-50.794106	56.200699	-0.087152	-61.614685
4.300000	-0.311776	123.175537	-50.665120	53.991262	-50.665120	53.991262	-0.088496	-62.290203
4.350000	-0.324190	119.827960	-50.548792	51.762114	-50.548792	51.762114	-0.089857	-62.964354
4.400000	-0.337757	116.361092	-50.446298	49.512517	-50.446298	49.512517	-0.091236	-63.637111
4.450000	-0.352621	112.762867	-50.358834	47.242369	-50.358834	47.242369	-0.092633	-64.308474
4.500000	-0.368917	109.022541	-50.287532	44.952359	-50.287532	44.952359	-0.094048	-64.978464
4.550000	-0.386817	105.125993	-50.233986	42.643452	-50.233986	42.643452	-0.095481	-65.647080
4.600000	-0.406518	101.057628	-50.200086	40.317504	-50.200086	40.317504	-0.096933	-66.314321
4.650000	-0.428235	96.800238	-50.188077	37.977637	-50.188077	37.977637	-0.098404	-66.980186
4.700000	-0.452227	92.332914	-50.200859	35.628741	-50.200859	35.628741	-0.099895	-67.644664
4.750000	-0.478807	87.630026	-50.242210	33.278644	-50.242210	33.278644	-0.101406	-68.307731
4.800000	-0.508194	82.674160	-50.315276	30.938939	-50.315276	30.938939	-0.102938	-68.969423
4.850000	-0.540592	77.448465	-50.423506	28.624898	-50.423506	28.624898	-0.104490	-69.629776
4.900000	-0.576479	71.908605	-50.574456	26.362858	-50.574456	26.362858	-0.106063	-70.288708
4.950000	-0.616018	66.036248	-50.773013	24.186366	-50.773013	24.186366	-0.107657	-70.946267
5.000000	-0.659427	59.802512	-51.026147	22.144816	-51.026147	22.144816	-0.109274	-71.602455
5.050000	-0.706901	53.171235	-51.342502	20.313987	-51.342502	20.313987	-0.110912	-72.257250
5.100000	-0.758362	46.120962	-51.729059	18.794135	-51.729059	18.794135	-0.112573	-72.910679
5.150000	-0.813590	38.626982	-52.192587	17.731456	-52.192587	17.731456	-0.114257	-73.562742
5.200000	-0.872111	30.662785	-52.736699	17.345922	-52.736699	17.345922	-0.115964	-74.213423
5.250000	-0.932995	22.223442	-53.353867	17.919071	-53.353867	17.919071	-0.117695	-74.862742
5.300000	-0.994925	13.311273	-54.017249	19.815972	-54.017249	19.815972	-0.119450	-75.510705
5.350000	-1.056093	3.937619	-54.661364	23.459915	-54.661364	23.459915	-0.121229	-76.157298
5.400000	-1.114278	-5.856772	-55.166824	29.081944	-55.166824	29.081944	-0.123033	-76.802536
5.450000	-1.167018	-16.012544	-55.372759	36.403545	-55.372759	36.403545	-0.124862	-77.446430
5.500000	-1.211691	-26.453315	-55.144568	44.378241	-55.144568	44.378241	-0.126716	-78.088969
5.550000	-1.246054	-37.078398	-54.487107	51.519935	-54.487107	51.519935	-0.128596	-78.730164
5.600000	-1.268558	-47.775421	-53.539488	56.799285	-53.539488	56.799285	-0.130502	-79.370031
5.650000	-1.278250	-58.427279	-52.465630	59.937774	-52.465630	59.937774	-0.132435	-80.008559
5.700000	-1.275342	-68.918819	-51.390715	61.218207	-51.390715	61.218207	-0.134394	-80.645758
5.750000	-1.260945	-79.148494	-50.382126	61.082188	-50.382126	61.082188	-0.136381	-81.281639
5.800000	-1.236788	-89.032582	-49.467610	59.932436	-49.467610	59.932436	-0.138395	-81.916208
5.850000	-1.204960	-98.507546	-48.653496	58.086083	-48.653496	58.086083	-0.140438	-82.549468
5.900000	-1.167659	-107.531373	-47.935673	55.778906	-47.935673	55.778906	-0.142509	-83.181424
5.950000	-1.126967	-116.085659	-47.305211	53.181540	-47.305211	53.181540	-0.144609	-83.812090
6.000000	-1.084636	-124.161039	-46.752336	50.410787	-46.752336	50.410787	-0.146739	-84.441456
6.050000	-1.042104	-131.776522	-46.266184	47.551425	-46.266184	47.551425	-0.148899	-85.069556
6.100000	-1.000413	-138.946526	-45.837771	44.658097	-45.837771	44.658097	-0.151090	-85.696386
6.150000	-0.960305	-145.695489	-45.458854	41.768693	-45.458854	41.768693	-0.153312	-86.321953
6.200000	-0.922266	-152.051282	-45.122284	38.908190	-45.122284	38.908190	-0.155567	-86.946264
6.250000	-0.886572	-158.043254	-44.821945	36.092491	-44.821945	36.092491	-0.157854	-87.569324
6.300000	-0.853384	-163.696427	-44.552932	33.332037	-44.552932	33.332037	-0.160175	-88.191121
6.350000	-0.822680	-169.044586	-44.310532	30.631228	-44.310532	30.631228	-0.162529	-88.811680
6.400000	-0.794399	-174.114748	-44.091089	27.992212	-44.091089	27.992212	-0.164917	-89.431008
6.450000	-0.768433	-178.932129	-43.891538	25.415204	-43.891538	25.415204	-0.167339	-90.049111
6.500000	-0.744646	176.480001	-43.709308	22.899159	-43.709308	22.899159	-0.169796	-90.665998
6.550000	-0.722890	172.100337	-43.542243	20.442255	-43.542243	20.442255	-0.172286	-91.281676
6.600000	-0.703012	167.909486	-43.388532	18.042223	-43.388532	18.042223	-0.174812	-91.896155
6.650000	-0.684859	163.889864	-43.246653	15.696577	-43.246653	15.696577	-0.177373	-92.509443
6.700000	-0.668333	160.030123	-43.115566	13.404369	-43.115566	13.404369	-0.179969	-93.121513
6.750000	-0.653206	156.306837	-42.993697	11.159983	-42.993697	11.159983	-0.182601	-93.732446
6.800000	-0.639394	152.711544	-42.880368	8.962528	-42.880368	8.962528	-0.185268	-94.342219
6.850000	-0.626783	149.232583	-42.774796	6.809769	-42.774796	6.809769	-0.187971	-94.950842
6.900000	-0.615275	145.860474	-42.676375	4.700089	-42.676375	4.700089	-0.190711	-95.558313
6.950000	-0.604771	142.585431	-42.584522	2.631561	-42.584522	2.631561	-0.193489	-96.164643
7.000000	-0.595172	139.397784	-42.498685	0.602057	-42.498685	0.602057	-0.196303	-96.769855
7.050000	-0.586401	136.289821	-42.418444	-1.389895	-42.418444	-1.389895	-0.199156	-97.373960
7.100000	-0.578386	133.254554	-42.343435	-3.345587	-42.343435	-3.345587	-0.202046	-97.976970
7.150000	-0.571066	130.285639	-42.273338	-5.266134	-42.273338	-5.266134	-0.204974	-98.578895
7.200000	-0.564385	127.377308	-42.207873	-7.152486	-42.207873	-7.152486	-0.207942	-99.179746
7.250000	-0.558292	124.524304	-42.146794	-9.005436	-42.146794	-9.005436	-0.210948	-99.779536
7.300000	-0.552745	121.721829	-42.089880	-10.825634	-42.089880	-10.825634	-0.213994	-100.378274
7.350000	-0.547703	118.965492	-42.036930	-12.613595	-42.036930	-12.613595	-0.217079	-100.975974
7.400000	-0.543134	116.251266	-41.987763	-14.369708	-41.987763	-14.369708	-0.220205	-101.572646
7.450000	-0.539007	113.575447	-41.942212	-16.094247	-41.942212	-16.094247	-0.223372	-102.168303
7.500000	-0.535297	110.934623	-41.900120	-17.787382	-41.900120	-17.787382	-0.226579	-102.762957
7.550000	-0.531991	108.326260	-41.861403	-19.448501	-41.861403	-19.448501	-0.229828	-103.356599
7.600000	-0.529060	105.746684	-41.825846	-21.078261	-41.825846	-21.078261	-0.233120	-103.949262
7.650000	-0.526491	103.193183	-41.793309	-22.676554	-41.793309	-22.676554	-0.236453	-104.540960
7.700000	-0.524271	100.663221	-41.763651	-24.243197	-41.763651	-24.243197	-0.239828	-105.131704
7.750000	-0.522393	98.154422	-41.736731	-25.777936	-41.736731	-25.777936	-0.243246	-105.721508
7.800000	-0.520849	95.664544	-41.712402	-27.280452	-41.712402	-27.280452	-0.246707	-106.310385
7.850000	-0.519637	93.191464	-41.690515	-28.750367	-41.690515	-28.750367	-0.250211	-106.898347
7.900000	-0.518756	90.733162	-41.670912	-30.187246	-41.670912	-30.187246	-0.253759	-107.485408
7.950000	-0.518209	88.287705	-41.653428	-31.590601	-41.653428	-31.590601	-0.257350	-108.071580
8.000000	-0.518001	85.853229	-41.637886	-32.959894	-41.637886	-32.959894	-0.260986	-108.656878
8.050000	-0.518138	83.427928	-41.624098	-34.294544	-41.624098	-34.294544	-0.264667	-109.241316
8.100000	-0.518632	81.010038	-41.611861	-35.593923	-41.611861	-35.593923	-0.268392	-109.824905
8.150000	-0.519500	78.597866	-41.600969	-36.856965	-41.600969	-36.856965	-0.272162	-110.407653
8.200000	-0.520760	76.189629	-41.591178	-38.082940	-41.591178	-38.082940	-0.275979	-110.989573
8.250000	-0.522427	73.783544	-41.582217	-39.271495	-41.582217	-39.271495	-0.279841	-111.570687
8.300000	-0.524526	71.377868	-41.573807	-40.421857	-41.573807	-40.421857	-0.283748	-112.151012
8.350000	-0.527083	68.970828	-41.565644	-41.533227	-41.565644	-41.533227	-0.287702	-112.730561
8.400000	-0.530132	66.560599	-41.557397	-42.604784	-41.557397	-42.604784	-0.291703	-113.309348
8.450000	-0.533707	64.145289	-41.548705	-43.635695	-41.548705	-43.635695	-0.295749	-113.887388
8.500000	-0.537853	61.722918	-41.539174	-44.625119	-41.539174	-44.625119	-0.299843	-114.464696
8.550000	-0.542617	59.291392	-41.528373	-45.572223	-41.528373	-45.572223	-0.303983	-115.041287
8.600000	-0.548054	56.848485	-41.515829	-46.476194	-41.515829	-46.476194	-0.308171	-115.617177
8.650000	-0.554228	54.391805	-41.501026	-47.336254	-41.501026	-47.336254	-0.312406	-116.192379
8.700000	-0.561211	51.918766	-41.483397	-48.151684	-41.483397	-48.151684	-0.316689	-116.766910
8.750000	-0.569087	49.426546	-41.462318	-48.921852	-41.462318	-48.921852	-0.321019	-117.340785
8.800000	-0.577975	46.911486	-41.436998	-49.645241	-41.436998	-49.645241	-0.325398	-117.914006
8.850000	-0.587970	44.370553	-41.406756	-50.322496	-41.406756	-50.322496	-0.329825	-118.486603
8.900000	-0.599202	41.799908	-41.370762	-50.953497	-41.370762	-50.953497	-0.334300	-119.058592
8.950000	-0.611824	39.195248	-41.328101	-51.538404	-41.328101	-51.538404	-0.338823	-119.629989
9.000000	-0.626014	36.551725	-41.277773	-52.077738	-41.277773	-52.077738	-0.343394	-120.200809
9.050000	-0.641983	33.863838	-41.218678	-52.572472	-41.218678	-52.572472	-0.348013	-120.771069
9.100000	-0.659981	31.125318	-41.149612	-53.024152	-41.149612	-53.024152	-0.352681	-121.340784
9.150000	-0.680306	28.328970	-41.069260	-53.435028	-41.069260	-53.435028	-0.357396	-121.909971
9.200000	-0.703431	25.463606	-40.975602	-53.806825	-40.975602	-53.806825	-0.362161	-122.478626
9.250000	-0.729455	22.527846	-40.868765	-54.147701	-40.868765	-54.147701	-0.366969	-123.046819
9.300000	-0.759248	19.501878	-40.745329	-54.459440	-40.745329	-54.459440	-0.371827	-123.614511
9.350000	-0.793328	16.375511	-40.604108	-54.750192	-40.604108	-54.750192	-0.376730	-124.181731
9.400000	-0.832482	13.133243	-40.443211	-55.029233	-40.443211	-55.029233	-0.381678	-124.748490
9.450000	-0.877670	9.757009	-40.260712	-55.307790	-40.260712	-55.307790	-0.386667	-125.314791
9.500000	-0.930407	6.218315	-40.053425	-55.600728	-40.053425	-55.600728	-0.391697	-125.880601
9.550000	-0.991936	2.497410	-39.820510	-55.924850	-39.820510	-55.924850	-0.396759	-126.445875
9.600000	-1.064181	-1.437328	-39.559957	-56.300617	-39.559957	-56.300617	-0.401850	-127.010413
9.650000	-1.150392	-5.639875	-39.267671	-56.758176	-39.267671	-56.758176	-0.407029	-127.573528
9.700000	-1.253001	-10.142103	-38.944441	-57.322902	-38.944441	-57.322902	-0.412660	-128.135450
9.750000	-1.377217	-15.022416	-38.586608	-58.038357	-38.586608	-58.038357	-0.418524	-128.701883
9.800000	-1.528621	-20.355384	-38.193950	-58.948103	-38.193950	-58.948103	-0.423851	-129.268197
9.850000	-1.714723	-26.238468	-37.766783	-60.103958	-37.766783	-60.103958	-0.429157	-129.832759
9.900000	-1.946356	-32.811665	-37.305663	-61.572873	-37.305663	-61.572873	-0.434545	-130.396535
9.950000	-2.236601	-40.236455	-36.814677	-63.422894	-36.814677	-63.422894	-0.440007	-130.959894
10.000000	-2.603051	-48.736694	-36.299964	-65.734244	-36.299964	-65.734244	-0.445532	-131.522961
