! freq	dB(S11)	phase(S11)	dB(S12)	phase(S12)	
!     	dB(S21)	phase(S21)	dB(S22)	phase(S22)	
!S-par simulation data
#  GHz  S  DB  R 50
0.000000	-0.000000	0.000000	-313.527036	180.000000	-313.527036	180.000000	-0.000000	0.000000
0.050000	-0.000051	-0.876327	-98.050275	23.090134	-98.050275	23.090134	-0.000051	-0.876615
0.100000	-0.000204	-1.752582	-96.573700	38.137325	-96.573700	38.137325	-0.000205	-1.753157
0.150000	-0.000457	-2.628694	-94.891554	48.669181	-94.891554	48.669181	-0.000460	-2.629554
0.200000	-0.000809	-3.504594	-93.303219	55.737271	-93.303219	55.737271	-0.000814	-3.505739
0.250000	-0.001266	-4.380194	-91.884470	60.440836	-91.884470	60.440836	-0.001273	-4.381619
0.300000	-0.001815	-5.255448	-90.643452	63.800771	-90.643452	63.800771	-0.001826	-5.257152
0.350000	-0.002461	-6.130275	-89.556599	66.211754	-89.556599	66.211754	-0.002474	-6.132253
0.400000	-0.003200	-7.004602	-88.602194	67.986711	-88.602194	67.986711	-0.003217	-7.006851
0.450000	-0.004031	-7.878358	-87.760977	69.325718	-87.760977	69.325718	-0.004051	-7.880874
0.500000	-0.004949	-8.751470	-87.017061	70.361810	-87.017061	70.361810	-0.004973	-8.754249
0.550000	-0.005952	-9.623868	-86.357645	71.187219	-86.357645	71.187219	-0.005979	-9.626905
0.600000	-0.007035	-10.495481	-85.772458	71.868675	-85.772458	71.868675	-0.007065	-10.498772
0.650000	-0.008193	-11.366239	-85.253226	72.456620	-85.253226	72.456620	-0.008226	-11.369782
0.700000	-0.009420	-12.236077	-84.793231	72.990950	-84.793231	72.990950	-0.009456	-12.239869
0.750000	-0.010711	-13.104932	-84.386962	73.504729	-84.386962	73.504729	-0.010748	-13.108970
0.800000	-0.012057	-13.972743	-84.029831	74.026688	-84.029831	74.026688	-0.012096	-13.977026
0.850000	-0.013452	-14.839457	-83.717944	74.582974	-83.717944	74.582974	-0.013491	-14.843985
0.900000	-0.014886	-15.705026	-83.447918	75.198424	-83.447918	75.198424	-0.014925	-15.709798
0.950000	-0.016351	-16.569408	-83.216703	75.897525	-83.216703	75.897525	-0.016390	-16.574426
1.000000	-0.017839	-17.432569	-83.021429	76.705161	-83.021429	76.705161	-0.017876	-17.437835
1.050000	-0.019339	-18.294484	-82.859240	77.647179	-82.859240	77.647179	-0.019374	-18.300001
1.100000	-0.020843	-19.155137	-82.727124	78.750791	-82.727124	78.750791	-0.020876	-19.160908
1.150000	-0.022341	-20.014519	-82.621717	80.044776	-82.621717	80.044776	-0.022372	-20.020548
1.200000	-0.023827	-20.872630	-82.539088	81.559404	-82.539088	81.559404	-0.023855	-20.878922
1.250000	-0.025291	-21.729480	-82.474481	83.325963	-82.474481	83.325963	-0.025317	-21.736038
1.300000	-0.026727	-22.585028	-82.422216	85.389400	-82.422216	85.389400	-0.026751	-22.591856
1.350000	-0.028130	-23.439352	-82.374085	87.767551	-82.374085	87.767551	-0.028153	-23.446453
1.400000	-0.029497	-24.292474	-82.321010	90.483683	-82.321010	90.483683	-0.029518	-24.299852
1.450000	-0.030824	-25.144422	-82.252223	93.551200	-82.252223	93.551200	-0.030844	-25.152078
1.500000	-0.032112	-25.995222	-82.155464	96.968366	-82.155464	96.968366	-0.032131	-26.003157
1.550000	-0.033359	-26.844899	-82.017576	100.712845	-82.017576	100.712845	-0.033378	-26.853114
1.600000	-0.034567	-27.693475	-81.825564	104.737515	-81.825564	104.737515	-0.034587	-27.701969
1.650000	-0.035739	-28.540968	-81.568055	108.969379	-81.568055	108.969379	-0.035759	-28.549741
1.700000	-0.036867	-29.387025	-81.202972	113.299905	-81.202972	113.299905	-0.036888	-29.396074
1.750000	-0.037978	-30.232527	-80.808169	117.651517	-80.808169	117.651517	-0.038001	-30.241853
1.800000	-0.039060	-31.076742	-80.312473	121.822071	-80.312473	121.822071	-0.039085	-31.086341
1.850000	-0.040122	-31.920036	-79.764548	125.863296	-79.764548	125.863296	-0.040147	-31.929908
1.900000	-0.041167	-32.762211	-79.150738	129.574771	-79.150738	129.574771	-0.041194	-32.772354
1.950000	-0.042196	-33.603267	-78.486332	132.956496	-78.486332	132.956496	-0.042226	-33.613678
2.000000	-0.043220	-34.443360	-77.797109	136.008675	-77.797109	136.008675	-0.043251	-34.454039
2.050000	-0.044236	-35.282107	-77.065744	138.599492	-77.065744	138.599492	-0.044268	-35.293051
2.100000	-0.045252	-36.120255	-76.354880	140.997537	-76.354880	140.997537	-0.045285	-36.131465
2.150000	-0.046268	-36.956849	-75.611654	142.907145	-75.611654	142.907145	-0.046303	-36.968324
2.200000	-0.047289	-37.792253	-74.869137	144.486409	-74.869137	144.486409	-0.047325	-37.803992
2.250000	-0.048317	-38.626441	-74.132420	145.763877	-74.132420	145.763877	-0.048354	-38.638444
2.300000	-0.049354	-39.459385	-73.405255	146.768613	-73.405255	146.768613	-0.049391	-39.471652
2.350000	-0.050401	-40.291055	-72.690306	147.528660	-72.690306	147.528660	-0.050440	-40.303587
2.400000	-0.051461	-41.121424	-71.989387	148.070158	-71.989387	148.070158	-0.051500	-41.134221
2.450000	-0.052534	-41.950465	-71.303657	148.416941	-71.303657	148.416941	-0.052573	-41.963528
2.500000	-0.053620	-42.778152	-70.633784	148.590425	-70.633784	148.590425	-0.053659	-42.791480
2.550000	-0.054721	-43.604396	-69.978693	148.603746	-69.978693	148.603746	-0.054760	-43.617992
2.600000	-0.055837	-44.429234	-69.340002	148.481003	-69.340002	148.481003	-0.055876	-44.443098
2.650000	-0.056967	-45.252642	-68.717535	148.236803	-68.717535	148.236803	-0.057007	-45.266775
2.700000	-0.058112	-46.074599	-68.110993	147.884011	-68.110993	147.884011	-0.058152	-46.089001
2.750000	-0.059272	-46.895085	-67.519989	147.433955	-67.519989	147.433955	-0.059311	-46.909757
2.800000	-0.060445	-47.714081	-66.944084	146.896618	-66.944084	146.896618	-0.060485	-47.729024
2.850000	-0.061633	-48.531569	-66.382803	146.280808	-66.382803	146.280808	-0.061673	-48.546784
2.900000	-0.062834	-49.347533	-65.835657	145.594311	-65.835657	145.594311	-0.062874	-49.363022
2.950000	-0.064049	-50.161960	-65.302148	144.844022	-65.302148	144.844022	-0.064089	-50.177722
3.000000	-0.065276	-50.974835	-64.781785	144.036062	-64.781785	144.036062	-0.065316	-50.990871
3.050000	-0.066516	-51.786146	-64.274083	143.175877	-64.274083	143.175877	-0.066556	-51.802457
3.100000	-0.067767	-52.595882	-63.778567	142.268326	-63.778567	142.268326	-0.067808	-52.612470
3.150000	-0.069031	-53.404035	-63.294782	141.317755	-63.294782	141.317755	-0.069072	-53.420898
3.200000	-0.070306	-54.210594	-62.822284	140.328057	-62.822284	140.328057	-0.070347	-54.227734
3.250000	-0.071592	-55.015552	-62.360649	139.302732	-62.360649	139.302732	-0.071633	-55.032969
3.300000	-0.072888	-55.818903	-61.909468	138.244933	-61.909468	138.244933	-0.072930	-55.836597
3.350000	-0.074197	-56.620358	-61.466225	137.153102	-61.466225	137.153102	-0.074239	-56.638331
3.400000	-0.075517	-57.420126	-61.032372	136.033114	-61.032372	136.033114	-0.075560	-57.438377
3.450000	-0.076842	-58.219046	-60.613380	134.901072	-60.613380	134.901072	-0.076886	-58.237575
3.500000	-0.078183	-59.015423	-60.197124	133.732867	-60.197124	133.732867	-0.078227	-59.034232
3.550000	-0.079528	-59.811234	-59.796397	132.557987	-59.796397	132.557987	-0.079573	-59.830322
3.600000	-0.080890	-60.604212	-59.396568	131.349737	-59.396568	131.349737	-0.080936	-60.623581
3.650000	-0.082255	-61.396907	-59.012734	130.138712	-59.012734	130.138712	-0.082301	-61.416555
3.700000	-0.083639	-62.186483	-58.628250	128.897154	-58.628250	128.897154	-0.083686	-62.206412
3.750000	-0.085023	-62.976060	-58.260067	127.655596	-58.260067	127.655596	-0.085070	-62.996269
3.800000	-0.086429	-63.762237	-57.889925	126.386310	-57.889925	126.386310	-0.086478	-63.782728
3.850000	-0.087836	-64.548415	-57.534914	125.117025	-57.534914	125.117025	-0.087885	-64.569187
3.900000	-0.089265	-65.331484	-57.179538	123.826573	-57.179538	123.826573	-0.089315	-65.352538
3.950000	-0.090695	-66.114271	-56.836884	122.534198	-56.836884	122.534198	-0.090746	-66.135607
4.000000	-0.092147	-66.894244	-56.495207	121.225797	-56.495207	121.225797	-0.092199	-66.915862
4.050000	-0.093603	-67.673654	-56.164149	119.914191	-56.164149	119.914191	-0.093656	-67.695555
4.100000	-0.095080	-68.450544	-55.835203	118.590575	-55.835203	118.590575	-0.095134	-68.472728
4.150000	-0.096564	-69.226594	-55.515035	117.262955	-55.515035	117.262955	-0.096618	-69.249061
4.200000	-0.098068	-70.000419	-55.197939	115.926442	-55.197939	115.926442	-0.098123	-70.023170
4.250000	-0.099582	-70.773131	-54.888003	114.585482	-54.888003	114.585482	-0.099638	-70.796167
4.300000	-0.101115	-71.543912	-54.581955	113.238036	-54.581955	113.238036	-0.101172	-71.567232
4.350000	-0.102661	-72.313312	-54.281640	111.885957	-54.281640	111.885957	-0.102720	-72.336918
4.400000	-0.104226	-73.081071	-53.985910	110.529236	-53.985910	110.529236	-0.104285	-73.104963
4.450000	-0.105808	-73.847189	-53.694647	109.167874	-53.694647	109.167874	-0.105868	-73.871367
4.500000	-0.107407	-74.611954	-53.408568	107.803274	-53.408568	107.803274	-0.107468	-74.636418
4.550000	-0.109028	-75.374822	-53.125830	106.434141	-53.125830	106.434141	-0.109090	-75.399574
4.600000	-0.110664	-76.136620	-52.848794	105.062831	-52.848794	105.062831	-0.110727	-76.161660
4.650000	-0.112327	-76.896277	-52.574094	103.687165	-52.574094	103.687165	-0.112391	-76.921605
4.700000	-0.114003	-77.655140	-52.305543	102.310119	-52.305543	102.310119	-0.114067	-77.680756
4.750000	-0.115712	-78.411624	-52.038430	100.928931	-52.038430	100.928931	-0.115777	-78.437530
4.800000	-0.117429	-79.167586	-51.777856	99.546959	-51.777856	99.546959	-0.117496	-79.193782
4.850000	-0.119188	-79.920940	-51.517916	98.161065	-51.517916	98.161065	-0.119255	-79.947428
4.900000	-0.120951	-80.674038	-51.264852	96.774835	-51.264852	96.774835	-0.121019	-80.700817
4.950000	-0.122762	-81.424310	-51.011703	95.384898	-51.011703	95.384898	-0.122831	-81.451382
5.000000	-0.124573	-82.174583	-50.765724	93.994960	-50.765724	93.994960	-0.124643	-82.201946
5.050000	-0.126441	-82.921823	-50.519015	92.601512	-50.519015	92.601512	-0.126512	-82.949481
5.100000	-0.128308	-83.669064	-50.279120	91.208064	-50.279120	91.208064	-0.128380	-83.697016
5.150000	-0.130231	-84.413575	-50.039141	89.811794	-50.039141	89.811794	-0.130304	-84.441822
5.200000	-0.132158	-85.157838	-49.805035	88.415267	-49.805035	88.415267	-0.132232	-85.186380
5.250000	-0.134138	-85.899667	-49.571430	87.016471	-49.571430	87.016471	-0.134213	-85.928507
5.300000	-0.136129	-86.641010	-49.342844	85.617222	-49.342844	85.617222	-0.136205	-86.670147
5.350000	-0.138170	-87.380210	-49.115288	84.216156	-49.115288	84.216156	-0.138247	-87.409645
5.400000	-0.140228	-88.118694	-48.891973	82.814484	-48.891973	82.814484	-0.140305	-88.148428
5.450000	-0.142332	-88.855317	-48.670170	81.411374	-48.670170	81.411374	-0.142410	-88.885351
5.500000	-0.144459	-89.591010	-48.451900	80.007543	-48.451900	80.007543	-0.144539	-89.621344
5.550000	-0.146629	-90.325114	-48.235578	78.602596	-48.235578	78.602596	-0.146710	-90.355750
5.600000	-0.148830	-91.058085	-48.022144	77.196851	-48.022144	77.196851	-0.148911	-91.089022
5.650000	-0.151068	-91.789731	-47.811054	75.790267	-47.811054	75.790267	-0.151151	-91.820972
5.700000	-0.153345	-92.520054	-47.602264	74.382845	-47.602264	74.382845	-0.153428	-92.551599
5.750000	-0.155654	-93.249308	-47.396176	72.974826	-47.396176	72.974826	-0.155739	-93.281157
5.800000	-0.158009	-93.977063	-47.191855	71.565973	-47.191855	71.565973	-0.158095	-94.009219
5.850000	-0.160391	-94.703992	-46.990553	70.156729	-46.990553	70.156729	-0.160478	-94.736453
5.900000	-0.162828	-95.429266	-46.790536	68.746707	-46.790536	68.746707	-0.162916	-95.462035
5.950000	-0.165285	-96.153942	-46.593823	67.336465	-46.593823	67.336465	-0.165374	-96.187019
6.000000	-0.167805	-96.876825	-46.397954	65.925563	-46.397954	65.925563	-0.167895	-96.910211
6.050000	-0.170339	-97.599325	-46.205643	64.514567	-46.205643	64.514567	-0.170431	-97.633021
6.100000	-0.172944	-98.319915	-46.013774	63.103104	-46.013774	63.103104	-0.173037	-98.353922
6.150000	-0.175558	-99.040322	-45.825689	61.691624	-45.825689	61.691624	-0.175652	-99.074640
6.200000	-0.178250	-99.758721	-45.637676	60.279958	-45.637676	60.279958	-0.178346	-99.793352
6.250000	-0.180944	-100.477121	-45.453648	58.868291	-45.453648	58.868291	-0.181040	-100.512065
6.300000	-0.183725	-101.193442	-45.269349	57.456814	-45.269349	57.456814	-0.183823	-101.228701
6.350000	-0.186508	-101.909763	-45.088880	56.045336	-45.088880	56.045336	-0.186607	-101.945337
6.400000	-0.189372	-102.624287	-44.908487	54.634428	-44.908487	54.634428	-0.189473	-102.660178
6.450000	-0.192245	-103.338649	-44.731444	53.223571	-44.731444	53.223571	-0.192347	-103.374856
6.500000	-0.195194	-104.051484	-44.554784	51.813619	-44.554784	51.813619	-0.195297	-104.088009
6.550000	-0.198158	-104.764013	-44.381027	50.403848	-44.381027	50.403848	-0.198263	-104.800857
6.600000	-0.201191	-105.475271	-44.207930	48.995265	-44.207930	48.995265	-0.201298	-105.512435
6.650000	-0.204248	-106.186105	-44.037316	47.587076	-44.037316	47.587076	-0.204356	-106.223589
6.700000	-0.207367	-106.895906	-43.867607	46.180290	-43.867607	46.180290	-0.207476	-106.933713
6.750000	-0.210517	-107.605191	-43.699982	44.774205	-43.699982	44.774205	-0.210628	-107.643320
6.800000	-0.213722	-108.313664	-43.533484	43.369658	-43.533484	43.369658	-0.213834	-108.352117
6.850000	-0.216966	-109.021557	-43.368683	41.966211	-43.368683	41.966211	-0.217079	-109.060334
6.900000	-0.220257	-109.728839	-43.205213	40.564354	-43.205213	40.564354	-0.220372	-109.767942
6.950000	-0.223595	-110.435510	-43.043058	39.164086	-43.043058	39.164086	-0.223712	-110.474939
7.000000	-0.226973	-111.141746	-42.882428	37.765366	-42.882428	37.765366	-0.227092	-111.181503
7.050000	-0.230406	-111.847376	-42.722725	36.368811	-42.722725	36.368811	-0.230526	-111.887461
7.100000	-0.233872	-112.552723	-42.564737	34.973666	-42.564737	34.973666	-0.233993	-112.593137
7.150000	-0.237400	-113.257506	-42.407276	33.581338	-42.407276	33.581338	-0.237523	-113.298251
7.200000	-0.240953	-113.962131	-42.251724	32.190188	-42.251724	32.190188	-0.241077	-114.003207
7.250000	-0.244576	-114.666279	-42.096274	30.802567	-42.096274	30.802567	-0.244702	-114.707688
7.300000	-0.248217	-115.370358	-41.942943	29.415801	-41.942943	29.415801	-0.248344	-115.412100
7.350000	-0.251937	-116.074097	-41.789254	28.033315	-41.789254	28.033315	-0.252066	-116.116174
7.400000	-0.255666	-116.777822	-41.637917	26.651287	-41.637917	26.651287	-0.255796	-116.820234
7.450000	-0.259483	-117.481395	-41.485715	25.274297	-41.485715	25.274297	-0.259614	-117.524145
7.500000	-0.263301	-118.184968	-41.336135	23.897306	-41.336135	23.897306	-0.263434	-118.228055
7.550000	-0.267216	-118.888639	-41.185124	22.526087	-41.185124	22.526087	-0.267350	-118.932066
7.600000	-0.271132	-119.592311	-41.036695	21.154867	-41.036695	21.154867	-0.271267	-119.636077
7.650000	-0.275137	-120.296332	-40.886911	19.789094	-40.886911	19.789094	-0.275274	-120.340440
7.700000	-0.279153	-121.000385	-40.739322	18.423817	-40.739322	18.423817	-0.279291	-121.044836
7.750000	-0.283252	-121.705011	-40.590465	17.063530	-40.590465	17.063530	-0.283391	-121.749807
7.800000	-0.287369	-122.409753	-40.443382	15.704242	-40.443382	15.704242	-0.287510	-122.454894
7.850000	-0.291563	-123.115259	-40.295139	14.349372	-40.295139	14.349372	-0.291705	-123.160747
7.900000	-0.295784	-123.821020	-40.148201	12.995976	-40.148201	12.995976	-0.295927	-123.866856
7.950000	-0.300077	-124.527700	-40.000243	11.646330	-40.000243	11.646330	-0.300221	-124.573887
8.000000	-0.304406	-125.234839	-39.853060	10.298560	-39.853060	10.298560	-0.304551	-125.281377
8.050000	-0.308800	-125.943009	-39.705043	8.953806	-39.705043	8.953806	-0.308946	-125.989900
8.100000	-0.313243	-126.651914	-39.557199	7.611207	-39.557199	7.611207	-0.313389	-126.699159
8.150000	-0.317744	-127.361912	-39.408763	6.270856	-39.408763	6.270856	-0.317892	-127.409514
8.200000	-0.322305	-128.073003	-39.259808	4.932754	-39.259808	4.932754	-0.322454	-128.120963
8.250000	-0.326920	-128.785195	-39.110578	3.596142	-39.110578	3.596142	-0.327069	-128.833513
8.300000	-0.331609	-129.498926	-38.960033	2.261617	-38.960033	2.261617	-0.331758	-129.547607
8.350000	-0.336344	-130.213703	-38.809614	0.927882	-38.809614	0.927882	-0.336494	-130.262747
8.400000	-0.341171	-130.930569	-38.656965	-0.404269	-38.656965	-0.404269	-0.341321	-130.979978
8.450000	-0.346036	-131.648352	-38.504948	-1.736209	-38.504948	-1.736209	-0.346187	-131.698129
8.500000	-0.351014	-132.368888	-38.349643	-3.067511	-38.349643	-3.067511	-0.351164	-132.419034
8.550000	-0.356020	-133.090131	-38.195600	-4.398988	-38.195600	-4.398988	-0.356171	-133.140649
8.600000	-0.361164	-133.814918	-38.037047	-5.731335	-38.037047	-5.731335	-0.361315	-133.865810
8.650000	-0.366326	-134.540111	-37.880531	-7.063963	-37.880531	-7.063963	-0.366477	-134.591378
8.700000	-0.371656	-135.269779	-37.718095	-8.399676	-37.718095	-8.399676	-0.371808	-135.321427
8.750000	-0.376990	-135.999448	-37.558642	-9.735389	-37.558642	-9.735389	-0.377141	-136.051475
8.800000	-0.382531	-136.734686	-37.391640	-11.077288	-37.391640	-11.077288	-0.382682	-136.787098
8.850000	-0.388076	-137.469924	-37.227789	-12.419188	-37.227789	-12.419188	-0.388227	-137.522721
8.900000	-0.393838	-138.210951	-37.056461	-13.769882	-37.056461	-13.769882	-0.393989	-138.264139
8.950000	-0.399623	-138.952505	-36.887509	-15.121377	-36.887509	-15.121377	-0.399774	-139.006084
9.000000	-0.405636	-139.700000	-36.711259	-16.484289	-36.711259	-16.484289	-0.405787	-139.753974
9.050000	-0.411698	-140.448682	-36.536451	-17.849485	-36.536451	-17.849485	-0.411848	-140.503054
9.100000	-0.417998	-141.203376	-36.354654	-19.228668	-36.354654	-19.228668	-0.418148	-141.258149
9.150000	-0.424380	-141.960073	-36.173177	-20.612514	-36.173177	-20.612514	-0.424530	-142.015250
9.200000	-0.430944	-142.721174	-35.987921	-22.008111	-35.987921	-22.008111	-0.431094	-142.776757
9.250000	-0.437724	-143.487442	-35.797834	-23.418324	-35.797834	-23.418324	-0.437874	-143.543436
9.300000	-0.444707	-144.258411	-35.603928	-24.843040	-35.603928	-24.843040	-0.444856	-144.314819
9.350000	-0.451909	-145.034335	-35.405993	-26.284093	-35.405993	-26.284093	-0.452058	-145.091160
9.400000	-0.459347	-145.815474	-35.203814	-27.743496	-35.203814	-27.743496	-0.459496	-145.872720
9.450000	-0.467040	-146.602103	-34.997171	-29.223462	-34.997171	-29.223462	-0.467190	-146.659774
9.500000	-0.475010	-147.394506	-34.785842	-30.726428	-34.785842	-30.726428	-0.475160	-147.452605
9.550000	-0.483279	-148.192979	-34.569600	-32.255075	-34.569600	-32.255075	-0.483429	-148.251510
9.600000	-0.491872	-148.997832	-34.348215	-33.812363	-34.348215	-33.812363	-0.492023	-149.056797
9.650000	-0.500816	-149.809384	-34.121460	-35.401562	-34.121460	-35.401562	-0.500968	-149.868788
9.700000	-0.510141	-150.627971	-33.889108	-37.026287	-33.889108	-37.026287	-0.510294	-150.687817
9.750000	-0.519879	-151.453939	-33.650939	-38.690540	-33.650939	-38.690540	-0.520034	-151.514231
9.800000	-0.530064	-152.287651	-33.406743	-40.398757	-33.406743	-40.398757	-0.530221	-152.348392
9.850000	-0.540735	-153.129481	-33.156323	-42.155860	-33.156323	-42.155860	-0.540895	-153.190675
9.900000	-0.551934	-153.979820	-32.899505	-43.967313	-32.899505	-43.967313	-0.552096	-154.041470
9.950000	-0.563706	-154.839072	-32.636146	-45.839184	-32.636146	-45.839184	-0.563871	-154.901182
10.000000	-0.576099	-155.707659	-32.366143	-47.778218	-32.366143	-47.778218	-0.576268	-155.770230
