! freq	dB(S11)	phase(S11)	dB(S12)	phase(S12)	
!     	dB(S21)	phase(S21)	dB(S22)	phase(S22)	
!S-par simulation data
#  GHz  S  DB  R 50
0.000000	-82.788862	0.000000	-0.000630	0.000000	-0.000630	0.000000	-82.788862	0.000000
0.050000	-40.638334	-91.389318	-0.007099	-2.900810	-0.007099	-2.900810	-40.636054	-91.315559
0.100000	-34.653615	-95.173675	-0.012800	-5.768351	-0.012800	-5.768351	-34.644777	-95.058766
0.150000	-31.166209	-98.416675	-0.019055	-8.623625	-0.019055	-8.623625	-31.160335	-98.225627
0.200000	-28.709541	-101.514503	-0.025404	-11.470247	-0.025404	-11.470247	-28.706998	-101.229913
0.250000	-26.822267	-104.538988	-0.031785	-14.311463	-0.031785	-14.311463	-26.821838	-104.150441
0.300000	-25.299708	-107.515994	-0.038335	-17.149118	-0.038335	-17.149118	-25.299672	-107.020228
0.350000	-24.031335	-110.459486	-0.045203	-19.983969	-0.045203	-19.983969	-24.030156	-109.859053
0.400000	-22.949972	-113.378425	-0.052457	-22.816175	-0.052457	-22.816175	-22.946653	-112.678704
0.450000	-22.013143	-116.278177	-0.060127	-25.645549	-0.060127	-25.645549	-22.007159	-115.485547
0.500000	-21.193107	-119.162443	-0.068226	-28.471688	-0.068226	-28.471688	-21.184313	-118.283334
0.550000	-20.468361	-122.035306	-0.076706	-31.294438	-0.076706	-31.294438	-20.456940	-121.074980
0.600000	-19.823514	-124.899657	-0.085515	-34.113639	-0.085515	-34.113639	-19.809844	-123.862091
0.650000	-19.247962	-127.757553	-0.094595	-36.929037	-0.094595	-36.929037	-19.232534	-126.645509
0.700000	-18.732951	-130.610860	-0.103872	-39.740550	-0.103872	-39.740550	-18.716313	-129.425823
0.750000	-18.270907	-133.461103	-0.113264	-42.548277	-0.113264	-42.548277	-18.253596	-132.203442
0.800000	-17.856722	-136.309331	-0.122692	-45.352228	-0.122692	-45.352228	-17.839255	-134.978508
0.850000	-17.486893	-139.156381	-0.132070	-48.152410	-0.132070	-48.152410	-17.469756	-137.751033
0.900000	-17.156725	-142.002964	-0.141317	-50.949182	-0.141317	-50.949182	-17.140323	-140.521174
0.950000	-16.863347	-144.849571	-0.150355	-53.742790	-0.150355	-53.742790	-16.848025	-143.288955
1.000000	-16.605797	-147.696627	-0.159088	-56.533400	-0.159088	-56.533400	-16.591851	-146.054272
1.050000	-16.380904	-150.544430	-0.167455	-59.321534	-0.167455	-59.321534	-16.368548	-148.817273
1.100000	-16.186999	-153.393224	-0.175390	-62.107619	-0.175390	-62.107619	-16.176387	-151.578013
1.150000	-16.023807	-156.243270	-0.182807	-64.892077	-0.182807	-64.892077	-16.015039	-154.336482
1.200000	-15.889960	-159.094750	-0.189654	-67.675475	-0.189654	-67.675475	-15.883081	-157.092808
1.250000	-15.784167	-161.947817	-0.195892	-70.458396	-0.195892	-70.458396	-15.779174	-159.847152
1.300000	-15.706450	-164.802692	-0.201462	-73.241438	-0.201462	-73.241438	-15.703298	-162.599617
1.350000	-15.657005	-167.659619	-0.206314	-76.025276	-0.206314	-76.025276	-15.655612	-165.350339
1.400000	-15.634706	-170.518739	-0.210446	-78.810545	-0.210446	-78.810545	-15.634964	-168.099561
1.450000	-15.639729	-173.380300	-0.213837	-81.597919	-0.213837	-81.597919	-15.641509	-170.847463
1.500000	-15.673812	-176.244722	-0.216436	-84.388263	-0.216436	-84.388263	-15.676960	-173.594184
1.550000	-15.735958	-179.112173	-0.218285	-87.182147	-0.218285	-87.182147	-15.740318	-176.339974
1.600000	-15.826897	178.017008	-0.219391	-89.980267	-0.219391	-89.980267	-15.832313	-179.084996
1.650000	-15.948893	175.142255	-0.219742	-92.783569	-0.219742	-92.783569	-15.955204	178.170647
1.700000	-16.102485	172.263214	-0.219386	-95.592662	-0.219386	-95.592662	-16.109545	175.426864
1.750000	-16.288797	169.379472	-0.218374	-98.408139	-0.218374	-98.408139	-16.296478	172.683654
1.800000	-16.510253	166.490422	-0.216743	-101.230772	-0.216743	-101.230772	-16.518447	169.941153
1.850000	-16.769311	163.595464	-0.214553	-104.061224	-0.214553	-104.061224	-16.777940	167.199648
1.900000	-17.069344	160.693856	-0.211868	-106.900225	-0.211868	-106.900225	-17.078362	164.459673
1.950000	-17.414093	157.784834	-0.208770	-109.748387	-0.208770	-109.748387	-17.423496	161.722081
2.000000	-17.807812	154.867645	-0.205351	-112.606160	-0.205351	-112.606160	-17.817646	158.988117
2.050000	-18.256227	151.941354	-0.201711	-115.474033	-0.201711	-115.474033	-18.266593	156.259637
2.100000	-18.766551	149.004876	-0.197954	-118.352436	-0.197954	-118.352436	-18.777613	153.539341
2.150000	-19.347990	146.056922	-0.194195	-121.241722	-0.194195	-121.241722	-19.359988	150.831154
2.200000	-20.012514	143.095885	-0.190555	-124.142169	-0.190555	-124.142169	-20.025779	148.140836
2.250000	-20.776028	140.119672	-0.187161	-127.053958	-0.187161	-127.053958	-20.791002	145.477005
2.300000	-21.660260	137.125370	-0.184144	-129.977171	-0.184144	-129.977171	-21.677523	142.852925
2.350000	-22.695943	134.108642	-0.181639	-132.911775	-0.181639	-132.911775	-22.716260	140.289864
2.400000	-23.928548	131.062479	-0.179778	-135.857619	-0.179778	-135.857619	-23.952913	137.823861
2.450000	-25.429451	127.974418	-0.178688	-138.814431	-0.178688	-138.814431	-25.459138	135.520768
2.500000	-27.320271	124.819534	-0.178490	-141.781825	-0.178490	-141.781825	-27.356726	133.514146
2.550000	-29.836740	121.532865	-0.179314	-144.759525	-0.179314	-144.759525	-29.880205	132.152589
2.600000	-33.526781	117.911499	-0.181233	-147.746737	-0.181233	-147.746737	-33.564891	132.527895
2.650000	-40.330753	112.634864	-0.184326	-150.742855	-0.184326	-150.742855	-40.130692	141.398675
2.700000	-49.094849	-8.265162	-0.188657	-153.747247	-0.188657	-153.747247	-45.964938	-124.903589
2.750000	-37.011626	-66.708808	-0.194280	-156.759272	-0.194280	-156.759272	-36.519957	-79.277483
2.800000	-31.608585	-71.073917	-0.201240	-159.778278	-0.201240	-159.778278	-31.393076	-75.826161
2.850000	-28.262089	-74.587378	-0.209573	-162.803598	-0.209573	-162.803598	-28.125433	-76.440342
2.900000	-25.828164	-77.885067	-0.219310	-165.834540	-0.219310	-165.834540	-25.727848	-78.182531
2.950000	-23.914784	-81.097750	-0.230474	-168.870378	-0.230474	-168.870378	-23.835397	-80.400002
3.000000	-22.340086	-84.269735	-0.243076	-171.910351	-0.243076	-171.910351	-22.274443	-82.863195
3.050000	-21.004715	-87.419884	-0.257118	-174.953663	-0.257118	-174.953663	-20.948908	-85.470028
3.100000	-19.848415	-90.557287	-0.272584	-177.999493	-0.272584	-177.999493	-19.800083	-88.167848
3.150000	-18.831955	-93.686548	-0.289463	178.952986	-0.289463	178.952986	-18.789547	-90.926929
3.200000	-17.928332	-96.810117	-0.307706	175.904639	-0.307706	175.904639	-17.890759	-93.728143
3.250000	-17.118032	-99.929214	-0.327236	172.856300	-0.327236	172.856300	-17.084477	-96.558733
3.300000	-16.386595	-103.044285	-0.347975	169.808759	-0.347975	169.808759	-16.356420	-99.410215
3.350000	-15.722987	-106.155376	-0.369826	166.762755	-0.369826	166.762755	-15.695667	-102.276399
3.400000	-15.118586	-109.262296	-0.392681	163.718971	-0.392681	163.718971	-15.093676	-105.152617
3.450000	-14.566531	-112.364729	-0.416413	160.678016	-0.416413	160.678016	-14.543641	-108.035262
3.500000	-14.061263	-115.462307	-0.440885	157.640419	-0.440885	157.640419	-14.040047	-110.921496
3.550000	-13.598218	-118.554666	-0.465948	154.606617	-0.465948	154.606617	-13.578363	-113.809057
3.600000	-13.173601	-121.641488	-0.491441	151.576944	-0.491441	151.576944	-13.154824	-116.696145
3.650000	-12.784226	-124.722525	-0.517195	148.551630	-0.517195	148.551630	-12.766268	-119.581328
3.700000	-12.427391	-127.797628	-0.543034	145.530790	-0.543034	145.530790	-12.410020	-122.463490
3.750000	-12.100796	-130.866762	-0.568777	142.514423	-0.568777	142.514423	-12.083802	-125.341787
3.800000	-11.802840	-133.929898	-0.594227	139.502493	-0.594227	139.502493	-11.786034	-128.215508
3.850000	-11.531462	-136.987408	-0.619199	136.494649	-0.619199	136.494649	-11.514682	-131.084365
3.900000	-11.285200	-140.039681	-0.643506	133.490509	-0.643506	133.490509	-11.268309	-133.948183
3.950000	-11.062802	-143.087253	-0.666961	130.489567	-0.666961	130.489567	-11.045684	-136.806966
4.000000	-10.863199	-146.130813	-0.689380	127.491192	-0.689380	127.491192	-10.845762	-139.660885
4.050000	-10.685490	-149.171201	-0.710585	124.494627	-0.710585	124.494627	-10.667663	-142.510262
4.100000	-10.528925	-152.209405	-0.730401	121.498994	-0.730401	121.498994	-10.510658	-145.355562
4.150000	-10.392897	-155.246561	-0.748664	118.503293	-0.748664	118.503293	-10.374159	-148.197375
4.200000	-10.276936	-158.283945	-0.765216	115.506406	-0.765216	115.506406	-10.257715	-151.036406
4.250000	-10.180706	-161.322970	-0.779911	112.507100	-0.779911	112.507100	-10.161001	-153.873459
4.300000	-10.103999	-164.365181	-0.792613	109.504032	-0.792613	109.504032	-10.083826	-156.709424
4.350000	-10.046741	-167.412245	-0.803202	106.495746	-0.803202	106.495746	-10.026126	-159.545260
4.400000	-10.009206	-170.466042	-0.811544	103.480595	-0.811544	103.480595	-9.988183	-162.381998
4.450000	-9.991612	-173.528532	-0.817546	100.456860	-0.817546	100.456860	-9.970217	-165.220711
4.500000	-9.994105	-176.601646	-0.821160	97.422859	-0.821160	97.422859	-9.972378	-168.062433
4.550000	-10.017202	-179.687474	-0.822332	94.376744	-0.822332	94.376744	-9.995178	-170.908184
4.600000	-10.061595	177.211809	-0.821029	91.316586	-0.821029	91.316586	-10.039304	-173.758920
4.650000	-10.128172	174.093960	-0.817240	88.240381	-0.817240	88.240381	-10.105631	-176.615500
4.700000	-10.218038	170.956674	-0.810977	85.146059	-0.810977	85.146059	-10.195248	-179.478629
4.750000	-10.332548	167.797601	-0.802277	82.031487	-0.802277	82.031487	-10.309486	177.651205
4.800000	-10.473341	164.614356	-0.791207	78.894490	-0.791207	78.894490	-10.449954	174.773807
4.850000	-10.642393	161.404539	-0.777858	75.732852	-0.777858	75.732852	-10.618587	171.889388
4.900000	-10.842075	158.165749	-0.762355	72.544337	-0.762355	72.544337	-10.817705	168.998692
4.950000	-11.075235	154.895608	-0.744855	69.326705	-0.744855	69.326705	-11.050086	166.103181
5.000000	-11.345299	151.591782	-0.725545	66.077725	-0.725545	66.077725	-11.319069	163.205276
5.050000	-11.657138	148.251181	-0.704622	62.794421	-0.704622	62.794421	-11.629394	160.308843
5.100000	-12.015178	144.872390	-0.682390	59.475342	-0.682390	59.475342	-11.985326	157.419565
5.150000	-12.425653	141.453413	-0.659150	56.118439	-0.659150	56.118439	-12.392866	154.545587
5.200000	-12.896327	137.992447	-0.635243	52.721784	-0.635243	52.721784	-12.859446	151.698614
5.250000	-13.435836	134.489159	-0.611044	49.284768	-0.611044	49.284768	-13.393243	148.893729
5.300000	-14.058857	130.940167	-0.586956	45.803740	-0.586956	45.803740	-14.008121	146.157497
5.350000	-14.781619	127.345237	-0.563448	42.277857	-0.563448	42.277857	-14.719088	143.526266
5.400000	-15.626612	123.704397	-0.541010	38.706247	-0.541010	38.706247	-15.546564	141.055547
5.450000	-16.625680	120.018397	-0.520157	35.088245	-0.520157	35.088245	-16.518680	138.833140
5.500000	-17.826017	116.289155	-0.501435	31.423421	-0.501435	31.423421	-17.675442	137.005872
5.550000	-19.302355	112.520644	-0.485433	27.711357	-0.485433	27.711357	-19.076027	135.845658
5.600000	-21.179592	108.722512	-0.472657	23.953454	-0.472657	23.953454	-20.808860	135.836863
5.650000	-23.705023	104.915813	-0.463773	20.149439	-0.463773	20.149439	-23.012670	138.133608
5.700000	-27.463842	101.173066	-0.459378	16.300705	-0.459378	16.300705	-25.857289	145.691336
5.750000	-34.612161	97.978976	-0.459986	12.409615	-0.459986	12.409615	-29.107924	166.283045
5.800000	-42.145941	-137.663123	-0.466123	8.478538	-0.466123	8.478538	-29.978977	-155.149449
5.850000	-30.159748	-92.318425	-0.478274	4.510333	-0.478274	4.510333	-26.996062	-125.890233
5.900000	-24.924711	-96.039123	-0.496867	0.508321	-0.496867	0.508321	-23.644615	-113.926784
5.950000	-21.636752	-100.037771	-0.522262	-3.523757	-0.522262	-3.523757	-20.946275	-109.945787
6.000000	-19.233468	-104.129954	-0.554737	-7.581807	-0.554737	-7.581807	-18.795183	-109.345972
6.050000	-17.342257	-108.272172	-0.594482	-11.661450	-0.594482	-11.661450	-17.034264	-110.398236
6.100000	-15.788252	-112.446082	-0.641586	-15.758116	-0.641586	-15.758116	-15.556400	-112.365539
6.150000	-14.475059	-116.640747	-0.695959	-19.867069	-0.695959	-19.867069	-14.291747	-114.884245
6.200000	-13.344238	-120.848695	-0.757662	-23.983871	-0.757662	-23.983871	-13.193814	-117.767644
6.250000	-12.357092	-125.063303	-0.826343	-28.103810	-0.826343	-28.103810	-12.230128	-120.892370
6.300000	-11.487066	-129.279161	-0.901715	-32.222543	-0.901715	-32.222543	-11.377502	-124.186435
6.350000	-10.714571	-133.491584	-0.983258	-36.336103	-0.983258	-36.336103	-10.618365	-127.598719
6.400000	-10.025020	-137.696629	-1.070423	-40.440999	-1.070423	-40.440999	-9.939369	-131.095228
6.450000	-9.407129	-141.891021	-1.162578	-44.534265	-1.162578	-44.534265	-9.330035	-134.651413
6.500000	-8.851951	-146.072165	-1.259014	-48.613527	-1.259014	-48.613527	-8.781956	-138.249190
6.550000	-8.352243	-150.238162	-1.358960	-52.677064	-1.358960	-52.677064	-8.288264	-141.875106
6.600000	-7.902231	-154.387692	-1.461597	-56.723707	-1.461597	-56.723707	-7.843447	-145.519252
6.650000	-7.496799	-158.520392	-1.566037	-60.753253	-1.566037	-60.753253	-7.442580	-149.174163
6.700000	-7.131672	-162.636595	-1.671385	-64.766210	-1.671385	-64.766210	-7.081527	-152.834707
6.750000	-6.803265	-166.737314	-1.776728	-68.763795	-1.776728	-68.763795	-6.756804	-156.497573
6.800000	-6.508696	-170.824186	-1.881120	-72.747895	-1.881120	-72.747895	-6.465604	-160.160963
6.850000	-6.244860	-174.899887	-1.983707	-76.721467	-1.983707	-76.721467	-6.204879	-163.824391
6.900000	-6.010056	-178.967301	-2.083490	-80.687772	-2.083490	-80.687772	-5.972968	-167.488550
6.950000	-5.802371	176.969610	-2.179536	-84.651210	-2.179536	-84.651210	-5.767990	-171.155254
7.000000	-5.619984	172.906212	-2.271003	-88.616905	-2.271003	-88.616905	-5.588145	-174.827255
7.050000	-5.461596	168.837262	-2.357024	-92.590687	-2.357024	-92.590687	-5.432152	-178.508226
7.100000	-5.326185	164.756810	-2.436758	-96.579187	-2.436758	-96.579187	-5.299001	177.797281
7.150000	-5.212998	160.658164	-2.509390	-100.589878	-2.509390	-100.589878	-5.187947	174.083853
7.200000	-5.121555	156.533862	-2.574137	-104.631125	-2.574137	-104.631125	-5.098513	170.345217
7.250000	-5.051650	152.375619	-2.630254	-108.712244	-2.630254	-108.712244	-5.030498	166.574218
7.300000	-5.003375	148.174264	-2.677035	-112.843589	-2.677035	-112.843589	-4.983993	162.762786
7.350000	-4.977137	143.919668	-2.713827	-117.036643	-2.713827	-117.036643	-4.959403	158.901894
7.400000	-4.973692	139.600653	-2.740042	-121.304136	-2.740042	-121.304136	-4.957483	154.981488
7.450000	-4.994194	135.204890	-2.755167	-125.660176	-2.755167	-125.660176	-4.979380	150.990418
7.500000	-5.040247	130.718787	-2.758791	-130.120398	-2.758791	-130.120398	-5.026690	146.916356
7.550000	-5.114625	126.124701	-2.750368	-134.705210	-2.750368	-134.705210	-5.102174	142.743256
7.600000	-5.219554	121.407995	-2.730040	-139.431672	-2.730040	-139.431672	-5.208051	138.457862
7.650000	-5.358549	116.550443	-2.697909	-144.321131	-2.697909	-144.321131	-5.347822	134.043679
7.700000	-5.535999	111.532080	-2.654352	-149.397103	-2.654352	-149.397103	-5.525861	129.482706
7.750000	-5.756154	106.336677	-2.600366	-154.678893	-2.600366	-154.678893	-5.746411	124.760446
7.800000	-6.027631	100.931411	-2.536560	-160.205209	-2.536560	-160.205209	-6.018064	119.847431
7.850000	-6.358106	95.292456	-2.464789	-166.004220	-2.464789	-166.004220	-6.348502	114.722542
7.900000	-6.757124	89.392883	-2.387441	-172.107164	-2.387441	-172.107164	-6.747300	109.361886
7.950000	-7.236096	83.202900	-2.307592	-178.547118	-2.307592	-178.547118	-7.225963	103.738781
8.000000	-7.808392	76.688264	-2.229111	174.641183	-2.229111	174.641183	-7.798090	97.821709
8.050000	-8.488946	69.807922	-2.156736	167.422802	-2.156736	167.422802	-8.479133	91.570790
8.100000	-9.293354	62.507231	-2.096059	159.763252	-2.096059	159.763252	-9.285809	84.928620
8.150000	-10.235820	54.699879	-2.053601	151.625967	-2.053601	151.625967	-10.234732	77.797104
8.200000	-11.323197	46.240586	-2.036573	142.976548	-2.036573	142.976548	-11.337750	69.998501
8.250000	-12.544772	36.868733	-2.052638	133.781340	-2.052638	133.781340	-12.593867	61.196186
8.300000	-13.850291	26.103952	-2.110493	123.997345	-2.110493	123.997345	-13.969591	50.741403
8.350000	-15.108628	13.170832	-2.220338	113.573022	-2.220338	113.573022	-15.352706	37.518039
8.400000	-16.028603	-2.950642	-2.397792	102.422772	-2.397792	102.422772	-16.436967	19.919652
8.450000	-16.173040	-22.455551	-2.664620	90.464100	-2.664620	90.464100	-16.663058	-2.506401
8.500000	-15.218841	-43.636950	-3.056133	77.612540	-3.056133	77.612540	-15.575296	-26.870408
8.550000	-13.341157	-64.042031	-3.625605	63.844310	-3.625605	63.844310	-13.455017	-49.144160
8.600000	-11.063342	-82.804941	-4.443729	49.297244	-4.443729	49.297244	-10.992889	-68.417528
8.650000	-8.854793	-100.302795	-5.579042	34.388237	-5.579042	34.388237	-8.690315	-85.699508
8.700000	-6.970839	-116.787241	-7.073084	19.806218	-7.073084	19.806218	-6.772279	-101.656738
8.750000	-5.496334	-132.117236	-8.909968	6.349801	-8.909968	6.349801	-5.294426	-116.348602
8.800000	-4.403877	-146.028662	-11.019265	-5.313614	-11.019265	-5.313614	-4.212480	-129.598615
8.850000	-3.615058	-158.405081	-13.302791	-14.803422	-13.302791	-14.803422	-3.439503	-141.327557
8.900000	-3.044865	-169.329924	-15.670748	-22.024027	-15.670748	-22.024027	-2.886468	-151.632568
8.950000	-2.629097	-178.948339	-18.022706	-26.967991	-18.022706	-26.967991	-2.487432	-160.663445
9.000000	-2.318160	172.519833	-20.284337	-29.811672	-20.284337	-29.811672	-2.192045	-168.639402
9.050000	-2.079839	164.884106	-22.379215	-30.825754	-22.379215	-30.825754	-1.967869	-175.748936
9.100000	-1.893293	157.992128	-24.230273	-30.421109	-24.230273	-30.421109	-1.794057	177.857764
9.150000	-1.743766	151.704957	-25.800571	-29.196950	-25.800571	-29.196950	-1.655963	172.044582
9.200000	-1.621573	145.916515	-27.086584	-27.790054	-27.086584	-27.790054	-1.544042	166.707896
9.250000	-1.520259	140.547920	-28.116817	-26.747112	-28.116817	-26.747112	-1.451974	161.770756
9.300000	-1.434923	135.528667	-28.949665	-26.408305	-28.949665	-26.408305	-1.374997	157.164729
9.350000	-1.362177	130.805915	-29.640546	-26.910816	-29.640546	-26.910816	-1.309841	152.838577
9.400000	-1.299513	126.336979	-30.234855	-28.249976	-30.234855	-28.249976	-1.254097	148.750984
9.450000	-1.245156	122.090645	-30.763241	-30.357999	-30.763241	-30.357999	-1.206065	144.871643
9.500000	-1.197552	118.035793	-31.246853	-33.117374	-31.246853	-33.117374	-1.164272	141.170560
9.550000	-1.155158	114.135788	-31.701366	-36.376831	-31.701366	-36.376831	-1.127262	137.612904
9.600000	-1.117911	110.397756	-32.122955	-40.116572	-32.122955	-40.116572	-1.094959	134.204415
9.650000	-1.084270	106.777950	-32.523029	-44.168076	-32.523029	-44.168076	-1.065927	130.904117
9.700000	-1.054271	103.283893	-32.894102	-48.503744	-32.894102	-48.503744	-1.040181	127.718117
9.750000	-1.027016	99.888509	-33.241223	-53.019794	-33.241223	-53.019794	-1.016890	124.621139
9.800000	-1.002319	96.589353	-33.560651	-57.665131	-33.560651	-57.665131	-0.995869	121.610274
9.850000	-0.979808	93.375859	-33.852747	-62.380600	-33.852747	-62.380600	-0.976766	118.675402
9.900000	-0.959134	90.237291	-34.119193	-67.114214	-34.119193	-67.114214	-0.959257	115.806363
9.950000	-0.940233	87.174152	-34.357487	-71.821363	-34.357487	-71.821363	-0.943266	113.002926
10.000000	-0.922679	84.170244	-34.573956	-76.471948	-34.573956	-76.471948	-0.928409	110.250441
