! freq	dB(S11)	phase(S11)	dB(S12)	phase(S12)	
!     	dB(S21)	phase(S21)	dB(S22)	phase(S22)	
!S-par simulation data
#  GHz  S  DB  R 50
0.000000	-0.000000	-0.000000	-319.729401	180.000000	-319.729401	180.000000	-0.000000	-0.000000
0.050000	-0.001601	-2.661906	-94.242261	88.235642	-94.242261	88.235642	-0.001099	-0.974099
0.100000	-0.005613	-5.312504	-88.243117	86.475222	-88.243117	86.475222	-0.002575	-1.938155
0.150000	-0.010551	-7.948403	-84.757100	84.722712	-84.757100	84.722712	-0.003621	-2.898966
0.200000	-0.015418	-10.572212	-82.307389	82.981719	-82.307389	82.981719	-0.004483	-3.859293
0.250000	-0.019822	-13.186725	-80.432814	81.256616	-80.432814	81.256616	-0.005324	-4.819444
0.300000	-0.023722	-15.793743	-78.927961	79.551938	-78.927961	79.551938	-0.006220	-5.779267
0.350000	-0.027219	-18.394015	-77.681680	77.871259	-77.681680	77.871259	-0.007195	-6.738591
0.400000	-0.030412	-20.987168	-76.628882	76.219015	-76.628882	76.219015	-0.008258	-7.697266
0.450000	-0.033377	-23.572058	-75.729433	74.601180	-75.729433	74.601180	-0.009416	-8.655136
0.500000	-0.036195	-26.148136	-74.952607	73.020162	-74.952607	73.020162	-0.010666	-9.612148
0.550000	-0.038912	-28.714436	-74.278160	71.478957	-74.278160	71.478957	-0.012015	-10.568230
0.600000	-0.041560	-31.269448	-73.692955	69.980731	-73.692955	69.980731	-0.013486	-11.523248
0.650000	-0.044167	-33.812601	-73.183056	68.524375	-73.183056	68.524375	-0.015123	-12.477059
0.700000	-0.046748	-36.343150	-72.736928	67.118491	-72.736928	67.118491	-0.017030	-13.429070
0.750000	-0.049315	-38.859856	-72.347409	65.794820	-72.347409	65.794820	-0.019362	-14.376379
0.800000	-0.051873	-41.361957	-72.011486	64.581890	-72.011486	64.581890	-0.021043	-15.311731
0.850000	-0.054426	-43.848910	-71.727122	63.483029	-71.727122	63.483029	-0.020002	-16.253090
0.900000	-0.056973	-46.320103	-71.491003	62.497788	-71.491003	62.497788	-0.020044	-17.207677
0.950000	-0.059515	-48.774875	-71.299597	61.633915	-71.299597	61.633915	-0.021198	-18.159612
1.000000	-0.062047	-51.212682	-71.149570	60.904959	-71.149570	60.904959	-0.022598	-19.107978
1.050000	-0.064567	-53.633030	-71.037986	60.328304	-71.037986	60.328304	-0.024031	-20.053905
1.100000	-0.067071	-56.035482	-70.962111	59.924171	-70.962111	59.924171	-0.025454	-20.997968
1.150000	-0.069555	-58.419648	-70.919196	59.715405	-70.919196	59.715405	-0.026858	-21.940434
1.200000	-0.072015	-60.785189	-70.906252	59.727489	-70.906252	59.727489	-0.028243	-22.881435
1.250000	-0.074447	-63.131814	-70.919822	59.988496	-70.919822	59.988496	-0.029608	-23.821037
1.300000	-0.076846	-65.458855	-70.956076	60.535587	-70.956076	60.535587	-0.030954	-24.759242
1.350000	-0.079209	-67.766524	-71.009129	61.395253	-71.009129	61.395253	-0.032283	-25.696097
1.400000	-0.081535	-70.054664	-71.072311	62.599177	-71.072311	62.599177	-0.033596	-26.631603
1.450000	-0.083819	-72.323158	-71.137278	64.176191	-71.137278	64.176191	-0.034894	-27.565759
1.500000	-0.086059	-74.571928	-71.193792	66.148330	-71.193792	66.148330	-0.036178	-28.498556
1.550000	-0.088255	-76.800930	-71.229698	68.525509	-71.229698	68.525509	-0.037450	-29.429982
1.600000	-0.090405	-79.010157	-71.231249	71.299186	-71.231249	71.299186	-0.038710	-30.360024
1.650000	-0.092508	-81.199632	-71.183941	74.436125	-71.183941	74.436125	-0.039959	-31.288666
1.700000	-0.094564	-83.369410	-71.073894	77.874133	-71.073894	77.874133	-0.041199	-32.215890
1.750000	-0.096573	-85.519574	-70.889662	81.522121	-70.889662	81.522121	-0.042430	-33.141679
1.800000	-0.098535	-87.650232	-70.624047	85.266177	-70.624047	85.266177	-0.043655	-34.066013
1.850000	-0.100451	-89.761521	-70.275367	88.981476	-70.275367	88.981476	-0.044872	-34.988873
1.900000	-0.102323	-91.853391	-69.846669	92.544538	-69.846669	92.544538	-0.046085	-35.910221
1.950000	-0.104150	-93.926027	-69.347084	95.850288	-69.347084	95.850288	-0.047293	-36.830038
2.000000	-0.105937	-95.979838	-68.789994	98.827082	-68.789994	98.827082	-0.048498	-37.748318
2.050000	-0.107684	-98.015043	-68.188942	101.431278	-68.188942	101.431278	-0.049700	-38.665042
2.100000	-0.109394	-100.031876	-67.557091	103.645804	-67.557091	103.645804	-0.050901	-39.580188
2.150000	-0.111069	-102.030588	-66.906186	105.474320	-66.906186	105.474320	-0.052101	-40.493737
2.200000	-0.112711	-104.011440	-66.246052	106.934742	-66.246052	106.934742	-0.053301	-41.405669
2.250000	-0.114324	-105.974710	-65.584501	108.053492	-65.584501	108.053492	-0.054502	-42.315964
2.300000	-0.115910	-107.920685	-64.927486	108.861054	-64.927486	108.861054	-0.055704	-43.224602
2.350000	-0.117472	-109.849660	-64.279378	109.388886	-64.279378	109.388886	-0.056908	-44.131566
2.400000	-0.119012	-111.761942	-63.643258	109.667470	-63.643258	109.667470	-0.058116	-45.036836
2.450000	-0.120533	-113.657846	-63.021204	109.725214	-63.021204	109.725214	-0.059326	-45.940396
2.500000	-0.122038	-115.537690	-62.414526	109.587935	-62.414526	109.587935	-0.060541	-46.842227
2.550000	-0.123529	-117.401299	-61.823228	109.273699	-61.823228	109.273699	-0.061761	-47.742256
2.600000	-0.125009	-119.249531	-61.248522	108.809140	-61.248522	108.809140	-0.062986	-48.640523
2.650000	-0.126482	-121.082723	-60.690404	108.211921	-60.690404	108.211921	-0.064217	-49.537013
2.700000	-0.127949	-122.901213	-60.148669	107.497485	-60.148669	107.497485	-0.065455	-50.431712
2.750000	-0.129413	-124.705346	-59.622971	106.679308	-59.622971	106.679308	-0.066699	-51.324605
2.800000	-0.130876	-126.495466	-59.112872	105.769138	-59.112872	105.769138	-0.067952	-52.215679
2.850000	-0.132341	-128.271921	-58.617876	104.777216	-58.617876	104.777216	-0.069212	-53.104923
2.900000	-0.133810	-130.035058	-58.137456	103.712476	-58.137456	103.712476	-0.070480	-53.992323
2.950000	-0.135285	-131.785226	-57.671070	102.582719	-57.671070	102.582719	-0.071758	-54.877870
3.000000	-0.136767	-133.522775	-57.218171	101.394764	-57.218171	101.394764	-0.073045	-55.761553
3.050000	-0.138259	-135.248052	-56.778225	100.154584	-56.778225	100.154584	-0.074342	-56.643363
3.100000	-0.139762	-136.961407	-56.350705	98.867416	-56.350705	98.867416	-0.075649	-57.523290
3.150000	-0.141278	-138.663188	-55.935104	97.537861	-55.935104	97.537861	-0.076968	-58.401327
3.200000	-0.142809	-140.353739	-55.530935	96.169963	-55.530935	96.169963	-0.078297	-59.277467
3.250000	-0.144355	-142.033407	-55.137729	94.767288	-55.137729	94.767288	-0.079639	-60.151703
3.300000	-0.145918	-143.702535	-54.755041	93.332977	-54.755041	93.332977	-0.080992	-61.024030
3.350000	-0.147500	-145.361465	-54.382447	91.869803	-54.382447	91.869803	-0.082359	-61.894442
3.400000	-0.149100	-147.010535	-54.019541	90.380216	-54.019541	90.380216	-0.083738	-62.762936
3.450000	-0.150721	-148.650083	-53.665942	88.866378	-53.665942	88.866378	-0.085131	-63.629508
3.500000	-0.152363	-150.280445	-53.321286	87.330199	-53.321286	87.330199	-0.086538	-64.494155
3.550000	-0.154026	-151.901952	-52.985228	85.773363	-52.985228	85.773363	-0.087960	-65.356877
3.600000	-0.155712	-153.514935	-52.657441	84.197356	-52.657441	84.197356	-0.089396	-66.217671
3.650000	-0.157421	-155.119720	-52.337616	82.603479	-52.337616	82.603479	-0.090848	-67.076537
3.700000	-0.159153	-156.716633	-52.025459	80.992874	-52.025459	80.992874	-0.092316	-67.933477
3.750000	-0.160910	-158.305995	-51.720690	79.366533	-51.720690	79.366533	-0.093800	-68.788490
3.800000	-0.162691	-159.887826	-51.422912	77.724703	-51.422912	77.724703	-0.095302	-69.641496
3.850000	-0.164497	-161.462769	-51.132024	76.068783	-51.132024	76.068783	-0.096821	-70.492581
3.900000	-0.166328	-163.031137	-50.847787	74.399375	-50.847787	74.399375	-0.098358	-71.341749
3.950000	-0.168184	-164.593240	-50.569969	72.716975	-50.569969	72.716975	-0.099912	-72.189003
4.000000	-0.170065	-166.149386	-50.298353	71.021975	-50.298353	71.021975	-0.101486	-73.034350
4.050000	-0.171971	-167.699878	-50.032728	69.314670	-50.032728	69.314670	-0.103079	-73.877796
4.100000	-0.173902	-169.245019	-49.772895	67.595258	-49.772895	67.595258	-0.104691	-74.719346
4.150000	-0.175858	-170.785106	-49.518662	65.863843	-49.518662	65.863843	-0.106324	-75.559009
4.200000	-0.177839	-172.320437	-49.269845	64.120434	-49.269845	64.120434	-0.107977	-76.396792
4.250000	-0.179845	-173.851304	-49.026266	62.364947	-49.026266	62.364947	-0.109652	-77.232705
4.300000	-0.181876	-175.377999	-48.787753	60.597194	-48.787753	60.597194	-0.111348	-78.066759
4.350000	-0.183931	-176.900812	-48.554141	58.816888	-48.554141	58.816888	-0.113067	-78.898963
4.400000	-0.186011	-178.420029	-48.325267	57.023633	-48.325267	57.023633	-0.114808	-79.729330
4.450000	-0.188115	-179.935934	-48.100974	55.216912	-48.100974	55.216912	-0.116572	-80.557871
4.500000	-0.190244	178.551189	-47.881106	53.396086	-47.881106	53.396086	-0.118360	-81.384602
4.550000	-0.192397	177.041057	-47.665509	51.560373	-47.665509	51.560373	-0.120172	-82.209537
4.600000	-0.194575	175.533392	-47.454030	49.708837	-47.454030	49.708837	-0.122009	-83.032690
4.650000	-0.196777	174.027913	-47.246515	47.840369	-47.246515	47.840369	-0.123872	-83.854080
4.700000	-0.199002	172.524340	-47.042807	45.953662	-47.042807	45.953662	-0.125760	-84.673724
4.750000	-0.201253	171.022395	-46.842748	44.047184	-46.842748	44.047184	-0.127675	-85.491643
4.800000	-0.203527	169.521797	-46.646172	42.119145	-46.646172	42.119145	-0.129617	-86.307856
4.850000	-0.205827	168.022265	-46.452905	40.167452	-46.452905	40.167452	-0.131587	-87.122386
4.900000	-0.208152	166.523514	-46.262762	38.189660	-46.262762	38.189660	-0.133585	-87.935259
4.950000	-0.210503	165.025258	-46.075543	36.182910	-46.075543	36.182910	-0.135612	-88.746500
5.000000	-0.212881	163.527204	-45.891031	34.143845	-45.891031	34.143845	-0.137669	-89.556139
5.050000	-0.215288	162.029034	-45.708911	32.066717	-45.708911	32.066717	-0.139758	-90.364142
5.100000	-0.217724	160.530431	-45.528955	29.948149	-45.528955	29.948149	-0.141878	-91.170613
5.150000	-0.220192	159.031073	-45.350831	27.782452	-45.350831	27.782452	-0.144031	-91.975593
5.200000	-0.222695	157.530622	-45.174153	25.562815	-45.174153	25.562815	-0.146217	-92.779127
5.250000	-0.225235	156.028720	-44.998453	23.281034	-44.998453	23.281034	-0.148438	-93.581266
5.300000	-0.227818	154.524981	-44.823159	20.927153	-44.823159	20.927153	-0.150696	-94.382069
5.350000	-0.230449	153.018982	-44.647561	18.488984	-44.647561	18.488984	-0.152991	-95.181606
5.400000	-0.233138	151.510250	-44.470756	15.951477	-44.470756	15.951477	-0.155327	-95.979958
5.450000	-0.235895	149.998247	-44.291580	13.295848	-44.291580	13.295848	-0.157706	-96.777225
5.500000	-0.238736	148.482345	-44.108496	10.498389	-44.108496	10.498389	-0.160132	-97.573528
5.550000	-0.241684	146.961788	-43.919440	7.528791	-43.919440	7.528791	-0.162610	-98.369020
5.600000	-0.244769	145.435645	-43.721576	4.347754	-43.721576	4.347754	-0.165148	-99.163898
5.650000	-0.248006	143.903805	-43.513994	0.946466	-43.513994	0.946466	-0.167745	-99.958422
5.700000	-0.251521	142.362713	-43.285715	-2.822241	-43.285715	-2.822241	-0.170436	-100.752877
5.750000	-0.255398	140.811178	-43.030749	-7.016166	-43.030749	-7.016166	-0.173237	-101.547800
5.800000	-0.259818	139.246150	-42.736259	-11.767167	-42.736259	-11.767167	-0.176188	-102.343897
5.850000	-0.265059	137.663771	-42.385014	-17.235514	-42.385014	-17.235514	-0.179351	-103.142124
5.900000	-0.271761	136.055655	-41.938931	-23.750569	-41.938931	-23.750569	-0.182873	-103.944326
5.950000	-0.281077	134.410393	-41.343626	-31.714748	-41.343626	-31.714748	-0.187016	-104.753262
6.000000	-0.295557	132.707751	-40.504797	-41.772019	-40.504797	-41.772019	-0.192366	-105.573742
6.050000	-0.322243	130.906550	-39.233693	-55.138987	-39.233693	-55.138987	-0.200555	-106.415450
6.100000	-0.383768	128.935923	-37.194350	-74.180489	-37.194350	-74.180489	-0.216839	-107.295008
6.150000	-0.570600	126.853312	-33.920574	-105.231002	-33.920574	-105.231002	-0.261996	-108.198384
6.200000	-0.962499	127.283812	-30.819417	-164.908951	-30.819417	-164.908951	-0.353684	-108.539550
6.250000	-0.618876	128.338618	-33.420248	131.233451	-33.420248	131.233451	-0.283340	-108.703289
6.300000	-0.407108	126.295519	-36.785762	97.042291	-36.785762	97.042291	-0.235902	-109.567420
6.350000	-0.342792	124.280180	-38.815015	76.214116	-38.815015	76.214116	-0.222364	-110.439276
6.400000	-0.318837	122.435938	-39.971441	61.654835	-39.971441	61.654835	-0.218636	-111.273185
6.450000	-0.308408	120.687357	-40.649658	50.708055	-40.649658	50.708055	-0.218309	-112.083855
6.500000	-0.303895	118.993947	-41.045297	42.198901	-41.045297	42.198901	-0.219519	-112.879922
6.550000	-0.302149	117.331149	-41.282963	35.292274	-41.282963	35.292274	-0.221480	-113.666931
6.600000	-0.301986	115.687453	-41.419613	29.579428	-41.419613	29.579428	-0.223895	-114.447358
6.650000	-0.302689	114.054248	-41.497723	24.673097	-41.497723	24.673097	-0.226578	-115.223315
6.700000	-0.303995	112.427667	-41.533798	20.433541	-41.533798	20.433541	-0.229466	-115.995472
6.750000	-0.305637	110.803848	-41.546490	16.624675	-41.546490	16.624675	-0.232483	-116.765057
6.800000	-0.307545	109.181189	-41.541168	13.191457	-41.541168	13.191457	-0.235614	-117.532288
6.850000	-0.309641	107.558171	-41.523552	10.056812	-41.523552	10.056812	-0.238838	-118.297527
6.900000	-0.311878	105.933684	-41.497502	7.163576	-41.497502	7.163576	-0.242143	-119.061046
6.950000	-0.314222	104.306894	-41.465683	4.468613	-41.465683	4.468613	-0.245520	-119.823052
7.000000	-0.316650	102.677164	-41.429973	1.938864	-41.429973	1.938864	-0.248963	-120.583713
7.050000	-0.319144	101.043996	-41.391719	-0.451361	-41.391719	-0.451361	-0.252467	-121.343163
7.100000	-0.321695	99.406994	-41.351898	-2.722275	-41.351898	-2.722275	-0.256030	-122.101513
7.150000	-0.324292	97.765843	-41.311231	-4.889955	-41.311231	-4.889955	-0.259649	-122.858861
7.200000	-0.326930	96.120286	-41.270249	-6.967316	-41.270249	-6.967316	-0.263323	-123.615291
7.250000	-0.329604	94.470117	-41.229349	-8.964822	-41.229349	-8.964822	-0.267051	-124.370877
7.300000	-0.332310	92.815382	-41.188803	-10.893702	-41.188803	-10.893702	-0.270828	-125.125717
7.350000	-0.335047	91.155460	-41.148869	-12.754751	-41.148869	-12.754751	-0.274661	-125.879803
7.400000	-0.337813	89.490505	-41.109687	-14.557455	-41.109687	-14.557455	-0.278544	-126.633235
7.450000	-0.340606	87.820430	-41.071365	-16.306604	-41.071365	-16.306604	-0.282479	-127.386067
7.500000	-0.343427	86.145168	-41.033973	-18.006196	-41.033973	-18.006196	-0.286465	-128.138350
7.550000	-0.346274	84.464552	-40.997570	-19.658644	-40.997570	-19.658644	-0.290502	-128.890124
7.600000	-0.349149	82.778663	-40.962152	-21.267811	-40.962152	-21.267811	-0.294590	-129.641450
7.650000	-0.352051	81.087481	-40.927711	-22.836050	-40.927711	-22.836050	-0.298728	-130.392373
7.700000	-0.354982	79.390998	-40.894222	-24.365351	-40.894222	-24.365351	-0.302918	-131.142940
7.750000	-0.357943	77.689221	-40.861644	-25.857404	-40.861644	-25.857404	-0.307158	-131.893195
7.800000	-0.360934	75.982165	-40.829920	-27.313647	-40.829920	-27.313647	-0.311448	-132.643183
7.850000	-0.363958	74.269859	-40.798983	-28.735309	-40.798983	-28.735309	-0.315790	-133.392947
7.900000	-0.367016	72.552340	-40.768752	-30.123444	-40.768752	-30.123444	-0.320182	-134.142530
7.950000	-0.370110	70.829654	-40.739138	-31.478963	-40.739138	-31.478963	-0.324626	-134.891976
8.000000	-0.373244	69.101859	-40.710040	-32.802658	-40.710040	-32.802658	-0.329121	-135.641328
8.050000	-0.376419	67.369020	-40.681349	-34.095223	-40.681349	-34.095223	-0.333667	-136.390629
8.100000	-0.379638	65.631212	-40.652946	-35.357279	-40.652946	-35.357279	-0.338265	-137.139921
8.150000	-0.382904	63.888466	-40.624705	-36.589065	-40.624705	-36.589065	-0.342915	-137.889248
8.200000	-0.386222	62.140877	-40.596488	-37.791112	-40.596488	-37.791112	-0.347617	-138.638655
8.250000	-0.389594	60.388598	-40.568153	-38.964231	-40.568153	-38.964231	-0.352372	-139.388184
8.300000	-0.393023	58.631737	-40.539552	-40.108888	-40.539552	-40.108888	-0.357178	-140.137878
8.350000	-0.396521	56.870034	-40.510472	-41.223155	-40.510472	-41.223155	-0.362041	-140.887804
8.400000	-0.400079	55.104422	-40.480872	-42.312609	-40.480872	-42.312609	-0.366952	-141.637961
8.450000	-0.403708	53.334595	-40.450536	-43.374989	-40.450536	-43.374989	-0.371916	-142.388412
8.500000	-0.407413	51.560691	-40.419297	-44.410793	-40.419297	-44.410793	-0.376932	-143.139203
8.550000	-0.411199	49.782854	-40.386988	-45.420540	-40.386988	-45.420540	-0.382001	-143.890378
8.600000	-0.415072	48.001235	-40.353435	-46.404785	-40.353435	-46.404785	-0.387124	-144.641980
8.650000	-0.419037	46.215993	-40.318464	-47.364119	-40.318464	-47.364119	-0.392300	-145.394056
8.700000	-0.423101	44.427291	-40.281902	-48.299175	-40.281902	-48.299175	-0.397529	-146.146649
8.750000	-0.427270	42.635301	-40.243572	-49.210634	-40.243572	-49.210634	-0.402812	-146.899805
8.800000	-0.431555	40.840071	-40.203201	-50.098266	-40.203201	-50.098266	-0.408150	-147.653599
8.850000	-0.435961	39.041928	-40.160698	-50.963887	-40.160698	-50.963887	-0.413543	-148.408053
8.900000	-0.440493	37.241060	-40.115895	-51.808335	-40.115895	-51.808335	-0.418990	-149.163212
8.950000	-0.445159	35.437660	-40.068625	-52.632506	-40.068625	-52.632506	-0.424491	-149.919123
9.000000	-0.449961	33.632048	-40.018889	-53.438360	-40.018889	-53.438360	-0.430043	-150.675789
9.050000	-0.454920	31.824198	-39.966249	-54.225000	-39.966249	-54.225000	-0.435652	-151.433335
9.100000	-0.460038	30.014421	-39.910675	-54.994328	-39.910675	-54.994328	-0.441316	-152.191774
9.150000	-0.465324	28.202931	-39.852022	-55.747443	-39.852022	-55.747443	-0.447035	-152.951155
9.200000	-0.470789	26.389944	-39.790155	-56.485485	-39.790155	-56.485485	-0.452808	-153.711527
9.250000	-0.476441	24.575680	-39.724942	-57.209639	-39.724942	-57.209639	-0.458636	-154.472938
9.300000	-0.482291	22.760363	-39.656263	-57.921127	-39.656263	-57.921127	-0.464520	-155.235437
9.350000	-0.488349	20.944220	-39.584005	-58.621205	-39.584005	-58.621205	-0.470458	-155.999075
9.400000	-0.494628	19.127477	-39.508017	-59.311066	-39.508017	-59.311066	-0.476452	-156.763915
9.450000	-0.501138	17.310375	-39.428198	-59.992066	-39.428198	-59.992066	-0.482503	-157.530008
9.500000	-0.507889	15.493155	-39.344513	-60.665648	-39.344513	-60.665648	-0.488608	-158.297394
9.550000	-0.514892	13.676057	-39.256885	-61.333160	-39.256885	-61.333160	-0.494770	-159.066123
9.600000	-0.522158	11.859319	-39.165251	-61.995959	-39.165251	-61.995959	-0.500987	-159.836247
9.650000	-0.529700	10.043182	-39.069553	-62.655408	-39.069553	-62.655408	-0.507259	-160.607818
9.700000	-0.537529	8.227890	-38.969746	-63.312872	-38.969746	-63.312872	-0.513587	-161.380888
9.750000	-0.545658	6.413686	-38.865792	-63.969713	-38.865792	-63.969713	-0.519971	-162.155511
9.800000	-0.554098	4.600815	-38.757659	-64.627284	-38.757659	-64.627284	-0.526411	-162.931740
9.850000	-0.562863	2.789522	-38.645326	-65.286931	-38.645326	-65.286931	-0.532907	-163.709628
9.900000	-0.571965	0.980054	-38.528778	-65.949986	-38.528778	-65.949986	-0.539459	-164.489230
9.950000	-0.581416	-0.827344	-38.408007	-66.617768	-38.408007	-66.617768	-0.546066	-165.270599
10.000000	-0.591230	-2.632427	-38.283009	-67.291580	-38.283009	-67.291580	-0.552730	-166.053792
