! freq	dB(S11)	phase(S11)	dB(S12)	phase(S12)	
!     	dB(S21)	phase(S21)	dB(S22)	phase(S22)	
!S-par simulation data
#  GHz  S  DB  R 50
0.000000	-0.000000	0.000000	-301.856924	0.000000	-301.856924	0.000000	-0.000000	0.000000
0.050000	-0.001378	-2.581281	-97.381823	88.259281	-97.381823	88.259281	-0.000427	-0.976663
0.100000	-0.004747	-5.151914	-91.390878	86.523932	-91.390878	86.523932	-0.001543	-1.951704
0.150000	-0.008791	-7.709442	-87.918035	84.799251	-87.918035	84.799251	-0.003010	-2.924271
0.200000	-0.012762	-10.256184	-85.487917	83.090761	-85.487917	83.090761	-0.004559	-3.894358
0.250000	-0.016458	-12.794654	-83.638308	81.404223	-83.638308	81.404223	-0.006048	-4.862446
0.300000	-0.019915	-15.326046	-82.163544	79.745751	-82.163544	79.745751	-0.007438	-5.829078
0.350000	-0.023215	-17.850492	-80.954154	78.121929	-80.954154	78.121929	-0.008737	-6.794671
0.400000	-0.026422	-20.367540	-79.945040	76.539946	-79.945040	76.539946	-0.009971	-7.759480
0.450000	-0.029574	-22.876385	-79.095040	75.008345	-79.095040	75.008345	-0.011164	-8.723635
0.500000	-0.032689	-25.376223	-78.375638	73.536074	-78.375638	73.536074	-0.012340	-9.687198
0.550000	-0.035774	-27.866241	-77.766655	72.133270	-77.766655	72.133270	-0.013513	-10.650180
0.600000	-0.038826	-30.345600	-77.253656	70.812159	-77.253656	70.812159	-0.014694	-11.612565
0.650000	-0.041843	-32.813486	-76.825938	69.587601	-76.825938	69.587601	-0.015888	-12.574323
0.700000	-0.044818	-35.269121	-76.475535	68.478179	-76.475535	68.478179	-0.017100	-13.535418
0.750000	-0.047746	-37.711764	-76.196784	67.506712	-76.196784	67.506712	-0.018328	-14.495807
0.800000	-0.050623	-40.140717	-75.986105	66.697821	-75.986105	66.697821	-0.019571	-15.455447
0.850000	-0.053443	-42.554815	-75.843129	66.080614	-75.843129	66.080614	-0.020825	-16.414261
0.900000	-0.056208	-44.954265	-75.761367	65.668925	-75.761367	65.668925	-0.022085	-17.372243
0.950000	-0.058914	-47.338170	-75.738812	65.503851	-75.738812	65.503851	-0.023347	-18.329322
1.000000	-0.061561	-49.706003	-75.772236	65.636477	-75.772236	65.636477	-0.024605	-19.285438
1.050000	-0.064148	-52.057280	-75.858344	66.129727	-75.858344	66.129727	-0.025857	-20.240530
1.100000	-0.066675	-54.391564	-75.992817	67.058296	-75.992817	67.058296	-0.027097	-21.194533
1.150000	-0.069143	-56.708457	-76.169082	68.509765	-76.169082	68.509765	-0.028323	-22.147383
1.200000	-0.071553	-59.007608	-76.376771	70.584153	-76.376771	70.584153	-0.029535	-23.099018
1.250000	-0.073905	-61.288705	-76.599740	73.389008	-76.599740	73.389008	-0.030732	-24.049378
1.300000	-0.076200	-63.551075	-76.812727	77.045946	-76.812727	77.045946	-0.031916	-24.998379
1.350000	-0.078440	-65.794884	-76.980843	81.604663	-76.980843	81.604663	-0.033087	-25.946004
1.400000	-0.080627	-68.019942	-77.060174	87.052525	-77.060174	87.052525	-0.034249	-26.892214
1.450000	-0.082762	-70.226100	-77.003055	93.252018	-77.003055	93.252018	-0.035404	-27.836977
1.500000	-0.084846	-72.413242	-76.769438	99.919067	-76.769438	99.919067	-0.036554	-28.780267
1.550000	-0.086882	-74.581288	-76.340321	106.659196	-76.340321	106.659196	-0.037703	-29.722065
1.600000	-0.088871	-76.730191	-75.725103	113.061577	-75.725103	113.061577	-0.038852	-30.662354
1.650000	-0.090815	-78.859934	-74.957347	118.802208	-74.957347	118.802208	-0.040002	-31.601121
1.700000	-0.092716	-80.970532	-74.082224	123.699176	-74.082224	123.699176	-0.041156	-32.538356
1.750000	-0.094575	-83.062025	-73.143924	127.705623	-73.143924	127.705623	-0.042313	-33.474046
1.800000	-0.096395	-85.134483	-72.178373	130.867280	-72.178373	130.867280	-0.043476	-34.408183
1.850000	-0.098178	-87.187999	-71.211369	133.276874	-71.211369	133.276874	-0.044643	-35.340757
1.900000	-0.099926	-89.222485	-70.258965	135.035610	-70.258965	135.035610	-0.045816	-36.271739
1.950000	-0.101640	-91.238087	-69.331695	136.249700	-69.331695	136.249700	-0.046994	-37.201117
2.000000	-0.103323	-93.235168	-68.435892	137.016446	-68.435892	137.016446	-0.048178	-38.128899
2.050000	-0.104978	-95.213907	-67.573943	137.412211	-67.573943	137.412211	-0.049367	-39.055070
2.100000	-0.106606	-97.174500	-66.746386	137.500207	-66.746386	137.500207	-0.050562	-39.979618
2.150000	-0.108209	-99.117158	-65.952659	137.332206	-65.952659	137.332206	-0.051762	-40.902530
2.200000	-0.109791	-101.042109	-65.191571	136.950439	-65.191571	136.950439	-0.052967	-41.823791
2.250000	-0.111353	-102.949590	-64.461603	136.389356	-64.461603	136.389356	-0.054178	-42.743389
2.300000	-0.112896	-104.839853	-63.761096	135.677125	-63.761096	135.677125	-0.055393	-43.661308
2.350000	-0.114424	-106.713161	-63.088359	134.836867	-63.088359	134.836867	-0.056614	-44.577535
2.400000	-0.115938	-108.569785	-62.441738	133.887653	-62.441738	133.887653	-0.057840	-45.492055
2.450000	-0.117441	-110.410007	-61.819649	132.845294	-61.819649	132.845294	-0.059072	-46.404854
2.500000	-0.118934	-112.234114	-61.220602	131.722970	-61.220602	131.722970	-0.060309	-47.315917
2.550000	-0.120419	-114.041896	-60.642656	130.529755	-60.642656	130.529755	-0.061552	-48.225175
2.600000	-0.121899	-115.834180	-60.085150	129.277473	-60.085150	129.277473	-0.062802	-49.132670
2.650000	-0.123374	-117.611274	-59.546873	127.973881	-59.546873	127.973881	-0.064057	-50.038388
2.700000	-0.124848	-119.373488	-59.026705	126.625592	-59.026705	126.625592	-0.065319	-50.942318
2.750000	-0.126322	-121.121138	-58.523617	125.238275	-58.523617	125.238275	-0.066588	-51.844447
2.800000	-0.127797	-122.854539	-58.036658	123.816803	-58.036658	123.816803	-0.067864	-52.744763
2.850000	-0.129275	-124.574012	-57.564951	122.365390	-57.564951	122.365390	-0.069147	-53.643255
2.900000	-0.130757	-126.279878	-57.107689	120.887689	-57.107689	120.887689	-0.070438	-54.539912
2.950000	-0.132246	-127.972459	-56.664122	119.386883	-56.664122	119.386883	-0.071738	-55.434725
3.000000	-0.133743	-129.652077	-56.233561	117.865753	-56.233561	117.865753	-0.073046	-56.327683
3.050000	-0.135248	-131.319056	-55.815365	116.326736	-55.815365	116.326736	-0.074363	-57.218778
3.100000	-0.136764	-132.973717	-55.408940	114.771980	-55.408940	114.771980	-0.075690	-58.108002
3.150000	-0.138291	-134.616384	-55.013734	113.203378	-55.013734	113.203378	-0.077027	-58.995347
3.200000	-0.139831	-136.247376	-54.629234	111.622605	-54.629234	111.622605	-0.078374	-59.880806
3.250000	-0.141385	-137.867014	-54.254963	110.031151	-54.254963	110.031151	-0.079732	-60.764372
3.300000	-0.142954	-139.475615	-53.890475	108.430338	-53.890475	108.430338	-0.081101	-61.646041
3.350000	-0.144538	-141.073794	-53.535502	106.821547	-53.535502	106.821547	-0.082482	-62.525863
3.400000	-0.146140	-142.661120	-53.189283	105.205323	-53.189283	105.205323	-0.083876	-63.403697
3.450000	-0.147760	-144.238511	-52.851758	103.583040	-52.851758	103.583040	-0.085282	-64.279650
3.500000	-0.149398	-145.806264	-52.522570	101.955514	-52.522570	101.955514	-0.086702	-65.153720
3.550000	-0.151055	-147.364669	-52.201387	100.323481	-52.201387	100.323481	-0.088135	-66.025905
3.600000	-0.152735	-148.913046	-51.887494	98.687253	-51.887494	98.687253	-0.089584	-66.895995
3.650000	-0.154436	-150.452654	-51.581029	97.047884	-51.581029	97.047884	-0.091048	-67.764186
3.700000	-0.156159	-151.983826	-51.281735	95.405936	-51.281735	95.405936	-0.092527	-68.630490
3.750000	-0.157905	-153.506839	-50.989350	93.761897	-50.989350	93.761897	-0.094022	-69.494908
3.800000	-0.159675	-155.021959	-50.703626	92.116215	-50.703626	92.116215	-0.095533	-70.357441
3.850000	-0.161471	-156.529450	-50.424328	90.469300	-50.424328	90.469300	-0.097061	-71.218092
3.900000	-0.163295	-158.029255	-50.151132	88.821505	-50.151132	88.821505	-0.098607	-72.076782
3.950000	-0.165151	-159.521423	-49.883784	87.173205	-49.883784	87.173205	-0.100172	-72.933459
4.000000	-0.167042	-161.006698	-49.622269	85.524768	-49.622269	85.524768	-0.101755	-73.788264
4.050000	-0.168976	-162.485236	-49.366400	83.876478	-49.366400	83.876478	-0.103358	-74.641203
4.100000	-0.170973	-163.957098	-49.115996	82.228599	-49.115996	82.228599	-0.104980	-75.492282
4.150000	-0.173078	-165.422135	-48.870889	80.581374	-48.870889	80.581374	-0.106622	-76.341506
4.200000	-0.175436	-166.879676	-48.630917	78.935029	-48.630917	78.935029	-0.108284	-77.188883
4.250000	-0.179138	-168.327784	-48.395798	77.289890	-48.395798	77.289890	-0.109969	-78.034251
4.300000	-0.185156	-169.792650	-48.165505	75.646097	-48.165505	75.646097	-0.111677	-78.877744
4.350000	-0.184407	-171.280463	-47.939933	74.003802	-47.939933	74.003802	-0.113407	-79.719416
4.400000	-0.183301	-172.710392	-47.718949	72.363168	-47.718949	72.363168	-0.115159	-80.559277
4.450000	-0.184849	-174.140294	-47.502427	70.724350	-47.502427	70.724350	-0.116934	-81.397336
4.500000	-0.186809	-175.569517	-47.290245	69.087492	-47.290245	69.087492	-0.118733	-82.233605
4.550000	-0.188887	-176.996220	-47.082270	67.452784	-47.082270	67.452784	-0.120557	-83.068050
4.600000	-0.191024	-178.419677	-46.878352	65.820518	-46.878352	65.820518	-0.122408	-83.900568
4.650000	-0.193198	-179.840096	-46.678462	64.190618	-46.678462	64.190618	-0.124284	-84.731333
4.700000	-0.195402	178.742440	-46.482500	62.563194	-46.482500	62.563194	-0.126185	-85.560358
4.750000	-0.197633	177.327662	-46.290389	60.938220	-46.290389	60.938220	-0.128112	-86.387743
4.800000	-0.199894	175.915745	-46.101982	59.316141	-46.101982	59.316141	-0.130067	-87.213279
4.850000	-0.202181	174.506334	-45.917223	57.696902	-45.917223	57.696902	-0.132050	-88.037085
4.900000	-0.204494	173.099141	-45.736040	56.080486	-45.736040	56.080486	-0.134060	-88.859242
4.950000	-0.206834	171.694175	-45.558334	54.467270	-45.558334	54.467270	-0.136101	-89.679603
5.000000	-0.209197	170.290928	-45.384056	52.856867	-45.384056	52.856867	-0.138168	-90.498445
5.050000	-0.211589	168.889516	-45.213112	51.249906	-45.213112	51.249906	-0.140266	-91.315494
5.100000	-0.214005	167.489581	-45.045446	49.646213	-45.045446	49.646213	-0.142395	-92.130909
5.150000	-0.216447	166.090923	-44.880993	48.045868	-44.880993	48.045868	-0.144555	-92.944706
5.200000	-0.218914	164.693345	-44.719688	46.448947	-44.719688	46.448947	-0.146745	-93.756905
5.250000	-0.221406	163.296652	-44.561472	44.855527	-44.561472	44.855527	-0.148967	-94.567527
5.300000	-0.223923	161.900652	-44.406287	43.265683	-44.406287	43.265683	-0.151220	-95.376591
5.350000	-0.226465	160.505153	-44.254076	41.679489	-44.254076	41.679489	-0.153506	-96.184119
5.400000	-0.229031	159.109969	-44.104786	40.097022	-44.104786	40.097022	-0.155825	-96.990130
5.450000	-0.231622	157.714915	-43.958367	38.518354	-43.958367	38.518354	-0.158177	-97.794648
5.500000	-0.234237	156.319808	-43.814768	36.943564	-43.814768	36.943564	-0.160563	-98.597695
5.550000	-0.236876	154.924468	-43.673943	35.372726	-43.673943	35.372726	-0.162983	-99.399292
5.600000	-0.239539	153.528718	-43.535846	33.805919	-43.535846	33.805919	-0.165437	-100.199464
5.650000	-0.242226	152.132385	-43.400434	32.243223	-43.400434	32.243223	-0.167926	-100.998233
5.700000	-0.244936	150.735295	-43.267665	30.684720	-43.267665	30.684720	-0.170451	-101.795624
5.750000	-0.247670	149.337281	-43.137498	29.130494	-43.137498	29.130494	-0.173012	-102.591661
5.800000	-0.250427	147.938176	-43.009894	27.580632	-43.009894	27.580632	-0.175608	-103.386369
5.850000	-0.253208	146.537817	-42.884818	26.035225	-42.884818	26.035225	-0.178242	-104.179773
5.900000	-0.256011	145.136042	-42.762231	24.494365	-42.762231	24.494365	-0.180912	-104.971899
5.950000	-0.258838	143.732694	-42.642100	22.958150	-42.642100	22.958150	-0.183620	-105.762773
6.000000	-0.261688	142.327618	-42.524390	21.426680	-42.524390	21.426680	-0.186366	-106.552421
6.050000	-0.264560	140.920661	-42.409070	19.900061	-42.409070	19.900061	-0.189150	-107.340870
6.100000	-0.267455	139.511674	-42.296108	18.378402	-42.296108	18.378402	-0.191973	-108.128149
6.150000	-0.270372	138.100510	-42.185472	16.861817	-42.185472	16.861817	-0.194835	-108.914283
6.200000	-0.273312	136.687026	-42.077132	15.350426	-42.077132	15.350426	-0.197737	-109.699302
6.250000	-0.276274	135.271080	-41.971060	13.844352	-41.971060	13.844352	-0.200678	-110.483234
6.300000	-0.279260	133.852415	-41.867271	12.343968	-41.867271	12.343968	-0.203662	-111.266063
6.350000	-0.282269	132.431004	-41.765693	10.849179	-41.765693	10.849179	-0.206686	-112.047866
6.400000	-0.285299	131.006715	-41.666301	9.360125	-41.666301	9.360125	-0.209752	-112.828672
6.450000	-0.288353	129.579421	-41.569064	7.876954	-41.569064	7.876954	-0.212859	-113.608511
6.500000	-0.291429	128.148996	-41.473957	6.399819	-41.473957	6.399819	-0.216008	-114.387414
6.550000	-0.294527	126.715317	-41.380951	4.928877	-41.380951	4.928877	-0.219199	-115.165412
6.600000	-0.297649	125.278268	-41.290020	3.464293	-41.290020	3.464293	-0.222433	-115.942536
6.650000	-0.300793	123.837731	-41.201134	2.006237	-41.201134	2.006237	-0.225710	-116.718817
6.700000	-0.303961	122.393596	-41.114267	0.554885	-41.114267	0.554885	-0.229030	-117.494288
6.750000	-0.307152	120.945753	-41.029389	-0.889582	-41.029389	-0.889582	-0.232395	-118.268981
6.800000	-0.310367	119.494098	-40.946473	-2.326977	-40.946473	-2.326977	-0.235803	-119.042928
6.850000	-0.313607	118.038530	-40.865489	-3.757107	-40.865489	-3.757107	-0.239257	-119.816162
6.900000	-0.316871	116.578951	-40.786407	-5.179775	-40.786407	-5.179775	-0.242755	-120.588718
6.950000	-0.320160	115.115266	-40.709197	-6.594779	-40.709197	-6.594779	-0.246298	-121.360628
7.000000	-0.323474	113.647387	-40.633827	-8.001911	-40.633827	-8.001911	-0.249888	-122.131928
7.050000	-0.326815	112.175226	-40.560265	-9.400959	-40.560265	-9.400959	-0.253523	-122.902651
7.100000	-0.330182	110.698703	-40.488477	-10.791708	-40.488477	-10.791708	-0.257205	-123.672833
7.150000	-0.333577	109.217738	-40.418430	-12.173939	-40.418430	-12.173939	-0.260933	-124.442509
7.200000	-0.337000	107.732259	-40.350087	-13.547428	-40.350087	-13.547428	-0.264709	-125.211714
7.250000	-0.340452	106.242196	-40.283411	-14.911950	-40.283411	-14.911950	-0.268532	-125.980486
7.300000	-0.343934	104.747484	-40.218364	-16.267277	-40.218364	-16.267277	-0.272403	-126.748860
7.350000	-0.347447	103.248062	-40.154908	-17.613178	-40.154908	-17.613178	-0.276322	-127.516873
7.400000	-0.350992	101.743875	-40.092999	-18.949424	-40.092999	-18.949424	-0.280289	-128.284563
7.450000	-0.354570	100.234872	-40.032596	-20.275780	-40.032596	-20.275780	-0.284306	-129.051967
7.500000	-0.358182	98.721007	-39.973655	-21.592015	-39.973655	-21.592015	-0.288371	-129.819124
7.550000	-0.361832	97.202022	-39.916172	-22.897436	-39.916172	-22.897436	-0.292488	-130.586064
7.600000	-0.365520	95.678095	-39.860055	-24.192250	-39.860055	-24.192250	-0.296655	-131.352838
7.650000	-0.369246	94.149195	-39.805252	-25.476228	-39.805252	-25.476228	-0.300872	-132.119484
7.700000	-0.373013	92.615296	-39.751712	-26.749143	-39.751712	-26.749143	-0.305139	-132.886043
7.750000	-0.376822	91.076379	-39.699383	-28.010770	-39.699383	-28.010770	-0.309456	-133.652556
7.800000	-0.380676	89.532431	-39.648208	-29.260888	-39.648208	-29.260888	-0.313825	-134.419061
7.850000	-0.384576	87.983441	-39.598131	-30.499280	-39.598131	-30.499280	-0.318245	-135.185601
7.900000	-0.388525	86.429408	-39.549093	-31.725733	-39.549093	-31.725733	-0.322716	-135.952217
7.950000	-0.392524	84.870335	-39.501032	-32.940040	-39.501032	-32.940040	-0.327239	-136.718952
8.000000	-0.396576	83.306230	-39.453886	-34.142000	-39.453886	-34.142000	-0.331814	-137.485847
8.050000	-0.400684	81.737108	-39.407590	-35.331419	-39.407590	-35.331419	-0.336441	-138.252945
8.100000	-0.404850	80.162989	-39.362079	-36.508108	-39.362079	-36.508108	-0.341120	-139.020289
8.150000	-0.409077	78.583902	-39.317282	-37.671889	-39.317282	-37.671889	-0.345852	-139.787924
8.200000	-0.413368	76.999880	-39.273131	-38.822588	-39.273131	-38.822588	-0.350637	-140.555893
8.250000	-0.417725	75.410961	-39.229554	-39.960043	-39.229554	-39.960043	-0.355475	-141.324242
8.300000	-0.422153	73.817192	-39.186476	-41.084100	-39.186476	-41.084100	-0.360366	-142.093015
8.350000	-0.426650	72.218900	-39.143814	-42.195410	-39.143814	-42.195410	-0.365307	-142.862228
8.400000	-0.431225	70.615749	-39.101510	-43.292724	-39.101510	-43.292724	-0.370303	-143.631965
8.450000	-0.435886	69.007544	-39.059476	-44.375099	-39.059476	-44.375099	-0.375356	-144.402313
8.500000	-0.440628	67.394983	-39.017627	-45.444298	-39.017627	-45.444298	-0.380461	-145.173239
8.550000	-0.445459	65.777795	-38.975878	-46.499139	-38.975878	-46.499139	-0.385621	-145.944841
8.600000	-0.450383	64.156151	-38.934147	-47.539804	-38.934147	-47.539804	-0.390834	-146.717154
8.650000	-0.455400	62.530313	-38.892356	-48.566763	-38.892356	-48.566763	-0.396101	-147.490197
8.700000	-0.460524	60.899967	-38.850387	-49.578575	-38.850387	-49.578575	-0.401424	-148.264096
8.750000	-0.465742	59.265864	-38.808217	-50.577394	-38.808217	-50.577394	-0.406797	-149.038771
8.800000	-0.471083	57.627254	-38.765644	-51.560134	-38.765644	-51.560134	-0.412230	-149.814463
8.850000	-0.476527	55.985102	-38.722701	-52.529816	-38.722701	-52.529816	-0.417712	-150.591025
8.900000	-0.482098	54.338939	-38.679188	-53.484202	-38.679188	-53.484202	-0.423252	-151.368660
8.950000	-0.487788	52.689257	-38.635085	-54.424680	-38.635085	-54.424680	-0.428843	-152.147320
9.000000	-0.493607	51.036058	-38.590263	-55.350703	-38.590263	-55.350703	-0.434490	-152.927101
9.050000	-0.499563	49.379419	-38.544604	-56.262018	-38.544604	-56.262018	-0.440191	-153.708078
9.100000	-0.505650	47.719747	-38.498093	-57.159767	-38.498093	-57.159767	-0.445943	-154.490211
9.150000	-0.511893	46.056779	-38.450464	-58.042065	-38.450464	-58.042065	-0.451754	-155.273726
9.200000	-0.518272	44.391194	-38.401845	-58.911452	-38.401845	-58.911452	-0.457613	-156.058451
9.250000	-0.524820	42.722627	-38.351850	-59.765264	-38.351850	-59.765264	-0.463530	-156.844705
9.300000	-0.531518	41.051713	-38.300642	-60.606041	-38.300642	-60.606041	-0.469497	-157.632299
9.350000	-0.538389	39.378350	-38.247920	-61.432260	-38.247920	-61.432260	-0.475519	-158.421462
9.400000	-0.545429	37.702856	-38.193677	-62.244838	-38.193677	-62.244838	-0.481593	-159.212162
9.450000	-0.552643	36.025424	-38.137803	-63.043900	-38.137803	-63.043900	-0.487719	-160.004457
9.500000	-0.560048	34.346145	-38.080064	-63.828795	-38.080064	-63.828795	-0.493899	-160.798504
9.550000	-0.567628	32.665413	-38.020601	-64.601234	-38.020601	-64.601234	-0.500127	-161.594162
9.600000	-0.575421	30.983185	-37.958884	-65.359065	-37.958884	-65.359065	-0.506412	-162.391801
9.650000	-0.583396	29.299921	-37.895274	-66.105009	-37.895274	-66.105009	-0.512743	-163.191131
9.700000	-0.591592	27.615656	-37.829184	-66.836996	-37.829184	-66.836996	-0.519128	-163.992542
9.750000	-0.599989	25.930724	-37.760868	-67.556957	-37.760868	-67.556957	-0.525561	-164.795833
9.800000	-0.608608	24.245303	-37.689967	-68.264131	-37.689967	-68.264131	-0.532044	-165.601224
9.850000	-0.617449	22.559628	-37.616411	-68.958980	-37.616411	-68.958980	-0.538577	-166.408739
9.900000	-0.626511	20.873934	-37.540192	-69.642207	-37.540192	-69.642207	-0.545157	-167.218360
9.950000	-0.635820	19.188467	-37.460830	-70.312914	-37.460830	-70.312914	-0.551787	-168.030366
10.000000	-0.645346	17.503405	-37.378758	-70.973156	-37.378758	-70.973156	-0.558460	-168.844471
