! freq	dB(S11)	phase(S11)	dB(S12)	phase(S12)	
!     	dB(S21)	phase(S21)	dB(S22)	phase(S22)	
!S-par simulation data
#  GHz  S  DB  R 50
0.000000	-103.422298	180.000000	-0.000032	0.000000	-0.000032	0.000000	-6153.053111	0.000000
0.050000	-41.407537	-92.994699	-0.001408	-2.746631	-0.001408	-2.746631	-41.409013	-92.985011
0.100000	-35.404830	-95.969040	-0.005156	-5.486167	-0.005156	-5.486167	-35.405961	-95.950535
0.150000	-31.910457	-98.908359	-0.010289	-8.216278	-0.010289	-8.216278	-31.911161	-98.882294
0.200000	-29.446580	-101.805272	-0.016089	-10.938433	-0.016089	-10.938433	-29.446897	-101.772739
0.250000	-27.548672	-104.659434	-0.022215	-13.655220	-0.022215	-13.655220	-27.548717	-104.621011
0.300000	-26.009508	-107.474597	-0.028587	-16.368654	-0.028587	-16.368654	-26.009413	-107.430301
0.350000	-24.717846	-110.258204	-0.035220	-19.080012	-0.035220	-19.080012	-24.717719	-110.207653
0.400000	-23.607361	-113.017369	-0.042151	-21.789857	-0.042151	-21.789857	-23.607266	-112.960020
0.450000	-22.635930	-115.757542	-0.049416	-24.498336	-0.049416	-24.498336	-22.635896	-115.692831
0.500000	-21.775567	-118.483148	-0.057056	-27.205329	-0.057056	-27.205329	-21.775593	-118.410577
0.550000	-21.004834	-121.199073	-0.065049	-29.910798	-0.065049	-29.910798	-21.004902	-121.118312
0.600000	-20.308780	-123.907935	-0.073387	-32.614584	-0.073387	-32.614584	-20.308865	-123.818778
0.650000	-19.676686	-126.611520	-0.082069	-35.316429	-0.082069	-35.316429	-19.676764	-126.513868
0.700000	-19.099799	-129.311381	-0.091071	-38.016164	-0.091071	-38.016164	-19.099848	-129.205220
0.750000	-18.570603	-132.008617	-0.100348	-40.713758	-0.100348	-40.713758	-18.570610	-131.893984
0.800000	-18.083519	-134.703818	-0.109873	-43.409120	-0.109873	-43.409120	-18.083476	-134.580771
0.850000	-17.634935	-137.397258	-0.119623	-46.102007	-0.119623	-46.102007	-17.634842	-137.265863
0.900000	-17.220322	-140.089264	-0.129547	-48.792527	-0.129547	-48.792527	-17.220184	-139.949568
0.950000	-16.836298	-142.779952	-0.139605	-51.480722	-0.139605	-51.480722	-16.836125	-142.631979
1.000000	-16.480336	-145.469330	-0.149762	-54.166590	-0.149762	-54.166590	-16.480138	-145.313078
1.050000	-16.150924	-148.157293	-0.159977	-56.850052	-0.159977	-56.850052	-16.150716	-147.992723
1.100000	-15.845106	-150.843905	-0.170205	-59.531381	-0.170205	-59.531381	-15.844899	-150.670948
1.150000	-15.561151	-153.529123	-0.180410	-62.210687	-0.180410	-62.210687	-15.560958	-153.347685
1.200000	-15.298059	-156.212850	-0.190549	-64.888030	-0.190549	-64.888030	-15.297891	-156.022807
1.250000	-15.054549	-158.895058	-0.200581	-67.563583	-0.200581	-67.563583	-15.054414	-158.696263
1.300000	-14.828864	-161.575828	-0.210474	-70.237620	-0.210474	-70.237620	-14.828769	-161.368125
1.350000	-14.619959	-164.255196	-0.220196	-72.910337	-0.220196	-72.910337	-14.619907	-164.038416
1.400000	-14.427724	-166.933134	-0.229696	-75.581886	-0.229696	-75.581886	-14.427717	-166.707088
1.450000	-14.250699	-169.609828	-0.238952	-78.252588	-0.238952	-78.252588	-14.250737	-169.374331
1.500000	-14.087922	-172.285439	-0.247942	-80.922712	-0.247942	-80.922712	-14.088004	-172.040305
1.550000	-13.938842	-174.960119	-0.256635	-83.592512	-0.256635	-83.592512	-13.938965	-174.705162
1.600000	-13.803607	-177.634039	-0.264981	-86.262293	-0.264981	-86.262293	-13.803766	-177.369058
1.650000	-13.680790	179.692498	-0.272985	-88.932362	-0.272985	-88.932362	-13.680981	179.967689
1.700000	-13.569780	177.019243	-0.280631	-91.602995	-0.280631	-91.602995	-13.569998	177.304827
1.750000	-13.471366	174.345882	-0.287855	-94.274627	-0.287855	-94.274627	-13.471606	174.642064
1.800000	-13.383543	171.672137	-0.294704	-96.947418	-0.294704	-96.947418	-13.383800	171.979096
1.850000	-13.307155	168.997607	-0.301115	-99.621858	-0.301115	-99.621858	-13.307426	169.315548
1.900000	-13.241299	166.321992	-0.307102	-102.298182	-0.307102	-102.298182	-13.241580	166.651111
1.950000	-13.185702	163.644930	-0.312657	-104.976730	-0.312657	-104.976730	-13.185991	163.985431
2.000000	-13.140698	160.965951	-0.317749	-107.657983	-0.317749	-107.657983	-13.140993	161.318059
2.050000	-13.104944	158.284919	-0.322423	-110.341957	-0.322423	-110.341957	-13.105245	158.648842
2.100000	-13.079953	155.601029	-0.326602	-113.029542	-0.326602	-113.029542	-13.080257	155.977028
2.150000	-13.063715	152.914436	-0.330371	-115.720417	-0.330371	-115.720417	-13.064025	153.302740
2.200000	-13.057775	150.224222	-0.333655	-118.415580	-0.333655	-118.415580	-13.058091	150.625117
2.250000	-13.060762	147.530496	-0.336519	-121.114811	-0.336519	-121.114811	-13.061085	147.944247
2.300000	-13.073341	144.832606	-0.338934	-123.818787	-0.338934	-123.818787	-13.073673	145.259520
2.350000	-13.095298	142.130294	-0.340917	-126.527743	-0.340917	-126.527743	-13.095640	142.570688
2.400000	-13.126266	139.423409	-0.342493	-129.241805	-0.342493	-129.241805	-13.126620	139.877608
2.450000	-13.167154	136.711167	-0.343633	-131.961822	-0.343633	-131.961822	-13.167522	137.179548
2.500000	-13.216592	133.994080	-0.344412	-134.687213	-0.344412	-134.687213	-13.216974	134.476987
2.550000	-13.276593	131.270698	-0.344760	-137.419591	-0.344760	-137.419591	-13.276991	131.768578
2.600000	-13.345325	128.541976	-0.344773	-140.157915	-0.344773	-140.157915	-13.345740	129.055213
2.650000	-13.424324	125.806756	-0.344411	-142.903514	-0.344411	-142.903514	-13.424756	126.335827
2.700000	-13.512882	123.065419	-0.343723	-145.656012	-0.343723	-145.656012	-13.513330	123.610783
2.750000	-13.611546	120.317522	-0.342715	-148.415981	-0.342715	-148.415981	-13.612009	120.879684
2.800000	-13.720731	117.562761	-0.341400	-151.183854	-0.341400	-151.183854	-13.721207	118.142270
2.850000	-13.840008	114.801508	-0.339819	-153.959304	-0.339819	-153.959304	-13.840496	115.398904
2.900000	-13.970932	112.032696	-0.337956	-156.743717	-0.337956	-156.743717	-13.971428	112.648637
2.950000	-14.112287	109.257441	-0.335875	-159.535901	-0.335875	-159.535901	-14.112788	109.892520
3.000000	-14.266268	106.474285	-0.333553	-162.337816	-0.333553	-162.337816	-14.266771	107.129273
3.050000	-14.431765	103.684422	-0.331050	-165.148176	-0.331050	-165.148176	-14.432265	104.360023
3.100000	-14.610409	100.886990	-0.328364	-167.968317	-0.328364	-167.968317	-14.610901	101.584064
3.150000	-14.802304	98.082417	-0.325529	-170.797955	-0.325529	-170.797955	-14.802782	98.801848
3.200000	-15.008172	95.270747	-0.322567	-173.637353	-0.322567	-173.637353	-15.008631	96.013509
3.250000	-15.229422	92.451655	-0.319495	-176.487361	-0.319495	-176.487361	-15.229854	93.218884
3.300000	-15.465873	89.626090	-0.316348	-179.347045	-0.316348	-179.347045	-15.466271	90.418911
3.350000	-15.720988	86.792691	-0.313135	177.780843	-0.313135	177.780843	-15.721341	87.612691
3.400000	-15.993256	83.953579	-0.309897	174.899004	-0.309897	174.899004	-15.993555	84.802135
3.450000	-16.285344	81.108336	-0.306651	172.005924	-0.306651	172.005924	-16.285576	81.987194
3.500000	-16.598992	78.257443	-0.303422	169.101326	-0.303422	169.101326	-16.599141	79.168604
3.550000	-16.935726	75.401698	-0.300233	166.185458	-0.300233	166.185458	-16.935775	76.347354
3.600000	-17.299103	72.541505	-0.297118	163.256851	-0.297118	163.256851	-17.299028	73.524492
3.650000	-17.691370	69.678200	-0.294101	160.315856	-0.294101	160.315856	-17.691141	70.701713
3.700000	-18.115963	66.813200	-0.291211	157.362171	-0.291211	157.362171	-18.115542	67.881042
3.750000	-18.577039	63.948371	-0.288476	154.395484	-0.288476	154.395484	-18.576374	65.065130
3.800000	-19.080026	61.086340	-0.285932	151.415177	-0.285932	151.415177	-19.079050	62.257771
3.850000	-19.630930	58.230550	-0.283606	148.421199	-0.283606	148.421199	-19.629548	59.463681
3.900000	-20.237676	55.385753	-0.281533	145.413204	-0.281533	145.413204	-20.235758	56.689462
3.950000	-20.910398	52.558634	-0.279746	142.390833	-0.279746	142.390833	-20.907757	53.944361
4.000000	-21.662322	49.758847	-0.278283	139.353715	-0.278283	139.353715	-21.658682	51.241673
4.050000	-22.511143	47.000772	-0.277183	136.301461	-0.277183	136.301461	-22.506082	48.601136
4.100000	-23.481260	44.306697	-0.276488	133.233668	-0.276488	133.233668	-23.474103	46.053239
4.150000	-24.607613	41.712926	-0.276243	130.149917	-0.276243	130.149917	-24.597218	43.647492
4.200000	-25.942708	39.282575	-0.276495	127.049773	-0.276495	127.049773	-25.926995	41.469657
4.250000	-27.570650	37.135367	-0.277297	123.932780	-0.277297	123.932780	-27.545433	39.681646
4.300000	-29.638551	35.527938	-0.278704	120.798470	-0.278704	120.798470	-29.594108	38.627908
4.350000	-32.439124	35.120490	-0.280777	117.646355	-0.280777	117.646355	-32.347356	39.181494
4.400000	-36.685134	38.352426	-0.283591	114.475725	-0.283591	114.475725	-36.425432	44.442412
4.450000	-44.412969	64.101012	-0.287220	111.286041	-0.287220	111.286041	-42.940135	73.487102
4.500000	-42.815407	156.927147	-0.291735	108.076966	-0.291735	108.076966	-41.668340	149.927498
4.550000	-35.574902	177.840561	-0.297221	104.847951	-0.297221	104.847951	-35.322464	173.433589
4.600000	-31.334012	-179.571580	-0.303772	101.598436	-0.303772	101.598436	-31.232498	177.834223
4.650000	-28.393100	179.727671	-0.311490	98.327849	-0.311490	98.327849	-28.338589	178.020149
4.700000	-26.132009	177.882490	-0.320485	95.035618	-0.320485	95.035618	-26.097996	176.691305
4.750000	-24.286104	175.497844	-0.330878	91.721167	-0.330878	91.721167	-24.262888	174.643713
4.800000	-22.719551	172.809902	-0.342801	88.383922	-0.342801	88.383922	-22.702749	172.193145
4.850000	-21.353648	169.929676	-0.356395	85.023322	-0.356395	85.023322	-21.340987	169.489266
4.900000	-20.138817	166.916085	-0.371816	81.638818	-0.371816	81.638818	-20.128998	166.611942
4.950000	-19.041863	163.803207	-0.389229	78.229886	-0.389229	78.229886	-19.034085	163.607562
5.000000	-18.039508	160.612050	-0.408815	74.796031	-0.408815	74.796031	-18.033251	160.504837
5.050000	-17.114258	157.355036	-0.430821	71.336241	-0.430821	71.336241	-17.109167	157.321003
5.100000	-16.254133	154.042827	-0.455411	67.850660	-0.455411	67.850660	-16.249957	154.070539
5.150000	-15.449437	150.681726	-0.482805	64.338955	-0.482805	64.338955	-15.445992	150.762151
5.200000	-14.692614	147.276308	-0.513240	60.800870	-0.513240	60.800870	-14.689763	147.402170
5.250000	-13.977685	143.830003	-0.546965	57.236238	-0.546965	57.236238	-13.975322	143.995338
5.300000	-13.299862	140.345477	-0.584243	53.645000	-0.584243	53.645000	-13.297903	140.545323
5.350000	-12.655271	136.824891	-0.625350	50.027214	-0.625350	50.027214	-12.653652	137.055063
5.400000	-12.040758	133.270080	-0.670572	46.383074	-0.670572	46.383074	-12.039424	133.527006
5.450000	-11.453734	129.682683	-0.720206	42.712925	-0.720206	42.712925	-11.452642	129.963286
5.500000	-10.892069	126.064242	-0.774555	39.017277	-0.774555	39.017277	-10.891182	126.365844
5.550000	-10.354003	122.416275	-0.833930	35.296821	-0.833930	35.296821	-10.353292	122.736530
5.600000	-9.838080	118.740334	-0.898642	31.552443	-0.898642	31.552443	-9.837519	119.077169
5.650000	-9.343033	115.037850	-0.969048	27.785058	-0.969048	27.785058	-9.342602	115.389413
5.700000	-8.867894	111.310616	-1.045460	23.996013	-1.045460	23.996013	-8.867574	111.675256
5.750000	-8.411897	107.560737	-1.128134	20.187031	-1.128134	20.187031	-8.411673	107.936990
5.800000	-7.974344	103.790269	-1.217356	16.359879	-1.217356	16.359879	-7.974204	104.176817
5.850000	-7.554652	100.001436	-1.313394	12.516545	-1.313394	12.516545	-7.554583	100.397092
5.900000	-7.152324	96.196643	-1.416494	8.659236	-1.416494	8.659236	-7.152318	96.600335
5.950000	-6.766946	92.378099	-1.527083	4.790056	-1.527083	4.790056	-6.766994	92.788826
6.000000	-6.398175	88.549368	-1.644956	0.912316	-1.644956	0.912316	-6.398269	88.966281
6.050000	-6.045651	84.712956	-1.770439	-2.971544	-1.770439	-2.971544	-6.045785	85.135262
6.100000	-5.709065	80.871909	-1.903639	-6.858588	-1.903639	-6.858588	-5.709232	81.298888
6.150000	-5.388123	77.029383	-2.044616	-10.745758	-2.044616	-10.745758	-5.388317	77.460385
6.200000	-5.082536	73.188618	-2.193382	-14.629909	-2.193382	-14.629909	-5.082752	73.623054
6.250000	-4.792013	69.352903	-2.349897	-18.507848	-2.349897	-18.507848	-4.792245	69.790240
6.300000	-4.516387	65.525796	-2.514160	-22.376088	-2.514160	-22.376088	-4.516630	65.965545
6.350000	-4.255233	61.710463	-2.685904	-26.231585	-2.685904	-26.231585	-4.255481	62.152195
6.400000	-4.008212	57.910110	-2.864923	-30.071237	-2.864923	-30.071237	-4.008460	58.353438
6.450000	-3.774967	54.127838	-3.050949	-33.892049	-3.050949	-33.892049	-3.775209	54.572417
6.500000	-3.555121	50.366603	-3.243664	-37.691179	-3.243664	-37.691179	-3.555352	50.812125
6.550000	-3.348277	46.629187	-3.442694	-41.465968	-3.442694	-41.465968	-3.348492	47.075379
6.600000	-3.154020	42.918159	-3.647613	-45.213976	-3.647613	-45.213976	-3.154213	43.364783
6.650000	-2.971921	39.235853	-3.857945	-48.933009	-3.857945	-48.933009	-2.972088	39.682701
6.700000	-2.801389	35.583743	-4.073192	-52.621743	-4.073192	-52.621743	-2.801525	36.030640
6.750000	-2.642710	31.966648	-4.292638	-56.275537	-4.292638	-56.275537	-2.642810	32.413439
6.800000	-2.494249	28.381190	-4.515908	-59.897927	-4.515908	-59.897927	-2.494309	28.827765
6.850000	-2.356483	24.832534	-4.742077	-63.483985	-4.742077	-63.483985	-2.356498	25.278803
6.900000	-2.228492	21.319471	-4.970618	-67.035122	-4.970618	-67.035122	-2.228460	21.765373
6.950000	-2.109834	17.842517	-5.200785	-70.551077	-5.200785	-70.551077	-2.109751	18.288026
7.000000	-2.000510	14.403986	-5.431484	-74.029907	-5.431484	-74.029907	-2.000373	14.849103
7.050000	-1.899248	10.999472	-5.662547	-77.476199	-5.662547	-77.476199	-1.899055	11.444229
7.100000	-1.806898	7.634779	-5.891877	-80.884895	-5.891877	-80.884895	-1.806645	8.079254
7.150000	-1.721730	4.302131	-6.119942	-84.263842	-6.119942	-84.263842	-1.721415	4.746421
7.200000	-1.644590	1.006296	-6.344210	-87.609377	-6.344210	-87.609377	-1.644211	1.450562
7.250000	-1.574273	-2.258886	-6.564784	-90.927937	-6.564784	-90.927937	-1.573827	-1.814459
7.300000	-1.511021	-5.493059	-6.779611	-94.220417	-6.779611	-94.220417	-1.510503	-5.048220
7.350000	-1.454496	-8.699345	-6.987502	-97.490969	-6.987502	-97.490969	-1.453903	-8.253789
7.400000	-1.404310	-11.881828	-7.187399	-100.744831	-7.187399	-100.744831	-1.403636	-11.435198
7.450000	-1.360985	-15.042074	-7.376169	-103.986176	-7.376169	-103.986176	-1.360222	-14.593893
7.500000	-1.323563	-18.187312	-7.554217	-107.222840	-7.554217	-107.222840	-1.322701	-17.737090
7.550000	-1.293541	-21.320247	-7.715529	-110.463308	-7.715529	-110.463308	-1.292566	-20.867246
7.600000	-1.269796	-24.449279	-7.861348	-113.716427	-7.861348	-113.716427	-1.268692	-23.992775
7.650000	-1.253910	-27.582310	-7.985208	-116.998235	-7.985208	-116.998235	-1.252650	-27.121266
7.700000	-1.245909	-30.728575	-8.085580	-120.322106	-8.085580	-120.322106	-1.244461	-30.261834
7.750000	-1.247311	-33.901426	-8.156780	-123.711745	-8.156780	-123.711745	-1.245626	-33.427484
7.800000	-1.260097	-37.117723	-8.192505	-127.197432	-8.192505	-127.197432	-1.258109	-36.634645
7.850000	-1.285957	-40.394082	-8.188856	-130.808562	-8.188856	-130.808562	-1.283575	-39.899571
7.900000	-1.331278	-43.769388	-8.130769	-134.621501	-8.130769	-134.621501	-1.328351	-43.259976
7.950000	-1.398708	-47.260642	-8.017696	-138.670707	-8.017696	-138.670707	-1.395039	-46.732444
8.000000	-1.502983	-50.940127	-7.825967	-143.111590	-7.825967	-143.111590	-1.498213	-50.386842
8.050000	-1.661117	-54.868785	-7.542791	-148.098115	-7.542791	-148.098115	-1.654655	-54.281673
8.100000	-1.906621	-59.134881	-7.148844	-153.897646	-7.148844	-153.897646	-1.897383	-58.500684
8.150000	-2.300909	-63.821224	-6.627890	-160.918909	-6.627890	-160.918909	-2.286753	-63.119214
8.200000	-2.982504	-68.915799	-5.969342	-169.929981	-5.969342	-169.929981	-2.958335	-68.110119
8.250000	-4.234228	-73.654636	-5.225932	177.919404	-5.225932	177.919404	-4.185942	-72.687926
8.300000	-6.545610	-73.550121	-4.612763	161.081971	-4.612763	161.081971	-6.426263	-72.412343
8.350000	-8.828571	-53.004956	-4.665289	138.960903	-4.665289	138.960903	-8.578250	-52.596612
8.400000	-6.329838	-30.766350	-5.968856	115.017836	-5.968856	115.017836	-6.194227	-31.288747
8.450000	-3.565103	-31.979574	-8.371910	94.842848	-8.371910	94.842848	-3.510775	-32.360277
8.500000	-2.168316	-38.815386	-11.237886	80.250741	-11.237886	80.250741	-2.141087	-39.029826
8.550000	-1.488765	-45.365506	-14.163096	70.036590	-14.163096	70.036590	-1.472591	-45.472650
8.600000	-1.136226	-50.910474	-17.021744	62.757623	-17.021744	62.757623	-1.125497	-50.947362
8.650000	-0.938250	-55.630111	-19.829025	57.441031	-19.829025	57.441031	-0.930598	-55.618289
8.700000	-0.821507	-59.737348	-22.606790	53.610443	-22.606790	53.610443	-0.815745	-59.690416
8.750000	-0.748709	-63.417427	-25.436175	51.009388	-25.436175	51.009388	-0.744198	-63.344030
8.800000	-0.703226	-66.768930	-28.331753	49.748856	-28.331753	49.748856	-0.699569	-66.675317
8.850000	-0.674286	-69.880724	-31.369676	50.225177	-31.369676	50.225177	-0.671238	-69.771239
8.900000	-0.655002	-72.831229	-34.768043	52.996693	-34.768043	52.996693	-0.652417	-72.708692
8.950000	-0.643507	-75.634292	-38.461507	60.700759	-38.461507	60.700759	-0.641267	-75.501201
9.000000	-0.637219	-78.326872	-42.233149	77.823026	-42.233149	77.823026	-0.635244	-78.185036
9.050000	-0.634507	-80.936646	-44.854573	106.716314	-44.854573	106.716314	-0.632743	-80.787379
9.100000	-0.634656	-83.475786	-44.640141	136.093777	-44.640141	136.093777	-0.633060	-83.320172
9.150000	-0.637221	-85.952561	-43.009698	152.529860	-43.009698	152.529860	-0.635757	-85.791515
9.200000	-0.641478	-88.384840	-41.572330	160.726624	-41.572330	160.726624	-0.640123	-88.218986
9.250000	-0.647161	-90.779953	-40.504772	164.652803	-40.504772	164.652803	-0.645897	-90.609781
9.300000	-0.654247	-93.139977	-39.779682	166.130333	-39.779682	166.130333	-0.653058	-92.965910
9.350000	-0.662414	-95.475030	-39.285798	166.447915	-39.285798	166.447915	-0.661288	-95.297331
9.400000	-0.671534	-97.790249	-38.960114	166.054614	-38.960114	166.054614	-0.670463	-97.609086
9.450000	-0.681642	-100.088080	-38.771930	165.134469	-38.771930	165.134469	-0.680619	-99.903545
9.500000	-0.692665	-102.372880	-38.683982	163.840299	-38.683982	163.840299	-0.691683	-102.184974
9.550000	-0.704521	-104.649735	-38.659150	162.278376	-38.659150	162.278376	-0.703577	-104.458357
9.600000	-0.717078	-106.921917	-38.673712	160.507583	-38.673712	160.507583	-0.716167	-106.726928
9.650000	-0.730391	-109.190864	-38.719105	158.525014	-38.719105	158.525014	-0.729510	-108.992064
9.700000	-0.744775	-111.460556	-38.772712	156.240482	-38.772712	156.240482	-0.743917	-111.257507
9.750000	-0.759878	-113.733679	-38.810782	153.736140	-38.810782	153.736140	-0.759039	-113.525999
9.800000	-0.775717	-116.011375	-38.824268	150.995890	-38.824268	150.995890	-0.774889	-115.798642
9.850000	-0.792584	-118.298397	-38.779709	147.884289	-38.779709	147.884289	-0.791758	-118.079916
9.900000	-0.810480	-120.597999	-38.646632	144.333104	-38.646632	144.333104	-0.809640	-120.372955
9.950000	-0.829234	-122.909409	-38.426964	140.375210	-38.426964	140.375210	-0.828366	-122.677069
10.000000	-0.848874	-125.233728	-38.115823	135.975567	-38.115823	135.975567	-0.847962	-124.993305
