! freq	dB(S11)	phase(S11)	dB(S12)	phase(S12)	
!     	dB(S21)	phase(S21)	dB(S22)	phase(S22)	
!S-par simulation data
#  GHz  S  DB  R 50
0.000000	-0.000000	-0.000000	-359.681893	180.000000	-359.681893	180.000000	0.000000	-0.000000
0.050000	-0.000102	-0.761836	-117.921338	87.688523	-117.921338	87.688523	-0.000101	-0.761823
0.100000	-0.000402	-1.523418	-112.143054	86.617249	-112.143054	86.617249	-0.000401	-1.523392
0.150000	-0.000891	-2.284493	-108.837447	86.131157	-108.837447	86.131157	-0.000889	-2.284456
0.200000	-0.001537	-3.044916	-106.536592	85.775242	-106.536592	85.775242	-0.001535	-3.044870
0.250000	-0.002323	-3.804522	-104.807455	85.452159	-104.807455	85.452159	-0.002319	-3.804470
0.300000	-0.003233	-4.563115	-103.469204	85.164781	-103.469204	85.164781	-0.003228	-4.563059
0.350000	-0.004222	-5.320798	-102.402514	84.932988	-102.402514	84.932988	-0.004216	-5.320741
0.400000	-0.005280	-6.077409	-101.564180	84.799973	-101.564180	84.799973	-0.005274	-6.077351
0.450000	-0.006382	-6.833045	-100.907212	84.798298	-100.907212	84.798298	-0.006374	-6.832987
0.500000	-0.007510	-7.587690	-100.413216	84.981468	-100.413216	84.981468	-0.007503	-7.587632
0.550000	-0.008652	-8.341389	-100.066689	85.410336	-100.066689	85.410336	-0.008645	-8.341332
0.600000	-0.009798	-9.094186	-99.858938	86.165801	-99.858938	86.165801	-0.009790	-9.094129
0.650000	-0.010938	-9.846124	-99.785239	87.357179	-99.785239	87.357179	-0.010931	-9.846067
0.700000	-0.012069	-10.597245	-99.842973	89.135773	-99.842973	89.135773	-0.012063	-10.597186
0.750000	-0.013188	-11.347583	-100.028918	91.714158	-100.028918	91.714158	-0.013182	-11.347522
0.800000	-0.014291	-12.097170	-100.334171	95.390853	-100.334171	95.390853	-0.014286	-12.097106
0.850000	-0.015377	-12.845905	-100.724170	100.986418	-100.724170	100.986418	-0.015372	-12.845837
0.900000	-0.016447	-13.593898	-101.145713	108.686815	-101.145713	108.686815	-0.016442	-13.593825
0.950000	-0.017509	-14.341528	-101.456939	117.627632	-101.456939	117.627632	-0.017505	-14.341450
1.000000	-0.018550	-15.088069	-101.381652	130.289708	-101.381652	130.289708	-0.018547	-15.087985
1.050000	-0.019587	-15.834369	-101.096598	142.941416	-101.096598	142.941416	-0.019584	-15.834279
1.100000	-0.020604	-16.579461	-99.867902	155.541286	-99.867902	155.541286	-0.020601	-16.579364
1.150000	-0.021619	-17.324431	-98.705442	167.723890	-98.705442	167.723890	-0.021617	-17.324327
1.200000	-0.022617	-18.068049	-96.879670	175.316571	-96.879670	175.316571	-0.022615	-18.067938
1.250000	-0.023615	-18.811667	-95.371814	-177.090749	-95.371814	-177.090749	-0.023613	-18.811549
1.300000	-0.024601	-19.554152	-93.707936	-172.658203	-93.707936	-172.658203	-0.024600	-19.554026
1.350000	-0.025582	-20.295896	-92.130897	-169.559600	-92.130897	-169.559600	-0.025581	-20.295762
1.400000	-0.026558	-21.036885	-90.649274	-167.437362	-90.649274	-167.437362	-0.026557	-21.036743
1.450000	-0.027529	-21.777104	-89.260308	-166.035818	-89.260308	-166.035818	-0.027529	-21.776955
1.500000	-0.028497	-22.516539	-87.956974	-165.174117	-87.956974	-165.174117	-0.028497	-22.516383
1.550000	-0.029462	-23.255175	-86.731139	-164.723654	-86.731139	-164.723654	-0.029462	-23.255011
1.600000	-0.030424	-23.992995	-85.574880	-164.591817	-85.574880	-164.591817	-0.030424	-23.992823
1.650000	-0.031384	-24.729983	-84.480980	-164.710871	-84.480980	-164.710871	-0.031384	-24.729804
1.700000	-0.032343	-25.465823	-83.419427	-165.082627	-83.419427	-165.082627	-0.032343	-25.465637
1.750000	-0.033301	-26.201215	-82.442341	-165.545140	-82.442341	-165.545140	-0.033301	-26.201021
1.800000	-0.034258	-26.935530	-81.496296	-166.158776	-81.496296	-166.158776	-0.034258	-26.935329
1.850000	-0.035214	-27.669075	-80.599600	-166.880355	-80.599600	-166.880355	-0.035214	-27.668867
1.900000	-0.036171	-28.401663	-79.737430	-167.691250	-79.737430	-167.691250	-0.036171	-28.401448
1.950000	-0.037128	-29.133293	-78.908233	-168.591460	-78.908233	-168.591460	-0.037128	-29.133071
2.000000	-0.038085	-29.864098	-78.115788	-169.545029	-78.115788	-169.545029	-0.038085	-29.863868
2.050000	-0.039044	-30.593746	-77.344062	-170.573301	-77.344062	-170.573301	-0.039044	-30.593510
2.100000	-0.040003	-31.322713	-76.610512	-171.633161	-76.610512	-171.633161	-0.040003	-31.322469
2.150000	-0.040964	-32.050315	-75.888363	-172.756198	-75.888363	-172.756198	-0.040964	-32.050065
2.200000	-0.041927	-32.777390	-75.205261	-173.897226	-75.205261	-173.897226	-0.041926	-32.777132
2.250000	-0.042892	-33.502883	-74.526379	-175.092231	-74.526379	-175.092231	-0.042892	-33.502618
2.300000	-0.043859	-34.228014	-73.887016	-176.296542	-73.887016	-176.296542	-0.043858	-34.227743
2.350000	-0.044829	-34.951337	-73.246287	-177.547389	-73.246287	-177.547389	-0.044829	-34.951058
2.400000	-0.045801	-35.674474	-72.645249	-178.801911	-72.645249	-178.801911	-0.045801	-35.674188
2.450000	-0.046779	-36.395567	-72.038465	179.903136	-72.038465	179.903136	-0.046778	-36.395275
2.500000	-0.047756	-37.116661	-71.471316	178.608182	-71.471316	178.608182	-0.047756	-37.116362
2.550000	-0.048742	-37.835469	-70.894973	177.277867	-70.894973	177.277867	-0.048742	-37.835163
2.600000	-0.049728	-38.554277	-70.354505	175.947552	-70.354505	175.947552	-0.049728	-38.553964
2.650000	-0.050722	-39.270940	-69.809180	174.590926	-69.809180	174.590926	-0.050722	-39.270621
2.700000	-0.051718	-39.987409	-69.292955	173.231908	-69.292955	173.231908	-0.051718	-39.987082
2.750000	-0.052722	-40.701884	-68.775481	171.853274	-68.775481	171.853274	-0.052722	-40.701550
2.800000	-0.053729	-41.415961	-68.281408	170.470716	-68.281408	170.470716	-0.053728	-41.415620
2.850000	-0.054744	-42.128206	-67.789094	169.073555	-67.789094	169.073555	-0.054744	-42.127858
2.900000	-0.055763	-42.839841	-67.315362	167.671526	-67.315362	167.671526	-0.055763	-42.839487
2.950000	-0.056791	-43.549818	-66.845905	166.258686	-66.845905	166.258686	-0.056791	-43.549456
3.000000	-0.057823	-44.258964	-66.390932	164.840439	-66.390932	164.840439	-0.057823	-44.258595
3.050000	-0.058865	-44.966634	-65.942341	163.414269	-65.942341	163.414269	-0.058865	-44.966258
3.100000	-0.059913	-45.673247	-65.504738	161.982440	-65.504738	161.982440	-0.059913	-45.672864
3.150000	-0.060969	-46.378573	-65.075279	160.544898	-65.075279	160.544898	-0.060969	-46.378183
3.200000	-0.062034	-47.082612	-64.653816	159.101644	-64.653816	159.101644	-0.062034	-47.082214
3.250000	-0.063107	-47.785561	-64.241971	157.654375	-64.241971	157.654375	-0.063107	-47.785157
3.300000	-0.064191	-48.486986	-63.835556	156.201484	-63.835556	156.201484	-0.064190	-48.486574
3.350000	-0.065281	-49.187526	-63.439985	154.745877	-63.439985	154.745877	-0.065281	-49.187107
3.400000	-0.066384	-49.886299	-63.047639	153.284841	-63.047639	153.284841	-0.066384	-49.885872
3.450000	-0.067493	-50.584401	-62.667156	151.822084	-62.667156	151.822084	-0.067493	-50.583967
3.500000	-0.068618	-51.280488	-62.288000	150.354162	-62.288000	150.354162	-0.068618	-51.280047
3.550000	-0.069748	-51.976123	-61.921547	148.885270	-61.921547	148.885270	-0.069747	-51.975675
3.600000	-0.070896	-52.669495	-61.554788	147.411529	-61.554788	147.411529	-0.070896	-52.669039
3.650000	-0.072047	-53.362637	-61.201419	145.937380	-61.201419	145.937380	-0.072046	-53.362174
3.700000	-0.073220	-54.053263	-60.846337	144.458735	-60.846337	144.458735	-0.073220	-54.052793
3.750000	-0.074393	-54.743890	-60.505202	142.980090	-60.505202	142.980090	-0.074393	-54.743412
3.800000	-0.075593	-55.431745	-60.161141	141.497326	-60.161141	141.497326	-0.075593	-55.431260
3.850000	-0.076793	-56.119601	-59.830192	140.014563	-59.830192	140.014563	-0.076793	-56.119108
3.900000	-0.078018	-56.804895	-59.497837	138.528648	-59.497837	138.528648	-0.078018	-56.804396
3.950000	-0.079246	-57.489957	-59.176544	137.042447	-59.176544	137.042447	-0.079246	-57.489450
4.000000	-0.080499	-58.172674	-58.855179	135.553874	-58.855179	135.553874	-0.080499	-58.172160
4.050000	-0.081757	-58.854922	-58.543057	134.064827	-58.543057	134.064827	-0.081756	-58.854401
4.100000	-0.083038	-59.535047	-58.232035	132.574035	-58.232035	132.574035	-0.083038	-59.534518
4.150000	-0.084327	-60.214464	-57.928635	131.082661	-57.928635	131.082661	-0.084326	-60.213928
4.200000	-0.085637	-60.891984	-57.627363	129.590040	-57.627363	129.590040	-0.085637	-60.891441
4.250000	-0.086959	-61.568555	-57.332272	128.096795	-57.332272	128.096795	-0.086959	-61.568005
4.300000	-0.088301	-62.243460	-57.040210	126.602693	-57.040210	126.602693	-0.088301	-62.242903
4.350000	-0.089658	-62.917174	-56.753043	125.107978	-56.753043	125.107978	-0.089658	-62.916610
4.400000	-0.091033	-63.589455	-56.469696	123.612708	-56.469696	123.612708	-0.091032	-63.588884
4.450000	-0.092425	-64.260303	-56.190099	122.116882	-56.190099	122.116882	-0.092425	-64.259725
4.500000	-0.093834	-64.929954	-55.915009	120.620724	-55.915009	120.620724	-0.093834	-64.929369
4.550000	-0.095264	-65.597930	-55.642650	119.124104	-55.642650	119.124104	-0.095264	-65.597337
4.600000	-0.096708	-66.264946	-55.375400	117.627313	-55.375400	117.627313	-0.096708	-66.264347
4.650000	-0.098178	-66.930046	-55.109971	116.130183	-55.109971	116.130183	-0.098178	-66.929440
4.700000	-0.099659	-67.594426	-54.850170	114.632989	-54.850170	114.632989	-0.099658	-67.593813
4.750000	-0.101170	-68.256649	-54.591383	113.135604	-54.591383	113.135604	-0.101170	-68.256029
4.800000	-0.102688	-68.918392	-54.338674	111.638215	-54.338674	111.638215	-0.102688	-68.917766
4.850000	-0.104242	-69.577739	-54.086260	110.140805	-54.086260	110.140805	-0.104242	-69.577107
4.900000	-0.105800	-70.236848	-53.840310	108.643411	-53.840310	108.643411	-0.105800	-70.236208
4.950000	-0.107399	-70.893324	-53.594017	107.146186	-53.594017	107.146186	-0.107399	-70.892678
5.000000	-0.108998	-71.549801	-53.354515	105.648961	-53.354515	105.648961	-0.108997	-71.549149
5.050000	-0.110642	-72.203414	-53.114106	104.152110	-53.114106	104.152110	-0.110642	-72.202755
5.100000	-0.112287	-72.857027	-52.880173	102.655258	-52.880173	102.655258	-0.112287	-72.856362
5.150000	-0.113976	-73.508023	-52.646019	101.158907	-52.646019	101.158907	-0.113975	-73.507352
5.200000	-0.115668	-74.158781	-52.417449	99.662602	-52.417449	99.662602	-0.115668	-74.158104
5.250000	-0.117402	-74.807171	-52.189276	98.166885	-52.189276	98.166885	-0.117402	-74.806488
5.300000	-0.119144	-75.455086	-51.965879	96.671285	-51.965879	96.671285	-0.119144	-75.454398
5.350000	-0.120925	-76.100881	-51.743430	95.176322	-51.743430	95.176322	-0.120924	-76.100186
5.400000	-0.122718	-76.745968	-51.525024	93.681573	-51.525024	93.681573	-0.122717	-76.745268
5.450000	-0.124546	-77.389181	-51.308061	92.187480	-51.308061	92.187480	-0.124546	-77.388475
5.500000	-0.126392	-78.031457	-51.094475	90.693716	-51.094475	90.693716	-0.126392	-78.030745
5.550000	-0.128270	-78.672103	-50.882772	89.200598	-50.882772	89.200598	-0.128270	-78.671386
5.600000	-0.130171	-79.311586	-50.673844	87.707944	-50.673844	87.707944	-0.130170	-79.310863
5.650000	-0.132100	-79.949683	-50.467190	86.215902	-50.467190	86.215902	-0.132099	-79.948955
5.700000	-0.134056	-80.586393	-50.262766	84.724473	-50.262766	84.724473	-0.134056	-80.585661
5.750000	-0.136037	-81.221959	-50.060964	83.233599	-50.060964	83.233599	-0.136037	-81.221221
5.800000	-0.138052	-81.855921	-49.860899	81.743503	-49.860899	81.743503	-0.138051	-81.855178
5.850000	-0.140087	-82.488976	-49.663762	80.253886	-49.663762	80.253886	-0.140086	-82.488228
5.900000	-0.142161	-83.120215	-49.467917	78.765224	-49.467917	78.765224	-0.142160	-83.119463
5.950000	-0.144251	-83.750780	-49.275269	77.276945	-49.275269	77.276945	-0.144250	-83.750023
6.000000	-0.146386	-84.379323	-49.083512	75.789812	-49.083512	75.789812	-0.146385	-84.378562
6.050000	-0.148532	-85.007422	-48.895188	74.302949	-48.895188	74.302949	-0.148532	-85.006657
6.100000	-0.150731	-85.633299	-48.707393	72.817433	-48.707393	72.817433	-0.150730	-85.632530
6.150000	-0.152935	-86.258957	-48.523236	71.332059	-48.523236	71.332059	-0.152934	-86.258183
6.200000	-0.155197	-86.882199	-48.339284	69.848243	-48.339284	69.848243	-0.155197	-86.881421
6.250000	-0.157461	-87.505441	-48.159146	68.364427	-48.159146	68.364427	-0.157460	-87.504660
6.300000	-0.159790	-88.126082	-47.978921	66.882388	-47.978921	66.882388	-0.159789	-88.125297
6.350000	-0.162120	-88.746723	-47.802359	65.400349	-47.802359	65.400349	-0.162119	-88.745934
6.400000	-0.164511	-89.365011	-47.626054	63.920005	-47.626054	63.920005	-0.164510	-89.364219
6.450000	-0.166909	-89.983086	-47.452967	62.439815	-47.452967	62.439815	-0.166908	-89.982290
6.500000	-0.169364	-90.599053	-47.280446	60.961222	-47.280446	60.961222	-0.169363	-90.598254
6.550000	-0.171831	-91.214598	-47.110734	59.482949	-47.110734	59.482949	-0.171830	-91.213797
6.600000	-0.174351	-91.828276	-46.941869	58.006159	-46.941869	58.006159	-0.174350	-91.827471
6.650000	-0.176889	-92.441330	-46.775438	56.529864	-46.775438	56.529864	-0.176889	-92.440523
6.700000	-0.179476	-93.052752	-46.610106	55.054925	-46.610106	55.054925	-0.179476	-93.051942
6.750000	-0.182087	-93.663357	-46.446866	53.580665	-46.446866	53.580665	-0.182087	-93.662545
6.800000	-0.184742	-94.272557	-46.284950	52.107621	-46.284950	52.107621	-0.184741	-94.271743
6.850000	-0.187428	-94.880754	-46.124813	50.635447	-46.124813	50.635447	-0.187427	-94.879938
6.900000	-0.190151	-95.487769	-45.966201	49.164338	-45.966201	49.164338	-0.190151	-95.486951
6.950000	-0.192913	-96.093602	-45.809084	47.694296	-45.809084	47.694296	-0.192912	-96.092782
7.000000	-0.195707	-96.698469	-45.653670	46.225159	-45.653670	46.225159	-0.195707	-96.697647
7.050000	-0.198547	-97.301983	-45.499491	44.757288	-45.499491	44.757288	-0.198546	-97.301160
7.100000	-0.201413	-97.904740	-45.347173	43.290153	-45.347173	43.290153	-0.201412	-97.903916
7.150000	-0.204332	-98.505983	-45.195854	41.824488	-45.195854	41.824488	-0.204331	-98.505157
7.200000	-0.207271	-99.106669	-45.046536	40.359381	-45.046536	40.359381	-0.207270	-99.105843
7.250000	-0.210270	-99.705688	-44.898002	38.895948	-44.898002	38.895948	-0.210270	-99.704861
7.300000	-0.213284	-100.304345	-44.751590	37.432891	-44.751590	37.432891	-0.213284	-100.303517
7.350000	-0.216366	-100.901191	-44.605767	35.971712	-44.605767	35.971712	-0.216365	-100.900362
7.400000	-0.219455	-101.497860	-44.462174	34.510721	-44.462174	34.510721	-0.219455	-101.497030
7.450000	-0.222621	-102.092583	-44.318991	33.051808	-44.318991	33.051808	-0.222621	-102.091754
7.500000	-0.225788	-102.687306	-44.178130	31.592895	-44.178130	31.592895	-0.225787	-102.686477
7.550000	-0.229039	-103.279960	-44.037519	30.136253	-44.037519	30.136253	-0.229038	-103.279131
7.600000	-0.232291	-103.872614	-43.899149	28.679610	-43.899149	28.679610	-0.232290	-103.871786
7.650000	-0.235621	-104.463421	-43.761205	27.225048	-43.761205	27.225048	-0.235621	-104.462593
7.700000	-0.238960	-105.054060	-43.625263	25.770674	-43.625263	25.770674	-0.238960	-105.053232
7.750000	-0.242371	-105.643066	-43.489907	24.318181	-43.489907	24.318181	-0.242371	-105.642239
7.800000	-0.245798	-106.231745	-43.356331	22.866064	-43.356331	22.866064	-0.245798	-106.230919
7.850000	-0.249292	-106.818997	-43.223487	21.415624	-43.223487	21.415624	-0.249292	-106.818172
7.900000	-0.252809	-107.405773	-43.092219	19.965744	-43.092219	19.965744	-0.252808	-107.404950
7.950000	-0.256385	-107.991319	-42.961814	18.517334	-42.961814	18.517334	-0.256385	-107.990497
8.000000	-0.259993	-108.576251	-42.832799	17.069660	-42.832799	17.069660	-0.259993	-108.575430
8.050000	-0.263654	-109.160141	-42.704762	15.623249	-42.704762	15.623249	-0.263654	-109.159322
8.100000	-0.267354	-109.743287	-42.577944	14.177741	-42.577944	14.177741	-0.267353	-109.742471
8.150000	-0.271100	-110.325571	-42.452209	12.733292	-42.452209	12.733292	-0.271100	-110.324757
8.200000	-0.274894	-110.906993	-42.327537	11.289901	-42.327537	11.289901	-0.274893	-110.906181
8.250000	-0.278727	-111.487722	-42.204041	9.847366	-42.204041	9.847366	-0.278726	-111.486913
8.300000	-0.282615	-112.067482	-42.081464	8.406031	-42.081464	8.406031	-0.282614	-112.066675
8.350000	-0.286535	-112.646708	-41.960145	6.965357	-41.960145	6.965357	-0.286535	-112.645904
8.400000	-0.290519	-113.224869	-41.839614	5.526007	-41.839614	5.526007	-0.290519	-113.224068
8.450000	-0.294528	-113.802646	-41.720414	4.087132	-41.720414	4.087132	-0.294528	-113.801848
8.500000	-0.298609	-114.379272	-41.601885	2.649685	-41.601885	2.649685	-0.298609	-114.378477
8.550000	-0.302708	-114.955653	-41.484749	1.212539	-41.484749	1.212539	-0.302707	-114.954862
8.600000	-0.306887	-115.530811	-41.368177	-0.223100	-41.368177	-0.223100	-0.306886	-115.530024
8.650000	-0.311075	-116.105853	-41.253054	-1.658596	-41.253054	-1.658596	-0.311075	-116.105069
8.700000	-0.315353	-116.679609	-41.138398	-3.092530	-41.138398	-3.092530	-0.315353	-116.678829
8.750000	-0.319634	-117.253366	-41.025236	-4.526464	-41.025236	-4.526464	-0.319633	-117.252590
8.800000	-0.324012	-117.825790	-40.912458	-5.958809	-40.912458	-5.958809	-0.324011	-117.825018
8.850000	-0.328392	-118.398214	-40.801126	-7.391155	-40.801126	-7.391155	-0.328391	-118.397447
8.900000	-0.332863	-118.969481	-40.690276	-8.822160	-40.690276	-8.822160	-0.332862	-118.968718
8.950000	-0.337344	-119.540642	-40.580739	-10.253043	-40.580739	-10.253043	-0.337343	-119.539883
9.000000	-0.341908	-120.110810	-40.471773	-11.682823	-40.471773	-11.682823	-0.341907	-120.110056
9.050000	-0.346491	-120.680780	-40.364001	-13.112382	-40.364001	-13.112382	-0.346490	-120.680031
9.100000	-0.351149	-121.249910	-40.256880	-14.541059	-40.256880	-14.541059	-0.351148	-121.249166
9.150000	-0.355835	-121.818761	-40.150843	-15.969443	-40.150843	-15.969443	-0.355834	-121.818021
9.200000	-0.360588	-122.386914	-40.045530	-17.397149	-40.045530	-17.397149	-0.360587	-122.386179
9.250000	-0.365377	-122.954719	-39.941203	-18.824516	-39.941203	-18.824516	-0.365375	-122.953989
9.300000	-0.370225	-123.521958	-39.837664	-20.251388	-39.837664	-20.251388	-0.370224	-123.521233
9.350000	-0.375118	-124.088792	-39.735025	-21.677907	-39.735025	-21.677907	-0.375116	-124.088073
9.400000	-0.380062	-124.655180	-39.633230	-23.104090	-39.633230	-23.104090	-0.380060	-124.654466
9.450000	-0.385058	-125.221120	-39.532261	-24.529938	-39.532261	-24.529938	-0.385056	-125.220412
9.500000	-0.390099	-125.786721	-39.432181	-25.955583	-39.432181	-25.955583	-0.390097	-125.786019
9.550000	-0.395200	-126.351846	-39.332866	-27.380946	-39.332866	-27.380946	-0.395197	-126.351149
9.600000	-0.400337	-126.916725	-39.234479	-28.806211	-39.234479	-28.806211	-0.400334	-126.916034
9.650000	-0.405543	-127.481114	-39.136807	-30.231282	-39.136807	-30.231282	-0.405540	-127.480428
9.700000	-0.410777	-128.045338	-39.040091	-31.656329	-39.040091	-31.656329	-0.410774	-128.044658
9.750000	-0.416088	-128.609071	-38.944055	-33.081306	-38.944055	-33.081306	-0.416084	-128.608396
9.800000	-0.421418	-129.172708	-38.848993	-34.506302	-38.848993	-34.506302	-0.421415	-129.172039
9.850000	-0.426835	-129.735867	-38.754589	-35.931390	-38.754589	-35.931390	-0.426831	-129.735204
9.900000	-0.432262	-130.298986	-38.661168	-37.356505	-38.661168	-37.356505	-0.432258	-130.298329
9.950000	-0.437784	-130.861656	-38.568397	-38.781912	-38.568397	-38.781912	-0.437779	-130.861005
10.000000	-0.443309	-131.424326	-38.476607	-40.207319	-38.476607	-40.207319	-0.443304	-131.423680
