! freq	dB(S11)	phase(S11)	dB(S12)	phase(S12)	
!     	dB(S21)	phase(S21)	dB(S22)	phase(S22)	
!S-par simulation data
#  GHz  S  DB  R 50
0.000000	-0.000000	0.000000	-348.348193	0.000000	-348.348193	0.000000	0.000000	0.000000
0.050000	-0.000717	-1.167548	-101.814684	88.573171	-101.814684	88.573171	-0.001177	-1.792805
0.100000	-0.002460	-2.329983	-95.829758	87.165780	-95.829758	87.165780	-0.003945	-3.576438
0.150000	-0.004521	-3.486480	-92.367384	85.766900	-92.367384	85.766900	-0.007080	-5.349924
0.200000	-0.006477	-4.638767	-89.956411	84.386597	-89.956411	84.386597	-0.009959	-7.116379
0.250000	-0.008249	-5.789034	-88.125822	83.029724	-88.125822	83.029724	-0.012537	-8.879188
0.300000	-0.009847	-6.938212	-86.674214	81.705181	-86.674214	81.705181	-0.014873	-10.639483
0.350000	-0.011320	-8.086840	-85.492657	80.421990	-85.492657	80.421990	-0.017059	-12.397789
0.400000	-0.012712	-9.235107	-84.517561	79.191294	-84.517561	79.191294	-0.019169	-14.154113
0.450000	-0.014054	-10.382978	-83.714643	78.032647	-83.714643	78.032647	-0.021250	-15.908015
0.500000	-0.015373	-11.530399	-83.048880	76.955037	-83.048880	76.955037	-0.023330	-17.659381
0.550000	-0.016684	-12.677249	-82.501380	75.975725	-82.501380	75.975725	-0.025421	-19.407862
0.600000	-0.017993	-13.823402	-82.058832	75.115327	-82.058832	75.115327	-0.027525	-21.153105
0.650000	-0.019308	-14.968734	-81.711789	74.398749	-81.711789	74.398749	-0.029644	-22.894762
0.700000	-0.020630	-16.113127	-81.453575	73.856424	-81.453575	73.856424	-0.031774	-24.632498
0.750000	-0.021963	-17.256402	-81.284375	73.541968	-81.284375	73.541968	-0.033910	-26.365713
0.800000	-0.023307	-18.398453	-81.200392	73.510186	-81.200392	73.510186	-0.036048	-28.094086
0.850000	-0.024662	-19.539328	-81.190270	73.787631	-81.190270	73.787631	-0.038183	-29.817876
0.900000	-0.026029	-20.678799	-81.260489	74.498049	-81.260489	74.498049	-0.040311	-31.536231
0.950000	-0.027406	-21.816840	-81.404325	75.734222	-81.404325	75.734222	-0.042427	-33.249092
1.000000	-0.028793	-22.953383	-81.615354	77.632474	-81.615354	77.632474	-0.044529	-34.956213
1.050000	-0.030188	-24.088365	-81.881410	80.362218	-81.881410	80.362218	-0.046613	-36.657363
1.100000	-0.031591	-25.221731	-82.180080	84.122129	-82.180080	84.122129	-0.048678	-38.352327
1.150000	-0.033000	-26.353426	-82.472521	89.116823	-82.472521	89.116823	-0.050721	-40.040905
1.200000	-0.034414	-27.483405	-82.697352	95.494992	-82.697352	95.494992	-0.052741	-41.722907
1.250000	-0.035832	-28.611623	-82.770653	103.235008	-82.770653	103.235008	-0.054738	-43.398159
1.300000	-0.037253	-29.737998	-82.595235	112.016540	-82.595235	112.016540	-0.056710	-45.066342
1.350000	-0.038676	-30.862532	-82.116290	121.126619	-82.116290	121.126619	-0.058659	-46.727451
1.400000	-0.040100	-31.985188	-81.339906	129.761422	-81.339906	129.761422	-0.060583	-48.381345
1.450000	-0.041525	-33.105934	-80.331578	137.303629	-80.331578	137.303629	-0.062484	-50.027893
1.500000	-0.042949	-34.224740	-79.180157	143.476177	-79.180157	143.476177	-0.064362	-51.666973
1.550000	-0.044372	-35.341574	-77.964357	148.288194	-77.964357	148.288194	-0.066218	-53.298474
1.600000	-0.045793	-36.456410	-76.739397	151.900693	-76.739397	151.900693	-0.068053	-54.922294
1.650000	-0.047214	-37.569222	-75.538467	154.519393	-75.538467	154.519393	-0.069868	-56.538338
1.700000	-0.048632	-38.679781	-74.369363	156.275192	-74.369363	156.275192	-0.071663	-58.145746
1.750000	-0.050048	-39.788445	-73.259852	157.467824	-73.259852	157.467824	-0.073441	-59.745899
1.800000	-0.051462	-40.895012	-72.201723	158.155515	-72.201723	158.155515	-0.075202	-61.338046
1.850000	-0.052874	-41.999461	-71.194186	158.440351	-71.194186	158.440351	-0.076949	-62.922127
1.900000	-0.054285	-43.101771	-70.234952	158.401609	-70.234952	158.401609	-0.078681	-64.498091
1.950000	-0.055693	-44.201924	-69.321078	158.100857	-69.321078	158.100857	-0.080401	-66.065891
2.000000	-0.057101	-45.299899	-68.449426	157.586130	-68.449426	157.586130	-0.082109	-67.625492
2.050000	-0.058508	-46.395681	-67.616903	156.895175	-67.616903	156.895175	-0.083807	-69.176862
2.100000	-0.059914	-47.489251	-66.820585	156.057894	-66.820585	156.057894	-0.085495	-70.719979
2.150000	-0.061320	-48.580594	-66.057762	155.098184	-66.057762	155.098184	-0.087176	-72.254828
2.200000	-0.062727	-49.669696	-65.325955	154.035306	-65.325955	154.035306	-0.088850	-73.781398
2.250000	-0.064134	-50.756542	-64.622916	152.884921	-64.622916	152.884921	-0.090519	-75.299687
2.300000	-0.065543	-51.841119	-63.946606	151.659864	-63.946606	151.659864	-0.092183	-76.809698
2.350000	-0.066955	-52.923415	-63.295186	150.370733	-63.295186	150.370733	-0.093843	-78.311441
2.400000	-0.068369	-54.003419	-62.666990	149.026350	-62.666990	149.026350	-0.095501	-79.804932
2.450000	-0.069786	-55.081120	-62.060513	147.634103	-62.060513	147.634103	-0.097158	-81.290191
2.500000	-0.071208	-56.156510	-61.474391	146.200220	-61.474391	146.200220	-0.098814	-82.767245
2.550000	-0.072634	-57.229479	-60.906611	144.728617	-60.906611	144.728617	-0.100470	-84.235774
2.600000	-0.074067	-58.300121	-60.356926	143.225516	-60.356926	143.225516	-0.102128	-85.696172
2.650000	-0.075505	-59.368430	-59.824296	141.694709	-59.824296	141.694709	-0.103787	-87.148482
2.700000	-0.076950	-60.434400	-59.307772	140.139472	-59.307772	140.139472	-0.105450	-88.592752
2.750000	-0.078403	-61.498027	-58.806488	138.562649	-58.806488	138.562649	-0.107116	-90.029034
2.800000	-0.079864	-62.559310	-58.319648	136.966716	-58.319648	136.966716	-0.108787	-91.457384
2.850000	-0.081334	-63.618245	-57.846520	135.353841	-57.846520	135.353841	-0.110463	-92.877865
2.900000	-0.082814	-64.674834	-57.386432	133.725928	-57.386432	133.725928	-0.112145	-94.290539
2.950000	-0.084305	-65.729075	-56.938762	132.084658	-56.938762	132.084658	-0.113833	-95.695477
3.000000	-0.085806	-66.780971	-56.502935	130.431515	-56.502935	130.431515	-0.115529	-97.092750
3.050000	-0.087320	-67.830525	-56.078419	128.767822	-56.078419	128.767822	-0.117233	-98.482434
3.100000	-0.088845	-68.877740	-55.664719	127.094754	-55.664719	127.094754	-0.118945	-99.864608
3.150000	-0.090384	-69.922621	-55.261374	125.413364	-55.261374	125.413364	-0.120667	-101.239354
3.200000	-0.091938	-70.965175	-54.867957	123.724596	-54.867957	123.724596	-0.122399	-102.606757
3.250000	-0.093505	-72.005409	-54.484065	122.029298	-54.484065	122.029298	-0.124141	-103.966905
3.300000	-0.095088	-73.043331	-54.109325	120.328238	-54.109325	120.328238	-0.125894	-105.319887
3.350000	-0.096687	-74.078951	-53.743385	118.622109	-53.743385	118.622109	-0.127659	-106.665798
3.400000	-0.098302	-75.112280	-53.385916	116.911541	-53.385916	116.911541	-0.129437	-108.004732
3.450000	-0.099935	-76.143330	-53.036606	115.197107	-53.036606	115.197107	-0.131227	-109.336787
3.500000	-0.101585	-77.172115	-52.695166	113.479329	-52.695166	113.479329	-0.133031	-110.662061
3.550000	-0.103254	-78.198647	-52.361318	111.758688	-52.361318	111.758688	-0.134849	-111.980656
3.600000	-0.104942	-79.222944	-52.034804	110.035622	-52.034804	110.035622	-0.136682	-113.292676
3.650000	-0.106650	-80.245020	-51.715377	108.310534	-51.715377	108.310534	-0.138531	-114.598224
3.700000	-0.108378	-81.264896	-51.402804	106.583796	-51.402804	106.583796	-0.140395	-115.897408
3.750000	-0.110128	-82.282588	-51.096865	104.855753	-51.096865	104.855753	-0.142276	-117.190334
3.800000	-0.111899	-83.298024	-50.797179	103.126691	-50.797179	103.126691	-0.144175	-118.476850
3.850000	-0.113693	-84.311321	-50.503737	101.396961	-50.503737	101.396961	-0.146091	-119.757339
3.900000	-0.115510	-85.322500	-50.216345	99.666831	-50.216345	99.666831	-0.148026	-121.031910
3.950000	-0.117351	-86.331586	-49.934822	97.936555	-49.934822	97.936555	-0.149979	-122.300678
4.000000	-0.119215	-87.338603	-49.658992	96.206365	-49.658992	96.206365	-0.151952	-123.563755
4.050000	-0.121104	-88.343577	-49.388689	94.476482	-49.388689	94.476482	-0.153945	-124.821255
4.100000	-0.123019	-89.346535	-49.123752	92.747109	-49.123752	92.747109	-0.155958	-126.073293
4.150000	-0.124959	-90.347505	-48.864028	91.018435	-48.864028	91.018435	-0.157993	-127.319986
4.200000	-0.126925	-91.346515	-48.609372	89.290640	-48.609372	89.290640	-0.160048	-128.561449
4.250000	-0.128918	-92.343597	-48.359641	87.563889	-48.359641	87.563889	-0.162126	-129.797798
4.300000	-0.130938	-93.338780	-48.114701	85.838336	-48.114701	85.838336	-0.164227	-131.029152
4.350000	-0.132987	-94.332098	-47.874421	84.114128	-47.874421	84.114128	-0.166351	-132.255627
4.400000	-0.135064	-95.323584	-47.638676	82.391398	-47.638676	82.391398	-0.168498	-133.477341
4.450000	-0.137170	-96.313272	-47.407346	80.670273	-47.407346	80.670273	-0.170669	-134.694414
4.500000	-0.139305	-97.301197	-47.180315	78.950871	-47.180315	78.950871	-0.172865	-135.906962
4.550000	-0.141471	-98.287396	-46.957469	77.233299	-46.957469	77.233299	-0.175086	-137.115106
4.600000	-0.143667	-99.271906	-46.738702	75.517660	-46.738702	75.517660	-0.177332	-138.318963
4.650000	-0.145894	-100.254766	-46.523908	73.804047	-46.523908	73.804047	-0.179604	-139.518653
4.700000	-0.148153	-101.236014	-46.312987	72.092546	-46.312987	72.092546	-0.181902	-140.714296
4.750000	-0.150444	-102.215692	-46.105842	70.383238	-46.105842	70.383238	-0.184227	-141.906009
4.800000	-0.152767	-103.193841	-45.902378	68.676196	-45.902378	68.676196	-0.186580	-143.093912
4.850000	-0.155124	-104.170502	-45.702505	66.971487	-45.702505	66.971487	-0.188959	-144.278125
4.900000	-0.157515	-105.145720	-45.506135	65.269171	-45.506135	65.269171	-0.191366	-145.458766
4.950000	-0.159939	-106.119538	-45.313182	63.569304	-45.313182	63.569304	-0.193802	-146.635955
5.000000	-0.162398	-107.092002	-45.123566	61.871936	-45.123566	61.871936	-0.196265	-147.809811
5.050000	-0.164894	-108.063104	-44.937173	60.177224	-44.937173	60.177224	-0.198759	-148.980318
5.100000	-0.167425	-109.032948	-44.753966	58.485098	-44.753966	58.485098	-0.201282	-150.147740
5.150000	-0.169993	-110.001584	-44.573869	56.795591	-44.573869	56.795591	-0.203833	-151.312197
5.200000	-0.172597	-110.969060	-44.396812	55.108734	-44.396812	55.108734	-0.206415	-152.473806
5.250000	-0.175238	-111.935427	-44.222725	53.424551	-44.222725	53.424551	-0.209026	-153.632685
5.300000	-0.177916	-112.900735	-44.051541	51.743063	-44.051541	51.743063	-0.211666	-154.788954
5.350000	-0.180633	-113.865037	-43.883196	50.064289	-43.883196	50.064289	-0.214337	-155.942731
5.400000	-0.183388	-114.828384	-43.717628	48.388240	-43.717628	48.388240	-0.217038	-157.094132
5.450000	-0.186181	-115.790831	-43.554778	46.714928	-43.554778	46.714928	-0.219769	-158.243277
5.500000	-0.189015	-116.752431	-43.394588	45.044360	-43.394588	45.044360	-0.222531	-159.390283
5.550000	-0.191887	-117.713242	-43.237005	43.376539	-43.237005	43.376539	-0.225323	-160.535267
5.600000	-0.194801	-118.673317	-43.081974	41.711468	-43.081974	41.711468	-0.228145	-161.678346
5.650000	-0.197754	-119.632716	-42.929445	40.049145	-42.929445	40.049145	-0.230998	-162.819638
5.700000	-0.200749	-120.591495	-42.779371	38.389567	-42.779371	38.389567	-0.233881	-163.959260
5.750000	-0.203786	-121.549715	-42.631705	36.732730	-42.631705	36.732730	-0.236795	-165.097328
5.800000	-0.206864	-122.507434	-42.486404	35.078626	-42.486404	35.078626	-0.239739	-166.233959
5.850000	-0.209985	-123.464713	-42.343425	33.427249	-42.343425	33.427249	-0.242713	-167.369269
5.900000	-0.213148	-124.421615	-42.202729	31.778588	-42.202729	31.778588	-0.245718	-168.503376
5.950000	-0.216355	-125.378201	-42.064279	30.132635	-42.064279	30.132635	-0.248752	-169.636394
6.000000	-0.219605	-126.334535	-41.928038	28.489378	-41.928038	28.489378	-0.251817	-170.768441
6.050000	-0.222900	-127.290682	-41.793973	26.848808	-41.793973	26.848808	-0.254911	-171.899631
6.100000	-0.226239	-128.246705	-41.662052	25.210913	-41.662052	25.210913	-0.258035	-173.030081
6.150000	-0.229622	-129.202672	-41.532246	23.575683	-41.532246	23.575683	-0.261188	-174.159906
6.200000	-0.233051	-130.158649	-41.404526	21.943108	-41.404526	21.943108	-0.264370	-175.289222
6.250000	-0.236526	-131.114705	-41.278868	20.313180	-41.278868	20.313180	-0.267581	-176.418144
6.300000	-0.240048	-132.070916	-41.155258	18.686005	-41.155258	18.686005	-0.270822	-177.546781
6.350000	-0.243617	-133.027351	-41.033667	17.061462	-41.033667	17.061462	-0.274091	-178.675265
6.400000	-0.247233	-133.984079	-40.914073	15.439547	-40.914073	15.439547	-0.277388	-179.803711
6.450000	-0.250896	-134.941172	-40.796457	13.820258	-40.796457	13.820258	-0.280712	179.067767
6.500000	-0.254606	-135.898703	-40.680803	12.203594	-40.680803	12.203594	-0.284063	177.939052
6.550000	-0.258364	-136.856744	-40.567096	10.589559	-40.567096	10.589559	-0.287442	176.810030
6.600000	-0.262170	-137.815371	-40.455321	8.978159	-40.455321	8.978159	-0.290846	175.680587
6.650000	-0.266025	-138.774657	-40.345466	7.369401	-40.345466	7.369401	-0.294276	174.550609
6.700000	-0.269929	-139.734681	-40.237520	5.763300	-40.237520	5.763300	-0.297732	173.419979
6.750000	-0.273882	-140.695517	-40.131474	4.159870	-40.131474	4.159870	-0.301213	172.288585
6.800000	-0.277884	-141.657245	-40.027321	2.559131	-40.027321	2.559131	-0.304719	171.156311
6.850000	-0.281936	-142.619944	-39.925053	0.961109	-39.925053	0.961109	-0.308248	170.023043
6.900000	-0.286039	-143.583693	-39.824665	-0.634169	-39.824665	-0.634169	-0.311802	168.888667
6.950000	-0.290191	-144.548572	-39.726153	-2.226669	-39.726153	-2.226669	-0.315378	167.753069
7.000000	-0.294395	-145.514665	-39.629513	-3.816353	-39.629513	-3.816353	-0.318977	166.616134
7.050000	-0.298649	-146.482054	-39.534745	-5.403177	-39.534745	-5.403177	-0.322598	165.477749
7.100000	-0.302955	-147.450821	-39.441845	-6.987094	-39.441845	-6.987094	-0.326241	164.337799
7.150000	-0.307312	-148.421053	-39.350815	-8.568049	-39.350815	-8.568049	-0.329904	163.196171
7.200000	-0.311721	-149.392835	-39.261656	-10.145982	-39.261656	-10.145982	-0.333589	162.052751
7.250000	-0.316182	-150.366253	-39.174367	-11.720829	-39.174367	-11.720829	-0.337293	160.907424
7.300000	-0.320695	-151.341396	-39.088952	-13.292519	-39.088952	-13.292519	-0.341017	159.760079
7.350000	-0.325261	-152.318351	-39.005413	-14.860974	-39.005413	-14.860974	-0.344760	158.610601
7.400000	-0.329879	-153.297209	-38.923753	-16.426111	-38.923753	-16.426111	-0.348521	157.458876
7.450000	-0.334550	-154.278060	-38.843975	-17.987843	-38.843975	-17.987843	-0.352301	156.304793
7.500000	-0.339274	-155.260997	-38.766084	-19.546073	-38.766084	-19.546073	-0.356098	155.148237
7.550000	-0.344053	-156.246210	-38.690137	-21.100539	-38.690137	-21.100539	-0.359912	153.988979
7.600000	-0.348886	-157.233703	-38.616089	-22.651285	-38.616089	-22.651285	-0.363744	152.827013
7.650000	-0.353772	-158.223571	-38.543943	-24.198197	-38.543943	-24.198197	-0.367591	151.662227
7.700000	-0.358712	-159.215910	-38.473704	-25.741156	-38.473704	-25.741156	-0.371454	150.494509
7.750000	-0.363705	-160.210818	-38.405375	-27.280036	-38.405375	-27.280036	-0.375333	149.323748
7.800000	-0.368752	-161.208392	-38.338960	-28.814706	-38.338960	-28.814706	-0.379226	148.149833
7.850000	-0.373853	-162.208731	-38.274464	-30.345029	-38.274464	-30.345029	-0.383134	146.972652
7.900000	-0.379008	-163.211935	-38.211888	-31.870863	-38.211888	-31.870863	-0.387057	145.792095
7.950000	-0.384216	-164.218106	-38.151237	-33.392061	-38.151237	-33.392061	-0.390993	144.608052
8.000000	-0.389479	-165.227347	-38.092512	-34.908472	-38.092512	-34.908472	-0.394944	143.420414
8.050000	-0.394795	-166.239759	-38.035715	-36.419939	-38.035715	-36.419939	-0.398908	142.229071
8.100000	-0.400165	-167.255448	-37.980847	-37.926301	-37.980847	-37.926301	-0.402885	141.033916
8.150000	-0.405589	-168.274519	-37.927909	-39.427393	-37.927909	-39.427393	-0.406877	139.834840
8.200000	-0.411067	-169.297078	-37.876900	-40.923049	-37.876900	-40.923049	-0.410881	138.631737
8.250000	-0.416598	-170.323233	-37.827819	-42.413095	-37.827819	-42.413095	-0.414899	137.424501
8.300000	-0.422183	-171.353093	-37.780663	-43.897359	-37.780663	-43.897359	-0.418931	136.213026
8.350000	-0.427821	-172.386766	-37.735431	-45.375662	-37.735431	-45.375662	-0.422976	134.997209
8.400000	-0.433512	-173.424363	-37.692116	-46.847827	-37.692116	-46.847827	-0.427035	133.776945
8.450000	-0.439256	-174.465996	-37.650716	-48.313672	-37.650716	-48.313672	-0.431109	132.552132
8.500000	-0.445053	-175.511777	-37.611223	-49.773016	-37.611223	-49.773016	-0.435197	131.322669
8.550000	-0.450902	-176.561820	-37.573631	-51.225677	-37.573631	-51.225677	-0.439300	130.088457
8.600000	-0.456803	-177.616238	-37.537930	-52.671471	-37.537930	-52.671471	-0.443419	128.849397
8.650000	-0.462756	-178.675148	-37.504113	-54.110216	-37.504113	-54.110216	-0.447553	127.605391
8.700000	-0.468760	-179.738664	-37.472167	-55.541730	-37.472167	-55.541730	-0.451705	126.356345
8.750000	-0.474815	179.193095	-37.442083	-56.965832	-37.442083	-56.965832	-0.455875	125.102163
8.800000	-0.480923	178.119796	-37.413922	-58.382004	-37.413922	-58.382004	-0.460064	123.842522
8.850000	-0.487080	177.041525	-37.387594	-59.790390	-37.387594	-59.790390	-0.464273	122.577556
8.900000	-0.493287	175.958164	-37.363085	-61.190816	-37.363085	-61.190816	-0.468502	121.307176
8.950000	-0.499542	174.869590	-37.340377	-62.583109	-37.340377	-62.583109	-0.472754	120.031296
9.000000	-0.505846	173.775685	-37.319454	-63.967102	-37.319454	-63.967102	-0.477030	118.749831
9.050000	-0.512198	172.676325	-37.300295	-65.342628	-37.300295	-65.342628	-0.481331	117.462702
9.100000	-0.518596	171.571390	-37.282883	-66.709528	-37.282883	-66.709528	-0.485658	116.169828
9.150000	-0.525040	170.460755	-37.267196	-68.067644	-37.267196	-68.067644	-0.490014	114.871134
9.200000	-0.531529	169.344298	-37.253211	-69.416824	-37.253211	-69.416824	-0.494401	113.566545
9.250000	-0.538062	168.221895	-37.240908	-70.756922	-37.240908	-70.756922	-0.498820	112.255992
9.300000	-0.544639	167.093423	-37.230262	-72.087797	-37.230262	-72.087797	-0.503273	110.939406
9.350000	-0.551259	165.958756	-37.221248	-73.409312	-37.221248	-73.409312	-0.507764	109.616723
9.400000	-0.557919	164.817770	-37.213842	-74.721339	-37.213842	-74.721339	-0.512295	108.287883
9.450000	-0.564620	163.670341	-37.208018	-76.023753	-37.208018	-76.023753	-0.516868	106.952828
9.500000	-0.571360	162.516344	-37.203748	-77.316437	-37.203748	-77.316437	-0.521486	105.611504
9.550000	-0.578138	161.355655	-37.201006	-78.599280	-37.201006	-78.599280	-0.526152	104.263861
9.600000	-0.584952	160.188148	-37.199764	-79.872178	-37.199764	-79.872178	-0.530869	102.909855
9.650000	-0.591801	159.013699	-37.199993	-81.135034	-37.199993	-81.135034	-0.535641	101.549443
9.700000	-0.598685	157.832186	-37.201664	-82.387757	-37.201664	-82.387757	-0.540471	100.182589
9.750000	-0.605600	156.643483	-37.204748	-83.630264	-37.204748	-83.630264	-0.545363	98.809261
9.800000	-0.612546	155.447469	-37.209214	-84.862478	-37.209214	-84.862478	-0.550320	97.429430
9.850000	-0.619521	154.244021	-37.215033	-86.084329	-37.215033	-86.084329	-0.555347	96.043075
9.900000	-0.626523	153.033018	-37.222175	-87.295755	-37.222175	-87.295755	-0.560448	94.650177
9.950000	-0.633550	151.814341	-37.230608	-88.496701	-37.230608	-88.496701	-0.565627	93.250726
10.000000	-0.640602	150.587869	-37.240302	-89.687118	-37.240302	-89.687118	-0.570889	91.844714
