! freq	dB(S11)	phase(S11)	dB(S12)	phase(S12)	
!     	dB(S21)	phase(S21)	dB(S22)	phase(S22)	
!S-par simulation data
#  GHz  S  DB  R 50
0.000000	-79.676127	0.000000	-0.000902	0.000000	-0.000902	0.000000	-79.676127	0.000000
0.050000	-61.149500	42.816707	-0.004733	-2.931634	-0.004733	-2.931634	-60.967937	42.657059
0.100000	-58.741985	52.419435	-0.011203	-5.876148	-0.011203	-5.876148	-58.347070	48.729932
0.150000	-56.624284	60.040600	-0.017647	-8.812513	-0.017647	-8.812513	-56.135628	52.733262
0.200000	-54.848176	64.836098	-0.023618	-11.735729	-0.023618	-11.735729	-54.323372	53.847622
0.250000	-53.391782	68.085999	-0.028956	-14.650092	-0.028956	-14.650092	-52.859840	53.315123
0.300000	-52.200419	70.362144	-0.033562	-17.558533	-0.033562	-17.558533	-51.681050	51.626958
0.350000	-51.227888	72.098529	-0.037494	-20.463952	-0.037494	-20.463952	-50.737070	49.128208
0.400000	-50.439550	73.577774	-0.040864	-23.368375	-0.040864	-23.368375	-49.993441	45.996031
0.450000	-49.817121	75.019163	-0.043778	-26.273254	-0.043778	-26.273254	-49.437191	42.271959
0.500000	-49.328421	76.604097	-0.046404	-29.179397	-0.046404	-29.179397	-49.038721	38.029213
0.550000	-48.954605	78.482944	-0.048838	-32.087280	-0.048838	-32.087280	-48.786987	33.231488
0.600000	-48.677266	80.808386	-0.051154	-34.997216	-0.051154	-34.997216	-48.674871	27.794725
0.650000	-48.475394	83.740611	-0.053413	-37.909421	-0.053413	-37.909421	-48.696932	21.578839
0.700000	-48.321854	87.443826	-0.055662	-40.824049	-0.055662	-40.824049	-48.846060	14.372657
0.750000	-48.176822	92.131616	-0.057942	-43.741388	-0.057942	-43.741388	-49.111369	5.769710
0.800000	-47.980148	97.892726	-0.060285	-46.661539	-0.060285	-46.661539	-49.445951	-4.697366
0.850000	-47.660842	104.626078	-0.062712	-49.584544	-0.062712	-49.584544	-49.748508	-17.477331
0.900000	-47.170668	112.007885	-0.065232	-52.510296	-0.065232	-52.510296	-49.874368	-32.580320
0.950000	-46.459660	119.636855	-0.067861	-55.439066	-0.067861	-55.439066	-49.618554	-49.699800
1.000000	-45.524296	126.956931	-0.070609	-58.370973	-0.070609	-58.370973	-48.835067	-67.471046
1.050000	-44.400993	133.485203	-0.073480	-61.306150	-0.073480	-61.306150	-47.554708	-84.117819
1.100000	-43.148518	138.936994	-0.076477	-64.244747	-0.076477	-64.244747	-45.958028	-98.491519
1.150000	-41.826447	143.238250	-0.079604	-67.186929	-0.079604	-67.186929	-44.237251	-110.430613
1.200000	-40.482203	146.459045	-0.082860	-70.132885	-0.082860	-70.132885	-42.517421	-120.322804
1.250000	-39.148052	148.736277	-0.086246	-73.082822	-0.086246	-73.082822	-40.859557	-128.658836
1.300000	-37.836976	150.193043	-0.089769	-76.037164	-0.089769	-76.037164	-39.278716	-135.815435
1.350000	-36.567467	151.006871	-0.093426	-78.995993	-0.093426	-78.995993	-37.789179	-142.152738
1.400000	-35.343840	151.292823	-0.097221	-81.959585	-0.097221	-81.959585	-36.386324	-147.879694
1.450000	-34.167065	151.144772	-0.101160	-84.928237	-0.101160	-84.928237	-35.062959	-153.145317
1.500000	-33.041456	150.655259	-0.105243	-87.901962	-0.105243	-87.901962	-33.817134	-158.072920
1.550000	-31.955158	149.850112	-0.109497	-90.881617	-0.109497	-90.881617	-32.630671	-162.707352
1.600000	-30.910428	148.794277	-0.113931	-93.867324	-0.113931	-93.867324	-31.502162	-167.123538
1.650000	-29.904758	147.526346	-0.118565	-96.859446	-0.118565	-96.859446	-30.425875	-171.365126
1.700000	-28.935661	146.077330	-0.123424	-99.858357	-0.123424	-99.858357	-29.396812	-175.465436
1.750000	-28.000756	144.472290	-0.128537	-102.864442	-0.128537	-102.864442	-28.410640	-179.450300
1.800000	-27.097822	142.731614	-0.133937	-105.878089	-0.133937	-105.878089	-27.463594	176.659968
1.850000	-26.224810	140.871994	-0.139666	-108.899689	-0.139666	-108.899689	-26.552411	172.849177
1.900000	-25.379272	138.906174	-0.145772	-111.929728	-0.145772	-111.929728	-25.673646	169.104849
1.950000	-24.559617	136.845882	-0.152309	-114.968606	-0.152309	-114.968606	-24.824935	165.416017
2.000000	-23.764912	134.701673	-0.159329	-118.016612	-0.159329	-118.016612	-24.004729	161.773259
2.050000	-22.993759	132.481462	-0.166896	-121.074116	-0.166896	-121.074116	-23.211108	158.169305
2.100000	-22.244901	130.191946	-0.175078	-124.141474	-0.175078	-124.141474	-22.442384	154.598032
2.150000	-21.517210	127.838822	-0.183951	-127.219025	-0.183951	-127.219025	-21.697070	151.054238
2.200000	-20.809671	125.426974	-0.193595	-130.307087	-0.193595	-130.307087	-20.973854	147.533481
2.250000	-20.121375	122.960608	-0.204098	-133.405956	-0.204098	-133.405956	-20.271573	144.031940
2.300000	-19.451509	120.443380	-0.215552	-136.515901	-0.215552	-136.515901	-19.589201	140.546317
2.350000	-18.799343	117.878488	-0.228057	-139.637157	-0.228057	-139.637157	-18.925826	137.073757
2.400000	-18.164226	115.268754	-0.241716	-142.769928	-0.241716	-142.769928	-18.280641	133.611783
2.450000	-17.545577	112.616693	-0.256640	-145.914377	-0.256640	-145.914377	-17.652929	130.158247
2.500000	-16.942877	109.924568	-0.272944	-149.070625	-0.272944	-149.070625	-17.042055	126.711291
2.550000	-16.355152	107.193661	-0.290785	-152.239004	-0.290785	-152.239004	-16.446938	123.269395
2.600000	-15.782576	104.426733	-0.310259	-155.419276	-0.310259	-155.419276	-15.867669	119.831067
2.650000	-15.224783	101.625553	-0.331497	-158.611401	-0.331497	-158.611401	-15.303804	116.395173
2.700000	-14.681449	98.791796	-0.354632	-161.815278	-0.354632	-161.815278	-14.754949	112.960777
2.750000	-14.152762	95.927869	-0.379747	-165.030432	-0.379747	-165.030432	-14.221237	109.527123
2.800000	-13.637568	93.033840	-0.407080	-168.257192	-0.407080	-168.257192	-13.701451	106.093661
2.850000	-13.135936	90.111706	-0.436750	-171.495080	-0.436750	-171.495080	-13.195615	102.659962
2.900000	-12.647774	87.163163	-0.468891	-174.743638	-0.468891	-174.743638	-12.703598	99.225778
2.950000	-12.172951	84.189815	-0.503642	-178.002358	-0.503642	-178.002358	-12.225229	95.791025
3.000000	-11.711308	81.193202	-0.541146	178.729323	-0.541146	178.729323	-11.760320	92.355766
3.050000	-11.262706	78.174889	-0.581542	175.452061	-0.581542	175.452061	-11.308699	88.920209
3.100000	-10.827015	75.136470	-0.624970	172.166599	-0.624970	172.166599	-10.870213	85.484699
3.150000	-10.404077	72.079482	-0.671577	168.873739	-0.671577	168.873739	-10.444681	82.049721
3.200000	-9.993799	69.005623	-0.721490	165.574429	-0.721490	165.574429	-10.031990	78.615894
3.250000	-9.596118	65.916700	-0.774812	162.269732	-0.774812	162.269732	-9.632059	75.183943
3.300000	-9.210927	62.814457	-0.831651	158.960758	-0.831651	158.960758	-9.244767	71.754708
3.350000	-8.838038	59.700436	-0.892182	155.648657	-0.892182	155.648657	-8.869912	68.329244
3.400000	-8.477513	56.576935	-0.956348	152.334828	-0.956348	152.334828	-8.507545	64.908422
3.450000	-8.129154	53.445569	-1.024281	149.020557	-1.024281	149.020557	-8.157459	61.493429
3.500000	-7.792840	50.308200	-1.096034	145.707256	-1.096034	145.707256	-7.819522	58.085457
3.550000	-7.468442	47.166699	-1.171643	142.396391	-1.171643	142.396391	-7.493598	54.685756
3.600000	-7.155822	44.022941	-1.251129	139.089472	-1.251129	139.089472	-7.179540	51.295626
3.650000	-6.854830	40.878797	-1.334489	135.788044	-1.334489	135.788044	-6.877194	47.916399
3.700000	-6.565308	37.736120	-1.421706	132.493671	-1.421706	132.493671	-6.586395	44.549431
3.750000	-6.287085	34.596739	-1.512739	129.207924	-1.512739	129.207924	-6.306966	41.196083
3.800000	-6.020045	31.462596	-1.607583	125.932628	-1.607583	125.932628	-6.038787	37.858070
3.850000	-5.763947	28.335362	-1.706094	122.669142	-1.706094	122.669142	-5.781609	34.536434
3.900000	-5.518581	25.216719	-1.808168	119.418977	-1.808168	119.418977	-5.535220	31.232482
3.950000	-5.283725	22.108284	-1.913684	116.183597	-1.913684	116.183597	-5.299394	27.947476
4.000000	-5.059148	19.011595	-2.022501	112.964411	-2.022501	112.964411	-5.073894	24.682623
4.050000	-4.844608	15.928104	-2.134460	109.762752	-2.134460	109.762752	-4.858474	21.439069
4.100000	-4.639855	12.859173	-2.249385	106.579876	-2.249385	106.579876	-4.652879	18.217881
4.150000	-4.444629	9.806063	-2.367084	103.416947	-2.367084	103.416947	-4.456848	15.020049
4.200000	-4.258664	6.769930	-2.487352	100.275030	-2.487352	100.275030	-4.270108	11.846473
4.250000	-4.081689	3.751820	-2.609970	97.155084	-2.609970	97.155084	-4.092387	8.697957
4.300000	-3.913427	0.752666	-2.734709	94.057960	-2.734709	94.057960	-3.923402	5.575209
4.350000	-3.753598	-2.226717	-2.861330	90.984389	-2.861330	90.984389	-3.762873	2.478835
4.400000	-3.601977	-5.185402	-2.989578	87.935255	-2.989578	87.935255	-3.610572	-0.590370
4.450000	-3.458282	-8.122792	-3.119190	84.911067	-3.119190	84.911067	-3.466212	-3.631999
4.500000	-3.322170	-11.038661	-3.249911	81.911927	-3.249911	81.911927	-3.329450	-6.646062
4.550000	-3.193357	-13.932673	-3.381476	78.938084	-3.381476	78.938084	-3.200001	-9.632384
4.600000	-3.071564	-16.804614	-3.513622	75.989665	-3.513622	75.989665	-3.077583	-12.590892
4.650000	-2.956515	-19.654380	-3.646084	73.066686	-3.646084	73.066686	-2.961920	-15.521613
4.700000	-2.847938	-22.481983	-3.778595	70.169046	-3.778595	70.169046	-2.852739	-18.424678
4.750000	-2.745568	-25.287544	-3.910890	67.296539	-3.910890	67.296539	-2.749775	-21.300313
4.800000	-2.649349	-28.070362	-4.042584	64.449903	-4.042584	64.449903	-2.652970	-24.147682
4.850000	-2.558568	-30.832872	-4.173681	61.626336	-4.173681	61.626336	-2.561612	-26.969811
4.900000	-2.473242	-33.574322	-4.303785	58.826671	-4.303785	58.826671	-2.475718	-29.765728
4.950000	-2.393136	-36.295236	-4.432639	56.050307	-4.432639	56.050307	-2.395052	-32.536011
5.000000	-2.318024	-38.996235	-4.559989	53.296552	-4.559989	53.296552	-2.319388	-35.281321
5.050000	-2.247864	-41.677232	-4.685421	50.565537	-4.685421	50.565537	-2.248683	-38.001384
5.100000	-2.182264	-44.339906	-4.808836	47.855407	-4.808836	47.855407	-2.182545	-40.698109
5.150000	-2.121027	-46.985156	-4.929993	45.165210	-4.929993	45.165210	-2.120775	-43.372396
5.200000	-2.063969	-49.613962	-5.048649	42.493917	-5.048649	42.493917	-2.063190	-46.025212
5.250000	-2.010917	-52.227391	-5.164568	39.840423	-5.164568	39.840423	-2.009613	-48.657599
5.300000	-1.961709	-54.826587	-5.277512	37.203547	-5.277512	37.203547	-1.959882	-51.270661
5.350000	-1.916195	-57.412778	-5.387243	34.582032	-5.387243	34.582032	-1.913844	-53.865574
5.400000	-1.874239	-59.987274	-5.493526	31.974545	-5.493526	31.974545	-1.871359	-56.443582
5.450000	-1.835715	-62.551465	-5.596122	29.379674	-5.596122	29.379674	-1.832299	-59.005996
5.500000	-1.800512	-65.106829	-5.694789	26.795925	-5.694789	26.795925	-1.796549	-61.554198
5.550000	-1.768533	-67.654927	-5.789285	24.221719	-5.789285	24.221719	-1.764006	-64.089644
5.600000	-1.739693	-70.197414	-5.879360	21.655385	-5.879360	21.655385	-1.734583	-66.613863
5.650000	-1.713925	-72.736041	-5.964758	19.095153	-5.964758	19.095153	-1.708204	-69.128467
5.700000	-1.691174	-75.272660	-6.045215	16.539146	-6.045215	16.539146	-1.684811	-71.635151
5.750000	-1.671405	-77.809233	-6.120457	13.985367	-6.120457	13.985367	-1.664361	-74.135702
5.800000	-1.654598	-80.347846	-6.190198	11.431691	-6.190198	11.431691	-1.646828	-76.632007
5.850000	-1.640754	-82.890710	-6.254135	8.875844	-6.254135	8.875844	-1.632205	-79.126063
5.900000	-1.629895	-85.440189	-6.311951	6.315387	-6.311951	6.315387	-1.620505	-81.619988
5.950000	-1.622065	-87.998805	-6.363306	3.747692	-6.363306	3.747692	-1.611766	-84.116032
6.000000	-1.617336	-90.569265	-6.407837	1.169918	-6.407837	1.169918	-1.606050	-86.616601
6.050000	-1.615806	-93.154484	-6.445153	-1.421022	-6.445153	-1.421022	-1.603446	-89.124269
6.100000	-1.617611	-95.757616	-6.474832	-4.028501	-6.474832	-4.028501	-1.604081	-91.641805
6.150000	-1.622922	-98.382086	-6.496412	-6.656221	-6.496412	-6.656221	-1.608116	-94.172204
6.200000	-1.631958	-101.031635	-6.509392	-9.308270	-6.509392	-9.308270	-1.615758	-96.718713
6.250000	-1.644990	-103.710371	-6.513219	-11.989186	-6.513219	-11.989186	-1.627269	-99.284882
6.300000	-1.662563	-106.424539	-6.506828	-14.705793	-6.506828	-14.705793	-1.643172	-101.875833
6.350000	-1.684929	-109.177993	-6.489930	-17.462643	-6.489930	-17.462643	-1.663714	-104.495076
6.400000	-1.712619	-111.976477	-6.461764	-20.266330	-6.461764	-20.266330	-1.689406	-107.147471
6.450000	-1.746284	-114.826475	-6.421476	-23.124389	-6.421476	-23.124389	-1.720882	-109.838460
6.500000	-1.786347	-117.731867	-6.368882	-26.041734	-6.368882	-26.041734	-1.758550	-112.571512
6.550000	-1.834454	-120.706739	-6.301632	-29.034466	-6.301632	-29.034466	-1.804010	-115.357881
6.600000	-1.891596	-123.758336	-6.219105	-32.111708	-6.219105	-32.111708	-1.858221	-118.203642
6.650000	-1.959382	-126.897891	-6.119980	-35.287268	-6.119980	-35.287268	-1.922740	-121.117882
6.700000	-2.040202	-130.141255	-6.002280	-38.580666	-6.002280	-38.580666	-1.999879	-124.113208
6.750000	-2.135502	-133.493962	-5.866219	-42.000182	-5.866219	-42.000182	-2.091021	-127.194006
6.800000	-2.251562	-136.995560	-5.706221	-45.594520	-5.706221	-45.594520	-2.202225	-130.390910
6.850000	-2.388879	-140.637122	-5.525682	-49.356246	-5.525682	-49.356246	-2.333920	-133.696389
6.900000	-2.558005	-144.473937	-5.317672	-53.356648	-5.317672	-53.356648	-2.496222	-137.151803
6.950000	-2.765699	-148.522617	-5.082587	-57.623096	-5.082587	-57.623096	-2.695504	-140.767161
7.000000	-3.025256	-152.824049	-4.817982	-62.217520	-4.817982	-62.217520	-2.944303	-144.568322
7.050000	-3.355446	-157.422190	-4.522414	-67.214290	-4.522414	-67.214290	-3.260152	-148.578275
7.100000	-3.780983	-162.351327	-4.197176	-72.688713	-4.197176	-72.688713	-3.665790	-152.804365
7.150000	-4.347184	-167.664259	-3.842988	-78.774796	-3.842988	-78.774796	-4.202429	-157.245983
7.200000	-5.120964	-173.365880	-3.467079	-85.610415	-3.467079	-85.610415	-4.928977	-161.826452
7.250000	-6.214486	-179.361376	-3.083807	-93.360425	-3.083807	-93.360425	-5.939432	-166.304570
7.300000	-7.828316	174.754039	-2.719057	-102.206839	-2.719057	-102.206839	-7.386184	-169.996125
7.350000	-10.350343	170.455395	-2.415411	-112.309785	-2.415411	-112.309785	-9.499777	-170.928191
7.400000	-14.559675	174.105695	-2.234681	-123.734184	-2.234681	-123.734184	-12.419061	-163.155790
7.450000	-19.282242	-143.759164	-2.251282	-136.343651	-2.251282	-136.343651	-14.429512	-135.489765
7.500000	-14.207437	-100.194354	-2.533186	-149.728644	-2.533186	-149.728644	-11.965676	-107.818845
7.550000	-9.454606	-98.095572	-3.108708	-163.246209	-3.108708	-163.246209	-8.550729	-101.610651
7.600000	-6.581655	-105.064084	-3.950143	-176.242233	-3.950143	-176.242233	-6.093086	-105.102578
7.650000	-4.782032	-113.932341	-4.987950	171.717357	-4.987950	171.717357	-4.458736	-111.631989
7.700000	-3.623721	-122.857323	-6.142948	160.782763	-6.142948	160.782763	-3.379425	-118.856631
7.750000	-2.868050	-131.274646	-7.343817	150.911888	-7.343817	150.911888	-2.665879	-125.932850
7.800000	-2.365049	-139.080554	-8.540885	141.924190	-8.540885	141.924190	-2.187022	-132.602062
7.850000	-2.025752	-146.324931	-9.700155	133.626895	-9.700155	133.626895	-1.861899	-138.831956
7.900000	-1.795132	-153.102153	-10.797776	125.843186	-10.797776	125.843186	-1.639396	-144.668573
7.950000	-1.639027	-159.506916	-11.813165	118.428059	-11.813165	118.428059	-1.487427	-150.176659
8.000000	-1.534034	-165.632964	-12.734315	111.259388	-12.734315	111.259388	-1.383878	-155.429438
8.050000	-1.465114	-171.557375	-13.551254	104.249953	-13.551254	104.249953	-1.314517	-160.490486
8.100000	-1.422535	-177.341306	-14.254078	97.343490	-14.254078	97.343490	-1.270154	-165.411826
8.150000	-1.399881	176.966089	-14.832597	90.509553	-14.832597	90.509553	-1.244770	-170.236107
8.200000	-1.392432	171.323042	-15.281982	83.737779	-15.281982	83.737779	-1.233989	-175.000661
8.250000	-1.396763	165.696082	-15.602808	77.032708	-15.602808	77.032708	-1.234688	-179.736409
8.300000	-1.410615	160.059255	-15.797139	70.408290	-15.797139	70.408290	-1.244873	175.532023
8.350000	-1.432345	154.391921	-15.871004	63.880591	-15.871004	63.880591	-1.263153	170.784141
8.400000	-1.460729	148.678045	-15.833980	57.462544	-15.833980	57.462544	-1.288550	166.002917
8.450000	-1.494865	142.905110	-15.697611	51.161600	-15.697611	51.161600	-1.320413	161.173773
8.500000	-1.534054	137.063570	-15.474848	44.978226	-15.474848	44.978226	-1.358300	156.283826
8.550000	-1.577514	131.150552	-15.182940	38.900767	-15.182940	38.900767	-1.401640	151.325321
8.600000	-1.624659	125.164915	-14.836401	32.915822	-14.836401	32.915822	-1.450065	146.291298
8.650000	-1.674918	119.108627	-14.448933	27.007586	-14.448933	27.007586	-1.503208	141.176686
8.700000	-1.727704	112.986598	-14.033010	21.160016	-14.033010	21.160016	-1.560673	135.978191
8.750000	-1.782400	106.806475	-13.599673	15.358518	-13.599673	15.358518	-1.622003	130.694205
8.800000	-1.838353	100.577158	-13.157684	9.591911	-13.157684	9.591911	-1.686748	125.321835
8.850000	-1.894808	94.313138	-12.716345	3.850016	-12.716345	3.850016	-1.754175	119.865741
8.900000	-1.951050	88.028764	-12.282390	-1.872797	-12.282390	-1.872797	-1.823575	114.330111
8.950000	-2.006295	81.739430	-11.860912	-7.578426	-11.860912	-7.578426	-1.894196	108.717357
9.000000	-2.059801	75.462085	-11.456404	-13.266786	-11.456404	-13.266786	-1.965173	103.034612
9.050000	-2.110850	69.213846	-11.072195	-18.935314	-11.072195	-18.935314	-2.035610	97.289376
9.100000	-2.158779	63.011726	-10.710760	-24.579687	-10.710760	-24.579687	-2.104594	91.490419
9.150000	-2.203010	56.872145	-10.373839	-30.194288	-10.373839	-30.194288	-2.171220	85.647672
9.200000	-2.243019	50.811396	-10.062701	-35.772208	-10.062701	-35.772208	-2.234584	79.771887
9.250000	-2.278467	44.843352	-9.777901	-41.306476	-9.777901	-41.306476	-2.293904	73.875278
9.300000	-2.309153	38.979889	-9.519489	-46.790072	-9.519489	-46.790072	-2.348523	67.970478
9.350000	-2.334985	33.231389	-9.287213	-52.215859	-9.287213	-52.215859	-2.397897	62.070371
9.400000	-2.355999	27.606273	-9.080515	-57.576961	-9.080515	-57.576961	-2.441640	56.188012
9.450000	-2.372325	22.111859	-8.898719	-62.866419	-8.898719	-62.866419	-2.479490	50.336667
9.500000	-2.384249	16.752286	-8.740736	-68.078503	-8.740736	-68.078503	-2.511423	44.529001
9.550000	-2.392164	11.529329	-8.605239	-73.208511	-8.605239	-73.208511	-2.537604	38.776753
9.600000	-2.396508	6.444092	-8.490919	-78.251964	-8.490919	-78.251964	-2.558317	33.091111
9.650000	-2.397780	1.496291	-8.396368	-83.205146	-8.396368	-83.205146	-2.573982	27.482349
9.700000	-2.396514	-3.314376	-8.320250	-88.064328	-8.320250	-88.064328	-2.585109	21.960516
9.750000	-2.393280	-7.988147	-8.261265	-92.825739	-8.261265	-92.825739	-2.592294	16.535640
9.800000	-2.388749	-12.531755	-8.217406	-97.490637	-8.217406	-97.490637	-2.596364	11.212328
9.850000	-2.383535	-16.948945	-8.187108	-102.058699	-8.187108	-102.058699	-2.598066	5.996287
9.900000	-2.378249	-21.243820	-8.168820	-106.530427	-8.168820	-106.530427	-2.598167	0.892105
9.950000	-2.373497	-25.420676	-8.161014	-110.907118	-8.161014	-110.907118	-2.597428	-4.096678
10.000000	-2.369864	-29.483871	-8.162201	-115.190831	-8.162201	-115.190831	-2.596586	-8.967493
