! freq	dB(S11)	phase(S11)	dB(S12)	phase(S12)	
!     	dB(S21)	phase(S21)	dB(S22)	phase(S22)	
!S-par simulation data
#  GHz  S  DB  R 50
0.000000	-0.000000	0.000000	-361.277026	0.000000	-361.277026	0.000000	-0.000000	0.000000
0.050000	-0.001659	-0.769317	-106.865603	86.838100	-106.865603	86.838100	-0.003237	-1.847013
0.100000	-0.003121	-1.524433	-100.952903	86.553411	-100.952903	86.553411	-0.006998	-3.664002
0.150000	-0.003889	-2.278030	-97.516269	85.711827	-97.516269	85.711827	-0.009219	-5.473388
0.200000	-0.004465	-3.032006	-95.117801	84.734844	-95.117801	84.734844	-0.010811	-7.282221
0.250000	-0.005015	-3.786215	-93.306776	83.721516	-93.306776	83.721516	-0.012213	-9.090914
0.300000	-0.005599	-4.540385	-91.883874	82.718593	-91.883874	82.718593	-0.013623	-10.898879
0.350000	-0.006233	-5.294339	-90.730665	81.750486	-90.730665	81.750486	-0.015113	-12.705673
0.400000	-0.006923	-6.047945	-89.787262	80.838367	-89.787262	80.838367	-0.016713	-14.510811
0.450000	-0.007669	-6.801105	-89.013174	80.001939	-89.013174	80.001939	-0.018431	-16.313916
0.500000	-0.008471	-7.553693	-88.389580	79.273443	-88.389580	79.273443	-0.020276	-18.114420
0.550000	-0.009321	-8.305682	-87.892535	78.674160	-87.892535	78.674160	-0.022229	-19.912174
0.600000	-0.010210	-9.057046	-87.507494	78.232150	-87.507494	78.232150	-0.024280	-21.706993
0.650000	-0.011135	-9.807749	-87.226010	77.985132	-87.226010	77.985132	-0.026415	-23.498660
0.700000	-0.012089	-10.557768	-87.042481	77.980632	-87.042481	77.980632	-0.028623	-25.286978
0.750000	-0.013068	-11.307081	-86.953319	78.279416	-86.953319	78.279416	-0.030893	-27.071768
0.800000	-0.014066	-12.055656	-86.958363	78.972203	-86.958363	78.972203	-0.033213	-28.852771
0.850000	-0.015081	-12.803430	-87.060945	80.212063	-87.060945	80.212063	-0.035574	-30.629562
0.900000	-0.016106	-13.550462	-87.248247	82.107510	-87.248247	82.107510	-0.037961	-32.402347
0.950000	-0.017138	-14.296744	-87.511252	84.846437	-87.511252	84.846437	-0.040367	-34.171004
1.000000	-0.018174	-15.042272	-87.831464	88.663353	-87.831464	88.663353	-0.042782	-35.935419
1.050000	-0.019213	-15.787040	-88.173234	93.826825	-88.173234	93.826825	-0.045200	-37.695486
1.100000	-0.020252	-16.531044	-88.473860	100.586535	-88.473860	100.586535	-0.047613	-39.451106
1.150000	-0.021289	-17.274224	-88.617593	109.155294	-88.617593	109.155294	-0.050017	-41.201847
1.200000	-0.022323	-18.016597	-88.475161	119.127985	-88.475161	119.127985	-0.052405	-42.947755
1.250000	-0.023352	-18.758193	-87.968845	129.605826	-87.968845	129.605826	-0.054774	-44.688945
1.300000	-0.024377	-19.499006	-87.100976	139.558252	-87.100976	139.558252	-0.057122	-46.425347
1.350000	-0.025397	-20.239030	-85.957797	148.181060	-85.957797	148.181060	-0.059446	-48.156892
1.400000	-0.026411	-20.978258	-84.656165	155.130071	-84.656165	155.130071	-0.061745	-49.883520
1.450000	-0.027420	-21.716678	-83.293671	160.438118	-83.293671	160.438118	-0.064017	-51.605140
1.500000	-0.028422	-22.454197	-81.918450	164.223927	-81.918450	164.223927	-0.066259	-53.321171
1.550000	-0.029419	-23.190895	-80.590572	166.934088	-80.590572	166.934088	-0.068473	-55.032114
1.600000	-0.030410	-23.926763	-79.323608	168.800786	-79.323608	168.800786	-0.070660	-56.737928
1.650000	-0.031397	-24.661789	-78.121367	170.009223	-78.121367	170.009223	-0.072820	-58.438574
1.700000	-0.032379	-25.396000	-76.986007	170.719572	-76.986007	170.719572	-0.074955	-60.134230
1.750000	-0.033357	-26.129285	-75.904665	170.991214	-75.904665	170.991214	-0.077062	-61.824263
1.800000	-0.034332	-26.861682	-74.878818	170.939536	-74.878818	170.939536	-0.079145	-63.508953
1.850000	-0.035302	-27.593179	-73.904150	170.628680	-73.904150	170.628680	-0.081205	-65.188281
1.900000	-0.036271	-28.323752	-72.975905	170.105930	-72.975905	170.105930	-0.083243	-66.862172
1.950000	-0.037237	-29.053390	-72.090329	169.410329	-72.090329	169.410329	-0.085260	-68.530614
2.000000	-0.038201	-29.782089	-71.244435	168.573495	-71.244435	168.573495	-0.087260	-70.193661
2.050000	-0.039164	-30.509835	-70.434978	167.618713	-70.434978	167.618713	-0.089243	-71.851313
2.100000	-0.040126	-31.236614	-69.659060	166.564653	-69.659060	166.564653	-0.091211	-73.503574
2.150000	-0.041089	-31.962415	-68.914092	165.426429	-68.914092	165.426429	-0.093167	-75.150454
2.200000	-0.042051	-32.687222	-68.197764	164.216392	-68.197764	164.216392	-0.095111	-76.791968
2.250000	-0.043015	-33.411023	-67.508012	162.944719	-67.508012	162.944719	-0.097046	-78.428137
2.300000	-0.043980	-34.133758	-66.841850	161.617967	-66.841850	161.617967	-0.098974	-80.058756
2.350000	-0.044946	-34.855516	-66.200228	160.247681	-66.200228	160.247681	-0.100896	-81.684373
2.400000	-0.045915	-35.576227	-65.580131	158.837117	-65.580131	158.837117	-0.102814	-83.304734
2.450000	-0.046887	-36.295878	-64.980213	157.391370	-64.980213	157.391370	-0.104729	-84.919879
2.500000	-0.047862	-37.014457	-64.399254	155.914787	-64.399254	155.914787	-0.106645	-86.529854
2.550000	-0.048840	-37.731901	-63.835338	154.410069	-63.835338	154.410069	-0.108561	-88.134488
2.600000	-0.049823	-38.448246	-63.288363	152.881713	-63.288363	152.881713	-0.110481	-89.734061
2.650000	-0.050810	-39.163479	-62.757394	151.332456	-62.757394	151.332456	-0.112404	-91.328632
2.700000	-0.051801	-39.877587	-62.241574	149.764689	-62.241574	149.764689	-0.114334	-92.918268
2.750000	-0.052799	-40.590558	-61.740119	148.180505	-61.740119	148.180505	-0.116271	-94.503036
2.800000	-0.053801	-41.302381	-61.252305	146.581746	-61.252305	146.581746	-0.118217	-96.083010
2.850000	-0.054810	-42.013043	-60.777466	144.970035	-60.777466	144.970035	-0.120174	-97.658269
2.900000	-0.055825	-42.722535	-60.314985	143.346810	-60.314985	143.346810	-0.122142	-99.228893
2.950000	-0.056847	-43.430844	-59.864292	141.713349	-59.864292	141.713349	-0.124123	-100.794970
3.000000	-0.057876	-44.137959	-59.424854	140.070786	-59.424854	140.070786	-0.126117	-102.356589
3.050000	-0.058913	-44.843871	-58.996181	138.420138	-58.996181	138.420138	-0.128128	-103.913845
3.100000	-0.059957	-45.548570	-58.577810	136.762313	-58.577810	136.762313	-0.130154	-105.466835
3.150000	-0.061010	-46.252044	-58.169314	135.098124	-58.169314	135.098124	-0.132198	-107.015662
3.200000	-0.062071	-46.954286	-57.770291	133.428304	-57.770291	133.428304	-0.134261	-108.560431
3.250000	-0.063141	-47.655285	-57.380366	131.753511	-57.380366	131.753511	-0.136343	-110.101250
3.300000	-0.064220	-48.355032	-56.999184	130.074341	-56.999184	130.074341	-0.138446	-111.638231
3.350000	-0.065309	-49.053520	-56.626416	128.391329	-56.626416	128.391329	-0.140570	-113.171491
3.400000	-0.066408	-49.750739	-56.261750	126.704963	-56.261750	126.704963	-0.142717	-114.701147
3.450000	-0.067517	-50.446682	-55.904893	125.015682	-55.904893	125.015682	-0.144887	-116.227322
3.500000	-0.068637	-51.141340	-55.555568	123.323885	-55.555568	123.323885	-0.147081	-117.750139
3.550000	-0.069768	-51.834708	-55.213515	121.629936	-55.213515	121.629936	-0.149299	-119.269727
3.600000	-0.070910	-52.526776	-54.878487	119.934164	-54.878487	119.934164	-0.151543	-120.786216
3.650000	-0.072064	-53.217540	-54.550250	118.236871	-54.550250	118.236871	-0.153813	-122.299739
3.700000	-0.073230	-53.906992	-54.228586	116.538330	-54.228586	116.538330	-0.156110	-123.810431
3.750000	-0.074408	-54.595127	-53.913283	114.838791	-53.913283	114.838791	-0.158434	-125.318430
3.800000	-0.075599	-55.281880	-53.603937	113.138459	-53.603937	113.138459	-0.160788	-126.823773
3.850000	-0.076804	-55.967304	-53.300587	111.437585	-53.300587	111.437585	-0.163170	-128.326718
3.900000	-0.078022	-56.651394	-53.003055	109.736357	-53.003055	109.736357	-0.165581	-129.827412
3.950000	-0.079253	-57.334144	-52.711169	108.034951	-52.711169	108.034951	-0.168021	-131.326001
4.000000	-0.080499	-58.015551	-52.424766	106.333527	-52.424766	106.333527	-0.170491	-132.822635
4.050000	-0.081759	-58.695611	-52.143694	104.632231	-52.143694	104.632231	-0.172992	-134.317465
4.100000	-0.083035	-59.374318	-51.867804	102.931200	-51.867804	102.931200	-0.175523	-135.810642
4.150000	-0.084325	-60.051671	-51.596958	101.230561	-51.596958	101.230561	-0.178086	-137.302322
4.200000	-0.085631	-60.727665	-51.331020	99.530431	-51.331020	99.530431	-0.180679	-138.792662
4.250000	-0.086953	-61.402299	-51.069866	97.830919	-51.069866	97.830919	-0.183305	-140.281818
4.300000	-0.088291	-62.075568	-50.813372	96.132127	-50.813372	96.132127	-0.185962	-141.769950
4.350000	-0.089646	-62.747472	-50.561425	94.434151	-50.561425	94.434151	-0.188651	-143.257218
4.400000	-0.091018	-63.418007	-50.313913	92.737080	-50.313913	92.737080	-0.191372	-144.743785
4.450000	-0.092407	-64.087173	-50.070732	91.041000	-50.070732	91.041000	-0.194126	-146.229814
4.500000	-0.093814	-64.754968	-49.831781	89.345990	-49.831781	89.345990	-0.196912	-147.715469
4.550000	-0.095240	-65.421390	-49.596963	87.652129	-49.596963	87.652129	-0.199731	-149.200915
4.600000	-0.096683	-66.086440	-49.366187	85.959490	-49.366187	85.959490	-0.202583	-150.686319
4.650000	-0.098146	-66.750116	-49.139366	84.268144	-49.139366	84.268144	-0.205467	-152.171849
4.700000	-0.099628	-67.412419	-48.916414	82.578160	-48.916414	82.578160	-0.208383	-153.657672
4.750000	-0.101130	-68.073347	-48.697252	80.889605	-48.697252	80.889605	-0.211333	-155.143958
4.800000	-0.102651	-68.732903	-48.481802	79.202545	-48.481802	79.202545	-0.214314	-156.630877
4.850000	-0.104193	-69.391086	-48.269990	77.517045	-48.269990	77.517045	-0.217329	-158.118600
4.900000	-0.105756	-70.047897	-48.061747	75.833167	-48.061747	75.833167	-0.220375	-159.607296
4.950000	-0.107340	-70.703337	-47.857004	74.150977	-47.857004	74.150977	-0.223454	-161.097139
5.000000	-0.108946	-71.357408	-47.655696	72.470537	-47.655696	72.470537	-0.226565	-162.588299
5.050000	-0.110575	-72.010052	-47.457712	70.791993	-47.457712	70.791993	-0.229708	-164.081023
5.100000	-0.112226	-72.661331	-47.263049	69.115334	-47.263049	69.115334	-0.232883	-165.575426
5.150000	-0.113900	-73.311247	-47.071650	67.440622	-47.071650	67.440622	-0.236090	-167.071680
5.200000	-0.115597	-73.959802	-46.883458	65.767925	-46.883458	65.767925	-0.239327	-168.569958
5.250000	-0.117317	-74.606999	-46.698420	64.097309	-46.698420	64.097309	-0.242594	-170.070434
5.300000	-0.119062	-75.252842	-46.516485	62.428841	-46.516485	62.428841	-0.245892	-171.573280
5.350000	-0.120831	-75.897333	-46.337603	60.762592	-46.337603	60.762592	-0.249219	-173.078669
5.400000	-0.122625	-76.540476	-46.161728	59.098630	-46.161728	59.098630	-0.252575	-174.586773
5.450000	-0.124444	-77.182274	-45.988812	57.437030	-45.988812	57.437030	-0.255961	-176.097764
5.500000	-0.126288	-77.822733	-45.818813	55.777865	-45.818813	55.777865	-0.259374	-177.611813
5.550000	-0.128158	-78.461855	-45.651687	54.121210	-45.651687	54.121210	-0.262815	-179.129093
5.600000	-0.130055	-79.099646	-45.487394	52.467145	-45.487394	52.467145	-0.266283	179.350228
5.650000	-0.131979	-79.736111	-45.325894	50.815749	-45.325894	50.815749	-0.269777	177.825980
5.700000	-0.133929	-80.371253	-45.167148	49.167104	-45.167148	49.167104	-0.273297	176.297993
5.750000	-0.135908	-81.005079	-45.011121	47.521296	-45.011121	47.521296	-0.276842	174.766101
5.800000	-0.137914	-81.637593	-44.857777	45.878411	-44.857777	45.878411	-0.280412	173.230137
5.850000	-0.139948	-82.268802	-44.707080	44.238539	-44.707080	44.238539	-0.284005	171.689936
5.900000	-0.142012	-82.898711	-44.558998	42.601773	-44.558998	42.601773	-0.287621	170.145334
5.950000	-0.144104	-83.527326	-44.413498	40.968208	-44.413498	40.968208	-0.291258	168.596170
6.000000	-0.146226	-84.154653	-44.270550	39.337942	-44.270550	39.337942	-0.294917	167.042282
6.050000	-0.148378	-84.780699	-44.130123	37.711076	-44.130123	37.711076	-0.298596	165.483513
6.100000	-0.150560	-85.405471	-43.992187	36.087714	-43.992187	36.087714	-0.302294	163.919705
6.150000	-0.152773	-86.028975	-43.856714	34.467965	-43.856714	34.467965	-0.306011	162.350705
6.200000	-0.155017	-86.651219	-43.723676	32.851939	-43.723676	32.851939	-0.309745	160.776359
6.250000	-0.157292	-87.272210	-43.593047	31.239751	-43.593047	31.239751	-0.313495	159.196519
6.300000	-0.159601	-87.891901	-43.464821	29.631697	-43.464821	29.631697	-0.317262	157.610786
6.350000	-0.161942	-88.510355	-43.338957	28.027734	-43.338957	28.027734	-0.321042	156.019255
6.400000	-0.164316	-89.127579	-43.215427	26.427990	-43.215427	26.427990	-0.324835	154.421785
6.450000	-0.166723	-89.743582	-43.094209	24.832596	-43.094209	24.832596	-0.328641	152.818239
6.500000	-0.169163	-90.358373	-42.975278	23.241689	-42.975278	23.241689	-0.332457	151.208485
6.550000	-0.171638	-90.971958	-42.858610	21.655410	-42.858610	21.655410	-0.336283	149.592391
6.600000	-0.174146	-91.584348	-42.744182	20.073906	-42.744182	20.073906	-0.340118	147.969832
6.650000	-0.176689	-92.195550	-42.631972	18.497329	-42.631972	18.497329	-0.343960	146.340686
6.700000	-0.179267	-92.805575	-42.521957	16.925837	-42.521957	16.925837	-0.347808	144.704836
6.750000	-0.181880	-93.414430	-42.414115	15.359594	-42.414115	15.359594	-0.351661	143.062168
6.800000	-0.184530	-94.022126	-42.308423	13.798769	-42.308423	13.798769	-0.355518	141.412576
6.850000	-0.187215	-94.628673	-42.204861	12.243540	-42.204861	12.243540	-0.359378	139.755957
6.900000	-0.189936	-95.234078	-42.103405	10.694089	-42.103405	10.694089	-0.363239	138.092212
6.950000	-0.192695	-95.838354	-42.004035	9.150607	-42.004035	9.150607	-0.367100	136.421251
7.000000	-0.195491	-96.441509	-41.906726	7.613292	-41.906726	7.613292	-0.370961	134.742987
7.050000	-0.198324	-97.043554	-41.811458	6.082348	-41.811458	6.082348	-0.374819	133.057341
7.100000	-0.201195	-97.644500	-41.718207	4.557990	-41.718207	4.557990	-0.378674	131.364239
7.150000	-0.204104	-98.244356	-41.626950	3.040437	-41.626950	3.040437	-0.382525	129.663615
7.200000	-0.207052	-98.843134	-41.537662	1.529918	-41.537662	1.529918	-0.386371	127.955410
7.250000	-0.210039	-99.440844	-41.450318	0.026672	-41.450318	0.026672	-0.390210	126.239571
7.300000	-0.213066	-100.037498	-41.364894	-1.469056	-41.364894	-1.469056	-0.394042	124.516053
7.350000	-0.216132	-100.633107	-41.281362	-2.957012	-41.281362	-2.957012	-0.397866	122.784819
7.400000	-0.219237	-101.227682	-41.199694	-4.436935	-41.199694	-4.436935	-0.401681	121.045840
7.450000	-0.222384	-101.821235	-41.119861	-5.908553	-41.119861	-5.908553	-0.405485	119.299096
7.500000	-0.225570	-102.413777	-41.041831	-7.371589	-41.041831	-7.371589	-0.409279	117.544573
7.550000	-0.228800	-103.005277	-40.965619	-8.825356	-40.965619	-8.825356	-0.413061	115.781932
7.600000	-0.232071	-103.595791	-40.891144	-10.269934	-40.891144	-10.269934	-0.416830	114.011516
7.650000	-0.235383	-104.185332	-40.818367	-11.705022	-40.818367	-11.705022	-0.420587	112.233343
7.700000	-0.238737	-104.773912	-40.747248	-13.130313	-40.747248	-13.130313	-0.424332	110.447439
7.750000	-0.242132	-105.361595	-40.677691	-14.546056	-40.677691	-14.546056	-0.428064	108.654255
7.800000	-0.245571	-105.948299	-40.609753	-15.950946	-40.609753	-15.950946	-0.431782	106.853085
7.850000	-0.249052	-106.534080	-40.543340	-17.345099	-40.543340	-17.345099	-0.435486	105.044320
7.900000	-0.252577	-107.118950	-40.478403	-18.728192	-40.478403	-18.728192	-0.439177	103.228025
7.950000	-0.256145	-107.702923	-40.414887	-20.099903	-40.414887	-20.099903	-0.442856	101.404277
8.000000	-0.259757	-108.286012	-40.352735	-21.459911	-40.352735	-21.459911	-0.446521	99.573165
8.050000	-0.263412	-108.868230	-40.291888	-22.807896	-40.291888	-22.807896	-0.450175	97.734786
8.100000	-0.267113	-109.449590	-40.232280	-24.143542	-40.232280	-24.143542	-0.453816	95.889249
8.150000	-0.270858	-110.030098	-40.173852	-25.466401	-40.173852	-25.466401	-0.457448	94.036601
8.200000	-0.274648	-110.609768	-40.116529	-26.776159	-40.116529	-26.776159	-0.461069	92.176977
8.250000	-0.278484	-111.188623	-40.060227	-28.072666	-40.060227	-28.072666	-0.464682	90.310599
8.300000	-0.282365	-111.766676	-40.004867	-29.355644	-40.004867	-29.355644	-0.468289	88.437620
8.350000	-0.286291	-112.343944	-39.950363	-30.624831	-39.950363	-30.624831	-0.471890	86.558207
8.400000	-0.290263	-112.920439	-39.896629	-31.879981	-39.896629	-31.879981	-0.475488	84.672538
8.450000	-0.294282	-113.496177	-39.843573	-33.120872	-39.843573	-33.120872	-0.479084	82.780800
8.500000	-0.298346	-114.071172	-39.791098	-34.347301	-39.791098	-34.347301	-0.482681	80.883193
8.550000	-0.302458	-114.645440	-39.739108	-35.559090	-39.739108	-35.559090	-0.486281	78.979928
8.600000	-0.306616	-115.218995	-39.687498	-36.756092	-39.687498	-36.756092	-0.489887	77.071226
8.650000	-0.310821	-115.791853	-39.636164	-37.938185	-39.636164	-37.938185	-0.493502	75.157318
8.700000	-0.315073	-116.364030	-39.584997	-39.105283	-39.584997	-39.105283	-0.497128	73.238447
8.750000	-0.319373	-116.935540	-39.533887	-40.257331	-39.533887	-40.257331	-0.500770	71.314865
8.800000	-0.323721	-117.506386	-39.482709	-41.393987	-39.482709	-41.393987	-0.504431	69.386743
8.850000	-0.328117	-118.076598	-39.431355	-42.515598	-39.431355	-42.515598	-0.508114	67.454457
8.900000	-0.332562	-118.646193	-39.379708	-43.622229	-39.379708	-43.622229	-0.511824	65.518288
8.950000	-0.337054	-119.215186	-39.327650	-44.713982	-39.327650	-44.713982	-0.515565	63.578525
9.000000	-0.341595	-119.783595	-39.275064	-45.791002	-39.275064	-45.791002	-0.519340	61.635468
9.050000	-0.346184	-120.351435	-39.221832	-46.853473	-39.221832	-46.853473	-0.523155	59.689424
9.100000	-0.350822	-120.918724	-39.167836	-47.901626	-39.167836	-47.901626	-0.527015	57.740705
9.150000	-0.355509	-121.485478	-39.112960	-48.935729	-39.112960	-48.935729	-0.530924	55.789634
9.200000	-0.360245	-122.051715	-39.057090	-49.956095	-39.057090	-49.956095	-0.534888	53.836537
9.250000	-0.365030	-122.617452	-39.000113	-50.963075	-39.000113	-50.963075	-0.538911	51.881748
9.300000	-0.369865	-123.182706	-38.941917	-51.957062	-38.941917	-51.957062	-0.543000	49.925606
9.350000	-0.374749	-123.747495	-38.882396	-52.938486	-38.882396	-52.938486	-0.547160	47.968455
9.400000	-0.379683	-124.311833	-38.821424	-53.907687	-38.821424	-53.907687	-0.551397	46.010638
9.450000	-0.384667	-124.875738	-38.758896	-54.865183	-38.758896	-54.865183	-0.555718	44.052519
9.500000	-0.389701	-125.439232	-38.694735	-55.811640	-38.694735	-55.811640	-0.560128	42.094461
9.550000	-0.394785	-126.002335	-38.628849	-56.747622	-38.628849	-56.747622	-0.564634	40.136819
9.600000	-0.399919	-126.565066	-38.561151	-57.673718	-38.561151	-57.673718	-0.569241	38.179952
9.650000	-0.405103	-127.127442	-38.491557	-58.590544	-38.491557	-58.590544	-0.573955	36.224220
9.700000	-0.410337	-127.689484	-38.419990	-59.498732	-38.419990	-59.498732	-0.578784	34.269983
9.750000	-0.415622	-128.251210	-38.346374	-60.398937	-38.346374	-60.398937	-0.583733	32.317599
9.800000	-0.420957	-128.812639	-38.270644	-61.291825	-38.270644	-61.291825	-0.588809	30.367427
9.850000	-0.426342	-129.373792	-38.192733	-62.178076	-38.192733	-62.178076	-0.594018	28.419825
9.900000	-0.431778	-129.934688	-38.112585	-63.058380	-38.112585	-63.058380	-0.599368	26.475146
9.950000	-0.437264	-130.495348	-38.030145	-63.933433	-38.030145	-63.933433	-0.604864	24.533742
10.000000	-0.442800	-131.055791	-37.945363	-64.803936	-37.945363	-64.803936	-0.610513	22.595963
