! freq	dB(S11)	phase(S11)	dB(S12)	phase(S12)	
!     	dB(S21)	phase(S21)	dB(S22)	phase(S22)	
!S-par simulation data
#  GHz  S  DB  R 50
0.000000	-0.000000	0.000000	-368.919513	0.000000	-368.919513	0.000000	0.000000	0.000000
0.050000	-0.001104	-1.827885	-97.328046	88.227672	-97.328046	88.227672	-0.001103	-1.827632
0.100000	-0.003872	-3.648440	-91.344343	86.461044	-91.344343	86.461044	-0.003871	-3.647934
0.150000	-0.007289	-5.459752	-87.884034	84.706026	-87.884034	84.706026	-0.007287	-5.458993
0.200000	-0.010641	-7.263595	-85.475676	82.970399	-85.475676	82.970399	-0.010638	-7.262583
0.250000	-0.013706	-9.063137	-83.647710	81.258364	-83.647710	81.258364	-0.013702	-9.061876
0.300000	-0.016447	-10.859649	-82.198499	79.578501	-82.198499	79.578501	-0.016441	-10.858139
0.350000	-0.018914	-12.653887	-81.018768	77.939546	-81.018768	77.939546	-0.018908	-12.652131
0.400000	-0.021176	-14.446011	-80.044585	76.352353	-80.044585	76.352353	-0.021169	-14.444011
0.450000	-0.023283	-16.235653	-79.241200	74.835976	-79.241200	74.835976	-0.023276	-16.233410
0.500000	-0.025301	-18.022725	-78.573427	73.398897	-78.573427	73.398897	-0.025294	-18.020242
0.550000	-0.027263	-19.806878	-78.022172	72.057405	-78.022172	72.057405	-0.027255	-19.804156
0.600000	-0.029192	-21.587753	-77.573947	70.830593	-77.573947	70.830593	-0.029185	-21.584794
0.650000	-0.031108	-23.364999	-77.219140	69.741093	-77.219140	69.741093	-0.031100	-23.361804
0.700000	-0.033022	-25.138277	-76.950902	68.816101	-76.950902	68.816101	-0.033014	-25.134849
0.750000	-0.034944	-26.906987	-76.769051	68.103502	-76.769051	68.103502	-0.034936	-26.903329
0.800000	-0.036880	-28.670810	-76.669641	67.650866	-76.669641	67.650866	-0.036871	-28.666922
0.850000	-0.038831	-30.430012	-76.641548	67.479264	-76.641548	67.479264	-0.038822	-30.425898
0.900000	-0.040800	-32.183740	-76.691021	67.696386	-76.691021	67.696386	-0.040791	-32.179402
0.950000	-0.042787	-33.931938	-76.811979	68.379967	-76.811979	68.379967	-0.042777	-33.927377
1.000000	-0.044790	-35.674360	-76.999386	69.644961	-76.999386	69.644961	-0.044780	-35.669579
1.050000	-0.046807	-37.410776	-77.244078	71.634600	-77.244078	71.634600	-0.046797	-37.405778
1.100000	-0.048836	-39.140971	-77.529426	74.519964	-77.529426	74.519964	-0.048826	-39.135758
1.150000	-0.050875	-40.864742	-77.826549	78.487608	-77.826549	78.487608	-0.050864	-40.859316
1.200000	-0.052920	-42.581900	-78.088765	83.701869	-78.088765	83.701869	-0.052909	-42.576264
1.250000	-0.054969	-44.292267	-78.248509	90.226609	-78.248509	90.226609	-0.054957	-44.286423
1.300000	-0.057017	-45.995523	-78.218034	97.924914	-78.218034	97.924914	-0.057006	-45.989475
1.350000	-0.059064	-47.691663	-77.927928	106.293713	-77.927928	106.293713	-0.059052	-47.685413
1.400000	-0.061105	-49.380547	-77.350483	114.633502	-77.350483	114.633502	-0.061092	-49.374097
1.450000	-0.063138	-51.062043	-76.516836	122.261834	-76.516836	122.261834	-0.063125	-51.055397
1.500000	-0.065161	-52.736032	-75.498692	128.738290	-75.498692	128.738290	-0.065147	-52.729192
1.550000	-0.067171	-54.402405	-74.375369	133.918370	-74.375369	133.918370	-0.067157	-54.395375
1.600000	-0.069167	-56.061063	-73.211275	137.868512	-73.211275	137.868512	-0.069153	-56.053844
1.650000	-0.071146	-57.711916	-72.049806	140.753694	-72.049806	140.753694	-0.071132	-57.704512
1.700000	-0.073107	-59.354107	-70.906637	142.688853	-70.906637	142.688853	-0.073092	-59.346521
1.750000	-0.075050	-60.989026	-69.815753	143.995016	-69.815753	143.995016	-0.075035	-60.981260
1.800000	-0.076973	-62.615928	-68.772075	144.733885	-68.772075	144.733885	-0.076958	-62.607985
1.850000	-0.078877	-64.234759	-67.777022	145.018689	-67.777022	145.018689	-0.078862	-64.226642
1.900000	-0.080760	-65.845475	-66.829640	144.938676	-66.829640	144.938676	-0.080744	-65.837186
1.950000	-0.082623	-67.448039	-65.927773	144.563738	-65.927773	144.563738	-0.082606	-67.439581
2.000000	-0.084464	-69.042422	-65.068733	143.948646	-65.068733	143.948646	-0.084448	-69.033799
2.050000	-0.086286	-70.628603	-64.249673	143.136516	-64.249673	143.136516	-0.086269	-70.619817
2.100000	-0.088087	-72.206568	-63.467788	142.161519	-63.467788	142.161519	-0.088071	-72.197621
2.150000	-0.089870	-73.776310	-62.720415	141.050946	-62.720415	141.050946	-0.089853	-73.767206
2.200000	-0.091633	-75.337829	-62.005074	139.826772	-62.005074	139.826772	-0.091616	-75.328570
2.250000	-0.093380	-76.891132	-61.319491	138.506832	-61.319491	138.506832	-0.093362	-76.881720
2.300000	-0.095109	-78.436230	-60.661589	137.105724	-60.661589	137.105724	-0.095092	-78.426668
2.350000	-0.096824	-79.973143	-60.029477	135.635481	-60.029477	135.635481	-0.096806	-79.963434
2.400000	-0.098524	-81.501896	-59.421442	134.106100	-59.421442	134.106100	-0.098507	-81.492041
2.450000	-0.100212	-83.022518	-58.835925	132.525941	-58.835925	132.525941	-0.100194	-83.012520
2.500000	-0.101889	-84.535045	-58.271511	130.902039	-58.271511	130.902039	-0.101871	-84.524907
2.550000	-0.103555	-86.039171	-57.726291	129.238951	-57.726291	129.238951	-0.103537	-86.028895
2.600000	-0.105214	-87.535293	-57.199813	127.543544	-57.199813	127.543544	-0.105195	-87.524881
2.650000	-0.106866	-89.023464	-56.690991	125.820080	-56.690991	125.820080	-0.106847	-89.012918
2.700000	-0.108513	-90.503739	-56.198835	124.072236	-56.198835	124.072236	-0.108494	-90.493062
2.750000	-0.110157	-91.976178	-55.722437	122.303193	-55.722437	122.303193	-0.110138	-91.965372
2.800000	-0.111799	-93.440847	-55.260962	120.515722	-55.260962	120.515722	-0.111781	-93.429913
2.850000	-0.113441	-94.897815	-54.813644	118.712239	-54.813644	118.712239	-0.113423	-94.886755
2.900000	-0.115085	-96.347152	-54.379777	116.894861	-54.379777	116.894861	-0.115067	-96.335969
2.950000	-0.116732	-97.788937	-53.958706	115.065452	-53.958706	115.065452	-0.116714	-97.777632
3.000000	-0.118383	-99.223249	-53.549827	113.225653	-53.549827	113.225653	-0.118365	-99.211823
3.050000	-0.120041	-100.650171	-53.152579	111.376917	-53.152579	111.376917	-0.120023	-100.638626
3.100000	-0.121707	-102.069789	-52.766440	109.520535	-52.766440	109.520535	-0.121689	-102.058127
3.150000	-0.123382	-103.482194	-52.390926	107.657652	-52.390926	107.657652	-0.123364	-103.470416
3.200000	-0.125067	-104.887477	-52.025582	105.789291	-52.025582	105.789291	-0.125049	-104.875586
3.250000	-0.126764	-106.285734	-51.669987	103.916366	-51.669987	103.916366	-0.126747	-106.273730
3.300000	-0.128475	-107.677064	-51.323743	102.039694	-51.323743	102.039694	-0.128457	-107.664948
3.350000	-0.130199	-109.061567	-50.986480	100.160009	-50.986480	100.160009	-0.130182	-109.049341
3.400000	-0.131940	-110.439345	-50.657850	98.277970	-50.657850	98.277970	-0.131923	-110.427010
3.450000	-0.133697	-111.810504	-50.337525	96.394172	-50.337525	96.394172	-0.133680	-111.798061
3.500000	-0.135472	-113.175152	-50.025197	94.509148	-50.025197	94.509148	-0.135455	-113.162602
3.550000	-0.137266	-114.533398	-49.720576	92.623382	-49.720576	92.623382	-0.137249	-114.520742
3.600000	-0.139079	-115.885353	-49.423386	90.737309	-49.423386	90.737309	-0.139062	-115.872592
3.650000	-0.140914	-117.231131	-49.133370	88.851324	-49.133370	88.851324	-0.140897	-117.218266
3.700000	-0.142769	-118.570847	-48.850283	86.965783	-48.850283	86.965783	-0.142753	-118.557878
3.750000	-0.144647	-119.904618	-48.573891	85.081009	-48.573891	85.081009	-0.144631	-119.891546
3.800000	-0.146549	-121.232314	-48.303893	83.197353	-48.303893	83.197353	-0.146533	-121.219139
3.850000	-0.148475	-122.554313	-48.040178	81.315042	-48.040178	81.315042	-0.148458	-122.541037
3.900000	-0.150425	-123.870737	-47.782547	79.434314	-47.782547	79.434314	-0.150408	-123.857360
3.950000	-0.152400	-125.181709	-47.530810	77.555381	-47.530810	77.555381	-0.152383	-125.168230
4.000000	-0.154400	-126.487351	-47.284787	75.678439	-47.284787	75.678439	-0.154383	-126.473772
4.050000	-0.156426	-127.787789	-47.044306	73.803662	-47.044306	73.803662	-0.156409	-127.774111
4.100000	-0.158478	-129.083149	-46.809204	71.931209	-46.809204	71.931209	-0.158461	-129.069371
4.150000	-0.160557	-130.373558	-46.579325	70.061221	-46.579325	70.061221	-0.160540	-130.359679
4.200000	-0.162662	-131.659142	-46.354519	68.193829	-46.354519	68.193829	-0.162645	-131.645164
4.250000	-0.164794	-132.940032	-46.134646	66.329146	-46.134646	66.329146	-0.164778	-132.925954
4.300000	-0.166954	-134.216355	-45.919569	64.467276	-45.919569	64.467276	-0.166937	-134.202177
4.350000	-0.169141	-135.488242	-45.709160	62.608312	-45.709160	62.608312	-0.169124	-135.473965
4.400000	-0.171356	-136.755825	-45.503293	60.752334	-45.503293	60.752334	-0.171339	-136.741447
4.450000	-0.173598	-138.019233	-45.301852	58.899416	-45.301852	58.899416	-0.173581	-138.004755
4.500000	-0.175868	-139.278599	-45.104722	57.049620	-45.104722	57.049620	-0.175851	-139.264021
4.550000	-0.178166	-140.534056	-44.911795	55.203003	-44.911795	55.203003	-0.178148	-140.519377
4.600000	-0.180492	-141.785736	-44.722968	53.359612	-44.722968	53.359612	-0.180474	-141.770956
4.650000	-0.182845	-143.033772	-44.538140	51.519489	-44.538140	51.519489	-0.182827	-143.018890
4.700000	-0.185226	-144.278299	-44.357218	49.682668	-44.357218	49.682668	-0.185208	-144.263315
4.750000	-0.187634	-145.519450	-44.180109	47.849179	-44.180109	47.849179	-0.187616	-145.504363
4.800000	-0.190070	-146.757360	-44.006727	46.019044	-44.006727	46.019044	-0.190052	-146.742170
4.850000	-0.192534	-147.992164	-43.836988	44.192283	-43.836988	44.192283	-0.192515	-147.976869
4.900000	-0.195024	-149.223996	-43.670812	42.368909	-43.670812	42.368909	-0.195005	-149.208596
4.950000	-0.197542	-150.452991	-43.508122	40.548934	-43.508122	40.548934	-0.197523	-150.437485
5.000000	-0.200087	-151.679285	-43.348846	38.732362	-43.348846	38.732362	-0.200067	-151.663673
5.050000	-0.202659	-152.902909	-43.192935	36.919345	-43.192935	36.919345	-0.202639	-152.887188
5.100000	-0.205258	-154.124116	-43.040305	35.109735	-43.040305	35.109735	-0.205237	-154.108286
5.150000	-0.207883	-155.343041	-42.890891	33.303528	-42.890891	33.303528	-0.207862	-155.327101
5.200000	-0.210534	-156.559821	-42.744631	31.500720	-42.744631	31.500720	-0.210513	-156.543769
5.250000	-0.213211	-157.774591	-42.601466	29.701304	-42.601466	29.701304	-0.213189	-157.758427
5.300000	-0.215913	-158.987489	-42.461341	27.905270	-42.461341	27.905270	-0.215891	-158.971211
5.350000	-0.218641	-160.198650	-42.324201	26.112610	-42.324201	26.112610	-0.218619	-160.182256
5.400000	-0.221394	-161.408211	-42.189996	24.323312	-42.189996	24.323312	-0.221371	-161.391700
5.450000	-0.224172	-162.616308	-42.058676	22.537366	-42.058676	22.537366	-0.224149	-162.599678
5.500000	-0.226974	-163.823078	-41.930197	20.754759	-41.930197	20.754759	-0.226950	-163.806328
5.550000	-0.229800	-165.028657	-41.804513	18.975481	-41.804513	18.975481	-0.229777	-165.011785
5.600000	-0.232651	-166.233183	-41.681584	17.199521	-41.681584	17.199521	-0.232627	-166.216186
5.650000	-0.235525	-167.436791	-41.561369	15.426869	-41.561369	15.426869	-0.235501	-167.419669
5.700000	-0.238423	-168.639619	-41.443831	13.657515	-41.443831	13.657515	-0.238398	-168.622368
5.750000	-0.241344	-169.841802	-41.328935	11.891454	-41.328935	11.891454	-0.241319	-169.824422
5.800000	-0.244288	-171.043479	-41.216648	10.128678	-41.216648	10.128678	-0.244262	-171.025966
5.850000	-0.247254	-172.244785	-41.106938	8.369184	-41.106938	8.369184	-0.247229	-172.227138
5.900000	-0.250244	-173.445858	-40.999775	6.612973	-40.999775	6.612973	-0.250218	-173.428074
5.950000	-0.253255	-174.646835	-40.895133	4.860045	-40.895133	4.860045	-0.253229	-174.628911
6.000000	-0.256288	-175.847852	-40.792986	3.110406	-40.792986	3.110406	-0.256262	-175.829786
6.050000	-0.259344	-177.049047	-40.693308	1.364065	-40.693308	1.364065	-0.259317	-177.030836
6.100000	-0.262420	-178.250556	-40.596079	-0.378964	-40.596079	-0.378964	-0.262393	-178.232198
6.150000	-0.265518	-179.452517	-40.501277	-2.118666	-40.501277	-2.118666	-0.265491	-179.434008
6.200000	-0.268637	179.344933	-40.408883	-3.855016	-40.408883	-3.855016	-0.268609	179.363595
6.250000	-0.271777	178.141657	-40.318881	-5.587989	-40.318881	-5.587989	-0.271749	178.160475
6.300000	-0.274938	176.937473	-40.231318	-7.317400	-40.231318	-7.317400	-0.274910	176.956450
6.350000	-0.278119	175.732275	-40.146119	-9.043357	-40.146119	-9.043357	-0.278091	175.751415
6.400000	-0.281321	174.525925	-40.063270	-10.765814	-40.063270	-10.765814	-0.281292	174.545231
6.450000	-0.284542	173.318285	-39.982760	-12.484716	-39.982760	-12.484716	-0.284514	173.337761
6.500000	-0.287783	172.109218	-39.904577	-14.200003	-39.904577	-14.200003	-0.287755	172.128867
6.550000	-0.291044	170.898584	-39.828714	-15.911607	-39.828714	-15.911607	-0.291015	170.918411
6.600000	-0.294324	169.686246	-39.755160	-17.619451	-39.755160	-17.619451	-0.294295	169.706253
6.650000	-0.297623	168.472064	-39.683911	-19.323449	-39.683911	-19.323449	-0.297594	168.492256
6.700000	-0.300941	167.255900	-39.614959	-21.023506	-39.614959	-21.023506	-0.300911	167.276281
6.750000	-0.304277	166.037614	-39.548300	-22.719518	-39.548300	-22.719518	-0.304247	166.058187
6.800000	-0.307632	164.817066	-39.483930	-24.411371	-39.483930	-24.411371	-0.307602	164.837836
6.850000	-0.311005	163.594116	-39.421846	-26.098940	-39.421846	-26.098940	-0.310975	163.615088
6.900000	-0.314396	162.368624	-39.362046	-27.782088	-39.362046	-27.782088	-0.314366	162.389801
6.950000	-0.317805	161.140448	-39.304527	-29.460668	-39.304527	-29.460668	-0.317775	161.161836
7.000000	-0.321232	159.909448	-39.249289	-31.134520	-39.249289	-31.134520	-0.321201	159.931050
7.050000	-0.324676	158.675480	-39.196331	-32.803471	-39.196331	-32.803471	-0.324645	158.697302
7.100000	-0.328138	157.438403	-39.145654	-34.467336	-39.145654	-34.467336	-0.328106	157.460450
7.150000	-0.331616	156.198073	-39.097258	-36.125915	-39.097258	-36.125915	-0.331584	156.220349
7.200000	-0.335111	154.954347	-39.051144	-37.778995	-39.051144	-37.778995	-0.335078	154.976858
7.250000	-0.338623	153.707079	-39.007313	-39.426348	-39.007313	-39.426348	-0.338590	153.729830
7.300000	-0.342152	152.456125	-38.965765	-41.067729	-38.965765	-41.067729	-0.342117	152.479121
7.350000	-0.345696	151.201337	-38.926503	-42.702878	-38.926503	-42.702878	-0.345661	151.224584
7.400000	-0.349257	149.942569	-38.889526	-44.331518	-38.889526	-44.331518	-0.349221	149.966072
7.450000	-0.352833	148.679673	-38.854836	-45.953354	-38.854836	-45.953354	-0.352797	148.703438
7.500000	-0.356426	147.412499	-38.822434	-47.568075	-38.822434	-47.568075	-0.356388	147.436532
7.550000	-0.360034	146.140697	-38.792414	-49.175007	-38.792414	-49.175007	-0.359995	146.165004
7.600000	-0.363658	144.864301	-38.764682	-50.774106	-38.764682	-50.774106	-0.363617	144.888888
7.650000	-0.367297	143.583159	-38.739236	-52.364996	-38.739236	-52.364996	-0.367255	143.608032
7.700000	-0.370951	142.297115	-38.716074	-53.947279	-38.716074	-53.947279	-0.370907	142.322281
7.750000	-0.374620	141.006013	-38.695192	-55.520536	-38.695192	-55.520536	-0.374574	141.031478
7.800000	-0.378303	139.709695	-38.676586	-57.084323	-38.676586	-57.084323	-0.378256	139.735467
7.850000	-0.382002	138.408003	-38.660249	-58.638169	-38.660249	-58.638169	-0.381953	138.434087
7.900000	-0.385716	137.100774	-38.646173	-60.181579	-38.646173	-60.181579	-0.385664	137.127178
7.950000	-0.389444	135.787845	-38.634349	-61.714028	-38.634349	-61.714028	-0.389390	135.814577
8.000000	-0.393187	134.469050	-38.624763	-63.234965	-38.624763	-63.234965	-0.393131	134.496117
8.050000	-0.396945	133.144222	-38.617403	-64.743803	-38.617403	-64.743803	-0.396886	133.171631
8.100000	-0.400719	131.813190	-38.612250	-66.239927	-38.612250	-66.239927	-0.400657	131.840950
8.150000	-0.404508	130.475781	-38.609284	-67.722682	-38.609284	-67.722682	-0.404443	130.503899
8.200000	-0.408314	129.131820	-38.608481	-69.191382	-38.608481	-69.191382	-0.408245	129.160305
8.250000	-0.412135	127.781128	-38.609813	-70.645296	-38.609813	-70.645296	-0.412063	127.809989
8.300000	-0.415974	126.423523	-38.613248	-72.083655	-38.613248	-72.083655	-0.415898	126.452769
8.350000	-0.419832	125.058392	-38.618864	-73.504619	-38.618864	-73.504619	-0.419751	125.088033
8.400000	-0.423705	123.687379	-38.626130	-74.911747	-38.626130	-74.911747	-0.423620	123.717423
8.450000	-0.427603	122.306519	-38.635978	-76.294941	-38.635978	-76.294941	-0.427514	122.336979
8.500000	-0.431520	120.919074	-38.647435	-77.661591	-38.647435	-77.661591	-0.431426	120.949961
8.550000	-0.435457	119.524959	-38.660474	-79.011248	-38.660474	-79.011248	-0.435358	119.556281
8.600000	-0.439422	118.121507	-38.675578	-80.336481	-38.675578	-80.336481	-0.439317	118.153279
8.650000	-0.443409	116.710829	-38.692143	-81.642177	-38.692143	-81.642177	-0.443299	116.743061
8.700000	-0.447430	115.290471	-38.710519	-82.921081	-38.710519	-82.921081	-0.447314	115.323179
8.750000	-0.451479	113.862182	-38.730231	-84.177372	-38.730231	-84.177372	-0.451357	113.895379
8.800000	-0.455567	112.423849	-38.751430	-85.404187	-38.751430	-85.404187	-0.455439	112.457551
8.850000	-0.459691	110.977161	-38.773704	-86.605775	-38.773704	-86.605775	-0.459556	111.011383
8.900000	-0.463860	109.520442	-38.797039	-87.776228	-38.797039	-87.776228	-0.463718	109.555203
8.950000	-0.468074	108.054370	-38.821153	-88.916827	-38.821153	-88.916827	-0.467925	108.089687
9.000000	-0.472342	106.578314	-38.845839	-90.024663	-38.845839	-90.024663	-0.472185	106.614207
9.050000	-0.476670	105.091819	-38.870839	-91.097312	-38.870839	-91.097312	-0.476505	105.128309
9.100000	-0.481059	103.595418	-38.895846	-92.135674	-38.895846	-92.135674	-0.480886	103.632527
9.150000	-0.485528	102.087397	-38.920468	-93.132780	-38.920468	-93.132780	-0.485346	102.125151
9.200000	-0.490071	100.569363	-38.944415	-94.093479	-38.944415	-94.093479	-0.489880	100.607788
9.250000	-0.494714	99.038860	-38.967008	-95.007811	-38.967008	-95.007811	-0.494513	99.077986
9.300000	-0.499452	97.497572	-38.987974	-95.881236	-38.987974	-95.881236	-0.499240	97.537427
9.350000	-0.504309	95.943825	-39.006461	-96.706624	-39.006461	-96.706624	-0.504086	95.984444
9.400000	-0.509291	94.377993	-39.021927	-97.484855	-39.021927	-97.484855	-0.509056	94.419414
9.450000	-0.514412	92.799746	-39.033577	-98.214280	-39.033577	-98.214280	-0.514165	92.842005
9.500000	-0.519699	91.207995	-39.040242	-98.890607	-39.040242	-98.890607	-0.519438	91.251138
9.550000	-0.525149	89.603909	-39.041523	-99.518818	-39.041523	-99.518818	-0.524873	89.647979
9.600000	-0.530815	87.984766	-39.035111	-100.089442	-39.035111	-100.089442	-0.530523	88.029816
9.650000	-0.536680	86.352854	-39.021161	-100.612875	-39.021161	-100.612875	-0.536371	86.398936
9.700000	-0.542809	84.705302	-38.996641	-101.081583	-38.996641	-101.081583	-0.542480	84.752479
9.750000	-0.549194	83.043676	-38.961372	-101.504884	-38.961372	-101.504884	-0.548843	83.092010
9.800000	-0.555887	81.366393	-38.912678	-101.883481	-38.912678	-101.883481	-0.555513	81.415955
9.850000	-0.562915	79.673315	-38.848991	-102.224406	-38.848991	-102.224406	-0.562514	79.724181
9.900000	-0.570301	77.964611	-38.769032	-102.537500	-38.769032	-102.537500	-0.569870	78.016860
9.950000	-0.578121	76.238226	-38.669048	-102.832115	-38.669048	-102.832115	-0.577657	76.291954
10.000000	-0.586354	74.496301	-38.550431	-103.123996	-38.550431	-103.123996	-0.585852	74.551595
