! freq	dB(S11)	phase(S11)	dB(S12)	phase(S12)	
!     	dB(S21)	phase(S21)	dB(S22)	phase(S22)	
!S-par simulation data
#  GHz  S  DB  R 50
0.000000	-81.933050	0.000000	-0.000695	0.000000	-0.000695	0.000000	-81.933050	0.000000
0.050000	-37.040890	-92.389122	-0.006604	-3.413719	-0.006604	-3.413719	-37.054728	-93.241864
0.100000	-31.083871	-95.586270	-0.016017	-6.781232	-0.016017	-6.781232	-31.093222	-97.225390
0.150000	-27.619293	-98.745146	-0.025398	-10.131510	-0.025398	-10.131510	-27.628748	-101.180306
0.200000	-25.175937	-101.851739	-0.035520	-13.475417	-0.035520	-13.475417	-25.186162	-105.097062
0.250000	-23.298898	-104.904528	-0.046899	-16.813376	-0.046899	-16.813376	-23.309798	-108.970334
0.300000	-21.783490	-107.914631	-0.059575	-20.145050	-0.059575	-20.145050	-21.794887	-112.809514
0.350000	-20.519542	-110.891357	-0.073419	-23.470387	-0.073419	-23.470387	-20.531300	-116.624328
0.400000	-19.442046	-113.839913	-0.088320	-26.789259	-0.088320	-26.789259	-19.454070	-120.421523
0.450000	-18.511581	-116.761787	-0.104219	-30.101055	-0.104219	-30.101055	-18.523803	-124.205848
0.500000	-17.696819	-119.661302	-0.120888	-33.406402	-0.120888	-33.406402	-17.709202	-127.982762
0.550000	-16.978307	-122.538602	-0.138210	-36.705131	-0.138210	-36.705131	-16.990833	-131.755283
0.600000	-16.342136	-125.393094	-0.156039	-39.997090	-0.156039	-39.997090	-16.354806	-135.526332
0.650000	-15.775924	-128.225314	-0.174190	-43.282684	-0.174190	-43.282684	-15.788753	-139.298610
0.700000	-15.270615	-131.034946	-0.192494	-46.562236	-0.192494	-46.562236	-15.283630	-143.074522
0.750000	-14.820152	-133.820491	-0.210774	-49.835945	-0.210774	-49.835945	-14.833394	-146.856748
0.800000	-14.418910	-136.581025	-0.228845	-53.104347	-0.228845	-53.104347	-14.432431	-150.648007
0.850000	-14.062077	-139.315717	-0.246530	-56.368161	-0.246530	-56.368161	-14.075941	-154.451093
0.900000	-13.745955	-142.023351	-0.263655	-59.628176	-0.263655	-59.628176	-13.760237	-158.269107
0.950000	-13.467693	-144.702353	-0.280049	-62.885299	-0.280049	-62.885299	-13.482481	-162.105577
1.000000	-13.224881	-147.351023	-0.295549	-66.140597	-0.295549	-66.140597	-13.240279	-165.964390
1.050000	-13.015566	-149.967391	-0.310001	-69.395279	-0.310001	-69.395279	-13.031693	-169.849890
1.100000	-12.838186	-152.549143	-0.323262	-72.650696	-0.323262	-72.650696	-12.855179	-173.766947
1.150000	-12.691523	-155.093541	-0.335203	-75.908335	-0.335203	-75.908335	-12.709534	-177.721021
1.200000	-12.574661	-157.597311	-0.345710	-79.169819	-0.345710	-79.169819	-12.593862	178.281771
1.250000	-12.486964	-160.056512	-0.354686	-82.436901	-0.354686	-82.436901	-12.507547	174.234591
1.300000	-12.428671	-162.465165	-0.362013	-85.711667	-0.362013	-85.711667	-12.450869	170.128387
1.350000	-12.399045	-164.818340	-0.367670	-88.996008	-0.367670	-88.996008	-12.423167	165.955729
1.400000	-12.398195	-167.108833	-0.371619	-92.292047	-0.371619	-92.292047	-12.424747	161.706937
1.450000	-12.426461	-169.327821	-0.373850	-95.602022	-0.373850	-95.602022	-12.456333	157.370166
1.500000	-12.484410	-171.464502	-0.374377	-98.928272	-0.374377	-98.928272	-12.518982	152.929708
1.550000	-12.572822	-173.505647	-0.373243	-102.273237	-0.373243	-102.273237	-12.613779	148.365355
1.600000	-12.692662	-175.435013	-0.370520	-105.639446	-0.370520	-105.639446	-12.741662	143.653952
1.650000	-12.845030	-177.232539	-0.366313	-109.029508	-0.366313	-109.029508	-12.903652	138.770308
1.700000	-13.031083	-178.873220	-0.360765	-112.446103	-0.360765	-112.446103	-13.101093	133.685457
1.750000	-13.251933	179.674343	-0.354051	-115.891968	-0.354051	-115.891968	-13.335607	128.363980
1.800000	-13.508484	178.449702	-0.346392	-119.369886	-0.346392	-119.369886	-13.608891	122.761660
1.850000	-13.801171	177.502575	-0.338049	-122.882659	-0.338049	-122.882659	-13.922422	116.823151
1.900000	-14.129725	176.899639	-0.329332	-126.433538	-0.329332	-126.433538	-14.277301	110.473829
1.950000	-14.491758	176.720888	-0.320612	-130.025403	-0.320612	-130.025403	-14.672815	103.623578
2.000000	-14.881813	177.056867	-0.312309	-133.660571	-0.312309	-133.660571	-15.105443	96.168226
2.050000	-15.290062	178.017138	-0.304892	-137.341681	-0.304892	-137.341681	-15.567519	87.976628
2.100000	-15.699657	179.719863	-0.298890	-141.071237	-0.298890	-141.071237	-16.044086	78.898194
2.150000	-16.084017	-177.725932	-0.294889	-144.851566	-0.294889	-144.851566	-16.509096	68.777528
2.200000	-16.404872	-174.255037	-0.293537	-148.684762	-0.293537	-148.684762	-16.921541	57.490577
2.250000	-16.613493	-169.898486	-0.295543	-152.572629	-0.295543	-152.572629	-17.224350	45.010389
2.300000	-16.658254	-164.837991	-0.301673	-156.516617	-0.301673	-156.516617	-17.351189	31.491669
2.350000	-16.499208	-159.423748	-0.312753	-160.517750	-0.312753	-160.517750	-17.244938	17.323202
2.400000	-16.123734	-154.116581	-0.329659	-164.576564	-0.329659	-164.576564	-16.881801	3.074462
2.450000	-15.552485	-149.364750	-0.353312	-168.693025	-0.353312	-168.693025	-16.283728	-10.673956
2.500000	-14.830717	-145.487023	-0.384669	-172.866469	-0.384669	-172.866469	-15.507734	-23.509533
2.550000	-14.009071	-142.650791	-0.424921	-177.096698	-0.424921	-177.096698	-14.618642	-35.233442
2.600000	-13.139902	-140.830481	-0.474893	178.619694	-0.474893	178.619694	-13.680663	-45.889355
2.650000	-12.260855	-139.925098	-0.535389	174.286432	-0.535389	174.286432	-12.737792	-55.610018
2.700000	-11.394230	-139.839585	-0.607651	169.905883	-0.607651	169.905883	-11.814701	-64.519122
2.750000	-10.556824	-140.439158	-0.692483	165.483146	-0.692483	165.483146	-10.928728	-72.771483
2.800000	-9.757782	-141.609725	-0.790736	161.023524	-0.790736	161.023524	-10.088431	-80.491024
2.850000	-9.001308	-143.267032	-0.903679	156.532113	-0.903679	156.532113	-9.297053	-87.765005
2.900000	-8.290965	-145.297378	-1.031048	152.017549	-1.031048	152.017549	-8.557180	-94.699804
2.950000	-7.626246	-147.646560	-1.173810	147.485935	-1.173810	147.485935	-7.867380	-101.342259
3.000000	-7.006462	-150.256554	-1.332382	142.944729	-1.332382	142.944729	-7.226185	-107.738877
3.050000	-6.430295	-153.078809	-1.507055	138.401584	-1.507055	138.401584	-6.631637	-113.924929
3.100000	-5.896054	-156.072490	-1.697991	133.864205	-1.697991	133.864205	-6.081517	-119.927045
3.150000	-5.401956	-159.204229	-1.905353	129.340459	-1.905353	129.340459	-5.573622	-125.763670
3.200000	-4.946025	-162.443873	-2.129055	124.838169	-2.129055	124.838169	-5.105632	-131.450303
3.250000	-4.526015	-165.765251	-2.368808	120.364865	-2.368808	120.364865	-4.675018	-136.999982
3.300000	-4.139774	-169.147329	-2.624285	115.928643	-2.624285	115.928643	-4.279400	-142.421378
3.350000	-3.785158	-172.572217	-2.894798	111.537494	-2.894798	111.537494	-3.916449	-147.721312
3.400000	-3.460059	-176.024769	-3.179260	107.196728	-3.179260	107.196728	-3.583906	-152.905326
3.450000	-3.162422	-179.492245	-3.476692	102.907146	-3.476692	102.907146	-3.279588	-157.978116
3.500000	-2.890256	177.035976	-3.786695	98.668140	-3.786695	98.668140	-3.001399	-162.943845
3.550000	-2.641645	173.568641	-4.109163	94.480985	-4.109163	94.480985	-2.747340	-167.806380
3.600000	-2.414762	170.112853	-4.443891	90.348193	-4.443891	90.348193	-2.515509	-172.569445
3.650000	-2.207873	166.674268	-4.790544	86.271942	-4.790544	86.271942	-2.304111	-177.236734
3.700000	-2.019340	163.257282	-5.148768	82.253510	-5.148768	82.253510	-2.111458	178.188025
3.750000	-1.847629	159.865196	-5.518262	78.293326	-5.518262	78.293326	-1.935974	173.701036
3.800000	-1.691555	156.500998	-5.898691	74.392388	-5.898691	74.392388	-1.776443	169.300154
3.850000	-1.549504	153.165652	-6.290074	70.548635	-6.290074	70.548635	-1.631217	164.979478
3.900000	-1.420246	149.859992	-6.692480	66.760892	-6.692480	66.760892	-1.499042	160.734948
3.950000	-1.302651	146.584288	-7.106136	63.027697	-7.106136	63.027697	-1.378768	156.562430
4.000000	-1.196152	143.339939	-7.530942	59.350188	-7.530942	59.350188	-1.269823	152.461258
4.050000	-1.098907	140.123422	-7.968357	55.721385	-7.968357	55.721385	-1.170340	148.420540
4.100000	-1.010464	136.935121	-8.418826	52.141746	-8.418826	52.141746	-1.079865	144.438996
4.150000	-0.930037	133.773860	-8.883421	48.609410	-8.883421	48.609410	-0.997611	140.512280
4.200000	-0.856918	130.638249	-9.363508	45.122582	-9.363508	45.122582	-0.922868	136.635989
4.250000	-0.790462	127.526720	-9.860806	41.679613	-9.860806	41.679613	-0.854998	132.805651
4.300000	-0.730093	124.437556	-10.377459	38.279089	-10.377459	38.279089	-0.793433	129.016698
4.350000	-0.675291	121.368912	-10.916136	34.919947	-10.916136	34.919947	-0.737666	125.264437
4.400000	-0.625591	118.318822	-11.480167	31.601632	-11.480167	31.601632	-0.687254	121.543998
4.450000	-0.580582	115.285205	-12.073728	28.324324	-12.073728	28.324324	-0.641810	117.850280
4.500000	-0.539901	112.265857	-12.702105	25.089278	-12.702105	25.089278	-0.601007	114.177865
4.550000	-0.503233	109.258434	-13.372066	21.899349	-13.372066	21.899349	-0.564573	110.520921
4.600000	-0.470308	106.260424	-14.092418	18.759846	-14.092418	18.759846	-0.532298	106.873061
4.650000	-0.440905	103.269105	-14.874841	15.679958	-14.874841	15.679958	-0.504034	103.227171
4.700000	-0.414852	100.281484	-15.735199	12.675248	-15.735199	12.675248	-0.479708	99.575171
4.750000	-0.392033	97.294216	-16.695675	9.772238	-16.695675	9.772238	-0.459333	95.907701
4.800000	-0.372396	94.303486	-17.788443	7.017378	-17.788443	7.017378	-0.443025	92.213692
4.850000	-0.355966	91.304848	-19.062345	4.495954	-19.062345	4.495954	-0.431043	88.479772
4.900000	-0.342872	88.293005	-20.596078	2.376103	-20.596078	2.376103	-0.423830	84.689430
4.950000	-0.333383	85.261492	-22.526928	1.024894	-22.526928	1.024894	-0.422099	80.821812
5.000000	-0.327970	82.202230	-25.122379	1.363690	-25.122379	1.363690	-0.426953	76.849963
5.050000	-0.327926	79.100406	-28.959336	8.096042	-28.959336	8.096042	-0.441042	72.721851
5.100000	-0.333569	75.950374	-34.743888	38.602111	-34.743888	38.602111	-0.465397	68.417579
5.150000	-0.347731	72.727622	-32.861275	107.925444	-32.861275	107.925444	-0.505748	63.845333
5.200000	-0.374072	69.406080	-26.426008	128.511481	-26.426008	128.511481	-0.569779	58.900369
5.250000	-0.418894	65.950487	-21.930248	131.125121	-21.930248	131.125121	-0.670837	53.427011
5.300000	-0.493992	62.311219	-18.432046	128.804242	-18.432046	128.804242	-0.834417	47.172328
5.350000	-0.622342	58.426451	-15.407446	123.784184	-15.407446	123.784184	-1.112374	39.714950
5.400000	-0.851312	54.251078	-12.597790	116.185916	-12.597790	116.185916	-1.621044	30.319314
5.450000	-1.283790	49.928591	-9.882025	105.077120	-9.882025	105.077120	-2.663816	17.618454
5.500000	-2.099971	46.610345	-7.351153	88.632198	-7.351153	88.632198	-5.147058	-0.743718
5.550000	-3.242370	48.525002	-5.527899	65.189492	-5.527899	65.189492	-13.013621	-29.695112
5.600000	-3.362117	56.900032	-5.265558	37.915037	-5.265558	37.915037	-13.795120	137.243881
5.650000	-2.318418	59.853276	-6.520014	14.657521	-6.520014	14.657521	-5.473171	108.005227
5.700000	-1.490743	57.259618	-8.397135	-1.741072	-8.397135	-1.741072	-2.894337	89.879544
5.750000	-1.026277	53.330246	-10.354536	-13.098154	-10.354536	-13.098154	-1.798326	77.344082
5.800000	-0.767515	49.372850	-12.252215	-21.333846	-12.252215	-21.333846	-1.253476	68.050833
5.850000	-0.615234	45.621845	-14.101524	-27.620640	-14.101524	-27.620640	-0.950289	60.671050
5.900000	-0.521256	42.075197	-15.951927	-32.560545	-15.951927	-32.560545	-0.768594	54.486452
5.950000	-0.460823	38.688341	-17.878111	-36.444233	-17.878111	-36.444233	-0.653239	49.068736
6.000000	-0.421707	35.424374	-19.963938	-39.267022	-19.963938	-39.267022	-0.578468	44.179420
6.050000	-0.396087	32.247853	-22.353597	-40.764668	-22.353597	-40.764668	-0.528618	39.640331
6.100000	-0.380420	29.139513	-25.250108	-39.974834	-25.250108	-39.974834	-0.496664	35.361414
6.150000	-0.372075	26.081576	-29.024102	-33.756821	-29.024102	-33.756821	-0.477530	31.266391
6.200000	-0.369395	23.060554	-33.948390	-10.756369	-33.948390	-10.756369	-0.468071	27.300562
6.250000	-0.371608	20.067950	-35.276495	44.533161	-35.276495	44.533161	-0.466778	23.429463
6.300000	-0.378401	17.096898	-30.560747	74.691831	-30.560747	74.691831	-0.472954	19.624764
6.350000	-0.389164	14.139362	-26.801880	83.238609	-26.801880	83.238609	-0.485475	15.855869
6.400000	-0.403798	11.190170	-24.071036	85.308098	-24.071036	85.308098	-0.504099	12.101903
6.450000	-0.422359	8.244865	-21.957044	84.929280	-21.957044	84.929280	-0.528844	8.344268
6.500000	-0.445030	5.299519	-20.230160	83.388681	-20.230160	83.388681	-0.559956	4.565718
6.550000	-0.472121	2.350599	-18.762437	81.199617	-18.762437	81.199617	-0.597891	0.749641
6.600000	-0.504064	-0.605111	-17.477353	78.599894	-17.477353	78.599894	-0.643315	-3.120524
6.650000	-0.541428	-3.570548	-16.326070	75.710551	-16.326070	75.710551	-0.697123	-7.061810
6.700000	-0.584801	-6.548086	-15.276506	72.599995	-15.276506	72.599995	-0.760263	-11.090104
6.750000	-0.635147	-9.540232	-14.305009	69.299027	-14.305009	69.299027	-0.834296	-15.225824
6.800000	-0.693943	-12.549708	-13.393070	65.817899	-13.393070	65.817899	-0.921627	-19.496977
6.850000	-0.762719	-15.577982	-12.528193	62.161885	-12.528193	62.161885	-1.024824	-23.931169
6.900000	-0.842587	-18.624197	-11.703780	58.338977	-11.703780	58.338977	-1.145903	-28.546853
6.950000	-0.935444	-21.687164	-10.913074	54.341942	-10.913074	54.341942	-1.288250	-33.374120
7.000000	-1.043539	-24.763750	-10.151173	50.159742	-10.151173	50.159742	-1.456028	-38.447461
7.050000	-1.169512	-27.848035	-9.414731	45.778310	-9.414731	45.778310	-1.654356	-43.806698
7.100000	-1.316421	-30.930164	-8.701795	41.181247	-8.701795	41.181247	-1.889522	-49.498139
7.150000	-1.490259	-33.990585	-8.008657	36.324249	-8.008657	36.324249	-2.173742	-55.623160
7.200000	-1.691605	-37.008569	-7.341067	31.223647	-7.341067	31.223647	-2.511005	-62.188884
7.250000	-1.926086	-39.944682	-6.699414	25.843701	-6.699414	25.843701	-2.916062	-69.310135
7.300000	-2.197521	-42.744429	-6.087874	20.166206	-6.087874	20.166206	-3.403610	-77.100257
7.350000	-2.507671	-45.337604	-5.512431	14.185496	-5.512431	14.185496	-3.988854	-85.688275
7.400000	-2.855279	-47.640919	-4.979795	7.908786	-4.979795	7.908786	-4.686726	-95.229186
7.450000	-3.235410	-49.542741	-4.497837	1.343763	-4.497837	1.343763	-5.512630	-105.980539
7.500000	-3.635109	-50.915998	-4.075790	-5.485133	-4.075790	-5.485133	-6.471772	-118.321234
7.550000	-4.032515	-51.684494	-3.719856	-12.521114	-3.719856	-12.521114	-7.542944	-132.650670
7.600000	-4.397533	-51.804555	-3.435852	-19.703118	-3.435852	-19.703118	-8.656647	-149.505647
7.650000	-4.688767	-51.294956	-3.231338	-26.956950	-3.231338	-26.956950	-9.631021	-169.434009
7.700000	-4.877620	-50.361207	-3.102945	-34.193938	-3.102945	-34.193938	-10.223071	168.183074
7.750000	-4.946035	-49.259715	-3.047802	-41.334356	-3.047802	-41.334356	-10.235394	145.109526
7.800000	-4.891225	-48.287713	-3.062871	-48.296788	-3.062871	-48.296788	-9.685719	123.785072
7.850000	-4.738074	-47.683617	-3.137876	-55.025146	-3.137876	-55.025146	-8.830592	105.519586
7.900000	-4.518318	-47.572254	-3.262609	-61.482133	-3.262609	-61.482133	-7.896851	90.288213
7.950000	-4.261276	-47.999752	-3.428293	-67.636070	-3.428293	-67.636070	-7.008462	77.621524
8.000000	-3.992442	-48.930905	-3.625224	-73.475986	-3.625224	-73.475986	-6.217459	66.930226
8.050000	-3.729381	-50.279030	-3.844031	-79.015154	-3.844031	-79.015154	-5.532876	57.696595
8.100000	-3.482821	-51.981070	-4.077649	-84.250712	-4.077649	-84.250712	-4.950608	49.644920
8.150000	-3.257097	-53.943220	-4.319586	-89.219524	-4.319586	-89.219524	-4.454673	42.469154
8.200000	-3.054248	-56.108422	-4.564949	-93.938376	-4.564949	-93.938376	-4.033066	36.011183
8.250000	-2.875234	-58.437281	-4.809362	-98.415848	-4.809362	-98.415848	-3.676591	30.177709
8.300000	-2.716751	-60.876064	-5.050748	-102.699688	-5.050748	-102.699688	-3.370135	24.805736
8.350000	-2.580843	-63.416711	-5.284050	-106.771584	-5.284050	-106.771584	-3.112631	19.908628
8.400000	-2.461783	-66.020023	-5.510322	-110.692553	-5.510322	-110.692553	-2.889395	15.334734
8.450000	-2.359120	-68.678590	-5.727187	-114.467262	-5.727187	-114.467262	-2.697298	11.066270
8.500000	-2.271176	-71.382896	-5.933615	-118.113134	-5.933615	-118.113134	-2.531582	7.062759
8.550000	-2.196448	-74.126939	-6.128842	-121.646187	-6.128842	-121.646187	-2.388343	3.290643
8.600000	-2.133623	-76.907448	-6.312306	-125.081132	-6.312306	-125.081132	-2.264371	-0.278157
8.650000	-2.081574	-79.723295	-6.483594	-128.431511	-6.483594	-128.431511	-2.157024	-3.667326
8.700000	-2.039353	-82.575078	-6.642409	-131.709838	-6.642409	-131.709838	-2.064122	-6.896974
8.750000	-2.006173	-85.464816	-6.788533	-134.927757	-6.788533	-134.927757	-1.983865	-9.984280
8.800000	-1.981943	-88.398894	-6.920789	-138.093487	-6.920789	-138.093487	-1.915412	-12.936071
8.850000	-1.965581	-91.379205	-7.040120	-141.221341	-7.040120	-141.221341	-1.856766	-15.774405
8.900000	-1.956737	-94.411308	-7.146440	-144.321160	-7.146440	-144.321160	-1.806933	-18.510014
8.950000	-1.955183	-97.501789	-7.239684	-147.402503	-7.239684	-147.402503	-1.765095	-21.152210
9.000000	-1.960803	-100.658296	-7.319805	-150.474779	-7.319805	-150.474779	-1.730582	-23.709077
9.050000	-1.973596	-103.889620	-7.386766	-153.547368	-7.386766	-153.547368	-1.702847	-26.187621
9.100000	-1.993076	-107.198076	-7.441631	-156.628180	-7.441631	-156.628180	-1.680973	-28.599273
9.150000	-2.020866	-110.612799	-7.481845	-159.730176	-7.481845	-159.730176	-1.665754	-30.936314
9.200000	-2.056131	-114.131409	-7.509568	-162.860235	-7.509568	-162.860235	-1.655976	-33.213783
9.250000	-2.100283	-117.782585	-7.523344	-166.033099	-7.523344	-166.033099	-1.652089	-35.428321
9.300000	-2.153299	-121.573817	-7.524398	-169.257056	-7.524398	-169.257056	-1.653488	-37.587816
9.350000	-2.215852	-125.521828	-7.512989	-172.542477	-7.512989	-172.542477	-1.660060	-39.694516
9.400000	-2.289986	-129.668635	-7.488148	-175.910322	-7.488148	-175.910322	-1.672282	-41.744393
9.450000	-2.375668	-134.018306	-7.451761	-179.365213	-7.451761	-179.365213	-1.689514	-43.744010
9.500000	-2.475396	-138.621684	-7.403309	177.068995	-7.403309	177.068995	-1.712220	-45.687877
9.550000	-2.589316	-143.484046	-7.344895	173.389128	-7.344895	173.389128	-1.739774	-47.580535
9.600000	-2.721973	-148.700888	-7.275832	169.553624	-7.275832	169.553624	-1.772966	-49.409064
9.650000	-2.872446	-154.254945	-7.199473	165.571882	-7.199473	165.571882	-1.810646	-51.180791
9.700000	-3.046217	-160.273278	-7.116528	161.393305	-7.116528	161.393305	-1.853212	-52.878516
9.750000	-3.243119	-166.760976	-7.030458	157.021889	-7.030458	157.021889	-1.899443	-54.504635
9.800000	-3.466929	-173.835988	-6.944551	152.419220	-6.944551	152.419220	-1.948470	-56.044476
9.850000	-3.718792	178.425330	-6.863231	147.568545	-6.863231	147.568545	-1.998556	-57.490416
9.900000	-3.997771	169.965685	-6.791485	142.465083	-6.791485	142.465083	-2.047323	-58.838936
9.950000	-4.303087	160.612721	-6.736905	137.071112	-6.736905	137.071112	-2.091117	-60.074345
10.000000	-4.627067	150.290195	-6.707095	131.389949	-6.707095	131.389949	-2.125381	-61.199450
