! freq	dB(S11)	phase(S11)	dB(S12)	phase(S12)	
!     	dB(S21)	phase(S21)	dB(S22)	phase(S22)	
!S-par simulation data
#  GHz  S  DB  R 50
0.000000	-0.000000	0.000000	-387.922094	0.000000	-387.922094	0.000000	-0.000000	0.000000
0.050000	-0.000074	-0.859511	-78.240171	-21.729192	-78.240171	-21.729192	-0.000074	-0.859519
0.100000	-0.000295	-1.718887	-77.813545	-11.756234	-77.813545	-11.756234	-0.000296	-1.718901
0.150000	-0.000658	-2.577994	-77.777324	-8.428986	-77.777324	-8.428986	-0.000660	-2.578013
0.200000	-0.001156	-3.436716	-77.822194	-6.891971	-77.822194	-6.891971	-0.001160	-3.436737
0.250000	-0.001789	-4.294903	-77.909486	-6.118081	-77.909486	-6.118081	-0.001795	-4.294924
0.300000	-0.002536	-5.152498	-78.026078	-5.680359	-78.026078	-5.680359	-0.002544	-5.152516
0.350000	-0.003391	-6.009391	-78.171101	-5.451590	-78.171101	-5.451590	-0.003402	-6.009402
0.400000	-0.004344	-6.865501	-78.344329	-5.348628	-78.344329	-5.348628	-0.004357	-6.865501
0.450000	-0.005381	-7.720761	-78.546679	-5.324383	-78.546679	-5.324383	-0.005397	-7.720747
0.500000	-0.006493	-8.575115	-78.779787	-5.349473	-78.779787	-5.349473	-0.006511	-8.575085
0.550000	-0.007667	-9.428521	-79.045895	-5.403835	-79.045895	-5.403835	-0.007687	-9.428471
0.600000	-0.008891	-10.280946	-79.347869	-5.472438	-79.347869	-5.472438	-0.008913	-10.280874
0.650000	-0.010156	-11.132367	-79.689285	-5.542839	-79.689285	-5.542839	-0.010179	-11.132271
0.700000	-0.011452	-11.982768	-80.074586	-5.603570	-80.074586	-5.603570	-0.011476	-11.982646
0.750000	-0.012770	-12.832141	-80.509308	-5.642891	-80.509308	-5.642891	-0.012794	-12.831992
0.800000	-0.014102	-13.680482	-81.000407	-5.647564	-81.000407	-5.647564	-0.014126	-13.680304
0.850000	-0.015442	-14.527790	-81.556735	-5.601383	-81.556735	-5.601383	-0.015466	-14.527584
0.900000	-0.016783	-15.374068	-82.189741	-5.483118	-82.189741	-5.483118	-0.016807	-15.373834
0.950000	-0.018122	-16.219321	-82.914533	-5.263270	-82.914533	-5.263270	-0.018145	-16.219059
1.000000	-0.019453	-17.063553	-83.751546	-4.898573	-83.751546	-4.898573	-0.019475	-17.063264
1.050000	-0.020775	-17.906770	-84.729276	-4.321920	-84.729276	-4.321920	-0.020796	-17.906454
1.100000	-0.022084	-18.748976	-85.888981	-3.422548	-85.888981	-3.422548	-0.022103	-18.748635
1.150000	-0.023379	-19.590175	-87.293240	-2.003455	-87.293240	-2.003455	-0.023396	-19.589808
1.200000	-0.024658	-20.430369	-89.042630	0.320034	-89.042630	0.320034	-0.024674	-20.429978
1.250000	-0.025921	-21.269559	-91.310372	4.392463	-91.310372	4.392463	-0.025935	-21.269145
1.300000	-0.027166	-22.107701	-94.399140	12.939593	-94.399140	12.939593	-0.027178	-22.107264
1.350000	-0.028395	-22.944836	-98.546741	35.212725	-98.546741	35.212725	-0.028405	-22.944377
1.400000	-0.029607	-23.780959	-100.240879	87.308296	-100.240879	87.308296	-0.029615	-23.780479
1.450000	-0.030803	-24.616065	-96.283032	124.741871	-96.283032	124.741871	-0.030809	-24.615565
1.500000	-0.031984	-25.450147	-92.268913	140.660013	-92.268913	140.660013	-0.031988	-25.449628
1.550000	-0.033151	-26.283197	-89.209993	147.369505	-89.209993	147.369505	-0.033153	-26.282658
1.600000	-0.034304	-27.115204	-86.820008	150.765298	-86.820008	150.765298	-0.034305	-27.114646
1.650000	-0.035445	-27.946158	-84.865162	152.697830	-84.865162	152.697830	-0.035443	-27.945581
1.700000	-0.036571	-28.775669	-83.187862	153.735162	-83.187862	153.735162	-0.036568	-28.775073
1.750000	-0.037691	-29.604621	-81.756061	154.496273	-81.756061	154.496273	-0.037686	-29.604005
1.800000	-0.038800	-30.432235	-80.474383	154.951105	-80.474383	154.951105	-0.038794	-30.431601
1.850000	-0.039902	-31.258895	-79.324714	155.187165	-79.324714	155.187165	-0.039895	-31.258241
1.900000	-0.040997	-32.084376	-78.273660	155.296924	-78.273660	155.296924	-0.040989	-32.083702
1.950000	-0.042085	-32.908679	-77.304051	155.280381	-77.304051	155.280381	-0.042076	-32.907984
2.000000	-0.043169	-33.731970	-76.406750	155.204651	-76.406750	155.204651	-0.043159	-33.731255
2.050000	-0.044248	-34.553847	-75.561576	155.046060	-75.561576	155.046060	-0.044237	-34.553110
2.100000	-0.045326	-35.375101	-74.778367	154.863808	-74.778367	154.863808	-0.045314	-35.374343
2.150000	-0.046401	-36.194744	-74.028794	154.623803	-74.028794	154.623803	-0.046389	-36.193962
2.200000	-0.047475	-37.013167	-73.316696	154.351017	-73.316696	154.351017	-0.047462	-37.012361
2.250000	-0.048548	-37.830354	-72.637527	154.050653	-72.637527	154.050653	-0.048535	-37.829524
2.300000	-0.049623	-38.646290	-71.987479	153.726742	-71.987479	153.726742	-0.049609	-38.645434
2.350000	-0.050699	-39.460956	-71.363326	153.382442	-71.363326	153.382442	-0.050685	-39.460074
2.400000	-0.051777	-40.274337	-70.762306	153.020245	-70.762306	153.020245	-0.051763	-40.273428
2.450000	-0.052859	-41.086417	-70.182027	152.642122	-70.182027	152.642122	-0.052845	-41.085479
2.500000	-0.053945	-41.897179	-69.620404	152.249634	-69.620404	152.249634	-0.053931	-41.896212
2.550000	-0.055035	-42.706550	-69.074813	151.843471	-69.074813	151.843471	-0.055021	-42.705552
2.600000	-0.056130	-43.514570	-68.544431	151.425159	-68.544431	151.425159	-0.056117	-43.513540
2.650000	-0.057232	-44.321225	-68.027786	150.995361	-68.027786	150.995361	-0.057218	-44.320163
2.700000	-0.058340	-45.126500	-67.523551	150.554524	-67.523551	150.554524	-0.058327	-45.125405
2.750000	-0.059455	-45.930381	-67.030517	150.102893	-67.030517	150.102893	-0.059442	-45.929251
2.800000	-0.060578	-46.732854	-66.547576	149.640522	-66.547576	149.640522	-0.060565	-46.731688
2.850000	-0.061709	-47.533904	-66.073707	149.167273	-66.073707	149.167273	-0.061697	-47.532702
2.900000	-0.062848	-48.333520	-65.607960	148.682810	-65.607960	148.682810	-0.062837	-48.332280
2.950000	-0.063997	-49.131687	-65.149445	148.186590	-65.149445	148.186590	-0.063986	-49.130409
3.000000	-0.065155	-49.928394	-64.697327	147.677845	-64.697327	147.677845	-0.065144	-49.927077
3.050000	-0.066323	-50.723630	-64.250817	147.155565	-64.250817	147.155565	-0.066313	-50.722272
3.100000	-0.067502	-51.517381	-63.809168	146.618469	-63.809168	146.618469	-0.067492	-51.515983
3.150000	-0.068691	-52.309638	-63.371670	146.064975	-63.371670	146.064975	-0.068682	-52.308199
3.200000	-0.069892	-53.100390	-62.937652	145.493167	-62.937652	145.493167	-0.069884	-53.098908
3.250000	-0.071104	-53.889627	-62.506477	144.900755	-62.506477	144.900755	-0.071096	-53.888102
3.300000	-0.072328	-54.677340	-62.077554	144.285031	-62.077554	144.285031	-0.072321	-54.675771
3.350000	-0.073567	-55.463249	-61.646731	143.637076	-61.646731	143.637076	-0.073560	-55.461637
3.400000	-0.074818	-56.247549	-61.216607	142.957538	-61.216607	142.957538	-0.074813	-56.245893
3.450000	-0.076077	-57.031037	-60.796299	142.258124	-60.796299	142.258124	-0.076072	-57.029336
3.500000	-0.077356	-57.812090	-60.365438	141.499080	-60.365438	141.499080	-0.077352	-57.810343
3.550000	-0.078640	-58.592596	-59.947798	140.722748	-59.947798	140.722748	-0.078636	-58.590804
3.600000	-0.079948	-59.370370	-59.515278	139.859975	-59.515278	139.859975	-0.079945	-59.368533
3.650000	-0.081258	-60.147869	-59.099735	138.986145	-59.099735	138.986145	-0.081256	-60.145987
3.700000	-0.082595	-60.922339	-58.666027	137.990685	-58.666027	137.990685	-0.082594	-60.920411
3.750000	-0.083933	-61.696809	-58.252949	136.995224	-58.252949	136.995224	-0.083932	-61.694836
3.800000	-0.085301	-62.467953	-57.820575	135.835761	-57.820575	135.835761	-0.085301	-62.465936
3.850000	-0.086670	-63.239097	-57.408708	134.676298	-57.408708	134.676298	-0.086670	-63.237035
3.900000	-0.088068	-64.007177	-56.985720	133.340516	-56.985720	133.340516	-0.088069	-64.005070
3.950000	-0.089468	-64.774977	-56.579798	131.988704	-56.579798	131.988704	-0.089470	-64.772827
4.000000	-0.090897	-65.539981	-56.172698	130.462778	-56.172698	130.462778	-0.090899	-65.537788
4.050000	-0.092330	-66.304425	-55.780141	128.902028	-55.780141	128.902028	-0.092333	-66.302189
4.100000	-0.093790	-67.066344	-55.396726	127.189076	-55.396726	127.189076	-0.093792	-67.064067
4.150000	-0.095257	-67.827422	-55.027020	125.425390	-55.027020	125.425390	-0.095261	-67.825104
4.200000	-0.096749	-68.586252	-54.674946	123.551013	-54.674946	123.551013	-0.096752	-68.583895
4.250000	-0.098252	-69.343957	-54.337808	121.621289	-54.337808	121.621289	-0.098256	-69.341562
4.300000	-0.099776	-70.099695	-54.022779	119.633797	-54.022779	119.633797	-0.099780	-70.097262
4.350000	-0.101315	-70.854027	-53.725344	117.605040	-53.725344	117.605040	-0.101319	-70.851558
4.400000	-0.102873	-71.606672	-53.449628	115.568601	-53.449628	115.568601	-0.102877	-71.604169
4.450000	-0.104450	-72.357632	-53.193921	113.524479	-53.193921	113.524479	-0.104454	-72.355095
4.500000	-0.106043	-73.107187	-52.955771	111.506826	-52.955771	111.506826	-0.106046	-73.104619
4.550000	-0.107658	-73.854779	-52.737960	109.526230	-52.737960	109.526230	-0.107661	-73.852180
4.600000	-0.109287	-74.601250	-52.532109	107.585341	-52.532109	107.585341	-0.109289	-74.598622
4.650000	-0.110943	-75.345481	-52.343999	105.723868	-52.343999	105.723868	-0.110944	-75.342826
4.700000	-0.112609	-76.088874	-52.162961	103.898435	-52.162961	103.898435	-0.112609	-76.086194
4.750000	-0.114307	-76.829755	-51.994692	102.181123	-51.994692	102.181123	-0.114305	-76.827051
4.800000	-0.116012	-77.570080	-51.830379	100.487582	-51.830379	100.487582	-0.116008	-77.567353
4.850000	-0.117753	-78.307625	-51.672835	98.912900	-51.672835	98.912900	-0.117747	-78.304877
4.900000	-0.119498	-79.044893	-51.517939	97.348556	-51.517939	97.348556	-0.119491	-79.042124
4.950000	-0.121286	-79.779117	-51.364055	95.897934	-51.364055	95.897934	-0.121275	-79.776330
5.000000	-0.123075	-80.513341	-51.212849	94.447313	-51.212849	94.447313	-0.123060	-80.510535
5.050000	-0.124912	-81.244265	-51.057885	93.094601	-51.057885	93.094601	-0.124894	-81.241440
5.100000	-0.126750	-81.975188	-50.905637	91.741889	-50.905637	91.741889	-0.126727	-81.972346
5.150000	-0.128636	-82.703108	-50.747626	90.454119	-50.747626	90.454119	-0.128609	-82.700246
5.200000	-0.130528	-83.430754	-50.591690	89.172252	-50.591690	89.172252	-0.130495	-83.427873
5.250000	-0.132467	-84.155694	-50.429619	87.929136	-50.429619	87.929136	-0.132428	-84.152789
5.300000	-0.134417	-84.880092	-50.268773	86.693770	-50.268773	86.693770	-0.134372	-84.877164
5.350000	-0.136414	-85.602081	-50.102380	85.478125	-50.102380	85.478125	-0.136362	-85.599125
5.400000	-0.138428	-86.323267	-49.936343	84.269053	-49.936343	84.269053	-0.138369	-86.320280
5.450000	-0.140489	-87.042344	-49.765838	83.066896	-49.765838	83.066896	-0.140422	-87.039319
5.500000	-0.142574	-87.760364	-49.594897	81.868195	-49.594897	81.868195	-0.142499	-87.757299
5.550000	-0.144704	-88.476574	-49.420767	80.668485	-49.420767	80.668485	-0.144622	-88.473461
5.600000	-0.146867	-89.191489	-49.245518	79.468053	-49.245518	79.468053	-0.146778	-89.188322
5.650000	-0.149074	-89.904890	-49.068393	78.262290	-49.068393	78.262290	-0.148977	-89.901663
5.700000	-0.151324	-90.616777	-48.889575	77.051196	-48.889575	77.051196	-0.151221	-90.613482
5.750000	-0.153614	-91.327441	-48.710138	75.832990	-48.710138	75.832990	-0.153505	-91.324075
5.800000	-0.155958	-92.036395	-48.528540	74.604828	-48.528540	74.604828	-0.155845	-92.032949
5.850000	-0.158337	-92.744410	-48.347477	73.369497	-48.347477	73.369497	-0.158220	-92.740882
5.900000	-0.160782	-93.450548	-48.163879	72.119830	-48.163879	72.119830	-0.160663	-93.446933
5.950000	-0.163254	-94.156014	-47.981848	70.864057	-47.981848	70.864057	-0.163135	-94.152313
6.000000	-0.165803	-94.859467	-47.796995	69.589970	-47.796995	69.589970	-0.165687	-94.855681
6.050000	-0.168371	-95.562496	-47.614611	68.311524	-47.614611	68.311524	-0.168257	-95.558627
6.100000	-0.171025	-96.263406	-47.429203	67.011284	-47.429203	67.011284	-0.170917	-96.259463
6.150000	-0.173689	-96.964115	-47.247031	65.708796	-47.247031	65.708796	-0.173586	-96.960101
6.200000	-0.176444	-97.662622	-47.061715	64.381590	-47.061715	64.381590	-0.176350	-97.658555
6.250000	-0.179200	-98.361129	-46.880271	63.054383	-46.880271	63.054383	-0.179114	-98.357009
6.300000	-0.182049	-99.057359	-46.695644	61.700131	-46.695644	61.700131	-0.181973	-99.053212
6.350000	-0.184898	-99.753590	-46.514860	60.345878	-46.514860	60.345878	-0.184832	-99.749416
6.400000	-0.187825	-100.447831	-46.332003	58.967301	-46.332003	58.967301	-0.187768	-100.443654
6.450000	-0.190760	-101.141892	-46.152405	57.586512	-46.152405	57.586512	-0.190712	-101.137714
6.500000	-0.193756	-101.834213	-45.971715	56.184440	-45.971715	56.184440	-0.193716	-101.830051
6.550000	-0.196766	-102.526187	-45.793782	54.778112	-45.793782	54.778112	-0.196733	-102.522044
6.600000	-0.199825	-103.216641	-45.615613	53.353681	-45.615613	53.353681	-0.199797	-103.212526
6.650000	-0.202901	-103.906588	-45.439783	51.923216	-45.439783	51.923216	-0.202879	-103.902505
6.700000	-0.206018	-104.595216	-45.264447	50.477826	-45.264447	50.477826	-0.205998	-104.591167
6.750000	-0.209156	-105.283184	-45.091113	49.024973	-45.091113	49.024973	-0.209137	-105.279170
6.800000	-0.212327	-105.970022	-44.918882	47.560250	-44.918882	47.560250	-0.212309	-105.966040
6.850000	-0.215522	-106.656052	-44.748398	46.087049	-44.748398	46.087049	-0.215503	-106.652101
6.900000	-0.218746	-107.341134	-44.579506	44.604818	-44.579506	44.604818	-0.218726	-107.337210
6.950000	-0.221999	-108.025269	-44.412180	43.113557	-44.412180	43.113557	-0.221976	-108.021365
7.000000	-0.225277	-108.708633	-44.246825	41.615811	-44.246825	41.615811	-0.225251	-108.704746
7.050000	-0.228589	-109.390919	-44.082922	40.108985	-44.082922	40.108985	-0.228559	-109.387041
7.100000	-0.231922	-110.072607	-43.921263	38.597857	-43.921263	38.597857	-0.231888	-110.068735
7.150000	-0.235296	-110.753102	-43.761003	37.078124	-43.761003	37.078124	-0.235258	-110.749227
7.200000	-0.238688	-111.433165	-43.603165	35.555860	-43.603165	35.555860	-0.238646	-111.429285
7.250000	-0.242129	-112.111935	-43.446723	34.026003	-43.446723	34.026003	-0.242083	-112.108040
7.300000	-0.245583	-112.790430	-43.292795	32.494936	-43.292795	32.494936	-0.245534	-112.786519
7.350000	-0.249096	-113.467551	-43.140298	30.957823	-43.140298	30.957823	-0.249044	-113.463616
7.400000	-0.252616	-114.144541	-42.990335	29.420348	-42.990335	29.420348	-0.252561	-114.140581
7.450000	-0.256206	-114.820098	-42.841863	27.878891	-42.841863	27.878891	-0.256149	-114.816106
7.500000	-0.259797	-115.495655	-42.695887	26.337434	-42.695887	26.337434	-0.259738	-115.491630
7.550000	-0.263470	-116.169739	-42.551476	24.794554	-42.551476	24.794554	-0.263409	-116.165676
7.600000	-0.267144	-116.843823	-42.409426	23.251674	-42.409426	23.251674	-0.267082	-116.839723
7.650000	-0.270897	-117.516647	-42.269116	21.710143	-42.269116	21.710143	-0.270834	-117.512505
7.700000	-0.274659	-118.189356	-42.130987	20.168734	-42.130987	20.168734	-0.274596	-118.185173
7.750000	-0.278497	-118.861006	-41.994692	18.630914	-41.994692	18.630914	-0.278435	-118.856779
7.800000	-0.282353	-119.532445	-41.860437	17.093813	-41.860437	17.093813	-0.282291	-119.528173
7.850000	-0.286281	-120.203010	-41.728043	15.562011	-41.728043	15.562011	-0.286220	-120.198693
7.900000	-0.290235	-120.873285	-41.597577	14.031975	-41.597577	14.031975	-0.290175	-120.868923
7.950000	-0.294257	-121.542858	-41.468949	12.508423	-41.468949	12.508423	-0.294200	-121.538451
8.000000	-0.298315	-122.212081	-41.342153	10.988113	-41.342153	10.988113	-0.298260	-122.207628
8.050000	-0.302437	-122.880757	-41.217135	9.474972	-41.217135	9.474972	-0.302384	-122.876259
8.100000	-0.306604	-123.549043	-41.093859	7.966952	-41.093859	7.966952	-0.306554	-123.544500
8.150000	-0.310829	-124.216919	-40.972279	6.466312	-40.972279	6.466312	-0.310782	-124.212333
8.200000	-0.315112	-124.884386	-40.852348	4.973053	-40.852348	4.973053	-0.315067	-124.879756
8.250000	-0.319445	-125.551562	-40.734020	3.486949	-40.734020	3.486949	-0.319404	-125.546890
8.300000	-0.323849	-126.218330	-40.617239	2.010860	-40.617239	2.010860	-0.323811	-126.213618
8.350000	-0.328304	-126.884882	-40.501956	0.542485	-40.501956	0.542485	-0.328268	-126.880129
8.400000	-0.332856	-127.550998	-40.388082	-0.910461	-40.388082	-0.910461	-0.332824	-127.546207
8.450000	-0.337412	-128.217114	-40.275682	-2.363408	-40.275682	-2.363408	-0.337382	-128.212286
8.500000	-0.342067	-128.882932	-40.164548	-3.799394	-40.164548	-3.799394	-0.342040	-128.878068
8.550000	-0.346804	-129.548511	-40.054684	-5.221810	-40.054684	-5.221810	-0.346779	-129.543613
8.600000	-0.351543	-130.214090	-39.946192	-6.644227	-39.946192	-6.644227	-0.351521	-130.209159
8.650000	-0.356434	-130.879436	-39.838650	-8.038970	-39.838650	-8.038970	-0.356414	-130.874474
8.700000	-0.361371	-131.544715	-39.732314	-9.425807	-39.732314	-9.425807	-0.361351	-131.539723
8.750000	-0.366310	-132.209994	-39.627264	-10.812645	-39.627264	-10.812645	-0.366292	-132.204973
8.800000	-0.371462	-132.875220	-39.522722	-12.157451	-39.522722	-12.157451	-0.371445	-132.870174
8.850000	-0.376618	-133.540446	-39.419424	-13.502257	-39.419424	-13.502257	-0.376601	-133.535376
8.900000	-0.381829	-134.205718	-39.317098	-14.835649	-39.317098	-14.835649	-0.381812	-134.200624
8.950000	-0.387228	-134.871153	-39.215128	-16.129091	-39.215128	-16.129091	-0.387210	-134.866039
9.000000	-0.392631	-135.536588	-39.114341	-17.422532	-39.114341	-17.422532	-0.392611	-135.531454
9.050000	-0.398160	-136.202241	-39.014000	-18.686396	-39.014000	-18.686396	-0.398138	-136.197088
9.100000	-0.403847	-136.868166	-38.913926	-19.913287	-38.913926	-19.913287	-0.403822	-136.862996
9.150000	-0.409538	-137.534091	-38.814992	-21.140178	-38.814992	-21.140178	-0.409509	-137.528904
9.200000	-0.415463	-138.200547	-38.715428	-22.304323	-38.715428	-22.304323	-0.415430	-138.195343
9.250000	-0.421509	-138.867269	-38.616130	-23.437094	-38.616130	-23.437094	-0.421470	-138.862048
9.300000	-0.427558	-139.533991	-38.517955	-24.569866	-38.517955	-24.569866	-0.427514	-139.528754
9.350000	-0.434041	-140.201712	-38.416181	-25.569062	-38.416181	-25.569062	-0.433989	-140.196452
9.400000	-0.440583	-140.869558	-38.315005	-26.551562	-38.315005	-26.551562	-0.440523	-140.864274
9.450000	-0.447180	-141.537505	-38.214217	-27.516709	-38.214217	-27.516709	-0.447112	-141.532195
9.500000	-0.454249	-142.206340	-38.107253	-28.321967	-38.107253	-28.321967	-0.454171	-142.200991
9.550000	-0.461689	-142.875669	-37.993893	-28.996020	-37.993893	-28.996020	-0.461600	-142.870265
9.600000	-0.469622	-143.545404	-37.869426	-29.493941	-37.869426	-29.493941	-0.469520	-143.539919
9.650000	-0.478147	-144.215317	-37.728678	-29.781531	-37.728678	-29.781531	-0.478030	-144.209718
9.700000	-0.487713	-144.884732	-37.550500	-29.713330	-37.550500	-29.713330	-0.487578	-144.878956
9.750000	-0.498867	-145.551610	-37.298411	-29.161178	-37.298411	-29.161178	-0.498704	-145.545553
9.800000	-0.512599	-146.210063	-36.890339	-28.007502	-36.890339	-28.007502	-0.512383	-146.203570
9.850000	-0.530358	-146.842575	-36.155956	-26.473879	-36.155956	-26.473879	-0.530022	-146.835502
9.900000	-0.551491	-147.384251	-34.753478	-26.881325	-34.753478	-26.881325	-0.550883	-147.377191
9.950000	-0.547003	-147.766054	-33.090180	-36.834704	-33.090180	-36.834704	-0.546330	-147.761183
10.000000	-0.503032	-148.414373	-33.336462	-52.178368	-33.336462	-52.178368	-0.502409	-148.408684
