! freq	dB(S11)	phase(S11)	dB(S12)	phase(S12)	
!     	dB(S21)	phase(S21)	dB(S22)	phase(S22)	
!S-par simulation data
#  GHz  S  DB  R 50
0.000000	-85.393346	0.000000	-0.000467	0.000000	-0.000467	0.000000	-85.393346	0.000000
0.050000	-33.496498	-93.179243	-0.005466	-2.995338	-0.005466	-2.995338	-33.487909	-92.673107
0.100000	-27.493317	-96.569477	-0.017012	-5.961049	-0.017012	-5.961049	-27.485903	-95.552644
0.150000	-23.999573	-99.890828	-0.031653	-8.902897	-0.031653	-8.902897	-23.993343	-98.357621
0.200000	-21.539018	-103.173187	-0.048908	-11.830986	-0.048908	-11.830986	-21.533385	-101.119901
0.250000	-19.647557	-106.420245	-0.069087	-14.748799	-0.069087	-14.748799	-19.641726	-103.847045
0.300000	-18.117978	-109.633284	-0.092434	-17.655956	-0.092434	-17.655956	-18.111346	-106.543611
0.350000	-16.839723	-112.814141	-0.119061	-20.550756	-0.119061	-20.550756	-16.832071	-109.213027
0.400000	-15.746259	-115.966275	-0.148890	-23.431580	-0.148890	-23.431580	-15.737755	-111.858426
0.450000	-14.794777	-119.093099	-0.181784	-26.296963	-0.181784	-26.296963	-14.785823	-114.481816
0.500000	-13.956431	-122.197180	-0.217596	-29.145504	-0.217596	-29.145504	-13.947516	-117.084065
0.550000	-13.210476	-125.280618	-0.256090	-31.976430	-0.256090	-31.976430	-13.202040	-119.665743
0.600000	-12.541804	-128.344456	-0.296996	-34.789199	-0.296996	-34.789199	-12.534177	-122.226812
0.650000	-11.938614	-131.389396	-0.339933	-37.583846	-0.339933	-37.583846	-11.931981	-124.767370
0.700000	-11.392043	-134.415283	-0.384484	-40.359929	-0.384484	-40.359929	-11.386462	-127.286977
0.750000	-10.894923	-137.421823	-0.430186	-43.116628	-0.430186	-43.116628	-10.890345	-129.785280
0.800000	-10.441426	-140.408620	-0.476631	-45.852574	-0.476631	-45.852574	-10.437717	-132.261938
0.850000	-10.026815	-143.375187	-0.523537	-48.566179	-0.523537	-48.566179	-10.023782	-134.716546
0.900000	-9.647121	-146.321118	-0.570727	-51.256334	-0.570727	-51.256334	-9.644534	-137.148764
0.950000	-9.298755	-149.246428	-0.618073	-53.923020	-0.618073	-53.923020	-9.296370	-139.558660
1.000000	-8.978782	-152.151080	-0.665433	-56.566584	-0.665433	-56.566584	-8.976360	-141.946189
1.050000	-8.684669	-155.035178	-0.712636	-59.187693	-0.712636	-59.187693	-8.681989	-144.311418
1.100000	-8.414214	-157.898968	-0.759485	-61.787156	-0.759485	-61.787156	-8.411089	-146.654548
1.150000	-8.165489	-160.742823	-0.805774	-64.365829	-0.805774	-64.365829	-8.161772	-148.975926
1.200000	-7.936799	-163.567235	-0.851296	-66.924591	-0.851296	-66.924591	-7.932393	-151.276059
1.250000	-7.726649	-166.372804	-0.895848	-69.464336	-0.895848	-69.464336	-7.721503	-153.555609
1.300000	-7.533888	-169.159968	-0.939217	-71.985729	-0.939217	-71.985729	-7.527998	-155.815112
1.350000	-7.357154	-171.929776	-0.981240	-74.489986	-0.981240	-74.489986	-7.350550	-158.055800
1.400000	-7.195834	-174.682473	-1.021676	-76.977491	-1.021676	-76.977491	-7.188579	-160.278057
1.450000	-7.048010	-177.420327	-1.060532	-79.450568	-1.060532	-79.450568	-7.040177	-162.484431
1.500000	-6.913459	179.856544	-1.097566	-81.909430	-1.097566	-81.909430	-6.905136	-164.675157
1.550000	-6.791644	177.147424	-1.132608	-84.354861	-1.132608	-84.354861	-6.782920	-166.851094
1.600000	-6.681107	174.450286	-1.165705	-86.788894	-1.165705	-86.788894	-6.672066	-169.014461
1.650000	-6.582627	171.765711	-1.196446	-89.211079	-1.196446	-89.211079	-6.573358	-171.164727
1.700000	-6.494147	169.090883	-1.225094	-91.624173	-1.225094	-91.624173	-6.484723	-173.304890
1.750000	-6.416216	166.425844	-1.251323	-94.028256	-1.251323	-94.028256	-6.406709	-175.434978
1.800000	-6.348153	163.769214	-1.275125	-96.424746	-1.275125	-96.424746	-6.338631	-177.556495
1.850000	-6.289612	161.119921	-1.296435	-98.814781	-1.296435	-98.814781	-6.280136	-179.670634
1.900000	-6.240394	158.476954	-1.315169	-101.199461	-1.315169	-101.199461	-6.231021	178.221452
1.950000	-6.200243	155.839223	-1.331281	-103.579977	-1.331281	-103.579977	-6.191027	176.118503
2.000000	-6.168859	153.205618	-1.344762	-105.957540	-1.344762	-105.957540	-6.159851	174.019222
2.050000	-6.146077	150.575116	-1.355585	-108.333303	-1.355585	-108.333303	-6.137327	171.922365
2.100000	-6.131776	147.946719	-1.363733	-110.708423	-1.363733	-110.708423	-6.123331	169.826672
2.150000	-6.125871	145.319453	-1.369196	-113.084051	-1.369196	-113.084051	-6.117780	167.730872
2.200000	-6.128316	142.692377	-1.371974	-115.461337	-1.371974	-115.461337	-6.120626	165.633679
2.250000	-6.139102	140.064586	-1.372074	-117.841428	-1.372074	-117.841428	-6.131863	163.533788
2.300000	-6.158257	137.435213	-1.369513	-120.225462	-1.369513	-120.225462	-6.151519	161.429884
2.350000	-6.185846	134.803438	-1.364317	-122.614573	-1.364317	-122.614573	-6.179663	159.320630
2.400000	-6.221974	132.168493	-1.356520	-125.009885	-1.356520	-125.009885	-6.216402	157.204671
2.450000	-6.266780	129.529667	-1.346163	-127.412512	-1.346163	-127.412512	-6.261881	155.080634
2.500000	-6.320447	126.886314	-1.333297	-129.823558	-1.333297	-129.823558	-6.316285	152.947121
2.550000	-6.383388	124.237738	-1.317930	-132.244344	-1.317930	-132.244344	-6.380037	150.802439
2.600000	-6.455682	121.583555	-1.300186	-134.675762	-1.300186	-134.675762	-6.453222	148.645340
2.650000	-6.537641	118.923376	-1.280142	-137.118867	-1.280142	-137.118867	-6.536161	146.474335
2.700000	-6.629624	116.256922	-1.257885	-139.574696	-1.257885	-139.574696	-6.629223	144.287900
2.750000	-6.732040	113.584036	-1.233511	-142.044263	-1.233511	-142.044263	-6.732831	142.084464
2.800000	-6.845354	110.904702	-1.207124	-144.528558	-1.207124	-144.528558	-6.847467	139.862405
2.850000	-6.970093	108.219068	-1.178840	-147.028541	-1.178840	-147.028541	-6.973673	137.620038
2.900000	-7.106844	105.527468	-1.148782	-149.545142	-1.148782	-149.545142	-7.112060	135.355604
2.950000	-7.256272	102.830454	-1.117083	-152.079254	-1.117083	-152.079254	-7.263318	133.067258
3.000000	-7.419115	100.128831	-1.083885	-154.631731	-1.083885	-154.631731	-7.428216	130.753046
3.050000	-7.596203	97.423700	-1.049340	-157.203384	-1.049340	-157.203384	-7.607620	128.410886
3.100000	-7.788464	94.716510	-1.013610	-159.794972	-1.013610	-159.794972	-7.802502	126.038539
3.150000	-7.997066	92.009148	-0.976855	-162.407435	-0.976855	-162.407435	-8.014087	123.633183
3.200000	-8.223187	89.304069	-0.939260	-165.041440	-0.939260	-165.041440	-8.243618	121.192040
3.250000	-8.468009	86.604269	-0.901029	-167.697341	-0.901029	-167.697341	-8.492354	118.712457
3.300000	-8.733007	83.913470	-0.862358	-170.375643	-0.862358	-170.375643	-8.761868	116.191036
3.350000	-9.019847	81.236285	-0.823455	-173.076773	-0.823455	-173.076773	-9.053947	113.623882
3.400000	-9.330416	78.578425	-0.784533	-175.801076	-0.784533	-175.801076	-9.370633	111.006462
3.450000	-9.666863	75.946970	-0.745812	-178.548805	-0.745812	-178.548805	-9.714269	108.333415
3.500000	-10.031644	73.350729	-0.707520	178.679885	-0.707520	178.679885	-10.087562	105.598298
3.550000	-10.427579	70.800715	-0.669888	175.884938	-0.669888	175.884938	-10.493664	102.793242
3.600000	-10.857926	68.310795	-0.633152	173.066411	-0.633152	173.066411	-10.936267	99.908463
3.650000	-11.326468	65.898578	-0.597552	170.224473	-0.597552	170.224473	-11.419742	96.931586
3.700000	-11.837615	63.586669	-0.563328	167.359410	-0.563328	167.359410	-11.949309	93.846668
3.750000	-12.396541	61.404445	-0.530721	164.471634	-0.530721	164.471634	-12.531270	90.632764
3.800000	-13.009617	59.395489	-0.500014	161.561215	-0.500014	161.561215	-13.173690	87.257481
3.850000	-13.683627	57.610130	-0.471411	158.629321	-0.471411	158.629321	-13.885697	83.684056
3.900000	-14.426849	56.121204	-0.445142	155.676755	-0.445142	155.676755	-14.679168	79.856480
3.950000	-15.248732	55.030647	-0.421430	152.704448	-0.421430	152.704448	-15.569128	75.693023
4.000000	-16.159531	54.484179	-0.400491	149.713458	-0.400491	149.713458	-16.574725	71.070234
4.050000	-17.168994	54.694225	-0.382528	146.704965	-0.382528	146.704965	-17.720304	65.794184
4.100000	-18.282702	55.974473	-0.367732	143.680268	-0.367732	143.680268	-19.035905	59.546544
4.150000	-19.492840	58.785399	-0.356279	140.640775	-0.356279	140.640775	-20.554396	51.780545
4.200000	-20.756876	63.766830	-0.348327	137.587998	-0.348327	137.587998	-22.294851	41.525057
4.250000	-21.956327	71.651988	-0.344020	134.523541	-0.344020	134.523541	-24.196117	27.098735
4.300000	-22.850821	82.802685	-0.343478	131.449088	-0.343478	131.449088	-25.916276	6.269351
4.350000	-23.127752	96.252550	-0.346803	128.366399	-0.346803	128.366399	-26.608543	-20.878730
4.400000	-22.641721	109.388663	-0.354118	125.277248	-0.354118	125.277248	-25.678565	-47.507401
4.450000	-21.595727	119.793526	-0.365485	122.183625	-0.365485	122.183625	-23.837306	-67.346622
4.500000	-20.311946	126.906896	-0.381099	119.087452	-0.381099	119.087452	-21.895718	-81.062556
4.550000	-19.001282	131.260182	-0.400336	115.988866	-0.400336	115.988866	-20.135859	-90.908876
4.600000	-17.759852	133.589721	-0.423765	112.893058	-0.423765	112.893058	-18.598634	-98.449089
4.650000	-16.619214	134.494318	-0.451211	109.799948	-0.451211	109.799948	-17.260506	-104.575281
4.700000	-15.582747	134.396438	-0.482587	106.711522	-0.482587	106.711522	-16.088414	-109.791481
4.750000	-14.643363	133.583031	-0.517811	103.629565	-0.517811	103.629565	-15.053039	-114.393025
4.800000	-13.791001	132.249144	-0.556781	100.555775	-0.556781	100.555775	-14.130803	-118.560906
4.850000	-13.015527	130.529450	-0.599377	97.491768	-0.599377	97.491768	-13.303188	-122.410873
4.900000	-12.307750	128.518910	-0.645463	94.439070	-0.645463	94.439070	-12.555650	-126.019802
4.950000	-11.659661	126.285976	-0.694886	91.399113	-0.694886	91.399113	-11.876667	-129.440454
5.000000	-11.064396	123.881056	-0.747480	88.373227	-0.747480	88.373227	-11.257002	-132.710096
5.050000	-10.516315	121.339773	-0.803120	85.362993	-0.803120	85.362993	-10.689409	-135.853483
5.100000	-10.010215	118.694327	-0.861557	82.369212	-0.861557	82.369212	-10.167477	-138.893499
5.150000	-9.541795	115.966909	-0.922593	79.392875	-0.922593	79.392875	-9.686076	-141.845006
5.200000	-9.107352	113.175063	-0.986027	76.434864	-0.986027	76.434864	-9.240891	-144.719479
5.250000	-8.703678	110.332831	-1.051652	73.495945	-1.051652	73.495945	-8.828263	-147.525922
5.300000	-8.327979	107.451568	-1.119259	70.576778	-1.119259	70.576778	-8.445055	-150.271514
5.350000	-7.977805	104.540545	-1.188636	67.677914	-1.188636	67.677914	-8.088557	-152.962063
5.400000	-7.650996	101.607390	-1.259573	64.799799	-1.259573	64.799799	-7.756410	-155.602342
5.450000	-7.345636	98.658416	-1.331859	61.942784	-1.331859	61.942784	-7.446545	-158.196328
5.500000	-7.060023	95.698878	-1.405287	59.107122	-1.405287	59.107122	-7.157136	-160.747382
5.550000	-6.792631	92.733164	-1.479651	56.292980	-1.479651	56.292980	-6.886560	-163.258390
5.600000	-6.542092	89.764953	-1.554751	53.500441	-1.554751	53.500441	-6.633370	-165.731860
5.650000	-6.307267	86.797367	-1.630386	50.729746	-1.630386	50.729746	-6.396365	-168.169648
5.700000	-6.087033	83.833068	-1.706359	47.980824	-1.706359	47.980824	-6.174363	-170.573796
5.750000	-5.880284	80.874200	-1.782486	45.253304	-1.782486	45.253304	-5.966207	-172.946475
5.800000	-5.686108	77.922564	-1.858587	42.546992	-1.858587	42.546992	-5.770938	-175.289331
5.850000	-5.503673	74.979668	-1.934490	39.861638	-1.934490	39.861638	-5.587682	-177.603893
5.900000	-5.332223	72.046770	-2.010027	37.196943	-2.010027	37.196943	-5.415642	-179.891599
5.950000	-5.171070	69.124916	-2.085037	34.552563	-2.085037	34.552563	-5.254089	177.846188
6.000000	-5.019586	66.214971	-2.159366	31.928115	-2.159366	31.928115	-5.102356	175.608164
6.050000	-4.877200	63.317649	-2.232866	29.323181	-2.232866	29.323181	-4.959831	173.393073
6.100000	-4.743389	60.433536	-2.305394	26.737309	-2.305394	26.737309	-4.825950	171.199703
6.150000	-4.617677	57.563113	-2.376814	24.170019	-2.376814	24.170019	-4.700198	169.026873
6.200000	-4.499628	54.706771	-2.446996	21.620806	-2.446996	21.620806	-4.582098	166.873434
6.250000	-4.388844	51.864830	-2.515815	19.089142	-2.515815	19.089142	-4.471214	164.738261
6.300000	-4.285078	49.037872	-2.583105	16.574836	-2.583105	16.574836	-4.367255	162.620602
6.350000	-4.187870	46.225791	-2.648795	14.076938	-2.648795	14.076938	-4.269730	160.518978
6.400000	-4.096912	43.428748	-2.712775	11.594865	-2.712775	11.594865	-4.178297	158.432330
6.450000	-4.011921	40.646870	-2.774940	9.128018	-2.774940	9.128018	-4.092644	156.359616
6.500000	-3.932633	37.880243	-2.835191	6.675785	-2.835191	6.675785	-4.012485	154.299808
6.550000	-3.858805	35.128919	-2.893432	4.237543	-2.893432	4.237543	-3.937557	152.251897
6.600000	-3.790209	32.392908	-2.949571	1.812655	-2.949571	1.812655	-3.867617	150.214887
6.650000	-3.726632	29.672180	-3.003519	-0.599525	-3.003519	-0.599525	-3.802447	148.187798
6.700000	-3.667879	26.966655	-3.055192	-2.999654	-3.055192	-2.999654	-3.741844	146.169661
6.750000	-3.613765	24.276205	-3.104507	-5.388400	-3.104507	-5.388400	-3.685628	144.159521
6.800000	-3.564121	21.600650	-3.151388	-7.766443	-3.151388	-7.766443	-3.633633	142.156435
6.850000	-3.518789	18.939752	-3.195757	-10.134472	-3.195757	-10.134472	-3.585709	140.159469
6.900000	-3.477670	16.293368	-3.237511	-12.493094	-3.237511	-12.493094	-3.541764	138.167749
6.950000	-3.440632	13.661137	-3.276578	-14.843045	-3.276578	-14.843045	-3.501675	136.180327
7.000000	-3.407518	11.042494	-3.312921	-17.185152	-3.312921	-17.185152	-3.465300	134.196242
7.050000	-3.378230	8.436980	-3.346475	-19.520153	-3.346475	-19.520153	-3.432549	132.214595
7.100000	-3.352685	5.844088	-3.377175	-21.848800	-3.377175	-21.848800	-3.403344	130.234490
7.150000	-3.330814	3.263268	-3.404960	-24.171860	-3.404960	-24.171860	-3.377623	128.255037
7.200000	-3.312567	0.693930	-3.429772	-26.490115	-3.429772	-26.490115	-3.355335	126.275348
7.250000	-3.297905	-1.864551	-3.451553	-28.804366	-3.451553	-28.804366	-3.336440	124.294535
7.300000	-3.286809	-4.412835	-3.470247	-31.115430	-3.470247	-31.115430	-3.320914	122.311710
7.350000	-3.279274	-6.951605	-3.485800	-33.424147	-3.485800	-33.424147	-3.308743	120.325983
7.400000	-3.275310	-9.481576	-3.498163	-35.731375	-3.498163	-35.731375	-3.299926	118.336460
7.450000	-3.274945	-12.003482	-3.507284	-38.037999	-3.507284	-38.037999	-3.294475	116.342241
7.500000	-3.278223	-14.518081	-3.513117	-40.344925	-3.513117	-40.344925	-3.292416	114.342422
7.550000	-3.285284	-17.026029	-3.515542	-42.653137	-3.515542	-42.653137	-3.293862	112.335922
7.600000	-3.296127	-19.528286	-3.514589	-44.963594	-3.514589	-44.963594	-3.298795	110.321937
7.650000	-3.310847	-22.025673	-3.510216	-47.277292	-3.510216	-47.277292	-3.307283	108.299529
7.700000	-3.329557	-24.519030	-3.502386	-49.595260	-3.502386	-49.595260	-3.319410	106.267742
7.750000	-3.352388	-27.009219	-3.491064	-51.918563	-3.491064	-51.918563	-3.335276	104.225609
7.800000	-3.379493	-29.497122	-3.476217	-54.248302	-3.476217	-54.248302	-3.355000	102.172141
7.850000	-3.411043	-31.983641	-3.457817	-56.585619	-3.457817	-56.585619	-3.378720	100.106333
7.900000	-3.447235	-34.469703	-3.435839	-58.931697	-3.435839	-58.931697	-3.406592	98.027156
7.950000	-3.488288	-36.956253	-3.410263	-61.287766	-3.410263	-61.287766	-3.438798	95.933560
8.000000	-3.534450	-39.444260	-3.381075	-63.655101	-3.381075	-63.655101	-3.475541	93.824472
8.050000	-3.585996	-41.934713	-3.348263	-66.035030	-3.348263	-66.035030	-3.517052	91.698792
8.100000	-3.643234	-44.428625	-3.311824	-68.428930	-3.311824	-68.428930	-3.563590	89.555397
8.150000	-3.706571	-46.927084	-3.271719	-70.838419	-3.271719	-70.838419	-3.615504	87.392919
8.200000	-3.776400	-49.431176	-3.227959	-73.265040	-3.227959	-73.265040	-3.673132	85.210140
8.250000	-3.853087	-51.941913	-3.180604	-75.710180	-3.180604	-75.710180	-3.736786	83.006066
8.300000	-3.937107	-54.460369	-3.129684	-78.175453	-3.129684	-78.175453	-3.806878	80.779471
8.350000	-4.028992	-56.987617	-3.075240	-80.662538	-3.075240	-80.662538	-3.883869	78.529114
8.400000	-4.129332	-59.524728	-3.017325	-83.173176	-3.017325	-83.173176	-3.968276	76.253735
8.450000	-4.238789	-62.072756	-2.956006	-85.709172	-2.956006	-85.709172	-4.060677	73.952070
8.500000	-4.358100	-64.632728	-2.891366	-88.272393	-2.891366	-88.272393	-4.161718	71.622853
8.550000	-4.488096	-67.205620	-2.823506	-90.864771	-2.823506	-90.864771	-4.272125	69.264829
8.600000	-4.629704	-69.792340	-2.752544	-93.488295	-2.752544	-93.488295	-4.392715	66.876772
8.650000	-4.783972	-72.393695	-2.678621	-96.145011	-2.678621	-96.145011	-4.524403	64.457500
8.700000	-4.952078	-75.010355	-2.601904	-98.837012	-2.601904	-98.837012	-4.668222	62.005904
8.750000	-5.135360	-77.642805	-2.522582	-101.566434	-2.522582	-101.566434	-4.825337	59.520977
8.800000	-5.335622	-80.291626	-2.440813	-104.336355	-2.440813	-104.336355	-4.997338	57.001096
8.850000	-5.554343	-82.956357	-2.356923	-107.148148	-2.356923	-107.148148	-5.185492	54.446333
8.900000	-5.793501	-85.636433	-2.271201	-110.003996	-2.271201	-110.003996	-5.391505	51.856306
8.950000	-6.055366	-88.330712	-2.183974	-112.906063	-2.183974	-112.906063	-5.617325	49.230986
9.000000	-6.342557	-91.037285	-2.095607	-115.856465	-2.095607	-115.856465	-5.865179	46.570811
9.050000	-6.658110	-93.753236	-2.006511	-118.857241	-2.006511	-118.857241	-6.137632	43.876830
9.100000	-7.005571	-96.474318	-1.917139	-121.910319	-1.917139	-121.910319	-6.437647	41.150886
9.150000	-7.389106	-99.194504	-1.827991	-125.017477	-1.827991	-125.017477	-6.768670	38.395868
9.200000	-7.813107	-101.905880	-1.739601	-128.178984	-1.739601	-128.178984	-7.134215	35.616453
9.250000	-8.284819	-104.595716	-1.652587	-131.399404	-1.652587	-131.399404	-7.540311	32.817576
9.300000	-8.810641	-107.247910	-1.567596	-134.677871	-1.567596	-134.677871	-7.991921	30.008696
9.350000	-9.399330	-109.839472	-1.485316	-138.015042	-1.485316	-138.015042	-8.495880	27.201826
9.400000	-10.061769	-112.337804	-1.406473	-141.411142	-1.406473	-141.411142	-9.060529	24.413712
9.450000	-10.811703	-114.695847	-1.331829	-144.865908	-1.331829	-144.865908	-9.696208	21.667884
9.500000	-11.666810	-116.843937	-1.262173	-148.378527	-1.262173	-148.378527	-10.415967	18.997890
9.550000	-12.650277	-118.675539	-1.198308	-151.947575	-1.198308	-151.947575	-11.236633	16.452657
9.600000	-13.793202	-120.017162	-1.141076	-155.571219	-1.141076	-155.571219	-12.180613	14.107284
9.650000	-15.137289	-120.569980	-1.091326	-159.246863	-1.091326	-159.246863	-13.278280	12.082457
9.700000	-16.737179	-119.810784	-1.049769	-162.970454	-1.049769	-162.970454	-14.571581	10.572964
9.750000	-18.655943	-116.715806	-1.017127	-166.737745	-1.017127	-166.737745	-16.121426	9.931153
9.800000	-20.912278	-109.196674	-0.994060	-170.543796	-0.994060	-170.543796	-18.016494	10.848617
9.850000	-23.208751	-93.453014	-0.981146	-174.383012	-0.981146	-174.383012	-20.375450	14.840280
9.900000	-24.278047	-67.618294	-0.978863	-178.249217	-0.978863	-178.249217	-23.254905	25.544868
9.950000	-22.981814	-42.392219	-0.987574	177.864252	-0.987574	177.864252	-25.922334	50.165145
10.000000	-20.603463	-27.619094	-1.007514	173.964426	-1.007514	173.964426	-25.653253	85.424541
