! freq	dB(S11)	phase(S11)	dB(S12)	phase(S12)	
!     	dB(S21)	phase(S21)	dB(S22)	phase(S22)	
!S-par simulation data
#  GHz  S  DB  R 50
0.000000	-0.000000	0.000000	-369.413361	0.000000	-369.413361	0.000000	-0.000000	0.000000
0.050000	-0.000102	-0.763578	-117.872568	87.628348	-117.872568	87.628348	-0.000102	-0.767674
0.100000	-0.000402	-1.526902	-112.097071	86.237116	-112.097071	86.237116	-0.000402	-1.535094
0.150000	-0.000891	-2.289721	-108.825941	85.554020	-108.825941	85.554020	-0.000893	-2.302007
0.200000	-0.001538	-3.051889	-106.559730	85.136674	-106.559730	85.136674	-0.001542	-3.068267
0.250000	-0.002325	-3.813242	-104.859091	84.822715	-104.859091	84.822715	-0.002330	-3.833710
0.300000	-0.003236	-4.573582	-103.544128	84.572897	-103.544128	84.572897	-0.003243	-4.598137
0.350000	-0.004227	-5.333012	-102.497137	84.385960	-102.497137	84.385960	-0.004237	-5.361651
0.400000	-0.005289	-6.091367	-101.677098	84.300759	-101.677098	84.300759	-0.005301	-6.124086
0.450000	-0.006393	-6.848745	-101.038154	84.348775	-101.038154	84.348775	-0.006409	-6.885539
0.500000	-0.007526	-7.605127	-100.563098	84.585574	-100.563098	84.585574	-0.007545	-7.645992
0.550000	-0.008673	-8.360559	-100.237343	85.076004	-100.237343	85.076004	-0.008695	-8.405490
0.600000	-0.009823	-9.115084	-100.053076	85.907239	-100.053076	85.907239	-0.009848	-9.164076
0.650000	-0.010969	-9.868745	-100.006423	87.198203	-100.006423	87.198203	-0.010997	-9.921793
0.700000	-0.012105	-10.621583	-100.095504	89.115115	-100.095504	89.115115	-0.012136	-10.678682
0.750000	-0.013228	-11.373634	-100.317380	91.893892	-100.317380	91.893892	-0.013263	-11.434778
0.800000	-0.014337	-12.124927	-100.662050	95.868801	-100.662050	95.868801	-0.014375	-12.190112
0.850000	-0.015428	-12.875363	-101.085144	101.948862	-101.085144	101.948862	-0.015468	-12.944582
0.900000	-0.016503	-13.625053	-101.524240	110.341388	-101.524240	110.341388	-0.016546	-13.698300
0.950000	-0.017570	-14.374377	-101.823879	120.001371	-101.823879	120.001371	-0.017616	-14.451650
1.000000	-0.018615	-15.122606	-101.646590	133.463723	-101.646590	133.463723	-0.018664	-15.203896
1.050000	-0.019657	-15.870592	-101.245882	146.756240	-101.245882	146.756240	-0.019708	-15.955898
1.100000	-0.020678	-16.617364	-99.852189	159.199578	-99.852189	159.199578	-0.020731	-16.706676
1.150000	-0.021697	-17.364013	-98.567794	171.193936	-98.567794	171.193936	-0.021753	-17.457329
1.200000	-0.022699	-18.109304	-96.678611	178.249502	-96.678611	178.249502	-0.022757	-18.206613
1.250000	-0.023701	-18.854594	-95.127819	-174.694931	-95.127819	-174.694931	-0.023761	-18.955897
1.300000	-0.024691	-19.598747	-93.453313	-170.680139	-93.453313	-170.680139	-0.024754	-19.704034
1.350000	-0.025675	-20.342155	-91.876734	-167.909023	-91.876734	-167.909023	-0.025740	-20.451419
1.400000	-0.026654	-21.084805	-90.400779	-166.041923	-90.400779	-166.041923	-0.026721	-21.198039
1.450000	-0.027629	-21.826682	-89.019658	-164.840413	-89.019658	-164.840413	-0.027698	-21.943881
1.500000	-0.028600	-22.567771	-87.724825	-164.137381	-87.724825	-164.137381	-0.028671	-22.688927
1.550000	-0.029568	-23.308057	-86.507405	-163.814488	-86.507405	-163.814488	-0.029641	-23.433163
1.600000	-0.030533	-24.047524	-85.359135	-163.786637	-85.359135	-163.786637	-0.030609	-24.176573
1.650000	-0.031496	-24.786157	-84.272659	-163.991577	-84.272659	-163.991577	-0.031574	-24.919141
1.700000	-0.032458	-25.523635	-83.218246	-164.431636	-83.218246	-164.431636	-0.032538	-25.660545
1.750000	-0.033419	-26.260665	-82.247244	-164.956206	-82.247244	-164.956206	-0.033500	-26.401495
1.800000	-0.034379	-26.996612	-81.306908	-165.621985	-81.306908	-165.621985	-0.034463	-27.141354
1.850000	-0.035338	-27.731786	-80.415339	-166.388627	-80.415339	-166.388627	-0.035424	-27.880432
1.900000	-0.036298	-28.465998	-79.557869	-167.239053	-79.557869	-167.239053	-0.036386	-28.618541
1.950000	-0.037258	-29.199248	-78.732984	-168.173265	-78.732984	-168.173265	-0.037348	-29.355679
2.000000	-0.038219	-29.931670	-77.944436	-169.157703	-77.944436	-169.157703	-0.038311	-30.091980
2.050000	-0.039180	-30.662930	-77.176353	-170.212460	-77.176353	-170.212460	-0.039275	-30.827109
2.100000	-0.040143	-31.393505	-76.446063	-171.297038	-76.446063	-171.297038	-0.040240	-31.561547
2.150000	-0.041107	-32.122709	-75.727014	-172.441260	-75.727014	-172.441260	-0.041207	-32.294603
2.200000	-0.042073	-32.851384	-75.046665	-173.602511	-75.046665	-173.602511	-0.042175	-33.027124
2.250000	-0.043041	-33.578470	-74.370441	-174.814848	-74.370441	-174.814848	-0.043146	-33.758042
2.300000	-0.044011	-34.305192	-73.733425	-176.036013	-73.733425	-176.036013	-0.044118	-34.488593
2.350000	-0.044985	-35.030098	-73.094993	-177.301316	-73.094993	-177.301316	-0.045094	-35.217311
2.400000	-0.045960	-35.754817	-72.495971	-178.570110	-72.495971	-178.570110	-0.046072	-35.945841
2.450000	-0.046941	-36.477483	-71.891188	-179.877322	-71.891188	-179.877322	-0.047056	-36.672301
2.500000	-0.047923	-37.200150	-71.325787	178.815466	-71.325787	178.815466	-0.048039	-37.398760
2.550000	-0.048912	-37.920520	-70.751197	177.474606	-70.751197	177.474606	-0.049031	-38.122904
2.600000	-0.049901	-38.640891	-70.212272	176.133747	-70.212272	176.133747	-0.050023	-38.847048
2.650000	-0.050899	-39.359108	-69.668477	174.767823	-69.668477	174.767823	-0.051024	-39.569019
2.700000	-0.051898	-40.077128	-69.153622	173.399621	-69.153622	173.399621	-0.052026	-40.290792
2.750000	-0.052907	-40.793147	-68.637493	172.012716	-68.637493	172.012716	-0.053037	-41.010546
2.800000	-0.053917	-41.508765	-68.144643	170.622070	-68.144643	170.622070	-0.054050	-41.729896
2.850000	-0.054936	-42.222544	-67.653521	169.217495	-67.653521	169.217495	-0.055072	-42.447392
2.900000	-0.055959	-42.935710	-67.180885	167.808276	-67.180885	167.808276	-0.056098	-43.164270
2.950000	-0.056990	-43.647210	-66.712489	166.388741	-66.712489	166.388741	-0.057133	-43.879468
3.000000	-0.058027	-44.357877	-66.258505	164.964049	-66.258505	164.964049	-0.058173	-44.593826
3.050000	-0.059072	-45.067060	-65.810863	163.531798	-65.810863	163.531798	-0.059221	-45.306689
3.100000	-0.060124	-45.775183	-65.374155	162.094149	-65.374155	162.094149	-0.060277	-46.018482
3.150000	-0.061185	-46.482014	-64.945550	160.651053	-64.945550	160.651053	-0.061341	-46.728973
3.200000	-0.062254	-47.187551	-64.524903	159.202510	-64.524903	159.202510	-0.062413	-47.438160
3.250000	-0.063331	-47.891995	-64.113829	157.750143	-64.113829	157.750143	-0.063493	-48.146245
3.300000	-0.064418	-48.594907	-63.708158	156.292421	-63.708158	156.292421	-0.064585	-48.852787
3.350000	-0.065513	-49.296932	-63.313289	154.832116	-63.313289	154.832116	-0.065683	-49.558435
3.400000	-0.066621	-49.997183	-62.921625	153.366648	-62.921625	153.366648	-0.066794	-50.262295
3.450000	-0.067734	-50.696760	-62.541781	151.899545	-62.541781	151.899545	-0.067912	-50.965476
3.500000	-0.068863	-51.394315	-62.163253	150.427540	-62.163253	150.427540	-0.069045	-51.666620
3.550000	-0.069997	-52.091415	-61.797386	148.954617	-61.797386	148.954617	-0.070183	-52.367306
3.600000	-0.071150	-52.786244	-61.431206	147.477105	-61.431206	147.477105	-0.071340	-53.065704
3.650000	-0.072305	-53.480842	-61.078375	145.999207	-61.078375	145.999207	-0.072499	-53.763870
3.700000	-0.073483	-54.172916	-60.723829	144.517071	-60.723829	144.517071	-0.073681	-54.459493
3.750000	-0.074661	-54.864989	-60.383189	143.034934	-60.383189	143.034934	-0.074864	-55.155116
3.800000	-0.075865	-55.554281	-60.039627	141.548934	-60.039627	141.548934	-0.076073	-55.847940
3.850000	-0.077070	-56.243574	-59.709139	140.062933	-59.709139	140.062933	-0.077282	-56.540763
3.900000	-0.078300	-56.930297	-59.377244	138.573995	-59.377244	138.573995	-0.078517	-57.231000
3.950000	-0.079533	-57.616786	-59.056382	137.084790	-59.056382	137.084790	-0.079755	-57.921001
4.000000	-0.080791	-58.300923	-58.735444	135.593395	-58.735444	135.593395	-0.081018	-58.608635
4.050000	-0.082053	-58.984589	-58.423724	134.101561	-58.423724	134.101561	-0.082286	-59.295795
4.100000	-0.083340	-59.666125	-58.113098	132.608135	-58.113098	132.608135	-0.083577	-59.980812
4.150000	-0.084634	-60.346951	-57.810076	131.114177	-57.810076	131.114177	-0.084877	-60.665114
4.200000	-0.085950	-61.025874	-57.509173	129.619100	-57.509173	129.619100	-0.086198	-61.347502
4.250000	-0.087277	-61.703846	-57.214436	128.123464	-57.214436	128.123464	-0.087531	-62.028933
4.300000	-0.088625	-62.380146	-56.922719	126.627077	-56.922719	126.627077	-0.088885	-62.708683
4.350000	-0.089987	-63.055251	-56.635885	125.130155	-56.635885	125.130155	-0.090253	-63.387232
4.400000	-0.091367	-63.728920	-56.352859	123.632765	-56.352859	123.632765	-0.091639	-64.064336
4.450000	-0.092765	-64.401152	-56.073575	122.134907	-56.073575	122.134907	-0.093044	-64.739994
4.500000	-0.094180	-65.072183	-55.798787	120.636790	-55.798787	120.636790	-0.094464	-65.414447
4.550000	-0.095616	-65.741534	-55.526722	119.138310	-55.526722	119.138310	-0.095908	-66.087210
4.600000	-0.097066	-66.409924	-55.259754	117.639715	-55.259754	117.639715	-0.097364	-66.759008
4.650000	-0.098542	-67.076392	-54.994602	116.140893	-54.994602	116.140893	-0.098847	-67.428874
4.700000	-0.100029	-67.742139	-54.735067	114.642047	-54.735067	114.642047	-0.100341	-68.098015
4.750000	-0.101546	-68.405723	-54.476541	113.143135	-54.476541	113.143135	-0.101866	-68.764984
4.800000	-0.103071	-69.068827	-54.224080	111.644245	-54.224080	111.644245	-0.103398	-69.431470
4.850000	-0.104632	-69.729529	-53.971912	110.145471	-53.971912	110.145471	-0.104967	-70.095544
4.900000	-0.106197	-70.389992	-53.726194	108.646725	-53.726194	108.646725	-0.106539	-70.759378
4.950000	-0.107802	-71.047817	-53.480132	107.148297	-53.480132	107.148297	-0.108152	-71.420564
5.000000	-0.109408	-71.705643	-53.240848	105.649868	-53.240848	105.649868	-0.109766	-72.081750
5.050000	-0.111060	-72.360599	-53.000656	104.151975	-53.000656	104.151975	-0.111426	-72.740056
5.100000	-0.112712	-73.015555	-52.766927	102.654081	-52.766927	102.654081	-0.113087	-73.398361
5.150000	-0.114408	-73.667890	-52.532976	101.156836	-52.532976	101.156836	-0.114791	-74.054037
5.200000	-0.116108	-74.319986	-52.304599	99.659649	-52.304599	99.659649	-0.116501	-74.709473
5.250000	-0.117850	-74.969710	-52.076614	98.163185	-52.076614	98.163185	-0.118251	-75.362530
5.300000	-0.119600	-75.618959	-51.853397	96.666865	-51.853397	96.666865	-0.120010	-76.015110
5.350000	-0.121388	-76.266084	-51.631123	95.171305	-51.631123	95.171305	-0.121808	-76.665561
5.400000	-0.123190	-76.912501	-51.412885	93.675999	-51.412885	93.675999	-0.123620	-77.315301
5.450000	-0.125027	-77.557041	-51.196083	92.181457	-51.196083	92.181457	-0.125466	-77.963160
5.500000	-0.126881	-78.200643	-50.982653	90.687299	-50.982653	90.687299	-0.127331	-78.610078
5.550000	-0.128768	-78.842613	-50.771100	89.193884	-50.771100	89.193884	-0.129228	-79.255363
5.600000	-0.130678	-79.483419	-50.562315	87.701001	-50.562315	87.701001	-0.131148	-79.899480
5.650000	-0.132616	-80.122837	-50.355799	86.208813	-50.355799	86.208813	-0.133097	-80.542208
5.700000	-0.134582	-80.760869	-50.151507	84.717321	-50.151507	84.717321	-0.135074	-81.183546
5.750000	-0.136573	-81.397754	-49.949831	83.226455	-49.949831	83.226455	-0.137076	-81.823737
5.800000	-0.138597	-82.033035	-49.749885	81.736464	-49.749885	81.736464	-0.139111	-82.462322
5.850000	-0.140642	-82.667408	-49.552862	80.247008	-49.552862	80.247008	-0.141168	-83.099999
5.900000	-0.142726	-83.299964	-49.357125	78.758622	-49.357125	78.758622	-0.143264	-83.735858
5.950000	-0.144827	-83.931847	-49.164580	77.270660	-49.164580	77.270660	-0.145376	-84.371042
6.000000	-0.146973	-84.561707	-48.972919	75.783974	-48.972919	75.783974	-0.147534	-85.004204
6.050000	-0.149130	-85.191123	-48.784686	74.297586	-48.784686	74.297586	-0.149704	-85.636922
6.100000	-0.151340	-85.818317	-48.596975	72.812691	-48.596975	72.812691	-0.151926	-86.267419
6.150000	-0.153555	-86.445292	-48.412899	71.327951	-48.412899	71.327951	-0.154154	-86.897696
6.200000	-0.155830	-87.069852	-48.229018	69.844931	-48.229018	69.844931	-0.156442	-87.525561
6.250000	-0.158105	-87.694412	-48.048950	68.361910	-48.048950	68.361910	-0.158731	-88.153426
6.300000	-0.160447	-88.316372	-47.868785	66.880844	-47.868785	66.880844	-0.161086	-88.778694
6.350000	-0.162789	-88.938332	-47.692282	65.399778	-47.692282	65.399778	-0.163441	-89.403962
6.400000	-0.165193	-89.557942	-47.516026	63.920573	-47.516026	63.920573	-0.165860	-90.026885
6.450000	-0.167604	-90.177338	-47.342985	62.441536	-47.342985	62.441536	-0.168285	-90.649594
6.500000	-0.170073	-90.794628	-47.170503	60.964247	-47.170503	60.964247	-0.170768	-91.270203
6.550000	-0.172554	-91.411498	-47.000827	59.487309	-47.000827	59.487309	-0.173263	-91.890392
6.600000	-0.175088	-92.026502	-46.831990	58.011993	-46.831990	58.011993	-0.175812	-92.508721
6.650000	-0.177641	-92.640885	-46.665583	56.537217	-46.665583	56.537217	-0.178380	-93.126431
6.700000	-0.180242	-93.253637	-46.500268	55.063922	-46.500268	55.063922	-0.180997	-93.742517
6.750000	-0.182869	-93.865574	-46.337042	53.591368	-46.337042	53.591368	-0.183638	-94.357791
6.800000	-0.185538	-94.476109	-46.175132	52.120142	-46.175132	52.120142	-0.186324	-94.971669
6.850000	-0.188240	-95.085643	-46.014998	50.649864	-46.014998	50.649864	-0.189041	-95.584551
6.900000	-0.190980	-95.693998	-45.856384	49.180749	-45.856384	49.180749	-0.191797	-96.196261
6.950000	-0.193758	-96.301174	-45.699259	47.712796	-45.699259	47.712796	-0.194591	-96.806797
7.000000	-0.196569	-96.907387	-45.543832	46.245830	-45.543832	46.245830	-0.197419	-97.416376
7.050000	-0.199426	-97.512251	-45.389635	44.780245	-45.389635	44.780245	-0.200292	-98.024614
7.100000	-0.202309	-98.116360	-45.237296	43.315461	-45.237296	43.315461	-0.203193	-98.632103
7.150000	-0.205246	-98.718959	-45.085949	41.852282	-45.085949	41.852282	-0.206146	-99.238093
7.200000	-0.208204	-99.321005	-44.936601	40.389711	-44.936601	40.389711	-0.209121	-99.843534
7.250000	-0.211222	-99.921389	-44.788029	38.928968	-44.788029	38.928968	-0.212157	-100.447327
7.300000	-0.214255	-100.521413	-44.641579	37.468635	-44.641579	37.468635	-0.215207	-101.050762
7.350000	-0.217357	-101.119633	-44.495709	36.010354	-44.495709	36.010354	-0.218327	-101.652410
7.400000	-0.220466	-101.717677	-44.352069	34.552279	-44.352069	34.552279	-0.221454	-102.253884
7.450000	-0.223652	-102.313785	-44.208830	33.096476	-44.208830	33.096476	-0.224659	-102.853441
7.500000	-0.226840	-102.909893	-44.067916	31.640674	-44.067916	31.640674	-0.227864	-103.452997
7.550000	-0.230112	-103.503943	-43.927242	30.187362	-43.927242	30.187362	-0.231155	-104.050519
7.600000	-0.233386	-104.097992	-43.788810	28.734050	-43.788810	28.734050	-0.234448	-104.648041
7.650000	-0.236739	-104.690205	-43.650796	27.283023	-43.650796	27.283023	-0.237820	-105.243749
7.700000	-0.240101	-105.282251	-43.514784	25.832205	-43.514784	25.832205	-0.241200	-105.839292
7.750000	-0.243536	-105.872675	-43.379352	24.383460	-43.379352	24.383460	-0.244654	-106.433235
7.800000	-0.246986	-106.462774	-43.245700	22.935130	-43.245700	22.935130	-0.248124	-107.026858
7.850000	-0.250505	-107.051456	-43.112774	21.488658	-43.112774	21.488658	-0.251662	-107.619086
7.900000	-0.254046	-107.639666	-42.981425	20.042804	-42.981425	20.042804	-0.255223	-108.210849
7.950000	-0.257648	-108.226656	-42.850932	18.598586	-42.850932	18.598586	-0.258844	-108.801412
8.000000	-0.261282	-108.813036	-42.721830	17.155187	-42.721830	17.155187	-0.262498	-109.391376
8.050000	-0.264969	-109.398383	-42.593702	15.713201	-42.593702	15.713201	-0.266205	-109.980327
8.100000	-0.268696	-109.982993	-42.466792	14.272226	-42.466792	14.272226	-0.269952	-110.568554
8.150000	-0.272470	-110.566750	-42.340962	12.832443	-42.340962	12.832443	-0.273746	-111.155945
8.200000	-0.276292	-111.149653	-42.216193	11.393851	-42.216193	11.393851	-0.277588	-111.742500
8.250000	-0.280154	-111.731870	-42.092598	9.956233	-42.092598	9.956233	-0.281470	-112.328386
8.300000	-0.284071	-112.313128	-41.969920	8.519977	-41.969920	8.519977	-0.285408	-112.913333
8.350000	-0.288021	-112.893859	-41.848500	7.084479	-41.848500	7.084479	-0.289379	-113.497768
8.400000	-0.292036	-113.473537	-41.727865	5.650499	-41.727865	5.650499	-0.293414	-114.081175
8.450000	-0.296076	-114.052837	-41.608562	4.217070	-41.608562	4.217070	-0.297475	-114.664215
8.500000	-0.300189	-114.631000	-41.489926	2.785296	-41.489926	2.785296	-0.301608	-115.246150
8.550000	-0.304320	-115.208923	-41.372685	1.353877	-41.372685	1.353877	-0.305759	-115.827851
8.600000	-0.308532	-115.785639	-41.256004	-0.075768	-41.256004	-0.075768	-0.309992	-116.408383
8.650000	-0.312755	-116.362241	-41.140773	-1.505244	-41.140773	-1.505244	-0.314236	-116.988805
8.700000	-0.317068	-116.937578	-41.026005	-2.932851	-41.026005	-2.932851	-0.318569	-117.568005
8.750000	-0.321383	-117.512915	-40.912735	-4.360458	-40.912735	-4.360458	-0.322905	-118.147205
8.800000	-0.325797	-118.086944	-40.799843	-5.786126	-40.799843	-5.786126	-0.327340	-118.725146
8.850000	-0.330214	-118.660972	-40.688401	-7.211793	-40.688401	-7.211793	-0.331777	-119.303086
8.900000	-0.334722	-119.233865	-40.577435	-8.635783	-40.577435	-8.635783	-0.336306	-119.879940
8.950000	-0.339241	-119.806655	-40.467786	-10.059621	-40.467786	-10.059621	-0.340845	-120.456694
9.000000	-0.343845	-120.378474	-40.358704	-11.482033	-40.358704	-11.482033	-0.345469	-121.032523
9.050000	-0.348467	-120.950099	-40.250816	-12.904159	-40.250816	-12.904159	-0.350112	-121.608166
9.100000	-0.353166	-121.520904	-40.143577	-14.325099	-40.143577	-14.325099	-0.354832	-122.183033
9.150000	-0.357893	-122.091436	-40.037423	-15.745643	-40.037423	-15.745643	-0.359578	-122.757642
9.200000	-0.362688	-122.661291	-39.931989	-17.165225	-39.931989	-17.165225	-0.364394	-123.331613
9.250000	-0.367520	-123.230806	-39.827541	-18.584325	-39.827541	-18.584325	-0.369245	-123.905265
9.300000	-0.372412	-123.799773	-39.723878	-20.002668	-39.723878	-20.002668	-0.374157	-124.478405
9.350000	-0.377349	-124.368348	-39.621115	-21.420471	-39.621115	-21.420471	-0.379113	-125.051180
9.400000	-0.382339	-124.936492	-39.519192	-22.837702	-39.519192	-22.837702	-0.384122	-125.623557
9.450000	-0.387382	-125.504205	-39.418093	-24.254362	-39.418093	-24.254362	-0.389184	-126.195536
9.500000	-0.392469	-126.071592	-39.317881	-25.670613	-39.317881	-25.670613	-0.394291	-126.767217
9.550000	-0.397619	-126.638521	-39.218430	-27.086293	-39.218430	-27.086293	-0.399459	-127.338482
9.600000	-0.402805	-127.205217	-39.119904	-28.501702	-39.119904	-28.501702	-0.404663	-127.909537
9.650000	-0.408061	-127.771445	-39.022087	-29.916571	-39.022087	-29.916571	-0.409937	-128.480172
9.700000	-0.413345	-128.337517	-38.925225	-31.331280	-38.925225	-31.331280	-0.415240	-129.050672
9.750000	-0.418708	-128.903125	-38.829032	-32.745512	-38.829032	-32.745512	-0.420620	-129.620763
9.800000	-0.424092	-129.468644	-38.733815	-34.159668	-38.733815	-34.159668	-0.426021	-130.190778
9.850000	-0.429562	-130.033716	-38.639241	-35.573443	-38.639241	-35.573443	-0.431508	-130.760413
9.900000	-0.435044	-130.598751	-38.545652	-36.987195	-38.545652	-36.987195	-0.437006	-131.330017
9.950000	-0.440622	-131.163374	-38.452695	-38.400696	-38.452695	-38.400696	-0.442600	-131.899285
10.000000	-0.446203	-131.727996	-38.360723	-39.814196	-38.360723	-39.814196	-0.448197	-132.468552
