! freq	dB(S11)	phase(S11)	dB(S12)	phase(S12)	
!     	dB(S21)	phase(S21)	dB(S22)	phase(S22)	
!S-par simulation data
#  GHz  S  DB  R 50
0.000000	-0.000000	0.000000	-343.888624	180.000000	-343.888624	180.000000	-0.000000	-0.000000
0.050000	-0.000075	-0.860666	-102.564739	167.417626	-102.564739	167.417626	-0.000107	-1.126037
0.100000	-0.000299	-1.721198	-100.393652	140.996179	-100.393652	140.996179	-0.000427	-2.251840
0.150000	-0.000668	-2.581467	-98.341709	126.210411	-98.341709	126.210411	-0.000951	-3.377184
0.200000	-0.001173	-3.441354	-96.567267	116.762946	-96.567267	116.762946	-0.001668	-4.501866
0.250000	-0.001815	-4.300716	-95.075952	110.335460	-95.075952	110.335460	-0.002574	-5.625638
0.300000	-0.002571	-5.159497	-93.828521	105.488077	-93.828521	105.488077	-0.003636	-6.748409
0.350000	-0.003436	-6.017589	-92.782371	101.738252	-92.782371	101.738252	-0.004843	-7.869996
0.400000	-0.004399	-6.874914	-91.904692	98.741021	-91.904692	98.741021	-0.006178	-8.990273
0.450000	-0.005447	-7.731406	-91.170678	96.297959	-91.170678	96.297959	-0.007621	-10.109135
0.500000	-0.006568	-8.587015	-90.561945	94.292743	-90.561945	94.292743	-0.009153	-11.226499
0.550000	-0.007750	-9.441697	-90.064973	92.658802	-90.064973	92.658802	-0.010756	-12.342302
0.600000	-0.008982	-10.295422	-89.669905	91.362493	-89.669905	91.362493	-0.012414	-13.456496
0.650000	-0.010254	-11.148168	-89.369638	90.394422	-89.369638	90.394422	-0.014112	-14.569046
0.700000	-0.011555	-11.999919	-89.159126	89.765417	-89.159126	89.765417	-0.015837	-15.679930
0.750000	-0.012878	-12.850666	-89.034785	89.505532	-89.034785	89.505532	-0.017577	-16.789131
0.800000	-0.014214	-13.700403	-88.993874	89.665306	-88.993874	89.665306	-0.019322	-17.896640
0.850000	-0.015557	-14.549129	-89.033700	90.318922	-89.033700	90.318922	-0.021065	-19.002450
0.900000	-0.016901	-15.396843	-89.150431	91.568910	-89.150431	91.568910	-0.022799	-20.106555
0.950000	-0.018242	-16.243548	-89.337167	93.551461	-89.337167	93.551461	-0.024518	-21.208952
1.000000	-0.019575	-17.089243	-89.580760	96.439743	-89.580760	96.439743	-0.026220	-22.309634
1.050000	-0.020899	-17.933930	-89.856856	100.438689	-89.856856	100.438689	-0.027901	-23.408595
1.100000	-0.022210	-18.777610	-90.123101	105.757922	-90.123101	105.757922	-0.029559	-24.505825
1.150000	-0.023506	-19.620281	-90.312664	112.542100	-90.312664	112.542100	-0.031194	-25.601313
1.200000	-0.024788	-20.461941	-90.335067	120.744097	-90.335067	120.744097	-0.032804	-26.695046
1.250000	-0.026053	-21.302587	-90.095833	129.978243	-90.095833	129.978243	-0.034391	-27.787005
1.300000	-0.027302	-22.142167	-89.521287	139.467650	-89.521287	139.467650	-0.035953	-28.877095
1.350000	-0.028535	-22.980719	-88.643402	148.313266	-88.643402	148.313266	-0.037493	-29.965371
1.400000	-0.029751	-23.818234	-87.541808	155.930144	-87.541808	155.930144	-0.039011	-31.051808
1.450000	-0.030953	-24.654703	-86.311781	162.109294	-86.311781	162.109294	-0.040509	-32.136383
1.500000	-0.032139	-25.490113	-85.031669	166.914026	-85.031669	166.914026	-0.041988	-33.219069
1.550000	-0.033312	-26.324451	-83.753536	170.533746	-83.753536	170.533746	-0.043449	-34.299837
1.600000	-0.034472	-27.157705	-82.507242	173.184595	-82.507242	173.184595	-0.044894	-35.378659
1.650000	-0.035620	-27.989859	-81.307681	175.062700	-81.307681	175.062700	-0.046325	-36.455505
1.700000	-0.036757	-28.820898	-80.160792	176.329765	-80.160792	176.329765	-0.047743	-37.530346
1.750000	-0.037884	-29.650805	-79.067547	177.113429	-79.067547	177.113429	-0.049149	-38.603151
1.800000	-0.039002	-30.479564	-78.026341	177.512614	-78.026341	177.512614	-0.050544	-39.673889
1.850000	-0.040112	-31.307158	-77.034352	177.603610	-77.034352	177.603610	-0.051931	-40.742529
1.900000	-0.041215	-32.133568	-76.088285	177.445380	-76.088285	177.445380	-0.053310	-41.809042
1.950000	-0.042312	-32.958777	-75.184769	177.083774	-75.184769	177.083774	-0.054683	-42.873398
2.000000	-0.043404	-33.782766	-74.320557	176.554722	-74.320557	176.554722	-0.056050	-43.935566
2.050000	-0.044492	-34.605518	-73.492618	175.886637	-73.492618	175.886637	-0.057413	-44.995518
2.100000	-0.045576	-35.427013	-72.698168	175.102186	-72.698168	175.102186	-0.058774	-46.053227
2.150000	-0.046659	-36.247235	-71.934679	174.219620	-71.934679	174.219620	-0.060132	-47.108663
2.200000	-0.047740	-37.066164	-71.199865	173.253755	-71.199865	173.253755	-0.061490	-48.161802
2.250000	-0.048821	-37.883783	-70.491661	172.216723	-70.491661	172.216723	-0.062848	-49.212617
2.300000	-0.049902	-38.700074	-69.808208	171.118535	-69.808208	171.118535	-0.064207	-50.261083
2.350000	-0.050984	-39.515019	-69.147824	169.967510	-69.147824	169.967510	-0.065567	-51.307179
2.400000	-0.052068	-40.328601	-68.508992	168.770610	-68.508992	168.770610	-0.066930	-52.350880
2.450000	-0.053154	-41.140803	-67.890339	167.533701	-67.890339	167.533701	-0.068297	-53.392165
2.500000	-0.054243	-41.951609	-67.290616	166.261749	-67.290616	166.261749	-0.069668	-54.431016
2.550000	-0.055336	-42.760941	-66.707772	164.957820	-66.707772	164.957820	-0.071044	-55.467305
2.600000	-0.056434	-43.568842	-66.141794	163.626986	-66.141794	163.626986	-0.072426	-56.501121
2.650000	-0.057536	-44.375299	-65.591726	162.272311	-65.591726	162.272311	-0.073814	-57.532449
2.700000	-0.058645	-45.180296	-65.056692	160.896447	-65.056692	160.896447	-0.075209	-58.561272
2.750000	-0.059759	-45.983818	-64.535892	159.501701	-64.535892	159.501701	-0.076611	-59.587578
2.800000	-0.060880	-46.785853	-64.028587	158.090087	-64.028587	158.090087	-0.078022	-60.611355
2.850000	-0.062007	-47.586386	-63.534100	156.663372	-63.534100	156.663372	-0.079442	-61.632591
2.900000	-0.063143	-48.385405	-63.051803	155.223106	-63.051803	155.223106	-0.080871	-62.651278
2.950000	-0.064287	-49.182897	-62.581118	153.770661	-62.581118	153.770661	-0.082310	-63.667407
3.000000	-0.065439	-49.978851	-62.121506	152.307249	-62.121506	152.307249	-0.083760	-64.680970
3.050000	-0.066600	-50.773255	-61.672470	150.833945	-61.672470	150.833945	-0.085221	-65.691964
3.100000	-0.067771	-51.566098	-61.233545	149.351707	-61.233545	149.351707	-0.086694	-66.700382
3.150000	-0.068952	-52.357370	-60.804300	147.861391	-60.804300	147.861391	-0.088179	-67.706223
3.200000	-0.070143	-53.147062	-60.384332	146.363763	-60.384332	146.363763	-0.089676	-68.709485
3.250000	-0.071344	-53.935164	-59.973264	144.859509	-59.973264	144.859509	-0.091187	-69.710167
3.300000	-0.072557	-54.721667	-59.570743	143.349249	-59.570743	143.349249	-0.092712	-70.708271
3.350000	-0.073782	-55.506565	-59.176439	141.833541	-59.176439	141.833541	-0.094251	-71.703798
3.400000	-0.075018	-56.289848	-58.790041	140.312889	-58.790041	140.312889	-0.095805	-72.696752
3.450000	-0.076267	-57.071510	-58.411259	138.787752	-58.411259	138.787752	-0.097375	-73.687138
3.500000	-0.077528	-57.851545	-58.039817	137.258546	-58.039817	137.258546	-0.098960	-74.674962
3.550000	-0.078803	-58.629946	-57.675458	135.725651	-57.675458	135.725651	-0.100562	-75.660231
3.600000	-0.080091	-59.406708	-57.317936	134.189414	-57.317936	134.189414	-0.102181	-76.642953
3.650000	-0.081393	-60.181827	-56.967023	132.650154	-56.967023	132.650154	-0.103818	-77.623138
3.700000	-0.082709	-60.955298	-56.622500	131.108162	-56.622500	131.108162	-0.105472	-78.600796
3.750000	-0.084040	-61.727117	-56.284161	129.563709	-56.284161	129.563709	-0.107145	-79.575941
3.800000	-0.085387	-62.497209	-55.951520	128.016958	-55.951520	128.016958	-0.108839	-80.548476
3.850000	-0.086749	-63.265643	-55.624705	126.468247	-55.624705	126.468247	-0.110551	-81.518525
3.900000	-0.088127	-64.032416	-55.303538	124.917787	-55.303538	124.917787	-0.112285	-82.486105
3.950000	-0.089521	-64.797528	-54.987851	123.365777	-54.987851	123.365777	-0.114038	-83.451231
4.000000	-0.090932	-65.560976	-54.677482	121.812405	-54.677482	121.812405	-0.115814	-84.413922
4.050000	-0.092360	-66.322761	-54.372281	120.257845	-54.372281	120.257845	-0.117611	-85.374196
4.100000	-0.093805	-67.082881	-54.072100	118.702262	-54.072100	118.702262	-0.119430	-86.332073
4.150000	-0.095268	-67.841338	-53.776802	117.145812	-53.776802	117.145812	-0.121272	-87.287575
4.200000	-0.096750	-68.598132	-53.486253	115.588644	-53.486253	115.588644	-0.123138	-88.240722
4.250000	-0.098250	-69.353264	-53.200326	114.030898	-53.200326	114.030898	-0.125027	-89.191539
4.300000	-0.099768	-70.106736	-52.918901	112.472709	-52.918901	112.472709	-0.126942	-90.140050
4.350000	-0.101307	-70.858551	-52.641861	110.914205	-52.641861	110.914205	-0.128881	-91.086279
4.400000	-0.102865	-71.608710	-52.369094	109.355511	-52.369094	109.355511	-0.130845	-92.030253
4.450000	-0.104443	-72.357217	-52.100493	107.796745	-52.100493	107.796745	-0.132836	-92.971999
4.500000	-0.106042	-73.104075	-51.835956	106.238022	-51.835956	106.238022	-0.134854	-93.911545
4.550000	-0.107662	-73.849288	-51.575384	104.679455	-51.575384	104.679455	-0.136898	-94.848920
4.600000	-0.109303	-74.592862	-51.318681	103.121151	-51.318681	103.121151	-0.138971	-95.784155
4.650000	-0.110967	-75.334800	-51.065756	101.563216	-51.065756	101.563216	-0.141071	-96.717281
4.700000	-0.112652	-76.075107	-50.816520	100.005754	-50.816520	100.005754	-0.143200	-97.648330
4.750000	-0.114361	-76.813790	-50.570888	98.448865	-50.570888	98.448865	-0.145359	-98.577335
4.800000	-0.116092	-77.550855	-50.328776	96.892649	-50.328776	96.892649	-0.147547	-99.504330
4.850000	-0.117847	-78.286308	-50.090106	95.337203	-50.090106	95.337203	-0.149765	-100.429351
4.900000	-0.119626	-79.020155	-49.854798	93.782625	-49.854798	93.782625	-0.152015	-101.352434
4.950000	-0.121429	-79.752405	-49.622779	92.229009	-49.622779	92.229009	-0.154296	-102.273617
5.000000	-0.123258	-80.483064	-49.393975	90.676451	-49.393975	90.676451	-0.156608	-103.192938
5.050000	-0.125112	-81.212073	-49.168197	89.125100	-49.168197	89.125100	-0.158955	-104.110359
5.100000	-0.126993	-81.939509	-48.945501	87.575004	-48.945501	87.575004	-0.161334	-105.026003
5.150000	-0.128899	-82.665381	-48.725820	86.026258	-48.725820	86.026258	-0.163747	-105.939911
5.200000	-0.130832	-83.389697	-48.509088	84.478957	-48.509088	84.478957	-0.166194	-106.852128
5.250000	-0.132793	-84.112469	-48.295239	82.933198	-48.295239	82.933198	-0.168676	-107.762697
5.300000	-0.134780	-84.833704	-48.084209	81.389077	-48.084209	81.389077	-0.171193	-108.671665
5.350000	-0.136796	-85.553415	-47.875938	79.846695	-47.875938	79.846695	-0.173745	-109.579081
5.400000	-0.138840	-86.271611	-47.670362	78.306153	-47.670362	78.306153	-0.176334	-110.484992
5.450000	-0.140913	-86.988303	-47.467423	76.767556	-47.467423	76.767556	-0.178959	-111.389451
5.500000	-0.143016	-87.703502	-47.267060	75.231013	-47.267060	75.231013	-0.181622	-112.292511
5.550000	-0.145148	-88.417221	-47.069214	73.696637	-47.069214	73.696637	-0.184322	-113.194225
5.600000	-0.147310	-89.129471	-46.873828	72.164545	-46.873828	72.164545	-0.187061	-114.094653
5.650000	-0.149502	-89.840264	-46.680842	70.634863	-46.680842	70.634863	-0.189840	-114.993853
5.700000	-0.151726	-90.549614	-46.490199	69.107725	-46.490199	69.107725	-0.192658	-115.891889
5.750000	-0.153981	-91.257532	-46.301840	67.583272	-46.301840	67.583272	-0.195516	-116.788826
5.800000	-0.156269	-91.964032	-46.115707	66.061659	-46.115707	66.061659	-0.198416	-117.684734
5.850000	-0.158594	-92.668887	-45.931433	64.543633	-45.931433	64.543633	-0.201366	-118.579544
5.900000	-0.160953	-93.372292	-45.749201	63.028942	-45.749201	63.028942	-0.204360	-119.473442
5.950000	-0.163331	-94.074984	-45.569826	61.516115	-45.569826	61.516115	-0.207378	-120.366963
6.000000	-0.165760	-94.775540	-45.391470	60.008881	-45.391470	60.008881	-0.210466	-121.259354
6.050000	-0.168202	-95.475631	-45.216116	58.503084	-45.216116	58.503084	-0.213571	-122.151568
6.100000	-0.170703	-96.173401	-45.041353	57.004480	-45.041353	57.004480	-0.216758	-123.042897
6.150000	-0.173211	-96.870945	-44.869740	55.506725	-44.869740	55.506725	-0.219955	-123.934182
6.200000	-0.175787	-97.565998	-44.698238	54.018314	-44.698238	54.018314	-0.223250	-124.824995
6.250000	-0.178363	-98.261051	-44.530057	52.529903	-44.530057	52.529903	-0.226546	-125.715809
6.300000	-0.181014	-98.953455	-44.361393	51.053852	-44.361393	51.053852	-0.229961	-126.606810
6.350000	-0.183665	-99.645859	-44.195941	49.577801	-44.195941	49.577801	-0.233377	-127.497811
6.400000	-0.186388	-100.335902	-44.029884	48.115951	-44.029884	48.115951	-0.236921	-128.389860
6.450000	-0.189117	-101.025730	-43.866611	46.655393	-43.866611	46.655393	-0.240478	-129.282004
6.500000	-0.191913	-101.713473	-43.702426	45.211698	-43.702426	45.211698	-0.244180	-130.176255
6.550000	-0.194722	-102.400798	-43.540516	43.771375	-43.540516	43.771375	-0.247912	-131.070926
6.600000	-0.197593	-103.086302	-43.377085	42.351906	-43.377085	42.351906	-0.251827	-131.969115
6.650000	-0.200484	-103.771200	-43.215207	40.939389	-43.215207	40.939389	-0.255804	-132.868477
6.700000	-0.203422	-104.454785	-43.051851	39.548313	-43.051851	39.548313	-0.259983	-133.772170
6.750000	-0.206400	-105.137287	-42.887233	38.177917	-42.887233	38.177917	-0.264369	-134.680309
6.800000	-0.209419	-105.818679	-42.720319	36.833412	-42.720319	36.833412	-0.269031	-135.594374
6.850000	-0.212491	-106.498729	-42.546894	35.533140	-42.546894	35.533140	-0.274250	-136.519642
6.900000	-0.215601	-107.177867	-42.366985	34.274295	-42.366985	34.274295	-0.280113	-137.456462
6.950000	-0.218747	-107.856136	-42.179931	33.059621	-42.179931	33.059621	-0.286725	-138.406042
7.000000	-0.221951	-108.533103	-41.970291	31.938146	-41.970291	31.938146	-0.295442	-139.386129
7.050000	-0.225200	-109.209054	-41.730776	30.913393	-41.730776	30.913393	-0.307376	-140.404095
7.100000	-0.228504	-109.883790	-41.428743	30.018857	-41.428743	30.018857	-0.326824	-141.491122
7.150000	-0.231859	-110.557124	-40.995572	29.190511	-40.995572	29.190511	-0.365693	-142.697585
7.200000	-0.235210	-111.228500	-40.272029	27.765688	-40.272029	27.765688	-0.464951	-144.070723
7.250000	-0.238162	-111.897442	-39.117882	21.389404	-39.117882	21.389404	-0.760409	-144.924457
7.300000	-0.240607	-112.572290	-39.573394	6.822138	-39.573394	6.822138	-0.837110	-142.547785
7.350000	-0.244284	-113.247692	-40.990790	5.878582	-40.990790	5.878582	-0.523973	-142.919651
7.400000	-0.248080	-113.918717	-41.349205	8.081077	-41.349205	8.081077	-0.411682	-144.247583
7.450000	-0.251803	-114.588045	-41.345822	8.955536	-41.345822	8.955536	-0.372893	-145.452914
7.500000	-0.255506	-115.256394	-41.249418	8.926968	-41.249418	8.926968	-0.357435	-146.545267
7.550000	-0.259222	-115.923910	-41.126470	8.387744	-41.126470	8.387744	-0.351414	-147.568244
7.600000	-0.262965	-116.590682	-40.997055	7.568543	-40.997055	7.568543	-0.349591	-148.551188
7.650000	-0.266741	-117.256746	-40.866937	6.576046	-40.866937	6.576046	-0.350037	-149.508550
7.700000	-0.270557	-117.922129	-40.738172	5.470597	-40.738172	5.470597	-0.351820	-150.448887
7.750000	-0.274413	-118.586859	-40.611460	4.288285	-40.611460	4.288285	-0.354450	-151.377516
7.800000	-0.278312	-119.250961	-40.486991	3.051798	-40.486991	3.051798	-0.357649	-152.297897
7.850000	-0.282256	-119.914461	-40.364752	1.776033	-40.364752	1.776033	-0.361250	-153.212376
7.900000	-0.286244	-120.577385	-40.244663	0.471145	-40.244663	0.471145	-0.365150	-154.122601
7.950000	-0.290279	-121.239760	-40.126623	-0.855718	-40.126623	-0.855718	-0.369280	-155.029767
8.000000	-0.294360	-121.901613	-40.010529	-2.199380	-40.010529	-2.199380	-0.373594	-155.934769
8.050000	-0.298488	-122.562973	-39.896290	-3.556001	-39.896290	-3.556001	-0.378061	-156.838294
8.100000	-0.302664	-123.223866	-39.783822	-4.922667	-39.783822	-4.922667	-0.382657	-157.740880
8.150000	-0.306888	-123.884323	-39.673054	-6.297121	-39.673054	-6.297121	-0.387367	-158.642963
8.200000	-0.311160	-124.544371	-39.563923	-7.677587	-39.563923	-7.677587	-0.392176	-159.544899
8.250000	-0.315481	-125.204042	-39.456376	-9.062637	-39.456376	-9.062637	-0.397077	-160.446986
8.300000	-0.319851	-125.863364	-39.350365	-10.451110	-39.350365	-10.451110	-0.402062	-161.349480
8.350000	-0.324271	-126.522369	-39.245850	-11.842044	-39.245850	-11.842044	-0.407125	-162.252601
8.400000	-0.328741	-127.181089	-39.142796	-13.234630	-39.142796	-13.234630	-0.412262	-163.156545
8.450000	-0.333262	-127.839553	-39.041172	-14.628181	-39.041172	-14.628181	-0.417469	-164.061485
8.500000	-0.337833	-128.497796	-38.940949	-16.022099	-38.940949	-16.022099	-0.422745	-164.967581
8.550000	-0.342455	-129.155850	-38.842103	-17.415865	-38.842103	-17.415865	-0.428085	-165.874976
8.600000	-0.347129	-129.813747	-38.744614	-18.809013	-38.744614	-18.809013	-0.433490	-166.783805
8.650000	-0.351855	-130.471523	-38.648460	-20.201126	-38.648460	-20.201126	-0.438956	-167.694196
8.700000	-0.356633	-131.129212	-38.553625	-21.591825	-38.553625	-21.591825	-0.444483	-168.606266
8.750000	-0.361464	-131.786848	-38.460092	-22.980757	-38.460092	-22.980757	-0.450069	-169.520130
8.800000	-0.366351	-132.444469	-38.367860	-24.367491	-38.367860	-24.367491	-0.455717	-170.435983
8.850000	-0.371291	-133.102113	-38.276903	-25.751796	-38.276903	-25.751796	-0.461423	-171.353853
8.900000	-0.376285	-133.759817	-38.187208	-27.133381	-38.187208	-27.133381	-0.467186	-172.273841
8.950000	-0.381334	-134.417619	-38.098763	-28.511963	-38.098763	-28.511963	-0.473005	-173.196046
9.000000	-0.386437	-135.075558	-38.011556	-29.887272	-38.011556	-29.887272	-0.478881	-174.120564
9.050000	-0.391597	-135.733673	-37.925577	-31.259041	-37.925577	-31.259041	-0.484813	-175.047492
9.100000	-0.396812	-136.392003	-37.840814	-32.627009	-37.840814	-32.627009	-0.490800	-175.976923
9.150000	-0.402085	-137.050588	-37.757257	-33.990919	-37.757257	-33.990919	-0.496841	-176.908949
9.200000	-0.407414	-137.709472	-37.674896	-35.350517	-37.674896	-35.350517	-0.502938	-177.843662
9.250000	-0.412801	-138.368694	-37.593720	-36.705549	-37.593720	-36.705549	-0.509089	-178.781153
9.300000	-0.418247	-139.028298	-37.513720	-38.055762	-37.513720	-38.055762	-0.515295	-179.721512
9.350000	-0.423752	-139.688328	-37.434884	-39.400903	-37.434884	-39.400903	-0.521554	179.335171
9.400000	-0.429317	-140.348828	-37.357204	-40.740718	-37.357204	-40.740718	-0.527867	178.388808
9.450000	-0.434943	-141.009844	-37.280667	-42.074955	-37.280667	-42.074955	-0.534233	177.439308
9.500000	-0.440630	-141.671421	-37.205264	-43.403355	-37.205264	-43.403355	-0.540652	176.486584
9.550000	-0.446379	-142.333607	-37.130983	-44.725664	-37.130983	-44.725664	-0.547125	175.530548
9.600000	-0.452191	-142.996449	-37.057814	-46.041620	-37.057814	-46.041620	-0.553650	174.571109
9.650000	-0.458068	-143.659997	-36.985745	-47.350963	-36.985745	-47.350963	-0.560227	173.608181
9.700000	-0.464009	-144.324300	-36.914764	-48.653431	-36.914764	-48.653431	-0.566857	172.641675
9.750000	-0.470017	-144.989409	-36.844860	-49.948757	-36.844860	-49.948757	-0.573539	171.671503
9.800000	-0.476091	-145.655377	-36.776021	-51.236675	-36.776021	-51.236675	-0.580273	170.697577
9.850000	-0.482234	-146.322255	-36.708233	-52.516914	-36.708233	-52.516914	-0.587059	169.719808
9.900000	-0.488446	-146.990098	-36.641484	-53.789205	-36.641484	-53.789205	-0.593895	168.738108
9.950000	-0.494729	-147.658960	-36.575762	-55.053272	-36.575762	-55.053272	-0.600783	167.752390
10.000000	-0.501084	-148.328899	-36.511052	-56.308840	-36.511052	-56.308840	-0.607722	166.762564
