! freq	dB(S11)	phase(S11)	dB(S12)	phase(S12)	
!     	dB(S21)	phase(S21)	dB(S22)	phase(S22)	
!S-par simulation data
#  GHz  S  DB  R 50
0.000000	-82.207968	0.000000	-0.000674	0.000000	-0.000674	0.000000	-82.207968	0.000000
0.050000	-38.032981	-92.364097	-0.007576	-3.247346	-0.007576	-3.247346	-38.026712	-91.872721
0.100000	-32.088840	-96.379210	-0.015365	-6.446493	-0.015365	-6.446493	-32.081803	-95.394712
0.150000	-28.605391	-100.136978	-0.023173	-9.636880	-0.023173	-9.636880	-28.596994	-98.666350
0.200000	-26.140062	-103.768599	-0.032024	-12.821679	-0.032024	-12.821679	-26.130400	-101.811439
0.250000	-24.235771	-107.332346	-0.042005	-16.001277	-0.042005	-16.001277	-24.225246	-104.883736
0.300000	-22.687417	-110.857169	-0.053068	-19.176678	-0.053068	-19.176678	-22.676419	-107.908875
0.350000	-21.385585	-114.358906	-0.065210	-22.348800	-0.065210	-22.348800	-21.374389	-110.900557
0.400000	-20.264530	-117.847849	-0.078404	-25.518417	-0.078404	-25.518417	-20.253310	-113.868477
0.450000	-19.282426	-121.329730	-0.092676	-28.685893	-0.092676	-28.685893	-19.271307	-116.817949
0.500000	-18.410107	-124.808296	-0.107977	-31.851528	-0.107977	-31.851528	-18.399181	-119.753389
0.550000	-17.627473	-128.285519	-0.124312	-35.015372	-0.124312	-35.015372	-17.616790	-122.676734
0.600000	-16.919105	-131.762714	-0.141612	-38.177535	-0.141612	-38.177535	-16.908621	-125.589689
0.650000	-16.273838	-135.240929	-0.159852	-41.338020	-0.159852	-41.338020	-16.263367	-128.492541
0.700000	-15.682635	-138.721259	-0.178964	-44.496914	-0.178964	-44.496914	-15.671821	-131.385305
0.750000	-15.138548	-142.205046	-0.198901	-47.654302	-0.198901	-47.654302	-15.126864	-134.267064
0.800000	-14.635829	-145.693786	-0.219603	-50.810334	-0.219603	-50.810334	-14.622645	-137.136349
0.850000	-14.169701	-149.189053	-0.241011	-53.965219	-0.241011	-53.965219	-14.154401	-139.991195
0.900000	-13.736192	-152.692459	-0.263070	-57.119214	-0.263070	-57.119214	-13.718345	-142.829502
0.950000	-13.331920	-156.205601	-0.285729	-60.272641	-0.285729	-60.272641	-13.311443	-145.649875
1.000000	-12.953993	-159.730074	-0.308939	-63.425885	-0.308939	-63.425885	-12.931206	-148.452278
1.050000	-12.599782	-163.267258	-0.332652	-66.579393	-0.332652	-66.579393	-12.575288	-151.238249
1.100000	-12.267046	-166.818580	-0.356825	-69.733661	-0.356825	-69.733661	-12.241515	-154.009615
1.150000	-11.953876	-170.385634	-0.381429	-72.889264	-0.381429	-72.889264	-11.927875	-156.767644
1.200000	-11.658309	-173.969366	-0.406423	-76.046753	-0.406423	-76.046753	-11.632211	-159.513317
1.250000	-11.378873	-177.571444	-0.431792	-79.206803	-0.431792	-79.206803	-11.352883	-162.246466
1.300000	-11.114252	178.806244	-0.457525	-82.370202	-0.457525	-82.370202	-11.088428	-164.966529
1.350000	-10.862983	175.162652	-0.483607	-85.537642	-0.483607	-85.537642	-10.837283	-167.673442
1.400000	-10.623855	171.496323	-0.510039	-88.709910	-0.510039	-88.709910	-10.598168	-170.366964
1.450000	-10.395746	167.805784	-0.536828	-91.887840	-0.536828	-91.887840	-10.369919	-173.047009
1.500000	-10.177612	164.089560	-0.563991	-95.072299	-0.563991	-95.072299	-10.151462	-175.713671
1.550000	-9.968472	160.346175	-0.591554	-98.264196	-0.591554	-98.264196	-9.941796	-178.367221
1.600000	-9.767400	156.574162	-0.619552	-101.464475	-0.619552	-101.464475	-9.739984	178.991895
1.650000	-9.573518	152.772074	-0.648032	-104.674120	-0.648032	-104.674120	-9.545144	176.363065
1.700000	-9.385962	148.939096	-0.677039	-107.893935	-0.677039	-107.893935	-9.356415	173.745330
1.750000	-9.204050	145.070808	-0.706691	-111.126063	-0.706691	-111.126063	-9.173100	171.138648
1.800000	-9.026829	141.170779	-0.736988	-114.369835	-0.736988	-114.369835	-8.994293	168.540533
1.850000	-8.853654	137.233735	-0.768093	-117.627883	-0.768093	-117.627883	-8.819337	165.950755
1.900000	-8.683791	133.260583	-0.800071	-120.900551	-0.800071	-120.900551	-8.647536	163.367490
1.950000	-8.516549	129.250245	-0.833043	-124.189037	-0.833043	-124.189037	-8.478223	160.789191
2.000000	-8.351201	125.199520	-0.867201	-127.495552	-0.867201	-127.495552	-8.310687	158.214377
2.050000	-8.187282	121.112087	-0.902570	-130.819281	-0.902570	-130.819281	-8.144519	155.640922
2.100000	-8.023787	116.980243	-0.939542	-134.164921	-0.939542	-134.164921	-7.978717	153.066793
2.150000	-7.860628	112.811214	-0.978038	-137.529880	-0.978038	-137.529880	-7.813251	150.490059
2.200000	-7.696659	108.597379	-1.018551	-140.919383	-1.018551	-140.919383	-7.646988	147.907587
2.250000	-7.531853	104.344026	-1.061077	-144.331736	-1.061077	-144.331736	-7.479936	145.317614
2.300000	-7.365355	100.047745	-1.106035	-147.770341	-1.106035	-147.770341	-7.311258	142.716614
2.350000	-7.196786	95.709304	-1.153675	-151.236230	-1.153675	-151.236230	-7.140591	140.101778
2.400000	-7.025920	91.330416	-1.204218	-154.729899	-1.204218	-154.729899	-6.967716	137.470463
2.450000	-6.851775	86.907269	-1.258305	-158.255848	-1.258305	-158.255848	-6.791652	134.817329
2.500000	-6.675019	82.446594	-1.315828	-161.810889	-1.315828	-161.810889	-6.613059	132.142215
2.550000	-6.494231	77.942094	-1.377793	-165.402035	-1.377793	-165.402035	-6.430502	129.437067
2.600000	-6.309650	73.397214	-1.444450	-169.028775	-1.444450	-169.028775	-6.244199	126.699421
2.650000	-6.121093	68.812499	-1.516342	-172.692915	-1.516342	-172.692915	-6.053943	123.924893
2.700000	-5.928437	64.188510	-1.594070	-176.396304	-1.594070	-176.396304	-5.859586	121.108903
2.750000	-5.731626	59.525795	-1.678304	179.859177	-1.678304	179.859177	-5.661051	118.246708
2.800000	-5.530672	54.824860	-1.769788	176.071611	-1.769788	176.071611	-5.458332	115.333432
2.850000	-5.325658	50.086134	-1.869352	172.239058	-1.869352	172.239058	-5.251501	112.364114
2.900000	-5.116736	45.309936	-1.977922	168.359561	-1.977922	168.359561	-5.040715	109.333752
2.950000	-4.904134	40.496447	-2.096537	164.431152	-2.096537	164.431152	-4.826214	106.237371
3.000000	-4.688151	35.645682	-2.226359	160.451872	-2.226359	160.451872	-4.608330	103.070078
3.050000	-4.469163	30.757463	-2.368698	156.419779	-2.368698	156.419779	-4.387480	99.827133
3.100000	-4.247618	25.831395	-2.525031	152.332975	-2.525031	152.332975	-4.164166	96.504010
3.150000	-4.023960	20.866430	-2.697183	148.188990	-2.697183	148.188990	-3.938895	93.095498
3.200000	-3.798807	15.861663	-2.887106	143.986036	-2.887106	143.986036	-3.712350	89.597554
3.250000	-3.572919	10.816383	-3.096848	139.723142	-3.096848	139.723142	-3.485349	86.007563
3.300000	-3.347047	5.729214	-3.328923	135.398921	-3.328923	135.398921	-3.258685	82.322380
3.350000	-3.122013	0.598543	-3.586236	131.012253	-3.586236	131.012253	-3.033203	78.539247
3.400000	-2.898712	-4.577469	-3.872174	126.562379	-3.872174	126.562379	-2.809792	74.655776
3.450000	-2.678111	-9.800863	-4.190713	122.049024	-4.190713	122.049024	-2.589380	70.669918
3.500000	-2.461250	-15.073860	-4.546572	117.472571	-4.546572	117.472571	-2.372935	66.579921
3.550000	-2.249244	-20.398825	-4.945405	112.834299	-4.945405	112.834299	-2.161461	62.384284
3.600000	-2.043278	-25.778235	-5.394086	108.136730	-5.394086	108.136730	-1.956011	58.081714
3.650000	-1.844616	-31.214630	-5.901088	103.384137	-5.901088	103.384137	-1.757689	53.671094
3.700000	-1.654596	-36.710576	-6.477051	98.583336	-6.477051	98.583336	-1.567668	49.151478
3.750000	-1.474635	-42.268610	-7.135612	93.744923	-7.135612	93.744923	-1.387202	44.522108
3.800000	-1.306451	-47.892645	-7.895732	88.885491	-7.895732	88.885491	-1.217850	39.780068
3.850000	-1.151496	-53.583647	-8.780916	84.032837	-8.780916	84.032837	-1.060968	34.927600
3.900000	-1.011436	-59.343738	-9.825434	79.231377	-9.825434	79.231377	-0.918161	29.965044
3.950000	-0.888016	-65.174796	-11.079878	74.558396	-11.079878	74.558396	-0.791167	24.893396
4.000000	-0.783067	-71.078404	-12.623659	70.159645	-12.623659	70.159645	-0.681866	19.714504
4.050000	-0.698502	-77.055809	-14.592127	66.344533	-14.592127	66.344533	-0.592266	14.431273
4.100000	-0.635596	-83.105626	-17.242051	63.797998	-17.242051	63.797998	-0.523786	9.050696
4.150000	-0.597955	-89.233212	-21.160852	65.201775	-21.160852	65.201775	-0.480142	3.572035
4.200000	-0.586984	-95.435941	-27.667199	85.541268	-27.667199	85.541268	-0.462894	-1.993930
4.250000	-0.604946	-101.713392	-28.150421	164.552132	-28.150421	164.552132	-0.474390	-7.638279
4.300000	-0.654192	-108.064720	-21.228455	-171.840228	-21.228455	-171.840228	-0.516991	-13.350372
4.350000	-0.737170	-114.488705	-16.972194	-170.203995	-16.972194	-170.203995	-0.593049	-19.117884
4.400000	-0.856628	-120.984206	-14.055510	-173.017305	-14.055510	-173.017305	-0.705084	-24.927018
4.450000	-1.015242	-127.549501	-11.858617	-177.400072	-11.858617	-177.400072	-0.855412	-30.762042
4.500000	-1.215585	-134.182528	-10.110060	177.475984	-10.110060	177.475984	-1.046116	-36.605796
4.550000	-1.460556	-140.881906	-8.670127	171.936950	-8.670127	171.936950	-1.279495	-42.439911
4.600000	-1.753218	-147.646922	-7.458086	166.142604	-7.458086	166.142604	-1.557928	-48.244422
4.650000	-2.096836	-154.478041	-6.423192	160.183378	-6.423192	160.183378	-1.883940	-53.997402
4.700000	-2.495031	-161.377811	-5.531560	154.116566	-5.531560	154.116566	-2.260376	-59.674021
4.750000	-2.951829	-168.351947	-4.759479	147.982397	-4.759479	147.982397	-2.690437	-65.245046
4.800000	-3.471167	-175.409408	-4.088999	141.811773	-4.088999	141.811773	-3.177198	-70.677545
4.850000	-4.057862	177.434228	-3.506640	135.628706	-3.506640	135.628706	-3.724379	-75.930703
4.900000	-4.717460	170.154702	-3.001765	129.453127	-3.001765	129.453127	-4.335998	-80.953702
4.950000	-5.456438	162.715275	-2.565724	123.301966	-2.565724	123.301966	-5.016191	-85.682154
5.000000	-6.282423	155.061081	-2.191296	117.189759	-2.191296	117.189759	-5.768837	-90.033544
5.050000	-7.204326	147.105186	-1.872827	111.129804	-1.872827	111.129804	-6.596726	-93.893648
5.100000	-8.232037	138.726057	-1.604396	105.132237	-1.604396	105.132237	-7.500163	-97.128814
5.150000	-9.376182	129.735952	-1.381250	99.206032	-1.381250	99.206032	-8.475048	-99.563058
5.200000	-10.645376	119.848224	-1.199144	93.358639	-1.199144	93.358639	-9.508853	-100.979539
5.250000	-12.039045	108.624878	-1.054249	87.596096	-1.054249	87.596096	-10.574616	-101.129707
5.300000	-13.523460	95.561021	-0.942339	81.933773	-0.942339	81.933773	-11.636436	-99.795237
5.350000	-14.996971	79.695559	-0.860817	76.374344	-0.860817	76.374344	-12.624882	-96.585321
5.400000	-16.258766	60.336720	-0.805799	70.902514	-0.805799	70.902514	-13.422885	-91.522546
5.450000	-16.958603	37.991812	-0.774660	65.523119	-0.774660	65.523119	-13.900368	-85.067994
5.500000	-16.808696	15.252533	-0.765781	60.243459	-0.765781	60.243459	-13.958460	-78.228657
5.550000	-15.986205	-4.806191	-0.775970	55.061417	-0.775970	55.061417	-13.641108	-72.196435
5.600000	-14.854085	-21.155574	-0.802812	49.975391	-0.802812	49.975391	-13.065101	-67.687269
5.650000	-13.670530	-34.184619	-0.844698	44.986520	-0.844698	44.986520	-12.351533	-64.932292
5.700000	-12.560888	-44.785220	-0.899688	40.092131	-0.899688	40.092131	-11.597891	-63.750705
5.750000	-11.563285	-53.724775	-0.965756	35.286288	-0.965756	35.286288	-10.861599	-63.806280
5.800000	-10.678959	-61.464715	-1.041547	30.566308	-1.041547	30.566308	-10.168639	-64.833227
5.850000	-9.898840	-68.307944	-1.125937	25.930620	-1.125937	25.930620	-9.530051	-66.618848
5.900000	-9.208848	-74.510999	-1.217379	21.371053	-1.217379	21.371053	-8.947560	-68.952803
5.950000	-8.596392	-80.216032	-1.314857	16.883172	-1.314857	16.883172	-8.418674	-71.709414
6.000000	-8.051883	-85.506670	-1.417637	12.465839	-1.417637	12.465839	-7.940470	-74.809437
6.050000	-7.564473	-90.478111	-1.524686	8.110971	-1.524686	8.110971	-7.507363	-78.165642
6.100000	-7.126177	-95.185218	-1.635297	3.813725	-1.635297	3.813725	-7.114705	-81.727112
6.150000	-6.731191	-99.661651	-1.748898	-0.428606	-1.748898	-0.428606	-6.758982	-85.462112
6.200000	-6.373546	-103.944376	-1.864903	-4.621592	-1.864903	-4.621592	-6.435979	-89.339108
6.250000	-6.048168	-108.062750	-1.982835	-8.770740	-1.982835	-8.770740	-6.141847	-93.334693
6.300000	-5.751492	-112.034223	-2.102306	-12.879650	-2.102306	-12.879650	-5.873868	-97.435866
6.350000	-5.480421	-115.873831	-2.222968	-16.952184	-2.222968	-16.952184	-5.629560	-101.632756
6.400000	-5.231506	-119.600341	-2.344576	-20.993968	-2.344576	-20.993968	-5.405913	-105.913738
6.450000	-5.002382	-123.224677	-2.466926	-25.008972	-2.466926	-25.008972	-5.200856	-110.273512
6.500000	-4.791538	-126.751997	-2.589810	-29.000183	-2.589810	-29.000183	-5.013083	-114.712004
6.550000	-4.596448	-130.195789	-2.713193	-32.972886	-2.713193	-32.972886	-4.840189	-119.222578
6.600000	-4.415516	-133.562922	-2.837038	-36.930827	-2.837038	-36.930827	-4.680656	-123.803879
6.650000	-4.247693	-136.856465	-2.961295	-40.877304	-2.961295	-40.877304	-4.533482	-128.458421
6.700000	-4.091351	-140.084260	-3.086071	-44.816418	-3.086071	-44.816418	-4.397059	-133.183920
6.750000	-3.945286	-143.251249	-3.211478	-48.751649	-3.211478	-48.751649	-4.270195	-137.980566
6.800000	-3.808614	-146.359985	-3.337646	-52.686472	-3.337646	-52.686472	-4.152011	-142.851580
6.850000	-3.679976	-149.417379	-3.464836	-56.624079	-3.464836	-56.624079	-4.041163	-147.794052
6.900000	-3.558469	-152.427058	-3.593288	-60.567300	-3.593288	-60.567300	-3.936763	-152.808707
6.950000	-3.443522	-155.389754	-3.723282	-64.519626	-3.723282	-64.519626	-3.838238	-157.901412
7.000000	-3.334031	-158.311725	-3.855206	-68.483430	-3.855206	-68.483430	-3.744506	-163.068994
7.050000	-3.229165	-161.197600	-3.989441	-72.460736	-3.989441	-72.460736	-3.654750	-168.309887
7.100000	-3.128269	-164.050930	-4.126408	-76.453676	-4.126408	-76.453676	-3.568313	-173.624349
7.150000	-3.030841	-166.873996	-4.266681	-80.465512	-4.266681	-80.465512	-3.484639	-179.016953
7.200000	-2.936123	-169.673678	-4.410701	-84.496299	-4.410701	-84.496299	-3.402952	175.520057
7.250000	-2.843666	-172.454163	-4.558990	-88.547103	-4.558990	-88.547103	-3.322737	169.988815
7.300000	-2.753125	-175.219317	-4.712200	-92.619495	-4.712200	-92.619495	-3.243521	164.389737
7.350000	-2.664191	-177.973892	-4.871012	-96.714230	-4.871012	-96.714230	-3.164842	158.725989
7.400000	-2.576627	179.277158	-5.035896	-100.830082	-5.035896	-100.830082	-3.086356	153.005635
7.450000	-2.490320	176.529860	-5.207456	-104.966599	-5.207456	-104.966599	-3.007799	147.233844
7.500000	-2.405252	173.780002	-5.386586	-109.124206	-5.386586	-109.124206	-2.928893	141.413942
7.550000	-2.321435	171.023756	-5.573766	-113.300548	-5.573766	-113.300548	-2.849548	135.555584
7.600000	-2.238938	168.258105	-5.769495	-117.493406	-5.769495	-117.493406	-2.769754	129.667289
7.650000	-2.157874	165.480206	-5.974376	-121.700762	-5.974376	-121.700762	-2.689534	123.756908
7.700000	-2.078471	162.686143	-6.189353	-125.920824	-6.189353	-125.920824	-2.608916	117.832831
7.750000	-2.000826	159.874958	-6.414535	-130.149463	-6.414535	-130.149463	-2.528181	111.905875
7.800000	-1.925095	157.044911	-6.650400	-134.383596	-6.650400	-134.383596	-2.447557	105.985007
7.850000	-1.851491	154.193715	-6.897536	-138.619868	-6.897536	-138.619868	-2.367314	100.080173
7.900000	-1.780224	151.319418	-7.156383	-142.854223	-7.156383	-142.854223	-2.287815	94.202282
7.950000	-1.711341	148.422106	-7.427020	-147.082960	-7.427020	-147.082960	-2.209419	88.359124
8.000000	-1.644957	145.500788	-7.709752	-151.302490	-7.709752	-151.302490	-2.132476	82.558993
8.050000	-1.581323	142.552817	-8.004980	-155.508121	-8.004980	-155.508121	-2.057443	76.813693
8.100000	-1.520457	139.578109	-8.312737	-159.696392	-8.312737	-159.696392	-1.984673	71.129456
8.150000	-1.462364	136.576413	-8.633155	-163.864382	-8.633155	-163.864382	-1.914456	65.511251
8.200000	-1.407103	133.546648	-8.966436	-168.008920	-8.966436	-168.008920	-1.847098	59.964957
8.250000	-1.354946	130.484997	-9.312668	-172.124473	-9.312668	-172.124473	-1.783140	54.502724
8.300000	-1.305697	127.392701	-9.672024	-176.210571	-9.672024	-176.210571	-1.722603	49.121877
8.350000	-1.259379	124.268293	-10.044781	179.735132	-10.044781	179.735132	-1.665685	43.825393
8.400000	-1.216098	121.108917	-10.431164	175.715966	-10.431164	175.715966	-1.612671	38.618355
8.450000	-1.175952	117.911309	-10.831396	171.735175	-10.831396	171.735175	-1.563820	33.504613
8.500000	-1.138794	114.675180	-11.246232	167.792537	-11.246232	167.792537	-1.519024	28.479225
8.550000	-1.104676	111.397343	-11.676352	163.890372	-11.676352	163.890372	-1.478406	23.542752
8.600000	-1.073721	108.073083	-12.122493	160.032111	-12.122493	160.032111	-1.442154	18.696505
8.650000	-1.045912	104.699392	-12.585966	156.219405	-12.585966	156.219405	-1.410234	13.936436
8.700000	-1.021314	101.271707	-13.068310	152.455481	-13.068310	152.455481	-1.382690	9.259690
8.750000	-1.000020	97.784702	-13.571493	148.744675	-13.571493	148.744675	-1.359569	4.662705
8.800000	-0.982274	94.229654	-14.097772	145.095332	-14.097772	145.095332	-1.341079	0.143695
8.850000	-0.968139	90.601236	-14.650582	141.514457	-14.650582	141.514457	-1.327144	-4.305013
8.900000	-0.957841	86.890769	-15.233971	138.014801	-15.233971	138.014801	-1.317861	-8.688978
8.950000	-0.951685	83.088042	-15.853068	134.614901	-15.853068	134.614901	-1.313364	-13.014375
9.000000	-0.950064	79.181003	-16.514393	131.341957	-16.514393	131.341957	-1.313836	-17.288001
9.050000	-0.953498	75.155375	-17.226250	128.236324	-17.226250	128.236324	-1.319514	-21.517290
9.100000	-0.962831	70.990176	-17.999195	125.366907	-17.999195	125.366907	-1.330863	-25.709628
9.150000	-0.978889	66.666470	-18.846701	122.829258	-18.846701	122.829258	-1.348209	-29.874836
9.200000	-1.002799	62.160722	-19.785331	120.774344	-19.785331	120.774344	-1.372023	-34.022864
9.250000	-1.036098	57.443142	-20.834350	119.449388	-20.834350	119.449388	-1.402963	-38.164187
9.300000	-1.080804	52.477647	-22.012336	119.263476	-22.012336	119.263476	-1.441851	-42.310195
9.350000	-1.139575	47.220323	-23.324252	120.900575	-23.324252	120.900575	-1.489713	-46.473270
9.400000	-1.216292	41.610407	-24.715029	125.538374	-24.715029	125.538374	-1.548025	-50.667641
9.450000	-1.315883	35.578066	-25.954459	134.665525	-25.954459	134.665525	-1.618457	-54.908644
9.500000	-1.444384	29.046385	-26.522400	148.477173	-26.522400	148.477173	-1.702835	-59.211555
9.550000	-1.609156	21.929853	-25.927620	163.563481	-25.927620	163.563481	-1.803194	-63.590961
9.600000	-1.823552	14.062902	-24.271077	174.498047	-24.271077	174.498047	-1.923501	-68.069655
9.650000	-2.101223	5.300476	-22.218557	179.563163	-22.218557	179.563163	-2.067020	-72.663878
9.700000	-2.459347	-4.540231	-20.176109	179.912299	-20.176109	179.912299	-2.237698	-77.389697
9.750000	-2.921073	-15.734512	-18.281558	176.798965	-18.281558	176.798965	-2.440988	-82.267379
9.800000	-3.506677	-28.568628	-16.580404	171.191263	-16.580404	171.191263	-2.681493	-87.310586
9.850000	-4.229664	-43.425397	-15.083433	163.643186	-15.083433	163.643186	-2.963909	-92.537660
9.900000	-5.075014	-60.711216	-13.799355	154.565199	-13.799355	154.565199	-3.291035	-97.974731
9.950000	-5.969611	-80.787248	-12.735438	144.295195	-12.735438	144.295195	-3.664172	-103.678192
10.000000	-6.691037	-102.943654	-12.037018	133.326101	-12.037018	133.326101	-4.058583	-109.519724
