! freq	dB(S11)	phase(S11)	dB(S12)	phase(S12)	
!     	dB(S21)	phase(S21)	dB(S22)	phase(S22)	
!S-par simulation data
#  GHz  S  DB  R 50
0.000000	-0.000000	0.000000	-374.636617	180.000000	-374.636617	180.000000	-0.000000	0.000000
0.050000	-0.000103	-0.767213	-113.639603	88.584786	-113.639603	88.584786	-0.000117	-0.990167
0.100000	-0.000408	-1.534166	-107.700633	87.234736	-107.700633	87.234736	-0.000464	-1.980056
0.150000	-0.000900	-2.300620	-104.308417	85.998868	-104.308417	85.998868	-0.001029	-2.969408
0.200000	-0.001556	-3.066386	-101.979659	84.902512	-101.979659	84.902512	-0.001792	-3.958002
0.250000	-0.002361	-3.831257	-100.254268	83.963876	-100.254268	83.963876	-0.002741	-4.945579
0.300000	-0.003275	-4.595210	-98.912191	83.167530	-98.912191	83.167530	-0.003835	-5.932077
0.350000	-0.004277	-5.358154	-97.847778	82.516924	-97.847778	82.516924	-0.005054	-6.917344
0.400000	-0.005343	-6.120069	-96.996443	82.012939	-96.996443	82.012939	-0.006374	-7.901302
0.450000	-0.006453	-6.880963	-96.318242	81.663526	-96.318242	81.663526	-0.007769	-8.883906
0.500000	-0.007589	-7.640864	-95.787695	81.485930	-95.787695	81.485930	-0.009219	-9.865137
0.550000	-0.008738	-8.399813	-95.388420	81.508644	-95.388420	81.508644	-0.010704	-10.844997
0.600000	-0.009889	-9.157854	-95.110082	81.773927	-95.110082	81.773927	-0.012209	-11.823502
0.650000	-0.011034	-9.915033	-94.946504	82.341601	-94.946504	82.341601	-0.013721	-12.800674
0.700000	-0.012169	-10.671391	-94.894289	83.294843	-94.894289	83.294843	-0.015230	-13.776541
0.750000	-0.013290	-11.426964	-94.951496	84.748793	-94.951496	84.748793	-0.016728	-14.751129
0.800000	-0.014397	-12.181781	-95.115801	86.862743	-95.115801	86.862743	-0.018212	-15.724466
0.850000	-0.015488	-12.935867	-95.381316	89.855766	-95.381316	89.855766	-0.019676	-16.696570
0.900000	-0.016563	-13.689238	-95.732596	94.021890	-95.732596	94.021890	-0.021119	-17.667460
0.950000	-0.017624	-14.441904	-96.133784	99.729644	-96.133784	99.729644	-0.022540	-18.637145
1.000000	-0.018672	-15.193872	-96.511728	107.365780	-96.511728	107.365780	-0.023939	-19.605633
1.050000	-0.019706	-15.945143	-96.739565	117.153694	-96.739565	117.153694	-0.025316	-20.572922
1.100000	-0.020730	-16.695714	-96.647108	128.816661	-96.647108	128.816661	-0.026673	-21.539010
1.150000	-0.021743	-17.445581	-96.094020	141.299588	-96.094020	141.299588	-0.028010	-22.503887
1.200000	-0.022748	-18.194735	-95.072891	153.061182	-95.072891	153.061182	-0.029330	-23.467542
1.250000	-0.023745	-18.943165	-93.717094	162.931096	-93.717094	162.931096	-0.030633	-24.429959
1.300000	-0.024735	-19.690828	-92.185214	170.487180	-92.185214	170.487180	-0.031921	-25.391064
1.350000	-0.025719	-20.437742	-90.624570	176.088050	-90.624570	176.088050	-0.033196	-26.350891
1.400000	-0.026699	-21.183892	-89.103065	-179.858124	-89.103065	-179.858124	-0.034460	-27.309417
1.450000	-0.027674	-21.929265	-87.650666	-176.980141	-87.650666	-176.980141	-0.035713	-28.266618
1.500000	-0.028646	-22.673844	-86.276935	-174.986499	-86.276935	-174.986499	-0.036958	-29.222469
1.550000	-0.029614	-23.417614	-84.981644	-173.660662	-84.981644	-173.660662	-0.038195	-30.176944
1.600000	-0.030581	-24.160559	-83.760354	-172.844641	-83.760354	-172.844641	-0.039426	-31.130018
1.650000	-0.031545	-24.902663	-82.607137	-172.423184	-82.607137	-172.423184	-0.040651	-32.081664
1.700000	-0.032508	-25.643910	-81.515836	-172.311521	-81.515836	-172.311521	-0.041873	-33.031856
1.750000	-0.033470	-26.384284	-80.480621	-172.446538	-80.480621	-172.446538	-0.043090	-33.980566
1.800000	-0.034432	-27.123769	-79.496194	-172.780607	-79.496194	-172.780607	-0.044306	-34.927769
1.850000	-0.035393	-27.862349	-78.557830	-173.277280	-78.557830	-173.277280	-0.045520	-35.873438
1.900000	-0.036354	-28.600009	-77.661358	-173.908289	-77.661358	-173.908289	-0.046732	-36.817548
1.950000	-0.037315	-29.336732	-76.803111	-174.651424	-76.803111	-174.651424	-0.047945	-37.760073
2.000000	-0.038277	-30.072505	-75.979859	-175.489030	-75.979859	-175.489030	-0.049157	-38.700990
2.050000	-0.039240	-30.807310	-75.188759	-176.406907	-75.188759	-176.406907	-0.050371	-39.640273
2.100000	-0.040204	-31.541134	-74.427301	-177.393521	-74.427301	-177.393521	-0.051586	-40.577900
2.150000	-0.041170	-32.273961	-73.693259	-178.439410	-73.693259	-178.439410	-0.052802	-41.513847
2.200000	-0.042137	-33.005777	-72.984655	-179.536741	-72.984655	-179.536741	-0.054022	-42.448093
2.250000	-0.043107	-33.736568	-72.299722	179.321021	-72.299722	179.321021	-0.055244	-43.380615
2.300000	-0.044079	-34.466319	-71.636879	178.139373	-71.636879	178.139373	-0.056469	-44.311395
2.350000	-0.045054	-35.195017	-70.994705	176.922971	-70.994705	176.922971	-0.057698	-45.240411
2.400000	-0.046031	-35.922648	-70.371915	175.675785	-70.371915	175.675785	-0.058932	-46.167645
2.450000	-0.047012	-36.649198	-69.767350	174.401221	-69.767350	174.401221	-0.060170	-47.093079
2.500000	-0.047997	-37.374655	-69.179955	173.102219	-69.179955	173.102219	-0.061413	-48.016695
2.550000	-0.048986	-38.098956	-68.607847	171.780480	-68.607847	171.780480	-0.062662	-48.938395
2.600000	-0.049979	-38.822138	-68.051167	170.439251	-68.051167	170.439251	-0.063917	-49.858244
2.650000	-0.050976	-39.544187	-67.509101	169.080448	-67.509101	169.080448	-0.065178	-50.776226
2.700000	-0.051979	-40.265091	-66.980901	167.705761	-66.980901	167.705761	-0.066446	-51.692327
2.750000	-0.052987	-40.984839	-66.465879	166.316684	-66.465879	166.316684	-0.067721	-52.606533
2.800000	-0.054000	-41.703419	-65.963401	164.914546	-65.963401	164.914546	-0.069004	-53.518833
2.850000	-0.055020	-42.420820	-65.472880	163.500531	-65.472880	163.500531	-0.070295	-54.429215
2.900000	-0.056045	-43.137030	-64.993770	162.075701	-64.993770	162.075701	-0.071594	-55.337668
2.950000	-0.057078	-43.852040	-64.525568	160.641006	-64.525568	160.641006	-0.072903	-56.244181
3.000000	-0.058117	-44.565838	-64.067802	159.197305	-64.067802	159.197305	-0.074220	-57.148745
3.050000	-0.059164	-45.278414	-63.620034	157.745369	-63.620034	157.745369	-0.075548	-58.051352
3.100000	-0.060218	-45.989760	-63.181854	156.285902	-63.181854	156.285902	-0.076886	-58.951995
3.150000	-0.061280	-46.699864	-62.752877	154.819538	-62.752877	154.819538	-0.078234	-59.850665
3.200000	-0.062351	-47.408718	-62.332746	153.346859	-62.332746	153.346859	-0.079594	-60.747357
3.250000	-0.063430	-48.116313	-61.921121	151.868392	-61.921121	151.868392	-0.080965	-61.642067
3.300000	-0.064519	-48.822640	-61.517686	150.384622	-61.517686	150.384622	-0.082349	-62.534788
3.350000	-0.065617	-49.527691	-61.122142	148.895991	-61.122142	148.895991	-0.083745	-63.425517
3.400000	-0.066725	-50.231457	-60.734207	147.402907	-60.734207	147.402907	-0.085154	-64.314252
3.450000	-0.067843	-50.933931	-60.353614	145.905746	-60.353614	145.905746	-0.086577	-65.200990
3.500000	-0.068972	-51.635106	-59.980113	144.404853	-59.980113	144.404853	-0.088014	-66.085728
3.550000	-0.070111	-52.334974	-59.613464	142.900546	-59.613464	142.900546	-0.089466	-66.968468
3.600000	-0.071262	-53.033529	-59.253443	141.393123	-59.253443	141.393123	-0.090933	-67.849208
3.650000	-0.072425	-53.730764	-58.899835	139.882856	-58.899835	139.882856	-0.092415	-68.727949
3.700000	-0.073600	-54.426672	-58.552438	138.370000	-58.552438	138.370000	-0.093913	-69.604692
3.750000	-0.074787	-55.121249	-58.211056	136.854792	-58.211056	136.854792	-0.095428	-70.479441
3.800000	-0.075987	-55.814429	-57.875200	135.337369	-57.875200	135.337369	-0.096961	-71.352110
3.850000	-0.077201	-56.506266	-57.545023	133.818037	-57.545023	133.818037	-0.098512	-72.222791
3.900000	-0.078428	-57.196754	-57.220358	132.296986	-57.220358	132.296986	-0.100080	-73.091488
3.950000	-0.079669	-57.885890	-56.901043	130.774393	-56.901043	130.774393	-0.101667	-73.958206
4.000000	-0.080925	-58.573669	-56.586925	129.250425	-56.586925	129.250425	-0.103274	-74.822950
4.050000	-0.082195	-59.260086	-56.277858	127.725238	-56.277858	127.725238	-0.104900	-75.685728
4.100000	-0.083480	-59.945139	-55.973702	126.198978	-55.973702	126.198978	-0.106546	-76.546546
4.150000	-0.084781	-60.628824	-55.674321	124.671784	-55.674321	124.671784	-0.108214	-77.405413
4.200000	-0.086097	-61.311137	-55.379588	123.143783	-55.379588	123.143783	-0.109902	-78.262336
4.250000	-0.087430	-61.992077	-55.089379	121.615100	-55.089379	121.615100	-0.111612	-79.117325
4.300000	-0.088779	-62.671641	-54.803577	120.085847	-54.803577	120.085847	-0.113344	-79.970389
4.350000	-0.090145	-63.349826	-54.522067	118.556134	-54.522067	118.556134	-0.115099	-80.821540
4.400000	-0.091529	-64.026632	-54.244742	117.026063	-54.244742	117.026063	-0.116878	-81.670788
4.450000	-0.092930	-64.702056	-53.971496	115.495729	-53.971496	115.495729	-0.118680	-82.518145
4.500000	-0.094349	-65.376098	-53.702228	113.965225	-53.702228	113.965225	-0.120506	-83.363623
4.550000	-0.095787	-66.048756	-53.436843	112.434637	-53.436843	112.434637	-0.122357	-84.207236
4.600000	-0.097244	-66.720030	-53.175247	110.904047	-53.175247	110.904047	-0.124233	-85.048996
4.650000	-0.098720	-67.389920	-52.917350	109.373531	-52.917350	109.373531	-0.126135	-85.888919
4.700000	-0.100215	-68.058426	-52.663066	107.843164	-52.663066	107.843164	-0.128064	-86.727019
4.750000	-0.101731	-68.725548	-52.412311	106.313016	-52.412311	106.313016	-0.130019	-87.563311
4.800000	-0.103267	-69.391287	-52.165006	104.783152	-52.165006	104.783152	-0.132001	-88.397812
4.850000	-0.104823	-70.055644	-51.921072	103.253636	-51.921072	103.253636	-0.134011	-89.230538
4.900000	-0.106401	-70.718620	-51.680435	101.724527	-51.680435	101.724527	-0.136049	-90.061506
4.950000	-0.108001	-71.380217	-51.443023	100.195883	-51.443023	100.195883	-0.138116	-90.890734
5.000000	-0.109622	-72.040436	-51.208765	98.667757	-51.208765	98.667757	-0.140212	-91.718241
5.050000	-0.111266	-72.699220	-50.977462	97.140228	-50.977462	97.140228	-0.142339	-92.543971
5.100000	-0.112934	-73.356631	-50.749189	95.613323	-50.749189	95.613323	-0.144496	-93.368021
5.150000	-0.114624	-74.012671	-50.523883	94.087089	-50.523883	94.087089	-0.146683	-94.190409
5.200000	-0.116338	-74.667345	-50.301482	92.561569	-50.301482	92.561569	-0.148902	-95.011156
5.250000	-0.118076	-75.320654	-50.081926	91.036806	-50.081926	91.036806	-0.151152	-95.830283
5.300000	-0.119838	-75.972604	-49.865158	89.512841	-49.865158	89.512841	-0.153434	-96.647812
5.350000	-0.121625	-76.623196	-49.651122	87.989713	-49.651122	87.989713	-0.155749	-97.463766
5.400000	-0.123437	-77.272436	-49.439764	86.467459	-49.439764	86.467459	-0.158097	-98.278167
5.450000	-0.125283	-77.919860	-49.230206	84.946447	-49.230206	84.946447	-0.160489	-99.090517
5.500000	-0.127143	-78.566583	-49.024370	83.425920	-49.024370	83.425920	-0.162900	-99.902076
5.550000	-0.129034	-79.211677	-48.820563	81.906598	-48.820563	81.906598	-0.165352	-100.711845
5.600000	-0.130949	-79.855610	-48.619518	80.388135	-48.619518	80.388135	-0.167834	-101.520333
5.650000	-0.132892	-80.498159	-48.420816	78.870769	-48.420816	78.870769	-0.170353	-102.327341
5.700000	-0.134864	-81.139324	-48.224401	77.354501	-48.224401	77.354501	-0.172909	-103.132868
5.750000	-0.136860	-81.779347	-48.030600	75.839197	-48.030600	75.839197	-0.175496	-103.937208
5.800000	-0.138890	-82.417771	-47.838662	74.325242	-47.838662	74.325242	-0.178128	-104.739888
5.850000	-0.140940	-83.055290	-47.649573	72.812096	-47.649573	72.812096	-0.180785	-105.541658
5.900000	-0.143031	-83.690999	-47.461967	71.300567	-47.461967	71.300567	-0.183494	-106.341610
5.950000	-0.145136	-84.326038	-47.277409	69.789669	-47.277409	69.789669	-0.186223	-107.140910
6.000000	-0.147288	-84.959063	-47.093997	68.280665	-47.093997	68.280665	-0.189011	-107.938255
6.050000	-0.149452	-85.591646	-46.913802	66.772097	-46.913802	66.772097	-0.191813	-108.735188
6.100000	-0.151667	-86.222018	-46.734452	65.265713	-46.734452	65.265713	-0.194682	-109.530056
6.150000	-0.153889	-86.852172	-46.558461	63.759554	-46.558461	63.759554	-0.197559	-110.324728
6.200000	-0.156170	-87.479925	-46.383050	62.255874	-46.383050	62.255874	-0.200510	-111.117248
6.250000	-0.158451	-88.107679	-46.211111	60.752195	-46.211111	60.752195	-0.203463	-111.909769
6.300000	-0.160799	-88.732849	-46.039520	59.251300	-46.039520	59.251300	-0.206499	-112.700077
6.350000	-0.163147	-89.358019	-45.871254	57.750405	-45.871254	57.750405	-0.209537	-113.490386
6.400000	-0.165558	-89.980855	-45.703610	56.252130	-45.703610	56.252130	-0.212652	-114.278795
6.450000	-0.167975	-90.603480	-45.538911	54.754093	-45.538911	54.754093	-0.215775	-115.067031
6.500000	-0.170451	-91.224015	-45.375077	53.258494	-45.375077	53.258494	-0.218971	-115.853660
6.550000	-0.172938	-91.844134	-45.213845	51.763382	-45.213845	51.763382	-0.222183	-116.639967
6.600000	-0.175479	-92.462403	-45.053693	50.270511	-45.053693	50.270511	-0.225461	-117.424938
6.650000	-0.178039	-93.080056	-44.895833	48.778388	-44.895833	48.778388	-0.228761	-118.209463
6.700000	-0.180647	-93.696095	-44.739240	47.288294	-44.739240	47.288294	-0.232123	-118.992900
6.750000	-0.183280	-94.311327	-44.584660	45.799215	-44.584660	45.799215	-0.235515	-119.775794
6.800000	-0.185957	-94.925172	-44.431511	44.311942	-44.431511	44.311942	-0.238960	-120.557827
6.850000	-0.188666	-95.538026	-44.280124	42.825961	-44.280124	42.825961	-0.242445	-121.339245
6.900000	-0.191413	-96.149715	-44.130310	41.341553	-44.130310	41.341553	-0.245977	-122.120004
6.950000	-0.194198	-96.760239	-43.982034	39.858717	-43.982034	39.858717	-0.249556	-122.900105
7.000000	-0.197017	-97.369812	-43.835451	38.377211	-43.835451	38.377211	-0.253175	-123.679724
7.050000	-0.199881	-97.978054	-43.690205	36.897565	-43.690205	36.897565	-0.256849	-124.458669
7.100000	-0.202772	-98.585552	-43.546754	35.418996	-43.546754	35.418996	-0.260557	-125.237285
7.150000	-0.205716	-99.191561	-43.404464	33.942580	-43.404464	33.942580	-0.264329	-126.015242
7.200000	-0.208681	-99.797025	-43.264051	32.466981	-43.264051	32.466981	-0.268126	-126.792994
7.250000	-0.211707	-100.400852	-43.124644	30.993831	-43.124644	30.993831	-0.271997	-127.570132
7.300000	-0.214748	-101.004326	-42.987181	29.521230	-42.987181	29.521230	-0.275886	-128.347162
7.350000	-0.217857	-101.606025	-42.850588	28.051378	-42.850588	28.051378	-0.279856	-129.123655
7.400000	-0.220974	-102.207552	-42.715990	26.581803	-42.715990	26.581803	-0.283837	-129.900109
7.450000	-0.224168	-102.807177	-42.582146	25.115278	-42.582146	25.115278	-0.287909	-130.676135
7.500000	-0.227363	-103.406803	-42.450333	23.648752	-42.450333	23.648752	-0.291983	-131.452161
7.550000	-0.230643	-104.004410	-42.319174	22.185578	-42.319174	22.185578	-0.296159	-132.227901
7.600000	-0.233925	-104.602018	-42.189966	20.722404	-42.189966	20.722404	-0.300336	-133.003641
7.650000	-0.237286	-105.197828	-42.061536	19.262321	-42.061536	19.262321	-0.304607	-133.779290
7.700000	-0.240655	-105.793475	-41.934877	17.802519	-41.934877	17.802519	-0.308888	-134.554930
7.750000	-0.244097	-106.387537	-41.809102	16.345543	-41.809102	16.345543	-0.313256	-135.330644
7.800000	-0.247556	-106.981281	-41.684938	14.889132	-41.684938	14.889132	-0.317643	-136.106373
7.850000	-0.251082	-107.573645	-41.561749	13.435275	-41.561749	13.435275	-0.322109	-136.882313
7.900000	-0.254631	-108.165548	-41.440028	11.982269	-41.440028	11.982269	-0.326603	-137.658325
7.950000	-0.258241	-108.756264	-41.319359	10.531540	-41.319359	10.531540	-0.331168	-138.434655
8.000000	-0.261882	-109.346387	-41.200033	9.081950	-41.200033	9.081950	-0.335769	-139.211146
8.050000	-0.265577	-109.935508	-41.081822	7.634357	-41.081822	7.634357	-0.340434	-139.988033
8.100000	-0.269311	-110.523914	-40.964843	6.188191	-40.964843	6.188191	-0.345145	-140.765204
8.150000	-0.273092	-111.111494	-40.849029	4.743740	-40.849029	4.743740	-0.349911	-141.542818
8.200000	-0.276921	-111.698247	-40.734355	3.301003	-40.734355	3.301003	-0.354732	-142.320875
8.250000	-0.280790	-112.284339	-40.620882	1.859695	-40.620882	1.859695	-0.359599	-143.099389
8.300000	-0.284715	-112.869505	-40.508470	0.420389	-40.508470	0.420389	-0.364532	-143.878541
8.350000	-0.288672	-113.454165	-40.397285	-1.017774	-40.397285	-1.017774	-0.369502	-144.658129
8.400000	-0.292693	-114.037812	-40.287095	-2.453650	-40.287095	-2.453650	-0.374546	-145.438590
8.450000	-0.296740	-114.621096	-40.178147	-3.888669	-40.178147	-3.888669	-0.379621	-146.219433
8.500000	-0.300860	-115.203291	-40.070142	-5.321119	-40.070142	-5.321119	-0.384778	-147.001421
8.550000	-0.304997	-115.785257	-39.963383	-6.752999	-39.963383	-6.752999	-0.389956	-147.783700
8.600000	-0.309215	-116.366072	-39.857528	-8.182028	-39.857528	-8.182028	-0.395228	-148.567437
8.650000	-0.313443	-116.946777	-39.752914	-9.610773	-39.752914	-9.610773	-0.400511	-149.351339
8.700000	-0.317762	-117.526282	-39.649175	-11.036389	-39.649175	-11.036389	-0.405897	-150.137051
8.750000	-0.322082	-118.105787	-39.546662	-12.462006	-39.546662	-12.462006	-0.411286	-150.922763
8.800000	-0.326502	-118.684055	-39.445010	-13.884220	-39.445010	-13.884220	-0.416787	-151.710682
8.850000	-0.330923	-119.262323	-39.344534	-15.306435	-39.344534	-15.306435	-0.422292	-152.498601
8.900000	-0.335436	-119.839525	-39.244963	-16.725541	-39.244963	-16.725541	-0.427900	-153.288759
8.950000	-0.339959	-120.416630	-39.146499	-18.144365	-39.146499	-18.144365	-0.433521	-154.079120
9.000000	-0.344566	-120.992830	-39.048970	-19.560374	-39.048970	-19.560374	-0.439236	-154.871717
9.050000	-0.349192	-121.568848	-38.952492	-20.975820	-38.952492	-20.975820	-0.444973	-155.664761
9.100000	-0.353894	-122.144109	-38.856972	-22.388743	-38.856972	-22.388743	-0.450796	-156.460000
9.150000	-0.358623	-122.719117	-38.762457	-23.800825	-38.762457	-23.800825	-0.456650	-157.255972
9.200000	-0.363421	-123.293505	-38.668911	-25.210674	-38.668911	-25.210674	-0.462580	-158.054061
9.250000	-0.368254	-123.867582	-38.576339	-26.619407	-38.576339	-26.619407	-0.468551	-158.853210
9.300000	-0.373147	-124.441162	-38.484738	-28.026194	-38.484738	-28.026194	-0.474590	-159.654360
9.350000	-0.378085	-125.014388	-38.394090	-29.431592	-38.394090	-29.431592	-0.480678	-160.456940
9.400000	-0.383074	-125.587229	-38.304405	-30.835329	-38.304405	-30.835329	-0.486825	-161.261366
9.450000	-0.388117	-126.159685	-38.215664	-32.237406	-38.215664	-32.237406	-0.493030	-162.067637
9.500000	-0.393203	-126.731856	-38.127870	-33.638105	-38.127870	-33.638105	-0.499285	-162.875556
9.550000	-0.398350	-127.303625	-38.041021	-35.036875	-38.041021	-35.036875	-0.505607	-163.685783
9.600000	-0.403534	-127.875195	-37.955093	-36.434545	-37.955093	-36.434545	-0.511969	-164.497417
9.650000	-0.408786	-128.446363	-37.870124	-37.830019	-37.870124	-37.830019	-0.518408	-165.311869
9.700000	-0.414067	-129.017403	-37.786039	-39.224671	-37.786039	-39.224671	-0.524878	-166.127445
9.750000	-0.419424	-129.588057	-37.702939	-40.616858	-37.702939	-40.616858	-0.531432	-166.946395
9.800000	-0.424802	-130.158639	-37.620677	-42.008499	-37.620677	-42.008499	-0.538009	-167.766142
9.850000	-0.430265	-130.728866	-37.539437	-43.397407	-37.539437	-43.397407	-0.544679	-168.589870
9.900000	-0.435740	-131.299065	-37.458981	-44.786043	-37.458981	-44.786043	-0.551362	-169.414021
9.950000	-0.441309	-131.868955	-37.379594	-46.171675	-37.379594	-46.171675	-0.558146	-170.242812
10.000000	-0.446881	-132.438845	-37.300927	-47.557308	-37.300927	-47.557308	-0.564935	-171.071604
