! freq	dB(S11)	phase(S11)	dB(S12)	phase(S12)	
!     	dB(S21)	phase(S21)	dB(S22)	phase(S22)	
!S-par simulation data
#  GHz  S  DB  R 50
0.000000	-0.000000	0.000000	-340.297340	180.000000	-340.297340	180.000000	-0.000000	-0.000000
0.050000	-0.002006	-3.175496	-99.545460	88.084266	-99.545460	88.084266	-0.000448	-0.777980
0.100000	-0.006958	-6.335957	-93.562232	86.174555	-93.562232	86.174555	-0.001587	-1.553319
0.150000	-0.012929	-9.477356	-90.102833	84.277115	-90.102833	84.277115	-0.003021	-2.325287
0.200000	-0.018721	-12.603460	-87.689719	82.397917	-87.689719	82.397917	-0.004460	-3.094685
0.250000	-0.023930	-15.717935	-85.862832	80.544592	-85.862832	80.544592	-0.005776	-3.862481
0.300000	-0.028560	-18.822983	-84.417401	78.725678	-84.417401	78.725678	-0.006942	-4.629433
0.350000	-0.032756	-21.919443	-83.241616	76.948804	-83.241616	76.948804	-0.007985	-5.395968
0.400000	-0.036638	-25.006766	-82.271108	75.223983	-82.271108	75.223983	-0.008933	-6.162251
0.450000	-0.040291	-28.083445	-81.467804	73.565753	-81.467804	73.565753	-0.009814	-6.928318
0.500000	-0.043795	-31.148754	-80.800122	71.984103	-80.800122	71.984103	-0.010654	-7.694162
0.550000	-0.047194	-34.201440	-80.248773	70.493793	-80.248773	70.493793	-0.011471	-8.459743
0.600000	-0.050513	-37.239560	-79.803558	69.118179	-79.803558	69.118179	-0.012276	-9.224994
0.650000	-0.053779	-40.262389	-79.451893	67.875263	-79.451893	67.875263	-0.013080	-9.989872
0.700000	-0.057003	-43.268989	-79.185892	66.789016	-79.185892	66.789016	-0.013890	-10.754332
0.750000	-0.060193	-46.257801	-79.002751	65.896838	-79.002751	65.896838	-0.014710	-11.518311
0.800000	-0.063355	-49.227895	-78.898560	65.239155	-78.898560	65.239155	-0.015544	-12.281765
0.850000	-0.066489	-52.178638	-78.869611	64.863582	-78.869611	64.863582	-0.016393	-13.044659
0.900000	-0.069596	-55.109318	-78.913335	64.832194	-78.913335	64.832194	-0.017258	-13.806955
0.950000	-0.072674	-58.019180	-79.027328	65.225791	-79.027328	65.225791	-0.018140	-14.568617
1.000000	-0.075721	-60.907627	-79.207497	66.145225	-79.207497	66.145225	-0.019037	-15.329611
1.050000	-0.078733	-63.774141	-79.446680	67.716332	-79.446680	67.716332	-0.019951	-16.089907
1.100000	-0.081708	-66.618284	-79.732029	70.091338	-79.732029	70.091338	-0.020879	-16.849476
1.150000	-0.084641	-69.439691	-80.041146	73.442543	-80.041146	73.442543	-0.021820	-17.608292
1.200000	-0.087528	-72.238070	-80.337161	77.938503	-80.337161	77.938503	-0.022774	-18.366330
1.250000	-0.090368	-75.013194	-80.564511	83.688992	-80.564511	83.688992	-0.023740	-19.123567
1.300000	-0.093154	-77.764389	-80.645428	90.671277	-80.645428	90.671277	-0.024715	-19.879963
1.350000	-0.095887	-80.492066	-80.506041	98.542134	-80.506041	98.542134	-0.025699	-20.635516
1.400000	-0.098563	-83.196184	-80.097806	106.723312	-80.097806	106.723312	-0.026689	-21.390206
1.450000	-0.101182	-85.876757	-79.423365	114.535410	-79.423365	114.535410	-0.027686	-22.144018
1.500000	-0.103742	-88.533850	-78.534260	121.432716	-78.534260	121.432716	-0.028687	-22.896933
1.550000	-0.106242	-91.167572	-77.504635	127.137042	-77.504635	127.137042	-0.029692	-23.648938
1.600000	-0.108682	-93.778079	-76.404072	131.615487	-76.404072	131.615487	-0.030699	-24.400017
1.650000	-0.111063	-96.365565	-75.284413	134.981522	-75.284413	134.981522	-0.031707	-25.150157
1.700000	-0.113385	-98.930261	-74.178873	137.404173	-74.178873	137.404173	-0.032716	-25.899344
1.750000	-0.115649	-101.472434	-73.106354	139.054409	-73.106354	139.054409	-0.033724	-26.647567
1.800000	-0.117858	-103.992380	-72.076292	140.082275	-72.076292	140.082275	-0.034732	-27.394814
1.850000	-0.120012	-106.490425	-71.092380	140.611157	-71.092380	140.611157	-0.035739	-28.141074
1.900000	-0.122114	-108.966689	-70.154470	140.735997	-70.154470	140.735997	-0.036743	-28.886324
1.950000	-0.124166	-111.421560	-69.261426	140.536326	-69.261426	140.536326	-0.037746	-29.630555
2.000000	-0.126171	-113.855667	-68.411561	140.076393	-68.411561	140.076393	-0.038746	-30.373766
2.050000	-0.128131	-116.269426	-67.602207	139.403432	-67.602207	139.403432	-0.039743	-31.115948
2.100000	-0.130051	-118.663265	-66.830630	138.554883	-66.830630	138.554883	-0.040738	-31.857090
2.150000	-0.131932	-121.037628	-66.094175	137.560613	-66.094175	137.560613	-0.041731	-32.597183
2.200000	-0.133779	-123.392972	-65.390341	136.444624	-65.390341	136.444624	-0.042721	-33.336218
2.250000	-0.135593	-125.729761	-64.716812	135.226346	-64.716812	135.226346	-0.043710	-34.074185
2.300000	-0.137379	-128.048471	-64.071462	133.921629	-64.071462	133.921629	-0.044696	-34.811074
2.350000	-0.139139	-130.349584	-63.452350	132.543487	-63.452350	132.543487	-0.045681	-35.546875
2.400000	-0.140876	-132.633585	-62.857714	131.102687	-62.857714	131.102687	-0.046666	-36.281579
2.450000	-0.142593	-134.900966	-62.285950	129.608191	-62.285950	129.608191	-0.047650	-37.015177
2.500000	-0.144294	-137.152223	-61.735601	128.067503	-61.735601	128.067503	-0.048634	-37.747659
2.550000	-0.145981	-139.387521	-61.205077	126.486205	-61.205077	126.486205	-0.049618	-38.478990
2.600000	-0.147656	-141.607710	-60.693487	124.870593	-60.693487	124.870593	-0.050604	-39.209184
2.650000	-0.149323	-143.813286	-60.199726	123.225180	-60.199726	123.225180	-0.051592	-39.938233
2.700000	-0.150984	-146.004744	-59.722788	121.553826	-59.722788	121.553826	-0.052582	-40.666126
2.750000	-0.152642	-148.182578	-59.261752	119.859850	-59.261752	119.859850	-0.053575	-41.392854
2.800000	-0.154297	-150.347280	-58.815774	118.146115	-58.815774	118.146115	-0.054572	-42.118406
2.850000	-0.155954	-152.499336	-58.384082	116.415105	-58.384082	116.415105	-0.055574	-42.842773
2.900000	-0.157612	-154.639232	-57.965965	114.668975	-57.965965	114.668975	-0.056580	-43.565946
2.950000	-0.159275	-156.767445	-57.560769	112.909610	-57.560769	112.909610	-0.057592	-44.287913
3.000000	-0.160943	-158.884450	-57.167892	111.138656	-57.167892	111.138656	-0.058611	-45.008667
3.050000	-0.162619	-160.990717	-56.786779	109.357561	-56.786779	109.357561	-0.059637	-45.728198
3.100000	-0.164302	-163.086709	-56.416913	107.567599	-56.416913	107.567599	-0.060671	-46.446495
3.150000	-0.165995	-165.172779	-56.057775	105.769824	-56.057775	105.769824	-0.061712	-47.163536
3.200000	-0.167699	-167.249395	-55.708937	103.965264	-55.708937	103.965264	-0.062763	-47.879313
3.250000	-0.169413	-169.317105	-55.370036	102.154883	-55.370036	102.154883	-0.063824	-48.593828
3.300000	-0.171140	-171.376346	-55.040689	100.339468	-55.040689	100.339468	-0.064894	-49.307075
3.350000	-0.172879	-173.427544	-54.720542	98.519721	-54.720542	98.519721	-0.065975	-50.019044
3.400000	-0.174630	-175.471121	-54.409263	96.696276	-54.409263	96.696276	-0.067067	-50.729726
3.450000	-0.176394	-177.507489	-54.106543	94.869702	-54.106543	94.869702	-0.068171	-51.439115
3.500000	-0.178172	-179.537053	-53.812096	93.040516	-53.812096	93.040516	-0.069287	-52.147202
3.550000	-0.179962	178.439793	-53.525651	91.209187	-53.525651	91.209187	-0.070416	-52.853980
3.600000	-0.181765	176.422659	-53.246958	89.376143	-53.246958	89.376143	-0.071557	-53.559441
3.650000	-0.183581	174.411167	-52.975782	87.541778	-52.975782	87.541778	-0.072712	-54.263579
3.700000	-0.185410	172.404947	-52.711905	85.706456	-52.711905	85.706456	-0.073882	-54.966388
3.750000	-0.187250	170.403637	-52.455120	83.870511	-52.455120	83.870511	-0.075065	-55.667861
3.800000	-0.189102	168.406978	-52.205231	82.034260	-52.205231	82.034260	-0.076263	-56.367962
3.850000	-0.190964	166.414518	-51.962071	80.198008	-51.962071	80.198008	-0.077477	-57.066716
3.900000	-0.192836	164.425926	-51.725472	78.362035	-51.725472	78.362035	-0.078706	-57.764117
3.950000	-0.194718	162.440877	-51.495276	76.526604	-51.495276	76.526604	-0.079951	-58.460161
4.000000	-0.196608	160.459058	-51.271334	74.691970	-51.271334	74.691970	-0.081212	-59.154842
4.050000	-0.198505	158.480165	-51.053507	72.858377	-51.053507	72.858377	-0.082490	-59.848158
4.100000	-0.200408	156.503901	-50.841664	71.026063	-50.841664	71.026063	-0.083784	-60.540104
4.150000	-0.202317	154.529982	-50.635683	69.195260	-50.635683	69.195260	-0.085096	-61.230676
4.200000	-0.204230	152.558134	-50.435450	67.366199	-50.435450	67.366199	-0.086425	-61.919873
4.250000	-0.206146	150.588091	-50.240858	65.539105	-50.240858	65.539105	-0.087772	-62.607691
4.300000	-0.208064	148.619597	-50.051805	63.714206	-50.051805	63.714206	-0.089137	-63.294128
4.350000	-0.209982	146.652410	-49.868198	61.891729	-49.868198	61.891729	-0.090520	-63.979182
4.400000	-0.211899	144.686302	-49.689967	60.071932	-49.689967	60.071932	-0.091922	-64.662837
4.450000	-0.213815	142.721042	-49.517034	58.255055	-49.517034	58.255055	-0.093343	-65.345091
4.500000	-0.215727	140.756406	-49.349305	56.441304	-49.349305	56.441304	-0.094783	-66.025959
4.550000	-0.217634	138.792191	-49.186706	54.630918	-49.186706	54.630918	-0.096243	-66.705440
4.600000	-0.219535	136.828206	-49.029170	52.824142	-49.029170	52.824142	-0.097723	-67.383535
4.650000	-0.221429	134.864268	-48.876633	51.021227	-48.876633	51.021227	-0.099222	-68.060243
4.700000	-0.223314	132.900208	-48.729037	49.222432	-48.729037	49.222432	-0.100742	-68.735566
4.750000	-0.225189	130.935866	-48.586325	47.428022	-48.586325	47.428022	-0.102283	-69.409504
4.800000	-0.227053	128.971092	-48.448447	45.638273	-48.448447	45.638273	-0.103844	-70.082058
4.850000	-0.228904	127.005748	-48.315354	43.853468	-48.315354	43.853468	-0.105427	-70.753231
4.900000	-0.230741	125.039708	-48.187002	42.073901	-48.187002	42.073901	-0.107031	-71.423024
4.950000	-0.232563	123.072855	-48.063349	40.299877	-48.063349	40.299877	-0.108657	-72.091439
5.000000	-0.234368	121.105084	-47.944356	38.531712	-47.944356	38.531712	-0.110306	-72.758480
5.050000	-0.236155	119.136276	-47.830057	36.769877	-47.830057	36.769877	-0.111977	-73.424119
5.100000	-0.237923	117.166369	-47.720352	35.014586	-47.720352	35.014586	-0.113671	-74.088389
5.150000	-0.239672	115.195292	-47.615212	33.266196	-47.615212	33.266196	-0.115388	-74.751295
5.200000	-0.241399	113.222984	-47.514608	31.525077	-47.514608	31.525077	-0.117128	-75.412839
5.250000	-0.243105	111.249395	-47.418512	29.791614	-47.418512	29.791614	-0.118892	-76.073027
5.300000	-0.244788	109.274487	-47.326900	28.066209	-47.326900	28.066209	-0.120681	-76.731862
5.350000	-0.246447	107.298232	-47.239750	26.349280	-47.239750	26.349280	-0.122493	-77.389349
5.400000	-0.248082	105.320613	-47.157039	24.641265	-47.157039	24.641265	-0.124331	-78.045493
5.450000	-0.249692	103.341623	-47.078749	22.942617	-47.078749	22.942617	-0.126193	-78.700300
5.500000	-0.251277	101.361267	-47.004860	21.253813	-47.004860	21.253813	-0.128082	-79.353774
5.550000	-0.252835	99.379560	-46.935356	19.575347	-46.935356	19.575347	-0.129996	-80.005923
5.600000	-0.254367	97.396525	-46.870221	17.907739	-46.870221	17.907739	-0.131936	-80.656751
5.650000	-0.255872	95.412186	-46.809482	16.251657	-46.809482	16.251657	-0.133903	-81.306251
5.700000	-0.257350	93.426589	-46.753126	14.607689	-46.753126	14.607689	-0.135898	-81.954429
5.750000	-0.258801	91.439804	-46.701096	12.976302	-46.701096	12.976302	-0.137919	-82.601307
5.800000	-0.260225	89.451895	-46.653377	11.358117	-46.653377	11.358117	-0.139969	-83.246892
5.850000	-0.261623	87.462938	-46.609957	9.753780	-46.609957	9.753780	-0.142047	-83.891190
5.900000	-0.262994	85.473016	-46.570820	8.163970	-46.570820	8.163970	-0.144154	-84.534210
5.950000	-0.264339	83.482221	-46.535952	6.589397	-46.535952	6.589397	-0.146289	-85.175959
6.000000	-0.265658	81.490655	-46.505336	5.030803	-46.505336	5.030803	-0.148454	-85.816444
6.050000	-0.266953	79.498426	-46.478956	3.488964	-46.478956	3.488964	-0.150649	-86.455675
6.100000	-0.268224	77.505651	-46.456793	1.964696	-46.456793	1.964696	-0.152874	-87.093659
6.150000	-0.269471	75.512455	-46.438828	0.458850	-46.438828	0.458850	-0.155129	-87.730404
6.200000	-0.270697	73.518968	-46.425038	-1.027682	-46.425038	-1.027682	-0.157416	-88.365921
6.250000	-0.271902	71.525331	-46.415397	-2.493965	-46.415397	-2.493965	-0.159734	-89.000217
6.300000	-0.273087	69.531689	-46.409966	-3.938536	-46.409966	-3.938536	-0.162085	-89.633276
6.350000	-0.274254	67.538199	-46.408622	-5.360809	-46.408622	-5.360809	-0.164468	-90.265134
6.400000	-0.275405	65.545015	-46.411327	-6.759708	-46.411327	-6.759708	-0.166884	-90.895799
6.450000	-0.276541	63.552299	-46.418039	-8.134111	-46.418039	-8.134111	-0.169333	-91.525283
6.500000	-0.277664	61.560217	-46.428707	-9.482842	-46.428707	-9.482842	-0.171815	-92.153595
6.550000	-0.278776	59.568939	-46.443276	-10.804675	-46.443276	-10.804675	-0.174332	-92.780744
6.600000	-0.279879	57.578638	-46.461681	-12.098331	-46.461681	-12.098331	-0.176883	-93.406743
6.650000	-0.280976	55.589490	-46.483849	-13.362475	-46.483849	-13.362475	-0.179470	-94.031600
6.700000	-0.282069	53.601675	-46.509697	-14.595720	-46.509697	-14.595720	-0.182091	-94.655327
6.750000	-0.283160	51.615372	-46.539128	-15.796624	-46.539128	-15.796624	-0.184748	-95.277935
6.800000	-0.284252	49.630764	-46.572036	-16.963691	-46.572036	-16.963691	-0.187442	-95.899435
6.850000	-0.285348	47.648034	-46.608296	-18.095374	-46.608296	-18.095374	-0.190172	-96.519838
6.900000	-0.286450	45.667390	-46.647801	-19.189655	-46.647801	-19.189655	-0.192939	-97.139145
6.950000	-0.287561	43.689023	-46.690387	-20.244836	-46.690387	-20.244836	-0.195744	-97.757366
7.000000	-0.288685	41.713091	-46.735843	-21.259632	-46.735843	-21.259632	-0.198587	-98.374527
7.050000	-0.289825	39.739777	-46.783968	-22.232325	-46.783968	-22.232325	-0.201468	-98.990638
7.100000	-0.290982	37.769260	-46.834538	-23.161174	-46.834538	-23.161174	-0.204388	-99.605713
7.150000	-0.292162	35.801718	-46.887301	-24.044422	-46.887301	-24.044422	-0.207347	-100.219764
7.200000	-0.293367	33.837325	-46.941980	-24.880313	-46.941980	-24.880313	-0.210345	-100.832803
7.250000	-0.294601	31.876252	-46.998265	-25.667107	-46.998265	-25.667107	-0.213383	-101.444844
7.300000	-0.295866	29.918666	-47.055812	-26.403099	-47.055812	-26.403099	-0.216462	-102.055900
7.350000	-0.297167	27.964731	-47.114245	-27.086642	-47.114245	-27.086642	-0.219580	-102.665983
7.400000	-0.298508	26.014605	-47.173150	-27.716173	-47.173150	-27.716173	-0.222740	-103.275108
7.450000	-0.299891	24.068441	-47.232076	-28.290243	-47.232076	-28.290243	-0.225941	-103.883289
7.500000	-0.301321	22.126386	-47.290533	-28.807549	-47.290533	-28.807549	-0.229183	-104.490538
7.550000	-0.302802	20.188677	-47.347948	-29.265695	-47.347948	-29.265695	-0.232469	-105.096851
7.600000	-0.304338	18.255360	-47.403769	-29.665041	-47.403769	-29.665041	-0.235796	-105.702262
7.650000	-0.305931	16.326561	-47.457388	-30.004990	-47.457388	-30.004990	-0.239167	-106.306786
7.700000	-0.307586	14.402399	-47.508164	-30.285263	-47.508164	-30.285263	-0.242580	-106.910438
7.750000	-0.309307	12.482989	-47.555421	-30.505951	-47.555421	-30.505951	-0.246036	-107.513233
7.800000	-0.311098	10.568432	-47.598460	-30.667561	-47.598460	-30.667561	-0.249536	-108.115186
7.850000	-0.312962	8.658826	-47.636564	-30.771060	-47.636564	-30.771060	-0.253080	-108.716313
7.900000	-0.314904	6.754256	-47.669001	-30.817914	-47.669001	-30.817914	-0.256668	-109.316629
7.950000	-0.316926	4.854802	-47.695042	-30.810127	-47.695042	-30.810127	-0.260301	-109.916150
8.000000	-0.319035	2.960530	-47.713965	-30.750259	-47.713965	-30.750259	-0.263978	-110.514894
8.050000	-0.321232	1.071502	-47.725073	-30.641446	-47.725073	-30.641446	-0.267699	-111.112875
8.100000	-0.323523	-0.812235	-47.727704	-30.487390	-47.727704	-30.487390	-0.271467	-111.710112
8.150000	-0.325913	-2.690583	-47.721139	-30.291959	-47.721139	-30.291959	-0.275279	-112.306613
8.200000	-0.328405	-4.563512	-47.704813	-30.060109	-47.704813	-30.060109	-0.279138	-112.902397
8.250000	-0.331002	-6.431062	-47.678356	-29.797557	-47.678356	-29.797557	-0.283043	-113.497489
8.300000	-0.333709	-8.293226	-47.641391	-29.509963	-47.641391	-29.509963	-0.286994	-114.091906
8.350000	-0.336536	-10.149697	-47.592978	-29.202584	-47.592978	-29.202584	-0.290993	-114.685631
8.400000	-0.339475	-12.001100	-47.534223	-28.883284	-47.534223	-28.883284	-0.295036	-115.278755
8.450000	-0.342534	-13.847246	-47.464626	-28.557367	-47.464626	-28.557367	-0.299125	-115.871270
8.500000	-0.345716	-15.688168	-47.384237	-28.230807	-47.384237	-28.230807	-0.303260	-116.463194
8.550000	-0.349026	-17.523913	-47.293209	-27.909469	-47.293209	-27.909469	-0.307441	-117.054546
8.600000	-0.352483	-19.353978	-47.190538	-27.600811	-47.190538	-27.600811	-0.311673	-117.645287
8.650000	-0.356077	-21.178974	-47.077785	-27.309520	-47.077785	-27.309520	-0.315952	-118.235494
8.700000	-0.359812	-22.999012	-46.955462	-27.040411	-46.955462	-27.040411	-0.320277	-118.825192
8.750000	-0.363691	-24.814182	-46.824074	-26.797921	-46.824074	-26.797921	-0.324648	-119.414400
8.800000	-0.367719	-26.624589	-46.684183	-26.586004	-46.684183	-26.586004	-0.329066	-120.003138
8.850000	-0.371901	-28.430344	-46.536391	-26.408102	-46.536391	-26.408102	-0.333530	-120.591428
8.900000	-0.376246	-30.231385	-46.380926	-26.268828	-46.380926	-26.268828	-0.338043	-121.179272
8.950000	-0.380766	-32.027732	-46.218208	-26.172050	-46.218208	-26.172050	-0.342606	-121.766684
9.000000	-0.385453	-33.819869	-46.049626	-26.116756	-46.049626	-26.116756	-0.347215	-122.353715
9.050000	-0.390311	-35.607955	-45.875834	-26.104212	-45.875834	-26.104212	-0.351871	-122.940390
9.100000	-0.395345	-37.392164	-45.697471	-26.135236	-45.697471	-26.135236	-0.356573	-123.526730
9.150000	-0.400559	-39.172679	-45.515156	-26.210237	-45.515156	-26.210237	-0.361322	-124.112758
9.200000	-0.405959	-40.949696	-45.329477	-26.329257	-45.329477	-26.329257	-0.366118	-124.698498
9.250000	-0.411567	-42.723141	-45.140406	-26.495982	-45.140406	-26.495982	-0.370964	-125.283953
9.300000	-0.417376	-44.493482	-44.948976	-26.706778	-44.948976	-26.706778	-0.375857	-125.869167
9.350000	-0.423386	-46.261033	-44.755837	-26.959702	-44.755837	-26.959702	-0.380797	-126.454172
9.400000	-0.429603	-48.026041	-44.561436	-27.253692	-44.561436	-27.253692	-0.385783	-127.038994
9.450000	-0.436032	-49.788765	-44.366178	-27.587527	-44.366178	-27.587527	-0.390815	-127.623658
9.500000	-0.442679	-51.549474	-44.170435	-27.959864	-44.170435	-27.959864	-0.395892	-128.208191
9.550000	-0.449555	-53.308417	-43.974437	-28.370133	-43.974437	-28.370133	-0.401017	-128.792619
9.600000	-0.456681	-55.065834	-43.778232	-28.819020	-43.778232	-28.819020	-0.406191	-129.376968
9.650000	-0.464044	-56.822191	-43.582499	-29.301576	-43.582499	-29.301576	-0.411410	-129.961274
9.700000	-0.471651	-58.577813	-43.387468	-29.816215	-43.387468	-29.816215	-0.416674	-130.545567
9.750000	-0.479495	-60.333041	-43.193500	-30.359928	-43.193500	-30.359928	-0.421982	-131.129875
9.800000	-0.487615	-62.088218	-43.000352	-30.934864	-43.000352	-30.934864	-0.427337	-131.714233
9.850000	-0.496005	-63.843742	-42.808383	-31.537633	-42.808383	-31.537633	-0.432738	-132.298672
9.900000	-0.504661	-65.599989	-42.617843	-32.165605	-42.617843	-32.165605	-0.438182	-132.883220
9.950000	-0.513619	-67.357467	-42.428577	-32.819649	-42.428577	-32.819649	-0.443674	-133.467924
10.000000	-0.522842	-69.116383	-42.241083	-33.494609	-42.241083	-33.494609	-0.449206	-134.052792
