! freq	dB(S11)	phase(S11)	dB(S12)	phase(S12)	
!     	dB(S21)	phase(S21)	dB(S22)	phase(S22)	
!S-par simulation data
#  GHz  S  DB  R 50
0.000000	-87.810057	0.000000	-0.000353	0.000000	-0.000353	0.000000	-87.810057	0.000000
0.050000	-32.407635	-93.028975	-0.008432	-2.989592	-0.008432	-2.989592	-32.407582	-93.027164
0.100000	-26.431564	-96.406357	-0.020971	-5.932659	-0.020971	-5.932659	-26.431328	-96.403834
0.150000	-22.977371	-99.414484	-0.036718	-8.866188	-0.036718	-8.866188	-22.977294	-99.410680
0.200000	-20.534875	-102.299804	-0.056843	-11.791614	-0.056843	-11.791614	-20.534835	-102.293968
0.250000	-18.649742	-105.168182	-0.081465	-14.705364	-0.081465	-14.705364	-18.649684	-105.160531
0.300000	-17.121762	-108.034279	-0.110381	-17.604435	-0.110381	-17.604435	-17.121678	-108.024993
0.350000	-15.844145	-110.895420	-0.143416	-20.486040	-0.143416	-20.486040	-15.844040	-110.884590
0.400000	-14.751464	-113.747249	-0.180158	-23.348913	-0.180158	-23.348913	-14.751343	-113.734912
0.450000	-13.801839	-116.585795	-0.220345	-26.191495	-0.220345	-26.191495	-13.801707	-116.571961
0.500000	-12.967503	-119.406899	-0.263830	-29.011381	-0.263830	-29.011381	-12.967363	-119.391569
0.550000	-12.226967	-122.208362	-0.310213	-31.808061	-0.310213	-31.808061	-12.226822	-122.191528
0.600000	-11.564583	-124.988331	-0.359167	-34.580802	-0.359167	-34.580802	-11.564435	-124.969980
0.650000	-10.969177	-127.744459	-0.410443	-37.328032	-0.410443	-37.328032	-10.969028	-127.724577
0.700000	-10.431458	-130.475396	-0.463708	-40.049051	-0.463708	-40.049051	-10.431309	-130.453968
0.750000	-9.943444	-133.180904	-0.518598	-42.744114	-0.518598	-42.744114	-9.943294	-133.157912
0.800000	-9.499350	-135.860010	-0.574811	-45.412600	-0.574811	-45.412600	-9.499201	-135.835436
0.850000	-9.094769	-138.511408	-0.632039	-48.053489	-0.632039	-48.053489	-9.094622	-138.485233
0.900000	-8.724692	-141.136147	-0.689938	-50.668037	-0.689938	-50.668037	-8.724545	-141.108351
0.950000	-8.385606	-143.734268	-0.748214	-53.256441	-0.748214	-53.256441	-8.385461	-143.704831
1.000000	-8.075323	-146.304585	-0.806548	-55.817675	-0.806548	-55.817675	-8.075179	-146.273484
1.050000	-7.790442	-148.848797	-0.864667	-58.353504	-0.864667	-58.353504	-7.790299	-148.816012
1.100000	-7.528648	-151.367555	-0.922308	-60.864641	-0.922308	-60.864641	-7.528506	-151.333062
1.150000	-7.288473	-153.860620	-0.979173	-63.350929	-0.979173	-63.350929	-7.288332	-153.824394
1.200000	-7.067942	-156.329188	-1.035024	-65.813589	-1.035024	-65.813589	-7.067802	-156.291205
1.250000	-6.865247	-158.774651	-1.089667	-68.254016	-1.089667	-68.254016	-6.865108	-158.734883
1.300000	-6.679282	-161.197524	-1.142853	-70.672758	-1.142853	-70.672758	-6.679143	-161.155946
1.350000	-6.509037	-163.598499	-1.194342	-73.070529	-1.194342	-73.070529	-6.508898	-163.555081
1.400000	-6.352996	-165.979492	-1.244024	-75.449210	-1.244024	-75.449210	-6.352856	-165.934205
1.450000	-6.210251	-168.341564	-1.291727	-77.809862	-1.291727	-77.809862	-6.210110	-168.294377
1.500000	-6.080477	-170.685015	-1.337171	-80.152822	-1.337171	-80.152822	-6.080336	-170.635895
1.550000	-5.962341	-173.012067	-1.380343	-82.480252	-1.380343	-82.480252	-5.962199	-172.960978
1.600000	-5.855180	-175.323930	-1.421121	-84.793354	-1.421121	-84.793354	-5.855037	-175.270839
1.650000	-5.758796	-177.621268	-1.459271	-87.092816	-1.459271	-87.092816	-5.758650	-177.566135
1.700000	-5.672394	-179.905786	-1.494762	-89.380310	-1.494762	-89.380310	-5.672246	-179.848573
1.750000	-5.595356	177.821035	-1.527552	-91.657291	-1.527552	-91.657291	-5.595206	177.880371
1.800000	-5.527389	175.558072	-1.557524	-93.924885	-1.557524	-93.924885	-5.527236	175.619573
1.850000	-5.468119	173.304015	-1.584612	-96.184394	-1.584612	-96.184394	-5.467964	173.367728
1.900000	-5.417306	171.057627	-1.608728	-98.437058	-1.608728	-98.437058	-5.417148	171.123600
1.950000	-5.374660	168.817563	-1.629830	-100.684216	-1.629830	-100.684216	-5.374499	168.885850
2.000000	-5.339855	166.582453	-1.647918	-102.927230	-1.647918	-102.927230	-5.339691	166.653106
2.050000	-5.312686	164.351016	-1.662968	-105.167381	-1.662968	-105.167381	-5.312519	164.424093
2.100000	-5.292988	162.121988	-1.674969	-107.405939	-1.674969	-107.405939	-5.292817	162.197549
2.150000	-5.280626	159.894118	-1.683916	-109.644163	-1.683916	-109.644163	-5.280451	159.972227
2.200000	-5.275500	157.666173	-1.689817	-111.883296	-1.689817	-111.883296	-5.275322	157.746898
2.250000	-5.277540	155.436937	-1.692687	-114.124571	-1.692687	-114.124571	-5.277358	155.520349
2.300000	-5.286707	153.205215	-1.692549	-116.369200	-1.692549	-116.369200	-5.286520	153.291391
2.350000	-5.302988	150.969834	-1.689436	-118.618382	-1.689436	-118.618382	-5.302798	151.058853
2.400000	-5.326403	148.729644	-1.683390	-120.873294	-1.683390	-120.873294	-5.326208	148.821592
2.450000	-5.356996	146.483519	-1.674462	-123.135094	-1.674462	-123.135094	-5.356797	146.578487
2.500000	-5.394841	144.230362	-1.662709	-125.404918	-1.662709	-125.404918	-5.394638	144.328447
2.550000	-5.440196	141.968905	-1.648141	-127.684101	-1.648141	-127.684101	-5.439988	142.070211
2.600000	-5.493035	139.698264	-1.630894	-129.973552	-1.630894	-129.973552	-5.492823	139.802901
2.650000	-5.553516	137.417441	-1.611053	-132.274327	-1.611053	-132.274327	-5.553299	137.525526
2.700000	-5.621825	135.125472	-1.588711	-134.587450	-1.588711	-134.587450	-5.621604	135.237131
2.750000	-5.698177	132.821436	-1.563970	-136.913913	-1.563970	-136.913913	-5.697950	132.936801
2.800000	-5.782814	130.504454	-1.536937	-139.254670	-1.536937	-139.254670	-5.782583	130.623669
2.850000	-5.876013	128.173696	-1.507731	-141.610637	-1.507731	-141.610637	-5.875776	128.296914
2.900000	-5.978078	125.828384	-1.476478	-143.982686	-1.476478	-143.982686	-5.977836	125.955770
2.950000	-6.089349	123.467795	-1.443310	-146.371642	-1.443310	-146.371642	-6.089101	123.599527
3.000000	-6.210199	121.091271	-1.408370	-148.778282	-1.408370	-148.778282	-6.209944	121.227538
3.050000	-6.341036	118.698216	-1.371805	-151.203326	-1.371805	-151.203326	-6.340775	118.839224
3.100000	-6.482309	116.288110	-1.333773	-153.647436	-1.333773	-153.647436	-6.482041	116.434081
3.150000	-6.634599	113.860314	-1.294421	-156.111432	-1.294421	-156.111432	-6.634323	114.011492
3.200000	-6.798440	111.414462	-1.253925	-158.595858	-1.253925	-158.595858	-6.798156	111.571111
3.250000	-6.974320	108.950484	-1.212476	-161.100955	-1.212476	-161.100955	-6.974025	109.112890
3.300000	-7.162863	106.468221	-1.170256	-163.627098	-1.170256	-163.627098	-7.162558	106.636693
3.350000	-7.364753	103.967619	-1.127449	-166.174582	-1.127449	-166.174582	-7.364436	104.142498
3.400000	-7.580731	101.448741	-1.084246	-168.743614	-1.084246	-168.743614	-7.580400	101.630400
3.450000	-7.811602	98.911775	-1.040838	-171.334311	-1.040838	-171.334311	-7.811256	99.100624
3.500000	-8.058248	96.357043	-0.997419	-173.946699	-0.997419	-173.946699	-8.057883	96.553533
3.550000	-8.321629	93.785011	-0.954184	-176.580703	-0.954184	-176.580703	-8.321244	93.989644
3.600000	-8.602799	91.196301	-0.911326	-179.236154	-0.911326	-179.236154	-8.602390	91.409634
3.650000	-8.902917	88.591704	-0.869038	178.087222	-0.869038	178.087222	-8.902481	88.814359
3.700000	-9.223265	85.972196	-0.827507	175.389798	-0.827507	175.389798	-9.222796	86.204870
3.750000	-9.565262	83.338957	-0.786920	172.672048	-0.786920	172.672048	-9.564755	83.582435
3.800000	-9.930681	80.693160	-0.747477	169.934133	-0.747477	169.934133	-9.930129	80.948354
3.850000	-10.321098	78.036779	-0.709332	167.177175	-0.709332	167.177175	-10.320492	78.304711
3.900000	-10.738521	75.371786	-0.672646	164.401947	-0.672646	164.401947	-10.737851	75.653626
3.950000	-11.185236	72.700490	-0.637569	161.609307	-0.637569	161.609307	-11.184488	72.997593
4.000000	-11.663871	70.025612	-0.604237	158.800201	-0.604237	158.800201	-11.663028	70.339555
4.050000	-12.177473	67.350370	-0.572776	155.975645	-0.572776	155.975645	-12.176513	67.683005
4.100000	-12.729618	64.678609	-0.543293	153.136723	-0.543293	153.136723	-12.728512	65.032136
4.150000	-13.324547	62.014984	-0.515882	150.284575	-0.515882	150.284575	-13.323259	62.392038
4.200000	-13.967356	59.365219	-0.490620	147.420386	-0.490620	147.420386	-13.965835	59.769000
4.250000	-14.664259	56.736499	-0.467566	144.545377	-0.467566	144.545377	-14.662437	57.170945
4.300000	-15.422954	54.138063	-0.446762	141.660789	-0.446762	141.660789	-15.420736	54.608098
4.350000	-16.253153	51.582128	-0.428230	138.767876	-0.428230	138.767876	-16.250403	52.094018
4.400000	-17.167304	49.086281	-0.412001	135.867821	-0.412001	135.867821	-17.163820	49.648294
4.450000	-18.181810	46.675373	-0.398061	132.961902	-0.398061	132.961902	-18.177285	47.298632
4.500000	-19.319113	44.385047	-0.386353	130.051397	-0.386353	130.051397	-19.313058	45.084795
4.550000	-20.610749	42.272531	-0.376829	127.137469	-0.376829	127.137469	-20.602341	43.070657
4.600000	-22.103083	40.434341	-0.369425	124.221228	-0.369425	124.221228	-22.090841	41.363840
4.650000	-23.868135	39.047856	-0.364060	121.303723	-0.364060	121.303723	-23.849137	40.161648
4.700000	-26.026029	38.479083	-0.360642	118.385930	-0.360642	118.385930	-25.993728	39.869156
4.750000	-28.796324	39.620702	-0.359065	115.468746	-0.359065	115.468746	-28.733068	41.463654
4.800000	-32.619888	45.299763	-0.359213	112.552983	-0.359213	112.552983	-32.462376	47.951731
4.850000	-38.105675	68.250711	-0.360960	109.639360	-0.360960	109.639360	-37.554532	71.519931
4.900000	-39.826459	132.243571	-0.364173	106.728498	-0.364173	106.728498	-39.010722	130.183088
4.950000	-34.341613	165.829552	-0.368713	103.820922	-0.368713	103.820922	-34.088597	163.190414
5.000000	-30.372396	173.744370	-0.374436	100.917054	-0.374436	100.917054	-30.266199	171.958917
5.050000	-27.652321	175.563487	-0.381214	98.017308	-0.381214	98.017308	-27.593252	174.267041
5.100000	-25.636824	175.320941	-0.388874	95.121817	-0.388874	95.121817	-25.598385	174.322557
5.150000	-24.060644	174.122616	-0.397268	92.230697	-0.397268	92.230697	-24.033030	173.322215
5.200000	-22.783474	172.409242	-0.406252	89.343965	-0.406252	89.343965	-22.762256	171.749658
5.250000	-21.723221	170.388594	-0.415682	86.461550	-0.415682	86.461550	-21.706107	169.834561
5.300000	-20.828005	168.170821	-0.425421	83.583291	-0.425421	83.583291	-20.813686	167.699228
5.350000	-20.063063	165.819513	-0.435336	80.708944	-0.435336	80.708944	-20.050734	165.414482
5.400000	-19.404017	163.373804	-0.445302	77.838189	-0.445302	77.838189	-19.393157	163.024017
5.450000	-18.833152	160.858985	-0.455199	74.970633	-0.455199	74.970633	-18.823403	160.556139
5.500000	-18.337214	158.292034	-0.464916	72.105820	-0.464916	72.105820	-18.328324	158.029898
5.550000	-17.906057	155.684681	-0.474353	69.243234	-0.474353	69.243234	-17.897843	155.458505
5.600000	-17.531764	153.045220	-0.483416	66.382308	-0.483416	66.382308	-17.524087	152.851336
5.650000	-17.208448	150.379370	-0.492017	63.522431	-0.492017	63.522431	-17.201200	150.214903
5.700000	-16.931037	147.691561	-0.500082	60.662929	-0.500082	60.662929	-16.924134	147.554286
5.750000	-16.695076	144.985171	-0.507552	57.803106	-0.507552	57.803106	-16.688449	144.873389
5.800000	-16.497258	142.262466	-0.514377	54.942249	-0.514377	54.942249	-16.490853	142.174881
5.850000	-16.334882	139.525098	-0.520517	52.079632	-0.520517	52.079632	-16.328651	139.460749
5.900000	-16.205739	136.774253	-0.525941	49.214514	-0.525941	49.214514	-16.199642	136.732469
5.950000	-16.108027	134.010766	-0.530629	46.346149	-0.530629	46.346149	-16.102028	133.991128
6.000000	-16.040291	131.235205	-0.534571	43.473790	-0.534571	43.473790	-16.034359	131.237525
6.050000	-16.001368	128.447937	-0.537768	40.596700	-0.537768	40.596700	-15.995475	128.472239
6.100000	-15.990356	125.649176	-0.540229	37.714148	-0.540229	37.714148	-15.984474	125.695688
6.150000	-16.006577	122.839025	-0.541974	34.825426	-0.541974	34.825426	-16.000681	122.908176
6.200000	-16.049562	120.017510	-0.543029	31.929843	-0.543029	31.929843	-16.043626	120.109930
6.250000	-16.119030	117.184604	-0.543430	29.026737	-0.543430	29.026737	-16.113030	117.301135
6.300000	-16.215422	114.340004	-0.543209	26.115287	-0.543209	26.115287	-16.209331	114.481736
6.350000	-16.338237	111.483896	-0.542432	23.195061	-0.542432	23.195061	-16.332028	111.652145
6.400000	-16.487706	108.616231	-0.541153	20.265506	-0.541153	20.265506	-16.481351	108.812579
6.450000	-16.664226	105.736988	-0.539437	17.326108	-0.539437	17.326108	-16.657693	105.963315
6.500000	-16.868358	102.846190	-0.537350	14.376399	-0.537350	14.376399	-16.861613	103.104715
6.550000	-17.100838	99.943920	-0.534962	11.415958	-0.534962	11.415958	-17.093843	100.237252
6.600000	-17.362585	97.030336	-0.532347	8.444412	-0.532347	8.444412	-17.355297	97.361535
6.650000	-17.654713	94.105688	-0.529579	5.461436	-0.529579	5.461436	-17.647081	94.478345
6.700000	-17.978719	91.170252	-0.526735	2.466664	-0.526735	2.466664	-17.970682	91.588617
6.750000	-18.336007	88.224598	-0.523893	-0.540085	-0.523893	-0.540085	-18.327497	88.693691
6.800000	-18.728966	85.269122	-0.521131	-3.559322	-0.521131	-3.559322	-18.719897	85.795040
6.850000	-19.158255	82.305395	-0.518510	-6.590191	-0.518510	-6.590191	-19.148526	82.894808
6.900000	-19.626960	79.334168	-0.516100	-9.633130	-0.516100	-9.633130	-19.616447	79.995212
6.950000	-20.139770	76.356101	-0.514001	-12.689674	-0.514001	-12.689674	-20.128308	77.099864
7.000000	-20.697920	73.373834	-0.512231	-15.758011	-0.512231	-15.758011	-20.685312	74.212040
7.050000	-21.305708	70.389282	-0.510837	-18.838135	-0.510837	-18.838135	-21.291698	71.336034
7.100000	-21.969115	67.405288	-0.509930	-21.931733	-0.509930	-21.931733	-21.953353	68.480734
7.150000	-22.692935	64.425557	-0.509507	-25.037522	-0.509507	-25.037522	-22.674963	65.652770
7.200000	-23.484211	61.454254	-0.509578	-28.154989	-0.509578	-28.154989	-23.463414	62.861011
7.250000	-24.351460	58.498428	-0.510207	-31.284968	-0.510207	-31.284968	-24.326957	60.123011
7.300000	-25.304466	55.568089	-0.511431	-34.427833	-0.511431	-34.427833	-25.274973	57.462681
7.350000	-26.357614	52.672408	-0.513197	-37.582293	-0.513197	-37.582293	-26.321279	54.899737
7.400000	-27.529008	49.826864	-0.515509	-40.748423	-0.515509	-40.748423	-27.483002	52.470690
7.450000	-28.834500	47.071530	-0.518454	-43.928341	-0.518454	-43.928341	-28.774036	50.272679
7.500000	-30.310589	44.434444	-0.521918	-47.120051	-0.521918	-47.120051	-30.227885	48.368435
7.550000	-32.003015	41.975631	-0.525882	-50.323713	-0.525882	-50.323713	-31.884259	46.897083
7.600000	-33.963888	39.851043	-0.530376	-53.541044	-0.530376	-53.541044	-33.781247	46.214330
7.650000	-36.294422	38.301822	-0.535338	-56.771725	-0.535338	-56.771725	-35.988363	46.833291
7.700000	-39.179895	37.799422	-0.540706	-60.015340	-0.540706	-60.015340	-38.608164	49.655087
7.750000	-42.950453	39.738303	-0.546458	-63.272876	-0.546458	-63.272876	-41.705480	56.851890
7.800000	-48.234074	49.798074	-0.552578	-66.545868	-0.552578	-66.545868	-44.956639	73.293185
7.850000	-54.400781	94.116438	-0.559010	-69.834456	-0.559010	-69.834456	-46.869420	101.135365
7.900000	-51.692828	152.398206	-0.565717	-73.139281	-0.565717	-73.139281	-46.215272	126.948151
7.950000	-47.801499	166.749244	-0.572684	-76.462107	-0.572684	-76.462107	-44.685120	139.841890
8.000000	-45.819977	169.488076	-0.579881	-79.803181	-0.579881	-79.803181	-43.577785	144.193545
8.050000	-45.161323	168.339144	-0.587311	-83.164627	-0.587311	-83.164627	-43.141361	143.269705
8.100000	-45.639158	165.021339	-0.594981	-86.547415	-0.594981	-86.547415	-43.398697	138.259143
8.150000	-47.552814	158.973147	-0.602917	-89.953041	-0.602917	-89.953041	-44.391246	128.081475
8.200000	-52.305439	143.002654	-0.611180	-93.383993	-0.611180	-93.383993	-45.991516	107.954423
8.250000	-57.796414	51.617496	-0.619831	-96.840958	-0.619831	-96.840958	-46.736219	72.035985
8.300000	-47.119751	-0.097475	-0.628999	-100.327279	-0.628999	-100.327279	-44.042018	33.507304
8.350000	-40.983233	-11.384596	-0.638807	-103.844011	-0.638807	-103.844011	-40.008602	10.163584
8.400000	-36.776821	-17.649116	-0.649440	-107.393595	-0.649440	-107.393595	-36.381166	-3.204211
8.450000	-33.505886	-22.552661	-0.661143	-110.978975	-0.661143	-110.978975	-33.315849	-12.128521
8.500000	-30.811266	-26.940517	-0.674137	-114.601004	-0.674137	-114.601004	-30.709842	-19.025286
8.550000	-28.488659	-31.083167	-0.688823	-118.264014	-0.688823	-118.264014	-28.430380	-24.811392
8.600000	-26.444426	-35.115564	-0.705549	-121.969379	-0.705549	-121.969379	-26.409298	-29.994997
8.650000	-24.612617	-39.101534	-0.724778	-125.719562	-0.724778	-125.719562	-24.590797	-34.822603
8.700000	-22.954592	-43.076096	-0.746920	-129.515275	-0.746920	-129.515275	-22.940843	-39.436602
8.750000	-21.438096	-47.059767	-0.772499	-133.358320	-0.772499	-133.358320	-21.429437	-43.917333
8.800000	-20.029719	-51.069452	-0.802541	-137.255035	-0.802541	-137.255035	-20.024356	-48.314634
8.850000	-18.724973	-55.112599	-0.837396	-141.202234	-0.837396	-141.202234	-18.721824	-52.672760
8.900000	-17.509979	-59.195119	-0.877776	-145.200788	-0.877776	-145.200788	-17.508350	-57.014453
8.950000	-16.371899	-63.322590	-0.924656	-149.252725	-0.924656	-149.252725	-16.371335	-61.356624
9.000000	-15.303086	-67.498014	-0.978961	-153.358048	-0.978961	-153.358048	-15.303285	-65.712098
9.050000	-14.297667	-71.722694	-1.041609	-157.515854	-1.041609	-157.515854	-14.298424	-70.089315
9.100000	-13.351082	-75.996468	-1.113514	-161.724267	-1.113514	-161.724267	-13.352260	-74.493603
9.150000	-12.459082	-80.318543	-1.195708	-165.981193	-1.195708	-165.981193	-12.460586	-78.928089
9.200000	-11.618899	-84.686040	-1.289018	-170.282747	-1.289018	-170.282747	-11.620663	-83.393239
9.250000	-10.827237	-89.096436	-1.394607	-174.625620	-1.394607	-174.625620	-10.829216	-87.888710
9.300000	-10.082535	-93.544060	-1.513038	-179.003656	-1.513038	-179.003656	-10.084697	-92.411105
9.350000	-9.382278	-98.024456	-1.645540	176.588002	-1.645540	176.588002	-9.384599	-96.957199
9.400000	-8.725300	-102.529853	-1.792367	172.157154	-1.792367	172.157154	-8.727761	-101.520809
9.450000	-8.109846	-107.053382	-1.954531	167.710670	-1.954531	167.710670	-8.112431	-106.095861
9.500000	-7.534620	-111.586194	-2.132071	163.257049	-2.132071	163.257049	-7.537313	-110.674573
9.550000	-6.998177	-116.119597	-2.325406	158.804566	-2.325406	158.804566	-7.000960	-115.248896
9.600000	-6.499169	-120.644222	-2.534687	154.361988	-2.534687	154.361988	-6.502024	-119.810054
9.650000	-6.036256	-125.150365	-2.759871	149.938271	-2.759871	149.938271	-6.039162	-124.348853
9.700000	-5.607865	-129.628775	-3.000592	145.541819	-3.000592	145.541819	-5.610798	-128.856529
9.750000	-5.212416	-134.070440	-3.256434	141.180748	-3.256434	141.180748	-5.215349	-133.324455
9.800000	-4.848264	-138.466868	-3.526832	136.862625	-3.526832	136.862625	-4.851170	-137.744477
9.850000	-4.513704	-142.810268	-3.811096	132.594327	-3.811096	132.594327	-4.516551	-142.109097
9.900000	-4.206986	-147.093680	-4.108426	128.381936	-4.108426	128.381936	-4.209744	-146.411617
9.950000	-3.926333	-151.311075	-4.417943	124.230667	-4.417943	124.230667	-3.928968	-150.646240
10.000000	-3.669959	-155.457411	-4.738710	120.144832	-4.738710	120.144832	-3.672437	-154.808125
