! freq	dB(S11)	phase(S11)	dB(S12)	phase(S12)	
!     	dB(S21)	phase(S21)	dB(S22)	phase(S22)	
!S-par simulation data
#  GHz  S  DB  R 50
0.000000	-0.000000	0.000000	-385.908021	0.000000	-385.908021	0.000000	-0.000000	0.000000
0.050000	-0.000124	-0.994129	-110.939432	86.329968	-110.939432	86.329968	-0.000123	-0.994121
0.100000	-0.000490	-1.987954	-105.251237	83.822580	-105.251237	83.822580	-0.000488	-1.987940
0.150000	-0.001084	-2.981190	-102.087096	82.432680	-102.087096	82.432680	-0.001081	-2.981173
0.200000	-0.001884	-3.973600	-99.914696	81.656991	-99.914696	81.656991	-0.001878	-3.973586
0.250000	-0.002875	-4.964913	-98.283139	81.165562	-98.283139	81.165562	-0.002866	-4.964907
0.300000	-0.004010	-5.955070	-96.994244	80.780646	-96.994244	80.780646	-0.003999	-5.955077
0.350000	-0.005270	-6.943921	-95.958963	80.463651	-95.958963	80.463651	-0.005257	-6.943945
0.400000	-0.006626	-7.931396	-95.123884	80.211008	-95.123884	80.211008	-0.006611	-7.931442
0.450000	-0.008053	-8.917463	-94.456116	80.042948	-94.456116	80.042948	-0.008036	-8.917532
0.500000	-0.009528	-9.902114	-93.934534	79.993368	-93.934534	79.993368	-0.009510	-9.902208
0.550000	-0.011032	-10.885363	-93.545486	80.107434	-93.545486	80.107434	-0.011015	-10.885481
0.600000	-0.012550	-11.867233	-93.280436	80.443243	-93.280436	80.443243	-0.012533	-11.867376
0.650000	-0.014070	-12.847756	-93.134488	81.076311	-93.134488	81.076311	-0.014054	-12.847920
0.700000	-0.015583	-13.826962	-93.105219	82.106930	-93.105219	82.106930	-0.015569	-13.827147
0.750000	-0.017084	-14.804882	-93.191367	83.671093	-93.191367	83.671093	-0.017070	-14.805085
0.800000	-0.018566	-15.781541	-93.390735	85.955822	-93.390735	85.955822	-0.018555	-15.781759
0.850000	-0.020029	-16.756957	-93.696227	89.218491	-93.696227	89.218491	-0.020019	-16.757189
0.900000	-0.021471	-17.731145	-94.088090	93.804039	-94.088090	93.804039	-0.021462	-17.731388
0.950000	-0.022891	-18.704112	-94.519709	100.136902	-94.519709	100.136902	-0.022884	-18.704364
1.000000	-0.024290	-19.675859	-94.896472	108.628626	-94.896472	108.628626	-0.024284	-19.676119
1.050000	-0.025669	-20.646382	-95.060462	119.413467	-95.060462	119.413467	-0.025665	-20.646649
1.100000	-0.027029	-21.615672	-94.821069	131.929267	-94.821069	131.929267	-0.027026	-21.615945
1.150000	-0.028371	-22.583717	-94.063470	144.741710	-94.063470	144.741710	-0.028369	-22.583994
1.200000	-0.029697	-23.550499	-92.846709	156.186685	-92.846709	156.186685	-0.029696	-23.550781
1.250000	-0.031009	-24.515999	-91.352169	165.337855	-91.352169	165.337855	-0.031008	-24.516285
1.300000	-0.032307	-25.480137	-89.742836	172.082179	-89.742836	172.082179	-0.032307	-25.480427
1.350000	-0.033594	-26.442944	-88.146794	176.943635	-88.146794	176.943635	-0.033594	-26.443239
1.400000	-0.034870	-27.404397	-86.614496	-179.630011	-86.614496	-179.630011	-0.034870	-27.404695
1.450000	-0.036137	-28.364467	-85.164517	-177.273406	-85.164517	-177.273406	-0.036138	-28.364770
1.500000	-0.037397	-29.323127	-83.799870	-175.713792	-83.799870	-175.713792	-0.037397	-29.323435
1.550000	-0.038649	-30.280350	-82.516771	-174.753720	-82.516771	-174.753720	-0.038650	-30.280664
1.600000	-0.039896	-31.236107	-81.308898	-174.251012	-81.308898	-174.251012	-0.039897	-31.236428
1.650000	-0.041138	-32.190371	-80.169348	-174.102597	-80.169348	-174.102597	-0.041138	-32.190698
1.700000	-0.042376	-33.143114	-79.091485	-174.232837	-79.091485	-174.232837	-0.042376	-33.143447
1.750000	-0.043610	-34.094307	-78.069255	-174.585425	-78.069255	-174.585425	-0.043610	-34.094648
1.800000	-0.044842	-35.043923	-77.097276	-175.117815	-77.097276	-175.117815	-0.044842	-35.044272
1.850000	-0.046072	-35.991934	-76.170812	-175.797386	-76.170812	-175.797386	-0.046071	-35.992292
1.900000	-0.047300	-36.938316	-75.285720	-176.598775	-75.285720	-176.598775	-0.047299	-36.938682
1.950000	-0.048528	-37.883040	-74.438370	-177.502008	-74.438370	-177.502008	-0.048527	-37.883415
2.000000	-0.049755	-38.826082	-73.625584	-178.491162	-73.625584	-178.491162	-0.049754	-38.826467
2.050000	-0.050983	-39.767417	-72.844568	-179.553398	-72.844568	-179.553398	-0.050981	-39.767811
2.100000	-0.052211	-40.707020	-72.092855	179.321740	-72.092855	179.321740	-0.052209	-40.707425
2.150000	-0.053440	-41.644868	-71.368264	178.142853	-71.368264	178.142853	-0.053438	-41.645283
2.200000	-0.054671	-42.580938	-70.668855	176.917074	-70.668855	176.917074	-0.054669	-42.581364
2.250000	-0.055904	-43.515209	-69.992897	175.650373	-69.992897	175.650373	-0.055902	-43.515645
2.300000	-0.057140	-44.447658	-69.338837	174.347781	-69.338837	174.347781	-0.057138	-44.448105
2.350000	-0.058379	-45.378265	-68.705283	173.013569	-68.705283	173.013569	-0.058376	-45.378723
2.400000	-0.059621	-46.307011	-68.090974	171.651384	-68.090974	171.651384	-0.059618	-46.307480
2.450000	-0.060867	-47.233876	-67.494771	170.264365	-67.494771	170.264365	-0.060865	-47.234355
2.500000	-0.062118	-48.158841	-66.915637	168.855223	-66.915637	168.855223	-0.062115	-48.159332
2.550000	-0.063373	-49.081806	-66.351749	167.425552	-66.351749	167.425552	-0.063371	-49.082307
2.600000	-0.064634	-50.002836	-65.803217	165.978337	-65.803217	165.978337	-0.064631	-50.003348
2.650000	-0.065900	-50.921914	-65.269239	164.515354	-65.269239	164.515354	-0.065898	-50.922438
2.700000	-0.067173	-51.839027	-64.749078	163.038174	-64.749078	163.038174	-0.067171	-51.839561
2.750000	-0.068452	-52.754160	-64.242057	161.548187	-64.242057	161.548187	-0.068450	-52.754705
2.800000	-0.069739	-53.667299	-63.747549	160.046631	-63.747549	160.046631	-0.069737	-53.667855
2.850000	-0.071032	-54.578432	-63.264974	158.534611	-63.264974	158.534611	-0.071031	-54.578998
2.900000	-0.072334	-55.487546	-62.793795	157.013116	-62.793795	157.013116	-0.072333	-55.488122
2.950000	-0.073645	-56.394631	-62.333511	155.483037	-62.333511	155.483037	-0.073644	-56.395217
3.000000	-0.074964	-57.299675	-61.883656	153.945175	-61.883656	153.945175	-0.074963	-57.300272
3.050000	-0.076293	-58.202670	-61.443797	152.400255	-61.443797	152.400255	-0.076292	-58.203277
3.100000	-0.077632	-59.103606	-61.013527	150.848932	-61.013527	150.848932	-0.077631	-59.104223
3.150000	-0.078982	-60.002476	-60.592465	149.291805	-60.592465	149.291805	-0.078981	-60.003103
3.200000	-0.080342	-60.899272	-60.180254	147.729416	-60.180254	147.729416	-0.080341	-60.899909
3.250000	-0.081713	-61.793987	-59.776560	146.162262	-59.776560	146.162262	-0.081713	-61.794634
3.300000	-0.083097	-62.686617	-59.381066	144.590795	-59.381066	144.590795	-0.083097	-62.687273
3.350000	-0.084493	-63.577155	-58.993475	143.015432	-58.993475	143.015432	-0.084493	-63.577821
3.400000	-0.085902	-64.465597	-58.613507	141.436555	-58.613507	141.436555	-0.085902	-64.466273
3.450000	-0.087324	-65.351941	-58.240897	139.854514	-58.240897	139.854514	-0.087324	-65.352627
3.500000	-0.088760	-66.236183	-57.875394	138.269634	-57.875394	138.269634	-0.088760	-66.236878
3.550000	-0.090210	-67.118321	-57.516760	136.682213	-57.516760	136.682213	-0.090211	-67.119026
3.600000	-0.091676	-67.998354	-57.164770	135.092528	-57.164770	135.092528	-0.091676	-67.999069
3.650000	-0.093156	-68.876282	-56.819211	133.500834	-56.819211	133.500834	-0.093157	-68.877006
3.700000	-0.094653	-69.752104	-56.479880	131.907368	-56.479880	131.907368	-0.094654	-69.752838
3.750000	-0.096166	-70.625822	-56.146582	130.312350	-56.146582	130.312350	-0.096167	-70.626565
3.800000	-0.097696	-71.497346	-55.818855	128.715935	-55.818855	128.715935	-0.097697	-71.498098
3.850000	-0.099244	-72.366770	-55.496824	127.118379	-55.496824	127.118379	-0.099245	-72.367531
3.900000	-0.100810	-73.234097	-55.180321	125.519857	-55.180321	125.519857	-0.100811	-73.234868
3.950000	-0.102394	-74.099330	-54.869185	123.920532	-54.869185	123.920532	-0.102395	-74.100111
4.000000	-0.103997	-74.962475	-54.563262	122.320559	-54.563262	122.320559	-0.103998	-74.963265
4.050000	-0.105620	-75.823537	-54.262405	120.720079	-54.262405	120.720079	-0.105621	-75.824337
4.100000	-0.107262	-76.682521	-53.966475	119.119226	-53.966475	119.119226	-0.107263	-76.683330
4.150000	-0.108925	-77.539435	-53.675335	117.518125	-53.675335	117.518125	-0.108926	-77.540253
4.200000	-0.110609	-78.394285	-53.388858	115.916893	-53.388858	115.916893	-0.110610	-78.395113
4.250000	-0.112314	-79.247079	-53.106919	114.315639	-53.106919	114.315639	-0.112315	-79.247916
4.300000	-0.114041	-80.097826	-52.829400	112.714468	-52.829400	112.714468	-0.114042	-80.098673
4.350000	-0.115790	-80.946535	-52.556187	111.113475	-52.556187	111.113475	-0.115791	-80.947392
4.400000	-0.117562	-81.793215	-52.287171	109.512750	-52.287171	109.512750	-0.117563	-81.794082
4.450000	-0.119357	-82.637878	-52.022247	107.912381	-52.022247	107.912381	-0.119358	-82.638755
4.500000	-0.121176	-83.480535	-51.761313	106.312445	-51.761313	106.312445	-0.121177	-83.481421
4.550000	-0.123019	-84.321196	-51.504273	104.713020	-51.504273	104.713020	-0.123020	-84.322093
4.600000	-0.124887	-85.159875	-51.251032	103.114175	-51.251032	103.114175	-0.124888	-85.160782
4.650000	-0.126780	-85.996584	-51.001502	101.515979	-51.001502	101.515979	-0.126781	-85.997501
4.700000	-0.128699	-86.831337	-50.755594	99.918493	-50.755594	99.918493	-0.128699	-86.832264
4.750000	-0.130644	-87.664147	-50.513225	98.321778	-50.513225	98.321778	-0.130644	-87.665084
4.800000	-0.132615	-88.495030	-50.274315	96.725889	-50.274315	96.725889	-0.132615	-88.495977
4.850000	-0.134614	-89.324000	-50.038784	95.130880	-50.038784	95.130880	-0.134614	-89.324957
4.900000	-0.136640	-90.151074	-49.806559	93.536800	-49.806559	93.536800	-0.136640	-90.152041
4.950000	-0.138694	-90.976266	-49.577567	91.943697	-49.577567	91.943697	-0.138693	-90.977244
5.000000	-0.140776	-91.799596	-49.351736	90.351614	-49.351736	90.351614	-0.140776	-91.800584
5.050000	-0.142903	-92.620046	-49.127529	88.761221	-49.127529	88.761221	-0.142903	-92.621045
5.100000	-0.145031	-93.440496	-48.908963	87.170828	-48.908963	87.170828	-0.145031	-93.441505
5.150000	-0.147216	-94.257489	-48.691072	85.582626	-48.691072	85.582626	-0.147215	-94.258509
5.200000	-0.149406	-95.074167	-48.478097	83.994624	-48.478097	83.994624	-0.149405	-95.075197
5.250000	-0.151649	-95.887772	-48.266240	82.408739	-48.266240	82.408739	-0.151648	-95.888813
5.300000	-0.153903	-96.700763	-48.058650	80.823278	-48.058650	80.823278	-0.153903	-96.701814
5.350000	-0.156207	-97.511053	-47.852562	79.239824	-47.852562	79.239824	-0.156206	-97.512115
5.400000	-0.158527	-98.320444	-47.650163	77.657039	-47.650163	77.657039	-0.158526	-98.321516
5.450000	-0.160892	-99.127497	-47.449599	76.076119	-47.449599	76.076119	-0.160891	-99.128580
5.500000	-0.163280	-99.933381	-47.252206	74.496132	-47.252206	74.496132	-0.163279	-99.934474
5.550000	-0.165709	-100.737276	-47.056936	72.917839	-47.056936	72.917839	-0.165708	-100.738380
5.600000	-0.168166	-101.539750	-46.864377	71.340757	-46.864377	71.340757	-0.168166	-101.540865
5.650000	-0.170660	-102.340569	-46.674184	69.765177	-46.674184	69.765177	-0.170659	-102.341695
5.700000	-0.173189	-103.139734	-46.486294	68.191099	-46.486294	68.191099	-0.173188	-103.140871
5.750000	-0.175749	-103.937565	-46.300975	66.618309	-46.300975	66.618309	-0.175748	-103.938711
5.800000	-0.178352	-104.733526	-46.117599	65.047323	-46.117599	65.047323	-0.178351	-104.734683
5.850000	-0.180979	-105.528455	-45.936965	63.477394	-45.936965	63.477394	-0.180979	-105.529623
5.900000	-0.183657	-106.321321	-45.757955	61.909579	-45.757955	61.909579	-0.183656	-106.322500
5.950000	-0.186354	-107.113441	-45.581826	60.342575	-45.581826	60.342575	-0.186353	-107.114631
6.000000	-0.189109	-107.903325	-45.407041	58.778004	-45.407041	58.778004	-0.189108	-107.904524
6.050000	-0.191877	-108.692730	-45.235248	57.213983	-45.235248	57.213983	-0.191876	-108.693940
6.100000	-0.194710	-109.479746	-45.064555	55.652719	-45.064555	55.652719	-0.194709	-109.480967
6.150000	-0.197550	-110.266534	-44.896940	54.091736	-44.896940	54.091736	-0.197549	-110.267765
6.200000	-0.200463	-111.050803	-44.730212	52.533837	-44.730212	52.533837	-0.200462	-111.052044
6.250000	-0.203377	-111.835072	-44.566624	50.975939	-44.566624	50.975939	-0.203377	-111.836324
6.300000	-0.206372	-112.616716	-44.403740	49.421459	-44.403740	49.421459	-0.206371	-112.617979
6.350000	-0.209368	-113.398361	-44.243854	47.866978	-44.243854	47.866978	-0.209367	-113.399633
6.400000	-0.212440	-114.177715	-44.084882	46.315672	-44.084882	46.315672	-0.212439	-114.178998
6.450000	-0.215519	-114.956861	-43.928591	44.764656	-43.928591	44.764656	-0.215518	-114.958154
6.500000	-0.218668	-115.734033	-43.773394	43.216559	-43.773394	43.216559	-0.218668	-115.735337
6.550000	-0.221833	-116.510810	-43.620593	41.669047	-43.620593	41.669047	-0.221832	-116.512124
6.600000	-0.225061	-117.285909	-43.469043	40.124189	-43.469043	40.124189	-0.225061	-117.287233
6.650000	-0.228312	-118.060450	-43.319635	38.580216	-43.319635	38.580216	-0.228312	-118.061784
6.700000	-0.231622	-118.833589	-43.171608	37.038623	-43.171608	37.038623	-0.231622	-118.834934
6.750000	-0.234961	-119.606028	-43.025498	35.498220	-43.025498	35.498220	-0.234961	-119.607383
6.800000	-0.238352	-120.377322	-42.880878	33.959913	-42.880878	33.959913	-0.238352	-120.378687
6.850000	-0.241780	-121.147798	-42.737976	32.423104	-42.737976	32.423104	-0.241780	-121.149173
6.900000	-0.245254	-121.917364	-42.596655	30.888101	-42.596655	30.888101	-0.245255	-121.918749
6.950000	-0.248774	-122.686019	-42.456874	29.354905	-42.456874	29.354905	-0.248774	-122.687414
7.000000	-0.252332	-123.453975	-42.318745	27.823221	-42.318745	27.823221	-0.252332	-123.455379
7.050000	-0.255944	-124.220952	-42.182003	26.293652	-42.182003	26.293652	-0.255944	-124.222367
7.100000	-0.259587	-124.987419	-42.046967	24.765295	-42.046967	24.765295	-0.259588	-124.988844
7.150000	-0.263293	-125.752866	-41.913185	23.239362	-41.913185	23.239362	-0.263293	-125.754302
7.200000	-0.267023	-126.517968	-41.781147	21.714338	-41.781147	21.714338	-0.267023	-126.519414
7.250000	-0.270823	-127.282035	-41.650248	20.192043	-41.650248	20.192043	-0.270824	-127.283490
7.300000	-0.274641	-128.045897	-41.521120	18.670354	-41.521120	18.670354	-0.274641	-128.047363
7.350000	-0.278537	-128.808736	-41.393031	17.151694	-41.393031	17.151694	-0.278538	-128.810211
7.400000	-0.282444	-129.571485	-41.266726	15.633337	-41.266726	15.633337	-0.282444	-129.572971
7.450000	-0.286437	-130.333251	-41.141379	14.118303	-41.141379	14.118303	-0.286438	-130.334747
7.500000	-0.290433	-131.095016	-41.017815	12.603270	-41.017815	12.603270	-0.290434	-131.096523
7.550000	-0.294525	-131.855867	-40.895142	11.091848	-40.895142	11.091848	-0.294526	-131.857384
7.600000	-0.298620	-132.616718	-40.774178	9.580426	-40.774178	9.580426	-0.298620	-132.618246
7.650000	-0.302803	-133.376878	-40.654181	8.072295	-40.654181	8.072295	-0.302804	-133.378416
7.700000	-0.306997	-134.136974	-40.535756	6.564464	-40.535756	6.564464	-0.306998	-134.138523
7.750000	-0.311273	-134.896578	-40.418360	5.059602	-40.418360	5.059602	-0.311274	-134.898138
7.800000	-0.315567	-135.656084	-40.302418	3.555334	-40.302418	3.555334	-0.315568	-135.657655
7.850000	-0.319937	-136.415271	-40.187552	2.053713	-40.187552	2.053713	-0.319938	-136.416852
7.900000	-0.324333	-137.174351	-40.074038	0.552974	-40.074038	0.552974	-0.324333	-137.175944
7.950000	-0.328796	-137.933261	-39.961636	-0.945437	-39.961636	-0.945437	-0.328796	-137.934865
8.000000	-0.333294	-138.692084	-39.850497	-2.442686	-39.850497	-2.442686	-0.333295	-138.693700
8.050000	-0.337851	-139.450858	-39.740497	-3.937925	-39.740497	-3.937925	-0.337852	-139.452486
8.100000	-0.342453	-140.209597	-39.631684	-5.431729	-39.631684	-5.431729	-0.342453	-140.211236
8.150000	-0.347106	-140.968379	-39.524025	-6.923836	-39.524025	-6.923836	-0.347106	-140.970031
8.200000	-0.351810	-141.727206	-39.417492	-8.414248	-39.417492	-8.414248	-0.351811	-141.728870
8.250000	-0.356559	-142.486143	-39.312117	-9.903270	-39.312117	-9.903270	-0.356560	-142.487819
8.300000	-0.361368	-143.245235	-39.207821	-11.390347	-39.207821	-11.390347	-0.361369	-143.246924
8.350000	-0.366213	-144.004474	-39.104678	-12.876333	-39.104678	-12.876333	-0.366214	-144.006177
8.400000	-0.371127	-144.764010	-39.002577	-14.360139	-39.002577	-14.360139	-0.371128	-144.765726
8.450000	-0.376069	-145.523703	-38.901615	-15.843145	-38.901615	-15.843145	-0.376069	-145.525432
8.500000	-0.381088	-146.283864	-38.801672	-17.323748	-38.801672	-17.323748	-0.381088	-146.285608
8.550000	-0.386126	-147.044161	-38.702844	-18.803830	-38.702844	-18.803830	-0.386127	-147.045919
8.600000	-0.391251	-147.805134	-38.605023	-20.281305	-38.605023	-20.281305	-0.391251	-147.806906
8.650000	-0.396387	-148.566189	-38.508286	-21.758526	-38.508286	-21.758526	-0.396387	-148.567977
8.700000	-0.401617	-149.328159	-38.412556	-23.232951	-38.412556	-23.232951	-0.401617	-149.329963
8.750000	-0.406850	-150.090130	-38.317869	-24.707375	-38.317869	-24.707375	-0.406850	-150.091949
8.800000	-0.412186	-150.853288	-38.224200	-26.178832	-38.224200	-26.178832	-0.412186	-150.855124
8.850000	-0.417525	-151.616447	-38.131530	-27.650288	-38.131530	-27.650288	-0.417525	-151.618299
8.900000	-0.422957	-152.380871	-38.039891	-29.119102	-38.039891	-29.119102	-0.422958	-152.382740
8.950000	-0.428402	-153.145410	-37.949214	-30.587676	-37.949214	-30.587676	-0.428403	-153.147297
9.000000	-0.433932	-153.911263	-37.859572	-32.053920	-37.859572	-32.053920	-0.433933	-153.913169
9.050000	-0.439482	-154.677379	-37.770866	-33.519698	-37.770866	-33.519698	-0.439483	-154.679304
9.100000	-0.445109	-155.444826	-37.683192	-34.983447	-37.683192	-34.983447	-0.445109	-155.446771
9.150000	-0.450763	-156.212717	-37.596438	-36.446520	-37.596438	-36.446520	-0.450764	-156.214681
9.200000	-0.456486	-156.981926	-37.510704	-37.907848	-37.510704	-37.907848	-0.456487	-156.983911
9.250000	-0.462246	-157.751793	-37.425888	-39.368305	-37.425888	-39.368305	-0.462247	-157.753800
9.300000	-0.468064	-158.522933	-37.342070	-40.827289	-37.342070	-40.827289	-0.468066	-158.524961
9.350000	-0.473927	-159.294981	-37.259179	-42.285219	-37.259179	-42.285219	-0.473929	-159.297032
9.400000	-0.479841	-160.068223	-37.177257	-43.741931	-37.177257	-43.741931	-0.479843	-160.070297
9.450000	-0.485806	-160.842659	-37.096282	-45.197423	-37.096282	-45.197423	-0.485809	-160.844758
9.500000	-0.491815	-161.618177	-37.016237	-46.651936	-37.016237	-46.651936	-0.491817	-161.620301
9.550000	-0.497881	-162.395211	-36.937174	-48.105075	-36.937174	-48.105075	-0.497884	-162.397360
9.600000	-0.503983	-163.173181	-36.858990	-49.557458	-36.858990	-49.557458	-0.503986	-163.175357
9.650000	-0.510150	-163.953026	-36.781835	-51.008326	-36.781835	-51.008326	-0.510154	-163.955229
9.700000	-0.516343	-164.733627	-36.705502	-52.458645	-36.705502	-52.458645	-0.516348	-164.735858
9.750000	-0.522609	-165.516497	-36.630257	-53.907317	-36.630257	-53.907317	-0.522614	-165.518759
9.800000	-0.528893	-166.299909	-36.555764	-55.355635	-36.555764	-55.355635	-0.528899	-166.302200
9.850000	-0.535255	-167.086025	-36.482432	-56.802180	-36.482432	-56.802180	-0.535261	-167.088348
9.900000	-0.541629	-167.872430	-36.409773	-58.248553	-36.409773	-58.248553	-0.541636	-167.874784
9.950000	-0.548085	-168.662013	-36.338361	-59.693031	-36.338361	-59.693031	-0.548093	-168.664401
10.000000	-0.554547	-169.451595	-36.267532	-61.137509	-36.267532	-61.137509	-0.554555	-169.454017
