! freq	dB(S11)	phase(S11)	dB(S12)	phase(S12)	
!     	dB(S21)	phase(S21)	dB(S22)	phase(S22)	
!S-par simulation data
#  GHz  S  DB  R 50
0.000000	-0.000000	-0.000000	-368.374819	180.000000	-368.374819	180.000000	-0.000000	0.000000
0.050000	-0.000105	-0.863012	-106.033290	44.451318	-106.033290	44.451318	-0.000105	-0.862993
0.100000	-0.000416	-1.725778	-104.345991	43.441730	-104.345991	43.441730	-0.000416	-1.725741
0.150000	-0.000922	-2.588068	-103.120796	48.220566	-103.120796	48.220566	-0.000921	-2.588014
0.200000	-0.001603	-3.449691	-101.979651	53.002365	-101.979651	53.002365	-0.001602	-3.449619
0.250000	-0.002449	-4.310425	-100.943449	56.860882	-100.943449	56.860882	-0.002448	-4.310337
0.300000	-0.003421	-5.170222	-100.037848	59.920062	-100.037848	59.920062	-0.003419	-5.170119
0.350000	-0.004501	-6.028960	-99.267596	62.328446	-99.267596	62.328446	-0.004500	-6.028842
0.400000	-0.005668	-6.886581	-98.631524	64.276281	-98.631524	64.276281	-0.005666	-6.886449
0.450000	-0.006898	-7.743060	-98.125941	65.927030	-98.125941	65.927030	-0.006896	-7.742913
0.500000	-0.008173	-8.598393	-97.747498	67.420303	-97.747498	67.420303	-0.008171	-8.598233
0.550000	-0.009475	-9.452594	-97.494494	68.882933	-97.494494	68.882933	-0.009474	-9.452420
0.600000	-0.010793	-10.305689	-97.367392	70.441913	-97.367392	70.441913	-0.010792	-10.305500
0.650000	-0.012115	-11.157707	-97.368915	72.239128	-97.368915	72.239128	-0.012113	-11.157504
0.700000	-0.013432	-12.008683	-97.503661	74.449989	-97.503661	74.449989	-0.013431	-12.008465
0.750000	-0.014739	-12.858647	-97.776760	77.309446	-97.776760	77.309446	-0.014739	-12.858413
0.800000	-0.016032	-13.707629	-98.190245	81.149239	-98.190245	81.149239	-0.016032	-13.707380
0.850000	-0.017309	-14.555652	-98.733887	86.445988	-98.733887	86.445988	-0.017309	-14.555388
0.900000	-0.018567	-15.402738	-99.363970	93.854862	-99.363970	93.854862	-0.018567	-15.402457
0.950000	-0.019807	-16.248899	-99.962198	104.121418	-99.962198	104.121418	-0.019807	-16.248602
1.000000	-0.021028	-17.094145	-100.289319	117.635376	-100.289319	117.635376	-0.021029	-17.093831
1.050000	-0.022232	-17.938480	-100.027158	133.552356	-100.027158	133.552356	-0.022233	-17.938150
1.100000	-0.023419	-18.781904	-99.013242	149.398081	-99.013242	149.398081	-0.023420	-18.781558
1.150000	-0.024591	-19.624414	-97.424635	162.614804	-97.424635	162.614804	-0.024592	-19.624051
1.200000	-0.025748	-20.466001	-95.585788	172.372756	-95.585788	172.372756	-0.025750	-20.465622
1.250000	-0.026893	-21.306657	-93.725559	179.182446	-93.725559	179.182446	-0.026895	-21.306261
1.300000	-0.028026	-22.146325	-91.937831	-176.220235	-91.937831	-176.220235	-0.028028	-22.145914
1.350000	-0.029149	-22.985033	-90.268927	-173.084046	-90.268927	-173.084046	-0.029151	-22.984606
1.400000	-0.030263	-23.822763	-88.719102	-170.979166	-88.719102	-170.979166	-0.030265	-23.822321
1.450000	-0.031370	-24.659498	-87.278872	-169.615838	-87.278872	-169.615838	-0.031372	-24.659042
1.500000	-0.032470	-25.495220	-85.936366	-168.797795	-85.936366	-168.797795	-0.032472	-25.494749
1.550000	-0.033565	-26.329908	-84.680080	-168.389904	-84.680080	-168.389904	-0.033566	-26.329423
1.600000	-0.034655	-27.163544	-83.499758	-168.297179	-83.499758	-168.297179	-0.034656	-27.163044
1.650000	-0.035741	-27.996106	-82.386554	-168.451402	-82.386554	-168.451402	-0.035743	-27.995593
1.700000	-0.036824	-28.827184	-81.309103	-168.853764	-81.309103	-168.853764	-0.036825	-28.826658
1.750000	-0.037905	-29.657685	-80.319212	-169.345207	-80.319212	-169.345207	-0.037906	-29.657145
1.800000	-0.038985	-30.486793	-79.362416	-169.985315	-79.362416	-169.985315	-0.038986	-30.486241
1.850000	-0.040064	-31.314908	-78.456763	-170.731611	-78.456763	-170.731611	-0.040064	-31.314344
1.900000	-0.041142	-32.141785	-77.587017	-171.566386	-77.587017	-171.566386	-0.041143	-32.141209
1.950000	-0.042220	-32.967425	-76.751386	-172.489639	-76.751386	-172.489639	-0.042221	-32.966837
2.000000	-0.043299	-33.791998	-75.953487	-173.466290	-75.953487	-173.466290	-0.043300	-33.791399
2.050000	-0.044379	-34.615077	-75.177085	-174.517699	-75.177085	-174.517699	-0.044379	-34.614466
2.100000	-0.045460	-35.437498	-74.445893	-175.594148	-74.445893	-175.594148	-0.045460	-35.436877
2.150000	-0.046542	-36.258213	-73.727126	-176.732848	-73.727126	-176.732848	-0.046543	-36.257581
2.200000	-0.047628	-37.077636	-73.032258	-177.910291	-73.032258	-177.910291	-0.047628	-37.076994
2.250000	-0.048715	-37.895750	-72.359680	-179.122060	-72.359680	-179.122060	-0.048716	-37.895098
2.300000	-0.049806	-38.712537	-71.707952	179.635613	-71.707952	179.635613	-0.049807	-38.711875
2.350000	-0.050900	-39.527980	-71.075781	178.365961	-71.075781	178.365961	-0.050901	-39.527308
2.400000	-0.051998	-40.342063	-70.461995	177.071778	-70.461995	177.071778	-0.051998	-40.341382
2.450000	-0.053099	-41.154769	-69.865537	175.755494	-69.865537	175.755494	-0.053100	-41.154078
2.500000	-0.054205	-41.966082	-69.285440	174.419234	-69.285440	174.419234	-0.054206	-41.965382
2.550000	-0.055316	-42.775926	-68.719910	173.064156	-68.719910	173.064156	-0.055317	-42.775217
2.600000	-0.056432	-43.584345	-68.169150	171.692750	-68.169150	171.692750	-0.056433	-43.583628
2.650000	-0.057554	-44.391327	-67.632413	170.306460	-67.632413	170.306460	-0.057555	-44.390602
2.700000	-0.058681	-45.196857	-67.109008	168.906575	-67.109008	168.906575	-0.058682	-45.196123
2.750000	-0.059815	-46.000921	-66.598301	167.494249	-66.598301	167.494249	-0.059816	-46.000179
2.800000	-0.060955	-46.803508	-66.099705	166.070522	-66.099705	166.070522	-0.060956	-46.802758
2.850000	-0.062102	-47.604604	-65.612675	164.636334	-65.612675	164.636334	-0.062103	-47.603846
2.900000	-0.063256	-48.404197	-65.136705	163.192536	-65.136705	163.192536	-0.063258	-48.403432
2.950000	-0.064418	-49.202277	-64.671325	161.739903	-64.671325	161.739903	-0.064420	-49.201504
3.000000	-0.065587	-49.998833	-64.216096	160.279141	-64.216096	160.279141	-0.065590	-49.998052
3.050000	-0.066766	-50.793853	-63.770606	158.810897	-63.770606	158.810897	-0.066768	-50.793065
3.100000	-0.067953	-51.587328	-63.334472	157.335762	-63.334472	157.335762	-0.067955	-51.586533
3.150000	-0.069149	-52.379248	-62.907333	155.854284	-62.907333	155.854284	-0.069151	-52.378446
3.200000	-0.070355	-53.169605	-62.488850	154.366964	-62.488850	154.366964	-0.070357	-53.168796
3.250000	-0.071570	-53.958390	-62.078705	152.874267	-62.078705	152.874267	-0.071573	-53.957574
3.300000	-0.072796	-54.745594	-61.676596	151.376624	-61.676596	151.376624	-0.072800	-54.744771
3.350000	-0.074035	-55.530932	-61.280482	149.873753	-61.280482	149.873753	-0.074039	-55.530103
3.400000	-0.075286	-56.314605	-60.891587	148.366536	-60.891587	148.366536	-0.075289	-56.313770
3.450000	-0.076543	-57.097441	-60.514514	146.857449	-60.514514	146.857449	-0.076546	-57.096599
3.500000	-0.077818	-57.877761	-60.139199	145.342755	-60.139199	145.342755	-0.077822	-57.876914
3.550000	-0.079099	-58.657519	-59.776445	143.827030	-59.776445	143.827030	-0.079102	-58.656666
3.600000	-0.080401	-59.434463	-59.413902	142.306148	-59.413902	142.306148	-0.080405	-59.433604
3.650000	-0.081706	-60.211124	-59.064504	140.784843	-59.064504	140.784843	-0.081710	-60.210259
3.700000	-0.083037	-60.984671	-58.713996	139.258895	-58.713996	139.258895	-0.083041	-60.983800
3.750000	-0.084368	-61.758218	-58.377086	137.732947	-58.377086	137.732947	-0.084372	-61.757341
3.800000	-0.085729	-62.528352	-58.037942	136.202916	-58.037942	136.202916	-0.085734	-62.527470
3.850000	-0.087091	-63.298486	-57.711543	134.672885	-57.711543	134.672885	-0.087096	-63.297599
3.900000	-0.088482	-64.065481	-57.384337	133.139901	-57.384337	133.139901	-0.088487	-64.064589
3.950000	-0.089877	-64.832191	-57.067904	131.606650	-57.067904	131.606650	-0.089881	-64.831294
4.000000	-0.091299	-65.596041	-56.751901	130.071348	-56.751901	130.071348	-0.091304	-65.595139
4.050000	-0.092728	-66.359319	-56.444929	128.535637	-56.444929	128.535637	-0.092733	-66.358412
4.100000	-0.094183	-67.120020	-56.139462	126.998583	-56.139462	126.998583	-0.094188	-67.119109
4.150000	-0.095648	-67.879863	-55.841483	125.461083	-55.841483	125.461083	-0.095653	-67.878948
4.200000	-0.097138	-68.637417	-55.545939	123.922784	-55.545939	123.922784	-0.097144	-68.636497
4.250000	-0.098641	-69.393825	-55.256519	122.384086	-55.256519	122.384086	-0.098647	-69.392901
4.300000	-0.100168	-70.148233	-54.970338	120.844996	-54.970338	120.844996	-0.100173	-70.147305
4.350000	-0.101711	-70.901212	-54.689072	119.305625	-54.689072	119.305625	-0.101716	-70.900280
4.400000	-0.103275	-71.652481	-54.411740	117.766148	-54.411740	117.766148	-0.103281	-71.651544
4.450000	-0.104860	-72.402039	-54.138251	116.226566	-54.138251	116.226566	-0.104866	-72.401099
4.500000	-0.106464	-73.150178	-53.869293	114.687065	-53.869293	114.687065	-0.106469	-73.149233
4.550000	-0.108093	-73.896328	-53.603229	113.147679	-53.603229	113.147679	-0.108099	-73.895380
4.600000	-0.109738	-74.641348	-53.342207	111.608478	-53.342207	111.608478	-0.109743	-74.640396
4.650000	-0.111413	-75.384107	-53.083237	110.069647	-53.083237	110.069647	-0.111418	-75.383151
4.700000	-0.113100	-76.126023	-52.829746	108.531034	-52.829746	108.531034	-0.113106	-76.125064
4.750000	-0.114823	-76.865411	-52.577561	106.993076	-52.577561	106.993076	-0.114829	-76.864448
4.800000	-0.116554	-77.604241	-52.331227	105.455308	-52.331227	105.455308	-0.116560	-77.603274
4.850000	-0.118327	-78.340282	-52.085537	103.918499	-52.085537	103.918499	-0.118333	-78.339312
4.900000	-0.120104	-79.076047	-51.846011	102.381806	-51.846011	102.381806	-0.120110	-79.075072
4.950000	-0.121928	-79.808768	-51.606545	100.846391	-51.606545	100.846391	-0.121934	-79.807790
5.000000	-0.123753	-80.541490	-51.373504	99.310975	-51.373504	99.310975	-0.123759	-80.540509
5.050000	-0.125631	-81.270923	-51.140005	97.777167	-51.140005	97.777167	-0.125637	-81.269939
5.100000	-0.127509	-82.000357	-50.912620	96.243358	-50.912620	96.243358	-0.127515	-81.999369
5.150000	-0.129437	-82.726808	-50.685377	94.711195	-50.685377	94.711195	-0.129443	-82.725816
5.200000	-0.131371	-83.452989	-50.463427	93.179181	-50.463427	93.179181	-0.131377	-83.451993
5.250000	-0.133352	-84.176490	-50.242155	91.648800	-50.242155	91.648800	-0.133358	-84.175491
5.300000	-0.135343	-84.899455	-50.025434	90.118745	-50.025434	90.118745	-0.135349	-84.898452
5.350000	-0.137378	-85.620040	-49.809866	88.590268	-49.809866	88.590268	-0.137384	-85.619034
5.400000	-0.139428	-86.339832	-49.598179	87.062317	-49.598179	87.062317	-0.139434	-86.338822
5.450000	-0.141518	-87.057538	-49.388068	85.535855	-49.388068	85.535855	-0.141525	-87.056524
5.500000	-0.143629	-87.774201	-49.181231	84.010136	-49.181231	84.010136	-0.143636	-87.773183
5.550000	-0.145777	-88.489067	-48.976345	82.485786	-48.976345	82.485786	-0.145784	-88.488045
5.600000	-0.147951	-89.202650	-48.774186	80.962414	-48.774186	80.962414	-0.147958	-89.201623
5.650000	-0.150157	-89.914717	-48.574310	79.440267	-48.574310	79.440267	-0.150164	-89.913687
5.700000	-0.152396	-90.625270	-48.376667	77.919345	-48.376667	77.919345	-0.152403	-90.624235
5.750000	-0.154662	-91.334583	-48.181598	76.399483	-48.181598	76.399483	-0.154669	-91.333544
5.800000	-0.156967	-92.042161	-47.988319	74.881106	-47.988319	74.881106	-0.156974	-92.041117
5.850000	-0.159295	-92.748766	-47.797869	73.363606	-47.797869	73.363606	-0.159302	-92.747717
5.900000	-0.161669	-93.453425	-47.608810	71.847863	-47.608810	71.847863	-0.161676	-93.452372
5.950000	-0.164060	-94.157370	-47.422803	70.332799	-47.422803	70.332799	-0.164067	-94.156311
6.000000	-0.166504	-94.859171	-47.237830	68.819773	-47.237830	68.819773	-0.166511	-94.858107
6.050000	-0.168960	-95.560506	-47.056099	67.307215	-47.056099	67.307215	-0.168967	-95.559437
6.100000	-0.171476	-96.259512	-46.875085	65.796991	-46.875085	65.796991	-0.171483	-96.258438
6.150000	-0.173998	-96.958291	-46.697477	64.287007	-46.697477	64.287007	-0.174006	-96.957211
6.200000	-0.176587	-97.654567	-46.520304	62.779668	-46.520304	62.779668	-0.176595	-97.653481
6.250000	-0.179178	-98.350843	-46.346672	61.272328	-46.346672	61.272328	-0.179185	-98.349751
6.300000	-0.181842	-99.044458	-46.173228	59.767957	-46.173228	59.767957	-0.181850	-99.043360
6.350000	-0.184508	-99.738073	-46.003179	58.263586	-46.003179	58.263586	-0.184516	-99.736969
6.400000	-0.187244	-100.429313	-45.833615	56.762016	-45.833615	56.762016	-0.187252	-100.428202
6.450000	-0.189987	-101.120338	-45.667051	55.260702	-45.667051	55.260702	-0.189995	-101.119220
6.500000	-0.192795	-101.809265	-45.501239	53.762011	-45.501239	53.762011	-0.192804	-101.808140
6.550000	-0.195618	-102.497773	-45.338067	52.263845	-45.338067	52.263845	-0.195626	-102.496641
6.600000	-0.198500	-103.184450	-45.175886	50.768114	-45.175886	50.768114	-0.198509	-103.183310
6.650000	-0.201403	-103.870517	-45.016018	49.273195	-45.016018	49.273195	-0.201412	-103.869370
6.700000	-0.204361	-104.555009	-44.857353	47.780509	-44.857353	47.780509	-0.204369	-104.553854
6.750000	-0.207346	-105.238713	-44.700707	46.288941	-44.700707	46.288941	-0.207355	-105.237550
6.800000	-0.210381	-105.921087	-44.545450	44.799393	-44.545450	44.799393	-0.210390	-105.919916
6.850000	-0.213451	-106.602510	-44.391947	43.311288	-44.391947	43.311288	-0.213460	-106.601331
6.900000	-0.216564	-107.282834	-44.239996	41.824974	-44.239996	41.824974	-0.216573	-107.281646
6.950000	-0.219720	-107.962059	-44.089563	40.340452	-44.089563	40.340452	-0.219729	-107.960862
7.000000	-0.222913	-108.640404	-43.940820	38.857475	-43.940820	38.857475	-0.222922	-108.639198
7.050000	-0.226156	-109.317517	-43.793385	37.376663	-43.793385	37.376663	-0.226166	-109.316301
7.100000	-0.229430	-109.993954	-43.647759	35.897134	-43.647759	35.897134	-0.229440	-109.992730
7.150000	-0.232763	-110.669042	-43.503254	34.420169	-43.503254	34.420169	-0.232773	-110.667808
7.200000	-0.236120	-111.343647	-43.360657	32.944202	-43.360657	32.944202	-0.236130	-111.342402
7.250000	-0.239545	-112.016800	-43.219016	31.471229	-43.219016	31.471229	-0.239555	-112.015546
7.300000	-0.242985	-112.689646	-43.079364	29.998946	-43.079364	29.998946	-0.242996	-112.688382
7.350000	-0.246503	-113.360957	-42.940525	28.530117	-42.940525	28.530117	-0.246513	-113.359682
7.400000	-0.250029	-114.032123	-42.803738	27.061646	-42.803738	27.061646	-0.250039	-114.030837
7.450000	-0.253640	-114.701687	-42.667638	25.597122	-42.667638	25.597122	-0.253651	-114.700390
7.500000	-0.257254	-115.371250	-42.533639	24.132597	-42.533639	24.132597	-0.257264	-115.369943
7.550000	-0.260962	-116.039163	-42.400220	22.672544	-42.400220	22.672544	-0.260972	-116.037844
7.600000	-0.264671	-116.707075	-42.268820	21.212491	-42.268820	21.212491	-0.264682	-116.705746
7.650000	-0.268469	-117.373565	-42.138137	19.756696	-42.138137	19.756696	-0.268480	-117.372224
7.700000	-0.272276	-118.039925	-42.009280	18.301288	-42.009280	18.301288	-0.272287	-118.038573
7.750000	-0.276165	-118.705076	-41.881259	16.849899	-41.881259	16.849899	-0.276176	-118.703712
7.800000	-0.280072	-119.369985	-41.754891	15.399315	-41.754891	15.399315	-0.280083	-119.368610
7.850000	-0.284053	-120.033883	-41.629460	13.952485	-41.629460	13.952485	-0.284064	-120.032496
7.900000	-0.288061	-120.697443	-41.505527	12.506907	-41.505527	12.506907	-0.288072	-120.696046
7.950000	-0.292137	-121.360176	-41.382614	11.064790	-41.382614	11.064790	-0.292148	-121.358766
8.000000	-0.296247	-122.022493	-41.261061	9.624403	-41.261061	9.624403	-0.296259	-122.021072
8.050000	-0.300418	-122.684148	-41.140599	8.187154	-41.140599	8.187154	-0.300429	-122.682716
8.100000	-0.304633	-123.345330	-41.021372	6.752146	-41.021372	6.752146	-0.304644	-123.343886
8.150000	-0.308900	-124.005999	-40.903292	5.319921	-40.903292	5.319921	-0.308912	-124.004543
8.200000	-0.313221	-124.666154	-40.786336	3.890479	-40.786336	3.890479	-0.313232	-124.664687
8.250000	-0.317586	-125.325928	-40.670573	2.463433	-40.670573	2.463433	-0.317598	-125.324450
8.300000	-0.322014	-125.985169	-40.555833	1.039743	-40.555833	1.039743	-0.322026	-125.983679
8.350000	-0.326479	-126.644142	-40.442320	-0.381970	-40.442320	-0.381970	-0.326490	-126.642641
8.400000	-0.331015	-127.302580	-40.329740	-1.799727	-40.329740	-1.799727	-0.331027	-127.301070
8.450000	-0.335580	-127.960848	-40.218413	-3.215955	-40.218413	-3.215955	-0.335592	-127.959326
8.500000	-0.340227	-128.618601	-40.107937	-4.627600	-40.107937	-4.627600	-0.340239	-128.617069
8.550000	-0.344894	-129.276259	-39.998732	-6.038197	-39.998732	-6.038197	-0.344906	-129.274718
8.600000	-0.349653	-129.933444	-39.890303	-7.443558	-39.890303	-7.443558	-0.349665	-129.931893
8.650000	-0.354423	-130.590592	-39.783155	-8.848381	-39.783155	-8.848381	-0.354435	-130.589031
8.700000	-0.359294	-131.247329	-39.676714	-10.247295	-39.676714	-10.247295	-0.359306	-131.245760
8.750000	-0.364168	-131.904066	-39.571562	-11.646208	-39.571562	-11.646208	-0.364181	-131.902488
8.800000	-0.369154	-132.560477	-39.467050	-13.038520	-39.467050	-13.038520	-0.369167	-132.558892
8.850000	-0.374143	-133.216888	-39.363781	-14.430832	-39.363781	-14.430832	-0.374156	-133.215295
8.900000	-0.379236	-133.873114	-39.261187	-15.816961	-39.261187	-15.816961	-0.379248	-133.871515
8.950000	-0.384341	-134.529324	-39.159743	-17.202527	-39.159743	-17.202527	-0.384353	-134.527719
9.000000	-0.389541	-135.185471	-39.059003	-18.582365	-39.059003	-18.582365	-0.389554	-135.183861
9.050000	-0.394763	-135.841606	-38.959326	-19.961056	-38.959326	-19.961056	-0.394776	-135.839991
9.100000	-0.400072	-136.497782	-38.860374	-21.334503	-38.860374	-21.334503	-0.400085	-136.496163
9.150000	-0.405412	-137.153971	-38.762403	-22.706202	-38.762403	-22.706202	-0.405426	-137.152348
9.200000	-0.410831	-137.810283	-38.665176	-24.073173	-38.665176	-24.073173	-0.410845	-137.808659
9.250000	-0.416291	-138.466658	-38.568852	-25.437779	-38.568852	-25.437779	-0.416305	-138.465032
9.300000	-0.421821	-139.123218	-38.473284	-26.798198	-38.473284	-26.798198	-0.421835	-139.121592
9.350000	-0.427402	-139.779911	-38.378545	-28.155626	-38.378545	-28.155626	-0.427416	-139.778286
9.400000	-0.433044	-140.436832	-38.284575	-29.509432	-38.284575	-29.509432	-0.433058	-140.435209
9.450000	-0.438746	-141.093981	-38.191360	-30.859616	-38.191360	-30.859616	-0.438761	-141.092361
9.500000	-0.444501	-141.751376	-38.098924	-32.206761	-38.098924	-32.206761	-0.444516	-141.749761
9.550000	-0.450326	-142.409118	-38.007170	-33.549653	-38.007170	-33.549653	-0.450342	-142.407509
9.600000	-0.456194	-143.067105	-37.916207	-34.890104	-37.916207	-34.890104	-0.456211	-143.065502
9.650000	-0.462144	-143.725581	-37.825852	-36.225675	-37.825852	-36.225675	-0.462161	-143.723988
9.700000	-0.468126	-144.384277	-37.736300	-37.559415	-37.736300	-37.559415	-0.468144	-144.382693
9.750000	-0.474200	-145.043632	-37.647281	-38.887658	-37.647281	-38.887658	-0.474219	-145.042060
9.800000	-0.480298	-145.703157	-37.559080	-40.214683	-37.559080	-40.214683	-0.480317	-145.701599
9.850000	-0.486498	-146.363536	-37.471336	-41.535613	-37.471336	-41.535613	-0.486518	-146.361994
9.900000	-0.492711	-147.024012	-37.384425	-42.855936	-37.384425	-42.855936	-0.492732	-147.022487
9.950000	-0.499037	-147.685565	-37.297893	-44.169589	-37.297893	-44.169589	-0.499059	-147.684059
10.000000	-0.505368	-148.347117	-37.212215	-45.483241	-37.212215	-45.483241	-0.505390	-148.345632
