! freq	dB(S11)	phase(S11)	dB(S12)	phase(S12)	
!     	dB(S21)	phase(S21)	dB(S22)	phase(S22)	
!S-par simulation data
#  GHz  S  DB  R 50
0.000000	-81.681805	0.000000	-0.000716	0.000000	-0.000716	0.000000	-81.681805	0.000000
0.050000	-41.008418	-88.918044	-0.006823	-3.226719	-0.006823	-3.226719	-41.063221	-93.379507
0.100000	-35.083459	-91.067947	-0.014255	-6.405058	-0.014255	-6.405058	-35.150081	-99.489087
0.150000	-31.577700	-92.665617	-0.020545	-9.575031	-0.020545	-9.575031	-31.653607	-105.227242
0.200000	-29.077748	-94.069863	-0.027070	-12.745139	-0.027070	-12.745139	-29.159378	-110.786901
0.250000	-27.130623	-95.385048	-0.034300	-15.915846	-0.034300	-15.915846	-27.216112	-116.250689
0.300000	-25.532972	-96.653670	-0.042262	-19.087353	-0.042262	-19.087353	-25.620834	-121.658260
0.350000	-24.175601	-97.893955	-0.050895	-22.260378	-0.050895	-22.260378	-24.264458	-127.028764
0.400000	-22.992889	-99.115647	-0.060152	-25.436089	-0.060152	-25.436089	-23.081452	-132.373602
0.450000	-21.942572	-100.325343	-0.070001	-28.615791	-0.070001	-28.615791	-22.029742	-137.701062
0.500000	-20.995652	-101.527652	-0.080463	-31.800841	-0.080463	-31.800841	-21.080556	-143.016766
0.550000	-20.131330	-102.726362	-0.091597	-34.992586	-0.091597	-34.992586	-20.213337	-148.324786
0.600000	-19.334017	-103.924985	-0.103506	-38.192431	-0.103506	-38.192431	-19.412719	-153.628123
0.650000	-18.592123	-105.126923	-0.116295	-41.401471	-0.116295	-41.401471	-18.667341	-158.929093
0.700000	-17.896678	-106.335403	-0.130082	-44.620650	-0.130082	-44.620650	-17.968414	-164.229291
0.750000	-17.240458	-107.553648	-0.145001	-47.850926	-0.145001	-47.850926	-17.308849	-169.529789
0.800000	-16.617315	-108.785330	-0.161226	-51.093500	-0.161226	-51.093500	-16.682592	-174.831317
0.850000	-16.023139	-110.033082	-0.178845	-54.348663	-0.178845	-54.348663	-16.085603	179.865808
0.900000	-15.453340	-111.301133	-0.198082	-57.617904	-0.198082	-57.617904	-15.513322	174.561408
0.950000	-14.905312	-112.591927	-0.219026	-60.901441	-0.219026	-60.901441	-14.963148	169.255655
1.000000	-14.376199	-113.908937	-0.241855	-64.200257	-0.241855	-64.200257	-14.432216	163.948809
1.050000	-13.863586	-115.255757	-0.266763	-67.515383	-0.266763	-67.515383	-13.918086	158.641289
1.100000	-13.366157	-116.634250	-0.293844	-70.847016	-0.293844	-70.847016	-13.419404	153.333621
1.150000	-12.881528	-118.049384	-0.323413	-74.197010	-0.323413	-74.197010	-12.933755	148.026417
1.200000	-12.409174	-119.502124	-0.355546	-77.565281	-0.355546	-77.565281	-12.460572	142.720290
1.250000	-11.947635	-120.996206	-0.390523	-80.953200	-0.390523	-80.953200	-11.998365	137.415923
1.300000	-11.495998	-122.534400	-0.428588	-84.361725	-0.428588	-84.361725	-11.546189	132.113997
1.350000	-11.053915	-124.117875	-0.469908	-87.791148	-0.469908	-87.791148	-11.103676	126.815059
1.400000	-10.620031	-125.751734	-0.514952	-91.243624	-0.514952	-91.243624	-10.669457	121.519921
1.450000	-10.194645	-127.435355	-0.563827	-94.718736	-0.563827	-94.718736	-10.243823	116.228920
1.500000	-9.776921	-129.172645	-0.616999	-98.218179	-0.616999	-98.218179	-9.825936	110.942707
1.550000	-9.366720	-130.965014	-0.674795	-101.742539	-0.674795	-101.742539	-9.415665	105.661678
1.600000	-8.964037	-132.813255	-0.737526	-105.292146	-0.737526	-105.292146	-9.013012	100.386101
1.650000	-8.568259	-134.721539	-0.805837	-108.868871	-0.805837	-108.868871	-8.617383	95.116528
1.700000	-8.179903	-136.688189	-0.879919	-112.471947	-0.879919	-112.471947	-8.229303	89.852873
1.750000	-7.798538	-138.716928	-0.960488	-116.103044	-0.960488	-116.103044	-7.848365	84.595547
1.800000	-7.424449	-140.807404	-1.047948	-119.761982	-1.047948	-119.761982	-7.474864	79.344499
1.850000	-7.057757	-142.960106	-1.142819	-123.448951	-1.142819	-123.448951	-7.108931	74.099728
1.900000	-6.698429	-145.176987	-1.245850	-127.164783	-1.245850	-127.164783	-6.750547	68.861346
1.950000	-6.346659	-147.458384	-1.357688	-130.909560	-1.357688	-130.909560	-6.399914	63.629269
2.000000	-6.002751	-149.803439	-1.478899	-134.682811	-1.478899	-134.682811	-6.057329	58.403276
2.050000	-5.666903	-152.212078	-1.610206	-138.484398	-1.610206	-138.484398	-5.722989	53.183204
2.100000	-5.339330	-154.684013	-1.752380	-142.314073	-1.752380	-142.314073	-5.397097	47.968850
2.150000	-5.020252	-157.218750	-1.906246	-146.171476	-1.906246	-146.171476	-5.079862	42.759966
2.200000	-4.709879	-159.816129	-2.072781	-150.056381	-2.072781	-150.056381	-4.771480	37.556305
2.250000	-4.408436	-162.476133	-2.253109	-153.968607	-2.253109	-153.968607	-4.472162	32.357581
2.300000	-4.116205	-165.196019	-2.448007	-157.906779	-2.448007	-157.906779	-4.182162	27.163246
2.350000	-3.833384	-167.975088	-2.658704	-161.870410	-2.658704	-161.870410	-3.901660	21.972856
2.400000	-3.560173	-170.812032	-2.886468	-165.858745	-2.886468	-165.858745	-3.630839	16.785833
2.450000	-3.296757	-173.705458	-3.132708	-169.870991	-3.132708	-169.870991	-3.369866	11.601491
2.500000	-3.043301	-176.653923	-3.399007	-173.906327	-3.399007	-173.906327	-3.118894	6.419013
2.550000	-2.800007	-179.656726	-3.687357	-177.964221	-3.687357	-177.964221	-2.878117	1.237424
2.600000	-2.566970	177.288363	-3.999634	177.956520	-3.999634	177.956520	-2.647624	-3.944466
2.650000	-2.344300	174.182713	-4.338223	173.856779	-4.338223	173.856779	-2.427526	-9.128029
2.700000	-2.132092	171.027590	-4.705914	169.737489	-4.705914	169.737489	-2.217927	-14.314872
2.750000	-1.930431	167.824131	-5.106015	165.599670	-5.106015	165.599670	-2.018923	-19.506871
2.800000	-1.739397	164.573304	-5.542490	161.444510	-5.542490	161.444510	-1.830612	-24.706195
2.850000	-1.559069	161.275883	-6.020153	157.273478	-6.020153	157.273478	-1.653096	-29.915334
2.900000	-1.389534	157.932430	-6.544928	153.088518	-6.544928	153.088518	-1.486490	-35.137121
2.950000	-1.230975	154.542835	-7.124416	148.892277	-7.124416	148.892277	-1.331011	-40.374949
3.000000	-1.083493	151.107408	-7.767965	144.688913	-7.767965	144.688913	-1.186793	-45.632413
3.050000	-0.947214	147.626216	-8.487682	140.484624	-8.487682	140.484624	-1.053997	-50.913444
3.100000	-0.822346	144.098885	-9.299753	136.289029	-9.299753	136.289029	-0.932870	-56.222458
3.150000	-0.709156	140.524842	-10.226257	132.117648	-10.226257	132.117648	-0.823717	-61.564279
3.200000	-0.607980	136.903355	-11.298378	127.996459	-11.298378	127.996459	-0.726915	-66.944137
3.250000	-0.519237	133.233588	-12.562153	123.971122	-12.562153	123.971122	-0.642923	-72.367644
3.300000	-0.443439	129.514667	-14.089612	120.127495	-14.089612	120.127495	-0.572294	-77.840771
3.350000	-0.381541	125.744551	-16.004096	116.660903	-16.004096	116.660903	-0.516041	-83.371310
3.400000	-0.333609	121.925107	-18.534636	113.990578	-18.534636	113.990578	-0.474246	-88.962865
3.450000	-0.300923	118.054457	-22.207312	113.552532	-22.207312	113.552532	-0.448252	-94.623980
3.500000	-0.284796	114.131871	-28.541225	124.486431	-28.541225	124.486431	-0.439436	-100.362996
3.550000	-0.285976	110.159484	-33.413456	-152.451232	-33.413456	-152.451232	-0.448590	-106.184861
3.600000	-0.305741	106.138995	-24.783891	-111.320208	-24.783891	-111.320208	-0.477054	-112.096175
3.650000	-0.345503	102.073213	-19.833111	-108.477110	-19.833111	-108.477110	-0.526318	-118.103258
3.700000	-0.406801	97.966313	-16.610993	-110.603355	-16.610993	-110.603355	-0.598007	-124.212005
3.750000	-0.491278	93.824115	-14.229352	-114.242326	-14.229352	-114.242326	-0.693868	-130.427747
3.800000	-0.601299	89.653862	-12.343706	-118.577362	-12.343706	-118.577362	-0.816411	-136.758094
3.850000	-0.738027	85.466546	-10.788613	-123.292431	-10.788613	-123.292431	-0.966921	-143.204056
3.900000	-0.903191	81.274683	-9.471732	-128.255302	-9.471732	-128.255302	-1.147296	-149.768560
3.950000	-1.098837	77.093836	-8.337110	-133.394909	-8.337110	-133.394909	-1.359790	-156.455546
4.000000	-1.326104	72.942166	-7.348144	-138.662196	-7.348144	-138.662196	-1.605754	-163.264843
4.050000	-1.586159	68.840460	-6.479708	-144.023690	-6.479708	-144.023690	-1.886607	-170.197063
4.100000	-1.880194	64.813514	-5.714199	-149.453308	-5.714199	-149.453308	-2.203838	-177.254549
4.150000	-2.208404	60.887339	-5.038035	-154.926886	-5.038035	-154.926886	-2.557947	175.562678
4.200000	-2.570980	57.093812	-4.441492	-160.423136	-4.441492	-160.423136	-2.949477	168.250100
4.250000	-2.966436	53.457899	-3.914871	-165.921813	-3.914871	-165.921813	-3.377269	160.809148
4.300000	-3.393626	50.013129	-3.451622	-171.404943	-3.451622	-171.404943	-3.840551	153.232302
4.350000	-3.850305	46.791708	-3.045647	-176.855632	-3.045647	-176.855632	-4.337420	145.511363
4.400000	-4.333228	43.830665	-2.692105	177.742500	-2.692105	177.742500	-4.864902	137.632327
4.450000	-4.838000	41.160345	-2.385764	172.403079	-2.385764	172.403079	-5.418748	129.581676
4.500000	-5.359423	38.805442	-2.121535	167.136798	-2.121535	167.136798	-5.993737	121.345315
4.550000	-5.891014	36.792781	-1.895355	161.953610	-1.895355	161.953610	-6.583023	112.904544
4.600000	-6.424986	35.142967	-1.703323	156.861398	-1.703323	156.861398	-7.177993	104.241931
4.650000	-6.952311	33.868118	-1.541751	151.866067	-1.541751	151.866067	-7.768158	95.344505
4.700000	-7.463751	32.963263	-1.406851	146.970104	-1.406851	146.970104	-8.342219	86.212089
4.750000	-7.949314	32.412885	-1.295376	142.175136	-1.295376	142.175136	-8.887361	76.856614
4.800000	-8.399134	32.185422	-1.204343	137.481260	-1.204343	137.481260	-9.390323	67.309068
4.850000	-8.804246	32.232644	-1.131023	132.887265	-1.131023	132.887265	-9.838529	57.622651
4.900000	-9.157445	32.491091	-1.072940	128.390852	-1.072940	128.390852	-10.221502	47.872650
4.950000	-9.454056	32.885900	-1.027855	123.988842	-1.027855	123.988842	-10.532260	38.151911
5.000000	-9.692450	33.336643	-0.993759	119.677368	-0.993759	119.677368	-10.768332	28.562076
5.050000	-9.870440	33.757472	-0.969357	115.457525	-0.969357	115.457525	-10.927475	19.224183
5.100000	-10.001409	34.090490	-0.951807	111.311416	-0.951807	111.311416	-11.027408	10.175582
5.150000	-10.083838	34.260047	-0.940786	107.246290	-0.940786	107.246290	-11.067944	1.532374
5.200000	-10.129666	34.239217	-0.934499	103.249806	-0.934499	103.249806	-11.065214	-6.702851
5.250000	-10.145762	33.991777	-0.932021	99.319377	-0.932021	99.319377	-11.029016	-14.495408
5.300000	-10.139698	33.498114	-0.932448	95.450933	-0.932448	95.450933	-10.969496	-21.837101
5.350000	-10.120240	32.772356	-0.934758	91.634801	-0.934758	91.634801	-10.897398	-28.774965
5.400000	-10.092585	31.784978	-0.938424	87.872829	-0.938424	87.872829	-10.819367	-35.276038
5.450000	-10.063240	30.585483	-0.942645	84.151660	-0.942645	84.151660	-10.742348	-41.435435
5.500000	-10.037111	29.141296	-0.946931	80.474385	-0.946931	80.474385	-10.672069	-47.213094
5.550000	-10.017451	27.502630	-0.950830	76.829464	-0.950830	76.829464	-10.611337	-52.696404
5.600000	-10.008518	25.657984	-0.953882	73.215923	-0.953882	73.215923	-10.564559	-57.876897
5.650000	-10.012480	23.629960	-0.955809	69.627412	-0.955809	69.627412	-10.533423	-62.795616
5.700000	-10.031783	21.428510	-0.956338	66.059326	-0.956338	66.059326	-10.519964	-67.474397
5.750000	-10.069602	19.051936	-0.955164	62.508176	-0.955164	62.508176	-10.526997	-71.918614
5.800000	-10.125822	16.525547	-0.952323	58.967940	-0.952323	58.967940	-10.553672	-76.168986
5.850000	-10.206063	13.825764	-0.947373	55.435775	-0.947373	55.435775	-10.605239	-80.203015
5.900000	-10.308146	10.984715	-0.940625	51.906279	-0.940625	51.906279	-10.678688	-84.067205
5.950000	-10.438407	7.974468	-0.931712	48.375329	-0.931712	48.375329	-10.779663	-87.735126
6.000000	-10.595869	4.812931	-0.920934	44.839094	-0.920934	44.839094	-10.906351	-91.233324
6.050000	-10.785315	1.480908	-0.908217	41.292839	-0.908217	41.292839	-11.062428	-94.545791
6.100000	-11.009343	-2.028546	-0.893723	37.732646	-0.893723	37.732646	-11.249246	-97.669449
6.150000	-11.270352	-5.722893	-0.877691	34.155070	-0.877691	34.155070	-11.467725	-100.599817
6.200000	-11.575727	-9.642192	-0.860207	30.554111	-0.860207	30.554111	-11.722754	-103.297716
6.250000	-11.925116	-13.778267	-0.841741	26.929607	-0.841741	26.929607	-12.012168	-105.773191
6.300000	-12.332027	-18.225214	-0.822447	23.271614	-0.822447	23.271614	-12.344090	-107.931417
6.350000	-12.795437	-22.971413	-0.802862	19.582990	-0.802862	19.582990	-12.714495	-109.786420
6.400000	-13.329184	-28.143632	-0.783425	15.854720	-0.783425	15.854720	-13.128247	-111.215867
6.450000	-13.938563	-33.798519	-0.764639	12.087105	-0.764639	12.087105	-13.582546	-112.175468
6.500000	-14.634513	-40.100077	-0.747139	8.275322	-0.747139	8.275322	-14.074149	-112.534276
6.550000	-15.426535	-47.269377	-0.731633	4.415566	-0.731633	4.415566	-14.593926	-112.143440
6.600000	-16.317163	-55.525631	-0.718678	0.509000	-0.718678	0.509000	-15.125180	-110.911744
6.650000	-17.296513	-65.499425	-0.709519	-3.453388	-0.709519	-3.453388	-15.630955	-108.551500
6.700000	-18.326491	-77.506001	-0.704450	-7.465140	-0.704450	-7.465140	-16.073426	-105.123932
6.750000	-19.288581	-92.411521	-0.704839	-11.532762	-0.704839	-11.532762	-16.378998	-100.535040
6.800000	-19.963140	-110.453579	-0.711558	-15.655122	-0.711558	-15.655122	-16.479973	-95.063023
6.850000	-20.067329	-130.742536	-0.725644	-19.831884	-0.725644	-19.831884	-16.324592	-89.205401
6.900000	-19.462336	-150.921328	-0.748271	-24.062444	-0.748271	-24.062444	-15.901951	-83.614454
6.950000	-18.319282	-168.717910	-0.780552	-28.344650	-0.780552	-28.344650	-15.254193	-78.874722
7.000000	-16.934205	176.514639	-0.823467	-32.674871	-0.823467	-32.674871	-14.454305	-75.303406
7.050000	-15.513350	164.367396	-0.878051	-37.049100	-0.878051	-37.049100	-13.572677	-72.975189
7.100000	-14.157376	154.178600	-0.945283	-41.462383	-0.945283	-41.462383	-12.664716	-71.804671
7.150000	-12.903212	145.385264	-1.026058	-45.908867	-1.026058	-45.908867	-11.767837	-71.635801
7.200000	-11.758275	137.582684	-1.121165	-50.381884	-1.121165	-50.381884	-10.904676	-72.299587
7.250000	-10.718202	130.495107	-1.231261	-54.874070	-1.231261	-54.874070	-10.087614	-73.641493
7.300000	-9.774707	123.936884	-1.356857	-59.377522	-1.356857	-59.377522	-9.322519	-75.530389
7.350000	-8.918787	117.782576	-1.498299	-63.883985	-1.498299	-63.883985	-8.611340	-77.858770
7.400000	-8.141914	111.946708	-1.655766	-68.385049	-1.655766	-68.385049	-7.953738	-80.539755
7.450000	-7.436396	106.370498	-1.829262	-72.872371	-1.829262	-72.872371	-7.348090	-83.503409
7.500000	-6.795402	101.013175	-2.018629	-77.337881	-2.018629	-77.337881	-6.792068	-86.693406
7.550000	-6.213266	95.849896	-2.223769	-81.773183	-2.223769	-81.773183	-6.283358	-90.067373
7.600000	-5.684272	90.856225	-2.443964	-86.171861	-2.443964	-86.171861	-5.818825	-93.584205
7.650000	-5.203547	86.018011	-2.678652	-90.527830	-2.678652	-90.527830	-5.395550	-97.214705
7.700000	-4.766696	81.324862	-2.927193	-94.835921	-2.927193	-94.835921	-5.010657	-100.935454
7.750000	-4.369730	76.768898	-3.188897	-99.091940	-3.188897	-99.091940	-4.661365	-104.727882
7.800000	-4.009014	72.343884	-3.463054	-103.292707	-3.463054	-103.292707	-4.345009	-108.577542
7.850000	-3.681225	68.044614	-3.748964	-107.436042	-3.748964	-107.436042	-4.059058	-112.473535
7.900000	-3.383319	63.866497	-4.045965	-111.520743	-4.045965	-111.520743	-3.801131	-116.408050
7.950000	-3.112509	59.805275	-4.353457	-115.546528	-4.353457	-115.546528	-3.569002	-120.375982
8.000000	-2.866245	55.856841	-4.670930	-119.513963	-4.670930	-119.513963	-3.360605	-124.374621
8.050000	-2.642197	52.017138	-4.997987	-123.424383	-4.997987	-123.424383	-3.174035	-128.403398
8.100000	-2.438242	48.282095	-5.334361	-127.279798	-5.334361	-127.279798	-3.007551	-132.463677
8.150000	-2.252585	44.648651	-5.679890	-131.082265	-5.679890	-131.082265	-2.859731	-136.559018
8.200000	-2.083442	41.112526	-6.034625	-134.834981	-6.034625	-134.834981	-2.729126	-140.694411
8.250000	-1.929082	37.668462	-6.398893	-138.542001	-6.398893	-138.542001	-2.614298	-144.875915
8.300000	-1.788077	34.312299	-6.773203	-142.207079	-6.773203	-142.207079	-2.514131	-149.111458
8.350000	-1.659144	31.039897	-7.158325	-145.834132	-7.158325	-145.834132	-2.427654	-153.410454
8.400000	-1.541130	27.847161	-7.555328	-149.427108	-7.555328	-149.427108	-2.354038	-157.783823
8.450000	-1.433004	24.730059	-7.965629	-152.989832	-7.965629	-152.989832	-2.292588	-162.244037
8.500000	-1.333843	21.684640	-8.391052	-156.525814	-8.391052	-156.525814	-2.242745	-166.805210
8.550000	-1.242824	18.707037	-8.833910	-160.037993	-8.833910	-160.037993	-2.204075	-171.483207
8.600000	-1.159215	15.793483	-9.297098	-163.528377	-9.297098	-163.528377	-2.176275	-176.295793
8.650000	-1.082365	12.940299	-9.784231	-166.997544	-9.784231	-166.997544	-2.159159	178.737204
8.700000	-1.011702	10.143902	-10.299809	-170.443916	-10.299809	-170.443916	-2.152664	173.593699
8.750000	-0.946722	7.400784	-10.849443	-173.862683	-10.849443	-173.862683	-2.156836	168.249159
8.800000	-0.887085	4.708511	-11.440293	-177.242986	-11.440293	-177.242986	-2.172065	162.670742
8.850000	-0.832310	2.062538	-12.081184	179.432289	-12.081184	179.432289	-2.198357	156.832604
8.900000	-0.782027	-0.541143	-12.783115	176.190651	-12.783115	176.190651	-2.235823	150.706900
8.950000	-0.736115	-3.104701	-13.560609	173.081828	-13.560609	173.081828	-2.285080	144.249744
9.000000	-0.694368	-5.631927	-14.431865	170.181916	-14.431865	170.181916	-2.346273	137.425693
9.050000	-0.656714	-8.126100	-15.420436	167.616659	-15.420436	167.616659	-2.419522	130.194157
9.100000	-0.623218	-10.590179	-16.556542	165.603168	-16.556542	165.603168	-2.504760	122.509564
9.150000	-0.594019	-13.027306	-17.876842	164.509664	-17.876842	164.509664	-2.601295	114.333070
9.200000	-0.569406	-15.440020	-19.419831	164.993443	-19.419831	164.993443	-2.707782	105.628826
9.250000	-0.549827	-17.829928	-21.199310	168.257386	-21.199310	168.257386	-2.821966	96.367273
9.300000	-0.535865	-20.197278	-23.100482	176.361510	-23.100482	176.361510	-2.940407	86.531491
9.350000	-0.528171	-22.540370	-24.601787	-168.476294	-24.601787	-168.476294	-3.058327	76.123442
9.400000	-0.527382	-24.854879	-24.714109	-148.567298	-24.714109	-148.567298	-3.169568	65.168056
9.450000	-0.533851	-27.134023	-23.317452	-132.534351	-23.317452	-132.534351	-3.267007	53.726118
9.500000	-0.547413	-29.369519	-21.391390	-123.971352	-21.391390	-123.971352	-3.343522	41.895826
9.550000	-0.567338	-31.552874	-19.563702	-120.920756	-19.563702	-120.920756	-3.392888	29.805447
9.600000	-0.592317	-33.677711	-17.999060	-121.135356	-17.999060	-121.135356	-3.410964	17.608285
9.650000	-0.620689	-35.741562	-16.699066	-123.233244	-16.699066	-123.233244	-3.396535	5.469103
9.700000	-0.650798	-37.746301	-15.629090	-126.430026	-15.629090	-126.430026	-3.351460	-6.451321
9.750000	-0.681293	-39.697427	-14.752181	-130.263757	-14.752181	-130.263757	-3.280269	-18.009937
9.800000	-0.711335	-41.603077	-14.034651	-134.445546	-14.034651	-134.445546	-3.189502	-29.101030
9.850000	-0.740583	-43.471053	-13.448757	-138.795832	-13.448757	-138.795832	-3.085935	-39.652256
9.900000	-0.769070	-45.308141	-12.971366	-143.197524	-12.971366	-143.197524	-2.975902	-49.624791
9.950000	-0.797056	-47.119595	-12.583152	-147.574486	-12.583152	-147.574486	-2.864710	-59.008094
10.000000	-0.824904	-48.909118	-12.267945	-151.878417	-12.267945	-151.878417	-2.756415	-67.813168
