! freq	dB(S11)	phase(S11)	dB(S12)	phase(S12)	
!     	dB(S21)	phase(S21)	dB(S22)	phase(S22)	
!S-par simulation data
#  GHz  S  DB  R 50
0.000000	-87.365399	0.000000	-0.000372	0.000000	-0.000372	0.000000	-87.365399	0.000000
0.050000	-33.064279	-92.816750	-0.003900	-2.922661	-0.003900	-2.922661	-33.068134	-93.022082
0.100000	-27.063205	-95.784236	-0.013937	-5.835774	-0.013937	-5.835774	-27.066461	-96.195643
0.150000	-23.572159	-98.687060	-0.029390	-8.733908	-0.029390	-8.733908	-23.574651	-99.305532
0.200000	-21.113725	-101.547978	-0.049209	-11.615762	-0.049209	-11.615762	-21.115487	-102.374523
0.250000	-19.224145	-104.371961	-0.072720	-14.481772	-0.072720	-14.481772	-19.225329	-105.407461
0.300000	-17.696433	-107.162970	-0.099549	-17.332417	-0.099549	-17.332417	-17.697228	-108.408237
0.350000	-16.419496	-109.925153	-0.129419	-20.167918	-0.129419	-20.167918	-16.420070	-111.381046
0.400000	-15.328386	-112.660023	-0.162296	-22.986922	-0.162296	-22.986922	-15.328869	-114.327633
0.450000	-14.379745	-115.370175	-0.197932	-25.788947	-0.197932	-25.788947	-14.380225	-117.250808
0.500000	-13.545271	-118.055684	-0.236234	-28.572246	-0.236234	-28.572246	-13.545802	-120.150978
0.550000	-12.803774	-120.717320	-0.276952	-31.336028	-0.276952	-31.336028	-12.804383	-123.029168
0.600000	-12.140258	-123.354595	-0.319890	-34.078892	-0.319890	-34.078892	-12.140957	-125.885201
0.650000	-11.542882	-125.967359	-0.364788	-36.800036	-0.364788	-36.800036	-11.543670	-128.719187
0.700000	-11.002517	-128.555216	-0.411379	-39.498681	-0.411379	-39.498681	-11.003387	-131.530995
0.750000	-10.512007	-131.117590	-0.459398	-42.174060	-0.459398	-42.174060	-10.512950	-134.320338
0.800000	-10.065147	-133.654536	-0.508545	-44.826106	-0.508545	-44.826106	-10.066151	-137.087484
0.850000	-9.657439	-136.165256	-0.558552	-47.454064	-0.558552	-47.454064	-9.658495	-139.831982
0.900000	-9.284270	-138.650398	-0.609121	-50.058577	-0.609121	-50.058577	-9.285369	-142.554647
0.950000	-8.942794	-141.109011	-0.659975	-52.638874	-0.659975	-52.638874	-8.943931	-145.254958
1.000000	-8.629432	-143.542191	-0.710845	-55.196096	-0.710845	-55.196096	-8.630602	-147.934149
1.050000	-8.342127	-145.949365	-0.761453	-57.729908	-0.761453	-57.729908	-8.343330	-150.592100
1.100000	-8.078283	-148.331514	-0.811559	-60.241399	-0.811559	-60.241399	-8.079522	-153.229995
1.150000	-7.836220	-150.688645	-0.860904	-62.730823	-0.860904	-62.730823	-7.837499	-155.848269
1.200000	-7.614096	-153.021542	-0.909266	-65.199141	-0.909266	-65.199141	-7.615422	-158.448009
1.250000	-7.410449	-155.330754	-0.956424	-67.647133	-0.956424	-67.647133	-7.411832	-161.030152
1.300000	-7.224013	-157.616856	-1.002165	-70.075629	-1.002165	-70.075629	-7.225464	-163.595699
1.350000	-7.053517	-159.880760	-1.046309	-72.485764	-1.046309	-72.485764	-7.055050	-166.145934
1.400000	-6.898191	-162.122759	-1.088631	-74.878191	-1.088631	-74.878191	-6.899824	-168.681762
1.450000	-6.756791	-164.344262	-1.129017	-77.254497	-1.129017	-77.254497	-6.758539	-171.204882
1.500000	-6.628295	-166.546467	-1.167364	-79.616068	-1.167364	-79.616068	-6.630179	-173.716807
1.550000	-6.512106	-168.729988	-1.203517	-81.963857	-1.203517	-81.963857	-6.514146	-176.218734
1.600000	-6.408283	-170.894504	-1.237173	-84.298241	-1.237173	-84.298241	-6.410504	-178.711573
1.650000	-6.315406	-173.042375	-1.268421	-86.621486	-1.268421	-86.621486	-6.317833	178.802471
1.700000	-6.232869	-175.174616	-1.297200	-88.934840	-1.297200	-88.934840	-6.235526	176.321941
1.750000	-6.161336	-177.290348	-1.323099	-91.238514	-1.323099	-91.238514	-6.164256	173.845701
1.800000	-6.098957	-179.392740	-1.346471	-93.535013	-1.346471	-93.535013	-6.102168	171.371666
1.850000	-6.046463	178.518977	-1.366932	-95.824695	-1.366932	-95.824695	-6.049999	168.898404
1.900000	-6.003035	176.443202	-1.384606	-98.109101	-1.384606	-98.109101	-6.006930	166.424249
1.950000	-5.968425	174.379132	-1.399470	-100.389434	-1.399470	-100.389434	-5.972719	163.947511
2.000000	-5.942933	172.326660	-1.411353	-102.666751	-1.411353	-102.666751	-5.947667	161.466252
2.050000	-5.925400	170.283825	-1.420593	-104.942606	-1.420593	-104.942606	-5.930616	158.979347
2.100000	-5.917170	168.251683	-1.426705	-107.218246	-1.426705	-107.218246	-5.922922	156.483741
2.150000	-5.916532	166.227787	-1.430248	-109.494970	-1.430248	-109.494970	-5.922868	153.979282
2.200000	-5.924881	164.213119	-1.430747	-111.774435	-1.430747	-111.774435	-5.931864	151.462251
2.250000	-5.941075	162.206071	-1.428601	-114.057520	-1.428601	-114.057520	-5.948767	148.932415
2.300000	-5.965767	160.206856	-1.423624	-116.345792	-1.423624	-116.345792	-5.974242	146.386721
2.350000	-5.998847	158.215025	-1.415912	-118.640340	-1.415912	-118.640340	-6.008184	143.823486
2.400000	-6.040074	156.230095	-1.405622	-120.942053	-1.405622	-120.942053	-6.050359	141.241385
2.450000	-6.090362	154.252670	-1.392562	-123.252843	-1.392562	-123.252843	-6.101699	138.636300
2.500000	-6.148566	152.281693	-1.377207	-125.572381	-1.377207	-125.572381	-6.161059	136.009618
2.550000	-6.216229	150.318520	-1.359229	-127.903358	-1.359229	-127.903358	-6.230007	133.355115
2.600000	-6.292964	148.363010	-1.338908	-130.246129	-1.338908	-130.246129	-6.308169	130.672139
2.650000	-6.379017	146.415712	-1.316350	-132.601700	-1.316350	-132.601700	-6.395806	127.958253
2.700000	-6.474665	144.477383	-1.291672	-134.971037	-1.291672	-134.971037	-6.493215	125.210908
2.750000	-6.580217	142.549013	-1.264999	-137.355065	-1.264999	-137.355065	-6.600729	122.427426
2.800000	-6.696021	140.631859	-1.236467	-139.754663	-1.236467	-139.754663	-6.718721	119.604982
2.850000	-6.822458	138.727473	-1.206221	-142.170660	-1.206221	-142.170660	-6.847600	116.740580
2.900000	-6.959943	136.837744	-1.174413	-144.603828	-1.174413	-144.603828	-6.987819	113.831027
2.950000	-7.108929	134.964942	-1.141205	-147.054878	-1.141205	-147.054878	-7.139869	110.872894
3.000000	-7.269906	133.111770	-1.106768	-149.524459	-1.106768	-149.524459	-7.304284	107.862482
3.050000	-7.443396	131.281424	-1.071279	-152.013146	-1.071279	-152.013146	-7.481645	104.795772
3.100000	-7.629960	129.477659	-1.034926	-154.521437	-1.034926	-154.521437	-7.672574	101.668366
3.150000	-7.830290	127.705269	-0.997893	-157.049970	-0.997893	-157.049970	-7.877845	98.474645
3.200000	-8.045008	125.969598	-0.960387	-159.599078	-0.960387	-159.599078	-8.098173	95.209024
3.250000	-8.274657	124.276360	-0.922622	-162.168767	-0.922622	-162.168767	-8.334206	91.866147
3.300000	-8.519902	122.632599	-0.884807	-164.759159	-0.884807	-164.759159	-8.586741	88.439176
3.350000	-8.781418	121.046500	-0.847156	-167.370270	-0.847156	-167.370270	-8.856610	84.920343
3.400000	-9.059878	119.527572	-0.809882	-170.002001	-0.809882	-170.002001	-9.144676	81.300767
3.450000	-9.355932	118.086856	-0.773200	-172.654139	-0.773200	-172.654139	-9.451821	77.570232
3.500000	-9.670188	116.737160	-0.737324	-175.326353	-0.737324	-175.326353	-9.778928	73.716907
3.550000	-10.003167	115.493338	-0.702465	-178.018189	-0.702465	-178.018189	-10.126853	69.727030
3.600000	-10.355261	114.372591	-0.668827	179.270925	-0.668827	179.270925	-10.496394	65.584514
3.650000	-10.726662	113.394800	-0.636612	176.541683	-0.636612	176.541683	-10.888228	61.270495
3.700000	-11.117268	112.582869	-0.606009	173.794895	-0.606009	173.794895	-11.302835	56.762811
3.750000	-11.526556	111.963038	-0.577199	171.031485	-0.577199	171.031485	-11.740379	52.035423
3.800000	-11.953274	111.570725	-0.550396	168.252173	-0.550396	168.252173	-12.200456	47.051552
3.850000	-12.395421	111.435463	-0.525716	165.458461	-0.525716	165.458461	-12.681928	41.780036
3.900000	-12.849882	111.594194	-0.503297	162.651580	-0.503297	162.651580	-13.182645	36.179579
3.950000	-13.312058	112.086104	-0.483259	159.832844	-0.483259	159.832844	-13.698955	30.203704
4.000000	-13.775468	112.950593	-0.465706	157.003635	-0.465706	157.003635	-14.225136	23.801927
4.050000	-14.231339	114.223773	-0.450719	154.165395	-0.450719	154.165395	-14.752724	16.922600
4.100000	-14.668322	115.933099	-0.438360	151.319609	-0.438360	151.319609	-15.269805	9.518344
4.150000	-15.072480	118.089998	-0.428670	148.467792	-0.428670	148.467792	-15.760495	1.554966
4.200000	-15.427808	120.681121	-0.421669	145.611474	-0.421669	145.611474	-16.204954	-6.975831
4.250000	-15.717508	123.660013	-0.417354	142.752184	-0.417354	142.752184	-16.580451	-16.041362
4.300000	-15.926061	126.942313	-0.415700	139.891438	-0.415700	139.891438	-16.863921	-25.554728
4.350000	-16.041789	130.408010	-0.416662	137.030720	-0.416662	137.030720	-17.035933	-35.370476
4.400000	-16.058138	133.911485	-0.420201	134.171503	-0.420201	134.171503	-17.083721	-45.294648
4.450000	-15.977266	137.298314	-0.426230	131.315215	-0.426230	131.315215	-17.007226	-55.108416
4.500000	-15.809395	140.435534	-0.434614	128.463147	-0.434614	128.463147	-16.819018	-64.617814
4.550000	-15.568596	143.222505	-0.445234	125.616524	-0.445234	125.616524	-16.538347	-73.677402
4.600000	-15.271293	145.596518	-0.457952	122.776481	-0.457952	122.776481	-16.188125	-82.200415
4.650000	-14.933920	147.530572	-0.472618	119.944050	-0.472618	119.944050	-15.790963	-90.154479
4.700000	-14.571303	149.026096	-0.489072	117.120159	-0.489072	117.120159	-15.366612	-97.548394
4.750000	-14.195840	150.104090	-0.507143	114.305622	-0.507143	114.305622	-14.930887	-104.417041
4.800000	-13.817314	150.797047	-0.526650	111.501141	-0.526650	111.501141	-14.495646	-110.808637
4.850000	-13.443089	151.142732	-0.547409	108.707297	-0.547409	108.707297	-14.069315	-116.775789
4.900000	-13.078484	151.179943	-0.569231	105.924555	-0.569231	105.924555	-13.657589	-122.370036
4.950000	-12.727187	150.945927	-0.591924	103.153263	-0.591924	103.153263	-13.264109	-127.638982
5.000000	-12.391631	150.475001	-0.615295	100.393654	-0.615295	100.393654	-12.891031	-132.625102
5.050000	-12.073477	149.794115	-0.639158	97.646102	-0.639158	97.646102	-12.539656	-137.360933
5.100000	-11.773464	148.935359	-0.663309	94.910357	-0.663309	94.910357	-12.210260	-141.884393
5.150000	-11.491909	147.922235	-0.687562	92.186316	-0.687562	92.186316	-11.902737	-146.222775
5.200000	-11.228803	146.775120	-0.711738	89.473780	-0.711738	89.473780	-11.616680	-150.399497
5.250000	-10.983915	145.511614	-0.735661	86.772454	-0.735661	86.772454	-11.351501	-154.434677
5.300000	-10.756874	144.146891	-0.759164	84.081957	-0.759164	84.081957	-11.106513	-158.345645
5.350000	-10.547221	142.694021	-0.782086	81.401825	-0.782086	81.401825	-10.880977	-162.147389
5.400000	-10.354449	141.164264	-0.804276	78.731519	-0.804276	78.731519	-10.674149	-165.852946
5.450000	-10.178038	139.567335	-0.825591	76.070430	-0.825591	76.070430	-10.485298	-169.473719
5.500000	-10.017466	137.911626	-0.845897	73.417888	-0.845897	73.417888	-10.313725	-173.019753
5.550000	-9.872230	136.204408	-0.865071	70.773161	-0.865071	70.773161	-10.158772	-176.499953
5.600000	-9.741854	134.451991	-0.883000	68.135471	-0.883000	68.135471	-10.019833	-179.922278
5.650000	-9.626035	132.659504	-0.899565	65.504048	-0.899565	65.504048	-9.896499	176.706580
5.700000	-9.524365	130.831908	-0.914671	62.877993	-0.914671	62.877993	-9.788267	173.379914
5.750000	-9.436345	128.973841	-0.928254	60.256335	-0.928254	60.256335	-9.694547	170.091252
5.800000	-9.361656	127.089037	-0.940242	57.638140	-0.940242	57.638140	-9.614952	166.835124
5.850000	-9.300023	125.180837	-0.950577	55.022447	-0.950577	55.022447	-9.549150	163.606433
5.900000	-9.251218	123.252262	-0.959212	52.408276	-0.959212	52.408276	-9.496865	160.400392
5.950000	-9.215057	121.306075	-0.966109	49.794630	-0.966109	49.794630	-9.457876	157.212461
6.000000	-9.191405	119.344842	-0.971244	47.180502	-0.971244	47.180502	-9.432018	154.038300
6.050000	-9.180170	117.370984	-0.974600	44.564873	-0.974600	44.564873	-9.419178	150.873722
6.100000	-9.181309	115.386828	-0.976173	41.946722	-0.976173	41.946722	-9.419297	147.714650
6.150000	-9.194824	113.394658	-0.975971	39.325029	-0.975971	39.325029	-9.432372	144.557079
6.200000	-9.220767	111.396758	-0.974011	36.698774	-0.974011	36.698774	-9.458454	141.397033
6.250000	-9.259233	109.395462	-0.970321	34.066946	-0.970321	34.066946	-9.497649	138.230535
6.300000	-9.310640	107.393245	-0.964904	31.428378	-0.964904	31.428378	-9.550403	135.053238
6.350000	-9.374915	105.392779	-0.957848	28.782208	-0.957848	28.782208	-9.616655	131.861165
6.400000	-9.452301	103.396873	-0.949215	26.127467	-0.949215	26.127467	-9.696689	128.650066
6.450000	-9.543096	101.408611	-0.939074	23.463213	-0.939074	23.463213	-9.790846	125.415510
6.500000	-9.647645	99.431413	-0.927507	20.788529	-0.927507	20.788529	-9.899535	122.152825
6.550000	-9.766349	97.469121	-0.914605	18.102528	-0.914605	18.102528	-10.023232	118.857041
6.600000	-9.899659	95.526079	-0.900470	15.404359	-0.900470	15.404359	-10.162484	115.522805
6.650000	-10.048082	93.607242	-0.885214	12.693208	-0.885214	12.693208	-10.317915	112.144303
6.700000	-10.212173	91.718289	-0.868955	9.968307	-0.868955	9.968307	-10.490226	108.715142
6.750000	-10.392543	89.865767	-0.851825	7.228936	-0.851825	7.228936	-10.680201	105.228229
6.800000	-10.589845	88.057257	-0.833962	4.474426	-0.833962	4.474426	-10.888714	101.675607
6.850000	-10.804775	86.301568	-0.815513	1.704168	-0.815513	1.704168	-11.116728	98.048264
6.900000	-11.038195	84.609795	-0.796629	-1.082569	-0.796629	-1.082569	-11.365449	94.334833
6.950000	-11.290832	82.994444	-0.777480	-3.886279	-0.777480	-3.886279	-11.636021	90.522930
7.000000	-11.563270	81.469097	-0.758239	-6.707189	-0.758239	-6.707189	-11.929516	86.599436
7.050000	-11.856180	80.050537	-0.739084	-9.545624	-0.739084	-9.545624	-12.247234	82.547811
7.100000	-12.170127	78.758528	-0.720196	-12.401828	-0.720196	-12.401828	-12.590518	78.348422
7.150000	-12.505490	77.616353	-0.701759	-15.275962	-0.701759	-15.275962	-12.960715	73.977782
7.200000	-12.862345	76.651400	-0.683964	-18.168094	-0.683964	-18.168094	-13.359097	69.407613
7.250000	-13.240301	75.895771	-0.667002	-21.078202	-0.667002	-21.078202	-13.786746	64.603694
7.300000	-13.638259	75.386831	-0.651066	-24.006167	-0.651066	-24.006167	-14.244354	59.524484
7.350000	-14.054092	75.167542	-0.636348	-26.951772	-0.636348	-26.951772	-14.731918	54.119560
7.400000	-14.484201	75.286319	-0.623040	-29.914704	-0.623040	-29.914704	-15.248270	48.327991
7.450000	-14.922947	75.795956	-0.611331	-32.894546	-0.611331	-32.894546	-15.790350	42.077027
7.500000	-15.361967	76.750938	-0.601406	-35.890786	-0.601406	-35.890786	-16.352154	35.281844
7.550000	-15.788410	78.213930	-0.593490	-38.903138	-0.593490	-38.903138	-16.922275	27.831689
7.600000	-16.186735	80.212467	-0.587718	-41.930531	-0.587718	-41.930531	-17.483981	19.641975
7.650000	-16.536933	82.757291	-0.584253	-44.972161	-0.584253	-44.972161	-18.012008	10.632671
7.700000	-16.816098	85.817170	-0.583248	-48.027135	-0.583248	-48.027135	-18.472078	0.770032
7.750000	-17.001054	89.305580	-0.584846	-51.094480	-0.584846	-51.094480	-18.822950	-9.893384
7.800000	-17.072413	93.076959	-0.589178	-54.173150	-0.589178	-54.173150	-19.023131	-21.183283
7.850000	-17.018985	96.939100	-0.596359	-57.262032	-0.596359	-57.262032	-19.041908	-32.799883
7.900000	-16.840739	100.681779	-0.606493	-60.359956	-0.606493	-60.359956	-18.870067	-44.366990
7.950000	-16.548820	104.112389	-0.619667	-63.465703	-0.619667	-63.465703	-18.523524	-55.521040
8.000000	-16.162613	107.084779	-0.635952	-66.578017	-0.635952	-66.578017	-18.037212	-65.993313
8.050000	-15.705329	109.511932	-0.655402	-69.695616	-0.655402	-69.695616	-17.453575	-75.644516
8.100000	-15.199941	111.362385	-0.678056	-72.817202	-0.678056	-72.817202	-16.812436	-84.449559
8.150000	-14.666042	112.641239	-0.703971	-75.941484	-0.703971	-75.941484	-16.145076	-92.450679
8.200000	-14.120087	113.387812	-0.733149	-79.067121	-0.733149	-79.067121	-15.474876	-99.737818
8.250000	-13.574600	113.659680	-0.765544	-82.192804	-0.765544	-82.192804	-14.817453	-106.416241
8.300000	-13.037992	113.511945	-0.801128	-85.317282	-0.801128	-85.317282	-14.181853	-112.577503
8.350000	-12.516280	113.007369	-0.839774	-88.439441	-0.839774	-88.439441	-13.573463	-118.313095
8.400000	-12.012193	112.174384	-0.881605	-91.557926	-0.881605	-91.557926	-12.993875	-123.667287
8.450000	-11.528406	111.068821	-0.926454	-94.671698	-0.926454	-94.671698	-12.444387	-128.711292
8.500000	-11.065962	109.728835	-0.974239	-97.779702	-0.974239	-97.779702	-11.924687	-133.491792
8.550000	-10.625183	108.187326	-1.024865	-100.880953	-1.024865	-100.880953	-11.433854	-138.046996
8.600000	-10.205910	106.472481	-1.078230	-103.974534	-1.078230	-103.974534	-10.970636	-142.408175
8.650000	-9.807668	104.608378	-1.134222	-107.059606	-1.134222	-107.059606	-10.533613	-146.600976
8.700000	-9.429781	102.615563	-1.192723	-110.135405	-1.192723	-110.135405	-10.121303	-150.646517
8.750000	-9.071457	100.511579	-1.253609	-113.201248	-1.253609	-113.201248	-9.732232	-154.562273
8.800000	-8.731914	98.310232	-1.316773	-116.256369	-1.316773	-116.256369	-9.365050	-158.361303
8.850000	-8.410207	96.025898	-1.382056	-119.300392	-1.382056	-119.300392	-9.018309	-162.057573
8.900000	-8.105679	93.667168	-1.449372	-122.332412	-1.449372	-122.332412	-8.690951	-165.658073
8.950000	-7.816938	91.248993	-1.518470	-125.353095	-1.518470	-125.353095	-8.381206	-169.178814
9.000000	-7.543463	88.776140	-1.589283	-128.361518	-1.589283	-128.361518	-8.088268	-172.622689
9.050000	-7.284557	86.254707	-1.661697	-131.357220	-1.661697	-131.357220	-7.811183	-175.994683
9.100000	-7.038970	83.694207	-1.735508	-134.341013	-1.735508	-134.341013	-7.548476	-179.305509
9.150000	-6.806822	81.094810	-1.810682	-137.311098	-1.810682	-137.311098	-7.300067	177.448339
9.200000	-6.586322	78.466998	-1.886988	-140.269648	-1.886988	-140.269648	-7.064018	174.252580
9.250000	-6.378035	75.809205	-1.964381	-143.214240	-1.964381	-143.214240	-6.840706	171.113753
9.300000	-6.180256	73.129470	-2.042683	-146.147150	-2.042683	-146.147150	-6.628343	168.019716
9.350000	-5.992925	70.428838	-2.121797	-149.067468	-2.121797	-149.067468	-6.426730	164.971512
9.400000	-5.815555	67.709898	-2.201605	-151.975249	-2.201605	-151.975249	-6.235272	161.966769
9.450000	-5.647521	64.975423	-2.281992	-154.870948	-2.281992	-154.870948	-6.053260	159.002129
9.500000	-5.488348	62.227489	-2.362852	-157.754816	-2.362852	-157.754816	-5.880138	156.075337
9.550000	-5.337592	59.467925	-2.444083	-160.627139	-2.444083	-160.627139	-5.715389	153.184321
9.600000	-5.194864	56.698302	-2.525582	-163.488182	-2.525582	-163.488182	-5.558557	150.327324
9.650000	-5.059802	53.920028	-2.607250	-166.338250	-2.607250	-166.338250	-5.409215	147.502697
9.700000	-4.931989	51.134455	-2.689004	-169.177826	-2.689004	-169.177826	-5.266901	144.708472
9.750000	-4.811089	48.342697	-2.770756	-172.007315	-2.770756	-172.007315	-5.131230	141.943119
9.800000	-4.696786	45.545745	-2.852424	-174.827143	-2.852424	-174.827143	-5.001848	139.205205
9.850000	-4.588788	42.744485	-2.933932	-177.637763	-2.933932	-177.637763	-4.878422	136.493391
9.900000	-4.486889	39.939672	-3.015187	179.560470	-3.015187	179.560470	-4.760703	133.806754
9.950000	-4.390873	37.132021	-3.096109	176.767117	-3.096109	176.767117	-4.648439	131.144297
10.000000	-4.299982	34.322408	-3.176760	173.980779	-3.176760	173.980779	-4.540942	128.502324
