! freq	dB(S11)	phase(S11)	dB(S12)	phase(S12)	
!     	dB(S21)	phase(S21)	dB(S22)	phase(S22)	
!S-par simulation data
#  GHz  S  DB  R 50
0.000000	-0.000000	0.000000	-365.921652	0.000000	-365.921652	0.000000	-0.000000	0.000000
0.050000	-0.000105	-0.804914	-117.150370	88.777927	-117.150370	88.777927	-0.000101	-0.771126
0.100000	-0.000415	-1.609568	-111.233917	87.741743	-111.233917	87.741743	-0.000398	-1.542004
0.150000	-0.000916	-2.413726	-107.856660	86.922543	-107.856660	86.922543	-0.000880	-2.312405
0.200000	-0.001588	-3.217195	-105.530195	86.264408	-105.530195	86.264408	-0.001525	-3.082145
0.250000	-0.002414	-4.019760	-103.798268	85.725627	-103.798268	85.725627	-0.002318	-3.851019
0.300000	-0.003356	-4.821390	-102.448315	85.276152	-102.448315	85.276152	-0.003220	-4.618999
0.350000	-0.004394	-5.621982	-101.379619	84.923319	-101.379619	84.923319	-0.004214	-5.385990
0.400000	-0.005504	-6.421502	-100.531379	84.684242	-100.531379	84.684242	-0.005276	-6.151963
0.450000	-0.006664	-7.219950	-99.866209	84.587521	-99.866209	84.587521	-0.006385	-6.916918
0.500000	-0.007856	-8.017343	-99.360446	84.672998	-99.360446	84.672998	-0.007523	-7.680878
0.550000	-0.009065	-8.813715	-98.999162	84.994067	-98.999162	84.994067	-0.008677	-8.443875
0.600000	-0.010279	-9.609105	-98.773337	85.622385	-98.773337	85.622385	-0.009835	-9.205950
0.650000	-0.011491	-10.403554	-98.677968	86.655454	-98.677968	86.655454	-0.010990	-9.967147
0.700000	-0.012694	-11.197104	-98.710383	88.228084	-98.710383	88.228084	-0.012135	-10.727503
0.750000	-0.013884	-11.989788	-98.867958	90.528999	-98.867958	90.528999	-0.013268	-11.487056
0.800000	-0.015058	-12.781637	-99.144033	93.822840	-99.144033	93.822840	-0.014386	-12.245836
0.850000	-0.016217	-13.572676	-99.519845	98.472354	-99.519845	98.472354	-0.015488	-13.003867
0.900000	-0.017359	-14.362921	-99.949179	104.937089	-99.949179	104.937089	-0.016574	-13.761166
0.950000	-0.018485	-15.152385	-100.334241	113.682250	-100.334241	113.682250	-0.017644	-14.517747
1.000000	-0.019596	-15.941074	-100.505643	124.890602	-100.505643	124.890602	-0.018700	-15.273617
1.050000	-0.020693	-16.728991	-100.252949	137.985617	-100.252949	137.985617	-0.019743	-16.028779
1.100000	-0.021776	-17.516133	-99.447279	151.413450	-99.447279	151.413450	-0.020773	-16.783231
1.150000	-0.022848	-18.302495	-98.155532	163.354350	-98.155532	163.354350	-0.021792	-17.536969
1.200000	-0.023910	-19.088068	-96.579595	172.824240	-96.579595	172.824240	-0.022802	-18.289986
1.250000	-0.024962	-19.872842	-94.908623	179.834171	-94.908623	179.834171	-0.023803	-19.042273
1.300000	-0.026006	-20.656768	-93.246490	-175.216729	-93.246490	-175.216729	-0.024796	-19.793785
1.350000	-0.027044	-21.439867	-91.659371	-171.728545	-91.659371	-171.728545	-0.025783	-20.544542
1.400000	-0.028075	-22.222124	-90.163162	-169.315040	-90.163162	-169.315040	-0.026764	-21.294529
1.450000	-0.029101	-23.003522	-88.758610	-167.694796	-88.758610	-167.694796	-0.027741	-22.043732
1.500000	-0.030122	-23.784045	-87.440257	-166.667300	-87.440257	-166.667300	-0.028714	-22.792136
1.550000	-0.031140	-24.563675	-86.200599	-166.089742	-86.200599	-166.089742	-0.029683	-23.539724
1.600000	-0.032155	-25.342395	-85.031902	-165.859423	-85.031902	-165.859423	-0.030650	-24.286481
1.650000	-0.033168	-26.120187	-83.926938	-165.901431	-83.926938	-165.901431	-0.031615	-25.032390
1.700000	-0.034178	-26.896697	-82.855258	-166.216384	-82.855258	-166.216384	-0.032579	-25.777127
1.750000	-0.035187	-27.672707	-81.869699	-166.629225	-81.869699	-166.629225	-0.033541	-26.521407
1.800000	-0.036196	-28.447514	-80.916034	-167.204123	-80.916034	-167.204123	-0.034503	-27.264588
1.850000	-0.037204	-29.221463	-80.012680	-167.894778	-80.012680	-167.894778	-0.035465	-28.006983
1.900000	-0.038212	-29.994342	-79.144626	-168.680607	-79.144626	-168.680607	-0.036426	-28.748400
1.950000	-0.039220	-30.766152	-78.310213	-169.561610	-78.310213	-169.561610	-0.037388	-29.488839
2.000000	-0.040228	-31.537040	-77.513210	-170.499164	-77.513210	-170.499164	-0.038351	-30.228435
2.050000	-0.041238	-32.306639	-76.737407	-171.515888	-76.737407	-171.515888	-0.039315	-30.966849
2.100000	-0.042248	-33.075476	-76.000321	-172.565929	-76.000321	-172.565929	-0.040280	-31.704567
2.150000	-0.043261	-33.842790	-75.274999	-173.682604	-75.274999	-173.682604	-0.041248	-32.440891
2.200000	-0.044275	-34.609517	-74.589158	-174.818174	-74.589158	-174.818174	-0.042216	-33.176675
2.250000	-0.045292	-35.374478	-73.907832	-176.010431	-73.907832	-176.010431	-0.043188	-33.910842
2.300000	-0.046310	-36.139037	-73.266361	-177.212425	-73.266361	-177.212425	-0.044161	-34.644640
2.350000	-0.047333	-36.901579	-72.623780	-178.463099	-72.623780	-178.463099	-0.045139	-35.376589
2.400000	-0.048357	-37.663915	-72.021140	-179.717605	-72.021140	-179.717605	-0.046117	-36.108348
2.450000	-0.049387	-38.423974	-71.412992	178.985745	-71.412992	178.985745	-0.047102	-36.838018
2.500000	-0.050418	-39.184034	-70.844652	177.689095	-70.844652	177.689095	-0.048088	-37.567688
2.550000	-0.051457	-39.941549	-70.267353	176.355713	-70.267353	176.355713	-0.049081	-38.295022
2.600000	-0.052496	-40.699065	-69.726043	175.022332	-69.726043	175.022332	-0.050075	-39.022357
2.650000	-0.053545	-41.454196	-69.180092	173.661712	-69.180092	173.661712	-0.051077	-39.747499
2.700000	-0.054595	-42.209110	-68.663325	172.298615	-68.663325	172.298615	-0.052081	-40.472442
2.750000	-0.055654	-42.961810	-68.145499	170.915277	-68.145499	170.915277	-0.053093	-41.195348
2.800000	-0.056715	-43.714068	-67.651140	169.527890	-67.651140	169.527890	-0.054108	-41.917847
2.850000	-0.057786	-44.464294	-67.158706	168.125486	-67.158706	168.125486	-0.055132	-42.638476
2.900000	-0.058861	-45.213844	-66.684910	166.718075	-66.684910	166.718075	-0.056160	-43.358481
2.950000	-0.059946	-45.961555	-66.215528	165.299583	-66.215528	165.299583	-0.057197	-44.076792
3.000000	-0.061035	-46.708348	-65.760686	163.875550	-65.760686	163.875550	-0.058238	-44.794256
3.050000	-0.062134	-47.453506	-65.312336	162.443426	-65.312336	162.443426	-0.059289	-45.510212
3.100000	-0.063241	-48.197497	-64.875035	161.005522	-64.875035	161.005522	-0.060346	-46.225091
3.150000	-0.064356	-48.940065	-64.445961	159.561807	-64.445961	159.561807	-0.061412	-46.938656
3.200000	-0.065480	-49.681212	-64.024954	158.112281	-64.024954	158.112281	-0.062487	-47.650907
3.250000	-0.066613	-50.421157	-63.613617	156.658687	-63.613617	156.658687	-0.063569	-48.362047
3.300000	-0.067757	-51.159420	-63.207794	155.199397	-63.207794	155.199397	-0.064662	-49.071632
3.350000	-0.068908	-51.896709	-62.812841	153.737369	-62.812841	153.737369	-0.065762	-49.780315
3.400000	-0.070074	-52.632053	-62.421209	152.269866	-62.421209	152.269866	-0.066876	-50.487197
3.450000	-0.071246	-53.366659	-62.041439	150.800636	-62.041439	150.800636	-0.067995	-51.193395
3.500000	-0.072435	-54.099052	-61.663108	149.326225	-61.663108	149.326225	-0.069130	-51.897541
3.550000	-0.073628	-54.830948	-61.297453	147.850847	-61.297453	147.850847	-0.070270	-52.601225
3.600000	-0.074842	-55.560360	-60.931620	146.370634	-60.931620	146.370634	-0.071429	-53.302605
3.650000	-0.076059	-56.289522	-60.579124	144.890016	-60.579124	144.890016	-0.072590	-54.003751
3.700000	-0.077299	-57.015929	-60.225060	143.404947	-60.225060	143.404947	-0.073774	-54.702336
3.750000	-0.078540	-57.742335	-59.884865	141.919878	-59.884865	141.919878	-0.074959	-55.400920
3.800000	-0.079809	-58.465713	-59.541909	140.430765	-59.541909	140.430765	-0.076169	-56.096686
3.850000	-0.081079	-59.189091	-59.211981	138.941652	-59.211981	138.941652	-0.077381	-56.792452
3.900000	-0.082376	-59.909677	-58.880786	137.449478	-58.880786	137.449478	-0.078618	-57.485614
3.950000	-0.083675	-60.630008	-58.560590	135.957025	-58.560590	135.957025	-0.079857	-58.178539
4.000000	-0.085001	-61.347787	-58.240439	134.462298	-58.240439	134.462298	-0.081122	-58.869082
4.050000	-0.086333	-62.065055	-57.929483	132.967117	-57.929483	132.967117	-0.082392	-59.559147
4.100000	-0.087689	-62.780018	-57.619722	131.470292	-57.619722	131.470292	-0.083685	-60.247056
4.150000	-0.089055	-63.494212	-57.317554	129.972918	-57.317554	129.972918	-0.084986	-60.934246
4.200000	-0.090443	-64.206350	-57.017587	128.474396	-57.017587	128.474396	-0.086310	-61.619511
4.250000	-0.091844	-64.917460	-56.723789	126.975301	-56.723789	126.975301	-0.087645	-62.303812
4.300000	-0.093266	-65.626769	-56.433072	125.475443	-56.433072	125.475443	-0.089000	-62.986423
4.350000	-0.094704	-66.334790	-56.147256	123.975041	-56.147256	123.975041	-0.090370	-63.667826
4.400000	-0.096161	-67.041265	-55.865290	122.474171	-55.865290	122.474171	-0.091758	-64.347776
4.450000	-0.097638	-67.746195	-55.587098	120.972832	-55.587098	120.972832	-0.093165	-65.026273
4.500000	-0.099132	-68.449837	-55.313424	119.471240	-55.313424	119.471240	-0.094588	-65.703557
4.550000	-0.100649	-69.151676	-55.042523	117.969294	-55.042523	117.969294	-0.096033	-66.379143
4.600000	-0.102181	-69.852487	-54.776718	116.467243	-54.776718	116.467243	-0.097492	-67.053759
4.650000	-0.103741	-70.551240	-54.512795	114.964983	-54.512795	114.964983	-0.098977	-67.726434
4.700000	-0.105312	-71.249223	-54.254470	113.462711	-54.254470	113.462711	-0.100473	-68.398380
4.750000	-0.106916	-71.944897	-53.997236	111.960403	-53.997236	111.960403	-0.102000	-69.068144
4.800000	-0.108528	-72.640060	-53.746029	110.458126	-53.746029	110.458126	-0.103534	-69.737423
4.850000	-0.110178	-73.332665	-53.495213	108.956009	-53.495213	108.956009	-0.105105	-70.404279
4.900000	-0.111832	-74.025016	-53.250790	107.453926	-53.250790	107.453926	-0.106679	-71.070894
4.950000	-0.113530	-74.714566	-53.006136	105.952216	-53.006136	105.952216	-0.108295	-71.734850
5.000000	-0.115228	-75.404116	-52.768185	104.450506	-52.768185	104.450506	-0.109911	-72.398806
5.050000	-0.116976	-76.090627	-52.529456	102.949402	-52.529456	102.949402	-0.111573	-73.059871
5.100000	-0.118723	-76.777138	-52.297113	101.448297	-52.297113	101.448297	-0.113236	-73.720936
5.150000	-0.120518	-77.460881	-52.064659	99.947913	-52.064659	99.947913	-0.114943	-74.379361
5.200000	-0.122317	-78.144373	-51.837719	98.447594	-51.837719	98.447594	-0.116654	-75.037546
5.250000	-0.124160	-78.825366	-51.611264	96.948067	-51.611264	96.948067	-0.118408	-75.693344
5.300000	-0.126012	-79.505860	-51.389533	95.448699	-51.389533	95.448699	-0.120169	-76.348664
5.350000	-0.127905	-80.184125	-51.168821	93.950158	-51.168821	93.950158	-0.121970	-77.001848
5.400000	-0.129812	-80.861646	-50.952115	92.451893	-50.952115	92.451893	-0.123783	-77.654320
5.450000	-0.131756	-81.537204	-50.736904	90.954457	-50.736904	90.954457	-0.125632	-78.304906
5.500000	-0.133719	-82.211781	-50.525051	89.457435	-50.525051	89.457435	-0.127500	-78.954549
5.550000	-0.135717	-82.884657	-50.315116	87.961215	-50.315116	87.961215	-0.129399	-79.602554
5.600000	-0.137739	-83.556319	-50.107953	86.465567	-50.107953	86.465567	-0.131322	-80.249390
5.650000	-0.139790	-84.226540	-49.903080	84.970667	-49.903080	84.970667	-0.133273	-80.894834
5.700000	-0.141872	-84.895321	-49.700452	83.476514	-49.700452	83.476514	-0.135252	-81.538886
5.750000	-0.143980	-85.562915	-49.500444	81.983031	-49.500444	81.983031	-0.137256	-82.181790
5.800000	-0.146124	-86.228849	-49.302203	80.490485	-49.302203	80.490485	-0.139295	-82.823085
5.850000	-0.148289	-86.893847	-49.106872	78.998510	-49.106872	78.998510	-0.141353	-83.463471
5.900000	-0.150496	-87.556973	-48.912877	77.507677	-48.912877	77.507677	-0.143452	-84.102038
5.950000	-0.152720	-88.219406	-48.722046	76.017295	-48.722046	76.017295	-0.145567	-84.739930
6.000000	-0.154992	-88.879764	-48.532165	74.528272	-48.532165	74.528272	-0.147728	-85.375799
6.050000	-0.157277	-89.539667	-48.345669	73.039564	-48.345669	73.039564	-0.149899	-86.011224
6.100000	-0.159616	-90.197300	-48.159774	71.552442	-48.159774	71.552442	-0.152124	-86.644428
6.150000	-0.161963	-90.854709	-47.977453	70.065484	-47.977453	70.065484	-0.154355	-87.277413
6.200000	-0.164371	-91.509661	-47.795424	68.580347	-47.795424	68.580347	-0.156645	-87.907987
6.250000	-0.166780	-92.164612	-47.617131	67.095210	-47.617131	67.095210	-0.158935	-88.538560
6.300000	-0.169260	-92.816931	-47.438850	65.612137	-47.438850	65.612137	-0.161293	-89.166541
6.350000	-0.171739	-93.469250	-47.264155	64.129065	-47.264155	64.129065	-0.163650	-89.794522
6.400000	-0.174285	-94.119199	-47.089801	62.647952	-47.089801	62.647952	-0.166071	-90.420161
6.450000	-0.176837	-94.768934	-46.918601	61.167017	-46.918601	61.167017	-0.168498	-91.045588
6.500000	-0.179451	-95.416558	-46.748036	59.687920	-46.748036	59.687920	-0.170982	-91.668920
6.550000	-0.182077	-96.063760	-46.580231	58.209191	-46.580231	58.209191	-0.173480	-92.291832
6.600000	-0.184759	-96.709103	-46.413327	56.732162	-46.413327	56.732162	-0.176030	-92.912892
6.650000	-0.187461	-97.353826	-46.248822	55.255699	-46.248822	55.255699	-0.178600	-93.533334
6.700000	-0.190215	-97.996933	-46.085454	53.780785	-46.085454	53.780785	-0.181218	-94.152159
6.750000	-0.192994	-98.639232	-45.924159	52.306645	-45.924159	52.306645	-0.183861	-94.770174
6.800000	-0.195820	-99.280151	-45.764210	50.833890	-45.764210	50.833890	-0.186548	-95.386802
6.850000	-0.198678	-99.920085	-45.606035	49.362123	-45.606035	49.362123	-0.189266	-96.002437
6.900000	-0.201577	-100.558864	-45.449394	47.891564	-45.449394	47.891564	-0.192023	-96.616907
6.950000	-0.204516	-101.196491	-45.294255	46.422213	-45.294255	46.422213	-0.194818	-97.230211
7.000000	-0.207490	-101.833181	-45.140815	44.953886	-45.140815	44.953886	-0.197646	-97.842563
7.050000	-0.210512	-102.468562	-44.988630	43.486990	-44.988630	43.486990	-0.200520	-98.453584
7.100000	-0.213562	-103.103215	-44.838290	42.020922	-44.838290	42.020922	-0.203421	-99.063862
7.150000	-0.216668	-103.736413	-44.688981	40.556512	-44.688981	40.556512	-0.206375	-99.672653
7.200000	-0.219796	-104.369082	-44.541643	39.092729	-44.541643	39.092729	-0.209350	-100.280899
7.250000	-0.222987	-105.000162	-44.395133	37.630829	-44.395133	37.630829	-0.212385	-100.887511
7.300000	-0.226194	-105.630900	-44.250705	36.169350	-44.250705	36.169350	-0.215435	-101.493770
7.350000	-0.229473	-106.259929	-44.106923	34.709978	-44.106923	34.709978	-0.218554	-102.098259
7.400000	-0.232760	-106.888793	-43.965316	33.250817	-43.965316	33.250817	-0.221681	-102.702577
7.450000	-0.236127	-107.515839	-43.824189	31.793982	-43.824189	31.793982	-0.224884	-103.304999
7.500000	-0.239496	-108.142885	-43.685319	30.337148	-43.685319	30.337148	-0.228089	-103.907422
7.550000	-0.242954	-108.768018	-43.546781	28.882853	-43.546781	28.882853	-0.231378	-104.507835
7.600000	-0.246413	-109.393151	-43.410417	27.428559	-43.410417	27.428559	-0.234669	-105.108249
7.650000	-0.249955	-110.016596	-43.274550	25.976589	-43.274550	25.976589	-0.238039	-105.706875
7.700000	-0.253506	-110.639888	-43.140631	24.524830	-43.140631	24.524830	-0.241417	-106.305339
7.750000	-0.257134	-111.261707	-43.007357	23.075172	-43.007357	23.075172	-0.244869	-106.902229
7.800000	-0.260779	-111.883230	-42.875823	21.625935	-42.875823	21.625935	-0.248336	-107.498804
7.850000	-0.264493	-112.503484	-42.745066	20.178572	-42.745066	20.178572	-0.251870	-108.094009
7.900000	-0.268232	-113.123315	-42.615859	18.731834	-42.615859	18.731834	-0.255428	-108.688758
7.950000	-0.272035	-113.742068	-42.487548	17.286743	-42.487548	17.286743	-0.259046	-109.282331
8.000000	-0.275870	-114.360282	-42.360613	15.842474	-42.360613	15.842474	-0.262695	-109.875317
8.050000	-0.279762	-114.977599	-42.234680	14.399623	-42.234680	14.399623	-0.266399	-110.467313
8.100000	-0.283695	-115.594274	-42.109964	12.957784	-42.109964	12.957784	-0.270141	-111.058602
8.150000	-0.287677	-116.210221	-41.986342	11.517135	-41.986342	11.517135	-0.273931	-111.649075
8.200000	-0.291709	-116.825438	-41.863794	10.077677	-41.863794	10.077677	-0.277767	-112.238733
8.250000	-0.295783	-117.440081	-41.742422	8.639187	-41.742422	8.639187	-0.281644	-112.827741
8.300000	-0.299915	-118.053921	-41.621993	7.202052	-41.621993	7.202052	-0.285576	-113.415837
8.350000	-0.304081	-118.667329	-41.502812	5.765669	-41.502812	5.765669	-0.289541	-114.003436
8.400000	-0.308314	-119.279874	-41.384456	4.330790	-41.384456	4.330790	-0.293569	-114.590039
8.450000	-0.312574	-119.892117	-41.267409	2.896456	-41.267409	2.896456	-0.297623	-115.176288
8.500000	-0.316909	-120.503453	-41.151083	1.463757	-41.151083	1.463757	-0.301750	-115.761470
8.550000	-0.321263	-121.114601	-41.036117	0.031407	-41.036117	0.031407	-0.305894	-116.346428
8.600000	-0.325702	-121.724814	-40.921779	-1.399199	-40.921779	-1.399199	-0.310119	-116.930262
8.650000	-0.330152	-122.334939	-40.808843	-2.829638	-40.808843	-2.829638	-0.314354	-117.513990
8.700000	-0.334696	-122.944115	-40.696454	-4.258245	-40.696454	-4.258245	-0.318679	-118.096550
8.750000	-0.339242	-123.553292	-40.585501	-5.686851	-40.585501	-5.686851	-0.323006	-118.679110
8.800000	-0.343891	-124.161521	-40.475025	-7.113563	-40.475025	-7.113563	-0.327431	-119.260472
8.850000	-0.348543	-124.769751	-40.365937	-8.540275	-40.365937	-8.540275	-0.331859	-119.841833
8.900000	-0.353290	-125.377197	-40.257414	-9.965353	-40.257414	-9.965353	-0.336378	-120.422167
8.950000	-0.358048	-125.984571	-40.150160	-11.390282	-40.150160	-11.390282	-0.340907	-121.002407
9.000000	-0.362894	-126.591310	-40.043549	-12.813827	-40.043549	-12.813827	-0.345520	-121.581779
9.050000	-0.367760	-127.197921	-39.938099	-14.237095	-39.938099	-14.237095	-0.350152	-122.160976
9.100000	-0.372705	-127.804032	-39.833362	-15.659214	-39.833362	-15.659214	-0.354860	-122.739452
9.150000	-0.377679	-128.409975	-39.729691	-17.080950	-39.729691	-17.080950	-0.359595	-123.317688
9.200000	-0.382724	-129.015537	-39.626793	-18.501755	-39.626793	-18.501755	-0.364398	-123.895337
9.250000	-0.387807	-129.620909	-39.524878	-19.922094	-39.524878	-19.922094	-0.369237	-124.472692
9.300000	-0.392953	-130.226004	-39.423787	-21.341703	-39.423787	-21.341703	-0.374136	-125.049583
9.350000	-0.398145	-130.830901	-39.323608	-22.760789	-39.323608	-22.760789	-0.379080	-125.626142
9.400000	-0.403392	-131.435611	-39.224297	-24.179324	-39.224297	-24.179324	-0.384075	-126.202345
9.450000	-0.408694	-132.040134	-39.125838	-25.597306	-39.125838	-25.597306	-0.389123	-126.778192
9.500000	-0.414042	-132.644543	-39.028280	-27.014893	-39.028280	-27.014893	-0.394216	-127.353779
9.550000	-0.419454	-133.248793	-38.931527	-28.431925	-38.931527	-28.431925	-0.399369	-127.929002
9.600000	-0.424904	-133.852987	-38.835701	-29.848693	-38.835701	-29.848693	-0.404558	-128.504047
9.650000	-0.430427	-134.457067	-38.740645	-31.264933	-38.740645	-31.264933	-0.409817	-129.078734
9.700000	-0.435979	-135.061132	-38.646531	-32.681015	-38.646531	-32.681015	-0.415104	-129.653310
9.750000	-0.441612	-135.665148	-38.553166	-34.096623	-38.553166	-34.096623	-0.420469	-130.227551
9.800000	-0.447267	-136.269172	-38.460748	-35.512154	-38.460748	-35.512154	-0.425853	-130.801734
9.850000	-0.453011	-136.873232	-38.369073	-36.927293	-38.369073	-36.927293	-0.431324	-131.375623
9.900000	-0.458767	-137.477305	-38.278337	-38.342407	-38.278337	-38.342407	-0.436806	-131.949490
9.950000	-0.464622	-138.081517	-38.188353	-39.757241	-38.188353	-39.757241	-0.442382	-132.523120
10.000000	-0.470480	-138.685730	-38.099291	-41.172074	-38.099291	-41.172074	-0.447962	-133.096750
