! freq	dB(S11)	phase(S11)	dB(S12)	phase(S12)	
!     	dB(S21)	phase(S21)	dB(S22)	phase(S22)	
!S-par simulation data
#  GHz  S  DB  R 50
0.000000	-0.000000	-0.000000	-314.148945	180.000000	-314.148945	180.000000	-0.000000	-0.000000
0.050000	-0.000117	-0.956496	-111.749388	88.756608	-111.749388	88.756608	-0.000117	-0.956425
0.100000	-0.000465	-1.912709	-105.790811	87.540376	-105.790811	87.540376	-0.000466	-1.912566
0.150000	-0.001030	-2.868373	-102.370788	86.375644	-102.370788	86.375644	-0.001031	-2.868158
0.200000	-0.001790	-3.823268	-100.010996	85.281670	-100.010996	85.281670	-0.001792	-3.822979
0.250000	-0.002733	-4.777138	-98.254416	84.280135	-98.254416	84.280135	-0.002735	-4.776774
0.300000	-0.003815	-5.729930	-96.884506	83.375809	-96.884506	83.375809	-0.003818	-5.729489
0.350000	-0.005016	-6.681500	-95.795852	82.584131	-95.795852	82.584131	-0.005020	-6.680982
0.400000	-0.006311	-7.631785	-94.923798	81.918147	-94.923798	81.918147	-0.006315	-7.631187
0.450000	-0.007675	-8.580752	-94.227790	81.394075	-94.227790	81.394075	-0.007679	-8.580074
0.500000	-0.009085	-9.528395	-93.681513	81.033518	-93.681513	81.033518	-0.009090	-9.527637
0.550000	-0.010525	-10.474727	-93.267716	80.865913	-93.267716	80.865913	-0.010530	-10.473890
0.600000	-0.011980	-11.419775	-92.975274	80.931522	-92.975274	80.931522	-0.011984	-11.418857
0.650000	-0.013437	-12.363567	-92.797359	81.285429	-92.797359	81.285429	-0.013441	-12.362571
0.700000	-0.014888	-13.306138	-92.730136	82.003155	-92.730136	82.003155	-0.014891	-13.305064
0.750000	-0.016326	-14.247519	-92.771556	83.188668	-92.771556	83.188668	-0.016329	-14.246367
0.800000	-0.017748	-15.187737	-92.919802	84.985633	-92.919802	84.985633	-0.017750	-15.186508
0.850000	-0.019150	-16.126814	-93.170657	87.592255	-93.170657	87.592255	-0.019152	-16.125509
0.900000	-0.020532	-17.064767	-93.512598	91.277509	-93.512598	91.277509	-0.020533	-17.063388
0.950000	-0.021893	-18.001608	-93.917683	96.388372	-93.917683	96.388372	-0.021893	-18.000154
1.000000	-0.023233	-18.937340	-94.326424	103.317365	-94.326424	103.317365	-0.023233	-18.935812
1.050000	-0.024553	-19.871965	-94.629550	112.368037	-94.629550	112.368037	-0.024553	-19.870363
1.100000	-0.025855	-20.805476	-94.665792	123.459525	-94.665792	123.459525	-0.025854	-20.803802
1.150000	-0.027140	-21.737865	-94.273820	135.780416	-94.273820	135.780416	-0.027138	-21.736119
1.200000	-0.028409	-22.669119	-93.397733	147.855345	-93.397733	147.855345	-0.028407	-22.667301
1.250000	-0.029663	-23.599223	-92.135873	158.311069	-92.135873	158.311069	-0.029661	-23.597333
1.300000	-0.030905	-24.528107	-90.646247	166.470187	-90.646247	166.470187	-0.030902	-24.526145
1.350000	-0.032135	-25.455799	-89.095539	172.567829	-89.095539	172.567829	-0.032132	-25.453766
1.400000	-0.033356	-26.382279	-87.567502	176.995059	-87.567502	176.995059	-0.033352	-26.380174
1.450000	-0.034568	-27.307522	-86.101653	-179.858512	-86.101653	-179.858512	-0.034564	-27.305347
1.500000	-0.035772	-28.231506	-84.712484	-177.676615	-84.712484	-177.676615	-0.035769	-28.229259
1.550000	-0.036971	-29.154205	-83.402073	-176.221366	-83.402073	-176.221366	-0.036967	-29.151887
1.600000	-0.038164	-30.075594	-82.166948	-175.318629	-82.166948	-175.318629	-0.038160	-30.073205
1.650000	-0.039353	-30.995649	-81.001502	-174.841516	-81.001502	-174.841516	-0.039349	-30.993188
1.700000	-0.040538	-31.914343	-79.899605	-174.696993	-79.899605	-174.696993	-0.040534	-31.911812
1.750000	-0.041720	-32.831652	-78.855322	-174.816081	-78.855322	-174.816081	-0.041716	-32.829050
1.800000	-0.042901	-33.747551	-77.863208	-175.146945	-77.863208	-175.146945	-0.042897	-33.744877
1.850000	-0.044080	-34.662015	-76.918383	-175.650094	-76.918383	-175.650094	-0.044076	-34.659270
1.900000	-0.045258	-35.575019	-76.016530	-176.295028	-76.016530	-176.295028	-0.045254	-35.572204
1.950000	-0.046436	-36.486541	-75.153848	-177.057880	-75.153848	-177.057880	-0.046432	-36.483654
2.000000	-0.047615	-37.396555	-74.326993	-177.919744	-74.326993	-177.919744	-0.047610	-37.393599
2.050000	-0.048794	-38.305041	-73.533023	-178.865469	-73.533023	-178.865469	-0.048790	-38.302014
2.100000	-0.049974	-39.211975	-72.769341	-179.882786	-72.769341	-179.882786	-0.049970	-39.208877
2.150000	-0.051157	-40.117336	-72.033648	179.038339	-72.033648	179.038339	-0.051152	-40.114167
2.200000	-0.052341	-41.021102	-71.323901	177.906191	-71.323901	177.906191	-0.052337	-41.017863
2.250000	-0.053528	-41.923253	-70.638281	176.727665	-70.638281	176.727665	-0.053524	-41.919944
2.300000	-0.054718	-42.823770	-69.975159	175.508547	-69.975159	175.508547	-0.054714	-42.820391
2.350000	-0.055912	-43.722633	-69.333073	174.253727	-69.333073	174.253727	-0.055907	-43.719184
2.400000	-0.057109	-44.619823	-68.710706	172.967366	-68.710706	172.967366	-0.057105	-44.616304
2.450000	-0.058311	-45.515323	-68.106866	171.653029	-68.106866	171.653029	-0.058306	-45.511735
2.500000	-0.059517	-46.409116	-67.520473	170.313785	-67.520473	170.313785	-0.059513	-46.405458
2.550000	-0.060729	-47.301110	-66.949636	168.951436	-66.949636	168.951436	-0.060724	-47.297383
2.600000	-0.061946	-48.191362	-66.394461	167.569337	-66.394461	167.569337	-0.061941	-48.187566
2.650000	-0.063169	-49.079859	-65.854114	166.169482	-65.854114	166.169482	-0.063164	-49.075994
2.700000	-0.064399	-49.966586	-65.327831	164.753624	-65.327831	164.753624	-0.064394	-49.962652
2.750000	-0.065635	-50.851528	-64.814912	163.323315	-64.814912	163.323315	-0.065630	-50.847526
2.800000	-0.066879	-51.734674	-64.314707	161.879931	-64.314707	161.879931	-0.066873	-51.730603
2.850000	-0.068130	-52.616011	-63.826618	160.424700	-63.826618	160.424700	-0.068124	-52.611872
2.900000	-0.069389	-53.495527	-63.350092	158.958716	-63.350092	158.958716	-0.069383	-53.491321
2.950000	-0.070656	-54.373212	-62.884612	157.482965	-62.884612	157.482965	-0.070650	-54.368938
3.000000	-0.071933	-55.249056	-62.429700	155.998331	-62.429700	155.998331	-0.071927	-55.244714
3.050000	-0.073219	-56.123048	-61.984910	154.505611	-61.984910	154.505611	-0.073212	-56.118639
3.100000	-0.074515	-56.995181	-61.549825	153.005530	-61.549825	153.005530	-0.074508	-56.990705
3.150000	-0.075820	-57.865446	-61.124055	151.498741	-61.124055	151.498741	-0.075814	-57.860903
3.200000	-0.077137	-58.733835	-60.707235	149.985844	-60.707235	149.985844	-0.077130	-58.729226
3.250000	-0.078465	-59.600343	-60.299021	148.467380	-60.299021	148.467380	-0.078458	-59.595667
3.300000	-0.079805	-60.464962	-59.899092	146.943847	-59.899092	146.943847	-0.079797	-60.460220
3.350000	-0.081156	-61.327687	-59.507143	145.415702	-59.507143	145.415702	-0.081149	-61.322879
3.400000	-0.082521	-62.188514	-59.122890	143.883362	-59.122890	143.883362	-0.082513	-62.183640
3.450000	-0.083898	-63.047439	-58.746061	142.347212	-58.746061	142.347212	-0.083891	-63.042499
3.500000	-0.085289	-63.904458	-58.376401	140.807606	-58.376401	140.807606	-0.085281	-63.899453
3.550000	-0.086694	-64.759569	-58.013670	139.264873	-58.013670	139.264873	-0.086686	-64.754498
3.600000	-0.088114	-65.612768	-57.657638	137.719313	-57.657638	137.719313	-0.088106	-65.607632
3.650000	-0.089548	-66.464056	-57.308087	136.171209	-57.308087	136.171209	-0.089540	-66.458855
3.700000	-0.090999	-67.313431	-56.964814	134.620820	-56.964814	134.620820	-0.090990	-67.308165
3.750000	-0.092465	-68.160893	-56.627620	133.068388	-56.627620	133.068388	-0.092456	-68.155562
3.800000	-0.093948	-69.006359	-56.296028	131.514069	-56.296028	131.514069	-0.093939	-69.000964
3.850000	-0.095448	-69.849914	-55.970175	129.958160	-55.970175	129.958160	-0.095439	-69.844454
3.900000	-0.096966	-70.691560	-55.649890	128.400853	-55.649890	128.400853	-0.096957	-70.686036
3.950000	-0.098502	-71.531299	-55.335009	126.842332	-55.335009	126.842332	-0.098492	-71.525711
4.000000	-0.100056	-72.369134	-55.025377	125.282764	-55.025377	125.282764	-0.100047	-72.363482
4.050000	-0.101629	-73.205070	-54.720847	123.722310	-54.720847	123.722310	-0.101620	-73.199353
4.100000	-0.103221	-74.039110	-54.421275	122.161117	-54.421275	122.161117	-0.103212	-74.033329
4.150000	-0.104834	-74.871259	-54.126526	120.599327	-54.126526	120.599327	-0.104824	-74.865414
4.200000	-0.106467	-75.701523	-53.836469	119.037069	-53.836469	119.037069	-0.106457	-75.695615
4.250000	-0.108121	-76.529908	-53.550980	117.474468	-53.550980	117.474468	-0.108111	-76.523937
4.300000	-0.109796	-77.356421	-53.269940	115.911641	-53.269940	115.911641	-0.109786	-77.350386
4.350000	-0.111493	-78.181070	-52.993233	114.348696	-52.993233	114.348696	-0.111483	-78.174971
4.400000	-0.113213	-79.003861	-52.720750	112.785738	-52.720750	112.785738	-0.113203	-78.997699
4.450000	-0.114955	-79.824804	-52.452383	111.222864	-52.452383	111.222864	-0.114945	-79.818579
4.500000	-0.116721	-80.643908	-52.188032	109.660165	-52.188032	109.660165	-0.116710	-80.637619
4.550000	-0.118510	-81.461182	-51.927599	108.097730	-51.927599	108.097730	-0.118500	-81.454830
4.600000	-0.120324	-82.276637	-51.670989	106.535640	-51.670989	106.535640	-0.120313	-82.270222
4.650000	-0.122162	-83.090283	-51.418111	104.973974	-51.418111	104.973974	-0.122152	-83.083804
4.700000	-0.124026	-83.902131	-51.168878	103.412805	-51.168878	103.412805	-0.124015	-83.895590
4.750000	-0.125916	-84.712194	-50.923205	101.852204	-50.923205	101.852204	-0.125905	-84.705590
4.800000	-0.127831	-85.520484	-50.681011	100.292236	-50.681011	100.292236	-0.127820	-85.513816
4.850000	-0.129773	-86.327013	-50.442218	98.732965	-50.442218	98.732965	-0.129762	-86.320283
4.900000	-0.131743	-87.131796	-50.206750	97.174451	-50.206750	97.174451	-0.131732	-87.125002
4.950000	-0.133740	-87.934845	-49.974533	95.616750	-49.974533	95.616750	-0.133729	-87.927989
5.000000	-0.135765	-88.736176	-49.745497	94.059916	-49.745497	94.059916	-0.135754	-88.729257
5.050000	-0.137835	-89.534850	-49.518020	92.504550	-49.518020	92.504550	-0.137823	-89.527868
5.100000	-0.139905	-90.333524	-49.296349	90.949185	-49.296349	90.949185	-0.139893	-90.326479
5.150000	-0.142031	-91.129004	-49.075238	89.395769	-49.075238	89.395769	-0.142019	-91.121895
5.200000	-0.144163	-91.924193	-48.859177	87.842530	-48.859177	87.842530	-0.144151	-91.917021
5.250000	-0.146347	-92.716539	-48.644147	86.291221	-48.644147	86.291221	-0.146335	-92.709304
5.300000	-0.148542	-93.508317	-48.433489	84.740297	-48.433489	84.740297	-0.148530	-93.501019
5.350000	-0.150786	-94.297593	-48.224273	83.191235	-48.224273	83.191235	-0.150774	-94.290232
5.400000	-0.153047	-95.086037	-48.018824	81.642795	-48.018824	81.642795	-0.153035	-95.078612
5.450000	-0.155352	-95.872312	-47.815174	80.096112	-47.815174	80.096112	-0.155340	-95.864824
5.500000	-0.157681	-96.657502	-47.614749	78.550308	-47.614749	78.550308	-0.157668	-96.649951
5.550000	-0.160049	-97.440846	-47.416431	77.006124	-47.416431	77.006124	-0.160036	-97.433231
5.600000	-0.162447	-98.222870	-47.220855	75.463096	-47.220855	75.463096	-0.162434	-98.215192
5.650000	-0.164880	-99.003355	-47.027652	73.921520	-47.027652	73.921520	-0.164866	-98.995613
5.700000	-0.167348	-99.782302	-46.836760	72.381394	-46.836760	72.381394	-0.167335	-99.774497
5.750000	-0.169848	-100.560006	-46.648467	70.842526	-46.648467	70.842526	-0.169834	-100.552137
5.800000	-0.172389	-101.335970	-46.462103	69.305418	-46.462103	69.305418	-0.172376	-101.328037
5.850000	-0.174957	-102.110972	-46.278527	67.769352	-46.278527	67.769352	-0.174943	-102.102974
5.900000	-0.177573	-102.884050	-46.096542	66.235366	-46.096542	66.235366	-0.177559	-102.875988
5.950000	-0.180210	-103.656431	-45.917502	64.702186	-45.917502	64.702186	-0.180196	-103.648305
6.000000	-0.182904	-104.426725	-45.739756	63.171419	-45.739756	63.171419	-0.182889	-104.418534
6.050000	-0.185611	-105.196571	-45.565082	61.641202	-45.565082	61.641202	-0.185596	-105.188316
6.100000	-0.188383	-105.964185	-45.391440	60.113741	-45.391440	60.113741	-0.188369	-105.955865
6.150000	-0.191163	-106.731584	-45.220972	58.586561	-45.220972	58.586561	-0.191148	-106.723199
6.200000	-0.194016	-107.496626	-45.051307	57.062484	-45.051307	57.062484	-0.194001	-107.488175
6.250000	-0.196870	-108.261668	-44.884893	55.538407	-44.884893	55.538407	-0.196854	-108.253152
6.300000	-0.199805	-109.024250	-44.719085	54.017788	-44.719085	54.017788	-0.199789	-109.015669
6.350000	-0.202741	-109.786833	-44.556382	52.497168	-44.556382	52.497168	-0.202725	-109.778185
6.400000	-0.205753	-110.547266	-44.394513	50.979778	-44.394513	50.979778	-0.205737	-110.538552
6.450000	-0.208773	-111.307504	-44.235414	49.462682	-44.235414	49.462682	-0.208757	-111.298724
6.500000	-0.211864	-112.065887	-44.077349	47.948572	-44.077349	47.948572	-0.211847	-112.057040
6.550000	-0.214969	-112.823899	-43.921750	46.435058	-43.921750	46.435058	-0.214953	-112.814985
6.600000	-0.218140	-113.580333	-43.767358	44.924273	-43.767358	44.924273	-0.218124	-113.571352
6.650000	-0.221334	-114.336241	-43.615162	43.414397	-43.615162	43.414397	-0.221317	-114.327193
6.700000	-0.224586	-115.090829	-43.464321	41.906979	-43.464321	41.906979	-0.224569	-115.081713
6.750000	-0.227868	-115.844758	-43.315434	40.400789	-43.315434	40.400789	-0.227851	-115.835574
6.800000	-0.231204	-116.597608	-43.168028	38.896775	-43.168028	38.896775	-0.231186	-116.588355
6.850000	-0.234577	-117.349686	-43.022360	37.394316	-43.022360	37.394316	-0.234559	-117.340364
6.900000	-0.237996	-118.100904	-42.878278	35.893741	-42.878278	35.893741	-0.237978	-118.091513
6.950000	-0.241462	-118.851262	-42.735745	34.395050	-42.735745	34.395050	-0.241444	-118.841802
7.000000	-0.244967	-119.600960	-42.594884	32.897945	-42.594884	32.897945	-0.244949	-119.591430
7.050000	-0.248527	-120.349734	-42.455403	31.403059	-42.455403	31.403059	-0.248508	-120.340133
7.100000	-0.252119	-121.098025	-42.317663	29.909450	-42.317663	29.909450	-0.252100	-121.088353
7.150000	-0.255774	-121.845351	-42.181158	28.418398	-42.181158	28.418398	-0.255756	-121.835607
7.200000	-0.259455	-122.592350	-42.046444	26.928311	-42.046444	26.928311	-0.259436	-122.582534
7.250000	-0.263207	-123.338368	-41.912841	25.441120	-41.912841	25.441120	-0.263188	-123.328481
7.300000	-0.266977	-124.084193	-41.781065	23.954575	-41.781065	23.954575	-0.266958	-124.074233
7.350000	-0.270829	-124.829048	-41.650292	22.471266	-41.650292	22.471266	-0.270809	-124.819014
7.400000	-0.274690	-125.573818	-41.521369	20.988282	-41.521369	20.988282	-0.274670	-125.563711
7.450000	-0.278641	-126.317656	-41.393360	19.508873	-41.393360	19.508873	-0.278621	-126.307474
7.500000	-0.282594	-127.061494	-41.267210	18.029465	-41.267210	18.029465	-0.282574	-127.051237
7.550000	-0.286647	-127.804465	-41.141899	16.553972	-41.141899	16.553972	-0.286626	-127.794131
7.600000	-0.290702	-128.547436	-41.018371	15.078479	-41.018371	15.078479	-0.290681	-128.537026
7.650000	-0.294849	-129.289751	-40.895772	13.606586	-40.895772	13.606586	-0.294828	-129.279263
7.700000	-0.299007	-130.032007	-40.774808	12.135020	-40.774808	12.135020	-0.298986	-130.021441
7.750000	-0.303250	-130.773796	-40.654849	10.666732	-40.654849	10.666732	-0.303229	-130.763152
7.800000	-0.307512	-131.515493	-40.536393	9.199100	-40.536393	9.199100	-0.307491	-131.504769
7.850000	-0.311853	-132.256888	-40.419003	7.734421	-40.419003	7.734421	-0.311831	-132.246085
7.900000	-0.316221	-132.998184	-40.303005	6.270727	-40.303005	6.270727	-0.316198	-132.987299
7.950000	-0.320659	-133.739320	-40.188119	4.809660	-40.188119	4.809660	-0.320636	-133.728354
8.000000	-0.325134	-134.480377	-40.074527	3.349906	-40.074527	3.349906	-0.325111	-134.469328
8.050000	-0.329671	-135.221390	-39.962083	1.892449	-39.962083	1.892449	-0.329648	-135.210257
8.100000	-0.334254	-135.962372	-39.850851	0.436634	-39.850851	0.436634	-0.334231	-135.951155
8.150000	-0.338891	-136.703401	-39.740790	-1.017216	-39.740790	-1.017216	-0.338868	-136.692098
8.200000	-0.343583	-137.444476	-39.631873	-2.469098	-39.631873	-2.469098	-0.343560	-137.433087
8.250000	-0.348322	-138.185662	-39.524139	-3.919344	-39.524139	-3.919344	-0.348298	-138.174186
8.300000	-0.353124	-138.927002	-39.417494	-5.367299	-39.417494	-5.367299	-0.353100	-138.915437
8.350000	-0.357965	-139.668488	-39.312034	-6.813949	-39.312034	-6.813949	-0.357940	-139.656834
8.400000	-0.362878	-140.410267	-39.207623	-8.257987	-39.207623	-8.257987	-0.362854	-140.398521
8.450000	-0.367822	-141.152199	-39.104387	-9.701048	-39.104387	-9.701048	-0.367797	-141.140362
8.500000	-0.372848	-141.894593	-39.002171	-11.141179	-39.002171	-11.141179	-0.372822	-141.882662
8.550000	-0.377895	-142.637120	-38.901113	-12.580662	-38.901113	-12.580662	-0.377869	-142.625095
8.600000	-0.383034	-143.380310	-38.801058	-14.016899	-38.801058	-14.016899	-0.383008	-143.368189
8.650000	-0.388185	-144.123582	-38.702132	-15.452813	-38.702132	-15.452813	-0.388159	-144.111365
8.700000	-0.393438	-144.867752	-38.604205	-16.885172	-38.604205	-16.885172	-0.393411	-144.855437
8.750000	-0.398694	-145.611923	-38.507370	-18.317530	-38.507370	-18.317530	-0.398667	-145.599508
8.800000	-0.404062	-146.357260	-38.411541	-19.746023	-38.411541	-19.746023	-0.404034	-146.344744
8.850000	-0.409432	-147.102598	-38.316757	-21.174517	-38.316757	-21.174517	-0.409405	-147.089980
8.900000	-0.414906	-147.849180	-38.222997	-22.599482	-38.222997	-22.599482	-0.414878	-147.836458
8.950000	-0.420392	-148.595875	-38.130239	-24.024127	-38.130239	-24.024127	-0.420364	-148.583048
9.000000	-0.425973	-149.343864	-38.038513	-25.445578	-38.038513	-25.445578	-0.425944	-149.330929
9.050000	-0.431574	-150.092111	-37.947755	-26.866390	-37.947755	-26.866390	-0.431545	-150.079068
9.100000	-0.437262	-150.841670	-37.858028	-28.284340	-37.858028	-28.284340	-0.437232	-150.828516
9.150000	-0.442980	-151.591667	-37.769250	-29.701335	-37.769250	-29.701335	-0.442949	-151.578401
9.200000	-0.448774	-152.342964	-37.681491	-31.115795	-37.681491	-31.115795	-0.448743	-152.329584
9.250000	-0.454608	-153.094911	-37.594671	-32.528987	-37.594671	-32.528987	-0.454577	-153.081415
9.300000	-0.460510	-153.848115	-37.508851	-33.939970	-37.508851	-33.939970	-0.460477	-153.834502
9.350000	-0.466461	-154.602217	-37.423972	-35.349374	-37.423972	-35.349374	-0.466428	-154.588484
9.400000	-0.472470	-155.357501	-37.340064	-36.756889	-37.340064	-36.756889	-0.472436	-155.343647
9.450000	-0.478537	-156.113967	-37.257109	-38.162516	-37.257109	-38.162516	-0.478502	-156.099989
9.500000	-0.484653	-156.871507	-37.175089	-39.566573	-37.175089	-39.566573	-0.484618	-156.857403
9.550000	-0.490836	-157.630548	-37.094044	-40.968432	-37.094044	-40.968432	-0.490800	-157.616317
9.600000	-0.497060	-158.390521	-37.013889	-42.369037	-37.013889	-42.369037	-0.497023	-158.376160
9.650000	-0.503359	-159.152354	-36.934743	-43.767134	-36.934743	-43.767134	-0.503321	-159.137861
9.700000	-0.509689	-159.914941	-36.856431	-45.164292	-36.856431	-45.164292	-0.509650	-159.900313
9.750000	-0.516104	-160.679786	-36.779173	-46.558631	-36.779173	-46.558631	-0.516064	-160.665021
9.800000	-0.522540	-161.445171	-36.702686	-47.952343	-36.702686	-47.952343	-0.522499	-161.430267
9.850000	-0.529069	-162.213252	-36.627309	-49.342921	-36.627309	-49.342921	-0.529027	-162.198206
9.900000	-0.535612	-162.981622	-36.552630	-50.733186	-36.552630	-50.733186	-0.535569	-162.966432
9.950000	-0.542254	-163.753166	-36.479127	-52.119997	-36.479127	-52.119997	-0.542210	-163.737828
10.000000	-0.548902	-164.524710	-36.406240	-53.506809	-36.406240	-53.506809	-0.548856	-164.509224
