! freq	dB(S11)	phase(S11)	dB(S12)	phase(S12)	
!     	dB(S21)	phase(S21)	dB(S22)	phase(S22)	
!S-par simulation data
#  GHz  S  DB  R 50
0.000000	-0.000000	0.000000	-344.412032	180.000000	-344.412032	180.000000	-0.000000	-0.000000
0.050000	-0.000496	-0.862670	-99.101391	92.120548	-99.101391	92.120548	-0.000077	-0.770004
0.100000	-0.001643	-1.721421	-93.081194	89.866418	-93.081194	89.866418	-0.000307	-1.539969
0.150000	-0.002916	-2.576053	-89.565044	88.585923	-89.565044	88.585923	-0.000680	-2.309849
0.200000	-0.004083	-3.428121	-87.074741	87.552282	-87.074741	87.552282	-0.001184	-3.079585
0.250000	-0.005116	-4.278771	-85.147909	86.626377	-85.147909	86.626377	-0.001811	-3.849092
0.300000	-0.006072	-5.128733	-83.577787	85.752195	-83.577787	85.752195	-0.002537	-4.618307
0.350000	-0.006988	-5.978177	-82.254694	84.914746	-82.254694	84.914746	-0.003353	-5.387137
0.400000	-0.007896	-6.827161	-81.112968	84.104743	-81.112968	84.104743	-0.004245	-6.155500
0.450000	-0.008816	-7.675662	-80.110224	83.317723	-80.110224	83.317723	-0.005202	-6.923321
0.500000	-0.009759	-8.523631	-79.217489	82.551618	-79.217489	82.551618	-0.006212	-7.690533
0.550000	-0.010731	-9.371009	-78.414063	81.805671	-78.414063	81.805671	-0.007267	-8.457082
0.600000	-0.011732	-10.217741	-77.684621	81.079890	-77.684621	81.079890	-0.008357	-9.222923
0.650000	-0.012761	-11.063775	-77.017487	80.374762	-77.017487	80.374762	-0.009475	-9.988024
0.700000	-0.013818	-11.909068	-76.403541	79.691082	-76.403541	79.691082	-0.010613	-10.752358
0.750000	-0.014898	-12.753582	-75.835505	79.029853	-75.835505	79.029853	-0.011766	-11.515909
0.800000	-0.015998	-13.597284	-75.307466	78.392225	-75.307466	78.392225	-0.012927	-12.278666
0.850000	-0.017115	-14.440147	-74.814532	77.779443	-74.814532	77.779443	-0.014092	-13.040622
0.900000	-0.018246	-15.282148	-74.352598	77.192822	-74.352598	77.192822	-0.015258	-13.801776
0.950000	-0.019386	-16.123267	-73.918165	76.633714	-73.918165	76.633714	-0.016421	-14.562126
1.000000	-0.020534	-16.963487	-73.508210	76.103491	-73.508210	76.103491	-0.017578	-15.321674
1.050000	-0.021687	-17.802791	-73.120088	75.603520	-73.120088	75.603520	-0.018726	-16.080422
1.100000	-0.022841	-18.641168	-72.751451	75.135144	-72.751451	75.135144	-0.019866	-16.838374
1.150000	-0.023996	-19.478603	-72.400192	74.699661	-72.400192	74.699661	-0.020994	-17.595531
1.200000	-0.025150	-20.315086	-72.064398	74.298297	-72.064398	74.298297	-0.022111	-18.351895
1.250000	-0.026301	-21.150606	-71.742305	73.932185	-71.742305	73.932185	-0.023216	-19.107468
1.300000	-0.027448	-21.985107	-71.432267	73.603953	-71.432267	73.603953	-0.024307	-19.862216
1.350000	-0.028591	-22.818621	-71.132683	73.312900	-71.132683	73.312900	-0.025387	-20.616171
1.400000	-0.029728	-23.651138	-70.842085	73.059666	-70.842085	73.059666	-0.026455	-21.369333
1.450000	-0.030859	-24.482644	-70.559070	72.844665	-70.559070	72.844665	-0.027511	-22.121698
1.500000	-0.031985	-25.313130	-70.282286	72.668045	-70.282286	72.668045	-0.028556	-22.873262
1.550000	-0.033105	-26.142582	-70.010423	72.529650	-70.010423	72.529650	-0.029590	-23.624021
1.600000	-0.034219	-26.970989	-69.742208	72.428983	-69.742208	72.428983	-0.030615	-24.373970
1.650000	-0.035327	-27.798337	-69.476400	72.365168	-69.476400	72.365168	-0.031631	-25.123103
1.700000	-0.036429	-28.624235	-69.208819	72.348436	-69.208819	72.348436	-0.032637	-25.871122
1.750000	-0.037528	-29.449570	-68.945399	72.349678	-68.945399	72.349678	-0.033638	-26.618709
1.800000	-0.038621	-30.273561	-68.678103	72.388039	-68.678103	72.388039	-0.034632	-27.365271
1.850000	-0.039711	-31.096592	-68.410734	72.452912	-68.410734	72.452912	-0.035621	-28.111102
1.900000	-0.040797	-31.918441	-68.138718	72.542658	-68.138718	72.542658	-0.036605	-28.856038
1.950000	-0.041880	-32.739108	-67.862725	72.657277	-67.862725	72.657277	-0.037585	-29.600078
2.000000	-0.042962	-33.558765	-67.582431	72.784969	-67.582431	72.784969	-0.038562	-30.343357
2.050000	-0.044041	-34.377007	-67.293561	72.930965	-67.293561	72.930965	-0.039537	-31.085572
2.100000	-0.045119	-35.194631	-67.005281	73.080240	-67.005281	73.080240	-0.040510	-31.827323
2.150000	-0.046196	-36.010650	-66.703767	73.235616	-66.703767	73.235616	-0.041482	-32.567874
2.200000	-0.047274	-36.825460	-66.393934	73.387863	-66.393934	73.387863	-0.042454	-33.307526
2.250000	-0.048352	-37.639048	-66.075224	73.531003	-66.075224	73.531003	-0.043427	-34.046273
2.300000	-0.049431	-38.451401	-65.747170	73.658907	-65.747170	73.658907	-0.044401	-34.784109
2.350000	-0.050512	-39.262506	-65.409390	73.765382	-65.409390	73.765382	-0.045377	-35.521030
2.400000	-0.051596	-40.072352	-65.061589	73.844257	-65.061589	73.844257	-0.046356	-36.257033
2.450000	-0.052682	-40.880925	-64.703548	73.889465	-64.703548	73.889465	-0.047338	-36.992115
2.500000	-0.053773	-41.688217	-64.335121	73.895121	-64.335121	73.895121	-0.048324	-37.726277
2.550000	-0.054867	-42.494159	-63.955011	73.853375	-63.955011	73.853375	-0.049314	-38.459478
2.600000	-0.055967	-43.298798	-63.564288	73.760666	-63.564288	73.760666	-0.050310	-39.191763
2.650000	-0.057071	-44.102125	-63.162937	73.612069	-63.162937	73.612069	-0.051312	-39.923135
2.700000	-0.058182	-44.904132	-62.750959	73.403042	-62.750959	73.403042	-0.052320	-40.653604
2.750000	-0.059299	-45.704813	-62.328347	73.129436	-62.328347	73.129436	-0.053335	-41.383178
2.800000	-0.060423	-46.504162	-61.895078	72.787497	-61.895078	72.787497	-0.054358	-42.111872
2.850000	-0.061554	-47.302176	-61.451090	72.373850	-61.451090	72.373850	-0.055390	-42.839703
2.900000	-0.062694	-48.098851	-60.996263	71.885477	-60.996263	71.885477	-0.056430	-43.566693
2.950000	-0.063842	-48.894187	-60.530406	71.319682	-60.530406	71.319682	-0.057480	-44.292867
3.000000	-0.064999	-49.688185	-60.053238	70.674057	-60.053238	70.674057	-0.058540	-45.018260
3.050000	-0.066165	-50.480848	-59.564364	69.946431	-59.564364	69.946431	-0.059612	-45.742910
3.100000	-0.067342	-51.272182	-59.063260	69.134820	-59.063260	69.134820	-0.060697	-46.466866
3.150000	-0.068530	-52.062197	-58.549251	68.237378	-58.549251	68.237378	-0.061795	-47.190186
3.200000	-0.069729	-52.850905	-58.021483	67.252335	-58.021483	67.252335	-0.062908	-47.912940
3.250000	-0.070940	-53.638325	-57.478897	66.177937	-57.478897	66.177937	-0.064037	-48.635215
3.300000	-0.072164	-54.424478	-56.920199	65.012385	-56.920199	65.012385	-0.065184	-49.357114
3.350000	-0.073402	-55.209372	-56.342602	63.751906	-56.342602	63.751906	-0.066353	-50.078763
3.400000	-0.074654	-55.993140	-55.749251	62.402193	-55.749251	62.402193	-0.067542	-50.800320
3.450000	-0.075921	-56.775777	-55.136387	60.957507	-55.136387	60.957507	-0.068758	-51.521944
3.500000	-0.077208	-57.557174	-54.489302	59.398633	-54.489302	59.398633	-0.070009	-52.243952
3.550000	-0.078514	-58.337578	-53.813059	57.735657	-53.813059	57.735657	-0.071298	-52.966656
3.600000	-0.079842	-59.117114	-53.105385	55.966779	-53.105385	55.966779	-0.072633	-53.690430
3.650000	-0.081194	-59.895913	-52.361798	54.087140	-52.361798	54.087140	-0.074025	-54.415762
3.700000	-0.082575	-60.674144	-51.577003	52.090674	-51.577003	52.090674	-0.075488	-55.143280
3.750000	-0.083991	-61.452030	-50.744789	49.969703	-50.744789	49.969703	-0.077044	-55.873803
3.800000	-0.085447	-62.229846	-49.862295	47.717901	-49.862295	47.717901	-0.078719	-56.608249
3.850000	-0.086967	-63.008124	-48.892318	45.298734	-48.892318	45.298734	-0.080590	-57.349161
3.900000	-0.088571	-63.787588	-47.827089	42.698879	-47.827089	42.698879	-0.082740	-58.098874
3.950000	-0.090297	-64.569201	-46.654219	39.893508	-46.654219	39.893508	-0.085303	-58.860723
4.000000	-0.092208	-65.354443	-45.348480	36.835313	-45.348480	36.835313	-0.088520	-59.640113
4.050000	-0.094462	-66.146315	-43.842133	33.419482	-43.842133	33.419482	-0.092962	-60.448286
4.100000	-0.097343	-66.949299	-42.085346	29.505651	-42.085346	29.505651	-0.099669	-61.301457
4.150000	-0.101625	-67.773165	-39.947309	24.759108	-39.947309	24.759108	-0.111447	-62.235649
4.200000	-0.109591	-68.638702	-37.222403	18.420310	-37.222403	18.420310	-0.136550	-63.327786
4.250000	-0.130561	-69.596928	-33.485274	8.188712	-33.485274	8.188712	-0.208746	-64.770892
4.300000	-0.222904	-70.684262	-27.928004	-16.165729	-27.928004	-16.165729	-0.546425	-66.757941
4.350000	-0.351278	-69.873605	-25.081973	-88.066725	-25.081973	-88.066725	-1.030853	-61.350456
4.400000	-0.169800	-70.448314	-30.842746	-131.251403	-30.842746	-131.251403	-0.324845	-61.606156
4.450000	-0.130539	-71.450046	-35.009824	-145.798671	-35.009824	-145.798671	-0.181934	-63.275820
4.500000	-0.119889	-72.333152	-37.823154	-153.880589	-37.823154	-153.880589	-0.141266	-64.470656
4.550000	-0.116358	-73.157621	-39.883670	-159.801787	-39.883670	-159.801787	-0.125285	-65.446479
4.600000	-0.115333	-73.952432	-41.488402	-164.788439	-41.488402	-164.788439	-0.117837	-66.315465
4.650000	-0.115441	-74.729874	-42.778038	-169.290150	-42.778038	-169.290150	-0.114173	-67.124155
4.700000	-0.116140	-75.496083	-43.836162	-173.513620	-43.836162	-173.513620	-0.112439	-67.895570
4.750000	-0.117184	-76.254412	-44.716043	-177.563458	-44.716043	-177.563458	-0.111795	-68.642225
4.800000	-0.118435	-77.007143	-45.465987	178.498437	-45.465987	178.498437	-0.111785	-69.372365
4.850000	-0.119838	-77.755261	-46.101527	174.647106	-46.101527	174.647106	-0.112214	-70.089731
4.900000	-0.121346	-78.499738	-46.647397	170.862975	-46.647397	170.862975	-0.112933	-70.797725
4.950000	-0.122944	-79.240791	-47.105698	167.144040	-47.105698	167.144040	-0.113882	-71.497530
5.000000	-0.124605	-79.979277	-47.502739	163.477563	-47.502739	163.477563	-0.114979	-72.191633
5.050000	-0.126355	-80.713802	-47.799364	159.903357	-47.799364	159.903357	-0.116266	-72.877714
5.100000	-0.128105	-81.448327	-48.106479	156.329151	-48.106479	156.329151	-0.117553	-73.563794
5.150000	-0.129942	-82.178738	-48.317469	152.870321	-48.317469	152.870321	-0.119001	-74.242442
5.200000	-0.131788	-82.908775	-48.523771	149.421979	-48.523771	149.421979	-0.120464	-74.920413
5.250000	-0.133702	-83.635493	-48.664193	146.085861	-48.664193	146.085861	-0.122035	-75.593055
5.300000	-0.135629	-84.361548	-48.792579	142.772187	-48.792579	142.772187	-0.123627	-76.264630
5.350000	-0.137614	-85.084867	-48.875215	139.564374	-48.875215	139.564374	-0.125296	-76.932209
5.400000	-0.139618	-85.807274	-48.942659	136.391847	-48.942659	136.391847	-0.126992	-77.598455
5.450000	-0.141670	-86.527409	-48.978302	133.315026	-48.978302	133.315026	-0.128748	-78.261619
5.500000	-0.143747	-87.246407	-48.997905	130.286057	-48.997905	130.286057	-0.130535	-78.923241
5.550000	-0.145866	-87.963525	-48.995630	127.339889	-48.995630	127.339889	-0.132369	-79.582451
5.600000	-0.148016	-88.679299	-48.977733	124.452862	-48.977733	124.452862	-0.134237	-80.239939
5.650000	-0.150201	-89.393537	-48.945129	121.634389	-48.945129	121.634389	-0.136144	-80.895538
5.700000	-0.152422	-90.106239	-48.897981	118.884468	-48.897981	118.884468	-0.138090	-81.549246
5.750000	-0.154674	-90.817714	-48.841352	116.188745	-48.841352	116.188745	-0.140067	-82.201493
5.800000	-0.156969	-91.527473	-48.771563	113.568901	-48.771563	113.568901	-0.142089	-82.851692
5.850000	-0.159288	-92.236292	-48.696111	110.989662	-48.696111	110.989662	-0.144135	-83.500792
5.900000	-0.161657	-92.943228	-48.608986	108.491635	-48.608986	108.491635	-0.146230	-84.147692
5.950000	-0.164045	-93.649488	-48.518980	106.021887	-48.518980	106.021887	-0.148345	-84.793811
6.000000	-0.166490	-94.353715	-48.418779	103.636973	-48.418779	103.636973	-0.150514	-85.437586
6.050000	-0.168948	-95.057508	-48.317707	101.269483	-48.317707	101.269483	-0.152697	-86.080864
6.100000	-0.171470	-95.759136	-48.207855	98.989109	-48.207855	98.989109	-0.154941	-86.721659
6.150000	-0.174000	-96.460555	-48.098563	96.716776	-48.098563	96.716776	-0.157192	-87.362216
6.200000	-0.176602	-97.159693	-47.981817	94.532897	-47.981817	94.532897	-0.159512	-88.000158
6.250000	-0.179204	-97.858830	-47.866619	92.349019	-47.866619	92.349019	-0.161832	-88.638100
6.300000	-0.181888	-98.555589	-47.745211	90.254380	-47.745211	90.254380	-0.164229	-89.273303
6.350000	-0.184572	-99.252348	-47.625476	88.159741	-47.625476	88.159741	-0.166626	-89.908507
6.400000	-0.187333	-99.947033	-47.501735	86.141121	-47.501735	86.141121	-0.169095	-90.541298
6.450000	-0.190101	-100.641529	-47.379229	84.129412	-47.379229	84.129412	-0.171570	-91.173869
6.500000	-0.192941	-101.334240	-47.254416	82.182426	-47.254416	82.182426	-0.174111	-91.804331
6.550000	-0.195795	-102.026594	-47.130581	80.248384	-47.130581	80.248384	-0.176667	-92.434372
6.600000	-0.198716	-102.717438	-47.005742	78.369480	-47.005742	78.369480	-0.179283	-93.062587
6.650000	-0.201660	-103.407779	-46.881771	76.508955	-46.881771	76.508955	-0.181920	-93.690194
6.700000	-0.204664	-104.096870	-46.757783	74.695459	-46.757783	74.695459	-0.184613	-94.316244
6.750000	-0.207699	-104.785335	-46.634672	72.905477	-46.634672	72.905477	-0.187333	-94.941515
6.800000	-0.210788	-105.472794	-46.512276	71.155642	-46.512276	71.155642	-0.190104	-95.565481
6.850000	-0.213918	-106.159535	-46.390873	69.434484	-46.390873	69.434484	-0.192911	-96.188515
6.900000	-0.217096	-106.845496	-46.270700	67.747563	-46.270700	67.747563	-0.195761	-96.810481
6.950000	-0.220322	-107.530677	-46.151732	66.094879	-46.151732	66.094879	-0.198656	-97.431379
7.000000	-0.223591	-108.215287	-46.034327	64.471225	-46.034327	64.471225	-0.201589	-98.051430
7.050000	-0.226919	-108.899095	-45.918427	62.888210	-45.918427	62.888210	-0.204575	-98.670297
7.100000	-0.230283	-109.582517	-45.804259	61.329412	-45.804259	61.329412	-0.207592	-99.288523
7.150000	-0.233716	-110.265165	-45.691976	59.819048	-45.691976	59.819048	-0.210672	-99.905471
7.200000	-0.237177	-110.947584	-45.581441	58.328118	-45.581441	58.328118	-0.213777	-100.521968
7.250000	-0.240721	-111.629318	-45.473229	56.895494	-45.473229	56.895494	-0.216954	-101.137116
7.300000	-0.244284	-112.310948	-45.366648	55.477085	-45.366648	55.477085	-0.220149	-101.751986
7.350000	-0.247944	-112.992060	-45.262836	54.129748	-45.262836	54.129748	-0.223427	-102.365466
7.400000	-0.251616	-113.673150	-45.160430	52.790369	-45.160430	52.790369	-0.226716	-102.978819
7.450000	-0.255401	-114.353995	-45.061166	51.538522	-45.061166	51.538522	-0.230101	-103.590774
7.500000	-0.259187	-115.034840	-44.963024	50.286675	-44.963024	50.286675	-0.233488	-104.202730
7.550000	-0.263109	-115.715861	-44.868269	49.142881	-44.868269	49.142881	-0.236986	-104.813326
7.600000	-0.267031	-116.396882	-44.774537	47.999087	-44.774537	47.999087	-0.240485	-105.423921
7.650000	-0.271093	-117.078583	-44.684153	46.967512	-44.684153	46.967512	-0.244095	-106.033442
7.700000	-0.275168	-117.760346	-44.594910	45.946138	-44.594910	45.946138	-0.247715	-106.642865
7.750000	-0.279390	-118.443350	-44.509846	45.043165	-44.509846	45.043165	-0.251445	-107.251495
7.800000	-0.283643	-119.126603	-44.426254	44.163872	-44.426254	44.163872	-0.255198	-107.859967
7.850000	-0.288057	-119.811741	-44.348758	43.422898	-44.348758	43.422898	-0.259061	-108.467927
7.900000	-0.292525	-120.497507	-44.273698	42.728030	-44.273698	42.728030	-0.262962	-109.075716
7.950000	-0.297125	-121.185105	-44.203928	42.159728	-44.203928	42.159728	-0.266945	-109.683300
8.000000	-0.301890	-121.875146	-44.139730	41.759158	-44.139730	41.759158	-0.271028	-110.290735
8.050000	-0.306825	-122.567872	-44.079304	41.540661	-44.079304	41.540661	-0.275205	-110.898167
8.100000	-0.311960	-123.263908	-44.020689	41.542063	-44.020689	41.542063	-0.279487	-111.505715
8.150000	-0.317340	-123.964037	-43.960857	41.807835	-43.960857	41.807835	-0.283887	-112.113520
8.200000	-0.323021	-124.669257	-43.895317	42.391511	-43.895317	42.391511	-0.288423	-112.721748
8.250000	-0.329083	-125.380863	-43.817324	43.358576	-43.817324	43.358576	-0.293117	-113.330604
8.300000	-0.335642	-126.100571	-43.716542	44.788940	-43.716542	44.788940	-0.298001	-113.940340
8.350000	-0.342798	-126.829687	-43.582052	46.728598	-43.582052	46.728598	-0.303098	-114.551153
8.400000	-0.350897	-127.572889	-43.383165	49.363882	-43.383165	49.363882	-0.308504	-115.163630
8.450000	-0.360340	-128.334650	-43.081440	52.791385	-43.081440	52.791385	-0.314314	-115.778310
8.500000	-0.371701	-129.120424	-42.628017	57.032150	-42.628017	57.032150	-0.320651	-116.395784
8.550000	-0.386248	-129.941599	-41.934075	62.091222	-41.934075	62.091222	-0.327793	-117.017212
8.600000	-0.406302	-130.814796	-40.888466	67.695646	-40.888466	67.695646	-0.336203	-117.644037
8.650000	-0.436274	-131.764187	-39.384244	73.219908	-39.384244	73.219908	-0.346691	-118.277853
8.700000	-0.487488	-132.834684	-37.266791	77.503303	-37.266791	77.503303	-0.361178	-118.920250
8.750000	-0.588931	-134.075846	-34.417624	78.552736	-34.417624	78.552736	-0.383920	-119.566059
8.800000	-0.829231	-135.363380	-30.739707	72.189741	-30.739707	72.189741	-0.425027	-120.163103
8.850000	-1.338620	-134.735422	-26.926938	49.454536	-26.926938	49.454536	-0.482312	-120.421458
8.900000	-1.260888	-130.320302	-26.331201	11.973229	-26.331201	11.973229	-0.439119	-120.422678
8.950000	-0.768884	-130.345335	-28.691552	-11.148257	-28.691552	-11.148257	-0.374926	-121.097628
9.000000	-0.567233	-131.769008	-30.915159	-20.739921	-30.915159	-20.739921	-0.357514	-121.877623
9.050000	-0.489884	-133.040272	-32.546434	-24.959365	-32.546434	-24.959365	-0.356065	-122.603531
9.100000	-0.456724	-134.118720	-33.732801	-27.029995	-33.732801	-27.029995	-0.359473	-123.292389
9.150000	-0.441564	-135.072215	-34.621434	-28.174571	-34.621434	-28.174571	-0.364616	-123.961757
9.200000	-0.435020	-135.945523	-35.303646	-28.886125	-35.303646	-28.886125	-0.370545	-124.621444
9.250000	-0.432875	-136.768228	-35.849389	-29.394741	-35.849389	-29.394741	-0.376918	-125.277505
9.300000	-0.433343	-137.555639	-36.296112	-29.794052	-36.296112	-29.794052	-0.383648	-125.933678
9.350000	-0.435436	-138.318138	-36.672976	-30.125193	-36.672976	-30.125193	-0.390737	-126.592957
9.400000	-0.438615	-139.062322	-37.000823	-30.396033	-37.000823	-30.396033	-0.398253	-127.258177
9.450000	-0.442569	-139.792665	-37.296483	-30.588467	-37.296483	-30.588467	-0.406341	-127.932769
9.500000	-0.447040	-140.513682	-37.576979	-30.686637	-37.576979	-30.686637	-0.415073	-128.618220
9.550000	-0.451999	-141.226301	-37.852413	-30.607833	-37.852413	-30.607833	-0.424891	-129.321493
9.600000	-0.457327	-141.933368	-38.137068	-30.278604	-38.137068	-30.278604	-0.436122	-130.046245
9.650000	-0.463007	-142.636117	-38.441476	-29.564464	-38.441476	-29.564464	-0.449410	-130.799388
9.700000	-0.468995	-143.335898	-38.771535	-28.386106	-38.771535	-28.386106	-0.465113	-131.583025
9.750000	-0.475459	-144.032725	-39.138932	-26.156881	-39.138932	-26.156881	-0.486150	-132.425250
9.800000	-0.482409	-144.727940	-39.524208	-22.465051	-39.524208	-22.465051	-0.514692	-133.336254
9.850000	-0.490062	-145.421995	-39.842783	-16.242016	-39.842783	-16.242016	-0.557267	-134.351369
9.900000	-0.498749	-146.115098	-39.801860	-6.316047	-39.801860	-6.316047	-0.627089	-135.515381
9.950000	-0.509011	-146.806393	-38.803384	6.608243	-38.803384	6.608243	-0.752053	-136.866083
10.000000	-0.521860	-147.491677	-36.309536	16.929131	-36.309536	16.929131	-1.001209	-138.330500
