! freq	dB(S11)	phase(S11)	dB(S12)	phase(S12)	
!     	dB(S21)	phase(S21)	dB(S22)	phase(S22)	
!S-par simulation data
#  GHz  S  DB  R 50
0.000000	-6153.053111	0.000000	0.000001	0.000000	0.000000	0.000000	-139.545898	0.000000
0.050000	-51.725420	-90.940341	-0.003606	-2.686064	-0.003606	-2.686064	-51.648650	-93.721276
0.100000	-45.796825	-91.914649	-0.008072	-5.342882	-0.008072	-5.342882	-45.793475	-97.818647
0.150000	-42.414563	-93.003805	-0.011673	-7.993400	-0.011673	-7.993400	-42.452491	-102.236088
0.200000	-40.066146	-94.237159	-0.015152	-10.643189	-0.015152	-10.643189	-40.110369	-106.776611
0.250000	-38.271953	-95.558229	-0.018742	-13.292334	-0.018742	-13.292334	-38.307451	-111.341162
0.300000	-36.815394	-96.847850	-0.022428	-15.940545	-0.022428	-15.940545	-36.841735	-115.895478
0.350000	-35.590483	-98.047832	-0.026137	-18.587806	-0.026137	-18.587806	-35.609234	-120.441508
0.400000	-34.537312	-99.148948	-0.029805	-21.234279	-0.029805	-21.234279	-34.548801	-124.988945
0.450000	-33.622928	-100.139592	-0.033372	-23.880082	-0.033372	-23.880082	-33.625908	-129.551824
0.500000	-32.816711	-101.048266	-0.036833	-26.525595	-0.036833	-26.525595	-32.810071	-134.138273
0.550000	-32.101934	-101.874319	-0.040175	-29.171061	-0.040175	-29.171061	-32.084332	-138.760505
0.600000	-31.464745	-102.619355	-0.043402	-31.816752	-0.043402	-31.816752	-31.434949	-143.429345
0.650000	-30.891292	-103.292562	-0.046543	-34.462852	-0.046543	-34.462852	-30.848557	-148.147813
0.700000	-30.376272	-103.878750	-0.049602	-37.109652	-0.049602	-37.109652	-30.319564	-152.934091
0.750000	-29.909344	-104.384410	-0.052610	-39.757238	-0.052610	-39.757238	-29.838043	-157.788121
0.800000	-29.484430	-104.804492	-0.055588	-42.405747	-0.055588	-42.405747	-29.397936	-162.717441
0.850000	-29.097606	-105.125680	-0.058551	-45.055392	-0.058551	-45.055392	-28.995157	-167.736205
0.900000	-28.742775	-105.347277	-0.061521	-47.706226	-0.061521	-47.706226	-28.623750	-172.846535
0.950000	-28.415537	-105.462616	-0.064513	-50.358359	-0.064513	-50.358359	-28.279309	-178.055212
1.000000	-28.111587	-105.466193	-0.067540	-53.011887	-0.067540	-53.011887	-27.957564	176.632552
1.050000	-27.826767	-105.353281	-0.070616	-55.666899	-0.070616	-55.666899	-27.654426	171.212680
1.100000	-27.557003	-105.120333	-0.073751	-58.323489	-0.073751	-58.323489	-27.365937	165.682520
1.150000	-27.298251	-104.765431	-0.076957	-60.981746	-0.076957	-60.981746	-27.088229	160.041166
1.200000	-27.046487	-104.288748	-0.080241	-63.641766	-0.080241	-63.641766	-26.817521	154.289784
1.250000	-26.797716	-103.693013	-0.083614	-66.303644	-0.083614	-66.303644	-26.550131	148.431918
1.300000	-26.547750	-102.981682	-0.087087	-68.967528	-0.087087	-68.967528	-26.282251	142.471785
1.350000	-26.292898	-102.166622	-0.090667	-71.633480	-0.090667	-71.633480	-26.010644	136.420906
1.400000	-26.029627	-101.260605	-0.094365	-74.301609	-0.094365	-74.301609	-25.732249	130.291325
1.450000	-25.754771	-100.279851	-0.098190	-76.972023	-0.098190	-76.972023	-25.444369	124.097780
1.500000	-25.465642	-99.243721	-0.102156	-79.644833	-0.102156	-79.644833	-25.144756	117.857372
1.550000	-25.160146	-98.174143	-0.106275	-82.320150	-0.106275	-82.320150	-24.831686	111.589053
1.600000	-24.836865	-97.094807	-0.110563	-84.998081	-0.110563	-84.998081	-24.504010	105.312953
1.650000	-24.495110	-96.030171	-0.115036	-87.678733	-0.115036	-87.678733	-24.161174	99.049615
1.700000	-24.134918	-95.004402	-0.119713	-90.362203	-0.119713	-90.362203	-23.803220	92.819185
1.750000	-23.757015	-94.040337	-0.124613	-93.048584	-0.124613	-93.048584	-23.430736	86.640652
1.800000	-23.362725	-93.158581	-0.129757	-95.737957	-0.129757	-95.737957	-23.044790	80.531186
1.850000	-22.953859	-92.376821	-0.135170	-98.430394	-0.135170	-98.430394	-22.646840	74.505642
1.900000	-22.532242	-91.710760	-0.140879	-101.125984	-0.140879	-101.125984	-22.238331	68.577397
1.950000	-22.100304	-91.171463	-0.146910	-103.824771	-0.146910	-103.824771	-21.821239	62.756134
2.000000	-21.660882	-90.764830	-0.153288	-106.526743	-0.153288	-106.526743	-21.397920	57.047360
2.050000	-21.216437	-90.494850	-0.160039	-109.231905	-0.160039	-109.231905	-20.970411	51.455104
2.100000	-20.769319	-90.362733	-0.167192	-111.940243	-0.167192	-111.940243	-20.540687	45.981141
2.150000	-20.321715	-90.367356	-0.174775	-114.651719	-0.174775	-114.651719	-20.110606	40.625316
2.200000	-19.875605	-90.505717	-0.182814	-117.366278	-0.182814	-117.366278	-19.681878	35.385882
2.250000	-19.432744	-90.773366	-0.191337	-120.083842	-0.191337	-120.083842	-19.256046	30.259828
2.300000	-18.994663	-91.164796	-0.200369	-122.804309	-0.200369	-122.804309	-18.834476	25.243189
2.350000	-18.562668	-91.673781	-0.209934	-125.527560	-0.209934	-125.527560	-18.418358	20.331313
2.400000	-18.137858	-92.293653	-0.220054	-128.253455	-0.220054	-128.253455	-18.008716	15.519089
2.450000	-17.721141	-93.017527	-0.230749	-130.981833	-0.230749	-130.981833	-17.606413	10.801137
2.500000	-17.313254	-93.838475	-0.242035	-133.712518	-0.242035	-133.712518	-17.212173	6.171962
2.550000	-16.914610	-94.751462	-0.253941	-136.445357	-0.253941	-136.445357	-16.826421	1.627750
2.600000	-16.525890	-95.747732	-0.266463	-139.180094	-0.266463	-139.180094	-16.449853	-2.838831
2.650000	-16.147430	-96.820895	-0.279608	-141.916509	-0.279608	-141.916509	-16.082837	-7.233027
2.700000	-15.779465	-97.964849	-0.293379	-144.654376	-0.293379	-144.654376	-15.725655	-11.559889
2.750000	-15.422154	-99.173807	-0.307775	-147.393460	-0.307775	-147.393460	-15.378516	-15.824246
2.800000	-15.075583	-100.442306	-0.322791	-150.133527	-0.322791	-150.133527	-15.041559	-20.030694
2.850000	-14.739785	-101.765203	-0.338416	-152.874339	-0.338416	-152.874339	-14.714873	-24.183588
2.900000	-14.414745	-103.137675	-0.354638	-155.615663	-0.354638	-155.615663	-14.398495	-28.287052
2.950000	-14.100407	-104.555199	-0.371437	-158.357272	-0.371437	-158.357272	-14.092426	-32.344977
3.000000	-13.796686	-106.013547	-0.388792	-161.098946	-0.388792	-161.098946	-13.796633	-36.361041
3.050000	-13.503470	-107.508760	-0.406676	-163.840478	-0.406676	-163.840478	-13.511052	-40.338719
3.100000	-13.220627	-109.037138	-0.425057	-166.581677	-0.425057	-166.581677	-13.235601	-44.281298
3.150000	-12.948030	-110.595505	-0.443908	-169.322359	-0.443908	-169.322359	-12.970196	-48.191579
3.200000	-12.685530	-112.180517	-0.463187	-172.062367	-0.463187	-172.062367	-12.714732	-52.072620
3.250000	-12.432940	-113.788826	-0.482850	-174.801573	-0.482850	-174.801573	-12.469054	-55.927582
3.300000	-12.190076	-115.417596	-0.502853	-177.539872	-0.502853	-177.539872	-12.233015	-59.759156
3.350000	-11.956753	-117.064159	-0.523150	179.722816	-0.523150	179.722816	-12.006458	-63.569931
3.400000	-11.732777	-118.726002	-0.543691	176.986543	-0.543691	176.986543	-11.789219	-67.362401
3.450000	-11.517955	-120.400755	-0.564426	174.251330	-0.564426	174.251330	-11.581128	-71.138986
3.500000	-11.312090	-122.086178	-0.585305	171.517168	-0.585305	171.517168	-11.382011	-74.902041
3.550000	-11.114984	-123.780148	-0.606274	168.784018	-0.606274	168.784018	-11.191690	-78.653868
3.600000	-10.926439	-125.480646	-0.627282	166.051805	-0.627282	166.051805	-11.009984	-82.396731
3.650000	-10.746256	-127.185752	-0.648274	163.320424	-0.648274	163.320424	-10.836710	-86.132861
3.700000	-10.574236	-128.893629	-0.669199	160.589737	-0.669199	160.589737	-10.671681	-89.864474
3.750000	-10.410179	-130.602520	-0.690005	157.859571	-0.690005	157.859571	-10.514712	-93.593770
3.800000	-10.253993	-132.310685	-0.710636	155.129724	-0.710636	155.129724	-10.365727	-97.322998
3.850000	-10.105372	-134.016478	-0.731048	152.399948	-0.731048	152.399948	-10.224424	-101.054413
3.900000	-9.964115	-135.718331	-0.751193	149.669971	-0.751193	149.669971	-10.090611	-104.790233
3.950000	-9.830017	-137.414726	-0.771028	146.939497	-0.771028	146.939497	-9.964091	-108.532690
4.000000	-9.702876	-139.104187	-0.790512	144.208196	-0.790512	144.208196	-9.844667	-112.284040
4.050000	-9.582482	-140.785275	-0.809608	141.475714	-0.809608	141.475714	-9.732140	-116.046565
4.100000	-9.468626	-142.456589	-0.828282	138.741669	-0.828282	138.741669	-9.626307	-119.822576
4.150000	-9.361096	-144.116754	-0.846504	136.005658	-0.846504	136.005658	-9.526959	-123.614416
4.200000	-9.259674	-145.764426	-0.864247	133.267251	-0.864247	133.267251	-9.433886	-127.424459
4.250000	-9.164137	-147.398287	-0.881491	130.526001	-0.881491	130.526001	-9.346870	-131.255113
4.300000	-9.074257	-149.017042	-0.898217	127.781441	-0.898217	127.781441	-9.265687	-135.108818
4.350000	-8.989799	-150.619423	-0.914416	125.033088	-0.914416	125.033088	-9.190105	-138.988042
4.400000	-8.910565	-152.203978	-0.930072	122.280390	-0.930072	122.280390	-9.119933	-142.895611
4.450000	-8.836298	-153.769450	-0.945185	119.522820	-0.945185	119.522820	-9.054913	-146.834127
4.500000	-8.766684	-155.314846	-0.959766	116.759901	-0.959766	116.759901	-8.994728	-150.805809
4.550000	-8.701448	-156.839014	-0.973822	113.991101	-0.973822	113.991101	-8.939100	-154.813187
4.600000	-8.640303	-158.340845	-0.987371	111.215882	-0.987371	111.215882	-8.887732	-158.858779
4.650000	-8.582945	-159.819277	-1.000432	108.433700	-1.000432	108.433700	-8.840316	-162.945080
4.700000	-8.529058	-161.273308	-1.013032	105.644006	-1.013032	105.644006	-8.796519	-167.074541
4.750000	-8.478309	-162.702001	-1.025205	102.846249	-1.025205	102.846249	-8.755994	-171.249556
4.800000	-8.430349	-164.104505	-1.036991	100.039881	-1.036991	100.039881	-8.718366	-175.472429
4.850000	-8.384811	-165.480063	-1.048434	97.224351	-1.048434	97.224351	-8.683242	-179.745359
4.900000	-8.341309	-166.828034	-1.059590	94.399118	-1.059590	94.399118	-8.650204	175.929601
4.950000	-8.299441	-168.147910	-1.070517	91.563645	-1.070517	91.563645	-8.618808	171.550570
5.000000	-8.258787	-169.439338	-1.081284	88.717409	-1.081284	88.717409	-8.588586	167.115875
5.050000	-8.218911	-170.701518	-1.091967	85.859647	-1.091967	85.859647	-8.559048	162.622827
5.100000	-8.179338	-171.935111	-1.102652	82.990109	-1.102652	82.990109	-8.529656	158.071530
5.150000	-8.139599	-173.140381	-1.113433	80.108341	-1.113433	80.108341	-8.499873	153.461212
5.200000	-8.099217	-174.317850	-1.124408	77.213922	-1.124408	77.213922	-8.469147	148.791487
5.250000	-8.057706	-175.468312	-1.135686	74.306471	-1.135686	74.306471	-8.436914	144.062392
5.300000	-8.014578	-176.592859	-1.147380	71.385656	-1.147380	71.385656	-8.402603	139.274431
5.350000	-7.969350	-177.692897	-1.159611	68.451198	-1.159611	68.451198	-8.365644	134.428610
5.400000	-7.921543	-178.770166	-1.172507	65.502877	-1.172507	65.502877	-8.325473	129.526463
5.450000	-7.870697	-179.826741	-1.186198	62.540536	-1.186198	62.540536	-8.281546	124.570083
5.500000	-7.816372	179.134962	-1.200820	59.564086	-1.200820	59.564086	-8.233346	119.562124
5.550000	-7.758159	178.112190	-1.216511	56.573510	-1.216511	56.573510	-8.180393	114.505805
5.600000	-7.695688	177.101873	-1.233412	53.568866	-1.233412	53.568866	-8.122256	109.404895
5.650000	-7.628575	176.100701	-1.251679	50.550137	-1.251679	50.550137	-8.058493	104.263296
5.700000	-7.556537	175.104916	-1.271456	47.517542	-1.271456	47.517542	-7.988791	99.085949
5.750000	-7.479422	174.110562	-1.292869	44.471524	-1.292869	44.471524	-7.912995	93.878493
5.800000	-7.397088	173.113623	-1.316051	41.412449	-1.316051	41.412449	-7.830970	88.646466
5.850000	-7.309463	172.109985	-1.341134	38.340759	-1.341134	38.340759	-7.742673	83.395649
5.900000	-7.216549	171.095502	-1.368244	35.256965	-1.368244	35.256965	-7.648153	78.131982
5.950000	-7.118419	170.066064	-1.397500	32.161647	-1.397500	32.161647	-7.547550	72.861459
6.000000	-7.015222	169.017671	-1.429012	29.055450	-1.429012	29.055450	-7.441098	67.590032
6.050000	-6.907173	167.946494	-1.462884	25.939078	-1.462884	25.939078	-7.329112	62.323513
6.100000	-6.794555	166.848948	-1.499210	22.813286	-1.499210	22.813286	-7.211985	57.067488
6.150000	-6.677707	165.721740	-1.538070	19.678877	-1.538070	19.678877	-7.090178	51.827232
6.200000	-6.557021	164.561924	-1.579536	16.536693	-1.579536	16.536693	-6.964209	46.607644
6.250000	-6.432930	163.366937	-1.623666	13.387607	-1.623666	13.387607	-6.834639	41.413189
6.300000	-6.305806	162.133777	-1.670562	10.232405	-1.670562	10.232405	-6.701966	36.248572
6.350000	-6.176252	160.861515	-1.720200	7.072146	-1.720200	7.072146	-6.566925	31.116697
6.400000	-6.044774	159.548892	-1.772598	3.907740	-1.772598	3.907740	-6.430140	26.020496
6.450000	-5.911880	158.195078	-1.827762	0.740091	-1.827762	0.740091	-6.292228	20.962378
6.500000	-5.778075	156.799655	-1.885683	-2.429916	-1.885683	-2.429916	-6.153795	15.944238
6.550000	-5.643848	155.362596	-1.946337	-5.601425	-1.946337	-5.601425	-6.015423	10.967472
6.600000	-5.509674	153.884236	-2.009690	-8.773617	-2.009690	-8.773617	-5.877664	6.032995
6.650000	-5.375998	152.365238	-2.075694	-11.945720	-2.075694	-11.945720	-5.741037	1.141272
6.700000	-5.243239	150.806591	-2.144288	-15.117025	-2.144288	-15.117025	-5.606020	-3.707699
6.750000	-5.111778	149.209248	-2.215416	-18.286870	-2.215416	-18.286870	-5.473051	-8.513989
6.800000	-4.981971	147.575003	-2.288977	-21.454698	-2.288977	-21.454698	-5.342522	-13.278737
6.850000	-4.854126	145.905440	-2.364887	-24.620023	-2.364887	-24.620023	-5.214776	-18.003001
6.900000	-4.728525	144.201732	-2.443075	-27.782393	-2.443075	-27.782393	-5.090141	-22.687498
6.950000	-4.605414	142.465791	-2.523434	-30.941493	-2.523434	-30.941493	-4.968889	-27.333967
7.000000	-4.484982	140.700092	-2.605832	-34.097175	-2.605832	-34.097175	-4.851209	-31.945007
7.050000	-4.367387	138.906574	-2.690164	-37.249345	-2.690164	-37.249345	-4.737274	-36.522786
7.100000	-4.252756	137.087189	-2.776318	-40.398012	-2.776318	-40.398012	-4.627222	-41.069688
7.150000	-4.141183	135.243884	-2.864188	-43.543293	-2.864188	-43.543293	-4.521153	-45.588304
7.200000	-4.032751	133.378406	-2.953670	-46.685393	-2.953670	-46.685393	-4.419162	-50.081219
7.250000	-3.927534	131.492364	-3.044666	-49.824618	-3.044666	-49.824618	-4.321346	-54.551130
7.300000	-3.825499	129.588146	-3.137060	-52.961507	-3.137060	-52.961507	-4.227641	-59.001835
7.350000	-3.726637	127.667511	-3.230760	-56.096628	-3.230760	-56.096628	-4.138035	-63.436633
7.400000	-3.630917	125.732145	-3.325683	-59.230658	-3.325683	-59.230658	-4.052493	-67.858975
7.450000	-3.538293	123.783659	-3.421755	-62.364379	-3.421755	-62.364379	-3.970957	-72.272454
7.500000	-3.448704	121.823583	-3.518914	-65.498679	-3.518914	-65.498679	-3.893355	-76.680803
7.550000	-3.362143	119.853062	-3.617107	-68.634636	-3.617107	-68.634636	-3.819704	-81.087970
7.600000	-3.278449	117.873846	-3.716301	-71.773325	-3.716301	-71.773325	-3.749786	-85.498117
7.650000	-3.197523	115.887209	-3.816478	-74.915934	-3.816478	-74.915934	-3.683479	-89.915357
7.700000	-3.119257	113.894341	-3.917639	-78.063742	-3.917639	-78.063742	-3.620647	-94.343914
7.750000	-3.043535	111.896351	-4.019807	-81.218114	-4.019807	-81.218114	-3.561144	-98.788113
7.800000	-2.970235	109.894267	-4.123022	-84.380489	-4.123022	-84.380489	-3.504810	-103.252368
7.850000	-2.899268	107.888979	-4.227349	-87.552669	-4.227349	-87.552669	-3.451536	-107.741928
7.900000	-2.830469	105.881441	-4.332885	-90.736134	-4.332885	-90.736134	-3.401087	-112.261116
7.950000	-2.763682	103.872462	-4.439751	-93.932441	-4.439751	-93.932441	-3.353243	-116.814332
8.000000	-2.698766	101.862748	-4.548097	-97.143275	-4.548097	-97.143275	-3.307793	-121.406219
8.050000	-2.635573	99.852922	-4.658103	-100.370359	-4.658103	-100.370359	-3.264516	-126.041421
8.100000	-2.573954	97.843526	-4.769983	-103.615437	-4.769983	-103.615437	-3.223176	-130.724555
8.150000	-2.513771	95.835034	-4.884004	-106.880636	-4.884004	-106.880636	-3.183546	-135.461159
8.200000	-2.454864	93.827827	-5.000463	-110.167788	-5.000463	-110.167788	-3.145350	-140.255895
8.250000	-2.397060	91.822149	-5.119682	-113.478274	-5.119682	-113.478274	-3.108285	-145.112144
8.300000	-2.340205	89.818160	-5.242032	-116.813772	-5.242032	-116.813772	-3.072060	-150.033986
8.350000	-2.284143	87.815917	-5.367931	-120.175891	-5.367931	-120.175891	-3.036371	-155.025235
8.400000	-2.228725	85.815361	-5.497842	-123.566150	-5.497842	-123.566150	-3.000903	-160.089367
8.450000	-2.173805	83.816331	-5.632303	-126.986214	-5.632303	-126.986214	-2.965328	-165.230127
8.500000	-2.119237	81.818539	-5.771943	-130.437907	-5.771943	-130.437907	-2.929288	-170.451528
8.550000	-2.064891	79.821522	-5.917313	-133.921512	-5.917313	-133.921512	-2.892457	-175.753545
8.600000	-2.010649	77.824737	-6.069080	-137.437862	-6.069080	-137.437862	-2.854502	178.862545
8.650000	-1.956412	75.827527	-6.227964	-140.987531	-6.227964	-140.987531	-2.815097	173.396222
8.700000	-1.902099	73.829132	-6.394738	-144.570805	-6.394738	-144.570805	-2.773931	167.847799
8.750000	-1.847650	71.828699	-6.570229	-148.187637	-6.570229	-148.187637	-2.730717	162.218504
8.800000	-1.793012	69.825172	-6.755530	-151.838732	-6.755530	-151.838732	-2.685100	156.507930
8.850000	-1.738198	67.817650	-6.951385	-155.522079	-6.951385	-155.522079	-2.636945	150.722176
8.900000	-1.683231	65.805138	-7.158768	-159.236385	-7.158768	-159.236385	-2.586088	144.865601
8.950000	-1.628166	63.786658	-7.378700	-162.979892	-7.378700	-162.979892	-2.532424	138.943608
9.000000	-1.573087	61.761273	-7.612251	-166.750347	-7.612251	-166.750347	-2.475913	132.962602
9.050000	-1.518106	59.728128	-7.860533	-170.544992	-7.860533	-170.544992	-2.416588	126.929937
9.100000	-1.463364	57.686239	-8.124924	-174.360989	-8.124924	-174.360989	-2.354482	120.852908
9.150000	-1.409035	55.635124	-8.406494	-178.193991	-8.406494	-178.193991	-2.289848	114.741562
9.200000	-1.355302	53.574426	-8.706421	177.960565	-8.706421	177.960565	-2.222985	108.605777
9.250000	-1.302363	51.503888	-9.026018	174.107590	-9.026018	174.107590	-2.154238	102.455411
9.300000	-1.250428	49.423448	-9.366673	170.252515	-9.366673	170.252515	-2.084017	96.300474
9.350000	-1.199708	47.333233	-9.729870	166.401304	-9.729870	166.401304	-2.012789	90.150913
9.400000	-1.150437	45.233407	-10.117341	162.560766	-10.117341	162.560766	-1.941057	84.016811
9.450000	-1.102833	43.124502	-10.530827	158.738375	-10.530827	158.738375	-1.869394	77.907752
9.500000	-1.057072	41.007355	-10.972159	154.941783	-10.972159	154.941783	-1.798384	71.831865
9.550000	-1.013336	38.882790	-11.443581	151.179653	-11.443581	151.179653	-1.728607	65.796652
9.600000	-0.971793	36.751749	-11.947706	147.461712	-11.947706	147.461712	-1.660640	59.808549
9.650000	-0.932593	34.615276	-12.487623	143.799109	-12.487623	143.799109	-1.595052	53.872792
9.700000	-0.895890	32.474464	-13.067077	140.205698	-13.067077	140.205698	-1.532434	47.993803
9.750000	-0.861843	30.330487	-13.690614	136.699683	-13.690614	136.699683	-1.473413	42.175139
9.800000	-0.830486	28.184665	-14.363786	133.299798	-14.363786	133.299798	-1.418474	36.416209
9.850000	-0.801895	26.038230	-15.093684	130.032930	-15.093684	130.032930	-1.368169	30.716327
9.900000	-0.776128	23.892411	-15.889347	126.935604	-15.889347	126.935604	-1.323074	25.073203
9.950000	-0.753228	21.748426	-16.762439	124.059273	-16.762439	124.059273	-1.283800	19.482901
10.000000	-0.733225	19.607471	-17.728208	121.479165	-17.728208	121.479165	-1.251027	13.939790
