! freq	dB(S11)	phase(S11)	dB(S12)	phase(S12)	
!     	dB(S21)	phase(S21)	dB(S22)	phase(S22)	
!S-par simulation data
#  GHz  S  DB  R 50
0.000000	-89.022943	0.000000	-0.000307	0.000000	-0.000307	0.000000	-89.022943	0.000000
0.050000	-40.670035	-91.924004	-0.003785	-2.171160	-0.003785	-2.171160	-40.670029	-91.924295
0.100000	-34.691066	-94.264593	-0.008761	-4.314702	-0.008761	-4.314702	-34.691053	-94.265139
0.150000	-31.214897	-96.574423	-0.013413	-6.449915	-0.013413	-6.449915	-31.214882	-96.575237
0.200000	-28.761032	-98.854386	-0.018390	-8.582161	-0.018390	-8.582161	-28.761016	-98.855496
0.250000	-26.865819	-101.097734	-0.023948	-10.711730	-0.023948	-10.711730	-26.865802	-101.099153
0.300000	-25.324803	-103.307853	-0.030142	-12.838284	-0.030142	-12.838284	-25.324785	-103.309585
0.350000	-24.028964	-105.492661	-0.036940	-14.961748	-0.036940	-14.961748	-24.028946	-105.494704
0.400000	-22.913898	-107.658372	-0.044315	-17.082052	-0.044315	-17.082052	-22.913878	-107.660723
0.450000	-21.938473	-109.809501	-0.052248	-19.199086	-0.052248	-19.199086	-21.938453	-109.812160
0.500000	-21.073261	-111.950256	-0.060664	-21.313082	-0.060664	-21.313082	-21.073240	-111.953222
0.550000	-20.299431	-114.081821	-0.069581	-23.423651	-0.069581	-23.423651	-20.299409	-114.085097
0.600000	-19.601248	-116.206227	-0.078933	-25.530901	-0.078933	-25.530901	-19.601226	-116.209817
0.650000	-18.967884	-118.324148	-0.088698	-27.634586	-0.088698	-27.634586	-18.967861	-118.328056
0.700000	-18.390359	-120.436301	-0.098829	-29.734619	-0.098829	-29.734619	-18.390336	-120.440533
0.750000	-17.861678	-122.543089	-0.109280	-31.830868	-0.109280	-31.830868	-17.861655	-122.547650
0.800000	-17.376192	-124.644771	-0.120002	-33.923206	-0.120002	-33.923206	-17.376168	-124.649669
0.850000	-16.929335	-126.741491	-0.130945	-36.011501	-0.130945	-36.011501	-16.929311	-126.746735
0.900000	-16.517330	-128.833339	-0.142056	-38.095636	-0.142056	-38.095636	-16.517305	-128.838937
0.950000	-16.136826	-130.920439	-0.153280	-40.175577	-0.153280	-40.175577	-16.136801	-130.926400
1.000000	-15.785098	-133.002853	-0.164564	-42.251274	-0.164564	-42.251274	-15.785073	-133.009186
1.050000	-15.459823	-135.080641	-0.175853	-44.322707	-0.175853	-44.322707	-15.459797	-135.087357
1.100000	-15.159006	-137.153869	-0.187096	-46.389882	-0.187096	-46.389882	-15.158979	-137.160978
1.150000	-14.880924	-139.222615	-0.198240	-48.452839	-0.198240	-48.452839	-14.880897	-139.230129
1.200000	-14.624085	-141.286973	-0.209235	-50.511647	-0.209235	-50.511647	-14.624057	-141.294904
1.250000	-14.387186	-143.347057	-0.220032	-52.566407	-0.220032	-52.566407	-14.387157	-143.355419
1.300000	-14.169276	-145.402943	-0.230579	-54.617198	-0.230579	-54.617198	-14.169247	-145.411750
1.350000	-13.969175	-147.454852	-0.240834	-56.664241	-0.240834	-56.664241	-13.969145	-147.464117
1.400000	-13.786011	-149.502962	-0.250752	-58.707729	-0.250752	-58.707729	-13.785981	-149.512702
1.450000	-13.619024	-151.547475	-0.260292	-60.747881	-0.260292	-60.747881	-13.618992	-151.557707
1.500000	-13.467547	-153.588614	-0.269414	-62.784944	-0.269414	-62.784944	-13.467515	-153.599356
1.550000	-13.331544	-155.626500	-0.278059	-64.819073	-0.278059	-64.819073	-13.331511	-155.637771
1.600000	-13.209005	-157.661748	-0.286251	-66.850872	-0.286251	-66.850872	-13.208971	-157.673569
1.650000	-13.101488	-159.694207	-0.293876	-68.880269	-0.293876	-68.880269	-13.101454	-159.706600
1.700000	-13.006689	-161.724565	-0.300988	-70.907919	-0.300988	-70.907919	-13.006654	-161.737553
1.750000	-12.925580	-163.752898	-0.307503	-72.933964	-0.307503	-72.933964	-12.925544	-163.766507
1.800000	-12.857555	-165.779608	-0.313413	-74.958816	-0.313413	-74.958816	-12.857518	-165.793865
1.850000	-12.802421	-167.805041	-0.318697	-76.982843	-0.318697	-76.982843	-12.802383	-167.819976
1.900000	-12.760175	-169.829550	-0.323329	-79.006425	-0.323329	-79.006425	-12.760137	-169.845195
1.950000	-12.730731	-171.853517	-0.327295	-81.029964	-0.327295	-81.029964	-12.730693	-171.869907
2.000000	-12.713918	-173.877332	-0.330591	-83.053860	-0.330591	-83.053860	-12.713879	-173.894505
2.050000	-12.709749	-175.901381	-0.333209	-85.078516	-0.333209	-85.078516	-12.709709	-175.919376
2.100000	-12.718290	-177.926054	-0.335146	-87.104339	-0.335146	-87.104339	-12.718249	-177.944916
2.150000	-12.739658	-179.951746	-0.336400	-89.131739	-0.336400	-89.131739	-12.739617	-179.971523
2.200000	-12.774026	178.021148	-0.336976	-91.161127	-0.336976	-91.161127	-12.773985	178.000403
2.250000	-12.821622	175.992231	-0.336880	-93.192916	-0.336880	-93.192916	-12.821580	175.970461
2.300000	-12.882735	173.961112	-0.336124	-95.227517	-0.336124	-95.227517	-12.882693	173.938254
2.350000	-12.957717	171.927401	-0.334723	-97.265340	-0.334723	-97.265340	-12.957674	171.903386
2.400000	-13.046991	169.890717	-0.332694	-99.306789	-0.332694	-99.306789	-13.046947	169.865469
2.450000	-13.151053	167.850689	-0.330061	-101.352267	-0.330061	-101.352267	-13.151009	167.824122
2.500000	-13.270486	165.806956	-0.326850	-103.402166	-0.326850	-103.402166	-13.270442	165.778978
2.550000	-13.406277	163.759078	-0.323081	-105.456987	-0.323081	-105.456987	-13.406232	163.729580
2.600000	-13.558904	161.706807	-0.318801	-107.517010	-0.318801	-107.517010	-13.558859	161.675674
2.650000	-13.729265	159.649841	-0.314048	-109.582599	-0.314048	-109.582599	-13.729219	159.616939
2.700000	-13.918394	157.587898	-0.308864	-111.654108	-0.308864	-111.654108	-13.918349	157.553081
2.750000	-14.127484	155.520731	-0.303297	-113.731873	-0.303297	-113.731873	-14.127438	155.483829
2.800000	-14.357908	153.448125	-0.297396	-115.816217	-0.297396	-115.816217	-14.357861	153.408945
2.850000	-14.611254	151.369907	-0.291214	-117.907444	-0.291214	-117.907444	-14.611208	151.328230
2.900000	-14.889369	149.285952	-0.284810	-120.005836	-0.284810	-120.005836	-14.889322	149.241525
2.950000	-15.194403	147.196197	-0.278243	-122.111657	-0.278243	-122.111657	-15.194357	147.148724
3.000000	-15.528883	145.100644	-0.271577	-124.225145	-0.271577	-124.225145	-15.528838	145.049779
3.050000	-15.895793	142.999383	-0.264881	-126.346515	-0.264881	-126.346515	-15.895749	142.944720
3.100000	-16.298690	140.892611	-0.258223	-128.475954	-0.258223	-128.475954	-16.298647	140.833662
3.150000	-16.742018	138.780621	-0.251680	-130.613687	-0.251680	-130.613687	-16.741977	138.716794
3.200000	-17.231004	136.663937	-0.245327	-132.759846	-0.245327	-132.759846	-17.230966	136.594506
3.250000	-17.771911	134.543355	-0.239241	-134.914456	-0.239241	-134.914456	-17.771877	134.467426
3.300000	-18.372774	132.419955	-0.233503	-137.077578	-0.233503	-137.077578	-18.372746	132.336403
3.350000	-19.043834	130.295289	-0.228194	-139.249237	-0.228194	-139.249237	-19.043816	130.202663
3.400000	-19.798419	128.171598	-0.223395	-141.429420	-0.223395	-141.429420	-19.798414	128.067994
3.450000	-20.654402	126.052233	-0.219192	-143.618102	-0.219192	-143.618102	-20.654417	125.935067
3.500000	-21.636484	123.942448	-0.215674	-145.815237	-0.215674	-145.815237	-21.636530	123.808072
3.550000	-22.780318	121.851273	-0.212937	-148.020804	-0.212937	-148.020804	-22.780417	121.694192
3.600000	-24.137167	119.791943	-0.211025	-150.234234	-0.211025	-150.234234	-24.137356	119.604069
3.650000	-25.792944	117.792027	-0.210041	-152.455544	-0.210041	-152.455544	-25.793301	117.559625
3.700000	-27.897874	115.909248	-0.210066	-154.684485	-0.210066	-154.684485	-27.898588	115.606822
3.750000	-30.757510	114.291677	-0.211178	-156.920767	-0.211178	-156.920767	-30.759152	113.863513
3.800000	-35.168137	113.531913	-0.213481	-159.164206	-0.213481	-159.164206	-35.173479	112.801578
3.850000	-44.819002	119.854245	-0.217025	-161.414273	-0.217025	-161.414273	-44.881340	117.423962
3.900000	-43.718350	-89.056485	-0.221881	-163.670559	-0.221881	-163.670559	-43.788855	-86.401979
3.950000	-34.606321	-80.401939	-0.228113	-165.932623	-0.228113	-165.932623	-34.613273	-79.663186
4.000000	-30.179707	-81.216796	-0.235785	-168.199985	-0.235785	-168.199985	-30.182446	-80.773101
4.050000	-27.226477	-82.875159	-0.244953	-170.472137	-0.244953	-170.472137	-27.228000	-82.555716
4.100000	-25.002918	-84.808849	-0.255670	-172.748539	-0.255670	-172.748539	-25.003917	-84.558200
4.150000	-23.217255	-86.868288	-0.267980	-175.028625	-0.267980	-175.028625	-23.217976	-86.661394
4.200000	-21.724586	-88.996200	-0.281925	-177.311806	-0.281925	-177.311806	-21.725141	-88.819612
4.250000	-20.442348	-91.165637	-0.297539	-179.597469	-0.297539	-179.597469	-20.442793	-91.011294
4.300000	-19.318999	-93.362057	-0.314850	178.115014	-0.314850	178.115014	-19.319369	-93.224747
4.350000	-18.320194	-95.576772	-0.333878	175.826284	-0.333878	175.826284	-18.320510	-95.452931
4.400000	-17.421873	-97.804247	-0.354655	173.536998	-0.354655	173.536998	-17.422148	-97.691308
4.450000	-16.606581	-100.040484	-0.377189	171.247836	-0.377189	171.247836	-16.606825	-99.936563
4.500000	-15.861199	-102.282533	-0.401460	168.959468	-0.401460	168.959468	-15.861419	-102.186212
4.550000	-15.175599	-104.528210	-0.427462	166.672554	-0.427462	166.672554	-15.175799	-104.438387
4.600000	-14.541808	-106.775757	-0.455179	164.387750	-0.455179	164.387750	-14.541991	-106.691558
4.650000	-13.953433	-109.023711	-0.484590	162.105702	-0.484590	162.105702	-13.953603	-108.944428
4.700000	-13.405264	-111.270820	-0.515668	159.827047	-0.515668	159.827047	-13.405423	-111.195876
4.750000	-12.892996	-113.515992	-0.548377	157.552402	-0.548377	157.552402	-12.893145	-113.444908
4.800000	-12.413023	-115.758257	-0.582678	155.282367	-0.582678	155.282367	-12.413164	-115.690634
4.850000	-11.962295	-117.996750	-0.618524	153.017520	-0.618524	153.017520	-11.962429	-117.932250
4.900000	-11.538202	-120.230688	-0.655864	150.758415	-0.655864	150.758415	-11.538331	-120.169023
4.950000	-11.138493	-122.459360	-0.694639	148.505577	-0.694639	148.505577	-11.138617	-122.400284
5.000000	-10.761208	-124.682123	-0.734789	146.259503	-0.734789	146.259503	-10.761327	-124.625423
5.050000	-10.404743	-126.898240	-0.776269	144.020826	-0.776269	144.020826	-10.404858	-126.843727
5.100000	-10.067467	-129.107313	-0.818984	141.789828	-0.818984	141.789828	-10.067578	-129.054826
5.150000	-9.748028	-131.308870	-0.862860	139.566906	-0.862860	139.566906	-9.748136	-131.258269
5.200000	-9.445215	-133.502488	-0.907820	137.352420	-0.907820	137.352420	-9.445321	-133.453648
5.250000	-9.157941	-135.687791	-0.953786	135.146694	-0.953786	135.146694	-9.158045	-135.640602
5.300000	-8.885222	-137.864451	-1.000677	132.950017	-1.000677	132.950017	-8.885324	-137.818816
5.350000	-8.626163	-140.032183	-1.048410	130.762642	-1.048410	130.762642	-8.626264	-139.988015
5.400000	-8.379950	-142.190746	-1.096903	128.584782	-1.096903	128.584782	-8.380049	-142.147967
5.450000	-8.145835	-144.339938	-1.146069	126.416619	-1.146069	126.416619	-8.145933	-144.298480
5.500000	-7.923132	-146.479600	-1.195826	124.258297	-1.195826	124.258297	-7.923229	-146.439400
5.550000	-7.711209	-148.609610	-1.246089	122.109926	-1.246089	122.109926	-7.711305	-148.570614
5.600000	-7.509478	-150.729883	-1.296773	119.971582	-1.296773	119.971582	-7.509574	-150.692039
5.650000	-7.317454	-152.840262	-1.347795	117.843420	-1.347795	117.843420	-7.317549	-152.803526
5.700000	-7.134626	-154.940730	-1.399070	115.725450	-1.399070	115.725450	-7.134722	-154.905062
5.750000	-6.960468	-157.031412	-1.450517	113.617544	-1.450517	113.617544	-6.960564	-156.996776
5.800000	-6.794539	-159.112353	-1.502055	111.519655	-1.502055	111.519655	-6.794635	-159.078717
5.850000	-6.636428	-161.183630	-1.553609	109.431708	-1.553609	109.431708	-6.636524	-161.150965
5.900000	-6.485748	-163.245342	-1.605103	107.353604	-1.605103	107.353604	-6.485845	-163.213623
5.950000	-6.342137	-165.297616	-1.656464	105.285219	-1.656464	105.285219	-6.342235	-165.266819
6.000000	-6.205255	-167.340600	-1.707621	103.226406	-1.707621	103.226406	-6.205353	-167.310705
6.050000	-6.074781	-169.374462	-1.758506	101.177001	-1.758506	101.177001	-6.074880	-169.345451
6.100000	-5.950413	-171.399391	-1.809054	99.136817	-1.809054	99.136817	-5.950513	-171.371248
6.150000	-5.831866	-173.415593	-1.859201	97.105651	-1.859201	97.105651	-5.831968	-173.388304
6.200000	-5.718871	-175.423290	-1.908887	95.083285	-1.908887	95.083285	-5.718974	-175.396843
6.250000	-5.611174	-177.422717	-1.958055	93.069485	-1.958055	93.069485	-5.611279	-177.397102
6.300000	-5.508655	-179.413871	-2.006622	91.064268	-2.006622	91.064268	-5.508761	-179.389078
6.350000	-5.410959	178.602716	-2.054562	89.067095	-2.054562	89.067095	-5.411066	178.626694
6.400000	-5.317870	176.626772	-2.101826	87.077695	-2.101826	87.077695	-5.317979	176.649941
6.450000	-5.229184	174.658018	-2.148370	85.095790	-2.148370	85.095790	-5.229296	174.680382
6.500000	-5.144709	172.696166	-2.194149	83.121095	-2.194149	83.121095	-5.144823	172.717729
6.550000	-5.064260	170.740923	-2.239125	81.153316	-2.239125	81.153316	-5.064376	170.761687
6.600000	-4.987664	168.791990	-2.283261	79.192155	-2.283261	79.192155	-4.987782	168.811957
6.650000	-4.914755	166.849066	-2.326521	77.237310	-2.326521	77.237310	-4.914876	166.868236
6.700000	-4.845376	164.911847	-2.368875	75.288475	-2.368875	75.288475	-4.845499	164.930219
6.750000	-4.779378	162.980025	-2.410293	73.345340	-2.410293	73.345340	-4.779503	162.997597
6.800000	-4.716618	161.053292	-2.450749	71.407596	-2.450749	71.407596	-4.716746	161.070063
6.850000	-4.656962	159.131342	-2.490219	69.474932	-2.490219	69.474932	-4.657092	159.147308
6.900000	-4.600281	157.213867	-2.528683	67.547036	-2.528683	67.547036	-4.600414	157.229025
6.950000	-4.546453	155.300562	-2.566120	65.623596	-2.566120	65.623596	-4.546588	155.314907
7.000000	-4.495360	153.391123	-2.602515	63.704305	-2.602515	63.704305	-4.495497	153.404651
7.050000	-4.446892	151.485250	-2.637854	61.788854	-2.637854	61.788854	-4.447032	151.497955
7.100000	-4.400942	149.582647	-2.672124	59.876937	-2.672124	59.876937	-4.401084	149.594522
7.150000	-4.357410	147.683019	-2.705316	57.968252	-2.705316	57.968252	-4.357554	147.694058
7.200000	-4.316199	145.786079	-2.737421	56.062501	-2.737421	56.062501	-4.316345	145.796275
7.250000	-4.277217	143.891543	-2.768436	54.159388	-2.768436	54.159388	-4.277365	143.900889
7.300000	-4.240376	141.999134	-2.798355	52.258623	-2.798355	52.258623	-4.240525	142.007621
7.350000	-4.205591	140.108580	-2.827178	50.359920	-2.827178	50.359920	-4.205742	140.116200
7.400000	-4.172783	138.219615	-2.854904	48.462997	-2.854904	48.462997	-4.172936	138.226360
7.450000	-4.141875	136.331981	-2.881535	46.567580	-2.881535	46.567580	-4.142029	136.337842
7.500000	-4.112794	134.445427	-2.907075	44.673399	-2.907075	44.673399	-4.112949	134.450395
7.550000	-4.085538	132.559733	-2.931480	42.780221	-2.931480	42.780221	-4.085694	132.563799
7.600000	-4.059967	130.674619	-2.954807	40.887736	-2.954807	40.887736	-4.060123	130.677773
7.650000	-4.036015	128.789858	-2.977066	38.995694	-2.977066	38.995694	-4.036172	128.792090
7.700000	-4.013623	126.905231	-2.998266	37.103853	-2.998266	37.103853	-4.013780	126.906532
7.750000	-3.992732	125.020528	-3.018419	35.211977	-3.018419	35.211977	-3.992888	125.020888
7.800000	-3.973284	123.135550	-3.037538	33.319840	-3.037538	33.319840	-3.973441	123.134959
7.850000	-3.955228	121.250104	-3.055636	31.427219	-3.055636	31.427219	-3.955384	121.248552
7.900000	-3.938510	119.364007	-3.072730	29.533903	-3.072730	29.533903	-3.938667	119.361485
7.950000	-3.923083	117.477086	-3.088835	27.639687	-3.088835	27.639687	-3.923239	117.473583
8.000000	-3.908899	115.589178	-3.103970	25.744374	-3.103970	25.744374	-3.909055	115.584684
8.050000	-3.895914	113.700127	-3.118153	23.847776	-3.118153	23.847776	-3.896069	113.694631
8.100000	-3.884084	111.809788	-3.131404	21.949712	-3.131404	21.949712	-3.884239	111.803281
8.150000	-3.873368	109.918025	-3.143743	20.050011	-3.143743	20.050011	-3.873524	109.910496
8.200000	-3.863728	108.024713	-3.155191	18.148510	-3.155191	18.148510	-3.863884	108.016149
8.250000	-3.855125	106.129732	-3.165772	16.245053	-3.165772	16.245053	-3.855281	106.120124
8.300000	-3.847524	104.232975	-3.175508	14.339496	-3.175508	14.339496	-3.847682	104.222311
8.350000	-3.840837	102.334458	-3.184469	12.431840	-3.184469	12.431840	-3.840997	102.322725
8.400000	-3.835111	100.433933	-3.192611	10.521770	-3.192611	10.521770	-3.835272	100.421120
8.450000	-3.830362	98.531187	-3.199918	8.609006	-3.199918	8.609006	-3.830526	98.517279
8.500000	-3.826440	96.626427	-3.206520	6.693779	-3.206520	6.693779	-3.826607	96.611411
8.550000	-3.823383	94.719420	-3.212384	4.775784	-3.212384	4.775784	-3.823555	94.703281
8.600000	-3.821149	92.810150	-3.217551	2.854981	-3.217551	2.854981	-3.821325	92.792872
8.650000	-3.819680	90.898652	-3.222074	0.931395	-3.222074	0.931395	-3.819861	90.880220
8.700000	-3.819026	88.984655	-3.225917	-0.995332	-3.225917	-0.995332	-3.819212	88.965051
8.750000	-3.819046	87.068487	-3.229203	-2.924803	-3.229203	-2.924803	-3.819238	87.047696
8.800000	-3.819873	85.149601	-3.231832	-4.857729	-3.231832	-4.857729	-3.820069	85.127603
8.850000	-3.821330	83.228487	-3.233956	-6.793500	-3.233956	-6.793500	-3.821532	83.205265
8.900000	-3.823503	81.304741	-3.235515	-8.732646	-3.235515	-8.732646	-3.823709	81.280279
8.950000	-3.826303	79.378588	-3.236589	-10.674893	-3.236589	-10.674893	-3.826513	79.352869
9.000000	-3.829734	77.449919	-3.237184	-12.620391	-3.237184	-12.620391	-3.829947	77.422928
9.050000	-3.833784	75.518681	-3.237319	-14.569223	-3.237319	-14.569223	-3.833997	75.490406
9.100000	-3.838385	73.585069	-3.237055	-16.521149	-3.237055	-16.521149	-3.838596	73.555501
9.150000	-3.843587	71.648754	-3.236362	-18.476614	-3.236362	-18.476614	-3.843794	71.617886
9.200000	-3.849273	69.710184	-3.235335	-20.435051	-3.235335	-20.435051	-3.849473	69.678017
9.250000	-3.855514	67.768911	-3.233930	-22.397080	-3.233930	-22.397080	-3.855703	67.735450
9.300000	-3.862197	65.825394	-3.232230	-24.362123	-3.232230	-24.362123	-3.862373	65.790653
9.350000	-3.869348	63.879408	-3.230226	-26.330535	-3.230226	-26.330535	-3.869506	63.843408
9.400000	-3.876910	61.931151	-3.227959	-28.302105	-3.227959	-28.302105	-3.877047	61.893923
9.450000	-3.884851	59.980704	-3.225451	-30.276805	-3.225451	-30.276805	-3.884964	59.942289
9.500000	-3.893159	58.028043	-3.222715	-32.254783	-3.222715	-32.254783	-3.893245	57.988493
9.550000	-3.901761	56.073524	-3.219795	-34.235642	-3.219795	-34.235642	-3.901819	56.032898
9.600000	-3.910669	54.116961	-3.216684	-36.219875	-3.216684	-36.219875	-3.910699	54.075337
9.650000	-3.919798	52.158866	-3.213435	-38.206852	-3.213435	-38.206852	-3.919801	52.116321
9.700000	-3.929146	50.199161	-3.210044	-40.197048	-3.210044	-40.197048	-3.929125	50.155792
9.750000	-3.938650	48.238258	-3.206550	-42.190015	-3.206550	-42.190015	-3.938611	48.194158
9.800000	-3.948283	46.276321	-3.202963	-44.185930	-3.202963	-44.185930	-3.948233	46.231597
9.850000	-3.958004	44.313648	-3.199304	-46.184689	-3.199304	-46.184689	-3.957954	44.268408
9.900000	-3.967775	42.350570	-3.195596	-48.186133	-3.195596	-48.186133	-3.967737	42.304917
9.950000	-3.977560	40.387404	-3.191852	-50.190479	-3.191852	-50.190479	-3.977553	40.341451
10.000000	-3.987330	38.424491	-3.188094	-52.197261	-3.188094	-52.197261	-3.987369	38.378329
