! freq	dB(S11)	phase(S11)	dB(S12)	phase(S12)	
!     	dB(S21)	phase(S21)	dB(S22)	phase(S22)	
!S-par simulation data
#  GHz  S  DB  R 50
0.000000	-0.000000	0.000000	-348.905203	0.000000	-348.905203	0.000000	-0.000000	0.000000
0.050000	-0.002881	-1.137875	-105.851829	88.744782	-105.851829	88.744782	-0.002888	-1.137895
0.100000	-0.006932	-2.303338	-99.872017	87.497425	-99.872017	87.497425	-0.006943	-2.303449
0.150000	-0.009501	-3.479427	-96.419323	86.266477	-96.419323	86.266477	-0.009510	-3.479613
0.200000	-0.011116	-4.656317	-94.016738	85.060671	-94.016738	85.060671	-0.011122	-4.656563
0.250000	-0.012266	-5.831839	-92.207592	83.893122	-92.207592	83.893122	-0.012271	-5.832137
0.300000	-0.013251	-7.005877	-90.779373	82.773045	-90.779373	82.773045	-0.013255	-7.006225
0.350000	-0.014171	-8.178429	-89.626514	81.716966	-89.626514	81.716966	-0.014174	-8.178828
0.400000	-0.015088	-9.349572	-88.684467	80.742885	-88.684467	80.742885	-0.015090	-9.350020
0.450000	-0.016032	-10.519345	-87.911835	79.871662	-87.911835	79.871662	-0.016033	-10.519843
0.500000	-0.017017	-11.687755	-87.280408	79.126552	-87.280408	79.126552	-0.017019	-11.688302
0.550000	-0.018051	-12.854781	-86.770014	78.532321	-86.770014	78.532321	-0.018053	-12.855379
0.600000	-0.019136	-14.020388	-86.365755	78.114412	-86.365755	78.114412	-0.019137	-14.021036
0.650000	-0.020270	-15.184532	-86.056570	77.899016	-86.056570	77.899016	-0.020271	-15.185230
0.700000	-0.021452	-16.347161	-85.834493	77.914952	-85.834493	77.914952	-0.021452	-16.347909
0.750000	-0.022677	-17.508220	-85.694162	78.197723	-85.694162	78.197723	-0.022678	-17.509019
0.800000	-0.023943	-18.667657	-85.632255	78.795332	-85.632255	78.795332	-0.023944	-18.668507
0.850000	-0.025246	-19.825417	-85.646625	79.774968	-85.646625	79.774968	-0.025246	-19.826317
0.900000	-0.026580	-20.981448	-85.735028	81.229749	-85.735028	81.229749	-0.026581	-20.982397
0.950000	-0.027943	-22.135697	-85.893266	83.284971	-85.893266	83.284971	-0.027944	-22.136697
1.000000	-0.029330	-23.288117	-86.112419	86.102642	-86.112419	86.102642	-0.029331	-23.289166
1.050000	-0.030737	-24.438659	-86.374633	89.880517	-86.374633	89.880517	-0.030739	-24.439758
1.100000	-0.032162	-25.587279	-86.647100	94.836211	-86.647100	94.836211	-0.032163	-25.588428
1.150000	-0.033600	-26.733934	-86.875064	101.159006	-86.875064	101.159006	-0.033601	-26.735132
1.200000	-0.035049	-27.878582	-86.978330	108.908933	-86.978330	108.908933	-0.035050	-27.879829
1.250000	-0.036506	-29.021183	-86.861269	117.869126	-86.861269	117.869126	-0.036508	-29.022479
1.300000	-0.037969	-30.161608	-86.429627	127.431935	-86.429627	127.431935	-0.037971	-30.162953
1.350000	-0.039436	-31.299908	-85.680331	136.691416	-85.680331	136.691416	-0.039437	-31.301301
1.400000	-0.040904	-32.436049	-84.670627	144.928516	-84.670627	144.928516	-0.040905	-32.437490
1.450000	-0.042372	-33.569997	-83.492702	151.777563	-83.492702	151.777563	-0.042373	-33.571486
1.500000	-0.043839	-34.701719	-82.233646	157.199019	-82.233646	157.199019	-0.043840	-34.703256
1.550000	-0.045303	-35.831184	-80.956581	161.339433	-80.956581	161.339433	-0.045305	-35.832768
1.600000	-0.046765	-36.958361	-79.700155	164.409514	-79.700155	164.409514	-0.046767	-36.959993
1.650000	-0.048223	-38.083221	-78.485047	166.616418	-78.485047	166.616418	-0.048225	-38.084899
1.700000	-0.049677	-39.205734	-77.320631	168.137334	-77.320631	168.137334	-0.049679	-39.207459
1.750000	-0.051126	-40.325873	-76.209787	169.114632	-76.209787	169.114632	-0.051128	-40.327644
1.800000	-0.052571	-41.443611	-75.151907	169.659562	-75.151907	169.659562	-0.052573	-41.445427
1.850000	-0.054012	-42.558921	-74.144644	169.858192	-74.144644	169.858192	-0.054013	-42.560782
1.900000	-0.055448	-43.671777	-73.184891	169.777068	-73.184891	169.777068	-0.055449	-43.673684
1.950000	-0.056879	-44.782156	-72.269310	169.467880	-72.269310	169.467880	-0.056881	-44.784107
2.000000	-0.058307	-45.890032	-71.394605	168.971073	-71.394605	168.971073	-0.058309	-45.892028
2.050000	-0.059731	-46.995384	-70.557660	168.318564	-70.557660	168.318564	-0.059733	-46.997423
2.100000	-0.061153	-48.098188	-69.755594	167.535768	-69.755594	167.535768	-0.061155	-48.100271
2.150000	-0.062572	-49.198423	-68.985774	166.643111	-68.985774	166.643111	-0.062574	-49.200549
2.200000	-0.063989	-50.296070	-68.245817	165.657153	-68.245817	165.657153	-0.063991	-50.298239
2.250000	-0.065404	-51.391107	-67.533567	164.591439	-67.533567	164.591439	-0.065407	-51.393319
2.300000	-0.066820	-52.483518	-66.847080	163.457131	-66.847080	163.457131	-0.066822	-52.485771
2.350000	-0.068235	-53.573283	-66.184602	162.263504	-66.184602	162.263504	-0.068237	-53.575578
2.400000	-0.069651	-54.660387	-65.544548	161.018321	-65.544548	161.018321	-0.069654	-54.662723
2.450000	-0.071069	-55.744813	-64.925482	159.728119	-64.925482	159.728119	-0.071071	-55.747190
2.500000	-0.072489	-56.826548	-64.326105	158.398440	-64.326105	158.398440	-0.072492	-56.828965
2.550000	-0.073913	-57.905458	-63.744354	157.032690	-63.744354	157.032690	-0.073915	-57.907916
2.600000	-0.075340	-58.981650	-63.180139	155.636557	-63.180139	155.636557	-0.075343	-58.984147
2.650000	-0.076773	-60.055111	-62.632464	154.213471	-62.632464	154.213471	-0.076775	-60.057647
2.700000	-0.078210	-61.125832	-62.100421	152.766408	-62.100421	152.766408	-0.078213	-61.128407
2.750000	-0.079654	-62.193803	-61.583175	151.297965	-61.583175	151.297965	-0.079657	-62.196417
2.800000	-0.081106	-63.259017	-61.079960	149.810414	-61.079960	149.810414	-0.081108	-63.261669
2.850000	-0.082565	-64.321467	-60.590072	148.305751	-60.590072	148.305751	-0.082567	-64.324157
2.900000	-0.084032	-65.381147	-60.112860	146.785739	-60.112860	146.785739	-0.084035	-65.383875
2.950000	-0.085509	-66.438054	-59.647721	145.251936	-59.647721	145.251936	-0.085512	-66.440818
3.000000	-0.086996	-67.492184	-59.194100	143.705729	-59.194100	143.705729	-0.086999	-67.494985
3.050000	-0.088494	-68.543535	-58.751478	142.148353	-58.751478	142.148353	-0.088497	-68.546372
3.100000	-0.090004	-69.592106	-58.319375	140.580909	-58.319375	140.580909	-0.090006	-69.594979
3.150000	-0.091525	-70.637898	-57.897342	139.004388	-57.897342	139.004388	-0.091528	-70.640806
3.200000	-0.093060	-71.680913	-57.484961	137.419680	-57.484961	137.419680	-0.093063	-71.683856
3.250000	-0.094608	-72.721152	-57.081841	135.827586	-57.081841	135.827586	-0.094611	-72.724131
3.300000	-0.096171	-73.758621	-56.687615	134.228830	-56.687615	134.228830	-0.096174	-73.761634
3.350000	-0.097749	-74.793325	-56.301940	132.624070	-56.301940	132.624070	-0.097751	-74.796372
3.400000	-0.099342	-75.825270	-55.924494	131.013901	-55.924494	131.013901	-0.099345	-75.828350
3.450000	-0.100951	-76.854463	-55.554973	129.398867	-55.554973	129.398867	-0.100954	-76.857577
3.500000	-0.102578	-77.880914	-55.193091	127.779463	-55.193091	127.779463	-0.102581	-77.884060
3.550000	-0.104222	-78.904631	-54.838580	126.156143	-54.838580	126.156143	-0.104225	-78.907811
3.600000	-0.105884	-79.925628	-54.491185	124.529321	-54.491185	124.529321	-0.105887	-79.928840
3.650000	-0.107565	-80.943915	-54.150665	122.899379	-54.150665	122.899379	-0.107568	-80.947159
3.700000	-0.109266	-81.959506	-53.816793	121.266669	-53.816793	121.266669	-0.109269	-81.962782
3.750000	-0.110986	-82.972416	-53.489355	119.631513	-53.489355	119.631513	-0.110989	-82.975723
3.800000	-0.112728	-83.982545	-53.167900	117.994131	-53.167900	117.994131	-0.112731	-83.985883
3.850000	-0.114491	-84.990027	-52.852501	116.354904	-52.852501	116.354904	-0.114494	-84.993396
3.900000	-0.116276	-85.994879	-52.542971	114.714085	-52.542971	114.714085	-0.116279	-85.998279
3.950000	-0.118082	-86.997121	-52.239135	113.071912	-52.239135	113.071912	-0.118085	-87.000551
4.000000	-0.119912	-87.996773	-51.940823	111.428604	-51.940823	111.428604	-0.119915	-88.000233
4.050000	-0.121765	-88.993856	-51.647875	109.784368	-51.647875	109.784368	-0.121768	-88.997346
4.100000	-0.123642	-89.988393	-51.360138	108.139395	-51.360138	108.139395	-0.123645	-89.991911
4.150000	-0.125543	-90.980406	-51.077466	106.493864	-51.077466	106.493864	-0.125546	-90.983953
4.200000	-0.127469	-91.969919	-50.799719	104.847946	-50.799719	104.847946	-0.127472	-91.973496
4.250000	-0.129420	-92.956959	-50.526764	103.201797	-50.526764	103.201797	-0.129423	-92.960564
4.300000	-0.131397	-93.941550	-50.258472	101.555567	-50.258472	101.555567	-0.131400	-93.945183
4.350000	-0.133400	-94.923721	-49.994721	99.909395	-49.994721	99.909395	-0.133403	-94.927382
4.400000	-0.135430	-95.903499	-49.735395	98.263413	-49.735395	98.263413	-0.135433	-95.907188
4.450000	-0.137487	-96.880914	-49.480380	96.617746	-49.480380	96.617746	-0.137491	-96.884630
4.500000	-0.139573	-97.855994	-49.229568	94.972511	-49.229568	94.972511	-0.139576	-97.859738
4.550000	-0.141686	-98.828772	-48.982855	93.327819	-48.982855	93.327819	-0.141689	-98.832543
4.600000	-0.143827	-99.799279	-48.740142	91.683775	-48.740142	91.683775	-0.143831	-99.803077
4.650000	-0.145998	-100.767547	-48.501332	90.040478	-48.501332	90.040478	-0.146002	-100.771372
4.700000	-0.148199	-101.733609	-48.266333	88.398023	-48.266333	88.398023	-0.148202	-101.737461
4.750000	-0.150429	-102.697501	-48.035056	86.756498	-48.035056	86.756498	-0.150433	-102.701378
4.800000	-0.152690	-103.659256	-47.807414	85.115988	-47.807414	85.115988	-0.152693	-103.663160
4.850000	-0.154981	-104.618911	-47.583326	83.476573	-47.583326	83.476573	-0.154985	-104.622841
4.900000	-0.157304	-105.576503	-47.362711	81.838329	-47.362711	81.838329	-0.157308	-105.580459
4.950000	-0.159658	-106.532068	-47.145492	80.201327	-47.145492	80.201327	-0.159662	-106.536050
5.000000	-0.162045	-107.485646	-46.931595	78.565637	-46.931595	78.565637	-0.162048	-107.489653
5.050000	-0.164465	-108.437191	-46.720867	76.931384	-46.720867	76.931384	-0.164469	-108.441224
5.100000	-0.166918	-109.386831	-46.513326	75.298573	-46.513326	75.298573	-0.166922	-109.390889
5.150000	-0.169405	-110.334605	-46.308904	73.667261	-46.308904	73.667261	-0.169408	-110.338688
5.200000	-0.171925	-111.280555	-46.107536	72.037501	-46.107536	72.037501	-0.171929	-111.284663
5.250000	-0.174479	-112.224723	-45.909158	70.409347	-45.909158	70.409347	-0.174483	-112.228856
5.300000	-0.177068	-113.167151	-45.713709	68.782844	-45.713709	68.782844	-0.177072	-113.171308
5.350000	-0.179692	-114.107882	-45.521129	67.158039	-45.521129	67.158039	-0.179695	-114.112064
5.400000	-0.182350	-115.046961	-45.331361	65.534975	-45.331361	65.534975	-0.182354	-115.051168
5.450000	-0.185045	-115.984431	-45.144349	63.913691	-45.144349	63.913691	-0.185049	-115.988662
5.500000	-0.187775	-116.920338	-44.960038	62.294226	-44.960038	62.294226	-0.187779	-116.924594
5.550000	-0.190542	-117.854727	-44.778376	60.676613	-44.778376	60.676613	-0.190546	-117.859007
5.600000	-0.193346	-118.787646	-44.599312	59.060886	-44.599312	59.060886	-0.193350	-118.791950
5.650000	-0.196186	-119.719140	-44.422796	57.447075	-44.422796	57.447075	-0.196191	-119.723468
5.700000	-0.199064	-120.649257	-44.248781	55.835207	-44.248781	55.835207	-0.199069	-120.653610
5.750000	-0.201980	-121.578046	-44.077221	54.225309	-44.077221	54.225309	-0.201985	-121.582423
5.800000	-0.204934	-122.505554	-43.908069	52.617405	-43.908069	52.617405	-0.204939	-122.509955
5.850000	-0.207933	-123.431633	-43.741142	51.011871	-43.741142	51.011871	-0.207938	-123.436059
5.900000	-0.210973	-124.356481	-43.576508	49.408461	-43.576508	49.408461	-0.210977	-124.360931
5.950000	-0.214034	-125.280760	-43.414545	47.806129	-43.414545	47.806129	-0.214038	-125.285234
6.000000	-0.217155	-126.203331	-43.254393	46.207027	-43.254393	46.207027	-0.217160	-126.207829
6.050000	-0.220292	-127.125560	-43.096909	44.608654	-43.096909	44.608654	-0.220296	-127.130081
6.100000	-0.223497	-128.046078	-42.941096	43.013919	-42.941096	43.013919	-0.223502	-128.050624
6.150000	-0.226710	-128.966444	-42.787929	41.419553	-42.787929	41.419553	-0.226715	-128.971014
6.200000	-0.230001	-129.885139	-42.636324	39.829230	-42.636324	39.829230	-0.230005	-129.889734
6.250000	-0.233292	-130.803835	-42.487320	38.238907	-42.487320	38.238907	-0.233297	-130.808453
6.300000	-0.236669	-131.720941	-42.339797	36.653026	-42.339797	36.653026	-0.236673	-131.725584
6.350000	-0.240046	-132.638048	-42.194738	35.067145	-42.194738	35.067145	-0.240051	-132.642715
6.400000	-0.243503	-133.553917	-42.051255	33.485353	-42.051255	33.485353	-0.243508	-133.558609
6.450000	-0.246969	-134.469673	-41.910032	31.903931	-41.910032	31.903931	-0.246973	-134.474390
6.500000	-0.250507	-135.384507	-41.770454	30.326234	-41.770454	30.326234	-0.250512	-135.389248
6.550000	-0.254061	-136.299157	-41.632964	28.749280	-41.632964	28.749280	-0.254066	-136.303923
6.600000	-0.257682	-137.213161	-41.497166	27.175677	-41.497166	27.175677	-0.257687	-137.217952
6.650000	-0.261326	-138.126951	-41.363312	25.603190	-41.363312	25.603190	-0.261331	-138.131767
6.700000	-0.265016	-139.040415	-41.231247	24.032934	-41.231247	24.032934	-0.265020	-139.045256
6.750000	-0.268756	-139.953566	-41.100914	22.465183	-41.100914	22.465183	-0.268761	-139.958432
6.800000	-0.272541	-140.866524	-40.972334	20.899564	-40.972334	20.899564	-0.272546	-140.871415
6.850000	-0.276370	-141.779348	-40.845485	19.336073	-40.845485	19.336073	-0.276375	-141.784264
6.900000	-0.280244	-142.692096	-40.720345	17.774705	-40.720345	17.774705	-0.280249	-142.697039
6.950000	-0.284162	-143.604830	-40.596893	16.215457	-40.596893	16.215457	-0.284167	-143.609798
7.000000	-0.288126	-144.517609	-40.475109	14.658323	-40.475109	14.658323	-0.288131	-144.522604
7.050000	-0.292134	-145.430495	-40.354974	13.103301	-40.354974	13.103301	-0.292139	-145.435516
7.100000	-0.296189	-146.343548	-40.236469	11.550385	-40.236469	11.550385	-0.296193	-146.348595
7.150000	-0.300288	-147.256830	-40.119578	9.999572	-40.119578	9.999572	-0.300293	-147.261903
7.200000	-0.304433	-148.170402	-40.004282	8.450858	-40.004282	8.450858	-0.304438	-148.175503
7.250000	-0.308625	-149.084329	-39.890565	6.904240	-39.890565	6.904240	-0.308630	-149.089457
7.300000	-0.312862	-149.998671	-39.778413	5.359714	-39.778413	5.359714	-0.312867	-150.003827
7.350000	-0.317145	-150.913494	-39.667811	3.817280	-39.667811	3.817280	-0.317150	-150.918676
7.400000	-0.321475	-151.828859	-39.558744	2.276935	-39.558744	2.276935	-0.321480	-151.834069
7.450000	-0.325851	-152.744831	-39.451200	0.738679	-39.451200	0.738679	-0.325856	-152.750070
7.500000	-0.330274	-153.661475	-39.345166	-0.797487	-39.345166	-0.797487	-0.330279	-153.666743
7.550000	-0.334745	-154.578891	-39.240640	-2.331471	-39.240640	-2.331471	-0.334751	-154.584187
7.600000	-0.339263	-155.497115	-39.137602	-3.863362	-39.137602	-3.863362	-0.339269	-155.502440
7.650000	-0.343828	-156.416211	-39.036043	-5.393154	-39.036043	-5.393154	-0.343833	-156.421566
7.700000	-0.348440	-157.336248	-38.935951	-6.920843	-38.935951	-6.920843	-0.348445	-157.341632
7.750000	-0.353098	-158.257290	-38.837318	-8.446421	-38.837318	-8.446421	-0.353103	-158.262704
7.800000	-0.357804	-159.179404	-38.740134	-9.969880	-38.740134	-9.969880	-0.357809	-159.184849
7.850000	-0.362556	-160.102659	-38.644390	-11.491209	-38.644390	-11.491209	-0.362561	-160.108134
7.900000	-0.367355	-161.027121	-38.550079	-13.010397	-38.550079	-13.010397	-0.367360	-161.032627
7.950000	-0.372200	-161.952858	-38.457194	-14.527430	-38.457194	-14.527430	-0.372205	-161.958396
8.000000	-0.377093	-162.879939	-38.365727	-16.042292	-38.365727	-16.042292	-0.377098	-162.885508
8.050000	-0.382032	-163.808432	-38.275672	-17.554965	-38.275672	-17.554965	-0.382037	-163.814034
8.100000	-0.387018	-164.738406	-38.187023	-19.065430	-38.187023	-19.065430	-0.387023	-164.744041
8.150000	-0.392050	-165.669930	-38.099773	-20.573663	-38.099773	-20.573663	-0.392055	-165.675598
8.200000	-0.397129	-166.603075	-38.013919	-22.079642	-38.013919	-22.079642	-0.397134	-166.608777
8.250000	-0.402254	-167.537910	-37.929454	-23.583339	-37.929454	-23.583339	-0.402259	-167.543646
8.300000	-0.407425	-168.474505	-37.846374	-25.084726	-37.846374	-25.084726	-0.407429	-168.480276
8.350000	-0.412641	-169.412932	-37.764675	-26.583771	-37.764675	-26.583771	-0.412646	-169.418737
8.400000	-0.417903	-170.353260	-37.684353	-28.080440	-37.684353	-28.080440	-0.417908	-170.359101
8.450000	-0.423211	-171.295561	-37.605404	-29.574698	-37.605404	-29.574698	-0.423216	-171.301438
8.500000	-0.428564	-172.239907	-37.527824	-31.066506	-37.527824	-31.066506	-0.428568	-172.245821
8.550000	-0.433961	-173.186370	-37.451611	-32.555822	-37.451611	-32.555822	-0.433966	-173.192320
8.600000	-0.439403	-174.135021	-37.376761	-34.042603	-37.376761	-34.042603	-0.439407	-174.141009
8.650000	-0.444888	-175.085933	-37.303270	-35.526802	-37.303270	-35.526802	-0.444893	-175.091959
8.700000	-0.450418	-176.039178	-37.231137	-37.008371	-37.231137	-37.008371	-0.450422	-176.045243
8.750000	-0.455990	-176.994830	-37.160359	-38.487257	-37.160359	-38.487257	-0.455995	-177.000934
8.800000	-0.461608	-177.953072	-37.090967	-39.963286	-37.090967	-39.963286	-0.461612	-177.959216
8.850000	-0.467267	-178.913873	-37.022926	-41.436516	-37.022926	-41.436516	-0.467271	-178.920058
8.900000	-0.472968	-179.877307	-36.956233	-42.906888	-36.956233	-42.906888	-0.472972	-179.883533
8.950000	-0.478710	179.156553	-36.890886	-44.374341	-36.890886	-44.374341	-0.478714	179.150285
9.000000	-0.484493	178.187634	-36.826881	-45.838810	-36.826881	-45.838810	-0.484497	178.181323
9.050000	-0.490315	177.215860	-36.764217	-47.300229	-36.764217	-47.300229	-0.490319	177.209506
9.100000	-0.496177	176.241159	-36.702890	-48.758527	-36.702890	-48.758527	-0.496181	176.234760
9.150000	-0.502077	175.263455	-36.642897	-50.213634	-36.642897	-50.213634	-0.502081	175.257012
9.200000	-0.508015	174.282676	-36.584235	-51.665476	-36.584235	-51.665476	-0.508019	174.276188
9.250000	-0.513990	173.298746	-36.526902	-53.113978	-36.526902	-53.113978	-0.513994	173.292212
9.300000	-0.520001	172.311592	-36.470893	-54.559061	-36.470893	-54.559061	-0.520005	172.305011
9.350000	-0.526047	171.321140	-36.416205	-56.000646	-36.416205	-56.000646	-0.526051	171.314511
9.400000	-0.532128	170.327314	-36.362835	-57.438652	-36.362835	-57.438652	-0.532131	170.320636
9.450000	-0.538241	169.330041	-36.310778	-58.872995	-36.310778	-58.872995	-0.538245	169.323314
9.500000	-0.544387	168.329247	-36.260031	-60.303591	-36.260031	-60.303591	-0.544390	168.322470
9.550000	-0.550564	167.324858	-36.210588	-61.730352	-36.210588	-61.730352	-0.550567	167.318030
9.600000	-0.556771	166.316800	-36.162444	-63.153191	-36.162444	-63.153191	-0.556774	166.309920
9.650000	-0.563007	165.304999	-36.115596	-64.572020	-36.115596	-64.572020	-0.563010	165.298067
9.700000	-0.569271	164.289383	-36.070036	-65.986747	-36.070036	-65.986747	-0.569273	164.282397
9.750000	-0.575560	163.269878	-36.025761	-67.397282	-36.025761	-67.397282	-0.575562	163.262838
9.800000	-0.581875	162.246411	-35.982762	-68.803533	-35.982762	-68.803533	-0.581877	162.239315
9.850000	-0.588213	161.218909	-35.941035	-70.205407	-35.941035	-70.205407	-0.588215	161.211758
9.900000	-0.594573	160.187302	-35.900572	-71.602810	-35.900572	-71.602810	-0.594575	160.180093
9.950000	-0.600953	159.151517	-35.861366	-72.995649	-35.861366	-72.995649	-0.600955	159.144250
10.000000	-0.607352	158.111483	-35.823410	-74.383829	-35.823410	-74.383829	-0.607354	158.104157
