! freq	dB(S11)	phase(S11)	dB(S12)	phase(S12)	
!     	dB(S21)	phase(S21)	dB(S22)	phase(S22)	
!S-par simulation data
#  GHz  S  DB  R 50
0.000000	-0.000000	-0.000000	-392.866700	180.000000	-392.866700	180.000000	-0.000000	-0.000000
0.050000	-0.000131	-1.036547	-111.372601	89.069357	-111.372601	89.069357	-0.000112	-0.919356
0.100000	-0.000519	-2.072763	-105.397511	88.147979	-105.397511	88.147979	-0.000442	-1.838449
0.150000	-0.001148	-3.108339	-101.951608	87.245334	-101.951608	87.245334	-0.000979	-2.757034
0.200000	-0.001993	-4.143019	-99.558708	86.371049	-99.558708	86.371049	-0.001703	-3.674905
0.250000	-0.003037	-5.176511	-97.762488	85.538705	-97.762488	85.538705	-0.002601	-4.591825
0.300000	-0.004231	-6.208758	-96.350169	84.757005	-96.350169	84.757005	-0.003633	-5.507743
0.350000	-0.005553	-7.239599	-95.216788	84.041704	-95.216788	84.041704	-0.004780	-6.422528
0.400000	-0.006973	-8.268965	-94.298605	83.409700	-94.298605	83.409700	-0.006017	-7.336119
0.450000	-0.008463	-9.296825	-93.555543	82.881387	-93.555543	82.881387	-0.007322	-8.248488
0.500000	-0.010000	-10.323173	-92.961358	82.481833	-92.961358	82.481833	-0.008673	-9.159631
0.550000	-0.011564	-11.348026	-92.498533	82.242413	-92.498533	82.242413	-0.010054	-10.069563
0.600000	-0.013140	-12.371409	-92.155395	82.203056	-92.155395	82.203056	-0.011450	-10.978309
0.650000	-0.014716	-13.393356	-91.924347	82.415398	-91.924347	82.415398	-0.012849	-11.885903
0.700000	-0.016283	-14.413896	-91.800636	82.947225	-91.800636	82.947225	-0.014243	-12.792379
0.750000	-0.017835	-15.433060	-91.781288	83.888715	-91.781288	83.888715	-0.015627	-13.697771
0.800000	-0.019368	-16.450871	-91.863837	85.361058	-91.863837	85.361058	-0.016994	-14.602107
0.850000	-0.020880	-17.467344	-92.044355	87.527715	-92.044355	87.527715	-0.018344	-15.505415
0.900000	-0.022369	-18.482491	-92.313974	90.607169	-92.313974	90.607169	-0.019674	-16.407714
0.950000	-0.023836	-19.496315	-92.652616	94.881358	-92.652616	94.881358	-0.020985	-17.309018
1.000000	-0.025282	-20.508812	-93.018478	100.682447	-93.018478	100.682447	-0.022275	-18.209337
1.050000	-0.026707	-21.519976	-93.333755	108.319648	-93.333755	108.319648	-0.023547	-19.108675
1.100000	-0.028113	-22.529791	-93.475363	117.894202	-93.475363	117.894202	-0.024801	-20.007031
1.150000	-0.029501	-23.538242	-93.294823	129.012629	-93.294823	129.012629	-0.026038	-20.904401
1.200000	-0.030873	-24.545306	-92.688084	140.631801	-92.688084	140.631801	-0.027260	-21.800777
1.250000	-0.032230	-25.550960	-91.670736	151.418109	-91.670736	151.418109	-0.028469	-22.696148
1.300000	-0.033574	-26.555115	-90.350754	160.356176	-90.350754	160.356176	-0.029665	-23.590455
1.350000	-0.034906	-27.557803	-88.897291	167.311730	-88.897291	167.311730	-0.030851	-24.483725
1.400000	-0.036227	-28.558995	-87.416255	172.511127	-87.416255	172.511127	-0.032027	-25.375942
1.450000	-0.037540	-29.558661	-85.967373	176.296147	-85.967373	176.296147	-0.033195	-26.267086
1.500000	-0.038845	-30.556770	-84.578674	178.987505	-84.578674	178.987505	-0.034356	-27.157138
1.550000	-0.040142	-31.553292	-83.260281	-179.155995	-83.260281	-179.155995	-0.035512	-28.046077
1.600000	-0.041434	-32.548195	-82.013244	-177.937732	-82.013244	-177.937732	-0.036662	-28.933882
1.650000	-0.042720	-33.541448	-80.834426	-177.211573	-80.834426	-177.211573	-0.037809	-29.820533
1.700000	-0.044002	-34.533022	-79.719012	-176.869298	-79.719012	-176.869298	-0.038953	-30.706007
1.750000	-0.045280	-35.522884	-78.661747	-176.830315	-78.661747	-176.830315	-0.040094	-31.590283
1.800000	-0.046556	-36.511005	-77.657503	-177.034011	-77.657503	-177.034011	-0.041234	-32.473340
1.850000	-0.047829	-37.497357	-76.701531	-177.434252	-76.701531	-177.434252	-0.042373	-33.355157
1.900000	-0.049100	-38.481910	-75.789537	-177.995491	-75.789537	-177.995491	-0.043511	-34.235713
1.950000	-0.050370	-39.464637	-74.917687	-178.689998	-74.917687	-178.689998	-0.044650	-35.114988
2.000000	-0.051640	-40.445509	-74.082579	-179.495883	-74.082579	-179.495883	-0.045790	-35.992960
2.050000	-0.052909	-41.424501	-73.281201	179.604330	-73.281201	179.604330	-0.046931	-36.869611
2.100000	-0.054179	-42.401587	-72.510880	178.624735	-72.510880	178.624735	-0.048073	-37.744921
2.150000	-0.055449	-43.376742	-71.769247	177.576818	-71.769247	177.576818	-0.049218	-38.618871
2.200000	-0.056722	-44.349942	-71.054193	176.470018	-71.054193	176.470018	-0.050365	-39.491443
2.250000	-0.057996	-45.321164	-70.363835	175.312164	-70.363835	175.312164	-0.051515	-40.362620
2.300000	-0.059272	-46.290385	-69.696489	174.109798	-69.696489	174.109798	-0.052669	-41.232383
2.350000	-0.060551	-47.257584	-69.050642	172.868425	-69.050642	172.868425	-0.053826	-42.100717
2.400000	-0.061833	-48.222740	-68.424929	171.592713	-68.424929	171.592713	-0.054988	-42.967605
2.450000	-0.063120	-49.185834	-67.818119	170.286646	-67.818119	170.286646	-0.056154	-43.833031
2.500000	-0.064410	-50.146847	-67.229093	168.953640	-67.229093	168.953640	-0.057325	-44.696981
2.550000	-0.065706	-51.105668	-66.655929	167.595720	-66.655929	167.595720	-0.058502	-45.559374
2.600000	-0.067006	-52.062372	-66.098705	166.216569	-66.098705	166.216569	-0.059685	-46.420262
2.650000	-0.068313	-53.016943	-65.556559	164.818377	-65.556559	164.818377	-0.060873	-47.279631
2.700000	-0.069626	-53.969365	-65.028706	163.403068	-65.028706	163.403068	-0.062069	-48.137468
2.750000	-0.070945	-54.919624	-64.514421	161.972336	-64.514421	161.972336	-0.063271	-48.993761
2.800000	-0.072272	-55.867708	-64.013038	160.527679	-64.013038	160.527679	-0.064480	-49.848500
2.850000	-0.073606	-56.813603	-63.523941	159.070428	-63.523941	159.070428	-0.065698	-50.701673
2.900000	-0.074949	-57.757298	-63.046561	157.601769	-63.046561	157.601769	-0.066923	-51.553271
2.950000	-0.076300	-58.698782	-62.580370	156.122759	-62.580370	156.122759	-0.068157	-52.403283
3.000000	-0.077661	-59.638047	-62.124875	154.634351	-62.124875	154.634351	-0.069400	-53.251700
3.050000	-0.079032	-60.575082	-61.679620	153.137399	-61.679620	153.137399	-0.070652	-54.098515
3.100000	-0.080412	-61.509881	-61.244178	151.632674	-61.244178	151.632674	-0.071914	-54.943719
3.150000	-0.081804	-62.442436	-60.818150	150.120873	-60.818150	150.120873	-0.073187	-55.787306
3.200000	-0.083207	-63.372741	-60.401164	148.602631	-60.401164	148.602631	-0.074470	-56.629268
3.250000	-0.084622	-64.300790	-59.992868	147.078523	-59.992868	147.078523	-0.075765	-57.469600
3.300000	-0.086049	-65.226580	-59.592934	145.549073	-59.592934	145.549073	-0.077071	-58.308296
3.350000	-0.087490	-66.150107	-59.201052	144.014761	-59.201052	144.014761	-0.078389	-59.145351
3.400000	-0.088943	-67.071369	-58.816932	142.476026	-58.816932	142.476026	-0.079719	-59.980761
3.450000	-0.090411	-67.990362	-58.440298	140.933272	-58.440298	140.933272	-0.081063	-60.814523
3.500000	-0.091893	-68.907087	-58.070892	139.386869	-58.070892	139.386869	-0.082420	-61.646633
3.550000	-0.093390	-69.821544	-57.708467	137.837157	-57.708467	137.837157	-0.083790	-62.477088
3.600000	-0.094903	-70.733733	-57.352791	136.284454	-57.352791	136.284454	-0.085176	-63.305888
3.650000	-0.096432	-71.643655	-57.003644	134.729050	-57.003644	134.729050	-0.086576	-64.133030
3.700000	-0.097977	-72.551314	-56.660818	133.171214	-56.660818	133.171214	-0.087991	-64.958514
3.750000	-0.099540	-73.456712	-56.324113	131.611198	-56.324113	131.611198	-0.089422	-65.782340
3.800000	-0.101121	-74.359755	-55.993054	130.049160	-55.993054	130.049160	-0.090870	-66.604435
3.850000	-0.102720	-75.260548	-55.667770	128.485409	-55.667770	128.485409	-0.092335	-67.424874
3.900000	-0.104338	-76.159094	-55.348089	126.920145	-55.348089	126.920145	-0.093817	-68.243658
3.950000	-0.105975	-77.055402	-55.033846	125.353555	-55.033846	125.353555	-0.095317	-69.060788
4.000000	-0.107632	-77.949479	-54.724885	123.785814	-54.724885	123.785814	-0.096835	-69.876268
4.050000	-0.109309	-78.841331	-54.421055	122.217085	-54.421055	122.217085	-0.098372	-70.690101
4.100000	-0.111007	-79.730969	-54.122213	120.647521	-54.122213	120.647521	-0.099928	-71.502290
4.150000	-0.112726	-80.618402	-53.828223	119.077266	-53.828223	119.077266	-0.101503	-72.312841
4.200000	-0.114467	-81.503640	-53.538952	117.506456	-53.538952	117.506456	-0.103099	-73.121758
4.250000	-0.116230	-82.386694	-53.254276	115.935217	-53.254276	115.935217	-0.104716	-73.929046
4.300000	-0.118016	-83.267577	-52.974073	114.363668	-52.974073	114.363668	-0.106353	-74.734713
4.350000	-0.119825	-84.146300	-52.698229	112.791923	-52.698229	112.791923	-0.108012	-75.538763
4.400000	-0.121658	-85.022876	-52.426632	111.220087	-52.426632	111.220087	-0.109693	-76.341206
4.450000	-0.123515	-85.897321	-52.159176	109.648262	-52.159176	109.648262	-0.111397	-77.142047
4.500000	-0.125397	-86.769647	-51.895759	108.076541	-51.895759	108.076541	-0.113124	-77.941295
4.550000	-0.127305	-87.639871	-51.636281	106.505014	-51.636281	106.505014	-0.114874	-78.738960
4.600000	-0.129237	-88.508009	-51.380648	104.933767	-51.380648	104.933767	-0.116649	-79.535049
4.650000	-0.131196	-89.374076	-51.128769	103.362878	-51.128769	103.362878	-0.118448	-80.329574
4.700000	-0.133182	-90.238091	-50.880556	101.792425	-50.880556	101.792425	-0.120272	-81.122544
4.750000	-0.135195	-91.100070	-50.635924	100.222479	-50.635924	100.222479	-0.122121	-81.913971
4.800000	-0.137235	-91.960033	-50.394792	98.653108	-50.394792	98.653108	-0.123996	-82.703865
4.850000	-0.139303	-92.817999	-50.157080	97.084378	-50.157080	97.084378	-0.125898	-83.492238
4.900000	-0.141400	-93.673987	-49.922712	95.516350	-49.922712	95.516350	-0.127826	-84.279102
4.950000	-0.143526	-94.528018	-49.691616	93.949082	-49.691616	93.949082	-0.129782	-85.064471
5.000000	-0.145681	-95.380112	-49.463719	92.382631	-49.463719	92.382631	-0.131766	-85.848357
5.050000	-0.147868	-96.230209	-49.238837	90.817089	-49.238837	90.817089	-0.133779	-86.630712
5.100000	-0.150085	-97.078415	-49.017028	89.252470	-49.017028	89.252470	-0.135821	-87.411614
5.150000	-0.152332	-97.924752	-48.798227	87.688823	-48.798227	87.688823	-0.137893	-88.191078
5.200000	-0.154611	-98.769245	-48.582372	86.126192	-48.582372	86.126192	-0.139994	-88.969119
5.250000	-0.156922	-99.611916	-48.369401	84.564621	-48.369401	84.564621	-0.142125	-89.745753
5.300000	-0.159265	-100.452790	-48.159257	83.004149	-48.159257	83.004149	-0.144287	-90.520996
5.350000	-0.161640	-101.291892	-47.951881	81.444818	-47.951881	81.444818	-0.146480	-91.294865
5.400000	-0.164048	-102.129247	-47.747221	79.886663	-47.747221	79.886663	-0.148705	-92.067377
5.450000	-0.166502	-102.964294	-47.544518	78.330157	-47.544518	78.330157	-0.150973	-92.838093
5.500000	-0.168973	-103.798453	-47.345401	76.774295	-47.345401	76.774295	-0.153258	-93.608116
5.550000	-0.171486	-104.630595	-47.148424	75.220004	-47.148424	75.220004	-0.155584	-94.376562
5.600000	-0.174029	-105.461296	-46.954195	73.666835	-46.954195	73.666835	-0.157938	-95.143883
5.650000	-0.176609	-106.290329	-46.762358	72.115076	-46.762358	72.115076	-0.160328	-95.909894
5.700000	-0.179226	-107.117693	-46.572851	70.564726	-46.572851	70.564726	-0.162754	-96.674597
5.750000	-0.181874	-107.943720	-46.385947	69.015599	-46.385947	69.015599	-0.165210	-97.438246
5.800000	-0.184566	-108.767873	-46.201004	67.468182	-46.201004	67.468182	-0.167709	-98.200419
5.850000	-0.187284	-109.590999	-46.018841	65.921778	-46.018841	65.921778	-0.170232	-98.961781
5.900000	-0.190053	-110.412070	-45.838312	64.377399	-45.838312	64.377399	-0.172806	-99.721518
5.950000	-0.192843	-111.232404	-45.660708	62.833801	-45.660708	62.833801	-0.175400	-100.480670
6.000000	-0.195691	-112.050526	-45.484452	61.292549	-45.484452	61.292549	-0.178050	-101.238067
6.050000	-0.198553	-112.868180	-45.311235	59.751832	-45.311235	59.751832	-0.180715	-101.995091
6.100000	-0.201481	-113.683490	-45.139116	58.213790	-45.139116	58.213790	-0.183444	-102.750248
6.150000	-0.204418	-114.498578	-44.970125	56.676022	-44.970125	56.676022	-0.186181	-103.505228
6.200000	-0.207428	-115.311218	-44.802016	55.141263	-44.802016	55.141263	-0.188992	-104.258250
6.250000	-0.210440	-116.123857	-44.637099	53.606503	-44.637099	53.606503	-0.191803	-105.011272
6.300000	-0.213535	-116.933970	-44.472877	52.075090	-44.472877	52.075090	-0.194696	-105.762266
6.350000	-0.216630	-117.744084	-44.311703	50.543676	-44.311703	50.543676	-0.197591	-106.513261
6.400000	-0.219803	-118.552016	-44.151439	49.015381	-44.151439	49.015381	-0.200561	-107.262499
6.450000	-0.222984	-119.359751	-43.993899	47.487370	-43.993899	47.487370	-0.203540	-108.011578
6.500000	-0.226236	-120.165629	-43.837456	45.962233	-43.837456	45.962233	-0.206590	-108.759156
6.550000	-0.229504	-120.971136	-43.683446	44.437671	-43.683446	44.437671	-0.209655	-109.506434
6.600000	-0.232838	-121.775089	-43.530695	42.915728	-43.530695	42.915728	-0.212786	-110.252452
6.650000	-0.236194	-122.578523	-43.380117	41.394657	-43.380117	41.394657	-0.215939	-110.998048
6.700000	-0.239609	-123.380681	-43.230934	39.875936	-43.230934	39.875936	-0.219153	-111.742606
6.750000	-0.243055	-124.182201	-43.083694	38.358390	-43.083694	38.358390	-0.222396	-112.486644
6.800000	-0.246554	-124.982697	-42.937963	36.842916	-42.937963	36.842916	-0.225693	-113.229847
6.850000	-0.250091	-125.782463	-42.793972	35.328923	-42.793972	35.328923	-0.229028	-113.972453
6.900000	-0.253675	-126.581434	-42.651582	33.816717	-42.651582	33.816717	-0.232411	-114.714407
6.950000	-0.257305	-127.379610	-42.510755	32.306297	-42.510755	32.306297	-0.235840	-115.455711
7.000000	-0.260974	-128.177194	-42.371603	30.797374	-42.371603	30.797374	-0.239308	-116.196527
7.050000	-0.264698	-128.973947	-42.233858	29.290545	-42.233858	29.290545	-0.242833	-116.936662
7.100000	-0.268454	-129.770284	-42.097846	27.784916	-42.097846	27.784916	-0.246390	-117.676453
7.150000	-0.272272	-130.565785	-41.963107	26.281689	-41.963107	26.281689	-0.250012	-118.415556
7.200000	-0.276116	-131.361017	-41.830141	24.779362	-41.830141	24.779362	-0.253658	-119.154436
7.250000	-0.280031	-132.155439	-41.698336	23.279741	-41.698336	23.279741	-0.257379	-119.892649
7.300000	-0.283964	-132.949711	-41.568328	21.780721	-41.568328	21.780721	-0.261117	-120.630737
7.350000	-0.287977	-133.743230	-41.439386	20.284708	-41.439386	20.284708	-0.264937	-121.368203
7.400000	-0.291999	-134.536689	-41.312252	18.788995	-41.312252	18.788995	-0.268768	-122.105619
7.450000	-0.296110	-135.329485	-41.186109	17.296587	-41.186109	17.296587	-0.272691	-122.842488
7.500000	-0.300223	-136.122280	-41.061771	15.804178	-41.061771	15.804178	-0.276615	-123.579356
7.550000	-0.304434	-136.914533	-40.938363	14.315368	-40.938363	14.315368	-0.280641	-124.315779
7.600000	-0.308647	-137.706787	-40.816685	12.826557	-40.816685	12.826557	-0.284670	-125.052201
7.650000	-0.312950	-138.498712	-40.696017	11.341035	-40.696017	11.341035	-0.288793	-125.788358
7.700000	-0.317264	-139.290608	-40.576942	9.855812	-40.576942	9.855812	-0.292926	-126.524490
7.750000	-0.321661	-140.082363	-40.458943	8.373568	-40.458943	8.373568	-0.297147	-127.260514
7.800000	-0.326076	-140.874089	-40.342420	6.891919	-40.342420	6.891919	-0.301387	-127.996515
7.850000	-0.330566	-141.665831	-40.227024	5.412938	-40.227024	5.412938	-0.305708	-128.732542
7.900000	-0.335084	-142.457578	-40.113004	3.934847	-40.113004	3.934847	-0.310056	-129.468576
7.950000	-0.339669	-143.249468	-40.000149	2.459116	-40.000149	2.459116	-0.314477	-130.204744
8.000000	-0.344289	-144.041428	-39.888586	0.984565	-39.888586	0.984565	-0.318935	-130.940979
8.050000	-0.348970	-144.833628	-39.778213	-0.487933	-39.778213	-0.487933	-0.323458	-131.677430
8.100000	-0.353694	-145.625999	-39.669064	-1.958965	-39.669064	-1.958965	-0.328027	-132.414036
8.150000	-0.358470	-146.418675	-39.561117	-3.428247	-39.561117	-3.428247	-0.332653	-133.150915
8.200000	-0.363299	-147.211655	-39.454343	-4.895780	-39.454343	-4.895780	-0.337335	-133.888068
8.250000	-0.368171	-148.004972	-39.348771	-6.361865	-39.348771	-6.361865	-0.342064	-134.625523
8.300000	-0.373104	-148.798763	-39.244335	-7.825921	-39.244335	-7.825921	-0.346860	-135.363402
8.350000	-0.378073	-149.592892	-39.141089	-9.288825	-39.141089	-9.288825	-0.351694	-136.101584
8.400000	-0.383111	-150.387698	-39.038957	-10.749426	-39.038957	-10.749426	-0.356605	-136.840373
8.450000	-0.388177	-151.182810	-38.937993	-12.209169	-38.937993	-12.209169	-0.361545	-137.579436
8.500000	-0.393320	-151.978838	-38.838133	-13.666336	-38.838133	-13.666336	-0.366572	-138.319323
8.550000	-0.398483	-152.775106	-38.739408	-15.122934	-38.739408	-15.122934	-0.371620	-139.059425
8.600000	-0.403731	-153.572568	-38.641792	-16.576687	-38.641792	-16.576687	-0.376763	-139.800602
8.650000	-0.408991	-154.370166	-38.545267	-18.030158	-38.545267	-18.030158	-0.381919	-140.541903
8.700000	-0.414345	-155.169274	-38.449870	-19.480516	-38.449870	-19.480516	-0.387180	-141.284567
8.750000	-0.419702	-155.968382	-38.355508	-20.930874	-38.355508	-20.930874	-0.392445	-142.027231
8.800000	-0.425161	-156.769352	-38.262306	-22.377852	-38.262306	-22.377852	-0.397826	-142.771585
8.850000	-0.430624	-157.570322	-38.170094	-23.824830	-38.170094	-23.824830	-0.403209	-143.515938
8.900000	-0.436179	-158.373200	-38.079048	-25.268722	-38.079048	-25.268722	-0.408700	-144.262028
8.950000	-0.441746	-159.176251	-37.988965	-26.712333	-37.988965	-26.712333	-0.414204	-145.008276
9.000000	-0.447398	-159.981221	-37.900046	-28.153145	-37.900046	-28.153145	-0.419805	-145.756280
9.050000	-0.453070	-160.786575	-37.812076	-29.593398	-37.812076	-29.593398	-0.425430	-146.504634
9.100000	-0.458817	-161.593824	-37.725257	-31.031134	-37.725257	-31.031134	-0.431143	-147.254730
9.150000	-0.464593	-162.401705	-37.639386	-32.468032	-37.639386	-32.468032	-0.436888	-148.005407
9.200000	-0.470435	-163.211422	-37.554641	-33.902693	-37.554641	-33.902693	-0.442713	-148.757779
9.250000	-0.476314	-164.022057	-37.470857	-35.336235	-37.470857	-35.336235	-0.448580	-149.510999
9.300000	-0.482251	-164.834434	-37.388164	-36.767815	-37.388164	-36.767815	-0.454517	-150.265834
9.350000	-0.488231	-165.648054	-37.306457	-38.197994	-37.306457	-38.197994	-0.460506	-151.021824
9.400000	-0.494261	-166.463283	-37.225796	-39.626483	-37.225796	-39.626483	-0.466556	-151.779314
9.450000	-0.500342	-167.280121	-37.146159	-41.053284	-37.146159	-41.053284	-0.472666	-152.538305
9.500000	-0.506465	-168.098397	-37.067511	-42.478668	-37.067511	-42.478668	-0.478829	-153.298646
9.550000	-0.512644	-168.918689	-36.989938	-43.902069	-36.989938	-43.902069	-0.485061	-154.060876
9.600000	-0.518858	-169.740210	-36.913288	-45.324326	-36.913288	-45.324326	-0.491336	-154.824266
9.650000	-0.525135	-170.564193	-36.837776	-46.744296	-36.837776	-46.744296	-0.497691	-155.589977
9.700000	-0.531439	-171.389159	-36.763109	-48.163399	-36.763109	-48.163399	-0.504078	-156.356621
9.750000	-0.537811	-172.217075	-36.689655	-49.579900	-36.689655	-49.579900	-0.510554	-157.126062
9.800000	-0.544203	-173.045686	-36.616958	-50.995813	-36.616958	-50.995813	-0.517053	-157.896168
9.850000	-0.550668	-173.877778	-36.545563	-52.408794	-36.545563	-52.408794	-0.523650	-158.669594
9.900000	-0.557146	-174.710238	-36.474826	-53.821477	-36.474826	-53.821477	-0.530261	-159.443373
9.950000	-0.563702	-175.546752	-36.405490	-55.230879	-36.405490	-55.230879	-0.536977	-160.221044
10.000000	-0.570263	-176.383266	-36.336703	-56.640280	-36.336703	-56.640280	-0.543699	-160.998715
