! freq	dB(S11)	phase(S11)	dB(S12)	phase(S12)	
!     	dB(S21)	phase(S21)	dB(S22)	phase(S22)	
!S-par simulation data
#  GHz  S  DB  R 50
0.000000	-0.000000	0.000000	-351.992421	0.000000	-351.992421	0.000000	0.000000	0.000000
0.050000	-0.000111	-0.862396	-114.850901	88.323310	-114.850901	88.323310	-0.000111	-0.862424
0.100000	-0.000441	-1.724514	-108.963759	86.912523	-108.963759	86.912523	-0.000439	-1.724573
0.150000	-0.000973	-2.586100	-105.622772	85.834451	-105.622772	85.834451	-0.000969	-2.586195
0.200000	-0.001687	-3.446945	-103.329935	85.016598	-103.329935	85.016598	-0.001681	-3.447081
0.250000	-0.002567	-4.306817	-101.624902	84.384941	-101.624902	84.384941	-0.002557	-4.307000
0.300000	-0.003569	-5.165679	-100.293769	83.872067	-100.293769	83.872067	-0.003558	-5.165914
0.350000	-0.004675	-6.023416	-99.236876	83.467464	-99.236876	83.467464	-0.004661	-6.023707
0.400000	-0.005858	-6.879988	-98.394381	83.175164	-98.394381	83.175164	-0.005843	-6.880339
0.450000	-0.007095	-7.735387	-97.729729	83.015393	-97.729729	83.015393	-0.007079	-7.735800
0.500000	-0.008368	-8.589628	-97.219834	83.021690	-97.219834	83.021690	-0.008351	-8.590105
0.550000	-0.009658	-9.442741	-96.850114	83.241334	-96.850114	83.241334	-0.009642	-9.443281
0.600000	-0.010956	-10.294764	-96.611732	83.738565	-96.611732	83.738565	-0.010940	-10.295366
0.650000	-0.012250	-11.145739	-96.499819	84.600678	-96.499819	84.600678	-0.012236	-11.146401
0.700000	-0.013536	-11.995703	-96.512002	85.947691	-96.512002	85.947691	-0.013522	-11.996423
0.750000	-0.014807	-12.844691	-96.646554	87.946702	-96.646554	87.946702	-0.014795	-12.845468
0.800000	-0.016062	-13.692732	-96.899208	90.831662	-96.899208	90.831662	-0.016052	-13.693563
0.850000	-0.017300	-14.539850	-97.256902	94.926026	-97.256902	94.926026	-0.017291	-14.540733
0.900000	-0.018519	-15.386059	-97.685583	100.653386	-97.685583	100.653386	-0.018512	-15.386993
0.950000	-0.019721	-16.231371	-98.109333	108.488697	-98.109333	108.488697	-0.019716	-16.232355
1.000000	-0.020907	-17.075790	-98.386373	118.754194	-98.386373	118.754194	-0.020903	-17.076822
1.050000	-0.022077	-17.919316	-98.314809	131.196370	-98.314809	131.196370	-0.022074	-17.920395
1.100000	-0.023232	-18.761943	-97.722126	144.597956	-97.722126	144.597956	-0.023230	-18.763070
1.150000	-0.024375	-19.603664	-96.602091	157.120686	-96.602091	157.120686	-0.024374	-19.604838
1.200000	-0.025506	-20.444467	-95.122782	167.419657	-95.122782	167.419657	-0.025505	-20.445689
1.250000	-0.026626	-21.284339	-93.487941	175.199573	-93.487941	175.199573	-0.026626	-21.285608
1.300000	-0.027737	-22.123221	-91.827026	-179.254392	-91.827026	-179.254392	-0.027738	-22.124539
1.350000	-0.028841	-22.961137	-90.226164	-175.327543	-90.226164	-175.327543	-0.028842	-22.962504
1.400000	-0.029937	-23.798068	-88.710891	-172.598640	-88.710891	-172.598640	-0.029938	-23.799484
1.450000	-0.031028	-24.633994	-87.286485	-170.753396	-87.286485	-170.753396	-0.031029	-24.635462
1.500000	-0.032113	-25.468896	-85.949431	-169.566063	-85.949431	-169.566063	-0.032115	-25.470415
1.550000	-0.033195	-26.302753	-84.692939	-168.875721	-84.692939	-168.875721	-0.033196	-26.304325
1.600000	-0.034273	-27.135544	-83.509431	-168.566947	-83.509431	-168.566947	-0.034274	-27.137169
1.650000	-0.035348	-27.967247	-82.391597	-168.555900	-82.391597	-168.555900	-0.035349	-27.968927
1.700000	-0.036420	-28.797448	-81.308531	-168.841423	-81.308531	-168.841423	-0.036421	-28.799184
1.750000	-0.037492	-29.627063	-80.313582	-169.233118	-80.313582	-169.233118	-0.037492	-29.628856
1.800000	-0.038562	-30.455268	-79.351799	-169.799362	-79.351799	-169.799362	-0.038562	-30.457120
1.850000	-0.039631	-31.282467	-78.441541	-170.490285	-78.441541	-170.490285	-0.039631	-31.284377
1.900000	-0.040700	-32.108413	-77.567655	-171.282947	-77.567655	-171.282947	-0.040700	-32.110384
1.950000	-0.041769	-32.933107	-76.728294	-172.177349	-76.728294	-172.177349	-0.041768	-32.935138
2.000000	-0.042838	-33.756720	-75.927187	-173.131810	-75.927187	-173.131810	-0.042838	-33.758814
2.050000	-0.043909	-34.578823	-75.147977	-174.170355	-75.147977	-174.170355	-0.043908	-34.580980
2.100000	-0.044980	-35.400260	-74.414418	-175.236526	-74.414418	-175.236526	-0.044979	-35.402481
2.150000	-0.046053	-36.219972	-73.693667	-176.371171	-73.693667	-176.371171	-0.046052	-36.222258
2.200000	-0.047128	-37.038379	-72.997175	-177.547792	-72.997175	-177.547792	-0.047127	-37.040730
2.250000	-0.048205	-37.855462	-72.323302	-178.761202	-72.323302	-178.761202	-0.048204	-37.857880
2.300000	-0.049285	-38.671205	-71.670576	179.992988	-71.670576	179.992988	-0.049284	-38.673690
2.350000	-0.050368	-39.485591	-71.037670	178.718515	-71.037670	178.718515	-0.050367	-39.488144
2.400000	-0.051454	-40.298602	-70.423388	177.418583	-70.423388	177.418583	-0.051453	-40.301225
2.450000	-0.052544	-41.110224	-69.826641	176.095952	-69.826641	176.095952	-0.052544	-41.112916
2.500000	-0.053638	-41.920439	-69.246439	174.753016	-69.246439	174.753016	-0.053638	-41.923202
2.550000	-0.054737	-42.729171	-68.680971	173.391154	-68.680971	173.391154	-0.054737	-42.732006
2.600000	-0.055841	-43.536465	-68.130411	172.013042	-68.130411	172.013042	-0.055840	-43.539373
2.650000	-0.056949	-44.342308	-67.593991	170.620258	-67.593991	170.620258	-0.056949	-44.345288
2.700000	-0.058064	-45.146685	-67.071004	169.214201	-67.071004	169.214201	-0.058064	-45.149739
2.750000	-0.059184	-45.949583	-66.560798	167.796109	-66.560798	167.796109	-0.059185	-45.952712
2.800000	-0.060311	-46.750989	-66.062769	166.367089	-66.062769	166.367089	-0.060312	-46.754193
2.850000	-0.061445	-47.550890	-65.576361	164.928128	-65.576361	164.928128	-0.061446	-47.554171
2.900000	-0.062585	-48.349275	-65.101054	163.480113	-65.101054	163.480113	-0.062586	-48.352632
2.950000	-0.063734	-49.146131	-64.636366	162.023841	-64.636366	162.023841	-0.063735	-49.149566
3.000000	-0.064890	-49.941447	-64.181848	160.560031	-64.181848	160.560031	-0.064891	-49.944960
3.050000	-0.066054	-50.735213	-63.737079	159.089335	-63.737079	159.089335	-0.066056	-50.738805
3.100000	-0.067228	-51.527419	-63.301667	157.612344	-63.301667	157.612344	-0.067230	-51.531091
3.150000	-0.068410	-52.318053	-62.875243	156.129596	-62.875243	156.129596	-0.068413	-52.321806
3.200000	-0.069602	-53.107108	-62.457463	154.641579	-62.457463	154.641579	-0.069605	-53.110943
3.250000	-0.070805	-53.894575	-62.048001	153.148742	-62.048001	153.148742	-0.070808	-53.898491
3.300000	-0.072017	-54.680444	-61.646552	151.651495	-61.646552	151.651495	-0.072020	-54.684443
3.350000	-0.073243	-55.464426	-61.251074	150.149613	-61.251074	150.149613	-0.073246	-55.468510
3.400000	-0.074480	-56.246726	-60.862781	148.643894	-60.862781	148.643894	-0.074484	-56.250894
3.450000	-0.075723	-57.028178	-60.486265	147.136533	-60.486265	147.136533	-0.075727	-57.032431
3.500000	-0.076986	-57.807086	-60.111477	145.624252	-60.111477	145.624252	-0.076990	-57.811426
3.550000	-0.078253	-58.585426	-59.749206	144.111070	-59.749206	144.111070	-0.078257	-58.589853
3.600000	-0.079542	-59.360918	-59.387102	142.593385	-59.387102	142.593385	-0.079547	-59.365433
3.650000	-0.080834	-60.136124	-59.038107	141.075332	-59.038107	141.075332	-0.080839	-60.140727
3.700000	-0.082152	-60.908177	-58.687947	139.553233	-58.687947	139.553233	-0.082157	-60.912871
3.750000	-0.083470	-61.680231	-58.351358	138.031134	-58.351358	138.031134	-0.083475	-61.685015
3.800000	-0.084819	-62.448830	-58.012467	136.505470	-58.012467	136.505470	-0.084824	-62.453705
3.850000	-0.086168	-63.217428	-57.686303	134.979807	-57.686303	134.979807	-0.086173	-63.222394
3.900000	-0.087546	-63.982846	-57.359262	133.451549	-57.359262	133.451549	-0.087552	-63.987906
3.950000	-0.088928	-64.747976	-57.042978	131.923056	-57.042978	131.923056	-0.088934	-64.753129
4.000000	-0.090338	-65.510207	-56.727059	130.392736	-56.727059	130.392736	-0.090344	-65.515455
4.050000	-0.091754	-66.271858	-56.420155	128.862051	-56.420155	128.862051	-0.091760	-66.277202
4.100000	-0.093197	-67.030898	-56.114696	127.330140	-56.114696	127.330140	-0.093203	-67.036338
4.150000	-0.094649	-67.789067	-55.816709	125.797820	-55.816709	125.797820	-0.094656	-67.794603
4.200000	-0.096126	-68.544913	-55.521109	124.264737	-55.521109	124.264737	-0.096133	-68.550548
4.250000	-0.097617	-69.299599	-55.231613	122.731273	-55.231613	122.731273	-0.097624	-69.305332
4.300000	-0.099130	-70.052255	-54.945321	121.197392	-54.945321	121.197392	-0.099138	-70.058087
4.350000	-0.100661	-70.803460	-54.663922	119.663214	-54.663922	119.663214	-0.100668	-70.809393
4.400000	-0.102212	-71.552930	-54.386432	118.128870	-54.386432	118.128870	-0.102220	-71.558963
4.450000	-0.103785	-72.300663	-54.112763	116.594359	-54.112763	116.594359	-0.103792	-72.306798
4.500000	-0.105375	-73.046954	-53.843612	115.059852	-53.843612	115.059852	-0.105383	-73.053191
4.550000	-0.106991	-73.791225	-53.577333	113.525350	-53.577333	113.525350	-0.106999	-73.797567
4.600000	-0.108623	-74.534349	-53.316094	111.990951	-53.316094	111.990951	-0.108631	-74.540794
4.650000	-0.110284	-75.275174	-53.056887	110.456758	-53.056887	110.456758	-0.110292	-75.281724
4.700000	-0.111958	-76.015143	-52.803165	108.922712	-52.803165	108.922712	-0.111966	-76.021799
4.750000	-0.113667	-76.752542	-52.550734	107.389101	-52.550734	107.389101	-0.113676	-76.759304
4.800000	-0.115384	-77.489373	-52.304164	105.855628	-52.304164	105.855628	-0.115393	-77.496242
4.850000	-0.117143	-78.223368	-52.058232	104.322844	-52.058232	104.322844	-0.117152	-78.230344
4.900000	-0.118906	-78.957080	-51.818475	102.790146	-51.818475	102.790146	-0.118915	-78.964165
4.950000	-0.120715	-79.687697	-51.578781	101.258407	-51.578781	101.258407	-0.120725	-79.694890
5.000000	-0.122525	-80.418313	-51.345525	99.726667	-51.345525	99.726667	-0.122535	-80.425616
5.050000	-0.124388	-81.145581	-51.111825	98.196173	-51.111825	98.196173	-0.124397	-81.152994
5.100000	-0.126251	-81.872849	-50.884249	96.665679	-50.884249	96.665679	-0.126261	-81.880373
5.150000	-0.128164	-82.597079	-50.656840	95.136491	-50.656840	95.136491	-0.128174	-82.604714
5.200000	-0.130081	-83.321032	-50.434734	93.607423	-50.434734	93.607423	-0.130091	-83.328780
5.250000	-0.132046	-84.042254	-50.213339	92.079680	-50.213339	92.079680	-0.132056	-84.050114
5.300000	-0.134020	-84.762929	-49.996505	90.552202	-49.996505	90.552202	-0.134031	-84.770902
5.350000	-0.136038	-85.481176	-49.780862	89.026030	-49.780862	89.026030	-0.136049	-85.489263
5.400000	-0.138071	-86.198614	-49.569113	87.500293	-49.569113	87.500293	-0.138082	-86.206815
5.450000	-0.140144	-86.913921	-49.358980	85.975809	-49.358980	85.975809	-0.140155	-86.922237
5.500000	-0.142237	-87.628164	-49.152139	84.451952	-49.152139	84.451952	-0.142248	-87.636595
5.550000	-0.144366	-88.340571	-48.947287	82.929264	-48.947287	82.929264	-0.144378	-88.349117
5.600000	-0.146521	-89.051665	-48.745185	81.407413	-48.745185	81.407413	-0.146533	-89.060328
5.650000	-0.148708	-89.761211	-48.545401	79.886623	-48.545401	79.886623	-0.148720	-89.769990
5.700000	-0.150927	-90.469207	-48.347881	78.366894	-48.347881	78.366894	-0.150939	-90.478103
5.750000	-0.153173	-91.175933	-48.152962	76.848095	-48.152962	76.848095	-0.153186	-91.184947
5.800000	-0.155457	-91.880883	-47.959872	75.330597	-47.959872	75.330597	-0.155471	-91.890014
5.850000	-0.157764	-92.584835	-47.769631	73.813875	-47.769631	73.813875	-0.157778	-92.594084
5.900000	-0.160116	-93.286794	-47.580827	72.298706	-47.580827	72.298706	-0.160130	-93.296161
5.950000	-0.162486	-93.988019	-47.395086	70.784142	-47.395086	70.784142	-0.162500	-93.997505
6.000000	-0.164907	-94.687045	-47.210431	69.271394	-47.210431	69.271394	-0.164921	-94.696650
6.050000	-0.167340	-95.385592	-47.029021	67.759064	-47.029021	67.759064	-0.167355	-95.395316
6.100000	-0.169832	-96.081746	-46.848386	66.248821	-46.848386	66.248821	-0.169847	-96.091589
6.150000	-0.172330	-96.777665	-46.671148	64.738794	-46.671148	64.738794	-0.172346	-96.787628
6.200000	-0.174894	-97.471010	-46.494408	63.231134	-46.494408	63.231134	-0.174910	-97.481094
6.250000	-0.177459	-98.164355	-46.321193	61.723474	-46.321193	61.723474	-0.177476	-98.174559
6.300000	-0.180098	-98.854958	-46.148229	60.218468	-46.148229	60.218468	-0.180115	-98.865282
6.350000	-0.182738	-99.545560	-45.978642	58.713461	-45.978642	58.713461	-0.182755	-99.556004
6.400000	-0.185446	-100.233712	-45.809593	57.210947	-45.809593	57.210947	-0.185463	-100.244276
6.450000	-0.188161	-100.921640	-45.643529	55.708660	-45.643529	55.708660	-0.188179	-100.932326
6.500000	-0.190941	-101.607400	-45.478256	54.208687	-45.478256	54.208687	-0.190959	-101.618206
6.550000	-0.193734	-102.292725	-45.315613	52.709176	-45.315613	52.709176	-0.193753	-102.303653
6.600000	-0.196587	-102.976154	-45.153987	51.211789	-45.153987	51.211789	-0.196605	-102.987202
6.650000	-0.199459	-103.658950	-44.994668	49.715108	-44.994668	49.715108	-0.199478	-103.670119
6.700000	-0.202385	-104.340110	-44.836565	48.220345	-44.836565	48.220345	-0.202405	-104.351400
6.750000	-0.205339	-105.020452	-44.680476	46.726541	-44.680476	46.726541	-0.205359	-105.031863
6.800000	-0.208340	-105.699409	-44.525778	45.234439	-44.525778	45.234439	-0.208361	-105.710941
6.850000	-0.211376	-106.377375	-44.372829	43.743552	-44.372829	43.743552	-0.211397	-106.389028
6.900000	-0.214455	-107.054193	-44.221424	42.254140	-44.221424	42.254140	-0.214476	-107.065968
6.950000	-0.217575	-107.729864	-44.071529	40.766203	-44.071529	40.766203	-0.217596	-107.741759
7.000000	-0.220731	-108.404612	-43.923311	39.279508	-43.923311	39.279508	-0.220753	-108.416629
7.050000	-0.223937	-109.078070	-43.776387	37.794550	-43.776387	37.794550	-0.223959	-109.090207
7.100000	-0.227173	-109.750817	-43.631253	36.310592	-43.631253	36.310592	-0.227195	-109.763075
7.150000	-0.230466	-110.422146	-43.487220	34.828633	-43.487220	34.828633	-0.230489	-110.434524
7.200000	-0.233783	-111.092963	-43.345074	33.347429	-43.345074	33.347429	-0.233806	-111.105462
7.250000	-0.237165	-111.762249	-43.203855	31.868484	-43.203855	31.868484	-0.237188	-111.774869
7.300000	-0.240563	-112.431210	-43.064605	30.390044	-43.064605	30.390044	-0.240586	-112.443949
7.350000	-0.244036	-113.098542	-42.926126	28.914121	-42.926126	28.914121	-0.244059	-113.111401
7.400000	-0.247517	-113.765719	-42.789684	27.438450	-42.789684	27.438450	-0.247541	-113.778698
7.450000	-0.251081	-114.431188	-42.653874	25.965549	-42.653874	25.965549	-0.251105	-114.444287
7.500000	-0.254647	-115.096658	-42.520154	24.492648	-42.520154	24.492648	-0.254671	-115.109876
7.550000	-0.258304	-115.760356	-42.386945	23.022761	-42.386945	23.022761	-0.258328	-115.773694
7.600000	-0.261963	-116.424055	-42.255747	21.552874	-42.255747	21.552874	-0.261987	-116.437511
7.650000	-0.265707	-117.086218	-42.125193	20.085737	-42.125193	20.085737	-0.265732	-117.099793
7.700000	-0.269460	-117.748240	-41.996456	18.618850	-41.996456	18.618850	-0.269485	-117.761934
7.750000	-0.273292	-118.408947	-41.868480	17.154444	-41.868480	17.154444	-0.273317	-118.422759
7.800000	-0.277141	-119.069390	-41.742142	15.690534	-41.742142	15.690534	-0.277166	-119.083320
7.850000	-0.281062	-119.728723	-41.616670	14.228834	-41.616670	14.228834	-0.281088	-119.742771
7.900000	-0.285008	-120.387686	-41.492675	12.767871	-41.492675	12.767871	-0.285034	-120.401851
7.950000	-0.289019	-121.045728	-41.369637	11.308846	-41.369637	11.308846	-0.289045	-121.060010
8.000000	-0.293064	-121.703310	-41.247929	9.850791	-41.247929	9.850791	-0.293089	-121.717709
8.050000	-0.297166	-122.360147	-41.127258	8.394404	-41.127258	8.394404	-0.297191	-122.374662
8.100000	-0.301310	-123.016451	-41.007785	6.939210	-41.007785	6.939210	-0.301335	-123.031082
8.150000	-0.305504	-123.672168	-40.889417	5.485418	-40.889417	5.485418	-0.305529	-123.686915
8.200000	-0.309748	-124.327298	-40.772129	4.033030	-40.772129	4.033030	-0.309774	-124.342161
8.250000	-0.314035	-124.981983	-40.656003	2.581784	-40.656003	2.581784	-0.314061	-124.996961
8.300000	-0.318381	-125.636046	-40.540854	1.132138	-40.540854	1.132138	-0.318406	-125.651138
8.350000	-0.322762	-126.289788	-40.426912	-0.316617	-40.426912	-0.316617	-0.322787	-126.304996
8.400000	-0.327210	-126.942891	-40.313856	-1.763592	-40.313856	-1.763592	-0.327235	-126.958213
8.450000	-0.331685	-127.595782	-40.202044	-3.209919	-40.202044	-3.209919	-0.331711	-127.611218
8.500000	-0.336237	-128.248036	-40.091039	-4.654303	-40.091039	-4.654303	-0.336262	-128.263585
8.550000	-0.340807	-128.900167	-39.981306	-6.098269	-39.981306	-6.098269	-0.340833	-128.915829
8.600000	-0.345463	-129.551683	-39.872312	-7.540149	-39.872312	-7.540149	-0.345488	-129.567458
8.650000	-0.350130	-130.203148	-39.764610	-8.981828	-39.764610	-8.981828	-0.350155	-130.219035
8.700000	-0.354891	-130.854041	-39.657590	-10.421299	-39.657590	-10.421299	-0.354915	-130.870041
8.750000	-0.359654	-131.504935	-39.551873	-11.860770	-39.551873	-11.860770	-0.359678	-131.521046
8.800000	-0.364520	-132.155321	-39.446794	-13.297936	-39.446794	-13.297936	-0.364544	-132.171544
8.850000	-0.369389	-132.805708	-39.342971	-14.735101	-39.342971	-14.735101	-0.369413	-132.822041
8.900000	-0.374353	-133.455738	-39.239849	-16.170253	-39.239849	-16.170253	-0.374377	-133.472182
8.950000	-0.379328	-134.105736	-39.137891	-17.605221	-39.137891	-17.605221	-0.379351	-134.122290
9.000000	-0.384390	-134.755510	-39.036689	-19.038456	-39.036689	-19.038456	-0.384413	-134.772174
9.050000	-0.389471	-135.405239	-38.936569	-20.471344	-38.936569	-20.471344	-0.389494	-135.422013
9.100000	-0.394631	-136.054859	-38.837252	-21.902763	-38.837252	-21.902763	-0.394654	-136.071742
9.150000	-0.399820	-136.704443	-38.738947	-23.333693	-38.738947	-23.333693	-0.399843	-136.721435
9.200000	-0.405079	-137.354012	-38.641483	-24.763400	-38.641483	-24.763400	-0.405101	-137.371112
9.250000	-0.410374	-138.003574	-38.544972	-26.192497	-38.544972	-26.192497	-0.410397	-138.020783
9.300000	-0.415732	-138.653198	-38.449331	-27.620602	-38.449331	-27.620602	-0.415754	-138.670514
9.350000	-0.421135	-139.302865	-38.354597	-29.047997	-38.354597	-29.047997	-0.421157	-139.320289
9.400000	-0.426591	-139.952650	-38.260754	-30.474610	-38.260754	-30.474610	-0.426613	-139.970182
9.450000	-0.432101	-140.602552	-38.167784	-31.900439	-38.167784	-31.900439	-0.432123	-140.620191
9.500000	-0.437656	-141.252607	-38.075716	-33.325672	-38.075716	-33.325672	-0.437678	-141.270353
9.550000	-0.443273	-141.902876	-37.984499	-34.750070	-37.984499	-34.750070	-0.443295	-141.920728
9.600000	-0.448927	-142.553311	-37.894186	-36.174038	-37.894186	-36.174038	-0.448948	-142.571269
9.650000	-0.454650	-143.204080	-37.804715	-37.597145	-37.804715	-37.597145	-0.454672	-143.222144
9.700000	-0.460402	-143.855007	-37.716141	-39.019963	-37.716141	-39.019963	-0.460424	-143.873177
9.750000	-0.466232	-144.506412	-37.628413	-40.441915	-37.628413	-40.441915	-0.466254	-144.524688
9.800000	-0.472082	-145.157947	-37.541564	-41.863697	-37.541564	-41.863697	-0.472104	-145.176327
9.850000	-0.478017	-145.810127	-37.455580	-43.284631	-37.455580	-43.284631	-0.478039	-145.828613
9.900000	-0.483964	-146.462384	-37.370445	-44.705491	-37.370445	-44.705491	-0.483987	-146.480974
9.950000	-0.490004	-147.115482	-37.286208	-46.125541	-37.286208	-46.125541	-0.490027	-147.134176
10.000000	-0.496048	-147.768579	-37.202780	-47.545590	-37.202780	-47.545590	-0.496072	-147.787378
