! freq	dB(S11)	phase(S11)	dB(S12)	phase(S12)	
!     	dB(S21)	phase(S21)	dB(S22)	phase(S22)	
!S-par simulation data
#  GHz  S  DB  R 50
0.000000	-0.000000	0.000000	-354.076168	180.000000	-354.076168	180.000000	-0.000000	0.000000
0.050000	-0.003735	-1.838922	-79.130747	88.279946	-79.130747	88.279946	-0.003593	-1.839036
0.100000	-0.007310	-3.645293	-73.112448	86.398728	-73.112448	86.398728	-0.007206	-3.646322
0.150000	-0.009255	-5.446993	-69.593861	84.556284	-69.593861	84.556284	-0.009211	-5.448316
0.200000	-0.010700	-7.249399	-67.099227	82.725553	-67.099227	82.725553	-0.010690	-7.250843
0.250000	-0.012056	-9.052404	-65.166267	80.902768	-65.166267	80.902768	-0.012059	-9.053953
0.300000	-0.013482	-10.855438	-63.589055	79.087467	-63.589055	79.087467	-0.013487	-10.857113
0.350000	-0.015022	-12.658077	-62.257299	77.279138	-62.257299	77.279138	-0.015023	-12.659904
0.400000	-0.016733	-14.459753	-61.106236	75.481073	-61.106236	75.481073	-0.016727	-14.461765
0.450000	-0.018496	-16.261109	-60.090946	73.686183	-60.090946	73.686183	-0.018481	-16.263317
0.500000	-0.020467	-18.060661	-59.185889	71.907074	-59.185889	71.907074	-0.020443	-18.063098
0.550000	-0.022486	-19.859656	-58.367241	70.132778	-58.367241	70.132778	-0.022452	-19.862328
0.600000	-0.024640	-21.657011	-57.621638	68.372591	-57.621638	68.372591	-0.024598	-21.659938
0.650000	-0.026861	-23.453228	-56.936315	66.622670	-56.936315	66.622670	-0.026811	-23.456417
0.700000	-0.029148	-25.248305	-56.302346	64.883014	-56.302346	64.883014	-0.029093	-25.251763
0.750000	-0.031507	-27.041623	-55.712734	63.160401	-55.712734	63.160401	-0.031449	-27.045355
0.800000	-0.033891	-28.834336	-55.160982	61.443715	-55.160982	61.443715	-0.033829	-28.838342
0.850000	-0.036332	-30.624867	-54.642670	59.750121	-54.642670	59.750121	-0.036270	-30.629145
0.900000	-0.038782	-32.414779	-54.153335	58.063762	-54.153335	58.063762	-0.038722	-32.419325
0.950000	-0.041255	-34.203187	-53.689604	56.394973	-53.689604	56.394973	-0.041198	-34.207994
1.000000	-0.043733	-35.990507	-53.248221	54.740311	-53.248221	54.740311	-0.043680	-35.995567
1.050000	-0.046216	-37.776958	-52.827302	53.096951	-52.827302	53.096951	-0.046169	-37.782264
1.100000	-0.048694	-39.561971	-52.422961	51.474558	-52.422961	51.474558	-0.048654	-39.567509
1.150000	-0.051171	-41.346542	-52.035563	49.858888	-52.035563	49.858888	-0.051139	-41.352307
1.200000	-0.053633	-43.129719	-51.660097	48.266358	-51.660097	48.266358	-0.053610	-43.135692
1.250000	-0.056087	-44.912459	-51.297793	46.682286	-51.297793	46.682286	-0.056074	-44.918634
1.300000	-0.058528	-46.694377	-50.945668	45.114116	-50.945668	45.114116	-0.058524	-46.700742
1.350000	-0.060955	-48.475701	-50.601977	43.559946	-50.601977	43.559946	-0.060961	-48.482244
1.400000	-0.063372	-50.256647	-50.268132	42.014686	-50.268132	42.014686	-0.063389	-50.263360
1.450000	-0.065769	-52.037016	-49.937469	40.487678	-49.937469	40.487678	-0.065797	-52.043886
1.500000	-0.068161	-53.817258	-49.615880	38.965803	-49.615880	38.965803	-0.068199	-53.824283
1.550000	-0.070535	-55.597229	-49.295080	37.459589	-49.295080	37.459589	-0.070583	-55.604395
1.600000	-0.072903	-57.377223	-48.979674	35.959364	-48.979674	35.959364	-0.072961	-57.384528
1.650000	-0.075262	-59.157253	-48.666691	34.468020	-48.666691	34.468020	-0.075329	-59.164691
1.700000	-0.077614	-60.937504	-48.355682	32.982800	-48.355682	32.982800	-0.077691	-60.945072
1.750000	-0.079961	-62.718141	-48.044121	31.503731	-48.044121	31.503731	-0.080047	-62.725836
1.800000	-0.082304	-64.499300	-47.732205	30.028371	-47.732205	30.028371	-0.082399	-64.507123
1.850000	-0.084648	-66.281144	-47.419097	28.555032	-47.419097	28.555032	-0.084751	-66.289094
1.900000	-0.086993	-68.063842	-47.103981	27.081907	-47.103981	27.081907	-0.087104	-68.071922
1.950000	-0.089342	-69.847576	-46.786057	25.607070	-46.786057	25.607070	-0.089461	-69.855791
2.000000	-0.091698	-71.632538	-46.464541	24.128487	-46.464541	24.128487	-0.091824	-71.640894
2.050000	-0.094062	-73.418933	-46.138659	22.644013	-46.138659	22.644013	-0.094196	-73.427436
2.100000	-0.096438	-75.206976	-45.807643	21.151404	-45.807643	21.151404	-0.096579	-75.215636
2.150000	-0.098828	-76.996898	-45.470728	19.648320	-45.470728	19.648320	-0.098975	-77.005727
2.200000	-0.101235	-78.788946	-45.127149	18.132334	-45.127149	18.132334	-0.101389	-78.797957
2.250000	-0.103662	-80.583381	-44.776133	16.600939	-44.776133	16.600939	-0.103822	-80.592588
2.300000	-0.106110	-82.380483	-44.416899	15.051556	-44.416899	15.051556	-0.106277	-82.389904
2.350000	-0.108584	-84.180551	-44.048646	13.481543	-44.048646	13.481543	-0.108757	-84.190205
2.400000	-0.111086	-85.983907	-43.670552	11.888204	-43.670552	11.888204	-0.111266	-85.993815
2.450000	-0.113620	-87.790895	-43.281762	10.268794	-43.281762	10.268794	-0.113806	-87.801083
2.500000	-0.116189	-89.601889	-42.881381	8.620526	-42.881381	8.620526	-0.116382	-89.612382
2.550000	-0.118798	-91.417504	-42.466976	6.939065	-42.466976	6.939065	-0.118998	-91.428333
2.600000	-0.121451	-93.238008	-42.038789	5.222806	-42.038789	5.222806	-0.121658	-93.249206
2.650000	-0.124152	-95.063887	-41.595695	3.468856	-41.595695	3.468856	-0.124366	-95.075489
2.700000	-0.126905	-96.895674	-41.136464	1.674285	-41.136464	1.674285	-0.127128	-96.907719
2.750000	-0.129719	-98.733957	-40.659739	-0.163886	-40.659739	-0.163886	-0.129950	-98.746488
2.800000	-0.132598	-100.579395	-40.164011	-2.048697	-40.164011	-2.048697	-0.132839	-100.592458
2.850000	-0.135552	-102.432725	-39.647580	-3.983280	-39.647580	-3.983280	-0.135802	-102.446373
2.900000	-0.138591	-104.294788	-39.108519	-5.970893	-39.108519	-5.970893	-0.138852	-104.309075
2.950000	-0.141727	-106.166545	-38.544619	-8.014974	-38.544619	-8.014974	-0.141999	-106.181535
3.000000	-0.144977	-108.049117	-37.953325	-10.119221	-37.953325	-10.119221	-0.145260	-108.064877
3.050000	-0.148360	-109.943823	-37.331652	-12.287699	-37.331652	-12.287699	-0.148656	-109.960429
3.100000	-0.151903	-111.852242	-36.676074	-14.524998	-36.676074	-14.524998	-0.152214	-111.869778
3.150000	-0.155644	-113.776298	-35.982385	-16.836453	-35.982385	-16.836453	-0.155969	-113.794860
3.200000	-0.159629	-115.718382	-35.245501	-19.228470	-35.245501	-19.228470	-0.159971	-115.738077
3.250000	-0.163931	-117.681530	-34.459199	-21.709013	-34.459199	-21.709013	-0.164290	-117.702482
3.300000	-0.168650	-119.669689	-33.615743	-24.288335	-33.615743	-24.288335	-0.169028	-119.692043
3.350000	-0.173872	-121.685132	-32.720241	-26.969697	-32.720241	-26.969697	-0.174272	-121.709042
3.400000	-0.179937	-123.740488	-31.732567	-29.791294	-31.732567	-29.791294	-0.180361	-123.766175
3.450000	-0.187120	-125.841826	-30.656812	-32.765623	-30.656812	-32.765623	-0.187574	-125.869540
3.500000	-0.196171	-128.008605	-29.452640	-35.946730	-29.452640	-35.946730	-0.196660	-128.038694
3.550000	-0.208134	-130.261195	-28.104249	-39.388234	-28.104249	-39.388234	-0.208668	-130.294108
3.600000	-0.225454	-132.644071	-26.550527	-43.214055	-26.550527	-43.214055	-0.226053	-132.680480
3.650000	-0.252816	-135.223672	-24.738523	-47.612080	-24.738523	-47.612080	-0.253513	-135.264582
3.700000	-0.302996	-138.148991	-22.533407	-53.021011	-22.533407	-53.021011	-0.303871	-138.196181
3.750000	-0.414299	-141.736310	-19.731955	-60.445066	-19.731955	-60.445066	-0.415575	-141.793293
3.800000	-0.751274	-146.767105	-15.927771	-72.974033	-15.927771	-72.974033	-0.753833	-146.842464
3.850000	-2.369346	-152.783100	-10.773121	-103.090941	-10.773121	-103.090941	-2.379857	-152.895599
3.900000	-3.070670	-129.835111	-9.868387	-168.645183	-9.868387	-168.645183	-3.086813	-129.792963
3.950000	-0.946447	-133.492069	-14.740035	155.562912	-14.740035	155.562912	-0.950330	-133.474399
4.000000	-0.510224	-138.806125	-18.428646	141.405979	-18.428646	141.405979	-0.512201	-138.809060
4.050000	-0.375408	-142.603062	-21.035809	133.220204	-21.035809	133.220204	-0.376833	-142.617246
4.100000	-0.319813	-145.699882	-22.993255	127.252554	-22.993255	127.252554	-0.321020	-145.721615
4.150000	-0.292874	-148.455583	-24.543478	122.304022	-24.543478	122.304022	-0.293982	-148.483180
4.200000	-0.279067	-151.023040	-25.802687	117.911153	-25.802687	117.911153	-0.280132	-151.055623
4.250000	-0.272031	-153.482221	-26.846670	113.844730	-26.846670	113.844730	-0.273081	-153.519324
4.300000	-0.268534	-155.882959	-27.753292	109.964158	-27.753292	109.964158	-0.269586	-155.924359
4.350000	-0.267511	-158.244758	-28.528043	106.221557	-28.528043	106.221557	-0.268576	-158.290338
4.400000	-0.268025	-160.586046	-29.204985	102.568054	-29.204985	102.568054	-0.269110	-160.635780
4.450000	-0.269622	-162.918018	-29.798443	98.978617	-29.798443	98.978617	-0.270732	-162.971939
4.500000	-0.272043	-165.248171	-30.315787	95.438324	-30.315787	95.438324	-0.273183	-165.306356
4.550000	-0.275006	-167.583689	-30.778770	91.930526	-30.778770	91.930526	-0.276180	-167.646247
4.600000	-0.278358	-169.926262	-31.201697	88.446041	-31.201697	88.446041	-0.279567	-169.993300
4.650000	-0.282068	-172.278821	-31.581541	84.983186	-31.581541	84.983186	-0.283315	-172.350467
4.700000	-0.286159	-174.650751	-31.906696	81.544175	-31.906696	81.544175	-0.287447	-174.727217
4.750000	-0.290448	-177.037583	-32.206182	78.118371	-32.206182	78.118371	-0.291778	-177.119020
4.800000	-0.294921	-179.440125	-32.480040	74.705213	-32.480040	74.705213	-0.296295	-179.526688
4.850000	-0.299607	178.133834	-32.720103	71.308063	-32.720103	71.308063	-0.301026	178.041923
4.900000	-0.304457	175.683645	-32.934160	67.925202	-32.934160	67.925202	-0.305923	175.586163
4.950000	-0.309424	173.213537	-33.130356	64.553530	-33.130356	64.553530	-0.310938	173.110307
5.000000	-0.314501	170.722970	-33.309143	61.193024	-33.309143	61.193024	-0.316064	170.613810
5.050000	-0.319711	168.201404	-33.464898	57.848763	-33.464898	57.848763	-0.321325	168.086047
5.100000	-0.325018	165.653242	-33.604335	54.518182	-33.604335	54.518182	-0.326683	165.531464
5.150000	-0.330409	163.077606	-33.728919	51.201642	-33.728919	51.201642	-0.332126	162.949180
5.200000	-0.335875	160.473697	-33.839969	47.899534	-33.839969	47.899534	-0.337644	160.338395
5.250000	-0.341405	157.840793	-33.938677	44.612271	-33.938677	44.612271	-0.343227	157.698385
5.300000	-0.346989	155.178245	-34.026119	41.340271	-34.026119	41.340271	-0.348865	155.028503
5.350000	-0.352618	152.485477	-34.103268	38.083952	-34.103268	38.083952	-0.354548	152.328176
5.400000	-0.358282	149.761989	-34.171002	34.843723	-34.171002	34.843723	-0.360266	149.596907
5.450000	-0.363971	147.007359	-34.230112	31.619976	-34.230112	31.619976	-0.366008	146.834279
5.500000	-0.369674	144.221245	-34.281308	28.413082	-34.281308	28.413082	-0.371765	144.039957
5.550000	-0.375381	141.403390	-34.325222	25.223378	-34.325222	25.223378	-0.377525	141.213692
5.600000	-0.381082	138.553624	-34.362414	22.051164	-34.362414	22.051164	-0.383277	138.355324
5.650000	-0.386766	135.671871	-34.393374	18.896687	-34.393374	18.896687	-0.389012	135.464788
5.700000	-0.392422	132.758153	-34.418524	15.760128	-34.418524	15.760128	-0.394717	132.542121
5.750000	-0.398038	129.812593	-34.438224	12.641592	-34.438224	12.641592	-0.400381	129.587462
5.800000	-0.403603	126.835422	-34.452770	9.541091	-34.452770	9.541091	-0.405992	126.601058
5.850000	-0.409106	123.826982	-34.462402	6.458528	-34.462402	6.458528	-0.411539	123.583272
5.900000	-0.414536	120.787734	-34.467302	3.393684	-34.467302	3.393684	-0.417011	120.534585
5.950000	-0.419881	117.718256	-34.467601	0.346203	-34.467601	0.346203	-0.422395	117.455599
6.000000	-0.425130	114.619249	-34.463379	-2.684418	-34.463379	-2.684418	-0.427680	114.347041
6.050000	-0.430273	111.491542	-34.454669	-5.698841	-34.454669	-5.698841	-0.432856	111.209765
6.100000	-0.435299	108.336091	-34.441459	-8.697892	-34.441459	-8.697892	-0.437913	108.044757
6.150000	-0.440200	105.153979	-34.423697	-11.682562	-34.423697	-11.682562	-0.442840	104.853129
6.200000	-0.444966	101.946420	-34.401291	-14.654010	-34.401291	-14.654010	-0.447629	101.636126
6.250000	-0.449590	98.714754	-34.374109	-17.613559	-34.374109	-17.613559	-0.452273	98.395119
6.300000	-0.454059	95.459535	-34.341752	-20.562312	-34.341752	-20.562312	-0.456757	95.130703
6.350000	-0.458374	92.183412	-34.304217	-23.502434	-34.304217	-23.502434	-0.461084	91.845556
6.400000	-0.462532	88.888101	-34.261250	-26.435710	-34.261250	-26.435710	-0.465250	88.541426
6.450000	-0.466532	85.575421	-34.212552	-29.364051	-34.212552	-29.364051	-0.469254	85.220164
6.500000	-0.470374	82.247291	-34.157777	-32.289489	-34.157777	-32.289489	-0.473097	81.883721
6.550000	-0.474062	78.905716	-34.096519	-35.214166	-34.096519	-35.214166	-0.476783	78.534130
6.600000	-0.477601	75.552776	-34.028310	-38.140334	-34.028310	-38.140334	-0.480316	75.173501
6.650000	-0.481000	72.190612	-33.952603	-41.070357	-33.952603	-41.070357	-0.483706	71.804000
6.700000	-0.484282	68.821946	-33.869788	-44.005798	-33.869788	-44.005798	-0.486978	68.428331
6.750000	-0.487432	65.447622	-33.776835	-46.951210	-33.776835	-46.951210	-0.490117	65.047451
6.800000	-0.490492	62.070820	-33.674506	-49.907976	-33.674506	-49.907976	-0.493163	61.664490
6.850000	-0.493481	58.693614	-33.561925	-52.878796	-33.561925	-52.878796	-0.496140	58.281530
6.900000	-0.496424	55.318398	-33.436171	-55.869147	-33.436171	-55.869147	-0.499072	54.901026
6.950000	-0.499360	51.946898	-33.298159	-58.879438	-33.298159	-58.879438	-0.501998	51.524634
7.000000	-0.502332	48.581685	-33.144371	-61.916222	-33.144371	-61.916222	-0.504964	48.154968
7.050000	-0.505392	45.224606	-32.973195	-64.983513	-32.973195	-64.983513	-0.508024	44.793849
7.100000	-0.508589	41.876595	-32.784306	-68.083427	-32.784306	-68.083427	-0.511227	41.442156
7.150000	-0.512040	38.541412	-32.569760	-71.230065	-32.569760	-71.230065	-0.514696	38.103687
7.200000	-0.515801	35.218356	-32.331096	-74.423403	-32.331096	-74.423403	-0.518488	34.777631
7.250000	-0.520012	31.909234	-32.062367	-77.675645	-32.062367	-77.675645	-0.522748	31.465761
7.300000	-0.524882	28.615800	-31.755269	-81.004124	-31.755269	-81.004124	-0.527692	28.169760
7.350000	-0.530534	25.336370	-31.409978	-84.414267	-31.409978	-84.414267	-0.533448	24.887829
7.400000	-0.537428	22.072765	-31.009271	-87.942817	-31.009271	-87.942817	-0.540494	21.621654
7.450000	-0.545909	18.822548	-30.548696	-91.610482	-30.548696	-91.610482	-0.549186	18.368624
7.500000	-0.556522	15.583195	-30.019369	-95.451744	-30.019369	-95.451744	-0.560093	15.126004
7.550000	-0.570808	12.352145	-29.383407	-99.569463	-29.383407	-99.569463	-0.574818	11.890763
7.600000	-0.589783	9.122340	-28.642762	-104.012923	-28.642762	-104.012923	-0.594420	8.655534
7.650000	-0.616961	5.884854	-27.746699	-108.981026	-27.746699	-108.981026	-0.622564	5.410539
7.700000	-0.656868	2.629018	-26.670255	-114.696348	-26.670255	-114.696348	-0.663986	2.144267
7.750000	-0.721476	-0.658547	-25.328198	-121.723930	-25.328198	-121.723930	-0.731219	-1.158308
7.800000	-0.834134	-3.961608	-23.650306	-131.050792	-23.650306	-131.050792	-0.848813	-4.481911
7.850000	-1.046408	-7.087562	-21.582608	-144.847152	-21.582608	-144.847152	-1.071322	-7.628238
7.900000	-1.413832	-8.977335	-19.379133	-167.514539	-19.379133	-167.514539	-1.459259	-9.486378
7.950000	-1.564076	-7.733980	-18.496947	157.713310	-18.496947	157.713310	-1.622537	-8.025606
8.000000	-1.084874	-8.104606	-20.371569	123.998840	-20.371569	123.998840	-1.119516	-8.244566
8.050000	-0.736077	-11.393538	-23.337740	102.567964	-23.337740	102.567964	-0.752395	-11.544867
8.100000	-0.590674	-14.965909	-26.094497	89.519282	-26.094497	89.519282	-0.598965	-15.148773
8.150000	-0.529891	-18.286238	-28.431392	80.708126	-28.431392	80.708126	-0.534438	-18.491933
8.200000	-0.502107	-21.382758	-30.421642	74.085202	-30.421642	74.085202	-0.504561	-21.604008
8.250000	-0.489028	-24.315543	-32.130039	68.742081	-32.130039	68.742081	-0.490683	-24.548638
8.300000	-0.482671	-27.136151	-33.651718	64.155409	-33.651718	64.155409	-0.484117	-27.372501
8.350000	-0.480548	-29.853690	-34.943472	60.182596	-34.943472	60.182596	-0.481531	-30.090432
8.400000	-0.480375	-32.502458	-36.105825	56.575287	-36.105825	56.575287	-0.481003	-32.738724
8.450000	-0.481631	-35.081538	-37.103145	53.303670	-37.103145	53.303670	-0.482015	-35.316168
8.500000	-0.483697	-37.607169	-37.982309	50.266374	-37.982309	50.266374	-0.483901	-37.839320
8.550000	-0.486370	-40.080782	-38.735990	47.437134	-38.735990	47.437134	-0.486443	-40.309744
8.600000	-0.489483	-42.507562	-39.373965	44.778292	-39.373965	44.778292	-0.489459	-42.732805
8.650000	-0.492988	-44.883855	-39.880253	42.281313	-39.880253	42.281313	-0.492896	-45.104934
8.700000	-0.496706	-47.229185	-40.315287	39.870469	-40.315287	39.870469	-0.496561	-47.445893
8.750000	-0.500647	-49.541161	-40.663170	37.547636	-40.663170	37.547636	-0.500463	-49.753299
8.800000	-0.504902	-51.802401	-40.875331	35.329054	-40.875331	35.329054	-0.504698	-52.009790
8.850000	-0.509336	-54.034650	-41.013760	33.152338	-41.013760	33.152338	-0.509122	-54.237252
8.900000	-0.513937	-56.240160	-41.081943	31.009626	-41.081943	31.009626	-0.513722	-56.437958
8.950000	-0.518780	-58.408255	-41.052381	28.895970	-41.052381	28.895970	-0.518579	-58.601295
9.000000	-0.523835	-60.546376	-40.944157	26.789641	-40.944157	26.789641	-0.523657	-60.734759
9.050000	-0.529112	-62.656008	-40.759866	24.676390	-40.759866	24.676390	-0.528970	-62.839891
9.100000	-0.534629	-64.738701	-40.501021	22.541711	-40.501021	22.541711	-0.534538	-64.918302
9.150000	-0.540417	-66.796131	-40.167652	20.369614	-40.167652	20.369614	-0.540394	-66.971740
9.200000	-0.546522	-68.830183	-39.757806	18.140748	-39.757806	18.140748	-0.546590	-69.002179
9.250000	-0.553022	-70.843075	-39.266901	15.829498	-39.266901	15.829498	-0.553210	-71.011953
9.300000	-0.560042	-72.837552	-38.686812	13.399270	-38.686812	13.399270	-0.560391	-73.003958
9.350000	-0.567798	-74.817192	-38.004538	10.794487	-38.004538	10.794487	-0.568369	-74.981993
9.400000	-0.576741	-76.786843	-37.191722	7.911680	-37.191722	7.911680	-0.577638	-76.951282
9.450000	-0.587645	-78.754380	-36.220484	4.596223	-36.220484	4.596223	-0.589035	-78.920187
9.500000	-0.602255	-80.731763	-35.038100	0.544605	-35.038100	0.544605	-0.604455	-80.901508
9.550000	-0.624552	-82.736749	-33.572170	-4.827531	-33.572170	-4.827531	-0.628203	-82.914268
9.600000	-0.664975	-84.789933	-31.719908	-12.806127	-31.719908	-12.806127	-0.671569	-84.980589
9.650000	-0.751374	-86.855805	-29.424886	-26.362435	-29.424886	-26.362435	-0.764725	-87.062207
9.700000	-0.930132	-88.395708	-27.177568	-52.462508	-27.177568	-52.462508	-0.958463	-88.573784
9.750000	-0.994958	-88.528753	-27.536483	-91.060234	-27.536483	-91.060234	-1.026824	-88.548678
9.800000	-0.847224	-89.524775	-30.921056	-118.911826	-30.921056	-118.911826	-0.863192	-89.487171
9.850000	-0.756243	-91.325098	-34.632346	-131.981830	-34.632346	-131.981830	-0.763853	-91.301602
9.900000	-0.717580	-93.195162	-37.912166	-137.299116	-37.912166	-137.299116	-0.721743	-93.186953
9.950000	-0.700970	-95.016998	-40.869861	-138.223026	-40.869861	-138.223026	-0.703475	-95.018761
10.000000	-0.694692	-96.789592	-43.597435	-135.775501	-43.597435	-135.775501	-0.696303	-96.797389
