! freq	dB(S11)	phase(S11)	dB(S12)	phase(S12)	
!     	dB(S21)	phase(S21)	dB(S22)	phase(S22)	
!S-par simulation data
#  GHz  S  DB  R 50
0.000000	-0.000000	0.000000	-362.709111	0.000000	-362.709111	0.000000	0.000000	0.000000
0.050000	-0.000620	-0.976236	-101.226575	88.584744	-101.226575	88.584744	-0.001614	-2.435920
0.100000	-0.002097	-1.947835	-95.252271	86.777616	-95.252271	86.777616	-0.005390	-4.858739
0.150000	-0.003796	-2.914254	-91.797275	85.071987	-91.797275	85.071987	-0.009635	-7.266825
0.200000	-0.005388	-3.877318	-89.389239	83.415267	-89.389239	83.415267	-0.013546	-9.664618
0.250000	-0.006803	-4.838603	-87.569298	81.803999	-87.569298	81.803999	-0.016995	-12.055410
0.300000	-0.008079	-5.799087	-86.133400	80.243574	-86.133400	80.243574	-0.020101	-14.440791
0.350000	-0.009273	-6.759224	-84.970087	78.740342	-84.970087	78.740342	-0.023013	-16.821229
0.400000	-0.010424	-7.719156	-84.015538	77.304782	-84.015538	77.304782	-0.025827	-19.196328
0.450000	-0.011557	-8.678881	-83.232572	75.953493	-83.232572	75.953493	-0.028601	-21.565141
0.500000	-0.012689	-9.638353	-82.589766	74.697854	-82.589766	74.697854	-0.031369	-23.927201
0.550000	-0.013826	-10.597491	-82.068408	73.555994	-82.068408	73.555994	-0.034145	-26.281732
0.600000	-0.014973	-11.556177	-81.659400	72.557755	-81.659400	72.557755	-0.036930	-28.627538
0.650000	-0.016128	-12.514323	-81.350543	71.727649	-81.350543	71.727649	-0.039721	-30.964138
0.700000	-0.017292	-13.471840	-81.134613	71.099346	-81.134613	71.099346	-0.042511	-33.290914
0.750000	-0.018464	-14.428610	-81.009927	70.726354	-81.009927	70.726354	-0.045291	-35.606853
0.800000	-0.019641	-15.384545	-80.973264	70.669679	-80.973264	70.669679	-0.048051	-37.911307
0.850000	-0.020824	-16.339571	-81.021195	71.004276	-81.021195	71.004276	-0.050784	-40.203800
0.900000	-0.022010	-17.293617	-81.150811	71.830427	-81.150811	71.830427	-0.053483	-42.483798
0.950000	-0.023199	-18.246613	-81.357884	73.281595	-81.357884	73.281595	-0.056140	-44.750727
1.000000	-0.024391	-19.198498	-81.633380	75.527122	-81.633380	75.527122	-0.058752	-47.004103
1.050000	-0.025585	-20.149220	-81.959516	78.775841	-81.959516	78.775841	-0.061313	-49.243485
1.100000	-0.026782	-21.098733	-82.303206	83.263397	-82.303206	83.263397	-0.063821	-51.468469
1.150000	-0.027980	-22.046994	-82.607903	89.203892	-82.607903	89.203892	-0.066273	-53.678692
1.200000	-0.029180	-22.993969	-82.788572	96.679790	-82.788572	96.679790	-0.068670	-55.873832
1.250000	-0.030381	-23.939623	-82.741416	105.474970	-82.741416	105.474970	-0.071010	-58.053598
1.300000	-0.031584	-24.883899	-82.371434	114.952794	-82.371434	114.952794	-0.073292	-60.217393
1.350000	-0.032788	-25.826799	-81.665106	124.167479	-81.665106	124.167479	-0.075519	-62.365334
1.400000	-0.033993	-26.768299	-80.681899	132.324614	-80.681899	132.324614	-0.077691	-64.497235
1.450000	-0.035198	-27.708376	-79.521453	139.016555	-79.521453	139.016555	-0.079812	-66.612942
1.500000	-0.036404	-28.647011	-78.277938	144.204551	-78.277938	144.204551	-0.081882	-68.712329
1.550000	-0.037611	-29.584184	-77.018551	148.057253	-77.018551	148.057253	-0.083903	-70.795297
1.600000	-0.038817	-30.519875	-75.783431	150.808724	-75.783431	150.808724	-0.085880	-72.861777
1.650000	-0.040024	-31.454066	-74.593344	152.683157	-74.593344	152.683157	-0.087813	-74.911721
1.700000	-0.041231	-32.386741	-73.457212	153.868320	-73.457212	153.868320	-0.089705	-76.945106
1.750000	-0.042437	-33.317880	-72.377339	154.512593	-72.377339	154.512593	-0.091560	-78.961933
1.800000	-0.043644	-34.247469	-71.352583	154.730428	-71.352583	154.730428	-0.093379	-80.962222
1.850000	-0.044850	-35.175488	-70.380155	154.609471	-70.380155	154.609471	-0.095165	-82.946017
1.900000	-0.046056	-36.101905	-69.456076	154.214583	-69.456076	154.214583	-0.096921	-84.913199
1.950000	-0.047262	-37.026703	-68.576905	153.598981	-68.576905	153.598981	-0.098649	-86.863850
2.000000	-0.048468	-37.949881	-67.739668	152.805340	-67.739668	152.805340	-0.100352	-88.798246
2.050000	-0.049675	-38.871425	-66.941041	151.864940	-66.941041	151.864940	-0.102032	-90.716499
2.100000	-0.050882	-39.791318	-66.177983	150.802643	-66.177983	150.802643	-0.103691	-92.618735
2.150000	-0.052090	-40.709544	-65.447738	149.638386	-65.447738	149.638386	-0.105332	-94.505096
2.200000	-0.053299	-41.626088	-64.747823	148.388303	-64.747823	148.388303	-0.106957	-96.375735
2.250000	-0.054510	-42.540933	-64.076004	147.065560	-64.076004	147.065560	-0.108567	-98.230818
2.300000	-0.055723	-43.454066	-63.430273	145.680991	-63.430273	145.680991	-0.110165	-100.070520
2.350000	-0.056938	-44.365471	-62.808824	144.243572	-62.808824	144.243572	-0.111751	-101.895028
2.400000	-0.058155	-45.275134	-62.210029	142.760799	-62.210029	142.760799	-0.113329	-103.704538
2.450000	-0.059376	-46.183039	-61.632419	141.238968	-61.632419	141.238968	-0.114899	-105.499254
2.500000	-0.060600	-47.089174	-61.074664	139.683405	-61.074664	139.683405	-0.116463	-107.279389
2.550000	-0.061829	-47.993466	-60.535074	138.097799	-60.535074	138.097799	-0.118023	-109.044699
2.600000	-0.063062	-48.895960	-60.013106	136.487088	-60.013106	136.487088	-0.119579	-110.795889
2.650000	-0.064300	-49.796642	-59.507750	134.854552	-59.507750	134.854552	-0.121134	-112.533189
2.700000	-0.065544	-50.695501	-59.018086	133.203025	-59.018086	133.203025	-0.122688	-114.256837
2.750000	-0.066794	-51.592525	-58.543271	131.534971	-58.543271	131.534971	-0.124242	-115.967073
2.800000	-0.068050	-52.487703	-58.082531	129.852535	-58.082531	129.852535	-0.125798	-117.664145
2.850000	-0.069314	-53.381023	-57.635154	128.157600	-57.635154	128.157600	-0.127357	-119.348299
2.900000	-0.070585	-54.272476	-57.200483	126.451818	-57.200483	126.451818	-0.128919	-121.019788
2.950000	-0.071865	-55.162051	-56.777914	124.736644	-56.777914	124.736644	-0.130486	-122.678865
3.000000	-0.073153	-56.049741	-56.366883	123.013370	-56.366883	123.013370	-0.132059	-124.325787
3.050000	-0.074451	-56.935535	-55.966870	121.283138	-55.966870	121.283138	-0.133637	-125.960812
3.100000	-0.075758	-57.819427	-55.577391	119.546967	-55.577391	119.546967	-0.135223	-127.584197
3.150000	-0.077076	-58.701408	-55.197994	117.805767	-55.197994	117.805767	-0.136817	-129.196203
3.200000	-0.078405	-59.581472	-54.828259	116.060351	-54.828259	116.060351	-0.138420	-130.797091
3.250000	-0.079745	-60.459613	-54.467793	114.311448	-54.467793	114.311448	-0.140031	-132.387120
3.300000	-0.081097	-61.335826	-54.116226	112.559717	-54.116226	112.559717	-0.141653	-133.966550
3.350000	-0.082462	-62.210104	-53.773213	110.805749	-53.773213	110.805749	-0.143286	-135.535642
3.400000	-0.083840	-63.082445	-53.438430	109.050078	-53.438430	109.050078	-0.144930	-137.094656
3.450000	-0.085231	-63.952844	-53.111571	107.293187	-53.111571	107.293187	-0.146586	-138.643849
3.500000	-0.086636	-64.821299	-52.792349	105.535516	-52.792349	105.535516	-0.148254	-140.183480
3.550000	-0.088056	-65.687807	-52.480493	103.777462	-52.480493	103.777462	-0.149935	-141.713804
3.600000	-0.089491	-66.552367	-52.175746	102.019387	-52.175746	102.019387	-0.151629	-143.235077
3.650000	-0.090942	-67.414977	-51.877866	100.261619	-51.877866	100.261619	-0.153338	-144.747552
3.700000	-0.092408	-68.275637	-51.586623	98.504459	-51.586623	98.504459	-0.155061	-146.251481
3.750000	-0.093892	-69.134348	-51.301800	96.748178	-51.301800	96.748178	-0.156799	-147.747112
3.800000	-0.095393	-69.991026	-51.023072	94.993086	-51.023072	94.993086	-0.158553	-149.234357
3.850000	-0.096912	-70.845757	-50.750378	93.239367	-50.750378	93.239367	-0.160322	-150.713821
3.900000	-0.098449	-71.698543	-50.483529	91.487227	-50.483529	91.487227	-0.162107	-152.185747
3.950000	-0.100005	-72.549388	-50.222347	89.736850	-50.222347	89.736850	-0.163909	-153.650376
4.000000	-0.101579	-73.398295	-49.966662	87.988406	-49.966662	87.988406	-0.165728	-155.107947
4.050000	-0.103174	-74.245269	-49.716310	86.242049	-49.716310	86.242049	-0.167563	-156.558696
4.100000	-0.104788	-75.090315	-49.471137	84.497918	-49.471137	84.497918	-0.169415	-158.002856
4.150000	-0.106423	-75.933437	-49.230996	82.756140	-49.230996	82.756140	-0.171285	-159.440659
4.200000	-0.108080	-76.774643	-48.995745	81.016830	-48.995745	81.016830	-0.173173	-160.872334
4.250000	-0.109757	-77.613939	-48.765249	79.280090	-48.765249	79.280090	-0.175078	-162.298105
4.300000	-0.111457	-78.451332	-48.539378	77.546014	-48.539378	77.546014	-0.177002	-163.718197
4.350000	-0.113179	-79.286831	-48.318010	75.814683	-48.318010	75.814683	-0.178943	-165.132829
4.400000	-0.114925	-80.120445	-48.101026	74.086172	-48.101026	74.086172	-0.180903	-166.542220
4.450000	-0.116693	-80.952182	-47.888313	72.360547	-47.888313	72.360547	-0.182880	-167.946585
4.500000	-0.118486	-81.782053	-47.679763	70.637864	-47.679763	70.637864	-0.184877	-169.346136
4.550000	-0.120303	-82.610068	-47.475272	68.918174	-47.475272	68.918174	-0.186891	-170.741082
4.600000	-0.122144	-83.436238	-47.274740	67.201521	-47.274740	67.201521	-0.188924	-172.131630
4.650000	-0.124011	-84.260574	-47.078072	65.487943	-47.078072	65.487943	-0.190975	-173.517985
4.700000	-0.125904	-85.083090	-46.885178	63.777470	-46.885178	63.777470	-0.193045	-174.900348
4.750000	-0.127823	-85.903798	-46.695969	62.070129	-46.695969	62.070129	-0.195132	-176.278916
4.800000	-0.129768	-86.722711	-46.510362	60.365942	-46.510362	60.365942	-0.197238	-177.653886
4.850000	-0.131741	-87.539843	-46.328277	58.664927	-46.328277	58.664927	-0.199361	-179.025451
4.900000	-0.133741	-88.355209	-46.149637	56.967097	-46.149637	56.967097	-0.201503	179.606200
4.950000	-0.135769	-89.168824	-45.974368	55.272463	-45.974368	55.272463	-0.203662	178.240879
5.000000	-0.137826	-89.980703	-45.802401	53.581030	-45.802401	53.581030	-0.205838	176.878402
5.050000	-0.139913	-90.790788	-45.633666	51.892945	-45.633666	51.892945	-0.208032	175.518694
5.100000	-0.142029	-91.599172	-45.468105	50.208070	-45.468105	50.208070	-0.210242	174.161452
5.150000	-0.144175	-92.405872	-45.305659	48.526407	-45.305659	48.526407	-0.212469	172.806502
5.200000	-0.146351	-93.210905	-45.146267	46.847954	-45.146267	46.847954	-0.214713	171.453669
5.250000	-0.148558	-94.014291	-44.989873	45.172712	-44.989873	45.172712	-0.216972	170.102784
5.300000	-0.150796	-94.816046	-44.836424	43.500678	-44.836424	43.500678	-0.219246	168.753679
5.350000	-0.153065	-95.616192	-44.685869	41.831853	-44.685869	41.831853	-0.221535	167.406189
5.400000	-0.155367	-96.414747	-44.538159	40.166236	-44.538159	40.166236	-0.223839	166.060152
5.450000	-0.157701	-97.211732	-44.393248	38.503827	-44.393248	38.503827	-0.226156	164.715409
5.500000	-0.160068	-98.007168	-44.251091	36.844629	-44.251091	36.844629	-0.228487	163.371802
5.550000	-0.162469	-98.801074	-44.111648	35.188645	-44.111648	35.188645	-0.230831	162.029179
5.600000	-0.164903	-99.593474	-43.974878	33.535883	-43.974878	33.535883	-0.233187	160.687387
5.650000	-0.167371	-100.384389	-43.840743	31.886351	-43.840743	31.886351	-0.235555	159.346279
5.700000	-0.169874	-101.173842	-43.709207	30.240061	-43.709207	30.240061	-0.237935	158.005709
5.750000	-0.172413	-101.961856	-43.580238	28.597028	-43.580238	28.597028	-0.240325	156.665533
5.800000	-0.174986	-102.748453	-43.453801	26.957273	-43.453801	26.957273	-0.242724	155.325613
5.850000	-0.177596	-103.533659	-43.329868	25.320818	-43.329868	25.320818	-0.245133	153.985809
5.900000	-0.180242	-104.317496	-43.208409	23.687691	-43.208409	23.687691	-0.247551	152.645989
5.950000	-0.182925	-105.099991	-43.089397	22.057927	-43.089397	22.057927	-0.249976	151.306019
6.000000	-0.185645	-105.881167	-42.972805	20.431562	-42.972805	20.431562	-0.252409	149.965772
6.050000	-0.188402	-106.661051	-42.858610	18.808642	-42.858610	18.808642	-0.254848	148.625120
6.100000	-0.191198	-107.439668	-42.746788	17.189216	-42.746788	17.189216	-0.257292	147.283941
6.150000	-0.194032	-108.217044	-42.637317	15.573340	-42.637317	15.573340	-0.259742	145.942115
6.200000	-0.196905	-108.993208	-42.530176	13.961076	-42.530176	13.961076	-0.262195	144.599523
6.250000	-0.199817	-109.768184	-42.425346	12.352494	-42.425346	12.352494	-0.264652	143.256051
6.300000	-0.202771	-110.541953	-42.322854	10.747837	-42.322854	10.747837	-0.267111	141.911540
6.350000	-0.205765	-111.314594	-42.222638	9.147029	-42.222638	9.147029	-0.269572	140.565920
6.400000	-0.208800	-112.086134	-42.124680	7.550162	-42.124680	7.550162	-0.272034	139.219084
6.450000	-0.211876	-112.856603	-42.028965	5.957334	-42.028965	5.957334	-0.274495	137.870932
6.500000	-0.214993	-113.626030	-41.935475	4.368653	-41.935475	4.368653	-0.276956	136.521363
6.550000	-0.218152	-114.394445	-41.844194	2.784233	-41.844194	2.784233	-0.279414	135.170283
6.600000	-0.221353	-115.161876	-41.755108	1.204196	-41.755108	1.204196	-0.281871	133.817598
6.650000	-0.224597	-115.928355	-41.668200	-0.371329	-41.668200	-0.371329	-0.284324	132.463219
6.700000	-0.227883	-116.693913	-41.583456	-1.942203	-41.583456	-1.942203	-0.286773	131.107059
6.750000	-0.231213	-117.458579	-41.500862	-3.508282	-41.500862	-3.508282	-0.289216	129.749036
6.800000	-0.234587	-118.222386	-41.420401	-5.069411	-41.420401	-5.069411	-0.291654	128.389070
6.850000	-0.238006	-118.985366	-41.342061	-6.625431	-41.342061	-6.625431	-0.294086	127.027085
6.900000	-0.241468	-119.747549	-41.265824	-8.176172	-41.265824	-8.176172	-0.296510	125.663007
6.950000	-0.244976	-120.508970	-41.191677	-9.721459	-41.191677	-9.721459	-0.298927	124.296767
7.000000	-0.248529	-121.269660	-41.119604	-11.261108	-41.119604	-11.261108	-0.301334	122.928300
7.050000	-0.252128	-122.029653	-41.049589	-12.794931	-41.049589	-12.794931	-0.303732	121.557543
7.100000	-0.255773	-122.788982	-40.981615	-14.322728	-40.981615	-14.322728	-0.306121	120.184438
7.150000	-0.259465	-123.547682	-40.915667	-15.844298	-40.915667	-15.844298	-0.308498	118.808929
7.200000	-0.263203	-124.305786	-40.851727	-17.359429	-40.851727	-17.359429	-0.310864	117.430966
7.250000	-0.266988	-125.063329	-40.789777	-18.867906	-40.789777	-18.867906	-0.313218	116.050501
7.300000	-0.270821	-125.820346	-40.729798	-20.369506	-40.729798	-20.369506	-0.315560	114.667491
7.350000	-0.274702	-126.576873	-40.671772	-21.864003	-40.671772	-21.864003	-0.317890	113.281895
7.400000	-0.278631	-127.332945	-40.615679	-23.351164	-40.615679	-23.351164	-0.320206	111.893679
7.450000	-0.282609	-128.088599	-40.561497	-24.830751	-40.561497	-24.830751	-0.322508	110.502810
7.500000	-0.286635	-128.843870	-40.509206	-26.302523	-40.509206	-26.302523	-0.324796	109.109261
7.550000	-0.290713	-129.598782	-40.458852	-27.765872	-40.458852	-27.765872	-0.327070	107.712890
7.600000	-0.294841	-130.353389	-40.410342	-29.220886	-40.410342	-29.220886	-0.329329	106.313794
7.650000	-0.299018	-131.107728	-40.363653	-30.667314	-40.363653	-30.667314	-0.331574	104.911961
7.700000	-0.303246	-131.861838	-40.318760	-32.104899	-40.318760	-32.104899	-0.333804	103.507378
7.750000	-0.307524	-132.615757	-40.275636	-33.533381	-40.275636	-33.533381	-0.336020	102.100040
7.800000	-0.311853	-133.369524	-40.234256	-34.952501	-40.234256	-34.952501	-0.338221	100.689946
7.850000	-0.316233	-134.123176	-40.194591	-36.361995	-40.194591	-36.361995	-0.340408	99.277098
7.900000	-0.320665	-134.876755	-40.156614	-37.761599	-40.156614	-37.761599	-0.342581	97.861505
7.950000	-0.325148	-135.630299	-40.120296	-39.151048	-40.120296	-39.151048	-0.344740	96.443176
8.000000	-0.329683	-136.383849	-40.085606	-40.530076	-40.085606	-40.530076	-0.346886	95.022130
8.050000	-0.334270	-137.137446	-40.052514	-41.898416	-40.052514	-41.898416	-0.349019	93.598387
8.100000	-0.338910	-137.891129	-40.020990	-43.255800	-40.020990	-43.255800	-0.351140	92.171972
8.150000	-0.343603	-138.644941	-39.991002	-44.601963	-39.991002	-44.601963	-0.353249	90.742915
8.200000	-0.348348	-139.398924	-39.962518	-45.936637	-39.962518	-45.936637	-0.355348	89.311251
8.250000	-0.353147	-140.153119	-39.935505	-47.259556	-39.935505	-47.259556	-0.357436	87.877020
8.300000	-0.357999	-140.907569	-39.909930	-48.570454	-39.909930	-48.570454	-0.359516	86.440264
8.350000	-0.362904	-141.662316	-39.885761	-49.869067	-39.885761	-49.869067	-0.361588	85.001034
8.400000	-0.367863	-142.417405	-39.862964	-51.155132	-39.862964	-51.155132	-0.363653	83.559381
8.450000	-0.372877	-143.172878	-39.841505	-52.428384	-39.841505	-52.428384	-0.365713	82.115364
8.500000	-0.377944	-143.928780	-39.821351	-53.688564	-39.821351	-53.688564	-0.367769	80.669046
8.550000	-0.383066	-144.685156	-39.802468	-54.935410	-39.802468	-54.935410	-0.369822	79.220493
8.600000	-0.388242	-145.442050	-39.784824	-56.168665	-39.784824	-56.168665	-0.371875	77.769777
8.650000	-0.393472	-146.199508	-39.768385	-57.388069	-39.768385	-57.388069	-0.373928	76.316975
8.700000	-0.398757	-146.957576	-39.753119	-58.593369	-39.753119	-58.593369	-0.375984	74.862167
8.750000	-0.404097	-147.716299	-39.738994	-59.784309	-39.738994	-59.784309	-0.378044	73.405438
8.800000	-0.409494	-148.475757	-39.726023	-60.959988	-39.726023	-60.959988	-0.380111	71.946803
8.850000	-0.414946	-149.235970	-39.714129	-62.120779	-39.714129	-62.120779	-0.382187	70.486441
8.900000	-0.420453	-149.996984	-39.703281	-63.266433	-39.703281	-63.266433	-0.384274	69.024450
8.950000	-0.426015	-150.758848	-39.693450	-64.396701	-39.693450	-64.396701	-0.386374	67.560934
9.000000	-0.431632	-151.521610	-39.684609	-65.511334	-39.684609	-65.511334	-0.388491	66.096000
9.050000	-0.437304	-152.285320	-39.676732	-66.610087	-39.676732	-66.610087	-0.390625	64.629760
9.100000	-0.443031	-153.050026	-39.669793	-67.692714	-39.669793	-67.692714	-0.392781	63.162329
9.150000	-0.448813	-153.815779	-39.663769	-68.758973	-39.663769	-68.758973	-0.394960	61.693826
9.200000	-0.454650	-154.582629	-39.658640	-69.808621	-39.658640	-69.808621	-0.397166	60.224375
9.250000	-0.460542	-155.350627	-39.654384	-70.841417	-39.654384	-70.841417	-0.399401	58.754102
9.300000	-0.466489	-156.119825	-39.650985	-71.857121	-39.650985	-71.857121	-0.401669	57.283139
9.350000	-0.472490	-156.890275	-39.648427	-72.855496	-39.648427	-72.855496	-0.403972	55.811618
9.400000	-0.478546	-157.662028	-39.646696	-73.836306	-39.646696	-73.836306	-0.406314	54.339678
9.450000	-0.484656	-158.435138	-39.645783	-74.799316	-39.645783	-74.799316	-0.408698	52.867458
9.500000	-0.490821	-159.209659	-39.645678	-75.744295	-39.645678	-75.744295	-0.411126	51.395101
9.550000	-0.497039	-159.985644	-39.646378	-76.671015	-39.646378	-76.671015	-0.413603	49.922755
9.600000	-0.503311	-160.763148	-39.647879	-77.579248	-39.647879	-77.579248	-0.416132	48.450567
9.650000	-0.509637	-161.542225	-39.650184	-78.468774	-39.650184	-78.468774	-0.418716	46.978689
9.700000	-0.516015	-162.322933	-39.653295	-79.339373	-39.653295	-79.339373	-0.421358	45.507276
9.750000	-0.522447	-163.105325	-39.657221	-80.190833	-39.657221	-80.190833	-0.424063	44.036483
9.800000	-0.528931	-163.889460	-39.661973	-81.022947	-39.661973	-81.022947	-0.426833	42.566468
9.850000	-0.535467	-164.675395	-39.667567	-81.835514	-39.667567	-81.835514	-0.429672	41.097391
9.900000	-0.542055	-165.463187	-39.674021	-82.628342	-39.674021	-82.628342	-0.432583	39.629414
9.950000	-0.548695	-166.252894	-39.681360	-83.401248	-39.681360	-83.401248	-0.435571	38.162701
10.000000	-0.555385	-167.044576	-39.689609	-84.154059	-39.689609	-84.154059	-0.438639	36.697415
