! freq	dB(S11)	phase(S11)	dB(S12)	phase(S12)	
!     	dB(S21)	phase(S21)	dB(S22)	phase(S22)	
!S-par simulation data
#  GHz  S  DB  R 50
0.000000	-86.306182	0.000000	-0.000420	0.000000	-0.000420	0.000000	-86.306182	0.000000
0.050000	-32.899178	-93.138024	-0.008837	-3.148027	-0.008837	-3.148027	-32.899051	-93.136501
0.100000	-26.902763	-96.434792	-0.019591	-6.264738	-0.019591	-6.264738	-26.902753	-96.431882
0.150000	-23.415307	-99.651006	-0.035012	-9.369069	-0.035012	-9.369069	-23.415398	-99.646781
0.200000	-20.956800	-102.817788	-0.054586	-12.459412	-0.054586	-12.459412	-20.956940	-102.812180
0.250000	-19.062270	-105.948195	-0.077947	-15.537169	-0.077947	-15.537169	-19.062421	-105.941080
0.300000	-17.524947	-109.051436	-0.105006	-18.603305	-0.105006	-18.603305	-17.525090	-109.042716
0.350000	-16.234946	-112.133539	-0.135759	-21.657898	-0.135759	-21.657898	-16.235078	-112.123162
0.400000	-15.126718	-115.198067	-0.170136	-24.700585	-0.170136	-24.700585	-15.126843	-115.186023
0.450000	-14.158782	-118.245954	-0.208197	-27.730117	-0.208197	-27.730117	-14.158906	-118.232258
0.500000	-13.301963	-121.278081	-0.249737	-30.745993	-0.249737	-30.745993	-13.302093	-121.262759
0.550000	-12.536366	-124.293589	-0.294746	-33.746789	-0.294746	-33.746789	-12.536506	-124.276673
0.600000	-11.846378	-127.292412	-0.342968	-36.732148	-0.342968	-36.732148	-11.846529	-127.273930
0.650000	-11.220812	-130.273448	-0.394286	-39.700962	-0.394286	-39.700962	-11.220977	-130.253420
0.700000	-10.650400	-133.236314	-0.448445	-42.652870	-0.448445	-42.652870	-10.650578	-133.214756
0.750000	-10.128068	-136.180228	-0.505238	-45.587134	-0.505238	-45.587134	-10.128257	-136.157146
0.800000	-9.647924	-139.104721	-0.564424	-48.503245	-0.564424	-48.503245	-9.648123	-139.080114
0.850000	-9.205082	-142.009478	-0.625758	-51.400764	-0.625758	-51.400764	-9.205290	-141.983340
0.900000	-8.795518	-144.894191	-0.689022	-54.279201	-0.689022	-54.279201	-8.795733	-144.866512
0.950000	-8.415828	-147.758658	-0.754004	-57.138140	-0.754004	-57.138140	-8.416049	-147.729425
1.000000	-8.063130	-150.602722	-0.820514	-59.977223	-0.820514	-59.977223	-8.063358	-150.571921
1.050000	-7.734792	-153.426603	-0.888356	-62.796491	-0.888356	-62.796491	-7.735024	-153.394222
1.100000	-7.428601	-156.230445	-0.957360	-65.595963	-0.957360	-65.595963	-7.428838	-156.196471
1.150000	-7.142616	-159.014471	-1.027360	-68.375779	-1.027360	-68.375779	-7.142859	-158.978895
1.200000	-6.875122	-161.778976	-1.098198	-71.136183	-1.098198	-71.136183	-6.875371	-161.741789
1.250000	-6.624597	-164.524315	-1.169724	-73.877505	-1.169724	-73.877505	-6.624852	-164.485512
1.300000	-6.389816	-167.250599	-1.241788	-76.599849	-1.241788	-76.599849	-6.390077	-167.210176
1.350000	-6.169408	-169.958599	-1.314251	-79.303987	-1.314251	-79.303987	-6.169676	-169.916553
1.400000	-5.962273	-172.648811	-1.386981	-81.990425	-1.386981	-81.990425	-5.962548	-172.605143
1.450000	-5.767420	-175.321764	-1.459855	-84.659702	-1.459855	-84.659702	-5.767702	-175.276475
1.500000	-5.583947	-177.978014	-1.532758	-87.312388	-1.532758	-87.312388	-5.584236	-177.931107
1.550000	-5.411036	179.381862	-1.605581	-89.949071	-1.605581	-89.949071	-5.411332	179.430384
1.600000	-5.247940	176.757269	-1.678225	-92.570359	-1.678225	-92.570359	-5.248243	176.807401
1.650000	-5.093977	174.147599	-1.750596	-95.176869	-1.750596	-95.176869	-5.094286	174.199336
1.700000	-4.948421	171.551992	-1.822631	-97.769470	-1.822631	-97.769470	-4.948737	171.605327
1.750000	-4.811196	168.971034	-1.894154	-100.347597	-1.894154	-100.347597	-4.811519	169.025960
1.800000	-4.680985	166.402179	-1.965251	-102.913781	-1.965251	-102.913781	-4.681314	166.458689
1.850000	-4.557912	163.846289	-2.035730	-105.467185	-2.035730	-105.467185	-4.558248	163.904374
1.900000	-4.441242	161.302041	-2.105602	-108.009130	-2.105602	-108.009130	-4.441584	161.361693
1.950000	-4.330563	158.768826	-2.174817	-110.540231	-2.174817	-110.540231	-4.330911	158.830035
2.000000	-4.225750	156.246668	-2.243258	-113.060479	-2.243258	-113.060479	-4.226103	156.309423
2.050000	-4.125962	153.733790	-2.311035	-115.571637	-2.311035	-115.571637	-4.126321	153.798080
2.100000	-4.031564	151.231285	-2.377886	-118.072654	-2.377886	-118.072654	-4.031929	151.297097
2.150000	-3.941513	148.736811	-2.444039	-120.565838	-2.444039	-120.565838	-3.941883	148.804133
2.200000	-3.856155	146.251310	-2.509236	-123.050297	-2.509236	-123.050297	-3.856530	146.320126
2.250000	-3.774760	143.773152	-2.573640	-125.527639	-2.573640	-125.527639	-3.775141	143.843447
2.300000	-3.697337	141.302403	-2.637131	-127.997828	-2.637131	-127.997828	-3.697723	141.374160
2.350000	-3.623596	138.838427	-2.699722	-130.461509	-2.699722	-130.461509	-3.623988	138.911628
2.400000	-3.553214	136.380494	-2.761457	-132.919417	-2.761457	-132.919417	-3.553611	136.455120
2.450000	-3.486258	133.928720	-2.822201	-135.371481	-2.822201	-135.371481	-3.486661	134.004750
2.500000	-3.422137	131.481812	-2.882155	-137.818966	-2.882155	-137.818966	-3.422546	131.559224
2.550000	-3.361206	129.040424	-2.941040	-140.261307	-2.941040	-140.261307	-3.361621	129.119192
2.600000	-3.302792	126.603136	-2.999136	-142.699874	-2.999136	-142.699874	-3.303212	126.683238
2.650000	-3.247095	124.170247	-3.056247	-145.134450	-3.056247	-145.134450	-3.247522	124.251652
2.700000	-3.193764	121.741010	-3.112503	-147.565770	-3.112503	-147.565770	-3.194196	121.823691
2.750000	-3.142745	119.315227	-3.167862	-149.994077	-3.167862	-149.994077	-3.143183	119.399152
2.800000	-3.093949	116.892640	-3.222310	-152.419664	-3.222310	-152.419664	-3.094393	116.977776
2.850000	-3.047118	114.472725	-3.275951	-154.843051	-3.275951	-154.843051	-3.047569	114.559038
2.900000	-3.002377	112.055561	-3.328636	-157.264260	-3.328636	-157.264260	-3.002835	112.143012
2.950000	-2.959334	109.640470	-3.380579	-159.683907	-3.380579	-159.683907	-2.959798	109.729023
3.000000	-2.918197	107.227627	-3.431573	-162.101961	-3.431573	-162.101961	-2.918667	107.317237
3.050000	-2.878611	104.816472	-3.481826	-164.518913	-3.481826	-164.518913	-2.879087	104.907099
3.100000	-2.840659	102.407008	-3.531223	-166.934867	-3.531223	-166.934867	-2.841142	102.498603
3.150000	-2.804182	99.998964	-3.579841	-169.350092	-3.579841	-169.350092	-2.804672	100.091480
3.200000	-2.769107	97.592176	-3.627693	-171.764783	-3.627693	-171.764783	-2.769603	97.685564
3.250000	-2.735437	95.186569	-3.674729	-174.179097	-3.674729	-174.179097	-2.735940	95.280774
3.300000	-2.702970	92.781892	-3.721081	-176.593225	-3.721081	-176.593225	-2.703480	92.876863
3.350000	-2.671844	90.378194	-3.766585	-179.007296	-3.766585	-179.007296	-2.672360	90.473868
3.400000	-2.641792	87.975216	-3.811441	178.578562	-3.811441	178.578562	-2.642314	88.071538
3.450000	-2.612944	85.573009	-3.855490	176.164214	-3.855490	176.164214	-2.613473	85.669910
3.500000	-2.585119	83.171412	-3.898866	173.749592	-3.898866	173.749592	-2.585655	83.268832
3.550000	-2.558348	80.770423	-3.941503	171.334589	-3.941503	171.334589	-2.558891	80.868291
3.600000	-2.532575	78.369989	-3.983421	168.919145	-3.983421	168.919145	-2.533124	78.468237
3.650000	-2.507738	75.970069	-4.024648	166.503217	-4.024648	166.503217	-2.508293	76.068624
3.700000	-2.483829	73.570659	-4.065158	164.086750	-4.065158	164.086750	-2.484391	73.669446
3.750000	-2.460870	71.171783	-4.104893	161.669676	-4.104893	161.669676	-2.461439	71.270720
3.800000	-2.438773	68.773406	-4.143914	159.252016	-4.143914	159.252016	-2.439348	68.872412
3.850000	-2.417516	66.375536	-4.182213	156.833758	-4.182213	156.833758	-2.418099	66.474531
3.900000	-2.397085	63.978192	-4.219775	154.414897	-4.219775	154.414897	-2.397674	64.077091
3.950000	-2.377465	61.581395	-4.256585	151.995433	-4.256585	151.995433	-2.378061	61.680110
4.000000	-2.358646	59.185171	-4.292621	149.575369	-4.292621	149.575369	-2.359250	59.283613
4.050000	-2.340688	56.789602	-4.327779	147.154663	-4.327779	147.154663	-2.341298	56.887670
4.100000	-2.323544	54.394688	-4.362078	144.733356	-4.362078	144.733356	-2.324162	54.492285
4.150000	-2.307193	52.000442	-4.395515	142.311473	-4.395515	142.311473	-2.307818	52.097469
4.200000	-2.291637	49.606890	-4.428055	139.889019	-4.428055	139.889019	-2.292270	49.703248
4.250000	-2.276884	47.214059	-4.459654	137.465993	-4.459654	137.465993	-2.277526	47.309643
4.300000	-2.262944	44.821967	-4.490268	135.042387	-4.490268	135.042387	-2.263594	44.916671
4.350000	-2.249846	42.430644	-4.519825	132.618176	-4.519825	132.618176	-2.250506	42.524357
4.400000	-2.237676	40.040154	-4.548167	130.193276	-4.548167	130.193276	-2.238345	40.132752
4.450000	-2.226376	37.650416	-4.575346	127.767703	-4.575346	127.767703	-2.227055	37.741782
4.500000	-2.215972	35.261410	-4.601294	125.341395	-4.601294	125.341395	-2.216662	35.351426
4.550000	-2.206493	32.873101	-4.625940	122.914271	-4.625940	122.914271	-2.207194	32.961643
4.600000	-2.197973	30.485439	-4.649206	120.486230	-4.649206	120.486230	-2.198686	30.572380
4.650000	-2.190450	28.098353	-4.671008	118.057146	-4.671008	118.057146	-2.191175	28.183563
4.700000	-2.184038	25.711775	-4.691144	115.626769	-4.691144	115.626769	-2.184777	25.795109
4.750000	-2.178775	23.325559	-4.709534	113.194907	-4.709534	113.194907	-2.179528	23.406870
4.800000	-2.174663	20.939531	-4.726156	110.761391	-4.726156	110.761391	-2.175432	21.018673
4.850000	-2.171763	18.553508	-4.740901	108.325958	-4.740901	108.325958	-2.172548	18.630329
4.900000	-2.170141	16.167273	-4.753655	105.888302	-4.753655	105.888302	-2.170943	16.241617
4.950000	-2.169869	13.780571	-4.764296	103.448077	-4.764296	103.448077	-2.170690	13.852274
5.000000	-2.171028	11.393106	-4.772697	101.004889	-4.772697	101.004889	-2.171870	11.461997
5.050000	-2.173831	9.004426	-4.778530	98.558001	-4.778530	98.558001	-2.174695	9.070312
5.100000	-2.178294	6.614154	-4.781783	96.107060	-4.781783	96.107060	-2.179182	6.676843
5.150000	-2.184534	4.221806	-4.782296	93.651470	-4.782296	93.651470	-2.185448	4.281096
5.200000	-2.192679	1.826831	-4.779898	91.190561	-4.779898	91.190561	-2.193621	1.882509
5.250000	-2.202872	-0.571397	-4.774410	88.723582	-4.774410	88.723582	-2.203845	-0.519558
5.300000	-2.215273	-2.973587	-4.765640	86.249686	-4.765640	86.249686	-2.216278	-2.925828
5.350000	-2.230058	-5.380538	-4.753382	83.767920	-4.753382	83.767920	-2.231100	-5.337115
5.400000	-2.247429	-7.793150	-4.737417	81.277203	-4.737417	81.277203	-2.248510	-7.754339
5.450000	-2.267607	-10.212434	-4.717514	78.776310	-4.717514	78.776310	-2.268732	-10.178531
5.500000	-2.290847	-12.639522	-4.693427	76.263848	-4.693427	76.263848	-2.292019	-12.610847
5.550000	-2.317433	-15.075684	-4.664895	73.738234	-4.664895	73.738234	-2.318658	-15.052582
5.600000	-2.347689	-17.522337	-4.631645	71.197675	-4.631645	71.197675	-2.348971	-17.505184
5.650000	-2.382029	-19.981215	-4.593331	68.639925	-4.593331	68.639925	-2.383376	-19.970428
5.700000	-2.420890	-22.454154	-4.549643	66.062597	-4.549643	66.062597	-2.422308	-22.450189
5.750000	-2.464715	-24.943007	-4.500327	63.463256	-4.500327	63.463256	-2.466213	-24.946365
5.800000	-2.514066	-27.449987	-4.445060	60.838954	-4.445060	60.838954	-2.515654	-27.461220
5.850000	-2.569592	-29.977554	-4.383514	58.186372	-4.383514	58.186372	-2.571282	-29.997279
5.900000	-2.632049	-32.528448	-4.315350	55.501775	-4.315350	55.501775	-2.633854	-32.557354
5.950000	-2.702321	-35.105707	-4.240223	52.780957	-4.240223	52.780957	-2.704258	-35.144571
6.000000	-2.781447	-37.712701	-4.157787	50.019182	-4.157787	50.019182	-2.783534	-37.762402
6.050000	-2.870653	-40.353156	-4.067697	47.211107	-4.067697	47.211107	-2.872913	-40.414693
6.100000	-2.971398	-43.031174	-3.969611	44.350700	-3.969611	44.350700	-2.973860	-43.105696
6.150000	-3.085426	-45.751254	-3.863204	41.431137	-3.863204	41.431137	-3.088123	-45.840084
6.200000	-3.214836	-48.518289	-3.748177	38.444696	-3.748177	38.444696	-3.217811	-48.622970
6.250000	-3.362173	-51.337545	-3.624269	35.382627	-3.624269	35.382627	-3.365478	-51.459885
6.300000	-3.531008	-54.215989	-3.491029	32.232887	-3.491029	32.232887	-3.534710	-54.358186
6.350000	-3.724868	-57.158244	-3.348577	28.985761	-3.348577	28.985761	-3.729054	-57.322884
6.400000	-3.948564	-60.169964	-3.196927	25.628385	-3.196927	25.628385	-3.953344	-60.360183
6.450000	-4.208133	-63.256241	-3.036267	22.146215	-3.036267	22.146215	-4.213655	-63.475891
6.500000	-4.510141	-66.418649	-2.867330	18.527164	-2.867330	18.527164	-4.516599	-66.672370
6.550000	-4.866149	-69.662269	-2.690270	14.745836	-2.690270	14.745836	-4.873819	-69.956221
6.600000	-5.288682	-72.982250	-2.506413	10.783271	-2.506413	10.783271	-5.297956	-73.324342
6.650000	-5.794583	-76.365301	-2.317541	6.617804	-2.317541	6.617804	-5.806035	-76.765976
6.700000	-6.406312	-79.782418	-2.126114	2.226911	-2.126114	2.226911	-6.420817	-80.255768
6.750000	-7.156676	-83.175032	-1.935406	-2.417834	-1.935406	-2.417834	-7.175655	-83.741155
6.800000	-8.090037	-86.428063	-1.749912	-7.339296	-1.749912	-7.339296	-8.115914	-87.116124
6.850000	-9.272537	-89.314143	-1.575360	-12.560573	-1.575360	-12.560573	-9.309820	-90.168657
6.900000	-10.803208	-91.382651	-1.418600	-18.095909	-1.418600	-18.095909	-10.861113	-92.473088
6.950000	-12.845112	-91.514790	-1.288922	-23.965989	-1.288922	-23.965989	-12.945971	-92.956917
7.000000	-15.618584	-86.850970	-1.196097	-30.163836	-1.196097	-30.163836	-15.826024	-88.783909
7.050000	-19.027987	-69.081003	-1.151026	-36.671165	-1.151026	-36.671165	-19.525593	-71.010731
7.100000	-19.992382	-29.797217	-1.164860	-43.449799	-1.164860	-43.449799	-20.652499	-28.457324
7.150000	-16.543446	-2.381624	-1.247773	-50.438731	-1.247773	-50.438731	-16.837624	0.105085
7.200000	-13.022412	5.635355	-1.406987	-57.555437	-1.406987	-57.555437	-13.151697	7.629630
7.250000	-10.341422	5.899978	-1.646487	-64.704751	-1.646487	-64.704751	-10.409887	7.470452
7.300000	-8.310058	3.079931	-1.966157	-71.786658	-1.966157	-71.786658	-8.351580	4.367070
7.350000	-6.743674	-1.099445	-2.361822	-78.705669	-2.361822	-78.705669	-6.771285	-0.005994
7.400000	-5.518618	-5.868469	-2.825219	-85.383497	-2.825219	-85.383497	-5.538196	-4.913997
7.450000	-4.551726	-10.841717	-3.346323	-91.762005	-3.346323	-91.762005	-4.566276	-9.991127
7.500000	-3.783890	-15.806676	-3.914193	-97.805014	-3.914193	-97.805014	-3.795096	-15.036401
7.550000	-3.171892	-20.643055	-4.517928	-103.493861	-4.517928	-103.493861	-3.180764	-19.936533
7.600000	-2.682038	-25.286694	-5.147456	-108.828911	-5.147456	-108.828911	-2.689218	-24.631978
7.650000	-2.287603	-29.710732	-5.794581	-113.826079	-5.794581	-113.826079	-2.293512	-29.099013
7.700000	-1.968878	-33.906089	-6.452351	-118.503541	-6.452351	-118.503541	-1.973808	-33.330598
7.750000	-1.710245	-37.876693	-7.115293	-122.884777	-7.115293	-122.884777	-1.714402	-37.332143
7.800000	-1.499489	-41.633481	-7.779197	-126.994839	-7.779197	-126.994839	-1.503026	-41.115667
7.850000	-1.327045	-45.190979	-8.440918	-130.858679	-8.440918	-130.858679	-1.330074	-44.696504
7.900000	-1.185399	-48.565157	-9.098179	-134.500120	-9.098179	-134.500120	-1.188008	-48.091237
7.950000	-1.068815	-51.770660	-9.748859	-137.939545	-9.748859	-137.939545	-1.071071	-51.314966
8.000000	-0.972445	-54.824064	-10.392185	-141.198423	-10.392185	-141.198423	-0.974402	-54.384655
8.050000	-0.892496	-57.740581	-11.027794	-144.295753	-11.027794	-144.295753	-0.894198	-57.315822
8.100000	-0.826036	-60.533420	-11.655353	-147.247613	-11.655353	-147.247613	-0.827516	-60.121909
8.150000	-0.770712	-63.214549	-12.274748	-150.068265	-12.274748	-150.068265	-0.772000	-62.815079
8.200000	-0.724771	-65.793018	-12.885078	-152.768283	-12.885078	-152.768283	-0.725892	-65.404521
8.250000	-0.686575	-68.279620	-13.486977	-155.360122	-13.486977	-155.360122	-0.687549	-67.901171
8.300000	-0.654397	-70.689505	-14.084764	-157.861303	-14.084764	-157.861303	-0.655241	-70.320353
8.350000	-0.628218	-73.016834	-14.670294	-160.264410	-14.670294	-160.264410	-0.628948	-72.656189
8.400000	-0.606232	-75.282422	-15.253016	-162.593662	-15.253016	-162.593662	-0.606859	-74.929704
8.450000	-0.588493	-77.481061	-15.825353	-164.842146	-15.825353	-164.842146	-0.589029	-77.135653
8.500000	-0.573938	-79.626326	-16.393602	-167.025581	-16.393602	-167.025581	-0.574393	-79.287743
8.550000	-0.562342	-81.718911	-16.954829	-169.144036	-16.954829	-169.144036	-0.562724	-81.386678
8.600000	-0.553260	-83.764196	-17.510046	-171.203354	-17.510046	-171.203354	-0.553576	-83.437891
8.650000	-0.546276	-85.767891	-18.061212	-173.209853	-18.061212	-173.209853	-0.546533	-85.447146
8.700000	-0.541309	-87.729648	-18.604587	-175.162167	-18.604587	-175.162167	-0.541512	-87.414092
8.750000	-0.537855	-89.658526	-19.146463	-177.071199	-19.146463	-177.071199	-0.538009	-89.347872
8.800000	-0.536045	-91.550252	-19.678746	-178.930303	-19.678746	-178.930303	-0.536155	-91.244175
8.850000	-0.535414	-93.414426	-20.209497	179.248426	-20.209497	179.248426	-0.535482	-93.112686
8.900000	-0.536016	-95.249019	-20.732880	177.468619	-20.732880	177.468619	-0.536046	-94.951360
8.950000	-0.537626	-97.058992	-21.252133	175.723992	-21.252133	175.723992	-0.537621	-96.765201
9.000000	-0.540185	-98.845608	-21.765494	174.013245	-21.765494	174.013245	-0.540145	-98.555486
9.050000	-0.543628	-100.610551	-22.271503	172.334131	-22.271503	172.334131	-0.543554	-100.323916
9.100000	-0.547823	-102.357392	-22.772081	170.681175	-22.772081	170.681175	-0.547717	-102.074096
9.150000	-0.552822	-104.085707	-23.260805	169.053849	-23.260805	169.053849	-0.552684	-103.805604
9.200000	-0.558618	-105.797279	-23.733247	167.446325	-23.733247	167.446325	-0.558448	-105.520251
9.250000	-0.564919	-107.499573	-24.202469	165.846223	-24.202469	165.846223	-0.564717	-107.225562
9.300000	-0.571904	-109.190360	-24.654849	164.251663	-24.654849	164.251663	-0.571671	-108.919307
9.350000	-0.579771	-110.871180	-25.074283	162.641614	-25.074283	162.641614	-0.579507	-110.603078
9.400000	-0.588326	-112.548099	-25.470578	160.999324	-25.470578	160.999324	-0.588032	-112.282996
9.450000	-0.597577	-114.222457	-25.840114	159.316724	-25.840114	159.316724	-0.597257	-113.960422
9.500000	-0.608165	-115.899270	-26.144421	157.513401	-26.144421	157.513401	-0.607826	-115.640532
9.550000	-0.620183	-117.584236	-26.382416	155.546406	-26.382416	155.546406	-0.619839	-117.329106
9.600000	-0.634801	-119.289246	-26.507714	153.248817	-26.507714	153.248817	-0.634485	-119.038326
9.650000	-0.653019	-121.023785	-26.500704	150.487866	-26.500704	150.487866	-0.652787	-120.777873
9.700000	-0.679548	-122.819360	-26.260369	146.735592	-26.260369	146.735592	-0.679545	-122.580034
9.750000	-0.721202	-124.701366	-25.726960	141.414099	-25.726960	141.414099	-0.721710	-124.470852
9.800000	-0.805856	-126.725713	-24.702180	132.448926	-24.702180	132.448926	-0.807720	-126.508033
9.850000	-1.002568	-128.751562	-23.140533	115.723446	-23.140533	115.723446	-1.008152	-128.549805
9.900000	-1.379732	-128.988669	-22.023321	81.202042	-22.023321	81.202042	-1.394569	-128.770953
9.950000	-1.259194	-127.261340	-24.719469	37.542809	-24.719469	37.542809	-1.273380	-126.957995
10.000000	-0.970793	-128.496214	-29.551712	10.467813	-29.551712	10.467813	-0.977121	-128.177910
