! freq	dB(S11)	phase(S11)	dB(S12)	phase(S12)	
!     	dB(S21)	phase(S21)	dB(S22)	phase(S22)	
!S-par simulation data
#  GHz  S  DB  R 50
0.000000	-0.000000	0.000000	-335.936481	0.000000	-335.936481	0.000000	-0.000000	0.000000
0.050000	-0.011619	-1.848252	-94.358127	84.264382	-94.358127	84.264382	-0.011789	-1.849569
0.100000	-0.015102	-3.761941	-88.457681	84.310921	-88.457681	84.310921	-0.015183	-3.764260
0.150000	-0.016384	-5.666572	-85.006044	83.140192	-85.006044	83.140192	-0.016433	-5.669648
0.200000	-0.017362	-7.566313	-82.583639	81.670337	-82.583639	81.670337	-0.017398	-7.570171
0.250000	-0.018357	-9.462697	-80.739779	80.085498	-80.739779	80.085498	-0.018386	-9.467363
0.300000	-0.019461	-11.356255	-79.271507	78.458880	-79.271507	78.458880	-0.019487	-11.361746
0.350000	-0.020692	-13.247307	-78.065830	76.828320	-78.065830	76.828320	-0.020715	-13.253632
0.400000	-0.022071	-15.135400	-77.066068	75.216877	-77.066068	75.216877	-0.022094	-15.142565
0.450000	-0.023572	-17.020856	-76.220194	73.636483	-76.220194	73.636483	-0.023594	-17.028861
0.500000	-0.025213	-18.902881	-75.512200	72.109629	-75.512200	72.109629	-0.025235	-18.911727
0.550000	-0.026962	-20.781810	-74.911571	70.640948	-74.911571	70.640948	-0.026983	-20.791496
0.600000	-0.028821	-22.657023	-74.411599	69.253130	-74.411599	69.253130	-0.028843	-22.667545
0.650000	-0.030774	-24.528513	-73.998165	67.957660	-73.998165	67.957660	-0.030796	-24.539868
0.700000	-0.032809	-26.396069	-73.663756	66.773278	-73.663756	66.773278	-0.032832	-26.408253
0.750000	-0.034920	-28.259252	-73.406314	65.729420	-73.406314	65.729420	-0.034942	-28.272259
0.800000	-0.037087	-30.118370	-73.214252	64.834879	-73.214252	64.834879	-0.037110	-30.132193
0.850000	-0.039309	-31.972459	-73.095496	64.153557	-73.095496	64.153557	-0.039334	-31.987093
0.900000	-0.041569	-33.822247	-73.035268	63.684034	-73.035268	63.684034	-0.041595	-33.837684
0.950000	-0.043863	-35.666738	-73.042238	63.520012	-73.042238	63.520012	-0.043890	-35.682970
1.000000	-0.046178	-37.506455	-73.105783	63.680260	-73.105783	63.680260	-0.046207	-37.523474
1.050000	-0.048509	-39.340866	-73.227057	64.268297	-73.227057	64.268297	-0.048539	-39.358663
1.100000	-0.050848	-41.169945	-73.399910	65.366652	-73.399910	65.366652	-0.050880	-41.188511
1.150000	-0.053190	-42.993781	-73.614143	67.062097	-73.614143	67.062097	-0.053223	-43.013108
1.200000	-0.055528	-44.811737	-73.858264	69.546731	-73.858264	69.546731	-0.055563	-44.831813
1.250000	-0.057859	-46.624576	-74.108807	72.823464	-74.108807	72.823464	-0.057896	-46.645393
1.300000	-0.060176	-48.430996	-74.326007	77.203030	-74.326007	77.203030	-0.060215	-48.452543
1.350000	-0.062480	-50.232136	-74.473387	82.518203	-74.473387	82.518203	-0.062520	-50.254403
1.400000	-0.064764	-52.027019	-74.478388	88.826700	-74.478388	88.826700	-0.064807	-52.049995
1.450000	-0.067029	-53.816147	-74.301993	95.777007	-74.301993	95.777007	-0.067074	-53.839821
1.500000	-0.069273	-55.599227	-73.903360	102.944363	-73.903360	102.944363	-0.069319	-55.623590
1.550000	-0.071493	-57.376090	-73.280609	109.820169	-73.280609	109.820169	-0.071540	-57.401130
1.600000	-0.073691	-59.147160	-72.487748	116.021869	-72.487748	116.021869	-0.073740	-59.172866
1.650000	-0.075863	-60.911565	-71.549189	121.191441	-71.549189	121.191441	-0.075913	-60.937926
1.700000	-0.078013	-62.670234	-70.550774	125.413460	-70.550774	125.413460	-0.078065	-62.697239
1.750000	-0.080139	-64.422505	-69.516897	128.639103	-69.516897	128.639103	-0.080192	-64.450143
1.800000	-0.082242	-66.168537	-68.483487	131.013837	-68.483487	131.013837	-0.082297	-66.196798
1.850000	-0.084323	-67.908318	-67.469840	132.668501	-67.469840	132.668501	-0.084379	-67.937190
1.900000	-0.086383	-69.641771	-66.486244	133.721099	-66.486244	133.721099	-0.086440	-69.671245
1.950000	-0.088422	-71.368898	-65.538623	134.281308	-65.538623	134.281308	-0.088481	-71.398962
2.000000	-0.090443	-73.089773	-64.629912	134.442944	-64.629912	134.442944	-0.090503	-73.120416
2.050000	-0.092447	-74.804408	-63.760152	134.276995	-63.760152	134.276995	-0.092508	-74.835619
2.100000	-0.094436	-76.512822	-62.928265	133.840685	-62.928265	133.840685	-0.094497	-76.544592
2.150000	-0.096410	-78.215041	-62.132581	133.180062	-62.132581	133.180062	-0.096472	-78.247359
2.200000	-0.098372	-79.911096	-61.371161	132.332243	-61.371161	132.332243	-0.098434	-79.943952
2.250000	-0.100323	-81.601025	-60.641982	131.327272	-60.641982	131.327272	-0.100386	-81.634408
2.300000	-0.102265	-83.284870	-59.943050	130.189600	-59.943050	130.189600	-0.102328	-83.318772
2.350000	-0.104200	-84.962681	-59.272453	128.939245	-59.272453	128.939245	-0.104263	-84.997092
2.400000	-0.106129	-86.634514	-58.628395	127.592700	-58.628395	127.592700	-0.106193	-86.669423
2.450000	-0.108054	-88.300430	-58.009205	126.163642	-58.009205	126.163642	-0.108118	-88.335828
2.500000	-0.109976	-89.960494	-57.413338	124.663484	-57.413338	124.663484	-0.110041	-89.996372
2.550000	-0.111898	-91.614656	-56.839029	123.100662	-56.839029	123.100662	-0.111963	-91.651005
2.600000	-0.113821	-93.263119	-56.285378	121.484728	-56.285378	121.484728	-0.113886	-93.299930
2.650000	-0.115747	-94.905968	-55.751181	119.822489	-55.751181	119.822489	-0.115811	-94.943232
2.700000	-0.117677	-96.543291	-55.235333	118.119765	-55.235333	118.119765	-0.117741	-96.580999
2.750000	-0.119612	-98.174889	-54.736202	116.379798	-54.736202	116.379798	-0.119677	-98.213034
2.800000	-0.121555	-99.801394	-54.254030	114.610342	-54.254030	114.610342	-0.121619	-99.839966
2.850000	-0.123507	-101.422670	-53.787420	112.813516	-53.787420	112.813516	-0.123571	-101.461661
2.900000	-0.125468	-103.038825	-53.335581	110.992572	-53.335581	110.992572	-0.125532	-103.078229
2.950000	-0.127441	-104.649973	-52.897785	109.150355	-52.897785	109.150355	-0.127505	-104.689781
3.000000	-0.129427	-106.256230	-52.473357	107.289364	-52.473357	107.289364	-0.129490	-106.296435
3.050000	-0.131427	-107.857719	-52.061674	105.411800	-52.061674	105.411800	-0.131490	-107.898313
3.100000	-0.133442	-109.454563	-51.662157	103.519610	-51.662157	103.519610	-0.133504	-109.495540
3.150000	-0.135473	-111.046894	-51.274270	101.614519	-51.274270	101.614519	-0.135535	-111.088247
3.200000	-0.137521	-112.634845	-50.897513	99.698063	-50.897513	99.698063	-0.137584	-112.676567
3.250000	-0.139588	-114.218554	-50.531421	97.771609	-50.531421	97.771609	-0.139650	-114.260637
3.300000	-0.141675	-115.798161	-50.175559	95.836382	-50.175559	95.836382	-0.141737	-115.840601
3.350000	-0.143782	-117.373811	-49.829522	93.893476	-49.829522	93.893476	-0.143844	-117.416601
3.400000	-0.145911	-118.945654	-49.492928	91.943875	-49.492928	91.943875	-0.145972	-118.988788
3.450000	-0.148062	-120.513840	-49.165423	89.988463	-49.165423	89.988463	-0.148123	-120.557312
3.500000	-0.150236	-122.078525	-48.846672	88.028038	-48.846672	88.028038	-0.150296	-122.122329
3.550000	-0.152434	-123.639866	-48.536360	86.063317	-48.536360	86.063317	-0.152494	-123.683998
3.600000	-0.154657	-125.198025	-48.234192	84.094949	-48.234192	84.094949	-0.154717	-125.242479
3.650000	-0.156905	-126.753165	-47.939891	82.123519	-47.939891	82.123519	-0.156965	-126.797936
3.700000	-0.159180	-128.305454	-47.653192	80.149560	-47.653192	80.149560	-0.159239	-128.350538
3.750000	-0.161481	-129.855062	-47.373850	78.173549	-47.373850	78.173549	-0.161539	-129.900453
3.800000	-0.163810	-131.402059	-47.101569	76.195870	-47.101569	76.195870	-0.163869	-131.447753
3.850000	-0.166168	-132.946738	-46.836207	74.217000	-46.836207	74.217000	-0.166226	-132.992730
3.900000	-0.168554	-134.489275	-46.577555	72.237290	-46.577555	72.237290	-0.168611	-134.535562
3.950000	-0.170968	-136.029851	-46.325412	70.257058	-46.325412	70.257058	-0.171026	-136.076429
4.000000	-0.173412	-137.568649	-46.079592	68.276592	-46.079592	68.276592	-0.173470	-137.615514
4.050000	-0.175886	-139.105852	-45.839914	66.296153	-45.839914	66.296153	-0.175943	-139.153000
4.100000	-0.178390	-140.641647	-45.606211	64.315976	-45.606211	64.315976	-0.178447	-140.689075
4.150000	-0.180924	-142.176222	-45.378323	62.336273	-45.378323	62.336273	-0.180980	-142.223926
4.200000	-0.183488	-143.709767	-45.156097	60.357236	-45.156097	60.357236	-0.183545	-143.757746
4.250000	-0.186084	-145.242476	-44.939391	58.379037	-44.939391	58.379037	-0.186140	-145.290725
4.300000	-0.188710	-146.774541	-44.728069	56.401833	-44.728069	56.401833	-0.188766	-146.823059
4.350000	-0.191368	-148.306159	-44.522003	54.425763	-44.522003	54.425763	-0.191424	-148.354942
4.400000	-0.194057	-149.837527	-44.321070	52.450954	-44.321070	52.450954	-0.194113	-149.886573
4.450000	-0.196778	-151.368844	-44.125156	50.477518	-44.125156	50.477518	-0.196833	-151.418151
4.500000	-0.199530	-152.900311	-43.934152	48.505557	-43.934152	48.505557	-0.199585	-152.949876
4.550000	-0.202313	-154.432128	-43.747957	46.535165	-43.747957	46.535165	-0.202368	-154.481950
4.600000	-0.205128	-155.964500	-43.566473	44.566423	-43.566473	44.566423	-0.205182	-156.014577
4.650000	-0.207974	-157.497631	-43.389609	42.599409	-43.389609	42.599409	-0.208029	-157.547962
4.700000	-0.210852	-159.031727	-43.217281	40.634192	-43.217281	40.634192	-0.210906	-159.082309
4.750000	-0.213761	-160.566995	-43.049408	38.670836	-43.049408	38.670836	-0.213815	-160.617827
4.800000	-0.216701	-162.103642	-42.885915	36.709403	-42.885915	36.709403	-0.216755	-162.154723
4.850000	-0.219672	-163.641878	-42.726732	34.749950	-42.726732	34.749950	-0.219725	-163.693207
4.900000	-0.222674	-165.181912	-42.571794	32.792533	-42.571794	32.792533	-0.222726	-165.233488
4.950000	-0.225706	-166.723956	-42.421040	30.837208	-42.421040	30.837208	-0.225758	-166.775778
5.000000	-0.228768	-168.268222	-42.274413	28.884031	-42.274413	28.884031	-0.228820	-168.320289
5.050000	-0.231861	-169.815036	-42.131940	26.933159	-42.131940	26.933159	-0.231912	-169.867348
5.100000	-0.234983	-171.364516	-41.993502	24.984560	-41.993502	24.984560	-0.235034	-171.417072
5.150000	-0.238134	-172.916876	-41.859057	23.038298	-41.859057	23.038298	-0.238185	-172.969676
5.200000	-0.241314	-174.472330	-41.728565	21.094446	-41.728565	21.094446	-0.241364	-174.525372
5.250000	-0.244521	-176.031092	-41.601990	19.153079	-41.601990	19.153079	-0.244572	-176.084377
5.300000	-0.247756	-177.593376	-41.479300	17.214284	-41.479300	17.214284	-0.247806	-177.646904
5.350000	-0.251018	-179.159399	-41.360467	15.278153	-41.360467	15.278153	-0.251067	-179.213170
5.400000	-0.254306	179.270626	-41.245464	13.344791	-41.245464	13.344791	-0.254355	179.216613
5.450000	-0.257620	177.696484	-41.134271	11.414312	-41.134271	11.414312	-0.257668	177.642227
5.500000	-0.260958	176.117959	-41.026869	9.486844	-41.026869	9.486844	-0.261006	176.063459
5.550000	-0.264321	174.534836	-40.923242	7.562528	-40.923242	7.562528	-0.264368	174.480093
5.600000	-0.267707	172.946903	-40.823377	5.641520	-40.823377	5.641520	-0.267754	172.891916
5.650000	-0.271116	171.353944	-40.727264	3.723991	-40.727264	3.723991	-0.271162	171.298714
5.700000	-0.274546	169.755748	-40.634895	1.810132	-40.634895	1.810132	-0.274591	169.700273
5.750000	-0.277998	168.152102	-40.546266	-0.099851	-40.546266	-0.099851	-0.278042	168.096382
5.800000	-0.281469	166.542794	-40.461371	-2.005730	-40.461371	-2.005730	-0.281512	166.486829
5.850000	-0.284959	164.927615	-40.380211	-3.907256	-40.380211	-3.907256	-0.285002	164.871404
5.900000	-0.288467	163.306355	-40.302785	-5.804160	-40.302785	-5.804160	-0.288509	163.249899
5.950000	-0.291992	161.678808	-40.229094	-7.696148	-40.229094	-7.696148	-0.292034	161.622104
6.000000	-0.295533	160.044767	-40.159143	-9.582903	-40.159143	-9.582903	-0.295574	159.987816
6.050000	-0.299089	158.404028	-40.092935	-11.464079	-40.092935	-11.464079	-0.299129	158.346830
6.100000	-0.302659	156.756390	-40.030474	-13.339309	-40.030474	-13.339309	-0.302697	156.698943
6.150000	-0.306241	155.101652	-39.971765	-15.208193	-39.971765	-15.208193	-0.306278	155.043957
6.200000	-0.309834	153.439619	-39.916814	-17.070307	-39.916814	-17.070307	-0.309871	153.381674
6.250000	-0.313437	151.770094	-39.865625	-18.925194	-39.865625	-18.925194	-0.313473	151.711900
6.300000	-0.317050	150.092543	-39.818357	-20.772008	-39.818357	-20.772008	-0.317085	150.034100
6.350000	-0.320670	148.407105	-39.774863	-22.610541	-39.774863	-22.610541	-0.320703	148.348412
6.400000	-0.324296	146.713595	-39.735144	-24.440239	-39.735144	-24.440239	-0.324328	146.654651
6.450000	-0.327926	145.011832	-39.699201	-26.260515	-39.699201	-26.260515	-0.327958	144.952638
6.500000	-0.331560	143.301640	-39.667030	-28.070748	-39.667030	-28.070748	-0.331591	143.242196
6.550000	-0.335197	141.582846	-39.638627	-29.870282	-39.638627	-29.870282	-0.335226	141.523153
6.600000	-0.338833	139.855284	-39.613985	-31.658430	-39.613985	-31.658430	-0.338862	139.795340
6.650000	-0.342470	138.118790	-39.593091	-33.434467	-39.593091	-33.434467	-0.342497	138.058598
6.700000	-0.346104	136.373208	-39.575931	-35.197634	-39.575931	-35.197634	-0.346131	136.312767
6.750000	-0.349735	134.618387	-39.562484	-36.947138	-39.562484	-36.947138	-0.349761	134.557698
6.800000	-0.353361	132.854180	-39.552725	-38.682151	-39.552725	-38.682151	-0.353386	132.793244
6.850000	-0.356980	131.080450	-39.546624	-40.401809	-39.546624	-40.401809	-0.357005	131.019267
6.900000	-0.360593	129.297063	-39.544144	-42.105217	-39.544144	-42.105217	-0.360616	129.235635
6.950000	-0.364197	127.503895	-39.545240	-43.791444	-39.545240	-43.791444	-0.364219	127.442224
7.000000	-0.367790	125.700828	-39.549861	-45.459530	-39.549861	-45.459530	-0.367812	125.638915
7.050000	-0.371373	123.887752	-39.557948	-47.108481	-39.557948	-47.108481	-0.371394	123.825600
7.100000	-0.374944	122.065456	-39.569145	-48.739139	-39.569145	-48.739139	-0.374964	122.003065
7.150000	-0.378500	120.231964	-39.583989	-50.346585	-39.583989	-50.346585	-0.378520	120.169337
7.200000	-0.382042	118.388182	-39.602058	-51.931731	-39.602058	-51.931731	-0.382061	118.325323
7.250000	-0.385567	116.534039	-39.623250	-53.493483	-39.623250	-53.493483	-0.385587	116.470949
7.300000	-0.389077	114.669469	-39.647452	-55.030729	-39.647452	-55.030729	-0.389096	114.606152
7.350000	-0.392569	112.794420	-39.674534	-56.542345	-39.674534	-56.542345	-0.392587	112.730879
7.400000	-0.396042	110.908849	-39.704354	-58.027196	-39.704354	-58.027196	-0.396061	110.845087
7.450000	-0.399497	109.012724	-39.736753	-59.484149	-39.736753	-59.484149	-0.399516	108.948745
7.500000	-0.402933	107.106024	-39.771557	-60.912074	-39.771557	-60.912074	-0.402952	107.041833
7.550000	-0.406348	105.188513	-39.808611	-62.309178	-39.808611	-62.309178	-0.406368	105.124114
7.600000	-0.409744	103.260424	-39.847653	-63.674999	-39.847653	-63.674999	-0.409764	103.195822
7.650000	-0.413119	101.321775	-39.888451	-65.008487	-39.888451	-65.008487	-0.413140	101.256975
7.700000	-0.416475	99.372598	-39.930751	-66.308635	-39.930751	-66.308635	-0.416496	99.307604
7.750000	-0.419811	97.412935	-39.974278	-67.574503	-39.974278	-67.574503	-0.419833	97.347754
7.800000	-0.423128	95.442845	-40.018736	-68.805227	-40.018736	-68.805227	-0.423151	95.377481
7.850000	-0.426427	93.462399	-40.063805	-70.000042	-40.063805	-70.000042	-0.426451	93.396859
7.900000	-0.429707	91.471682	-40.109144	-71.158301	-40.109144	-71.158301	-0.429733	91.405972
7.950000	-0.432972	89.470795	-40.154388	-72.279493	-40.154388	-72.279493	-0.432999	89.404921
8.000000	-0.436220	87.459852	-40.199152	-73.363272	-40.199152	-73.363272	-0.436250	87.393821
8.050000	-0.439456	85.438982	-40.243027	-74.409477	-40.243027	-74.409477	-0.439487	85.372801
8.100000	-0.442679	83.408330	-40.285588	-75.418159	-40.285588	-75.418159	-0.442713	83.342005
8.150000	-0.445892	81.367952	-40.326367	-76.389210	-40.326367	-76.389210	-0.445928	81.301490
8.200000	-0.449097	79.318028	-40.364889	-77.323217	-40.364889	-77.323217	-0.449137	79.251437
8.250000	-0.452298	77.258854	-40.400709	-78.221454	-40.400709	-78.221454	-0.452340	77.192140
8.300000	-0.455497	75.190634	-40.433355	-79.085107	-40.433355	-79.085107	-0.455542	75.123805
8.350000	-0.458696	73.113589	-40.462353	-79.915700	-40.462353	-79.915700	-0.458746	73.046652
8.400000	-0.461901	71.027953	-40.487238	-80.715112	-40.487238	-80.715112	-0.461954	70.960914
8.450000	-0.465113	68.933975	-40.507557	-81.485587	-40.507557	-81.485587	-0.465171	68.866842
8.500000	-0.468338	66.831919	-40.522879	-82.229739	-40.522879	-82.229739	-0.468400	66.764698
8.550000	-0.471580	64.722063	-40.532802	-82.950549	-40.532802	-82.950549	-0.471647	64.654761
8.600000	-0.474844	62.604697	-40.536961	-83.651352	-40.536961	-83.651352	-0.474915	62.537320
8.650000	-0.478134	60.480127	-40.535039	-84.335816	-40.535039	-84.335816	-0.478210	60.412680
8.700000	-0.481455	58.348669	-40.526773	-85.007911	-40.526773	-85.007911	-0.481537	58.281159
8.750000	-0.484814	56.210653	-40.511962	-85.671866	-40.511962	-85.671866	-0.484902	56.143084
8.800000	-0.488217	54.066294	-40.490325	-86.332145	-40.490325	-86.332145	-0.488311	53.998670
8.850000	-0.491669	51.916087	-40.461953	-86.993521	-40.461953	-86.993521	-0.491770	51.848412
8.900000	-0.495177	49.760396	-40.426869	-87.660662	-40.426869	-87.660662	-0.495285	49.692674
8.950000	-0.498748	47.599594	-40.385183	-88.338239	-40.385183	-88.338239	-0.498863	47.531828
9.000000	-0.502388	45.434065	-40.337080	-89.030854	-40.337080	-89.030854	-0.502511	45.366255
9.050000	-0.506105	43.264199	-40.282830	-89.742958	-40.282830	-89.742958	-0.506237	43.196346
9.100000	-0.509907	41.090393	-40.222776	-90.478788	-40.222776	-90.478788	-0.510047	41.022498
9.150000	-0.513800	38.913053	-40.157333	-91.242294	-40.157333	-91.242294	-0.513949	38.845113
9.200000	-0.517793	36.732588	-40.086978	-92.037079	-40.086978	-92.037079	-0.517951	36.664601
9.250000	-0.521894	34.549414	-40.012247	-92.866351	-40.012247	-92.866351	-0.522061	34.481375
9.300000	-0.526110	32.363948	-39.933721	-93.732879	-39.933721	-93.732879	-0.526288	32.295854
9.350000	-0.530451	30.176613	-39.852018	-94.638961	-39.852018	-94.638961	-0.530640	30.108456
9.400000	-0.534927	27.987820	-39.767753	-95.586870	-39.767753	-95.586870	-0.535126	27.919592
9.450000	-0.539545	25.798008	-39.681608	-96.577945	-39.681608	-96.577945	-0.539756	25.729700
9.500000	-0.544314	23.607617	-39.594288	-97.612515	-39.594288	-97.612515	-0.544538	23.539217
9.550000	-0.549242	21.417070	-39.506456	-98.690873	-39.506456	-98.690873	-0.549479	21.348564
9.600000	-0.554339	19.226785	-39.418763	-99.812852	-39.418763	-99.812852	-0.554589	19.158159
9.650000	-0.559612	17.037182	-39.331840	-100.977845	-39.331840	-100.977845	-0.559876	16.968418
9.700000	-0.565072	14.848671	-39.246289	-102.184840	-39.246289	-102.184840	-0.565350	14.779751
9.750000	-0.570725	12.661662	-39.162679	-103.432461	-39.162679	-103.432461	-0.571019	12.592564
9.800000	-0.576583	10.476555	-39.081539	-104.719001	-39.081539	-104.719001	-0.576893	10.407256
9.850000	-0.582653	8.293746	-39.003357	-106.042470	-39.003357	-106.042470	-0.582980	8.224221
9.900000	-0.588944	6.113621	-38.928576	-107.400635	-38.928576	-107.400635	-0.589289	6.043842
9.950000	-0.595464	3.936560	-38.857590	-108.791065	-38.857590	-108.791065	-0.595828	3.866495
10.000000	-0.602223	1.762929	-38.790746	-110.211169	-38.790746	-110.211169	-0.602606	1.692547
