! freq	dB(S11)	phase(S11)	dB(S12)	phase(S12)	
!     	dB(S21)	phase(S21)	dB(S22)	phase(S22)	
!S-par simulation data
#  GHz  S  DB  R 50
0.000000	-83.600555	0.000000	-0.000574	0.000000	-0.000574	0.000000	-83.600555	0.000000
0.050000	-46.008182	-92.154435	-0.003822	-2.582616	-0.003822	-2.582616	-46.001396	-91.268852
0.100000	-40.002135	-95.470689	-0.009879	-5.135751	-0.009879	-5.135751	-39.992666	-93.704132
0.150000	-36.506331	-98.561692	-0.015150	-7.669406	-0.015150	-7.669406	-36.493768	-95.918810
0.200000	-34.047523	-101.614657	-0.019295	-10.196487	-0.019295	-10.196487	-34.032209	-98.094375
0.250000	-32.164332	-104.662474	-0.022806	-12.722334	-0.022806	-12.722334	-32.146881	-100.257000
0.300000	-30.650744	-107.713218	-0.026072	-15.248422	-0.026072	-15.248422	-30.631756	-102.408979
0.350000	-29.398746	-110.770216	-0.029312	-17.774999	-0.029312	-17.774999	-29.378724	-104.547629
0.400000	-28.340822	-113.835378	-0.032635	-20.301943	-0.032635	-20.301943	-28.320153	-106.671073
0.450000	-27.434813	-116.910935	-0.036083	-22.829123	-0.036083	-22.829123	-27.413796	-108.777056
0.500000	-26.653982	-120.000116	-0.039672	-25.356452	-0.039672	-25.356452	-26.632862	-110.862376
0.550000	-25.976668	-123.105506	-0.043388	-27.883891	-0.043388	-27.883891	-25.955640	-112.925251
0.600000	-25.387622	-126.230146	-0.047207	-30.411469	-0.047207	-30.411469	-25.366847	-114.963375
0.650000	-24.877116	-129.378406	-0.051103	-32.939283	-0.051103	-32.939283	-24.856741	-116.972961
0.700000	-24.436873	-132.554683	-0.055040	-35.467487	-0.055040	-35.467487	-24.417032	-118.950398
0.750000	-24.059356	-135.762978	-0.058981	-37.996273	-0.058981	-37.996273	-24.040171	-120.892570
0.800000	-23.740329	-139.009192	-0.062890	-40.525898	-0.062890	-40.525898	-23.721921	-122.794328
0.850000	-23.477732	-142.301450	-0.066730	-43.056717	-0.066730	-43.056717	-23.460229	-124.648330
0.900000	-23.266926	-145.645395	-0.070467	-45.589034	-0.070467	-45.589034	-23.250454	-126.449865
0.950000	-23.106127	-149.049730	-0.074074	-48.123237	-0.074074	-48.123237	-23.090815	-128.191079
1.000000	-22.996817	-152.529215	-0.077512	-50.659903	-0.077512	-50.659903	-22.982816	-129.858190
1.050000	-22.936332	-156.093666	-0.080768	-53.199415	-0.080768	-53.199415	-22.923796	-131.442292
1.100000	-22.924664	-159.758167	-0.083824	-55.742276	-0.083824	-55.742276	-22.913763	-132.929221
1.150000	-22.964469	-163.546783	-0.086661	-58.289194	-0.086661	-58.289194	-22.955398	-134.296020
1.200000	-23.056439	-167.483089	-0.089278	-60.840730	-0.089278	-60.840730	-23.049413	-135.520042
1.250000	-23.201471	-171.594607	-0.091683	-63.397411	-0.091683	-63.397411	-23.196725	-136.574553
1.300000	-23.403128	-175.924700	-0.093881	-65.960000	-0.093881	-65.960000	-23.400930	-137.417132
1.350000	-23.665403	179.468581	-0.095889	-68.529320	-0.095889	-68.529320	-23.666047	-137.990556
1.400000	-23.989582	174.527810	-0.097745	-71.105822	-0.097745	-71.105822	-23.993376	-138.237557
1.450000	-24.379048	169.165034	-0.099485	-73.690220	-0.099485	-73.690220	-24.386299	-138.070283
1.500000	-24.838354	163.229867	-0.101156	-76.283696	-0.101156	-76.283696	-24.849307	-137.338281
1.550000	-25.364294	156.588974	-0.102824	-78.886507	-0.102824	-78.886507	-25.379029	-135.906670
1.600000	-25.950794	149.036222	-0.104556	-81.499345	-0.104556	-81.499345	-25.969023	-133.567516
1.650000	-26.578933	140.245483	-0.106444	-84.123398	-0.106444	-84.123398	-26.599503	-129.992608
1.700000	-27.208084	129.958709	-0.108576	-86.758857	-0.108576	-86.758857	-27.228459	-124.923109
1.750000	-27.759400	117.853129	-0.111066	-89.406710	-0.111066	-89.406710	-27.774723	-118.041801
1.800000	-28.114281	103.897455	-0.114033	-92.067473	-0.114033	-92.067473	-28.117479	-109.336117
1.850000	-28.136135	88.545943	-0.117609	-94.741736	-0.117609	-94.741736	-28.120161	-99.293072
1.900000	-27.736698	72.838445	-0.121943	-97.430117	-0.121943	-97.430117	-27.698740	-88.981019
1.950000	-26.943376	58.004183	-0.127194	-100.133102	-0.127194	-100.133102	-26.886790	-79.626631
2.000000	-25.878119	44.829580	-0.133526	-102.851021	-0.133526	-102.851021	-25.809528	-71.988290
2.050000	-24.675284	33.505748	-0.141116	-105.584201	-0.141116	-105.584201	-24.600841	-66.230964
2.100000	-23.434644	23.846598	-0.150152	-108.332881	-0.150152	-108.332881	-23.358536	-62.155568
2.150000	-22.214776	15.539819	-0.160833	-111.097205	-0.160833	-111.097205	-22.139392	-59.446831
2.200000	-21.044450	8.285367	-0.173366	-113.877249	-0.173366	-113.877249	-20.970992	-57.806195
2.250000	-19.935165	1.837643	-0.187979	-116.673016	-0.187979	-116.673016	-19.864150	-56.990660
2.300000	-18.890325	-3.999519	-0.204871	-119.484174	-0.204871	-119.484174	-18.821897	-56.806063
2.350000	-17.908135	-9.366394	-0.224262	-122.310389	-0.224262	-122.310389	-17.842255	-57.113543
2.400000	-16.984971	-14.367359	-0.246373	-125.151189	-0.246373	-125.151189	-16.921514	-57.809407
2.450000	-16.116616	-19.080364	-0.271422	-128.005969	-0.271422	-128.005969	-16.055418	-58.815729
2.500000	-15.298844	-23.564064	-0.299626	-130.873976	-0.299626	-130.873976	-15.239735	-60.073307
2.550000	-14.527459	-27.861375	-0.331233	-133.754442	-0.331233	-133.754442	-14.470270	-61.538388
2.600000	-13.799177	-32.008605	-0.366412	-136.646181	-0.366412	-136.646181	-13.743747	-63.172920
2.650000	-13.110761	-36.031892	-0.405356	-139.548015	-0.405356	-139.548015	-13.056939	-64.948868
2.700000	-12.459345	-39.951575	-0.448243	-142.458632	-0.448243	-142.458632	-12.406990	-66.843637
2.750000	-11.842391	-43.783562	-0.495237	-145.376594	-0.495237	-145.376594	-11.791374	-68.838745
2.800000	-11.257653	-47.540329	-0.546486	-148.300347	-0.546486	-148.300347	-11.207855	-70.918848
2.850000	-10.703096	-51.231207	-0.602148	-151.228249	-0.602148	-151.228249	-10.654407	-73.071523
2.900000	-10.177004	-54.864308	-0.662307	-154.158502	-0.662307	-154.158502	-10.129321	-75.285227
2.950000	-9.677793	-58.445766	-0.727033	-157.089266	-0.727033	-157.089266	-9.631021	-77.550274
3.000000	-9.204018	-61.980209	-0.796381	-160.018655	-0.796381	-160.018655	-9.158067	-79.858358
3.050000	-8.754362	-65.471196	-0.870383	-162.944746	-0.870383	-162.944746	-8.709149	-82.202134
3.100000	-8.327619	-68.921430	-0.949042	-165.865591	-0.949042	-165.865591	-8.283068	-84.575049
3.150000	-7.922693	-72.332723	-1.032358	-168.779195	-1.032358	-168.779195	-7.878731	-86.971311
3.200000	-7.538562	-75.706557	-1.120278	-171.683597	-1.120278	-171.683597	-7.495123	-89.385515
3.250000	-7.174242	-79.044159	-1.212707	-174.576946	-1.212707	-174.576946	-7.131264	-91.812722
3.300000	-6.828817	-82.346211	-1.309546	-177.457408	-1.309546	-177.457408	-6.786241	-94.248549
3.350000	-6.501550	-85.612286	-1.410744	179.677174	-1.410744	179.677174	-6.459322	-96.689035
3.400000	-6.191387	-88.844139	-1.516021	176.827818	-1.516021	176.827818	-6.149460	-99.130389
3.450000	-5.897628	-92.041202	-1.625272	173.996371	-1.625272	173.996371	-5.855958	-101.569406
3.500000	-5.619512	-95.203490	-1.738316	171.184289	-1.738316	171.184289	-5.578058	-104.003096
3.550000	-5.356304	-98.330969	-1.854956	168.392909	-1.854956	168.392909	-5.315030	-106.428759
3.600000	-5.107297	-101.423586	-1.974980	165.623438	-1.974980	165.623438	-5.066172	-108.843969
3.650000	-4.871811	-104.481299	-2.098167	162.876949	-2.098167	162.876949	-4.830805	-111.246564
3.700000	-4.649185	-107.504094	-2.224287	160.154380	-2.224287	160.154380	-4.608275	-113.634632
3.750000	-4.438784	-110.492004	-2.353102	157.456529	-2.353102	157.456529	-4.397950	-116.006495
3.800000	-4.240142	-113.444362	-2.484376	154.784624	-2.484376	154.784624	-4.199364	-118.360288
3.850000	-4.052516	-116.362084	-2.617849	152.138647	-2.617849	152.138647	-4.011781	-120.695140
3.900000	-3.875333	-119.245397	-2.753278	149.518988	-2.753278	149.518988	-3.834630	-123.010022
3.950000	-3.708046	-122.094601	-2.890424	146.925912	-2.890424	146.925912	-3.667365	-125.304096
4.000000	-3.550125	-124.910067	-3.029048	144.359566	-3.029048	144.359566	-3.509462	-127.576697
4.050000	-3.401066	-127.692239	-3.168920	141.819988	-3.168920	141.819988	-3.360416	-129.827321
4.100000	-3.260384	-130.441626	-3.309813	139.307108	-3.309813	139.307108	-3.219747	-132.055613
4.150000	-3.127617	-133.158806	-3.451507	136.820764	-3.451507	136.820764	-3.086993	-134.261356
4.200000	-3.002324	-135.844412	-3.593791	134.360704	-3.593791	134.360704	-2.961716	-136.444460
4.250000	-2.884085	-138.499135	-3.736462	131.926596	-3.736462	131.926596	-2.843496	-138.604947
4.300000	-2.772499	-141.123713	-3.879325	129.518039	-3.879325	129.518039	-2.731935	-140.742943
4.350000	-2.667188	-143.718930	-4.022197	127.134563	-4.022197	127.134563	-2.626654	-142.858666
4.400000	-2.567838	-146.285305	-4.164872	124.775905	-4.164872	124.775905	-2.527343	-144.952184
4.450000	-2.474103	-148.823720	-4.307180	122.441469	-4.307180	122.441469	-2.433656	-147.023886
4.500000	-2.385608	-151.335367	-4.448994	120.130369	-4.448994	120.130369	-2.345218	-149.074455
4.550000	-2.302049	-153.821149	-4.590169	117.841949	-4.590169	117.841949	-2.261726	-151.104389
4.600000	-2.223138	-156.281984	-4.730568	115.575520	-4.730568	115.575520	-2.182892	-153.114237
4.650000	-2.148603	-158.718803	-4.870065	113.330373	-4.870065	113.330373	-2.108446	-155.104589
4.700000	-2.078189	-161.132545	-5.008544	111.105774	-5.008544	111.105774	-2.038132	-157.076068
4.750000	-2.011656	-163.524152	-5.145894	108.900975	-5.145894	108.900975	-1.971710	-159.029331
4.800000	-1.948776	-165.894569	-5.282016	106.715216	-5.282016	106.715216	-1.908954	-160.965057
4.850000	-1.889338	-168.244736	-5.416818	104.547727	-5.416818	104.547727	-1.849652	-162.883947
4.900000	-1.833140	-170.575588	-5.550215	102.397734	-5.550215	102.397734	-1.793602	-164.786719
4.950000	-1.779996	-172.888056	-5.682131	100.264460	-5.682131	100.264460	-1.740617	-166.674103
5.000000	-1.729727	-175.183057	-5.812496	98.147127	-5.812496	98.147127	-1.690522	-168.546839
5.050000	-1.682220	-177.461160	-5.941169	96.045270	-5.941169	96.045270	-1.643200	-170.405392
5.100000	-1.637263	-179.723639	-6.068171	93.957771	-6.068171	93.957771	-1.598441	-172.250832
5.150000	-1.594710	178.028628	-6.193452	91.883861	-6.193452	91.883861	-1.556099	-174.083916
5.200000	-1.554426	175.794777	-6.316967	89.822780	-6.316967	89.822780	-1.516038	-175.905401
5.250000	-1.516281	173.573961	-6.438678	87.773773	-6.438678	87.773773	-1.478130	-177.716046
5.300000	-1.480157	171.365350	-6.558549	85.736096	-6.558549	85.736096	-1.442256	-179.516606
5.350000	-1.445940	169.168130	-6.676552	83.709010	-6.676552	83.709010	-1.408303	178.692163
5.400000	-1.413526	166.981508	-6.792662	81.691787	-6.792662	81.691787	-1.376165	176.909510
5.450000	-1.382962	164.805604	-6.906523	79.684542	-6.906523	79.684542	-1.345895	175.135388
5.500000	-1.353868	162.637882	-7.018754	77.684911	-7.018754	77.684911	-1.317107	173.367639
5.550000	-1.326296	160.478470	-7.129043	75.693000	-7.129043	75.693000	-1.289856	171.606214
5.600000	-1.300163	158.326647	-7.237380	73.708118	-7.237380	73.708118	-1.264061	169.850373
5.650000	-1.275393	156.181712	-7.343758	71.729586	-7.343758	71.729586	-1.239645	168.099381
5.700000	-1.251913	154.042981	-7.448175	69.756730	-7.448175	69.756730	-1.216536	166.352505
5.750000	-1.229657	151.909788	-7.550629	67.788889	-7.550629	67.788889	-1.194669	164.609015
5.800000	-1.208559	149.781485	-7.651125	65.825407	-7.651125	65.825407	-1.173980	162.868184
5.850000	-1.188561	147.657440	-7.749666	63.865637	-7.749666	63.865637	-1.154411	161.129285
5.900000	-1.169606	145.537040	-7.846260	61.908942	-7.846260	61.908942	-1.135907	159.391593
5.950000	-1.151640	143.419687	-7.940918	59.954688	-7.940918	59.954688	-1.118415	157.654385
6.000000	-1.134615	141.304799	-8.033650	58.002250	-8.033650	58.002250	-1.101888	155.916934
6.050000	-1.118482	139.191810	-8.124470	56.051008	-8.124470	56.051008	-1.086281	154.178515
6.100000	-1.103198	137.080168	-8.213395	54.100347	-8.213395	54.100347	-1.071550	152.438400
6.150000	-1.088721	134.969336	-8.300442	52.149657	-8.300442	52.149657	-1.057657	150.695858
6.200000	-1.075012	132.858790	-8.385628	50.198331	-8.385628	50.198331	-1.044564	148.950153
6.250000	-1.062034	130.748019	-8.468976	48.245765	-8.468976	48.245765	-1.032237	147.200546
6.300000	-1.049780	128.636470	-8.550394	46.291249	-8.550394	46.291249	-1.020673	145.446051
6.350000	-1.038187	126.523667	-8.630022	44.334235	-8.630022	44.334235	-1.009810	143.686083
6.400000	-1.027225	124.409132	-8.707882	42.374122	-8.707882	42.374122	-0.999621	141.919877
6.450000	-1.016865	122.292400	-8.783997	40.410309	-8.783997	40.410309	-0.990080	140.146657
6.500000	-1.007080	120.173011	-8.858392	38.442189	-8.858392	38.442189	-0.981164	138.365636
6.550000	-0.997846	118.050512	-8.931091	36.469154	-8.931091	36.469154	-0.972851	136.576011
6.600000	-0.989140	115.924458	-9.002116	34.490588	-9.002116	34.490588	-0.965122	134.776964
6.650000	-0.980940	113.794404	-9.071490	32.505871	-9.071490	32.505871	-0.957959	132.967659
6.700000	-0.973227	111.659909	-9.139234	30.514371	-9.139234	30.514371	-0.951347	131.147239
6.750000	-0.965983	109.520532	-9.205367	28.515445	-9.205367	28.515445	-0.945271	129.314824
6.800000	-0.959193	107.375830	-9.269906	26.508437	-9.269906	26.508437	-0.939721	127.469511
6.850000	-0.952842	105.225354	-9.332864	24.492673	-9.332864	24.492673	-0.934688	125.610365
6.900000	-0.946920	103.068649	-9.394249	22.467458	-9.394249	22.467458	-0.930163	123.736421
6.950000	-0.941416	100.905247	-9.454066	20.432074	-9.454066	20.432074	-0.926142	121.846677
7.000000	-0.936325	98.734665	-9.512309	18.385770	-9.512309	18.385770	-0.922623	119.940092
7.050000	-0.931643	96.556401	-9.568966	16.327762	-9.568966	16.327762	-0.919607	118.015578
7.100000	-0.927368	94.369927	-9.624014	14.257221	-9.624014	14.257221	-0.917097	116.071998
7.150000	-0.923503	92.174684	-9.677416	12.173265	-9.677416	12.173265	-0.915102	114.108156
7.200000	-0.920057	89.970071	-9.729119	10.074950	-9.729119	10.074950	-0.913633	112.122790
7.250000	-0.917040	87.755439	-9.779049	7.961255	-9.779049	7.961255	-0.912707	110.114563
7.300000	-0.914451	85.530592	-9.827209	5.831855	-9.827209	5.831855	-0.912319	108.083202
7.350000	-0.912359	83.293620	-9.873252	3.683786	-9.873252	3.683786	-0.912557	106.024660
7.400000	-0.910773	81.044241	-9.917128	1.516586	-9.917128	1.516586	-0.913426	103.938641
7.450000	-0.909739	78.781462	-9.958627	-0.671304	-9.958627	-0.671304	-0.914974	101.823370
7.500000	-0.909312	76.504149	-9.997478	-2.881666	-9.997478	-2.881666	-0.917259	99.676910
7.550000	-0.909583	74.210617	-10.033265	-5.117158	-10.033265	-5.117158	-0.920376	97.496352
7.600000	-0.910634	71.899638	-10.065613	-7.379753	-10.065613	-7.379753	-0.924404	95.279997
7.650000	-0.912588	69.569395	-10.093977	-9.672389	-10.093977	-9.672389	-0.929463	93.025182
7.700000	-0.915604	67.217717	-10.117667	-11.998629	-10.117667	-11.998629	-0.935706	90.728894
7.750000	-0.919885	64.841987	-10.135818	-14.362855	-10.135818	-14.362855	-0.943330	88.387679
7.800000	-0.925703	62.439011	-10.147334	-16.770543	-10.147334	-16.770543	-0.952591	85.997532
7.850000	-0.933412	60.004845	-10.150830	-19.228654	-10.150830	-19.228654	-0.963823	83.553742
7.900000	-0.943494	57.534560	-10.144541	-21.746178	-10.144541	-21.746178	-0.977474	81.050678
7.950000	-0.956601	55.021910	-10.126211	-24.334941	-10.126211	-24.334941	-0.994152	78.481501
8.000000	-0.973648	52.458873	-10.092940	-27.010800	-10.092940	-27.010800	-1.014701	75.837762
8.050000	-0.995935	49.834999	-10.040973	-29.795456	-10.040973	-29.795456	-1.040319	73.108823
8.100000	-1.025367	47.136471	-9.965418	-32.719283	-9.965418	-32.719283	-1.072750	70.281047
8.150000	-1.064973	44.343460	-9.859429	-35.828555	-9.859429	-35.828555	-1.114766	67.335101
8.200000	-1.119489	41.429607	-9.714147	-39.190928	-9.714147	-39.190928	-1.170683	64.246309
8.250000	-1.196034	38.363305	-9.519462	-42.899550	-9.519462	-42.899550	-1.246957	60.986548
8.300000	-1.308144	35.094118	-9.259685	-47.121470	-9.259685	-47.121470	-1.355848	57.510071
8.350000	-1.479052	31.566310	-8.918189	-52.110711	-8.918189	-52.110711	-1.518265	53.769535
8.400000	-1.757085	27.723994	-8.475335	-58.340122	-8.475335	-58.340122	-1.777395	49.721267
8.450000	-2.238509	23.643769	-7.929907	-66.606954	-7.929907	-66.606954	-2.217932	45.452256
8.500000	-3.117255	20.071967	-7.350502	-78.290667	-7.350502	-78.290667	-3.004826	41.663728
8.550000	-4.610469	20.677194	-7.040876	-95.303906	-7.040876	-95.303906	-4.298098	41.549897
8.600000	-5.634582	32.895933	-7.753299	-117.754739	-7.753299	-117.754739	-5.168626	50.991900
8.650000	-4.210331	43.630680	-10.134453	-139.831426	-10.134453	-139.831426	-4.018204	59.413278
8.700000	-2.637389	42.325948	-13.741199	-154.658165	-13.741199	-154.658165	-2.659662	57.684542
8.750000	-1.791964	37.555824	-17.801814	-160.849928	-17.801814	-160.849928	-1.908879	52.633707
8.800000	-1.364740	32.757895	-21.876312	-158.789267	-21.876312	-158.789267	-1.529993	47.384815
8.850000	-1.135573	28.457486	-25.528982	-148.274003	-25.528982	-148.274003	-1.331694	42.478897
8.900000	-1.003453	24.597350	-28.061597	-131.174660	-28.061597	-131.174660	-1.223271	37.891805
8.950000	-0.923244	21.064911	-29.131051	-113.978868	-29.131051	-113.978868	-1.163655	33.531415
9.000000	-0.872725	17.767654	-29.374109	-101.757874	-29.374109	-101.757874	-1.132487	29.317642
9.050000	-0.840355	14.639646	-29.501650	-94.326156	-29.501650	-94.326156	-1.119159	25.191921
9.100000	-0.820087	11.638313	-29.847958	-89.881589	-29.847958	-89.881589	-1.118158	21.113293
9.150000	-0.807613	8.724048	-30.513757	-86.750365	-30.513757	-86.750365	-1.125444	17.050166
9.200000	-0.801116	5.877759	-31.587304	-83.818908	-31.587304	-83.818908	-1.139393	12.982678
9.250000	-0.799251	3.082621	-33.177021	-79.720282	-33.177021	-79.720282	-1.158782	8.895177
9.300000	-0.801186	0.326127	-35.441166	-71.943319	-35.441166	-71.943319	-1.182851	4.776044
9.350000	-0.806410	-2.401190	-38.380865	-54.271158	-38.380865	-54.271158	-1.211131	0.616596
9.400000	-0.814649	-5.106447	-40.022250	-16.628534	-40.022250	-16.628534	-1.243370	-3.590203
9.450000	-0.825740	-7.795486	-37.222242	19.113688	-37.222242	19.113688	-1.279390	-7.849231
9.500000	-0.839589	-10.472988	-33.423927	35.113683	-33.423927	35.113683	-1.319049	-12.163283
9.550000	-0.856207	-13.142513	-30.283240	41.242833	-30.283240	41.242833	-1.362288	-16.534541
9.600000	-0.875656	-15.806940	-27.752424	43.223987	-27.752424	43.223987	-1.409068	-20.964215
9.650000	-0.898038	-18.468607	-25.656185	43.194051	-25.656185	43.194051	-1.459359	-25.452660
9.700000	-0.923488	-21.129416	-23.871711	42.037845	-23.871711	42.037845	-1.513123	-29.999459
9.750000	-0.952167	-23.790912	-22.319491	40.176093	-22.319491	40.176093	-1.570311	-34.603484
9.800000	-0.984259	-26.454337	-20.946938	37.832481	-20.946938	37.832481	-1.630854	-39.262949
9.850000	-1.019969	-29.120675	-19.718062	35.136761	-19.718062	35.136761	-1.694657	-43.975457
9.900000	-1.059518	-31.790680	-18.607427	32.169684	-18.607427	32.169684	-1.761594	-48.738042
9.950000	-1.103144	-34.464900	-17.596568	28.984642	-17.596568	28.984642	-1.831508	-53.547209
10.000000	-1.151097	-37.143693	-16.671789	25.618985	-16.671789	25.618985	-1.904205	-58.398982
