! freq	dB(S11)	phase(S11)	dB(S12)	phase(S12)	
!     	dB(S21)	phase(S21)	dB(S22)	phase(S22)	
!S-par simulation data
#  GHz  S  DB  R 50
0.000000	-6153.053111	0.000000	-0.000000	0.000000	0.000000	0.000000	-6153.053111	0.000000
0.050000	-40.053727	-93.602196	-0.006379	-3.482354	-0.006379	-3.482354	-40.039507	-92.289995
0.100000	-34.148604	-97.728847	-0.013879	-6.921080	-0.013879	-6.921080	-34.135634	-95.147908
0.150000	-30.722967	-102.030425	-0.020950	-10.353764	-0.020950	-10.353764	-30.706779	-98.151440
0.200000	-28.308974	-106.307273	-0.028570	-13.783041	-0.028570	-13.783041	-28.289574	-101.114700
0.250000	-26.450478	-110.528638	-0.036792	-17.207724	-0.036792	-17.207724	-26.428845	-104.024063
0.300000	-24.947692	-114.703842	-0.045509	-20.627369	-0.045509	-20.627369	-24.924785	-106.893468
0.350000	-23.694111	-118.846527	-0.054608	-24.042338	-0.054608	-24.042338	-23.670733	-109.736270
0.400000	-22.626375	-122.966938	-0.064002	-27.453283	-0.064002	-27.453283	-22.603133	-112.560961
0.450000	-21.703737	-127.071934	-0.073633	-30.860889	-0.073633	-30.860889	-21.681047	-115.372469
0.500000	-20.898453	-131.166042	-0.083453	-34.265781	-0.083453	-34.265781	-20.876580	-118.173572
0.550000	-20.190801	-135.252332	-0.093413	-37.668514	-0.093413	-37.668514	-20.169895	-120.965845
0.600000	-19.567144	-139.332884	-0.103464	-41.069559	-0.103464	-41.069559	-19.547292	-123.750023
0.650000	-19.014776	-143.409594	-0.113544	-44.469478	-0.113544	-44.469478	-18.996018	-126.527122
0.700000	-18.525526	-147.483655	-0.123593	-47.868719	-0.123593	-47.868719	-18.507897	-129.297519
0.750000	-18.095715	-151.556113	-0.133525	-51.267822	-0.133525	-51.267822	-18.079273	-132.061126
0.800000	-17.717310	-155.628157	-0.143272	-54.667403	-0.143272	-54.667403	-17.702125	-134.819003
0.850000	-17.386239	-159.700691	-0.152756	-58.068077	-0.152756	-58.068077	-17.372406	-137.571658
0.900000	-17.100418	-163.774688	-0.161886	-61.470608	-0.161886	-61.470608	-17.088074	-140.319536
0.950000	-16.858390	-167.851255	-0.170560	-64.875954	-0.170560	-64.875954	-16.847714	-143.063277
1.000000	-16.656306	-171.931233	-0.178721	-68.284868	-0.178721	-68.284868	-16.647493	-145.803880
1.050000	-16.492856	-176.015574	-0.186295	-71.698287	-0.186295	-71.698287	-16.486127	-148.542105
1.100000	-16.369522	179.894320	-0.193162	-75.117659	-0.193162	-75.117659	-16.365149	-151.278704
1.150000	-16.284924	175.797447	-0.199266	-78.544076	-0.199266	-78.544076	-16.283199	-154.014662
1.200000	-16.238130	171.692915	-0.204569	-81.978557	-0.204569	-81.978557	-16.239364	-156.750826
1.250000	-16.229754	167.579645	-0.209014	-85.422353	-0.209014	-85.422353	-16.234293	-159.487972
1.300000	-16.264774	163.455485	-0.212467	-88.877931	-0.212467	-88.877931	-16.273044	-162.227064
1.350000	-16.341379	159.320148	-0.214978	-92.345805	-0.214978	-92.345805	-16.353822	-164.968610
1.400000	-16.461978	155.172564	-0.216529	-95.827378	-0.216529	-95.827378	-16.479108	-167.713054
1.450000	-16.631201	151.011281	-0.217093	-99.324597	-0.217093	-99.324597	-16.653635	-170.460720
1.500000	-16.854534	146.834967	-0.216679	-102.839501	-0.216679	-102.839501	-16.883020	-173.211511
1.550000	-17.135987	142.643345	-0.215381	-106.373153	-0.215381	-106.373153	-17.171421	-175.964571
1.600000	-17.483433	138.435789	-0.213281	-109.927461	-0.213281	-109.927461	-17.526940	-178.718315
1.650000	-17.906564	134.212299	-0.210502	-113.504266	-0.210502	-113.504266	-17.959580	178.530203
1.700000	-18.418235	129.973649	-0.207202	-117.105508	-0.207202	-117.105508	-18.482637	175.786006
1.750000	-19.035836	125.721875	-0.203567	-120.733224	-0.203567	-120.733224	-19.114150	173.057486
1.800000	-19.783541	121.461153	-0.199815	-124.389523	-0.199815	-124.389523	-19.879280	170.358737
1.850000	-20.696180	117.199477	-0.196192	-128.076561	-0.196192	-128.076561	-20.814432	167.714087
1.900000	-21.826374	112.952164	-0.192974	-131.796501	-0.192974	-131.796501	-21.974900	165.167705
1.950000	-23.258951	108.750055	-0.190474	-135.551478	-0.190474	-135.551478	-23.450426	162.806408
2.000000	-25.143807	104.661876	-0.189038	-139.343560	-0.189038	-139.343560	-25.400980	160.823192
2.050000	-27.785669	100.870896	-0.189052	-143.174716	-0.189052	-143.174716	-28.155377	159.741578
2.100000	-31.974569	98.063618	-0.190945	-147.046778	-0.190945	-147.046778	-32.573912	161.608734
2.150000	-41.345273	102.435888	-0.195196	-150.961493	-0.195196	-150.961493	-42.126656	-174.012460
2.200000	-40.095564	-110.520877	-0.202361	-154.920792	-0.202361	-154.920792	-37.597819	-60.952392
2.250000	-30.813833	-104.593100	-0.212974	-158.925299	-0.212974	-158.925299	-29.947532	-49.663728
2.300000	-26.193944	-107.650570	-0.227645	-162.975873	-0.227645	-162.975873	-25.663823	-49.355910
2.350000	-23.051005	-111.731010	-0.247022	-167.073011	-0.247022	-167.073011	-22.661871	-51.085384
2.400000	-20.643083	-116.180827	-0.271790	-171.216798	-0.271790	-171.216798	-20.331197	-53.569553
2.450000	-18.679064	-120.822855	-0.302666	-175.406856	-0.302666	-175.406856	-18.415919	-56.432226
2.500000	-17.014604	-125.588139	-0.340393	-179.642290	-0.340393	-179.642290	-16.785037	-59.522670
2.550000	-15.567701	-130.443327	-0.385724	176.078352	-0.385724	176.078352	-15.362706	-62.768038
2.600000	-14.287391	-135.369355	-0.439420	171.757122	-0.439420	171.757122	-14.101195	-66.128022
2.650000	-13.140705	-140.352202	-0.501964	167.397722	-0.501964	167.397722	-12.969375	-69.575628
2.700000	-12.102309	-145.385413	-0.574639	163.001187	-0.574639	163.001187	-11.943094	-73.098438
2.750000	-11.156324	-150.459205	-0.657912	158.572582	-0.657912	158.572582	-11.007198	-76.681079
2.800000	-10.290311	-155.565684	-0.752329	154.116804	-0.752329	154.116804	-10.149746	-80.312463
2.850000	-9.494587	-160.697414	-0.858315	149.639152	-0.858315	149.639152	-9.361405	-83.983069
2.900000	-8.761374	-165.847857	-0.976826	145.144589	-0.976826	145.144589	-8.634666	-87.685680
2.950000	-8.084753	-171.008780	-1.107680	140.639978	-1.107680	140.639978	-7.963785	-91.410644
3.000000	-7.459727	-176.173035	-1.251602	136.131404	-1.251602	136.131404	-7.343918	-95.150911
3.050000	-6.882081	178.667151	-1.408501	131.625738	-1.408501	131.625738	-6.770952	-98.898281
3.100000	-6.348105	173.519106	-1.578378	127.129551	-1.578378	127.129551	-6.241261	-102.645403
3.150000	-5.854986	168.390988	-1.761442	122.650201	-1.761442	122.650201	-5.752105	-106.384672
3.200000	-5.399372	163.288946	-1.957069	118.193364	-1.957069	118.193364	-5.300178	-110.109662
3.250000	-4.979279	158.221340	-2.165332	113.766632	-2.165332	113.766632	-4.883544	-113.812963
3.300000	-4.591879	153.193570	-2.385526	109.375011	-2.385526	109.375011	-4.499407	-117.489179
3.350000	-4.235369	148.212958	-2.617311	105.025167	-2.617311	105.025167	-4.145994	-121.131862
3.400000	-3.907180	143.283448	-2.859903	100.720741	-2.859903	100.720741	-3.820756	-124.737163
3.450000	-3.605508	138.410430	-3.112720	96.466608	-3.112720	96.466608	-3.521911	-128.300413
3.500000	-3.328474	133.598092	-3.375054	92.266528	-3.375054	92.266528	-3.247596	-131.818009
3.550000	-3.074292	128.849974	-3.646165	88.123638	-3.646165	88.123638	-2.996038	-135.287012
3.600000	-2.841270	124.168981	-3.925293	84.040452	-3.925293	84.040452	-2.765557	-138.705140
3.650000	-2.627804	119.557399	-4.211671	80.018886	-4.211671	80.018886	-2.554560	-142.070742
3.700000	-2.432382	115.016931	-4.504539	76.060287	-4.504539	76.060287	-2.361542	-145.382764
3.750000	-2.253578	110.548738	-4.803150	72.165474	-4.803150	72.165474	-2.185087	-148.640703
3.800000	-2.090425	106.155873	-5.106570	68.336870	-5.106570	68.336870	-2.024232	-151.842811
3.850000	-1.941256	101.836165	-5.414250	64.572260	-5.414250	64.572260	-1.877319	-154.991353
3.900000	-1.804909	97.589411	-5.725535	60.871127	-5.725535	60.871127	-1.743189	-158.087224
3.950000	-1.680303	93.415079	-6.039810	57.232628	-6.039810	57.232628	-1.620767	-161.131667
4.000000	-1.566441	89.312352	-6.356496	53.655641	-6.356496	53.655641	-1.509059	-164.126219
4.050000	-1.462400	85.280179	-6.675053	50.138802	-6.675053	50.138802	-1.407150	-167.072677
4.100000	-1.367335	81.317313	-6.994982	46.680552	-6.994982	46.680552	-1.314196	-169.973053
4.150000	-1.280468	77.422354	-7.315817	43.279164	-7.315817	43.279164	-1.229426	-172.829546
4.200000	-1.201086	73.593774	-7.637131	39.932774	-7.637131	39.932774	-1.152131	-175.644511
4.250000	-1.128538	69.829956	-7.958527	36.639405	-7.958527	36.639405	-1.081668	-178.420444
4.300000	-1.062231	66.129213	-8.279642	33.396987	-8.279642	33.396987	-1.017447	178.840043
4.350000	-1.001622	62.489812	-8.600139	30.203370	-8.600139	30.203370	-0.958934	176.134226
4.400000	-0.946219	58.909990	-8.919705	27.056334	-8.919705	27.056334	-0.905646	173.459275
4.450000	-0.895573	55.387972	-9.238051	23.953594	-9.238051	23.953594	-0.857145	170.812254
4.500000	-0.849277	51.921981	-9.554904	20.892802	-9.554904	20.892802	-0.813036	168.190113
4.550000	-0.806963	48.510249	-9.870008	17.871537	-9.870008	17.871537	-0.772964	165.589674
4.600000	-0.768295	45.151023	-10.183117	14.887304	-10.183117	14.887304	-0.736615	163.007610
4.650000	-0.732970	41.842572	-10.493991	11.937511	-10.493991	11.937511	-0.703706	160.440421
4.700000	-0.700714	38.583193	-10.802395	9.019452	-10.802395	9.019452	-0.673992	157.884387
4.750000	-0.671278	35.371211	-11.108090	6.130276	-11.108090	6.130276	-0.647259	155.335525
4.800000	-0.644440	32.204981	-11.410831	3.266953	-11.410831	3.266953	-0.623326	152.789527
4.850000	-0.619996	29.082894	-11.710361	0.426220	-11.710361	0.426220	-0.602044	150.241673
4.900000	-0.597765	26.003371	-12.006399	-2.395477	-12.006399	-2.395477	-0.583300	147.686734
4.950000	-0.577584	22.964868	-12.298641	-5.202067	-12.298641	-5.202067	-0.567015	145.118840
5.000000	-0.559308	19.965872	-12.586742	-7.997954	-12.586742	-7.997954	-0.553150	142.531307
5.050000	-0.543162	17.012886	-12.867237	-10.788062	-12.867237	-10.788062	-0.542254	139.908707
5.100000	-0.528395	14.090473	-13.144812	-13.580859	-13.144812	-13.580859	-0.533536	137.251126
5.150000	-0.514965	11.198030	-13.418965	-16.379705	-13.418965	-16.379705	-0.527076	134.553262
5.200000	-0.503142	8.342394	-13.685734	-19.193737	-13.685734	-19.193737	-0.523680	131.792326
5.250000	-0.492926	5.524015	-13.943056	-22.040707	-13.943056	-22.040707	-0.524161	128.937320
5.300000	-0.483649	2.727288	-14.197124	-24.914718	-14.197124	-24.914718	-0.527286	126.014254
5.350000	-0.475858	-0.035212	-14.439905	-27.848654	-14.439905	-27.848654	-0.535490	122.954694
5.400000	-0.469444	-2.766794	-14.670634	-30.866294	-14.670634	-30.866294	-0.549976	119.722632
5.450000	-0.464180	-5.473454	-14.890593	-33.979957	-14.890593	-33.979957	-0.571325	116.304491
5.500000	-0.460333	-8.150994	-15.093821	-37.254174	-15.093821	-37.254174	-0.604042	112.589932
5.550000	-0.457722	-10.804762	-15.281194	-40.714761	-15.281194	-40.714761	-0.650299	108.543519
5.600000	-0.456530	-13.433272	-15.448051	-44.451939	-15.448051	-44.451939	-0.717694	104.017123
5.650000	-0.456924	-16.035802	-15.590452	-48.592994	-15.590452	-48.592994	-0.818584	98.802886
5.700000	-0.459064	-18.611370	-15.706327	-53.322172	-15.706327	-53.322172	-0.974144	92.596094
5.750000	-0.463053	-21.157801	-15.798404	-58.892158	-15.798404	-58.892158	-1.219872	84.964892
5.800000	-0.468957	-23.666563	-15.880733	-65.808809	-15.880733	-65.808809	-1.638850	74.994912
5.850000	-0.475862	-26.124221	-16.008278	-74.820426	-16.008278	-74.820426	-2.402523	61.128969
5.900000	-0.479912	-28.511152	-16.348517	-87.066284	-16.348517	-87.066284	-3.911099	40.072980
5.950000	-0.471195	-30.832911	-17.330248	-103.491019	-17.330248	-103.491019	-6.939945	3.587159
6.000000	-0.441131	-33.194282	-19.738836	-122.492999	-19.738836	-122.492999	-10.073175	-69.819760
6.050000	-0.406247	-35.717667	-24.282724	-136.932512	-24.282724	-136.932512	-6.879741	-141.156690
6.100000	-0.387817	-38.333776	-31.127980	-132.612332	-31.127980	-132.612332	-3.970634	-176.162856
6.150000	-0.384313	-40.936943	-35.517132	-83.203741	-35.517132	-83.203741	-2.505186	163.670133
6.200000	-0.387979	-43.500481	-32.334506	-52.955062	-32.334506	-52.955062	-1.743142	150.344669
6.250000	-0.394503	-46.032217	-30.012280	-47.434157	-30.012280	-47.434157	-1.310051	140.705354
6.300000	-0.402233	-48.542567	-28.791860	-47.627712	-28.791860	-47.627712	-1.047819	133.323371
6.350000	-0.410553	-51.040724	-28.157947	-49.253956	-28.157947	-49.253956	-0.876514	127.334718
6.400000	-0.419301	-53.532852	-27.868387	-51.283178	-27.868387	-51.283178	-0.758954	122.284929
6.450000	-0.428467	-56.023677	-27.801545	-53.375309	-27.801545	-53.375309	-0.674969	117.893845
6.500000	-0.438137	-58.517640	-27.901804	-55.388063	-27.901804	-55.388063	-0.614158	114.010209
6.550000	-0.448301	-61.017496	-28.112614	-57.279363	-28.112614	-57.279363	-0.566966	110.451724
6.600000	-0.459060	-63.526696	-28.423615	-59.006498	-28.423615	-59.006498	-0.530335	107.165467
6.650000	-0.470487	-66.048402	-28.824132	-60.536743	-28.824132	-60.536743	-0.501376	104.091464
6.700000	-0.482687	-68.586553	-29.312258	-61.819904	-29.312258	-61.819904	-0.478297	101.190906
6.750000	-0.495698	-71.143652	-29.885734	-62.812957	-29.885734	-62.812957	-0.459452	98.421863
6.800000	-0.509618	-73.723510	-30.551210	-63.430571	-30.551210	-63.430571	-0.443998	95.762555
6.850000	-0.524534	-76.329878	-31.317874	-63.551129	-31.317874	-63.551129	-0.431242	93.193315
6.900000	-0.540544	-78.966777	-32.198129	-62.987705	-32.198129	-62.987705	-0.420673	90.698559
6.950000	-0.557753	-81.638555	-33.205675	-61.446275	-33.205675	-61.446275	-0.411913	88.265743
7.000000	-0.576280	-84.349934	-34.349313	-58.456878	-34.349313	-58.456878	-0.404681	85.884613
7.050000	-0.596258	-87.106066	-35.614466	-53.278045	-35.614466	-53.278045	-0.398764	83.546662
7.100000	-0.617834	-89.912605	-36.914719	-44.857077	-36.914719	-44.857077	-0.394007	81.244727
7.150000	-0.641178	-92.775769	-37.999503	-32.207526	-37.999503	-32.207526	-0.390296	78.972686
7.200000	-0.666483	-95.702433	-38.415072	-15.703012	-38.415072	-15.703012	-0.387552	76.725223
7.250000	-0.693966	-98.700217	-37.803610	1.633453	-37.803610	1.633453	-0.385728	74.497649
7.300000	-0.723880	-101.777602	-36.349020	15.796540	-36.349020	15.796540	-0.384799	72.285753
7.350000	-0.756513	-104.944053	-34.543305	25.356155	-34.543305	25.356155	-0.384771	70.085690
7.400000	-0.792198	-108.210172	-32.715840	31.159066	-32.715840	31.159066	-0.385668	67.893881
7.450000	-0.831320	-111.587871	-30.990018	34.395200	-30.990018	34.395200	-0.387544	65.706930
7.500000	-0.874323	-115.090570	-29.390917	35.925182	-29.390917	35.925182	-0.390477	63.521556
7.550000	-0.921934	-118.740356	-27.904143	36.254775	-27.904143	36.254775	-0.394635	61.334305
7.600000	-0.974605	-122.549306	-26.519462	35.770199	-26.519462	35.770199	-0.400123	59.141868
7.650000	-1.033049	-126.537342	-25.218976	34.668278	-25.218976	34.668278	-0.407135	56.940944
7.700000	-1.098099	-130.727174	-23.987242	33.074619	-23.987242	33.074619	-0.415916	54.728123
7.750000	-1.170306	-135.131351	-22.817089	31.089776	-22.817089	31.089776	-0.426652	52.500827
7.800000	-1.251466	-139.801405	-21.687885	28.725508	-21.687885	28.725508	-0.439926	50.253854
7.850000	-1.342575	-144.761603	-20.595879	26.031097	-20.595879	26.031097	-0.456131	47.983926
7.900000	-1.445104	-150.050432	-19.534432	23.022437	-19.534432	23.022437	-0.475864	45.686987
7.950000	-1.560712	-155.711735	-18.498413	19.704742	-18.498413	19.704742	-0.499859	43.358850
8.000000	-1.691230	-161.795230	-17.484047	16.075173	-17.484047	16.075173	-0.529022	40.995285
8.050000	-1.838611	-168.356860	-16.488849	12.124770	-16.488849	12.124770	-0.564457	38.592169
8.100000	-2.004836	-175.458821	-15.511597	7.840086	-15.511597	7.840086	-0.607498	36.145706
8.150000	-2.191907	176.823601	-14.551428	3.200787	-14.551428	3.200787	-0.659851	33.652225
8.200000	-2.401142	168.416010	-13.609954	-1.811092	-13.609954	-1.811092	-0.723433	31.109637
8.250000	-2.632646	159.252604	-12.690998	-7.207831	-12.690998	-7.207831	-0.800253	28.518060
8.300000	-2.885064	149.266708	-11.798691	-13.001595	-11.798691	-13.001595	-0.892600	25.879127
8.350000	-3.154634	138.406880	-10.938258	-19.197691	-10.938258	-19.197691	-1.002840	23.196688
8.400000	-3.434514	126.650367	-10.115625	-25.791708	-10.115625	-25.791708	-1.133280	20.476476
8.450000	-3.715295	114.045801	-9.337350	-32.755817	-9.337350	-32.755817	-1.285348	17.725786
8.500000	-3.983317	100.617372	-8.607251	-40.087392	-8.607251	-40.087392	-1.462417	14.947724
8.550000	-4.226311	86.558335	-7.930202	-47.732168	-7.930202	-47.732168	-1.665589	12.143747
8.600000	-4.435531	72.098667	-7.307442	-55.644873	-7.307442	-55.644873	-1.897272	9.305782
8.650000	-4.610199	57.515401	-6.737224	-63.782495	-6.737224	-63.782495	-2.161459	6.414579
8.700000	-4.760307	43.093945	-6.214841	-72.114044	-6.214841	-72.114044	-2.465297	3.438866
8.750000	-4.907090	29.088392	-5.733267	-80.630699	-5.733267	-80.630699	-2.821246	0.337629
8.800000	-5.082485	15.706747	-5.284481	-89.357851	-5.284481	-89.357851	-3.250928	-2.935533
8.850000	-5.326884	3.094219	-4.861213	-98.355723	-4.861213	-98.355723	-3.787800	-6.411910
8.900000	-5.690093	-8.604076	-4.459913	-107.728836	-4.459913	-107.728836	-4.485996	-10.082327
8.950000	-6.234046	-19.154276	-4.084079	-117.622739	-4.084079	-117.622739	-5.432931	-13.823940
9.000000	-7.033080	-28.048398	-3.748775	-128.212609	-3.748775	-128.212609	-6.773003	-17.209887
9.050000	-8.152177	-34.139034	-3.485861	-139.671588	-3.485861	-139.671588	-8.747554	-18.936530
9.100000	-9.522105	-35.022600	-3.349442	-152.112742	-3.349442	-152.112742	-11.698320	-14.658450
9.150000	-10.540007	-27.949169	-3.410006	-165.459748	-3.410006	-165.459748	-15.020517	9.039205
9.200000	-10.085826	-16.436476	-3.734954	-179.368677	-3.734954	-179.368677	-13.728736	47.918415
9.250000	-8.293622	-10.517339	-4.369450	166.755321	-4.369450	166.755321	-9.725686	61.304455
9.300000	-6.391282	-11.980695	-5.295284	153.584195	-5.295284	153.584195	-6.785594	60.548540
9.350000	-4.882979	-17.458613	-6.455095	141.597562	-6.455095	141.597562	-4.842756	55.583722
9.400000	-3.799528	-24.462829	-7.772036	131.082632	-7.772036	131.082632	-3.571970	49.618810
9.450000	-3.032279	-31.689913	-9.181019	121.956819	-9.181019	121.956819	-2.718258	43.781262
9.500000	-2.488512	-38.652451	-10.637222	114.092426	-10.637222	114.092426	-2.134816	38.399310
9.550000	-2.103944	-45.154288	-12.099937	107.368799	-12.099937	107.368799	-1.733802	33.566059
9.600000	-1.824244	-51.188244	-13.563649	101.570731	-13.563649	101.570731	-1.448392	29.222562
9.650000	-1.617421	-56.789067	-15.025143	96.557947	-15.025143	96.557947	-1.240915	25.301231
9.700000	-1.463783	-61.993567	-16.476644	92.249429	-16.476644	92.249429	-1.088721	21.746899
9.750000	-1.348064	-66.859173	-17.924483	88.563813	-17.924483	88.563813	-0.974817	18.494312
9.800000	-1.259727	-71.441502	-19.381202	85.444228	-19.381202	85.444228	-0.887759	15.486734
9.850000	-1.193787	-75.760017	-20.831552	82.936612	-20.831552	82.936612	-0.821938	12.702488
9.900000	-1.142363	-79.890836	-22.325376	80.960539	-22.325376	80.960539	-0.769416	10.075276
9.950000	-1.103535	-83.846534	-23.856593	79.609583	-23.856593	79.609583	-0.728049	7.594186
10.000000	-1.074822	-87.653362	-25.436676	78.979110	-25.436676	78.979110	-0.695281	5.238067
