! freq	dB(S11)	phase(S11)	dB(S12)	phase(S12)	
!     	dB(S21)	phase(S21)	dB(S22)	phase(S22)	
!S-par simulation data
#  GHz  S  DB  R 50
0.000000	-0.000000	-0.000000	-315.000625	180.000000	-315.000625	180.000000	0.000000	0.000000
0.050000	-0.001605	-1.899766	-91.338114	88.185591	-91.338114	88.185591	-0.001604	-1.899078
0.100000	-0.005073	-3.786369	-85.342324	86.369221	-85.342324	86.369221	-0.005070	-3.784994
0.150000	-0.008630	-5.661016	-81.860596	84.550486	-81.860596	84.550486	-0.008622	-5.658962
0.200000	-0.011651	-7.529360	-79.418978	82.731256	-79.418978	82.731256	-0.011639	-7.526635
0.250000	-0.014228	-9.395382	-77.551600	80.915578	-77.551600	80.915578	-0.014212	-9.391991
0.300000	-0.016516	-11.260368	-76.052166	79.108449	-76.052166	79.108449	-0.016498	-11.256313
0.350000	-0.018637	-13.124627	-74.812249	77.316295	-74.812249	77.316295	-0.018619	-13.119908
0.400000	-0.020680	-14.987993	-73.767346	75.546522	-73.767346	75.546522	-0.020661	-14.982612
0.450000	-0.022697	-16.850217	-72.872925	73.804433	-72.872925	73.804433	-0.022678	-16.844177
0.500000	-0.024715	-18.710988	-72.100424	72.096239	-72.100424	72.096239	-0.024696	-18.704289
0.550000	-0.026751	-20.569855	-71.432442	70.431543	-71.432442	70.431543	-0.026733	-20.562502
0.600000	-0.028817	-22.426543	-70.852979	68.817020	-70.852979	68.817020	-0.028800	-22.418539
0.650000	-0.030915	-24.280859	-70.349542	67.258562	-70.349542	67.258562	-0.030898	-24.272206
0.700000	-0.033047	-26.132538	-69.914072	65.765167	-69.914072	65.765167	-0.033032	-26.123241
0.750000	-0.035216	-27.981191	-69.542438	64.350759	-69.542438	64.350759	-0.035201	-27.971254
0.800000	-0.037415	-29.826965	-69.224536	63.016753	-69.224536	63.016753	-0.037400	-29.816391
0.850000	-0.039648	-31.669115	-68.963707	61.792307	-68.963707	61.792307	-0.039633	-31.657910
0.900000	-0.041905	-33.508126	-68.748320	60.671500	-68.748320	60.671500	-0.041890	-33.496294
0.950000	-0.044187	-35.343233	-68.583015	59.692529	-68.583015	59.692529	-0.044171	-35.330780
1.000000	-0.046487	-37.174797	-68.459679	58.856184	-68.459679	58.856184	-0.046471	-37.161728
1.050000	-0.048803	-39.002404	-68.379345	58.197669	-68.379345	58.197669	-0.048785	-38.988723
1.100000	-0.051129	-40.826017	-68.339062	57.740023	-68.339062	57.740023	-0.051111	-40.811732
1.150000	-0.053463	-42.645696	-68.335025	57.505624	-68.335025	57.505624	-0.053443	-42.630811
1.200000	-0.055800	-44.460951	-68.367880	57.554652	-68.367880	57.554652	-0.055779	-44.445474
1.250000	-0.058138	-46.272354	-68.429102	57.882434	-68.429102	57.882434	-0.058115	-46.256291
1.300000	-0.060472	-48.078924	-68.519629	58.606789	-68.519629	58.606789	-0.060447	-48.062283
1.350000	-0.062802	-49.881520	-68.627968	59.698558	-68.627968	59.698558	-0.062775	-49.864305
1.400000	-0.065123	-51.679409	-68.747280	61.273878	-68.747280	61.273878	-0.065094	-51.661628
1.450000	-0.067435	-53.472974	-68.865067	63.334264	-68.865067	63.334264	-0.067404	-53.454634
1.500000	-0.069735	-55.262002	-68.965206	65.934756	-68.965206	65.934756	-0.069702	-55.243110
1.550000	-0.072022	-57.046375	-69.027702	69.097709	-69.027702	69.097709	-0.071987	-57.026937
1.600000	-0.074296	-58.826419	-69.034420	72.757130	-69.034420	72.757130	-0.074259	-58.806443
1.650000	-0.076554	-60.601497	-68.952839	76.900959	-68.952839	76.900959	-0.076515	-60.580990
1.700000	-0.078798	-62.372313	-68.777182	81.335625	-68.777182	81.335625	-0.078758	-62.351280
1.750000	-0.081027	-64.138387	-68.484865	85.920798	-68.484865	85.920798	-0.080985	-64.116837
1.800000	-0.083240	-65.899856	-68.076473	90.447847	-68.076473	90.447847	-0.083197	-65.877794
1.850000	-0.085439	-67.656724	-67.560236	94.727828	-67.560236	94.727828	-0.085394	-67.634158
1.900000	-0.087623	-69.408956	-66.951477	98.605076	-66.951477	98.605076	-0.087577	-69.385891
1.950000	-0.089793	-71.156570	-66.271717	101.981953	-66.271717	101.981953	-0.089746	-71.133014
2.000000	-0.091950	-72.899641	-65.544090	104.823221	-65.544090	104.823221	-0.091902	-72.875600
2.050000	-0.094095	-74.638200	-64.788041	107.130797	-64.788041	107.130797	-0.094046	-74.613679
2.100000	-0.096230	-76.372283	-64.019442	108.933992	-64.019442	108.933992	-0.096180	-76.347288
2.150000	-0.098354	-78.101930	-63.250397	110.277034	-63.250397	110.277034	-0.098304	-78.076468
2.200000	-0.100470	-79.827190	-62.489640	111.209946	-62.489640	111.209946	-0.100420	-79.801266
2.250000	-0.102579	-81.548114	-61.743166	111.782742	-61.743166	111.782742	-0.102528	-81.521734
2.300000	-0.104682	-83.264761	-61.014875	112.042205	-61.014875	112.042205	-0.104631	-83.237931
2.350000	-0.106781	-84.977195	-60.307127	112.030403	-60.307127	112.030403	-0.106730	-84.949918
2.400000	-0.108877	-86.685482	-59.621186	111.784260	-59.621186	111.784260	-0.108827	-86.657765
2.450000	-0.110972	-88.389697	-58.957557	111.335705	-58.957557	111.335705	-0.110922	-88.361546
2.500000	-0.113067	-90.089919	-58.316223	110.712102	-58.316223	110.712102	-0.113018	-90.061337
2.550000	-0.115164	-91.786148	-57.696370	109.933947	-57.696370	109.933947	-0.115115	-91.757141
2.600000	-0.117264	-93.478560	-57.097979	109.024683	-57.097979	109.024683	-0.117216	-93.449132
2.650000	-0.119370	-95.167248	-56.520325	108.001011	-56.520325	108.001011	-0.119322	-95.137404
2.700000	-0.121482	-96.852311	-55.962610	106.877150	-55.962610	106.877150	-0.121435	-96.822056
2.750000	-0.123602	-98.533852	-55.424006	105.665224	-55.424006	105.665224	-0.123557	-98.503189
2.800000	-0.125732	-100.211979	-54.903679	104.375589	-54.903679	104.375589	-0.125687	-100.180913
2.850000	-0.127872	-101.886803	-54.400806	103.017113	-54.400806	103.017113	-0.127829	-101.855338
2.900000	-0.130026	-103.558440	-53.914587	101.597406	-53.914587	101.597406	-0.129984	-103.526580
2.950000	-0.132195	-105.226723	-53.443315	100.118163	-53.443315	100.118163	-0.132154	-105.194472
3.000000	-0.134378	-106.892336	-52.988109	98.594785	-52.988109	98.594785	-0.134339	-106.859699
3.050000	-0.136578	-108.555141	-52.547346	97.027320	-52.547346	97.027320	-0.136541	-108.522120
3.100000	-0.138797	-110.215270	-52.120353	95.420024	-52.120353	95.420024	-0.138760	-110.181870
3.150000	-0.141035	-111.872860	-51.706492	93.776614	-51.706492	93.776614	-0.141000	-111.839084
3.200000	-0.143293	-113.528051	-51.305157	92.100351	-51.305157	92.100351	-0.143260	-113.493902
3.250000	-0.145574	-115.180988	-50.915776	90.394107	-50.915776	90.394107	-0.145542	-115.146470
3.300000	-0.147878	-116.831818	-50.537808	88.660426	-50.537808	88.660426	-0.147848	-116.796934
3.350000	-0.150207	-118.480691	-50.170743	86.901572	-50.170743	86.901572	-0.150178	-118.445445
3.400000	-0.152561	-120.127764	-49.814099	85.119569	-49.814099	85.119569	-0.152533	-120.092158
3.450000	-0.154941	-121.773191	-49.467423	83.316237	-49.467423	83.316237	-0.154915	-121.737230
3.500000	-0.157348	-123.417136	-49.130292	81.493221	-49.130292	81.493221	-0.157324	-123.380821
3.550000	-0.159785	-125.059760	-48.802304	79.652014	-48.802304	79.652014	-0.159761	-125.023095
3.600000	-0.162250	-126.701231	-48.483086	77.793978	-48.483086	77.793978	-0.162228	-126.664219
3.650000	-0.164745	-128.341718	-48.172290	75.920358	-48.172290	75.920358	-0.164725	-128.304361
3.700000	-0.167272	-129.981392	-47.869588	74.032300	-47.869588	74.032300	-0.167253	-129.943694
3.750000	-0.169829	-131.620428	-47.574678	72.130857	-47.574678	72.130857	-0.169812	-131.582391
3.800000	-0.172421	-133.258991	-47.287191	70.216505	-47.287191	70.216505	-0.172405	-133.220618
3.850000	-0.175045	-134.897290	-47.006972	68.290717	-47.006972	68.290717	-0.175031	-134.858583
3.900000	-0.177703	-136.535504	-46.733781	66.354317	-46.733781	66.354317	-0.177690	-136.496467
3.950000	-0.180395	-138.173818	-46.467393	64.408069	-46.467393	64.408069	-0.180383	-138.134453
4.000000	-0.183121	-139.812419	-46.207605	62.452682	-46.207605	62.452682	-0.183110	-139.772727
4.050000	-0.185881	-141.451492	-45.954228	60.488812	-45.954228	60.488812	-0.185872	-141.411477
4.100000	-0.188677	-143.091228	-45.707091	58.517071	-45.707091	58.517071	-0.188669	-143.050891
4.150000	-0.191508	-144.731818	-45.466038	56.538024	-45.466038	56.538024	-0.191501	-144.691162
4.200000	-0.194374	-146.373454	-45.230926	54.552199	-45.230926	54.552199	-0.194368	-146.332481
4.250000	-0.197276	-148.016329	-45.001627	52.560084	-45.001627	52.560084	-0.197271	-147.975041
4.300000	-0.200213	-149.660639	-44.778024	50.562136	-44.778024	50.562136	-0.200210	-149.619039
4.350000	-0.203186	-151.306580	-44.560014	48.558783	-44.560014	48.558783	-0.203184	-151.264669
4.400000	-0.206194	-152.954349	-44.347502	46.550423	-44.347502	46.550423	-0.206193	-152.912129
4.450000	-0.209237	-154.604143	-44.140404	44.537433	-44.140404	44.537433	-0.209237	-154.561616
4.500000	-0.212315	-156.256162	-43.938647	42.520169	-43.938647	42.520169	-0.212317	-156.213330
4.550000	-0.215428	-157.910605	-43.742165	40.498969	-43.742165	40.498969	-0.215431	-157.867469
4.600000	-0.218575	-159.567671	-43.550900	38.474159	-43.550900	38.474159	-0.218580	-159.524234
4.650000	-0.221757	-161.227560	-43.364803	36.446050	-43.364803	36.446050	-0.221762	-161.183823
4.700000	-0.224971	-162.890473	-43.183830	34.414948	-43.183830	34.414948	-0.224978	-162.846437
4.750000	-0.228219	-164.556608	-43.007945	32.381152	-43.007945	32.381152	-0.228227	-164.512275
4.800000	-0.231497	-166.226006	-42.837037	30.345043	-42.837037	30.345043	-0.231507	-166.181377
4.850000	-0.234809	-167.899220	-42.671254	28.306712	-42.671254	28.306712	-0.234820	-167.854298
4.900000	-0.238151	-169.576260	-42.510486	26.266578	-42.510486	26.266578	-0.238164	-169.531045
4.950000	-0.241524	-171.257323	-42.354716	24.224943	-42.354716	24.224943	-0.241538	-171.211816
5.000000	-0.244925	-172.942607	-42.203931	22.182112	-42.203931	22.182112	-0.244940	-172.896810
5.050000	-0.248354	-174.632408	-42.058181	20.138385	-42.058181	20.138385	-0.248372	-174.586323
5.100000	-0.251811	-176.326829	-41.917409	18.094110	-41.917409	18.094110	-0.251830	-176.280456
5.150000	-0.255293	-178.026063	-41.781613	16.049620	-41.781613	16.049620	-0.255314	-177.979403
5.200000	-0.258800	-179.730301	-41.650791	14.005258	-41.650791	14.005258	-0.258822	-179.683355
5.250000	-0.262330	178.560269	-41.524946	11.961381	-41.524946	11.961381	-0.262354	178.607499
5.300000	-0.265882	176.845459	-41.404079	9.918357	-41.404079	9.918357	-0.265908	176.892972
5.350000	-0.269455	175.125085	-41.288196	7.876568	-41.288196	7.876568	-0.269483	175.172881
5.400000	-0.273047	173.398966	-41.177302	5.836411	-41.177302	5.836411	-0.273077	173.447044
5.450000	-0.276657	171.666924	-41.071403	3.798297	-41.071403	3.798297	-0.276688	171.715283
5.500000	-0.280282	169.928784	-40.970507	1.762648	-40.970507	1.762648	-0.280316	169.977422
5.550000	-0.283922	168.184374	-40.874621	-0.270095	-40.874621	-0.270095	-0.283958	168.233291
5.600000	-0.287576	166.433528	-40.783751	-2.299484	-40.783751	-2.299484	-0.287613	166.482722
5.650000	-0.291240	164.676008	-40.697952	-4.325005	-40.697952	-4.325005	-0.291280	164.725479
5.700000	-0.294914	162.911650	-40.617234	-6.346165	-40.617234	-6.346165	-0.294956	162.961397
5.750000	-0.298595	161.140374	-40.541559	-8.362519	-40.541559	-8.362519	-0.298639	161.190396
5.800000	-0.302283	159.362031	-40.470933	-10.373565	-40.470933	-10.373565	-0.302329	159.412327
5.850000	-0.305974	157.576478	-40.405361	-12.378794	-40.405361	-12.378794	-0.306022	157.627047
5.900000	-0.309667	155.783580	-40.344848	-14.377689	-40.344848	-14.377689	-0.309718	155.834420
5.950000	-0.313361	153.983206	-40.289399	-16.369725	-40.289399	-16.369725	-0.313413	154.034316
6.000000	-0.317052	152.175232	-40.239018	-18.354368	-40.239018	-18.354368	-0.317107	152.226612
6.050000	-0.320741	150.359543	-40.193709	-20.331080	-40.193709	-20.331080	-0.320798	150.411190
6.100000	-0.324423	148.536028	-40.153476	-22.299318	-40.153476	-22.299318	-0.324482	148.587942
6.150000	-0.328098	146.704588	-40.118323	-24.258534	-40.118323	-24.258534	-0.328160	146.756766
6.200000	-0.331764	144.865129	-40.088254	-26.208176	-40.088254	-26.208176	-0.331828	144.917570
6.250000	-0.335419	143.017567	-40.063273	-28.147691	-40.063273	-28.147691	-0.335485	143.070269
6.300000	-0.339061	141.161648	-40.043497	-30.076275	-40.043497	-30.076275	-0.339128	141.214608
6.350000	-0.342688	139.297482	-40.028824	-31.993587	-40.028824	-31.993587	-0.342757	139.350699
6.400000	-0.346298	137.425015	-40.019262	-33.899061	-40.019262	-33.899061	-0.346369	137.478486
6.450000	-0.349889	135.544201	-40.014822	-35.792128	-40.014822	-35.792128	-0.349963	135.597923
6.500000	-0.353460	133.654551	-40.015797	-37.671486	-40.015797	-37.671486	-0.353535	133.708521
6.550000	-0.357010	131.756861	-40.021702	-39.537821	-40.021702	-39.537821	-0.357086	131.811076
6.600000	-0.360536	129.850756	-40.032780	-41.389985	-40.032780	-41.389985	-0.360615	129.905213
6.650000	-0.364039	127.936238	-40.049058	-43.227371	-40.049058	-43.227371	-0.364119	127.990932
6.700000	-0.367518	126.014138	-40.070057	-45.050915	-40.070057	-45.050915	-0.367599	126.069067
6.750000	-0.370968	124.082931	-40.096775	-46.857105	-40.096775	-46.857105	-0.371050	124.138089
6.800000	-0.374390	122.143384	-40.128805	-48.646598	-40.128805	-48.646598	-0.374473	122.198766
6.850000	-0.377783	120.195549	-40.166197	-50.418695	-40.166197	-50.418695	-0.377867	120.251151
6.900000	-0.381145	118.239403	-40.209072	-52.172445	-40.209072	-52.172445	-0.381230	118.295219
6.950000	-0.384477	116.275028	-40.257498	-53.907027	-40.257498	-53.907027	-0.384562	116.331051
7.000000	-0.387777	114.302606	-40.311501	-55.621781	-40.311501	-55.621781	-0.387863	114.358831
7.050000	-0.391046	112.322247	-40.371173	-57.315774	-40.371173	-57.315774	-0.391132	112.378666
7.100000	-0.394283	110.334073	-40.436621	-58.987986	-40.436621	-58.987986	-0.394369	110.390680
7.150000	-0.397488	108.338222	-40.507961	-60.637286	-40.507961	-60.637286	-0.397573	108.395009
7.200000	-0.400660	106.334847	-40.585328	-62.262419	-40.585328	-62.262419	-0.400746	106.391805
7.250000	-0.403801	104.324116	-40.668871	-63.861976	-40.668871	-63.861976	-0.403886	104.381237
7.300000	-0.406911	102.306212	-40.758753	-65.434369	-40.758753	-65.434369	-0.406995	102.363487
7.350000	-0.409990	100.281333	-40.855155	-66.977799	-40.855155	-66.977799	-0.410072	100.338752
7.400000	-0.413039	98.249693	-40.958275	-68.490216	-40.958275	-68.490216	-0.413120	98.307246
7.450000	-0.416059	96.211519	-41.068325	-69.969274	-41.068325	-69.969274	-0.416138	96.269195
7.500000	-0.419051	94.167055	-41.185535	-71.412282	-41.185535	-71.412282	-0.419127	94.224844
7.550000	-0.422015	92.116436	-41.310270	-72.815209	-41.310270	-72.815209	-0.422089	92.174326
7.600000	-0.424955	90.060072	-41.442660	-74.175228	-41.442660	-74.175228	-0.425026	90.118050
7.650000	-0.427870	87.998252	-41.582962	-75.488160	-41.582962	-75.488160	-0.427938	88.056306
7.700000	-0.430764	85.931279	-41.731431	-76.749174	-41.731431	-76.749174	-0.430828	85.989396
7.750000	-0.433637	83.859469	-41.888312	-77.952668	-41.888312	-77.952668	-0.433697	83.917636
7.800000	-0.436492	81.783153	-42.053824	-79.092158	-42.053824	-79.092158	-0.436548	81.841356
7.850000	-0.439331	79.702673	-42.228141	-80.160138	-42.228141	-80.160138	-0.439382	79.760898
7.900000	-0.442156	77.618386	-42.411371	-81.147941	-42.411371	-81.147941	-0.442202	77.676619
7.950000	-0.444970	75.530659	-42.603515	-82.045583	-42.603515	-82.045583	-0.445010	75.588885
8.000000	-0.447774	73.439872	-42.804427	-82.841623	-42.804427	-82.841623	-0.447808	73.498075
8.050000	-0.450572	71.346414	-43.013750	-83.523029	-43.013750	-83.523029	-0.450599	71.404580
8.100000	-0.453365	69.250685	-43.230843	-84.075096	-43.230843	-84.075096	-0.453385	69.308800
8.150000	-0.456157	67.153080	-43.454673	-84.479652	-43.454673	-84.479652	-0.456169	67.211128
8.200000	-0.458949	65.054032	-43.683630	-84.718122	-43.683630	-84.718122	-0.458953	65.111997
8.250000	-0.461744	62.953987	-43.915479	-84.772939	-43.915479	-84.772939	-0.461739	63.011855
8.300000	-0.464544	60.853380	-44.147178	-84.624569	-44.147178	-84.624569	-0.464531	60.911135
8.350000	-0.467352	58.752651	-44.374695	-84.254306	-44.374695	-84.254306	-0.467329	58.810279
8.400000	-0.470171	56.652245	-44.592866	-83.646106	-44.592866	-83.646106	-0.470137	56.709733
8.450000	-0.473001	54.552613	-44.795306	-82.789126	-44.795306	-82.789126	-0.472956	54.609946
8.500000	-0.475845	52.454209	-44.974461	-81.680945	-44.974461	-81.680945	-0.475789	52.511374
8.550000	-0.478705	50.357488	-45.121851	-80.331207	-45.121851	-80.331207	-0.478637	50.414473
8.600000	-0.481583	48.262910	-45.228587	-78.765099	-45.228587	-78.765099	-0.481502	48.319703
8.650000	-0.484479	46.170935	-45.286177	-77.025752	-45.286177	-77.025752	-0.484385	46.227525
8.700000	-0.487395	44.082021	-45.287559	-75.174422	-45.287559	-75.174422	-0.487287	44.138398
8.750000	-0.490332	41.996627	-45.228178	-73.287586	-45.228178	-73.287586	-0.490210	42.052783
8.800000	-0.493292	39.915308	-45.105501	-71.453843	-45.105501	-71.453843	-0.493154	39.971235
8.850000	-0.496272	37.838441	-44.923635	-69.759606	-44.923635	-69.759606	-0.496119	37.894133
8.900000	-0.499275	35.766478	-44.688858	-68.281249	-44.688858	-68.281249	-0.499106	35.821930
8.950000	-0.502300	33.699865	-44.410136	-67.078980	-44.410136	-67.078980	-0.502114	33.755075
9.000000	-0.505345	31.639043	-44.098010	-66.193062	-44.098010	-66.193062	-0.505143	31.694009
9.050000	-0.508411	29.584449	-43.763465	-65.643364	-43.763465	-65.643364	-0.508191	29.639172
9.100000	-0.511495	27.536512	-43.416992	-65.431511	-43.416992	-65.431511	-0.511258	27.590994
9.150000	-0.514597	25.495653	-43.067944	-65.544530	-43.067944	-65.544530	-0.514342	25.549900
9.200000	-0.517714	23.462288	-42.724193	-65.958951	-42.724193	-65.958951	-0.517441	23.516306
9.250000	-0.520843	21.436822	-42.392016	-66.644647	-42.392016	-66.644647	-0.520552	21.490621
9.300000	-0.523983	19.419653	-42.076157	-67.568053	-42.076157	-67.568053	-0.523674	19.473243
9.350000	-0.527129	17.411167	-41.779975	-68.694629	-41.779975	-68.694629	-0.526803	17.464564
9.400000	-0.530279	15.411846	-41.505801	-69.992109	-41.505801	-69.992109	-0.529936	15.465065
9.450000	-0.533429	13.422069	-41.254877	-71.427745	-41.254877	-71.427745	-0.533068	13.475131
9.500000	-0.536574	11.442093	-41.027407	-72.970850	-41.027407	-72.970850	-0.536198	11.495020
9.550000	-0.539710	9.472263	-40.823133	-74.595661	-40.823133	-74.595661	-0.539319	9.525080
9.600000	-0.542832	7.512913	-40.641352	-76.279606	-40.641352	-76.279606	-0.542427	7.565649
9.650000	-0.545936	5.564366	-40.481046	-78.003244	-40.481046	-78.003244	-0.545518	5.617051
9.700000	-0.549015	3.626932	-40.340986	-79.750094	-40.340986	-79.750094	-0.548587	3.679600
9.750000	-0.552065	1.700910	-40.219817	-81.506397	-40.219817	-81.506397	-0.551628	1.753598
9.800000	-0.555080	-0.213414	-40.116126	-83.260844	-40.116126	-83.260844	-0.554635	-0.160665
9.850000	-0.558053	-2.115763	-40.028489	-85.004290	-40.028489	-85.004290	-0.557604	-2.062911
9.900000	-0.560978	-4.005874	-39.955513	-86.729469	-39.955513	-86.729469	-0.560529	-3.952874
9.950000	-0.563850	-5.883497	-39.895857	-88.430728	-39.895857	-88.430728	-0.563403	-5.830299
10.000000	-0.566662	-7.748392	-39.848253	-90.103776	-39.848253	-90.103776	-0.566220	-7.694943
