! freq	dB(S11)	phase(S11)	dB(S12)	phase(S12)	
!     	dB(S21)	phase(S21)	dB(S22)	phase(S22)	
!S-par simulation data
#  GHz  S  DB  R 50
0.000000	-84.108720	0.000000	-0.000541	0.000000	-0.000541	0.000000	-84.108719	0.000000
0.050000	-36.826545	-92.561947	-0.006418	-2.986683	-0.006418	-2.986683	-36.825537	-92.494285
0.100000	-30.865280	-95.809240	-0.014555	-5.930822	-0.014555	-5.930822	-30.863999	-95.676276
0.150000	-27.392032	-98.980578	-0.023046	-8.864313	-0.023046	-8.864313	-27.390451	-98.783737
0.200000	-24.940603	-102.074412	-0.033039	-11.791124	-0.033039	-11.791124	-24.938798	-101.815140
0.250000	-23.049410	-105.119586	-0.044436	-14.709787	-0.044436	-14.709787	-23.047444	-104.799242
0.300000	-21.517773	-108.127328	-0.056692	-17.620839	-0.056692	-17.620839	-21.515673	-107.747816
0.350000	-20.232903	-111.113485	-0.070291	-20.530825	-0.070291	-20.530825	-20.230686	-110.676759
0.400000	-19.132994	-114.080170	-0.085910	-23.432962	-0.085910	-23.432962	-19.130672	-113.588924
0.450000	-18.175574	-117.030787	-0.102884	-26.325300	-0.102884	-26.325300	-18.173165	-116.488090
0.500000	-17.330556	-119.967716	-0.120873	-29.209227	-0.120873	-29.209227	-17.328083	-119.376784
0.550000	-16.578237	-122.890927	-0.139802	-32.084712	-0.139802	-32.084712	-16.575725	-122.255459
0.600000	-15.905579	-125.799008	-0.159652	-34.950835	-0.159652	-34.950835	-15.903062	-125.123583
0.650000	-15.298299	-128.693874	-0.180197	-37.808747	-0.180197	-37.808747	-15.295804	-127.982897
0.700000	-14.747503	-131.575407	-0.201335	-40.658366	-0.201335	-40.658366	-14.745059	-130.833685
0.750000	-14.248735	-134.441443	-0.223004	-43.498358	-0.223004	-43.498358	-14.246370	-133.675072
0.800000	-13.794164	-137.293422	-0.245022	-46.329656	-0.245022	-46.329656	-13.791902	-136.508434
0.850000	-13.378515	-140.131748	-0.267254	-49.152573	-0.267254	-49.152573	-13.376376	-139.334497
0.900000	-12.999264	-142.955284	-0.289574	-51.966515	-0.289574	-51.966515	-12.997271	-142.153270
0.950000	-12.653507	-145.763684	-0.311832	-54.771433	-0.311832	-54.771433	-12.651682	-144.965319
1.000000	-12.336740	-148.558424	-0.333907	-57.568390	-0.333907	-57.568390	-12.335102	-147.772020
1.050000	-12.046807	-151.339425	-0.355678	-60.357559	-0.355678	-60.357559	-12.045377	-150.574079
1.100000	-11.784293	-154.104533	-0.376931	-63.138076	-0.376931	-63.138076	-11.783101	-153.371846
1.150000	-11.544655	-156.856230	-0.397628	-65.911662	-0.397628	-65.911662	-11.543730	-156.167003
1.200000	-11.326423	-159.594616	-0.417664	-68.678749	-0.417664	-68.678749	-11.325795	-158.960528
1.250000	-11.130075	-162.318249	-0.436835	-71.439169	-0.436835	-71.439169	-11.129787	-161.753529
1.300000	-10.953226	-165.028312	-0.455100	-74.194049	-0.455100	-74.194049	-10.953323	-164.547378
1.350000	-10.794784	-167.724993	-0.472374	-76.944067	-0.472374	-76.944067	-10.795315	-167.343372
1.400000	-10.654996	-170.407370	-0.488486	-79.689669	-0.488486	-79.689669	-10.656025	-170.143284
1.450000	-10.533574	-173.075036	-0.503300	-82.431722	-0.503300	-82.431722	-10.535175	-172.949247
1.500000	-10.426335	-175.731184	-0.517051	-85.171635	-0.517051	-85.171635	-10.428569	-175.761216
1.550000	-10.335048	-178.373669	-0.529486	-87.909772	-0.529486	-87.909772	-10.337997	-178.581810
1.600000	-10.261291	178.999620	-0.540349	-90.647110	-0.540349	-90.647110	-10.265061	178.585206
1.650000	-10.202304	176.386738	-0.549814	-93.384833	-0.549814	-93.384833	-10.206996	175.739262
1.700000	-10.157236	173.787466	-0.557908	-96.123772	-0.557908	-96.123772	-10.162954	172.878960
1.750000	-10.127032	171.203454	-0.564487	-98.864998	-0.564487	-98.864998	-10.133902	170.000774
1.800000	-10.111244	168.635077	-0.569562	-101.609526	-0.569562	-101.609526	-10.119402	167.102413
1.850000	-10.109772	166.083166	-0.573126	-104.358399	-0.573126	-104.358399	-10.119369	164.181115
1.900000	-10.122575	163.548765	-0.575183	-107.112665	-0.575183	-107.112665	-10.133778	161.233900
1.950000	-10.149675	161.033160	-0.575746	-109.873379	-0.575746	-109.873379	-10.162671	158.257538
2.000000	-10.191150	158.537925	-0.574839	-112.641590	-0.574839	-112.641590	-10.206149	155.248519
2.050000	-10.247138	156.064967	-0.572495	-115.418342	-0.572495	-115.418342	-10.264377	152.203014
2.100000	-10.317832	153.616578	-0.568759	-118.204667	-0.568759	-118.204667	-10.337583	149.116829
2.150000	-10.403482	151.195500	-0.563685	-121.001581	-0.563685	-121.001581	-10.426053	145.985352
2.200000	-10.504392	148.805001	-0.557338	-123.810077	-0.557338	-123.810077	-10.530140	142.803484
2.250000	-10.620918	146.448955	-0.549793	-126.631119	-0.549793	-126.631119	-10.650256	139.565568
2.300000	-10.753469	144.131953	-0.541136	-129.465638	-0.541136	-129.465638	-10.786876	136.265287
2.350000	-10.902496	141.859417	-0.531462	-132.314522	-0.531462	-132.314522	-10.940532	132.895558
2.400000	-11.068498	139.637745	-0.520875	-135.178605	-0.520875	-135.178605	-11.111818	129.448393
2.450000	-11.252001	137.474480	-0.509492	-138.058650	-0.509492	-138.058650	-11.301374	125.914735
2.500000	-11.453557	135.378504	-0.497442	-140.955319	-0.497442	-140.955319	-11.509887	122.284255
2.550000	-11.674139	133.363334	-0.484868	-143.869687	-0.484868	-143.869687	-11.738516	118.540994
2.600000	-11.913818	131.439261	-0.472021	-146.801503	-0.472021	-146.801503	-11.987506	114.674298
2.650000	-12.173047	129.621047	-0.459346	-149.751926	-0.459346	-149.751926	-12.257536	110.668078
2.700000	-12.452163	127.926044	-0.446918	-152.726571	-0.446918	-152.726571	-12.549213	106.503604
2.750000	-12.751308	126.374609	-0.433761	-155.723813	-0.433761	-155.723813	-12.862998	102.159002
2.800000	-13.070329	124.990532	-0.420487	-158.738106	-0.420487	-158.738106	-13.199105	97.608701
2.850000	-13.408626	123.801451	-0.407722	-161.771095	-0.407722	-161.771095	-13.557361	92.822829
2.900000	-13.764955	122.839181	-0.395647	-164.824132	-0.395647	-164.824132	-13.936996	87.766640
2.950000	-14.137160	122.139819	-0.384399	-167.897629	-0.384399	-167.897629	-14.336361	82.400069
3.000000	-14.521823	121.743417	-0.374134	-170.991648	-0.374134	-170.991648	-14.752532	76.677638
3.050000	-14.913830	121.692890	-0.365014	-174.106080	-0.365014	-174.106080	-15.180800	70.549093
3.100000	-15.305872	122.031679	-0.357207	-177.240693	-0.357207	-177.240693	-15.614027	63.961322
3.150000	-15.682376	122.864653	-0.351107	179.602114	-0.351107	179.602114	-16.036257	56.783676
3.200000	-16.038774	124.097544	-0.346454	176.428135	-0.346454	176.428135	-16.441774	49.120468
3.250000	-16.355418	125.793657	-0.343594	173.235326	-0.343594	173.235326	-16.808866	40.884407
3.300000	-16.614010	127.929351	-0.342669	170.024323	-0.342669	170.024323	-17.115842	32.089932
3.350000	-16.800282	130.430175	-0.343714	166.796591	-0.343714	166.796591	-17.344577	22.815929
3.400000	-16.889858	133.217892	-0.347032	163.551488	-0.347032	163.551488	-17.464870	13.143361
3.450000	-16.878721	136.128672	-0.352562	160.291142	-0.352562	160.291142	-17.469640	3.271521
3.500000	-16.747734	138.982986	-0.360750	157.014322	-0.360750	157.014322	-17.335361	-6.585370
3.550000	-16.520395	141.623839	-0.371284	153.724434	-0.371284	153.724434	-17.089339	-16.223504
3.600000	-16.208901	143.931328	-0.384212	150.422386	-0.384212	150.422386	-16.746836	-25.494925
3.650000	-15.820118	145.756643	-0.399886	147.107773	-0.399886	147.107773	-16.317645	-34.226304
3.700000	-15.379974	147.079454	-0.418140	143.782567	-0.418140	143.782567	-15.833044	-42.396215
3.750000	-14.909042	147.915315	-0.438840	140.448325	-0.438840	140.448325	-15.317283	-50.027738
3.800000	-14.419122	148.250673	-0.462107	137.105560	-0.462107	137.105560	-14.784162	-57.113594
3.850000	-13.920957	148.091400	-0.488045	133.754909	-0.488045	133.754909	-14.245754	-63.668700
3.900000	-13.427614	147.533151	-0.516299	130.398230	-0.516299	130.398230	-13.715930	-69.802181
3.950000	-12.944802	146.614333	-0.546799	127.036350	-0.546799	127.036350	-13.200436	-75.559328
4.000000	-12.475248	145.321855	-0.579795	123.669387	-0.579795	123.669387	-12.701860	-80.931277
4.050000	-12.023871	143.748288	-0.614826	120.298858	-0.614826	120.298858	-12.224789	-86.016490
4.100000	-11.592125	141.927417	-0.651750	116.925408	-0.651750	116.925408	-11.770289	-90.851319
4.150000	-11.180927	139.865908	-0.690582	113.549349	-0.690582	113.549349	-11.338946	-95.444111
4.200000	-10.790863	137.597642	-0.731096	110.171230	-0.731096	110.171230	-10.930976	-99.830093
4.250000	-10.421652	135.159542	-0.773005	106.791518	-0.773005	106.791518	-10.545742	-104.046964
4.300000	-10.073104	132.563855	-0.816164	103.410334	-0.816164	103.410334	-10.182781	-108.107568
4.350000	-9.745616	129.811785	-0.860442	100.027559	-0.860442	100.027559	-9.842260	-112.013890
4.400000	-9.437606	126.937455	-0.905502	96.643285	-0.905502	96.643285	-9.522335	-115.800375
4.450000	-9.148387	123.950869	-0.951142	93.257261	-0.951142	93.257261	-9.222129	-119.477678
4.500000	-8.878721	120.845890	-0.997139	89.868698	-0.997139	89.868698	-8.942236	-123.041211
4.550000	-8.626943	117.642331	-1.043225	86.477187	-1.043225	86.477187	-8.680828	-126.511566
4.600000	-8.392092	114.349083	-1.089177	83.082069	-1.089177	83.082069	-8.436804	-129.898815
4.650000	-8.174444	110.963744	-1.134701	79.681999	-1.134701	79.681999	-8.210298	-133.202954
4.700000	-7.973782	107.487930	-1.179495	76.275499	-1.179495	76.275499	-8.000957	-136.428196
4.750000	-7.788515	103.932447	-1.223394	72.861768	-1.223394	72.861768	-7.807092	-139.586723
4.800000	-7.618351	100.297525	-1.266147	69.439214	-1.266147	69.439214	-7.628295	-142.681556
4.850000	-7.464918	96.570204	-1.307213	66.004071	-1.307213	66.004071	-7.465982	-145.706380
4.900000	-7.325936	92.763293	-1.346599	62.555973	-1.346599	62.555973	-7.317824	-148.674594
4.950000	-7.201227	88.874969	-1.384066	59.092706	-1.384066	59.092706	-7.183514	-151.588252
5.000000	-7.092326	84.891506	-1.419053	55.609224	-1.419053	55.609224	-7.064319	-154.442492
5.050000	-6.998482	80.813838	-1.451429	52.103325	-1.451429	52.103325	-6.959350	-157.242072
5.100000	-6.919050	76.642081	-1.481099	48.572929	-1.481099	48.572929	-6.867827	-159.990705
5.150000	-6.855072	72.364139	-1.507648	45.012728	-1.507648	45.012728	-6.790479	-162.685566
5.200000	-6.807669	67.966334	-1.530669	41.416645	-1.530669	41.416645	-6.728051	-165.323565
5.250000	-6.776352	63.446294	-1.550160	37.781976	-1.550160	37.781976	-6.679818	-167.906973
5.300000	-6.762115	58.790271	-1.565849	34.102756	-1.565849	34.102756	-6.646330	-170.432412
5.350000	-6.767320	53.971560	-1.577233	30.368594	-1.577233	30.368594	-6.629174	-172.891282
5.400000	-6.791805	48.983611	-1.584463	26.576189	-1.584463	26.576189	-6.627735	-175.282791
5.450000	-6.837048	43.805628	-1.587417	22.717851	-1.587417	22.717851	-6.642684	-177.599689
5.500000	-6.905834	38.402528	-1.585844	18.781427	-1.585844	18.781427	-6.675533	-179.828480
5.550000	-7.000890	32.735700	-1.579709	14.754485	-1.579709	14.754485	-6.727440	178.046827
5.600000	-7.123666	26.777660	-1.569366	10.629582	-1.569366	10.629582	-6.798372	176.039107
5.650000	-7.277194	20.481384	-1.555074	6.394034	-1.555074	6.394034	-6.889119	174.170288
5.700000	-7.467357	13.754343	-1.537066	2.023239	-1.537066	2.023239	-7.001605	172.483270
5.750000	-7.696748	6.530282	-1.516332	-2.495225	-1.516332	-2.495225	-7.134759	171.011883
5.800000	-7.967802	-1.264000	-1.494029	-7.173066	-1.494029	-7.173066	-7.286740	169.792827
5.850000	-8.286501	-9.803652	-1.471674	-12.044002	-1.471674	-12.044002	-7.455602	168.907144
5.900000	-8.654018	-19.267841	-1.451682	-17.132857	-1.451682	-17.132857	-7.634512	168.432251
5.950000	-9.066028	-29.850825	-1.437094	-22.459520	-1.437094	-22.459520	-7.811917	168.438725
6.000000	-9.509605	-41.859658	-1.432302	-28.057730	-1.432302	-28.057730	-7.968764	169.018379
6.050000	-9.952959	-55.589152	-1.442694	-33.951375	-1.442694	-33.951375	-8.077669	170.214122
6.100000	-10.334299	-71.343235	-1.475574	-40.169134	-1.475574	-40.169134	-8.101234	172.013456
6.150000	-10.555286	-89.222005	-1.540031	-46.732819	-1.540031	-46.732819	-7.997845	174.280142
6.200000	-10.504454	-108.868038	-1.646282	-53.649032	-1.646282	-53.649032	-7.735839	176.730028
6.250000	-10.097091	-129.431423	-1.807714	-60.921554	-1.807714	-60.921554	-7.299425	178.964526
6.300000	-9.349312	-149.744716	-2.038421	-68.527447	-2.038421	-68.527447	-6.706722	-179.443162
6.350000	-8.373069	-168.920185	-2.352113	-76.416561	-2.352113	-76.416561	-6.004872	-178.803468
6.400000	-7.304857	173.412890	-2.761760	-84.514943	-2.761760	-84.514943	-5.252266	-179.252166
6.450000	-6.254503	157.247447	-3.277692	-92.725040	-3.277692	-92.725040	-4.504271	179.245489
6.500000	-5.290007	142.430416	-3.906683	-100.932818	-3.906683	-100.932818	-3.803596	176.837611
6.550000	-4.444481	128.778984	-4.650039	-109.020006	-4.650039	-109.020006	-3.177183	173.738327
6.600000	-3.727230	116.152777	-5.505327	-116.876407	-5.505327	-116.876407	-2.637439	170.161393
6.650000	-3.132296	104.428954	-6.467164	-124.415924	-6.467164	-124.415924	-2.184802	166.300349
6.700000	-2.648810	93.532929	-7.529030	-131.564309	-7.529030	-131.564309	-1.814568	162.303741
6.750000	-2.261082	83.379771	-8.684757	-138.276805	-8.684757	-138.276805	-1.516761	158.285846
6.800000	-1.953154	73.891190	-9.931126	-144.526417	-9.931126	-144.526417	-1.280093	154.322121
6.850000	-1.710680	64.995944	-11.268482	-150.292748	-11.268482	-150.292748	-1.093832	150.458798
6.900000	-1.521185	56.626060	-12.701987	-155.554178	-12.701987	-155.554178	-0.948308	146.720984
6.950000	-1.374229	48.717663	-14.242936	-160.275903	-14.242936	-160.275903	-0.835245	143.119155
7.000000	-1.261295	41.211740	-15.910595	-164.393240	-15.910595	-164.393240	-0.747791	139.654273
7.050000	-1.175557	34.054568	-17.735107	-167.784141	-17.735107	-167.784141	-0.680405	136.321523
7.100000	-1.111691	27.199019	-19.760898	-170.209825	-19.760898	-170.209825	-0.628732	133.113438
7.150000	-1.065472	20.602348	-22.053693	-171.188590	-22.053693	-171.188590	-0.589294	130.020847
7.200000	-1.033409	14.223404	-24.710332	-169.726892	-24.710332	-169.726892	-0.559248	127.032598
7.250000	-1.013186	8.032023	-27.801223	-163.312705	-27.801223	-163.312705	-0.536628	124.141074
7.300000	-1.002322	1.989892	-31.093912	-146.851456	-31.093912	-146.851456	-0.519483	121.332982
7.350000	-0.999588	-3.925054	-32.895277	-116.839035	-32.895277	-116.839035	-0.506736	118.602365
7.400000	-1.003506	-9.741505	-31.686709	-88.367757	-31.686709	-88.367757	-0.497239	115.938784
7.450000	-1.013775	-15.472922	-29.269841	-74.239485	-29.269841	-74.239485	-0.490495	113.341699
7.500000	-1.028834	-21.149860	-27.194133	-68.109086	-27.194133	-68.109086	-0.485551	110.795911
7.550000	-1.049191	-26.780774	-25.562040	-66.573342	-25.562040	-66.573342	-0.482288	108.307236
7.600000	-1.073474	-32.390419	-24.268211	-66.825867	-24.268211	-66.825867	-0.480039	105.860377
7.650000	-1.102028	-37.992175	-23.236667	-68.256771	-23.236667	-68.256771	-0.478674	103.458016
7.700000	-1.134259	-43.601527	-22.393168	-70.331056	-22.393168	-70.331056	-0.477891	101.092501
7.750000	-1.170140	-49.233673	-21.696673	-72.836791	-21.696673	-72.836791	-0.477531	98.761951
7.800000	-1.209615	-54.903399	-21.116973	-75.646442	-21.116973	-75.646442	-0.477457	96.464073
7.850000	-1.252331	-60.620986	-20.626835	-78.659227	-20.626835	-78.659227	-0.477539	94.193921
7.900000	-1.298628	-66.407844	-20.217248	-81.849659	-20.217248	-81.849659	-0.477702	91.952957
7.950000	-1.347889	-72.264832	-19.867229	-85.159023	-19.867229	-85.159023	-0.477866	89.734610
8.000000	-1.400570	-78.221256	-19.576154	-88.588997	-19.576154	-88.588997	-0.477968	87.541651
8.050000	-1.456054	-84.273251	-19.329674	-92.106994	-19.329674	-92.106994	-0.477972	85.368522
8.100000	-1.514460	-90.445539	-19.126782	-95.714040	-19.126782	-95.714040	-0.477826	83.216153
8.150000	-1.575412	-96.742962	-18.961174	-99.398712	-18.961174	-99.398712	-0.477509	81.082070
8.200000	-1.638590	-103.176651	-18.829612	-103.156458	-18.829612	-103.156458	-0.476992	78.965036
8.250000	-1.703670	-109.765303	-18.731352	-106.988258	-18.731352	-106.988258	-0.476244	76.864867
8.300000	-1.770007	-116.500292	-18.661016	-110.883709	-18.661016	-110.883709	-0.475274	74.778687
8.350000	-1.837012	-123.417688	-18.622085	-114.852799	-18.622085	-114.852799	-0.474027	72.707976
8.400000	-1.903933	-130.491016	-18.608051	-118.881299	-18.608051	-118.881299	-0.472543	70.649102
8.450000	-1.969640	-137.754039	-18.622739	-122.979189	-18.622739	-122.979189	-0.470778	68.603265
8.500000	-2.033338	-145.184030	-18.661916	-127.136519	-18.661916	-127.136519	-0.468770	66.567887
8.550000	-2.093614	-152.792384	-18.726907	-131.356519	-18.726907	-131.356519	-0.466518	64.542756
8.600000	-2.149296	-160.570260	-18.816501	-135.636229	-18.816501	-135.636229	-0.464054	62.526583
8.650000	-2.199457	-168.500211	-18.928456	-139.970913	-18.928456	-139.970913	-0.461432	60.517754
8.700000	-2.242354	-176.583484	-19.062992	-144.364956	-19.062992	-144.364956	-0.458712	58.515556
8.750000	-2.277218	175.201788	-19.216485	-148.818538	-19.216485	-148.818538	-0.456012	56.518057
8.800000	-2.303264	166.871947	-19.384651	-153.341953	-19.384651	-153.341953	-0.453509	54.523247
8.850000	-2.320575	158.446914	-19.560398	-157.957341	-19.560398	-157.957341	-0.451486	52.528417
8.900000	-2.330144	149.942077	-19.733302	-162.714307	-19.733302	-162.714307	-0.450425	50.529975
8.950000	-2.334834	141.365862	-19.887766	-167.715633	-19.887766	-167.715633	-0.451204	48.522881
9.000000	-2.341378	132.713858	-20.001424	-173.175159	-20.001424	-173.175159	-0.455571	46.500218
9.050000	-2.365576	123.965577	-20.046888	-179.550698	-20.046888	-179.550698	-0.467306	44.454411
9.100000	-2.446246	115.117760	-20.014703	172.152162	-20.014703	172.152162	-0.494988	42.389521
9.150000	-2.672383	106.460566	-20.039669	159.868538	-20.039669	159.868538	-0.555402	40.389574
9.200000	-3.098466	99.714428	-20.861096	141.422886	-20.861096	141.422886	-0.647107	38.815835
9.250000	-3.195454	96.129645	-23.724080	123.801357	-23.724080	123.801357	-0.659256	37.767238
9.300000	-2.822746	91.127870	-27.597258	120.405147	-27.597258	120.405147	-0.585409	36.335749
9.350000	-2.483847	84.348856	-30.396112	127.771794	-30.396112	127.771794	-0.523703	34.512722
9.400000	-2.258984	77.223571	-31.877078	135.507880	-31.877078	135.507880	-0.487844	32.588707
9.450000	-2.099397	70.249531	-32.877590	140.204310	-32.877590	140.204310	-0.466615	30.665665
9.500000	-1.977155	63.541109	-33.841927	142.598638	-33.841927	142.598638	-0.453653	28.764210
9.550000	-1.875475	57.091568	-34.938298	144.021534	-34.938298	144.021534	-0.445032	26.884530
9.600000	-1.787673	50.892267	-36.226477	145.284169	-36.226477	145.284169	-0.439140	25.024969
9.650000	-1.710262	44.938521	-37.748322	147.131773	-37.748322	147.131773	-0.435085	23.184180
9.700000	-1.641151	39.222192	-39.534171	150.566855	-39.534171	150.566855	-0.432289	21.360821
9.750000	-1.578648	33.717065	-41.596738	156.920524	-41.596738	156.920524	-0.430340	19.552637
9.800000	-1.521979	28.411874	-43.829947	168.358248	-43.829947	168.358248	-0.429024	17.758720
9.850000	-1.470869	23.306973	-45.604121	-172.096921	-45.604121	-172.096921	-0.428213	15.979166
9.900000	-1.424687	18.384371	-45.815574	-147.785766	-45.815574	-147.785766	-0.427774	14.212896
9.950000	-1.382949	13.628651	-44.476626	-127.739532	-44.476626	-127.739532	-0.427617	12.459066
10.000000	-1.345360	9.030514	-42.601586	-115.417239	-42.601586	-115.417239	-0.427688	10.717310
