! freq	dB(S11)	phase(S11)	dB(S12)	phase(S12)	
!     	dB(S21)	phase(S21)	dB(S22)	phase(S22)	
!S-par simulation data
#  GHz  S  DB  R 50
0.000000	-0.000000	0.000000	-375.253851	0.000000	-375.253851	0.000000	-0.000000	0.000000
0.050000	-0.001573	-0.974226	-107.481790	88.334267	-107.481790	88.334267	-0.001535	-0.974113
0.100000	-0.003527	-1.933771	-101.520761	87.766518	-101.520761	87.766518	-0.003487	-1.933850
0.150000	-0.004733	-2.889099	-98.053439	87.006965	-98.053439	87.006965	-0.004711	-2.889222
0.200000	-0.005603	-3.844128	-95.620432	86.201959	-95.620432	86.201959	-0.005594	-3.844221
0.250000	-0.006363	-4.799286	-93.765897	85.392164	-93.765897	85.392164	-0.006361	-4.799328
0.300000	-0.007121	-5.754402	-92.287338	84.599022	-92.287338	84.599022	-0.007122	-5.754391
0.350000	-0.007918	-6.709270	-91.070218	83.833886	-91.070218	83.833886	-0.007920	-6.709213
0.400000	-0.008790	-7.663544	-90.067967	83.123154	-90.067967	83.123154	-0.008792	-7.663449
0.450000	-0.009687	-8.617620	-89.187992	82.430106	-89.187992	82.430106	-0.009687	-8.617490
0.500000	-0.010687	-9.570536	-88.476532	81.842461	-88.476532	81.842461	-0.010686	-9.570382
0.550000	-0.011713	-10.523075	-87.844338	81.292844	-87.844338	81.292844	-0.011710	-10.522900
0.600000	-0.012812	-11.474501	-87.325101	80.856520	-87.325101	80.856520	-0.012807	-11.474313
0.650000	-0.013941	-12.425319	-86.871219	80.491207	-86.871219	80.491207	-0.013934	-12.425122
0.700000	-0.015122	-13.374984	-86.505308	80.269507	-86.505308	80.269507	-0.015112	-13.374783
0.750000	-0.016338	-14.323647	-86.209026	80.191798	-86.209026	80.191798	-0.016327	-14.323446
0.800000	-0.017584	-15.271244	-85.978988	80.288941	-85.978988	80.288941	-0.017571	-15.271048
0.850000	-0.018855	-16.217668	-85.814987	80.610279	-85.814987	80.610279	-0.018842	-16.217479
0.900000	-0.020145	-17.162986	-85.708268	81.178729	-85.708268	81.178729	-0.020131	-17.162807
0.950000	-0.021449	-18.107176	-85.655338	82.041115	-85.655338	82.041115	-0.021434	-18.107009
1.000000	-0.022762	-19.050217	-85.652197	83.253364	-85.652197	83.253364	-0.022747	-19.050063
1.050000	-0.024082	-19.992089	-85.693652	84.881539	-85.693652	84.881539	-0.024067	-19.991950
1.100000	-0.025405	-20.932774	-85.772402	87.002056	-85.772402	87.002056	-0.025390	-20.932651
1.150000	-0.026728	-21.872167	-85.878492	89.749335	-85.878492	89.749335	-0.026715	-21.872061
1.200000	-0.028050	-22.810287	-85.992418	93.205246	-85.992418	93.205246	-0.028037	-22.810197
1.250000	-0.029368	-23.747171	-86.089274	97.418184	-86.089274	97.418184	-0.029356	-23.747097
1.300000	-0.030680	-24.682803	-86.137634	102.424500	-86.137634	102.424500	-0.030669	-24.682745
1.350000	-0.031986	-25.617168	-86.099911	108.191784	-86.099911	108.191784	-0.031977	-25.617126
1.400000	-0.033285	-26.550252	-85.937265	114.588688	-85.937265	114.588688	-0.033277	-26.550225
1.450000	-0.034576	-27.482031	-85.616937	121.374051	-85.616937	121.374051	-0.034569	-27.482018
1.500000	-0.035858	-28.412351	-85.102702	128.187941	-85.102702	128.187941	-0.035853	-28.412352
1.550000	-0.037131	-29.341339	-84.425253	134.660170	-84.425253	134.660170	-0.037128	-29.341353
1.600000	-0.038396	-30.268979	-83.614218	140.531787	-83.614218	140.531787	-0.038394	-30.269005
1.650000	-0.039653	-31.195255	-82.707584	145.652076	-82.707584	145.652076	-0.039653	-31.195291
1.700000	-0.040902	-32.120067	-81.734439	149.927417	-81.734439	149.927417	-0.040903	-32.120112
1.750000	-0.042143	-33.043497	-80.737793	153.448676	-80.737793	153.448676	-0.042145	-33.043551
1.800000	-0.043377	-33.965486	-79.736407	156.264879	-79.736407	156.264879	-0.043380	-33.965548
1.850000	-0.044604	-34.886016	-78.746271	158.465263	-78.746271	158.465263	-0.044609	-34.886085
1.900000	-0.045825	-35.805069	-77.777470	160.139300	-77.777470	160.139300	-0.045831	-35.805144
1.950000	-0.047041	-36.722626	-76.835850	161.368617	-76.835850	161.368617	-0.047048	-36.722705
2.000000	-0.048252	-37.638667	-75.924386	162.224025	-75.924386	162.224025	-0.048260	-37.638751
2.050000	-0.049460	-38.553175	-75.044195	162.765276	-75.044195	162.765276	-0.049468	-38.553262
2.100000	-0.050664	-39.466131	-74.195223	163.042053	-74.195223	163.042053	-0.050673	-39.466219
2.150000	-0.051865	-40.377516	-73.376720	163.095383	-73.376720	163.095383	-0.051875	-40.377606
2.200000	-0.053065	-41.287311	-72.587536	162.959075	-72.587536	162.959075	-0.053075	-41.287402
2.250000	-0.054264	-42.195500	-71.826317	162.661018	-71.826317	162.661018	-0.054275	-42.195590
2.300000	-0.055463	-43.102064	-71.091626	162.224284	-71.091626	162.224284	-0.055474	-43.102153
2.350000	-0.056663	-44.006985	-70.382017	161.668035	-70.382017	161.668035	-0.056673	-44.007074
2.400000	-0.057864	-44.910248	-69.696082	161.008259	-69.696082	161.008259	-0.057874	-44.910334
2.450000	-0.059066	-45.811834	-69.032474	160.258368	-69.032474	160.258368	-0.059077	-45.811918
2.500000	-0.060272	-46.711728	-68.389921	159.429666	-68.389921	159.429666	-0.060282	-46.711809
2.550000	-0.061481	-47.609839	-67.766162	158.529106	-67.766162	158.529106	-0.061491	-47.609917
2.600000	-0.062695	-48.506227	-67.161285	157.568100	-67.161285	157.568100	-0.062704	-48.506300
2.650000	-0.063914	-49.400875	-66.574238	156.553500	-66.574238	156.553500	-0.063922	-49.400944
2.700000	-0.065138	-50.293770	-66.004048	155.491212	-66.004048	155.491212	-0.065146	-50.293834
2.750000	-0.066368	-51.184899	-65.449814	154.386350	-65.449814	154.386350	-0.066376	-51.184958
2.800000	-0.067606	-52.074249	-64.910702	153.243362	-64.910702	153.243362	-0.067613	-52.074303
2.850000	-0.068851	-52.961808	-64.385940	152.066131	-64.385940	152.066131	-0.068857	-52.961856
2.900000	-0.070104	-53.847564	-63.874812	150.858061	-63.874812	150.858061	-0.070109	-53.847607
2.950000	-0.071365	-54.731507	-63.376653	149.622149	-63.376653	149.622149	-0.071371	-54.731543
3.000000	-0.072637	-55.613626	-62.890847	148.361039	-62.890847	148.361039	-0.072641	-55.613656
3.050000	-0.073918	-56.493911	-62.416820	147.077077	-62.416820	147.077077	-0.073922	-56.493935
3.100000	-0.075210	-57.372355	-61.954037	145.772347	-61.954037	145.772347	-0.075213	-57.372372
3.150000	-0.076512	-58.248948	-61.502001	144.448708	-61.502001	144.448708	-0.076515	-58.248958
3.200000	-0.077827	-59.123683	-61.060245	143.107825	-61.060245	143.107825	-0.077828	-59.123687
3.250000	-0.079153	-59.996555	-60.628336	141.751188	-60.628336	141.751188	-0.079154	-59.996552
3.300000	-0.080492	-60.867556	-60.205867	140.380140	-60.205867	140.380140	-0.080493	-60.867546
3.350000	-0.081845	-61.736681	-59.792454	138.995891	-59.792454	138.995891	-0.081844	-61.736664
3.400000	-0.083211	-62.603926	-59.387741	137.599536	-59.387741	137.599536	-0.083210	-62.603903
3.450000	-0.084591	-63.469287	-58.991390	136.192065	-58.991390	136.192065	-0.084590	-63.469257
3.500000	-0.085986	-64.332760	-58.603085	134.774379	-58.603085	134.774379	-0.085984	-64.332724
3.550000	-0.087396	-65.194344	-58.222526	133.347298	-58.222526	133.347298	-0.087394	-65.194301
3.600000	-0.088822	-66.054036	-57.849431	131.911567	-57.849431	131.911567	-0.088819	-66.053987
3.650000	-0.090264	-66.911836	-57.483535	130.467871	-57.483535	130.467871	-0.090261	-66.911780
3.700000	-0.091723	-67.767744	-57.124586	129.016833	-57.124586	129.016833	-0.091719	-67.767681
3.750000	-0.093198	-68.621759	-56.772344	127.559026	-56.772344	127.559026	-0.093194	-68.621689
3.800000	-0.094692	-69.473800	-56.426271	126.094728	-56.426271	126.094728	-0.094688	-69.473724
3.850000	-0.096205	-70.323952	-56.086489	124.624709	-56.086489	124.624709	-0.096199	-70.323870
3.900000	-0.097735	-71.172218	-55.752795	123.149412	-55.752795	123.149412	-0.097730	-71.172129
3.950000	-0.099285	-72.018600	-55.424992	121.669242	-55.424992	121.669242	-0.099279	-72.018505
4.000000	-0.100853	-72.863102	-55.102895	120.184575	-55.102895	120.184575	-0.100848	-72.863001
4.050000	-0.102442	-73.705729	-54.786328	118.695758	-54.786328	118.695758	-0.102436	-73.705623
4.100000	-0.104051	-74.546487	-54.475121	117.203113	-54.475121	117.203113	-0.104045	-74.546374
4.150000	-0.105681	-75.385381	-54.169115	115.706937	-54.169115	115.706937	-0.105675	-75.385262
4.200000	-0.107331	-76.222418	-53.868155	114.207509	-53.868155	114.207509	-0.107326	-76.222293
4.250000	-0.109004	-77.057605	-53.572096	112.705084	-53.572096	112.705084	-0.108998	-77.057474
4.300000	-0.110698	-77.890949	-53.280796	111.199901	-53.280796	111.199901	-0.110693	-77.890813
4.350000	-0.112415	-78.722460	-52.994122	109.692183	-52.994122	109.692183	-0.112410	-78.722318
4.400000	-0.114155	-79.552146	-52.711944	108.182136	-52.711944	108.182136	-0.114149	-79.551999
4.450000	-0.115917	-80.380018	-52.434141	106.669953	-52.434141	106.669953	-0.115913	-80.379865
4.500000	-0.117704	-81.206085	-52.160593	105.155812	-52.160593	105.155812	-0.117699	-81.205926
4.550000	-0.119515	-82.030358	-51.891186	103.639882	-51.891186	103.639882	-0.119511	-82.030193
4.600000	-0.121350	-82.852849	-51.625813	102.122317	-51.625813	102.122317	-0.121346	-82.852679
4.650000	-0.123211	-83.673571	-51.364367	100.603264	-51.364367	100.603264	-0.123207	-83.673395
4.700000	-0.125097	-84.492535	-51.106748	99.082857	-51.106748	99.082857	-0.125093	-84.492353
4.750000	-0.127008	-85.309755	-50.852859	97.561224	-50.852859	97.561224	-0.127005	-85.309567
4.800000	-0.128946	-86.125245	-50.602605	96.038482	-50.602605	96.038482	-0.128943	-86.125051
4.850000	-0.130911	-86.939019	-50.355896	94.514741	-50.355896	94.514741	-0.130908	-86.938820
4.900000	-0.132903	-87.751092	-50.112645	92.990104	-50.112645	92.990104	-0.132900	-87.750887
4.950000	-0.134922	-88.561480	-49.872768	91.464665	-49.872768	91.464665	-0.134920	-88.561269
5.000000	-0.136969	-89.370199	-49.636183	89.938514	-49.636183	89.938514	-0.136968	-89.369982
5.050000	-0.139061	-90.176341	-49.401087	88.411425	-49.401087	88.411425	-0.139060	-90.176118
5.100000	-0.141153	-90.982484	-49.172188	86.884335	-49.172188	86.884335	-0.141152	-90.982254
5.150000	-0.143300	-91.785536	-48.943652	85.356336	-48.943652	85.356336	-0.143300	-91.785300
5.200000	-0.145454	-92.588307	-48.720488	83.828255	-48.720488	83.828255	-0.145454	-92.588064
5.250000	-0.147659	-93.388337	-48.498185	82.299573	-48.498185	82.299573	-0.147659	-93.388087
5.300000	-0.149875	-94.187818	-48.280508	80.770770	-48.280508	80.770770	-0.149876	-94.187561
5.350000	-0.152139	-94.984895	-48.064130	79.241595	-48.064130	79.241595	-0.152140	-94.984631
5.400000	-0.154420	-95.781171	-47.851704	77.712297	-47.851704	77.712297	-0.154421	-95.780900
5.450000	-0.156745	-96.575370	-47.640962	76.182789	-47.640962	76.182789	-0.156746	-96.575092
5.500000	-0.159092	-97.368532	-47.433558	74.653178	-47.433558	74.653178	-0.159094	-97.368245
5.550000	-0.161479	-98.159931	-47.228176	73.123467	-47.228176	73.123467	-0.161481	-98.159636
5.600000	-0.163894	-98.950071	-47.025573	71.593685	-47.025573	71.593685	-0.163897	-98.949769
5.650000	-0.166345	-99.738752	-46.825287	70.063868	-46.825287	70.063868	-0.166347	-99.738440
5.700000	-0.168830	-100.525971	-46.627267	68.534017	-46.627267	68.534017	-0.168833	-100.525651
5.750000	-0.171345	-101.312016	-46.431824	67.004161	-46.431824	67.004161	-0.171348	-101.311688
5.800000	-0.173902	-102.096418	-46.238168	65.474298	-46.238168	65.474298	-0.173905	-102.096080
5.850000	-0.176484	-102.879917	-46.047322	63.944434	-46.047322	63.944434	-0.176487	-102.879570
5.900000	-0.179115	-103.661609	-45.857810	62.414567	-45.857810	62.414567	-0.179117	-103.661252
5.950000	-0.181764	-104.442653	-45.671317	60.884686	-45.671317	60.884686	-0.181767	-104.442286
6.000000	-0.184470	-105.221749	-45.485723	59.354760	-45.485723	59.354760	-0.184472	-105.221372
6.050000	-0.187188	-106.000432	-45.303340	57.824802	-45.303340	57.824802	-0.187190	-106.000044
6.100000	-0.189970	-106.777050	-45.121421	56.294683	-45.121421	56.294683	-0.189972	-106.776651
6.150000	-0.192759	-107.553471	-44.942902	54.764526	-44.942902	54.764526	-0.192761	-107.553062
6.200000	-0.195619	-108.327735	-44.764397	53.233965	-44.764397	53.233965	-0.195620	-108.327314
6.250000	-0.198480	-109.101998	-44.589488	51.703403	-44.589488	51.703403	-0.198480	-109.101566
6.300000	-0.201419	-109.874036	-44.414109	50.171995	-44.414109	50.171995	-0.201419	-109.873592
6.350000	-0.204359	-110.646074	-44.242201	48.640588	-44.242201	48.640588	-0.204359	-110.645618
6.400000	-0.207372	-111.416197	-44.069958	47.107833	-44.069958	47.107833	-0.207371	-111.415729
6.450000	-0.210392	-112.186146	-43.900738	45.574955	-43.900738	45.574955	-0.210391	-112.185666
6.500000	-0.213480	-112.954475	-43.731276	44.040080	-43.731276	44.040080	-0.213479	-112.953982
6.550000	-0.216583	-113.722480	-43.564377	42.504804	-43.564377	42.504804	-0.216580	-113.721974
6.600000	-0.219746	-114.489142	-43.397292	40.966713	-43.397292	40.966713	-0.219743	-114.488624
6.650000	-0.222931	-115.255358	-43.232272	39.427683	-43.232272	39.427683	-0.222927	-115.254826
6.700000	-0.226161	-116.020662	-43.067675	37.885628	-43.067675	37.885628	-0.226156	-116.020117
6.750000	-0.229430	-116.785232	-42.903862	36.340677	-42.903862	36.340677	-0.229425	-116.784674
6.800000	-0.232739	-117.549080	-42.740593	34.792131	-42.740593	34.792131	-0.232733	-117.548510
6.850000	-0.236097	-118.312119	-42.576958	33.237783	-42.576958	33.237783	-0.236090	-118.311535
6.900000	-0.239489	-119.074651	-42.413803	31.678419	-42.413803	31.678419	-0.239481	-119.074053
6.950000	-0.242915	-119.836698	-42.251021	30.113505	-42.251021	30.113505	-0.242906	-119.836087
7.000000	-0.246390	-120.598121	-42.086977	28.538503	-42.086977	28.538503	-0.246379	-120.597498
7.050000	-0.249903	-121.359132	-41.921932	26.952542	-41.921932	26.952542	-0.249892	-121.358497
7.100000	-0.253451	-122.119846	-41.756210	25.355497	-41.756210	25.355497	-0.253438	-122.119198
7.150000	-0.257034	-122.880284	-41.589213	23.744714	-41.589213	23.744714	-0.257020	-122.879624
7.200000	-0.260668	-123.640516	-41.417754	22.106937	-41.417754	22.106937	-0.260653	-123.639846
7.250000	-0.264336	-124.400762	-41.243524	20.444944	-41.243524	20.444944	-0.264320	-124.400081
7.300000	-0.268038	-125.161096	-41.066078	18.754832	-41.066078	18.754832	-0.268020	-125.160406
7.350000	-0.271788	-125.921775	-40.881364	17.014631	-40.881364	17.014631	-0.271769	-125.921078
7.400000	-0.275592	-126.683207	-40.686886	15.202275	-40.686886	15.202275	-0.275571	-126.682507
7.450000	-0.279449	-127.445582	-40.483359	13.310277	-40.483359	13.310277	-0.279427	-127.444881
7.500000	-0.283366	-128.209101	-40.269909	11.325522	-40.269909	11.325522	-0.283343	-128.208403
7.550000	-0.287443	-128.975633	-40.031207	9.107292	-40.031207	9.107292	-0.287418	-128.974948
7.600000	-0.291740	-129.745695	-39.769604	6.610882	-39.769604	6.610882	-0.291714	-129.745032
7.650000	-0.296548	-130.521954	-39.474357	3.593552	-39.474357	3.593552	-0.296522	-130.521332
7.700000	-0.302575	-131.308052	-39.144529	-0.380279	-39.144529	-0.380279	-0.302555	-131.307497
7.750000	-0.311817	-132.107640	-38.822857	-6.232393	-38.822857	-6.232393	-0.311812	-132.107175
7.800000	-0.329274	-132.909015	-38.763449	-15.664961	-38.763449	-15.664961	-0.329308	-132.908565
7.850000	-0.357865	-133.613073	-40.055026	-28.416780	-40.055026	-28.416780	-0.357927	-133.612301
7.900000	-0.367517	-134.180324	-43.154738	-27.188703	-43.154738	-27.188703	-0.367555	-134.179397
7.950000	-0.358095	-134.842515	-43.875962	-10.908257	-43.875962	-10.908257	-0.358130	-134.841539
8.000000	-0.351817	-135.582593	-42.965482	-3.364315	-42.965482	-3.364315	-0.351847	-135.581538
8.050000	-0.350033	-136.342617	-42.151964	-1.655395	-42.151964	-1.655395	-0.350055	-136.341508
8.100000	-0.350814	-137.105787	-41.566189	-1.933105	-41.566189	-1.933105	-0.350830	-137.104643
8.150000	-0.353018	-137.868432	-41.131919	-2.926729	-41.131919	-2.926729	-0.353029	-137.867264
8.200000	-0.356067	-138.629970	-40.792630	-4.209192	-40.792630	-4.209192	-0.356074	-138.628780
8.250000	-0.359639	-139.390556	-40.513186	-5.613519	-40.513186	-5.613519	-0.359642	-139.389348
8.300000	-0.363569	-140.150440	-40.274354	-7.073993	-40.274354	-7.073993	-0.363570	-140.149214
8.350000	-0.367792	-140.909835	-40.066855	-8.561105	-40.066855	-8.561105	-0.367791	-140.908590
8.400000	-0.372216	-141.668974	-39.880305	-10.058893	-39.880305	-10.058893	-0.372214	-141.667711
8.450000	-0.376715	-142.428121	-39.702878	-11.556976	-39.702878	-11.556976	-0.376711	-142.426840
8.500000	-0.381434	-143.187294	-39.544315	-13.055943	-39.544315	-13.055943	-0.381429	-143.185993
8.550000	-0.386191	-143.946558	-39.390622	-14.553753	-39.390622	-14.553753	-0.386185	-143.945237
8.600000	-0.391127	-144.706279	-39.249567	-16.045784	-39.249567	-16.045784	-0.391121	-144.704938
8.650000	-0.396081	-145.466079	-39.111404	-17.537114	-39.111404	-17.537114	-0.396074	-145.464717
8.700000	-0.401195	-146.226741	-38.982316	-19.020732	-38.982316	-19.020732	-0.401188	-146.225358
8.750000	-0.406313	-146.987404	-38.855119	-20.504351	-38.855119	-20.504351	-0.406306	-146.985999
8.800000	-0.411583	-147.749335	-38.734799	-21.979889	-38.734799	-21.979889	-0.411576	-147.747906
8.850000	-0.416857	-148.511266	-38.616124	-23.455428	-38.616124	-23.455428	-0.416849	-148.509813
8.900000	-0.422259	-149.274624	-38.502299	-24.924267	-38.502299	-24.924267	-0.422251	-149.273146
8.950000	-0.427676	-150.038112	-38.390239	-26.392497	-38.390239	-26.392497	-0.427668	-150.036609
9.000000	-0.433202	-150.803121	-38.281780	-27.855307	-38.281780	-27.855307	-0.433194	-150.801592
9.050000	-0.438753	-151.568435	-38.175088	-29.317034	-38.175088	-29.317034	-0.438745	-151.566878
9.100000	-0.444398	-152.335312	-38.071194	-30.774427	-38.071194	-30.774427	-0.444390	-152.333725
9.150000	-0.450077	-153.102710	-37.969023	-32.230375	-37.969023	-32.230375	-0.450069	-153.101093
9.200000	-0.455838	-153.871665	-37.869109	-33.682886	-37.869109	-33.682886	-0.455830	-153.870016
9.250000	-0.461641	-154.641399	-37.770860	-35.133677	-37.770860	-35.133677	-0.461633	-154.639717
9.300000	-0.467514	-155.412641	-37.674489	-36.581770	-37.674489	-36.581770	-0.467506	-155.410925
9.350000	-0.473438	-156.184962	-37.579726	-38.027935	-37.579726	-38.027935	-0.473430	-156.183208
9.400000	-0.479420	-156.958701	-37.486565	-39.472012	-37.486565	-39.472012	-0.479412	-156.956909
9.450000	-0.485462	-157.733860	-37.394965	-40.914000	-37.394965	-40.914000	-0.485453	-157.732027
9.500000	-0.491552	-158.510307	-37.304755	-42.354409	-37.304755	-42.354409	-0.491542	-158.508431
9.550000	-0.497708	-159.288557	-37.216074	-43.792606	-37.216074	-43.792606	-0.497698	-159.286636
9.600000	-0.503903	-160.067923	-37.128611	-45.229651	-37.128611	-45.229651	-0.503892	-160.065954
9.650000	-0.510171	-160.849522	-37.042659	-46.664391	-37.042659	-46.664391	-0.510160	-160.847502
9.700000	-0.516469	-161.632023	-36.957781	-48.098339	-36.957781	-48.098339	-0.516457	-161.629950
9.750000	-0.522848	-162.417232	-36.874413	-49.529912	-36.874413	-49.529912	-0.522833	-162.415100
9.800000	-0.529247	-163.203086	-36.791989	-50.961000	-36.791989	-50.961000	-0.529231	-163.200896
9.850000	-0.535732	-163.992171	-36.711090	-52.389660	-36.711090	-52.389660	-0.535714	-163.989915
9.900000	-0.542230	-164.781602	-36.631014	-53.818096	-36.631014	-53.818096	-0.542209	-164.779279
9.950000	-0.548819	-165.574834	-36.552496	-55.244066	-36.552496	-55.244066	-0.548796	-165.572437
10.000000	-0.555413	-166.368067	-36.474681	-56.670037	-36.474681	-56.670037	-0.555387	-166.365595
