! freq	dB(S11)	phase(S11)	dB(S12)	phase(S12)	
!     	dB(S21)	phase(S21)	dB(S22)	phase(S22)	
!S-par simulation data
#  GHz  S  DB  R 50
0.000000	-0.000000	-0.000000	-362.748070	180.000000	-362.748070	180.000000	-0.000000	-0.000000
0.050000	-0.000684	-1.046578	-100.520176	88.682791	-100.520176	88.682791	-0.001288	-2.003435
0.100000	-0.002279	-2.087841	-94.535563	87.117863	-94.535563	87.117863	-0.004382	-3.997081
0.150000	-0.004067	-3.123387	-91.068724	85.619618	-91.068724	85.619618	-0.007979	-5.979338
0.200000	-0.005691	-4.155230	-88.650183	84.156207	-88.650183	84.156207	-0.011344	-7.953164
0.250000	-0.007139	-5.185415	-86.809803	82.722166	-86.809803	82.722166	-0.014370	-9.922342
0.300000	-0.008450	-6.214734	-85.345623	81.323053	-85.345623	81.323053	-0.017095	-11.888176
0.350000	-0.009688	-7.243620	-84.146797	79.963959	-84.146797	79.963959	-0.019618	-13.851380
0.400000	-0.010895	-8.272197	-83.153930	78.656833	-83.153930	78.656833	-0.022009	-15.811779
0.450000	-0.012104	-9.300482	-82.325158	77.411970	-82.325158	77.411970	-0.024332	-17.769088
0.500000	-0.013330	-10.328440	-81.629248	76.237626	-81.629248	76.237626	-0.026626	-19.723032
0.550000	-0.014579	-11.355997	-81.046811	75.146511	-81.046811	75.146511	-0.028906	-21.673151
0.600000	-0.015851	-12.383037	-80.567189	74.159056	-80.567189	74.159056	-0.031184	-23.618747
0.650000	-0.017141	-13.409477	-80.177879	73.290773	-80.177879	73.290773	-0.033463	-25.559486
0.700000	-0.018443	-14.435217	-79.870846	72.562480	-79.870846	72.562480	-0.035744	-27.494966
0.750000	-0.019752	-15.460124	-79.642859	72.006781	-79.642859	72.006781	-0.038027	-29.424574
0.800000	-0.021063	-16.484082	-79.489786	71.658616	-79.489786	71.658616	-0.040308	-31.347893
0.850000	-0.022371	-17.506994	-79.407782	71.558815	-79.407782	71.558815	-0.042585	-33.264602
0.900000	-0.023675	-18.528759	-79.394173	71.760252	-79.394173	71.760252	-0.044856	-35.174354
0.950000	-0.024972	-19.549279	-79.446650	72.331237	-79.446650	72.331237	-0.047118	-37.076777
1.000000	-0.026263	-20.568469	-79.561711	73.356320	-79.561711	73.356320	-0.049368	-38.971550
1.050000	-0.027549	-21.586256	-79.733696	74.940505	-79.733696	74.940505	-0.051603	-40.858377
1.100000	-0.028830	-22.602578	-79.952877	77.211195	-79.952877	77.211195	-0.053822	-42.736980
1.150000	-0.030107	-23.617382	-80.202632	80.315580	-80.202632	80.315580	-0.056022	-44.607105
1.200000	-0.031382	-24.630622	-80.455661	84.407331	-80.455661	84.407331	-0.058201	-46.468515
1.250000	-0.032656	-25.642262	-80.670028	89.612910	-80.670028	89.612910	-0.060359	-48.320995
1.300000	-0.033930	-26.652233	-80.783949	95.990084	-80.783949	95.990084	-0.062492	-50.164144
1.350000	-0.035204	-27.660540	-80.730027	103.357740	-80.730027	103.357740	-0.064601	-51.997974
1.400000	-0.036479	-28.667159	-80.449342	111.322457	-80.449342	111.322457	-0.066685	-53.822324
1.450000	-0.037754	-29.672067	-79.916688	119.312855	-79.916688	119.312855	-0.068743	-55.637045
1.500000	-0.039030	-30.675241	-79.152663	126.752921	-79.152663	126.752921	-0.070775	-57.442004
1.550000	-0.040307	-31.676661	-78.212631	133.236549	-78.212631	133.236549	-0.072781	-59.237084
1.600000	-0.041585	-32.676306	-77.162759	138.590878	-77.162759	138.590878	-0.074761	-61.022179
1.650000	-0.042864	-33.674156	-76.060815	142.829925	-76.060815	142.829925	-0.076715	-62.797200
1.700000	-0.044142	-34.670192	-74.948636	146.070544	-74.948636	146.070544	-0.078645	-64.562067
1.750000	-0.045421	-35.664393	-73.852864	148.464687	-73.852864	148.464687	-0.080549	-66.316714
1.800000	-0.046700	-36.656740	-72.788750	150.161294	-72.788750	150.161294	-0.082430	-68.061089
1.850000	-0.047979	-37.647214	-71.763993	151.290426	-71.763993	151.290426	-0.084288	-69.795149
1.900000	-0.049259	-38.635773	-70.780954	151.955554	-70.780954	151.955554	-0.086124	-71.518748
1.950000	-0.050538	-39.622398	-69.840234	152.245478	-69.840234	152.245478	-0.087940	-73.231867
2.000000	-0.051817	-40.607090	-68.941367	152.232987	-68.941367	152.232987	-0.089735	-74.934607
2.050000	-0.053096	-41.589830	-68.082358	151.971973	-68.082358	151.971973	-0.091512	-76.626969
2.100000	-0.054376	-42.570598	-67.260890	151.505367	-67.260890	151.505367	-0.093272	-78.308961
2.150000	-0.055657	-43.549377	-66.474569	150.867529	-66.474569	150.867529	-0.095017	-79.980602
2.200000	-0.056938	-44.526146	-65.721048	150.086127	-65.721048	150.086127	-0.096747	-81.641919
2.250000	-0.058221	-45.500889	-64.998099	149.183593	-64.998099	149.183593	-0.098464	-83.292947
2.300000	-0.059505	-46.473497	-64.302479	148.174644	-64.302479	148.174644	-0.100169	-84.933287
2.350000	-0.060792	-47.444155	-63.634957	147.082830	-63.634957	147.082830	-0.101865	-86.563986
2.400000	-0.062081	-48.412734	-62.992191	145.915422	-62.992191	145.915422	-0.103551	-88.184547
2.450000	-0.063372	-49.379219	-62.372581	144.682891	-62.372581	144.682891	-0.105230	-89.795034
2.500000	-0.064668	-50.343592	-61.774661	143.394014	-61.774661	143.394014	-0.106903	-91.395519
2.550000	-0.065967	-51.305746	-61.196312	142.054361	-61.196312	142.054361	-0.108571	-92.985651
2.600000	-0.067271	-52.265758	-60.637205	140.672531	-60.637205	140.672531	-0.110236	-94.565951
2.650000	-0.068580	-53.223613	-60.096208	139.253782	-60.096208	139.253782	-0.111899	-96.136509
2.700000	-0.069894	-54.179299	-59.572286	137.802635	-59.572286	137.802635	-0.113561	-97.697419
2.750000	-0.071215	-55.132802	-59.064491	136.322998	-59.064491	136.322998	-0.115223	-99.248783
2.800000	-0.072542	-56.084111	-58.571951	134.818259	-58.571951	134.818259	-0.116887	-100.790706
2.850000	-0.073877	-57.033214	-58.093868	133.291374	-58.093868	133.291374	-0.118555	-102.323297
2.900000	-0.075219	-57.980100	-57.629504	131.744927	-57.629504	131.744927	-0.120226	-103.846672
2.950000	-0.076570	-58.924761	-57.178180	130.181189	-57.178180	130.181189	-0.121903	-105.360948
3.000000	-0.077930	-59.867187	-56.739265	128.602163	-56.739265	128.602163	-0.123586	-106.866246
3.050000	-0.079299	-60.807369	-56.312177	127.009620	-56.312177	127.009620	-0.125276	-108.362693
3.100000	-0.080679	-61.745301	-55.896375	125.405132	-55.896375	125.405132	-0.126976	-109.850417
3.150000	-0.082070	-62.680975	-55.491357	123.790101	-55.491357	123.790101	-0.128684	-111.329549
3.200000	-0.083471	-63.614386	-55.096653	122.165777	-55.096653	122.165777	-0.130403	-112.800224
3.250000	-0.084885	-64.545528	-54.711826	120.533279	-54.711826	120.533279	-0.132134	-114.262579
3.300000	-0.086311	-65.474399	-54.336469	118.893615	-54.336469	118.893615	-0.133878	-115.716753
3.350000	-0.087751	-66.400993	-53.970198	117.247689	-53.970198	117.247689	-0.135634	-117.162888
3.400000	-0.089204	-67.325309	-53.612655	115.596320	-53.612655	115.596320	-0.137405	-118.601128
3.450000	-0.090671	-68.247345	-53.263503	113.940248	-53.263503	113.940248	-0.139191	-120.031619
3.500000	-0.092152	-69.167100	-52.922426	112.280142	-52.922426	112.280142	-0.140993	-121.454506
3.550000	-0.093649	-70.084574	-52.589124	110.616613	-52.589124	110.616613	-0.142811	-122.869940
3.600000	-0.095162	-70.999767	-52.263318	108.950215	-52.263318	108.950215	-0.144647	-124.278070
3.650000	-0.096692	-71.912681	-51.944742	107.281455	-51.944742	107.281455	-0.146502	-125.679047
3.700000	-0.098238	-72.823320	-51.633144	105.610794	-51.633144	105.610794	-0.148375	-127.073024
3.750000	-0.099801	-73.731685	-51.328287	103.938655	-51.328287	103.938655	-0.150267	-128.460153
3.800000	-0.101384	-74.637682	-51.029784	102.265396	-51.029784	102.265396	-0.152181	-129.840305
3.850000	-0.102985	-75.541415	-50.737603	100.591432	-50.737603	100.591432	-0.154116	-131.213934
3.900000	-0.104605	-76.442891	-50.451539	98.917085	-50.451539	98.917085	-0.156072	-132.581192
3.950000	-0.106244	-77.342115	-50.171399	97.242654	-50.171399	97.242654	-0.158051	-133.942238
4.000000	-0.107904	-78.239094	-49.896996	95.568412	-49.896996	95.568412	-0.160052	-135.297226
4.050000	-0.109584	-79.133838	-49.628155	93.894612	-49.628155	93.894612	-0.162076	-136.646313
4.100000	-0.111285	-80.026354	-49.364710	92.221486	-49.364710	92.221486	-0.164125	-137.989655
4.150000	-0.113008	-80.916652	-49.106499	90.549249	-49.106499	90.549249	-0.166197	-139.327410
4.200000	-0.114753	-81.804744	-48.853370	88.878100	-48.853370	88.878100	-0.168294	-140.659732
4.250000	-0.116520	-82.690639	-48.605177	87.208221	-48.605177	87.208221	-0.170416	-141.986780
4.300000	-0.118311	-83.574349	-48.361780	85.539783	-48.361780	85.539783	-0.172563	-143.308708
4.350000	-0.120125	-84.455888	-48.123047	83.872942	-48.123047	83.872942	-0.174737	-144.625674
4.400000	-0.121963	-85.335269	-47.888849	82.207842	-47.888849	82.207842	-0.176937	-145.937833
4.450000	-0.123825	-86.212506	-47.659065	80.544616	-47.659065	80.544616	-0.179163	-147.245339
4.500000	-0.125713	-87.087612	-47.433575	78.883389	-47.433575	78.883389	-0.181417	-148.548349
4.550000	-0.127625	-87.960605	-47.212269	77.224274	-47.212269	77.224274	-0.183697	-149.847017
4.600000	-0.129564	-88.831499	-46.995038	75.567375	-46.995038	75.567375	-0.186006	-151.141497
4.650000	-0.131529	-89.700312	-46.781779	73.912791	-46.781779	73.912791	-0.188342	-152.431942
4.700000	-0.133521	-90.567061	-46.572391	72.260610	-46.572391	72.260610	-0.190706	-153.718506
4.750000	-0.135540	-91.431764	-46.366780	70.610915	-46.366780	70.610915	-0.193098	-155.001340
4.800000	-0.137587	-92.294440	-46.164854	68.963782	-46.164854	68.963782	-0.195520	-156.280598
4.850000	-0.139662	-93.155108	-45.966524	67.319281	-45.966524	67.319281	-0.197969	-157.556429
4.900000	-0.141766	-94.013788	-45.771705	65.677476	-45.771705	65.677476	-0.200448	-158.828984
4.950000	-0.143898	-94.870500	-45.580316	64.038427	-45.580316	64.038427	-0.202956	-160.098413
5.000000	-0.146060	-95.725267	-45.392278	62.402188	-45.392278	62.402188	-0.205492	-161.364865
5.050000	-0.148254	-96.578026	-45.207487	60.768937	-45.207487	60.768937	-0.208060	-162.628372
5.100000	-0.150478	-97.428886	-45.025905	59.138597	-45.025905	59.138597	-0.210656	-163.889210
5.150000	-0.152732	-98.277868	-44.847462	57.511211	-44.847462	57.511211	-0.213282	-165.147527
5.200000	-0.155018	-99.124997	-44.672090	55.886817	-44.672090	55.886817	-0.215938	-166.403467
5.250000	-0.157336	-99.970297	-44.499723	54.265454	-44.499723	54.265454	-0.218623	-167.657176
5.300000	-0.159686	-100.813792	-44.330300	52.647154	-44.330300	52.647154	-0.221337	-168.908796
5.350000	-0.162068	-101.655507	-44.163761	51.031949	-44.163761	51.031949	-0.224081	-170.158472
5.400000	-0.164484	-102.495468	-44.000048	49.419871	-44.000048	49.419871	-0.226854	-171.406346
5.450000	-0.166933	-103.333702	-43.839104	47.810947	-43.839104	47.810947	-0.229657	-172.652558
5.500000	-0.169415	-104.170234	-43.680877	46.205206	-43.680877	46.205206	-0.232490	-173.897249
5.550000	-0.171932	-105.005093	-43.525315	44.602673	-43.525315	44.602673	-0.235351	-175.140558
5.600000	-0.174484	-105.838305	-43.372370	43.003375	-43.372370	43.003375	-0.238242	-176.382624
5.650000	-0.177071	-106.669900	-43.221992	41.407337	-43.221992	41.407337	-0.241162	-177.623583
5.700000	-0.179693	-107.499905	-43.074137	39.814584	-43.074137	39.814584	-0.244111	-178.863573
5.750000	-0.182351	-108.328350	-42.928760	38.225142	-42.928760	38.225142	-0.247088	179.897272
5.800000	-0.185046	-109.155264	-42.785820	36.639038	-42.785820	36.639038	-0.250095	178.658816
5.850000	-0.187777	-109.980677	-42.645276	35.056298	-42.645276	35.056298	-0.253130	177.420927
5.900000	-0.190545	-110.804620	-42.507089	33.476950	-42.507089	33.476950	-0.256193	176.183472
5.950000	-0.193351	-111.627124	-42.371221	31.901023	-42.371221	31.901023	-0.259285	174.946320
6.000000	-0.196195	-112.448220	-42.237636	30.328547	-42.237636	30.328547	-0.262405	173.709340
6.050000	-0.199077	-113.267939	-42.106300	28.759554	-42.106300	28.759554	-0.265552	172.472404
6.100000	-0.201998	-114.086314	-41.977179	27.194079	-41.977179	27.194079	-0.268727	171.235383
6.150000	-0.204958	-114.903377	-41.850241	25.632156	-41.850241	25.632156	-0.271930	169.998152
6.200000	-0.207957	-115.719161	-41.725456	24.073825	-41.725456	24.073825	-0.275160	168.760582
6.250000	-0.210997	-116.533700	-41.602793	22.519127	-41.602793	22.519127	-0.278416	167.522552
6.300000	-0.214078	-117.346976	-41.482243	20.968266	-41.482243	20.968266	-0.281700	166.283905
6.350000	-0.217200	-118.159077	-41.363762	19.421132	-41.363762	19.421132	-0.285011	165.044539
6.400000	-0.220362	-118.970039	-41.247324	17.877774	-41.247324	17.877774	-0.288348	163.804335
6.450000	-0.223567	-119.779895	-41.132903	16.338245	-41.132903	16.338245	-0.291710	162.563172
6.500000	-0.226813	-120.588681	-41.020473	14.802602	-41.020473	14.802602	-0.295098	161.320933
6.550000	-0.230101	-121.396434	-40.910012	13.270905	-40.910012	13.270905	-0.298511	160.077501
6.600000	-0.233431	-122.203188	-40.801494	11.743215	-40.801494	11.743215	-0.301950	158.832759
6.650000	-0.236804	-123.008981	-40.694899	10.219602	-40.694899	10.219602	-0.305413	157.586595
6.700000	-0.240221	-123.813848	-40.590203	8.700134	-40.590203	8.700134	-0.308900	156.338895
6.750000	-0.243681	-124.617827	-40.487386	7.184887	-40.487386	7.184887	-0.312412	155.089549
6.800000	-0.247185	-125.420956	-40.386427	5.673939	-40.386427	5.673939	-0.315947	153.838446
6.850000	-0.250732	-126.223272	-40.287304	4.167373	-40.287304	4.167373	-0.319506	152.585479
6.900000	-0.254325	-127.024813	-40.189999	2.665274	-40.189999	2.665274	-0.323089	151.330542
6.950000	-0.257962	-127.825618	-40.094491	1.167734	-40.094491	1.167734	-0.326694	150.073528
7.000000	-0.261644	-128.625725	-40.000761	-0.325155	-40.000761	-0.325155	-0.330322	148.814337
7.050000	-0.265372	-129.425174	-39.908791	-1.813292	-39.908791	-1.813292	-0.333973	147.552865
7.100000	-0.269145	-130.224003	-39.818560	-3.296577	-39.818560	-3.296577	-0.337646	146.289014
7.150000	-0.272964	-131.022253	-39.730052	-4.774903	-39.730052	-4.774903	-0.341342	145.022686
7.200000	-0.276830	-131.819964	-39.643246	-6.248160	-39.643246	-6.248160	-0.345059	143.753785
7.250000	-0.280742	-132.617176	-39.558125	-7.716234	-39.558125	-7.716234	-0.348797	142.482218
7.300000	-0.284701	-133.413929	-39.474670	-9.179008	-39.474670	-9.179008	-0.352557	141.207893
7.350000	-0.288707	-134.210265	-39.392863	-10.636360	-39.392863	-10.636360	-0.356339	139.930719
7.400000	-0.292761	-135.006226	-39.312684	-12.088167	-39.312684	-12.088167	-0.360141	138.650610
7.450000	-0.296862	-135.801852	-39.234116	-13.534299	-39.234116	-13.534299	-0.363965	137.367481
7.500000	-0.301011	-136.597186	-39.157139	-14.974626	-39.157139	-14.974626	-0.367809	136.081249
7.550000	-0.305210	-137.392261	-39.081775	-16.408747	-39.081775	-16.408747	-0.371675	134.791690
7.600000	-0.309457	-138.187132	-39.007965	-17.836779	-39.007965	-17.836779	-0.375562	133.498863
7.650000	-0.313753	-138.981843	-38.935689	-19.258579	-38.935689	-19.258579	-0.379469	132.202693
7.700000	-0.318098	-139.776436	-38.864927	-20.674005	-38.864927	-20.674005	-0.383397	130.903106
7.750000	-0.322491	-140.570956	-38.795660	-22.082911	-38.795660	-22.082911	-0.387345	129.600034
7.800000	-0.326934	-141.365446	-38.727867	-23.485148	-38.727867	-23.485148	-0.391315	128.293408
7.850000	-0.331426	-142.159951	-38.661527	-24.880567	-38.661527	-24.880567	-0.395305	126.983167
7.900000	-0.335967	-142.954514	-38.596619	-26.269015	-38.596619	-26.269015	-0.399315	125.669247
7.950000	-0.340558	-143.749181	-38.533120	-27.650339	-38.533120	-27.650339	-0.403347	124.351592
8.000000	-0.345199	-144.543997	-38.471010	-29.024383	-38.471010	-29.024383	-0.407400	123.030147
8.050000	-0.349889	-145.339008	-38.410266	-30.390990	-38.410266	-30.390990	-0.411474	121.704859
8.100000	-0.354630	-146.134258	-38.350865	-31.750004	-38.350865	-31.750004	-0.415570	120.375682
8.150000	-0.359420	-146.929795	-38.292784	-33.101265	-38.292784	-33.101265	-0.419688	119.042570
8.200000	-0.364261	-147.725664	-38.235998	-34.444613	-38.235998	-34.444613	-0.423829	117.705482
8.250000	-0.369151	-148.521913	-38.180485	-35.779890	-38.180485	-35.779890	-0.427991	116.364381
8.300000	-0.374092	-149.318588	-38.126219	-37.106934	-38.126219	-37.106934	-0.432177	115.019232
8.350000	-0.379083	-150.115737	-38.073176	-38.425585	-38.073176	-38.425585	-0.436387	113.670007
8.400000	-0.384125	-150.913407	-38.021330	-39.735683	-38.021330	-39.735683	-0.440621	112.316678
8.450000	-0.389216	-151.711647	-37.970655	-41.037067	-37.970655	-41.037067	-0.444879	110.959224
8.500000	-0.394358	-152.510504	-37.921126	-42.329578	-37.921126	-42.329578	-0.449163	109.597627
8.550000	-0.399550	-153.310028	-37.872716	-43.613056	-37.872716	-43.613056	-0.453472	108.231874
8.600000	-0.404792	-154.110267	-37.825397	-44.887342	-37.825397	-44.887342	-0.457809	106.861955
8.650000	-0.410084	-154.911271	-37.779144	-46.152278	-37.779144	-46.152278	-0.462172	105.487865
8.700000	-0.415427	-155.713088	-37.733927	-47.407708	-37.733927	-47.407708	-0.466564	104.109603
8.750000	-0.420818	-156.515770	-37.689720	-48.653474	-37.689720	-48.653474	-0.470986	102.727175
8.800000	-0.426262	-157.319409	-37.646526	-49.888989	-37.646526	-49.888989	-0.475439	101.340408
8.850000	-0.431755	-158.124017	-37.604283	-51.114517	-37.604283	-51.114517	-0.479923	99.949498
8.900000	-0.437298	-158.929646	-37.562963	-52.329908	-37.562963	-52.329908	-0.484439	98.554464
8.950000	-0.442889	-159.736347	-37.522536	-53.535009	-37.522536	-53.535009	-0.488989	97.155330
9.000000	-0.448529	-160.544171	-37.482973	-54.729672	-37.482973	-54.729672	-0.493574	95.752125
9.050000	-0.454218	-161.353170	-37.444245	-55.913747	-37.444245	-55.913747	-0.498194	94.344883
9.100000	-0.459955	-162.163398	-37.406323	-57.087089	-37.406323	-57.087089	-0.502852	92.933643
9.150000	-0.465740	-162.974905	-37.369177	-58.249551	-37.369177	-58.249551	-0.507548	91.518451
9.200000	-0.471573	-163.787746	-37.332778	-59.400991	-37.332778	-59.400991	-0.512285	90.099354
9.250000	-0.477453	-164.601974	-37.297097	-60.541265	-37.297097	-60.541265	-0.517062	88.676409
9.300000	-0.483380	-165.417641	-37.262104	-61.670232	-37.262104	-61.670232	-0.521883	87.249675
9.350000	-0.489353	-166.234803	-37.227769	-62.787753	-37.227769	-62.787753	-0.526748	85.819218
9.400000	-0.495371	-167.053513	-37.194064	-63.893690	-37.194064	-63.893690	-0.531659	84.385109
9.450000	-0.501436	-167.873826	-37.160960	-64.987904	-37.160960	-64.987904	-0.536619	82.947425
9.500000	-0.507545	-168.695796	-37.128427	-66.070261	-37.128427	-66.070261	-0.541627	81.506246
9.550000	-0.513698	-169.519480	-37.096437	-67.140625	-37.096437	-67.140625	-0.546687	80.061660
9.600000	-0.519895	-170.344932	-37.064961	-68.198862	-37.064961	-68.198862	-0.551801	78.613760
9.650000	-0.526135	-171.172209	-37.033971	-69.244839	-37.033971	-69.244839	-0.556969	77.162643
9.700000	-0.532417	-172.001367	-37.003440	-70.278424	-37.003440	-70.278424	-0.562194	75.708413
9.750000	-0.538740	-172.832462	-36.973339	-71.299484	-36.973339	-71.299484	-0.567477	74.251179
9.800000	-0.545105	-173.665551	-36.943642	-72.307889	-36.943642	-72.307889	-0.572822	72.791053
9.850000	-0.551509	-174.500691	-36.914323	-73.303508	-36.914323	-73.303508	-0.578229	71.328156
9.900000	-0.557952	-175.337940	-36.885354	-74.286210	-36.885354	-74.286210	-0.583701	69.862612
9.950000	-0.564434	-176.177355	-36.856710	-75.255863	-36.856710	-75.255863	-0.589240	68.394550
10.000000	-0.570952	-177.018995	-36.828367	-76.212338	-36.828367	-76.212338	-0.594847	66.924104
