! freq	dB(S11)	phase(S11)	dB(S12)	phase(S12)	
!     	dB(S21)	phase(S21)	dB(S22)	phase(S22)	
!S-par simulation data
#  GHz  S  DB  R 50
0.000000	0.000000	0.000000	-386.539956	180.000000	-386.539956	180.000000	-0.000000	-0.000000
0.050000	-0.000690	-1.197502	-111.964023	89.122549	-111.964023	89.122549	-0.001493	-0.769163
0.100000	-0.002470	-2.391491	-105.988480	88.168746	-105.988480	88.168746	-0.002209	-1.530011
0.150000	-0.004775	-3.580687	-102.541987	87.252537	-102.541987	87.252537	-0.002820	-2.291368
0.200000	-0.007123	-4.765638	-100.154683	86.371885	-100.154683	86.371885	-0.003560	-3.052516
0.250000	-0.009299	-5.948009	-98.353250	85.530076	-98.353250	85.530076	-0.004436	-3.813063
0.300000	-0.011235	-7.128598	-96.937687	84.739560	-96.937687	84.739560	-0.005448	-4.572712
0.350000	-0.012943	-8.308020	-95.799598	84.013403	-95.799598	84.013403	-0.006574	-5.331253
0.400000	-0.014466	-9.486575	-94.876351	83.368455	-94.876351	83.368455	-0.007788	-6.088505
0.450000	-0.015845	-10.664310	-94.136501	82.835468	-94.136501	82.835468	-0.009060	-6.844199
0.500000	-0.017138	-11.841295	-93.544140	82.430170	-93.544140	82.430170	-0.010339	-7.598399
0.550000	-0.018375	-13.017470	-93.081813	82.183003	-93.081813	82.183003	-0.011578	-8.351099
0.600000	-0.019582	-14.192748	-92.737893	82.132481	-92.737893	82.132481	-0.012726	-9.102399
0.650000	-0.020776	-15.367036	-92.504846	82.328020	-92.504846	82.328020	-0.013731	-9.852544
0.700000	-0.021971	-16.540234	-92.378052	82.833871	-92.378052	82.833871	-0.014560	-10.601938
0.750000	-0.023179	-17.712163	-92.361053	83.766042	-92.361053	83.766042	-0.015197	-11.351128
0.800000	-0.024405	-18.882720	-92.450743	85.257899	-92.450743	85.257899	-0.015693	-12.100683
0.850000	-0.025656	-20.051833	-92.639820	87.479677	-92.639820	87.479677	-0.016143	-12.850873
0.900000	-0.026932	-21.219517	-92.912895	90.587494	-92.912895	90.587494	-0.016628	-13.601585
0.950000	-0.028237	-22.385598	-93.254946	94.910357	-93.254946	94.910357	-0.017211	-14.352548
1.000000	-0.029570	-23.549988	-93.622749	100.787302	-93.622749	100.787302	-0.017922	-15.103336
1.050000	-0.030933	-24.712602	-93.935777	108.530221	-93.935777	108.530221	-0.018759	-15.853557
1.100000	-0.032324	-25.873358	-94.067155	118.229129	-94.067155	118.229129	-0.019699	-16.602935
1.150000	-0.033742	-27.032178	-93.865893	129.456197	-93.865893	129.456197	-0.020713	-17.351313
1.200000	-0.035186	-28.188986	-93.230598	141.122260	-93.230598	141.122260	-0.021776	-18.098623
1.250000	-0.036653	-29.343712	-92.184418	151.874577	-92.184418	151.874577	-0.022866	-18.844855
1.300000	-0.038143	-30.496190	-90.841668	160.720236	-90.841668	160.720236	-0.023968	-19.589981
1.350000	-0.039652	-31.646448	-89.372907	167.563720	-89.372907	167.563720	-0.025071	-20.334080
1.400000	-0.041176	-32.794423	-87.882429	172.652824	-87.882429	172.652824	-0.026168	-21.077182
1.450000	-0.042715	-33.940059	-86.427980	176.337870	-86.427980	176.337870	-0.027254	-21.819315
1.500000	-0.044264	-35.083301	-85.036099	178.941240	-85.036099	178.941240	-0.028328	-22.560501
1.550000	-0.045822	-36.224100	-83.715966	-179.279300	-83.715966	-179.279300	-0.029389	-23.300757
1.600000	-0.047386	-37.362408	-82.468070	-178.128867	-82.468070	-178.128867	-0.030437	-24.040095
1.650000	-0.048953	-38.498180	-81.288953	-177.462991	-81.288953	-177.462991	-0.031471	-24.778523
1.700000	-0.050520	-39.631377	-80.173620	-177.174810	-80.173620	-177.174810	-0.032493	-25.516043
1.750000	-0.052087	-40.761961	-79.116711	-177.184774	-79.116711	-177.184774	-0.033504	-26.252656
1.800000	-0.053649	-41.889897	-78.113043	-177.433035	-78.113043	-177.433035	-0.034505	-26.988358
1.850000	-0.055206	-43.015154	-77.157835	-177.874013	-77.157835	-177.874013	-0.035497	-27.723143
1.900000	-0.056756	-44.137703	-76.246775	-178.472548	-76.246775	-178.472548	-0.036482	-28.457005
1.950000	-0.058297	-45.257518	-75.376020	-179.201177	-75.376020	-179.201177	-0.037459	-29.189934
2.000000	-0.059829	-46.374574	-74.542160	179.961815	-74.542160	179.961815	-0.038432	-29.921919
2.050000	-0.061349	-47.488850	-73.742176	179.033794	-73.742176	179.033794	-0.039400	-30.652951
2.100000	-0.062857	-48.600327	-72.973393	178.028800	-72.973393	178.028800	-0.040364	-31.383015
2.150000	-0.064353	-49.708987	-72.233434	176.958294	-72.233434	176.958294	-0.041327	-32.112101
2.200000	-0.065837	-50.814814	-71.520184	175.831721	-71.520184	175.831721	-0.042287	-32.840194
2.250000	-0.067308	-51.917793	-70.831752	174.656934	-70.831752	174.656934	-0.043248	-33.567281
2.300000	-0.068768	-53.017911	-70.166445	173.440511	-70.166445	173.440511	-0.044208	-34.293349
2.350000	-0.070215	-54.115156	-69.522739	172.188005	-69.522739	172.188005	-0.045170	-35.018383
2.400000	-0.071652	-55.209516	-68.899261	170.904135	-68.899261	170.904135	-0.046134	-35.742369
2.450000	-0.073079	-56.300982	-68.294768	169.592937	-68.294768	169.592937	-0.047100	-36.465294
2.500000	-0.074497	-57.389544	-67.708129	168.257884	-67.708129	168.257884	-0.048069	-37.187143
2.550000	-0.075908	-58.475067	-67.137428	166.901196	-67.137428	166.901196	-0.049042	-37.907855
2.600000	-0.077312	-59.557667	-66.582712	165.526471	-66.582712	165.526471	-0.050019	-38.627463
2.650000	-0.078712	-60.637338	-66.043110	164.135950	-66.043110	164.135950	-0.051002	-39.345954
2.700000	-0.080109	-61.714072	-65.517825	162.731604	-65.517825	162.731604	-0.051989	-40.063314
2.750000	-0.081505	-62.787862	-65.006125	161.315167	-65.006125	161.315167	-0.052983	-40.779531
2.800000	-0.082901	-63.858703	-64.507336	159.888178	-64.507336	159.888178	-0.053982	-41.494591
2.850000	-0.084300	-64.926587	-64.020837	158.451998	-64.020837	158.451998	-0.054989	-42.208483
2.900000	-0.085702	-65.991511	-63.546056	157.007842	-63.546056	157.007842	-0.056002	-42.921194
2.950000	-0.087111	-67.053469	-63.082465	155.556792	-63.082465	155.556792	-0.057023	-43.632713
3.000000	-0.088527	-68.112456	-62.629577	154.099813	-62.629577	154.099813	-0.058052	-44.343027
3.050000	-0.089952	-69.168470	-62.186944	152.637766	-62.186944	152.637766	-0.059089	-45.052126
3.100000	-0.091388	-70.221508	-61.754153	151.171417	-61.754153	151.171417	-0.060134	-45.760000
3.150000	-0.092837	-71.271566	-61.330826	149.701444	-61.330826	149.701444	-0.061188	-46.466637
3.200000	-0.094299	-72.318645	-60.916617	148.228438	-60.916617	148.228438	-0.062252	-47.172027
3.250000	-0.095776	-73.362743	-60.511210	146.752906	-60.511210	146.752906	-0.063325	-47.876161
3.300000	-0.097271	-74.403862	-60.114323	145.275264	-60.114323	145.275264	-0.064408	-48.579030
3.350000	-0.098783	-75.442002	-59.725699	143.795830	-59.725699	143.795830	-0.065501	-49.280624
3.400000	-0.100314	-76.477167	-59.345112	142.314809	-59.345112	142.314809	-0.066605	-49.980934
3.450000	-0.101865	-77.509361	-58.972364	140.832274	-58.972364	140.832274	-0.067719	-50.679953
3.500000	-0.103437	-78.538587	-58.607279	139.348138	-58.607279	139.348138	-0.068845	-51.377672
3.550000	-0.105031	-79.564853	-58.249704	137.862123	-58.249704	137.862123	-0.069982	-52.074084
3.600000	-0.106649	-80.588167	-57.899502	136.373721	-57.899502	136.373721	-0.071131	-52.769181
3.650000	-0.108290	-81.608536	-57.556540	134.882159	-57.556540	134.882159	-0.072291	-53.462957
3.700000	-0.109955	-82.625970	-57.220686	133.386363	-57.220686	133.386363	-0.073464	-54.155404
3.750000	-0.111645	-83.640482	-56.891782	131.884952	-56.891782	131.884952	-0.074649	-54.846518
3.800000	-0.113362	-84.651958	-56.569404	130.375851	-56.569404	130.375851	-0.075848	-55.536234
3.850000	-0.115105	-85.660540	-56.253528	128.857418	-56.253528	128.857418	-0.077061	-56.224604
3.900000	-0.116874	-86.666243	-55.943789	127.327757	-55.943789	127.327757	-0.078286	-56.911623
3.950000	-0.118671	-87.669084	-55.639729	125.785212	-55.639729	125.785212	-0.079526	-57.597286
4.000000	-0.120494	-88.669081	-55.340798	124.228660	-55.340798	124.228660	-0.080780	-58.281590
4.050000	-0.122346	-89.666255	-55.046389	122.657787	-55.046389	122.657787	-0.082048	-58.964530
4.100000	-0.124225	-90.660626	-54.755886	121.073271	-54.755886	121.073271	-0.083331	-59.646102
4.150000	-0.126132	-91.652218	-54.468726	119.476790	-54.468726	119.476790	-0.084629	-60.326304
4.200000	-0.128068	-92.641052	-54.184454	117.870851	-54.184454	117.870851	-0.085943	-61.005132
4.250000	-0.130032	-93.627155	-53.902762	116.258462	-53.902762	116.258462	-0.087272	-61.682583
4.300000	-0.132025	-94.610553	-53.623500	114.642738	-53.623500	114.642738	-0.088618	-62.358656
4.350000	-0.134047	-95.591274	-53.346659	113.026546	-53.346659	113.026546	-0.089980	-63.033348
4.400000	-0.136097	-96.569345	-53.072338	111.412246	-53.072338	111.412246	-0.091360	-63.706657
4.450000	-0.138177	-97.544797	-52.800703	109.801577	-52.800703	109.801577	-0.092756	-64.378583
4.500000	-0.140287	-98.517661	-52.531946	108.195648	-52.531946	108.195648	-0.094170	-65.049123
4.550000	-0.142426	-99.487970	-52.266257	106.595019	-52.266257	106.595019	-0.095602	-65.718278
4.600000	-0.144594	-100.455755	-52.003804	104.999822	-52.003804	104.999822	-0.097052	-66.386047
4.650000	-0.146792	-101.421053	-51.744722	103.409888	-51.744722	103.409888	-0.098521	-67.052430
4.700000	-0.149020	-102.383898	-51.489112	101.824857	-51.489112	101.824857	-0.100009	-67.717426
4.750000	-0.151278	-103.344326	-51.237042	100.244272	-51.237042	100.244272	-0.101517	-68.381037
4.800000	-0.153567	-104.302376	-50.988549	98.667639	-50.988549	98.667639	-0.103044	-69.043264
4.850000	-0.155885	-105.258085	-50.743648	97.094476	-50.743648	97.094476	-0.104592	-69.704106
4.900000	-0.158234	-106.211492	-50.502334	95.524336	-50.502334	95.524336	-0.106161	-70.363565
4.950000	-0.160614	-107.162639	-50.264589	93.956825	-50.264589	93.956825	-0.107750	-71.021644
5.000000	-0.163025	-108.111565	-50.030382	92.391606	-50.030382	92.391606	-0.109361	-71.678344
5.050000	-0.165468	-109.058221	-49.799566	90.828478	-49.799566	90.828478	-0.110995	-72.333606
5.100000	-0.167942	-110.002745	-49.572222	89.267127	-49.572222	89.267127	-0.112652	-72.987495
5.150000	-0.170448	-110.945180	-49.348304	87.707391	-49.348304	87.707391	-0.114331	-73.640011
5.200000	-0.172985	-111.885572	-49.127764	86.149151	-49.127764	86.149151	-0.116034	-74.291159
5.250000	-0.175555	-112.823965	-48.910551	84.592333	-48.910551	84.592333	-0.117760	-74.940941
5.300000	-0.178157	-113.760406	-48.696617	83.036899	-48.696617	83.036899	-0.119510	-75.589362
5.350000	-0.180791	-114.694939	-48.485910	81.482840	-48.485910	81.482840	-0.121285	-76.236423
5.400000	-0.183458	-115.627613	-48.278382	79.930177	-48.278382	79.930177	-0.123085	-76.882130
5.450000	-0.186159	-116.558474	-48.073983	78.378956	-48.073983	78.378956	-0.124911	-77.526487
5.500000	-0.188892	-117.487572	-47.872662	76.829242	-47.872662	76.829242	-0.126762	-78.169498
5.550000	-0.191660	-118.414955	-47.674371	75.281117	-47.674371	75.281117	-0.128640	-78.811167
5.600000	-0.194461	-119.340671	-47.479061	73.734680	-47.479061	73.734680	-0.130544	-79.451500
5.650000	-0.197297	-120.264772	-47.286682	72.190040	-47.286682	72.190040	-0.132476	-80.090501
5.700000	-0.200168	-121.187307	-47.097186	70.647319	-47.097186	70.647319	-0.134435	-80.728176
5.750000	-0.203074	-122.108327	-46.910523	69.106643	-46.910523	69.106643	-0.136423	-81.364531
5.800000	-0.206015	-123.027883	-46.726644	67.568149	-46.726644	67.568149	-0.138439	-81.999570
5.850000	-0.208998	-123.945798	-46.545325	66.032420	-46.545325	66.032420	-0.140489	-82.633075
5.900000	-0.212020	-124.862295	-46.366654	64.499265	-46.366654	64.499265	-0.142571	-83.265220
5.950000	-0.215061	-125.778131	-46.191098	62.967527	-46.191098	62.967527	-0.144668	-83.896692
6.000000	-0.218159	-126.691984	-46.017590	61.440039	-46.017590	61.440039	-0.146812	-84.526143
6.050000	-0.221271	-127.605436	-45.847192	59.913597	-45.847192	59.913597	-0.148968	-85.155149
6.100000	-0.224449	-128.516878	-45.678654	58.392389	-45.678654	58.392389	-0.151177	-85.781933
6.150000	-0.227633	-129.428139	-45.513195	56.871751	-45.513195	56.871751	-0.153393	-86.408499
6.200000	-0.230891	-130.337406	-45.349425	55.357400	-45.349425	55.357400	-0.155669	-87.032650
6.250000	-0.234151	-131.246673	-45.188686	53.843049	-45.188686	53.843049	-0.157947	-87.656801
6.300000	-0.237491	-132.154001	-45.029473	52.336077	-45.029473	52.336077	-0.160292	-88.278351
6.350000	-0.240833	-133.061330	-44.873125	50.829105	-44.873125	50.829105	-0.162639	-88.899901
6.400000	-0.244252	-133.967103	-44.718356	49.329307	-44.718356	49.329307	-0.165049	-89.519099
6.450000	-0.247678	-134.872734	-44.566192	47.830162	-44.566192	47.830162	-0.167466	-90.138083
6.500000	-0.251176	-135.777151	-44.415628	46.337836	-44.415628	46.337836	-0.169944	-90.754959
6.550000	-0.254689	-136.681326	-44.267429	44.846873	-44.267429	44.846873	-0.172434	-91.371414
6.600000	-0.258268	-137.584592	-44.120831	43.362235	-44.120831	43.362235	-0.174979	-91.986000
6.650000	-0.261869	-138.487554	-43.976376	41.879706	-43.976376	41.879706	-0.177544	-92.599963
6.700000	-0.265516	-139.390011	-43.833703	40.401455	-43.833703	40.401455	-0.180146	-93.212697
6.750000	-0.269213	-140.291952	-43.692685	38.928028	-43.692685	38.928028	-0.182792	-93.824056
6.800000	-0.272955	-141.193524	-43.553362	37.458715	-43.553362	37.458715	-0.185474	-94.434257
6.850000	-0.276741	-142.094782	-43.415674	35.993501	-43.415674	35.993501	-0.188195	-95.043308
6.900000	-0.280571	-142.995783	-43.279565	34.532353	-43.279565	34.532353	-0.190953	-95.651220
6.950000	-0.284447	-143.896584	-43.144976	33.075228	-43.144976	33.075228	-0.193750	-96.258002
7.000000	-0.288369	-144.797241	-43.011849	31.622063	-43.011849	31.622063	-0.196585	-96.863664
7.050000	-0.292337	-145.697811	-42.880129	30.172781	-42.880129	30.172781	-0.199460	-97.468217
7.100000	-0.296351	-146.598348	-42.749758	28.727288	-42.749758	28.727288	-0.202373	-98.071672
7.150000	-0.300412	-147.498911	-42.620681	27.285476	-42.620681	27.285476	-0.205327	-98.674038
7.200000	-0.304520	-148.399556	-42.492844	25.847219	-42.492844	25.847219	-0.208320	-99.275327
7.250000	-0.308675	-149.300337	-42.366193	24.412375	-42.366193	24.412375	-0.211354	-99.875550
7.300000	-0.312878	-150.201313	-42.240675	22.980786	-42.240675	22.980786	-0.214428	-100.474717
7.350000	-0.317129	-151.102538	-42.116238	21.552277	-42.116238	21.552277	-0.217543	-101.072840
7.400000	-0.321428	-152.004068	-41.992832	20.126657	-41.992832	20.126657	-0.220700	-101.669930
7.450000	-0.325776	-152.905960	-41.870408	18.703720	-41.870408	18.703720	-0.223898	-102.265999
7.500000	-0.330172	-153.808269	-41.748919	17.283242	-41.748919	17.283242	-0.227137	-102.861059
7.550000	-0.334620	-154.711073	-41.628283	15.865069	-41.628283	15.865069	-0.230420	-103.455078
7.600000	-0.339117	-155.614410	-41.508490	14.448836	-41.508490	14.448836	-0.233745	-104.048113
7.650000	-0.343663	-156.518334	-41.389497	13.034270	-41.389497	13.034270	-0.237112	-104.640175
7.700000	-0.348258	-157.422901	-41.271264	11.621082	-41.271264	11.621082	-0.240522	-105.231278
7.750000	-0.352904	-158.328164	-41.153754	10.208969	-41.153754	10.208969	-0.243974	-105.821434
7.800000	-0.357598	-159.234178	-41.036929	8.797612	-41.036929	8.797612	-0.247469	-106.410656
7.850000	-0.362343	-160.140998	-40.920756	7.386676	-40.920756	7.386676	-0.251007	-106.998955
7.900000	-0.367137	-161.048675	-40.805205	5.975814	-40.805205	5.975814	-0.254588	-107.586347
7.950000	-0.371981	-161.957264	-40.690246	4.564662	-40.690246	4.564662	-0.258213	-108.172843
8.000000	-0.376875	-162.866818	-40.575854	3.152843	-40.575854	3.152843	-0.261880	-108.758457
8.050000	-0.381818	-163.777389	-40.462005	1.739968	-40.462005	1.739968	-0.265590	-109.343203
8.100000	-0.386811	-164.689029	-40.348679	0.325632	-40.348679	0.325632	-0.269344	-109.927094
8.150000	-0.391853	-165.601790	-40.235860	-1.090581	-40.235860	-1.090581	-0.273141	-110.510145
8.200000	-0.396944	-166.515723	-40.123534	-2.509100	-40.123534	-2.509100	-0.276982	-111.092369
8.250000	-0.402084	-167.430878	-40.011690	-3.930365	-40.011690	-3.930365	-0.280865	-111.673781
8.300000	-0.407273	-168.347307	-39.900322	-5.354829	-39.900322	-5.354829	-0.284792	-112.254396
8.350000	-0.412511	-169.265058	-39.789427	-6.782953	-39.789427	-6.782953	-0.288762	-112.834227
8.400000	-0.417796	-170.184181	-39.679006	-8.215211	-39.679006	-8.215211	-0.292775	-113.413290
8.450000	-0.423129	-171.104725	-39.569064	-9.652084	-39.569064	-9.652084	-0.296831	-113.991600
8.500000	-0.428509	-172.026736	-39.459610	-11.094062	-39.459610	-11.094062	-0.300930	-114.569171
8.550000	-0.433936	-172.950264	-39.350659	-12.541642	-39.350659	-12.541642	-0.305072	-115.146021
8.600000	-0.439409	-173.875353	-39.242228	-13.995327	-39.242228	-13.995327	-0.309256	-115.722163
8.650000	-0.444928	-174.802051	-39.134341	-15.455627	-39.134341	-15.455627	-0.313482	-116.297614
8.700000	-0.450492	-175.730403	-39.027027	-16.923053	-39.027027	-16.923053	-0.317750	-116.872391
8.750000	-0.456100	-176.660453	-38.920318	-18.398121	-38.920318	-18.398121	-0.322060	-117.446508
8.800000	-0.461753	-177.592322	-38.814228	-19.881725	-38.814228	-19.881725	-0.326414	-118.019956
8.850000	-0.467449	-178.525979	-38.708833	-21.374046	-38.708833	-21.374046	-0.330808	-118.592780
8.900000	-0.473186	-179.461467	-38.604186	-22.875596	-38.604186	-22.875596	-0.335243	-119.164996
8.950000	-0.478965	179.601173	-38.500342	-24.386881	-38.500342	-24.386881	-0.339719	-119.736623
9.000000	-0.484783	178.661902	-38.397366	-25.908396	-38.397366	-25.908396	-0.344234	-120.307677
9.050000	-0.490641	177.720680	-38.295328	-27.440630	-38.295328	-27.440630	-0.348789	-120.878176
9.100000	-0.496536	176.777469	-38.194305	-28.984056	-38.194305	-28.984056	-0.353384	-121.448138
9.150000	-0.502467	175.832232	-38.094379	-30.539131	-38.094379	-30.539131	-0.358016	-122.017580
9.200000	-0.508435	174.884932	-37.995640	-32.106294	-37.995640	-32.106294	-0.362687	-122.586522
9.250000	-0.514436	173.935535	-37.898185	-33.685958	-37.898185	-33.685958	-0.367395	-123.154982
9.300000	-0.520470	172.984006	-37.802118	-35.278512	-37.802118	-35.278512	-0.372140	-123.722979
9.350000	-0.526536	172.030312	-37.707549	-36.884313	-37.707549	-36.884313	-0.376920	-124.290531
9.400000	-0.532631	171.074423	-37.614595	-38.503684	-37.614595	-38.503684	-0.381737	-124.857659
9.450000	-0.538755	170.116307	-37.523380	-40.136907	-37.523380	-40.136907	-0.386588	-125.424382
9.500000	-0.544905	169.155936	-37.434035	-41.784221	-37.434035	-41.784221	-0.391473	-125.990719
9.550000	-0.551080	168.193282	-37.346695	-43.445818	-37.346695	-43.445818	-0.396391	-126.556692
9.600000	-0.557279	167.228317	-37.261504	-45.121835	-37.261504	-45.121835	-0.401341	-127.122321
9.650000	-0.563499	166.261018	-37.178609	-46.812351	-37.178609	-46.812351	-0.406323	-127.687626
9.700000	-0.569739	165.291360	-37.098164	-48.517384	-37.098164	-48.517384	-0.411335	-128.252629
9.750000	-0.575996	164.319321	-37.020326	-50.236883	-37.020326	-50.236883	-0.416377	-128.817352
9.800000	-0.582269	163.344880	-36.945257	-51.970724	-36.945257	-51.970724	-0.421447	-129.381815
9.850000	-0.588555	162.368019	-36.873121	-53.718708	-36.873121	-53.718708	-0.426545	-129.946041
9.900000	-0.594853	161.388719	-36.804086	-55.480554	-36.804086	-55.480554	-0.431668	-130.510053
9.950000	-0.601159	160.406965	-36.738319	-57.255900	-36.738319	-57.255900	-0.436817	-131.073873
10.000000	-0.607472	159.422741	-36.675990	-59.044293	-36.675990	-59.044293	-0.441990	-131.637524
