! freq	dB(S11)	phase(S11)	dB(S12)	phase(S12)	
!     	dB(S21)	phase(S21)	dB(S22)	phase(S22)	
!S-par simulation data
#  GHz  S  DB  R 50
0.000000	-0.000000	-0.000000	-357.753318	180.000000	-357.753318	180.000000	-0.000000	-0.000000
0.050000	-0.000065	-0.758377	-88.865305	168.094551	-88.865305	168.094551	-0.000065	-0.758390
0.100000	-0.000261	-1.516638	-88.780078	171.522784	-88.780078	171.522784	-0.000260	-1.516663
0.150000	-0.000585	-2.274661	-88.794095	171.569481	-88.794095	171.569481	-0.000585	-2.274699
0.200000	-0.001025	-3.032362	-88.832671	170.797387	-88.832671	170.797387	-0.001024	-3.032414
0.250000	-0.001577	-3.789641	-88.887158	169.679772	-88.887158	169.679772	-0.001576	-3.789707
0.300000	-0.002243	-4.546355	-88.955671	168.385392	-88.955671	168.385392	-0.002241	-4.546436
0.350000	-0.002995	-5.302522	-89.034572	167.016124	-89.034572	167.016124	-0.002992	-5.302618
0.400000	-0.003838	-6.057989	-89.124146	165.601530	-89.124146	165.601530	-0.003835	-6.058102
0.450000	-0.004754	-6.812762	-89.222258	164.174596	-89.222258	164.174596	-0.004750	-6.812893
0.500000	-0.005734	-7.566769	-89.327917	162.756317	-89.327917	162.756317	-0.005730	-7.566918
0.550000	-0.006769	-8.319982	-89.439552	161.366869	-89.439552	161.366869	-0.006764	-8.320149
0.600000	-0.007849	-9.072377	-89.555491	160.026114	-89.555491	160.026114	-0.007844	-9.072564
0.650000	-0.008964	-9.823939	-89.673856	158.754989	-89.673856	158.754989	-0.008959	-9.824144
0.700000	-0.010107	-10.574657	-89.792532	157.576209	-89.792532	157.576209	-0.010101	-10.574882
0.750000	-0.011269	-11.324528	-89.909115	156.514623	-89.909115	156.514623	-0.011262	-11.324773
0.800000	-0.012443	-12.073553	-90.020849	155.597268	-90.020849	155.597268	-0.012437	-12.073818
0.850000	-0.013625	-12.821591	-90.121819	154.892427	-90.121819	154.892427	-0.013619	-12.821876
0.900000	-0.014809	-13.568756	-90.210258	154.400948	-90.210258	154.400948	-0.014802	-13.569060
0.950000	-0.015990	-14.315491	-90.288707	154.043361	-90.288707	154.043361	-0.015984	-14.315814
1.000000	-0.017164	-15.060935	-90.334955	154.087446	-90.334955	154.087446	-0.017159	-15.061277
1.050000	-0.018335	-15.806098	-90.369710	154.237717	-90.369710	154.237717	-0.018330	-15.806458
1.100000	-0.019490	-16.549851	-90.345907	154.918918	-90.345907	154.918918	-0.019484	-16.550229
1.150000	-0.020642	-17.293466	-90.313268	155.654636	-90.313268	155.654636	-0.020637	-17.293861
1.200000	-0.021770	-18.035549	-90.183801	156.990033	-90.183801	156.990033	-0.021765	-18.035961
1.250000	-0.022898	-18.777632	-90.056235	158.325430	-90.056235	158.325430	-0.022894	-18.778061
1.300000	-0.024006	-19.518469	-89.826706	160.086359	-89.826706	160.086359	-0.024002	-19.518914
1.350000	-0.025099	-20.258510	-89.523659	162.047114	-89.523659	162.047114	-0.025096	-20.258971
1.400000	-0.026180	-20.997752	-89.143732	164.136631	-89.143732	164.136631	-0.026177	-20.998228
1.450000	-0.027247	-21.736192	-88.686787	166.276199	-88.686787	166.276199	-0.027245	-21.736683
1.500000	-0.028302	-22.473826	-88.156076	168.387128	-88.156076	168.387128	-0.028300	-22.474331
1.550000	-0.029346	-23.210647	-87.557875	170.398095	-87.557875	170.398095	-0.029344	-23.211166
1.600000	-0.030378	-23.946647	-86.900729	172.250658	-86.900729	172.250658	-0.030377	-23.947181
1.650000	-0.031401	-24.681819	-86.194486	173.902123	-86.194486	173.902123	-0.031400	-24.682366
1.700000	-0.032411	-25.415857	-85.415625	175.241274	-85.415625	175.241274	-0.032410	-25.416417
1.750000	-0.033416	-26.149454	-84.655854	176.456481	-84.655854	176.456481	-0.033416	-26.150027
1.800000	-0.034413	-26.881999	-83.854122	177.382125	-83.854122	177.382125	-0.034412	-26.882584
1.850000	-0.035403	-27.613793	-83.053160	178.100937	-83.053160	178.100937	-0.035403	-27.614391
1.900000	-0.036387	-28.344659	-82.240874	178.598040	-82.240874	178.598040	-0.036387	-28.345269
1.950000	-0.037366	-29.074597	-81.426210	178.873431	-81.426210	178.873431	-0.037366	-29.075218
2.000000	-0.038341	-29.803737	-80.622930	178.995326	-80.622930	178.995326	-0.038342	-29.804370
2.050000	-0.039312	-30.531761	-79.812992	178.902323	-79.812992	178.902323	-0.039312	-30.532406
2.100000	-0.040281	-31.259127	-79.030586	178.710762	-79.030586	178.710762	-0.040281	-31.259784
2.150000	-0.041247	-31.985177	-78.236799	178.322084	-78.236799	178.322084	-0.041247	-31.985845
2.200000	-0.042212	-32.710719	-77.481781	177.874812	-77.481781	177.874812	-0.042213	-32.711398
2.250000	-0.043177	-33.434734	-76.710815	177.251760	-76.710815	177.251760	-0.043177	-33.435425
2.300000	-0.044141	-34.158400	-75.986281	176.597733	-75.986281	176.597733	-0.044141	-34.159101
2.350000	-0.045106	-34.880318	-75.241782	175.788833	-75.241782	175.788833	-0.045107	-34.881031
2.400000	-0.046072	-35.602056	-74.548766	174.967562	-74.548766	174.967562	-0.046072	-35.602780
2.450000	-0.047041	-36.321815	-73.832525	174.010212	-73.832525	174.010212	-0.047041	-36.322550
2.500000	-0.048011	-37.041575	-73.170872	173.052861	-73.170872	173.052861	-0.048011	-37.042320
2.550000	-0.048986	-37.759114	-72.483568	171.975696	-72.483568	171.975696	-0.048986	-37.759870
2.600000	-0.049961	-38.476654	-71.846684	170.898531	-71.846684	170.898531	-0.049961	-38.477420
2.650000	-0.050944	-39.192104	-71.194123	169.731782	-71.194123	169.731782	-0.050944	-39.192881
2.700000	-0.051928	-39.907364	-70.582181	168.556889	-70.582181	168.556889	-0.051927	-39.908152
2.750000	-0.052920	-40.620677	-69.962688	167.314992	-69.962688	167.314992	-0.052920	-40.621476
2.800000	-0.053914	-41.333600	-69.375528	166.059695	-69.375528	166.059695	-0.053914	-41.334410
2.850000	-0.054918	-42.044729	-68.787389	164.754529	-68.787389	164.754529	-0.054917	-42.045550
2.900000	-0.055924	-42.755260	-68.224653	163.432741	-68.224653	163.432741	-0.055923	-42.756091
2.950000	-0.056940	-43.464161	-67.666184	162.074284	-67.666184	162.074284	-0.056938	-43.465002
3.000000	-0.057960	-44.172246	-67.127386	160.697494	-67.127386	160.697494	-0.057959	-44.173098
3.050000	-0.058990	-44.878875	-66.596965	159.294312	-66.596965	159.294312	-0.058988	-44.879737
3.100000	-0.060026	-45.584464	-66.081536	157.872281	-66.081536	157.872281	-0.060024	-45.585337
3.150000	-0.061071	-46.288781	-65.577615	156.431885	-65.577615	156.431885	-0.061069	-46.289664
3.200000	-0.062125	-46.991825	-65.084920	154.973124	-65.084920	154.973124	-0.062122	-46.992719
3.250000	-0.063186	-47.693791	-64.606027	153.502217	-64.606027	153.502217	-0.063184	-47.694695
3.300000	-0.064259	-48.394246	-64.135379	152.014305	-64.135379	152.014305	-0.064256	-48.395160
3.350000	-0.065338	-49.093823	-63.680110	150.518956	-63.680110	150.518956	-0.065335	-49.094747
3.400000	-0.066431	-49.791646	-63.230769	149.008735	-63.230769	149.008735	-0.066429	-49.792581
3.450000	-0.067530	-50.488801	-62.797790	147.494491	-62.797790	147.494491	-0.067527	-50.489746
3.500000	-0.068646	-51.183953	-62.368963	145.968182	-62.368963	145.968182	-0.068642	-51.184907
3.550000	-0.069765	-51.878653	-61.956997	144.440134	-61.956997	144.440134	-0.069762	-51.879617
3.600000	-0.070904	-52.571097	-61.547845	142.903395	-61.547845	142.903395	-0.070900	-52.572071
3.650000	-0.072045	-53.263312	-61.155665	141.366212	-61.155665	141.366212	-0.072042	-53.264296
3.700000	-0.073209	-53.953014	-60.765301	139.824156	-60.765301	139.824156	-0.073206	-53.954008
3.750000	-0.074374	-54.642717	-60.391730	138.282101	-60.391730	138.282101	-0.074370	-54.643720
3.800000	-0.075565	-55.329647	-60.019227	136.739301	-60.019227	136.739301	-0.075561	-55.330659
3.850000	-0.076756	-56.016577	-59.662045	135.196502	-59.662045	135.196502	-0.076752	-56.017599
3.900000	-0.077973	-56.700942	-59.307527	133.656706	-59.307527	133.656706	-0.077969	-56.701973
3.950000	-0.079193	-57.385073	-58.965913	132.117182	-58.965913	132.117182	-0.079189	-57.386113
4.000000	-0.080438	-58.066851	-58.628120	130.583274	-58.628120	130.583274	-0.080433	-58.067901
4.050000	-0.081687	-58.748159	-58.301220	129.050487	-58.301220	129.050487	-0.081683	-58.749217
4.100000	-0.082961	-59.427332	-57.978952	127.524928	-57.978952	127.524928	-0.082956	-59.428399
4.150000	-0.084242	-60.105795	-57.665890	126.001777	-57.665890	126.001777	-0.084238	-60.106871
4.200000	-0.085546	-60.782348	-57.358002	124.486610	-57.358002	124.486610	-0.085541	-60.783433
4.250000	-0.086860	-61.457947	-57.057893	122.975436	-57.057893	122.975436	-0.086856	-61.459040
4.300000	-0.088196	-62.131867	-56.763298	121.472298	-56.763298	121.472298	-0.088191	-62.132968
4.350000	-0.089545	-62.804587	-56.475254	119.974900	-56.475254	119.974900	-0.089541	-62.805697
4.400000	-0.090914	-63.475862	-56.192927	118.485032	-56.192927	118.485032	-0.090909	-63.476979
4.450000	-0.092300	-64.145691	-55.916071	117.002694	-55.916071	117.002694	-0.092296	-64.146816
4.500000	-0.093703	-64.814311	-55.645043	115.526965	-55.645043	115.526965	-0.093699	-64.815445
4.550000	-0.095129	-65.481240	-55.378517	114.060489	-55.378517	114.060489	-0.095124	-65.482381
4.600000	-0.096568	-66.147200	-55.117879	112.599419	-55.117879	112.599419	-0.096563	-66.148348
4.650000	-0.098033	-66.811222	-54.860856	111.149161	-54.860856	111.149161	-0.098029	-66.812378
4.700000	-0.099510	-67.474517	-54.609755	109.702949	-54.609755	109.702949	-0.099505	-67.475680
4.750000	-0.101018	-68.135629	-54.361440	108.268870	-54.361440	108.268870	-0.101013	-68.136799
4.800000	-0.102533	-68.796256	-54.119085	106.837421	-54.119085	106.837421	-0.102529	-68.797433
4.850000	-0.104086	-69.454458	-53.878724	105.419126	-53.878724	105.419126	-0.104081	-69.455642
4.900000	-0.105642	-70.112418	-53.644377	104.002087	-53.644377	104.002087	-0.105637	-70.113608
4.950000	-0.107240	-70.767712	-53.411262	102.598874	-53.411262	102.598874	-0.107235	-70.768909
5.000000	-0.108839	-71.423007	-53.184241	101.195662	-53.184241	101.195662	-0.108834	-71.424210
5.050000	-0.110485	-72.075399	-52.957712	99.806569	-52.957712	99.806569	-0.110480	-72.076609
5.100000	-0.112131	-72.727792	-52.736940	98.417476	-52.736940	98.417476	-0.112126	-72.729008
5.150000	-0.113823	-73.377533	-52.516832	97.040243	-52.516832	97.040243	-0.113818	-73.378754
5.200000	-0.115519	-74.027033	-52.301737	95.664089	-52.301737	95.664089	-0.115514	-74.028260
5.250000	-0.117258	-74.674132	-52.087485	94.297585	-52.087485	94.297585	-0.117253	-74.675364
5.300000	-0.119006	-75.320750	-51.877540	92.933011	-51.877540	92.933011	-0.119001	-75.321989
5.350000	-0.120794	-75.965219	-51.668631	91.575995	-51.668631	91.575995	-0.120789	-75.966463
5.400000	-0.122595	-76.608971	-51.463354	90.221500	-51.463354	90.221500	-0.122590	-76.610220
5.450000	-0.124434	-77.250824	-51.259330	88.872652	-51.259330	88.872652	-0.124429	-77.252078
5.500000	-0.126290	-77.891728	-51.058285	87.526628	-51.058285	87.526628	-0.126286	-77.892987
5.550000	-0.128181	-78.530981	-50.858733	86.184562	-50.858733	86.184562	-0.128176	-78.532245
5.600000	-0.130095	-79.169057	-50.661530	84.845323	-50.661530	84.845323	-0.130090	-79.170325
5.650000	-0.132038	-79.805730	-50.466084	83.508610	-50.466084	83.508610	-0.132033	-79.807003
5.700000	-0.134011	-80.441001	-50.272376	82.174422	-50.272376	82.174422	-0.134006	-80.442279
5.750000	-0.136010	-81.075115	-50.080712	80.841604	-50.080712	80.841604	-0.136005	-81.076397
5.800000	-0.138044	-81.707608	-49.890196	79.510706	-49.890196	79.510706	-0.138039	-81.708895
5.850000	-0.140099	-82.339186	-49.702029	78.180316	-49.702029	78.180316	-0.140094	-82.340477
5.900000	-0.142195	-82.968931	-49.514446	76.850945	-49.514446	76.850945	-0.142190	-82.970226
5.950000	-0.144308	-83.597997	-49.329530	75.521519	-49.329530	75.521519	-0.144303	-83.599297
6.000000	-0.146469	-84.225026	-49.144658	74.191929	-49.144658	74.191929	-0.146463	-84.226330
6.050000	-0.148640	-84.851609	-48.962782	72.862020	-48.962782	72.862020	-0.148635	-84.852917
6.100000	-0.150867	-85.475958	-48.780440	71.530507	-48.780440	71.530507	-0.150861	-85.477270
6.150000	-0.153099	-86.100086	-48.601426	70.198697	-48.601426	70.198697	-0.153093	-86.101403
6.200000	-0.155392	-86.721792	-48.421474	68.863614	-48.421474	68.863614	-0.155387	-86.723113
6.250000	-0.157686	-87.343498	-48.245174	67.528530	-48.245174	67.528530	-0.157681	-87.344823
6.300000	-0.160048	-87.962601	-48.067504	66.188303	-48.067504	66.188303	-0.160042	-87.963930
6.350000	-0.162410	-88.581704	-47.893396	64.848077	-47.893396	64.848077	-0.162405	-88.583038
6.400000	-0.164836	-89.198462	-47.718343	63.501784	-47.718343	63.501784	-0.164830	-89.199800
6.450000	-0.167268	-89.815005	-47.546360	62.154939	-47.546360	62.154939	-0.167263	-89.816349
6.500000	-0.169759	-90.429454	-47.373864	60.801445	-47.373864	60.801445	-0.169753	-90.430802
6.550000	-0.172262	-91.043484	-47.203972	59.446622	-47.203972	59.446622	-0.172256	-91.044837
6.600000	-0.174818	-91.655664	-47.033997	58.084896	-47.033997	58.084896	-0.174813	-91.657022
6.650000	-0.177393	-92.267227	-46.866191	56.720870	-46.866191	56.720870	-0.177388	-92.268590
6.700000	-0.180017	-92.877178	-46.698724	55.349995	-46.698724	55.349995	-0.180012	-92.878547
6.750000	-0.182665	-93.486324	-46.533030	53.975696	-46.533030	53.975696	-0.182659	-93.487699
6.800000	-0.185355	-94.094089	-46.368078	52.594884	-46.368078	52.594884	-0.185350	-94.095470
6.850000	-0.188077	-94.700868	-46.204546	51.209421	-46.204546	51.209421	-0.188072	-94.702256
6.900000	-0.190836	-95.306491	-46.042135	49.818029	-46.042135	49.818029	-0.190831	-95.307886
6.950000	-0.193632	-95.910957	-45.880840	48.420708	-45.880840	48.420708	-0.193627	-95.912359
7.000000	-0.196459	-96.514481	-45.721013	47.018250	-45.721013	47.018250	-0.196454	-96.515891
7.050000	-0.199330	-97.116687	-45.562049	45.608599	-45.562049	45.608599	-0.199325	-97.118105
7.100000	-0.202227	-97.718158	-45.404859	44.194761	-45.404859	44.194761	-0.202222	-97.719584
7.150000	-0.205173	-98.318160	-45.248337	42.772549	-45.248337	42.772549	-0.205169	-98.319595
7.200000	-0.208139	-98.917623	-45.093849	41.347204	-45.093849	41.347204	-0.208135	-98.919068
7.250000	-0.211162	-99.515475	-44.939892	39.912459	-44.939892	39.912459	-0.211158	-99.516929
7.300000	-0.214198	-100.112978	-44.788178	38.475678	-44.788178	38.475678	-0.214194	-100.114442
7.350000	-0.217297	-100.708735	-44.636914	37.028710	-44.636914	37.028710	-0.217293	-100.710211
7.400000	-0.220404	-101.304323	-44.488048	35.580774	-44.488048	35.580774	-0.220400	-101.305810
7.450000	-0.223580	-101.898042	-44.339608	34.122185	-44.339608	34.122185	-0.223576	-101.899542
7.500000	-0.226758	-102.491761	-44.193663	32.663597	-44.193663	32.663597	-0.226754	-102.493274
7.550000	-0.230012	-103.083497	-44.048172	31.194294	-44.048172	31.194294	-0.230008	-103.085023
7.600000	-0.233268	-103.675233	-43.905077	29.724991	-43.905077	29.724991	-0.233264	-103.676773
7.650000	-0.236594	-104.265200	-43.762786	28.246983	-43.762786	28.246983	-0.236590	-104.266756
7.700000	-0.239928	-104.855007	-43.622652	26.768184	-43.622652	26.768184	-0.239924	-104.856578
7.750000	-0.243328	-105.443251	-43.483602	25.282744	-43.483602	25.282744	-0.243324	-105.444838
7.800000	-0.246741	-106.031182	-43.346519	23.795977	-43.346519	23.795977	-0.246738	-106.032786
7.850000	-0.250215	-106.617746	-43.210732	22.304608	-43.210732	22.304608	-0.250211	-106.619367
7.900000	-0.253710	-107.203854	-43.076763	20.811706	-43.076763	20.811706	-0.253706	-107.205493
7.950000	-0.257259	-107.788780	-42.944234	19.316131	-42.944234	19.316131	-0.257255	-107.790438
8.000000	-0.260836	-108.373115	-42.813406	17.819219	-42.813406	17.819219	-0.260832	-108.374792
8.050000	-0.264462	-108.956444	-42.684101	16.321367	-42.684101	16.321367	-0.264458	-108.958141
8.100000	-0.268124	-109.539055	-42.556399	14.822843	-42.556399	14.822843	-0.268120	-109.540773
8.150000	-0.271830	-110.120828	-42.430249	13.324835	-42.430249	13.324835	-0.271825	-110.122566
8.200000	-0.275579	-110.701761	-42.305611	11.827343	-42.305611	11.827343	-0.275574	-110.703522
8.250000	-0.279367	-111.282015	-42.182510	10.331473	-42.182510	10.331473	-0.279361	-111.283797
8.300000	-0.283207	-111.861317	-42.060816	8.837873	-42.060816	8.837873	-0.283201	-111.863122
8.350000	-0.287085	-112.440003	-41.940581	7.347105	-41.940581	7.347105	-0.287078	-112.441830
8.400000	-0.291035	-113.017457	-41.821547	5.862002	-41.821547	5.862002	-0.291028	-113.019307
8.450000	-0.294988	-113.594911	-41.704122	4.376900	-41.704122	4.376900	-0.294980	-113.596784
8.500000	-0.299015	-114.171228	-41.587734	2.900101	-41.587734	2.900101	-0.299007	-114.173126
8.550000	-0.303102	-114.746637	-41.472466	1.429944	-41.472466	1.429944	-0.303093	-114.748558
8.600000	-0.307190	-115.322045	-41.358708	-0.040213	-41.358708	-0.040213	-0.307181	-115.323990
8.650000	-0.311391	-115.895916	-41.245369	-1.494142	-41.245369	-1.494142	-0.311381	-115.897885
8.700000	-0.315625	-116.469348	-41.133192	-2.943434	-41.133192	-2.943434	-0.315615	-116.471340
8.750000	-0.319861	-117.042779	-41.022446	-4.392727	-41.022446	-4.392727	-0.319850	-117.044796
8.800000	-0.324253	-117.614300	-40.911132	-5.815107	-40.911132	-5.815107	-0.324242	-117.616340
8.850000	-0.328648	-118.185820	-40.801227	-7.237487	-40.801227	-7.237487	-0.328637	-118.187884
8.900000	-0.333083	-118.756930	-40.692068	-8.652530	-40.692068	-8.652530	-0.333071	-118.759017
8.950000	-0.337652	-119.326601	-40.582095	-10.041890	-40.582095	-10.041890	-0.337640	-119.328712
9.000000	-0.342224	-119.896272	-40.473497	-11.431251	-40.473497	-11.431251	-0.342212	-119.898406
9.050000	-0.346881	-120.465148	-40.364517	-12.803207	-40.364517	-12.803207	-0.346870	-120.467304
9.100000	-0.351646	-121.033030	-40.254758	-14.153407	-40.254758	-14.153407	-0.351635	-121.035208
9.150000	-0.356414	-121.600912	-40.146368	-15.503607	-40.146368	-15.503607	-0.356402	-121.603112
9.200000	-0.361323	-122.167639	-40.035874	-16.823565	-40.035874	-16.823565	-0.361312	-122.169860
9.250000	-0.366304	-122.733789	-39.925069	-18.128403	-39.925069	-18.128403	-0.366295	-122.736031
9.300000	-0.371289	-123.299938	-39.815660	-19.433241	-39.815660	-19.433241	-0.371280	-123.302202
9.350000	-0.376482	-123.864598	-39.701680	-20.692105	-39.701680	-20.692105	-0.376475	-123.866881
9.400000	-0.381705	-124.429072	-39.588445	-21.945223	-39.588445	-21.945223	-0.381699	-124.431374
9.450000	-0.386959	-124.993365	-39.475719	-23.191850	-39.475719	-23.191850	-0.386955	-124.995687
9.500000	-0.392446	-125.556216	-39.356951	-24.386558	-39.356951	-24.386558	-0.392444	-125.558556
9.550000	-0.397936	-126.119067	-39.239784	-25.581265	-39.239784	-25.581265	-0.397937	-126.121425
9.600000	-0.403525	-126.681395	-39.120652	-26.754072	-39.120652	-26.754072	-0.403529	-126.683770
9.650000	-0.409309	-127.242675	-38.996180	-27.883078	-38.996180	-27.883078	-0.409316	-127.245067
9.700000	-0.415096	-127.803956	-38.873467	-29.012084	-38.873467	-29.012084	-0.415107	-127.806364
9.750000	-0.421062	-128.364391	-38.745291	-30.099986	-38.745291	-30.099986	-0.421078	-128.366815
9.800000	-0.427173	-128.924150	-38.613330	-31.155003	-38.613330	-31.155003	-0.427194	-128.926589
9.850000	-0.433288	-129.483908	-38.483343	-32.210021	-38.483343	-32.210021	-0.433315	-129.486363
9.900000	-0.439679	-130.042518	-38.343161	-33.199847	-38.343161	-33.199847	-0.439711	-130.044988
9.950000	-0.446152	-130.600800	-38.201802	-34.171047	-38.201802	-34.171047	-0.446191	-130.603285
10.000000	-0.452629	-131.159082	-38.062707	-35.142248	-38.062707	-35.142248	-0.452675	-131.161581
