! freq	dB(S11)	phase(S11)	dB(S12)	phase(S12)	
!     	dB(S21)	phase(S21)	dB(S22)	phase(S22)	
!S-par simulation data
#  GHz  S  DB  R 50
0.000000	-0.000000	0.000000	-380.721795	0.000000	-380.721795	0.000000	-0.000000	0.000000
0.050000	-0.000861	-1.351382	-106.643703	88.897317	-106.643703	88.897317	-0.000642	-0.982695
0.100000	-0.002912	-2.696420	-100.662510	87.799708	-100.662510	87.799708	-0.002127	-1.960422
0.150000	-0.005292	-4.034221	-97.206559	86.712239	-97.206559	86.712239	-0.003784	-2.932825
0.200000	-0.007516	-5.366984	-94.804694	85.641292	-94.804694	85.641292	-0.005286	-3.901815
0.250000	-0.009517	-6.697317	-92.984424	84.590286	-92.984424	84.590286	-0.006623	-4.869299
0.300000	-0.011325	-8.026263	-91.544058	83.567196	-91.544058	83.567196	-0.007837	-5.836010
0.350000	-0.013006	-9.354398	-90.373857	82.582122	-90.373857	82.582122	-0.008984	-6.802338
0.400000	-0.014612	-10.681897	-89.409472	81.650204	-89.409472	81.650204	-0.010107	-7.768416
0.450000	-0.016181	-12.008666	-88.616202	80.799366	-88.616202	80.799366	-0.011235	-8.734236
0.500000	-0.017740	-13.334640	-87.959117	80.046415	-87.959117	80.046415	-0.012382	-9.699780
0.550000	-0.019299	-14.659654	-87.420062	79.415338	-87.420062	79.415338	-0.013552	-10.664984
0.600000	-0.020865	-15.983535	-86.986645	78.931485	-86.986645	78.931485	-0.014743	-11.629771
0.650000	-0.022441	-17.306106	-86.650277	78.623167	-86.650277	78.623167	-0.015951	-12.594059
0.700000	-0.024026	-18.627198	-86.404941	78.524275	-86.404941	78.524275	-0.017171	-13.557756
0.750000	-0.025621	-19.946536	-86.251445	78.696326	-86.251445	78.696326	-0.018397	-14.520719
0.800000	-0.027223	-21.263956	-86.186075	79.203302	-86.186075	79.203302	-0.019624	-15.482841
0.850000	-0.028833	-22.579347	-86.203662	80.122402	-86.203662	80.122402	-0.020848	-16.444038
0.900000	-0.030447	-23.892729	-86.295039	81.518335	-86.295039	81.518335	-0.022067	-17.404293
0.950000	-0.032065	-25.203862	-86.459280	83.544735	-86.459280	83.544735	-0.023280	-18.363471
1.000000	-0.033686	-26.512629	-86.685826	86.366479	-86.685826	86.366479	-0.024487	-19.321499
1.050000	-0.035307	-27.818923	-86.955036	90.181996	-86.955036	90.181996	-0.025688	-20.278316
1.100000	-0.036929	-29.122647	-87.232062	95.206571	-87.232062	95.206571	-0.026886	-21.233869
1.150000	-0.038550	-30.423709	-87.459885	101.621619	-87.459885	101.621619	-0.028081	-22.188117
1.200000	-0.040170	-31.722028	-87.556343	109.470048	-87.556343	109.470048	-0.029274	-23.141024
1.250000	-0.041787	-33.017526	-87.425507	118.507898	-87.425507	118.507898	-0.030467	-24.092563
1.300000	-0.043401	-34.310003	-86.975870	128.098210	-86.975870	128.098210	-0.031661	-25.042647
1.350000	-0.045012	-35.599516	-86.209853	137.331455	-86.209853	137.331455	-0.032855	-25.991315
1.400000	-0.046619	-36.886005	-85.188609	145.507340	-85.188609	145.507340	-0.034050	-26.938550
1.450000	-0.048221	-38.169412	-84.005162	152.285178	-84.005162	152.285178	-0.035246	-27.884333
1.500000	-0.049819	-39.449685	-82.745334	157.642742	-82.745334	157.642742	-0.036444	-28.828649
1.550000	-0.051412	-40.726774	-81.470462	161.734010	-81.470462	161.734010	-0.037642	-29.771483
1.600000	-0.053000	-42.000631	-80.217747	164.770652	-80.217747	164.770652	-0.038842	-30.712817
1.650000	-0.054583	-43.271213	-79.006917	166.957881	-79.006917	166.957881	-0.040042	-31.652637
1.700000	-0.056161	-44.538477	-77.846797	168.470162	-77.846797	168.470162	-0.041243	-32.590927
1.750000	-0.057734	-45.802385	-76.739981	169.447283	-76.739981	169.447283	-0.042445	-33.527671
1.800000	-0.059302	-47.062900	-75.685726	169.998356	-75.685726	169.998356	-0.043647	-34.462852
1.850000	-0.060866	-48.319987	-74.681637	170.207771	-74.681637	170.207771	-0.044850	-35.396454
1.900000	-0.062426	-49.573612	-73.724608	170.140796	-73.724608	170.140796	-0.046053	-36.328462
1.950000	-0.063982	-50.823746	-72.811321	169.848160	-72.811321	169.848160	-0.047257	-37.258857
2.000000	-0.065535	-52.070360	-71.938517	169.369583	-71.938517	169.369583	-0.048461	-38.187624
2.050000	-0.067085	-53.313426	-71.103115	168.736437	-71.103115	168.736437	-0.049665	-39.114745
2.100000	-0.068633	-54.552919	-70.302270	167.973733	-70.302270	167.973733	-0.050871	-40.040205
2.150000	-0.070178	-55.788817	-69.533388	167.101587	-69.533388	167.101587	-0.052078	-40.963986
2.200000	-0.071723	-57.021097	-68.794116	166.136333	-68.794116	166.136333	-0.053287	-41.886072
2.250000	-0.073266	-58.249740	-68.082331	165.091340	-68.082331	165.091340	-0.054497	-42.806446
2.300000	-0.074810	-59.474729	-67.396115	163.977646	-67.396115	163.977646	-0.055709	-43.725093
2.350000	-0.076354	-60.696048	-66.733738	162.804434	-66.733738	162.804434	-0.056924	-44.641997
2.400000	-0.077899	-61.913683	-66.093637	161.579398	-66.093637	161.579398	-0.058142	-45.557142
2.450000	-0.079447	-63.127621	-65.474397	160.309030	-65.474397	160.309030	-0.059363	-46.470514
2.500000	-0.080997	-64.337853	-64.874735	158.998844	-64.874735	158.998844	-0.060588	-47.382096
2.550000	-0.082550	-65.544207	-64.292598	157.652212	-64.292598	157.652212	-0.061818	-48.291797
2.600000	-0.084108	-66.746840	-63.727917	156.274831	-63.727917	156.274831	-0.063052	-49.199680
2.650000	-0.085671	-67.945746	-63.179708	154.870131	-63.179708	154.870131	-0.064292	-50.105731
2.700000	-0.087239	-69.140923	-62.647073	153.441097	-62.647073	153.441097	-0.065538	-51.009937
2.750000	-0.088814	-70.332371	-62.129187	151.990336	-62.129187	151.990336	-0.066790	-51.912287
2.800000	-0.090396	-71.520090	-61.625293	150.520136	-61.625293	150.520136	-0.068049	-52.812769
2.850000	-0.091986	-72.704084	-61.134692	149.032510	-61.134692	149.032510	-0.069315	-53.711371
2.900000	-0.093584	-73.884358	-60.656742	147.529240	-60.656742	147.529240	-0.070589	-54.608082
2.950000	-0.095192	-75.060918	-60.190844	146.011906	-60.190844	146.011906	-0.071871	-55.502893
3.000000	-0.096810	-76.233773	-59.736448	144.481915	-59.736448	144.481915	-0.073163	-56.395794
3.050000	-0.098438	-77.402934	-59.293039	142.940522	-59.293039	142.940522	-0.074464	-57.286777
3.100000	-0.100079	-78.568413	-58.860141	141.388853	-58.860141	141.388853	-0.075775	-58.175833
3.150000	-0.101732	-79.730225	-58.437306	139.827919	-58.437306	139.827919	-0.077097	-59.062955
3.200000	-0.103397	-80.888384	-58.024119	138.258631	-58.024119	138.258631	-0.078429	-59.948136
3.250000	-0.105077	-82.042909	-57.620191	136.681811	-57.620191	136.681811	-0.079773	-60.831370
3.300000	-0.106771	-83.193819	-57.225157	135.098202	-57.225157	135.098202	-0.081130	-61.712651
3.350000	-0.108480	-84.341136	-56.838673	133.508481	-56.838673	133.508481	-0.082498	-62.591976
3.400000	-0.110205	-85.484882	-56.460419	131.913260	-56.460419	131.913260	-0.083880	-63.469338
3.450000	-0.111947	-86.625082	-56.090091	130.313101	-56.090091	130.313101	-0.085276	-64.344737
3.500000	-0.113706	-87.761762	-55.727403	128.708512	-55.727403	128.708512	-0.086686	-65.218167
3.550000	-0.115482	-88.894950	-55.372086	127.099962	-55.372086	127.099962	-0.088110	-66.089628
3.600000	-0.117278	-90.024676	-55.023885	125.487878	-55.023885	125.487878	-0.089550	-66.959119
3.650000	-0.119092	-91.150970	-54.682558	123.872653	-54.682558	123.872653	-0.091005	-67.826638
3.700000	-0.120927	-92.273865	-54.347878	122.254648	-54.347878	122.254648	-0.092476	-68.692186
3.750000	-0.122782	-93.393396	-54.019628	120.634194	-54.019628	120.634194	-0.093964	-69.555764
3.800000	-0.124659	-94.509456	-53.697356	119.011520	-53.697356	119.011520	-0.095470	-70.417288
3.850000	-0.126557	-95.622227	-53.381134	117.387009	-53.381134	117.387009	-0.096993	-71.276845
3.900000	-0.128478	-96.731749	-53.070776	115.760922	-53.070776	115.760922	-0.098535	-72.134438
3.950000	-0.130422	-97.838061	-52.766103	114.133497	-52.766103	114.133497	-0.100095	-72.990072
4.000000	-0.132390	-98.941207	-52.466945	112.504956	-52.466945	112.504956	-0.101674	-73.843751
4.050000	-0.134382	-100.041228	-52.173140	110.875504	-52.173140	110.875504	-0.103273	-74.695479
4.100000	-0.136399	-101.138169	-51.884535	109.245333	-51.884535	109.245333	-0.104892	-75.545263
4.150000	-0.138440	-102.232076	-51.600981	107.614621	-51.600981	107.614621	-0.106531	-76.393108
4.200000	-0.140508	-103.322995	-51.322338	105.983531	-51.322338	105.983531	-0.108191	-77.239022
4.250000	-0.142602	-104.410976	-51.048470	104.352219	-51.048470	104.352219	-0.109873	-78.083013
4.300000	-0.144723	-105.496066	-50.779248	102.720826	-50.779248	102.720826	-0.111577	-78.925088
4.350000	-0.146871	-106.578318	-50.514550	101.089486	-50.514550	101.089486	-0.113303	-79.765258
4.400000	-0.149048	-107.657782	-50.254255	99.458324	-50.254255	99.458324	-0.115052	-80.603531
4.450000	-0.151253	-108.734511	-49.998251	97.827455	-49.998251	97.827455	-0.116824	-81.439918
4.500000	-0.153486	-109.808561	-49.746429	96.196987	-49.746429	96.196987	-0.118621	-82.274429
4.550000	-0.155749	-110.879986	-49.498683	94.567021	-49.498683	94.567021	-0.120441	-83.107077
4.600000	-0.158042	-111.948842	-49.254913	92.937651	-49.254913	92.937651	-0.122286	-83.937874
4.650000	-0.160366	-113.015186	-49.015023	91.308966	-49.015023	91.308966	-0.124156	-84.766831
4.700000	-0.162720	-114.079078	-48.778919	89.681045	-48.778919	89.681045	-0.126052	-85.593964
4.750000	-0.165106	-115.140577	-48.546512	88.053967	-48.546512	88.053967	-0.127974	-86.419284
4.800000	-0.167523	-116.199742	-48.317715	86.427803	-48.317715	86.427803	-0.129923	-87.242809
4.850000	-0.169972	-117.256636	-48.092446	84.802618	-48.092446	84.802618	-0.131899	-88.064551
4.900000	-0.172455	-118.311320	-47.870624	83.178474	-47.870624	83.178474	-0.133902	-88.884528
4.950000	-0.174970	-119.363859	-47.652172	81.555429	-47.652172	81.555429	-0.135933	-89.702754
5.000000	-0.177518	-120.414316	-47.437016	79.933535	-47.437016	79.933535	-0.137992	-90.519249
5.050000	-0.180102	-121.462672	-47.225000	78.312898	-47.225000	78.312898	-0.140082	-91.333954
5.100000	-0.182719	-122.509084	-47.016146	76.693510	-47.016146	76.693510	-0.142200	-92.146964
5.150000	-0.185372	-123.553619	-46.810386	75.075415	-46.810386	75.075415	-0.144349	-92.958296
5.200000	-0.188059	-124.596345	-46.607656	73.458650	-46.607656	73.458650	-0.146528	-93.767971
5.250000	-0.190782	-125.637331	-46.407893	71.843249	-46.407893	71.843249	-0.148737	-94.576008
5.300000	-0.193540	-126.676646	-46.211035	70.229246	-46.211035	70.229246	-0.150978	-95.382427
5.350000	-0.196334	-127.714362	-46.017025	68.616667	-46.017025	68.616667	-0.153250	-96.187249
5.400000	-0.199165	-128.750549	-45.825806	67.005538	-45.825806	67.005538	-0.155555	-96.990495
5.450000	-0.202032	-129.785281	-45.637322	65.395882	-45.637322	65.395882	-0.157891	-97.792187
5.500000	-0.204936	-130.818629	-45.451520	63.787719	-45.451520	63.787719	-0.160261	-98.592347
5.550000	-0.207877	-131.850668	-45.268350	62.181064	-45.268350	62.181064	-0.162664	-99.390998
5.600000	-0.210856	-132.881474	-45.087761	60.575930	-45.087761	60.575930	-0.165101	-100.188164
5.650000	-0.213872	-133.911121	-44.909706	58.972329	-44.909706	58.972329	-0.167572	-100.983868
5.700000	-0.216926	-134.939686	-44.734137	57.370267	-44.734137	57.370267	-0.170078	-101.778135
5.750000	-0.220019	-135.967247	-44.561009	55.769747	-44.561009	55.769747	-0.172619	-102.570988
5.800000	-0.223150	-136.993882	-44.390280	54.170770	-44.390280	54.170770	-0.175195	-103.362455
5.850000	-0.226320	-138.019670	-44.221906	52.573332	-44.221906	52.573332	-0.177808	-104.152560
5.900000	-0.229529	-139.044692	-44.055847	50.977426	-44.055847	50.977426	-0.180456	-104.941329
5.950000	-0.232776	-140.069028	-43.892063	49.383040	-43.892063	49.383040	-0.183142	-105.728790
6.000000	-0.236064	-141.092761	-43.730516	47.790158	-43.730516	47.790158	-0.185865	-106.514969
6.050000	-0.239390	-142.115973	-43.571170	46.198757	-43.571170	46.198757	-0.188626	-107.299895
6.100000	-0.242756	-143.138750	-43.413987	44.608811	-43.413987	44.608811	-0.191425	-108.083594
6.150000	-0.246162	-144.161176	-43.258933	43.020285	-43.258933	43.020285	-0.194262	-108.866097
6.200000	-0.249608	-145.183338	-43.105976	41.433139	-43.105976	41.433139	-0.197139	-109.647433
6.250000	-0.253094	-146.205324	-42.955083	39.847322	-42.955083	39.847322	-0.200055	-110.427629
6.300000	-0.256622	-147.227225	-42.806200	38.262826	-42.806200	38.262826	-0.203012	-111.206671
6.350000	-0.260190	-148.249139	-42.659325	36.679521	-42.659325	36.679521	-0.206010	-111.984638
6.400000	-0.263799	-149.271160	-42.514428	35.097320	-42.514428	35.097320	-0.209048	-112.761561
6.450000	-0.267448	-150.293383	-42.371482	33.516118	-42.371482	33.516118	-0.212128	-113.537472
6.500000	-0.271137	-151.315906	-42.230462	31.935792	-42.230462	31.935792	-0.215249	-114.312403
6.550000	-0.274867	-152.338830	-42.091344	30.356194	-42.091344	30.356194	-0.218413	-115.086386
6.600000	-0.278638	-153.362259	-41.954105	28.777143	-41.954105	28.777143	-0.221618	-115.859455
6.650000	-0.282450	-154.386301	-41.818725	27.198426	-41.818725	27.198426	-0.224867	-116.631642
6.700000	-0.286304	-155.411102	-41.685180	25.619767	-41.685180	25.619767	-0.228161	-117.402951
6.750000	-0.290197	-156.436719	-41.553471	24.040845	-41.553471	24.040845	-0.231496	-118.173484
6.800000	-0.294130	-157.463283	-41.423581	22.461293	-41.423581	22.461293	-0.234875	-118.943256
6.850000	-0.298105	-158.490918	-41.295500	20.880663	-41.295500	20.880663	-0.238297	-119.712300
6.900000	-0.302120	-159.519761	-41.169221	19.298401	-41.169221	19.298401	-0.241764	-120.480649
6.950000	-0.306184	-160.550189	-41.044760	17.713308	-41.044760	17.713308	-0.245281	-121.248249
7.000000	-0.310293	-161.582291	-40.922154	16.124378	-40.922154	16.124378	-0.248846	-122.015210
7.050000	-0.314448	-162.616222	-40.801444	14.530345	-40.801444	14.530345	-0.252457	-122.781595
7.100000	-0.318654	-163.652242	-40.682701	12.929379	-40.682701	12.929379	-0.256114	-123.547439
7.150000	-0.322917	-164.690674	-40.566040	11.319007	-40.566040	11.319007	-0.259820	-124.312779
7.200000	-0.327247	-165.731930	-40.451647	9.695831	-40.451647	9.695831	-0.263574	-125.077651
7.250000	-0.331664	-166.776553	-40.339818	8.055137	-40.339818	8.055137	-0.267378	-125.842091
7.300000	-0.336210	-167.825706	-40.231248	6.387325	-40.231248	6.387325	-0.271238	-126.606109
7.350000	-0.340987	-168.881242	-40.127473	4.675333	-40.127473	4.675333	-0.275160	-127.369739
7.400000	-0.346104	-169.943895	-40.029939	2.908651	-40.029939	2.908651	-0.279138	-128.133087
7.450000	-0.351981	-171.018536	-39.944303	1.043226	-39.944303	1.043226	-0.283190	-128.896108
7.500000	-0.359806	-172.113133	-39.885417	-0.995815	-39.885417	-0.995815	-0.287340	-129.658760
7.550000	-0.373538	-173.239510	-39.899883	-3.306572	-39.899883	-3.306572	-0.291625	-130.420740
7.600000	-0.405138	-174.385747	-40.123394	-5.665566	-40.123394	-5.665566	-0.296053	-131.180847
7.650000	-0.468571	-175.221517	-40.661139	-3.907362	-40.661139	-3.907362	-0.299892	-131.936834
7.700000	-0.444367	-175.837860	-40.041113	-0.737579	-40.041113	-0.737579	-0.303073	-132.700876
7.750000	-0.412823	-176.883299	-39.529186	-2.823977	-39.529186	-2.823977	-0.307224	-133.466622
7.800000	-0.403003	-177.992335	-39.290812	-5.144157	-39.290812	-5.144157	-0.311615	-134.230547
7.850000	-0.401042	-179.093195	-39.134467	-7.195800	-39.134467	-7.195800	-0.316056	-134.993803
7.900000	-0.402396	179.814993	-39.009955	-9.056987	-39.009955	-9.056987	-0.320534	-135.756872
7.950000	-0.405105	178.727594	-38.898235	-10.816427	-38.898235	-10.816427	-0.325049	-136.519984
8.000000	-0.408636	177.642404	-38.794292	-12.504208	-38.794292	-12.504208	-0.329607	-137.283254
8.050000	-0.412650	176.557620	-38.695134	-14.144424	-38.695134	-14.144424	-0.334210	-138.046776
8.100000	-0.417015	175.471788	-38.599608	-15.746696	-38.599608	-15.746696	-0.338871	-138.810694
8.150000	-0.421544	174.384528	-38.506281	-17.330319	-38.506281	-17.330319	-0.343573	-139.574953
8.200000	-0.426220	173.295590	-38.414987	-18.896940	-38.414987	-18.896940	-0.348319	-140.339588
8.250000	-0.431053	172.203573	-38.325781	-20.445016	-38.325781	-20.445016	-0.353127	-141.104857
8.300000	-0.435980	171.108608	-38.238224	-21.981738	-38.238224	-21.981738	-0.357989	-141.870731
8.350000	-0.440979	170.010996	-38.152122	-23.509945	-38.152122	-23.509945	-0.362896	-142.637159
8.400000	-0.446049	168.910354	-38.067457	-25.029854	-38.067457	-25.029854	-0.367854	-143.404229
8.450000	-0.451199	167.805075	-37.984384	-26.540054	-37.984384	-26.540054	-0.372882	-144.172330
8.500000	-0.456394	166.696632	-37.902581	-28.044794	-37.902581	-28.044794	-0.377958	-144.941175
8.550000	-0.461629	165.584974	-37.822017	-29.544328	-37.822017	-29.544328	-0.383081	-145.710793
8.600000	-0.466904	164.468807	-37.742834	-31.037390	-37.742834	-31.037390	-0.388269	-146.481552
8.650000	-0.472173	163.348383	-37.664961	-32.524976	-37.664961	-32.524976	-0.393519	-147.253491
8.700000	-0.477301	162.224445	-37.588248	-34.008462	-37.588248	-34.008462	-0.398819	-148.026419
8.750000	-0.482212	161.096894	-37.512673	-35.487961	-37.512673	-35.487961	-0.404168	-148.800370
8.800000	-0.487696	159.952737	-37.438522	-36.961296	-37.438522	-36.961296	-0.409599	-149.576162
8.850000	-0.493657	158.811483	-37.365475	-38.431009	-37.365475	-38.431009	-0.415083	-150.353189
8.900000	-0.499796	157.670382	-37.293515	-39.897130	-37.293515	-39.897130	-0.420618	-151.131493
8.950000	-0.505494	156.523351	-37.222758	-41.358750	-37.222758	-41.358750	-0.426221	-151.911517
9.000000	-0.511177	155.369888	-37.153236	-42.815591	-37.153236	-42.815591	-0.431898	-152.693555
9.050000	-0.516874	154.211803	-37.084757	-44.268914	-37.084757	-44.268914	-0.437630	-153.477172
9.100000	-0.522593	153.049130	-37.017306	-45.718708	-37.017306	-45.718708	-0.443419	-154.262418
9.150000	-0.528350	151.879310	-36.951144	-47.162955	-36.951144	-47.162955	-0.449297	-155.050394
9.200000	-0.534137	150.704348	-36.886038	-48.603153	-36.886038	-48.603153	-0.455241	-155.840479
9.250000	-0.539951	149.524625	-36.821928	-50.039559	-36.821928	-50.039559	-0.461248	-156.632583
9.300000	-0.545795	148.339208	-36.758901	-51.471367	-36.758901	-51.471367	-0.467329	-157.427193
9.350000	-0.551674	147.146623	-36.697115	-52.897164	-36.697115	-52.897164	-0.473507	-158.225193
9.400000	-0.557578	145.949022	-36.636333	-54.318580	-36.636333	-54.318580	-0.479756	-159.025719
9.450000	-0.563507	144.746363	-36.576555	-55.735497	-36.576555	-55.735497	-0.486077	-159.828865
9.500000	-0.569468	143.536218	-36.518099	-57.145456	-36.518099	-57.145456	-0.492508	-160.636152
9.550000	-0.575454	142.319864	-36.460876	-58.549361	-36.460876	-58.549361	-0.499037	-161.447184
9.600000	-0.581463	141.098199	-36.404807	-59.948022	-36.404807	-59.948022	-0.505654	-162.261593
9.650000	-0.587494	139.870689	-36.350008	-61.340849	-36.350008	-61.340849	-0.512370	-163.079876
9.700000	-0.593554	138.634742	-36.297096	-62.725518	-36.297096	-62.725518	-0.519240	-163.904356
9.750000	-0.599634	137.393247	-36.245670	-64.105431	-36.245670	-64.105431	-0.526223	-164.733356
9.800000	-0.605733	136.146169	-36.195766	-65.480977	-36.195766	-65.480977	-0.533324	-165.567117
9.850000	-0.611855	134.891386	-36.147959	-66.851781	-36.147959	-66.851781	-0.540602	-166.408063
9.900000	-0.617997	133.629299	-36.102169	-68.220374	-36.102169	-68.220374	-0.548072	-167.256840
9.950000	-0.624156	132.361418	-36.057930	-69.588346	-36.057930	-69.588346	-0.555711	-168.112499
10.000000	-0.630331	131.087713	-36.015185	-70.956333	-36.015185	-70.956333	-0.563531	-168.975459
