! freq	dB(S11)	phase(S11)	dB(S12)	phase(S12)	
!     	dB(S21)	phase(S21)	dB(S22)	phase(S22)	
!S-par simulation data
#  GHz  S  DB  R 50
0.000000	-82.089337	0.000000	-0.000688	0.000000	-0.000688	0.000000	-82.089333	0.000000
0.050000	-68.743428	-76.792462	-0.004756	-2.560902	-0.004756	-2.560902	-67.840960	-77.346993
0.100000	-62.553408	-83.914440	-0.011080	-5.082778	-0.011080	-5.082778	-61.831097	-81.991836
0.150000	-58.726711	-88.474694	-0.015513	-7.586095	-0.015513	-7.586095	-58.189068	-83.526185
0.200000	-56.009753	-93.095951	-0.018557	-10.085951	-0.018557	-10.085951	-55.579155	-84.742509
0.250000	-53.974544	-97.956581	-0.020873	-12.586169	-0.020873	-12.586169	-53.579239	-86.090284
0.300000	-52.420697	-102.984351	-0.022877	-15.087433	-0.022877	-15.087433	-52.011684	-87.620791
0.350000	-51.212017	-108.112101	-0.024807	-17.589459	-0.024807	-17.589459	-50.767954	-89.245152
0.400000	-50.277099	-113.346401	-0.026752	-20.092033	-0.026752	-20.092033	-49.789680	-90.883111
0.450000	-49.566279	-118.722534	-0.028762	-22.594928	-0.028762	-22.594928	-49.036575	-92.445988
0.500000	-49.060330	-124.329888	-0.030869	-25.097977	-0.030869	-25.097977	-48.496099	-93.824771
0.550000	-48.726976	-130.257678	-0.033074	-27.601047	-0.033074	-27.601047	-48.141137	-94.928995
0.600000	-48.547019	-136.626648	-0.035375	-30.104070	-0.035375	-30.104070	-47.957530	-95.655280
0.650000	-48.507845	-143.603459	-0.037766	-32.607016	-0.037766	-32.607016	-47.940379	-95.865005
0.700000	-48.595546	-151.408322	-0.040239	-35.109880	-0.040239	-35.109880	-48.088469	-95.367656
0.750000	-48.788603	-160.326809	-0.042786	-37.612679	-0.042786	-37.612679	-48.401247	-93.890476
0.800000	-49.047156	-170.753248	-0.045400	-40.115450	-0.045400	-40.115450	-48.874642	-90.987103
0.850000	-49.282441	176.796457	-0.048074	-42.618254	-0.048074	-42.618254	-49.476009	-85.856938
0.900000	-49.358530	162.343606	-0.050794	-45.121159	-0.050794	-45.121159	-50.090180	-77.879422
0.950000	-49.117269	146.298487	-0.053554	-47.624244	-0.053554	-47.624244	-50.498988	-66.538216
1.000000	-48.448057	129.729651	-0.056348	-50.127593	-0.056348	-50.127593	-50.384428	-52.423923
1.050000	-47.364768	113.982072	-0.059171	-52.631296	-0.059171	-52.631296	-49.534417	-37.777561
1.100000	-45.992791	100.021025	-0.062021	-55.135450	-0.062021	-55.135450	-48.062533	-25.248054
1.150000	-44.461479	88.281083	-0.064897	-57.640199	-0.064897	-57.640199	-46.250112	-16.294602
1.200000	-42.905266	78.458717	-0.067800	-60.145641	-0.067800	-60.145641	-44.389638	-10.438721
1.250000	-41.398521	70.101385	-0.070729	-62.651849	-0.070729	-62.651849	-42.617899	-6.766909
1.300000	-39.966801	62.875275	-0.073689	-65.158920	-0.073689	-65.158920	-40.969992	-4.636303
1.350000	-38.617895	56.513005	-0.076684	-67.666946	-0.076684	-67.666946	-39.448443	-3.587423
1.400000	-37.350945	50.812079	-0.079719	-70.176017	-0.079719	-70.176017	-38.044007	-3.307291
1.450000	-36.160824	45.624540	-0.082803	-72.686222	-0.082803	-72.686222	-36.743804	-3.586351
1.500000	-35.034450	40.870794	-0.085949	-75.197774	-0.085949	-75.197774	-35.528135	-4.310149
1.550000	-33.975415	36.420783	-0.089164	-77.710614	-0.089164	-77.710614	-34.396569	-5.329191
1.600000	-32.977347	32.216254	-0.092455	-80.224802	-0.092455	-80.224802	-33.339011	-6.576979
1.650000	-32.034564	28.212441	-0.095836	-82.740388	-0.095836	-82.740388	-32.346992	-8.004696
1.700000	-31.143732	24.368687	-0.099312	-85.257357	-0.099312	-85.257357	-31.415121	-9.570974
1.750000	-30.295670	20.674225	-0.102908	-87.775911	-0.102908	-87.775911	-30.532475	-11.262178
1.800000	-29.489438	17.096790	-0.106630	-90.295990	-0.106630	-90.295990	-29.696967	-13.047997
1.850000	-28.721781	13.618494	-0.110493	-92.817607	-0.110493	-92.817607	-28.904376	-14.911609
1.900000	-27.989549	10.225652	-0.114509	-95.340783	-0.114509	-95.340783	-28.150780	-16.840401
1.950000	-27.290299	6.906109	-0.118693	-97.865509	-0.118693	-97.865509	-27.433127	-18.823623
2.000000	-26.622076	3.649306	-0.123054	-100.391751	-0.123054	-100.391751	-26.748971	-20.852290
2.050000	-25.982863	0.447204	-0.127604	-102.919482	-0.127604	-102.919482	-26.095890	-22.919678
2.100000	-25.370862	-2.706952	-0.132354	-105.448663	-0.132354	-105.448663	-25.471758	-25.020281
2.150000	-24.784465	-5.818880	-0.137314	-107.979247	-0.137314	-107.979247	-24.874693	-27.149550
2.200000	-24.222231	-8.893453	-0.142493	-110.511180	-0.142493	-110.511180	-24.303030	-29.303697
2.250000	-23.682862	-11.934850	-0.147899	-113.044399	-0.147899	-113.044399	-23.755282	-31.479543
2.300000	-23.165189	-14.946673	-0.153539	-115.578831	-0.153539	-115.578831	-23.230122	-33.674401
2.350000	-22.668153	-17.932045	-0.159418	-118.114399	-0.159418	-118.114399	-22.726359	-35.885978
2.400000	-22.190793	-20.893684	-0.165542	-120.651021	-0.165542	-120.651021	-22.242920	-38.112307
2.450000	-21.732234	-23.833970	-0.171911	-123.188606	-0.171911	-123.188606	-21.778837	-40.351684
2.500000	-21.291681	-26.754990	-0.178529	-125.727062	-0.178529	-125.727062	-21.333234	-42.602623
2.550000	-20.868337	-29.658247	-0.185399	-128.266307	-0.185399	-128.266307	-20.905243	-44.864015
2.600000	-20.461643	-32.545777	-0.192514	-130.806222	-0.192514	-130.806222	-20.494253	-47.134459
2.650000	-20.070983	-35.419015	-0.199870	-133.346707	-0.199870	-133.346707	-20.099597	-49.412927
2.700000	-19.695791	-38.279245	-0.207461	-135.887660	-0.207461	-135.887660	-19.720666	-51.698493
2.750000	-19.335543	-41.127613	-0.215281	-138.428981	-0.215281	-138.428981	-19.356904	-53.990316
2.800000	-18.989758	-43.965151	-0.223321	-140.970571	-0.223321	-140.970571	-19.007797	-56.287626
2.850000	-18.657988	-46.792790	-0.231569	-143.512332	-0.231569	-143.512332	-18.672874	-58.589714
2.900000	-18.339820	-49.611372	-0.240013	-146.054171	-0.240013	-146.054171	-18.351701	-60.895921
2.950000	-18.034871	-52.421667	-0.248639	-148.595998	-0.248639	-148.595998	-18.043875	-63.205635
3.000000	-17.742786	-55.224378	-0.257432	-151.137730	-0.257432	-151.137730	-17.749026	-65.518281
3.050000	-17.463232	-58.020155	-0.266375	-153.679289	-0.266375	-153.679289	-17.466808	-67.833315
3.100000	-17.195901	-60.809601	-0.275448	-156.220604	-0.275448	-156.220604	-17.196902	-70.150227
3.150000	-16.940557	-63.593223	-0.284633	-158.761609	-0.284633	-158.761609	-16.939060	-72.468540
3.200000	-16.696944	-66.371571	-0.293908	-161.302247	-0.293908	-161.302247	-16.693020	-74.787777
3.250000	-16.464766	-69.145212	-0.303249	-163.842478	-0.303249	-163.842478	-16.458478	-77.107487
3.300000	-16.243791	-71.914632	-0.312633	-166.382267	-0.312633	-166.382267	-16.235195	-79.427249
3.350000	-16.033800	-74.680302	-0.322034	-168.921593	-0.322034	-168.921593	-16.022945	-81.746668
3.400000	-15.834589	-77.442687	-0.331429	-171.460442	-0.331429	-171.460442	-15.821520	-84.065361
3.450000	-15.645970	-80.202242	-0.340790	-173.998815	-0.340790	-173.998815	-15.630726	-86.382967
3.500000	-15.467769	-82.959426	-0.350091	-176.536724	-0.350091	-176.536724	-15.450382	-88.699140
3.550000	-15.299823	-85.714697	-0.359306	-179.074194	-0.359306	-179.074194	-15.280322	-91.013550
3.600000	-15.141983	-88.468523	-0.368408	178.388737	-0.368408	178.388737	-15.120390	-93.325881
3.650000	-14.994113	-91.221380	-0.377368	175.852020	-0.377368	175.852020	-14.970445	-95.635835
3.700000	-14.856089	-93.973756	-0.386161	173.315589	-0.386161	173.315589	-14.830357	-97.943125
3.750000	-14.727797	-96.726156	-0.394759	170.779369	-0.394759	170.779369	-14.700007	-100.247478
3.800000	-14.609311	-99.479125	-0.403130	168.243268	-0.403130	168.243268	-14.579462	-102.548556
3.850000	-14.500376	-102.233209	-0.411252	165.707178	-0.411252	165.707178	-14.468460	-104.846174
3.900000	-14.400912	-104.988974	-0.419101	163.170982	-0.419101	163.170982	-14.366915	-107.140088
3.950000	-14.310852	-107.747012	-0.426653	160.634550	-0.426653	160.634550	-14.274755	-109.430064
4.000000	-14.230142	-110.507943	-0.433884	158.097740	-0.433884	158.097740	-14.191917	-111.715872
4.050000	-14.158738	-113.272415	-0.440772	155.560399	-0.440772	155.560399	-14.118352	-113.997283
4.100000	-14.096610	-116.041108	-0.447296	153.022361	-0.447296	153.022361	-14.054020	-116.274070
4.150000	-14.043738	-118.814734	-0.453438	150.483451	-0.453438	150.483451	-13.998896	-118.546001
4.200000	-14.000117	-121.594042	-0.459179	147.943483	-0.459179	147.943483	-13.952966	-120.812838
4.250000	-13.965753	-124.379817	-0.464505	145.402262	-0.464505	145.402262	-13.916228	-123.074333
4.300000	-13.940665	-127.172883	-0.469400	142.859585	-0.469400	142.859585	-13.888694	-125.330224
4.350000	-13.924885	-129.974107	-0.473853	140.315241	-0.473853	140.315241	-13.870389	-127.580229
4.400000	-13.918561	-132.784511	-0.477849	137.768989	-0.477849	137.768989	-13.861452	-129.823971
4.450000	-13.921757	-135.605088	-0.481379	135.220597	-0.481379	135.220597	-13.861940	-132.061102
4.500000	-13.934444	-138.436753	-0.484445	132.669858	-0.484445	132.669858	-13.871816	-134.291315
4.550000	-13.956711	-141.280577	-0.487041	130.116539	-0.487041	130.116539	-13.891163	-136.514195
4.600000	-13.988661	-144.137690	-0.489169	127.560406	-0.489169	127.560406	-13.920077	-138.729274
4.650000	-14.030413	-147.009285	-0.490829	125.001223	-0.490829	125.001223	-13.958671	-140.936027
4.700000	-14.082102	-149.896628	-0.492025	122.438756	-0.492025	122.438756	-14.007072	-143.133861
4.750000	-14.143879	-152.801064	-0.492765	119.872768	-0.492765	119.872768	-14.065426	-145.322107
4.800000	-14.215912	-155.724022	-0.493057	117.303029	-0.493057	117.303029	-14.133894	-147.500007
4.850000	-14.298388	-158.667026	-0.492914	114.729311	-0.492914	114.729311	-14.212658	-149.666705
4.900000	-14.391509	-161.631706	-0.492348	112.151389	-0.492348	112.151389	-14.301915	-151.821232
4.950000	-14.495498	-164.619812	-0.491377	109.569047	-0.491377	109.569047	-14.401883	-153.962489
5.000000	-14.610595	-167.633226	-0.490019	106.982077	-0.490019	106.982077	-14.512798	-156.089237
5.050000	-14.737236	-170.674519	-0.488289	104.390186	-0.488289	104.390186	-14.635090	-158.199753
5.100000	-14.875524	-173.745445	-0.486217	101.793268	-0.486217	101.793268	-14.768860	-160.292701
5.150000	-15.025759	-176.848409	-0.483829	99.191145	-0.483829	99.191145	-14.914405	-162.366277
5.200000	-15.188261	-179.986039	-0.481151	96.583650	-0.481151	96.583650	-15.072044	-164.418442
5.250000	-15.363371	176.838781	-0.478212	93.970632	-0.478212	93.970632	-15.242117	-166.446892
5.300000	-15.551846	173.620976	-0.475034	91.351701	-0.475034	91.351701	-15.425383	-168.447764
5.350000	-15.752973	170.362285	-0.471673	88.727429	-0.471673	88.727429	-15.621124	-170.421565
5.400000	-15.968576	167.051494	-0.468133	86.096782	-0.468133	86.096782	-15.831180	-172.360063
5.450000	-16.197577	163.693040	-0.464473	83.460702	-0.464473	83.460702	-16.054460	-174.265506
5.500000	-16.442012	160.271345	-0.460707	80.817953	-0.460707	80.817953	-16.293039	-176.126062
5.550000	-16.700943	156.791290	-0.456884	78.169535	-0.456884	78.169535	-16.545964	-177.944269
5.600000	-16.975702	153.239145	-0.453033	75.514704	-0.453033	75.514704	-16.814614	-179.709039
5.650000	-17.266348	149.612135	-0.449191	72.853798	-0.449191	72.853798	-17.099064	178.582796
5.700000	-17.573230	145.904252	-0.445392	70.186935	-0.445392	70.186935	-17.399694	176.936934
5.750000	-17.897199	142.100793	-0.441672	67.513716	-0.441672	67.513716	-17.717439	175.366001
5.800000	-18.238443	138.194377	-0.438064	64.834383	-0.438064	64.834383	-18.052551	173.877187
5.850000	-18.597314	134.172784	-0.434602	62.148961	-0.434602	62.148961	-18.405491	172.481680
5.900000	-18.974038	130.021853	-0.431318	59.457490	-0.431318	59.457490	-18.776631	171.192498
5.950000	-19.368678	125.727492	-0.428241	56.760112	-0.428241	56.760112	-19.166213	170.022848
6.000000	-19.781127	121.272389	-0.425398	54.056924	-0.425398	54.056924	-19.574376	168.988880
6.050000	-20.210995	116.636891	-0.422816	51.348038	-0.422816	51.348038	-20.001051	168.109067
6.100000	-20.657499	111.798826	-0.420517	48.633575	-0.420517	48.633575	-20.445873	167.404461
6.150000	-21.119325	106.733421	-0.418524	45.913666	-0.418524	45.913666	-20.908066	166.898926
6.200000	-21.594448	101.413402	-0.416854	43.188451	-0.416854	43.188451	-21.386285	166.619254
6.250000	-22.079912	95.809412	-0.415525	40.458075	-0.415525	40.458075	-21.878421	166.595105
6.300000	-22.569708	89.867483	-0.414574	37.722361	-0.414574	37.722361	-22.379770	166.880456
6.350000	-23.062327	83.611698	-0.413953	34.982241	-0.413953	34.982241	-22.889356	167.458721
6.400000	-23.545739	76.960871	-0.413728	32.237125	-0.413728	32.237125	-23.397083	168.414515
6.450000	-24.014237	69.932314	-0.413866	29.487614	-0.413866	29.487614	-23.897999	169.741922
6.500000	-24.454993	62.504358	-0.414384	26.733681	-0.414384	26.733681	-24.380380	171.477237
6.550000	-24.857182	54.697001	-0.415272	23.975564	-0.415272	23.975564	-24.833599	173.617745
6.600000	-25.204548	46.530016	-0.416543	21.213219	-0.416543	21.213219	-25.240806	176.167712
6.650000	-25.486167	38.076293	-0.418181	18.446874	-0.418181	18.446874	-25.588792	179.075270
6.700000	-25.689378	29.423923	-0.420189	15.676517	-0.420189	15.676517	-25.861092	-177.727505
6.750000	-25.813800	20.692829	-0.422535	12.902486	-0.422535	12.902486	-26.052784	-174.359412
6.800000	-25.856673	11.996247	-0.425216	10.124752	-0.425216	10.124752	-26.156074	-170.936820
6.850000	-25.823022	3.447140	-0.428216	7.343385	-0.428216	7.343385	-26.171711	-167.590876
6.900000	-25.721722	-4.856524	-0.431523	4.558398	-0.431523	4.558398	-26.105637	-164.446141
6.950000	-25.565517	-12.845161	-0.435119	1.769826	-0.435119	1.769826	-25.969631	-161.602531
7.000000	-25.368574	-20.483231	-0.438980	-1.022280	-0.438980	-1.022280	-25.778655	-159.122400
7.050000	-25.143878	-27.757524	-0.443088	-3.817927	-0.443088	-3.817927	-25.547352	-157.039228
7.100000	-24.903027	-34.674273	-0.447421	-6.617142	-0.447421	-6.617142	-25.289429	-155.360302
7.150000	-24.655788	-41.253139	-0.451961	-9.419972	-0.451961	-9.419972	-25.016778	-154.073583
7.200000	-24.410019	-47.521917	-0.456685	-12.226488	-0.456685	-12.226488	-24.739141	-153.154528
7.250000	-24.171809	-53.512447	-0.461575	-15.036777	-0.461575	-15.036777	-24.464144	-152.571728
7.300000	-23.945732	-59.257782	-0.466612	-17.850951	-0.466612	-17.850951	-24.197536	-152.291023
7.350000	-23.735113	-64.790392	-0.471775	-20.669138	-0.471775	-20.669138	-23.943505	-152.278214
7.400000	-23.542292	-70.141166	-0.477049	-23.491486	-0.477049	-23.491486	-23.704995	-152.500662
7.450000	-23.368842	-75.338942	-0.482417	-26.318165	-0.482417	-26.318165	-23.483982	-152.928106
7.500000	-23.215742	-80.410392	-0.487864	-29.149358	-0.487864	-29.149358	-23.281711	-153.532975
7.550000	-23.083939	-85.378436	-0.493379	-31.985374	-0.493379	-31.985374	-23.099231	-154.293180
7.600000	-22.973202	-90.268446	-0.498950	-34.826334	-0.498950	-34.826334	-22.936497	-155.182648
7.650000	-22.883393	-95.101463	-0.504568	-37.672470	-0.504568	-37.672470	-22.793450	-156.181400
7.700000	-22.814144	-99.897223	-0.510226	-40.524027	-0.510226	-40.524027	-22.669798	-157.271397
7.750000	-22.764875	-104.674415	-0.515921	-43.381261	-0.515921	-43.381261	-22.565056	-158.436267
7.800000	-22.734808	-109.450922	-0.521649	-46.244440	-0.521649	-46.244440	-22.478584	-159.661050
7.850000	-22.722958	-114.244002	-0.527413	-49.113841	-0.527413	-49.113841	-22.409595	-160.931977
7.900000	-22.728117	-119.070445	-0.533214	-51.989749	-0.533214	-51.989749	-22.357164	-162.236291
7.950000	-22.748825	-123.946638	-0.539057	-54.872454	-0.539057	-54.872454	-22.320227	-163.562113
8.000000	-22.783329	-128.888577	-0.544951	-57.762255	-0.544951	-57.762255	-22.297566	-164.898345
8.050000	-22.829544	-133.911763	-0.550905	-60.659454	-0.550905	-60.659454	-22.287799	-166.234630
8.100000	-22.884997	-139.030985	-0.556931	-63.564358	-0.556931	-63.564358	-22.289360	-167.561364
8.150000	-22.946807	-144.261291	-0.563044	-66.477367	-0.563044	-66.477367	-22.300563	-168.869474
8.200000	-23.011454	-149.615115	-0.569262	-69.398807	-0.569262	-69.398807	-22.319342	-170.150897
8.250000	-23.074946	-155.100819	-0.575601	-72.328905	-0.575601	-72.328905	-22.343349	-171.399235
8.300000	-23.132855	-160.724629	-0.582082	-75.267982	-0.582082	-75.267982	-22.370096	-172.609309
8.350000	-23.180293	-166.488374	-0.588727	-78.216359	-0.588727	-78.216359	-22.396853	-173.777684
8.400000	-23.212019	-172.388367	-0.595559	-81.174360	-0.595559	-81.174360	-22.420659	-174.903020
8.450000	-23.222610	-178.414370	-0.602604	-84.142315	-0.602604	-84.142315	-22.438358	-175.986450
8.500000	-23.206710	175.451173	-0.609888	-87.120556	-0.609888	-87.120556	-22.446654	-177.031943
8.550000	-23.159335	169.233391	-0.617439	-90.109422	-0.617439	-90.109422	-22.442182	-178.046591
8.600000	-23.076210	162.964569	-0.625288	-93.109258	-0.625288	-93.109258	-22.421611	-179.040797
8.650000	-22.954100	156.682904	-0.633466	-96.120414	-0.633466	-96.120414	-22.381752	179.971724
8.700000	-22.791067	150.430504	-0.642005	-99.143254	-0.642005	-99.143254	-22.319685	178.974148
8.750000	-22.586611	144.250816	-0.650940	-102.178149	-0.650940	-102.178149	-22.232880	177.947000
8.800000	-22.340661	138.189226	-0.660317	-105.225763	-0.660317	-105.225763	-22.118641	176.867214
8.850000	-22.056495	132.281761	-0.670168	-108.286234	-0.670168	-108.286234	-21.976084	175.712906
8.900000	-21.737414	126.559838	-0.680533	-111.359977	-0.680533	-111.359977	-21.804386	174.461636
8.950000	-21.387397	121.047568	-0.691457	-114.447427	-0.691457	-114.447427	-21.603333	173.092085
9.000000	-21.010761	115.761434	-0.702986	-117.549033	-0.702986	-117.549033	-21.373272	171.585023
9.050000	-20.611864	110.710643	-0.715173	-120.665270	-0.715173	-120.665270	-21.115034	169.924095
9.100000	-20.194861	105.897952	-0.728072	-123.796630	-0.728072	-123.796630	-20.829831	168.096374
9.150000	-19.763547	101.320752	-0.741744	-126.943630	-0.741744	-126.943630	-20.519151	166.092658
9.200000	-19.321378	96.971381	-0.756253	-130.106740	-0.756253	-130.106740	-20.184797	163.908240
9.250000	-18.871094	92.840551	-0.771673	-133.286563	-0.771673	-133.286563	-19.828409	161.540773
9.300000	-18.414681	88.918584	-0.788100	-136.483907	-0.788100	-136.483907	-19.451282	158.989440
9.350000	-17.953988	85.192071	-0.805627	-139.699446	-0.805627	-139.699446	-19.055037	156.258195
9.400000	-17.491310	81.641029	-0.824322	-142.933248	-0.824322	-142.933248	-18.642407	153.358990
9.450000	-17.027450	78.252943	-0.844304	-146.186125	-0.844304	-146.186125	-18.214582	150.298330
9.500000	-16.562325	75.018216	-0.865748	-149.459447	-0.865748	-149.459447	-17.771789	147.080633
9.550000	-16.097697	71.915301	-0.888725	-152.752928	-0.888725	-152.752928	-17.317144	143.723629
9.600000	-15.633929	68.930503	-0.913377	-156.067176	-0.913377	-156.067176	-16.852036	140.237856
9.650000	-15.170035	66.055262	-0.939964	-159.403933	-0.939964	-159.403933	-16.376042	136.628238
9.700000	-14.707257	63.271063	-0.968587	-162.762821	-0.968587	-162.762821	-15.892141	132.911076
9.750000	-14.245806	60.564660	-0.999426	-166.144245	-0.999426	-166.144245	-15.401892	129.096899
9.800000	-13.784911	57.925684	-1.032778	-169.549526	-1.032778	-169.549526	-14.905522	125.192081
9.850000	-13.324911	55.340573	-1.068857	-172.978838	-1.068857	-172.978838	-14.404901	121.206687
9.900000	-12.866492	52.796113	-1.107840	-176.431885	-1.107840	-176.431885	-13.902341	117.150574
9.950000	-12.409072	50.281817	-1.150086	-179.909653	-1.150086	-179.909653	-13.398400	113.028610
10.000000	-11.953042	47.785837	-1.195859	176.587951	-1.195859	176.587951	-12.894921	108.847729
