! freq	dB(S11)	phase(S11)	dB(S12)	phase(S12)	
!     	dB(S21)	phase(S21)	dB(S22)	phase(S22)	
!S-par simulation data
#  GHz  S  DB  R 50
0.000000	-80.675792	0.000000	-0.000804	0.000000	-0.000804	0.000000	-80.675792	0.000000
0.050000	-55.682602	-75.416595	-0.004292	-2.861739	-0.004292	-2.861739	-56.022073	-74.208368
0.100000	-49.499596	-89.257874	-0.010649	-5.732187	-0.010649	-5.732187	-49.413954	-83.340330
0.150000	-45.973883	-96.964305	-0.017116	-8.594202	-0.017116	-8.594202	-45.789613	-87.954889
0.200000	-43.508965	-103.058480	-0.023042	-11.443420	-0.023042	-11.443420	-43.295193	-91.039851
0.250000	-41.620777	-108.584592	-0.028291	-14.284144	-0.028291	-14.284144	-41.399455	-93.513820
0.300000	-40.101273	-113.813670	-0.032813	-17.119199	-0.032813	-17.119199	-39.883150	-95.616902
0.350000	-38.838892	-118.893190	-0.036703	-19.951225	-0.036703	-19.951225	-38.630286	-97.478982
0.400000	-37.767531	-123.900881	-0.040092	-22.781953	-0.040092	-22.781953	-37.572936	-99.160777
0.450000	-36.847084	-128.885219	-0.043094	-25.612495	-0.043094	-25.612495	-36.670641	-100.681873
0.500000	-36.044377	-133.881016	-0.045862	-28.443492	-0.045862	-28.443492	-35.888944	-102.072201
0.550000	-35.338091	-138.909976	-0.048477	-31.275261	-0.048477	-31.275261	-35.206217	-103.336493
0.600000	-34.712181	-143.989653	-0.051004	-34.107987	-0.051004	-34.107987	-34.606203	-104.474784
0.650000	-34.154115	-149.134996	-0.053488	-36.941784	-0.053488	-36.941784	-34.076204	-105.484101
0.700000	-33.653757	-154.359195	-0.055966	-39.776723	-0.055966	-39.776723	-33.605944	-106.359521
0.750000	-33.203885	-159.680369	-0.058468	-42.612931	-0.058468	-42.612931	-33.188360	-107.085874
0.800000	-32.796559	-165.110104	-0.061015	-45.450448	-0.061015	-45.450448	-32.815278	-107.656192
0.850000	-32.424266	-170.656033	-0.063622	-48.289283	-0.063622	-48.289283	-32.478846	-108.066678
0.900000	-32.079855	-176.317112	-0.066295	-51.129383	-0.066295	-51.129383	-32.171387	-108.322832
0.950000	-31.758443	177.893869	-0.069046	-53.970866	-0.069046	-53.970866	-31.887998	-108.410335
1.000000	-31.454337	171.973182	-0.071882	-56.813781	-0.071882	-56.813781	-31.622625	-108.326010
1.050000	-31.162215	165.925669	-0.074801	-59.658113	-0.074801	-59.658113	-31.369422	-108.076771
1.100000	-30.876329	159.741401	-0.077819	-62.504073	-0.077819	-62.504073	-31.122332	-107.649286
1.150000	-30.591437	153.434764	-0.080932	-65.351643	-0.080932	-65.351643	-30.875359	-107.060917
1.200000	-30.302574	147.017552	-0.084143	-68.200890	-0.084143	-68.200890	-30.622859	-106.324909
1.250000	-30.005181	140.506339	-0.087457	-71.051885	-0.087457	-71.051885	-30.359558	-105.460155
1.300000	-29.694661	133.921325	-0.090877	-73.904745	-0.090877	-73.904745	-30.080119	-104.489622
1.350000	-29.368185	127.290082	-0.094406	-76.759507	-0.094406	-76.759507	-29.781076	-103.446136
1.400000	-29.023410	120.641125	-0.098047	-79.616249	-0.098047	-79.616249	-29.459573	-102.363654
1.450000	-28.658970	114.004652	-0.101805	-82.475046	-0.101805	-82.475046	-29.113907	-101.278497
1.500000	-28.274504	107.411043	-0.105685	-85.335973	-0.105685	-85.335973	-28.743580	-100.227461
1.550000	-27.870611	100.889346	-0.109694	-88.199102	-0.109694	-88.199102	-28.349268	-99.245874
1.600000	-27.448739	94.465927	-0.113837	-91.064501	-0.113837	-91.064501	-27.932680	-98.365848
1.650000	-27.011026	88.163440	-0.118122	-93.932233	-0.118122	-93.932233	-27.496366	-97.614926
1.700000	-26.560105	82.000174	-0.122558	-96.802353	-0.122558	-96.802353	-27.043468	-97.015255
1.750000	-26.098913	75.989813	-0.127152	-99.674910	-0.127152	-99.674910	-26.577481	-96.583294
1.800000	-25.630508	70.141546	-0.131912	-102.549945	-0.131912	-102.549945	-26.102018	-96.329983
1.850000	-25.157920	64.460447	-0.136848	-105.427488	-0.136848	-105.427488	-25.620631	-96.261277
1.900000	-24.683770	58.949850	-0.141971	-108.307589	-0.141971	-108.307589	-25.136383	-96.380880
1.950000	-24.210809	53.608227	-0.147288	-111.190257	-0.147288	-111.190257	-24.652431	-96.686906
2.000000	-23.741719	48.429951	-0.152805	-114.075465	-0.152805	-114.075465	-24.171810	-97.172844
2.050000	-23.278595	43.409624	-0.158530	-116.963203	-0.158530	-116.963203	-23.696876	-97.832400
2.100000	-22.823238	38.540755	-0.164467	-119.853450	-0.164467	-119.853450	-23.229633	-98.658091
2.150000	-22.377168	33.816194	-0.170622	-122.746174	-0.170622	-122.746174	-22.771761	-99.641742
2.200000	-21.941652	29.228480	-0.176997	-125.641338	-0.176997	-125.641338	-22.324645	-100.774885
2.250000	-21.517728	24.770107	-0.183594	-128.538893	-0.183594	-128.538893	-21.889411	-102.049045
2.300000	-21.106234	20.433720	-0.190411	-131.438786	-0.190411	-131.438786	-21.466967	-103.455955
2.350000	-20.707833	16.212257	-0.197446	-134.340959	-0.197446	-134.340959	-21.058027	-104.987698
2.400000	-20.323045	12.099043	-0.204692	-137.245351	-0.204692	-137.245351	-20.663152	-106.636806
2.450000	-19.952266	8.087854	-0.212142	-140.151899	-0.212142	-140.151899	-20.282769	-108.396312
2.500000	-19.595787	4.172943	-0.219785	-143.060540	-0.219785	-143.060540	-19.917200	-110.259780
2.550000	-19.253860	0.350928	-0.227610	-145.971260	-0.227610	-145.971260	-19.566718	-112.223326
2.600000	-18.926637	-3.385006	-0.235597	-148.883960	-0.235597	-148.883960	-19.231506	-114.279370
2.650000	-18.614201	-7.039096	-0.243728	-151.798595	-0.243728	-151.798595	-18.911668	-116.423124
2.700000	-18.316586	-10.615112	-0.251979	-154.715131	-0.251979	-154.715131	-18.607262	-118.650312
2.750000	-18.033795	-14.116372	-0.260327	-157.633548	-0.260327	-157.633548	-18.318315	-120.957155
2.800000	-17.765806	-17.545763	-0.268744	-160.553839	-0.268744	-160.553839	-18.044824	-123.340351
2.850000	-17.512576	-20.905760	-0.277202	-163.476018	-0.277202	-163.476018	-17.786772	-125.797068
2.900000	-17.274048	-24.198446	-0.285669	-166.400117	-0.285669	-166.400117	-17.544126	-128.324921
2.950000	-17.050157	-27.425522	-0.294113	-169.326190	-0.294113	-169.326190	-17.316845	-130.921975
3.000000	-16.840830	-30.588325	-0.302499	-172.254316	-0.302499	-172.254316	-17.104880	-133.586728
3.050000	-16.645993	-33.687834	-0.310791	-175.184600	-0.310791	-175.184600	-16.908183	-136.318113
3.100000	-16.465570	-36.724677	-0.318955	-178.117174	-0.318955	-178.117174	-16.726706	-139.115499
3.150000	-16.299610	-39.698455	-0.326951	178.947771	-0.326951	178.947771	-16.560534	-141.979411
3.200000	-16.148055	-42.609084	-0.334742	176.010037	-0.334742	176.010037	-16.409640	-144.910131
3.250000	-16.010712	-45.456788	-0.342295	173.069428	-0.342295	173.069428	-16.273853	-147.907692
3.300000	-15.887509	-48.240749	-0.349576	170.125688	-0.349576	170.125688	-16.153135	-150.973323
3.350000	-15.778376	-50.959764	-0.356554	167.178531	-0.356554	167.178531	-16.047451	-154.108752
3.400000	-15.683239	-53.612227	-0.363196	164.227640	-0.363196	164.227640	-15.956766	-157.316235
3.450000	-15.602023	-56.196107	-0.369478	161.272667	-0.369478	161.272667	-15.881049	-160.598588
3.500000	-15.534644	-58.708914	-0.375374	158.313235	-0.375374	158.313235	-15.820263	-163.959222
3.550000	-15.481008	-61.147668	-0.380866	155.348938	-0.380866	155.348938	-15.774366	-167.402187
3.600000	-15.440998	-63.508858	-0.385936	152.379344	-0.385936	152.379344	-15.743300	-170.932218
3.650000	-15.414471	-65.788405	-0.390574	149.403994	-0.390574	149.403994	-15.726983	-174.554792
3.700000	-15.401244	-67.981613	-0.394776	146.422408	-0.394776	146.422408	-15.725302	-178.276184
3.750000	-15.401082	-70.083125	-0.398540	143.434086	-0.398540	143.434086	-15.738092	177.896473
3.800000	-15.413943	-72.084597	-0.401865	140.438338	-0.401865	140.438338	-15.765421	173.952434
3.850000	-15.439135	-73.981164	-0.404775	137.434778	-0.404775	137.434778	-15.806642	169.884886
3.900000	-15.476127	-75.765201	-0.407290	134.422863	-0.407290	134.422863	-15.861295	165.683680
3.950000	-15.524235	-77.428314	-0.409439	131.402044	-0.409439	131.402044	-15.928760	161.337597
4.000000	-15.582582	-78.961369	-0.411257	128.371770	-0.411257	128.371770	-16.008207	156.834351
4.050000	-15.650057	-80.354571	-0.412790	125.331494	-0.412790	125.331494	-16.098539	152.160639
4.100000	-15.725258	-81.597611	-0.414091	122.280678	-0.414091	122.280678	-16.198328	147.302279
4.150000	-15.806443	-82.679907	-0.415219	119.218794	-0.415219	119.218794	-16.305735	142.244446
4.200000	-15.891464	-83.590965	-0.416244	116.145335	-0.416244	116.145335	-16.418428	136.972078
4.250000	-15.977715	-84.320892	-0.417245	113.059821	-0.417245	113.059821	-16.533494	131.470481
4.300000	-16.062084	-84.861095	-0.418306	109.961799	-0.418306	109.961799	-16.647358	125.726195
4.350000	-16.140923	-85.205166	-0.419522	106.850856	-0.419522	106.850856	-16.755722	119.728166
4.400000	-16.209894	-85.347822	-0.421000	103.726471	-0.421000	103.726471	-16.853357	113.466378
4.450000	-16.264182	-85.290706	-0.422851	100.588315	-0.422851	100.588315	-16.934332	106.939566
4.500000	-16.298888	-85.043657	-0.425189	97.436270	-0.425189	97.436270	-16.992478	100.157332
4.550000	-16.308870	-84.621409	-0.428137	94.270139	-0.428137	94.270139	-17.021252	93.136003
4.600000	-16.289148	-84.046526	-0.431821	91.089791	-0.431821	91.089791	-17.014278	85.902729
4.650000	-16.235256	-83.349533	-0.436374	87.895168	-0.436374	87.895168	-16.965859	78.495783
4.700000	-16.144972	-82.569559	-0.441893	84.686756	-0.441893	84.686756	-16.873179	70.965794
4.750000	-16.013057	-81.745851	-0.448591	81.463654	-0.448591	81.463654	-16.730004	63.362157
4.800000	-15.840109	-80.928535	-0.456568	78.226597	-0.456568	78.226597	-16.537467	55.749803
4.850000	-15.626854	-80.164699	-0.465960	74.975869	-0.465960	74.975869	-16.297096	48.188157
4.900000	-15.375531	-79.498677	-0.476901	71.711844	-0.476901	71.711844	-16.012412	40.731704
4.950000	-15.089676	-78.969466	-0.489520	68.434988	-0.489520	68.434988	-15.688523	33.426569
5.000000	-14.773790	-78.608895	-0.503943	65.145856	-0.503943	65.145856	-15.331589	26.308464
5.050000	-14.432409	-78.444104	-0.520319	61.844915	-0.520319	61.844915	-14.947652	19.405775
5.100000	-14.071529	-78.487606	-0.538724	58.533101	-0.538724	58.533101	-14.544149	12.729314
5.150000	-13.696378	-78.747222	-0.559256	55.211227	-0.559256	55.211227	-14.127367	6.284107
5.200000	-13.311859	-79.224492	-0.581997	51.880177	-0.581997	51.880177	-13.702968	0.068261
5.250000	-12.922399	-79.915965	-0.607016	48.540902	-0.607016	48.540902	-13.275870	-5.925162
5.300000	-12.531876	-80.814473	-0.634366	45.194403	-0.634366	45.194403	-12.850219	-11.706460
5.350000	-12.143603	-81.910283	-0.664082	41.841726	-0.664082	41.841726	-12.429417	-17.287912
5.400000	-11.760342	-83.192070	-0.696184	38.483948	-0.696184	38.483948	-12.016195	-22.682709
5.450000	-11.384350	-84.647685	-0.730669	35.122162	-0.730669	35.122162	-11.612693	-27.904192
5.500000	-11.017436	-86.264741	-0.767517	31.757462	-0.767517	31.757462	-11.220547	-32.965324
5.550000	-10.661016	-88.031036	-0.806687	28.390931	-0.806687	28.390931	-10.840974	-37.878361
5.600000	-10.316171	-89.934848	-0.848117	25.023625	-0.848117	25.023625	-10.474846	-42.654668
5.650000	-9.983712	-91.966386	-0.891746	21.656567	-0.891746	21.656567	-10.122761	-47.303368
5.700000	-9.664254	-94.115071	-0.937469	18.290739	-0.937469	18.290739	-9.785129	-51.834146
5.750000	-9.358169	-96.370186	-0.985143	14.927010	-0.985143	14.927010	-9.462129	-56.256750
5.800000	-9.065667	-98.723261	-1.034628	11.566161	-1.034628	11.566161	-9.153791	-60.578663
5.850000	-8.786833	-101.166706	-1.085768	8.208870	-1.085768	8.208870	-8.860035	-64.806544
5.900000	-8.521653	-103.693785	-1.138393	4.855695	-1.138393	4.855695	-8.580692	-68.946313
5.950000	-8.270031	-106.298595	-1.192317	1.507070	-1.192317	1.507070	-8.315531	-73.003219
6.000000	-8.031812	-108.976035	-1.247342	-1.836714	-1.247342	-1.836714	-8.064268	-76.981924
6.050000	-7.806792	-111.721771	-1.303261	-5.175514	-1.303261	-5.175514	-7.826582	-80.886563
6.100000	-7.594731	-114.532208	-1.359857	-8.509341	-1.359857	-8.509341	-7.602128	-84.720809
6.150000	-7.395366	-117.404458	-1.416909	-11.838375	-1.416909	-11.838375	-7.390542	-88.487925
6.200000	-7.208413	-120.336315	-1.474189	-15.162962	-1.474189	-15.162962	-7.191448	-92.190815
6.250000	-7.033581	-123.326229	-1.531468	-18.483625	-1.531468	-18.483625	-7.004468	-95.832058
6.300000	-6.870762	-126.374526	-1.588498	-21.801017	-1.588498	-21.801017	-6.829397	-99.412703
6.350000	-6.719475	-129.479703	-1.645059	-25.116120	-1.645059	-25.116120	-6.665683	-102.936103
6.400000	-6.579424	-132.642128	-1.700927	-28.430017	-1.700927	-28.430017	-6.512955	-106.404031
6.450000	-6.450321	-135.862777	-1.755885	-31.743981	-1.755885	-31.743981	-6.370846	-109.818038
6.500000	-6.331889	-139.143230	-1.809723	-35.059470	-1.809723	-35.059470	-6.239001	-113.179459
6.550000	-6.223861	-142.485678	-1.862240	-38.378140	-1.862240	-38.378140	-6.117076	-116.489424
6.600000	-6.125982	-145.892925	-1.913248	-41.701835	-1.913248	-41.701835	-6.004737	-119.748855
6.650000	-6.038012	-149.368411	-1.962573	-45.032599	-1.962573	-45.032599	-5.901660	-122.958471
6.700000	-5.959561	-152.914807	-2.010096	-48.372449	-2.010096	-48.372449	-5.807392	-126.119661
6.750000	-5.891213	-156.544121	-2.055472	-51.725022	-2.055472	-51.725022	-5.722320	-129.228276
6.800000	-5.831481	-160.250150	-2.098914	-55.091014	-2.098914	-55.091014	-5.645038	-132.291461
6.850000	-5.781180	-164.049010	-2.140055	-58.475095	-2.140055	-58.475095	-5.576122	-135.303319
6.900000	-5.739609	-167.942390	-2.178967	-61.879259	-2.178967	-61.879259	-5.514843	-138.266251
6.950000	-5.706568	-171.938105	-2.215612	-65.306782	-2.215612	-65.306782	-5.460898	-141.179515
7.000000	-5.682329	-176.051197	-2.249845	-68.762665	-2.249845	-68.762665	-5.414369	-144.039112
7.050000	-5.665709	179.722462	-2.281978	-72.247209	-2.281978	-72.247209	-5.374145	-146.849757
7.100000	-5.657391	175.358175	-2.311810	-75.767925	-2.311810	-75.767925	-5.340620	-149.603669
7.150000	-5.656811	170.847284	-2.339542	-79.328301	-2.339542	-79.328301	-5.313174	-152.300263
7.200000	-5.663471	166.179054	-2.365391	-82.932220	-2.365391	-82.932220	-5.291246	-154.937973
7.250000	-5.676896	161.339778	-2.389604	-86.584288	-2.389604	-86.584288	-5.274294	-157.514126
7.300000	-5.696486	156.314747	-2.412494	-90.289303	-2.412494	-90.289303	-5.261681	-160.025768
7.350000	-5.721485	151.088332	-2.434460	-94.052240	-2.434460	-94.052240	-5.252660	-162.469726
7.400000	-5.750941	145.644132	-2.455984	-97.878217	-2.455984	-97.878217	-5.246346	-164.842711
7.450000	-5.783653	139.965229	-2.477653	-101.772452	-2.477653	-101.772452	-5.241693	-167.141465
7.500000	-5.818128	134.034563	-2.500163	-105.740207	-2.500163	-105.740207	-5.237467	-169.362972
7.550000	-5.852491	127.831348	-2.524371	-109.787930	-2.524371	-109.787930	-5.232191	-171.503555
7.600000	-5.884470	121.343805	-2.551225	-113.919642	-2.551225	-113.919642	-5.224186	-173.562782
7.650000	-5.911399	114.558712	-2.581830	-118.140167	-2.581830	-118.140167	-5.211558	-175.540467
7.700000	-5.930194	107.466277	-2.617444	-122.453910	-2.617444	-122.453910	-5.192206	-177.438320
7.750000	-5.937391	100.061577	-2.659485	-126.864682	-2.659485	-126.864682	-5.163864	-179.260520
7.800000	-5.929258	92.346119	-2.709527	-131.375485	-2.709527	-131.375485	-5.124177	178.985716
7.850000	-5.901968	84.329369	-2.769303	-135.988283	-2.769303	-135.988283	-5.070808	177.289644
7.900000	-5.851857	76.030012	-2.840683	-140.703750	-2.840683	-140.703750	-5.001589	175.636695
7.950000	-5.775460	67.474605	-2.925799	-145.521968	-2.925799	-145.521968	-4.914501	174.008485
8.000000	-5.670536	58.703873	-3.026696	-150.439663	-3.026696	-150.439663	-4.808320	172.382538
8.050000	-5.536108	49.766605	-3.145417	-155.451562	-3.145417	-155.451562	-4.682582	170.734233
8.100000	-5.372505	40.716842	-3.284043	-160.550712	-3.284043	-160.550712	-4.537582	169.037874
8.150000	-5.181585	31.612204	-3.444562	-165.727929	-3.444562	-165.727929	-4.374527	167.268197
8.200000	-4.966649	22.510662	-3.628801	-170.971851	-3.628801	-170.971851	-4.195504	165.402122
8.250000	-4.732177	13.467462	-3.838345	-176.269115	-3.838345	-176.269115	-4.003362	163.420373
8.300000	-4.483449	4.532630	-4.074479	178.395325	-4.074479	178.395325	-3.801516	161.308744
8.350000	-4.226048	-4.249797	-4.338213	173.037746	-4.338213	173.037746	-3.593665	159.058161
8.400000	-3.965593	-12.842961	-4.630121	167.675479	-4.630121	167.675479	-3.383639	156.665596
8.450000	-3.707358	-21.221090	-4.950080	162.325844	-4.950080	162.325844	-3.175149	154.135780
8.500000	-3.455766	-29.364270	-5.297757	157.005420	-5.297757	157.005420	-2.971411	151.476785
8.550000	-3.214402	-37.259157	-5.672449	151.729698	-5.672449	151.729698	-2.775130	148.700271
8.600000	-2.985970	-44.898093	-6.073129	146.512620	-6.073129	146.512620	-2.588426	145.820292
8.650000	-2.772334	-52.278230	-6.498519	141.366218	-6.498519	141.366218	-2.412832	142.852178
8.700000	-2.574600	-59.400699	-6.947161	136.300402	-6.947161	136.300402	-2.249324	139.811547
8.750000	-2.393234	-66.269865	-7.417490	131.322872	-7.417490	131.322872	-2.098387	136.713537
8.800000	-2.228374	-72.889233	-7.907759	126.440559	-7.907759	126.440559	-1.960248	133.571815
8.850000	-2.079382	-79.271488	-8.416444	121.655559	-8.416444	121.655559	-1.834498	130.399847
8.900000	-1.945521	-85.427102	-8.942071	116.969401	-8.942071	116.969401	-1.720637	127.208686
8.950000	-1.825872	-91.367583	-9.483291	112.382013	-9.483291	112.382013	-1.617997	124.007773
9.000000	-1.719412	-97.105107	-10.038908	107.891970	-10.038908	107.891970	-1.525809	120.804993
9.050000	-1.625074	-102.652225	-10.607899	103.496751	-10.607899	103.496751	-1.443253	117.606799
9.100000	-1.541788	-108.021606	-11.189425	99.192974	-11.189425	99.192974	-1.369495	114.418366
9.150000	-1.468516	-113.225839	-11.782835	94.976610	-11.782835	94.976610	-1.303715	111.243759
9.200000	-1.404344	-118.275931	-12.387359	90.843917	-12.387359	90.843917	-1.245187	108.086290
9.250000	-1.348295	-123.184858	-13.002836	86.789587	-13.002836	86.789587	-1.193132	104.948250
9.300000	-1.299480	-127.964913	-13.629324	82.808220	-13.629324	82.808220	-1.146836	101.831237
9.350000	-1.257126	-132.627155	-14.266910	78.894725	-14.266910	78.894725	-1.105679	98.736427
9.400000	-1.220534	-137.182119	-14.915855	75.043986	-14.915855	75.043986	-1.069099	95.664602
9.450000	-1.189158	-141.638144	-15.575844	71.251893	-15.575844	71.251893	-1.036658	92.616696
9.500000	-1.162378	-146.005798	-16.247761	67.512713	-16.247761	67.512713	-1.007860	89.592722
9.550000	-1.139381	-150.300206	-16.935772	63.817651	-16.935772	63.817651	-0.982060	86.590800
9.600000	-1.120371	-154.516949	-17.633673	60.169380	-17.633673	60.169380	-0.959417	83.615007
9.650000	-1.104294	-158.676894	-18.350667	56.555042	-18.350667	56.555042	-0.939101	80.660640
9.700000	-1.091336	-162.777133	-19.080652	52.975539	-19.080652	52.975539	-0.921258	77.731603
9.750000	-1.080821	-166.831671	-19.831068	49.421456	-19.831068	49.421456	-0.905359	74.824533
9.800000	-1.072676	-170.843400	-20.600347	45.889050	-20.600347	45.889050	-0.891352	71.940996
9.850000	-1.066628	-174.819097	-21.391342	42.371843	-21.391342	42.371843	-0.879026	69.080334
9.900000	-1.062401	-178.765612	-22.208588	38.862639	-22.208588	38.862639	-0.868167	66.241471
9.950000	-1.059995	177.314471	-23.049868	35.354023	-23.049868	35.354023	-0.858782	63.426395
10.000000	-1.059012	173.412921	-23.926925	31.837778	-23.926925	31.837778	-0.850558	60.631502
