! freq	dB(S11)	phase(S11)	dB(S12)	phase(S12)	
!     	dB(S21)	phase(S21)	dB(S22)	phase(S22)	
!S-par simulation data
#  GHz  S  DB  R 50
0.000000	-0.000000	0.000000	-379.833086	0.000000	-379.833086	0.000000	-0.000000	0.000000
0.050000	-0.000090	-0.855481	-102.692094	162.985283	-102.692094	162.985283	-0.000126	-0.773057
0.100000	-0.000357	-1.710773	-102.072014	151.496390	-102.072014	151.496390	-0.000496	-1.545733
0.150000	-0.000793	-2.565698	-101.236353	141.147462	-101.236353	141.147462	-0.001082	-2.317699
0.200000	-0.001387	-3.420097	-100.328098	132.607041	-100.328098	132.607041	-0.001849	-3.088722
0.250000	-0.002133	-4.273783	-99.437447	125.805385	-99.437447	125.805385	-0.002763	-3.858577
0.300000	-0.003002	-5.126699	-98.620139	120.274319	-98.620139	120.274319	-0.003772	-4.627304
0.350000	-0.003982	-5.978720	-97.894608	115.809773	-97.894608	115.809773	-0.004848	-5.394858
0.400000	-0.005056	-6.829771	-97.269116	112.197711	-97.269116	112.197711	-0.005962	-6.161284
0.450000	-0.006207	-7.679799	-96.745282	109.287001	-96.745282	109.287001	-0.007094	-6.926651
0.500000	-0.007417	-8.528771	-96.322082	106.978915	-96.322082	106.978915	-0.008229	-7.691040
0.550000	-0.008672	-9.376670	-95.997809	105.217320	-95.997809	105.217320	-0.009356	-8.454525
0.600000	-0.009959	-10.223492	-95.770937	103.982235	-95.770937	103.982235	-0.010470	-9.217176
0.650000	-0.011265	-11.069242	-95.640353	103.287128	-95.640353	103.287128	-0.011569	-9.979046
0.700000	-0.012581	-11.913933	-95.605105	103.179793	-95.605105	103.179793	-0.012652	-10.740181
0.750000	-0.013898	-12.757582	-95.663595	103.746663	-95.663595	103.746663	-0.013720	-11.500610
0.800000	-0.015211	-13.600206	-95.811888	105.120087	-95.811888	105.120087	-0.014773	-12.260354
0.850000	-0.016513	-14.441825	-96.040497	107.486655	-96.040497	107.486655	-0.015813	-13.019426
0.900000	-0.017803	-15.282456	-96.328636	111.090236	-96.328636	111.090236	-0.016842	-13.777830
0.950000	-0.019076	-16.122113	-96.634972	116.213226	-96.634972	116.213226	-0.017862	-14.535564
1.000000	-0.020332	-16.960809	-96.886010	123.103447	-96.886010	123.103447	-0.018873	-15.292624
1.050000	-0.021570	-17.798553	-96.970340	131.809784	-96.970340	131.809784	-0.019878	-16.049001
1.100000	-0.022789	-18.635352	-96.758058	141.950705	-96.758058	141.950705	-0.020878	-16.804682
1.150000	-0.023989	-19.471206	-96.158769	152.606729	-96.158769	152.606729	-0.021872	-17.559656
1.200000	-0.025172	-20.306117	-95.181982	162.609468	-95.181982	162.609468	-0.022863	-18.313908
1.250000	-0.026339	-21.140081	-93.930659	171.097353	-93.930659	171.097353	-0.023851	-19.067423
1.300000	-0.027489	-21.973050	-92.522274	177.713559	-92.522274	177.713559	-0.024835	-19.820151
1.350000	-0.028624	-22.805056	-91.075675	-177.310074	-91.075675	-177.310074	-0.025818	-20.572109
1.400000	-0.029747	-23.636088	-89.650680	-173.679253	-89.650680	-173.679253	-0.026798	-21.323279
1.450000	-0.030857	-24.466133	-88.277328	-171.103246	-88.277328	-171.103246	-0.027776	-22.073646
1.500000	-0.031957	-25.295178	-86.967920	-169.340059	-86.967920	-169.340059	-0.028753	-22.823193
1.550000	-0.033048	-26.123206	-85.725286	-168.201834	-85.725286	-168.201834	-0.029728	-23.571905
1.600000	-0.034131	-26.950202	-84.547612	-167.546789	-84.547612	-167.546789	-0.030702	-24.319764
1.650000	-0.035207	-27.776146	-83.431025	-167.268766	-83.431025	-167.268766	-0.031675	-25.066756
1.700000	-0.036276	-28.600641	-82.346129	-167.363723	-82.346129	-167.363723	-0.032647	-25.812550
1.750000	-0.037343	-29.424572	-81.348858	-167.591870	-81.348858	-167.591870	-0.033618	-26.557877
1.800000	-0.038405	-30.247144	-80.384042	-168.035331	-80.384042	-168.035331	-0.034589	-27.302082
1.850000	-0.039465	-31.068747	-79.470596	-168.632587	-79.470596	-168.632587	-0.035559	-28.045488
1.900000	-0.040523	-31.889143	-78.593699	-169.352112	-78.593699	-169.352112	-0.036529	-28.787899
1.950000	-0.041580	-32.708331	-77.751504	-170.193906	-77.751504	-170.193906	-0.037499	-29.529317
2.000000	-0.042638	-33.526478	-76.947964	-171.105771	-76.947964	-171.105771	-0.038469	-30.269879
2.050000	-0.043695	-34.343167	-76.166625	-172.115736	-76.166625	-172.115736	-0.039439	-31.009245
2.100000	-0.044754	-35.159212	-75.431297	-173.157070	-75.431297	-173.157070	-0.040410	-31.748084
2.150000	-0.045814	-35.973588	-74.709119	-174.275824	-74.709119	-174.275824	-0.041382	-32.485559
2.200000	-0.046878	-36.786700	-74.011517	-175.440996	-74.011517	-175.440996	-0.042356	-33.222001
2.250000	-0.047944	-37.598529	-73.336816	-176.646194	-73.336816	-176.646194	-0.043331	-33.957398
2.300000	-0.049013	-38.409056	-72.683512	-177.886064	-72.683512	-177.886064	-0.044308	-34.691736
2.350000	-0.050087	-39.218263	-72.050243	-179.156097	-72.050243	-179.156097	-0.045287	-35.425001
2.400000	-0.051165	-40.026133	-71.435778	179.547530	-71.435778	179.547530	-0.046268	-36.157179
2.450000	-0.052248	-40.832648	-70.838997	178.228073	-70.838997	178.228073	-0.047252	-36.888258
2.500000	-0.053336	-41.637792	-70.258880	176.888318	-70.258880	176.888318	-0.048240	-37.618225
2.550000	-0.054429	-42.441487	-69.693591	175.529984	-69.693591	175.529984	-0.049231	-38.347017
2.600000	-0.055529	-43.243776	-69.143271	174.155983	-69.143271	174.155983	-0.050227	-39.074670
2.650000	-0.056636	-44.044646	-68.607129	172.768081	-68.607129	172.768081	-0.051226	-39.801173
2.700000	-0.057748	-44.844080	-68.084434	171.367814	-68.084434	171.367814	-0.052230	-40.526512
2.750000	-0.058868	-45.642065	-67.574514	169.956529	-67.574514	169.956529	-0.053240	-41.250677
2.800000	-0.059995	-46.438588	-67.076748	168.535406	-67.076748	168.535406	-0.054255	-41.973655
2.850000	-0.061130	-47.233633	-66.590561	167.105483	-66.590561	167.105483	-0.055276	-42.695436
2.900000	-0.062273	-48.027190	-66.115418	165.667675	-66.115418	165.667675	-0.056302	-43.416008
2.950000	-0.063423	-48.819246	-65.650825	164.222793	-65.650825	164.222793	-0.057336	-44.135361
3.000000	-0.064583	-49.609789	-65.196318	162.771553	-65.196318	162.771553	-0.058377	-44.853484
3.050000	-0.065751	-50.398808	-64.751468	161.314592	-64.751468	161.314592	-0.059425	-45.570366
3.100000	-0.066928	-51.186293	-64.315872	159.852477	-64.315872	159.852477	-0.060480	-46.285999
3.150000	-0.068115	-51.972233	-63.889154	158.385711	-63.889154	158.385711	-0.061544	-47.000372
3.200000	-0.069311	-52.756619	-63.470960	156.914746	-63.470960	156.914746	-0.062617	-47.713475
3.250000	-0.070518	-53.539443	-63.060961	155.439984	-63.060961	155.439984	-0.063698	-48.425300
3.300000	-0.071735	-54.320695	-62.658846	153.961786	-62.658846	153.961786	-0.064789	-49.135838
3.350000	-0.072964	-55.100090	-62.262526	152.480017	-62.262526	152.480017	-0.065891	-49.844852
3.400000	-0.074205	-55.877830	-61.873251	150.995312	-61.873251	150.995312	-0.067004	-50.552506
3.450000	-0.075452	-56.654735	-61.495711	149.509364	-61.495711	149.509364	-0.068123	-51.259473
3.500000	-0.076717	-57.429138	-61.119632	148.019686	-61.119632	148.019686	-0.069258	-51.964377
3.550000	-0.077987	-58.202981	-60.756085	146.529330	-60.756085	146.529330	-0.070398	-52.668818
3.600000	-0.079278	-58.974022	-60.392377	145.035577	-60.392377	145.035577	-0.071557	-53.370942
3.650000	-0.080571	-59.744781	-60.041855	143.541546	-60.041855	143.541546	-0.072719	-54.072831
3.700000	-0.081890	-60.512440	-59.689776	142.044445	-59.689776	142.044445	-0.073904	-54.772146
3.750000	-0.083208	-61.280099	-59.351415	140.547344	-59.351415	140.547344	-0.075090	-55.471461
3.800000	-0.084555	-62.044358	-59.010298	139.047488	-59.010298	139.047488	-0.076302	-56.167942
3.850000	-0.085903	-62.808618	-58.682072	137.547632	-58.682072	137.547632	-0.077515	-56.864423
3.900000	-0.087278	-63.569751	-58.352560	136.045699	-58.352560	136.045699	-0.078755	-57.558285
3.950000	-0.088656	-64.330600	-58.033935	134.543577	-58.033935	134.543577	-0.079997	-58.251910
4.000000	-0.090062	-65.088600	-57.715319	133.039905	-57.715319	133.039905	-0.081264	-58.943138
4.050000	-0.091472	-65.846030	-57.405806	131.535924	-57.405806	131.535924	-0.082537	-59.633887
4.100000	-0.092909	-66.600893	-57.097445	130.030806	-57.097445	130.030806	-0.083834	-60.322467
4.150000	-0.094354	-67.354901	-56.796601	128.525310	-56.796601	128.525310	-0.085139	-61.010325
4.200000	-0.095823	-68.106627	-56.497914	127.019001	-56.497914	127.019001	-0.086466	-61.696245
4.250000	-0.097304	-68.857211	-56.205333	125.512286	-56.205333	125.512286	-0.087805	-62.381197
4.300000	-0.098807	-69.605802	-55.915792	124.005011	-55.915792	124.005011	-0.089165	-63.064449
4.350000	-0.100327	-70.352969	-55.631102	122.497336	-55.631102	122.497336	-0.090540	-63.746486
4.400000	-0.101866	-71.098430	-55.350225	120.989297	-55.350225	120.989297	-0.091933	-64.427061
4.450000	-0.103426	-71.842186	-55.073088	119.480895	-55.073088	119.480895	-0.093345	-65.106175
4.500000	-0.105003	-72.584525	-54.800435	117.972279	-54.800435	117.972279	-0.094773	-65.784070
4.550000	-0.106605	-73.324882	-54.530536	116.463363	-54.530536	116.463363	-0.096224	-66.460257
4.600000	-0.108222	-74.064111	-54.265704	114.954342	-54.265704	114.954342	-0.097688	-67.135468
4.650000	-0.109867	-74.801084	-54.002754	113.445112	-54.002754	113.445112	-0.099179	-67.808726
4.700000	-0.111525	-75.537215	-53.745371	111.935852	-53.745371	111.935852	-0.100681	-68.481253
4.750000	-0.113217	-76.270823	-53.489102	110.426499	-53.489102	110.426499	-0.102215	-69.151584
4.800000	-0.114918	-77.003873	-53.238827	108.917158	-53.238827	108.917158	-0.103756	-69.821428
4.850000	-0.116658	-77.734137	-52.988992	107.407870	-52.988992	107.407870	-0.105333	-70.488835
4.900000	-0.118404	-78.464125	-52.745508	105.898603	-52.745508	105.898603	-0.106914	-71.156000
4.950000	-0.120195	-79.191071	-52.501874	104.389565	-52.501874	104.389565	-0.108537	-71.820491
5.000000	-0.121986	-79.918018	-52.264888	102.880526	-52.264888	102.880526	-0.110159	-72.484983
5.050000	-0.123829	-80.641675	-52.027239	101.371921	-52.027239	101.371921	-0.111829	-73.146567
5.100000	-0.125673	-81.365332	-51.795919	99.863316	-51.795919	99.863316	-0.113499	-73.808152
5.150000	-0.127567	-82.086004	-51.564610	98.355277	-51.564610	98.355277	-0.115213	-74.467083
5.200000	-0.129465	-82.806404	-51.338772	96.847291	-51.338772	96.847291	-0.116932	-75.125772
5.250000	-0.131410	-83.524120	-51.113542	95.339974	-51.113542	95.339974	-0.118693	-75.782062
5.300000	-0.133366	-84.241298	-50.893009	93.832792	-50.893009	93.832792	-0.120462	-76.437871
5.350000	-0.135364	-84.956089	-50.673615	92.326354	-50.673615	92.326354	-0.122270	-77.091534
5.400000	-0.137378	-85.670083	-50.458220	90.820163	-50.458220	90.820163	-0.124091	-77.744480
5.450000	-0.139432	-86.381983	-50.244431	89.314759	-50.244431	89.314759	-0.125948	-78.395532
5.500000	-0.141506	-87.092836	-50.034017	87.809748	-50.034017	87.809748	-0.127823	-79.045635
5.550000	-0.143617	-87.801881	-49.825615	86.305533	-49.825615	86.305533	-0.129730	-79.694093
5.600000	-0.145754	-88.509635	-49.620028	84.801888	-49.620028	84.801888	-0.131661	-80.341376
5.650000	-0.147923	-89.215864	-49.416809	83.299018	-49.416809	83.299018	-0.133620	-80.987260
5.700000	-0.150124	-89.920568	-49.215903	81.796923	-49.215903	81.796923	-0.135608	-81.631745
5.750000	-0.152353	-90.624021	-49.017671	80.295550	-49.017671	80.295550	-0.137620	-82.275077
5.800000	-0.154621	-91.325724	-48.821303	78.795186	-48.821303	78.795186	-0.139667	-82.916793
5.850000	-0.156911	-92.026445	-48.627872	77.295457	-48.627872	77.295457	-0.141734	-83.557595
5.900000	-0.159247	-92.725201	-48.435906	75.796997	-48.435906	75.796997	-0.143841	-84.196569
5.950000	-0.161601	-93.423234	-48.247099	74.299056	-48.247099	74.299056	-0.145964	-84.834866
6.000000	-0.164006	-94.119099	-48.059397	72.802667	-48.059397	72.802667	-0.148134	-85.471130
6.050000	-0.166425	-94.814491	-47.875044	71.306649	-47.875044	71.306649	-0.150314	-86.106948
6.100000	-0.168902	-95.507524	-47.691476	69.812485	-47.691476	69.812485	-0.152548	-86.740535
6.150000	-0.171386	-96.200325	-47.511414	68.318518	-47.511414	68.318518	-0.154788	-87.373902
6.200000	-0.173937	-96.890587	-47.331849	66.826719	-47.331849	66.826719	-0.157087	-88.004847
6.250000	-0.176488	-97.580849	-47.155921	65.334920	-47.155921	65.334920	-0.159387	-88.635792
6.300000	-0.179113	-98.268405	-46.980230	63.845611	-46.980230	63.845611	-0.161754	-89.264131
6.350000	-0.181740	-98.955960	-46.808024	62.356302	-46.808024	62.356302	-0.164122	-89.892471
6.400000	-0.184435	-99.641098	-46.636343	60.869372	-46.636343	60.869372	-0.166553	-90.518458
6.450000	-0.187138	-100.326015	-46.467739	59.382658	-46.467739	59.382658	-0.168990	-91.144232
6.500000	-0.189905	-101.008792	-46.299916	57.898175	-46.299916	57.898175	-0.171486	-91.767900
6.550000	-0.192685	-101.691141	-46.134798	56.414138	-46.134798	56.414138	-0.173994	-92.391148
6.600000	-0.195525	-102.371619	-45.970684	54.932154	-45.970684	54.932154	-0.176556	-93.012534
6.650000	-0.198384	-103.051472	-45.808934	53.450853	-45.808934	53.450853	-0.179137	-93.633298
6.700000	-0.201297	-103.729713	-45.648387	51.971397	-45.648387	51.971397	-0.181767	-94.252437
6.750000	-0.204238	-104.407148	-45.489891	50.492864	-45.489891	50.492864	-0.184423	-94.870762
6.800000	-0.207226	-105.083217	-45.332771	49.015945	-45.332771	49.015945	-0.187123	-95.487692
6.850000	-0.210248	-105.758311	-45.177416	47.540179	-45.177416	47.540179	-0.189854	-96.103625
6.900000	-0.213311	-106.432276	-45.023589	46.065781	-45.023589	46.065781	-0.192625	-96.718384
6.950000	-0.216417	-107.105111	-44.871260	44.592752	-44.871260	44.592752	-0.195435	-97.331971
7.000000	-0.219557	-107.777040	-44.720598	43.120836	-44.720598	43.120836	-0.198278	-97.944601
7.050000	-0.222746	-108.447701	-44.571184	41.650477	-44.571184	41.650477	-0.201167	-98.555891
7.100000	-0.225965	-109.117666	-44.423560	40.180975	-44.423560	40.180975	-0.204084	-99.166433
7.150000	-0.229239	-109.786239	-44.276951	38.713184	-44.276951	38.713184	-0.207055	-99.775477
7.200000	-0.232536	-110.454314	-44.132243	37.246001	-44.132243	37.246001	-0.210048	-100.383972
7.250000	-0.235897	-111.120891	-43.988333	35.780638	-43.988333	35.780638	-0.213102	-100.990822
7.300000	-0.239274	-111.787151	-43.846424	34.315649	-43.846424	34.315649	-0.216171	-101.597315
7.350000	-0.242722	-112.451824	-43.705106	32.852532	-43.705106	32.852532	-0.219309	-102.202024
7.400000	-0.246179	-113.116347	-43.565884	31.389584	-43.565884	31.389584	-0.222456	-102.806559
7.450000	-0.249716	-113.779214	-43.427055	29.928491	-43.427055	29.928491	-0.225682	-103.409182
7.500000	-0.253254	-114.442080	-43.290411	28.467398	-43.290411	28.467398	-0.228908	-104.011805
7.550000	-0.256880	-115.103239	-43.153974	27.008063	-43.153974	27.008063	-0.232222	-104.612398
7.600000	-0.260507	-115.764398	-43.019646	25.548728	-43.019646	25.548728	-0.235537	-105.212992
7.650000	-0.264215	-116.424085	-42.885661	24.090722	-42.885661	24.090722	-0.238932	-105.811777
7.700000	-0.267933	-117.083638	-42.753559	22.632837	-42.753559	22.632837	-0.242337	-106.410397
7.750000	-0.271725	-117.741941	-42.621927	21.175867	-42.621927	21.175867	-0.245817	-107.007423
7.800000	-0.275533	-118.399995	-42.491963	19.719078	-42.491963	19.719078	-0.249313	-107.604130
7.850000	-0.279409	-119.057005	-42.362591	18.262815	-42.362591	18.262815	-0.252878	-108.199447
7.900000	-0.283309	-119.713667	-42.234684	16.806726	-42.234684	16.806726	-0.256467	-108.794300
7.950000	-0.287270	-120.369477	-42.107485	15.350808	-42.107485	15.350808	-0.260118	-109.387959
8.000000	-0.291262	-121.024860	-41.981556	13.894977	-41.981556	13.894977	-0.263802	-109.981019
8.050000	-0.295308	-121.679564	-41.856449	12.439011	-41.856449	12.439011	-0.267541	-110.573071
8.100000	-0.299394	-122.333783	-41.732428	10.982950	-41.732428	10.982950	-0.271320	-111.164402
8.150000	-0.303526	-122.987480	-41.609338	9.526509	-41.609338	9.526509	-0.275148	-111.754899
8.200000	-0.307705	-123.640654	-41.487162	8.069688	-41.487162	8.069688	-0.279025	-112.344563
8.250000	-0.311924	-124.293444	-41.366020	6.612312	-41.366020	6.612312	-0.282944	-112.933559
8.300000	-0.316198	-124.945695	-41.245632	5.154158	-41.245632	5.154158	-0.286920	-113.521621
8.350000	-0.320505	-125.597681	-41.126379	3.695355	-41.126379	3.695355	-0.290930	-114.109171
8.400000	-0.324874	-126.249135	-41.007731	2.235253	-41.007731	2.235253	-0.295006	-114.695697
8.450000	-0.329268	-126.900422	-40.890313	0.774502	-40.890313	0.774502	-0.299108	-115.281856
8.500000	-0.333734	-127.551208	-40.773366	-0.688201	-40.773366	-0.688201	-0.303286	-115.866913
8.550000	-0.338217	-128.201905	-40.657738	-2.151453	-40.657738	-2.151453	-0.307483	-116.451737
8.600000	-0.342779	-128.852156	-40.542464	-3.617448	-40.542464	-3.617448	-0.311763	-117.035393
8.650000	-0.347351	-129.502374	-40.428589	-5.083779	-40.428589	-5.083779	-0.316055	-117.618938
8.700000	-0.352010	-130.152227	-40.314971	-6.553793	-40.314971	-6.553793	-0.320440	-118.201262
8.750000	-0.356672	-130.802080	-40.202820	-8.023807	-40.202820	-8.023807	-0.324827	-118.783586
8.800000	-0.361430	-131.451676	-40.090853	-9.498596	-40.090853	-9.498596	-0.329317	-119.364649
8.850000	-0.366190	-132.101272	-39.980310	-10.973384	-39.980310	-10.973384	-0.333810	-119.945712
8.900000	-0.371039	-132.750765	-39.870098	-12.453266	-39.870098	-12.453266	-0.338398	-120.525684
8.950000	-0.375898	-133.400248	-39.761172	-13.933612	-39.761172	-13.933612	-0.342997	-121.105556
9.000000	-0.380839	-134.049763	-39.652720	-15.419257	-39.652720	-15.419257	-0.347684	-121.684498
9.050000	-0.385799	-134.699283	-39.545433	-16.905962	-39.545433	-16.905962	-0.352390	-122.263253
9.100000	-0.390832	-135.348946	-39.438757	-18.398051	-39.438757	-18.398051	-0.357177	-122.841226
9.150000	-0.395892	-135.998657	-39.333145	-19.891934	-39.333145	-19.891934	-0.361992	-123.418937
9.200000	-0.401019	-136.648599	-39.228272	-21.391152	-39.228272	-21.391152	-0.366880	-123.996002
9.250000	-0.406181	-137.298657	-39.124389	-22.893038	-39.124389	-22.893038	-0.371804	-124.572745
9.300000	-0.411403	-137.949013	-39.021360	-24.400073	-39.021360	-24.400073	-0.376793	-125.148966
9.350000	-0.416667	-138.599582	-38.919275	-25.910785	-38.919275	-25.910785	-0.381827	-125.724815
9.400000	-0.421984	-139.250489	-38.818142	-27.426317	-38.818142	-27.426317	-0.386918	-126.300255
9.450000	-0.427352	-139.901735	-38.717943	-28.946669	-38.717943	-28.946669	-0.392063	-126.875288
9.500000	-0.432765	-140.553334	-38.618773	-30.471367	-38.618773	-30.471367	-0.397256	-127.450013
9.550000	-0.438238	-141.205429	-38.520565	-32.002149	-38.520565	-32.002149	-0.402514	-128.024307
9.600000	-0.443748	-141.857866	-38.423438	-33.536658	-38.423438	-33.536658	-0.407809	-128.598382
9.650000	-0.449328	-142.510988	-38.327348	-35.078624	-38.327348	-35.078624	-0.413179	-129.172017
9.700000	-0.454936	-143.164411	-38.232356	-36.623563	-38.232356	-36.623563	-0.418578	-129.745508
9.750000	-0.460622	-143.818740	-38.138530	-38.177419	-38.138530	-38.177419	-0.424060	-130.318565
9.800000	-0.466330	-144.473303	-38.045782	-39.733362	-38.045782	-39.733362	-0.429563	-130.891539
9.850000	-0.472126	-145.129028	-37.954386	-41.299747	-37.954386	-41.299747	-0.435158	-131.464099
9.900000	-0.477934	-145.784886	-37.864003	-42.867222	-37.864003	-42.867222	-0.440765	-132.036624
9.950000	-0.483840	-146.442201	-37.775222	-44.446692	-37.775222	-44.446692	-0.446472	-132.608770
10.000000	-0.489750	-147.099516	-37.687340	-46.026161	-37.687340	-46.026161	-0.452184	-133.180917
