! freq	dB(S11)	phase(S11)	dB(S12)	phase(S12)	
!     	dB(S21)	phase(S21)	dB(S22)	phase(S22)	
!S-par simulation data
#  GHz  S  DB  R 50
0.000000	-154.085872	0.000000	-0.000000	0.000000	-0.000000	0.000000	-154.085872	0.000000
0.050000	-40.462233	-91.912132	-0.005497	-3.410298	-0.005497	-3.410298	-40.470770	-93.046850
0.100000	-34.559349	-94.668210	-0.014151	-6.773402	-0.014151	-6.773402	-34.577363	-97.141158
0.150000	-31.114099	-97.648038	-0.021599	-10.117719	-0.021599	-10.117719	-31.131153	-101.412628
0.200000	-28.674545	-100.613279	-0.028592	-13.458080	-0.028592	-13.458080	-28.690997	-105.640972
0.250000	-26.792851	-103.529280	-0.035881	-16.797204	-0.035881	-16.797204	-26.809762	-109.814198
0.300000	-25.270237	-106.398043	-0.043756	-20.134815	-0.043756	-20.134815	-25.288028	-113.943713
0.350000	-23.997835	-109.229009	-0.052212	-23.470515	-0.052212	-23.470515	-24.016401	-118.043027
0.400000	-22.911644	-112.026630	-0.061203	-26.803965	-0.061203	-26.803965	-22.930646	-122.119490
0.450000	-21.971953	-114.792997	-0.070662	-30.134874	-0.070662	-30.134874	-21.990912	-126.178731
0.500000	-21.148587	-117.532998	-0.080456	-33.463462	-0.080456	-33.463462	-21.167056	-130.227217
0.550000	-20.422089	-120.248105	-0.090492	-36.789884	-0.090492	-36.789884	-20.439670	-134.269218
0.600000	-19.776504	-122.940891	-0.100669	-40.114547	-0.100669	-40.114547	-19.792912	-138.308828
0.650000	-19.201033	-125.612214	-0.110910	-43.437829	-0.110910	-43.437829	-19.216072	-142.349473
0.700000	-18.686345	-128.263462	-0.121140	-46.760222	-0.121140	-46.760222	-18.699914	-146.394223
0.750000	-18.225699	-130.895168	-0.131296	-50.082219	-0.131296	-50.082219	-18.237765	-150.445970
0.800000	-17.813450	-133.507815	-0.141321	-53.404347	-0.141321	-53.404347	-17.824033	-154.507378
0.850000	-17.445627	-136.101200	-0.151156	-56.727178	-0.151156	-56.727178	-17.454782	-158.581329
0.900000	-17.117479	-138.676040	-0.160759	-60.051237	-0.160759	-60.051237	-17.125278	-162.669800
0.950000	-16.826495	-141.231695	-0.170080	-63.377117	-0.170080	-63.377117	-16.833011	-166.775533
1.000000	-16.570220	-143.767653	-0.179069	-66.705427	-0.179069	-66.705427	-16.575519	-170.901102
1.050000	-16.346648	-146.283172	-0.187679	-70.036811	-0.187679	-70.036811	-16.350780	-175.049168
1.100000	-16.154147	-148.777281	-0.195864	-73.371948	-0.195864	-73.371948	-16.157141	-179.222526
1.150000	-15.991405	-151.248766	-0.203579	-76.711567	-0.203579	-76.711567	-15.993269	176.575866
1.200000	-15.857389	-153.696153	-0.210779	-80.056442	-0.210779	-80.056442	-15.858108	172.342845
1.250000	-15.751314	-156.117675	-0.217423	-83.407401	-0.217423	-83.407401	-15.750853	168.075003
1.300000	-15.673199	-158.510580	-0.223462	-86.765501	-0.223462	-86.765501	-15.671504	163.767708
1.350000	-15.622130	-160.872934	-0.228874	-90.131551	-0.228874	-90.131551	-15.619135	159.417645
1.400000	-15.597962	-163.201800	-0.233633	-93.506546	-0.233633	-93.506546	-15.593595	155.020328
1.450000	-15.600753	-165.493714	-0.237722	-96.891533	-0.237722	-96.891533	-15.594943	150.570777
1.500000	-15.630757	-167.744576	-0.241127	-100.287609	-0.241127	-100.287609	-15.623444	146.063422
1.550000	-15.688438	-169.949515	-0.243847	-103.695917	-0.243847	-103.695917	-15.679580	141.491978
1.600000	-15.774477	-172.102709	-0.245888	-107.117641	-0.245888	-107.117641	-15.764064	136.849286
1.650000	-15.889787	-174.197159	-0.247266	-110.554002	-0.247266	-110.554002	-15.877856	132.127114
1.700000	-16.035538	-176.224384	-0.248009	-114.006254	-0.248009	-114.006254	-16.022193	127.315892
1.750000	-16.213185	-178.174033	-0.248154	-117.475679	-0.248154	-117.475679	-16.198620	122.404364
1.800000	-16.424498	179.966641	-0.247749	-120.963585	-0.247749	-120.963585	-16.409032	117.379125
1.850000	-16.671603	178.213483	-0.246854	-124.471299	-0.246854	-124.471299	-16.655726	112.223998
1.900000	-16.957274	176.587645	-0.245537	-128.000350	-0.245537	-128.000350	-16.941724	106.917733
1.950000	-17.284487	175.115228	-0.243881	-131.552131	-0.243881	-131.552131	-17.270342	101.434904
2.000000	-17.656437	173.828102	-0.241984	-135.127839	-0.241984	-135.127839	-17.645252	95.745207
2.050000	-18.077048	172.769127	-0.239950	-138.728856	-0.239950	-138.728856	-18.071081	89.808033
2.100000	-18.551384	172.003432	-0.237895	-142.357259	-0.237895	-142.357259	-18.554015	83.561236
2.150000	-19.082694	171.594288	-0.235947	-146.013277	-0.235947	-146.013277	-19.098766	76.946591
2.200000	-19.675851	171.649697	-0.234243	-149.698828	-0.234243	-149.698828	-19.712675	69.860895
2.250000	-20.333799	172.309611	-0.232930	-153.415340	-0.232930	-153.415340	-20.402450	62.168754
2.300000	-21.056106	173.741352	-0.232154	-157.163517	-0.232154	-157.163517	-21.173181	53.703455
2.350000	-21.834053	176.247258	-0.232119	-160.946462	-0.232119	-160.946462	-22.025709	44.149609
2.400000	-22.641934	-179.866701	-0.232995	-164.764779	-0.232995	-164.764779	-22.946736	33.153559
2.450000	-23.423710	-174.234085	-0.234983	-168.619982	-0.234983	-168.619982	-23.894730	20.226140
2.500000	-24.076470	-166.580036	-0.238295	-172.513620	-0.238295	-172.513620	-24.772610	4.845346
2.550000	-24.445257	-156.994860	-0.243183	-176.447727	-0.243183	-176.447727	-25.396770	-13.252038
2.600000	-24.386485	-146.319591	-0.249880	179.576489	-0.249880	179.576489	-25.542680	-33.366487
2.650000	-23.855012	-135.929909	-0.258659	175.557361	-0.258659	175.557361	-25.083646	-53.731086
2.700000	-22.942723	-127.053448	-0.269811	171.493177	-0.269811	171.493177	-24.111325	-72.461767
2.750000	-21.806623	-120.231740	-0.283658	167.382183	-0.283658	167.382183	-22.846694	-88.680085
2.800000	-20.582430	-115.401546	-0.300550	163.222585	-0.300550	163.222585	-21.482666	-102.492975
2.850000	-19.353930	-112.244066	-0.320902	159.012125	-0.320902	159.012125	-20.129529	-114.389105
2.900000	-18.165549	-110.385585	-0.345125	154.749200	-0.345125	154.749200	-18.838397	-124.891525
2.950000	-17.035412	-109.521241	-0.373676	150.432087	-0.373676	150.432087	-17.625781	-134.400075
3.000000	-15.968294	-109.422209	-0.407071	146.058942	-0.407071	146.058942	-16.492750	-143.199712
3.050000	-14.962909	-109.920120	-0.445879	141.627967	-0.445879	141.627967	-15.434400	-151.491587
3.100000	-14.015444	-110.892289	-0.490724	137.137444	-0.490724	137.137444	-14.443946	-159.417779
3.150000	-13.121090	-112.250864	-0.542336	132.585445	-0.542336	132.585445	-13.514279	-167.078636
3.200000	-12.275359	-113.929145	-0.601482	127.970544	-0.601482	127.970544	-12.639178	-174.548313
3.250000	-11.474288	-115.876512	-0.668956	123.291932	-0.668956	123.291932	-11.813376	178.118665
3.300000	-10.714208	-118.056382	-0.745656	118.548796	-0.745656	118.548796	-11.032222	170.883018
3.350000	-9.992106	-120.439956	-0.832510	113.741030	-0.832510	113.741030	-10.291960	163.715356
3.400000	-9.305024	-123.008657	-0.930747	108.867575	-0.930747	108.867575	-9.589052	156.594792
3.450000	-8.651202	-125.742461	-1.041349	103.930054	-1.041349	103.930054	-8.921311	149.504726
3.500000	-8.028970	-128.627215	-1.165477	98.929918	-1.165477	98.929918	-8.286726	142.434045
3.550000	-7.437155	-131.649019	-1.304144	93.870260	-1.304144	93.870260	-7.683867	135.375245
3.600000	-6.874439	-134.801481	-1.459019	88.752324	-1.459019	88.752324	-7.111199	128.324293
3.650000	-6.340308	-138.072210	-1.631114	83.581345	-1.631114	83.581345	-6.568050	121.279377
3.700000	-5.834226	-141.451691	-1.821660	78.362476	-1.821660	78.362476	-6.053755	114.241202
3.750000	-5.355803	-144.930458	-2.031849	73.101902	-2.031849	73.101902	-5.567817	107.212493
3.800000	-4.904791	-148.499741	-2.262967	67.806528	-2.262967	67.806528	-5.109904	100.197947
3.850000	-4.480932	-152.148518	-2.515874	62.484984	-2.515874	62.484984	-4.679688	93.203504
3.900000	-4.083952	-155.866525	-2.791469	57.146264	-2.791469	57.146264	-4.276836	86.236441
3.950000	-3.713530	-159.643209	-3.090513	51.800039	-3.090513	51.800039	-3.900980	79.305006
4.000000	-3.369264	-163.467825	-3.413606	46.456465	-3.413606	46.456465	-3.551675	72.418134
4.050000	-3.050642	-167.329579	-3.761184	41.125964	-3.761184	41.125964	-3.228374	65.585156
4.100000	-2.757028	-171.217803	-4.133511	35.818999	-4.133511	35.818999	-2.930415	58.815507
4.150000	-2.487657	-175.122149	-4.530692	30.545835	-4.530692	30.545835	-2.657006	52.118442
4.200000	-2.241783	-179.032751	-4.952712	25.316840	-4.952712	25.316840	-2.407384	45.503650
4.250000	-2.018309	177.059736	-5.399323	20.141215	-5.399323	20.141215	-2.180438	38.979026
4.300000	-1.816021	173.163609	-5.870235	15.027186	-5.870235	15.027186	-1.974939	32.551426
4.350000	-1.633697	169.286186	-6.365127	9.982311	-6.365127	9.982311	-1.789660	26.227096
4.400000	-1.470059	165.433762	-6.883665	5.013204	-6.883665	5.013204	-1.623314	20.011192
4.450000	-1.323879	161.611807	-7.425456	0.126081	-7.425456	0.126081	-1.474670	13.908487
4.500000	-1.193779	157.824452	-7.990250	-4.674558	-7.990250	-4.674558	-1.342345	7.921529
4.550000	-1.078349	154.074630	-8.578004	-9.385469	-8.578004	-9.385469	-1.224927	2.051294
4.600000	-0.976320	150.364570	-9.188762	-14.003576	-9.188762	-14.003576	-1.121141	-3.701461
4.650000	-0.886466	146.695664	-9.822761	-18.526410	-9.822761	-18.526410	-1.029760	-9.336897
4.700000	-0.807705	143.068931	-10.480236	-22.951092	-10.480236	-22.951092	-0.949700	-14.855009
4.750000	-0.739067	139.485084	-11.161351	-27.274090	-11.161351	-27.274090	-0.879991	-20.255612
4.800000	-0.679272	135.942471	-11.867825	-31.496222	-11.867825	-31.496222	-0.819343	-25.544074
4.850000	-0.627381	132.440084	-12.601142	-35.615580	-12.601142	-35.615580	-0.766814	-30.723257
4.900000	-0.582534	128.976564	-13.363256	-39.629776	-13.363256	-39.629776	-0.721534	-35.796427
4.950000	-0.543945	125.550280	-14.156683	-43.535586	-14.156683	-43.535586	-0.682715	-40.767171
5.000000	-0.510904	122.159397	-14.984633	-47.328522	-14.984633	-47.328522	-0.649637	-45.639318
5.050000	-0.482916	118.803020	-15.849541	-50.997838	-15.849541	-50.997838	-0.621805	-50.413747
5.100000	-0.459228	115.477857	-16.757932	-54.538137	-16.757932	-54.538137	-0.598452	-55.097975
5.150000	-0.439331	112.181780	-17.716286	-57.936131	-17.716286	-57.936131	-0.579058	-59.696196
5.200000	-0.422848	108.913305	-18.731337	-61.167606	-18.731337	-61.167606	-0.563242	-64.210552
5.250000	-0.409111	105.667992	-19.819329	-64.223217	-19.819329	-64.223217	-0.550312	-68.652501
5.300000	-0.398211	102.447632	-20.983783	-67.023667	-20.983783	-67.023667	-0.540370	-73.013663
5.350000	-0.389408	99.246321	-22.254492	-69.546964	-22.254492	-69.546964	-0.532640	-77.310617
5.400000	-0.382710	96.064556	-23.647841	-71.652020	-23.647841	-71.652020	-0.527131	-81.538799
5.450000	-0.377716	92.898781	-25.205519	-73.195989	-25.205519	-73.195989	-0.523416	-85.707513
5.500000	-0.374291	89.747639	-26.975258	-73.873276	-26.975258	-73.873276	-0.521344	-89.818434
5.550000	-0.372268	86.609147	-29.026198	-73.050851	-29.026198	-73.050851	-0.520727	-93.875014
5.600000	-0.371440	83.480736	-31.466772	-69.730108	-31.466772	-69.730108	-0.521325	-97.883765
5.650000	-0.371809	80.361138	-34.313116	-60.548295	-34.313116	-60.548295	-0.523105	-101.843671
5.700000	-0.373142	77.247163	-37.294001	-41.315374	-37.294001	-41.315374	-0.525795	-105.764595
5.750000	-0.375574	74.137112	-38.062725	-9.018313	-38.062725	-9.018313	-0.529455	-109.643050
5.800000	-0.378931	71.027624	-36.171996	17.513253	-36.171996	17.513253	-0.533851	-113.489258
5.850000	-0.383400	67.915276	-33.521424	30.208116	-33.521424	30.208116	-0.539028	-117.302551
5.900000	-0.389038	64.795799	-31.255865	35.759343	-31.255865	35.759343	-0.544897	-121.089539
5.950000	-0.396157	61.663307	-29.388373	37.621266	-29.388373	37.621266	-0.551502	-124.853360
6.000000	-0.405326	58.508717	-27.820332	37.615102	-27.820332	37.615102	-0.558948	-128.599161
6.050000	-0.417300	55.321952	-26.459876	36.533598	-26.459876	36.533598	-0.567393	-132.333517
6.100000	-0.434466	52.077608	-25.223713	34.642253	-25.223713	34.642253	-0.577496	-136.064512
6.150000	-0.459554	48.754417	-24.056906	32.140343	-24.056906	32.140343	-0.590002	-139.803421
6.200000	-0.504708	45.270324	-22.854480	28.746407	-22.854480	28.746407	-0.608478	-143.574488
6.250000	-0.589431	41.558641	-21.557946	24.078229	-21.557946	24.078229	-0.638697	-147.402507
6.300000	-0.804544	37.469075	-19.990658	15.979527	-19.990658	15.979527	-0.707492	-151.330288
6.350000	-1.433358	34.105030	-18.354097	-1.900972	-18.354097	-1.900972	-0.893880	-155.031543
6.400000	-1.873866	38.628619	-19.838455	-34.694913	-19.838455	-34.694913	-1.036773	-156.581589
6.450000	-1.018775	38.110164	-25.438101	-37.372711	-25.438101	-37.372711	-0.815873	-159.284314
6.500000	-0.678221	33.953847	-27.060117	-14.543086	-27.060117	-14.543086	-0.715780	-163.110510
6.550000	-0.562864	30.090805	-26.116873	-2.945411	-26.116873	-2.945411	-0.682681	-166.906085
6.600000	-0.514620	26.550863	-25.089910	0.623879	-25.089910	0.623879	-0.671066	-170.618937
6.650000	-0.493030	23.217690	-24.287063	0.853903	-24.287063	0.853903	-0.668251	-174.274231
6.700000	-0.482710	20.002572	-23.655910	-0.264696	-23.655910	-0.264696	-0.669173	-177.896083
6.750000	-0.478875	16.874775	-23.157612	-2.124958	-23.157612	-2.124958	-0.672186	178.506231
6.800000	-0.478143	13.798415	-22.743884	-4.328433	-22.743884	-4.328433	-0.676125	174.921883
6.850000	-0.479562	10.764635	-22.399058	-6.763549	-22.399058	-6.763549	-0.680612	171.347377
6.900000	-0.482308	7.761870	-22.105327	-9.337845	-22.105327	-9.337845	-0.685344	167.778866
6.950000	-0.485967	4.783970	-21.852523	-12.004437	-21.852523	-12.004437	-0.690149	164.214016
7.000000	-0.490331	1.828081	-21.635133	-14.738915	-21.635133	-14.738915	-0.694916	160.651331
7.050000	-0.495170	-1.110984	-21.444925	-17.516067	-21.444925	-17.516067	-0.699574	157.089468
7.100000	-0.500458	-4.032381	-21.281857	-20.329758	-21.281857	-20.329758	-0.704039	153.527679
7.150000	-0.506050	-6.940627	-21.138938	-23.165170	-21.138938	-23.165170	-0.708303	149.965457
7.200000	-0.511954	-9.834424	-21.017025	-26.019330	-21.017025	-26.019330	-0.712291	146.402402
7.250000	-0.518101	-12.716404	-20.911924	-28.885071	-20.911924	-28.885071	-0.716011	142.838523
7.300000	-0.524487	-15.586292	-20.823341	-31.759253	-20.823341	-31.759253	-0.719419	139.273832
7.350000	-0.531092	-18.444853	-20.749738	-34.638504	-20.749738	-34.638504	-0.722502	135.708574
7.400000	-0.537900	-21.292955	-20.689557	-37.519985	-20.689557	-37.519985	-0.725260	132.143134
7.450000	-0.544922	-24.129947	-20.643185	-40.401463	-20.643185	-40.401463	-0.727648	128.578028
7.500000	-0.552127	-26.957745	-20.607990	-43.281080	-20.607990	-43.281080	-0.729713	125.013766
7.550000	-0.559544	-29.775011	-20.585302	-46.156563	-20.585302	-46.156563	-0.731392	121.451264
7.600000	-0.567160	-32.582752	-20.573734	-49.026342	-20.573734	-49.026342	-0.732708	117.891302
7.650000	-0.574977	-35.381244	-20.572836	-51.888803	-20.572836	-51.888803	-0.733662	114.334815
7.700000	-0.582999	-38.170766	-20.582219	-54.742395	-20.582219	-54.742395	-0.734257	110.782821
7.750000	-0.591230	-40.951606	-20.601546	-57.585613	-20.601546	-57.585613	-0.734500	107.236415
7.800000	-0.599672	-43.724060	-20.630526	-60.416972	-20.630526	-60.416972	-0.734400	103.696757
7.850000	-0.608333	-46.488443	-20.668905	-63.234999	-20.668905	-63.234999	-0.733966	100.165066
7.900000	-0.617217	-49.245088	-20.716464	-66.038217	-20.716464	-66.038217	-0.733214	96.642607
7.950000	-0.626329	-51.994348	-20.773010	-68.825138	-20.773010	-68.825138	-0.732158	93.130683
8.000000	-0.635676	-54.736601	-20.838375	-71.594248	-20.838375	-71.594248	-0.730816	89.630626
8.050000	-0.645265	-57.472249	-20.912414	-74.344007	-20.912414	-74.344007	-0.729208	86.143788
8.100000	-0.655101	-60.201721	-20.995001	-77.072834	-20.995001	-77.072834	-0.727356	82.671530
8.150000	-0.665193	-62.925415	-21.086106	-79.778840	-21.086106	-79.778840	-0.725280	79.215402
8.200000	-0.675549	-65.643833	-21.185626	-82.460287	-21.185626	-82.460287	-0.723005	75.776801
8.250000	-0.686171	-68.357554	-21.293398	-85.115676	-21.293398	-85.115676	-0.720560	72.356890
8.300000	-0.697067	-71.067123	-21.409353	-87.743192	-21.409353	-87.743192	-0.717971	68.956974
8.350000	-0.708251	-73.773031	-21.533613	-90.340016	-21.533613	-90.340016	-0.715263	65.578983
8.400000	-0.719701	-76.476175	-21.665503	-92.907470	-21.665503	-92.907470	-0.712472	62.221810
8.450000	-0.731465	-79.176801	-21.805916	-95.438292	-21.805916	-95.438292	-0.709614	58.890274
8.500000	-0.743512	-81.875860	-21.954040	-97.934968	-21.954040	-97.934968	-0.706726	55.582245
8.550000	-0.755869	-84.573950	-22.110271	-100.392298	-22.110271	-100.392298	-0.703833	52.300748
8.600000	-0.768535	-87.271824	-22.274493	-102.808553	-22.274493	-102.808553	-0.700962	49.046286
8.650000	-0.781505	-89.970241	-22.446501	-105.182723	-22.446501	-105.182723	-0.698140	45.818741
8.700000	-0.794811	-92.670111	-22.626720	-107.507582	-22.626720	-107.507582	-0.695399	42.621727
8.750000	-0.808411	-95.371978	-22.814494	-109.787555	-22.814494	-109.787555	-0.692751	39.451528
8.800000	-0.822372	-98.077317	-23.010611	-112.008338	-23.010611	-112.008338	-0.690247	36.315250
8.850000	-0.836634	-100.786321	-23.214302	-114.177836	-23.214302	-114.177836	-0.687881	33.207066
8.900000	-0.851246	-103.500617	-23.426015	-116.283204	-23.426015	-116.283204	-0.685702	30.132362
8.950000	-0.866180	-106.220679	-23.645448	-118.326200	-23.645448	-118.326200	-0.683714	27.088574
9.000000	-0.881450	-108.947786	-23.872620	-120.299634	-23.872620	-120.299634	-0.681948	24.077370
9.050000	-0.897064	-111.683157	-24.107468	-122.197053	-24.107468	-122.197053	-0.680427	21.099732
9.100000	-0.912997	-114.427232	-24.349771	-124.018940	-24.349771	-124.018940	-0.679151	18.153394
9.150000	-0.929293	-117.182508	-24.599421	-125.747939	-24.599421	-125.747939	-0.678176	15.243052
9.200000	-0.945896	-119.948279	-24.856169	-127.392979	-24.856169	-127.392979	-0.677470	12.363053
9.250000	-0.962868	-122.728171	-25.119534	-128.928124	-25.119534	-128.928124	-0.677107	9.519934
9.300000	-0.980153	-125.521167	-25.389312	-130.363367	-25.389312	-130.363367	-0.677048	6.707884
9.350000	-0.997787	-128.330308	-25.664665	-131.677323	-25.664665	-131.677323	-0.677347	3.930738
9.400000	-1.015751	-131.156053	-25.945041	-132.867794	-25.945041	-132.867794	-0.677997	1.186455
9.450000	-1.034047	-133.999837	-26.229505	-133.925063	-26.229505	-133.925063	-0.679012	-1.525119
9.500000	-1.052691	-136.864263	-26.516505	-134.830683	-26.516505	-134.830683	-0.680426	-4.202273
9.550000	-1.071651	-139.748464	-26.805446	-135.591683	-26.805446	-135.591683	-0.682206	-6.849065
9.600000	-1.090981	-142.657923	-27.092832	-136.169061	-27.092832	-136.169061	-0.684432	-9.460130
9.650000	-1.110627	-145.589720	-27.378544	-136.585486	-27.378544	-136.585486	-0.687038	-12.042044
9.700000	-1.130647	-148.549972	-27.657521	-136.799887	-27.657521	-136.799887	-0.690108	-14.589629
9.750000	-1.151009	-151.536776	-27.928678	-136.829983	-27.928678	-136.829983	-0.693592	-17.107559
9.800000	-1.171748	-154.554147	-28.186860	-136.655220	-28.186860	-136.655220	-0.697535	-19.593862
9.850000	-1.192872	-157.603332	-28.428240	-136.277622	-28.428240	-136.277622	-0.701939	-22.049593
9.900000	-1.214387	-160.684942	-28.649215	-135.707794	-28.649215	-135.707794	-0.706794	-24.476402
9.950000	-1.236352	-163.804248	-28.841954	-134.935983	-28.841954	-134.935983	-0.712157	-26.871933
10.000000	-1.258736	-166.957521	-29.006666	-134.005563	-29.006666	-134.005563	-0.717963	-29.241209
