! freq	dB(S11)	phase(S11)	dB(S12)	phase(S12)	
!     	dB(S21)	phase(S21)	dB(S22)	phase(S22)	
!S-par simulation data
#  GHz  S  DB  R 50
0.000000	-86.283885	0.000000	-0.000421	0.000000	-0.000421	0.000000	-86.283885	0.000000
0.050000	-30.402789	-93.500388	-0.009071	-3.460709	-0.009071	-3.460709	-30.402903	-93.500621
0.100000	-24.416788	-97.097324	-0.027158	-6.875031	-0.027158	-6.875031	-24.416831	-97.098069
0.150000	-20.947052	-100.599734	-0.051639	-10.263928	-0.051639	-10.263928	-20.947033	-100.601236
0.200000	-18.513183	-104.032028	-0.082838	-13.631072	-0.082838	-13.631072	-18.513132	-104.034310
0.250000	-16.650476	-107.408010	-0.120684	-16.973421	-0.120684	-16.973421	-16.650418	-107.410921
0.300000	-15.151532	-110.738925	-0.164756	-20.288038	-0.164756	-20.288038	-15.151483	-110.742262
0.350000	-13.906646	-114.030642	-0.214694	-23.571606	-0.214694	-23.571606	-13.906618	-114.034236
0.400000	-12.849185	-117.286837	-0.269891	-26.822248	-0.269891	-26.822248	-12.849189	-117.290616
0.450000	-11.937631	-120.506682	-0.329964	-30.036546	-0.329964	-30.036546	-11.937676	-120.510685
0.500000	-11.141644	-123.690093	-0.394209	-33.213695	-0.394209	-33.213695	-11.141733	-123.694456
0.550000	-10.441370	-126.833615	-0.462152	-36.350664	-0.462152	-36.350664	-10.441492	-126.838523
0.600000	-9.820296	-129.936321	-0.533086	-39.447436	-0.533086	-39.447436	-9.820429	-129.941922
0.650000	-9.267248	-132.995501	-0.606431	-42.502183	-0.606431	-42.502183	-9.267369	-133.001874
0.700000	-8.772456	-136.010953	-0.681528	-45.515179	-0.681528	-45.515179	-8.772544	-136.018108
0.750000	-8.328953	-138.981678	-0.757753	-48.485584	-0.757753	-48.485584	-8.328998	-138.989584
0.800000	-7.930131	-141.908999	-0.834488	-51.414547	-0.834488	-51.414547	-7.930130	-141.917624
0.850000	-7.571197	-144.793319	-0.911125	-54.302216	-0.911125	-54.302216	-7.571154	-144.802639
0.900000	-7.247564	-147.636419	-0.987114	-57.150060	-0.987114	-57.150060	-7.247485	-147.646435
0.950000	-6.955723	-150.439507	-1.061919	-59.959013	-1.061919	-59.959013	-6.955616	-150.450232
1.000000	-6.692556	-153.204211	-1.135043	-62.730459	-1.135043	-62.730459	-6.692429	-153.215673
1.050000	-6.455379	-155.932311	-1.206030	-65.465975	-1.206030	-65.465975	-6.455238	-155.944545
1.100000	-6.241874	-158.625715	-1.274460	-68.167314	-1.274460	-68.167314	-6.241725	-158.638760
1.150000	-6.050033	-161.286444	-1.339956	-70.836390	-1.339956	-70.836390	-6.049881	-161.300342
1.200000	-5.878112	-163.916617	-1.402176	-73.475261	-1.402176	-73.475261	-5.877963	-163.931410
1.250000	-5.724600	-166.518433	-1.460813	-76.086113	-1.460813	-76.086113	-5.724455	-166.534165
1.300000	-5.588488	-169.093647	-1.515496	-78.670735	-1.515496	-78.670735	-5.588351	-169.110364
1.350000	-5.468312	-171.645202	-1.566068	-81.232126	-1.566068	-81.232126	-5.468185	-171.662951
1.400000	-5.363095	-174.175468	-1.612313	-83.772741	-1.612313	-83.772741	-5.362980	-174.194298
1.450000	-5.272005	-176.686846	-1.654038	-86.295085	-1.654038	-86.295085	-5.271902	-176.706810
1.500000	-5.194332	-179.181763	-1.691077	-88.801702	-1.691077	-88.801702	-5.194242	-179.202917
1.550000	-5.129485	178.337337	-1.723284	-91.295161	-1.723284	-91.295161	-5.129408	178.314931
1.600000	-5.076979	175.867995	-1.750537	-93.778049	-1.750537	-93.778049	-5.076915	175.844270
1.650000	-5.036429	173.407743	-1.772735	-96.252965	-1.772735	-96.252965	-5.036378	173.382626
1.700000	-5.008661	170.954549	-1.789286	-98.722214	-1.789286	-98.722214	-5.008622	170.927947
1.750000	-4.991360	168.504826	-1.801090	-101.189281	-1.801090	-101.189281	-4.991332	168.476654
1.800000	-4.985420	166.056712	-1.807659	-103.656277	-1.807659	-103.656277	-4.985401	166.026868
1.850000	-4.990816	163.607729	-1.808973	-106.125827	-1.808973	-106.125827	-4.990807	163.576100
1.900000	-5.007614	161.155402	-1.805032	-108.600559	-1.805032	-108.600559	-5.007612	161.121862
1.950000	-5.035964	158.697260	-1.795858	-111.083105	-1.795858	-111.083105	-5.035969	158.661667
2.000000	-5.076107	156.230838	-1.781494	-113.576106	-1.781494	-113.576106	-5.076117	156.193036
2.050000	-5.128379	153.753681	-1.762002	-116.082202	-1.762002	-116.082202	-5.128393	153.713493
2.100000	-5.192121	151.264746	-1.737906	-118.602395	-1.737906	-118.602395	-5.192139	151.221998
2.150000	-5.270162	148.758829	-1.708383	-121.142622	-1.708383	-121.142622	-5.270183	148.713280
2.200000	-5.361966	146.234864	-1.674065	-123.703948	-1.674065	-123.703948	-5.361989	146.186268
2.250000	-5.468315	143.690496	-1.635115	-126.289015	-1.635115	-126.289015	-5.468340	143.638578
2.300000	-5.590132	141.123425	-1.591722	-128.900453	-1.591722	-128.900453	-5.590159	141.067872
2.350000	-5.728491	138.531419	-1.544105	-131.540871	-1.544105	-131.540871	-5.728521	138.471879
2.400000	-5.884645	135.912340	-1.492514	-134.212848	-1.492514	-134.212848	-5.884678	135.848414
2.450000	-6.060042	133.264170	-1.437231	-136.918915	-1.437231	-136.918915	-6.060080	133.195402
2.500000	-6.256361	130.585046	-1.378575	-139.661544	-1.378575	-139.661544	-6.256406	130.510914
2.550000	-6.475956	127.872563	-1.316834	-142.444027	-1.316834	-142.444027	-6.476012	127.792451
2.600000	-6.720718	125.126006	-1.252486	-145.267844	-1.252486	-145.267844	-6.720787	125.039213
2.650000	-6.993271	122.344319	-1.185964	-148.135135	-1.185964	-148.135135	-6.993360	122.250025
2.700000	-7.296681	119.526864	-1.117747	-151.047872	-1.117747	-151.047872	-7.296797	119.424105
2.750000	-7.634546	116.673542	-1.048351	-154.007821	-1.048351	-154.007821	-7.634698	116.561172
2.800000	-8.011120	113.784935	-0.978334	-157.016503	-0.978334	-157.016503	-8.011320	113.661580
2.850000	-8.431478	110.862509	-0.908294	-160.075150	-0.908294	-160.075150	-8.431743	110.726500
2.900000	-8.901740	107.908883	-0.838865	-163.184658	-0.838865	-163.184658	-8.902091	107.758168
2.950000	-9.429381	104.928211	-0.770715	-166.345537	-0.770715	-166.345537	-9.429849	104.760230
3.000000	-10.023682	101.926741	-0.704542	-169.557866	-0.704542	-169.557866	-10.024308	101.738243
3.050000	-10.696380	98.913667	-0.641063	-172.821242	-0.641063	-172.821242	-10.697224	98.700446
3.100000	-11.462666	95.902503	-0.581012	-176.134739	-0.581012	-176.134739	-11.463819	95.658978
3.150000	-12.343168	92.913970	-0.525175	-179.497370	-0.525175	-179.497370	-12.344771	92.632416
3.200000	-13.365777	89.980709	-0.474310	177.093040	-0.474310	177.093040	-13.368061	89.650093
3.250000	-14.570080	87.154539	-0.429081	173.639754	-0.429081	173.639754	-14.573445	86.758576
3.300000	-16.016685	84.526578	-0.390163	170.146119	-0.390163	170.146119	-16.021886	84.039553
3.350000	-17.804220	82.273534	-0.358175	166.616080	-0.358175	166.616080	-17.812859	81.651388
3.400000	-20.109574	80.793238	-0.333676	163.054141	-0.333676	163.054141	-20.125658	79.951106
3.450000	-23.297538	81.219258	-0.317143	159.465318	-0.317143	159.465318	-23.334216	79.961845
3.500000	-28.275570	88.550919	-0.308961	155.855061	-0.308961	155.855061	-28.404830	86.310087
3.550000	-35.363899	138.119639	-0.309415	152.229172	-0.309415	152.229172	-36.088213	136.863258
3.600000	-30.013060	-151.008258	-0.318674	148.593692	-0.318674	148.593692	-30.232159	-148.253020
3.650000	-24.254465	-139.702636	-0.336794	144.954796	-0.336794	144.954796	-24.313425	-138.129758
3.700000	-20.708566	-138.489132	-0.363708	141.318664	-0.363708	141.318664	-20.735773	-137.402165
3.750000	-18.198083	-139.731751	-0.399234	137.691368	-0.399234	137.691368	-18.214040	-138.891924
3.800000	-16.273111	-141.930278	-0.443239	134.079195	-0.443239	134.079195	-16.283805	-141.237244
3.850000	-14.724388	-144.572649	-0.495130	130.487432	-0.495130	130.487432	-14.732166	-143.977172
3.900000	-13.438998	-147.454394	-0.554402	126.921120	-0.554402	126.921120	-13.444985	-146.927985
3.950000	-12.349081	-150.470945	-0.620472	123.384788	-0.620472	123.384788	-12.353882	-149.995690
4.000000	-11.410595	-153.562825	-0.692686	119.882399	-0.692686	119.882399	-11.414565	-153.126733
4.050000	-10.593246	-156.693450	-0.770344	116.417316	-0.770344	116.417316	-10.596609	-156.288097
4.100000	-9.875234	-159.838995	-0.852703	112.992283	-0.852703	112.992283	-9.878139	-159.458230
4.150000	-9.240287	-162.983325	-0.938998	109.609425	-0.938998	109.609425	-9.242835	-162.622509
4.200000	-8.675385	-166.115645	-1.028433	106.269452	-1.028433	106.269452	-8.677649	-165.771231
4.250000	-8.173148	-169.225981	-1.120320	102.977378	-1.120320	102.977378	-8.175183	-168.894942
4.300000	-7.721697	-172.312396	-1.213766	99.727085	-1.213766	99.727085	-7.723539	-171.992602
4.350000	-7.317597	-175.368146	-1.308063	96.523664	-1.308063	96.523664	-7.319279	-175.057619
4.400000	-6.953992	-178.392680	-1.402519	93.363963	-1.402519	93.363963	-6.955538	-178.089847
4.450000	-6.626408	178.615257	-1.496448	90.247013	-1.496448	90.247013	-6.627836	178.911731
4.500000	-6.332256	175.658011	-1.589084	87.173950	-1.589084	87.173950	-6.333581	175.949353
4.550000	-6.065895	172.731510	-1.680106	84.138377	-1.680106	84.138377	-6.067130	173.018677
4.600000	-5.827906	169.840645	-1.768389	81.145177	-1.768389	81.145177	-5.829061	170.124650
4.650000	-5.612264	166.978059	-1.854072	78.184936	-1.854072	78.184936	-5.613346	167.259653
4.700000	-5.419958	164.147448	-1.935950	75.261395	-1.935950	75.261395	-5.420974	164.427455
4.750000	-5.246900	161.343053	-2.014153	72.367562	-2.014153	72.367562	-5.247855	161.622139
4.800000	-5.092780	158.564844	-2.087877	69.503096	-2.087877	69.503096	-5.093679	158.843688
4.850000	-4.955952	155.810039	-2.156820	66.664648	-2.156820	66.664648	-4.956798	156.089279
4.900000	-4.834718	153.075334	-2.220827	63.848363	-2.220827	63.848363	-4.835514	153.355559
4.950000	-4.729428	150.359976	-2.279000	61.053251	-2.279000	61.053251	-4.730176	150.641824
5.000000	-4.637204	147.658696	-2.331959	58.273423	-2.331959	58.273423	-4.637905	147.942705
5.050000	-4.559491	144.971061	-2.378408	55.508270	-2.378408	55.508270	-4.560145	145.257868
5.100000	-4.494812	142.293016	-2.418521	52.753270	-2.418521	52.753270	-4.495419	142.583224
5.150000	-4.442755	139.621522	-2.452057	50.005018	-2.452057	50.005018	-4.443315	139.915752
5.200000	-4.403031	136.953449	-2.478797	47.260002	-2.478797	47.260002	-4.403541	137.252343
5.250000	-4.376127	134.285463	-2.498152	44.514445	-2.498152	44.514445	-4.376585	134.589732
5.300000	-4.360830	131.614211	-2.510633	41.764623	-2.510633	41.764623	-4.361233	131.924540
5.350000	-4.357748	128.936328	-2.515776	39.006689	-2.515776	39.006689	-4.358092	129.253478
5.400000	-4.367099	126.248279	-2.513440	36.236597	-2.513440	36.236597	-4.367379	126.573069
5.450000	-4.387961	123.548072	-2.504260	33.452087	-2.504260	33.452087	-4.388170	123.881299
5.500000	-4.423206	120.829243	-2.486731	30.645560	-2.486731	30.645560	-4.423336	121.171954
5.550000	-4.472412	118.089033	-2.461440	27.813732	-2.461440	27.813732	-4.472451	118.442298
5.600000	-4.536445	115.323419	-2.428346	24.951729	-2.428346	24.951729	-4.536382	115.688430
5.650000	-4.616571	112.527883	-2.387353	22.053961	-2.387353	22.053961	-4.616390	112.905988
5.700000	-4.714171	109.698005	-2.338490	19.114787	-2.338490	19.114787	-4.713854	110.090734
5.750000	-4.830732	106.829734	-2.281922	16.128796	-2.281922	16.128796	-4.830254	107.238814
5.800000	-4.968258	103.918635	-2.217783	13.089839	-2.217783	13.089839	-4.967592	104.346051
5.850000	-5.129186	100.960277	-2.146273	9.991390	-2.146273	9.991390	-5.128295	101.408331
5.900000	-5.316469	97.950322	-2.067669	6.826526	-2.067669	6.826526	-5.315306	98.421714
5.950000	-5.533700	94.884679	-1.982345	3.587923	-1.982345	3.587923	-5.532205	95.382603
6.000000	-5.785267	91.759725	-1.890786	0.267852	-1.890786	0.267852	-5.783364	92.288005
6.050000	-6.076564	88.572637	-1.793611	-3.141793	-1.793611	-3.141793	-6.074151	89.135913
6.100000	-6.414272	85.321907	-1.691596	-6.649454	-1.691596	-6.649454	-6.411210	85.925884
6.150000	-6.806747	82.008106	-1.585700	-10.263825	-1.585700	-10.263825	-6.802849	82.659915
6.200000	-7.264578	78.635093	-1.477096	-13.993738	-1.477096	-13.993738	-7.259576	79.343809
6.250000	-7.801388	75.211909	-1.367203	-17.847978	-1.367203	-17.847978	-7.794898	75.989325
6.300000	-8.436490	71.755903	-1.257736	-21.838110	-1.257736	-21.838110	-8.427921	72.618202
6.350000	-9.192922	68.300672	-1.150775	-25.969252	-1.150775	-25.969252	-9.181355	69.269819
6.400000	-10.104180	64.903799	-1.048664	-30.248141	-1.048664	-30.248141	-10.088092	66.011225
6.450000	-11.218662	61.669413	-0.954080	-34.679913	-0.954080	-34.679913	-11.195349	62.962217
6.500000	-12.607101	58.777235	-0.869674	-39.263246	-0.869674	-39.263246	-12.571439	60.326958
6.550000	-14.394672	56.646879	-0.799233	-44.005952	-0.799233	-44.005952	-14.335251	58.580033
6.600000	-16.793384	56.258158	-0.746232	-48.902401	-0.746232	-48.902401	-16.680465	58.806036
6.650000	-20.204872	60.584804	-0.714260	-53.943959	-0.714260	-53.943959	-19.938585	64.158741
6.700000	-25.030679	81.797891	-0.706866	-59.117764	-0.706866	-59.117764	-24.208305	85.880838
6.750000	-25.976234	138.946789	-0.727440	-64.406464	-0.727440	-64.406464	-24.912300	136.166604
6.800000	-20.800102	168.226780	-0.778971	-69.787934	-0.778971	-69.787934	-20.427186	164.552024
6.850000	-16.786076	174.311090	-0.863848	-75.235831	-0.863848	-75.235831	-16.626666	171.675435
6.900000	-13.927015	174.043188	-0.983874	-80.720604	-0.983874	-80.720604	-13.840253	172.069531
6.950000	-11.767110	171.476706	-1.139751	-86.210250	-1.139751	-86.210250	-11.712442	169.915088
7.000000	-10.062889	167.872739	-1.331030	-91.672845	-1.331030	-91.672845	-10.025094	166.586474
7.050000	-8.679855	163.745984	-1.556533	-97.078044	-1.556533	-97.078044	-8.652017	162.655032
7.100000	-7.536712	159.354434	-1.814264	-102.398322	-1.814264	-102.398322	-7.515252	158.408653
7.150000	-6.580175	154.844740	-2.101571	-107.610082	-2.101571	-107.610082	-6.563057	154.010877
7.200000	-5.773099	150.307493	-2.415366	-112.693959	-2.415366	-112.693959	-5.759077	149.562408
7.250000	-5.088235	145.801860	-2.752246	-117.634957	-2.752246	-117.634957	-5.076503	145.128824
7.300000	-4.503942	141.365842	-3.108619	-122.424940	-3.108619	-122.424940	-4.493955	140.752527
7.350000	-4.003506	137.023830	-3.481099	-127.059056	-3.481099	-127.059056	-3.994883	136.460817
7.400000	-3.573882	132.792044	-3.866407	-131.534493	-3.866407	-131.534493	-3.566346	132.271918
7.450000	-3.202909	128.675403	-4.261826	-135.857394	-4.261826	-135.857394	-3.196255	128.192415
7.500000	-2.882191	124.678994	-4.664673	-140.029431	-4.664673	-140.029431	-2.876265	124.228413
7.550000	-2.604742	120.805093	-5.072313	-144.053604	-5.072313	-144.053604	-2.599420	120.382978
7.600000	-2.363431	117.048192	-5.483064	-147.940437	-5.483064	-147.940437	-2.358620	116.651359
7.650000	-2.152950	113.403789	-5.895320	-151.697870	-5.895320	-151.697870	-2.148573	113.029570
7.700000	-1.968835	109.866352	-6.307755	-155.334184	-6.307755	-155.334184	-1.964833	109.512492
7.750000	-1.807329	106.429753	-6.719300	-158.857738	-6.719300	-158.857738	-1.803650	106.094328
7.800000	-1.665258	103.087588	-7.129106	-162.276764	-7.129106	-162.276764	-1.661862	102.768948
7.850000	-1.539939	99.833402	-7.536521	-165.599230	-7.536521	-165.599230	-1.536792	99.530120
7.900000	-1.429101	96.660849	-7.941058	-168.832744	-7.941058	-168.832744	-1.426174	96.371685
7.950000	-1.330812	93.563799	-8.342375	-171.984498	-8.342375	-171.984498	-1.328080	93.287670
8.000000	-1.243430	90.536401	-8.740247	-175.061238	-8.740247	-175.061238	-1.240874	90.272356
8.050000	-1.165557	87.573126	-9.134553	-178.069253	-9.134553	-178.069253	-1.163158	87.320329
8.100000	-1.095995	84.668788	-9.525257	178.985620	-9.525257	178.985620	-1.093739	84.426497
8.150000	-1.034565	81.825517	-9.909495	176.105372	-9.909495	176.105372	-1.032437	81.592994
8.200000	-0.978659	79.024732	-10.293014	173.270098	-10.293014	173.270098	-0.976648	78.801479
8.250000	-0.928407	76.269314	-10.673224	170.482726	-10.673224	170.482726	-0.926504	76.054809
8.300000	-0.883157	73.555402	-11.050311	167.739058	-11.050311	167.739058	-0.881353	73.349180
8.350000	-0.842242	70.878450	-11.425031	165.034221	-11.425031	165.034221	-0.840529	70.680105
8.400000	-0.805446	68.237638	-11.796315	162.367286	-11.796315	162.367286	-0.803818	68.046781
8.450000	-0.772122	65.627868	-12.165538	159.732869	-12.165538	159.732869	-0.770572	65.444171
8.500000	-0.741919	63.046442	-12.532991	157.128137	-12.532991	157.128137	-0.740441	62.869608
8.550000	-0.714528	60.490857	-12.898991	154.550487	-12.898991	154.550487	-0.713118	60.320621
8.600000	-0.689928	57.961150	-13.262101	152.000016	-13.262101	152.000016	-0.688581	57.797248
8.650000	-0.667608	55.452528	-13.624428	149.471779	-13.624428	149.471779	-0.666320	55.294747
8.700000	-0.647352	52.962880	-13.986448	146.963664	-13.986448	146.963664	-0.646119	52.811031
8.750000	-0.628985	50.490371	-14.348564	144.473873	-14.348564	144.473873	-0.627803	50.344284
8.800000	-0.612350	48.033287	-14.711199	142.000759	-14.711199	142.000759	-0.611217	47.892809
8.850000	-0.597310	45.590024	-15.074802	139.542812	-15.074802	139.542812	-0.596222	45.455019
8.900000	-0.583803	43.159543	-15.439272	137.099186	-15.439272	137.099186	-0.582757	43.029884
8.950000	-0.571750	40.740569	-15.804745	134.668837	-15.804745	134.668837	-0.570743	40.616143
9.000000	-0.560956	38.330905	-16.172764	132.249642	-16.172764	132.249642	-0.559985	38.211617
9.050000	-0.551340	35.929308	-16.543905	129.840579	-16.543905	129.840579	-0.550403	35.815077
9.100000	-0.542833	33.534601	-16.918785	127.440714	-16.918785	127.440714	-0.541926	33.425354
9.150000	-0.535373	31.145662	-17.298073	125.049205	-17.298073	125.049205	-0.534495	31.041336
9.200000	-0.528907	28.761420	-17.682493	122.665289	-17.682493	122.665289	-0.528054	28.661959
9.250000	-0.523470	26.381092	-18.071820	120.288858	-18.071820	120.288858	-0.522640	26.286447
9.300000	-0.518956	24.003332	-18.467711	117.918778	-18.467711	117.918778	-0.518146	23.913461
9.350000	-0.515306	21.627106	-18.871399	115.554367	-18.871399	115.554367	-0.514513	21.541977
9.400000	-0.512493	19.251493	-19.283949	113.195182	-19.283949	113.195182	-0.511715	19.171078
9.450000	-0.510492	16.875596	-19.706553	110.840858	-19.706553	110.840858	-0.509726	16.799872
9.500000	-0.509283	14.498535	-20.140554	108.491111	-20.140554	108.491111	-0.508527	14.427482
9.550000	-0.508868	12.119372	-20.587252	106.145855	-20.587252	106.145855	-0.508120	12.052973
9.600000	-0.509285	9.736944	-21.047819	103.805301	-21.047819	103.805301	-0.508541	9.675186
9.650000	-0.510453	7.350605	-21.525121	101.469131	-21.525121	101.469131	-0.509711	7.293475
9.700000	-0.512366	4.959508	-22.021507	99.137601	-22.021507	99.137601	-0.511624	4.906996
9.750000	-0.514984	2.563120	-22.540088	96.810898	-22.540088	96.810898	-0.514241	2.515216
9.800000	-0.518403	0.159759	-23.083198	94.490541	-23.083198	94.490541	-0.517656	0.116452
9.850000	-0.522579	-2.251127	-23.655213	92.177448	-23.655213	92.177448	-0.521826	-2.289849
9.900000	-0.527488	-4.670142	-24.261190	89.873141	-24.261190	89.873141	-0.526729	-4.704294
9.950000	-0.533209	-7.099085	-24.906478	87.581400	-24.906478	87.581400	-0.532442	-7.128685
10.000000	-0.539633	-9.537371	-25.599198	85.303949	-25.599198	85.303949	-0.538858	-9.562438
