! freq	dB(S11)	phase(S11)	dB(S12)	phase(S12)	
!     	dB(S21)	phase(S21)	dB(S22)	phase(S22)	
!S-par simulation data
#  GHz  S  DB  R 50
0.000000	-0.000000	0.000000	-340.167495	0.000000	-340.167495	0.000000	-0.000000	0.000000
0.050000	-0.001799	-3.062148	-80.681171	87.581609	-80.681171	87.581609	-0.000952	-1.585589
0.100000	-0.006471	-6.115426	-74.666023	85.327278	-74.666023	85.327278	-0.003337	-3.164932
0.150000	-0.012507	-9.155496	-71.163191	83.054465	-71.163191	83.054465	-0.006275	-4.736505
0.200000	-0.018672	-12.182655	-68.691980	80.778696	-68.691980	80.778696	-0.009177	-6.302312
0.250000	-0.024326	-15.198151	-66.789844	78.507644	-66.789844	78.507644	-0.011815	-7.864549
0.300000	-0.029280	-18.203340	-65.250773	76.245959	-65.250773	76.245959	-0.014165	-9.424816
0.350000	-0.033613	-21.199244	-63.963921	73.996506	-63.963921	73.996506	-0.016291	-10.983945
0.400000	-0.037446	-24.185804	-62.863740	71.761989	-62.863740	71.761989	-0.018250	-12.542175
0.450000	-0.040898	-27.162108	-61.908839	69.545693	-61.908839	69.545693	-0.020089	-14.099445
0.500000	-0.044095	-30.127946	-61.069020	67.349032	-61.069020	67.349032	-0.021856	-15.655651
0.550000	-0.047121	-33.082509	-60.323579	65.174123	-60.323579	65.174123	-0.023579	-17.210601
0.600000	-0.050032	-36.024332	-59.658205	63.024247	-59.658205	63.024247	-0.025279	-18.764010
0.650000	-0.052878	-38.952963	-59.060389	60.900649	-59.060389	60.900649	-0.026972	-20.315718
0.700000	-0.055688	-41.867712	-58.520798	58.805039	-58.520798	58.805039	-0.028669	-21.865550
0.750000	-0.058484	-44.767330	-58.032802	56.740338	-58.032802	56.740338	-0.030380	-23.413259
0.800000	-0.061279	-47.651082	-57.590420	54.708527	-57.590420	54.708527	-0.032107	-24.958673
0.850000	-0.064082	-50.518460	-57.188533	52.711226	-57.188533	52.711226	-0.033856	-26.501660
0.900000	-0.066896	-53.368880	-56.823036	50.750343	-56.823036	50.750343	-0.035626	-28.042078
0.950000	-0.069724	-56.201709	-56.490573	48.828039	-56.490573	48.828039	-0.037418	-29.579781
1.000000	-0.072563	-59.016440	-56.188205	46.946375	-56.188205	46.946375	-0.039233	-31.114643
1.050000	-0.075413	-61.812631	-55.913387	45.107448	-55.913387	45.107448	-0.041068	-32.646543
1.100000	-0.078269	-64.589901	-55.663893	43.313407	-55.663893	43.313407	-0.042922	-34.175373
1.150000	-0.081128	-67.347933	-55.437754	41.566465	-55.437754	41.566465	-0.044793	-35.701029
1.200000	-0.083986	-70.086469	-55.233210	39.868900	-55.233210	39.868900	-0.046678	-37.223418
1.250000	-0.086837	-72.805310	-55.048666	38.223072	-55.048666	38.223072	-0.048576	-38.742451
1.300000	-0.089677	-75.503880	-54.882979	36.632658	-54.882979	36.632658	-0.050484	-40.257970
1.350000	-0.092501	-78.182525	-54.734454	35.099070	-54.734454	35.099070	-0.052399	-41.769975
1.400000	-0.095306	-80.841213	-54.601823	33.624924	-54.601823	33.624924	-0.054319	-43.278397
1.450000	-0.098087	-83.479963	-54.483875	32.212914	-54.483875	32.212914	-0.056242	-44.783173
1.500000	-0.100841	-86.098843	-54.379443	30.865799	-54.379443	30.865799	-0.058166	-46.284248
1.550000	-0.103563	-88.697965	-54.287382	29.586382	-54.287382	29.586382	-0.060088	-47.781571
1.600000	-0.106252	-91.277484	-54.206555	28.377481	-54.206555	28.377481	-0.062008	-49.275094
1.650000	-0.108904	-93.837596	-54.135817	27.241890	-54.135817	27.241890	-0.063923	-50.764778
1.700000	-0.111517	-96.378535	-54.074003	26.182330	-54.074003	26.182330	-0.065832	-52.250586
1.750000	-0.114090	-98.900572	-54.019913	25.201383	-54.019913	25.201383	-0.067734	-53.732488
1.800000	-0.116620	-101.404010	-53.972304	24.301415	-53.972304	24.301415	-0.069628	-55.210456
1.850000	-0.119108	-103.889182	-53.929879	23.484483	-53.929879	23.484483	-0.071514	-56.684470
1.900000	-0.121546	-106.353982	-53.891595	22.764357	-53.891595	22.764357	-0.073390	-58.153947
1.950000	-0.123946	-108.803619	-53.855206	22.118871	-53.855206	22.118871	-0.075257	-59.619957
2.000000	-0.126302	-111.236173	-53.819712	21.559450	-53.819712	21.559450	-0.077115	-61.081971
2.050000	-0.128615	-113.652083	-53.783581	21.085648	-53.783581	21.085648	-0.078964	-62.539984
2.100000	-0.130886	-116.051807	-53.745243	20.696053	-53.745243	20.696053	-0.080805	-63.993994
2.150000	-0.133115	-118.435824	-53.703105	20.388151	-53.703105	20.388151	-0.082637	-65.444005
2.200000	-0.135303	-120.804626	-53.655572	20.158209	-53.655572	20.158209	-0.084461	-66.890021
2.250000	-0.137454	-123.158726	-53.601082	20.001181	-53.601082	20.001181	-0.086278	-68.332051
2.300000	-0.139568	-125.498646	-53.538135	19.910660	-53.538135	19.910660	-0.088089	-69.770109
2.350000	-0.141647	-127.824925	-53.465338	19.878877	-53.465338	19.878877	-0.089895	-71.204212
2.400000	-0.143693	-130.138109	-53.381443	19.896766	-53.381443	19.896766	-0.091696	-72.634377
2.450000	-0.145710	-132.438756	-53.285385	19.954089	-53.285385	19.954089	-0.093495	-74.060629
2.500000	-0.147700	-134.727433	-53.176319	20.039634	-53.176319	20.039634	-0.095293	-75.482994
2.550000	-0.149664	-137.004246	-53.052960	20.141596	-53.052960	20.141596	-0.097090	-76.901334
2.600000	-0.151607	-139.270296	-52.915631	20.246383	-52.915631	20.246383	-0.098889	-78.315851
2.650000	-0.153531	-141.526171	-52.764320	20.341620	-52.764320	20.341620	-0.100690	-79.726581
2.700000	-0.155441	-143.772460	-52.599282	20.415258	-52.599282	20.415258	-0.102496	-81.133564
2.750000	-0.157338	-146.009759	-52.421032	20.455891	-52.421032	20.455891	-0.104307	-82.536840
2.800000	-0.159227	-148.238666	-52.230307	20.453027	-52.230307	20.453027	-0.106126	-83.936455
2.850000	-0.161110	-150.459781	-52.028037	20.397308	-52.028037	20.397308	-0.107953	-85.332457
2.900000	-0.162992	-152.673705	-51.815299	20.280661	-51.815299	20.280661	-0.109791	-86.724896
2.950000	-0.164875	-154.881040	-51.593277	20.096380	-51.593277	20.096380	-0.111640	-88.113826
3.000000	-0.166763	-157.082390	-51.363221	19.839146	-51.363221	19.839146	-0.113503	-89.499303
3.050000	-0.168660	-159.278357	-51.126402	19.504995	-51.126402	19.504995	-0.115380	-90.881387
3.100000	-0.170568	-161.469543	-50.884086	19.091231	-50.884086	19.091231	-0.117274	-92.260140
3.150000	-0.172492	-163.656550	-50.637498	18.596316	-50.637498	18.596316	-0.119185	-93.635626
3.200000	-0.174435	-165.839977	-50.387805	18.019729	-50.387805	18.019729	-0.121115	-95.007913
3.250000	-0.176400	-168.020423	-50.136098	17.361827	-50.136098	17.361827	-0.123065	-96.377071
3.300000	-0.178390	-170.198482	-49.883378	16.623686	-49.883378	16.623686	-0.125037	-97.743174
3.350000	-0.180410	-172.374749	-49.630555	15.806969	-49.630555	15.806969	-0.127031	-99.106297
3.400000	-0.182461	-174.549812	-49.378442	14.913781	-49.378442	14.913781	-0.129050	-100.466519
3.450000	-0.184548	-176.724258	-49.127757	13.946559	-49.127757	13.946559	-0.131093	-101.823921
3.500000	-0.186673	-178.898672	-48.879127	12.907959	-48.879127	12.907959	-0.133163	-103.178587
3.550000	-0.188840	178.926369	-48.633091	11.800765	-48.633091	11.800765	-0.135261	-104.530603
3.600000	-0.191051	176.750290	-48.390112	10.627818	-48.390112	10.627818	-0.137386	-105.880058
3.650000	-0.193309	174.572520	-48.150574	9.391948	-48.150574	9.391948	-0.139541	-107.227044
3.700000	-0.195616	172.392495	-47.914798	8.095926	-47.914798	8.095926	-0.141726	-108.571655
3.750000	-0.197976	170.209654	-47.683047	6.742425	-47.683047	6.742425	-0.143942	-109.913988
3.800000	-0.200394	168.023272	-47.455467	5.331711	-47.455467	5.331711	-0.146191	-111.254051
3.850000	-0.202868	165.832924	-47.232315	3.868653	-47.232315	3.868653	-0.148473	-112.592047
3.900000	-0.205401	163.638070	-47.013713	2.355450	-47.013713	2.355450	-0.150789	-113.928080
3.950000	-0.207996	161.438177	-46.799747	0.794124	-46.799747	0.794124	-0.153138	-115.262257
4.000000	-0.210653	159.232720	-46.590476	-0.813485	-46.590476	-0.813485	-0.155523	-116.594687
4.050000	-0.213374	157.021180	-46.385939	-2.465720	-46.385939	-2.465720	-0.157943	-117.925482
4.100000	-0.216161	154.803049	-46.186151	-4.161108	-46.186151	-4.161108	-0.160399	-119.254757
4.150000	-0.219015	152.577827	-45.991118	-5.898354	-45.991118	-5.898354	-0.162892	-120.582629
4.200000	-0.221936	150.345024	-45.800830	-7.676337	-45.800830	-7.676337	-0.165421	-121.909215
4.250000	-0.224925	148.104159	-45.615271	-9.494104	-45.615271	-9.494104	-0.167989	-123.234638
4.300000	-0.227984	145.854764	-45.434418	-11.350862	-45.434418	-11.350862	-0.170595	-124.559022
4.350000	-0.231111	143.596381	-45.258245	-13.245975	-45.258245	-13.245975	-0.173239	-125.882491
4.400000	-0.234307	141.328564	-45.086724	-15.178948	-45.086724	-15.178948	-0.175922	-127.205175
4.450000	-0.237571	139.050881	-44.919827	-17.149428	-44.919827	-17.149428	-0.178645	-128.527204
4.500000	-0.240904	136.762914	-44.757528	-19.157187	-44.757528	-19.157187	-0.181407	-129.848710
4.550000	-0.244304	134.464258	-44.599804	-21.202121	-44.599804	-21.202121	-0.184210	-131.169829
4.600000	-0.247770	132.154525	-44.446635	-23.284235	-44.446635	-23.284235	-0.187054	-132.490696
4.650000	-0.251301	129.833342	-44.298007	-25.403640	-44.298007	-25.403640	-0.189938	-133.811453
4.700000	-0.254895	127.500354	-44.153910	-27.560542	-44.153910	-27.560542	-0.192864	-135.132239
4.750000	-0.258551	125.155224	-44.014341	-29.755233	-44.014341	-29.755233	-0.195832	-136.453198
4.800000	-0.262265	122.797634	-43.879302	-31.988085	-43.879302	-31.988085	-0.198842	-137.774477
4.850000	-0.266037	120.427285	-43.748804	-34.259538	-43.748804	-34.259538	-0.201894	-139.096221
4.900000	-0.269863	118.043900	-43.622862	-36.570098	-43.622862	-36.570098	-0.204988	-140.418583
4.950000	-0.273741	115.647225	-43.501498	-38.920322	-43.501498	-38.920322	-0.208126	-141.741712
5.000000	-0.277668	113.237027	-43.384740	-41.310816	-43.384740	-41.310816	-0.211307	-143.065763
5.050000	-0.281640	110.812643	-43.272730	-43.743586	-43.272730	-43.743586	-0.214533	-144.390933
5.100000	-0.285655	108.374334	-43.165410	-46.217990	-43.165410	-46.217990	-0.217803	-145.717350
5.150000	-0.289708	105.921948	-43.062822	-48.734727	-43.062822	-48.734727	-0.221117	-147.045174
5.200000	-0.293795	103.455356	-42.965012	-51.294510	-42.965012	-51.294510	-0.224476	-148.374567
5.250000	-0.297912	100.974460	-42.872026	-53.898057	-42.872026	-53.898057	-0.227880	-149.705692
5.300000	-0.302056	98.479189	-42.783912	-56.546089	-42.783912	-56.546089	-0.231329	-151.038716
5.350000	-0.306224	95.969504	-42.700717	-59.239316	-42.700717	-59.239316	-0.234823	-152.373807
5.400000	-0.310409	93.445394	-42.622483	-61.978438	-42.622483	-61.978438	-0.238363	-153.711135
5.450000	-0.314610	90.906881	-42.549251	-64.764131	-42.549251	-64.764131	-0.241948	-155.050871
5.500000	-0.318822	88.354018	-42.481049	-67.597048	-42.481049	-67.597048	-0.245580	-156.393190
5.550000	-0.323042	85.786890	-42.417902	-70.477812	-42.417902	-70.477812	-0.249259	-157.738267
5.600000	-0.327265	83.205616	-42.359818	-73.407008	-42.359818	-73.407008	-0.252984	-159.086279
5.650000	-0.331490	80.610198	-42.306846	-76.385721	-42.306846	-76.385721	-0.256757	-160.437442
5.700000	-0.335712	78.000826	-42.258964	-79.414472	-42.258964	-79.414472	-0.260577	-161.791943
5.750000	-0.339930	75.377873	-42.216080	-82.493186	-42.216080	-82.493186	-0.264445	-163.149932
5.800000	-0.344141	72.741591	-42.178127	-85.622275	-42.178127	-85.622275	-0.268361	-164.511595
5.850000	-0.348344	70.092265	-42.145016	-88.802109	-42.145016	-88.802109	-0.272325	-165.877117
5.900000	-0.352537	67.430214	-42.116628	-92.033015	-42.116628	-92.033015	-0.276336	-167.246688
5.950000	-0.356720	64.755784	-42.092817	-95.315281	-42.092817	-95.315281	-0.280396	-168.620498
6.000000	-0.360893	62.069354	-42.073402	-98.649168	-42.073402	-98.649168	-0.284505	-169.998741
6.050000	-0.365057	59.371333	-42.058170	-102.034913	-42.058170	-102.034913	-0.288662	-171.381609
6.100000	-0.369214	56.662155	-42.046874	-105.472750	-42.046874	-105.472750	-0.292868	-172.769299
6.150000	-0.373366	53.942281	-42.039229	-108.962927	-42.039229	-108.962927	-0.297122	-174.162008
6.200000	-0.377517	51.212197	-42.034914	-112.505729	-42.034914	-112.505729	-0.301426	-175.559936
6.250000	-0.381670	48.472411	-42.033569	-116.101518	-42.033569	-116.101518	-0.305779	-176.963284
6.300000	-0.385833	45.723167	-42.034865	-119.752538	-42.034865	-119.752538	-0.310183	-178.372444
6.350000	-0.390010	42.965330	-42.038258	-123.457750	-42.038258	-123.457750	-0.314636	-179.787444
6.400000	-0.394210	40.199462	-42.043255	-127.218103	-42.043255	-127.218103	-0.319139	178.791509
6.450000	-0.398442	37.426135	-42.049305	-131.034904	-42.049305	-131.034904	-0.323691	177.364208
6.500000	-0.402712	34.646281	-42.055793	-134.906682	-42.055793	-134.906682	-0.328290	175.930803
6.550000	-0.407035	31.859808	-42.062060	-138.841424	-42.062060	-138.841424	-0.332941	174.490451
6.600000	-0.411421	29.067612	-42.067250	-142.839628	-42.067250	-142.839628	-0.337642	173.043218
6.650000	-0.415884	26.270274	-42.070366	-146.905035	-42.070366	-146.905035	-0.342392	171.588892
6.700000	-0.420439	23.468370	-42.070182	-151.042130	-42.070182	-151.042130	-0.347193	170.127256
6.750000	-0.425100	20.662465	-42.065154	-155.255985	-42.065154	-155.255985	-0.352043	168.658097
6.800000	-0.429884	17.853107	-42.053327	-159.551875	-42.053327	-159.551875	-0.356944	167.181195
6.850000	-0.434809	15.040827	-42.032241	-163.934532	-42.032241	-163.934532	-0.361894	165.696334
6.900000	-0.439896	12.226108	-41.998668	-168.407935	-41.998668	-168.407935	-0.366896	164.203202
6.950000	-0.445167	9.409440	-41.948805	-172.971471	-41.948805	-172.971471	-0.371949	162.701572
7.000000	-0.450639	6.591289	-41.878604	-177.617787	-41.878604	-177.617787	-0.377053	161.191310
7.050000	-0.456336	3.772051	-41.783673	177.667152	-41.783673	177.667152	-0.382209	159.672195
7.100000	-0.462282	0.952081	-41.659886	172.906303	-41.659886	172.906303	-0.387416	158.144003
7.150000	-0.468500	-1.868320	-41.503970	168.131315	-41.503970	168.131315	-0.392676	156.606510
7.200000	-0.475017	-4.688908	-41.314085	163.380276	-41.314085	163.380276	-0.397989	155.059492
7.250000	-0.481859	-7.509501	-41.090209	158.693606	-41.090209	158.693606	-0.403356	153.502722
7.300000	-0.489055	-10.329986	-40.834175	154.109004	-40.834175	154.109004	-0.408778	151.935974
7.350000	-0.496633	-13.150326	-40.549332	149.656874	-40.549332	149.656874	-0.414256	150.359021
7.400000	-0.504625	-15.970568	-40.239942	145.357466	-40.239942	145.357466	-0.419792	148.771636
7.450000	-0.513060	-18.790849	-39.910496	141.220257	-39.910496	141.220257	-0.425387	147.173589
7.500000	-0.521974	-21.611405	-39.565141	137.245290	-39.565141	137.245290	-0.431044	145.564652
7.550000	-0.531413	-24.432603	-39.206769	133.428747	-39.206769	133.428747	-0.436766	143.944347
7.600000	-0.541403	-27.254909	-38.838539	129.755702	-38.838539	129.755702	-0.442554	142.312679
7.650000	-0.551984	-30.078922	-38.462147	126.213008	-38.462147	126.213008	-0.448413	140.669416
7.700000	-0.563196	-32.905383	-38.078577	122.787345	-38.078577	122.787345	-0.454347	139.014324
7.750000	-0.575086	-35.735188	-37.688262	119.466185	-37.688262	119.466185	-0.460359	137.347166
7.800000	-0.587701	-38.569404	-37.291225	116.238234	-37.291225	116.238234	-0.466456	135.667704
7.850000	-0.601092	-41.409288	-36.887206	113.093546	-36.887206	113.093546	-0.472644	133.975698
7.900000	-0.615318	-44.256301	-36.475754	110.023429	-36.475754	110.023429	-0.478930	132.270901
7.950000	-0.630441	-47.112141	-36.056291	107.020253	-36.056291	107.020253	-0.485323	130.553066
8.000000	-0.646531	-49.978760	-35.628155	104.077217	-35.628155	104.077217	-0.491833	128.821936
8.050000	-0.663668	-52.858405	-35.190622	101.188130	-35.190622	101.188130	-0.498473	127.077251
8.100000	-0.681941	-55.753648	-34.742919	98.347199	-34.742919	98.347199	-0.505256	125.318739
8.150000	-0.701466	-58.667674	-34.283826	95.549248	-34.283826	95.549248	-0.512200	123.545962
8.200000	-0.722366	-61.603987	-33.812393	92.788572	-33.812393	92.788572	-0.519327	121.758616
8.250000	-0.744767	-64.566282	-33.328055	90.059097	-33.328055	90.059097	-0.526656	119.956541
8.300000	-0.768833	-67.559029	-32.829803	87.354989	-32.829803	87.354989	-0.534217	118.139404
8.350000	-0.794739	-70.586965	-32.317003	84.669952	-32.317003	84.669952	-0.542037	116.307001
8.400000	-0.822725	-73.656135	-31.788226	81.997592	-31.788226	81.997592	-0.550159	114.458844
8.450000	-0.853086	-76.773728	-31.241784	79.330706	-31.241784	79.330706	-0.558631	112.594381
8.500000	-0.886217	-79.948870	-30.675223	76.661005	-30.675223	76.661005	-0.567518	110.712840
8.550000	-0.922476	-83.189514	-30.088317	73.979454	-30.088317	73.979454	-0.576880	108.814111
8.600000	-0.962376	-86.506436	-29.479364	71.275986	-29.479364	71.275986	-0.586801	106.897597
8.650000	-1.006558	-89.912323	-28.846479	68.539105	-28.846479	68.539105	-0.597387	104.962618
8.700000	-1.055829	-93.422201	-28.187569	65.755544	-28.187569	65.755544	-0.608765	103.008392
8.750000	-1.111213	-97.053994	-27.500313	62.909829	-27.500313	62.909829	-0.621098	101.034014
8.800000	-1.174316	-100.835049	-26.778834	59.980235	-26.778834	59.980235	-0.634641	99.037661
8.850000	-1.246679	-104.787700	-26.022997	56.946857	-26.022997	56.946857	-0.649630	97.018787
8.900000	-1.330246	-108.938225	-25.232560	53.787236	-25.232560	53.787236	-0.666361	94.976613
8.950000	-1.428807	-113.340234	-24.397262	50.460110	-24.397262	50.460110	-0.685413	92.908017
9.000000	-1.546217	-118.038400	-23.516296	46.928990	-23.516296	46.928990	-0.707356	90.811826
9.050000	-1.688199	-123.096328	-22.585590	43.143965	-22.585590	43.143965	-0.733023	88.686037
9.100000	-1.863336	-128.603267	-21.598324	39.036558	-21.598324	39.036558	-0.763640	86.528147
9.150000	-2.083269	-134.665301	-20.550993	34.526539	-20.550993	34.526539	-0.800797	84.336707
9.200000	-2.365139	-141.423468	-19.440194	29.510281	-19.440194	29.510281	-0.846720	82.111411
9.250000	-2.735812	-149.078647	-18.261359	23.845764	-18.261359	23.845764	-0.904666	79.854618
9.300000	-3.236227	-157.896923	-17.015260	17.356192	-17.015260	17.356192	-0.979015	77.575851
9.350000	-3.932786	-168.261020	-15.707806	9.811428	-15.707806	9.811428	-1.075663	75.298614
9.400000	-4.933334	179.283892	-14.358557	0.941146	-14.358557	0.941146	-1.201328	73.072887
9.450000	-6.423564	163.845461	-13.004653	-9.562908	-13.004653	-9.562908	-1.361709	70.993803
9.500000	-8.724600	143.719842	-11.712560	-21.956534	-11.712560	-21.956534	-1.554921	69.213296
9.550000	-12.361330	114.183007	-10.577060	-36.313828	-10.577060	-36.313828	-1.761186	67.910236
9.600000	-16.986513	58.297907	-9.700758	-52.356107	-9.700758	-52.356107	-1.937229	67.166643
9.650000	-15.757941	-18.636791	-9.149609	-69.452742	-9.149609	-69.452742	-2.035110	66.823828
9.700000	-12.211757	-63.265464	-8.918200	-86.907555	-8.918200	-86.907555	-2.038800	66.541432
9.750000	-10.436841	-94.709710	-8.951180	-104.342549	-8.951180	-104.342549	-1.969550	66.060651
9.800000	-10.183344	-124.249007	-9.200808	-121.798748	-9.200808	-121.798748	-1.854789	65.322943
9.850000	-11.214315	-157.693437	-9.671906	-139.496433	-9.671906	-139.496433	-1.705042	64.353748
9.900000	-12.986535	157.334465	-10.425731	-157.453960	-10.425731	-157.453960	-1.519443	63.109339
9.950000	-12.987603	99.120100	-11.529745	-175.211859	-11.529745	-175.211859	-1.307821	61.463276
10.000000	-10.333460	51.475271	-12.991122	168.059278	-12.991122	168.059278	-1.100194	59.343587
