! freq	dB(S11)	phase(S11)	dB(S12)	phase(S12)	
!     	dB(S21)	phase(S21)	dB(S22)	phase(S22)	
!S-par simulation data
#  GHz  S  DB  R 50
0.000000	-83.069916	0.000000	-0.000610	0.000000	-0.000610	0.000000	-83.069916	0.000000
0.050000	-38.872424	-91.560385	-0.008268	-3.067222	-0.008268	-3.067222	-38.855414	-90.545914
0.100000	-32.903338	-96.457358	-0.013870	-6.113531	-0.013870	-6.113531	-32.887770	-94.412315
0.150000	-29.436061	-100.501283	-0.020860	-9.147213	-0.020860	-9.147213	-29.422199	-97.415527
0.200000	-26.995443	-104.291035	-0.028599	-12.172332	-0.028599	-12.172332	-26.982035	-100.161349
0.250000	-25.118552	-107.965515	-0.037066	-15.191514	-0.037066	-15.191514	-25.104571	-102.789780
0.300000	-23.599534	-111.586543	-0.046332	-18.205800	-0.046332	-18.205800	-23.584398	-105.359348
0.350000	-22.328285	-115.184245	-0.056388	-21.215562	-0.056388	-21.215562	-22.311806	-107.896142
0.400000	-21.240215	-118.771746	-0.067208	-24.220697	-0.067208	-24.220697	-21.222445	-110.409633
0.450000	-20.294764	-122.355444	-0.078761	-27.220864	-0.078761	-27.220864	-20.275903	-112.902573
0.500000	-19.462494	-125.938697	-0.090928	-30.216208	-0.090928	-30.216208	-19.442800	-115.376783
0.550000	-18.723362	-129.523307	-0.103626	-33.206677	-0.103626	-33.206677	-18.703072	-117.831905
0.600000	-18.063650	-133.110990	-0.116778	-36.192026	-0.116778	-36.192026	-18.042947	-120.266152
0.650000	-17.471328	-136.703307	-0.130271	-39.172472	-0.130271	-39.172472	-17.450329	-122.679215
0.700000	-16.937450	-140.301964	-0.144007	-42.148143	-0.144007	-42.148143	-16.916210	-125.070238
0.750000	-16.455753	-143.909166	-0.157891	-45.119022	-0.157891	-45.119022	-16.434282	-127.437351
0.800000	-16.020542	-147.527068	-0.171822	-48.085305	-0.171822	-48.085305	-15.998819	-129.779353
0.850000	-15.627551	-151.158250	-0.185697	-51.047166	-0.185697	-51.047166	-15.605533	-132.094445
0.900000	-15.270671	-154.803411	-0.199441	-54.005306	-0.199441	-54.005306	-15.248307	-134.384189
0.950000	-14.950116	-158.467735	-0.212927	-56.959459	-0.212927	-56.959459	-14.927335	-136.642583
1.000000	-14.659855	-162.150908	-0.226113	-59.910559	-0.226113	-59.910559	-14.636590	-138.872688
1.050000	-14.399986	-165.858156	-0.238877	-62.858693	-0.238877	-62.858693	-14.376149	-141.069293
1.100000	-14.167299	-169.591190	-0.251162	-65.804541	-0.251162	-65.804541	-14.142801	-143.232454
1.150000	-13.961161	-173.354918	-0.262867	-68.748582	-0.262867	-68.748582	-13.935892	-145.358241
1.200000	-13.779588	-177.152378	-0.273938	-71.691510	-0.273938	-71.691510	-13.753427	-147.445232
1.250000	-13.620642	179.013753	-0.284339	-74.634018	-0.284339	-74.634018	-13.593459	-149.492357
1.300000	-13.483185	175.139573	-0.294027	-77.576786	-0.294027	-77.576786	-13.454835	-151.497187
1.350000	-13.366215	171.220883	-0.302963	-80.520530	-0.302963	-80.520530	-13.336534	-153.457064
1.400000	-13.268841	167.253170	-0.311119	-83.465998	-0.311119	-83.465998	-13.237644	-155.369066
1.450000	-13.190369	163.231215	-0.318471	-86.413983	-0.318471	-86.413983	-13.157450	-157.229642
1.500000	-13.131847	159.142963	-0.324924	-89.365723	-0.324924	-89.365723	-13.096945	-159.029087
1.550000	-13.090627	154.988757	-0.330570	-92.321738	-0.330570	-92.321738	-13.053481	-160.769110
1.600000	-13.066067	150.762453	-0.335419	-95.282853	-0.335419	-95.282853	-13.026386	-162.445299
1.650000	-13.057542	146.457470	-0.339494	-98.249894	-0.339494	-98.249894	-13.015002	-164.052808
1.700000	-13.063825	142.070447	-0.342855	-101.223386	-0.342855	-101.223386	-13.018080	-165.589490
1.750000	-13.085993	137.583340	-0.345461	-104.204993	-0.345461	-104.204993	-13.036611	-167.040531
1.800000	-13.122404	132.992745	-0.347409	-107.195156	-0.347409	-107.195156	-13.068928	-168.403642
1.850000	-13.172249	128.289739	-0.348764	-110.194684	-0.348764	-110.194684	-13.114170	-169.671679
1.900000	-13.234729	123.463484	-0.349595	-113.204477	-0.349595	-113.204477	-13.171472	-170.835790
1.950000	-13.308728	118.503804	-0.349989	-116.225298	-0.349989	-116.225298	-13.239657	-171.887605
2.000000	-13.392852	113.401863	-0.350044	-119.257732	-0.350044	-119.257732	-13.317270	-172.819817
2.050000	-13.485609	108.147367	-0.349862	-122.302421	-0.349862	-122.302421	-13.402754	-173.623871
2.100000	-13.585236	102.730136	-0.349551	-125.359949	-0.349551	-125.359949	-13.494282	-174.291335
2.150000	-13.689661	97.140441	-0.349227	-128.430836	-0.349227	-128.430836	-13.589725	-174.814252
2.200000	-13.796457	91.369456	-0.349013	-131.515532	-0.349013	-131.515532	-13.686619	-175.185591
2.250000	-13.902826	85.409833	-0.349033	-134.614415	-0.349033	-134.614415	-13.782146	-175.399821
2.300000	-14.005582	79.256398	-0.349419	-137.727780	-0.349419	-137.727780	-13.873139	-175.453583
2.350000	-14.101174	72.906956	-0.350301	-140.855841	-0.350301	-140.855841	-13.956114	-175.346451
2.400000	-14.185744	66.363163	-0.351813	-143.998728	-0.351813	-143.998728	-14.027335	-175.081721
2.450000	-14.255223	59.631384	-0.354088	-147.156481	-0.354088	-147.156481	-14.082924	-174.667164
2.500000	-14.305493	52.723435	-0.357255	-150.329053	-0.357255	-150.329053	-14.119024	-174.115614
2.550000	-14.331995	45.654161	-0.361466	-153.516622	-0.361466	-153.516622	-14.131415	-173.443244
2.600000	-14.331608	38.451543	-0.366823	-156.718641	-0.366823	-156.718641	-14.117353	-172.676886
2.650000	-14.301449	31.145144	-0.373439	-159.934798	-0.373439	-159.934798	-14.074356	-171.844966
2.700000	-14.239531	23.768827	-0.381417	-163.164709	-0.381417	-163.164709	-14.000819	-170.979334
2.750000	-14.144937	16.359114	-0.390853	-166.407914	-0.390853	-166.407914	-13.896154	-170.113679
2.800000	-14.017905	8.953196	-0.401828	-169.663892	-0.401828	-169.663892	-13.760840	-169.281704
2.850000	-13.859804	1.586867	-0.414411	-172.932068	-0.414411	-172.932068	-13.596379	-168.515296
2.900000	-13.673014	-5.707371	-0.428654	-176.211823	-0.428654	-176.211823	-13.405162	-167.842917
2.950000	-13.460722	-12.901768	-0.444596	-179.502507	-0.444596	-179.502507	-13.190281	-167.288397
3.000000	-13.226679	-19.974254	-0.462256	177.196549	-0.462256	177.196549	-12.955299	-166.870240
3.050000	-12.974940	-26.908781	-0.481638	173.886015	-0.481638	173.886015	-12.704020	-166.601421
3.100000	-12.709631	-33.695166	-0.502725	170.566551	-0.502725	170.566551	-12.440283	-166.489628
3.150000	-12.434598	-40.326886	-0.525499	167.238706	-0.525499	167.238706	-12.167642	-166.539529
3.200000	-12.153689	-46.803779	-0.549904	163.903084	-0.549904	163.903084	-11.889647	-166.749901
3.250000	-11.870474	-53.131148	-0.575850	160.560296	-0.575850	160.560296	-11.609592	-167.114544
3.300000	-11.587924	-59.315432	-0.603243	157.210780	-0.603243	157.210780	-11.330211	-167.626635
3.350000	-11.308546	-65.363126	-0.631994	153.854778	-0.631994	153.854778	-11.053803	-168.279758
3.400000	-11.034679	-71.291115	-0.661913	150.492860	-0.661913	150.492860	-10.782548	-169.057112
3.450000	-10.767894	-77.101528	-0.692939	147.124689	-0.692939	147.124689	-10.517861	-169.957569
3.500000	-10.509824	-82.809243	-0.724881	143.750343	-0.724881	143.750343	-10.261254	-170.967177
3.550000	-10.261397	-88.430875	-0.757545	140.370000	-0.757545	140.370000	-10.013611	-172.070063
3.600000	-10.024063	-93.967320	-0.790814	136.982340	-0.790814	136.982340	-9.776201	-173.268174
3.650000	-9.798036	-99.440758	-0.824444	133.587628	-0.824444	133.587628	-9.549275	-174.540076
3.700000	-9.583967	-104.859586	-0.858265	130.184831	-0.858265	130.184831	-9.333403	-175.879903
3.750000	-9.382729	-110.234098	-0.892058	126.772347	-0.892058	126.772347	-9.129349	-177.281045
3.800000	-9.193810	-115.579643	-0.925650	123.349885	-0.925650	123.349885	-8.936667	-178.729425
3.850000	-9.018276	-120.905603	-0.958797	119.914790	-0.958797	119.914790	-8.756261	179.778780
3.900000	-8.855821	-126.225907	-0.991317	116.465756	-0.991317	116.465756	-8.587834	178.254449
3.950000	-8.706086	-131.551843	-1.023067	113.001427	-1.023067	113.001427	-8.431031	176.705867
4.000000	-8.570550	-136.899034	-1.053710	109.516898	-1.053710	109.516898	-8.287068	175.138671
4.050000	-8.447729	-142.278194	-1.083228	106.011939	-1.083228	106.011939	-8.154585	173.562846
4.100000	-8.338300	-147.704929	-1.111387	102.482210	-1.111387	102.482210	-8.034067	171.985146
4.150000	-8.242559	-153.197153	-1.137996	98.923178	-1.137996	98.923178	-7.925637	170.414188
4.200000	-8.159443	-158.764633	-1.163076	95.333516	-1.163076	95.333516	-7.828252	168.856851
4.250000	-8.090348	-164.435663	-1.186333	91.704655	-1.186333	91.704655	-7.742887	167.323861
4.300000	-8.034164	-170.222507	-1.207854	88.034403	-1.207854	88.034403	-7.668390	165.822631
4.350000	-7.990692	-176.143755	-1.227636	84.317987	-1.227636	84.317987	-7.604344	164.361555
4.400000	-7.961052	177.759418	-1.245533	80.543482	-1.245533	80.543482	-7.551267	162.956581
4.450000	-7.943447	171.480844	-1.261859	76.710655	-1.261859	76.710655	-7.507363	161.612347
4.500000	-7.938475	164.976015	-1.276652	72.807030	-1.276652	72.807030	-7.472568	160.346033
4.550000	-7.945417	158.209272	-1.290214	68.823501	-1.290214	68.823501	-7.445673	159.172026
4.600000	-7.962686	151.163435	-1.302974	64.756552	-1.302974	64.756552	-7.424877	158.097641
4.650000	-7.990248	143.751423	-1.315410	60.582365	-1.315410	60.582365	-7.408919	157.154752
4.700000	-8.024929	135.973688	-1.328256	56.302978	-1.328256	56.302978	-7.394756	156.342895
4.750000	-8.064698	127.739010	-1.342491	51.893980	-1.342491	51.893980	-7.379281	155.692916
4.800000	-8.105385	118.997067	-1.359367	47.342637	-1.359367	47.342637	-7.358053	155.218424
4.850000	-8.141138	109.661302	-1.380722	42.625320	-1.380722	42.625320	-7.324857	154.941179
4.900000	-8.164887	99.699035	-1.408414	37.731907	-1.408414	37.731907	-7.273385	154.859529
4.950000	-8.167110	89.038419	-1.445179	32.638622	-1.445179	32.638622	-7.195123	154.977037
5.000000	-8.134865	77.603436	-1.494867	27.315429	-1.494867	27.315429	-7.079183	155.285477
5.050000	-8.053059	65.353836	-1.562292	21.734447	-1.562292	21.734447	-6.914057	155.749546
5.100000	-7.906781	52.294692	-1.653192	15.871250	-1.653192	15.871250	-6.689619	156.305620
5.150000	-7.681493	38.456318	-1.775212	9.696551	-1.775212	9.696551	-6.396765	156.864342
5.200000	-7.364931	23.902440	-1.938842	3.176141	-1.938842	3.176141	-6.028652	157.305231
5.250000	-6.954883	8.755299	-2.156206	-3.711500	-2.156206	-3.711500	-5.586622	157.490840
5.300000	-6.457932	-6.849778	-2.442836	-10.984007	-2.442836	-10.984007	-5.078305	157.280588
5.350000	-5.889329	-22.778975	-2.819208	-18.652298	-2.819208	-18.652298	-4.517485	156.540333
5.400000	-5.275199	-38.904957	-3.308447	-26.698793	-3.308447	-26.698793	-3.926222	155.181014
5.450000	-4.645827	-55.125473	-3.938223	-35.079792	-3.938223	-35.079792	-3.329824	153.161803
5.500000	-4.031881	-71.356899	-4.742786	-43.718746	-4.742786	-43.718746	-2.754141	150.487755
5.550000	-3.461973	-87.524479	-5.760423	-52.488339	-5.760423	-52.488339	-2.223326	147.228329
5.600000	-2.958323	-103.557506	-7.037340	-61.208609	-7.037340	-61.208609	-1.755894	143.496138
5.650000	-2.536260	-119.383118	-8.635710	-69.623592	-8.635710	-69.623592	-1.364059	139.423691
5.700000	-2.202953	-134.932621	-10.645389	-77.344931	-10.645389	-77.344931	-1.052361	135.155362
5.750000	-1.956127	-150.149170	-13.219429	-83.692246	-13.219429	-83.692246	-0.818122	130.825264
5.800000	-1.783312	-164.969757	-16.644230	-86.902073	-16.644230	-86.902073	-0.656904	126.554013
5.850000	-1.675434	-179.382514	-21.454004	-81.118052	-21.454004	-81.118052	-0.556527	122.423908
5.900000	-1.619714	166.617834	-26.513585	-42.797414	-26.513585	-42.797414	-0.505264	118.491461
5.950000	-1.602700	153.018266	-23.583041	4.845911	-23.583041	4.845911	-0.490846	114.783340
6.000000	-1.612634	139.805446	-19.412088	15.741023	-19.412088	15.741023	-0.502695	111.308516
6.050000	-1.639107	126.963238	-16.691025	15.239971	-16.691025	15.239971	-0.531563	108.060145
6.100000	-1.673495	114.478153	-14.857659	11.441557	-14.857659	11.441557	-0.569889	105.021455
6.150000	-1.708988	102.341486	-13.566636	6.426391	-13.566636	6.426391	-0.611756	102.169783
6.200000	-1.740508	90.549943	-12.635749	0.917991	-12.635749	0.917991	-0.652746	99.479589
6.250000	-1.764477	79.108014	-11.961905	-4.775721	-11.961905	-4.775721	-0.689698	96.925546
6.300000	-1.778816	68.019170	-11.479181	-10.503242	-11.479181	-10.503242	-0.720622	94.481235
6.350000	-1.782644	57.289355	-11.144403	-16.185356	-11.144403	-16.185356	-0.744463	92.122804
6.400000	-1.775980	46.925729	-10.927937	-21.777067	-10.927937	-21.777067	-0.760863	89.829418
6.450000	-1.759540	36.934126	-10.808284	-27.251459	-10.808284	-27.251459	-0.770001	87.583202
6.500000	-1.734506	27.317976	-10.769295	-32.592022	-10.769295	-32.592022	-0.772433	85.369364
6.550000	-1.702329	18.077667	-10.798481	-37.788642	-10.798481	-37.788642	-0.768958	83.176117
6.600000	-1.664568	9.210294	-10.885951	-42.835382	-10.885951	-42.835382	-0.760500	80.994458
6.650000	-1.622755	0.709740	-11.023724	-47.729180	-11.023724	-47.729180	-0.748022	78.817832
6.700000	-1.578300	-7.430048	-11.205554	-52.467734	-11.205554	-52.467734	-0.732435	76.641743
6.750000	-1.532492	-15.222439	-11.425742	-57.052321	-11.425742	-57.052321	-0.714627	74.463375
6.800000	-1.486407	-22.682436	-11.679650	-61.485289	-11.679650	-61.485289	-0.695366	72.281279
6.850000	-1.440898	-29.828083	-11.963384	-65.770659	-11.963384	-65.770659	-0.675301	70.095013
6.900000	-1.396693	-36.663656	-12.274481	-69.905852	-12.274481	-69.905852	-0.654954	67.904614
6.950000	-1.354259	-43.218484	-12.609702	-73.900535	-12.609702	-73.900535	-0.634766	65.710899
7.000000	-1.313950	-49.508328	-12.967149	-77.758013	-12.967149	-77.758013	-0.615055	63.514742
7.050000	-1.276132	-55.536992	-13.345441	-81.474911	-13.345441	-81.474911	-0.596107	61.317125
7.100000	-1.240865	-61.331398	-13.743089	-85.060179	-13.743089	-85.060179	-0.578077	59.119211
7.150000	-1.208203	-66.908347	-14.159294	-88.517499	-14.159294	-88.517499	-0.561078	56.922029
7.200000	-1.178289	-72.272720	-14.593364	-91.842744	-14.593364	-91.842744	-0.545242	54.726668
7.250000	-1.151059	-77.442487	-15.045020	-95.039205	-15.045020	-95.039205	-0.530599	52.534052
7.300000	-1.126362	-82.438002	-15.514589	-98.111982	-15.514589	-98.111982	-0.517120	50.344859
7.350000	-1.104118	-87.271631	-16.002586	-101.060513	-16.002586	-101.060513	-0.504802	48.159735
7.400000	-1.084238	-91.955104	-16.509847	-103.882953	-16.509847	-103.882953	-0.493624	45.979226
7.450000	-1.066625	-96.499537	-17.037553	-106.575885	-17.037553	-106.575885	-0.483559	43.803786
7.500000	-1.051182	-100.915457	-17.587261	-109.133944	-17.587261	-109.133944	-0.474573	41.633778
7.550000	-1.037985	-105.203003	-18.159783	-111.536045	-18.159783	-111.536045	-0.466719	39.470004
7.600000	-1.026784	-109.381370	-18.758364	-113.779617	-18.758364	-113.779617	-0.459879	37.312277
7.650000	-1.017487	-113.459807	-19.385961	-115.847774	-19.385961	-115.847774	-0.454012	35.160728
7.700000	-1.010015	-117.447110	-20.046142	-117.717416	-20.046142	-117.717416	-0.449083	33.015426
7.750000	-1.004297	-121.351675	-20.743160	-119.357006	-20.743160	-119.357006	-0.445057	30.876381
7.800000	-1.000272	-125.181549	-21.482026	-120.723338	-21.482026	-120.723338	-0.441903	28.743552
7.850000	-0.997893	-128.944485	-22.268520	-121.756765	-22.268520	-121.756765	-0.439597	26.616849
7.900000	-0.997122	-132.647996	-23.109088	-122.374080	-23.109088	-122.374080	-0.438117	24.496136
7.950000	-0.997940	-136.299416	-24.010398	-122.457855	-24.010398	-122.457855	-0.437448	22.381232
8.000000	-1.000339	-139.905960	-24.978175	-121.840661	-24.978175	-121.840661	-0.437580	20.271913
8.050000	-1.004331	-143.474789	-26.014392	-120.282912	-26.014392	-120.282912	-0.438512	18.167913
8.100000	-1.009943	-147.013083	-27.110963	-117.446582	-27.110963	-117.446582	-0.440248	16.068917
8.150000	-1.017227	-150.528116	-28.236633	-112.881360	-28.236633	-112.881360	-0.442801	13.974565
8.200000	-1.026257	-154.027345	-29.313628	-106.080728	-29.313628	-106.080728	-0.446195	11.884446
8.250000	-1.037136	-157.518513	-30.190656	-96.726902	-30.190656	-96.726902	-0.450462	9.798095
8.300000	-1.049998	-161.009759	-30.652493	-85.172149	-30.652493	-85.172149	-0.455647	7.714984
8.350000	-1.064882	-164.508573	-30.560622	-72.672713	-30.560622	-72.672713	-0.461750	5.634414
8.400000	-1.082181	-168.025088	-29.861652	-61.156562	-29.861652	-61.156562	-0.468927	3.555934
8.450000	-1.102368	-171.572610	-28.732574	-52.279820	-28.732574	-52.279820	-0.477355	1.478763
8.500000	-1.125430	-175.158151	-27.449464	-45.893946	-27.449464	-45.893946	-0.486998	-0.598067
8.550000	-1.152075	-178.798217	-26.125101	-41.766040	-26.125101	-41.766040	-0.498119	-2.675516
8.600000	-1.182824	177.493494	-24.830763	-39.335779	-24.830763	-39.335779	-0.510890	-4.754635
8.650000	-1.218326	173.701644	-23.593554	-38.129815	-23.593554	-38.129815	-0.525517	-6.836574
8.700000	-1.259531	169.806526	-22.414532	-37.870580	-22.414532	-37.870580	-0.542323	-8.922600
8.750000	-1.308070	165.776715	-21.283327	-38.375533	-21.283327	-38.375533	-0.561859	-11.014500
8.800000	-1.365363	161.587024	-20.195785	-39.464571	-20.195785	-39.464571	-0.584572	-13.113677
8.850000	-1.433262	157.207379	-19.144968	-41.039068	-19.144968	-41.039068	-0.611034	-15.221468
8.900000	-1.514477	152.595986	-18.121661	-43.050295	-18.121661	-43.050295	-0.642084	-17.339354
8.950000	-1.614319	147.672106	-17.109205	-45.504846	-17.109205	-45.504846	-0.679373	-19.469547
9.000000	-1.736822	142.388172	-16.108760	-48.365716	-16.108760	-48.365716	-0.723974	-21.611537
9.050000	-1.888933	136.658901	-15.114436	-51.651894	-15.114436	-51.651894	-0.777767	-23.764355
9.100000	-2.081949	130.349459	-14.117479	-55.419165	-14.117479	-55.419165	-0.843693	-25.924675
9.150000	-2.332808	123.270975	-13.111879	-59.748351	-13.111879	-59.748351	-0.925752	-28.082611
9.200000	-2.657528	115.283060	-12.108119	-64.676056	-12.108119	-64.676056	-1.026720	-30.220977
9.250000	-3.093133	105.999562	-11.101118	-70.370483	-11.101118	-70.370483	-1.153281	-32.302920
9.300000	-3.684130	94.987960	-10.106037	-76.962222	-10.106037	-76.962222	-1.310198	-34.265020
9.350000	-4.489184	81.629560	-9.148353	-84.582531	-9.148353	-84.582531	-1.499391	-36.008225
9.400000	-5.582358	64.811960	-8.266701	-93.383803	-8.266701	-93.383803	-1.715793	-37.376189
9.450000	-6.984953	43.022646	-7.516851	-103.358608	-7.516851	-103.358608	-1.936894	-38.219518
9.500000	-8.488767	13.817294	-6.967841	-114.385954	-6.967841	-114.385954	-2.117704	-38.442555
9.550000	-9.316071	-23.160502	-6.678068	-126.054424	-6.678068	-126.054424	-2.202970	-38.204720
9.600000	-8.720064	-60.910464	-6.672343	-137.773891	-6.672343	-137.773891	-2.163234	-37.917765
9.650000	-7.282834	-91.401184	-6.928212	-148.944774	-6.928212	-148.944774	-2.019886	-38.017848
9.700000	-5.861476	-114.149124	-7.387617	-159.139542	-7.387617	-159.139542	-1.825904	-38.710541
9.750000	-4.737520	-131.522224	-7.979657	-168.195918	-7.979657	-168.195918	-1.629129	-39.942824
9.800000	-3.905148	-145.278856	-8.644852	-176.130153	-8.644852	-176.130153	-1.455271	-41.563024
9.850000	-3.298626	-156.510662	-9.339437	176.944068	-9.339437	176.944068	-1.312709	-43.422823
9.900000	-2.854969	-165.927459	-10.034545	170.872492	-10.034545	170.872492	-1.200432	-45.412097
9.950000	-2.523653	-174.043254	-10.716342	165.480318	-10.716342	165.480318	-1.113087	-47.460861
10.000000	-2.275113	178.958483	-11.365808	160.725568	-11.365808	160.725568	-1.047275	-49.484678
