! freq	dB(S11)	phase(S11)	dB(S12)	phase(S12)	
!     	dB(S21)	phase(S21)	dB(S22)	phase(S22)	
!S-par simulation data
#  GHz  S  DB  R 50
0.000000	-0.000000	-0.000000	-315.671483	180.000000	-315.671483	180.000000	-0.000000	-0.000000
0.050000	-0.001743	-2.634942	-92.398664	88.136013	-92.398664	88.136013	-0.000804	-1.271525
0.100000	-0.005842	-5.256168	-86.400302	86.211262	-86.400302	86.211262	-0.002731	-2.537084
0.150000	-0.010481	-7.862122	-82.916062	84.308471	-82.916062	84.308471	-0.004965	-3.795883
0.200000	-0.014740	-10.457273	-80.472547	82.421879	-80.472547	82.421879	-0.007053	-5.050000
0.250000	-0.018552	-13.046572	-78.601601	80.551378	-78.601601	80.551378	-0.008933	-6.301876
0.300000	-0.022002	-15.631564	-77.099774	78.701046	-77.099774	78.701046	-0.010631	-7.552498
0.350000	-0.025229	-18.212921	-75.857385	76.874852	-75.857385	76.874852	-0.012210	-8.802415
0.400000	-0.028338	-20.790540	-74.809612	75.077627	-74.809612	75.077627	-0.013719	-10.051800
0.450000	-0.031397	-23.363588	-73.918383	73.317940	-73.918383	73.317940	-0.015194	-11.300581
0.500000	-0.034449	-25.931897	-73.150518	71.598159	-73.150518	71.598159	-0.016658	-12.548697
0.550000	-0.037508	-28.494877	-72.485786	69.924278	-72.485786	69.924278	-0.018123	-13.796003
0.600000	-0.040579	-31.051940	-71.909367	68.302939	-71.909367	68.302939	-0.019594	-15.042342
0.650000	-0.043661	-33.602518	-71.410123	66.741544	-71.410123	66.741544	-0.021074	-16.287557
0.700000	-0.046747	-36.146070	-70.979514	65.248392	-70.979514	65.248392	-0.022564	-17.531498
0.750000	-0.049832	-38.681599	-70.613539	63.838281	-70.613539	63.838281	-0.024063	-18.773923
0.800000	-0.052906	-41.208613	-70.306577	62.523193	-70.306577	62.523193	-0.025570	-20.014687
0.850000	-0.055964	-43.727636	-70.049438	61.304294	-70.049438	61.304294	-0.027084	-21.253854
0.900000	-0.058997	-46.237267	-69.843614	60.208763	-69.843614	60.208763	-0.028604	-22.491104
0.950000	-0.062000	-48.737489	-69.684373	59.249476	-69.684373	59.249476	-0.030128	-23.726398
1.000000	-0.064968	-51.227971	-69.569097	58.446313	-69.569097	58.446313	-0.031656	-24.959636
1.050000	-0.067897	-53.708419	-69.495337	57.822279	-69.495337	57.822279	-0.033186	-26.190725
1.100000	-0.070784	-56.178577	-69.460624	57.403955	-69.460624	57.403955	-0.034717	-27.419581
1.150000	-0.073627	-58.638218	-69.462239	57.221924	-69.462239	57.221924	-0.036249	-28.646127
1.200000	-0.076424	-61.087152	-69.496947	57.311070	-69.496947	57.311070	-0.037780	-29.870291
1.250000	-0.079174	-63.525216	-69.560658	57.710612	-69.560658	57.710612	-0.039311	-31.092007
1.300000	-0.081876	-65.952037	-69.648332	58.472339	-69.648332	58.472339	-0.040840	-32.311159
1.350000	-0.084532	-68.367750	-69.752053	59.635006	-69.752053	59.635006	-0.042366	-33.527743
1.400000	-0.087142	-70.772282	-69.862157	61.243119	-69.862157	61.243119	-0.043890	-34.741707
1.450000	-0.089709	-73.165583	-69.966097	63.334816	-69.966097	63.334816	-0.045411	-35.953001
1.500000	-0.092233	-75.547631	-70.048168	65.933714	-70.048168	65.933714	-0.046929	-37.161580
1.550000	-0.094716	-77.918426	-70.089771	69.038214	-70.089771	69.038214	-0.048443	-38.367399
1.600000	-0.097161	-80.277992	-70.070578	72.609936	-70.070578	72.609936	-0.049953	-39.570417
1.650000	-0.099569	-82.626373	-69.970804	76.564980	-69.970804	76.564980	-0.051460	-40.770596
1.700000	-0.101943	-84.963638	-69.774396	80.773154	-69.774396	80.773154	-0.052963	-41.967898
1.750000	-0.104286	-87.289871	-69.472271	85.069115	-69.472271	85.069115	-0.054462	-43.162287
1.800000	-0.106601	-89.605179	-69.064358	89.274783	-69.064358	89.274783	-0.055958	-44.353730
1.850000	-0.108888	-91.909687	-68.559504	93.226369	-68.559504	93.226369	-0.057450	-45.542196
1.900000	-0.111149	-94.202054	-67.958210	96.730574	-67.958210	96.730574	-0.058939	-46.727223
1.950000	-0.113392	-96.485318	-67.310152	99.828875	-67.310152	99.828875	-0.060426	-47.909605
2.000000	-0.115616	-98.758263	-66.619143	102.435996	-66.619143	102.435996	-0.061910	-49.088922
2.050000	-0.117824	-101.021082	-65.902224	104.552103	-65.902224	104.552103	-0.063392	-50.265147
2.100000	-0.120017	-103.273979	-65.173464	106.201443	-65.173464	106.201443	-0.064872	-51.438255
2.150000	-0.122199	-105.517172	-64.443749	107.422018	-64.443749	107.422018	-0.066352	-52.608224
2.200000	-0.124371	-107.750895	-63.721068	108.257739	-63.721068	108.257739	-0.067831	-53.775031
2.250000	-0.126536	-109.975391	-63.011011	108.753224	-63.011011	108.753224	-0.069309	-54.938655
2.300000	-0.128696	-112.190916	-62.317297	108.950773	-62.317297	108.950773	-0.070789	-56.099078
2.350000	-0.130852	-114.397738	-61.642248	108.888868	-61.642248	108.888868	-0.072269	-57.256281
2.400000	-0.133006	-116.596133	-60.987174	108.601629	-60.987174	108.601629	-0.073751	-58.410249
2.450000	-0.135161	-118.786390	-60.352665	108.118832	-60.352665	108.118832	-0.075236	-59.560966
2.500000	-0.137317	-120.968803	-59.738819	107.466207	-59.738819	107.466207	-0.076723	-60.708418
2.550000	-0.139477	-123.143365	-59.144573	106.660331	-59.144573	106.660331	-0.078214	-61.852452
2.600000	-0.141642	-125.310730	-58.570488	105.727133	-58.570488	105.727133	-0.079710	-62.993198
2.650000	-0.143814	-127.471220	-58.015956	104.682514	-58.015956	104.682514	-0.081211	-64.130647
2.700000	-0.145993	-129.625160	-57.480307	103.540114	-57.480307	103.540114	-0.082718	-65.264793
2.750000	-0.148181	-131.772885	-56.962859	102.311659	-56.962859	102.311659	-0.084230	-66.395628
2.800000	-0.150380	-133.914734	-56.462946	101.007255	-56.462946	101.007255	-0.085751	-67.523150
2.850000	-0.152589	-136.051051	-55.979963	99.635664	-55.979963	99.635664	-0.087278	-68.647356
2.900000	-0.154811	-138.182184	-55.513403	98.204567	-55.513403	98.204567	-0.088815	-69.768243
2.950000	-0.157046	-140.308487	-55.062939	96.720882	-55.062939	96.720882	-0.090360	-70.885813
3.000000	-0.159296	-142.430316	-54.628579	95.191331	-54.628579	95.191331	-0.091916	-72.000066
3.050000	-0.161560	-144.548031	-54.211050	93.623978	-54.211050	93.623978	-0.093482	-73.111007
3.100000	-0.163840	-146.661994	-53.812885	92.034462	-53.812885	92.034462	-0.095059	-74.218640
3.150000	-0.166136	-148.772571	-53.441504	90.484684	-53.441504	90.484684	-0.096648	-75.322972
3.200000	-0.168450	-150.880129	-53.080256	89.359013	-53.080256	89.359013	-0.098250	-76.424010
3.250000	-0.170781	-152.985036	-52.620679	88.081344	-52.620679	88.081344	-0.099865	-77.521765
3.300000	-0.173131	-155.087663	-52.135022	85.908502	-52.135022	85.908502	-0.101493	-78.616245
3.350000	-0.175499	-157.188380	-51.800948	83.760273	-51.800948	83.760273	-0.103137	-79.707465
3.400000	-0.177886	-159.287559	-51.473031	81.868128	-51.473031	81.868128	-0.104795	-80.795438
3.450000	-0.180293	-161.385571	-51.148055	80.021682	-51.148055	80.021682	-0.106470	-81.880179
3.500000	-0.182720	-163.482788	-50.828965	78.179388	-50.828965	78.179388	-0.108161	-82.961705
3.550000	-0.185168	-165.579581	-50.517054	76.330024	-50.517054	76.330024	-0.109869	-84.040034
3.600000	-0.187636	-167.676320	-50.212824	74.470004	-50.212824	74.470004	-0.111594	-85.115186
3.650000	-0.190124	-169.773375	-49.916431	72.598227	-49.916431	72.598227	-0.113338	-86.187181
3.700000	-0.192634	-171.871112	-49.627870	70.714541	-49.627870	70.714541	-0.115101	-87.256042
3.750000	-0.195164	-173.969899	-49.347059	68.819183	-49.347059	68.819183	-0.116884	-88.321793
3.800000	-0.197717	-176.070177	-49.073838	66.912082	-49.073838	66.912082	-0.118688	-89.384325
3.850000	-0.200291	-178.172262	-48.808137	64.994203	-48.808137	64.994203	-0.120512	-90.443801
3.900000	-0.202886	179.723487	-48.549807	63.066010	-48.549807	63.066010	-0.122358	-91.500248
3.950000	-0.205503	177.616715	-48.298704	61.127949	-48.298704	61.127949	-0.124226	-92.553696
4.000000	-0.208141	175.507068	-48.054688	59.180443	-48.054688	59.180443	-0.126116	-93.604174
4.050000	-0.210800	173.394198	-47.817624	57.223882	-47.817624	57.223882	-0.128030	-94.651715
4.100000	-0.213481	171.277759	-47.587386	55.258628	-47.587386	55.258628	-0.129967	-95.696351
4.150000	-0.216182	169.157411	-47.363854	53.285008	-47.363854	53.285008	-0.131929	-96.738116
4.200000	-0.218905	167.032814	-47.146918	51.303320	-47.146918	51.303320	-0.133915	-97.777046
4.250000	-0.221649	164.903637	-46.936473	49.313830	-46.936473	49.313830	-0.135927	-98.813177
4.300000	-0.224413	162.769551	-46.732424	47.316772	-46.732424	47.316772	-0.137964	-99.846546
4.350000	-0.227199	160.630233	-46.534682	45.312352	-46.534682	45.312352	-0.140028	-100.877193
4.400000	-0.230005	158.485362	-46.343165	43.300743	-46.343165	43.300743	-0.142119	-101.905156
4.450000	-0.232833	156.334625	-46.157798	41.282086	-46.157798	41.282086	-0.144237	-102.930478
4.500000	-0.235681	154.177714	-45.978513	39.256490	-45.978513	39.256490	-0.146384	-103.953199
4.550000	-0.238550	152.014322	-45.805247	37.224028	-45.805247	37.224028	-0.148559	-104.973363
4.600000	-0.241441	149.844152	-45.637943	35.184732	-45.637943	35.184732	-0.150762	-105.991015
4.650000	-0.244353	147.666908	-45.476549	33.138594	-45.476549	33.138594	-0.152996	-107.006199
4.700000	-0.247287	145.482300	-45.321019	31.085555	-45.321019	31.085555	-0.155259	-108.018961
4.750000	-0.250244	143.290042	-45.171312	29.025503	-45.171312	29.025503	-0.157553	-109.029350
4.800000	-0.253224	141.089851	-45.027390	26.958264	-45.027390	26.958264	-0.159878	-110.037413
4.850000	-0.256229	138.881449	-44.889220	24.883593	-44.889220	24.883593	-0.162234	-111.043200
4.900000	-0.259259	136.664558	-44.756775	22.801159	-44.756775	22.801159	-0.164623	-112.046762
4.950000	-0.262316	134.438903	-44.630028	20.710535	-44.630028	20.710535	-0.167044	-113.048150
5.000000	-0.265403	132.204208	-44.508961	18.611182	-44.508961	18.611182	-0.169497	-114.047417
5.050000	-0.268523	129.959505	-44.393857	16.501672	-44.393857	16.501672	-0.171987	-115.044474
5.100000	-0.271678	127.705322	-44.284352	14.381950	-44.284352	14.381950	-0.174510	-116.039558
5.150000	-0.274869	125.441383	-44.180429	12.250999	-44.180429	12.250999	-0.177067	-117.032722
5.200000	-0.278103	123.167404	-44.082076	10.107581	-44.082076	10.107581	-0.179659	-118.024021
5.250000	-0.281382	120.883089	-43.989287	7.950194	-43.989287	7.950194	-0.182286	-119.013513
5.300000	-0.284714	118.588129	-43.902057	5.777026	-43.902057	5.777026	-0.184948	-120.001255
5.350000	-0.288107	116.281633	-43.820626	3.584858	-43.820626	3.584858	-0.187648	-120.987227
5.400000	-0.291573	113.962978	-43.745103	1.370166	-43.745103	1.370166	-0.190387	-121.971469
5.450000	-0.295118	111.632503	-43.675173	-0.869232	-43.675173	-0.869232	-0.193163	-122.954159
5.500000	-0.298753	109.289762	-43.610850	-3.137511	-43.610850	-3.137511	-0.195977	-123.935362
5.550000	-0.302494	106.934248	-43.552149	-5.439790	-43.552149	-5.439790	-0.198831	-124.915147
5.600000	-0.306358	104.565382	-43.499088	-7.782376	-43.499088	-7.782376	-0.201724	-125.893585
5.650000	-0.310364	102.182494	-43.451686	-10.173086	-43.451686	-10.173086	-0.204657	-126.870752
5.700000	-0.314560	99.783255	-43.410503	-12.628585	-43.410503	-12.628585	-0.207636	-127.846620
5.750000	-0.318966	97.367777	-43.375119	-15.158552	-43.375119	-15.158552	-0.210660	-128.821379
5.800000	-0.323621	94.935154	-43.345421	-17.778741	-43.345421	-17.778741	-0.213729	-129.795148
5.850000	-0.328575	92.483947	-43.321359	-20.510966	-43.321359	-20.510966	-0.216846	-130.768033
5.900000	-0.333895	90.012379	-43.302815	-23.383858	-43.302815	-23.383858	-0.220014	-131.740153
5.950000	-0.339662	87.518224	-43.289541	-26.435591	-43.289541	-26.435591	-0.223237	-132.711649
6.000000	-0.346010	84.997758	-43.281180	-29.727420	-43.281180	-29.727420	-0.226523	-133.682681
6.050000	-0.353116	82.446399	-43.276766	-33.344947	-43.276766	-33.344947	-0.229885	-134.653472
6.100000	-0.361182	79.859938	-43.274100	-37.391659	-43.274100	-37.391659	-0.233333	-135.624330
6.150000	-0.370528	77.231616	-43.269344	-42.027907	-43.269344	-42.027907	-0.236893	-136.595640
6.200000	-0.381792	74.547864	-43.253548	-47.570720	-43.253548	-47.570720	-0.240615	-137.568051
6.250000	-0.395805	71.795522	-43.209031	-54.413211	-43.209031	-54.413211	-0.244574	-138.542430
6.300000	-0.414252	68.950191	-43.096086	-63.269802	-43.096086	-63.269802	-0.248931	-139.520237
6.350000	-0.441395	65.962038	-42.805656	-75.606780	-42.805656	-75.606780	-0.254112	-140.504438
6.400000	-0.487380	62.753872	-42.088833	-93.688117	-42.088833	-93.688117	-0.261144	-141.499767
6.450000	-0.592405	59.154330	-40.268045	-122.232689	-40.268045	-122.232689	-0.273901	-142.514134
6.500000	-0.945781	55.344886	-36.335681	-170.623838	-36.335681	-170.623838	-0.307663	-143.502543
6.550000	-1.347610	56.428811	-33.820675	109.137050	-33.820675	109.137050	-0.330211	-144.069187
6.600000	-0.914552	54.435719	-36.582328	53.222066	-36.582328	53.222066	-0.289334	-144.958108
6.650000	-0.828396	50.146656	-38.648576	26.722750	-38.648576	26.722750	-0.279021	-145.988951
6.700000	-0.906997	45.582551	-39.774594	11.107340	-39.774594	11.107340	-0.278332	-146.994416
6.750000	-1.120234	40.466792	-40.419041	0.124637	-40.419041	0.124637	-0.280287	-147.982793
6.800000	-1.576966	34.313998	-40.820807	-8.866561	-40.820807	-8.866561	-0.283213	-148.961944
6.850000	-2.658990	26.761772	-41.171243	-17.646872	-41.171243	-17.646872	-0.286575	-149.935906
6.900000	-5.614043	22.227608	-41.889943	-27.377937	-41.889943	-27.377937	-0.290157	-150.906801
6.950000	-8.378828	57.305054	-43.660177	-32.943818	-43.660177	-32.943818	-0.293854	-151.876273
7.000000	-3.752171	69.655485	-44.823359	-26.695854	-44.823359	-26.695854	-0.297768	-152.844665
7.050000	-1.793808	61.164341	-44.595700	-22.512198	-44.595700	-22.512198	-0.301730	-153.812093
7.100000	-1.082063	53.683940	-44.261051	-22.345818	-44.261051	-22.345818	-0.305739	-154.779333
7.150000	-0.773337	47.915360	-44.055341	-23.483730	-44.055341	-23.483730	-0.309802	-155.746651
7.200000	-0.617973	43.231384	-43.941404	-24.920223	-43.941404	-24.920223	-0.313916	-156.714248
7.250000	-0.531732	39.222145	-43.881270	-26.351761	-43.881270	-26.351761	-0.318079	-157.682299
7.300000	-0.479660	35.637767	-43.851050	-27.687160	-43.851050	-27.687160	-0.322287	-158.650944
7.350000	-0.446809	32.344262	-43.837748	-28.900548	-43.837748	-28.900548	-0.326540	-159.620318
7.400000	-0.425378	29.256101	-43.833160	-29.989265	-43.833160	-29.989265	-0.330836	-160.590541
7.450000	-0.411131	26.318624	-43.831986	-30.958934	-43.831986	-30.958934	-0.335175	-161.561727
7.500000	-0.401622	23.495524	-43.830597	-31.818098	-43.830597	-31.818098	-0.339556	-162.533982
7.550000	-0.395409	20.763158	-43.826280	-32.574580	-43.826280	-32.574580	-0.343979	-163.507430
7.600000	-0.391488	18.102130	-43.817079	-33.240092	-43.817079	-33.240092	-0.348442	-164.482152
7.650000	-0.389255	15.499859	-43.801464	-33.824300	-43.801464	-33.824300	-0.352946	-165.458243
7.700000	-0.388303	12.947009	-43.778213	-34.336799	-43.778213	-34.336799	-0.357491	-166.435797
7.750000	-0.388348	10.436523	-43.746352	-34.787109	-43.746352	-34.787109	-0.362075	-167.414907
7.800000	-0.389189	7.962980	-43.705117	-35.184677	-43.705117	-35.184677	-0.366699	-168.395665
7.850000	-0.390683	5.522161	-43.653930	-35.538855	-43.653930	-35.538855	-0.371362	-169.378163
7.900000	-0.392724	3.110735	-43.592390	-35.858859	-43.592390	-35.858859	-0.376065	-170.362490
7.950000	-0.395276	0.728470	-43.519147	-36.151988	-43.519147	-36.151988	-0.380810	-171.348935
8.000000	-0.398199	-1.631572	-43.436196	-36.431182	-43.436196	-36.431182	-0.385590	-172.337226
8.050000	-0.401491	-3.968784	-43.342641	-36.702465	-43.342641	-36.702465	-0.390409	-173.327622
8.100000	-0.405120	-6.284614	-43.238683	-36.973731	-43.238683	-36.973731	-0.395266	-174.320212
8.150000	-0.409062	-8.580273	-43.124641	-37.252337	-43.124641	-37.252337	-0.400161	-175.315087
8.200000	-0.413297	-10.856783	-43.000940	-37.545032	-43.000940	-37.545032	-0.405094	-176.312339
8.250000	-0.417812	-13.115019	-42.868096	-37.857903	-42.868096	-37.857903	-0.410064	-177.312058
8.300000	-0.422596	-15.355737	-42.726694	-38.196337	-42.726694	-38.196337	-0.415072	-178.314335
8.350000	-0.427628	-17.580537	-42.577949	-38.562958	-42.577949	-38.562958	-0.420114	-179.319104
8.400000	-0.432923	-19.788641	-42.421685	-38.964332	-42.421685	-38.964332	-0.425193	179.673326
8.450000	-0.438493	-21.979743	-42.258112	-39.406323	-42.258112	-39.406323	-0.430312	178.662685
8.500000	-0.444301	-24.156431	-42.089199	-39.886278	-42.089199	-39.886278	-0.435464	177.649268
8.550000	-0.450366	-26.317995	-41.914959	-40.409255	-41.914959	-40.409255	-0.440653	176.632753
8.600000	-0.456683	-28.465145	-41.736242	-40.975770	-41.736242	-40.975770	-0.445876	175.613104
8.650000	-0.463244	-30.598832	-41.553997	-41.584949	-41.553997	-41.584949	-0.451133	174.590351
8.700000	-0.470075	-32.718128	-41.368149	-42.241434	-41.368149	-42.241434	-0.456426	173.564082
8.750000	-0.477139	-34.825474	-41.180325	-42.938325	-41.180325	-42.938325	-0.461750	172.534724
8.800000	-0.484493	-36.918508	-40.989726	-43.684645	-40.989726	-43.684645	-0.467110	171.501444
8.850000	-0.492086	-39.000298	-40.798130	-44.470421	-40.798130	-44.470421	-0.472501	170.464898
8.900000	-0.499962	-41.069330	-40.605121	-45.301442	-40.605121	-45.301442	-0.477924	169.424428
8.950000	-0.508100	-43.127135	-40.411612	-46.172591	-40.411612	-46.172591	-0.483378	168.380299
9.000000	-0.516514	-45.173659	-40.217776	-47.084283	-40.217776	-47.084283	-0.488862	167.332267
9.050000	-0.525214	-47.209088	-40.023855	-48.036018	-40.023855	-48.036018	-0.494377	166.280159
9.100000	-0.534186	-49.234646	-39.830451	-49.023520	-39.830451	-49.023520	-0.499919	165.224190
9.150000	-0.543472	-51.249376	-39.637292	-50.050438	-39.637292	-50.050438	-0.505491	164.163704
9.200000	-0.553029	-53.255406	-39.445222	-51.109212	-39.445222	-51.109212	-0.511088	163.099339
9.250000	-0.562921	-55.251379	-39.253771	-52.205139	-39.253771	-52.205139	-0.516714	162.030162
9.300000	-0.573102	-57.239307	-39.063655	-53.331138	-39.063655	-53.331138	-0.522364	160.956841
9.350000	-0.583616	-59.218676	-38.874652	-54.489675	-38.874652	-54.489675	-0.528039	159.878758
9.400000	-0.594452	-61.190431	-38.687035	-55.677788	-38.687035	-55.677788	-0.533738	158.796082
9.450000	-0.605619	-63.155072	-38.500888	-56.894366	-38.500888	-56.894366	-0.539458	157.708718
9.500000	-0.617145	-65.112712	-38.316138	-58.140010	-38.316138	-58.140010	-0.545201	156.616290
9.550000	-0.629002	-67.064625	-38.133115	-59.410598	-38.133115	-59.410598	-0.550963	155.519272
9.600000	-0.641260	-69.010351	-37.951467	-60.709832	-37.951467	-60.709832	-0.556745	154.416697
9.650000	-0.653861	-70.951501	-37.771647	-62.031954	-37.771647	-62.031954	-0.562544	153.309451
9.700000	-0.666882	-72.887840	-37.593316	-63.380582	-37.593316	-63.380582	-0.568360	152.196539
9.750000	-0.680284	-74.820549	-37.416761	-64.751810	-37.416761	-64.751810	-0.574191	151.078579
9.800000	-0.694112	-76.749987	-37.241841	-66.146926	-37.241841	-66.146926	-0.580036	149.955063
9.850000	-0.708371	-78.676866	-37.068601	-67.565025	-37.068601	-67.565025	-0.585894	148.826003
9.900000	-0.723063	-80.601948	-36.897108	-69.004852	-36.897108	-69.004852	-0.591763	147.691523
9.950000	-0.738244	-82.525799	-36.727206	-70.468260	-36.727206	-70.468260	-0.597641	146.550984
10.000000	-0.753865	-84.449254	-36.559144	-71.951613	-36.559144	-71.951613	-0.603527	145.405187
