! freq	dB(S11)	phase(S11)	dB(S12)	phase(S12)	
!     	dB(S21)	phase(S21)	dB(S22)	phase(S22)	
!S-par simulation data
#  GHz  S  DB  R 50
0.000000	-79.872077	0.000000	-0.000882	0.000000	-0.000882	0.000000	-79.872077	0.000000
0.050000	-41.955200	-90.617817	-0.008449	-3.354190	-0.008449	-3.354190	-41.954570	-90.606740
0.100000	-35.916610	-95.119858	-0.014824	-6.673746	-0.014824	-6.673746	-35.915956	-95.100613
0.150000	-32.446172	-98.792650	-0.021799	-9.978494	-0.021799	-9.978494	-32.445683	-98.766161
0.200000	-30.034841	-102.284468	-0.028661	-13.273946	-0.028661	-13.273946	-30.034292	-102.252075
0.250000	-28.210953	-105.804808	-0.035370	-16.564804	-0.035370	-16.564804	-28.209885	-105.764540
0.300000	-26.748874	-109.375457	-0.042087	-19.853555	-0.042087	-19.853555	-26.747526	-109.323486
0.350000	-25.535827	-112.896243	-0.048924	-23.141217	-0.048924	-23.141217	-25.534604	-112.832995
0.400000	-24.517431	-116.341289	-0.055916	-26.428132	-0.055916	-26.428132	-24.516356	-116.267952
0.450000	-23.660283	-119.732382	-0.063039	-29.714482	-0.063039	-29.714482	-23.659260	-119.649025
0.500000	-22.934627	-123.093893	-0.070218	-33.000538	-0.070218	-33.000538	-22.933591	-122.999981
0.550000	-22.320825	-126.437512	-0.077364	-36.286648	-0.077364	-36.286648	-22.319737	-126.332293
0.600000	-21.807565	-129.769269	-0.084366	-39.573355	-0.084366	-39.573355	-21.806403	-129.651817
0.650000	-21.382365	-133.093361	-0.091121	-42.861334	-0.091121	-42.861334	-21.381115	-132.962649
0.700000	-21.037288	-136.412136	-0.097530	-46.151395	-0.097530	-46.151395	-21.035937	-136.266991
0.750000	-20.769363	-139.727133	-0.103484	-49.444630	-0.103484	-49.444630	-20.767897	-139.566134
0.800000	-20.575423	-143.039733	-0.108897	-52.742230	-0.108897	-52.742230	-20.573826	-142.861188
0.850000	-20.453345	-146.351110	-0.113705	-56.045465	-0.113705	-56.045465	-20.451600	-146.153005
0.900000	-20.403243	-149.662253	-0.117861	-59.355747	-0.117861	-59.355747	-20.401326	-149.442140
0.950000	-20.427340	-152.974001	-0.121329	-62.674646	-0.121329	-62.674646	-20.425224	-152.728853
1.000000	-20.529431	-156.287001	-0.124101	-66.003811	-0.124101	-66.003811	-20.527077	-156.013030
1.050000	-20.713602	-159.601552	-0.126208	-69.344671	-0.126208	-69.344671	-20.710962	-159.294080
1.100000	-20.992700	-162.917568	-0.127658	-72.699685	-0.127658	-72.699685	-20.989705	-162.570215
1.150000	-21.376908	-166.233996	-0.128540	-76.070384	-0.128540	-76.070384	-21.373463	-165.838466
1.200000	-21.883801	-169.548436	-0.128952	-79.458671	-0.128952	-79.458671	-21.879767	-169.093400
1.250000	-22.538651	-172.856086	-0.129026	-82.866469	-0.129026	-82.866469	-22.533817	-172.325524
1.300000	-23.380349	-176.147423	-0.128923	-86.295963	-0.128923	-86.295963	-23.374371	-175.517253
1.350000	-24.465814	-179.404351	-0.128844	-89.748855	-0.128844	-89.748855	-24.458089	-178.636921
1.400000	-25.894306	177.412728	-0.129031	-93.227463	-0.129031	-93.227463	-25.883644	178.383492
1.450000	-27.837458	174.391147	-0.129745	-96.732914	-0.129745	-96.732914	-27.821137	175.690892
1.500000	-30.664176	171.761785	-0.131266	-100.266386	-0.131266	-100.266386	-30.634237	173.670595
1.550000	-35.456935	170.589775	-0.133982	-103.830925	-0.133982	-103.830925	-35.372761	174.078632
1.600000	-48.903539	-169.444277	-0.138277	-107.427645	-0.138277	-107.427645	-47.406651	-156.215832
1.650000	-38.587703	-30.469028	-0.144573	-111.057662	-0.144573	-111.057662	-38.446625	-36.187482
1.700000	-31.151296	-29.328507	-0.153384	-114.722598	-0.153384	-114.722598	-31.130098	-31.924773
1.750000	-26.971596	-31.666853	-0.165085	-118.421698	-0.165085	-118.421698	-26.965611	-33.344458
1.800000	-24.000449	-34.770273	-0.180267	-122.156256	-0.180267	-122.156256	-23.998636	-36.020320
1.850000	-21.671002	-38.174301	-0.199489	-125.926362	-0.199489	-125.926362	-21.670749	-39.176661
1.900000	-19.742723	-41.740752	-0.223374	-129.731981	-0.223374	-129.731981	-19.743147	-42.581701
1.950000	-18.092084	-45.412100	-0.252534	-133.572317	-0.252534	-133.572317	-18.092825	-46.139318
2.000000	-16.647349	-49.159420	-0.287535	-137.445808	-0.287535	-137.445808	-16.648239	-49.801946
2.050000	-15.362457	-52.966428	-0.328975	-141.350668	-0.328975	-141.350668	-15.363413	-53.543429
2.100000	-14.206415	-56.822169	-0.377439	-145.284582	-0.377439	-145.284582	-14.207392	-57.346958
2.150000	-13.157393	-60.718304	-0.433481	-149.244701	-0.433481	-149.244701	-13.158367	-61.200502
2.200000	-12.199394	-64.647849	-0.497638	-153.227706	-0.497638	-153.227706	-12.200353	-65.094651
2.250000	-11.320394	-68.604407	-0.570417	-157.229772	-0.570417	-157.229772	-11.321331	-69.021340
2.300000	-10.511281	-72.581498	-0.652143	-161.246384	-0.652143	-161.246384	-10.512192	-72.972852
2.350000	-9.764673	-76.572978	-0.743126	-165.272822	-0.743126	-165.272822	-9.765557	-76.942180
2.400000	-9.074591	-80.572708	-0.843587	-169.304062	-0.843587	-169.304062	-9.075447	-80.922540
2.450000	-8.436080	-84.574548	-0.953645	-173.334858	-0.953645	-173.334858	-8.436910	-84.907300
2.500000	-7.844950	-88.572405	-1.073320	-177.359841	-1.073320	-177.359841	-7.845753	-88.889985
2.550000	-7.297720	-92.560038	-1.202643	178.626637	-1.202643	178.626637	-7.298499	-92.864077
2.600000	-6.791128	-96.531720	-1.341280	174.629776	-1.341280	174.629776	-6.791882	-96.823579
2.650000	-6.322302	-100.481950	-1.488929	170.654661	-1.488929	170.654661	-6.323034	-100.762800
2.700000	-5.888634	-104.405593	-1.645191	166.706081	-1.645191	166.706081	-5.889345	-104.676446
2.750000	-5.487726	-108.297946	-1.809579	162.788445	-1.809579	162.788445	-5.488417	-108.559686
2.800000	-5.117349	-112.154805	-1.981529	158.905717	-1.981529	158.905717	-5.118022	-112.408209
2.850000	-4.775422	-115.972511	-2.160409	155.061357	-2.160409	155.061357	-4.776077	-116.218266
2.900000	-4.459988	-119.747980	-2.345530	151.258284	-2.345530	151.258284	-4.460626	-119.986698
2.950000	-4.169204	-123.478721	-2.536163	147.498856	-2.536163	147.498856	-4.169828	-123.710948
3.000000	-3.901334	-127.162837	-2.731543	143.784859	-2.731543	143.784859	-3.901944	-127.389065
3.050000	-3.654744	-130.799015	-2.930883	140.117515	-2.930883	140.117515	-3.655341	-131.019692
3.100000	-3.427895	-134.386509	-3.133383	136.497495	-3.133383	136.497495	-3.428481	-134.602040
3.150000	-3.219480	-137.924578	-3.338200	132.925455	-3.338200	132.925455	-3.220055	-138.135339
3.200000	-3.028130	-141.413540	-3.544497	129.401012	-3.544497	129.401012	-3.028696	-141.619878
3.250000	-2.852449	-144.854716	-3.751499	125.922797	-3.751499	125.922797	-2.853007	-145.056947
3.300000	-2.691269	-148.249320	-3.958407	122.489530	-3.958407	122.489530	-2.691821	-148.447742
3.350000	-2.543808	-151.597715	-4.164238	119.100718	-4.164238	119.100718	-2.544354	-151.792615
3.400000	-2.408049	-154.906232	-4.368886	115.750126	-4.368886	115.750126	-2.408590	-155.097854
3.450000	-2.284613	-158.170723	-4.570466	112.441497	-4.570466	112.441497	-2.285151	-158.359344
3.500000	-2.171405	-161.399172	-4.769179	109.166976	-4.769179	109.166976	-2.171941	-161.585026
3.550000	-2.068384	-164.591657	-4.963580	105.926148	-4.963580	105.926148	-2.068919	-164.774990
3.600000	-1.974727	-167.752064	-5.152976	102.714954	-5.152976	102.714954	-1.975264	-167.933115
3.650000	-1.889651	-170.884769	-5.336722	99.528806	-5.336722	99.528806	-1.890190	-171.063773
3.700000	-1.812772	-173.993074	-5.513791	96.364050	-5.513791	96.364050	-1.813316	-174.170272
3.750000	-1.744071	-177.080239	-5.682516	93.216784	-5.682516	93.216784	-1.744623	-177.255895
3.800000	-1.682914	179.847878	-5.842189	90.080699	-5.842189	90.080699	-1.683476	179.673499
3.850000	-1.628925	176.785915	-5.991855	86.949831	-5.991855	86.949831	-1.629501	176.612533
3.900000	-1.582038	173.728440	-6.130051	83.817851	-6.130051	83.817851	-1.582630	173.555754
3.950000	-1.542850	170.668297	-6.253789	80.675767	-6.253789	80.675767	-1.543465	170.495941
4.000000	-1.510960	167.597679	-6.362351	77.514696	-6.362351	77.514696	-1.511604	167.425269
4.050000	-1.486736	164.508029	-6.453486	74.324061	-6.453486	74.324061	-1.487416	164.335126
4.100000	-1.471107	161.387696	-6.523683	71.088950	-6.523683	71.088950	-1.471832	161.213767
4.150000	-1.465397	158.221136	-6.568673	67.789135	-6.568673	67.789135	-1.466183	158.045519
4.200000	-1.470653	154.993827	-6.585519	64.405488	-6.585519	64.405488	-1.471516	154.815750
4.250000	-1.489073	151.685470	-6.569198	60.910316	-6.569198	60.910316	-1.490036	151.503970
4.300000	-1.525310	148.260232	-6.510287	57.253463	-6.510287	57.253463	-1.526411	148.073981
4.350000	-1.584702	144.680660	-6.400950	53.380158	-6.400950	53.380158	-1.585993	144.487921
4.400000	-1.675352	140.898727	-6.231776	49.217044	-6.231776	49.217044	-1.676912	140.697181
4.450000	-1.811008	136.844158	-5.989659	44.652145	-5.989659	44.652145	-1.812963	136.630541
4.500000	-2.022205	132.382762	-5.649699	39.458729	-5.649699	39.458729	-2.024791	132.151753
4.550000	-2.354368	127.382154	-5.195944	33.366900	-5.195944	33.366900	-2.358023	127.125562
4.600000	-2.911077	121.636348	-4.604172	25.847237	-4.604172	25.847237	-2.916772	121.339472
4.650000	-3.923794	115.051733	-3.870437	16.013847	-3.870437	16.013847	-3.934142	114.685280
4.700000	-5.975780	108.716779	-3.068837	2.407590	-3.068837	2.407590	-6.000429	108.213961
4.750000	-10.439220	113.955617	-2.515597	-16.869658	-2.515597	-16.869658	-10.538304	113.243632
4.800000	-10.907165	167.436252	-2.935773	-41.678293	-2.935773	-41.678293	-11.035819	167.960633
4.850000	-5.120538	174.433634	-4.860176	-66.441003	-4.860176	-66.441003	-5.148705	174.811496
4.900000	-2.537731	163.590079	-7.800240	-85.468115	-7.800240	-85.468115	-2.548282	163.810179
4.950000	-1.459083	153.461167	-11.054097	-98.508806	-11.054097	-98.508806	-1.464424	153.603272
5.000000	-0.968418	145.452287	-14.325462	-107.347013	-14.325462	-107.347013	-0.971597	145.550375
5.050000	-0.723399	139.021555	-17.565478	-113.335753	-17.565478	-113.335753	-0.725486	139.092278
5.100000	-0.589928	133.625838	-20.829174	-117.170115	-20.829174	-117.170115	-0.591385	133.678382
5.150000	-0.512951	128.924841	-24.168648	-118.941027	-24.168648	-118.941027	-0.514014	128.964905
5.200000	-0.465533	124.681796	-27.694161	-118.285136	-27.694161	-118.285136	-0.466329	124.713023
5.250000	-0.435444	120.763633	-31.441785	-114.002123	-31.441785	-114.002123	-0.436049	120.788604
5.300000	-0.415828	117.076981	-35.304706	-103.806880	-35.304706	-103.806880	-0.416289	117.097575
5.350000	-0.402844	113.557973	-38.667340	-85.518959	-38.667340	-85.518959	-0.403195	113.575612
5.400000	-0.394256	110.161523	-40.462280	-63.109222	-40.462280	-63.109222	-0.394518	110.177316
5.450000	-0.388718	106.854833	-40.829205	-46.315149	-40.829205	-46.315149	-0.388906	106.869674
5.500000	-0.385405	103.613363	-40.982813	-38.224791	-40.982813	-38.224791	-0.385530	103.627990
5.550000	-0.383804	100.418255	-41.642179	-36.892518	-41.642179	-36.892518	-0.383872	100.433294
5.600000	-0.383598	97.254643	-43.134637	-41.623820	-43.134637	-41.623820	-0.383616	97.270635
5.650000	-0.384754	94.111796	-45.655810	-59.147695	-45.655810	-59.147695	-0.384724	94.129284
5.700000	-0.386864	90.975994	-47.564681	-95.720573	-47.564681	-95.720573	-0.386789	90.995350
5.750000	-0.390044	87.841329	-45.483932	-140.157426	-45.483932	-140.157426	-0.389925	87.862953
5.800000	-0.394295	84.700496	-41.094009	-167.636664	-41.094009	-167.636664	-0.394133	84.724765
5.850000	-0.399553	81.548743	-37.369253	179.297352	-37.369253	179.297352	-0.399348	81.575984
5.900000	-0.406099	78.377014	-34.352861	171.858279	-34.352861	171.858279	-0.405850	78.407607
5.950000	-0.413920	75.181296	-31.880827	166.305383	-31.880827	166.305383	-0.413626	75.215578
6.000000	-0.423137	71.956565	-29.783869	161.645928	-29.783869	161.645928	-0.422796	71.994869
6.050000	-0.433897	68.698029	-27.957738	157.451590	-27.957738	157.451590	-0.433507	68.740689
6.100000	-0.446372	65.401052	-26.335281	153.511295	-26.335281	153.511295	-0.445931	65.448404
6.150000	-0.460761	62.061097	-24.871059	149.710000	-24.871059	149.710000	-0.460265	62.113483
6.200000	-0.477293	58.673674	-23.533002	145.979745	-23.533002	145.979745	-0.476739	58.731441
6.250000	-0.496230	55.234302	-22.297686	142.277538	-22.297686	142.277538	-0.495614	55.297807
6.300000	-0.517933	51.737146	-21.145970	138.573971	-21.145970	138.573971	-0.517251	51.806767
6.350000	-0.542689	48.178786	-20.066142	134.848286	-20.066142	134.848286	-0.541935	48.254906
6.400000	-0.570881	44.554613	-19.047581	131.085257	-19.047581	131.085257	-0.570050	44.637628
6.450000	-0.602938	40.859951	-18.081882	127.272821	-18.081882	127.272821	-0.602025	40.950276
6.500000	-0.639344	37.090060	-17.162327	123.401009	-17.162327	123.401009	-0.638342	37.188124
6.550000	-0.680638	33.240139	-16.283515	119.461273	-16.283515	119.461273	-0.679540	33.346392
6.600000	-0.727425	29.305350	-15.441093	115.446072	-15.441093	115.446072	-0.726224	29.420260
6.650000	-0.780373	25.280841	-14.631565	111.348619	-14.631565	111.348619	-0.779061	25.404900
6.700000	-0.840226	21.161794	-13.852142	107.162736	-13.852142	107.162736	-0.838795	21.295514
6.750000	-0.907798	16.943474	-13.100636	102.882783	-13.100636	102.882783	-0.906239	17.087388
6.800000	-0.983982	12.621296	-12.375377	98.503654	-12.375377	98.503654	-0.982286	12.775961
6.850000	-1.069745	8.190916	-11.675145	94.020808	-11.675145	94.020808	-1.067904	8.356911
6.900000	-1.166243	3.647065	-10.998823	89.429144	-10.998823	89.429144	-1.164246	3.824995
6.950000	-1.274606	-1.013917	-10.346052	84.725439	-10.346052	84.725439	-1.272446	-0.823423
7.000000	-1.395885	-5.793740	-9.717011	79.908666	-9.717011	79.908666	-1.393552	-5.590044
7.050000	-1.531260	-10.694606	-9.111822	74.977670	-9.111822	74.977670	-1.528749	-10.477057
7.100000	-1.681916	-15.717855	-8.530833	69.932491	-8.530833	69.932491	-1.679220	-15.485789
7.150000	-1.849001	-20.863827	-7.974577	64.774511	-7.974577	64.774511	-1.846117	-20.616580
7.200000	-2.033585	-26.131762	-7.443724	59.506588	-7.443724	59.506588	-2.030513	-25.868672
7.250000	-2.236602	-31.519708	-6.939027	54.133147	-6.939027	54.133147	-2.233344	-31.240131
7.300000	-2.458785	-37.024496	-6.461271	48.660227	-6.461271	48.660227	-2.455350	-36.727818
7.350000	-2.700600	-42.641759	-6.011210	43.095461	-6.011210	43.095461	-2.697002	-42.327412
7.400000	-2.962162	-48.366022	-5.589517	37.447977	-5.589517	37.447977	-2.958423	-48.033508
7.450000	-3.243160	-54.190865	-5.196725	31.728228	-5.196725	31.728228	-3.239311	-53.839782
7.500000	-3.542778	-60.109147	-4.833183	25.947732	-4.833183	25.947732	-3.538862	-59.739221
7.550000	-3.859688	-66.114974	-4.499404	20.117991	-4.499404	20.117991	-3.855761	-65.726104
7.600000	-4.191632	-72.198605	-4.194962	14.252971	-4.194962	14.252971	-4.187762	-71.790912
7.650000	-4.535877	-78.352530	-3.919453	8.365250	-3.919453	8.365250	-4.532150	-77.926408
7.700000	-4.889010	-84.569685	-3.672230	2.466953	-3.672230	2.466953	-4.885527	-84.125857
7.750000	-5.246946	-90.843607	-3.452422	-3.430595	-3.452422	-3.430595	-5.243825	-90.383187
7.800000	-5.604977	-97.168465	-3.258973	-9.317159	-3.258973	-9.317159	-5.602350	-96.693018
7.850000	-5.957848	-103.538942	-3.090682	-15.183807	-3.090682	-15.183807	-5.955860	-103.050536
7.900000	-6.299879	-109.949961	-2.946252	-21.023038	-2.946252	-21.023038	-6.298680	-109.451212
7.950000	-6.625124	-116.396286	-2.824337	-26.828826	-2.824337	-26.828826	-6.624862	-115.890369
8.000000	-6.927568	-122.872030	-2.723588	-32.596590	-2.723588	-32.596590	-6.928382	-122.362670
8.050000	-7.201369	-129.370161	-2.642691	-38.323094	-2.642691	-38.323094	-7.203373	-128.861575
8.100000	-7.441109	-135.882074	-2.580406	-44.006305	-2.580406	-44.006305	-7.444384	-135.378873
8.150000	-7.641562	-142.397248	-2.535762	-49.644723	-2.535762	-49.644723	-7.646141	-141.904343
8.200000	-7.798917	-148.902968	-2.507702	-55.238176	-2.507702	-55.238176	-7.804777	-148.425331
8.250000	-7.911089	-155.385353	-2.495138	-60.787604	-2.495138	-60.787604	-7.918151	-154.927744
8.300000	-7.976793	-161.829660	-2.497299	-66.293869	-2.497299	-66.293869	-7.984922	-161.396472
8.350000	-7.997390	-168.222936	-2.513149	-71.759238	-2.513149	-71.759238	-8.006411	-167.817916
8.400000	-7.971356	-174.547223	-2.543010	-77.182291	-2.543010	-77.182291	-7.981048	-174.173637
8.450000	-7.902710	179.208550	-2.586003	-82.565450	-2.586003	-82.565450	-7.912839	179.548351
8.500000	-7.794886	173.055104	-2.641808	-87.909557	-2.641808	-87.909557	-7.805216	173.359582
8.550000	-7.652024	167.000785	-2.710178	-93.215154	-2.710178	-93.215154	-7.662333	167.269189
8.600000	-7.478717	161.051484	-2.790928	-98.482421	-2.790928	-98.482421	-7.488804	161.283776
8.650000	-7.279403	155.212373	-2.884072	-103.710564	-2.884072	-103.710564	-7.289100	155.409142
8.700000	-7.058794	149.486056	-2.989582	-108.898522	-2.989582	-108.898522	-7.067965	149.648409
8.750000	-6.823990	143.859682	-3.106127	-114.049933	-3.106127	-114.049933	-6.832549	143.988924
8.800000	-6.575132	138.355108	-3.235770	-119.154576	-3.235770	-119.154576	-6.583003	138.453149
8.850000	-6.319897	132.947262	-3.376251	-124.219666	-3.376251	-124.219666	-6.327053	133.015805
8.900000	-6.059862	127.647238	-3.528628	-129.237516	-3.528628	-129.237516	-6.066293	127.688314
8.950000	-5.798650	122.448144	-3.692318	-134.207564	-3.692318	-134.207564	-5.804366	122.463733
9.000000	-5.538933	117.346928	-3.867031	-139.127491	-3.867031	-139.127491	-5.543960	117.338980
9.050000	-5.282929	112.340897	-4.052446	-143.994832	-4.052446	-143.994832	-5.287305	112.311303
9.100000	-5.032475	107.429890	-4.248324	-148.805654	-4.248324	-148.805654	-5.036245	107.380506
9.150000	-4.789148	102.609967	-4.454087	-153.558456	-4.454087	-153.558456	-4.792363	102.542515
9.200000	-4.554117	97.878320	-4.669195	-158.251519	-4.669195	-158.251519	-4.556829	97.794404
9.250000	-4.328265	93.233161	-4.893106	-162.882861	-4.893106	-162.882861	-4.330525	93.134275
9.300000	-4.112235	88.672892	-5.125239	-167.450757	-5.125239	-167.450757	-4.114095	88.560424
9.350000	-3.906470	84.196077	-5.364970	-171.953770	-5.364970	-171.953770	-3.907979	84.071310
9.400000	-3.711352	79.802798	-5.611629	-176.389624	-5.611629	-176.389624	-3.712556	79.666934
9.450000	-3.527028	75.491781	-5.864482	179.242514	-5.864482	179.242514	-3.527971	75.345923
9.500000	-3.353391	71.260458	-6.122823	174.941967	-6.122823	174.941967	-3.354112	71.105601
9.550000	-3.190340	67.107715	-6.385932	170.708904	-6.385932	170.708904	-3.190873	66.944770
9.600000	-3.037696	63.032452	-6.653072	166.543226	-6.653072	166.543226	-3.038073	62.862253
9.650000	-2.895953	59.040701	-6.922926	162.450913	-6.922926	162.450913	-2.896205	58.864078
9.700000	-2.763491	55.118273	-7.195682	158.419927	-7.195682	158.419927	-2.763641	54.935864
9.750000	-2.640585	51.269956	-7.470179	154.454857	-7.470179	154.454857	-2.640655	51.082398
9.800000	-2.526890	47.494603	-7.745645	150.555068	-7.745645	150.555068	-2.526898	47.302477
9.850000	-2.422041	43.791045	-8.021301	146.719992	-8.021301	146.719992	-2.422003	43.594881
9.900000	-2.325668	40.158088	-8.296363	142.949244	-8.296363	142.949244	-2.325597	39.958370
9.950000	-2.237392	36.594520	-8.570043	139.242753	-8.570043	139.242753	-2.237301	36.391687
10.000000	-2.156838	33.099108	-8.841562	135.600908	-8.841562	135.600908	-2.156735	32.893562
