! freq	dB(S11)	phase(S11)	dB(S12)	phase(S12)	
!     	dB(S21)	phase(S21)	dB(S22)	phase(S22)	
!S-par simulation data
#  GHz  S  DB  R 50
0.000000	-0.000000	-0.000000	-321.253976	180.000000	-321.253976	180.000000	-0.000000	0.000000
0.050000	-0.000071	-0.825657	-91.549252	3.006041	-91.549252	3.006041	-0.000070	-0.825963
0.100000	-0.000282	-1.651185	-91.573732	3.925325	-91.573732	3.925325	-0.000280	-1.651799
0.150000	-0.000629	-2.476460	-91.618377	5.294905	-91.618377	5.294905	-0.000626	-2.477383
0.200000	-0.001105	-3.301371	-91.683189	6.764098	-91.683189	6.764098	-0.001100	-3.302606
0.250000	-0.001711	-4.125776	-91.771645	8.261315	-91.771645	8.261315	-0.001703	-4.127327
0.300000	-0.002425	-4.949622	-91.884635	9.759675	-91.884635	9.759675	-0.002415	-4.951494
0.350000	-0.003243	-5.772803	-92.026780	11.250934	-92.026780	11.250934	-0.003230	-5.775000
0.400000	-0.004154	-6.595244	-92.202740	12.733102	-92.202740	12.733102	-0.004138	-6.597770
0.450000	-0.005147	-7.416882	-92.418249	14.209912	-92.418249	14.209912	-0.005128	-7.419741
0.500000	-0.006211	-8.237665	-92.680365	15.690729	-92.680365	15.690729	-0.006189	-8.240861
0.550000	-0.007333	-9.057551	-92.997829	17.191607	-92.997829	17.191607	-0.007310	-9.061087
0.600000	-0.008504	-9.876512	-93.381608	18.737521	-93.381608	18.737521	-0.008480	-9.880390
0.650000	-0.009714	-10.694526	-93.845693	20.366320	-93.845693	20.366320	-0.009688	-10.698747
0.700000	-0.010952	-11.511579	-94.408316	22.135691	-94.408316	22.135691	-0.010926	-11.516145
0.750000	-0.012211	-12.327665	-95.093830	24.135894	-95.093830	24.135894	-0.012185	-12.332576
0.800000	-0.013483	-13.142782	-95.935650	26.514348	-95.935650	26.514348	-0.013458	-13.148036
0.850000	-0.014761	-13.956930	-96.980848	29.526633	-96.980848	29.526633	-0.014738	-13.962528
0.900000	-0.016040	-14.770116	-98.296744	33.651761	-98.296744	33.651761	-0.016018	-14.776055
0.950000	-0.017315	-15.582345	-99.976027	39.877450	-99.976027	39.877450	-0.017295	-15.588622
1.000000	-0.018582	-16.393623	-102.108287	50.425153	-102.108287	50.425153	-0.018565	-16.400237
1.050000	-0.019838	-17.203958	-104.521790	69.864114	-104.521790	69.864114	-0.019824	-17.210906
1.100000	-0.021081	-18.013357	-105.830763	102.552584	-105.830763	102.552584	-0.021070	-18.020636
1.150000	-0.022309	-18.821825	-103.971047	137.512479	-103.971047	137.512479	-0.022302	-18.829432
1.200000	-0.023521	-19.629367	-100.671249	157.841837	-100.671249	157.841837	-0.023517	-19.637299
1.250000	-0.024716	-20.435984	-97.656169	168.196139	-97.656169	168.196139	-0.024715	-20.444240
1.300000	-0.025894	-21.241640	-95.107285	173.893685	-95.107285	173.893685	-0.025896	-21.250215
1.350000	-0.027054	-22.046373	-92.941708	177.426146	-92.941708	177.426146	-0.027060	-22.055265
1.400000	-0.028198	-22.850181	-91.058210	179.726356	-91.058210	179.726356	-0.028206	-22.859388
1.450000	-0.029326	-23.653060	-89.386384	-178.739044	-89.386384	-178.739044	-0.029337	-23.662580
1.500000	-0.030438	-24.455005	-87.877910	-177.715942	-87.877910	-177.715942	-0.030453	-24.464836
1.550000	-0.031537	-25.256009	-86.498935	-177.055458	-86.498935	-177.055458	-0.031554	-25.266149
1.600000	-0.032622	-26.056063	-85.225084	-176.664875	-85.225084	-176.664875	-0.032641	-26.066511
1.650000	-0.033695	-26.855158	-84.038327	-176.483434	-84.038327	-176.483434	-0.033717	-26.865912
1.700000	-0.034754	-27.652940	-82.899772	-176.514319	-82.899772	-176.514319	-0.034777	-27.663999
1.750000	-0.035808	-28.450212	-81.860557	-176.621788	-81.860557	-176.621788	-0.035833	-28.461576
1.800000	-0.036851	-29.246267	-80.859810	-176.863130	-80.859810	-176.863130	-0.036878	-29.257934
1.850000	-0.037888	-30.041452	-79.916040	-177.200095	-79.916040	-177.200095	-0.037916	-30.053422
1.900000	-0.038919	-30.835562	-79.010814	-177.623500	-79.010814	-177.623500	-0.038949	-30.847835
1.950000	-0.039944	-31.628598	-78.142219	-178.133347	-78.142219	-178.133347	-0.039975	-31.641172
2.000000	-0.040966	-32.420711	-77.313103	-178.700696	-77.313103	-178.700696	-0.040998	-32.433587
2.050000	-0.041985	-33.211530	-76.505807	-179.348551	-76.505807	-179.348551	-0.042017	-33.224708
2.100000	-0.043002	-34.001781	-75.746376	179.974143	-75.746376	179.974143	-0.043036	-34.015260
2.150000	-0.044019	-34.790556	-74.998154	179.222555	-74.998154	179.222555	-0.044052	-34.804337
2.200000	-0.045035	-35.578214	-74.274013	178.421388	-74.274013	178.421388	-0.045069	-35.592296
2.250000	-0.046053	-36.364737	-73.572237	177.574030	-73.572237	177.574030	-0.046087	-36.379121
2.300000	-0.047072	-37.150111	-72.891322	176.683461	-72.891322	176.683461	-0.047107	-37.164796
2.350000	-0.048095	-37.934317	-72.229950	175.752327	-72.229950	175.752327	-0.048130	-37.949304
2.400000	-0.049121	-38.717339	-71.586952	174.783006	-71.586952	174.783006	-0.049156	-38.732628
2.450000	-0.050152	-39.499162	-70.961293	173.777657	-70.961293	173.777657	-0.050187	-39.514752
2.500000	-0.051188	-40.279768	-70.352047	172.738259	-70.352047	172.738259	-0.051223	-40.295660
2.550000	-0.052232	-41.058437	-69.744407	171.649476	-69.744407	171.649476	-0.052268	-41.074630
2.600000	-0.053278	-41.837105	-69.176509	170.560692	-69.176509	170.560692	-0.053313	-41.853600
2.650000	-0.054336	-42.613353	-68.601320	169.416948	-68.601320	169.416948	-0.054372	-42.630149
2.700000	-0.055395	-43.389381	-68.058273	168.268207	-68.058273	168.268207	-0.055431	-43.406479
2.750000	-0.056469	-44.163156	-67.512535	167.074841	-67.512535	167.074841	-0.056505	-44.180554
2.800000	-0.057545	-44.936479	-66.992551	165.872550	-66.992551	165.872550	-0.057581	-44.954178
2.850000	-0.058635	-45.707728	-66.473749	164.634487	-66.473749	164.634487	-0.058672	-45.725727
2.900000	-0.059729	-46.478286	-65.975331	163.384500	-65.975331	163.384500	-0.059767	-46.496585
2.950000	-0.060834	-47.247437	-65.487007	162.112950	-65.487007	162.112950	-0.060872	-47.266035
3.000000	-0.061950	-48.014994	-65.006560	160.818232	-65.006560	160.818232	-0.061988	-48.033891
3.050000	-0.063076	-48.781179	-64.536614	159.505258	-64.536614	159.505258	-0.063115	-48.800374
3.100000	-0.064213	-49.545978	-64.076835	158.175168	-64.076835	158.175168	-0.064252	-49.565471
3.150000	-0.065360	-50.309383	-63.626909	156.829072	-63.626909	156.829072	-0.065400	-50.329172
3.200000	-0.066518	-51.071381	-63.186537	155.468054	-63.186537	155.468054	-0.066560	-51.091466
3.250000	-0.067688	-51.831963	-62.755438	154.093172	-62.755438	154.093172	-0.067730	-51.852343
3.300000	-0.068869	-52.591121	-62.333339	152.705456	-62.333339	152.705456	-0.068912	-52.611795
3.350000	-0.070064	-53.348592	-61.918116	151.304144	-61.918116	151.304144	-0.070108	-53.369559
3.400000	-0.071271	-54.104558	-61.511110	149.891536	-61.511110	149.891536	-0.071316	-54.125817
3.450000	-0.072484	-54.859765	-61.117244	148.474129	-61.117244	148.474129	-0.072530	-54.881314
3.500000	-0.073717	-55.612693	-60.725888	147.042324	-60.725888	147.042324	-0.073764	-55.634532
3.550000	-0.074954	-56.365110	-60.348347	145.607957	-60.348347	145.607957	-0.075002	-56.387238
3.600000	-0.076213	-57.114973	-59.971870	144.160781	-59.971870	144.160781	-0.076262	-57.137388
3.650000	-0.077474	-57.864578	-59.609649	142.712618	-59.609649	142.712618	-0.077525	-57.887279
3.700000	-0.078760	-58.611351	-59.247296	141.253597	-59.247296	141.253597	-0.078812	-58.634337
3.750000	-0.080047	-59.358124	-58.899456	139.794576	-58.899456	139.794576	-0.080100	-59.381394
3.800000	-0.081361	-60.101791	-58.550487	138.326912	-58.550487	138.326912	-0.081415	-60.125342
3.850000	-0.082675	-60.845457	-58.214998	136.859249	-58.214998	136.859249	-0.082730	-60.869290
3.900000	-0.084015	-61.586264	-57.879829	135.386282	-57.879829	135.386282	-0.084072	-61.610376
3.950000	-0.085359	-62.326810	-57.556050	133.912833	-57.556050	133.912833	-0.085416	-62.351201
4.000000	-0.086727	-63.064751	-57.233769	132.436647	-57.233769	132.436647	-0.086786	-63.089418
4.050000	-0.088100	-63.802169	-56.921064	130.959913	-56.921064	130.959913	-0.088160	-63.827113
4.100000	-0.089496	-64.537240	-56.610810	129.482314	-56.610810	129.482314	-0.089557	-64.562458
4.150000	-0.090900	-65.271528	-56.308548	128.004428	-56.308548	128.004428	-0.090962	-65.297019
4.200000	-0.092326	-66.003730	-56.009511	126.526949	-56.009511	126.526949	-0.092389	-66.029493
4.250000	-0.093762	-66.734888	-55.717072	125.049673	-55.717072	125.049673	-0.093826	-66.760923
4.300000	-0.095218	-67.464225	-55.428488	123.573572	-55.428488	123.573572	-0.095283	-67.490529
4.350000	-0.096688	-68.192261	-55.145264	122.098310	-55.145264	122.098310	-0.096754	-68.218834
4.400000	-0.098176	-68.918741	-54.866418	120.624580	-54.866418	120.624580	-0.098243	-68.945581
4.450000	-0.099682	-69.643664	-54.591822	119.152383	-54.591822	119.152383	-0.099749	-69.670771
4.500000	-0.101202	-70.367297	-54.322043	117.681762	-54.322043	117.681762	-0.101270	-70.394670
4.550000	-0.102745	-71.089123	-54.055508	116.213349	-54.055508	116.213349	-0.102813	-71.116760
4.600000	-0.104300	-71.809923	-53.794173	114.746334	-53.794173	114.746334	-0.104369	-71.837825
4.650000	-0.105881	-72.528672	-53.535159	113.282116	-53.535159	113.282116	-0.105950	-72.556836
4.700000	-0.107473	-73.246656	-53.281687	111.818980	-53.281687	111.818980	-0.107542	-73.275083
4.750000	-0.109095	-73.962349	-53.029688	110.359088	-53.029688	110.359088	-0.109164	-73.991038
4.800000	-0.110724	-74.677538	-52.783542	108.899896	-52.783542	108.899896	-0.110794	-74.706488
4.850000	-0.112389	-75.390204	-52.538085	107.444208	-52.538085	107.444208	-0.112459	-75.419413
4.900000	-0.114059	-76.102619	-52.298771	105.988842	-52.298771	105.988842	-0.114129	-76.132089
4.950000	-0.115769	-76.812287	-52.059420	104.537018	-52.059420	104.537018	-0.115839	-76.842017
5.000000	-0.117481	-77.521956	-51.826487	103.085193	-51.826487	103.085193	-0.117550	-77.551945
5.050000	-0.119240	-78.228661	-51.592846	101.636706	-51.592846	101.636706	-0.119309	-78.258910
5.100000	-0.120999	-78.935366	-51.365325	100.188219	-51.365325	100.188219	-0.121068	-78.965874
5.150000	-0.122805	-79.639389	-51.137600	98.742170	-51.137600	98.742170	-0.122874	-79.670156
5.200000	-0.124615	-80.343169	-50.915160	97.296342	-50.915160	97.296342	-0.124684	-80.374195
5.250000	-0.126470	-81.044544	-50.692999	95.852066	-50.692999	95.852066	-0.126539	-81.075830
5.300000	-0.128335	-81.745439	-50.475351	94.408100	-50.475351	94.408100	-0.128403	-81.776983
5.350000	-0.130242	-82.444203	-50.258446	92.964870	-50.258446	92.964870	-0.130309	-82.476007
5.400000	-0.132164	-83.142256	-50.045338	91.521885	-50.045338	91.521885	-0.132230	-83.174320
5.450000	-0.134125	-83.838446	-49.833421	90.078932	-49.833421	90.078932	-0.134192	-83.870770
5.500000	-0.136107	-84.533705	-49.624643	88.635995	-49.624643	88.635995	-0.136174	-84.566289
5.550000	-0.138127	-85.227362	-49.417487	87.192530	-49.417487	87.192530	-0.138192	-85.260207
5.600000	-0.140172	-85.919875	-49.212869	85.748688	-49.212869	85.748688	-0.140238	-85.952982
5.650000	-0.142252	-86.611042	-49.010282	84.303923	-49.010282	84.303923	-0.142317	-86.644411
5.700000	-0.144365	-87.300862	-48.809693	82.858236	-48.809693	82.858236	-0.144430	-87.334494
5.750000	-0.146508	-87.989583	-48.611517	81.411406	-48.611517	81.411406	-0.146573	-88.023478
5.800000	-0.148692	-88.676765	-48.414865	79.962976	-48.414865	79.962976	-0.148757	-88.710924
5.850000	-0.150901	-89.363086	-48.220975	78.513357	-48.220975	78.513357	-0.150967	-89.397510
5.900000	-0.153160	-90.047686	-48.028204	77.061359	-48.028204	77.061359	-0.153226	-90.082376
5.950000	-0.155439	-90.731656	-47.838506	75.608288	-47.838506	75.608288	-0.155505	-90.766612
6.000000	-0.157776	-91.413734	-47.649593	74.151997	-47.649593	74.151997	-0.157843	-91.448959
6.050000	-0.160127	-92.095403	-47.464017	72.694892	-47.464017	72.694892	-0.160195	-92.130895
6.100000	-0.162546	-92.775022	-47.278973	71.233713	-47.278973	71.233713	-0.162616	-92.810784
6.150000	-0.164973	-93.454442	-47.097476	69.772089	-47.097476	69.772089	-0.165044	-93.490473
6.200000	-0.167478	-94.131666	-46.916337	68.305577	-46.916337	68.305577	-0.167551	-94.167969
6.250000	-0.169984	-94.808890	-46.738898	66.839065	-46.738898	66.839065	-0.170059	-94.845465
6.300000	-0.172578	-95.483787	-46.561724	65.366953	-46.561724	65.366953	-0.172656	-95.520634
6.350000	-0.175174	-96.158683	-46.388092	63.894841	-46.388092	63.894841	-0.175254	-96.195804
6.400000	-0.177854	-96.831510	-46.215211	62.417531	-46.215211	62.417531	-0.177937	-96.868906
6.450000	-0.180542	-97.504148	-46.045468	60.939748	-46.045468	60.939748	-0.180629	-97.541820
6.500000	-0.183311	-98.174965	-45.876905	59.457358	-45.876905	59.457358	-0.183401	-98.212913
6.550000	-0.186096	-98.845417	-45.711144	57.974046	-45.711144	57.974046	-0.186191	-98.883643
6.600000	-0.188956	-99.514286	-45.546931	56.486863	-45.546931	56.486863	-0.189055	-99.552791
6.650000	-0.191841	-100.182628	-45.385257	54.998389	-45.385257	54.998389	-0.191946	-100.221411
6.700000	-0.194796	-100.849614	-45.225429	53.506875	-45.225429	53.506875	-0.194906	-100.888677
6.750000	-0.197784	-101.515922	-45.067945	52.013840	-45.067945	52.013840	-0.197900	-101.555266
6.800000	-0.200835	-102.181092	-44.912535	50.518631	-44.912535	50.518631	-0.200958	-102.220717
6.850000	-0.203931	-102.845448	-44.759344	49.021869	-44.759344	49.021869	-0.204060	-102.885355
6.900000	-0.207081	-103.508870	-44.608379	47.523777	-44.608379	47.523777	-0.207218	-103.549059
6.950000	-0.210286	-104.171358	-44.459572	46.024354	-44.459572	46.024354	-0.210431	-104.211830
7.000000	-0.213537	-104.833104	-44.313069	44.524357	-44.313069	44.524357	-0.213691	-104.873859
7.050000	-0.216854	-105.493811	-44.168719	43.023558	-44.168719	43.023558	-0.217017	-105.534850
7.100000	-0.220209	-106.153956	-44.026682	41.522795	-44.026682	41.522795	-0.220382	-106.195278
7.150000	-0.223640	-106.812974	-43.886838	40.022104	-43.886838	40.022104	-0.223824	-106.854581
7.200000	-0.227101	-107.471594	-43.749253	38.521857	-43.749253	38.521857	-0.227295	-107.513485
7.250000	-0.230647	-108.129018	-43.613938	37.022940	-43.613938	37.022940	-0.230854	-108.171194
7.300000	-0.234215	-108.786194	-43.480770	35.524619	-43.480770	35.524619	-0.234433	-108.828654
7.350000	-0.237879	-109.442125	-43.349968	34.029283	-43.349968	34.029283	-0.238111	-109.484869
7.400000	-0.241555	-110.097940	-43.221160	32.534405	-43.221160	32.534405	-0.241800	-110.140969
7.450000	-0.245338	-110.752482	-43.094816	31.044570	-43.094816	31.044570	-0.245597	-110.795795
7.500000	-0.249123	-111.407024	-42.970284	29.554734	-42.970284	29.554734	-0.249396	-111.450621
7.550000	-0.253025	-112.060287	-42.848301	28.072389	-42.848301	28.072389	-0.253314	-112.104168
7.600000	-0.256929	-112.713551	-42.728008	26.590043	-42.728008	26.590043	-0.257234	-112.757715
7.650000	-0.260941	-113.365749	-42.610167	25.116412	-42.610167	25.116412	-0.261263	-113.410196
7.700000	-0.264965	-114.017850	-42.493977	23.643573	-42.493977	23.643573	-0.265303	-114.062580
7.750000	-0.269086	-114.669086	-42.380084	22.180321	-42.380084	22.180321	-0.269442	-114.714098
7.800000	-0.273228	-115.320148	-42.267815	20.718987	-42.267815	20.718987	-0.273602	-115.365441
7.850000	-0.277458	-115.970528	-42.157640	19.267735	-42.157640	19.267735	-0.277850	-116.016102
7.900000	-0.281718	-116.620680	-42.049064	17.819844	-42.049064	17.819844	-0.282129	-116.666536
7.950000	-0.286054	-117.270319	-41.942353	16.382139	-41.942353	16.382139	-0.286485	-117.316455
8.000000	-0.290430	-117.919701	-41.837195	14.949526	-41.837195	14.949526	-0.290880	-117.966116
8.050000	-0.294871	-118.568718	-41.733661	13.526814	-41.733661	13.526814	-0.295342	-118.615413
8.100000	-0.299361	-119.217476	-41.631604	12.111174	-41.631604	12.111174	-0.299852	-119.264450
8.150000	-0.303904	-119.866000	-41.530935	10.704781	-41.530935	10.704781	-0.304416	-119.913253
8.200000	-0.308503	-120.514290	-41.431620	9.307633	-41.431620	9.307633	-0.309036	-120.561822
8.250000	-0.313146	-121.162456	-41.333480	7.918739	-41.333480	7.918739	-0.313700	-121.210266
8.300000	-0.317851	-121.810446	-41.236510	6.541400	-41.236510	6.541400	-0.318426	-121.858535
8.350000	-0.322589	-122.458397	-41.140541	5.171027	-41.140541	5.171027	-0.323186	-122.506765
8.400000	-0.327394	-123.106268	-41.045484	3.814586	-41.045484	3.814586	-0.328011	-123.154916
8.450000	-0.332223	-123.754157	-40.951309	2.463581	-40.951309	2.463581	-0.332862	-123.803086
8.500000	-0.337121	-124.402100	-40.857704	1.128883	-40.857704	1.128883	-0.337781	-124.451312
8.550000	-0.342036	-125.050091	-40.764926	-0.202092	-40.764926	-0.202092	-0.342716	-125.099586
8.600000	-0.347020	-125.698316	-40.672284	-1.514456	-40.672284	-1.514456	-0.347720	-125.748097
8.650000	-0.352014	-126.346583	-40.580494	-2.824932	-40.580494	-2.824932	-0.352734	-126.396650
8.700000	-0.357076	-126.995313	-40.488302	-4.114636	-40.488302	-4.114636	-0.357815	-127.045672
8.750000	-0.362142	-127.644043	-40.397079	-5.404341	-40.397079	-5.404341	-0.362899	-127.694695
8.800000	-0.367272	-128.293521	-40.304803	-6.671327	-40.304803	-6.671327	-0.368045	-128.344473
8.850000	-0.372405	-128.942999	-40.213497	-7.938313	-40.213497	-7.938313	-0.373195	-128.994251
8.900000	-0.377587	-129.593403	-40.120799	-9.184666	-40.120799	-9.184666	-0.378391	-129.644967
8.950000	-0.382776	-130.243891	-40.028869	-10.429144	-40.028869	-10.429144	-0.383595	-130.295767
9.000000	-0.387999	-130.895460	-39.935276	-11.655262	-39.935276	-11.655262	-0.388829	-130.947661
9.050000	-0.393231	-131.547244	-39.842162	-12.877709	-39.842162	-12.877709	-0.394072	-131.599773
9.100000	-0.398483	-132.200233	-39.747195	-14.084191	-39.747195	-14.084191	-0.399331	-132.253105
9.150000	-0.403744	-132.853624	-39.652319	-15.285353	-39.652319	-15.285353	-0.404598	-132.906844
9.200000	-0.409011	-133.508312	-39.555490	-16.473001	-39.555490	-16.473001	-0.409868	-133.561897
9.250000	-0.414282	-134.163648	-39.458256	-17.653892	-39.458256	-17.653892	-0.415141	-134.217607
9.300000	-0.419549	-134.820334	-39.359068	-18.823710	-39.359068	-18.823710	-0.420406	-134.874686
9.350000	-0.424814	-135.477985	-39.258860	-19.985617	-39.258860	-19.985617	-0.425665	-135.532744
9.400000	-0.430063	-136.136996	-39.156806	-21.138817	-39.156806	-21.138817	-0.430906	-136.192183
9.450000	-0.435299	-136.797367	-39.052983	-22.283309	-39.052983	-22.283309	-0.436128	-136.853003
9.500000	-0.440512	-137.459056	-38.947545	-23.421319	-38.947545	-23.421319	-0.441325	-137.515163
9.550000	-0.445695	-138.122591	-38.839441	-24.550256	-38.839441	-24.550256	-0.446486	-138.179199
9.600000	-0.450851	-138.787344	-38.730086	-25.674735	-38.730086	-25.674735	-0.451617	-138.844473
9.650000	-0.455954	-139.454532	-38.616998	-26.790295	-38.616998	-26.790295	-0.456686	-139.512226
9.700000	-0.461031	-140.122769	-38.503180	-27.903142	-38.503180	-27.903142	-0.461727	-140.181046
9.750000	-0.466023	-140.794148	-38.384367	-29.007851	-38.384367	-29.007851	-0.466673	-140.853068
9.800000	-0.470994	-141.466325	-38.265519	-30.111238	-38.265519	-30.111238	-0.471595	-141.525903
9.850000	-0.475843	-142.142491	-38.140190	-31.208016	-38.140190	-31.208016	-0.476383	-142.202806
9.900000	-0.480679	-142.819109	-38.015722	-32.304414	-38.015722	-32.304414	-0.481156	-142.880172
9.950000	-0.485346	-143.500718	-37.883026	-33.396636	-37.883026	-33.396636	-0.485745	-143.562634
10.000000	-0.490016	-144.182327	-37.752326	-34.488858	-37.752326	-34.488858	-0.490335	-144.245096
