! freq	dB(S11)	phase(S11)	dB(S12)	phase(S12)	
!     	dB(S21)	phase(S21)	dB(S22)	phase(S22)	
!S-par simulation data
#  GHz  S  DB  R 50
0.000000	-84.448498	0.000000	-0.000520	0.000000	-0.000520	0.000000	-84.448498	0.000000
0.050000	-41.272627	-83.422192	-0.016719	-2.652572	-0.016719	-2.652572	-41.260846	-83.253058
0.100000	-35.320606	-88.875110	-0.027161	-5.274309	-0.027161	-5.274309	-35.307025	-88.523465
0.150000	-31.896791	-93.253293	-0.034299	-7.887261	-0.034299	-7.887261	-31.875802	-92.769292
0.200000	-29.460645	-97.042704	-0.041040	-10.495973	-0.041040	-10.495973	-29.435415	-96.405528
0.250000	-27.568007	-100.473702	-0.047958	-13.100951	-0.047958	-13.100951	-27.541061	-99.676834
0.300000	-26.022830	-103.702348	-0.055139	-15.703135	-0.055139	-15.703135	-25.995551	-102.746641
0.350000	-24.720436	-106.797865	-0.062613	-18.303097	-0.062613	-18.303097	-24.693491	-105.686717
0.400000	-23.597624	-109.804765	-0.070398	-20.901250	-0.070398	-20.901250	-23.571167	-108.542224
0.450000	-22.613399	-112.749187	-0.078521	-23.497745	-0.078521	-23.497745	-22.587232	-111.338874
0.500000	-21.739378	-115.648633	-0.087000	-26.092587	-0.087000	-26.092587	-21.713110	-114.092952
0.550000	-20.955075	-118.514428	-0.095845	-28.685687	-0.095845	-28.685687	-20.928313	-116.814360
0.600000	-20.245212	-121.353638	-0.105063	-31.276902	-0.105063	-31.276902	-20.217736	-119.509223
0.650000	-19.598073	-124.170224	-0.114650	-33.866074	-0.114650	-33.866074	-19.569935	-122.181666
0.700000	-19.004569	-126.965853	-0.124597	-36.453057	-0.124597	-36.453057	-18.976052	-124.834744
0.750000	-18.457624	-129.741015	-0.134891	-39.037717	-0.134891	-39.037717	-18.429090	-127.470980
0.800000	-17.951680	-132.496190	-0.145512	-41.619946	-0.145512	-41.619946	-17.923418	-130.092631
0.850000	-17.482317	-135.232381	-0.156438	-44.199646	-0.156438	-44.199646	-17.454468	-132.701729
0.900000	-17.045863	-137.951182	-0.167645	-46.776746	-0.167645	-46.776746	-17.018448	-135.300190
0.950000	-16.639058	-140.654600	-0.179101	-49.351237	-0.179101	-49.351237	-16.612034	-137.889895
1.000000	-16.259191	-143.344267	-0.190778	-51.923099	-0.190778	-51.923099	-16.232511	-140.472412
1.050000	-15.903815	-146.021663	-0.202644	-54.492363	-0.202644	-54.492363	-15.877460	-143.049200
1.100000	-15.570719	-148.688056	-0.214664	-57.059100	-0.214664	-57.059100	-15.544706	-145.621578
1.150000	-15.258395	-151.343927	-0.226812	-59.623278	-0.226812	-59.623278	-15.232777	-148.190538
1.200000	-14.965110	-153.990105	-0.239052	-62.185012	-0.239052	-62.185012	-14.939968	-150.757157
1.250000	-14.689289	-156.627273	-0.251350	-64.744445	-0.251350	-64.744445	-14.664720	-153.322358
1.300000	-14.429862	-159.255602	-0.263674	-67.301638	-0.263674	-67.301638	-14.405970	-155.886913
1.350000	-14.185875	-161.875172	-0.275990	-69.856674	-0.275990	-69.856674	-14.162764	-158.451573
1.400000	-13.956055	-164.486424	-0.288265	-72.409759	-0.288265	-72.409759	-13.933813	-161.017000
1.450000	-13.739563	-167.089347	-0.300468	-74.961007	-0.300468	-74.961007	-13.718258	-163.583800
1.500000	-13.535997	-169.683414	-0.312559	-77.510449	-0.312559	-77.510449	-13.515686	-166.152676
1.550000	-13.344234	-172.268908	-0.324514	-80.058280	-0.324514	-80.058280	-13.324942	-168.724096
1.600000	-13.163624	-174.845577	-0.336306	-82.604574	-0.336306	-82.604574	-13.145360	-171.298597
1.650000	-12.993871	-177.412685	-0.347907	-85.149325	-0.347907	-85.149325	-12.976631	-173.876906
1.700000	-12.834216	-179.970091	-0.359316	-87.692636	-0.359316	-87.692636	-12.817986	-176.459517
1.750000	-12.684013	177.482430	-0.370537	-90.234634	-0.370537	-90.234634	-12.668778	-179.046940
1.800000	-12.542852	174.945403	-0.381580	-92.775482	-0.381580	-92.775482	-12.528609	178.360142
1.850000	-12.410249	172.419186	-0.392454	-95.315458	-0.392454	-95.315458	-12.397010	175.761073
1.900000	-12.285810	169.904207	-0.403160	-97.854905	-0.403160	-97.854905	-12.273607	173.155075
1.950000	-12.169091	167.400723	-0.413688	-100.394200	-0.413688	-100.394200	-12.157982	170.541385
2.000000	-12.059615	164.908800	-0.424025	-102.933683	-0.424025	-102.933683	-12.049678	167.919297
2.050000	-11.956998	162.428581	-0.434150	-105.473642	-0.434150	-105.473642	-11.948328	165.287987
2.100000	-11.860885	159.960184	-0.444045	-108.014325	-0.444045	-108.014325	-11.853591	162.646595
2.150000	-11.770945	157.503722	-0.453695	-110.555948	-0.453695	-110.555948	-11.765141	159.994226
2.200000	-11.686874	155.059323	-0.463087	-113.098712	-0.463087	-113.098712	-11.682674	157.329961
2.250000	-11.608388	152.627152	-0.472215	-115.642806	-0.472215	-115.642806	-11.605902	154.652858
2.300000	-11.535224	150.207424	-0.481073	-118.188417	-0.481073	-118.188417	-11.534554	151.961964
2.350000	-11.467131	147.800411	-0.489661	-120.735731	-0.489661	-120.735731	-11.468371	149.256317
2.400000	-11.403874	145.406447	-0.497978	-123.284935	-0.497978	-123.284935	-11.407107	146.534957
2.450000	-11.345224	143.025926	-0.506029	-125.836213	-0.506029	-125.836213	-11.350525	143.796925
2.500000	-11.290961	140.659302	-0.513816	-128.389752	-0.513816	-128.389752	-11.298397	141.041271
2.550000	-11.240947	138.307405	-0.521341	-130.945792	-0.521341	-130.945792	-11.250583	138.266624
2.600000	-11.194880	135.970484	-0.528617	-133.504468	-0.528617	-133.504468	-11.206777	135.472434
2.650000	-11.152546	133.649129	-0.535652	-136.065957	-0.535652	-136.065957	-11.166765	132.657779
2.700000	-11.113731	131.343954	-0.542455	-138.630436	-0.542455	-138.630436	-11.130333	129.821741
2.750000	-11.078222	129.055600	-0.549038	-141.198078	-0.549038	-141.198078	-11.097272	126.963415
2.800000	-11.045802	126.784718	-0.555411	-143.769052	-0.555411	-143.769052	-11.067369	124.081903
2.850000	-11.016254	124.531972	-0.561588	-146.343522	-0.561588	-146.343522	-11.040413	121.176314
2.900000	-10.989359	122.298024	-0.567582	-148.921646	-0.567582	-148.921646	-11.016189	118.245766
2.950000	-10.964895	120.083536	-0.573407	-151.503581	-0.573407	-151.503581	-10.994483	115.289391
3.000000	-10.942639	117.889162	-0.579078	-154.089476	-0.579078	-154.089476	-10.975077	112.306329
3.050000	-10.922363	115.715540	-0.584611	-156.679474	-0.584611	-156.679474	-10.957753	109.295738
3.100000	-10.903840	113.563291	-0.590023	-159.273716	-0.590023	-159.273716	-10.942287	106.256798
3.150000	-10.886852	111.433258	-0.595328	-161.872382	-0.595328	-161.872382	-10.928472	103.188383
3.200000	-10.871158	109.326028	-0.600546	-164.475605	-0.600546	-164.475605	-10.916071	100.089700
3.250000	-10.856506	107.241895	-0.605697	-167.083460	-0.605697	-167.083460	-10.904839	96.960335
3.300000	-10.842658	105.181354	-0.610797	-169.696061	-0.610797	-169.696061	-10.894544	93.799596
3.350000	-10.829375	103.144852	-0.615868	-172.313518	-0.615868	-172.313518	-10.884953	90.606843
3.400000	-10.816417	101.132790	-0.620929	-174.935936	-0.620929	-174.935936	-10.875830	87.381488
3.450000	-10.803541	99.145510	-0.625999	-177.563413	-0.625999	-177.563413	-10.866940	84.123005
3.500000	-10.790505	97.183297	-0.631099	179.803960	-0.631099	179.803960	-10.858045	80.830936
3.550000	-10.777065	95.246364	-0.636249	177.166096	-0.636249	177.166096	-10.848908	77.504897
3.600000	-10.762981	93.334857	-0.641472	174.522914	-0.641472	174.522914	-10.839294	74.144587
3.650000	-10.748011	91.448841	-0.646787	171.874342	-0.646787	171.874342	-10.828967	70.749789
3.700000	-10.731917	89.588298	-0.652216	169.220310	-0.652216	169.220310	-10.817696	67.320383
3.750000	-10.714463	87.753125	-0.657782	166.560756	-0.657782	166.560756	-10.805252	63.856341
3.800000	-10.695378	85.943666	-0.663509	163.895500	-0.663509	163.895500	-10.791375	60.356993
3.850000	-10.674466	84.159070	-0.669416	161.224614	-0.669416	161.224614	-10.775874	56.823280
3.900000	-10.651510	82.398941	-0.675526	158.548052	-0.675526	158.548052	-10.758539	53.255494
3.950000	-10.626300	80.662781	-0.681860	155.865775	-0.681860	155.865775	-10.739170	49.654036
4.000000	-10.598636	78.949995	-0.688441	153.177751	-0.688441	153.177751	-10.717578	46.019410
4.050000	-10.568330	77.259886	-0.695289	150.483953	-0.695289	150.483953	-10.693584	42.352225
4.100000	-10.535207	75.591662	-0.702427	147.784358	-0.702427	147.784358	-10.667024	38.653188
4.150000	-10.499105	73.944437	-0.709876	145.078949	-0.709876	145.078949	-10.637750	34.923099
4.200000	-10.459880	72.317236	-0.717657	142.367717	-0.717657	142.367717	-10.605630	31.162844
4.250000	-10.417406	70.709007	-0.725792	139.650653	-0.725792	139.650653	-10.570548	27.373388
4.300000	-10.371573	69.118622	-0.734301	136.927758	-0.734301	136.927758	-10.532409	23.555762
4.350000	-10.322295	67.544895	-0.743205	134.199033	-0.743205	134.199033	-10.491136	19.711052
4.400000	-10.269461	65.986739	-0.752528	131.464423	-0.752528	131.464423	-10.446637	15.840123
4.450000	-10.213024	64.442833	-0.762290	128.723940	-0.762290	128.723940	-10.398874	11.944174
4.500000	-10.153004	62.911708	-0.772506	125.977662	-0.772506	125.977662	-10.347873	8.024665
4.550000	-10.089400	61.392052	-0.783195	123.225607	-0.783195	123.225607	-10.293641	4.082773
4.600000	-10.022237	59.882562	-0.794374	120.467795	-0.794374	120.467795	-10.236209	0.119660
4.650000	-9.951557	58.381952	-0.806060	117.704251	-0.806060	117.704251	-10.175625	-3.863541
4.700000	-9.877428	56.888973	-0.818271	114.934997	-0.818271	114.934997	-10.111957	-7.865739
4.750000	-9.799934	55.402423	-0.831021	112.160059	-0.831021	112.160059	-10.045292	-11.885905
4.800000	-9.719180	53.921162	-0.844327	109.379461	-0.844327	109.379461	-9.975732	-15.923074
4.850000	-9.635285	52.444123	-0.858203	106.593229	-0.858203	106.593229	-9.903393	-19.976366
4.900000	-9.548387	50.970321	-0.872662	103.801385	-0.872662	103.801385	-9.828406	-24.044990
4.950000	-9.458633	49.498864	-0.887718	101.003950	-0.887718	101.003950	-9.750911	-28.128255
5.000000	-9.366185	48.028957	-0.903384	98.200941	-0.903384	98.200941	-9.671057	-32.225580
5.050000	-9.271136	46.559914	-0.919684	95.392251	-0.919684	95.392251	-9.588939	-36.336781
5.100000	-9.173741	45.091124	-0.936616	92.578010	-0.936616	92.578010	-9.504786	-40.461206
5.150000	-9.074181	43.622119	-0.954192	89.758218	-0.954192	89.758218	-9.418759	-44.598629
5.200000	-8.972637	42.152535	-0.972423	86.932870	-0.972423	86.932870	-9.331023	-48.748943
5.250000	-8.869290	40.682116	-0.991317	84.101953	-0.991317	84.101953	-9.241738	-52.912160
5.300000	-8.764319	39.210703	-1.010886	81.265444	-1.010886	81.265444	-9.151061	-57.088408
5.350000	-8.657899	37.738236	-1.031140	78.423310	-1.031140	78.423310	-9.059143	-61.277926
5.400000	-8.550197	36.264743	-1.052087	75.575508	-1.052087	75.575508	-8.966126	-65.481061
5.450000	-8.441376	34.790330	-1.073741	72.721983	-1.073741	72.721983	-8.872145	-69.698262
5.500000	-8.331587	33.315182	-1.096110	69.862668	-1.096110	69.862668	-8.777322	-73.930069
5.550000	-8.220973	31.839543	-1.119209	66.997480	-1.119209	66.997480	-8.681768	-78.177109
5.600000	-8.109665	30.363715	-1.143050	64.126328	-1.143050	64.126328	-8.585580	-82.440083
5.650000	-7.997761	28.888049	-1.167655	61.249035	-1.167655	61.249035	-8.488824	-86.719949
5.700000	-7.885371	27.412940	-1.193042	58.365474	-1.193042	58.365474	-8.391569	-91.017559
5.750000	-7.772610	25.938793	-1.219222	55.475575	-1.219222	55.475575	-8.293885	-95.333597
5.800000	-7.659559	24.466028	-1.246216	52.579186	-1.246216	52.579186	-8.195806	-99.668958
5.850000	-7.546284	22.995068	-1.274049	49.676143	-1.274049	49.676143	-8.097352	-104.024552
5.900000	-7.432839	21.526333	-1.302746	46.766270	-1.302746	46.766270	-7.998524	-108.401289
5.950000	-7.319317	20.060125	-1.332313	43.849612	-1.332313	43.849612	-7.899360	-112.799322
6.000000	-7.205635	18.597024	-1.362841	40.925467	-1.362841	40.925467	-7.799723	-117.221114
6.050000	-7.091869	17.137274	-1.394340	37.993892	-1.394340	37.993892	-7.699624	-121.666654
6.100000	-6.978024	15.681174	-1.426852	35.054672	-1.426852	35.054672	-7.599006	-126.136705
6.150000	-6.864096	14.228972	-1.460428	32.107586	-1.460428	32.107586	-7.497796	-130.631954
6.200000	-6.750069	12.780861	-1.495121	29.152413	-1.495121	29.152413	-7.395910	-135.152996
6.250000	-6.635919	11.336962	-1.530992	26.188929	-1.530992	26.188929	-7.293254	-139.700314
6.300000	-6.521589	9.897399	-1.568126	23.216775	-1.568126	23.216775	-7.189690	-144.274703
6.350000	-6.407068	8.462074	-1.606579	20.235875	-1.606579	20.235875	-7.085140	-148.875942
6.400000	-6.292313	7.030873	-1.646431	17.246031	-1.646431	17.246031	-6.979490	-153.504080
6.450000	-6.177280	5.603597	-1.687769	14.247059	-1.687769	14.247059	-6.872627	-158.158993
6.500000	-6.061924	4.179957	-1.730685	11.238799	-1.730685	11.238799	-6.764436	-162.840372
6.550000	-5.946199	2.759575	-1.775280	8.221113	-1.775280	8.221113	-6.654809	-167.547711
6.600000	-5.830064	1.341980	-1.821662	5.193897	-1.821662	5.193897	-6.543643	-172.280299
6.650000	-5.713478	-0.073388	-1.869945	2.157080	-1.869945	2.157080	-6.430848	-177.037213
6.700000	-5.596451	-1.487188	-1.920214	-0.889183	-1.920214	-0.889183	-6.316407	178.183099
6.750000	-5.478866	-2.900104	-1.972676	-3.945293	-1.972676	-3.945293	-6.200116	173.381030
6.800000	-5.360760	-4.312977	-2.027421	-7.010941	-2.027421	-7.010941	-6.082011	168.558723
6.850000	-5.242130	-5.726674	-2.084588	-10.085998	-2.084588	-10.085998	-5.962071	163.717967
6.900000	-5.122975	-7.142138	-2.144335	-13.170318	-2.144335	-13.170318	-5.840279	158.860677
6.950000	-5.003322	-8.560354	-2.206809	-16.263634	-2.206809	-16.263634	-5.716667	153.989076
7.000000	-4.883222	-9.982313	-2.272150	-19.365559	-2.272150	-19.365559	-5.591312	149.105620
7.050000	-4.762735	-11.409030	-2.340512	-22.475677	-2.340512	-22.475677	-5.464300	144.212834
7.100000	-4.641935	-12.841518	-2.412049	-25.593495	-2.412049	-25.593495	-5.335750	139.313380
7.150000	-4.520916	-14.280775	-2.486915	-28.718435	-2.486915	-28.718435	-5.205806	134.410038
7.200000	-4.399783	-15.727785	-2.565273	-31.849852	-2.565273	-31.849852	-5.074634	129.505684
7.250000	-4.278655	-17.183519	-2.647288	-34.987017	-2.647288	-34.987017	-4.942421	124.603310
7.300000	-4.157660	-18.648978	-2.733152	-38.129129	-2.733152	-38.129129	-4.809362	119.706084
7.350000	-4.037024	-20.124427	-2.822858	-41.275067	-2.822858	-41.275067	-4.675836	114.816647
7.400000	-3.916874	-21.610788	-2.916621	-44.423967	-2.916621	-44.423967	-4.542033	109.938119
7.450000	-3.797387	-23.108618	-3.014569	-47.574764	-3.014569	-47.574764	-4.408235	105.073444
7.500000	-3.678751	-24.618358	-3.116821	-50.726320	-3.116821	-50.726320	-4.274733	100.225503
7.550000	-3.561153	-26.140527	-3.223536	-53.877407	-3.223536	-53.877407	-4.141812	95.397464
7.600000	-3.444800	-27.675115	-3.334757	-57.026758	-3.334757	-57.026758	-4.009806	90.591735
7.650000	-3.329887	-29.222176	-3.450570	-60.173078	-3.450570	-60.173078	-3.879018	85.810873
7.700000	-3.216607	-30.781640	-3.571046	-63.315036	-3.571046	-63.315036	-3.749748	81.057292
7.750000	-3.105146	-32.353312	-3.696244	-66.451280	-3.696244	-66.451280	-3.622288	76.333243
7.800000	-2.995685	-33.936884	-3.826208	-69.580451	-3.826208	-69.580451	-3.496916	71.640801
7.850000	-2.888401	-35.532029	-3.960995	-72.701111	-3.960995	-72.701111	-3.373906	66.982144
7.900000	-2.783451	-37.138164	-4.100608	-75.811944	-4.100608	-75.811944	-3.253506	62.358798
7.950000	-2.680977	-38.754660	-4.245046	-78.911664	-4.245046	-78.911664	-3.135943	57.772150
8.000000	-2.581111	-40.380848	-4.394310	-81.998999	-4.394310	-81.998999	-3.021423	53.223461
8.050000	-2.483980	-42.016071	-4.548404	-85.072611	-4.548404	-85.072611	-2.910148	48.714098
8.100000	-2.389644	-43.659384	-4.707268	-88.131671	-4.707268	-88.131671	-2.802236	44.244010
8.150000	-2.298230	-45.310188	-4.870926	-91.174729	-4.870926	-91.174729	-2.697875	39.814765
8.200000	-2.209807	-46.967650	-5.039346	-94.200761	-5.039346	-94.200761	-2.597189	35.426728
8.250000	-2.124402	-48.630887	-5.212483	-97.209043	-5.212483	-97.209043	-2.500245	31.079574
8.300000	-2.042046	-50.299109	-5.390317	-100.198781	-5.390317	-100.198781	-2.407115	26.773184
8.350000	-1.962756	-51.971557	-5.572833	-103.169282	-5.572833	-103.169282	-2.317848	22.507205
8.400000	-1.886534	-53.647510	-5.760028	-106.119964	-5.760028	-106.119964	-2.232477	18.281053
8.450000	-1.813367	-55.326295	-5.951913	-109.050354	-5.951913	-109.050354	-2.151015	14.093911
8.500000	-1.743231	-57.007302	-6.148520	-111.960089	-6.148520	-111.960089	-2.073462	9.944730
8.550000	-1.676090	-58.689988	-6.349904	-114.848916	-6.349904	-114.848916	-1.999804	5.832230
8.600000	-1.611896	-60.373889	-6.556152	-117.716686	-6.556152	-117.716686	-1.930013	1.754898
8.650000	-1.550595	-62.058624	-6.767387	-120.563349	-6.767387	-120.563349	-1.864056	-2.289012
8.700000	-1.492122	-63.743907	-6.983776	-123.388947	-6.983776	-123.388947	-1.801887	-6.301482
8.750000	-1.436406	-65.429549	-7.205540	-126.193601	-7.205540	-126.193601	-1.743458	-10.284734
8.800000	-1.383420	-67.115478	-7.432958	-128.977053	-7.432958	-128.977053	-1.688788	-14.240715
8.850000	-1.333032	-68.801728	-7.666391	-131.739994	-7.666391	-131.739994	-1.637750	-18.172801
8.900000	-1.285156	-70.488465	-7.906285	-134.482679	-7.906285	-134.482679	-1.590290	-22.083993
8.950000	-1.239709	-72.175985	-8.153187	-137.205347	-8.153187	-137.205347	-1.546356	-25.977570
9.000000	-1.196604	-73.864722	-8.407766	-139.908185	-8.407766	-139.908185	-1.505902	-29.857106
9.050000	-1.155758	-75.555264	-8.670834	-142.591264	-8.670834	-142.591264	-1.468890	-33.726490
9.100000	-1.117089	-77.248359	-8.943374	-145.254467	-8.943374	-145.254467	-1.435289	-37.589955
9.150000	-1.080523	-78.944929	-9.226576	-147.897389	-9.226576	-147.897389	-1.405084	-41.452107
9.200000	-1.045959	-80.645974	-9.521810	-150.519620	-9.521810	-150.519620	-1.378211	-45.317778
9.250000	-1.013434	-82.353110	-9.830980	-153.118582	-9.830980	-153.118582	-1.354860	-49.192906
9.300000	-0.982839	-84.067703	-10.156088	-155.692693	-10.156088	-155.692693	-1.334952	-53.083265
9.350000	-0.954154	-85.791535	-10.499679	-158.238312	-10.499679	-158.238312	-1.318563	-56.995337
9.400000	-0.927406	-87.526844	-10.864969	-160.749368	-10.864969	-160.749368	-1.305853	-60.936726
9.450000	-0.902647	-89.276216	-11.255901	-163.216602	-11.255901	-163.216602	-1.297013	-64.915913
9.500000	-0.879925	-91.042246	-11.677005	-165.626737	-11.677005	-165.626737	-1.292198	-68.941183
9.550000	-0.859367	-92.828190	-12.133696	-167.956495	-12.133696	-167.956495	-1.291705	-73.022331
9.600000	-0.841168	-94.638006	-12.630361	-170.165696	-12.630361	-170.165696	-1.295947	-77.170694
9.650000	-0.825613	-96.476931	-13.163911	-172.258889	-13.163911	-172.258889	-1.305567	-81.400743
9.700000	-0.812891	-98.349357	-13.765738	-174.335569	-13.765738	-174.335569	-1.321118	-85.724741
9.750000	-0.803276	-100.260129	-14.462638	-176.122051	-14.462638	-176.122051	-1.343448	-90.158036
9.800000	-0.797278	-102.214501	-15.255873	-177.481452	-15.255873	-177.481452	-1.373829	-94.720700
9.850000	-0.795706	-104.217009	-16.166875	-178.252870	-16.166875	-178.252870	-1.413767	-99.433386
9.900000	-0.799778	-106.273394	-17.223492	-178.115447	-17.223492	-178.115447	-1.465279	-104.320229
9.950000	-0.810924	-108.389733	-18.451869	-176.529584	-18.451869	-176.529584	-1.530811	-109.405899
10.000000	-0.831004	-110.573559	-19.856350	-172.530925	-19.856350	-172.530925	-1.613835	-114.721898
