! freq	dB(S11)	phase(S11)	dB(S12)	phase(S12)	
!     	dB(S21)	phase(S21)	dB(S22)	phase(S22)	
!S-par simulation data
#  GHz  S  DB  R 50
0.000000	-0.000000	0.000000	-362.182877	180.000000	-362.182877	180.000000	-0.000000	0.000000
0.050000	-0.000119	-1.108216	-81.203055	15.280384	-81.203055	15.280384	-0.000119	-1.108180
0.100000	-0.000473	-2.216156	-80.395043	27.305086	-80.395043	27.305086	-0.000473	-2.216085
0.150000	-0.001052	-3.323560	-79.317488	37.018042	-79.317488	37.018042	-0.001051	-3.323454
0.200000	-0.001838	-4.430198	-78.157601	44.406624	-78.157601	44.406624	-0.001838	-4.430056
0.250000	-0.002825	-5.535792	-77.010957	49.824372	-77.010957	49.824372	-0.002824	-5.535615
0.300000	-0.003973	-6.640254	-75.933754	53.924766	-75.933754	53.924766	-0.003972	-6.640043
0.350000	-0.005266	-7.743395	-74.934082	56.994609	-74.934082	56.994609	-0.005265	-7.743150
0.400000	-0.006681	-8.845098	-74.012485	59.306311	-74.012485	59.306311	-0.006680	-8.844820
0.450000	-0.008195	-9.945276	-73.163874	61.053603	-73.163874	61.053603	-0.008194	-9.944965
0.500000	-0.009785	-11.043865	-72.381363	62.374178	-72.381363	62.374178	-0.009783	-11.043521
0.550000	-0.011430	-12.140827	-71.657920	63.366942	-71.657920	63.366942	-0.011429	-12.140452
0.600000	-0.013114	-13.236141	-70.987032	64.104040	-70.987032	64.104040	-0.013112	-13.235733
0.650000	-0.014820	-14.329797	-70.362909	64.638993	-70.362909	64.638993	-0.014818	-14.329358
0.700000	-0.016535	-15.421795	-69.780504	65.012195	-69.780504	65.012195	-0.016534	-15.421326
0.750000	-0.018250	-16.512143	-69.235454	65.254654	-69.235454	65.254654	-0.018248	-16.511643
0.800000	-0.019954	-17.600847	-68.723998	65.390559	-68.723998	65.390559	-0.019952	-17.600317
0.850000	-0.021643	-18.687917	-68.242889	65.439080	-68.242889	65.439080	-0.021641	-18.687358
0.900000	-0.023310	-19.773360	-67.789321	65.415641	-67.789321	65.415641	-0.023309	-19.772771
0.950000	-0.024955	-20.857178	-67.360858	65.332841	-67.360858	65.332841	-0.024953	-20.856560
1.000000	-0.026573	-21.939375	-66.955377	65.201118	-66.955377	65.201118	-0.026572	-21.938728
1.050000	-0.028165	-23.019945	-66.571020	65.029253	-66.571020	65.029253	-0.028163	-23.019270
1.100000	-0.029730	-24.098882	-66.206150	64.824738	-66.206150	64.824738	-0.029728	-24.098179
1.150000	-0.031268	-25.176174	-65.859321	64.594064	-65.859321	64.594064	-0.031267	-25.175445
1.200000	-0.032782	-26.251807	-65.529242	64.342933	-65.529242	64.342933	-0.032781	-26.251051
1.250000	-0.034271	-27.325763	-65.214762	64.076434	-65.214762	64.076434	-0.034270	-27.324981
1.300000	-0.035737	-28.397944	-64.915001	63.798905	-64.915001	63.798905	-0.035736	-28.397137
1.350000	-0.037183	-29.468400	-64.628850	63.515195	-64.628850	63.515195	-0.037182	-29.467568
1.400000	-0.038609	-30.537104	-64.355440	63.229207	-64.355440	63.229207	-0.038609	-30.536248
1.450000	-0.040019	-31.604027	-64.093961	62.944624	-64.093961	62.944624	-0.040018	-31.603148
1.500000	-0.041413	-32.669140	-63.843659	62.664958	-63.843659	62.664958	-0.041412	-32.668238
1.550000	-0.042794	-33.732410	-63.603817	62.393588	-63.603817	62.393588	-0.042793	-33.731486
1.600000	-0.044162	-34.793807	-63.373746	62.133791	-63.373746	62.133791	-0.044162	-34.792862
1.650000	-0.045521	-35.853298	-63.152777	61.888755	-63.152777	61.888755	-0.045521	-35.852332
1.700000	-0.046871	-36.910849	-62.940253	61.661594	-62.940253	61.661594	-0.046871	-36.909864
1.750000	-0.048213	-37.966428	-62.735513	61.455349	-62.735513	61.455349	-0.048213	-37.965424
1.800000	-0.049550	-39.020002	-62.537893	61.272979	-62.537893	61.272979	-0.049550	-39.018980
1.850000	-0.050882	-40.071539	-62.346712	61.117352	-62.346712	61.117352	-0.050883	-40.070499
1.900000	-0.052211	-41.121006	-62.161268	60.991217	-62.161268	60.991217	-0.052211	-41.119950
1.950000	-0.053538	-42.168371	-61.980831	60.897174	-61.980831	60.897174	-0.053538	-42.167300
2.000000	-0.054863	-43.213604	-61.804637	60.837633	-61.804637	60.837633	-0.054864	-43.212518
2.050000	-0.056188	-44.256675	-61.631885	60.814765	-61.631885	60.814765	-0.056189	-44.255576
2.100000	-0.057514	-45.297554	-61.461734	60.830441	-61.461734	60.830441	-0.057515	-45.296442
2.150000	-0.058841	-46.336213	-61.293300	60.886170	-61.293300	60.886170	-0.058842	-46.335090
2.200000	-0.060171	-47.372625	-61.125660	60.983020	-61.125660	60.983020	-0.060171	-47.371492
2.250000	-0.061503	-48.406765	-60.957855	61.121547	-60.957855	61.121547	-0.061504	-48.405621
2.300000	-0.062839	-49.438605	-60.788893	61.301712	-60.788893	61.301712	-0.062840	-49.437454
2.350000	-0.064180	-50.468124	-60.617762	61.522809	-60.617762	61.522809	-0.064181	-50.466965
2.400000	-0.065525	-51.495299	-60.443441	61.783391	-60.443441	61.783391	-0.065526	-51.494133
2.450000	-0.066876	-52.520107	-60.264916	62.081217	-60.264916	62.081217	-0.066877	-52.518935
2.500000	-0.068233	-53.542529	-60.081197	62.413206	-60.081197	62.413206	-0.068234	-53.541353
2.550000	-0.069596	-54.562441	-59.890842	62.776515	-59.890842	62.776515	-0.069597	-54.561261
2.600000	-0.070967	-55.579929	-59.693371	63.164773	-59.693371	63.164773	-0.070968	-55.578747
2.650000	-0.072345	-56.594977	-59.488006	63.572314	-59.488006	63.572314	-0.072346	-56.593794
2.700000	-0.073731	-57.607570	-59.274089	63.992783	-59.274089	63.992783	-0.073733	-57.606387
2.750000	-0.075126	-58.617695	-59.051097	64.419251	-59.051097	64.419251	-0.075127	-58.616512
2.800000	-0.076529	-59.625340	-58.818659	64.844369	-58.818659	64.844369	-0.076531	-59.624159
2.850000	-0.077942	-60.630494	-58.576565	65.260542	-58.576565	65.260542	-0.077943	-60.629316
2.900000	-0.079364	-61.633147	-58.324776	65.660109	-58.324776	65.660109	-0.079366	-61.631973
2.950000	-0.080796	-62.633292	-58.063415	66.035543	-58.063415	66.035543	-0.080798	-62.632123
3.000000	-0.082239	-63.630921	-57.792765	66.379626	-57.792765	66.379626	-0.082241	-63.629759
3.050000	-0.083692	-64.626029	-57.513252	66.685618	-57.513252	66.685618	-0.083695	-64.624874
3.100000	-0.085157	-65.618612	-57.225429	66.947402	-57.225429	66.947402	-0.085160	-65.617466
3.150000	-0.086634	-66.608667	-56.929955	67.159588	-56.929955	67.159588	-0.086636	-66.607530
3.200000	-0.088122	-67.596191	-56.627570	67.317598	-56.627570	67.317598	-0.088125	-67.595065
3.250000	-0.089624	-68.581186	-56.319071	67.417703	-56.319071	67.417703	-0.089627	-68.580072
3.300000	-0.091138	-69.563651	-56.005286	67.457031	-56.005286	67.457031	-0.091141	-69.562550
3.350000	-0.092665	-70.543588	-55.687057	67.433552	-55.687057	67.433552	-0.092669	-70.542501
3.400000	-0.094207	-71.521001	-55.365216	67.346027	-55.365216	67.346027	-0.094210	-71.519929
3.450000	-0.095762	-72.495895	-55.040569	67.193949	-55.040569	67.193949	-0.095766	-72.494839
3.500000	-0.097333	-73.468274	-54.713884	66.977464	-54.713884	66.977464	-0.097336	-73.467236
3.550000	-0.098918	-74.438147	-54.385876	66.697286	-54.385876	66.697286	-0.098922	-74.437128
3.600000	-0.100519	-75.405521	-54.057207	66.354611	-54.057207	66.354611	-0.100524	-75.404521
3.650000	-0.102137	-76.370404	-53.728473	65.951029	-53.728473	65.951029	-0.102141	-76.369426
3.700000	-0.103771	-77.332809	-53.400207	65.488443	-53.400207	65.488443	-0.103775	-77.331852
3.750000	-0.105422	-78.292746	-53.072879	64.968992	-53.072879	64.968992	-0.105426	-78.291812
3.800000	-0.107091	-79.250122	-52.746438	64.392720	-52.746438	64.392720	-0.107096	-79.249212
3.850000	-0.108779	-80.205058	-52.421721	63.764520	-52.421721	63.764520	-0.108784	-80.204174
3.900000	-0.110485	-81.157569	-52.099008	63.086853	-52.099008	63.086853	-0.110490	-81.156712
3.950000	-0.112210	-82.107672	-51.778529	62.362184	-51.778529	62.362184	-0.112216	-82.106842
4.000000	-0.113956	-83.055383	-51.460462	61.592944	-51.460462	61.592944	-0.113961	-83.054583
4.050000	-0.115721	-84.000722	-51.144942	60.781501	-51.144942	60.781501	-0.115727	-83.999952
4.100000	-0.117507	-84.943708	-50.832065	59.930144	-50.832065	59.930144	-0.117513	-84.942969
4.150000	-0.119315	-85.884361	-50.521889	59.041060	-50.521889	59.041060	-0.119321	-85.883655
4.200000	-0.121144	-86.822703	-50.214443	58.116325	-50.214443	58.116325	-0.121151	-86.822030
4.250000	-0.122996	-87.758757	-49.909727	57.157899	-49.909727	57.157899	-0.123003	-87.758119
4.300000	-0.124872	-88.692547	-49.607718	56.167616	-49.607718	56.167616	-0.124879	-88.691945
4.350000	-0.126770	-89.624097	-49.308373	55.147186	-49.308373	55.147186	-0.126778	-89.623533
4.400000	-0.128693	-90.553434	-49.011631	54.098193	-49.011631	54.098193	-0.128701	-90.552908
4.450000	-0.130641	-91.480585	-48.717417	53.022099	-48.717417	53.022099	-0.130649	-91.480098
4.500000	-0.132614	-92.405578	-48.425642	51.920246	-48.425642	51.920246	-0.132622	-92.405132
4.550000	-0.134614	-93.328442	-48.136207	50.793860	-48.136207	50.793860	-0.134622	-93.328038
4.600000	-0.136639	-94.249207	-47.849006	49.644058	-47.849006	49.644058	-0.136648	-94.248847
4.650000	-0.138692	-95.167907	-47.563923	48.471850	-47.563923	48.471850	-0.138701	-95.167591
4.700000	-0.140773	-96.084572	-47.280840	47.278148	-47.280840	47.278148	-0.140782	-96.084302
4.750000	-0.142882	-96.999238	-46.999631	46.063771	-46.999631	46.063771	-0.142891	-96.999015
4.800000	-0.145020	-97.911939	-46.720167	44.829451	-46.720167	44.829451	-0.145030	-97.911764
4.850000	-0.147188	-98.822712	-46.442317	43.575838	-46.442317	43.575838	-0.147198	-98.822586
4.900000	-0.149386	-99.731594	-46.165946	42.303508	-46.165946	42.303508	-0.149396	-99.731519
4.950000	-0.151614	-100.638625	-45.890918	41.012965	-45.890918	41.012965	-0.151625	-100.638602
5.000000	-0.153874	-101.543845	-45.617095	39.704652	-45.617095	39.704652	-0.153885	-101.543876
5.050000	-0.156168	-102.447221	-45.344002	38.378209	-45.344002	38.378209	-0.156179	-102.447306
5.100000	-0.158494	-103.348876	-45.071823	37.034731	-45.071823	37.034731	-0.158505	-103.349017
5.150000	-0.160854	-104.248853	-44.800410	35.674489	-44.800410	35.674489	-0.160865	-104.249052
5.200000	-0.163247	-105.147201	-44.529617	34.297711	-44.529617	34.297711	-0.163259	-105.147458
5.250000	-0.165675	-106.043968	-44.259294	32.904583	-44.259294	32.904583	-0.165687	-106.044285
5.300000	-0.168139	-106.939204	-43.989289	31.495255	-43.989289	31.495255	-0.168151	-106.939582
5.350000	-0.170638	-107.832961	-43.719445	30.069844	-43.719445	30.069844	-0.170651	-107.833402
5.400000	-0.173174	-108.725294	-43.449604	28.628434	-43.449604	28.628434	-0.173187	-108.725799
5.450000	-0.175747	-109.616259	-43.179601	27.171081	-43.179601	27.171081	-0.175760	-109.616830
5.500000	-0.178358	-110.505916	-42.909268	25.697817	-42.909268	25.697817	-0.178371	-110.506554
5.550000	-0.181007	-111.394326	-42.638431	24.208647	-42.638431	24.208647	-0.181021	-111.395033
5.600000	-0.183696	-112.281554	-42.366908	22.703555	-42.366908	22.703555	-0.183710	-112.282330
5.650000	-0.186424	-113.167667	-42.094511	21.182504	-42.094511	21.182504	-0.186439	-113.168514
5.700000	-0.189194	-114.052735	-41.821041	19.645437	-41.821041	19.645437	-0.189209	-114.053656
5.750000	-0.192005	-114.936834	-41.546292	18.092275	-41.546292	18.092275	-0.192020	-114.937829
5.800000	-0.194859	-115.820041	-41.270044	16.522922	-41.270044	16.522922	-0.194875	-115.821112
5.850000	-0.197757	-116.702439	-40.992066	14.937262	-40.992066	14.937262	-0.197772	-116.703589
5.900000	-0.200698	-117.584116	-40.712112	13.335156	-40.712112	13.335156	-0.200714	-117.585345
5.950000	-0.203686	-118.465164	-40.429921	11.716446	-40.429921	11.716446	-0.203702	-118.466475
6.000000	-0.206720	-119.345684	-40.145212	10.080950	-40.145212	10.080950	-0.206737	-119.347078
6.050000	-0.209802	-120.225779	-39.857686	8.428459	-39.857686	8.428459	-0.209819	-120.227258
6.100000	-0.212933	-121.105563	-39.567020	6.758738	-39.567020	6.758738	-0.212951	-121.107129
6.150000	-0.216115	-121.985157	-39.272868	5.071518	-39.272868	5.071518	-0.216133	-121.986813
6.200000	-0.219350	-122.864693	-38.974854	3.366492	-38.974854	3.366492	-0.219369	-122.866440
6.250000	-0.222640	-123.744312	-38.672571	1.643314	-38.672571	1.643314	-0.222659	-123.746152
6.300000	-0.225990	-124.624187	-38.364866	-0.099242	-38.364866	-0.099242	-0.226009	-124.626123
6.350000	-0.229399	-125.504485	-38.051880	-1.860849	-38.051880	-1.860849	-0.229420	-125.506519
6.400000	-0.232872	-126.385393	-37.733075	-3.642039	-37.733075	-3.642039	-0.232893	-126.387528
6.450000	-0.236412	-127.267118	-37.407858	-5.443425	-37.407858	-5.443425	-0.236433	-127.269357
6.500000	-0.240023	-128.149889	-37.075576	-7.265715	-37.075576	-7.265715	-0.240045	-128.152235
6.550000	-0.243711	-129.033963	-36.735512	-9.109733	-36.735512	-9.109733	-0.243733	-129.036419
6.600000	-0.247481	-129.919627	-36.386870	-10.976435	-36.386870	-10.976435	-0.247505	-129.922196
6.650000	-0.251342	-130.807205	-36.028767	-12.866941	-36.028767	-12.866941	-0.251367	-130.809891
6.700000	-0.255290	-131.696760	-35.663382	-14.779500	-35.663382	-14.779500	-0.255316	-131.699567
6.750000	-0.259366	-132.589410	-35.282253	-16.722823	-35.282253	-16.722823	-0.259392	-132.592343
6.800000	-0.263557	-133.485014	-34.890564	-18.692555	-34.890564	-18.692555	-0.263585	-133.488078
6.850000	-0.267897	-134.384531	-34.483302	-20.694283	-34.483302	-20.694283	-0.267926	-134.387731
6.900000	-0.272399	-135.288386	-34.060920	-22.728773	-34.060920	-22.728773	-0.272428	-135.291728
6.950000	-0.277090	-136.197354	-33.621581	-24.799166	-33.621581	-24.799166	-0.277121	-136.200846
7.000000	-0.282018	-137.112696	-33.160937	-26.911538	-33.160937	-26.911538	-0.282051	-137.116345
7.050000	-0.287202	-138.034733	-32.681882	-29.065546	-32.681882	-29.065546	-0.287237	-138.038547
7.100000	-0.292732	-138.965642	-32.176322	-31.272131	-32.176322	-31.272131	-0.292769	-138.969634
7.150000	-0.298688	-139.906964	-31.642136	-33.537580	-31.642136	-33.537580	-0.298728	-139.911146
7.200000	-0.305177	-140.860659	-31.076345	-35.870358	-31.076345	-35.870358	-0.305220	-140.865046
7.250000	-0.312355	-141.829362	-30.474492	-38.282265	-30.474492	-38.282265	-0.312402	-141.833971
7.300000	-0.320441	-142.816447	-29.831238	-40.788652	-29.831238	-40.788652	-0.320492	-142.821299
7.350000	-0.329751	-143.826298	-29.140109	-43.409833	-29.140109	-43.409833	-0.329808	-143.831421
7.400000	-0.340753	-144.864719	-28.393172	-46.173220	-28.393172	-46.173220	-0.340817	-144.870146
7.450000	-0.354141	-145.939345	-27.581186	-49.115771	-27.581186	-49.115771	-0.354216	-145.945119
7.500000	-0.371070	-147.061430	-26.689951	-52.293685	-26.689951	-52.293685	-0.371158	-147.067605
7.550000	-0.393409	-148.246375	-25.702831	-55.787353	-25.702831	-55.787353	-0.393517	-148.253027
7.600000	-0.424306	-149.515470	-24.600166	-59.715444	-24.600166	-59.715444	-0.424442	-149.522700
7.650000	-0.469450	-150.899353	-23.355716	-64.266510	-23.355716	-64.266510	-0.469628	-150.907303
7.700000	-0.540046	-152.442085	-21.932544	-69.762749	-21.932544	-69.762749	-0.540295	-152.450959
7.750000	-0.659220	-154.195114	-20.288651	-76.766354	-20.288651	-76.766354	-0.659592	-154.205204
7.800000	-0.877570	-156.166867	-18.390755	-86.311347	-18.390755	-86.311347	-0.878180	-156.178548
7.850000	-1.303710	-158.028372	-16.280479	-100.332464	-16.280479	-100.332464	-1.304824	-158.041791
7.900000	-2.056634	-157.883408	-14.330304	-121.715861	-14.330304	-121.715861	-2.058774	-157.896316
7.950000	-2.598571	-152.276677	-13.591451	-150.523514	-13.591451	-150.523514	-2.601552	-152.280478
8.000000	-2.074598	-147.035328	-14.717562	-177.974931	-14.717562	-177.974931	-2.076711	-147.030740
8.050000	-1.411857	-146.795897	-16.744231	162.706420	-16.744231	162.706420	-1.413043	-146.790768
8.100000	-1.025918	-148.304975	-18.780922	150.010128	-18.780922	150.010128	-1.026633	-148.301226
8.150000	-0.817534	-150.005201	-20.576232	141.187093	-20.576232	141.187093	-0.818011	-150.002782
8.200000	-0.699103	-151.583765	-22.121359	134.566850	-22.121359	134.566850	-0.699450	-151.582399
8.250000	-0.627852	-153.016540	-23.451767	129.272870	-23.451767	129.272870	-0.628121	-153.015990
8.300000	-0.582589	-154.331969	-24.611817	124.810079	-24.611817	124.810079	-0.582807	-154.332067
8.350000	-0.552960	-155.557521	-25.630344	120.908889	-25.630344	120.908889	-0.553143	-155.558143
8.400000	-0.533043	-156.716566	-26.535370	117.395040	-26.535370	117.395040	-0.533201	-156.717623
8.450000	-0.519743	-157.823693	-27.339072	114.172211	-27.339072	114.172211	-0.519884	-157.825117
8.500000	-0.510705	-158.893711	-28.066669	111.154322	-28.066669	111.154322	-0.510832	-158.895453
8.550000	-0.504835	-159.933871	-28.724026	108.302005	-28.724026	108.302005	-0.504951	-159.935891
8.600000	-0.501288	-160.950689	-29.320013	105.582007	-29.320013	105.582007	-0.501396	-160.952954
8.650000	-0.499490	-161.949090	-29.861690	102.970818	-29.861690	102.970818	-0.499591	-161.951574
8.700000	-0.499040	-162.932855	-30.354742	100.451653	-30.354742	100.451653	-0.499135	-162.935537
8.750000	-0.499651	-163.904936	-30.803793	98.012503	-30.803793	98.012503	-0.499740	-163.907797
8.800000	-0.501136	-164.867420	-31.210830	95.646994	-31.210830	95.646994	-0.501222	-164.870444
8.850000	-0.503308	-165.822539	-31.581215	93.346769	-31.581215	93.346769	-0.503391	-165.825713
8.900000	-0.506054	-166.771791	-31.917481	91.108057	-31.917481	91.108057	-0.506133	-166.775103
8.950000	-0.509283	-167.716418	-32.221768	88.928591	-32.221768	88.928591	-0.509359	-167.719856
9.000000	-0.512928	-168.657457	-32.495905	86.807315	-32.495905	86.807315	-0.513002	-168.661012
9.050000	-0.516935	-169.595786	-32.741456	84.744162	-32.741456	84.744162	-0.517006	-169.599449
9.100000	-0.521260	-170.532158	-32.959777	82.739893	-32.959777	82.739893	-0.521329	-170.535920
9.150000	-0.525870	-171.467222	-33.152047	80.795981	-33.152047	80.795981	-0.525937	-171.471076
9.200000	-0.530738	-172.401546	-33.319299	78.914517	-33.319299	78.914517	-0.530803	-172.405484
9.250000	-0.535841	-173.335632	-33.462449	77.098152	-33.462449	77.098152	-0.535904	-173.339646
9.300000	-0.541162	-174.269924	-33.582314	75.350052	-33.582314	75.350052	-0.541222	-174.274008
9.350000	-0.546686	-175.204826	-33.679629	73.673871	-33.679629	73.673871	-0.546745	-175.208972
9.400000	-0.552404	-176.140699	-33.755066	72.073740	-33.755066	72.073740	-0.552460	-176.144900
9.450000	-0.558305	-177.077876	-33.809249	70.554267	-33.809249	70.554267	-0.558359	-177.082126
9.500000	-0.564382	-178.016664	-33.842760	69.120550	-33.842760	69.120550	-0.564434	-178.020956
9.550000	-0.570631	-178.957348	-33.856161	67.778197	-33.856161	67.778197	-0.570681	-178.961675
9.600000	-0.577047	-179.900195	-33.850000	66.533365	-33.850000	66.533365	-0.577095	-179.904549
9.650000	-0.583629	179.154546	-33.824831	65.392797	-33.824831	65.392797	-0.583674	179.150171
9.700000	-0.590373	178.206635	-33.781225	64.363874	-33.781225	64.363874	-0.590416	178.202247
9.750000	-0.597281	177.255846	-33.719792	63.454670	-33.719792	63.454670	-0.597321	177.251452
9.800000	-0.604352	176.301960	-33.641202	62.674010	-33.641202	62.674010	-0.604389	176.297568
9.850000	-0.611587	175.344768	-33.546210	62.031528	-33.546210	62.031528	-0.611621	175.340386
9.900000	-0.618988	174.384066	-33.435690	61.537715	-33.435690	61.537715	-0.619018	174.379701
9.950000	-0.626557	173.419656	-33.310674	61.203952	-33.310674	61.203952	-0.626584	173.415317
10.000000	-0.634298	172.451344	-33.172393	61.042508	-33.172393	61.042508	-0.634321	172.447040
