! freq	dB(S11)	phase(S11)	dB(S12)	phase(S12)	
!     	dB(S21)	phase(S21)	dB(S22)	phase(S22)	
!S-par simulation data
#  GHz  S  DB  R 50
0.000000	-81.631019	0.000000	-0.000720	0.000000	-0.000720	0.000000	-81.631019	0.000000
0.050000	-36.501083	-93.058991	-0.005939	-3.450930	-0.005939	-3.450930	-36.501054	-93.056314
0.100000	-30.515931	-96.610520	-0.016132	-6.861587	-0.016132	-6.861587	-30.515847	-96.605015
0.150000	-27.050246	-100.079285	-0.026863	-10.248035	-0.026863	-10.248035	-27.050110	-100.070790
0.200000	-24.623310	-103.546139	-0.038061	-13.624754	-0.038061	-13.624754	-24.623144	-103.534623
0.250000	-22.771107	-107.017641	-0.050270	-16.995241	-0.050270	-16.995241	-22.770933	-107.003211
0.300000	-21.286252	-110.482736	-0.063734	-20.359305	-0.063734	-20.359305	-21.286077	-110.465519
0.350000	-20.057147	-113.929841	-0.078388	-23.716224	-0.078388	-23.716224	-20.056965	-113.909878
0.400000	-19.019344	-117.352339	-0.094080	-27.065084	-0.094080	-27.065084	-19.019149	-117.329578
0.450000	-18.133514	-120.747612	-0.110612	-30.404865	-0.110612	-30.404865	-18.133303	-120.721937
0.500000	-17.369388	-124.118716	-0.127676	-33.735724	-0.127676	-33.735724	-17.369161	-124.089986
0.550000	-16.707090	-127.468424	-0.145004	-37.057693	-0.145004	-37.057693	-16.706849	-127.436483
0.600000	-16.134073	-130.798925	-0.162305	-40.370700	-0.162305	-40.370700	-16.133819	-130.763595
0.650000	-15.637763	-134.113785	-0.179297	-43.675697	-0.179297	-43.675697	-15.637496	-134.074880
0.700000	-15.209358	-137.415649	-0.195719	-46.973638	-0.195719	-46.973638	-15.209079	-137.372966
0.750000	-14.843795	-140.706487	-0.211287	-50.265483	-0.211287	-50.265483	-14.843503	-140.659794
0.800000	-14.536048	-143.988578	-0.225751	-53.552689	-0.225751	-53.552689	-14.535741	-143.937611
0.850000	-14.281893	-147.264158	-0.238898	-56.836966	-0.238898	-56.836966	-14.281569	-147.208620
0.900000	-14.078546	-150.535314	-0.250527	-60.120162	-0.250527	-60.120162	-14.078203	-150.474867
0.950000	-13.924387	-153.804115	-0.260456	-63.404315	-0.260456	-63.404315	-13.924023	-153.738365
1.000000	-13.818418	-157.072698	-0.268532	-66.691669	-0.268532	-66.691669	-13.818029	-157.001186
1.050000	-13.760398	-160.343236	-0.274634	-69.984649	-0.274634	-69.984649	-13.759980	-160.265424
1.100000	-13.750840	-163.617929	-0.278674	-73.285845	-0.278674	-73.285845	-13.750389	-163.533180
1.150000	-13.791055	-166.898972	-0.280600	-76.597994	-0.280600	-76.597994	-13.790566	-166.806528
1.200000	-13.883228	-170.188513	-0.280403	-79.923969	-0.280403	-79.923969	-13.882695	-170.087460
1.250000	-14.030557	-173.488579	-0.278114	-83.266751	-0.278114	-83.266751	-14.029971	-173.377806
1.300000	-14.238727	-176.801282	-0.273772	-86.629918	-0.273772	-86.629918	-14.238078	-176.679384
1.350000	-14.512526	179.872196	-0.267557	-90.016244	-0.267557	-90.016244	-14.511801	-179.993052
1.400000	-14.859857	176.531049	-0.259656	-93.428896	-0.259656	-93.428896	-14.859038	176.680856
1.450000	-15.291233	173.175424	-0.250314	-96.871033	-0.250314	-96.871033	-15.290292	173.343144
1.500000	-15.820785	169.806974	-0.239835	-100.345768	-0.239835	-100.345768	-15.819686	169.996411
1.550000	-16.467866	166.429806	-0.228588	-103.856119	-0.228588	-103.856119	-16.466552	166.646171
1.600000	-17.259706	163.052178	-0.217005	-107.404955	-0.217005	-107.404955	-17.258088	163.302876
1.650000	-18.236097	159.689815	-0.205585	-110.994938	-0.205585	-110.994938	-18.234025	159.985869
1.700000	-19.458254	156.373016	-0.194892	-114.628455	-0.194892	-114.628455	-19.455454	156.731872
1.750000	-21.027328	153.163914	-0.185555	-118.307545	-0.185555	-118.307545	-21.023240	153.615583
1.800000	-23.127254	150.200215	-0.178239	-122.033427	-0.178239	-122.033427	-23.120533	150.801771
1.850000	-26.161961	147.901811	-0.173754	-125.808262	-0.173754	-125.808262	-26.148277	148.791618
1.900000	-31.296063	148.121956	-0.172889	-129.632176	-0.172889	-129.632176	-31.250987	149.781157
1.950000	-44.849088	-167.773271	-0.176491	-133.504987	-0.176491	-133.504987	-43.859316	-164.046280
2.000000	-33.174028	-60.006595	-0.185399	-137.425486	-0.185399	-137.425486	-33.102010	-62.254498
2.050000	-26.397028	-57.661318	-0.200475	-141.391915	-0.200475	-141.391915	-26.381933	-58.736253
2.100000	-22.477807	-59.810371	-0.222758	-145.402640	-0.222758	-145.402640	-22.471609	-60.523026
2.150000	-19.697540	-62.937451	-0.252750	-149.452276	-0.252750	-149.452276	-19.694264	-63.469953
2.200000	-17.534473	-66.477615	-0.291334	-153.537256	-0.291334	-153.537256	-17.532476	-66.904253
2.250000	-15.764106	-70.229804	-0.339178	-157.652335	-0.339178	-157.652335	-15.762775	-70.586716
2.300000	-14.268729	-74.107126	-0.396838	-161.791495	-0.396838	-161.791495	-14.267785	-74.414611
2.350000	-12.978920	-78.063344	-0.464740	-165.948047	-0.464740	-165.948047	-12.978219	-78.333939
2.400000	-11.850260	-82.069586	-0.543153	-170.114774	-0.543153	-170.114774	-11.849720	-82.311582
2.450000	-10.852532	-86.105424	-0.632177	-174.284096	-0.632177	-174.284096	-10.852105	-86.324586
2.500000	-9.964164	-90.155004	-0.731728	-178.448261	-0.731728	-178.448261	-9.963818	-90.355507
2.550000	-9.169460	-94.205009	-0.841716	177.400903	-0.841716	177.400903	-9.169173	-94.390027
2.600000	-8.455852	-98.244103	-0.961461	173.270741	-0.961461	173.270741	-8.455610	-98.416009
2.650000	-7.813491	-102.262740	-1.090314	169.168254	-1.090314	169.168254	-7.813284	-102.423403
2.700000	-7.234353	-106.252691	-1.227459	165.099805	-1.227459	165.099805	-7.234173	-106.403607
2.750000	-6.711751	-110.206971	-1.371931	161.070974	-1.371931	161.070974	-6.711592	-110.349363
2.800000	-6.240007	-114.119817	-1.522635	157.086435	-1.522635	157.086435	-6.239865	-114.254692
2.850000	-5.814222	-117.986667	-1.678369	153.149865	-1.678369	153.149865	-5.814094	-118.114869
2.900000	-5.430126	-121.804146	-1.837845	149.263894	-1.837845	149.263894	-5.430010	-121.926391
2.950000	-5.083961	-125.570043	-1.999706	145.430070	-1.999706	145.430070	-5.083855	-125.686945
3.000000	-4.772406	-129.283275	-2.162546	141.648868	-2.162546	141.648868	-4.772308	-129.395365
3.050000	-4.492522	-132.943844	-2.324923	137.919695	-2.324923	137.919695	-4.492432	-133.051587
3.100000	-4.241710	-136.552794	-2.485370	134.240918	-2.485370	134.240918	-4.241627	-136.656600
3.150000	-4.017899	-140.111656	-2.642317	130.610372	-2.642317	130.610372	-4.017823	-140.211896
3.200000	-3.819078	-143.623562	-2.794216	127.024260	-2.794216	127.024260	-3.819009	-143.720570
3.250000	-3.643321	-147.093043	-2.939613	123.477372	-2.939613	123.477372	-3.643258	-147.187122
3.300000	-3.489205	-150.525018	-3.076959	119.964013	-3.076959	119.964013	-3.489149	-150.616448
3.350000	-3.356796	-153.923743	-3.203771	116.478635	-3.203771	116.478635	-3.356748	-154.012804
3.400000	-3.242909	-157.299730	-3.320030	113.010407	-3.320030	113.010407	-3.242869	-157.386657
3.450000	-3.148083	-160.659085	-3.423321	109.551705	-3.423321	109.551705	-3.148053	-160.744123
3.500000	-3.072132	-164.010924	-3.511838	106.091936	-3.511838	106.091936	-3.072113	-164.094315
3.550000	-3.015266	-167.365776	-3.583655	102.618733	-3.583655	102.618733	-3.015260	-167.447767
3.600000	-2.978172	-170.735863	-3.636694	99.117551	-3.636694	99.117551	-2.978181	-170.816711
3.650000	-2.962128	-174.135460	-3.668696	95.571117	-3.668696	95.571117	-2.962156	-174.215440
3.700000	-2.969180	-177.581379	-3.677194	91.958673	-3.677194	91.958673	-2.969230	-177.660792
3.750000	-3.002393	178.906406	-3.659482	88.254959	-3.659482	88.254959	-3.002472	178.827215
3.800000	-3.068072	175.298067	-3.610938	84.420826	-3.610938	84.420826	-3.068186	175.218673
3.850000	-3.171668	171.567366	-3.529651	80.420677	-3.529651	80.420677	-3.171830	171.487272
3.900000	-3.323122	167.678455	-3.412184	76.203231	-3.412184	76.203231	-3.323348	167.597035
3.950000	-3.537194	163.588289	-3.255108	71.702281	-3.255108	71.702281	-3.537508	163.504718
4.000000	-3.836306	159.246598	-3.055396	66.831359	-3.055396	66.831359	-3.836746	159.159750
4.050000	-4.255567	154.599064	-2.811226	61.476625	-2.811226	61.476625	-4.256198	154.507317
4.100000	-4.856091	149.593047	-2.522557	55.472326	-2.522557	55.472326	-4.857032	149.493854
4.150000	-5.737268	144.242938	-2.197062	48.622756	-2.197062	48.622756	-5.738762	144.132091
4.200000	-7.081302	138.767191	-1.853417	40.681961	-1.853417	40.681961	-7.083923	138.636990
4.250000	-9.263569	134.178554	-1.530577	31.347202	-1.530577	31.347202	-9.269076	134.012510
4.300000	-13.105519	135.327480	-1.299980	20.369053	-1.299980	20.369053	-13.122028	135.088122
4.350000	-18.736077	171.720289	-1.268419	7.707195	-1.268419	7.707195	-18.806415	171.587415
4.400000	-13.796652	-134.706233	-1.563510	-6.264930	-1.563510	-6.264930	-13.820628	-134.505349
4.450000	-8.417906	-132.127316	-2.270218	-20.629064	-2.270218	-20.629064	-8.424522	-132.013921
4.500000	-5.331634	-139.948379	-3.377420	-34.262823	-3.377420	-34.262823	-5.334420	-139.879197
4.550000	-3.504102	-149.305622	-4.786165	-46.364623	-4.786165	-46.364623	-3.505537	-149.259582
4.600000	-2.398450	-158.117849	-6.372892	-56.658012	-6.372892	-56.658012	-2.399268	-158.085445
4.650000	-1.715567	-165.887529	-8.037611	-65.253989	-8.037611	-65.253989	-1.716053	-165.863831
4.700000	-1.281673	-172.637333	-9.721866	-72.433998	-9.721866	-72.433998	-1.281961	-172.619503
4.750000	-1.000889	-178.504579	-11.386297	-78.451123	-11.386297	-78.451123	-1.001050	-178.490797
4.800000	-0.810684	176.303818	-13.034317	-83.585525	-13.034317	-83.585525	-0.810756	176.314713
4.850000	-0.680809	171.665935	-14.651756	-87.984085	-14.651756	-87.984085	-0.680818	171.674795
4.900000	-0.588680	167.446156	-16.254943	-91.803908	-16.254943	-91.803908	-0.588640	167.453575
4.950000	-0.524364	163.590634	-17.814895	-95.086268	-17.814895	-95.086268	-0.524287	163.597109
5.000000	-0.476361	159.982886	-19.383775	-97.969150	-19.383775	-97.969150	-0.476253	159.988744
5.050000	-0.442353	156.619620	-20.902427	-100.408698	-20.902427	-100.408698	-0.442219	156.625183
5.100000	-0.416380	153.415428	-22.433737	-102.515099	-22.433737	-102.515099	-0.416225	153.420909
5.150000	-0.397293	150.363151	-23.935841	-104.249065	-23.935841	-104.249065	-0.397119	150.368758
5.200000	-0.382854	147.423759	-25.431615	-105.655296	-25.431615	-105.655296	-0.382662	147.429653
5.250000	-0.372055	144.580414	-26.906742	-106.732849	-26.906742	-106.732849	-0.371848	144.586741
5.300000	-0.364435	141.826912	-28.303088	-107.457882	-28.303088	-107.457882	-0.364213	141.833825
5.350000	-0.358281	139.116255	-29.747422	-108.008036	-29.747422	-108.008036	-0.358043	139.123833
5.400000	-0.354447	136.474971	-31.037450	-108.308399	-31.037450	-108.308399	-0.354196	136.483361
5.450000	-0.351854	133.869755	-32.261977	-108.608857	-32.261977	-108.608857	-0.351589	133.879054
5.500000	-0.350292	131.293194	-33.408835	-109.027237	-33.408835	-109.027237	-0.350011	131.303492
5.550000	-0.349794	128.744251	-34.399886	-109.752087	-34.399886	-109.752087	-0.349499	128.755651
5.600000	-0.350391	126.217414	-35.151389	-111.321112	-35.151389	-111.321112	-0.350081	126.230045
5.650000	-0.351671	123.699970	-35.736733	-113.695416	-35.736733	-113.695416	-0.351344	123.713924
5.700000	-0.353611	121.189474	-36.126190	-116.940235	-36.126190	-116.940235	-0.353266	121.204847
5.750000	-0.356461	118.681530	-36.202003	-121.551105	-36.202003	-121.551105	-0.356097	118.698467
5.800000	-0.360047	116.168729	-36.010121	-127.045575	-36.010121	-127.045575	-0.359663	116.187360
5.850000	-0.364273	113.648772	-35.598423	-133.073633	-35.598423	-133.073633	-0.363866	113.669215
5.900000	-0.369212	111.118238	-34.971197	-139.489171	-34.971197	-139.489171	-0.368780	111.140628
5.950000	-0.375257	108.564233	-34.066715	-145.848009	-34.066715	-145.848009	-0.374796	108.588789
6.000000	-0.382106	105.989986	-33.057004	-151.955603	-33.057004	-151.955603	-0.381614	106.016867
6.050000	-0.389809	103.393409	-31.981525	-157.771859	-31.981525	-157.771859	-0.389282	103.422786
6.100000	-0.398811	100.760636	-30.813605	-163.123066	-30.813605	-163.123066	-0.398244	100.792770
6.150000	-0.409269	98.086191	-29.602816	-168.080667	-29.602816	-168.080667	-0.408655	98.121369
6.200000	-0.421036	95.374685	-28.409776	-172.772765	-28.409776	-172.772765	-0.420370	95.413158
6.250000	-0.434210	92.623648	-27.243591	-177.224364	-27.243591	-177.224364	-0.433485	92.665686
6.300000	-0.450235	89.795493	-26.029562	178.599488	-26.029562	178.599488	-0.449437	89.841626
6.350000	-0.468474	86.911546	-24.852679	174.528097	-24.852679	174.528097	-0.467593	86.962169
6.400000	-0.488875	83.974642	-23.723883	170.539573	-23.723883	170.539573	-0.487901	84.030134
6.450000	-0.513259	80.945832	-22.586368	166.619704	-22.586368	166.619704	-0.512172	81.006868
6.500000	-0.541889	77.827017	-21.462626	162.713088	-21.462626	162.713088	-0.540669	77.894290
6.550000	-0.575787	74.604991	-20.348853	158.785195	-20.348853	158.785195	-0.574408	74.679325
6.600000	-0.615685	71.275285	-19.252324	154.806922	-19.252324	154.806922	-0.614117	71.357584
6.650000	-0.664063	67.806481	-18.153532	150.737164	-18.153532	150.737164	-0.662264	67.897972
6.700000	-0.721594	64.202533	-17.070243	146.559165	-17.070243	146.559165	-0.719517	64.304478
6.750000	-0.791744	60.429561	-15.987119	142.229072	-15.987119	142.229072	-0.789325	60.543635
6.800000	-0.877572	56.469556	-14.906164	137.715210	-14.906164	137.715210	-0.874731	56.597747
6.850000	-0.983479	52.297280	-13.826116	132.979365	-13.826116	132.979365	-0.980110	52.442029
6.900000	-1.115655	47.881398	-12.744956	127.975814	-12.744956	127.975814	-1.111618	48.045768
6.950000	-1.282248	43.189588	-11.663162	122.655654	-11.663162	122.655654	-1.277350	43.377443
7.000000	-1.493736	38.191509	-10.584163	116.969248	-10.584163	116.969248	-1.487717	38.407725
7.050000	-1.764647	32.855260	-9.511917	110.859671	-9.511917	110.859671	-1.757140	33.106136
7.100000	-2.114646	27.155242	-8.453023	104.267693	-8.453023	104.267693	-2.105118	27.449054
7.150000	-2.570288	21.081774	-7.417432	97.136243	-7.417432	97.136243	-2.557944	21.429618
7.200000	-3.167219	14.657878	-6.419058	89.418242	-6.419058	89.418242	-3.150822	15.074964
7.250000	-3.952877	7.967571	-5.475955	81.088430	-5.475955	81.088430	-3.930411	8.475277
7.300000	-4.986195	1.196314	-4.609032	72.170061	-4.609032	72.170061	-4.954232	1.824468
7.350000	-6.357838	-5.267562	-3.841717	62.698316	-3.841717	62.698316	-6.309816	-4.472676
7.400000	-8.171137	-10.671036	-3.195103	52.814463	-3.195103	52.814463	-8.093709	-9.643037
7.450000	-10.561022	-13.477010	-2.682944	42.697204	-2.682944	42.697204	-10.423685	-12.134096
7.500000	-13.623870	-10.206200	-2.308452	32.554526	-2.308452	32.554526	-13.351926	-8.573936
7.550000	-16.773570	6.795565	-2.064585	22.592049	-2.064585	22.592049	-16.249413	7.749815
7.600000	-17.307382	36.700686	-1.931513	12.968974	-1.931513	12.968974	-16.757910	35.175079
7.650000	-15.027040	55.676776	-1.885899	3.784763	-1.885899	3.784763	-14.723708	53.230310
7.700000	-12.650077	61.245557	-1.903784	-4.920146	-1.903784	-4.920146	-12.492755	58.992986
7.750000	-10.839628	60.697974	-1.963651	-13.152396	-1.963651	-13.152396	-10.749676	58.728843
7.800000	-9.518060	57.515325	-2.048384	-20.933160	-2.048384	-20.933160	-9.461824	55.754852
7.850000	-8.528556	53.262843	-2.143174	-28.364925	-2.143174	-28.364925	-8.491965	51.649669
7.900000	-7.802900	48.388032	-2.239525	-35.453082	-2.239525	-35.453082	-7.778355	46.869373
7.950000	-7.249311	43.252037	-2.331347	-42.309385	-2.331347	-42.309385	-7.233182	41.796155
8.000000	-6.847141	37.940342	-2.412977	-48.949903	-2.412977	-48.949903	-6.837088	36.518555
8.050000	-6.546737	32.536342	-2.483941	-55.459345	-2.483941	-55.459345	-6.541529	31.129902
8.100000	-6.336775	27.050718	-2.541799	-61.871904	-2.541799	-61.871904	-6.335604	25.642324
8.150000	-6.197125	21.491002	-2.587212	-68.235594	-2.587212	-68.235594	-6.199526	20.066648
8.200000	-6.116328	15.849728	-2.620785	-74.589331	-2.620785	-74.589331	-6.122044	14.396939
8.250000	-6.088812	10.108126	-2.642973	-80.968771	-2.642973	-80.968771	-6.097716	8.614699
8.300000	-6.102390	4.261594	-2.656440	-87.400468	-2.656440	-87.400468	-6.114459	2.717265
8.350000	-6.157327	-1.725322	-2.661788	-93.921688	-2.661788	-93.921688	-6.172601	-3.331881
8.400000	-6.245358	-7.863621	-2.661782	-100.552293	-2.661782	-100.552293	-6.263913	-9.542493
8.450000	-6.362739	-14.180487	-2.658536	-107.318678	-2.658536	-107.318678	-6.384658	-15.941620
8.500000	-6.504758	-20.705994	-2.654584	-114.246111	-2.654584	-114.246111	-6.530090	-22.558848
8.550000	-6.665125	-27.463955	-2.652629	-121.351055	-2.652629	-121.351055	-6.693845	-29.416697
8.600000	-6.837186	-34.486069	-2.655459	-128.652114	-2.655459	-128.652114	-6.869134	-36.545207
8.650000	-7.012856	-41.807632	-2.666032	-136.166714	-2.666032	-136.166714	-7.047664	-43.977143
8.700000	-7.182333	-49.467384	-2.687504	-143.911269	-2.687504	-143.911269	-7.219350	-51.747579
8.750000	-7.333979	-57.506438	-2.723271	-151.901284	-2.723271	-151.901284	-7.372194	-59.892608
8.800000	-7.452838	-65.981555	-2.777779	-160.160736	-2.777779	-160.160736	-7.490783	-68.461848
8.850000	-7.525064	-74.915371	-2.854665	-168.694309	-2.854665	-168.694309	-7.560934	-77.470194
8.900000	-7.535992	-84.332370	-2.958588	-177.513240	-2.958588	-177.513240	-7.567745	-86.933513
8.950000	-7.472529	-94.238285	-3.094827	173.374424	-3.094827	173.374424	-7.498134	-96.849327
9.000000	-7.325199	-104.613427	-3.269348	163.965696	-3.269348	163.965696	-7.342974	-107.191652
9.050000	-7.090243	-115.408909	-3.488772	154.265166	-3.488772	154.265166	-7.099183	-117.908810
9.100000	-6.768876	-126.553850	-3.761440	144.281540	-3.761440	144.281540	-6.768863	-128.930716
9.150000	-6.374439	-137.937615	-4.093760	134.050319	-4.093760	134.050319	-6.366285	-140.154309
9.200000	-5.925922	-149.442827	-4.491608	123.619883	-4.491608	123.619883	-5.911114	-151.472561
9.250000	-5.445400	-160.951279	-4.959635	113.052330	-4.959635	113.052330	-5.425763	-162.778537
9.300000	-4.955697	-172.348619	-5.499952	102.423455	-5.499952	102.423455	-4.933063	-173.968559
9.350000	-4.477454	176.469890	-6.111362	91.817611	-6.111362	91.817611	-4.453430	175.053342
9.400000	-4.027360	165.601561	-6.788996	81.323914	-6.788996	81.323914	-4.003219	164.377916
9.450000	-3.617057	155.122384	-7.523433	71.025509	-7.523433	71.025509	-3.593689	154.077123
9.500000	-3.252059	145.078910	-8.302911	60.986695	-8.302911	60.986695	-3.230005	144.195879
9.550000	-2.933686	135.502976	-9.114151	51.257782	-9.114151	51.257782	-2.913230	134.765586
9.600000	-2.660171	126.407662	-9.943077	41.872680	-9.943077	41.872680	-2.641412	125.799795
9.650000	-2.427829	117.790050	-10.775712	32.850693	-10.775712	32.850693	-2.410744	117.296600
9.700000	-2.232260	109.638576	-11.598038	24.202769	-11.598038	24.202769	-2.216751	109.245604
9.750000	-2.068895	101.935527	-12.396213	15.934639	-12.396213	15.934639	-2.054826	101.630299
9.800000	-1.932215	94.639221	-13.162462	8.030766	-13.162462	8.030766	-1.919438	94.410692
9.850000	-1.817953	87.717498	-13.888323	0.482471	-13.888323	0.482471	-1.806324	87.555869
9.900000	-1.722369	81.137736	-14.566960	-6.720384	-14.566960	-6.720384	-1.711758	81.034338
9.950000	-1.642257	74.868181	-15.193109	-13.588833	-15.193109	-13.588833	-1.632551	74.815343
10.000000	-1.574902	68.878776	-15.762991	-20.134794	-15.762991	-20.134794	-1.566009	68.869701
