! freq	dB(S11)	phase(S11)	dB(S12)	phase(S12)	
!     	dB(S21)	phase(S21)	dB(S22)	phase(S22)	
!S-par simulation data
#  GHz  S  DB  R 50
0.000000	-0.000000	0.000000	-359.302700	180.000000	-359.302700	180.000000	-0.000000	0.000000
0.050000	-0.001265	-2.088232	-94.975804	87.965526	-94.975804	87.965526	-0.001267	-2.089434
0.100000	-0.004450	-4.167936	-88.993690	85.937712	-88.993690	85.937712	-0.004455	-4.170323
0.150000	-0.008397	-6.236651	-85.536222	83.923379	-85.536222	83.923379	-0.008405	-6.240204
0.200000	-0.012309	-8.296606	-83.125885	81.928905	-83.125885	81.928905	-0.012321	-8.301314
0.250000	-0.015867	-10.350299	-81.302811	79.962311	-81.302811	79.962311	-0.015880	-10.356155
0.300000	-0.019024	-12.399498	-79.862405	78.032413	-79.862405	78.032413	-0.019040	-12.406498
0.350000	-0.021858	-14.445061	-78.692901	76.146970	-78.692901	76.146970	-0.021876	-14.453200
0.400000	-0.024446	-16.486991	-77.730093	74.316258	-77.730093	74.316258	-0.024465	-16.496263
0.450000	-0.026850	-18.524761	-76.936206	72.555387	-76.936206	72.555387	-0.026872	-18.535157
0.500000	-0.029136	-20.558064	-76.279645	70.874899	-76.279645	70.874899	-0.029161	-20.569576
0.550000	-0.031343	-22.586351	-75.741286	69.290651	-75.741286	69.290651	-0.031370	-22.598969
0.600000	-0.033499	-24.608772	-75.311298	67.828042	-75.311298	67.828042	-0.033529	-24.622484
0.650000	-0.035628	-26.624956	-74.977199	66.507356	-74.977199	66.507356	-0.035661	-26.639749
0.700000	-0.037745	-28.634441	-74.731336	65.355813	-74.731336	65.355813	-0.037781	-28.650302
0.750000	-0.039861	-30.636498	-74.571342	64.415982	-74.571342	64.415982	-0.039900	-30.653413
0.800000	-0.041983	-32.630647	-74.493639	63.734802	-74.493639	63.734802	-0.042025	-32.648600
0.850000	-0.044114	-34.616525	-74.494781	63.368343	-74.494781	63.368343	-0.044159	-34.635500
0.900000	-0.046257	-36.593726	-74.572368	63.390275	-74.572368	63.390275	-0.046304	-36.613706
0.950000	-0.048411	-38.561816	-74.723861	63.897313	-74.723861	63.897313	-0.048461	-38.582784
1.000000	-0.050576	-40.520418	-74.944308	65.011317	-74.944308	65.011317	-0.050628	-40.542356
1.050000	-0.052750	-42.469177	-75.224329	66.884896	-75.224329	66.884896	-0.052804	-42.492068
1.100000	-0.054929	-44.407766	-75.546426	69.701195	-75.546426	69.701195	-0.054986	-44.431591
1.150000	-0.057112	-46.335879	-75.879632	73.660219	-75.879632	73.660219	-0.057170	-46.360618
1.200000	-0.059294	-48.253232	-76.173313	78.936071	-76.173313	78.936071	-0.059354	-48.278868
1.250000	-0.061473	-50.159567	-76.353956	85.587522	-76.353956	85.587522	-0.061534	-50.186080
1.300000	-0.063644	-52.054393	-76.327203	93.442297	-76.327203	93.442297	-0.063707	-52.081763
1.350000	-0.065805	-53.937734	-76.022104	101.929378	-76.022104	101.929378	-0.065869	-53.965942
1.400000	-0.067952	-55.809394	-75.416755	110.285326	-75.416755	110.285326	-0.068017	-55.838421
1.450000	-0.070082	-57.669197	-74.552905	117.805760	-74.552905	117.805760	-0.070148	-57.699023
1.500000	-0.072192	-59.516987	-73.511199	124.074421	-73.511199	124.074421	-0.072259	-59.547592
1.550000	-0.074280	-61.352625	-72.374829	128.989689	-72.374829	128.989689	-0.074347	-61.383991
1.600000	-0.076343	-63.175992	-71.208027	132.654884	-71.208027	132.654884	-0.076411	-63.208099
1.650000	-0.078380	-64.986986	-70.052245	135.257883	-70.052245	135.257883	-0.078448	-65.019815
1.700000	-0.080388	-66.785521	-68.930911	136.996055	-68.930911	136.996055	-0.080457	-66.819052
1.750000	-0.082367	-68.571527	-67.855556	138.043573	-67.855556	138.043573	-0.082436	-68.605742
1.800000	-0.084316	-70.344952	-66.830602	138.542879	-66.830602	138.542879	-0.084385	-70.379832
1.850000	-0.086233	-72.105756	-65.856506	138.606510	-65.856506	138.606510	-0.086302	-72.141283
1.900000	-0.088117	-73.853778	-64.931136	138.319159	-64.931136	138.319159	-0.088186	-73.889933
1.950000	-0.089970	-75.589007	-64.052073	137.750734	-64.052073	137.750734	-0.090039	-75.625771
2.000000	-0.091791	-77.311583	-63.216827	136.957280	-63.216827	136.957280	-0.091859	-77.348939
2.050000	-0.093580	-79.021523	-62.422275	135.979881	-62.422275	135.979881	-0.093649	-79.059453
2.100000	-0.095338	-80.718852	-61.665419	134.851072	-61.665419	134.851072	-0.095407	-80.757339
2.150000	-0.097066	-82.403609	-60.943454	133.596833	-60.943454	133.596833	-0.097135	-82.442636
2.200000	-0.098765	-84.075844	-60.253802	132.238079	-60.253802	132.238079	-0.098834	-84.115393
2.250000	-0.100437	-85.735614	-59.594109	130.791790	-59.594109	130.791790	-0.100505	-85.775669
2.300000	-0.102081	-87.382453	-58.961459	129.269321	-58.961459	129.269321	-0.102149	-87.422997
2.350000	-0.103701	-89.017644	-58.355733	127.688137	-58.355733	127.688137	-0.103770	-89.058662
2.400000	-0.105298	-90.640598	-57.774103	126.054043	-57.774103	126.054043	-0.105367	-90.682074
2.450000	-0.106873	-92.251407	-57.214988	124.375042	-57.214988	124.375042	-0.106942	-92.293327
2.500000	-0.108429	-93.850173	-56.676955	122.657864	-56.676955	122.657864	-0.108498	-93.892520
2.550000	-0.109966	-95.436486	-56.158213	120.907011	-56.158213	120.907011	-0.110035	-95.479247
2.600000	-0.111488	-97.010985	-55.658149	119.128875	-55.658149	119.128875	-0.111557	-97.054145
2.650000	-0.112996	-98.573790	-55.175666	117.327510	-55.175666	117.327510	-0.113065	-98.617334
2.700000	-0.114492	-100.125024	-54.709763	115.506402	-54.709763	115.506402	-0.114561	-100.168939
2.750000	-0.115978	-101.664818	-54.259521	113.668563	-54.259521	113.668563	-0.116048	-101.709091
2.800000	-0.117457	-103.193306	-53.824099	111.816605	-53.824099	111.816605	-0.117527	-103.237925
2.850000	-0.118931	-104.710627	-53.402721	109.952801	-53.402721	109.952801	-0.119001	-104.755579
2.900000	-0.120401	-106.216924	-52.994672	108.079135	-52.994672	108.079135	-0.120471	-106.262196
2.950000	-0.121870	-107.712341	-52.599293	106.197343	-52.599293	106.197343	-0.121940	-107.757923
3.000000	-0.123339	-109.197029	-52.215970	104.308951	-52.215970	104.308951	-0.123409	-109.242909
3.050000	-0.124810	-110.671139	-51.844137	102.415302	-51.844137	102.415302	-0.124881	-110.717306
3.100000	-0.126286	-112.134827	-51.483266	100.517580	-51.483266	100.517580	-0.126357	-112.181270
3.150000	-0.127767	-113.588249	-51.132866	98.616830	-51.132866	98.616830	-0.127839	-113.634959
3.200000	-0.129257	-115.031565	-50.792477	96.713980	-50.792477	96.713980	-0.129328	-115.078531
3.250000	-0.130756	-116.464936	-50.461673	94.809851	-50.461673	94.809851	-0.130827	-116.512149
3.300000	-0.132265	-117.888524	-50.140052	92.905171	-50.140052	92.905171	-0.132337	-117.935976
3.350000	-0.133788	-119.302493	-49.827239	91.000590	-49.827239	91.000590	-0.133860	-119.350175
3.400000	-0.135324	-120.707010	-49.522880	89.096684	-49.522880	89.096684	-0.135396	-120.754913
3.450000	-0.136876	-122.102240	-49.226644	87.193965	-49.226644	87.193965	-0.136948	-122.150357
3.500000	-0.138444	-123.488351	-48.938219	85.292890	-48.938219	85.292890	-0.138516	-123.536673
3.550000	-0.140031	-124.865510	-48.657312	83.393866	-48.657312	83.393866	-0.140102	-124.914030
3.600000	-0.141636	-126.233886	-48.383644	81.497254	-48.383644	81.497254	-0.141707	-126.282598
3.650000	-0.143261	-127.593647	-48.116954	79.603375	-48.116954	79.603375	-0.143333	-127.642544
3.700000	-0.144907	-128.944963	-47.856994	77.712516	-47.856994	77.712516	-0.144979	-128.994038
3.750000	-0.146576	-130.288002	-47.603530	75.824931	-47.603530	75.824931	-0.146647	-130.337250
3.800000	-0.148267	-131.622589	-47.356305	73.941005	-47.356305	73.941005	-0.148338	-131.672004
3.850000	-0.149983	-132.949253	-47.115154	72.060791	-47.115154	72.060791	-0.150053	-132.998830
3.900000	-0.151722	-134.268162	-46.879876	70.184461	-46.879876	70.184461	-0.151793	-134.317895
3.950000	-0.153487	-135.579485	-46.650282	68.312168	-46.650282	68.312168	-0.153557	-135.629369
4.000000	-0.155276	-136.883388	-46.426188	66.444043	-46.426188	66.444043	-0.155346	-136.933420
4.050000	-0.157091	-138.180039	-46.207424	64.580201	-46.207424	64.580201	-0.157161	-138.230214
4.100000	-0.158933	-139.469605	-45.993823	62.720743	-45.993823	62.720743	-0.159002	-139.519919
4.150000	-0.160801	-140.752251	-45.785232	60.865753	-45.785232	60.865753	-0.160869	-140.802700
4.200000	-0.162695	-142.028143	-45.581500	59.015306	-45.581500	59.015306	-0.162763	-142.078724
4.250000	-0.164616	-143.297444	-45.382485	57.169462	-45.382485	57.169462	-0.164683	-143.348153
4.300000	-0.166564	-144.560317	-45.188053	55.328272	-45.188053	55.328272	-0.166631	-144.611151
4.350000	-0.168539	-145.816925	-44.998074	53.491777	-44.998074	53.491777	-0.168605	-145.867882
4.400000	-0.170541	-147.067429	-44.812426	51.660010	-44.812426	51.660010	-0.170607	-147.118505
4.450000	-0.172570	-148.311989	-44.630990	49.832995	-44.630990	49.832995	-0.172635	-148.363183
4.500000	-0.174626	-149.550764	-44.453654	48.010749	-44.453654	48.010749	-0.174691	-149.602073
4.550000	-0.176709	-150.783912	-44.280311	46.193283	-44.280311	46.193283	-0.176773	-150.835335
4.600000	-0.178819	-152.011591	-44.110858	44.380602	-44.110858	44.380602	-0.178882	-152.063124
4.650000	-0.180955	-153.233955	-43.945197	42.572706	-43.945197	42.572706	-0.181017	-153.285597
4.700000	-0.183117	-154.451158	-43.783236	40.769590	-43.783236	40.769590	-0.183179	-154.502908
4.750000	-0.185305	-155.663354	-43.624883	38.971245	-43.624883	38.971245	-0.185366	-155.715211
4.800000	-0.187518	-156.870695	-43.470054	37.177657	-43.470054	37.177657	-0.187579	-156.922657
4.850000	-0.189757	-158.073331	-43.318666	35.388811	-43.318666	35.388811	-0.189817	-158.125396
4.900000	-0.192020	-159.271411	-43.170642	33.604686	-43.170642	33.604686	-0.192080	-159.323578
4.950000	-0.194308	-160.465082	-43.025906	31.825262	-43.025906	31.825262	-0.194367	-160.517351
5.000000	-0.196620	-161.654492	-42.884388	30.050513	-42.884388	30.050513	-0.196679	-161.706861
5.050000	-0.198956	-162.839613	-42.746058	28.280617	-42.746058	28.280617	-0.199014	-162.892081
5.100000	-0.201315	-164.020773	-42.610815	26.515340	-42.610815	26.515340	-0.201373	-164.073340
5.150000	-0.203697	-165.198114	-42.478595	24.754656	-42.478595	24.754656	-0.203754	-165.250779
5.200000	-0.206100	-166.371777	-42.349339	22.998535	-42.349339	22.998535	-0.206157	-166.424540
5.250000	-0.208525	-167.541901	-42.222990	21.246947	-42.222990	21.246947	-0.208581	-167.594761
5.300000	-0.210971	-168.708624	-42.099493	19.499861	-42.099493	19.499861	-0.211026	-168.761580
5.350000	-0.213436	-169.872081	-41.978796	17.757248	-41.978796	17.757248	-0.213491	-169.925133
5.400000	-0.215921	-171.032408	-41.860850	16.019077	-41.860850	16.019077	-0.215975	-171.085555
5.450000	-0.218425	-172.189736	-41.745607	14.285320	-41.745607	14.285320	-0.218478	-172.242979
5.500000	-0.220947	-173.344199	-41.633023	12.555946	-41.633023	12.555946	-0.221000	-173.397536
5.550000	-0.223487	-174.495925	-41.523054	10.830930	-41.523054	10.830930	-0.223539	-174.549357
5.600000	-0.226043	-175.645044	-41.415659	9.110243	-41.415659	9.110243	-0.226095	-175.698569
5.650000	-0.228616	-176.791682	-41.310801	7.393860	-41.310801	7.393860	-0.228667	-176.845302
5.700000	-0.231205	-177.935965	-41.208441	5.681758	-41.208441	5.681758	-0.231255	-177.989678
5.750000	-0.233808	-179.078017	-41.108545	3.973915	-41.108545	3.973915	-0.233857	-179.131823
5.800000	-0.236425	179.782040	-41.011080	2.270311	-41.011080	2.270311	-0.236474	179.728141
5.850000	-0.239056	178.644084	-40.916013	0.570927	-40.916013	0.570927	-0.239104	178.590093
5.900000	-0.241700	177.507998	-40.823316	-1.124252	-40.823316	-1.124252	-0.241747	177.453915
5.950000	-0.244356	176.373664	-40.732960	-2.815239	-40.732960	-2.815239	-0.244402	176.319489
6.000000	-0.247023	175.240965	-40.644919	-4.502045	-40.644919	-4.502045	-0.247068	175.186699
6.050000	-0.249702	174.109787	-40.559167	-6.184677	-40.559167	-6.184677	-0.249746	174.055431
6.100000	-0.252390	172.980018	-40.475680	-7.863140	-40.475680	-7.863140	-0.252433	172.925573
6.150000	-0.255088	171.851547	-40.394436	-9.537435	-40.394436	-9.537435	-0.255130	171.797013
6.200000	-0.257794	170.724265	-40.315415	-11.207561	-40.315415	-11.207561	-0.257835	170.669642
6.250000	-0.260509	169.598064	-40.238596	-12.873513	-40.238596	-12.873513	-0.260549	169.543354
6.300000	-0.263232	168.472875	-40.164029	-14.535098	-40.164029	-14.535098	-0.263271	168.418080
6.350000	-0.265962	167.348549	-40.091630	-16.192486	-40.091630	-16.192486	-0.266000	167.293669
6.400000	-0.268699	166.224983	-40.021384	-17.845660	-40.021384	-17.845660	-0.268736	166.170019
6.450000	-0.271442	165.102077	-39.953276	-19.494598	-39.953276	-19.494598	-0.271478	165.047030
6.500000	-0.274191	163.979732	-39.887292	-21.139275	-39.887292	-21.139275	-0.274226	163.924604
6.550000	-0.276945	162.857852	-39.823418	-22.779662	-39.823418	-22.779662	-0.276979	162.802644
6.600000	-0.279705	161.736341	-39.761644	-24.415725	-39.761644	-24.415725	-0.279738	161.681054
6.650000	-0.282470	160.615107	-39.701957	-26.047426	-39.701957	-26.047426	-0.282503	160.559742
6.700000	-0.285240	159.494056	-39.644349	-27.674722	-39.644349	-27.674722	-0.285273	159.438615
6.750000	-0.288016	158.373100	-39.588810	-29.297564	-39.588810	-29.297564	-0.288048	158.317584
6.800000	-0.290797	157.252149	-39.535331	-30.915901	-39.535331	-30.915901	-0.290830	157.196559
6.850000	-0.293584	156.131117	-39.483906	-32.529675	-39.483906	-32.529675	-0.293617	156.075452
6.900000	-0.296377	155.009917	-39.434527	-34.138824	-39.434527	-34.138824	-0.296412	154.954179
6.950000	-0.299177	153.888465	-39.387188	-35.743280	-39.387188	-35.743280	-0.299214	153.832652
7.000000	-0.301986	152.766676	-39.341885	-37.342971	-39.341885	-37.342971	-0.302024	152.710788
7.050000	-0.304803	151.644468	-39.298612	-38.937817	-39.298612	-38.937817	-0.304843	151.588504
7.100000	-0.307630	150.521758	-39.257365	-40.527737	-39.257365	-40.527737	-0.307673	150.465715
7.150000	-0.310468	149.398463	-39.218142	-42.112640	-39.218142	-42.112640	-0.310515	149.342339
7.200000	-0.313319	148.274502	-39.180939	-43.692433	-39.180939	-43.692433	-0.313369	148.218292
7.250000	-0.316183	147.149792	-39.145755	-45.267016	-39.145755	-45.267016	-0.316238	147.093492
7.300000	-0.319063	146.024250	-39.112587	-46.836281	-39.112587	-46.836281	-0.319122	145.967854
7.350000	-0.321959	144.897793	-39.081435	-48.400119	-39.081435	-48.400119	-0.322023	144.841295
7.400000	-0.324874	143.770338	-39.052298	-49.958410	-39.052298	-49.958410	-0.324942	143.713730
7.450000	-0.327807	142.641799	-39.025176	-51.511032	-39.025176	-51.511032	-0.327879	142.585076
7.500000	-0.330760	141.512093	-39.000070	-53.057854	-39.000070	-53.057854	-0.330836	141.455247
7.550000	-0.333734	140.381077	-38.977065	-54.598475	-38.977065	-54.598475	-0.333812	140.324101
7.600000	-0.336727	139.248717	-38.956080	-56.133005	-38.956080	-56.133005	-0.336808	139.191606
7.650000	-0.339741	138.114932	-38.937115	-57.661292	-38.937115	-57.661292	-0.339822	138.057681
7.700000	-0.342772	136.979641	-38.920173	-59.183181	-38.920173	-59.183181	-0.342853	136.922245
7.750000	-0.345820	135.842765	-38.905257	-60.698507	-38.905257	-60.698507	-0.345899	135.785224
7.800000	-0.348883	134.704230	-38.892369	-62.207099	-38.892369	-62.207099	-0.348958	134.646544
7.850000	-0.351958	133.563967	-38.881515	-63.708780	-38.881515	-63.708780	-0.352028	133.506137
7.900000	-0.355042	132.421908	-38.872697	-65.203364	-38.872697	-65.203364	-0.355106	132.363939
7.950000	-0.358132	131.277995	-38.865920	-66.690656	-38.865920	-66.690656	-0.358188	131.219891
8.000000	-0.361225	130.132172	-38.861190	-68.170456	-38.861190	-68.170456	-0.361272	130.073939
8.050000	-0.364317	128.984390	-38.858513	-69.642554	-38.858513	-69.642554	-0.364354	128.926036
8.100000	-0.367405	127.834606	-38.857894	-71.106729	-38.857894	-71.106729	-0.367432	127.776138
8.150000	-0.370485	126.682780	-38.859341	-72.562755	-38.859341	-72.562755	-0.370502	126.624208
8.200000	-0.373555	125.528880	-38.862860	-74.010392	-38.862860	-74.010392	-0.373562	125.470211
8.250000	-0.376612	124.372877	-38.868461	-75.449392	-38.868461	-75.449392	-0.376608	124.314119
8.300000	-0.379653	123.214747	-38.876152	-76.879496	-38.876152	-76.879496	-0.379640	123.155906
8.350000	-0.382677	122.054531	-38.885882	-78.300709	-38.885882	-78.300709	-0.382655	121.995614
8.400000	-0.385681	120.892058	-38.897810	-79.712077	-38.897810	-79.712077	-0.385650	120.833069
8.450000	-0.388664	119.727438	-38.911828	-81.113848	-38.911828	-81.113848	-0.388625	119.668381
8.500000	-0.391626	118.560660	-38.927945	-82.505724	-38.927945	-82.505724	-0.391580	118.501538
8.550000	-0.394566	117.391715	-38.946176	-83.887394	-38.946176	-83.887394	-0.394513	117.332529
8.600000	-0.397479	116.220354	-38.966765	-85.257328	-38.966765	-85.257328	-0.397422	116.161104
8.650000	-0.400370	115.046798	-38.989510	-86.616247	-38.989510	-86.616247	-0.400308	114.987484
8.700000	-0.403237	113.871058	-39.014415	-87.963847	-39.014415	-87.963847	-0.403171	113.811678
8.750000	-0.406080	112.693132	-39.041497	-89.299745	-39.041497	-89.299745	-0.406012	112.633684
8.800000	-0.408901	111.513019	-39.070775	-90.623532	-39.070775	-90.623532	-0.408830	111.453501
8.850000	-0.411698	110.330723	-39.102270	-91.934779	-39.102270	-91.934779	-0.411625	110.271130
8.900000	-0.414471	109.146152	-39.136094	-93.232451	-39.136094	-93.232451	-0.414398	109.086481
8.950000	-0.417221	107.959247	-39.172336	-94.515576	-39.172336	-94.515576	-0.417146	107.899494
9.000000	-0.419948	106.770176	-39.210867	-95.784596	-39.210867	-95.784596	-0.419873	106.710336
9.050000	-0.422654	105.578950	-39.251712	-97.038953	-39.251712	-97.038953	-0.422579	105.519019
9.100000	-0.425339	104.385580	-39.294900	-98.278054	-39.294900	-98.278054	-0.425264	104.325553
9.150000	-0.428003	103.190080	-39.340462	-99.501265	-39.340462	-99.501265	-0.427928	103.129953
9.200000	-0.430647	101.992468	-39.388430	-100.707904	-39.388430	-100.707904	-0.430573	101.932235
9.250000	-0.433269	100.792571	-39.439037	-101.895576	-39.439037	-101.895576	-0.433196	100.732228
9.300000	-0.435872	99.590555	-39.492176	-103.064558	-39.492176	-103.064558	-0.435799	99.530096
9.350000	-0.438456	98.386494	-39.547832	-104.214411	-39.547832	-104.214411	-0.438384	98.325915
9.400000	-0.441022	97.180417	-39.606045	-105.344199	-39.606045	-105.344199	-0.440951	97.119713
9.450000	-0.443571	95.972351	-39.666856	-106.452909	-39.666856	-106.452909	-0.443500	95.911518
9.500000	-0.446102	94.762328	-39.730310	-107.539440	-39.730310	-107.539440	-0.446032	94.701361
9.550000	-0.448616	93.550337	-39.796505	-108.601988	-39.796505	-108.601988	-0.448546	93.489232
9.600000	-0.451112	92.336292	-39.865638	-109.637396	-39.865638	-109.637396	-0.451042	92.275044
9.650000	-0.453592	91.120410	-39.937552	-110.646377	-39.937552	-110.646377	-0.453523	91.059015
9.700000	-0.456057	89.902732	-40.012293	-111.627334	-40.012293	-111.627334	-0.455988	89.841186
9.750000	-0.458506	88.683056	-40.090229	-112.573782	-40.090229	-112.573782	-0.458436	88.621354
9.800000	-0.460943	87.462112	-40.170522	-113.496513	-40.170522	-113.496513	-0.460874	87.400252
9.850000	-0.463365	86.239215	-40.254162	-114.379694	-40.254162	-114.379694	-0.463295	86.177193
9.900000	-0.465772	85.014581	-40.340993	-115.222238	-40.340993	-115.222238	-0.465701	84.952392
9.950000	-0.468168	83.788627	-40.430540	-116.030701	-40.430540	-116.030701	-0.468097	83.726267
10.000000	-0.470553	82.561377	-40.522850	-116.803854	-40.522850	-116.803854	-0.470481	82.498844
