! freq	dB(S11)	phase(S11)	dB(S12)	phase(S12)	
!     	dB(S21)	phase(S21)	dB(S22)	phase(S22)	
!S-par simulation data
#  GHz  S  DB  R 50
0.000000	0.000000	0.000000	-310.963348	0.000000	-310.963348	0.000000	-0.000000	0.000000
0.050000	-0.000095	-0.967673	-86.137349	167.329426	-86.137349	167.329426	-0.000095	-0.967661
0.100000	-0.000379	-1.935148	-84.707903	145.349941	-84.707903	145.349941	-0.000379	-1.935123
0.150000	-0.000843	-2.902237	-83.107917	131.096856	-83.107917	131.096856	-0.000844	-2.902199
0.200000	-0.001477	-3.868772	-81.571114	121.081057	-81.571114	121.081057	-0.001479	-3.868719
0.250000	-0.002277	-4.834548	-80.176008	113.811294	-80.176008	113.811294	-0.002280	-4.834478
0.300000	-0.003212	-5.799494	-78.939987	108.100502	-78.939987	108.100502	-0.003216	-5.799407
0.350000	-0.004273	-6.763468	-77.844233	103.507900	-77.844233	103.507900	-0.004279	-6.763362
0.400000	-0.005443	-7.726375	-76.870125	99.687319	-76.870125	99.687319	-0.005450	-7.726247
0.450000	-0.006704	-8.688139	-76.000105	96.421116	-76.000105	96.421116	-0.006712	-8.687989
0.500000	-0.008039	-9.648709	-75.219168	93.567873	-75.219168	93.567873	-0.008047	-9.648535
0.550000	-0.009432	-10.608045	-74.514902	91.032861	-74.514902	91.032861	-0.009441	-10.607846
0.600000	-0.010868	-11.566126	-73.877127	88.750917	-73.877127	88.750917	-0.010877	-11.565902
0.650000	-0.012334	-12.522941	-73.297473	86.676195	-73.297473	86.676195	-0.012344	-12.522691
0.700000	-0.013819	-13.478487	-72.769016	84.775847	-72.769016	84.775847	-0.013829	-13.478211
0.750000	-0.015313	-14.432769	-72.285973	83.026000	-72.285973	83.026000	-0.015324	-14.432467
0.800000	-0.016808	-15.385793	-71.843466	81.409131	-71.843466	81.409131	-0.016818	-15.385466
0.850000	-0.018298	-16.337571	-71.437338	79.912298	-71.437338	79.912298	-0.018308	-16.337218
0.900000	-0.019777	-17.288111	-71.064007	78.525940	-71.064007	78.525940	-0.019786	-17.287735
0.950000	-0.021241	-18.237425	-70.720348	77.243020	-70.720348	77.243020	-0.021250	-18.237025
1.000000	-0.022688	-19.185520	-70.403610	76.058425	-70.403610	76.058425	-0.022696	-19.185097
1.050000	-0.024115	-20.132402	-70.111337	74.968523	-70.111337	74.968523	-0.024123	-20.131957
1.100000	-0.025523	-21.078074	-69.841315	73.970829	-69.841315	73.970829	-0.025529	-21.077608
1.150000	-0.026909	-22.022537	-69.591519	73.063759	-69.591519	73.063759	-0.026914	-22.022051
1.200000	-0.028274	-22.965789	-69.360080	72.246430	-69.360080	72.246430	-0.028279	-22.965283
1.250000	-0.029620	-23.907824	-69.145244	71.518504	-69.145244	71.518504	-0.029624	-23.907300
1.300000	-0.030945	-24.848582	-68.945740	70.883962	-68.945740	70.883962	-0.030948	-24.848040
1.350000	-0.032251	-25.788104	-68.759490	70.339317	-68.759490	70.339317	-0.032254	-25.787545
1.400000	-0.033540	-26.726379	-68.584938	69.885140	-68.584938	69.885140	-0.033542	-26.725804
1.450000	-0.034814	-27.663392	-68.420552	69.522072	-68.420552	69.522072	-0.034815	-27.662801
1.500000	-0.036073	-28.599127	-68.264818	69.250729	-68.264818	69.250729	-0.036073	-28.598521
1.550000	-0.037319	-29.533566	-68.116221	69.071597	-68.116221	69.071597	-0.037319	-29.532946
1.600000	-0.038553	-30.466691	-67.973242	68.984932	-67.973242	68.984932	-0.038552	-30.466056
1.650000	-0.039776	-31.398481	-67.834346	68.990651	-67.834346	68.990651	-0.039775	-31.397833
1.700000	-0.040991	-32.328917	-67.697986	69.088220	-67.697986	69.088220	-0.040990	-32.328255
1.750000	-0.042198	-33.257976	-67.562601	69.276543	-67.562601	69.276543	-0.042196	-33.257301
1.800000	-0.043399	-34.185637	-67.426619	69.553850	-67.426619	69.553850	-0.043396	-34.184950
1.850000	-0.044594	-35.111879	-67.288471	69.917593	-67.288471	69.917593	-0.044592	-35.111179
1.900000	-0.045786	-36.036678	-67.146602	70.364350	-67.146602	70.364350	-0.045783	-36.035967
1.950000	-0.046974	-36.960013	-66.999488	70.889752	-66.999488	70.889752	-0.046971	-36.959290
2.000000	-0.048161	-37.881862	-66.845662	71.488428	-66.845662	71.488428	-0.048158	-37.881127
2.050000	-0.049346	-38.802202	-66.683733	72.153986	-66.683733	72.153986	-0.049343	-38.801457
2.100000	-0.050532	-39.721013	-66.512418	72.879031	-66.512418	72.879031	-0.050529	-39.720256
2.150000	-0.051719	-40.638272	-66.330566	73.655225	-66.330566	73.655225	-0.051715	-40.637504
2.200000	-0.052907	-41.553958	-66.137188	74.473386	-66.137188	74.473386	-0.052904	-41.553180
2.250000	-0.054098	-42.468052	-65.931477	75.323641	-65.931477	75.323641	-0.054095	-42.467264
2.300000	-0.055292	-43.380532	-65.712825	76.195604	-65.712825	76.195604	-0.055289	-43.379734
2.350000	-0.056490	-44.291381	-65.480844	77.078593	-65.480844	77.078593	-0.056486	-44.290573
2.400000	-0.057692	-45.200578	-65.235361	77.961863	-65.235361	77.961863	-0.057689	-45.199761
2.450000	-0.058900	-46.108106	-64.976423	78.834843	-64.976423	78.834843	-0.058897	-46.107280
2.500000	-0.060113	-47.013948	-64.704282	79.687363	-64.704282	79.687363	-0.060110	-47.013114
2.550000	-0.061333	-47.918012	-64.418422	80.508149	-64.418422	80.508149	-0.061330	-47.917169
2.600000	-0.062559	-48.820356	-64.120402	81.289450	-64.120402	81.289450	-0.062557	-48.819504
2.650000	-0.063793	-49.720963	-63.810984	82.023567	-63.810984	82.023567	-0.063791	-49.720104
2.700000	-0.065035	-50.619821	-63.491039	82.703824	-63.491039	82.703824	-0.065033	-50.618955
2.750000	-0.066285	-51.516916	-63.161512	83.324608	-63.161512	83.324608	-0.066283	-51.516042
2.800000	-0.067544	-52.412235	-62.823393	83.881368	-62.823393	83.881368	-0.067541	-52.411354
2.850000	-0.068811	-53.305766	-62.477693	84.370576	-62.477693	84.370576	-0.068809	-53.304879
2.900000	-0.070088	-54.197498	-62.125417	84.789671	-62.125417	84.789671	-0.070086	-54.196606
2.950000	-0.071375	-55.087421	-61.767546	85.136970	-61.767546	85.136970	-0.071374	-55.086524
3.000000	-0.072673	-55.975526	-61.405023	85.411585	-61.405023	85.411585	-0.072671	-55.974624
3.050000	-0.073981	-56.861805	-61.038741	85.613313	-61.038741	85.613313	-0.073979	-56.860899
3.100000	-0.075300	-57.746249	-60.669530	85.742542	-60.669530	85.742542	-0.075298	-57.745340
3.150000	-0.076630	-58.628853	-60.298158	85.800151	-60.298158	85.800151	-0.076628	-58.627941
3.200000	-0.077972	-59.509611	-59.925328	85.787419	-59.925328	85.787419	-0.077971	-59.508695
3.250000	-0.079326	-60.388516	-59.551670	85.705941	-59.551670	85.705941	-0.079325	-60.387600
3.300000	-0.080693	-61.265567	-59.177755	85.557552	-59.177755	85.557552	-0.080691	-61.264649
3.350000	-0.082072	-62.140759	-58.804084	85.344264	-58.804084	85.344264	-0.082071	-62.139841
3.400000	-0.083465	-63.014090	-58.431103	85.068210	-58.431103	85.068210	-0.083464	-63.013172
3.450000	-0.084871	-63.885559	-58.059198	84.731592	-58.059198	84.731592	-0.084870	-63.884642
3.500000	-0.086291	-64.755165	-57.688704	84.336650	-57.688704	84.336650	-0.086290	-64.754250
3.550000	-0.087725	-65.622909	-57.319911	83.885621	-57.319911	83.885621	-0.087724	-65.621997
3.600000	-0.089174	-66.488792	-56.953061	83.380721	-56.953061	83.380721	-0.089173	-66.487884
3.650000	-0.090638	-67.352816	-56.588360	82.824122	-56.588360	82.824122	-0.090638	-67.351913
3.700000	-0.092118	-68.214985	-56.225978	82.217936	-56.225978	82.217936	-0.092117	-68.214087
3.750000	-0.093613	-69.075302	-55.866053	81.564206	-55.866053	81.564206	-0.093613	-69.074410
3.800000	-0.095126	-69.933692	-55.508174	80.863004	-55.508174	80.863004	-0.095125	-69.932807
3.850000	-0.096655	-70.790241	-55.152969	80.118266	-55.152969	80.118266	-0.096654	-70.789366
3.900000	-0.098201	-71.644957	-54.800499	79.331777	-54.800499	79.331777	-0.098200	-71.644091
3.950000	-0.099765	-72.497848	-54.450802	78.505232	-54.450802	78.505232	-0.099764	-72.496992
4.000000	-0.101347	-73.348921	-54.103903	77.640240	-54.103903	77.640240	-0.101346	-73.348077
4.050000	-0.102947	-74.198186	-53.759806	76.738327	-53.759806	76.738327	-0.102946	-74.197355
4.100000	-0.104566	-75.045654	-53.418505	75.800932	-53.418505	75.800932	-0.104565	-75.044837
4.150000	-0.106204	-75.891337	-53.079978	74.829415	-53.079978	74.829415	-0.106204	-75.890534
4.200000	-0.107862	-76.735246	-52.744196	73.825057	-52.744196	73.825057	-0.107862	-76.734460
4.250000	-0.109541	-77.577395	-52.411115	72.789066	-52.411115	72.789066	-0.109540	-77.576627
4.300000	-0.111240	-78.417799	-52.080685	71.722576	-52.080685	71.722576	-0.111240	-78.417049
4.350000	-0.112960	-79.256473	-51.752844	70.626651	-51.752844	70.626651	-0.112960	-79.255743
4.400000	-0.114703	-80.093432	-51.427526	69.502293	-51.427526	69.502293	-0.114703	-80.092724
4.450000	-0.116467	-80.928695	-51.104654	68.350438	-51.104654	68.350438	-0.116467	-80.928009
4.500000	-0.118254	-81.762280	-50.784145	67.171963	-50.784145	67.171963	-0.118255	-81.761618
4.550000	-0.120065	-82.594206	-50.465907	65.967689	-50.465907	65.967689	-0.120065	-82.593571
4.600000	-0.121900	-83.424495	-50.149845	64.738380	-50.149845	64.738380	-0.121900	-83.423886
4.650000	-0.123759	-84.253168	-49.835852	63.484750	-49.835852	63.484750	-0.123759	-84.252588
4.700000	-0.125643	-85.080247	-49.523817	62.207460	-49.523817	62.207460	-0.125644	-85.079698
4.750000	-0.127552	-85.905759	-49.213622	60.907124	-49.213622	60.907124	-0.127553	-85.905241
4.800000	-0.129488	-86.729727	-48.905140	59.584307	-48.905140	59.584307	-0.129490	-86.729243
4.850000	-0.131451	-87.552180	-48.598236	58.239530	-48.598236	58.239530	-0.131452	-87.551730
4.900000	-0.133441	-88.373145	-48.292769	56.873266	-48.292769	56.873266	-0.133443	-88.372732
4.950000	-0.135459	-89.192653	-47.988587	55.485947	-47.988587	55.485947	-0.135461	-89.192279
5.000000	-0.137505	-90.010735	-47.685530	54.077960	-47.685530	54.077960	-0.137508	-90.010402
5.050000	-0.139582	-90.827366	-47.383005	52.648779	-47.383005	52.648779	-0.139585	-90.827076
5.100000	-0.141690	-91.642644	-47.081241	51.199596	-47.081241	51.199596	-0.141693	-91.642399
5.150000	-0.143828	-92.456605	-46.780042	49.730660	-46.780042	49.730660	-0.143831	-92.456407
5.200000	-0.145997	-93.269291	-46.479199	48.242179	-46.479199	48.242179	-0.146001	-93.269142
5.250000	-0.148199	-94.080743	-46.178493	46.734313	-46.178493	46.734313	-0.148203	-94.080645
5.300000	-0.150433	-94.891005	-45.877685	45.207176	-45.877685	45.207176	-0.150438	-94.890961
5.350000	-0.152701	-95.700125	-45.576525	43.660835	-45.576525	43.660835	-0.152707	-95.700138
5.400000	-0.155004	-96.508155	-45.274741	42.095306	-45.274741	42.095306	-0.155010	-96.508226
5.450000	-0.157355	-97.314814	-44.967832	40.503827	-44.967832	40.503827	-0.157361	-97.314949
5.500000	-0.159724	-98.120953	-44.665581	38.902292	-44.665581	38.902292	-0.159732	-98.121152
5.550000	-0.162140	-98.926009	-44.358638	37.276969	-44.358638	37.276969	-0.162148	-98.926277
5.600000	-0.164588	-99.730292	-44.051931	35.634654	-44.051931	35.634654	-0.164596	-99.730631
5.650000	-0.167078	-100.533805	-43.741762	33.971365	-43.741762	33.971365	-0.167087	-100.534218
5.700000	-0.169610	-101.336548	-43.428855	32.287101	-43.428855	32.287101	-0.169619	-101.337040
5.750000	-0.172178	-102.138806	-43.113980	30.584597	-43.113980	30.584597	-0.172189	-102.139380
5.800000	-0.174799	-102.940383	-42.792782	28.856559	-42.792782	28.856559	-0.174810	-102.941045
5.850000	-0.177444	-103.741762	-42.474681	27.117056	-42.474681	27.117056	-0.177456	-103.742514
5.900000	-0.180150	-104.542677	-42.146357	25.347633	-42.146357	25.347633	-0.180163	-104.543526
5.950000	-0.182906	-105.343411	-41.812580	23.554990	-41.812580	23.554990	-0.182919	-105.344362
6.000000	-0.185712	-106.144103	-41.472639	21.738224	-41.472639	21.738224	-0.185726	-106.145163
6.050000	-0.188572	-106.944910	-41.125753	19.896298	-41.125753	19.896298	-0.188588	-106.946085
6.100000	-0.191489	-107.746006	-40.771060	18.028023	-40.771060	18.028023	-0.191506	-107.747303
6.150000	-0.194467	-108.547590	-40.407602	16.132036	-40.407602	16.132036	-0.194484	-108.549017
6.200000	-0.197509	-109.349888	-40.034313	14.206773	-40.034313	14.206773	-0.197529	-109.351454
6.250000	-0.200623	-110.153159	-39.650003	12.250438	-39.650003	12.250438	-0.200644	-110.154875
6.300000	-0.203818	-110.957777	-39.251896	10.259398	-39.251896	10.259398	-0.203840	-110.959654
6.350000	-0.207100	-111.764058	-38.839627	8.232544	-38.839627	8.232544	-0.207124	-111.766110
6.400000	-0.210479	-112.572426	-38.411415	6.166998	-38.411415	6.166998	-0.210505	-112.574666
6.450000	-0.213971	-113.383383	-37.965223	4.059365	-37.965223	4.059365	-0.213999	-113.385829
6.500000	-0.217585	-114.197339	-37.501228	1.908276	-37.501228	1.908276	-0.217616	-114.200009
6.550000	-0.221357	-115.015331	-37.012534	-0.295556	-37.012534	-0.295556	-0.221391	-115.018248
6.600000	-0.225313	-115.838130	-36.497808	-2.556061	-36.497808	-2.556061	-0.225351	-115.841320
6.650000	-0.229497	-116.666852	-35.953347	-4.880462	-35.953347	-4.880462	-0.229539	-116.670348
6.700000	-0.233966	-117.502900	-35.374854	-7.277705	-35.374854	-7.277705	-0.234014	-117.506738
6.750000	-0.238806	-118.348154	-34.756423	-9.759971	-34.756423	-9.759971	-0.238861	-118.352381
6.800000	-0.244133	-119.204889	-34.092392	-12.341449	-34.092392	-12.341449	-0.244197	-119.209562
6.850000	-0.250121	-120.076212	-33.374971	-15.041897	-33.374971	-15.041897	-0.250197	-120.081400
6.900000	-0.257056	-120.966749	-32.591832	-17.891326	-32.591832	-17.891326	-0.257148	-120.972545
6.950000	-0.265353	-121.882274	-31.731704	-20.926681	-31.731704	-20.926681	-0.265467	-121.888795
7.000000	-0.275713	-122.831383	-30.777687	-24.204437	-30.777687	-24.204437	-0.275857	-122.838787
7.050000	-0.289353	-123.826853	-29.706854	-27.810968	-29.706854	-27.810968	-0.289542	-123.835357
7.100000	-0.308478	-124.887911	-28.489046	-31.882083	-28.489046	-31.882083	-0.308735	-124.897824
7.150000	-0.337500	-126.045353	-27.079566	-36.651976	-27.079566	-36.651976	-0.337869	-126.057130
7.200000	-0.385781	-127.346824	-25.419220	-42.537030	-25.419220	-42.537030	-0.386346	-127.361161
7.250000	-0.475915	-128.862725	-23.422469	-50.371260	-23.422469	-50.371260	-0.476864	-128.880702
7.300000	-0.668323	-130.632529	-20.996415	-61.971801	-20.996415	-61.971801	-0.670131	-130.655604
7.350000	-1.118878	-132.102465	-18.217281	-81.451428	-18.217281	-81.451428	-1.122857	-132.129914
7.400000	-1.816021	-129.593838	-16.223849	-114.602396	-16.223849	-114.602396	-1.823720	-129.604717
7.450000	-1.545961	-124.131428	-17.228730	-152.073830	-17.228730	-152.073830	-1.551872	-124.109688
7.500000	-0.957087	-123.980572	-19.966788	-176.459706	-19.966788	-176.459706	-0.959936	-123.956792
7.550000	-0.668671	-125.470762	-22.580018	169.439598	-22.580018	169.439598	-0.670197	-125.451621
7.600000	-0.535005	-126.952570	-24.746374	160.288413	-24.746374	160.288413	-0.535944	-126.937275
7.650000	-0.466583	-128.260168	-26.536004	153.576343	-26.536004	153.576343	-0.467223	-128.247645
7.700000	-0.428519	-129.427624	-28.038077	148.197686	-28.038077	148.197686	-0.428988	-129.417124
7.750000	-0.406106	-130.497007	-29.321889	143.612122	-29.321889	143.612122	-0.406469	-130.488037
7.800000	-0.392456	-131.498789	-30.439482	139.529638	-30.439482	139.529638	-0.392747	-131.491019
7.850000	-0.384210	-132.451832	-31.420499	135.794968	-31.420499	135.794968	-0.384452	-132.445028
7.900000	-0.379389	-133.369983	-32.293249	132.306322	-32.293249	132.306322	-0.379594	-133.363980
7.950000	-0.376926	-134.261670	-33.072304	129.007374	-33.072304	129.007374	-0.377104	-134.256345
8.000000	-0.376107	-135.133419	-33.772474	125.858327	-33.772474	125.858327	-0.376264	-135.128680
8.050000	-0.376482	-135.989842	-34.404758	122.834132	-34.404758	122.834132	-0.376623	-135.985619
8.100000	-0.377778	-136.833946	-34.974250	119.922953	-34.974250	119.922953	-0.377906	-136.830182
8.150000	-0.379742	-137.668897	-35.493234	117.108898	-35.493234	117.108898	-0.379859	-137.665551
8.200000	-0.382248	-138.496379	-35.964902	114.389347	-35.964902	114.389347	-0.382357	-138.493417
8.250000	-0.385219	-139.317521	-36.389080	111.768129	-36.389080	111.768129	-0.385321	-139.314915
8.300000	-0.388531	-140.134160	-36.776544	109.234786	-36.776544	109.234786	-0.388628	-140.131892
8.350000	-0.392192	-140.946467	-37.118850	106.811213	-37.118850	106.811213	-0.392284	-140.944516
8.400000	-0.396095	-141.756016	-37.428960	104.480924	-37.428960	104.480924	-0.396184	-141.754372
8.450000	-0.400226	-142.563253	-37.705415	102.253567	-37.705415	102.253567	-0.400313	-142.561905
8.500000	-0.404560	-143.368746	-37.949468	100.133620	-37.949468	100.133620	-0.404646	-143.367688
8.550000	-0.409077	-144.172994	-38.162068	98.125791	-38.162068	98.125791	-0.409162	-144.172222
8.600000	-0.413779	-144.976399	-38.340172	96.248225	-38.340172	96.248225	-0.413864	-144.975909
8.650000	-0.418636	-145.779479	-38.487912	94.493660	-38.487912	94.493660	-0.418722	-145.779273
8.700000	-0.423662	-146.582702	-38.600142	92.887895	-38.600142	92.887895	-0.423750	-146.582781
8.750000	-0.428802	-147.386211	-38.687891	91.386840	-38.687891	91.386840	-0.428893	-147.386579
8.800000	-0.434098	-148.190699	-38.739903	90.038763	-38.739903	90.038763	-0.434192	-148.191362
8.850000	-0.439478	-148.995707	-38.772689	88.772055	-38.772689	88.772055	-0.439576	-148.996670
8.900000	-0.445075	-149.803036	-38.752418	87.720988	-38.752418	87.720988	-0.445179	-149.804314
8.950000	-0.450739	-150.611226	-38.716079	86.730517	-38.716079	86.730517	-0.450848	-150.612825
9.000000	-0.456606	-151.422366	-38.628961	85.926092	-38.628961	85.926092	-0.456722	-151.424305
9.050000	-0.462564	-152.235026	-38.520100	85.192431	-38.520100	85.192431	-0.462687	-152.237316
9.100000	-0.468715	-153.051145	-38.363542	84.603295	-38.363542	84.603295	-0.468847	-153.053807
9.150000	-0.475038	-153.870572	-38.166716	84.118229	-38.166716	84.118229	-0.475181	-153.873629
9.200000	-0.481549	-154.693782	-37.927966	83.725230	-37.927966	83.725230	-0.481703	-154.697259
9.250000	-0.488291	-155.521759	-37.640544	83.416122	-37.640544	83.416122	-0.488459	-155.525688
9.300000	-0.495282	-156.354906	-37.305862	83.167983	-37.305862	83.167983	-0.495464	-156.359323
9.350000	-0.502553	-157.193848	-36.923695	82.961785	-36.923695	82.961785	-0.502752	-157.198792
9.400000	-0.510153	-158.039444	-36.492635	82.779592	-36.492635	82.779592	-0.510370	-158.044961
9.450000	-0.518141	-158.892719	-36.011322	82.603108	-36.011322	82.603108	-0.518380	-158.898862
9.500000	-0.526599	-159.754912	-35.478369	82.414072	-35.478369	82.414072	-0.526863	-159.761743
9.550000	-0.535645	-160.627766	-34.890456	82.193703	-34.890456	82.193703	-0.535936	-160.635359
9.600000	-0.545473	-161.514011	-34.239936	81.920657	-34.239936	81.920657	-0.545796	-161.522457
9.650000	-0.556247	-162.415444	-33.530380	81.580343	-33.530380	81.580343	-0.556608	-162.424843
9.700000	-0.568256	-163.335328	-32.758315	81.156252	-32.758315	81.156252	-0.568662	-163.345800
9.750000	-0.582014	-164.279335	-31.911300	80.625744	-31.911300	80.625744	-0.582474	-164.291027
9.800000	-0.598114	-165.252795	-30.987654	79.973536	-30.987654	79.973536	-0.598639	-165.265871
9.850000	-0.617592	-166.264704	-29.975433	79.175377	-29.975433	79.175377	-0.618201	-166.279354
9.900000	-0.642109	-167.327691	-28.859976	78.200738	-28.859976	78.200738	-0.642824	-167.344117
9.950000	-0.674462	-168.460088	-27.621875	77.006772	-27.621875	77.006772	-0.675314	-168.478476
10.000000	-0.720007	-169.691415	-26.227115	75.521639	-26.227115	75.521639	-0.721034	-169.711841
