! freq	dB(S11)	phase(S11)	dB(S12)	phase(S12)	
!     	dB(S21)	phase(S21)	dB(S22)	phase(S22)	
!S-par simulation data
#  GHz  S  DB  R 50
0.000000	-85.497464	0.000000	-0.000461	0.000000	-0.000461	0.000000	-85.497464	0.000000
0.050000	-32.623176	-93.460876	-0.006582	-3.419941	-0.006582	-3.419941	-32.621688	-93.316524
0.100000	-26.633892	-97.091850	-0.020339	-6.802315	-0.020339	-6.802315	-26.632536	-96.803040
0.150000	-23.160024	-100.638271	-0.037587	-10.157738	-0.037587	-10.157738	-23.158801	-100.205117
0.200000	-20.723661	-104.129145	-0.058062	-13.496940	-0.058062	-13.496940	-20.722504	-103.552067
0.250000	-18.859882	-107.576364	-0.082097	-16.821944	-0.082097	-16.821944	-18.858681	-106.855901
0.300000	-17.362255	-110.988592	-0.109860	-20.130511	-0.109860	-20.130511	-17.360880	-110.125029
0.350000	-16.117298	-114.374146	-0.140932	-23.421359	-0.140932	-23.421359	-16.115663	-113.367274
0.400000	-15.059545	-117.735178	-0.175066	-26.692137	-0.175066	-26.692137	-15.057630	-116.584421
0.450000	-14.149256	-121.069481	-0.212056	-29.938990	-0.212056	-29.938990	-14.147124	-119.774145
0.500000	-13.354967	-124.377308	-0.251230	-33.162091	-0.251230	-33.162091	-13.352723	-122.937007
0.550000	-12.656027	-127.657516	-0.292120	-36.360708	-0.292120	-36.360708	-12.653766	-126.072123
0.600000	-12.038119	-130.908836	-0.334284	-39.533730	-0.334284	-39.533730	-12.035901	-129.178335
0.650000	-11.491295	-134.130082	-0.377225	-42.679734	-0.377225	-42.679734	-11.489145	-132.254389
0.700000	-11.004483	-137.324051	-0.420422	-45.800751	-0.420422	-45.800751	-11.002400	-135.302929
0.750000	-10.570579	-140.491756	-0.463440	-48.897307	-0.463440	-48.897307	-10.568551	-138.324814
0.800000	-10.185244	-143.633135	-0.505794	-51.969023	-0.505794	-51.969023	-10.183259	-141.319810
0.850000	-9.843105	-146.750201	-0.547046	-55.017617	-0.547046	-55.017617	-9.841152	-144.289819
0.900000	-9.539850	-149.844808	-0.586811	-58.044805	-0.586811	-58.044805	-9.537921	-147.236617
0.950000	-9.272364	-152.918518	-0.624698	-61.052104	-0.624698	-61.052104	-9.270456	-150.161688
1.000000	-9.037925	-155.973192	-0.660348	-64.041368	-0.660348	-64.041368	-9.036037	-153.066828
1.050000	-8.835357	-159.010256	-0.693293	-67.014082	-0.693293	-67.014082	-8.833491	-155.953353
1.100000	-8.660361	-162.033360	-0.723518	-69.973812	-0.723518	-69.973812	-8.658520	-158.824949
1.150000	-8.512804	-165.043980	-0.750585	-72.922107	-0.750585	-72.922107	-8.510993	-161.682969
1.200000	-8.391494	-168.044638	-0.774236	-75.861503	-0.774236	-75.861503	-8.389718	-164.529858
1.250000	-8.295522	-171.038007	-0.794239	-78.794693	-0.794239	-78.794693	-8.293788	-167.368203
1.300000	-8.225294	-174.026843	-0.810210	-81.724517	-0.810210	-81.724517	-8.223609	-170.200600
1.350000	-8.179405	-177.014420	-0.822137	-84.654260	-0.822137	-84.654260	-8.177776	-173.030266
1.400000	-8.157750	179.996194	-0.829878	-87.587085	-0.829878	-87.587085	-8.156185	-175.860141
1.450000	-8.160480	177.001831	-0.833324	-90.526297	-0.833324	-90.526297	-8.158989	-178.693245
1.500000	-8.188017	173.999239	-0.832404	-93.475341	-0.832404	-93.475341	-8.186609	178.467339
1.550000	-8.241067	170.985100	-0.827083	-96.437790	-0.827083	-96.437790	-8.239752	175.618494
1.600000	-8.320642	167.956049	-0.817371	-99.417337	-0.817371	-99.417337	-8.319433	172.757089
1.650000	-8.428100	164.908698	-0.803326	-102.417776	-0.803326	-102.417776	-8.427009	169.880017
1.700000	-8.562354	161.842067	-0.785460	-105.440239	-0.785460	-105.440239	-8.561393	166.986311
1.750000	-8.730789	158.748672	-0.763145	-108.493399	-0.763145	-108.493399	-8.729977	164.069449
1.800000	-8.933711	155.627096	-0.736970	-111.579150	-0.736970	-111.579150	-8.933063	161.128259
1.850000	-9.174467	152.474259	-0.707211	-114.701473	-0.707211	-114.701473	-9.174003	158.160277
1.900000	-9.457576	149.286928	-0.674179	-117.864801	-0.674179	-117.864801	-9.457317	155.163117
1.950000	-9.788214	146.062568	-0.638298	-121.073134	-0.638298	-121.073134	-9.788184	152.135283
2.000000	-10.172362	142.799653	-0.600092	-124.329770	-0.600092	-124.329770	-10.172584	149.076526
2.050000	-10.617983	139.497068	-0.560121	-127.638257	-0.560121	-127.638257	-10.618481	145.987509
2.100000	-11.135192	136.154824	-0.519021	-131.001889	-0.519021	-131.001889	-11.135989	142.870688
2.150000	-11.737073	132.774591	-0.477504	-134.423625	-0.477504	-134.423625	-11.738182	139.731176
2.200000	-12.440919	129.360556	-0.436358	-137.906014	-0.436358	-137.906014	-12.442333	136.578184
2.250000	-13.270251	125.920880	-0.396443	-141.451092	-0.396443	-141.451092	-13.271921	133.427502
2.300000	-14.258242	122.470406	-0.358682	-145.060291	-0.358682	-145.060291	-14.260019	130.306144
2.350000	-15.453927	119.036078	-0.324059	-148.734335	-0.324059	-148.734335	-15.455428	127.261737
2.400000	-16.934457	115.669124	-0.293601	-152.473140	-0.293601	-152.473140	-16.934710	124.383656
2.450000	-18.832172	112.476517	-0.268363	-156.275721	-0.268363	-156.275721	-18.828501	121.857551
2.500000	-21.404931	109.719516	-0.249408	-160.140111	-0.249408	-160.140111	-21.388647	120.135143
2.550000	-25.275622	108.338905	-0.237966	-164.064482	-0.237966	-164.064482	-25.205512	120.824164
2.600000	-32.697664	114.897320	-0.234902	-168.043325	-0.234902	-168.043325	-32.114853	134.120190
2.650000	-36.954568	-131.494301	-0.241137	-172.071409	-0.241137	-172.071409	-35.079887	-131.412473
2.700000	-26.903800	-99.935845	-0.257483	-176.142485	-0.257483	-176.142485	-26.612009	-98.399300
2.750000	-22.004547	-100.101410	-0.284613	179.750615	-0.284613	179.750615	-21.882515	-95.766832
2.800000	-18.847455	-102.756861	-0.323029	175.615840	-0.323029	175.615840	-18.773548	-97.165562
2.850000	-16.523266	-106.150581	-0.373042	171.461728	-0.373042	171.461728	-16.470399	-99.799002
2.900000	-14.693015	-109.863535	-0.434748	167.297187	-0.434748	167.297187	-14.651538	-102.971119
2.950000	-13.193356	-113.738527	-0.508021	163.131247	-0.508021	163.131247	-13.158883	-106.421033
3.000000	-11.932904	-117.699896	-0.592503	158.972799	-0.592503	158.972799	-11.903118	-110.025612
3.050000	-10.855192	-121.704544	-0.687612	154.830338	-0.687612	154.830338	-10.828740	-113.716988
3.100000	-9.922721	-125.724832	-0.792554	150.711719	-0.792554	150.711719	-9.898751	-117.453347
3.150000	-9.109529	-129.741384	-0.906400	146.624341	-0.906400	146.624341	-9.087474	-121.206791
3.200000	-8.396329	-133.739941	-1.027933	142.574325	-1.027933	142.574325	-8.375795	-124.957341
3.250000	-7.768062	-137.710502	-1.155750	138.566026	-1.155750	138.566026	-7.748770	-128.691102
3.300000	-7.213216	-141.645794	-1.288410	134.602848	-1.288410	134.602848	-7.194961	-132.398246
3.350000	-6.722264	-145.541256	-1.424383	130.686388	-1.424383	130.686388	-6.704894	-136.072355
3.400000	-6.287942	-149.393638	-1.562097	126.817682	-1.562097	126.817682	-6.271343	-139.708938
3.450000	-5.904309	-153.201350	-1.699872	122.996440	-1.699872	122.996440	-5.888396	-143.305507
3.500000	-5.566724	-156.964073	-1.835895	119.221317	-1.835895	119.221317	-5.551435	-146.861140
3.550000	-5.270132	-160.684941	-1.968509	115.487638	-1.968509	115.487638	-5.255425	-150.378433
3.600000	-5.011032	-164.367342	-2.095975	111.790583	-2.095975	111.790583	-4.996881	-153.860526
3.650000	-4.786587	-168.016018	-2.216526	108.123941	-2.216526	108.123941	-4.772981	-157.312071
3.700000	-4.594576	-171.637061	-2.328357	104.480034	-2.328357	104.480034	-4.581520	-160.739214
3.750000	-4.434689	-175.237485	-2.428962	100.849612	-2.428962	100.849612	-4.422205	-164.149366
3.800000	-4.304602	-178.827509	-2.516976	97.220597	-2.516976	97.220597	-4.292729	-167.552977
3.850000	-4.202687	177.582565	-2.591176	93.580699	-2.591176	93.580699	-4.191482	-170.960711
3.900000	-4.130812	173.980471	-2.648709	89.913830	-2.648709	89.913830	-4.120361	-174.385892
3.950000	-4.092597	170.348808	-2.685894	86.196766	-2.685894	86.196766	-4.083032	-177.847609
4.000000	-4.086611	166.674044	-2.702824	82.412855	-2.702824	82.412855	-4.078096	178.639827
4.050000	-4.116294	162.938465	-2.697335	78.537775	-2.697335	78.537775	-4.109051	175.056752
4.100000	-4.194762	159.103680	-2.662563	74.515519	-2.662563	74.515519	-4.189166	171.359415
4.150000	-4.324760	155.154520	-2.599747	70.321798	-2.599747	70.321798	-4.321297	167.530012
4.200000	-4.516130	151.067898	-2.507816	65.916466	-2.507816	65.916466	-4.515488	163.540386
4.250000	-4.797809	146.788022	-2.380271	61.197673	-2.380271	61.197673	-4.801188	159.320966
4.300000	-5.195359	142.293454	-2.218342	56.095890	-2.218342	56.095890	-5.204649	154.836240
4.350000	-5.762892	137.557793	-2.021591	50.478306	-2.021591	50.478306	-5.781568	150.028838
4.400000	-6.572496	132.625793	-1.796547	44.229582	-1.796547	44.229582	-6.607078	144.898021
4.450000	-7.775863	127.687158	-1.553466	37.136928	-1.553466	37.136928	-7.841392	139.521858
4.500000	-9.639647	123.486754	-1.316911	29.000569	-1.316911	29.000569	-9.777536	134.400212
4.550000	-12.726096	122.936500	-1.129712	19.608420	-1.129712	19.608420	-13.099042	131.773896
4.600000	-17.869024	141.337138	-1.059772	8.823843	-1.059772	8.823843	-19.593205	147.106309
4.650000	-17.205406	-157.186824	-1.199195	-3.284699	-1.199195	-3.284699	-18.865164	-131.029641
4.700000	-11.027127	-141.552447	-1.640047	-16.288719	-1.640047	-16.288719	-11.380681	-118.627327
4.750000	-7.133041	-146.034559	-2.431717	-29.429179	-2.431717	-29.429179	-7.260613	-125.174645
4.800000	-4.727647	-154.731740	-3.558515	-41.866878	-3.558515	-41.866878	-4.786242	-134.770527
4.850000	-3.217078	-163.943391	-4.942325	-53.008792	-4.942325	-53.008792	-3.246384	-144.395499
4.900000	-2.256806	-172.532501	-6.492393	-62.655529	-6.492393	-62.655529	-2.271042	-153.159879
4.950000	-1.640367	179.811079	-8.134595	-70.858473	-8.134595	-70.858473	-1.645863	-160.856019
5.000000	-1.238645	173.076218	-9.819753	-77.798039	-9.819753	-77.798039	-1.238616	-167.546174
5.050000	-0.971635	167.138888	-11.522235	-83.682383	-11.522235	-83.682383	-0.967869	-173.382407
5.100000	-0.791100	161.862517	-13.228941	-88.685673	-13.228941	-88.685673	-0.784669	-178.517338
5.150000	-0.666188	157.113463	-14.942480	-92.956199	-14.942480	-92.956199	-0.657757	176.904858
5.200000	-0.578250	152.787482	-16.668527	-96.591209	-16.668527	-96.591209	-0.568251	172.773400
5.250000	-0.515386	148.801341	-18.416781	-99.649108	-18.416781	-99.649108	-0.504105	169.000657
5.300000	-0.469856	145.089365	-20.200020	-102.150563	-20.200020	-102.150563	-0.457482	165.517920
5.350000	-0.436535	141.599756	-22.033810	-104.075760	-22.033810	-104.075760	-0.423192	162.271277
5.400000	-0.412329	138.299624	-23.917563	-105.317096	-23.917563	-105.317096	-0.398091	159.226964
5.450000	-0.394025	135.137196	-25.912336	-105.811453	-25.912336	-105.811453	-0.378926	156.330864
5.500000	-0.380521	132.097204	-28.019959	-105.280366	-28.019959	-105.280366	-0.364566	153.567800
5.550000	-0.370648	129.157655	-30.260895	-103.317783	-30.260895	-103.317783	-0.353818	150.915385
5.600000	-0.363543	126.299052	-32.649080	-99.302465	-32.649080	-99.302465	-0.345793	148.353792
5.650000	-0.358733	123.509272	-35.101186	-92.052183	-35.101186	-92.052183	-0.339992	145.871437
5.700000	-0.355769	120.773734	-37.389085	-80.293674	-37.389085	-80.293674	-0.335939	143.453977
5.750000	-0.354306	118.078736	-39.086146	-64.246718	-39.086146	-64.246718	-0.333265	141.087799
5.800000	-0.354164	115.413918	-39.786564	-46.997468	-39.786564	-46.997468	-0.331760	138.763165
5.850000	-0.355234	112.769661	-39.632810	-32.747525	-39.632810	-32.747525	-0.331279	136.471287
5.900000	-0.357470	110.136789	-39.134426	-23.149086	-39.134426	-23.149086	-0.331735	134.204050
5.950000	-0.360878	107.506285	-38.670331	-17.531538	-38.670331	-17.531538	-0.333085	131.953768
6.000000	-0.365521	104.869010	-38.412447	-14.778280	-38.412447	-14.778280	-0.335330	129.712960
6.050000	-0.371520	102.215415	-38.434693	-14.100556	-38.434693	-14.100556	-0.338515	127.474124
6.100000	-0.379059	99.535205	-38.791775	-15.116498	-38.791775	-15.116498	-0.342730	125.229503
6.150000	-0.388408	96.816960	-39.563797	-17.848721	-39.563797	-17.848721	-0.348119	122.970824
6.200000	-0.399939	94.047652	-40.898470	-22.919572	-40.898470	-22.919572	-0.354897	120.688991
6.250000	-0.414163	91.212037	-43.075501	-32.441499	-43.075501	-32.441499	-0.363364	118.373702
6.300000	-0.432084	88.284470	-46.310986	-56.047912	-46.310986	-56.047912	-0.374128	116.008836
6.350000	-0.454552	85.246326	-47.493641	-107.148030	-47.493641	-107.148030	-0.387704	113.581912
6.400000	-0.483039	82.068168	-42.759616	-151.763891	-42.759616	-151.763891	-0.404992	111.074546
6.450000	-0.519672	78.712055	-37.779822	-170.706984	-37.779822	-170.706984	-0.427299	108.463484
6.500000	-0.566229	75.153666	-33.867522	179.034284	-33.867522	179.034284	-0.455713	105.733710
6.550000	-0.629218	71.288473	-30.517195	171.921228	-30.517195	171.921228	-0.494249	102.823329
6.600000	-0.715809	67.029271	-27.530612	165.684818	-27.530612	165.684818	-0.547328	99.681363
6.650000	-0.837838	62.247571	-24.763408	159.449030	-24.763408	159.449030	-0.622239	96.234040
6.700000	-1.013231	56.762282	-22.160800	152.873040	-22.160800	152.873040	-0.730282	92.377635
6.750000	-1.282239	50.228573	-19.604111	145.480755	-19.604111	145.480755	-0.896620	87.922974
6.800000	-1.713912	42.202772	-17.055466	136.582586	-17.055466	136.582586	-1.164168	82.644370
6.850000	-2.450309	31.956474	-14.509012	125.323942	-14.509012	125.323942	-1.620683	76.211115
6.900000	-3.785124	18.424837	-12.039448	110.604656	-12.039448	110.604656	-2.442333	68.281107
6.950000	-6.433952	-0.373255	-9.854699	90.964429	-9.854699	90.964429	-4.037851	58.771803
7.000000	-12.154085	-30.433671	-8.432862	65.963514	-8.432862	65.963514	-7.286707	49.504001
7.050000	-18.917254	-137.294154	-8.425451	37.583739	-8.425451	37.583739	-14.973672	56.368731
7.100000	-9.956491	160.221010	-10.331047	12.212243	-10.331047	12.212243	-13.127659	147.994505
7.150000	-5.607028	137.380766	-13.530092	0.417517	-13.530092	0.417517	-6.070632	145.727684
7.200000	-3.472458	121.139518	-15.736316	2.999439	-15.736316	2.999439	-3.337945	133.694450
7.250000	-2.379435	109.119785	-16.289352	6.300299	-16.289352	6.300299	-2.140709	123.847253
7.300000	-1.769523	99.993407	-16.342108	5.710503	-16.342108	5.710503	-1.540583	116.378077
7.350000	-1.399906	92.781696	-16.386631	3.106973	-16.386631	3.106973	-1.203487	110.537679
7.400000	-1.160059	86.847395	-16.488845	-0.153920	-16.488845	-0.153920	-0.996264	105.761336
7.450000	-0.997656	81.816263	-16.632611	-3.521047	-16.632611	-3.521047	-0.861485	101.714500
7.500000	-0.880247	77.384246	-16.795474	-6.802203	-16.795474	-6.802203	-0.766685	98.137337
7.550000	-0.792946	73.397898	-16.965460	-9.948262	-16.965460	-9.948262	-0.697743	94.901114
7.600000	-0.728247	69.783382	-17.134028	-12.933063	-17.134028	-12.933063	-0.647638	91.942056
7.650000	-0.678949	66.446973	-17.296265	-15.769843	-17.296265	-15.769843	-0.610046	89.184933
7.700000	-0.638892	63.289466	-17.452186	-18.499718	-17.452186	-18.499718	-0.579822	86.554664
7.750000	-0.606712	60.292586	-17.600647	-21.127688	-17.600647	-21.127688	-0.555827	84.036314
7.800000	-0.580673	57.427869	-17.741480	-23.666619	-17.741480	-23.666619	-0.536635	81.608000
7.850000	-0.559583	54.675035	-17.874659	-26.126368	-17.874659	-26.126368	-0.521282	79.253991
7.900000	-0.542990	52.028915	-17.999190	-28.506860	-17.999190	-28.506860	-0.509391	76.968361
7.950000	-0.529271	49.453112	-18.117917	-30.832923	-18.117917	-30.832923	-0.499702	74.725984
8.000000	-0.517991	46.937960	-18.231505	-33.110566	-18.231505	-33.110566	-0.491881	72.519607
8.050000	-0.508799	44.475167	-18.340649	-35.344898	-18.340649	-35.344898	-0.485658	70.343002
8.100000	-0.501412	42.057644	-18.446079	-37.540191	-18.446079	-37.540191	-0.480821	68.190824
8.150000	-0.495687	39.681333	-18.548366	-39.697916	-18.548366	-39.697916	-0.477267	66.059376
8.200000	-0.491580	37.343557	-18.648294	-41.817101	-18.648294	-41.817101	-0.474975	63.945223
8.250000	-0.488684	35.032868	-18.747559	-43.905668	-18.747559	-43.905668	-0.473643	61.841503
8.300000	-0.486926	32.745753	-18.847145	-45.963842	-18.847145	-45.963842	-0.473229	59.745382
8.350000	-0.486352	30.480343	-18.948402	-47.987735	-18.948402	-47.987735	-0.473794	57.654191
8.400000	-0.486862	28.232727	-19.052352	-49.978284	-19.052352	-49.978284	-0.475274	55.565456
8.450000	-0.488552	25.998633	-19.162020	-51.926068	-19.162020	-51.926068	-0.477805	53.474507
8.500000	-0.491037	23.773660	-19.276138	-53.845012	-19.276138	-53.845012	-0.481046	51.382066
8.550000	-0.495498	21.559547	-19.404856	-55.675523	-19.404856	-55.675523	-0.486174	49.277840
8.600000	-0.500669	19.347276	-19.541039	-57.470164	-19.541039	-57.470164	-0.492009	47.168373
8.650000	-0.508570	17.135645	-19.703499	-59.113569	-19.703499	-59.113569	-0.500642	45.035521
8.700000	-0.517802	14.920418	-19.881671	-60.671075	-19.881671	-60.671075	-0.510710	42.890383
8.750000	-0.530874	12.692578	-20.099982	-61.966612	-20.099982	-61.966612	-0.524978	40.710314
8.800000	-0.548735	10.444792	-20.365624	-62.896415	-20.365624	-62.896415	-0.544655	38.490100
8.850000	-0.574112	8.166105	-20.694300	-63.200484	-20.694300	-63.200484	-0.573009	36.215305
8.900000	-0.613171	5.840556	-21.100033	-62.267422	-21.100033	-62.267422	-0.617485	33.863063
8.950000	-0.680157	3.458049	-21.529409	-58.690784	-21.529409	-58.690784	-0.695579	31.413784
9.000000	-0.801594	1.081553	-21.612213	-50.674678	-21.612213	-50.674678	-0.840895	28.932868
9.050000	-1.011669	-1.028353	-20.555840	-39.076756	-20.555840	-39.076756	-1.099316	26.727240
9.100000	-1.302961	-1.567859	-17.486692	-36.387060	-17.486692	-36.387060	-1.477475	26.430351
9.150000	-1.234071	-0.606975	-15.257794	-50.899802	-15.257794	-50.899802	-1.418242	28.175290
9.200000	-0.916975	-1.715899	-15.018617	-66.084924	-15.018617	-66.084924	-1.028002	27.399601
9.250000	-0.728101	-4.129427	-15.475132	-75.479902	-15.475132	-75.479902	-0.788246	24.936761
9.300000	-0.644659	-6.642306	-15.938907	-81.256837	-15.938907	-81.256837	-0.678758	22.305172
9.350000	-0.604924	-9.060625	-16.313068	-85.439371	-16.313068	-85.439371	-0.624066	19.766484
9.400000	-0.586767	-11.385101	-16.600244	-88.775789	-16.600244	-88.775789	-0.596703	17.326782
9.450000	-0.581214	-13.628950	-16.806626	-91.593624	-16.806626	-91.593624	-0.585437	14.970774
9.500000	-0.580265	-15.836965	-16.976231	-94.220558	-16.976231	-94.220558	-0.580077	12.650736
9.550000	-0.584122	-18.002899	-17.095817	-96.662290	-17.095817	-96.662290	-0.580866	10.369450
9.600000	-0.589996	-20.151697	-17.192362	-99.039639	-17.192362	-99.039639	-0.584201	8.101907
9.650000	-0.597667	-22.285442	-17.267100	-101.364335	-17.267100	-101.364335	-0.589791	5.845714
9.700000	-0.607753	-24.404401	-17.311590	-103.651671	-17.311590	-103.651671	-0.598315	3.596040
9.750000	-0.618835	-26.520147	-17.344603	-105.936590	-17.344603	-105.936590	-0.608000	1.345478
9.800000	-0.631584	-28.632608	-17.359014	-108.225796	-17.359014	-108.225796	-0.619603	-0.908811
9.850000	-0.645872	-30.745555	-17.357959	-110.532357	-17.357959	-110.532357	-0.632919	-3.169959
9.900000	-0.661814	-32.861586	-17.341747	-112.866841	-17.341747	-112.866841	-0.648030	-5.440511
9.950000	-0.679548	-34.982956	-17.310391	-115.238807	-17.310391	-115.238807	-0.665044	-7.722462
10.000000	-0.699398	-37.112250	-17.262241	-117.661285	-17.262241	-117.661285	-0.684262	-10.018471
