! freq	dB(S11)	phase(S11)	dB(S12)	phase(S12)	
!     	dB(S21)	phase(S21)	dB(S22)	phase(S22)	
!S-par simulation data
#  GHz  S  DB  R 50
0.000000	0.000000	0.000000	-324.706750	0.000000	-324.706750	0.000000	-0.000000	0.000000
0.050000	-0.001576	-2.537251	-96.355451	88.068861	-96.355451	88.068861	-0.000867	-1.442326
0.100000	-0.005451	-5.062725	-90.371635	86.144302	-90.371635	86.144302	-0.003036	-2.878918
0.150000	-0.010100	-7.573472	-86.911325	84.233047	-86.911325	84.233047	-0.005698	-4.308410
0.200000	-0.014592	-10.072635	-84.497092	82.341359	-84.497092	82.341359	-0.008321	-5.732658
0.250000	-0.018627	-12.563201	-82.668964	80.477069	-82.668964	80.477069	-0.010702	-7.153662
0.300000	-0.022216	-15.046944	-81.222297	78.648717	-81.222297	78.648717	-0.012823	-8.572858
0.350000	-0.025478	-17.524535	-80.045415	76.863717	-80.045415	76.863717	-0.014744	-9.990983
0.400000	-0.028506	-19.995586	-79.074060	75.131824	-79.074060	75.131824	-0.016517	-11.408237
0.450000	-0.031370	-22.458990	-78.270276	73.467291	-78.270276	73.467291	-0.018185	-12.824546
0.500000	-0.034130	-24.914191	-77.602565	71.879773	-77.602565	71.879773	-0.019791	-14.239807
0.550000	-0.036820	-27.360248	-77.051711	70.383833	-77.051711	70.383833	-0.021358	-15.653838
0.600000	-0.039462	-29.795709	-76.607618	69.002790	-76.607618	69.002790	-0.022906	-17.066366
0.650000	-0.042071	-32.220000	-76.257742	67.754822	-76.257742	67.754822	-0.024450	-18.477242
0.700000	-0.044659	-34.632389	-75.994242	66.664363	-75.994242	66.664363	-0.025998	-19.886299
0.750000	-0.047230	-37.031676	-75.814389	65.769732	-75.814389	65.769732	-0.027558	-21.293301
0.800000	-0.049787	-39.417115	-75.714302	65.112782	-75.714302	65.112782	-0.029134	-22.698085
0.850000	-0.052330	-41.788166	-75.690261	64.743189	-75.690261	64.743189	-0.030727	-24.100522
0.900000	-0.054859	-44.144226	-75.739630	64.725962	-75.739630	64.725962	-0.032340	-25.500475
0.950000	-0.057370	-46.484648	-75.859817	65.145995	-75.859817	65.145995	-0.033972	-26.897803
1.000000	-0.059861	-48.808892	-76.046305	66.109596	-76.046305	66.109596	-0.035622	-28.292379
1.050000	-0.062330	-51.116468	-76.291093	67.749498	-76.291093	67.749498	-0.037289	-29.684084
1.100000	-0.064772	-53.406938	-76.579800	70.225757	-76.579800	70.225757	-0.038972	-31.072808
1.150000	-0.067184	-55.679910	-76.887419	73.717458	-76.887419	73.717458	-0.040669	-32.458445
1.200000	-0.069563	-57.935035	-77.173102	78.394062	-77.173102	78.394062	-0.042378	-33.840898
1.250000	-0.071906	-60.172011	-77.376233	84.351736	-77.376233	84.351736	-0.044096	-35.220071
1.300000	-0.074209	-62.390172	-77.414307	91.528705	-77.414307	91.528705	-0.045821	-36.595804
1.350000	-0.076470	-64.589694	-77.214018	99.521776	-77.214018	99.521776	-0.047552	-37.968084
1.400000	-0.078689	-66.770397	-76.734206	107.702291	-76.734206	107.702291	-0.049286	-39.336834
1.450000	-0.080863	-68.932139	-75.989270	115.383987	-75.989270	115.383987	-0.051022	-40.701980
1.500000	-0.082991	-71.074812	-75.040471	122.059790	-75.040471	122.059790	-0.052756	-42.063455
1.550000	-0.085072	-73.198341	-73.965912	127.505154	-73.965912	127.505154	-0.054489	-43.421192
1.600000	-0.087106	-75.302683	-72.834402	131.727734	-72.834402	131.727734	-0.056218	-44.775132
1.650000	-0.089094	-77.387823	-71.694941	134.860840	-71.694941	134.860840	-0.057943	-46.125217
1.700000	-0.091035	-79.453778	-70.577659	137.078207	-70.577659	137.078207	-0.059661	-47.471394
1.750000	-0.092931	-81.500587	-69.498878	138.548126	-69.498878	138.548126	-0.061373	-48.813614
1.800000	-0.094782	-83.528317	-68.466098	139.415740	-68.466098	139.415740	-0.063077	-50.151831
1.850000	-0.096590	-85.537057	-67.481644	139.799723	-67.481644	139.799723	-0.064772	-51.486001
1.900000	-0.098356	-87.526714	-66.544452	139.791354	-66.544452	139.791354	-0.066459	-52.816040
1.950000	-0.100082	-89.497426	-65.652768	139.467332	-65.652768	139.467332	-0.068137	-54.141911
2.000000	-0.101769	-91.449548	-64.804514	138.889852	-64.804514	138.889852	-0.069806	-55.463625
2.050000	-0.103421	-93.383250	-63.996788	138.104788	-63.996788	138.104788	-0.071466	-56.781152
2.100000	-0.105039	-95.298717	-63.226716	137.148614	-63.226716	137.148614	-0.073117	-58.094465
2.150000	-0.106626	-97.196149	-62.491569	136.050510	-62.491569	136.050510	-0.074760	-59.403539
2.200000	-0.108184	-99.075758	-61.788806	134.833985	-61.788806	134.833985	-0.076394	-60.708353
2.250000	-0.109715	-100.937770	-61.116092	133.518116	-61.116092	133.518116	-0.078021	-62.008889
2.300000	-0.111222	-102.782422	-60.471299	132.118490	-60.471299	132.118490	-0.079642	-63.305130
2.350000	-0.112706	-104.609961	-59.852492	130.647941	-59.852492	130.647941	-0.081256	-64.597063
2.400000	-0.114171	-106.420644	-59.257912	129.117101	-59.257912	129.117101	-0.082865	-65.884678
2.450000	-0.115619	-108.214734	-58.685966	127.534836	-58.685966	127.534836	-0.084469	-67.167966
2.500000	-0.117052	-109.992504	-58.135205	125.908587	-58.135205	125.908587	-0.086070	-68.446922
2.550000	-0.118472	-111.753716	-57.603897	124.243560	-57.603897	124.243560	-0.087669	-69.721402
2.600000	-0.119881	-113.499190	-57.091326	122.546465	-57.091326	122.546465	-0.089266	-70.991546
2.650000	-0.121283	-115.229214	-56.596386	120.821774	-56.596386	120.821774	-0.090863	-72.257356
2.700000	-0.122678	-116.944082	-56.118067	119.073322	-56.118067	119.073322	-0.092461	-73.518838
2.750000	-0.124069	-118.644090	-55.655444	117.304410	-55.655444	117.304410	-0.094061	-74.775998
2.800000	-0.125457	-120.329538	-55.207669	115.517895	-55.207669	115.517895	-0.095664	-76.028845
2.850000	-0.126845	-122.000727	-54.773961	113.716253	-54.773961	113.716253	-0.097272	-77.277391
2.900000	-0.128234	-123.657962	-54.353600	111.901640	-54.353600	111.901640	-0.098885	-78.521651
2.950000	-0.129626	-125.301547	-53.945923	110.075938	-53.945923	110.075938	-0.100506	-79.761639
3.000000	-0.131022	-126.931787	-53.550315	108.240793	-53.550315	108.240793	-0.102134	-80.997374
3.050000	-0.132424	-128.548988	-53.166206	106.397649	-53.166206	106.397649	-0.103772	-82.228876
3.100000	-0.133833	-130.153455	-52.793069	104.547776	-52.793069	104.547776	-0.105420	-83.456169
3.150000	-0.135251	-131.745495	-52.430410	102.692292	-52.430410	102.692292	-0.107081	-84.679277
3.200000	-0.136678	-133.325411	-52.077773	100.832184	-52.077773	100.832184	-0.108754	-85.898226
3.250000	-0.138115	-134.893507	-51.734729	98.968324	-51.734729	98.968324	-0.110441	-87.113045
3.300000	-0.139565	-136.450085	-51.400880	97.101484	-51.400880	97.101484	-0.112143	-88.323765
3.350000	-0.141027	-137.995445	-51.075851	95.232346	-51.075851	95.232346	-0.113861	-89.530419
3.400000	-0.142502	-139.529887	-50.759293	93.361517	-50.759293	93.361517	-0.115597	-90.733040
3.450000	-0.143992	-141.053707	-50.450878	91.489535	-50.450878	91.489535	-0.117352	-91.931667
3.500000	-0.145496	-142.567199	-50.150297	89.616877	-50.150297	89.616877	-0.119125	-93.126335
3.550000	-0.147017	-144.070656	-49.857260	87.743966	-49.857260	87.743966	-0.120920	-94.317087
3.600000	-0.148553	-145.564366	-49.571494	85.871180	-49.571494	85.871180	-0.122735	-95.503963
3.650000	-0.150106	-147.048617	-49.292743	83.998851	-49.292743	83.998851	-0.124573	-96.687007
3.700000	-0.151677	-148.523694	-49.020763	82.127278	-49.020763	82.127278	-0.126434	-97.866264
3.750000	-0.153265	-149.989877	-48.755326	80.256723	-48.755326	80.256723	-0.128319	-99.041781
3.800000	-0.154871	-151.447082	-48.496155	78.387484	-48.496155	78.387484	-0.130230	-100.213447
3.850000	-0.156496	-152.895972	-48.243120	76.519720	-48.243120	76.519720	-0.132166	-101.381477
3.900000	-0.158139	-154.336819	-47.996027	74.653610	-47.996027	74.653610	-0.134129	-102.545920
3.950000	-0.159801	-155.769890	-47.754692	72.789315	-47.754692	72.789315	-0.136118	-103.706830
4.000000	-0.161481	-157.195451	-47.518940	70.926974	-47.518940	70.926974	-0.138135	-104.864262
4.050000	-0.163180	-158.613764	-47.288606	69.066711	-47.288606	69.066711	-0.140180	-106.018270
4.100000	-0.164898	-160.025089	-47.063533	67.208634	-47.063533	67.208634	-0.142254	-107.168913
4.150000	-0.166634	-161.429680	-46.843571	65.352837	-46.843571	65.352837	-0.144357	-108.316248
4.200000	-0.168390	-162.827791	-46.628581	63.499404	-46.628581	63.499404	-0.146490	-109.460334
4.250000	-0.170164	-164.219669	-46.418427	61.648405	-46.418427	61.648405	-0.148652	-110.601231
4.300000	-0.171956	-165.605561	-46.212982	59.799903	-46.212982	59.799903	-0.150845	-111.739003
4.350000	-0.173767	-166.985710	-46.012124	57.953951	-46.012124	57.953951	-0.153069	-112.873711
4.400000	-0.175596	-168.360354	-45.815739	56.110593	-45.815739	56.110593	-0.155323	-114.005419
4.450000	-0.177443	-169.729730	-45.623716	54.269868	-45.623716	54.269868	-0.157609	-115.134191
4.500000	-0.179307	-171.094070	-45.435951	52.431807	-45.435951	52.431807	-0.159927	-116.260095
4.550000	-0.181189	-172.453605	-45.252344	50.596437	-45.252344	50.596437	-0.162276	-117.383195
4.600000	-0.183088	-173.808560	-45.072802	48.763777	-45.072802	48.763777	-0.164657	-118.503559
4.650000	-0.185004	-175.159159	-44.897233	46.933844	-44.897233	46.933844	-0.167070	-119.621257
4.700000	-0.186936	-176.505621	-44.725552	45.106652	-44.725552	45.106652	-0.169515	-120.736356
4.750000	-0.188885	-177.848165	-44.557677	43.282208	-44.557677	43.282208	-0.171993	-121.848927
4.800000	-0.190849	-179.187004	-44.393530	41.460518	-44.393530	41.460518	-0.174504	-122.959041
4.850000	-0.192828	179.477651	-44.233038	39.641585	-44.233038	39.641585	-0.177047	-124.066768
4.900000	-0.194822	178.145591	-44.076129	37.825410	-44.076129	37.825410	-0.179623	-125.172182
4.950000	-0.196830	176.816612	-43.922737	36.011991	-43.922737	36.011991	-0.182232	-126.275355
5.000000	-0.198852	175.490512	-43.772797	34.201324	-43.772797	34.201324	-0.184874	-127.376360
5.050000	-0.200888	174.167198	-43.626290	32.393526	-43.626290	32.393526	-0.187550	-128.475185
5.100000	-0.202937	172.846348	-43.483121	30.588468	-43.483121	30.588468	-0.190260	-129.571999
5.150000	-0.204998	171.527771	-43.343236	28.786145	-43.343236	28.786145	-0.193004	-130.666877
5.200000	-0.207070	170.211274	-43.206583	26.986549	-43.206583	26.986549	-0.195781	-131.759897
5.250000	-0.209154	168.896671	-43.073111	25.189670	-43.073111	25.189670	-0.198593	-132.851135
5.300000	-0.211247	167.583776	-42.942773	23.395501	-42.942773	23.395501	-0.201438	-133.940669
5.350000	-0.213351	166.272407	-42.815526	21.604031	-42.815526	21.604031	-0.204318	-135.028579
5.400000	-0.215464	164.962383	-42.691326	19.815254	-42.691326	19.815254	-0.207232	-136.114942
5.450000	-0.217586	163.653528	-42.570134	18.029158	-42.570134	18.029158	-0.210181	-137.199839
5.500000	-0.219716	162.345667	-42.451911	16.245737	-42.451911	16.245737	-0.213165	-138.283352
5.550000	-0.221852	161.038628	-42.336624	14.464982	-42.336624	14.464982	-0.216185	-139.365560
5.600000	-0.223996	159.732241	-42.224237	12.686886	-42.224237	12.686886	-0.219240	-140.446548
5.650000	-0.226145	158.426339	-42.114720	10.911442	-42.114720	10.911442	-0.222331	-141.526396
5.700000	-0.228300	157.120757	-42.008044	9.138645	-42.008044	9.138645	-0.225458	-142.605189
5.750000	-0.230459	155.815334	-41.904180	7.368490	-41.904180	7.368490	-0.228621	-143.683011
5.800000	-0.232622	154.509909	-41.803104	5.600974	-41.803104	5.600974	-0.231822	-144.759948
5.850000	-0.234788	153.204325	-41.704793	3.836095	-41.704793	3.836095	-0.235059	-145.836083
5.900000	-0.236957	151.898428	-41.609224	2.073853	-41.609224	2.073853	-0.238334	-146.911505
5.950000	-0.239127	150.592064	-41.516377	0.314248	-41.516377	0.314248	-0.241647	-147.986299
6.000000	-0.241298	149.285084	-41.426235	-1.442715	-41.426235	-1.442715	-0.244997	-149.060554
6.050000	-0.243469	147.977340	-41.338780	-3.197032	-41.338780	-3.197032	-0.248386	-150.134357
6.100000	-0.245640	146.668686	-41.254000	-4.948696	-41.254000	-4.948696	-0.251813	-151.207797
6.150000	-0.247809	145.358980	-41.171879	-6.697697	-41.171879	-6.697697	-0.255279	-152.280964
6.200000	-0.249976	144.048081	-41.092408	-8.444022	-41.092408	-8.444022	-0.258784	-153.353947
6.250000	-0.252140	142.735850	-41.015577	-10.187657	-41.015577	-10.187657	-0.262328	-154.426837
6.300000	-0.254300	141.422082	-40.941465	-11.928466	-40.941465	-11.928466	-0.265912	-155.499729
6.350000	-0.256456	140.106701	-40.869983	-13.666544	-40.869983	-13.666544	-0.269537	-156.572718
6.400000	-0.258606	138.789576	-40.801125	-15.401866	-40.801125	-15.401866	-0.273201	-157.645897
6.450000	-0.260751	137.470580	-40.734889	-17.134405	-40.734889	-17.134405	-0.276904	-158.719357
6.500000	-0.262889	136.149586	-40.671274	-18.864128	-40.671274	-18.864128	-0.280648	-159.793192
6.550000	-0.265019	134.826471	-40.610279	-20.590999	-40.610279	-20.590999	-0.284431	-160.867494
6.600000	-0.267141	133.501113	-40.551907	-22.314978	-40.551907	-22.314978	-0.288254	-161.942357
6.650000	-0.269254	132.173395	-40.496162	-24.036021	-40.496162	-24.036021	-0.292117	-163.017874
6.700000	-0.271357	130.843200	-40.443048	-25.754076	-40.443048	-25.754076	-0.296020	-164.094140
6.750000	-0.273450	129.510415	-40.392574	-27.469090	-40.392574	-27.469090	-0.299963	-165.171249
6.800000	-0.275532	128.174928	-40.344747	-29.181002	-40.344747	-29.181002	-0.303946	-166.249295
6.850000	-0.277603	126.836632	-40.299578	-30.889746	-40.299578	-30.889746	-0.307969	-167.328373
6.900000	-0.279660	125.495421	-40.257079	-32.595249	-40.257079	-32.595249	-0.312031	-168.408578
6.950000	-0.281705	124.151192	-40.217264	-34.297433	-40.217264	-34.297433	-0.316132	-169.490005
7.000000	-0.283737	122.803845	-40.180149	-35.996211	-40.180149	-35.996211	-0.320273	-170.572749
7.050000	-0.285754	121.453282	-40.145750	-37.691490	-40.145750	-37.691490	-0.324453	-171.656905
7.100000	-0.287756	120.099409	-40.114088	-39.383169	-40.114088	-39.383169	-0.328672	-172.742569
7.150000	-0.289743	118.742133	-40.085183	-41.071139	-40.085183	-41.071139	-0.332930	-173.829837
7.200000	-0.291715	117.381367	-40.059058	-42.755282	-40.059058	-42.755282	-0.337227	-174.918802
7.250000	-0.293670	116.017024	-40.035738	-44.435470	-40.035738	-44.435470	-0.341561	-176.009562
7.300000	-0.295609	114.649021	-40.015250	-46.111565	-40.015250	-46.111565	-0.345934	-177.102211
7.350000	-0.297531	113.277279	-39.997622	-47.783420	-39.997622	-47.783420	-0.350345	-178.196844
7.400000	-0.299436	111.901721	-39.982885	-49.450874	-39.982885	-49.450874	-0.354792	-179.293557
7.450000	-0.301323	110.522273	-39.971072	-51.113758	-39.971072	-51.113758	-0.359277	179.607556
7.500000	-0.303193	109.138866	-39.962219	-52.771887	-39.962219	-52.771887	-0.363799	178.506399
7.550000	-0.305044	107.751255	-39.956494	-54.424838	-39.956494	-54.424838	-0.368358	177.402770
7.600000	-0.306877	106.359548	-39.953809	-56.072603	-39.953809	-56.072603	-0.372954	176.296674
7.650000	-0.308692	104.963687	-39.954206	-57.714954	-39.954206	-57.714954	-0.377584	175.188017
7.700000	-0.310489	103.563616	-39.957729	-59.351644	-39.957729	-59.351644	-0.382250	174.076704
7.750000	-0.312269	102.159283	-39.964426	-60.982409	-39.964426	-60.982409	-0.386951	172.962643
7.800000	-0.314031	100.750639	-39.974345	-62.606965	-39.974345	-62.606965	-0.391686	171.845741
7.850000	-0.315776	99.337639	-39.987539	-64.225009	-39.987539	-64.225009	-0.396454	170.725904
7.900000	-0.317504	97.920243	-40.004063	-65.836216	-40.004063	-65.836216	-0.401256	169.603042
7.950000	-0.319216	96.498414	-40.023974	-67.440236	-40.023974	-67.440236	-0.406091	168.477061
8.000000	-0.320911	95.072120	-40.047334	-69.036695	-40.047334	-69.036695	-0.410957	167.347872
8.050000	-0.322592	93.641330	-40.074207	-70.625191	-40.074207	-70.625191	-0.415856	166.215383
8.100000	-0.324258	92.206022	-40.104659	-72.205293	-40.104659	-72.205293	-0.420785	165.079506
8.150000	-0.325911	90.766173	-40.138762	-73.776538	-40.138762	-73.776538	-0.425745	163.940152
8.200000	-0.327551	89.321770	-40.176590	-75.338427	-40.176590	-75.338427	-0.430734	162.797232
8.250000	-0.329179	87.872799	-40.218221	-76.890426	-40.218221	-76.890426	-0.435753	161.650659
8.300000	-0.330797	86.419254	-40.263736	-78.431960	-40.263736	-78.431960	-0.440801	160.500347
8.350000	-0.332406	84.961397	-40.313004	-79.963099	-40.313004	-79.963099	-0.445875	159.346439
8.400000	-0.334008	83.498854	-40.366420	-81.482261	-40.366420	-81.482261	-0.450977	158.188536
8.450000	-0.335603	82.031367	-40.424304	-82.987907	-40.424304	-82.987907	-0.456108	157.026311
8.500000	-0.337194	80.559567	-40.486240	-84.480985	-40.486240	-84.480985	-0.461263	155.860226
8.550000	-0.338782	79.083116	-40.552629	-85.959600	-40.552629	-85.959600	-0.466444	154.689886
8.600000	-0.340370	77.602125	-40.623505	-87.423115	-40.623505	-87.423115	-0.471649	153.515290
8.650000	-0.341959	76.116793	-40.698829	-88.871145	-40.698829	-88.871145	-0.476877	152.336526
8.700000	-0.343553	74.626720	-40.779107	-90.301003	-40.779107	-90.301003	-0.482129	151.153099
8.750000	-0.345152	73.132627	-40.863838	-91.714283	-40.863838	-91.714283	-0.487401	149.965618
8.800000	-0.346761	71.633622	-40.954017	-93.105642	-40.954017	-93.105642	-0.492697	148.773053
8.850000	-0.348380	70.130680	-41.048911	-94.477950	-41.048911	-94.477950	-0.498011	147.576301
8.900000	-0.350016	68.623185	-41.149295	-95.826360	-41.149295	-95.826360	-0.503346	146.374578
8.950000	-0.351668	67.111607	-41.254917	-97.151450	-41.254917	-97.151450	-0.508698	145.168270
9.000000	-0.353340	65.595843	-41.366086	-98.450442	-41.366086	-98.450442	-0.514068	143.957130
9.050000	-0.355038	64.075884	-41.483041	-99.720816	-41.483041	-99.720816	-0.519454	142.741001
9.100000	-0.356761	62.552114	-41.605614	-100.962649	-41.605614	-100.962649	-0.524856	141.520201
9.150000	-0.358518	61.024075	-41.734536	-102.169246	-41.734536	-102.169246	-0.530272	140.294001
9.200000	-0.360307	59.492527	-41.869245	-103.343858	-41.869245	-103.343858	-0.535702	139.063219
9.250000	-0.362139	57.956824	-42.010707	-104.476396	-42.010707	-104.476396	-0.541144	137.826821
9.300000	-0.364011	56.417710	-42.158368	-105.570466	-42.158368	-105.570466	-0.546598	136.585647
9.350000	-0.365932	54.874861	-42.312855	-106.617498	-42.312855	-106.617498	-0.552062	135.339051
9.400000	-0.367905	53.328588	-42.474088	-107.616217	-42.474088	-107.616217	-0.557534	134.087292
9.450000	-0.369933	51.778998	-42.642201	-108.562223	-42.642201	-108.562223	-0.563015	132.830329
9.500000	-0.372024	50.226017	-42.817528	-109.447336	-42.817528	-109.447336	-0.568503	131.567817
9.550000	-0.374177	48.670130	-42.999747	-110.273284	-42.999747	-110.273284	-0.573996	130.300342
9.600000	-0.376409	47.110933	-43.189481	-111.022212	-43.189481	-111.022212	-0.579493	129.026938
9.650000	-0.378709	45.549124	-43.386137	-111.701459	-43.386137	-111.701459	-0.584994	127.748621
9.700000	-0.381098	43.984351	-43.590111	-112.289542	-43.590111	-112.289542	-0.590497	126.464425
9.750000	-0.383569	42.417115	-43.800936	-112.790009	-43.800936	-112.790009	-0.596000	125.175067
9.800000	-0.386134	40.847363	-44.018473	-113.186264	-44.018473	-113.186264	-0.601503	123.880110
9.850000	-0.388798	39.275291	-44.242281	-113.470275	-44.242281	-113.470275	-0.607003	122.579649
9.900000	-0.391562	37.701135	-44.471755	-113.635629	-44.471755	-113.635629	-0.612501	121.273889
9.950000	-0.394442	36.124854	-44.705963	-113.657818	-44.705963	-113.657818	-0.617993	119.962297
10.000000	-0.397428	34.546901	-44.944132	-113.546167	-44.944132	-113.546167	-0.623481	118.645724
