! freq	dB(S11)	phase(S11)	dB(S12)	phase(S12)	
!     	dB(S21)	phase(S21)	dB(S22)	phase(S22)	
!S-par simulation data
#  GHz  S  DB  R 50
0.000000	-0.000000	0.000000	-352.576516	0.000000	-352.576516	0.000000	-0.000000	0.000000
0.050000	-0.000092	-0.840024	-110.198539	141.913580	-110.198539	141.913580	-0.000094	-0.839872
0.100000	-0.000366	-1.679849	-103.809062	116.321219	-103.809062	116.321219	-0.000371	-1.679540
0.150000	-0.000813	-2.519287	-100.241183	106.379791	-100.241183	106.379791	-0.000825	-2.518812
0.200000	-0.001419	-3.358178	-97.769907	100.884434	-97.769907	100.884434	-0.001439	-3.357521
0.250000	-0.002178	-4.196326	-95.896932	97.336752	-95.896932	97.336752	-0.002208	-4.195471
0.300000	-0.003060	-5.033678	-94.401236	94.678769	-94.401236	94.678769	-0.003098	-5.032609
0.350000	-0.004050	-5.870112	-93.171834	92.603072	-93.171834	92.603072	-0.004098	-5.868812
0.400000	-0.005132	-6.705557	-92.142027	90.912068	-92.142027	90.912068	-0.005187	-6.704012
0.450000	-0.006285	-7.539969	-91.269280	89.500385	-91.269280	89.500385	-0.006347	-7.538168
0.500000	-0.007493	-8.373322	-90.524906	88.309379	-90.524906	88.309379	-0.007560	-8.371257
0.550000	-0.008741	-9.205607	-89.888736	87.306638	-89.888736	87.306638	-0.008811	-9.203274
0.600000	-0.010015	-10.036830	-89.346138	86.475922	-89.346138	86.475922	-0.010086	-10.034227
0.650000	-0.011304	-10.867004	-88.886232	85.811952	-88.886232	85.811952	-0.011374	-10.864132
0.700000	-0.012598	-11.696148	-88.500755	85.317695	-88.500755	85.317695	-0.012665	-11.693011
0.750000	-0.013889	-12.524285	-88.183301	85.003004	-88.183301	85.003004	-0.013953	-12.520888
0.800000	-0.015172	-13.351437	-87.928768	84.884102	-87.928768	84.884102	-0.015231	-13.347787
0.850000	-0.016442	-14.177627	-87.732923	84.983611	-87.732923	84.983611	-0.016495	-14.173731
0.900000	-0.017697	-15.002874	-87.592012	85.330956	-87.592012	85.330956	-0.017744	-14.998740
0.950000	-0.018934	-15.827194	-87.502367	85.963031	-87.502367	85.963031	-0.018975	-15.822830
1.000000	-0.020154	-16.650601	-87.459942	86.924941	-87.459942	86.924941	-0.020188	-16.646014
1.050000	-0.021354	-17.473105	-87.459742	88.270590	-87.459742	88.270590	-0.021382	-17.468301
1.100000	-0.022536	-18.294710	-87.495074	90.062641	-87.495074	90.062641	-0.022557	-18.289697
1.150000	-0.023700	-19.115419	-87.556585	92.371050	-87.556585	92.371050	-0.023716	-19.110201
1.200000	-0.024847	-19.935231	-87.631082	95.268894	-87.631082	95.268894	-0.024858	-19.929813
1.250000	-0.025979	-20.754141	-87.700283	98.823639	-87.700283	98.823639	-0.025984	-20.748528
1.300000	-0.027095	-21.572103	-87.737146	103.112181	-87.737146	103.112181	-0.027096	-21.566297
1.350000	-0.028198	-22.389147	-87.711120	108.099316	-87.711120	108.099316	-0.028195	-22.383150
1.400000	-0.029289	-23.205260	-87.588602	113.703164	-87.588602	113.703164	-0.029284	-23.199074
1.450000	-0.030370	-24.020429	-87.339049	119.751121	-87.339049	119.751121	-0.030362	-24.014055
1.500000	-0.031442	-24.834639	-86.942561	125.991100	-86.942561	125.991100	-0.031432	-24.828078
1.550000	-0.032506	-25.647874	-86.395749	132.134571	-86.395749	132.134571	-0.032494	-25.641126
1.600000	-0.033564	-26.460118	-85.712496	137.915426	-85.712496	137.915426	-0.033551	-26.453182
1.650000	-0.034616	-27.271351	-84.919186	143.137286	-84.919186	143.137286	-0.034602	-27.264227
1.700000	-0.035663	-28.081189	-83.998759	147.448817	-83.998759	147.448817	-0.035648	-28.073875
1.750000	-0.036707	-28.890484	-83.099738	151.397620	-83.099738	151.397620	-0.036692	-28.882980
1.800000	-0.037749	-29.698471	-82.151422	154.560322	-82.151422	154.560322	-0.037735	-29.690775
1.850000	-0.038789	-30.505523	-81.211073	157.161523	-81.211073	157.161523	-0.038775	-30.497635
1.900000	-0.039829	-31.311411	-80.275936	159.236887	-80.275936	159.236887	-0.039815	-31.303329
1.950000	-0.040868	-32.116134	-79.353816	160.786413	-79.353816	160.786413	-0.040855	-32.107857
2.000000	-0.041908	-32.919852	-78.463997	162.018395	-78.463997	162.018395	-0.041895	-32.911379
2.050000	-0.042949	-33.722163	-77.585665	162.805815	-77.585665	162.805815	-0.042937	-33.713491
2.100000	-0.043991	-34.523852	-76.760819	163.450147	-76.760819	163.450147	-0.043979	-34.514982
2.150000	-0.045036	-35.323931	-75.943457	163.741782	-75.943457	163.741782	-0.045025	-35.314861
2.200000	-0.046084	-36.122788	-75.153228	163.823444	-75.153228	163.823444	-0.046073	-36.113517
2.250000	-0.047135	-36.920406	-74.389336	163.725417	-74.389336	163.725417	-0.047124	-36.910934
2.300000	-0.048189	-37.716768	-73.650753	163.472987	-73.650753	163.472987	-0.048179	-37.707093
2.350000	-0.049248	-38.511855	-72.936337	163.087296	-72.936337	163.087296	-0.049238	-38.501978
2.400000	-0.050311	-39.305650	-72.244901	162.586072	-72.244901	162.586072	-0.050301	-39.295571
2.450000	-0.051379	-40.098138	-71.575263	161.984233	-71.575263	161.984233	-0.051369	-40.087856
2.500000	-0.052451	-40.889302	-70.926271	161.294383	-70.926271	161.294383	-0.052441	-40.878816
2.550000	-0.053530	-41.679067	-70.295700	160.524281	-70.295700	160.524281	-0.053520	-41.668379
2.600000	-0.054614	-42.467476	-69.683761	159.686672	-69.683761	159.686672	-0.054603	-42.456585
2.650000	-0.055704	-43.254515	-69.089448	158.789206	-69.089448	158.789206	-0.055693	-43.243421
2.700000	-0.056801	-44.040168	-68.511823	157.838473	-68.511823	157.838473	-0.056789	-44.028873
2.750000	-0.057904	-44.824423	-67.950009	156.840172	-67.950009	156.840172	-0.057891	-44.812927
2.800000	-0.059014	-45.607267	-67.403189	155.799253	-67.403189	155.799253	-0.059000	-45.595571
2.850000	-0.060132	-46.388687	-66.870602	154.720027	-66.870602	154.720027	-0.060117	-46.376791
2.900000	-0.061256	-47.168670	-66.351540	153.606267	-66.351540	153.606267	-0.061240	-47.156576
2.950000	-0.062389	-47.947206	-65.845343	152.461283	-65.845343	152.461283	-0.062372	-47.934914
3.000000	-0.063530	-48.724283	-65.351396	151.287991	-65.351396	151.287991	-0.063511	-48.711794
3.050000	-0.064678	-49.499890	-64.869126	150.088965	-64.869126	150.088965	-0.064659	-49.487206
3.100000	-0.065836	-50.274019	-64.397997	148.866486	-64.397997	148.866486	-0.065815	-50.261140
3.150000	-0.067003	-51.046658	-63.937510	147.622579	-63.937510	147.622579	-0.066980	-51.033586
3.200000	-0.068178	-51.817799	-63.487196	146.359050	-63.487196	146.359050	-0.068154	-51.804534
3.250000	-0.069364	-52.587433	-63.046618	145.077508	-63.046618	145.077508	-0.069338	-52.573978
3.300000	-0.070559	-53.355553	-62.615364	143.779394	-62.615364	143.779394	-0.070532	-53.341907
3.350000	-0.071766	-54.121884	-62.191034	142.463679	-62.191034	142.463679	-0.071738	-54.108049
3.400000	-0.072985	-54.886618	-61.774987	141.133263	-61.774987	141.133263	-0.072955	-54.872596
3.450000	-0.074209	-55.650549	-61.372416	139.796398	-61.372416	139.796398	-0.074178	-55.636339
3.500000	-0.075451	-56.412067	-60.971781	138.440187	-60.971781	138.440187	-0.075418	-56.397672
3.550000	-0.076697	-57.173046	-60.585389	137.080274	-60.585389	137.080274	-0.076663	-57.158466
3.600000	-0.077963	-57.931325	-60.199066	135.701854	-60.199066	135.701854	-0.077928	-57.916561
3.650000	-0.079232	-58.689333	-59.827606	134.321824	-59.827606	134.321824	-0.079196	-58.674385
3.700000	-0.080526	-59.444352	-59.454607	132.924094	-59.454607	132.924094	-0.080488	-59.429222
3.750000	-0.081819	-60.199371	-59.096967	131.526363	-59.096967	131.526363	-0.081781	-60.184059
3.800000	-0.083141	-60.951115	-58.736397	130.111666	-58.736397	130.111666	-0.083101	-60.935622
3.850000	-0.084462	-61.702859	-58.390200	128.696969	-58.390200	128.696969	-0.084422	-61.687185
3.900000	-0.085811	-62.451590	-58.042630	127.268454	-58.042630	127.268454	-0.085770	-62.435737
3.950000	-0.087163	-63.200047	-57.707155	125.838682	-57.707155	125.838682	-0.087121	-63.184014
4.000000	-0.088541	-63.945759	-57.371669	124.397611	-57.371669	124.397611	-0.088499	-63.929547
4.050000	-0.089925	-64.690922	-57.046255	122.954279	-57.046255	122.954279	-0.089882	-64.674530
4.100000	-0.091334	-65.433612	-56.722021	121.501673	-56.722021	121.501673	-0.091290	-65.417041
4.150000	-0.092751	-66.175477	-56.406058	120.045976	-56.406058	120.045976	-0.092707	-66.158728
4.200000	-0.094192	-66.915144	-56.092319	118.582645	-56.092319	118.582645	-0.094148	-66.898217
4.250000	-0.095645	-67.653713	-55.785240	117.115498	-55.785240	117.115498	-0.095601	-67.636607
4.300000	-0.097120	-68.390361	-55.481302	115.642057	-55.481302	115.642057	-0.097075	-68.373077
4.350000	-0.098610	-69.125638	-55.182573	114.164122	-55.182573	114.164122	-0.098565	-69.108176
4.400000	-0.100121	-69.859273	-54.887797	112.681008	-54.887797	112.681008	-0.100075	-69.841633
4.450000	-0.101651	-70.591268	-54.596914	111.192714	-54.596914	111.192714	-0.101605	-70.573448
4.500000	-0.103198	-71.321900	-54.310704	109.700187	-54.310704	109.700187	-0.103152	-71.303902
4.550000	-0.104769	-72.050625	-54.027184	108.201734	-54.027184	108.201734	-0.104723	-72.032448
4.600000	-0.106355	-72.778267	-53.748983	106.699883	-53.748983	106.699883	-0.106309	-72.759910
4.650000	-0.107969	-73.503741	-53.472356	105.191236	-53.472356	105.191236	-0.107924	-73.485205
4.700000	-0.109595	-74.228409	-53.201635	103.679968	-53.201635	103.679968	-0.109549	-74.209692
4.750000	-0.111254	-74.950655	-52.931438	102.160840	-52.931438	102.160840	-0.111209	-74.931758
4.800000	-0.112922	-75.672368	-52.667690	100.639868	-52.667690	100.639868	-0.112876	-75.653290
4.850000	-0.114628	-76.391415	-52.403456	99.109685	-52.403456	99.109685	-0.114583	-76.372155
4.900000	-0.116339	-77.110197	-52.146190	97.578505	-52.146190	97.578505	-0.116294	-77.090755
4.950000	-0.118094	-77.826077	-51.887434	96.036356	-51.887434	96.036356	-0.118049	-77.806452
5.000000	-0.119850	-78.541956	-51.636165	94.494206	-51.636165	94.494206	-0.119804	-78.522148
5.050000	-0.121651	-79.254968	-51.383200	92.939954	-51.383200	92.939954	-0.121605	-79.234975
5.100000	-0.123464	-79.967300	-51.135250	91.382449	-51.135250	91.382449	-0.123418	-79.947122
5.150000	-0.125309	-80.677738	-50.888366	89.815869	-50.888366	89.815869	-0.125263	-80.657374
5.200000	-0.127177	-81.386837	-50.644017	88.241912	-50.644017	88.241912	-0.127130	-81.366286
5.250000	-0.129066	-82.094739	-50.402624	86.661355	-50.402624	86.661355	-0.129019	-82.074000
5.300000	-0.130991	-82.800667	-50.161249	85.068024	-50.161249	85.068024	-0.130944	-82.779738
5.350000	-0.132928	-83.505939	-49.924253	83.470278	-49.924253	83.470278	-0.132881	-83.484820
5.400000	-0.134909	-84.208906	-49.685580	81.854625	-49.685580	81.854625	-0.134861	-84.187594
5.450000	-0.136905	-84.911111	-49.450398	80.231724	-49.450398	80.231724	-0.136857	-84.889605
5.500000	-0.138934	-85.611695	-49.215417	78.593381	-49.215417	78.593381	-0.138885	-85.589993
5.550000	-0.140991	-86.310931	-48.980999	76.938897	-48.980999	76.938897	-0.140940	-86.289030
5.600000	-0.143067	-87.009204	-48.748829	75.272884	-48.748829	75.272884	-0.143017	-86.987104
5.650000	-0.145186	-87.705597	-48.513794	73.577709	-48.513794	73.577709	-0.145134	-87.683291
5.700000	-0.147318	-88.401416	-48.282043	71.872413	-48.282043	71.872413	-0.147265	-88.378903
5.750000	-0.149494	-89.095362	-48.045844	70.128223	-48.045844	70.128223	-0.149440	-89.072637
5.800000	-0.151690	-89.788573	-47.810657	68.362666	-47.810657	68.362666	-0.151635	-89.765632
5.850000	-0.153918	-90.480562	-47.573167	66.561496	-47.573167	66.561496	-0.153862	-90.457399
5.900000	-0.156180	-91.171430	-47.331307	64.711585	-47.331307	64.711585	-0.156122	-91.148037
5.950000	-0.158462	-91.861666	-47.090123	62.834123	-47.090123	62.834123	-0.158402	-91.838038
6.000000	-0.160794	-92.550588	-46.836613	60.861362	-46.836613	60.861362	-0.160733	-92.526709
6.050000	-0.163140	-93.239231	-46.585031	58.860628	-46.585031	58.860628	-0.163077	-93.215095
6.100000	-0.165536	-93.927081	-46.319711	56.743989	-46.319711	56.743989	-0.165470	-93.902669
6.150000	-0.167972	-94.614625	-46.043003	54.514249	-46.043003	54.514249	-0.167903	-94.589917
6.200000	-0.170458	-95.302166	-45.751330	52.139691	-45.751330	52.139691	-0.170385	-95.277136
6.250000	-0.173007	-95.990126	-45.439823	49.575749	-45.439823	49.575749	-0.172929	-95.964739
6.300000	-0.175642	-96.679116	-45.101697	46.757886	-45.101697	46.757886	-0.175556	-96.653327
6.350000	-0.178424	-97.370322	-44.721674	43.548709	-44.721674	43.548709	-0.178328	-97.344059
6.400000	-0.181434	-98.065037	-44.290162	39.825058	-44.290162	39.825058	-0.181321	-98.038205
6.450000	-0.184913	-98.766298	-43.775695	35.248222	-43.775695	35.248222	-0.184773	-98.738744
6.500000	-0.189416	-99.478922	-43.137998	29.270631	-43.137998	29.270631	-0.189223	-99.450400
6.550000	-0.196481	-100.211643	-42.311875	20.746086	-42.311875	20.746086	-0.196175	-100.181746
6.600000	-0.211544	-100.977910	-41.205724	6.700162	-41.205724	6.700162	-0.210950	-100.946023
6.650000	-0.253542	-101.731500	-40.037544	-21.141218	-40.037544	-21.141218	-0.252093	-101.698225
6.700000	-0.308126	-102.019886	-41.761345	-76.010706	-41.761345	-76.010706	-0.305716	-101.995395
6.750000	-0.268057	-102.345560	-49.641362	-141.138200	-49.641362	-141.138200	-0.266708	-102.327287
6.800000	-0.239402	-103.024861	-54.001520	137.240051	-54.001520	137.240051	-0.238701	-103.005508
6.850000	-0.228840	-103.737439	-51.488741	93.715258	-51.488741	93.715258	-0.228396	-103.716667
6.900000	-0.225334	-104.438159	-49.589245	76.514495	-49.589245	76.514495	-0.225008	-104.416331
6.950000	-0.224744	-105.127451	-48.402442	67.033294	-48.402442	67.033294	-0.224479	-105.104833
7.000000	-0.225583	-105.808598	-47.589101	60.705432	-47.589101	60.705432	-0.225354	-105.785362
7.050000	-0.227201	-106.484041	-46.982590	55.946980	-46.982590	55.946980	-0.226997	-106.460298
7.100000	-0.229305	-107.155217	-46.503597	52.112633	-46.503597	52.112633	-0.229116	-107.131041
7.150000	-0.231735	-107.823075	-46.108555	48.869279	-46.108555	48.869279	-0.231556	-107.798520
7.200000	-0.234396	-108.488261	-45.771811	46.027647	-45.771811	46.027647	-0.234225	-108.463364
7.250000	-0.237237	-109.151170	-45.478069	43.478655	-45.478069	43.478655	-0.237071	-109.125961
7.300000	-0.240232	-109.811950	-45.218539	41.162778	-45.218539	41.162778	-0.240069	-109.786452
7.350000	-0.243348	-110.470969	-44.984534	39.015875	-44.984534	39.015875	-0.243188	-110.445199
7.400000	-0.246534	-111.128963	-44.765826	36.952985	-44.765826	36.952985	-0.246375	-111.102929
7.450000	-0.249810	-111.785602	-44.564322	35.001210	-44.564322	35.001210	-0.249653	-111.759316
7.500000	-0.253179	-112.440862	-44.378239	33.146671	-44.378239	33.146671	-0.253022	-112.414330
7.550000	-0.256589	-113.095515	-44.200738	31.334916	-44.200738	31.334916	-0.256432	-113.068742
7.600000	-0.260114	-113.748558	-44.038922	29.626952	-44.038922	29.626952	-0.259956	-113.721549
7.650000	-0.263669	-114.401217	-43.883152	27.943663	-43.883152	27.943663	-0.263511	-114.373974
7.700000	-0.267312	-115.052777	-43.738960	26.330943	-43.738960	26.330943	-0.267152	-115.025302
7.750000	-0.271009	-115.703776	-43.602688	24.758658	-43.602688	24.758658	-0.270848	-115.676069
7.800000	-0.274764	-116.354183	-43.474316	23.229120	-43.474316	23.229120	-0.274600	-116.326243
7.850000	-0.278602	-117.003937	-43.357157	21.762951	-43.357157	21.762951	-0.278436	-116.975761
7.900000	-0.282471	-117.653465	-43.244839	20.319239	-43.244839	20.319239	-0.282302	-117.625054
7.950000	-0.286457	-118.302468	-43.148455	18.970217	-43.148455	18.970217	-0.286284	-118.273814
8.000000	-0.290480	-118.951448	-43.058346	17.655268	-43.058346	17.655268	-0.290304	-118.922547
8.050000	-0.294600	-119.600366	-42.982598	16.428908	-42.982598	16.428908	-0.294419	-119.571210
8.100000	-0.298809	-120.249590	-42.921102	15.298031	-42.921102	15.298031	-0.298622	-120.220171
8.150000	-0.303093	-120.899075	-42.871480	14.247949	-42.871480	14.247949	-0.302899	-120.869383
8.200000	-0.307557	-121.549856	-42.850490	13.428121	-42.850490	13.428121	-0.307353	-121.519870
8.250000	-0.312091	-122.201191	-42.839902	12.700613	-42.839902	12.700613	-0.311877	-122.170901
8.300000	-0.316965	-122.855750	-42.876438	12.465428	-42.876438	12.465428	-0.316734	-122.825114
8.350000	-0.321964	-123.511541	-42.926806	12.419664	-42.926806	12.419664	-0.321716	-123.480544
8.400000	-0.327537	-124.172832	-43.029447	13.251032	-43.029447	13.251032	-0.327258	-124.141413
8.450000	-0.333948	-124.841238	-43.166886	15.346927	-43.166886	15.346927	-0.333623	-124.809326
8.500000	-0.342055	-125.521161	-43.275754	19.779129	-43.275754	19.779129	-0.341650	-125.488661
8.550000	-0.353743	-126.218021	-43.093137	28.051261	-43.093137	28.051261	-0.353187	-126.184862
8.600000	-0.374863	-126.934707	-41.729276	40.537453	-41.729276	40.537453	-0.373984	-126.901202
8.650000	-0.420638	-127.599704	-38.082305	46.423165	-38.082305	46.423165	-0.419184	-127.568989
8.700000	-0.470260	-127.839170	-34.477729	28.101547	-34.477729	28.101547	-0.469458	-127.815697
8.750000	-0.429454	-128.107392	-34.427158	4.639776	-34.427158	4.639776	-0.429348	-128.079841
8.800000	-0.396422	-128.764990	-35.500624	-6.612761	-35.500624	-6.612761	-0.396259	-128.735727
8.850000	-0.385154	-129.468465	-36.326812	-11.841420	-36.326812	-11.841420	-0.384980	-129.438537
8.900000	-0.382712	-130.156201	-36.861818	-14.823181	-36.861818	-14.823181	-0.382541	-130.125762
8.950000	-0.383740	-130.829296	-37.211178	-16.952653	-37.211178	-16.952653	-0.383572	-130.798407
9.000000	-0.386463	-131.492073	-37.436907	-18.696672	-37.436907	-18.696672	-0.386297	-131.460778
9.050000	-0.390091	-132.147919	-37.580781	-20.260871	-37.580781	-20.260871	-0.389925	-132.116249
9.100000	-0.394370	-132.797900	-37.655403	-21.725220	-37.655403	-21.725220	-0.394201	-132.765884
9.150000	-0.398853	-133.445935	-37.707192	-23.164124	-37.707192	-23.164124	-0.398682	-133.413580
9.200000	-0.403616	-134.091204	-37.726187	-24.582438	-37.726187	-24.582438	-0.403442	-134.058525
9.250000	-0.408521	-134.735090	-37.728683	-25.990457	-37.728683	-25.990457	-0.408344	-134.702094
9.300000	-0.413643	-135.377008	-37.707169	-27.396436	-37.707169	-27.396436	-0.413463	-135.343703
9.350000	-0.418817	-136.018478	-37.680274	-28.801953	-37.680274	-28.801953	-0.418633	-135.984866
9.400000	-0.424182	-136.658562	-37.635251	-30.214052	-37.635251	-30.214052	-0.423994	-136.624646
9.450000	-0.429579	-137.298486	-37.588047	-31.627811	-37.588047	-31.627811	-0.429387	-137.264268
9.500000	-0.435158	-137.937569	-37.527443	-33.052830	-37.527443	-33.052830	-0.434961	-137.903047
9.550000	-0.440740	-138.576651	-37.467259	-34.477848	-37.467259	-34.477848	-0.440539	-138.541827
9.600000	-0.446396	-139.215606	-37.403426	-35.908413	-37.403426	-35.908413	-0.446191	-139.180478
9.650000	-0.452197	-139.854306	-37.331999	-37.350070	-37.331999	-37.350070	-0.451987	-139.818872
9.700000	-0.458002	-140.493007	-37.261153	-38.791727	-37.261153	-38.791727	-0.457788	-140.457266
9.750000	-0.463921	-141.131826	-37.186353	-40.242859	-37.186353	-40.242859	-0.463702	-141.095774
9.800000	-0.469932	-141.770741	-37.108602	-41.701570	-37.108602	-41.701570	-0.469708	-141.734375
9.850000	-0.475947	-142.409655	-37.031540	-43.160281	-37.031540	-43.160281	-0.475719	-142.372976
9.900000	-0.482117	-143.049091	-36.950659	-44.632578	-36.950659	-44.632578	-0.481884	-143.012090
9.950000	-0.488335	-143.688676	-36.869252	-46.108757	-36.869252	-46.108757	-0.488096	-143.651352
10.000000	-0.494557	-144.328262	-36.788601	-47.584935	-36.788601	-47.584935	-0.494313	-144.290614
