! freq	dB(S11)	phase(S11)	dB(S12)	phase(S12)	
!     	dB(S21)	phase(S21)	dB(S22)	phase(S22)	
!S-par simulation data
#  GHz  S  DB  R 50
0.000000	-0.000000	0.000000	-397.030413	0.000000	-397.030413	0.000000	-0.000000	0.000000
0.050000	-0.000066	-0.807402	-88.047203	2.314942	-88.047203	2.314942	-0.000066	-0.807475
0.100000	-0.000264	-1.614689	-88.083270	1.641713	-88.083270	1.641713	-0.000264	-1.614835
0.150000	-0.000589	-2.421747	-88.149796	1.629593	-88.149796	1.629593	-0.000590	-2.421966
0.200000	-0.001036	-3.228476	-88.244659	1.780943	-88.244659	1.780943	-0.001037	-3.228767
0.250000	-0.001605	-4.034748	-88.370713	1.998841	-88.370713	1.998841	-0.001607	-4.035110
0.300000	-0.002278	-4.840512	-88.527118	2.244316	-88.527118	2.244316	-0.002280	-4.840945
0.350000	-0.003050	-5.645672	-88.717512	2.505740	-88.717512	2.505740	-0.003053	-5.646174
0.400000	-0.003914	-6.450156	-88.945078	2.775928	-88.945078	2.775928	-0.003917	-6.450726
0.450000	-0.004857	-7.253902	-89.213855	3.051391	-89.213855	3.051391	-0.004861	-7.254540
0.500000	-0.005872	-8.056860	-89.528950	3.330842	-89.528950	3.330842	-0.005876	-8.057565
0.550000	-0.006946	-8.858989	-89.896850	3.614678	-89.896850	3.614678	-0.006952	-8.859760
0.600000	-0.008072	-9.660257	-90.325866	3.904970	-90.325866	3.904970	-0.008078	-9.661092
0.650000	-0.009239	-10.460638	-90.826796	4.205819	-90.826796	4.205819	-0.009246	-10.461537
0.700000	-0.010440	-11.260117	-91.413930	4.524180	-91.413930	4.524180	-0.010446	-11.261079
0.750000	-0.011665	-12.058681	-92.106645	4.871407	-92.106645	4.871407	-0.011672	-12.059706
0.800000	-0.012909	-12.856325	-92.932041	5.266215	-92.932041	5.266215	-0.012916	-12.857411
0.850000	-0.014164	-13.653045	-93.929569	5.740631	-93.929569	5.740631	-0.014172	-13.654193
0.900000	-0.015426	-14.448842	-95.159744	6.353133	-95.159744	6.353133	-0.015433	-14.450050
0.950000	-0.016689	-15.243716	-96.722227	7.221628	-96.722227	7.221628	-0.016697	-15.244985
1.000000	-0.017950	-16.037672	-98.798501	8.623948	-98.798501	8.623948	-0.017957	-16.039001
1.050000	-0.019205	-16.830713	-101.773305	11.425223	-101.773305	11.425223	-0.019212	-16.832102
1.100000	-0.020451	-17.622841	-106.655038	21.249103	-106.655038	21.249103	-0.020459	-17.624289
1.150000	-0.021688	-18.414060	-115.391392	64.975024	-115.391392	64.975024	-0.021694	-18.415567
1.200000	-0.022912	-19.204371	-108.307891	162.725460	-108.307891	162.725460	-0.022918	-19.205938
1.250000	-0.024122	-19.993777	-101.722646	173.289733	-101.722646	173.289733	-0.024129	-19.995402
1.300000	-0.025319	-20.782236	-97.738832	176.316049	-97.738832	176.316049	-0.025325	-20.783921
1.350000	-0.026501	-21.569788	-94.847596	177.718798	-94.847596	177.718798	-0.026506	-21.571530
1.400000	-0.027668	-22.356428	-92.549173	178.446582	-92.549173	178.446582	-0.027674	-22.358229
1.450000	-0.028822	-23.142153	-90.622809	178.826462	-90.622809	178.826462	-0.028827	-23.144012
1.500000	-0.029961	-23.926956	-88.951731	178.997060	-88.951731	178.997060	-0.029966	-23.928873
1.550000	-0.031087	-24.710832	-87.466738	179.026688	-87.466738	179.026688	-0.031091	-24.712807
1.600000	-0.032200	-25.493772	-86.123467	178.952771	-86.123467	178.952771	-0.032204	-25.495804
1.650000	-0.033301	-26.275766	-84.891787	178.797458	-84.891787	178.797458	-0.033305	-26.277855
1.700000	-0.034387	-27.056468	-83.727131	178.555360	-83.727131	178.555360	-0.034390	-27.058614
1.750000	-0.035467	-27.836668	-82.670489	178.281462	-82.670489	178.281462	-0.035470	-27.838870
1.800000	-0.036536	-28.615671	-81.661369	177.946300	-81.661369	177.946300	-0.036539	-28.617929
1.850000	-0.037597	-29.393819	-80.714403	177.567377	-80.714403	177.567377	-0.037599	-29.396133
1.900000	-0.038650	-30.170912	-79.809708	177.143223	-79.809708	177.143223	-0.038652	-30.173282
1.950000	-0.039695	-30.946950	-78.944361	176.673838	-78.944361	176.673838	-0.039697	-30.949375
2.000000	-0.040735	-31.722084	-78.119421	176.170031	-78.119421	176.170031	-0.040737	-31.724564
2.050000	-0.041769	-32.495951	-77.317480	175.618034	-77.317480	175.618034	-0.041770	-32.498486
2.100000	-0.042800	-33.269073	-76.555769	175.040043	-76.555769	175.040043	-0.042801	-33.271661
2.150000	-0.043825	-34.040703	-75.804823	174.410066	-75.804823	174.410066	-0.043826	-34.043346
2.200000	-0.044849	-34.811758	-75.094770	173.761345	-75.094770	173.761345	-0.044851	-34.814454
2.250000	-0.045870	-35.581085	-74.386055	173.056390	-74.386055	173.056390	-0.045872	-35.583834
2.300000	-0.046891	-36.350018	-73.719273	172.339300	-73.719273	172.339300	-0.046893	-36.352820
2.350000	-0.047911	-37.116974	-73.046443	171.561539	-73.046443	171.561539	-0.047913	-37.119828
2.400000	-0.048932	-37.883728	-72.416690	170.777861	-72.416690	170.777861	-0.048933	-37.886634
2.450000	-0.049954	-38.648246	-71.775065	169.929089	-71.775065	169.929089	-0.049955	-38.651203
2.500000	-0.050976	-39.412765	-71.177594	169.080318	-71.177594	169.080318	-0.050978	-39.415773
2.550000	-0.052003	-40.174779	-70.563689	168.162233	-70.563689	168.162233	-0.052005	-40.177838
2.600000	-0.053031	-40.936793	-69.990324	167.244149	-69.990324	167.244149	-0.053033	-40.939902
2.650000	-0.054066	-41.696453	-69.406031	166.264168	-69.406031	166.264168	-0.054068	-41.699611
2.700000	-0.055101	-42.455898	-68.854624	165.278561	-68.854624	165.278561	-0.055103	-42.459106
2.750000	-0.056145	-43.213150	-68.297252	164.238366	-68.297252	164.238366	-0.056147	-43.216407
2.800000	-0.057191	-43.969964	-67.766196	163.187254	-67.766196	163.187254	-0.057194	-43.973270
2.850000	-0.058247	-44.724760	-67.233606	162.088777	-67.233606	162.088777	-0.058249	-44.728113
2.900000	-0.059305	-45.478882	-66.721706	160.974513	-66.721706	160.974513	-0.059308	-45.482284
2.950000	-0.060374	-46.231173	-66.212173	159.819989	-66.212173	159.819989	-0.060378	-46.234622
3.000000	-0.061449	-46.982548	-65.718549	158.645336	-65.718549	158.645336	-0.061452	-46.986043
3.050000	-0.062533	-47.732289	-65.230668	157.437340	-65.230668	157.437340	-0.062537	-47.735831
3.100000	-0.063625	-48.480862	-64.754676	156.205528	-64.754676	156.205528	-0.063629	-48.484450
3.150000	-0.064726	-49.228009	-64.287280	154.946999	-64.287280	154.946999	-0.064730	-49.231643
3.200000	-0.065837	-49.973731	-63.828449	153.661753	-63.828449	153.661753	-0.065842	-49.977411
3.250000	-0.066957	-50.718246	-63.380550	152.356001	-63.380550	152.356001	-0.066962	-50.721970
3.300000	-0.068090	-51.461069	-62.938524	151.021541	-62.938524	151.021541	-0.068095	-51.464838
3.350000	-0.069230	-52.202913	-62.509265	149.672240	-62.509265	149.672240	-0.069236	-52.206727
3.400000	-0.070386	-52.942796	-62.083759	148.293256	-62.083759	148.293256	-0.070392	-52.946654
3.450000	-0.071549	-53.681935	-61.672376	146.904418	-61.672376	146.904418	-0.071555	-53.685836
3.500000	-0.072730	-54.418839	-61.263128	145.486015	-61.263128	145.486015	-0.072736	-54.422784
3.550000	-0.073916	-55.155241	-60.868917	144.061947	-60.868917	144.061947	-0.073922	-55.159229
3.600000	-0.075125	-55.889131	-60.475659	142.609554	-60.475659	142.609554	-0.075131	-55.893162
3.650000	-0.076336	-56.622768	-60.097955	141.154799	-60.097955	141.154799	-0.076342	-56.626841
3.700000	-0.077573	-57.353614	-59.720379	139.674064	-59.720379	139.674064	-0.077580	-57.357728
3.750000	-0.078811	-58.084460	-59.358534	138.193329	-59.358534	138.193329	-0.078817	-58.088616
3.800000	-0.080079	-58.812235	-58.996272	136.689990	-58.996272	136.689990	-0.080086	-58.816432
3.850000	-0.081347	-59.540010	-58.648516	135.186651	-58.648516	135.186651	-0.081354	-59.544249
3.900000	-0.082645	-60.264949	-58.302251	133.667804	-58.302251	133.667804	-0.082652	-60.269229
3.950000	-0.083945	-60.989630	-57.968223	132.147547	-57.968223	132.147547	-0.083952	-60.993951
4.000000	-0.085274	-61.711719	-57.637141	130.617773	-57.637141	130.617773	-0.085281	-61.716079
4.050000	-0.086609	-62.433288	-57.316401	129.086095	-57.316401	129.086095	-0.086616	-62.437689
4.100000	-0.087970	-63.152514	-56.999670	127.549730	-56.999670	127.549730	-0.087978	-63.156954
4.150000	-0.089341	-63.870957	-56.691698	126.011803	-56.691698	126.011803	-0.089348	-63.875437
4.200000	-0.090736	-64.587310	-56.388472	124.472864	-56.388472	124.472864	-0.090744	-64.591830
4.250000	-0.092144	-65.302618	-56.092674	122.933418	-56.092674	122.933418	-0.092152	-65.307176
4.300000	-0.093575	-66.016092	-55.802102	121.395534	-55.802102	121.395534	-0.093582	-66.020689
4.350000	-0.095022	-66.728257	-55.517817	119.858765	-55.517817	119.858765	-0.095029	-66.732893
4.400000	-0.096490	-67.438849	-55.239048	118.325129	-55.239048	118.325129	-0.096497	-67.443524
4.450000	-0.097978	-68.147870	-54.965564	116.794627	-54.965564	116.794627	-0.097985	-68.152583
4.500000	-0.099484	-68.855580	-54.697754	115.267963	-54.697754	115.267963	-0.099490	-68.860331
4.550000	-0.101014	-69.561458	-54.434323	113.746673	-54.434323	113.746673	-0.101021	-69.566247
4.600000	-0.102560	-70.266289	-54.176644	112.229217	-54.176644	112.229217	-0.102566	-70.271116
4.650000	-0.104134	-70.969029	-53.922500	110.719428	-53.922500	110.719428	-0.104141	-70.973893
4.700000	-0.105721	-71.670986	-53.674148	109.212923	-53.674148	109.212923	-0.105727	-71.675889
4.750000	-0.107341	-72.370598	-53.428520	107.716275	-53.428520	107.716275	-0.107347	-72.375538
4.800000	-0.108970	-73.069690	-53.188720	106.221988	-53.188720	106.221988	-0.108976	-73.074667
4.850000	-0.110638	-73.766187	-52.950851	104.739506	-52.950851	104.739506	-0.110644	-73.771201
4.900000	-0.112311	-74.462425	-52.718866	103.258242	-52.718866	103.258242	-0.112316	-74.467476
4.950000	-0.114028	-75.155822	-52.488023	101.790383	-52.488023	101.790383	-0.114033	-75.160911
5.000000	-0.115746	-75.849220	-52.263156	100.322523	-52.263156	100.322523	-0.115750	-75.854345
5.050000	-0.117514	-76.539539	-52.038643	98.869230	-52.038643	98.869230	-0.117518	-76.544702
5.100000	-0.119282	-77.229858	-51.819788	97.415937	-51.819788	97.415937	-0.119287	-77.235058
5.150000	-0.121099	-77.917377	-51.601411	95.975536	-51.601411	95.975536	-0.121103	-77.922614
5.200000	-0.122920	-78.604641	-51.387956	94.536306	-51.387956	94.536306	-0.122923	-78.609915
5.250000	-0.124785	-79.289382	-51.175126	93.108058	-51.175126	93.108058	-0.124789	-79.294693
5.300000	-0.126661	-79.973619	-50.966509	91.682007	-50.966509	91.682007	-0.126664	-79.978966
5.350000	-0.128578	-80.655607	-50.758694	90.264938	-50.758694	90.264938	-0.128581	-80.660991
5.400000	-0.130509	-81.336845	-50.554404	88.850864	-50.554404	88.850864	-0.130511	-81.342266
5.450000	-0.132478	-82.016107	-50.351132	87.443806	-50.351132	87.443806	-0.132480	-82.021565
5.500000	-0.134466	-82.694381	-50.150713	86.040256	-50.150713	86.040256	-0.134469	-82.699876
5.550000	-0.136489	-83.370946	-49.951569	84.641886	-49.951569	84.641886	-0.136491	-83.376479
5.600000	-0.138537	-84.046292	-49.754624	83.247217	-49.754624	83.247217	-0.138539	-84.051862
5.650000	-0.140615	-84.720193	-49.559248	81.856097	-49.559248	81.856097	-0.140617	-84.725801
5.700000	-0.142723	-85.392650	-49.365435	80.468527	-49.365435	80.468527	-0.142725	-85.398295
5.750000	-0.144858	-86.063920	-49.173519	79.083137	-49.173519	79.083137	-0.144859	-86.069604
5.800000	-0.147028	-86.733530	-48.982556	77.700801	-48.982556	77.700801	-0.147030	-86.739252
5.850000	-0.149220	-87.402206	-48.793841	76.319575	-48.793841	76.319575	-0.149222	-87.407966
5.900000	-0.151455	-88.069014	-48.605501	74.940569	-48.605501	74.940569	-0.151456	-88.074812
5.950000	-0.153707	-88.735133	-48.419777	73.561920	-48.419777	73.561920	-0.153708	-88.740970
6.000000	-0.156007	-89.399186	-48.233887	72.184345	-48.233887	72.184345	-0.156008	-89.405063
6.050000	-0.158319	-90.062789	-48.050987	70.806698	-48.050987	70.806698	-0.158320	-90.068705
6.100000	-0.160686	-90.724138	-47.867428	69.428697	-47.867428	69.428697	-0.160687	-90.730093
6.150000	-0.163060	-91.385266	-47.687226	68.050513	-47.687226	68.050513	-0.163061	-91.391261
6.200000	-0.165497	-92.043963	-47.505927	66.670311	-47.505927	66.670311	-0.165497	-92.049998
6.250000	-0.167934	-92.702661	-47.328336	65.290109	-47.328336	65.290109	-0.167934	-92.708735
6.300000	-0.170440	-93.358761	-47.149274	63.906042	-47.149274	63.906042	-0.170441	-93.364876
6.350000	-0.172948	-94.014861	-46.973830	62.521975	-46.973830	62.521975	-0.172949	-94.021017
6.400000	-0.175521	-94.668632	-46.797437	61.132974	-46.797437	61.132974	-0.175521	-94.674830
6.450000	-0.178100	-95.322192	-46.624161	59.743523	-46.624161	59.743523	-0.178101	-95.328432
6.500000	-0.180740	-95.973685	-46.450454	58.348465	-46.450454	58.348465	-0.180741	-95.979966
6.550000	-0.183394	-96.624763	-46.279405	56.952286	-46.279405	56.952286	-0.183394	-96.631087
6.600000	-0.186103	-97.274028	-46.108430	55.550200	-46.108430	55.550200	-0.186104	-97.280394
6.650000	-0.188831	-97.922687	-45.939700	54.146145	-45.939700	54.146145	-0.188832	-97.929096
6.700000	-0.191610	-98.569775	-45.771523	52.736226	-45.771523	52.736226	-0.191611	-98.576228
6.750000	-0.194415	-99.216077	-45.605236	51.323374	-45.605236	51.323374	-0.194416	-99.222574
6.800000	-0.197265	-99.861043	-45.439942	49.904997	-45.439942	49.904997	-0.197267	-99.867584
6.850000	-0.200148	-100.505054	-45.276243	48.482673	-45.276243	48.482673	-0.200150	-100.511640
6.900000	-0.203071	-101.147952	-45.113931	47.055407	-45.113931	47.055407	-0.203073	-101.154583
6.950000	-0.206034	-101.789738	-44.952985	45.623197	-44.952985	45.623197	-0.206036	-101.796414
7.000000	-0.209031	-102.430625	-44.793762	44.186813	-44.793762	44.186813	-0.209033	-102.437347
7.050000	-0.212075	-103.070254	-44.635747	42.744582	-44.635747	42.744582	-0.212077	-103.077022
7.100000	-0.215147	-103.709187	-44.479724	41.299061	-44.479724	41.299061	-0.215150	-103.716002
7.150000	-0.218274	-104.346729	-44.324822	39.846959	-44.324822	39.846959	-0.218277	-104.353591
7.200000	-0.221423	-104.983767	-44.172112	38.392498	-44.172112	38.392498	-0.221426	-104.990676
7.250000	-0.224634	-105.619294	-44.020503	36.930960	-44.020503	36.930960	-0.224637	-105.626250
7.300000	-0.227861	-106.254497	-43.871213	35.467968	-43.871213	35.467968	-0.227863	-106.261501
7.350000	-0.231158	-106.888081	-43.723065	33.997711	-43.723065	33.997711	-0.231160	-106.895133
7.400000	-0.234463	-107.521509	-43.577293	32.526809	-43.577293	32.526809	-0.234466	-107.528609
7.450000	-0.237847	-108.153224	-43.432758	31.048817	-43.432758	31.048817	-0.237850	-108.160373
7.500000	-0.241233	-108.784939	-43.290589	29.570826	-43.290589	29.570826	-0.241236	-108.792137
7.550000	-0.244706	-109.414861	-43.149792	28.086331	-43.149792	28.086331	-0.244709	-109.422108
7.600000	-0.248181	-110.044782	-43.011240	26.601836	-43.011240	26.601836	-0.248183	-110.052079
7.650000	-0.251737	-110.673130	-42.874322	25.112706	-42.874322	25.112706	-0.251739	-110.680476
7.700000	-0.255301	-111.301334	-42.739481	23.623155	-42.739481	23.623155	-0.255303	-111.308730
7.750000	-0.258942	-111.928172	-42.606445	22.130745	-42.606445	22.130745	-0.258943	-111.935617
7.800000	-0.262598	-112.554737	-42.475365	20.637763	-42.475365	20.637763	-0.262599	-112.562232
7.850000	-0.266324	-113.180131	-42.346181	19.143525	-42.346181	19.143525	-0.266324	-113.187675
7.900000	-0.270073	-113.805134	-42.218872	17.648869	-42.218872	17.648869	-0.270073	-113.812728
7.950000	-0.273886	-114.429149	-42.093472	16.154323	-42.093472	16.154323	-0.273885	-114.436793
8.000000	-0.277730	-115.052670	-41.969892	14.659830	-41.969892	14.659830	-0.277728	-115.060364
8.050000	-0.281630	-115.675374	-41.848174	13.166520	-41.848174	13.166520	-0.281628	-115.683117
8.100000	-0.285570	-116.297493	-41.728229	11.674055	-41.728229	11.674055	-0.285567	-116.305285
8.150000	-0.289559	-116.918952	-41.610051	10.183517	-41.610051	10.183517	-0.289555	-116.926793
8.200000	-0.293597	-117.539750	-41.493592	8.694907	-41.493592	8.694907	-0.293591	-117.547639
8.250000	-0.297676	-118.160031	-41.378777	7.208626	-41.378777	7.208626	-0.297669	-118.167969
8.300000	-0.301813	-118.779590	-41.265602	5.725607	-41.265602	5.725607	-0.301804	-118.787575
8.350000	-0.305984	-119.398762	-41.153934	4.244981	-41.153934	4.244981	-0.305973	-119.406795
8.400000	-0.310220	-120.017163	-41.043785	2.769139	-41.043785	2.769139	-0.310208	-120.025242
8.450000	-0.314484	-120.635296	-40.935015	1.295436	-40.935015	1.295436	-0.314470	-120.643420
8.500000	-0.318822	-121.252622	-40.827586	-0.171848	-40.827586	-0.171848	-0.318806	-121.260791
8.550000	-0.323180	-121.869783	-40.721432	-1.637518	-40.721432	-1.637518	-0.323161	-121.877997
8.600000	-0.327621	-122.486117	-40.616369	-3.095118	-40.616369	-3.095118	-0.327600	-122.494374
8.650000	-0.332073	-123.102376	-40.512519	-4.551842	-40.512519	-4.551842	-0.332049	-123.110675
8.700000	-0.336619	-123.717802	-40.409425	-5.998929	-40.409425	-5.998929	-0.336592	-123.726142
8.750000	-0.341168	-124.333228	-40.307541	-7.446016	-40.307541	-7.446016	-0.341137	-124.341608
8.800000	-0.345819	-124.947830	-40.205985	-8.882100	-40.205985	-8.882100	-0.345785	-124.956248
8.850000	-0.350474	-125.562433	-40.105602	-10.318184	-40.105602	-10.318184	-0.350436	-125.570887
8.900000	-0.355224	-126.176356	-40.005222	-11.744070	-40.005222	-11.744070	-0.355182	-126.184845
8.950000	-0.359985	-126.790218	-39.905886	-13.169028	-39.905886	-13.169028	-0.359939	-126.798741
9.000000	-0.364835	-127.403534	-39.806268	-14.584945	-39.806268	-14.584945	-0.364785	-127.412087
9.050000	-0.369705	-128.016740	-39.707502	-15.999053	-39.707502	-15.999053	-0.369650	-128.025323
9.100000	-0.374656	-128.629517	-39.608221	-17.405546	-39.608221	-17.405546	-0.374596	-128.638128
9.150000	-0.379636	-129.242152	-39.509526	-18.809499	-39.509526	-18.809499	-0.379570	-129.250789
9.200000	-0.384689	-129.854463	-39.410150	-20.207440	-39.410150	-20.207440	-0.384617	-129.863121
9.250000	-0.389780	-130.466611	-39.311015	-21.602375	-39.311015	-21.602375	-0.389702	-130.475290
9.300000	-0.394936	-131.078525	-39.211114	-22.992981	-39.211114	-22.992981	-0.394851	-131.087221
9.350000	-0.400140	-131.690272	-39.111018	-24.380494	-39.111018	-24.380494	-0.400048	-131.698982
9.400000	-0.405400	-132.301860	-39.010160	-25.765337	-39.010160	-25.765337	-0.405301	-132.310582
9.450000	-0.410717	-132.913289	-38.908579	-27.147508	-38.908579	-27.147508	-0.410610	-132.922019
9.500000	-0.416083	-133.524621	-38.806339	-28.528531	-38.806339	-28.528531	-0.415968	-133.533356
9.550000	-0.421515	-134.135817	-38.702751	-29.907946	-38.702751	-29.907946	-0.421391	-134.144553
9.600000	-0.426987	-134.746964	-38.598711	-31.287483	-38.598711	-31.287483	-0.426854	-134.755699
9.650000	-0.432536	-135.358012	-38.492599	-32.667262	-38.492599	-32.667262	-0.432393	-135.366739
9.700000	-0.438115	-135.969044	-38.386357	-34.048056	-38.386357	-34.048056	-0.437963	-135.977762
9.750000	-0.443781	-136.580027	-38.277215	-35.431893	-38.277215	-35.431893	-0.443618	-136.588729
9.800000	-0.449470	-137.191014	-38.168381	-36.817125	-38.168381	-36.817125	-0.449296	-137.199698
9.850000	-0.455254	-137.802017	-38.055723	-38.209329	-38.055723	-38.209329	-0.455069	-137.810675
9.900000	-0.461052	-138.413029	-37.943931	-39.602646	-37.943931	-39.602646	-0.460855	-138.421660
9.950000	-0.466957	-139.024135	-37.827293	-41.008202	-37.827293	-41.008202	-0.466746	-139.032730
10.000000	-0.472865	-139.635242	-37.712201	-42.413757	-37.712201	-42.413757	-0.472642	-139.643799
