! freq	dB(S11)	phase(S11)	dB(S12)	phase(S12)	
!     	dB(S21)	phase(S21)	dB(S22)	phase(S22)	
!S-par simulation data
#  GHz  S  DB  R 50
0.000000	-0.000000	0.000000	-350.866752	0.000000	-350.866752	0.000000	-0.000000	0.000000
0.050000	-0.000149	-0.811688	-70.181221	-67.217460	-70.181221	-67.217460	-0.000200	-1.951735
0.100000	-0.000557	-1.623815	-65.528461	-48.130851	-65.528461	-48.130851	-0.000793	-3.902990
0.150000	-0.001150	-2.436486	-63.728580	-33.555918	-63.728580	-33.555918	-0.001768	-5.853286
0.200000	-0.001859	-3.249471	-62.997600	-22.497562	-62.997600	-22.497562	-0.003097	-7.802214
0.250000	-0.002648	-4.062457	-62.782619	-13.997839	-62.782619	-13.997839	-0.004753	-9.749373
0.300000	-0.003502	-4.875155	-62.846209	-7.322502	-62.846209	-7.322502	-0.006704	-11.694411
0.350000	-0.004414	-5.687351	-63.075595	-1.985357	-63.075595	-1.985357	-0.008914	-13.637029
0.400000	-0.005380	-6.498895	-63.411335	2.337105	-63.411335	2.337105	-0.011344	-15.576979
0.450000	-0.006396	-7.309683	-63.819460	5.868876	-63.819460	5.868876	-0.013955	-17.514058
0.500000	-0.007455	-8.119648	-64.279484	8.772761	-64.279484	8.772761	-0.016712	-19.448114
0.550000	-0.008553	-8.928743	-64.778745	11.172730	-64.778745	11.172730	-0.019578	-21.379031
0.600000	-0.009683	-9.736939	-65.309505	13.167148	-65.309505	13.167148	-0.022523	-23.306729
0.650000	-0.010837	-10.544206	-65.867215	14.834223	-65.867215	14.834223	-0.025518	-25.231119
0.700000	-0.012010	-11.350537	-66.449732	16.244960	-66.449732	16.244960	-0.028540	-27.152172
0.750000	-0.013196	-12.155936	-67.057026	17.463348	-67.057026	17.463348	-0.031567	-29.069909
0.800000	-0.014388	-12.960405	-67.690432	18.545108	-67.690432	18.545108	-0.034582	-30.984328
0.850000	-0.015583	-13.763946	-68.352557	19.543969	-68.352557	19.543969	-0.037573	-32.895435
0.900000	-0.016777	-14.566565	-69.047207	20.514496	-69.047207	20.514496	-0.040530	-34.803240
0.950000	-0.017966	-15.368266	-69.779382	21.515360	-69.779382	21.515360	-0.043445	-36.707753
1.000000	-0.019149	-16.169053	-70.555331	22.613492	-70.555331	22.613492	-0.046312	-38.608987
1.050000	-0.020323	-16.968931	-71.382613	23.889817	-71.382613	23.889817	-0.049130	-40.506955
1.100000	-0.021487	-17.767902	-72.270098	25.447559	-72.270098	25.447559	-0.051895	-42.401667
1.150000	-0.022640	-18.565966	-73.227744	27.424778	-73.227744	27.424778	-0.054608	-44.293133
1.200000	-0.023782	-19.363123	-74.265712	30.013565	-74.265712	30.013565	-0.057270	-46.181362
1.250000	-0.024912	-20.159372	-75.391858	33.489174	-75.391858	33.489174	-0.059882	-48.066363
1.300000	-0.026030	-20.954688	-76.602730	38.292404	-76.602730	38.292404	-0.062445	-49.948074
1.350000	-0.027137	-21.749086	-77.871741	44.985239	-77.871741	44.985239	-0.064963	-51.826575
1.400000	-0.028233	-22.542558	-79.111887	54.292038	-79.111887	54.292038	-0.067439	-53.701876
1.450000	-0.029318	-23.335096	-80.128292	66.766905	-80.128292	66.766905	-0.069876	-55.573989
1.500000	-0.030394	-24.126690	-80.622265	81.959796	-80.622265	81.959796	-0.072278	-57.442928
1.550000	-0.031461	-24.917329	-80.374902	97.779500	-80.374902	97.779500	-0.074647	-59.308711
1.600000	-0.032520	-25.707001	-79.472473	111.645283	-79.472473	111.645283	-0.076987	-61.171358
1.650000	-0.033572	-26.495693	-78.209853	122.318421	-78.209853	122.318421	-0.079301	-63.030893
1.700000	-0.034617	-27.283392	-76.841359	129.989123	-76.841359	129.989123	-0.081592	-64.887348
1.750000	-0.035657	-28.070083	-75.501173	135.359132	-75.501173	135.359132	-0.083865	-66.740754
1.800000	-0.036691	-28.855751	-74.240897	139.085782	-74.240897	139.085782	-0.086120	-68.591151
1.850000	-0.037722	-29.640381	-73.072721	141.651840	-73.072721	141.651840	-0.088362	-70.438585
1.900000	-0.038749	-30.423945	-71.992634	143.381441	-71.992634	143.381441	-0.090593	-72.283074
1.950000	-0.039773	-31.206427	-70.992152	144.503448	-70.992152	144.503448	-0.092816	-74.124677
2.000000	-0.040796	-31.987821	-70.062017	145.176579	-70.062017	145.176579	-0.095033	-75.963489
2.050000	-0.041818	-32.768113	-69.193086	145.505793	-69.193086	145.505793	-0.097246	-77.799579
2.100000	-0.042839	-33.547285	-68.377358	145.566141	-68.377358	145.566141	-0.099459	-79.633023
2.150000	-0.043860	-34.325321	-67.608003	145.412358	-67.608003	145.412358	-0.101673	-81.463903
2.200000	-0.044882	-35.102205	-66.879241	145.085114	-66.879241	145.085114	-0.103890	-83.292310
2.250000	-0.045905	-35.877920	-66.186195	144.615147	-66.186195	144.615147	-0.106112	-85.118338
2.300000	-0.046930	-36.652451	-65.524744	144.026051	-65.524744	144.026051	-0.108341	-86.942091
2.350000	-0.047958	-37.425782	-64.891399	143.336189	-64.891399	143.336189	-0.110579	-88.763678
2.400000	-0.048989	-38.197897	-64.283186	142.560033	-64.283186	142.560033	-0.112827	-90.583216
2.450000	-0.050022	-38.968781	-63.697569	141.709113	-63.697569	141.709113	-0.115087	-92.400828
2.500000	-0.051060	-39.738419	-63.132366	140.792709	-63.132366	140.792709	-0.117361	-94.216643
2.550000	-0.052102	-40.506769	-62.585343	139.817237	-62.585343	139.817237	-0.119650	-96.030766
2.600000	-0.053149	-41.273843	-62.055254	138.790206	-62.055254	138.790206	-0.121955	-97.843379
2.650000	-0.054202	-42.039627	-61.540686	137.716633	-61.540686	137.716633	-0.124279	-99.654633
2.700000	-0.055260	-42.804107	-61.040405	136.600688	-61.040405	136.600688	-0.126621	-101.464685
2.750000	-0.056323	-43.567272	-60.553334	135.445853	-60.553334	135.445853	-0.128984	-103.273699
2.800000	-0.057394	-44.329106	-60.078529	134.255051	-60.078529	134.255051	-0.131369	-105.081845
2.850000	-0.058471	-45.089598	-59.615161	133.030747	-59.615161	133.030747	-0.133776	-106.889298
2.900000	-0.059555	-45.848737	-59.162500	131.775034	-59.162500	131.775034	-0.136208	-108.696242
2.950000	-0.060646	-46.606509	-58.719904	130.489694	-58.719904	130.489694	-0.138664	-110.502864
3.000000	-0.061746	-47.362904	-58.286804	129.176257	-58.286804	129.176257	-0.141146	-112.309361
3.050000	-0.062854	-48.117911	-57.862703	127.836041	-57.862703	127.836041	-0.143656	-114.115932
3.100000	-0.063970	-48.871520	-57.447158	126.470191	-57.447158	126.470191	-0.146194	-115.922784
3.150000	-0.065095	-49.623705	-57.039663	125.079453	-57.039663	125.079453	-0.148761	-117.730138
3.200000	-0.066230	-50.374456	-56.639888	123.664741	-56.639888	123.664741	-0.151358	-119.538219
3.250000	-0.067375	-51.123779	-56.247656	122.227112	-56.247656	122.227112	-0.153986	-121.347245
3.300000	-0.068529	-51.871666	-55.862703	120.767281	-55.862703	120.767281	-0.156647	-123.157447
3.350000	-0.069695	-52.617982	-55.483990	119.284098	-55.483990	119.284098	-0.159342	-124.969204
3.400000	-0.070871	-53.362987	-55.113064	117.782072	-55.113064	117.782072	-0.162069	-126.782465
3.450000	-0.072057	-54.106532	-54.748803	116.259694	-54.748803	116.259694	-0.164829	-128.597614
3.500000	-0.073256	-54.848611	-54.391055	114.717532	-54.391055	114.717532	-0.167625	-130.414901
3.550000	-0.074465	-55.589216	-54.039690	113.156146	-54.039690	113.156146	-0.170457	-132.234580
3.600000	-0.075688	-56.328341	-53.694596	111.576092	-53.694596	111.576092	-0.173325	-134.056910
3.650000	-0.076922	-57.065981	-53.355680	109.977934	-53.355680	109.977934	-0.176231	-135.882153
3.700000	-0.078170	-57.802131	-53.022861	108.362245	-53.022861	108.362245	-0.179174	-137.710577
3.750000	-0.079431	-58.536784	-52.696070	106.729617	-52.696070	106.729617	-0.182157	-139.542454
3.800000	-0.080706	-59.269872	-52.375006	105.079982	-52.375006	105.079982	-0.185180	-141.378233
3.850000	-0.081995	-60.001456	-52.059901	103.414721	-52.059901	103.414721	-0.188243	-143.218045
3.900000	-0.083298	-60.731531	-51.750716	101.734502	-51.750716	101.734502	-0.191346	-145.062172
3.950000	-0.084617	-61.460095	-51.447416	100.040026	-51.447416	100.040026	-0.194490	-146.910902
4.000000	-0.085950	-62.187227	-51.150200	98.332733	-51.150200	98.332733	-0.197673	-148.764245
4.050000	-0.087299	-62.912776	-50.858603	96.612058	-50.858603	96.612058	-0.200900	-150.622973
4.100000	-0.088664	-63.636807	-50.572801	94.879394	-50.572801	94.879394	-0.204168	-152.487172
4.150000	-0.090046	-64.359317	-50.292767	93.135564	-50.292767	93.135564	-0.207478	-154.357139
4.200000	-0.091444	-65.080305	-50.018478	91.381417	-50.018478	91.381417	-0.210831	-156.233173
4.250000	-0.092859	-65.799770	-49.749904	89.617828	-49.749904	89.617828	-0.214227	-158.115575
4.300000	-0.094293	-66.517712	-49.487017	87.845697	-49.487017	87.845697	-0.217665	-160.004646
4.350000	-0.095744	-67.234131	-49.229783	86.065936	-49.229783	86.065936	-0.221146	-161.900691
4.400000	-0.097214	-67.949010	-48.978147	84.279413	-48.978147	84.279413	-0.224671	-163.804095
4.450000	-0.098703	-68.662350	-48.732076	82.487098	-48.732076	82.487098	-0.228238	-165.715174
4.500000	-0.100211	-69.374168	-48.491540	80.690004	-48.491540	80.690004	-0.231848	-167.634153
4.550000	-0.101739	-70.084466	-48.256484	78.889071	-48.256484	78.889071	-0.235500	-169.561335
4.600000	-0.103287	-70.793245	-48.026848	77.085227	-48.026848	77.085227	-0.239193	-171.497024
4.650000	-0.104856	-71.500508	-47.802563	75.279391	-47.802563	75.279391	-0.242928	-173.441522
4.700000	-0.106445	-72.206257	-47.583556	73.472457	-47.583556	73.472457	-0.246705	-175.395127
4.750000	-0.108057	-72.910495	-47.369747	71.665298	-47.369747	71.665298	-0.250521	-177.358137
4.800000	-0.109689	-73.613224	-47.161052	69.858752	-47.161052	69.858752	-0.254377	-179.330847
4.850000	-0.111345	-74.314448	-46.957378	68.053623	-46.957378	68.053623	-0.258272	178.686454
4.900000	-0.113023	-75.014172	-46.758630	66.250673	-46.758630	66.250673	-0.262204	176.693477
4.950000	-0.114724	-75.712399	-46.564708	64.450618	-46.564708	64.450618	-0.266174	174.689943
5.000000	-0.116448	-76.409133	-46.375509	62.654127	-46.375509	62.654127	-0.270179	172.675575
5.050000	-0.118197	-77.104347	-46.190940	60.861917	-46.190940	60.861917	-0.274220	170.649854
5.100000	-0.119971	-77.798079	-46.010880	59.074467	-46.010880	59.074467	-0.278293	168.612756
5.150000	-0.121769	-78.490335	-45.835221	57.292275	-45.835221	57.292275	-0.282398	166.564025
5.200000	-0.123593	-79.181119	-45.663851	55.515783	-45.663851	55.515783	-0.286533	164.503415
5.250000	-0.125443	-79.870438	-45.496660	53.745373	-45.496660	53.745373	-0.290697	162.430691
5.300000	-0.127318	-80.558299	-45.333541	51.981369	-45.333541	51.981369	-0.294887	160.345627
5.350000	-0.129220	-81.244708	-45.174388	50.224042	-45.174388	50.224042	-0.299101	158.248009
5.400000	-0.131150	-81.929671	-45.019101	48.473608	-45.019101	48.473608	-0.303337	156.137636
5.450000	-0.133106	-82.613198	-44.867582	46.730231	-44.867582	46.730231	-0.307594	154.014317
5.500000	-0.135091	-83.295294	-44.719742	44.994031	-44.719742	44.994031	-0.311869	151.877881
5.550000	-0.137104	-83.975969	-44.575496	43.265085	-44.575496	43.265085	-0.316159	149.728167
5.600000	-0.139145	-84.655229	-44.434766	41.543436	-44.434766	41.543436	-0.320462	147.565034
5.650000	-0.141216	-85.333069	-44.297498	39.829174	-44.297498	39.829174	-0.324776	145.388209
5.700000	-0.143317	-86.009498	-44.163632	38.122287	-44.163632	38.122287	-0.329097	143.197583
5.750000	-0.145448	-86.684540	-44.033103	36.422672	-44.033103	36.422672	-0.333422	140.993218
5.800000	-0.147609	-87.358204	-43.905871	34.730295	-43.905871	34.730295	-0.337749	138.775050
5.850000	-0.149801	-88.030500	-43.781902	33.045128	-43.781902	33.045128	-0.342075	136.543039
5.900000	-0.152025	-88.701438	-43.661173	31.367155	-43.661173	31.367155	-0.346396	134.297164
5.950000	-0.154280	-89.371028	-43.543670	29.696380	-43.543670	29.696380	-0.350710	132.037432
6.000000	-0.156567	-90.039282	-43.429389	28.032843	-43.429389	28.032843	-0.355012	129.763873
6.050000	-0.158886	-90.706208	-43.318333	26.376620	-43.318333	26.376620	-0.359301	127.476545
6.100000	-0.161238	-91.371819	-43.210514	24.727840	-43.210514	24.727840	-0.363573	125.175532
6.150000	-0.163624	-92.036126	-43.105948	23.086692	-43.105948	23.086692	-0.367824	122.860947
6.200000	-0.166043	-92.699140	-43.004658	21.453434	-43.004658	21.453434	-0.372052	120.532931
6.250000	-0.168496	-93.360874	-42.906673	19.828399	-42.906673	19.828399	-0.376253	118.191656
6.300000	-0.170985	-94.021311	-42.812071	18.212201	-42.812071	18.212201	-0.380423	115.837047
6.350000	-0.173508	-94.680493	-42.720836	16.605172	-42.720836	16.605172	-0.384560	113.469626
6.400000	-0.176067	-95.338432	-42.632995	15.007914	-42.632995	15.007914	-0.388662	111.089662
6.450000	-0.178661	-95.995140	-42.548570	13.421120	-42.548570	13.421120	-0.392725	108.697454
6.500000	-0.181291	-96.650632	-42.467578	11.845578	-42.467578	11.845578	-0.396746	106.293336
6.550000	-0.183957	-97.304920	-42.390027	10.282165	-42.390027	10.282165	-0.400724	103.877672
6.600000	-0.186661	-97.958017	-42.315913	8.731839	-42.315913	8.731839	-0.404657	101.450860
6.650000	-0.189401	-98.609939	-42.245221	7.195636	-42.245221	7.195636	-0.408541	99.013330
6.700000	-0.192179	-99.260698	-42.177918	5.674660	-42.177918	5.674660	-0.412376	96.565547
6.750000	-0.194994	-99.910310	-42.113953	4.170064	-42.113953	4.170064	-0.416159	94.108005
6.800000	-0.197848	-100.558789	-42.053260	2.683041	-42.053260	2.683041	-0.419890	91.641230
6.850000	-0.200741	-101.206150	-41.995749	1.214805	-41.995749	1.214805	-0.423568	89.165779
6.900000	-0.203673	-101.852396	-41.941337	-0.233197	-41.941337	-0.233197	-0.427192	86.682160
6.950000	-0.206644	-102.497543	-41.889890	-1.659724	-41.889890	-1.659724	-0.430761	84.191008
7.000000	-0.209655	-103.141619	-41.841222	-3.063833	-41.841222	-3.063833	-0.434276	81.693058
7.050000	-0.212707	-103.784639	-41.795157	-4.444424	-41.795157	-4.444424	-0.437737	79.188979
7.100000	-0.215798	-104.426620	-41.751496	-5.800473	-41.751496	-5.800473	-0.441147	76.679467
7.150000	-0.218931	-105.067578	-41.710025	-7.131052	-41.710025	-7.131052	-0.444505	74.165240
7.200000	-0.222104	-105.707529	-41.670510	-8.435346	-41.670510	-8.435346	-0.447814	71.647034
7.250000	-0.225319	-106.346491	-41.632704	-9.712667	-41.632704	-9.712667	-0.451077	69.125607
7.300000	-0.228575	-106.984480	-41.596346	-10.962465	-41.596346	-10.962465	-0.454294	66.601732
7.350000	-0.231874	-107.621513	-41.561166	-12.184340	-41.561166	-12.184340	-0.457471	64.076196
7.400000	-0.235214	-108.257609	-41.526889	-13.378044	-41.526889	-13.378044	-0.460609	61.549797
7.450000	-0.238598	-108.892785	-41.493232	-14.543490	-41.493232	-14.543490	-0.463713	59.023342
7.500000	-0.242025	-109.527058	-41.459915	-15.680746	-41.459915	-15.680746	-0.466787	56.497648
7.550000	-0.245496	-110.160429	-41.426649	-16.789440	-41.426649	-16.789440	-0.469835	53.973585
7.600000	-0.249010	-110.792934	-41.393156	-17.870571	-41.393156	-17.870571	-0.472863	51.451959
7.650000	-0.252569	-111.424594	-41.359165	-18.924672	-41.359165	-18.924672	-0.475876	48.933587
7.700000	-0.256172	-112.055427	-41.324420	-19.952407	-41.324420	-19.952407	-0.478879	46.419284
7.750000	-0.259820	-112.685452	-41.288672	-20.954565	-41.288672	-20.954565	-0.481879	43.909860
7.800000	-0.263512	-113.314688	-41.251686	-21.932047	-41.251686	-21.932047	-0.484881	41.406113
7.850000	-0.267250	-113.943155	-41.213240	-22.885851	-41.213240	-22.885851	-0.487892	38.908830
7.900000	-0.271034	-114.570874	-41.173129	-23.817064	-41.173129	-23.817064	-0.490918	36.418786
7.950000	-0.274863	-115.197863	-41.131162	-24.726845	-41.131162	-24.726845	-0.493966	33.936738
8.000000	-0.278739	-115.824143	-41.087163	-25.616414	-41.087163	-25.616414	-0.497043	31.463426
8.050000	-0.282661	-116.449735	-41.040973	-26.487038	-41.040973	-26.487038	-0.500156	28.999567
8.100000	-0.286630	-117.074660	-40.992449	-27.340021	-40.992449	-27.340021	-0.503312	26.545859
8.150000	-0.290647	-117.698931	-40.941431	-28.176532	-40.941431	-28.176532	-0.506518	24.103099
8.200000	-0.294711	-118.322571	-40.887802	-28.997964	-40.887802	-28.997964	-0.509781	21.671953
8.250000	-0.298823	-118.945609	-40.831494	-29.805847	-40.831494	-29.805847	-0.513109	19.252923
8.300000	-0.302984	-119.568066	-40.772422	-30.601535	-40.772422	-30.601535	-0.516508	16.846595
8.350000	-0.307192	-120.189963	-40.710514	-31.386373	-40.710514	-31.386373	-0.519984	14.453530
8.400000	-0.311449	-120.811324	-40.645709	-32.161694	-40.645709	-32.161694	-0.523545	12.074256
8.450000	-0.315755	-121.432171	-40.577958	-32.928814	-40.577958	-32.928814	-0.527197	9.709270
8.500000	-0.320110	-122.052526	-40.507220	-33.689030	-40.507220	-33.689030	-0.530947	7.359036
8.550000	-0.324515	-122.672413	-40.433465	-34.443615	-40.433465	-34.443615	-0.534800	5.023988
8.600000	-0.328969	-123.291854	-40.356670	-35.193819	-40.356670	-35.193819	-0.538763	2.704525
8.650000	-0.333474	-123.910873	-40.276819	-35.940867	-40.276819	-35.940867	-0.542842	0.401014
8.700000	-0.338029	-124.529494	-40.193901	-36.685960	-40.193901	-36.685960	-0.547041	-1.886210
8.750000	-0.342634	-125.147741	-40.107913	-37.430275	-40.107913	-37.430275	-0.551367	-4.156847
8.800000	-0.347291	-125.765630	-40.018769	-38.175000	-40.018769	-38.175000	-0.555827	-6.410254
8.850000	-0.352000	-126.383195	-39.926557	-38.921284	-39.926557	-38.921284	-0.560423	-8.646558
8.900000	-0.356760	-127.000460	-39.831287	-39.670240	-39.831287	-39.670240	-0.565160	-10.865556
8.950000	-0.361572	-127.617451	-39.732971	-40.422966	-39.732971	-40.422966	-0.570042	-13.067074
9.000000	-0.366436	-128.234191	-39.631622	-41.180544	-39.631622	-41.180544	-0.575072	-15.250972
9.050000	-0.371352	-128.850708	-39.527259	-41.944049	-39.527259	-41.944049	-0.580254	-17.417135
9.100000	-0.376321	-129.467027	-39.419899	-42.714546	-39.419899	-42.714546	-0.585592	-19.565480
9.150000	-0.381342	-130.083173	-39.309566	-43.493098	-39.309566	-43.493098	-0.591088	-21.695950
9.200000	-0.386417	-130.699173	-39.196280	-44.280767	-39.196280	-44.280767	-0.596745	-23.808515
9.250000	-0.391545	-131.315054	-39.080068	-45.078619	-39.080068	-45.078619	-0.602566	-25.903172
9.300000	-0.396727	-131.930843	-38.960955	-45.887728	-38.960955	-45.887728	-0.608552	-27.979941
9.350000	-0.401963	-132.546566	-38.838970	-46.709179	-38.838970	-46.709179	-0.614705	-30.038867
9.400000	-0.407254	-133.162251	-38.714094	-47.544229	-38.714094	-47.544229	-0.621029	-32.079825
9.450000	-0.412599	-133.777928	-38.586357	-48.394036	-38.586357	-48.394036	-0.627524	-34.102909
9.500000	-0.418000	-134.393623	-38.455846	-49.259597	-38.455846	-49.259597	-0.634191	-36.108422
9.550000	-0.423456	-135.009366	-38.322599	-50.142082	-38.322599	-50.142082	-0.641029	-38.096496
9.600000	-0.428967	-135.625185	-38.186658	-51.042691	-38.186658	-51.042691	-0.648039	-40.067279
9.650000	-0.434534	-136.241109	-38.048071	-51.962658	-38.048071	-51.962658	-0.655222	-42.020939
9.700000	-0.440156	-136.857167	-37.906888	-52.903257	-37.906888	-52.903257	-0.662576	-43.957659
9.750000	-0.445835	-137.473389	-37.763169	-53.865800	-37.763169	-53.865800	-0.670103	-45.877638
9.800000	-0.451571	-138.089805	-37.616976	-54.851646	-37.616976	-54.851646	-0.677800	-47.781088
9.850000	-0.457363	-138.706444	-37.468381	-55.862199	-37.468381	-55.862199	-0.685668	-49.668239
9.900000	-0.463212	-139.323338	-37.317465	-56.898915	-37.317465	-56.898915	-0.693706	-51.539329
9.950000	-0.469118	-139.940517	-37.164318	-57.963299	-37.164318	-57.963299	-0.701912	-53.394611
10.000000	-0.475082	-140.558012	-37.009042	-59.056912	-37.009042	-59.056912	-0.710284	-55.234348
