! freq	dB(S11)	phase(S11)	dB(S12)	phase(S12)	
!     	dB(S21)	phase(S21)	dB(S22)	phase(S22)	
!S-par simulation data
#  GHz  S  DB  R 50
0.000000	-82.441703	0.000000	-0.000656	0.000000	-0.000656	0.000000	-82.441703	0.000000
0.050000	-49.555359	82.133524	-0.002051	-2.242910	-0.002051	-2.242910	-49.555540	82.138265
0.100000	-43.976944	81.066299	-0.005598	-4.480126	-0.005598	-4.480126	-43.976812	81.067144
0.150000	-40.621351	79.980166	-0.010046	-6.709687	-0.010046	-6.709687	-40.621263	79.979151
0.200000	-38.189573	78.545044	-0.014483	-8.932756	-0.014483	-8.932756	-38.189531	78.543031
0.250000	-36.279102	76.873027	-0.018519	-11.151554	-0.018519	-11.151554	-36.279086	76.870295
0.300000	-34.704347	75.052526	-0.022104	-13.367947	-0.022104	-13.367947	-34.704345	75.049181
0.350000	-33.363788	73.139450	-0.025338	-15.583230	-0.025338	-15.583230	-33.363791	73.135540
0.400000	-32.195650	71.164387	-0.028341	-17.798088	-0.028341	-17.798088	-32.195656	71.159940
0.450000	-31.159334	69.144414	-0.031208	-20.012884	-0.031208	-20.012884	-31.159339	69.139448
0.500000	-30.226529	67.090087	-0.034021	-22.227828	-0.034021	-22.227828	-30.226532	67.084617
0.550000	-29.377992	65.012209	-0.036845	-24.442985	-0.036845	-24.442985	-29.377993	65.006246
0.600000	-28.598418	62.914386	-0.039723	-26.658400	-0.039723	-26.658400	-28.598415	62.907938
0.650000	-27.876463	60.800589	-0.042692	-28.874081	-0.042692	-28.874081	-27.876459	60.793665
0.700000	-27.203535	58.674100	-0.045773	-31.090011	-0.045773	-31.090011	-27.203529	58.666707
0.750000	-26.572694	56.537038	-0.048984	-33.306177	-0.048984	-33.306177	-26.572686	56.529182
0.800000	-25.978343	54.391025	-0.052338	-35.522566	-0.052338	-35.522566	-25.978335	54.382710
0.850000	-25.415786	52.237205	-0.055848	-37.739169	-0.055848	-37.739169	-25.415778	52.228439
0.900000	-24.881336	50.076728	-0.059522	-39.955971	-0.059522	-39.955971	-24.881329	50.067514
0.950000	-24.371930	47.910491	-0.063364	-42.172960	-0.063364	-42.172960	-24.371924	47.900836
1.000000	-23.884938	45.739172	-0.067379	-44.390128	-0.067379	-44.390128	-23.884934	45.729082
1.050000	-23.418061	43.563283	-0.071573	-46.607472	-0.071573	-46.607472	-23.418059	43.552764
1.100000	-22.969383	41.383295	-0.075952	-48.824987	-0.075952	-48.824987	-22.969385	41.372352
1.150000	-22.537391	39.199678	-0.080515	-51.042665	-0.080515	-51.042665	-22.537396	39.188320
1.200000	-22.120691	37.012765	-0.085265	-53.260503	-0.085265	-53.260503	-22.120700	37.000998
1.250000	-21.718050	34.822824	-0.090206	-55.478497	-0.090206	-55.478497	-21.718062	34.810658
1.300000	-21.328325	32.630052	-0.095344	-57.696647	-0.095344	-57.696647	-21.328342	32.617495
1.350000	-20.950743	30.434736	-0.100678	-59.914944	-0.100678	-59.914944	-20.950764	30.421797
1.400000	-20.584505	28.237060	-0.106211	-62.133383	-0.106211	-62.133383	-20.584531	28.223750
1.450000	-20.228917	26.037188	-0.111944	-64.351956	-0.111944	-64.351956	-20.228947	26.023517
1.500000	-19.883255	23.835217	-0.117887	-66.570658	-0.117887	-66.570658	-19.883289	23.821195
1.550000	-19.547097	21.631339	-0.124037	-68.789476	-0.124037	-68.789476	-19.547135	21.616978
1.600000	-19.219978	19.425690	-0.130396	-71.008395	-0.130396	-71.008395	-19.220020	19.411001
1.650000	-18.901479	17.218393	-0.136968	-73.227399	-0.136968	-73.227399	-18.901525	17.203387
1.700000	-18.591181	15.009545	-0.143759	-75.446472	-0.143759	-75.446472	-18.591232	14.994233
1.750000	-18.288780	12.799276	-0.150771	-77.665589	-0.150771	-77.665589	-18.288834	12.783670
1.800000	-17.994008	10.587722	-0.158004	-79.884724	-0.158004	-79.884724	-17.994065	10.571832
1.850000	-17.706611	8.375006	-0.165462	-82.103849	-0.165462	-82.103849	-17.706672	8.358844
1.900000	-17.426362	6.161257	-0.173146	-84.322929	-0.173146	-84.322929	-17.426425	6.144834
1.950000	-17.153057	3.946609	-0.181059	-86.541929	-0.181059	-86.541929	-17.153123	3.929934
2.000000	-16.886516	1.731198	-0.189202	-88.760806	-0.189202	-88.760806	-16.886584	1.714282
2.050000	-16.626576	-0.484833	-0.197577	-90.979517	-0.197577	-90.979517	-16.626646	-0.501980
2.100000	-16.373089	-2.701338	-0.206185	-93.198012	-0.206185	-93.198012	-16.373160	-2.718709
2.150000	-16.125922	-4.918165	-0.215028	-95.416236	-0.215028	-95.416236	-16.125994	-4.935750
2.200000	-15.884969	-7.135151	-0.224102	-97.634136	-0.224102	-97.634136	-15.885041	-7.152943
2.250000	-15.650121	-9.352138	-0.233407	-99.851653	-0.233407	-99.851653	-15.650193	-9.370129
2.300000	-15.421279	-11.568962	-0.242940	-102.068726	-0.242940	-102.068726	-15.421352	-11.587145
2.350000	-15.198355	-13.785458	-0.252700	-104.285290	-0.252700	-104.285290	-15.198428	-13.803828
2.400000	-14.981264	-16.001461	-0.262681	-106.501279	-0.262681	-106.501279	-14.981337	-16.020012
2.450000	-14.769930	-18.216804	-0.272880	-108.716625	-0.272880	-108.716625	-14.770002	-18.235532
2.500000	-14.564281	-20.431324	-0.283291	-110.931259	-0.283291	-110.931259	-14.564352	-20.450223
2.550000	-14.364265	-22.644840	-0.293909	-113.145098	-0.293909	-113.145098	-14.364335	-22.663907
2.600000	-14.169810	-24.857207	-0.304725	-115.358083	-0.304725	-115.358083	-14.169879	-24.876438
2.650000	-13.980855	-27.068270	-0.315729	-117.570144	-0.315729	-117.570144	-13.980923	-27.087662
2.700000	-13.797343	-29.277882	-0.326912	-119.781213	-0.326912	-119.781213	-13.797409	-29.297433
2.750000	-13.619219	-31.485904	-0.338262	-121.991222	-0.338262	-121.991222	-13.619284	-31.505610
2.800000	-13.446430	-33.692203	-0.349767	-124.200107	-0.349767	-124.200107	-13.446495	-33.712063
2.850000	-13.278928	-35.896657	-0.361414	-126.407807	-0.361414	-126.407807	-13.278992	-35.916669
2.900000	-13.116662	-38.099155	-0.373189	-128.614263	-0.373189	-128.614263	-13.116725	-38.119318
2.950000	-12.959609	-40.299575	-0.385076	-130.819409	-0.385076	-130.819409	-12.959673	-40.319887
3.000000	-12.807716	-42.497839	-0.397060	-133.023201	-0.397060	-133.023201	-12.807780	-42.518299
3.050000	-12.660928	-44.693882	-0.409121	-135.225602	-0.409121	-135.225602	-12.660992	-44.714488
3.100000	-12.519203	-46.887643	-0.421242	-137.426574	-0.421242	-137.426574	-12.519267	-46.908394
3.150000	-12.382498	-49.079076	-0.433404	-139.626087	-0.433404	-139.626087	-12.382563	-49.099972
3.200000	-12.250776	-51.268149	-0.445585	-141.824116	-0.445585	-141.824116	-12.250842	-51.289188
3.250000	-12.123998	-53.454845	-0.457767	-144.020645	-0.457767	-144.020645	-12.124066	-53.476025
3.300000	-12.002128	-55.639161	-0.469927	-146.215666	-0.469927	-146.215666	-12.002198	-55.660481
3.350000	-11.885245	-57.821030	-0.482040	-148.409126	-0.482040	-148.409126	-11.885317	-57.842489
3.400000	-11.773132	-60.000614	-0.494088	-150.601121	-0.494088	-150.601121	-11.773206	-60.022211
3.450000	-11.665832	-62.177901	-0.506048	-152.791633	-0.506048	-152.791633	-11.665909	-62.199634
3.500000	-11.563316	-64.352947	-0.517894	-154.980688	-0.517894	-154.980688	-11.563396	-64.374815
3.550000	-11.465558	-66.525823	-0.529606	-157.168322	-0.529606	-157.168322	-11.465642	-66.547824
3.600000	-11.372535	-68.696612	-0.541159	-159.354581	-0.541159	-159.354581	-11.372622	-68.718745
3.650000	-11.284225	-70.865409	-0.552529	-161.539517	-0.552529	-161.539517	-11.284315	-70.887672
3.700000	-11.200607	-73.032325	-0.563695	-163.723196	-0.563695	-163.723196	-11.200701	-73.054716
3.750000	-11.121666	-75.197477	-0.574632	-165.905692	-0.574632	-165.905692	-11.121764	-75.219996
3.800000	-11.047476	-77.360965	-0.585313	-168.087064	-0.585313	-168.087064	-11.047577	-77.383610
3.850000	-10.977940	-79.522969	-0.595719	-170.267432	-0.595719	-170.267432	-10.978045	-79.545739
3.900000	-10.913049	-81.683639	-0.605830	-172.446897	-0.605830	-172.446897	-10.913157	-81.706532
3.950000	-10.852796	-83.843133	-0.615623	-174.625571	-0.615623	-174.625571	-10.852907	-83.866150
4.000000	-10.797179	-86.001619	-0.625080	-176.803573	-0.625080	-176.803573	-10.797293	-86.024758
4.050000	-10.746198	-88.159269	-0.634180	-178.981030	-0.634180	-178.981030	-10.746314	-88.182530
4.100000	-10.699853	-90.316263	-0.642905	178.841921	-0.642905	178.841921	-10.699972	-90.339646
4.150000	-10.658151	-92.472785	-0.651236	176.665136	-0.651236	176.665136	-10.658271	-92.496291
4.200000	-10.621099	-94.629025	-0.659158	174.488465	-0.659158	174.488465	-10.621221	-94.652654
4.250000	-10.588708	-96.785176	-0.666653	172.311750	-0.666653	172.311750	-10.588830	-96.808929
4.300000	-10.560992	-98.941435	-0.673709	170.134827	-0.673709	170.134827	-10.561114	-98.965312
4.350000	-10.537966	-101.098000	-0.680311	167.957526	-0.680311	167.957526	-10.538088	-101.122005
4.400000	-10.519701	-103.255082	-0.686443	165.779663	-0.686443	165.779663	-10.519822	-103.279215
4.450000	-10.506219	-105.412890	-0.692092	163.601051	-0.692092	163.601051	-10.506339	-105.437154
4.500000	-10.497494	-107.571624	-0.697257	161.421512	-0.697257	161.421512	-10.497611	-107.596023
4.550000	-10.493551	-109.731491	-0.701928	159.240856	-0.701928	159.240856	-10.493666	-109.756026
4.600000	-10.494420	-111.892696	-0.706099	157.058893	-0.706099	157.058893	-10.494532	-111.917371
4.650000	-10.500131	-114.055448	-0.709766	154.875426	-0.709766	154.875426	-10.500239	-114.080267
4.700000	-10.510717	-116.219956	-0.712924	152.690261	-0.712924	152.690261	-10.510821	-116.244922
4.750000	-10.526213	-118.386428	-0.715574	150.503198	-0.715574	150.503198	-10.526312	-118.411546
4.800000	-10.546656	-120.555075	-0.717713	148.314041	-0.717713	148.314041	-10.546750	-120.580347
4.850000	-10.572085	-122.726107	-0.719344	146.122589	-0.719344	146.122589	-10.572174	-122.751538
4.900000	-10.602541	-124.899737	-0.720470	143.928646	-0.720470	143.928646	-10.602624	-124.925330
4.950000	-10.638065	-127.076178	-0.721095	141.732015	-0.721095	141.732015	-10.638142	-127.101936
5.000000	-10.678701	-129.255646	-0.721224	139.532500	-0.721224	139.532500	-10.678772	-129.281572
5.050000	-10.724601	-131.438434	-0.720856	137.329839	-0.720856	137.329839	-10.724665	-131.464531
5.100000	-10.775702	-133.624697	-0.720010	135.123905	-0.720010	135.123905	-10.775760	-133.650966
5.150000	-10.832052	-135.814659	-0.718697	132.914513	-0.718697	132.914513	-10.832104	-135.841102
5.200000	-10.893696	-138.008549	-0.716928	130.701482	-0.716928	130.701482	-10.893742	-138.035166
5.250000	-10.960683	-140.206598	-0.714718	128.484639	-0.714718	128.484639	-10.960723	-140.233389
5.300000	-11.033061	-142.409045	-0.712081	126.263812	-0.712081	126.263812	-11.033094	-142.436007
5.350000	-11.110875	-144.616134	-0.709034	124.038839	-0.709034	124.038839	-11.110903	-144.643264
5.400000	-11.194175	-146.828114	-0.705594	121.809564	-0.705594	121.809564	-11.194197	-146.855408
5.450000	-11.283005	-149.045245	-0.701779	119.575838	-0.701779	119.575838	-11.283022	-149.072695
5.500000	-11.377413	-151.267790	-0.697610	117.337521	-0.697610	117.337521	-11.377425	-151.295390
5.550000	-11.477441	-153.496026	-0.693108	115.094481	-0.693108	115.094481	-11.477449	-153.523764
5.600000	-11.583132	-155.730235	-0.688294	112.846595	-0.688294	112.846595	-11.583135	-155.758101
5.650000	-11.694570	-157.970784	-0.683189	110.593697	-0.683189	110.593697	-11.694569	-157.998762
5.700000	-11.811788	-160.217987	-0.677819	108.335678	-0.677819	108.335678	-11.811783	-160.246061
5.750000	-11.934770	-162.472095	-0.672210	106.072502	-0.672210	106.072502	-11.934760	-162.500245
5.800000	-12.063540	-164.733435	-0.666388	103.804086	-0.666388	103.804086	-12.063526	-164.761639
5.850000	-12.198120	-167.002348	-0.660381	101.530361	-0.660381	101.530361	-12.198102	-167.030582
5.900000	-12.338523	-169.279190	-0.654216	99.251266	-0.654216	99.251266	-12.338500	-169.307425
5.950000	-12.484752	-171.564327	-0.647920	96.966751	-0.647920	96.966751	-12.484724	-171.592532
6.000000	-12.636803	-173.858140	-0.641522	94.676777	-0.641522	94.676777	-12.636769	-173.886281
6.050000	-12.794659	-176.161022	-0.635051	92.381312	-0.635051	92.381312	-12.794618	-176.189062
6.100000	-12.958288	-178.473382	-0.628538	90.080335	-0.628538	90.080335	-12.958239	-178.501278
6.150000	-13.127645	179.204361	-0.622011	87.773831	-0.622011	87.773831	-13.127587	179.176652
6.200000	-13.302665	176.871771	-0.615502	85.461791	-0.615502	85.461791	-13.302596	176.844300
6.250000	-13.483262	174.528405	-0.609040	83.144210	-0.609040	83.144210	-13.483180	174.501223
6.300000	-13.669352	172.173547	-0.602658	80.820966	-0.602658	80.820966	-13.669255	172.146714
6.350000	-13.860752	169.806965	-0.596384	78.492181	-0.596384	78.492181	-13.860639	169.780542
6.400000	-14.057291	167.428181	-0.590247	76.157854	-0.590247	76.157854	-14.057159	167.402233
6.450000	-14.258760	165.036709	-0.584273	73.817988	-0.584273	73.817988	-14.258606	165.011309
6.500000	-14.464910	162.632063	-0.578489	71.472585	-0.578489	71.472585	-14.464730	162.607287
6.550000	-14.675443	160.213752	-0.572915	69.121650	-0.572915	69.121650	-14.675236	160.189680
6.600000	-14.890011	157.781289	-0.567574	66.765189	-0.567574	66.765189	-14.889774	157.758010
6.650000	-15.108208	155.334197	-0.562482	64.403217	-0.562482	64.403217	-15.107937	155.311803
6.700000	-15.329560	152.872008	-0.557655	62.035753	-0.557655	62.035753	-15.329254	152.850599
6.750000	-15.553524	150.394281	-0.553107	59.662829	-0.553107	59.662829	-15.553179	150.373961
6.800000	-15.779475	147.900599	-0.548848	57.284481	-0.548848	57.284481	-15.779089	147.881481
6.850000	-16.006704	145.390589	-0.544888	54.900758	-0.544888	54.900758	-16.006275	145.372793
6.900000	-16.234338	142.863747	-0.541237	52.511658	-0.541237	52.511658	-16.233865	142.847400
6.950000	-16.461439	140.319811	-0.537905	50.117246	-0.537905	50.117246	-16.460921	140.305050
7.000000	-16.687055	137.758800	-0.534892	47.717646	-0.534892	47.717646	-16.686492	137.745765
7.050000	-16.910062	135.180654	-0.532206	45.312925	-0.532206	45.312925	-16.909455	135.169496
7.100000	-17.129221	132.585441	-0.529852	42.903148	-0.529852	42.903148	-17.128572	132.576313
7.150000	-17.343181	129.973375	-0.527835	40.488377	-0.527835	40.488377	-17.342493	129.966439
7.200000	-17.550479	127.344842	-0.526161	38.068667	-0.526161	38.068667	-17.549757	127.340266
7.250000	-17.749546	124.700426	-0.524835	35.644067	-0.524835	35.644067	-17.748794	124.698377
7.300000	-17.938717	122.040926	-0.523861	33.214613	-0.523861	33.214613	-17.937941	122.041576
7.350000	-18.116245	119.367379	-0.523244	30.780332	-0.523244	30.780332	-18.115454	119.370897
7.400000	-18.280325	116.681075	-0.522990	28.341239	-0.522990	28.341239	-18.279527	116.687627
7.450000	-18.429116	113.983561	-0.523104	25.897334	-0.523104	25.897334	-18.428320	113.993305
7.500000	-18.560775	111.276643	-0.523591	23.448606	-0.523591	23.448606	-18.559990	111.289725
7.550000	-18.673012	108.562261	-0.524465	20.994920	-0.524465	20.994920	-18.672249	108.578814
7.600000	-18.764516	105.842899	-0.525725	18.536339	-0.525725	18.536339	-18.763784	105.863030
7.650000	-18.833672	103.121000	-0.527379	16.072807	-0.527379	16.072807	-18.832979	103.144794
7.700000	-18.879026	100.399124	-0.529434	13.604249	-0.529434	13.604249	-18.878381	100.426633
7.750000	-18.899331	97.679870	-0.531902	11.130578	-0.531902	11.130578	-18.898739	97.711113
7.800000	-18.893582	94.965803	-0.534793	8.651693	-0.534793	8.651693	-18.893047	95.000764
7.850000	-18.861051	92.259372	-0.538122	6.167476	-0.538122	6.167476	-18.860574	92.297995
7.900000	-18.801311	89.562828	-0.541904	3.677797	-0.541904	3.677797	-18.800891	89.605018
7.950000	-18.714248	86.878149	-0.546157	1.182511	-0.546157	1.182511	-18.713881	86.923771
8.000000	-18.600065	84.206983	-0.550903	-1.318539	-0.550903	-1.318539	-18.599745	84.255863
8.050000	-18.459276	81.550594	-0.556165	-3.825520	-0.556165	-3.825520	-18.458995	81.602526
8.100000	-18.292685	78.909844	-0.561973	-6.338611	-0.561973	-6.338611	-18.292434	78.964590
8.150000	-18.101055	76.285356	-0.568363	-8.858070	-0.568363	-8.858070	-18.100820	76.342648
8.200000	-17.885692	73.677164	-0.575372	-11.384098	-0.575372	-11.384098	-17.885461	73.736714
8.250000	-17.648400	71.084742	-0.583035	-13.916826	-0.583035	-13.916826	-17.648160	71.146251
8.300000	-17.390818	68.507414	-0.591397	-16.456458	-0.591397	-16.456458	-17.390556	68.570573
8.350000	-17.115442	65.943847	-0.600485	-19.002985	-0.600485	-19.002985	-17.115147	66.008356
8.400000	-16.822451	63.393702	-0.610400	-21.557055	-0.610400	-21.557055	-16.822112	63.459246
8.450000	-16.514545	60.855164	-0.621179	-24.118632	-0.621179	-24.118632	-16.514154	60.921446
8.500000	-16.193544	58.326765	-0.632889	-26.687905	-0.632889	-26.687905	-16.193094	58.393501
8.550000	-15.861228	55.806961	-0.645601	-29.265053	-0.645601	-29.265053	-15.860716	55.873885
8.600000	-15.519320	53.294175	-0.659393	-31.850237	-0.659393	-31.850237	-15.518743	53.361042
8.650000	-15.169463	50.786827	-0.674349	-34.443604	-0.674349	-34.443604	-15.168822	50.853416
8.700000	-14.813212	48.283357	-0.690558	-37.045273	-0.690558	-37.045273	-14.812511	48.349472
8.750000	-14.452023	45.782244	-0.708116	-39.655341	-0.708116	-39.655341	-14.451267	45.847718
8.800000	-14.086995	43.282015	-0.727146	-42.273994	-0.727146	-42.273994	-14.086192	43.346705
8.850000	-13.719669	40.781231	-0.747736	-44.901137	-0.747736	-44.901137	-13.718826	40.845030
8.900000	-13.351195	38.278559	-0.770000	-47.536757	-0.770000	-47.536757	-13.350326	38.341387
8.950000	-12.982633	35.772737	-0.794056	-50.180795	-0.794056	-50.180795	-12.981747	35.834543
9.000000	-12.614946	33.262575	-0.820025	-52.833142	-0.820025	-52.833142	-12.614058	33.323338
9.050000	-12.249017	30.746959	-0.848036	-55.493638	-0.848036	-55.493638	-12.248139	30.806687
9.100000	-11.885650	28.224852	-0.878219	-58.162061	-0.878219	-58.162061	-11.884794	28.283580
9.150000	-11.525577	25.695295	-0.910707	-60.838128	-0.910707	-60.838128	-11.524757	25.753086
9.200000	-11.169374	23.157326	-0.945661	-63.521559	-0.945661	-63.521559	-11.168603	23.214267
9.250000	-10.817730	20.610181	-0.983208	-66.211887	-0.983208	-66.211887	-10.817016	20.666386
9.300000	-10.471260	18.053208	-1.023477	-68.908584	-1.023477	-68.908584	-10.470615	18.108812
9.350000	-10.130490	15.485816	-1.066605	-71.611080	-1.066605	-71.611080	-10.129920	15.540973
9.400000	-9.795904	12.907518	-1.112727	-74.318729	-1.112727	-74.318729	-9.795414	12.962404
9.450000	-9.467957	10.317948	-1.161977	-77.030806	-1.161977	-77.030806	-9.467549	10.372753
9.500000	-9.147075	7.716863	-1.214485	-79.746509	-1.214485	-79.746509	-9.146749	7.771792
9.550000	-8.833660	5.104158	-1.270375	-82.464960	-1.270375	-82.464960	-8.833412	5.159429
9.600000	-8.528082	2.479822	-1.329781	-85.185207	-1.329781	-85.185207	-8.527905	2.535661
9.650000	-8.230710	-0.155991	-1.392830	-87.906202	-1.392830	-87.906202	-8.230591	-0.099350
9.700000	-7.941917	-2.802787	-1.459593	-90.626830	-1.459593	-90.626830	-7.941842	-2.745112
9.750000	-7.662030	-5.460010	-1.530161	-93.345924	-1.530161	-93.345924	-7.661979	-5.401067
9.800000	-7.391357	-8.126913	-1.604616	-96.062262	-1.604616	-96.062262	-7.391307	-8.066475
9.850000	-7.130188	-10.802557	-1.683026	-98.774566	-1.683026	-98.774566	-7.130111	-10.740404
9.900000	-6.878794	-13.485806	-1.765445	-101.481516	-1.765445	-101.481516	-6.878659	-13.421731
9.950000	-6.637428	-16.175325	-1.851917	-104.181754	-1.851917	-104.181754	-6.637199	-16.109138
10.000000	-6.406319	-18.869583	-1.942469	-106.873893	-1.942469	-106.873893	-6.405956	-18.801111
