! freq	dB(S11)	phase(S11)	dB(S12)	phase(S12)	
!     	dB(S21)	phase(S21)	dB(S22)	phase(S22)	
!S-par simulation data
#  GHz  S  DB  R 50
0.000000	-0.000000	0.000000	-316.109650	180.000000	-316.109650	180.000000	-0.000000	-0.000000
0.050000	-0.000110	-0.840372	-108.133773	83.252010	-108.133773	83.252010	-0.000116	-1.178308
0.100000	-0.000436	-1.680467	-102.812464	80.976829	-102.812464	80.976829	-0.000461	-2.356372
0.150000	-0.000963	-2.520033	-99.768674	80.645862	-99.768674	80.645862	-0.001027	-3.533959
0.200000	-0.001669	-3.358864	-97.591360	80.647803	-97.591360	80.647803	-0.001799	-4.710861
0.250000	-0.002537	-4.196732	-95.907517	80.584081	-95.907517	80.584081	-0.002773	-5.886825
0.300000	-0.003525	-5.033605	-94.552431	80.420702	-94.552431	80.420702	-0.003913	-7.061762
0.350000	-0.004612	-5.869372	-93.442404	80.184541	-93.442404	80.184541	-0.005206	-8.235493
0.400000	-0.005774	-6.704001	-92.524941	79.916715	-92.524941	79.916715	-0.006632	-9.407899
0.450000	-0.006988	-7.537487	-91.765725	79.656794	-91.765725	79.656794	-0.008169	-10.578886
0.500000	-0.008234	-8.369852	-91.141404	79.441775	-91.141404	79.441775	-0.009796	-11.748384
0.550000	-0.009496	-9.201127	-90.635728	79.308051	-90.635728	79.308051	-0.011493	-12.916346
0.600000	-0.010764	-10.031355	-90.237302	79.293961	-90.237302	79.293961	-0.013243	-14.082741
0.650000	-0.012029	-10.860576	-89.938172	79.442546	-89.938172	79.442546	-0.015029	-15.247553
0.700000	-0.013283	-11.688832	-89.732851	79.804658	-89.732851	79.804658	-0.016838	-16.410778
0.750000	-0.014524	-12.516158	-89.617551	80.442695	-89.617551	80.442695	-0.018657	-17.572420
0.800000	-0.015749	-13.342583	-89.589425	81.435283	-89.589425	81.435283	-0.020475	-18.732487
0.850000	-0.016956	-14.168129	-89.645599	82.883168	-89.645599	82.883168	-0.022286	-19.890992
0.900000	-0.018147	-14.992814	-89.781720	84.916235	-89.781720	84.916235	-0.024082	-21.047948
0.950000	-0.019320	-15.816647	-89.989537	87.700615	-89.989537	87.700615	-0.025859	-22.203368
1.000000	-0.020478	-16.639633	-90.252897	91.442272	-90.252897	91.442272	-0.027613	-23.357263
1.050000	-0.021621	-17.461772	-90.541492	96.377868	-90.541492	96.377868	-0.029343	-24.509643
1.100000	-0.022750	-18.283060	-90.802678	102.734446	-90.802678	102.734446	-0.031045	-25.660513
1.150000	-0.023868	-19.103489	-90.955084	110.631965	-90.955084	110.631965	-0.032721	-26.809878
1.200000	-0.024974	-19.923048	-90.894556	119.921071	-90.894556	119.921071	-0.034369	-27.957738
1.250000	-0.026071	-20.741724	-90.525773	130.036018	-90.525773	130.036018	-0.035992	-29.104090
1.300000	-0.027159	-21.559464	-89.795434	140.018849	-89.795434	140.018849	-0.037588	-30.248863
1.350000	-0.028240	-22.376287	-88.771144	148.978747	-88.771144	148.978747	-0.039160	-31.392114
1.400000	-0.029315	-23.192178	-87.554333	156.458224	-87.554333	156.458224	-0.040711	-32.533832
1.450000	-0.030384	-24.007117	-86.244151	162.392182	-86.244151	162.392182	-0.042241	-33.674005
1.500000	-0.031449	-24.821085	-84.912476	166.940339	-84.912476	166.940339	-0.043752	-34.812619
1.550000	-0.032509	-25.634064	-83.602661	170.338050	-83.602661	170.338050	-0.045247	-35.949658
1.600000	-0.033567	-26.446033	-82.337337	172.815415	-82.337337	172.815415	-0.046727	-37.085104
1.650000	-0.034622	-27.256974	-81.126371	174.567122	-81.126371	174.567122	-0.048194	-38.218942
1.700000	-0.035674	-28.066865	-79.972482	175.747802	-79.972482	175.747802	-0.049651	-39.351151
1.750000	-0.036725	-28.875688	-78.874664	176.476979	-78.874664	176.476979	-0.051098	-40.481715
1.800000	-0.037775	-29.683423	-77.830124	176.846227	-77.830124	176.846227	-0.052537	-41.610614
1.850000	-0.038825	-30.490051	-76.835343	176.925750	-76.835343	176.925750	-0.053971	-42.737829
1.900000	-0.039873	-31.295552	-75.886623	176.769686	-75.886623	176.769686	-0.055400	-43.863343
1.950000	-0.040922	-32.099908	-74.980373	176.420130	-74.980373	176.420130	-0.056826	-44.987138
2.000000	-0.041972	-32.903100	-74.113228	175.910125	-74.113228	175.910125	-0.058252	-46.109196
2.050000	-0.043022	-33.705109	-73.282107	175.265872	-73.282107	175.265872	-0.059677	-47.229502
2.100000	-0.044074	-34.505918	-72.484216	174.508346	-72.484216	174.508346	-0.061103	-48.348039
2.150000	-0.045127	-35.305509	-71.717036	173.654506	-71.717036	173.654506	-0.062532	-49.464792
2.200000	-0.046181	-36.103865	-70.978302	172.718186	-70.978302	172.718186	-0.063964	-50.579749
2.250000	-0.047238	-36.900969	-70.265980	171.710770	-70.265980	171.710770	-0.065401	-51.692896
2.300000	-0.048298	-37.696803	-69.578240	170.641703	-69.578240	170.641703	-0.066844	-52.804223
2.350000	-0.049361	-38.491353	-68.913435	169.518883	-68.913435	169.518883	-0.068293	-53.913720
2.400000	-0.050426	-39.284601	-68.270077	168.348960	-68.270077	168.348960	-0.069749	-55.021377
2.450000	-0.051496	-40.076534	-67.646823	167.137572	-67.646823	167.137572	-0.071214	-56.127189
2.500000	-0.052569	-40.867134	-67.042452	165.889530	-67.042452	165.889530	-0.072688	-57.231148
2.550000	-0.053646	-41.656329	-66.454911	164.607717	-66.454911	164.607717	-0.074171	-58.333171
2.600000	-0.054729	-42.444163	-65.884240	163.297219	-65.884240	163.297219	-0.075666	-59.433334
2.650000	-0.055816	-43.230620	-65.329503	161.961076	-65.329503	161.961076	-0.077171	-60.531638
2.700000	-0.056909	-44.015688	-64.789846	160.601939	-64.789846	160.601939	-0.078688	-61.628083
2.750000	-0.058008	-44.799354	-64.264481	159.222138	-64.264481	159.222138	-0.080218	-62.722672
2.800000	-0.059113	-45.581605	-63.752687	157.823725	-63.752687	157.823725	-0.081760	-63.815408
2.850000	-0.060224	-46.362428	-63.253796	156.408514	-63.253796	156.408514	-0.083316	-64.906297
2.900000	-0.061343	-47.141813	-62.767194	154.978118	-62.767194	154.978118	-0.084886	-65.995346
2.950000	-0.062469	-47.919746	-62.292310	153.533972	-62.292310	153.533972	-0.086470	-67.082565
3.000000	-0.063602	-48.696218	-61.828615	152.077362	-61.828615	152.077362	-0.088069	-68.167965
3.050000	-0.064744	-49.471218	-61.375616	150.609439	-61.375616	150.609439	-0.089683	-69.251557
3.100000	-0.065894	-50.244735	-60.932856	149.131241	-60.932856	149.131241	-0.091313	-70.333357
3.150000	-0.067053	-51.016759	-60.499906	147.643703	-60.499906	147.643703	-0.092960	-71.413380
3.200000	-0.068221	-51.787282	-60.076365	146.147672	-60.076365	146.147672	-0.094624	-72.491643
3.250000	-0.069399	-52.556294	-59.661860	144.643916	-59.661860	144.643916	-0.096304	-73.568167
3.300000	-0.070587	-53.323787	-59.256038	143.133134	-59.256038	143.133134	-0.098003	-74.642972
3.350000	-0.071786	-54.089753	-58.858570	141.615964	-58.858570	141.615964	-0.099720	-75.716082
3.400000	-0.072996	-54.854184	-58.469144	140.092986	-58.469144	140.092986	-0.101456	-76.787521
3.450000	-0.074217	-55.617073	-58.087467	138.564736	-58.087467	138.564736	-0.103210	-77.857315
3.500000	-0.075450	-56.378412	-57.713264	137.031701	-57.713264	137.031701	-0.104985	-78.925492
3.550000	-0.076695	-57.138197	-57.346273	135.494331	-57.346273	135.494331	-0.106780	-79.992083
3.600000	-0.077953	-57.896420	-56.986248	133.953043	-56.986248	133.953043	-0.108596	-81.057119
3.650000	-0.079223	-58.653076	-56.632954	132.408217	-56.632954	132.408217	-0.110433	-82.120633
3.700000	-0.080507	-59.408161	-56.286170	130.860207	-56.286170	130.860207	-0.112292	-83.182661
3.750000	-0.081805	-60.161669	-55.945686	129.309342	-55.945686	129.309342	-0.114173	-84.243238
3.800000	-0.083118	-60.913527	-55.611010	127.755828	-55.611010	127.755828	-0.116079	-85.302344
3.850000	-0.084445	-61.663801	-55.282265	126.200068	-55.282265	126.200068	-0.118008	-86.360083
3.900000	-0.085788	-62.412487	-54.959271	124.642324	-54.959271	124.642324	-0.119962	-87.416497
3.950000	-0.087146	-63.159582	-54.641854	123.082837	-54.641854	123.082837	-0.121941	-88.471629
4.000000	-0.088520	-63.905083	-54.329847	121.521835	-54.329847	121.521835	-0.123945	-89.525526
4.050000	-0.089911	-64.648989	-54.023093	119.959530	-54.023093	119.959530	-0.125977	-90.578234
4.100000	-0.091318	-65.391299	-53.721440	118.396121	-53.721440	118.396121	-0.128035	-91.629803
4.150000	-0.092743	-66.132010	-53.424746	116.831795	-53.424746	116.831795	-0.130121	-92.680284
4.200000	-0.094185	-66.871122	-53.132871	115.266728	-53.132871	115.266728	-0.132235	-93.729728
4.250000	-0.095645	-67.608635	-52.845684	113.701085	-52.845684	113.701085	-0.134380	-94.778191
4.300000	-0.097124	-68.344549	-52.563058	112.135022	-52.563058	112.135022	-0.136554	-95.825729
4.350000	-0.098622	-69.078865	-52.284873	110.568687	-52.284873	110.568687	-0.138759	-96.872400
4.400000	-0.100139	-69.811583	-52.011012	109.002219	-52.011012	109.002219	-0.140996	-97.918263
4.450000	-0.101675	-70.542704	-51.741364	107.435751	-51.741364	107.435751	-0.143266	-98.963380
4.500000	-0.103232	-71.272231	-51.475822	105.869408	-51.475822	105.869408	-0.145569	-100.007815
4.550000	-0.104810	-72.000166	-51.214284	104.303310	-51.214284	104.303310	-0.147906	-101.051632
4.600000	-0.106408	-72.726510	-50.956649	102.737573	-50.956649	102.737573	-0.150279	-102.094901
4.650000	-0.108028	-73.451267	-50.702824	101.172306	-50.702824	101.172306	-0.152687	-103.137688
4.700000	-0.109670	-74.174441	-50.452717	99.607613	-50.452717	99.607613	-0.155133	-104.180067
4.750000	-0.111333	-74.896034	-50.206241	98.043597	-50.206241	98.043597	-0.157616	-105.222110
4.800000	-0.113020	-75.616052	-49.963309	96.480356	-49.963309	96.480356	-0.160139	-106.263893
4.850000	-0.114730	-76.334498	-49.723842	94.917983	-49.723842	94.917983	-0.162701	-107.305494
4.900000	-0.116463	-77.051376	-49.487759	93.356570	-49.487759	93.356570	-0.165303	-108.346993
4.950000	-0.118220	-77.766694	-49.254986	91.796208	-49.254986	91.796208	-0.167948	-109.388471
5.000000	-0.120002	-78.480455	-49.025449	90.236984	-49.025449	90.236984	-0.170635	-110.430013
5.050000	-0.121809	-79.192599	-48.798959	88.679041	-48.798959	88.679041	-0.173367	-111.471718
5.100000	-0.123642	-79.903200	-48.575574	87.122413	-48.575574	87.122413	-0.176144	-112.513673
5.150000	-0.125500	-80.612264	-48.355227	85.567185	-48.355227	85.567185	-0.178966	-113.555969
5.200000	-0.127384	-81.319799	-48.137855	84.013439	-48.137855	84.013439	-0.181835	-114.598704
5.250000	-0.129295	-82.025812	-47.923395	82.461259	-47.923395	82.461259	-0.184752	-115.641975
5.300000	-0.131233	-82.730310	-47.711787	80.910725	-47.711787	80.910725	-0.187718	-116.685883
5.350000	-0.133198	-83.433301	-47.502973	79.361923	-47.502973	79.361923	-0.190733	-117.730534
5.400000	-0.135191	-84.134795	-47.296897	77.814934	-47.296897	77.814934	-0.193798	-118.776035
5.450000	-0.137212	-84.834799	-47.093504	76.269845	-47.093504	76.269845	-0.196916	-119.822498
5.500000	-0.139262	-85.533324	-46.892741	74.726741	-46.892741	74.726741	-0.200086	-120.870038
5.550000	-0.141341	-86.230377	-46.694557	73.185711	-46.694557	73.185711	-0.203310	-121.918774
5.600000	-0.143449	-86.925969	-46.498901	71.646843	-46.498901	71.646843	-0.206590	-122.968829
5.650000	-0.145588	-87.620110	-46.305726	70.110230	-46.305726	70.110230	-0.209925	-124.020331
5.700000	-0.147756	-88.312809	-46.114983	68.575967	-46.114983	68.575967	-0.213319	-125.073412
5.750000	-0.149955	-89.004079	-45.926628	67.044152	-45.926628	67.044152	-0.216771	-126.128210
5.800000	-0.152186	-89.693929	-45.740615	65.514888	-45.740615	65.514888	-0.220283	-127.184866
5.850000	-0.154448	-90.382371	-45.556900	63.988279	-45.556900	63.988279	-0.223856	-128.243529
5.900000	-0.156742	-91.069416	-45.375441	62.464436	-45.375441	62.464436	-0.227492	-129.304354
5.950000	-0.159068	-91.755076	-45.196197	60.943475	-45.196197	60.943475	-0.231193	-130.367500
6.000000	-0.161428	-92.439363	-45.019126	59.425515	-45.019126	59.425515	-0.234959	-131.433136
6.050000	-0.163820	-93.122290	-44.844188	57.910685	-44.844188	57.910685	-0.238793	-132.501435
6.100000	-0.166247	-93.803868	-44.671345	56.399118	-44.671345	56.399118	-0.242696	-133.572583
6.150000	-0.168707	-94.484112	-44.500557	54.890954	-44.500557	54.890954	-0.246671	-134.646770
6.200000	-0.171202	-95.163033	-44.331786	53.386343	-44.331786	53.386343	-0.250718	-135.724198
6.250000	-0.173732	-95.840646	-44.164995	51.885444	-44.164995	51.885444	-0.254842	-136.805079
6.300000	-0.176299	-96.516909	-44.000095	50.388601	-44.000095	50.388601	-0.259047	-137.889807
6.350000	-0.178902	-97.191892	-43.837103	48.895833	-43.837103	48.895833	-0.263332	-138.978471
6.400000	-0.181541	-97.865609	-43.675982	47.407333	-43.675982	47.407333	-0.267702	-140.071322
6.450000	-0.184216	-98.538076	-43.516695	45.923308	-43.516695	45.923308	-0.272159	-141.168628
6.500000	-0.186929	-99.209306	-43.359205	44.443977	-43.359205	44.443977	-0.276706	-142.270672
6.550000	-0.189679	-99.879316	-43.203473	42.969578	-43.203473	42.969578	-0.281348	-143.377760
6.600000	-0.192468	-100.548119	-43.049462	41.500365	-43.049462	41.500365	-0.286090	-144.490215
6.650000	-0.195294	-101.215731	-42.897133	40.036615	-42.897133	40.036615	-0.290936	-145.608387
6.700000	-0.198160	-101.882169	-42.746445	38.578622	-42.746445	38.578622	-0.295892	-146.732652
6.750000	-0.201065	-102.547448	-42.597359	37.126710	-42.597359	37.126710	-0.300965	-147.863416
6.800000	-0.204009	-103.211583	-42.449831	35.681226	-42.449831	35.681226	-0.306163	-149.001121
6.850000	-0.206994	-103.874593	-42.303817	34.242551	-42.303817	34.242551	-0.311493	-150.146247
6.900000	-0.210019	-104.536492	-42.159271	32.811097	-42.159271	32.811097	-0.316966	-151.299322
6.950000	-0.213085	-105.197298	-42.016143	31.387316	-42.016143	31.387316	-0.322594	-152.460923
7.000000	-0.216192	-105.857027	-41.874380	29.971703	-41.874380	29.971703	-0.328389	-153.631690
7.050000	-0.219341	-106.515698	-41.733925	28.564802	-41.733925	28.564802	-0.334368	-154.812333
7.100000	-0.222532	-107.173327	-41.594718	27.167210	-41.594718	27.167210	-0.340549	-156.003645
7.150000	-0.225766	-107.829931	-41.456688	25.779590	-41.456688	25.779590	-0.346955	-157.206519
7.200000	-0.229043	-108.485530	-41.319763	24.402672	-41.319763	24.402672	-0.353611	-158.421961
7.250000	-0.232363	-109.140140	-41.183856	23.037272	-41.183856	23.037272	-0.360551	-159.651121
7.300000	-0.235727	-109.793780	-41.048874	21.684297	-41.048874	21.684297	-0.367813	-160.895316
7.350000	-0.239136	-110.446468	-40.914707	20.344763	-40.914707	20.344763	-0.375445	-162.156067
7.400000	-0.242589	-111.098222	-40.781230	19.019812	-40.781230	19.019812	-0.383507	-163.435150
7.450000	-0.246088	-111.749062	-40.648297	17.710732	-40.648297	17.710732	-0.392072	-164.734654
7.500000	-0.249633	-112.399007	-40.515734	16.418982	-40.515734	16.418982	-0.401237	-166.057062
7.550000	-0.253225	-113.048037	-40.383243	15.147141	-40.383243	15.147141	-0.411160	-167.406658
7.600000	-0.256864	-113.696211	-40.250634	13.896396	-40.250634	13.896396	-0.421982	-168.786182
7.650000	-0.260550	-114.343548	-40.117589	12.668982	-40.117589	12.668982	-0.433922	-170.200264
7.700000	-0.264284	-114.990068	-39.983703	11.467487	-39.983703	11.467487	-0.447280	-171.654718
7.750000	-0.268064	-115.635833	-39.848670	10.293233	-39.848670	10.293233	-0.462357	-173.154071
7.800000	-0.271894	-116.280783	-39.711500	9.152518	-39.711500	9.152518	-0.479908	-174.712454
7.850000	-0.275773	-116.924975	-39.571445	8.048228	-39.571445	8.048228	-0.500716	-176.340610
7.900000	-0.279702	-117.568426	-39.427294	6.985123	-39.427294	6.985123	-0.526072	-178.055747
7.950000	-0.283680	-118.211158	-39.277339	5.968661	-39.277339	5.968661	-0.557997	-179.881836
8.000000	-0.287710	-118.853188	-39.119089	5.004823	-39.119089	5.004823	-0.599810	178.146760
8.050000	-0.291790	-119.494543	-38.948952	4.098850	-38.948952	4.098850	-0.657018	175.981612
8.100000	-0.295923	-120.135227	-38.760467	3.255179	-38.760467	3.255179	-0.740726	173.539289
8.150000	-0.300109	-120.775267	-38.543638	2.465625	-38.543638	2.465625	-0.872372	170.698145
8.200000	-0.304347	-121.414683	-38.280910	1.686098	-38.280910	1.686098	-1.100272	167.266094
8.250000	-0.308638	-122.053500	-37.943608	0.752712	-37.943608	0.752712	-1.544481	163.010316
8.300000	-0.312984	-122.691742	-37.501538	-0.879855	-37.501538	-0.879855	-2.538804	158.201442
8.350000	-0.317384	-123.329436	-37.052338	-4.524951	-37.052338	-4.524951	-4.795410	158.502455
8.400000	-0.321843	-123.966617	-37.092283	-9.828499	-37.092283	-9.828499	-5.908073	-179.101448
8.450000	-0.326364	-124.603315	-37.560888	-11.800384	-37.560888	-11.800384	-3.362455	-170.492571
8.500000	-0.330958	-125.239537	-37.778743	-10.988736	-37.778743	-10.988736	-1.966755	-174.726858
8.550000	-0.335632	-125.875255	-37.736795	-9.861797	-37.736795	-9.861797	-1.389271	-179.576671
8.600000	-0.340391	-126.510409	-37.561052	-8.934391	-37.561052	-8.934391	-1.133155	176.293098
8.650000	-0.345235	-127.144952	-37.305234	-8.142431	-37.305234	-8.142431	-1.016919	172.700044
8.700000	-0.350165	-127.778833	-36.979569	-7.382653	-36.979569	-7.382653	-0.975249	169.404823
8.750000	-0.355187	-128.411988	-36.574765	-6.593006	-36.574765	-6.593006	-0.983604	166.220478
8.800000	-0.360305	-129.044310	-36.070722	-5.768509	-36.070722	-5.768509	-1.036229	162.998015
8.850000	-0.365530	-129.675545	-35.429860	-4.983872	-35.429860	-4.983872	-1.143053	159.591153
8.900000	-0.370861	-130.305307	-34.610701	-4.446874	-34.610701	-4.446874	-1.328941	155.845914
8.950000	-0.376273	-130.932840	-33.555702	-4.616705	-33.555702	-4.616705	-1.654099	151.578260
9.000000	-0.381644	-131.556920	-32.221106	-6.387543	-32.221106	-6.387543	-2.251572	146.675349
9.050000	-0.386581	-132.176039	-30.636430	-11.333990	-30.636430	-11.333990	-3.426806	141.684891
9.100000	-0.390132	-132.791203	-29.074048	-21.531262	-29.074048	-21.531262	-5.735726	141.101149
9.150000	-0.391494	-133.413686	-28.214905	-37.180114	-28.214905	-37.180114	-8.077506	160.742894
9.200000	-0.392747	-134.056838	-28.577312	-53.242866	-28.577312	-53.242866	-5.923858	-178.141961
9.250000	-0.396438	-134.709310	-29.706078	-64.449616	-29.706078	-64.449616	-3.542071	-177.997647
9.300000	-0.401871	-135.357259	-30.930348	-70.686106	-30.930348	-70.686106	-2.317798	177.180409
9.350000	-0.407872	-135.999249	-31.969514	-73.845362	-31.969514	-73.845362	-1.695011	172.380812
9.400000	-0.413965	-136.637371	-32.782718	-75.389363	-32.782718	-75.389363	-1.353374	168.258377
9.450000	-0.420024	-137.273286	-33.401287	-76.150640	-33.401287	-76.150640	-1.151708	164.732684
9.500000	-0.426038	-137.907973	-33.869561	-76.570732	-33.869561	-76.570732	-1.024812	161.645653
9.550000	-0.432020	-138.541969	-34.223244	-76.871543	-34.223244	-76.871543	-0.941429	158.876800
9.600000	-0.437985	-139.175593	-34.490628	-77.166018	-34.490628	-77.166018	-0.884783	156.338874
9.650000	-0.443951	-139.809038	-34.691336	-77.510803	-34.691336	-77.510803	-0.845725	153.974361
9.700000	-0.449927	-140.442441	-34.844095	-77.926259	-34.844095	-77.926259	-0.817923	151.732663
9.750000	-0.455922	-141.075889	-34.958736	-78.421734	-34.958736	-78.421734	-0.798253	149.586805
9.800000	-0.461943	-141.709454	-35.043813	-78.997174	-35.043813	-78.997174	-0.784433	147.514102
9.850000	-0.467996	-142.343192	-35.105750	-79.648551	-35.105750	-79.648551	-0.774935	145.497612
9.900000	-0.474083	-142.977150	-35.149417	-80.370100	-35.149417	-80.370100	-0.768703	143.524443
9.950000	-0.480209	-143.611373	-35.178548	-81.155504	-35.178548	-81.155504	-0.764990	141.584628
10.000000	-0.486375	-144.245899	-35.196033	-81.998510	-35.196033	-81.998510	-0.763257	139.670341
