! freq	dB(S11)	phase(S11)	dB(S12)	phase(S12)	
!     	dB(S21)	phase(S21)	dB(S22)	phase(S22)	
!S-par simulation data
#  GHz  S  DB  R 50
0.000000	-82.688681	0.000000	-0.000637	0.000000	-0.000637	0.000000	-82.688681	0.000000
0.050000	-56.267821	-92.571501	-0.002979	-2.539299	-0.002979	-2.539299	-55.444883	-79.895140
0.100000	-50.475111	-99.701007	-0.008340	-5.063064	-0.008340	-5.063064	-50.025491	-78.599086
0.150000	-47.282063	-107.419537	-0.014197	-7.571537	-0.014197	-7.571537	-46.747903	-78.104511
0.200000	-44.924976	-116.734494	-0.019280	-10.071966	-0.019280	-10.071966	-44.270793	-77.398242
0.250000	-42.855769	-126.059898	-0.023537	-12.570217	-0.023537	-12.570217	-42.252690	-76.417288
0.300000	-40.990487	-134.459613	-0.027084	-15.068589	-0.027084	-15.068589	-40.528606	-75.229952
0.350000	-39.335592	-142.015415	-0.030132	-17.568139	-0.030132	-17.568139	-39.011739	-73.931635
0.400000	-37.862442	-149.044213	-0.032861	-20.069237	-0.032861	-20.069237	-37.647357	-72.597114
0.450000	-36.526483	-155.732041	-0.035402	-22.572117	-0.035402	-22.572117	-36.393356	-71.285463
0.500000	-35.308544	-162.218608	-0.037876	-25.076516	-0.037876	-25.076516	-35.237743	-70.026761
0.550000	-34.177671	-168.526273	-0.040347	-27.582589	-0.040347	-27.582589	-34.155690	-68.849735
0.600000	-33.116252	-174.675109	-0.042872	-30.090385	-0.042872	-30.090385	-33.133634	-67.771939
0.650000	-32.114575	179.317479	-0.045490	-32.599890	-0.045490	-32.599890	-32.164398	-66.799258
0.700000	-31.164165	173.442539	-0.048233	-35.111146	-0.048233	-35.111146	-31.241161	-65.935499
0.750000	-30.256524	167.697905	-0.051131	-37.624290	-0.051131	-37.624290	-30.356556	-65.186247
0.800000	-29.386783	162.077475	-0.054211	-40.139411	-0.054211	-40.139411	-29.506436	-64.551347
0.850000	-28.551569	156.574284	-0.057492	-42.656584	-0.057492	-42.656584	-28.687927	-64.028098
0.900000	-27.747739	151.182761	-0.060997	-45.175912	-0.060997	-45.175912	-27.898260	-63.613990
0.950000	-26.972472	145.898145	-0.064748	-47.697512	-0.064748	-47.697512	-27.134895	-63.306621
1.000000	-26.223589	140.715272	-0.068767	-50.221496	-0.068767	-50.221496	-26.395876	-63.102733
1.050000	-25.499262	135.629087	-0.073079	-52.747974	-0.073079	-52.747974	-25.679558	-62.998826
1.100000	-24.797937	130.634678	-0.077708	-55.277056	-0.077708	-55.277056	-24.984544	-62.991274
1.150000	-24.118275	125.727304	-0.082679	-57.808845	-0.082679	-57.808845	-24.309631	-63.076412
1.200000	-23.459110	120.902419	-0.088021	-60.343440	-0.088021	-60.343440	-23.653780	-63.250592
1.250000	-22.819419	116.155680	-0.093763	-62.880932	-0.093763	-62.880932	-23.016081	-63.510227
1.300000	-22.197743	111.484477	-0.099944	-65.421468	-0.099944	-65.421468	-22.395162	-63.853514
1.350000	-21.593899	106.883211	-0.106590	-67.965054	-0.106590	-67.965054	-21.790962	-64.275198
1.400000	-21.007155	102.348193	-0.113734	-70.511747	-0.113734	-70.511747	-21.202850	-64.771989
1.450000	-20.436851	97.875947	-0.121411	-73.061588	-0.121411	-73.061588	-20.630261	-65.340707
1.500000	-19.882388	93.463195	-0.129658	-75.614602	-0.129658	-75.614602	-20.072687	-65.978278
1.550000	-19.343221	89.106852	-0.138514	-78.170796	-0.138514	-78.170796	-19.529671	-66.681734
1.600000	-18.818852	84.804021	-0.148017	-80.730158	-0.148017	-80.730158	-19.000799	-67.448203
1.650000	-18.308824	80.551980	-0.158207	-83.292656	-0.158207	-83.292656	-18.485696	-68.274905
1.700000	-17.812716	76.348176	-0.169124	-85.858234	-0.169124	-85.858234	-17.984018	-69.159144
1.750000	-17.330140	72.190215	-0.180810	-88.426814	-0.180810	-88.426814	-17.495452	-70.098304
1.800000	-16.860735	68.075854	-0.193303	-90.998296	-0.193303	-90.998296	-17.019707	-71.089839
1.850000	-16.404168	64.002995	-0.206646	-93.572551	-0.206646	-93.572551	-16.556517	-72.131269
1.900000	-15.960022	59.970083	-0.220886	-96.149455	-0.220886	-96.149455	-16.105515	-73.220667
1.950000	-15.528035	55.975223	-0.236064	-98.728823	-0.236064	-98.728823	-15.666502	-74.355590
2.000000	-15.108052	52.016278	-0.252208	-101.310422	-0.252208	-101.310422	-15.239385	-75.533215
2.050000	-14.699812	48.091655	-0.269351	-103.894020	-0.269351	-103.894020	-14.823952	-76.751284
2.100000	-14.303071	44.199866	-0.287527	-106.479362	-0.287527	-106.479362	-14.420004	-78.007583
2.150000	-13.917598	40.339522	-0.306766	-109.066168	-0.306766	-109.066168	-14.027348	-79.299945
2.200000	-13.543173	36.509330	-0.327095	-111.654134	-0.327095	-111.654134	-13.645798	-80.626244
2.250000	-13.179585	32.708082	-0.348537	-114.242935	-0.348537	-114.242935	-13.275175	-81.984396
2.300000	-12.826634	28.934651	-0.371113	-116.832226	-0.371113	-116.832226	-12.915302	-83.372360
2.350000	-12.484125	25.187987	-0.394838	-119.421641	-0.394838	-119.421641	-12.566005	-84.788134
2.400000	-12.151871	21.467107	-0.419723	-122.010801	-0.419723	-122.010801	-12.227114	-86.229763
2.450000	-11.829691	17.771092	-0.445775	-124.599310	-0.445775	-124.599310	-11.898458	-87.695332
2.500000	-11.517408	14.099080	-0.472996	-127.186763	-0.472996	-127.186763	-11.579870	-89.182972
2.550000	-11.214836	10.450747	-0.501405	-129.772701	-0.501405	-129.772701	-11.271161	-90.691257
2.600000	-10.921840	6.824808	-0.530968	-132.356728	-0.530968	-132.356728	-10.972204	-92.217933
2.650000	-10.638251	3.220539	-0.561670	-134.938419	-0.561670	-134.938419	-10.682827	-93.761274
2.700000	-10.363904	-0.362750	-0.593491	-137.517351	-0.593491	-137.517351	-10.402859	-95.319603
2.750000	-10.098633	-3.925721	-0.626405	-140.093106	-0.626405	-140.093106	-10.132127	-96.891297
2.800000	-9.842274	-7.469014	-0.660378	-142.665274	-0.660378	-142.665274	-9.870456	-98.474781
2.850000	-9.594666	-10.993254	-0.695374	-145.233452	-0.695374	-145.233452	-9.617673	-100.068535
2.900000	-9.355647	-14.499055	-0.731348	-147.797256	-0.731348	-147.797256	-9.373603	-101.671093
2.950000	-9.125055	-17.987022	-0.768253	-150.356315	-0.768253	-150.356315	-9.138071	-103.281041
3.000000	-8.902731	-21.457765	-0.806033	-152.910281	-0.806033	-152.910281	-8.910900	-104.897023
3.050000	-8.688513	-24.911893	-0.844631	-155.458828	-0.844631	-155.458828	-8.691914	-106.517735
3.100000	-8.482242	-28.350028	-0.883983	-158.001656	-0.883983	-158.001656	-8.480937	-108.141928
3.150000	-8.283794	-31.772644	-0.924024	-160.538427	-0.924024	-160.538427	-8.277827	-109.768422
3.200000	-8.093015	-35.180418	-0.964680	-163.068894	-0.964680	-163.068894	-8.082415	-111.396040
3.250000	-7.909712	-38.574193	-1.005870	-165.592918	-1.005870	-165.592918	-7.894493	-113.023672
3.300000	-7.733727	-41.954675	-1.047515	-168.110332	-1.047515	-168.110332	-7.713886	-114.650288
3.350000	-7.564899	-45.322598	-1.089531	-170.621005	-1.089531	-170.621005	-7.540421	-116.274906
3.400000	-7.403071	-48.678732	-1.131836	-173.124843	-1.131836	-173.124843	-7.373926	-117.896595
3.450000	-7.248088	-52.023884	-1.174341	-175.621796	-1.174341	-175.621796	-7.214230	-119.514470
3.500000	-7.099793	-55.358900	-1.216959	-178.111851	-1.216959	-178.111851	-7.061168	-121.127693
3.550000	-6.958035	-58.684673	-1.259601	179.404960	-1.259601	179.404960	-6.914572	-122.735468
3.600000	-6.822660	-62.002140	-1.302178	176.928564	-1.302178	176.928564	-6.774280	-124.337041
3.650000	-6.693520	-65.312287	-1.344598	174.458846	-1.344598	174.458846	-6.640131	-125.931697
3.700000	-6.570466	-68.616152	-1.386772	171.995649	-1.386772	171.995649	-6.511969	-127.518760
3.750000	-6.453355	-71.914826	-1.428612	169.538770	-1.428612	169.538770	-6.389638	-129.097584
3.800000	-6.342136	-75.209397	-1.470013	167.088091	-1.470013	167.088091	-6.273075	-130.667354
3.850000	-6.236577	-78.501185	-1.510901	164.643187	-1.510901	164.643187	-6.162042	-132.227667
3.900000	-6.136540	-81.791459	-1.551191	162.203727	-1.551191	162.203727	-6.056395	-133.777969
3.950000	-6.041891	-85.081547	-1.590802	159.769340	-1.590802	159.769340	-5.955990	-135.317730
4.000000	-5.952496	-88.372843	-1.629654	157.339615	-1.629654	157.339615	-5.860687	-136.846440
4.050000	-5.868229	-91.666803	-1.667670	154.914100	-1.667670	154.914100	-5.770350	-138.363609
4.100000	-5.788963	-94.964949	-1.704777	152.492307	-1.704777	152.492307	-5.684846	-139.868759
4.150000	-5.714576	-98.268872	-1.740907	150.073709	-1.740907	150.073709	-5.604043	-141.361429
4.200000	-5.644948	-101.580231	-1.775993	147.657743	-1.775993	147.657743	-5.527814	-142.841164
4.250000	-5.579962	-104.900758	-1.809976	145.243810	-1.809976	145.243810	-5.456032	-144.307518
4.300000	-5.519504	-108.232252	-1.842798	142.831277	-1.842798	142.831277	-5.388576	-145.760049
4.350000	-5.463461	-111.576591	-1.874409	140.419479	-1.874409	140.419479	-5.325323	-147.198316
4.400000	-5.411766	-114.935905	-1.904747	138.007709	-1.904747	138.007709	-5.266193	-148.621712
4.450000	-5.364307	-118.312291	-1.933771	135.595213	-1.933771	135.595213	-5.211065	-150.029778
4.500000	-5.320935	-121.707696	-1.961463	133.181230	-1.961463	133.181230	-5.159783	-151.422221
4.550000	-5.281542	-125.124300	-1.987795	130.764972	-1.987795	130.764972	-5.112228	-152.798580
4.600000	-5.246021	-128.564365	-2.012744	128.345626	-2.012744	128.345626	-5.068284	-154.158384
4.650000	-5.214264	-132.030226	-2.036299	125.922350	-2.036299	125.922350	-5.027833	-155.501149
4.700000	-5.186161	-135.524298	-2.058450	123.494282	-2.058450	123.494282	-4.990756	-156.826375
4.750000	-5.161602	-139.049070	-2.079200	121.060537	-2.079200	121.060537	-4.956930	-158.133548
4.800000	-5.140471	-142.607103	-2.098556	118.620211	-2.098556	118.620211	-4.926232	-159.422135
4.850000	-5.122649	-146.201031	-2.116535	116.172379	-2.116535	116.172379	-4.898534	-160.691585
4.900000	-5.108010	-149.833556	-2.133162	113.716103	-2.133162	113.716103	-4.873703	-161.941332
4.950000	-5.096423	-153.507440	-2.148472	111.250432	-2.148472	111.250432	-4.851600	-163.170789
5.000000	-5.087745	-157.225503	-2.162508	108.774400	-2.162508	108.774400	-4.832080	-164.379355
5.050000	-5.081884	-160.991701	-2.175298	106.286769	-2.175298	106.286769	-4.815039	-165.565933
5.100000	-5.078612	-164.807985	-2.186936	103.786785	-2.186936	103.786785	-4.800258	-166.730351
5.150000	-5.077751	-168.677284	-2.197494	101.273471	-2.197494	101.273471	-4.787562	-167.871976
5.200000	-5.079109	-172.602538	-2.207059	98.745853	-2.207059	98.745853	-4.776766	-168.990179
5.250000	-5.082474	-176.586679	-2.215729	96.202963	-2.215729	96.202963	-4.767670	-170.084336
5.300000	-5.087617	179.367396	-2.223611	93.643844	-2.223611	93.643844	-4.760060	-171.153845
5.350000	-5.094286	175.256844	-2.230826	91.067558	-2.230826	91.067558	-4.753706	-172.198129
5.400000	-5.102207	171.078909	-2.237506	88.473189	-2.237506	88.473189	-4.748361	-173.216659
5.450000	-5.111080	166.830957	-2.243797	85.859849	-2.243797	85.859849	-4.743759	-174.208962
5.500000	-5.120580	162.510509	-2.249856	83.226687	-2.249856	83.226687	-4.739617	-175.174646
5.550000	-5.130354	158.115290	-2.255853	80.572894	-2.255853	80.572894	-4.735631	-176.113413
5.600000	-5.140023	153.643272	-2.261972	77.897713	-2.261972	77.897713	-4.731478	-177.025092
5.650000	-5.149169	149.091856	-2.268412	75.200195	-2.268412	75.200195	-4.726809	-177.909361
5.700000	-5.157345	144.459633	-2.275388	72.479690	-2.275388	72.479690	-4.721251	-178.766379
5.750000	-5.164101	139.746524	-2.283118	69.735887	-2.283118	69.735887	-4.714434	-179.596804
5.800000	-5.168958	134.952069	-2.291832	66.968321	-2.291832	66.968321	-4.705970	179.598768
5.850000	-5.171426	130.076339	-2.301771	64.176621	-2.301771	64.176621	-4.695462	178.819485
5.900000	-5.171006	125.119987	-2.313187	61.360520	-2.313187	61.360520	-4.682509	178.064209
5.950000	-5.167197	120.084300	-2.326337	58.519864	-2.326337	58.519864	-4.666710	177.331497
6.000000	-5.159507	114.971236	-2.341488	55.654618	-2.341488	55.654618	-4.647673	176.619585
6.050000	-5.147464	109.783451	-2.358910	52.764876	-2.358910	52.764876	-4.625021	175.926379
6.100000	-5.130623	104.524316	-2.378876	49.850866	-2.378876	49.850866	-4.598402	175.249451
6.150000	-5.108585	99.197911	-2.401663	46.912952	-2.401663	46.912952	-4.567493	174.586053
6.200000	-5.081002	93.809004	-2.427544	43.951644	-2.427544	43.951644	-4.532015	173.933130
6.250000	-5.047593	88.363006	-2.456790	40.967591	-2.456790	40.967591	-4.491735	173.287358
6.300000	-5.008015	82.864948	-2.489747	37.961133	-2.489747	37.961133	-4.446362	172.645174
6.350000	-4.962283	77.322593	-2.526599	34.933707	-2.526599	34.933707	-4.395897	172.002681
6.400000	-4.910376	71.742837	-2.567591	31.886389	-2.567591	31.886389	-4.340303	171.356037
6.450000	-4.852370	66.132839	-2.612951	28.820378	-2.612951	28.820378	-4.279615	170.701366
6.500000	-4.788437	60.499890	-2.662893	25.736985	-2.662893	25.736985	-4.213941	170.034838
6.550000	-4.718843	54.851276	-2.717611	22.637618	-2.717611	22.637618	-4.143460	169.352742
6.600000	-4.643944	49.194144	-2.777280	19.523764	-2.777280	19.523764	-4.068423	168.651568
6.650000	-4.564176	43.535373	-2.842050	16.396971	-2.842050	16.396971	-3.989142	167.928070
6.700000	-4.480044	37.881450	-2.912049	13.258825	-2.912049	13.258825	-3.905983	167.179334
6.750000	-4.392107	32.238366	-2.987381	10.110923	-2.987381	10.110923	-3.819360	166.402821
6.800000	-4.300969	26.611520	-3.068124	6.954853	-3.068124	6.954853	-3.729722	165.596410
6.850000	-4.207260	21.005649	-3.154334	3.792163	-3.154334	3.792163	-3.637543	164.758418
6.900000	-4.111598	15.425078	-3.246091	0.624298	-3.246091	0.624298	-3.543283	163.887243
6.950000	-4.014647	9.873143	-3.343399	-2.547309	-3.343399	-2.547309	-3.447447	162.982084
7.000000	-3.917069	4.351991	-3.446197	-5.721334	-3.446197	-5.721334	-3.350552	162.042960
7.050000	-3.819469	-1.136755	-3.554457	-8.896657	-3.554457	-8.896657	-3.253063	161.069929
7.100000	-3.722419	-6.592259	-3.668137	-12.072323	-3.668137	-12.072323	-3.155422	160.063407
7.150000	-3.626452	-12.014460	-3.787187	-15.247563	-3.787187	-15.247563	-3.058036	159.024125
7.200000	-3.532055	-17.404055	-3.911550	-18.421813	-3.911550	-18.421813	-2.961280	157.953084
7.250000	-3.439666	-22.762475	-4.041171	-21.594730	-4.041171	-21.594730	-2.865488	156.851504
7.300000	-3.349675	-28.091859	-4.175998	-24.766202	-4.175998	-24.766202	-2.770953	155.720778
7.350000	-3.262422	-33.395032	-4.315991	-27.936361	-4.315991	-27.936361	-2.677924	154.562426
7.400000	-3.178195	-38.675471	-4.461124	-31.105587	-4.461124	-31.105587	-2.586610	153.378048
7.450000	-3.097239	-43.937290	-4.611396	-34.274514	-4.611396	-34.274514	-2.497178	152.169286
7.500000	-3.019750	-49.185215	-4.766832	-37.444030	-4.766832	-37.444030	-2.409758	150.937787
7.550000	-2.945952	-54.424515	-4.927542	-40.615351	-4.927542	-40.615351	-2.324470	149.684750
7.600000	-2.875901	-59.661434	-5.093582	-43.789877	-5.093582	-43.789877	-2.241345	148.412230
7.650000	-2.809673	-64.902471	-5.265108	-46.969267	-5.265108	-46.969267	-2.160410	147.121708
7.700000	-2.747313	-70.154680	-5.442340	-50.155416	-5.442340	-50.155416	-2.081663	145.814566
7.750000	-2.688837	-75.425657	-5.625565	-53.350447	-5.625565	-53.350447	-2.005077	144.492071
7.800000	-2.634231	-80.723533	-5.815148	-56.556693	-5.815148	-56.556693	-1.930607	143.155362
7.850000	-2.583455	-86.056964	-6.011546	-59.776684	-6.011546	-59.776684	-1.858189	141.805441
7.900000	-2.536445	-91.435114	-6.215317	-63.013123	-6.215317	-63.013123	-1.787746	140.443162
7.950000	-2.493113	-96.867644	-6.427135	-66.268857	-6.427135	-66.268857	-1.719189	139.069231
8.000000	-2.453345	-102.364677	-6.647811	-69.546845	-6.647811	-69.546845	-1.652424	137.684195
8.050000	-2.417004	-107.936767	-6.878302	-72.850110	-6.878302	-72.850110	-1.587348	136.288440
8.100000	-2.383924	-113.594839	-7.119743	-76.181684	-7.119743	-76.181684	-1.523863	134.882193
8.150000	-2.353941	-119.351299	-7.373527	-79.544907	-7.373527	-79.544907	-1.461880	133.465402
8.200000	-2.326819	-125.217951	-7.641242	-82.942675	-7.641242	-82.942675	-1.401304	132.037958
8.250000	-2.302261	-131.205195	-7.924653	-86.377152	-7.924653	-86.377152	-1.342043	130.599708
8.300000	-2.279963	-137.324336	-8.225880	-89.850396	-8.225880	-89.850396	-1.284031	129.150231
8.350000	-2.259575	-143.586292	-8.547383	-93.363815	-8.547383	-93.363815	-1.227218	127.688965
8.400000	-2.240700	-150.001292	-8.892018	-96.917918	-8.892018	-96.917918	-1.171583	126.215225
8.450000	-2.222893	-156.578520	-9.263096	-100.511987	-9.263096	-100.511987	-1.117130	124.728219
8.500000	-2.205659	-163.325691	-9.664457	-104.143664	-9.664457	-104.143664	-1.063899	123.227086
8.550000	-2.188470	-170.244661	-10.100211	-107.807872	-10.100211	-107.807872	-1.011942	121.711279
8.600000	-2.170725	-177.347476	-10.576316	-111.498655	-10.576316	-111.498655	-0.961432	120.179155
8.650000	-2.151819	175.370501	-11.098437	-115.203917	-11.098437	-115.203917	-0.912506	118.630331
8.700000	-2.131139	167.912761	-11.673694	-118.907469	-11.673694	-118.907469	-0.865376	117.064173
8.750000	-2.108090	160.286954	-12.310506	-122.586441	-12.310506	-122.586441	-0.820296	115.480284
8.800000	-2.082094	152.503806	-13.019142	-126.207760	-13.019142	-126.207760	-0.777581	113.878398
8.850000	-2.052723	144.582371	-13.811532	-129.726421	-13.811532	-129.726421	-0.737534	112.259055
8.900000	-2.019652	136.544701	-14.702599	-133.078374	-14.702599	-133.078374	-0.700484	110.623072
8.950000	-1.982710	128.417405	-15.711023	-136.171000	-15.711023	-136.171000	-0.666759	108.971789
9.000000	-1.941913	120.231073	-16.860634	-138.865957	-16.860634	-138.865957	-0.636660	107.307069
9.050000	-1.897466	112.019404	-18.182265	-140.947372	-18.182265	-140.947372	-0.610441	105.631276
9.100000	-1.849742	103.818497	-19.715219	-142.046535	-19.715219	-142.046535	-0.588322	103.947154
9.150000	-1.799338	95.665228	-21.506555	-141.524789	-21.506555	-141.524789	-0.570382	102.257887
9.200000	-1.746962	87.595326	-23.594533	-138.186099	-23.594533	-138.186099	-0.556612	100.566744
9.250000	-1.693399	79.642626	-25.920123	-129.773917	-25.920123	-129.773917	-0.546914	98.876949
9.300000	-1.639465	71.837945	-28.004085	-113.087069	-28.004085	-113.087069	-0.541093	97.191539
9.350000	-1.585957	64.208248	-28.615068	-89.163621	-28.615068	-89.163621	-0.538872	95.513210
9.400000	-1.533625	56.777838	-27.307852	-68.663632	-27.307852	-68.663632	-0.539931	93.844294
9.450000	-1.483128	49.564937	-25.321235	-57.040016	-25.321235	-57.040016	-0.543869	92.186536
9.500000	-1.434953	42.577704	-23.458190	-51.530592	-23.458190	-51.530592	-0.550218	90.540813
9.550000	-1.389552	35.829746	-21.878779	-49.505809	-21.878779	-49.505809	-0.558617	88.907987
9.600000	-1.347274	29.329772	-20.567052	-49.395341	-20.567052	-49.395341	-0.568678	87.288370
9.650000	-1.308169	23.068219	-19.471791	-50.334093	-19.471791	-50.334093	-0.579967	85.681075
9.700000	-1.272374	17.047747	-18.549348	-51.921753	-18.549348	-51.921753	-0.592188	84.085685
9.750000	-1.239892	11.263982	-17.765013	-53.906783	-17.765013	-53.906783	-0.605058	82.501290
9.800000	-1.210664	5.710641	-17.092191	-56.137074	-17.092191	-56.137074	-0.618340	80.926811
9.850000	-1.184583	0.380002	-16.510444	-58.516781	-16.510444	-58.516781	-0.631842	79.361071
9.900000	-1.161507	-4.736682	-16.003878	-60.983568	-16.003878	-60.983568	-0.645416	77.802857
9.950000	-1.141274	-9.648834	-15.559954	-63.495953	-15.559954	-63.495953	-0.658952	76.250966
10.000000	-1.123706	-14.366259	-15.168645	-66.025917	-15.168645	-66.025917	-0.672373	74.704244
