! freq	dB(S11)	phase(S11)	dB(S12)	phase(S12)	
!     	dB(S21)	phase(S21)	dB(S22)	phase(S22)	
!S-par simulation data
#  GHz  S  DB  R 50
0.000000	-0.000000	0.000000	-304.883339	0.000000	-304.883339	0.000000	0.000000	0.000000
0.050000	-0.000173	-0.768972	-102.511843	169.831020	-102.511843	169.831020	-0.000079	-0.759049
0.100000	-0.000667	-1.537221	-102.133721	158.764977	-102.133721	158.764977	-0.000315	-1.517937
0.150000	-0.001417	-2.304181	-101.584841	149.272608	-101.584841	149.272608	-0.000705	-2.276496
0.200000	-0.002328	-3.069722	-100.955158	141.138997	-100.955158	141.138997	-0.001230	-3.034619
0.250000	-0.003335	-3.833789	-100.303671	134.309446	-100.303671	134.309446	-0.001881	-3.792177
0.300000	-0.004387	-4.596390	-99.675127	128.728192	-99.675127	128.728192	-0.002656	-4.548997
0.350000	-0.005446	-5.357930	-99.099499	124.038172	-99.099499	124.038172	-0.003520	-5.305117
0.400000	-0.006495	-6.118416	-98.593670	120.237898	-98.593670	120.237898	-0.004472	-6.060369
0.450000	-0.007529	-6.878085	-98.163676	117.137351	-98.163676	117.137351	-0.005490	-6.814783
0.500000	-0.008548	-7.637002	-97.815920	114.692897	-97.815920	114.692897	-0.006562	-7.568300
0.550000	-0.009554	-8.395246	-97.552523	112.855340	-97.552523	112.855340	-0.007675	-8.320915
0.600000	-0.010550	-9.152858	-97.374761	111.614192	-97.374761	111.614192	-0.008815	-9.072628
0.650000	-0.011541	-9.909859	-97.283026	110.991902	-97.283026	110.991902	-0.009974	-9.823448
0.700000	-0.012529	-10.666255	-97.276530	111.046354	-97.276530	111.046354	-0.011143	-10.573390
0.750000	-0.013517	-11.422042	-97.352206	111.875471	-97.352206	111.875471	-0.012314	-11.322471
0.800000	-0.014506	-12.177209	-97.502442	113.622653	-97.502442	113.622653	-0.013482	-12.070712
0.850000	-0.015499	-12.931628	-97.708651	116.741306	-97.708651	116.741306	-0.014640	-12.817993
0.900000	-0.016494	-13.685368	-97.941003	121.261421	-97.941003	121.261421	-0.015787	-13.564437
0.950000	-0.017491	-14.438754	-98.127458	126.619137	-98.127458	126.619137	-0.016927	-14.310476
1.000000	-0.018493	-15.191075	-98.159609	134.489657	-98.159609	134.489657	-0.018045	-15.055300
1.050000	-0.019495	-15.943147	-98.083391	142.666521	-98.083391	142.666521	-0.019157	-15.799861
1.100000	-0.020501	-16.693976	-97.489228	152.375108	-97.489228	152.375108	-0.020242	-16.543109
1.150000	-0.021507	-17.444674	-96.864842	161.934785	-96.864842	161.934785	-0.021325	-17.286227
1.200000	-0.022514	-18.193942	-95.609495	169.856444	-95.609495	169.856444	-0.022380	-18.027918
1.250000	-0.023521	-18.943209	-94.512880	177.778104	-94.512880	177.778104	-0.023434	-18.769608
1.300000	-0.024527	-19.691266	-93.131256	-176.708418	-93.131256	-176.708418	-0.024468	-19.510129
1.350000	-0.025532	-20.438529	-91.736649	-172.566273	-91.736649	-172.566273	-0.025489	-20.249897
1.400000	-0.026536	-21.184986	-90.370977	-169.543936	-90.370977	-169.543936	-0.026499	-20.988906
1.450000	-0.027537	-21.930622	-89.055262	-167.406687	-89.055262	-167.406687	-0.027499	-21.727146
1.500000	-0.028536	-22.675426	-87.798071	-165.960655	-87.798071	-165.960655	-0.028490	-22.464609
1.550000	-0.029532	-23.419383	-86.601177	-165.053998	-86.601177	-165.053998	-0.029473	-23.201282
1.600000	-0.030526	-24.162481	-85.462905	-164.570411	-85.462905	-164.570411	-0.030449	-23.937155
1.650000	-0.031517	-24.904707	-84.379991	-164.421376	-84.379991	-164.421376	-0.031419	-24.672215
1.700000	-0.032504	-25.645735	-83.324422	-164.608321	-83.324422	-164.608321	-0.032383	-25.406153
1.750000	-0.033489	-26.386296	-82.351226	-164.915760	-82.351226	-164.915760	-0.033345	-26.139654
1.800000	-0.034472	-27.125743	-81.407142	-165.421058	-81.407142	-165.421058	-0.034303	-26.872106
1.850000	-0.035452	-27.864393	-80.511277	-166.067685	-80.511277	-166.067685	-0.035258	-27.603808
1.900000	-0.036430	-28.602059	-79.649362	-166.828426	-79.649362	-166.828426	-0.036213	-28.334578
1.950000	-0.037406	-29.338741	-78.819988	-167.703281	-78.819988	-167.703281	-0.037165	-29.064414
2.000000	-0.038380	-30.074579	-78.027318	-168.644302	-78.027318	-168.644302	-0.038118	-29.793445
2.050000	-0.039353	-30.809237	-77.255305	-169.677957	-77.255305	-169.677957	-0.039071	-30.521349
2.100000	-0.040325	-31.543200	-76.521583	-170.749476	-76.521583	-170.749476	-0.040025	-31.248585
2.150000	-0.041296	-32.275774	-75.799416	-171.896722	-75.799416	-171.896722	-0.040980	-31.974488
2.200000	-0.042268	-33.007814	-75.116412	-173.064743	-75.116412	-173.064743	-0.041937	-32.699873
2.250000	-0.043239	-33.738249	-74.437924	-174.295090	-74.437924	-174.295090	-0.042897	-33.423708
2.300000	-0.044211	-34.468318	-73.798999	-175.535752	-73.798999	-175.535752	-0.043858	-34.147187
2.350000	-0.045184	-35.196556	-73.159100	-176.827994	-73.159100	-176.827994	-0.044825	-34.868888
2.400000	-0.046158	-35.924606	-72.558838	-178.124132	-72.558838	-178.124132	-0.045793	-35.590406
2.450000	-0.047136	-36.650591	-71.953294	-179.463129	-71.953294	-179.463129	-0.046769	-36.309909
2.500000	-0.048114	-37.376575	-71.387229	179.197873	-71.387229	179.197873	-0.047744	-37.029413
2.550000	-0.049097	-38.100251	-70.812480	177.823178	-70.812480	177.823178	-0.048729	-37.746659
2.600000	-0.050081	-38.823927	-70.273414	176.448483	-70.273414	176.448483	-0.049715	-38.463905
2.650000	-0.051072	-39.545437	-69.729914	175.048613	-69.729914	175.048613	-0.050711	-39.179026
2.700000	-0.052064	-40.266751	-69.215355	173.646455	-69.215355	173.646455	-0.051707	-39.893955
2.750000	-0.053064	-40.986051	-68.699873	172.226606	-68.699873	172.226606	-0.052715	-40.606906
2.800000	-0.054066	-41.704948	-68.207670	170.803218	-68.207670	170.803218	-0.053724	-41.319462
2.850000	-0.055077	-42.421996	-67.717456	169.367494	-67.717456	169.367494	-0.054744	-42.030199
2.900000	-0.056091	-43.138427	-67.245736	167.927658	-67.245736	167.927658	-0.055768	-42.740328
2.950000	-0.057115	-43.853182	-66.778431	166.479328	-66.778431	166.479328	-0.056802	-43.448808
3.000000	-0.058143	-44.567098	-66.325555	165.026752	-66.325555	165.026752	-0.057840	-44.156462
3.050000	-0.059180	-45.279521	-65.879118	163.568436	-65.879118	163.568436	-0.058889	-44.862644
3.100000	-0.060224	-45.990876	-65.443638	162.106019	-65.443638	162.106019	-0.059944	-45.567775
3.150000	-0.061276	-46.700929	-65.016292	160.639822	-65.016292	160.639822	-0.061008	-46.271623
3.200000	-0.062338	-47.409679	-64.596925	159.169844	-64.596925	159.169844	-0.062081	-46.974187
3.250000	-0.063407	-48.117326	-64.187112	157.697465	-64.187112	157.697465	-0.063161	-47.675665
3.300000	-0.064488	-48.823430	-63.782716	156.221723	-63.782716	156.221723	-0.064253	-48.375622
3.350000	-0.065576	-49.528639	-63.389063	154.744532	-63.389063	154.744532	-0.065351	-49.074697
3.400000	-0.066678	-50.232058	-62.998613	153.264444	-62.998613	153.264444	-0.066463	-49.772008
3.450000	-0.067786	-50.934798	-62.619904	151.783547	-62.619904	151.783547	-0.067580	-50.468650
3.500000	-0.068911	-51.635497	-62.242480	150.300226	-62.242480	150.300226	-0.068713	-51.163282
3.550000	-0.070041	-52.335737	-61.877632	148.816511	-61.877632	148.816511	-0.069850	-51.857462
3.600000	-0.071190	-53.033683	-61.512407	147.330828	-61.512407	147.330828	-0.071006	-52.549383
3.650000	-0.072342	-53.731398	-61.160452	145.845004	-61.160452	145.845004	-0.072164	-53.241075
3.700000	-0.073518	-54.426562	-60.806676	144.357632	-60.806676	144.357632	-0.073343	-53.930256
3.750000	-0.074695	-55.121726	-60.466748	142.870260	-60.466748	142.870260	-0.074523	-54.619437
3.800000	-0.075898	-55.814081	-60.123744	141.381713	-60.123744	141.381713	-0.075728	-55.305853
3.850000	-0.077102	-56.506436	-59.793772	139.893165	-59.793772	139.893165	-0.076933	-55.992270
3.900000	-0.078333	-57.196196	-59.462214	138.403890	-59.462214	138.403890	-0.078163	-56.676131
3.950000	-0.079567	-57.885719	-59.141652	136.914550	-59.141652	136.914550	-0.079395	-57.359760
4.000000	-0.080826	-58.572865	-58.820826	135.424779	-58.820826	135.424779	-0.080650	-58.041050
4.050000	-0.082091	-59.259536	-58.509177	133.934922	-58.509177	133.934922	-0.081910	-58.721872
4.100000	-0.083380	-59.944054	-58.198436	132.444822	-58.198436	132.444822	-0.083192	-59.400578
4.150000	-0.084678	-60.627855	-57.895247	130.954642	-57.895247	130.954642	-0.084482	-60.078577
4.200000	-0.085998	-61.309734	-57.594007	129.464329	-57.594007	129.464329	-0.085793	-60.754685
4.250000	-0.087329	-61.990651	-57.298866	127.973950	-57.298866	127.973950	-0.087115	-61.429848
4.300000	-0.088682	-62.669880	-57.006599	126.483500	-57.006599	126.483500	-0.088455	-62.103349
4.350000	-0.090049	-63.347903	-56.719130	124.992997	-56.719130	124.992997	-0.089810	-62.775664
4.400000	-0.091435	-64.024475	-56.435354	123.502451	-56.435354	123.502451	-0.091181	-63.446552
4.450000	-0.092840	-64.699595	-56.155215	122.011861	-56.155215	122.011861	-0.092571	-64.116011
4.500000	-0.094261	-65.373504	-55.879495	120.521239	-55.879495	120.521239	-0.093975	-64.784279
4.550000	-0.095705	-66.045717	-55.606376	119.030572	-55.606376	119.030572	-0.095400	-65.450878
4.600000	-0.097162	-66.716961	-55.338313	117.539877	-55.338313	117.539877	-0.096839	-66.116522
4.650000	-0.098646	-67.386264	-55.071931	116.049128	-55.071931	116.049128	-0.098303	-66.780258
4.700000	-0.100141	-68.054841	-54.811164	114.558356	-54.811164	114.558356	-0.099776	-67.443277
4.750000	-0.101666	-68.721237	-54.551262	113.067515	-54.551262	113.067515	-0.101280	-68.104149
4.800000	-0.103200	-69.387148	-54.297459	111.576658	-54.297459	111.576658	-0.102791	-68.764545
4.850000	-0.104769	-70.050639	-54.043805	110.085717	-54.043805	110.085717	-0.104337	-69.422556
4.900000	-0.106343	-70.713888	-53.796664	108.594768	-53.796664	108.594768	-0.105887	-70.080328
4.950000	-0.107957	-71.374482	-53.549045	107.103731	-53.549045	107.103731	-0.107476	-70.735483
5.000000	-0.109572	-72.035075	-53.308290	105.612694	-53.308290	105.612694	-0.109066	-71.390638
5.050000	-0.111233	-72.692780	-53.066513	104.121579	-53.066513	104.121579	-0.110701	-72.042944
5.100000	-0.112894	-73.350485	-52.831284	102.630465	-52.831284	102.630465	-0.112337	-72.695250
5.150000	-0.114599	-74.005553	-52.595778	101.139319	-52.595778	101.139319	-0.114016	-73.344954
5.200000	-0.116309	-74.660382	-52.365915	99.648170	-52.365915	99.648170	-0.115700	-73.994421
5.250000	-0.118059	-75.312826	-52.136445	98.157050	-52.136445	98.157050	-0.117424	-74.641531
5.300000	-0.119819	-75.964793	-51.911802	96.665936	-51.911802	96.665936	-0.119157	-75.288171
5.350000	-0.121616	-76.614627	-51.688150	95.174922	-51.688150	95.174922	-0.120929	-75.932701
5.400000	-0.123426	-77.263750	-51.468593	93.683943	-51.468593	93.683943	-0.122714	-76.576528
5.450000	-0.125272	-77.910990	-51.250556	92.193141	-51.250556	92.193141	-0.124534	-77.218491
5.500000	-0.127135	-78.557288	-51.035959	90.702429	-51.035959	90.702429	-0.126373	-77.859521
5.550000	-0.129030	-79.201951	-50.823348	89.211971	-50.823348	89.211971	-0.128244	-78.498930
5.600000	-0.130947	-79.845446	-50.613593	87.721695	-50.613593	87.721695	-0.130139	-79.137183
5.650000	-0.132893	-80.487552	-50.406230	86.231737	-50.406230	86.231737	-0.132062	-79.774056
5.700000	-0.134867	-81.128269	-50.201206	84.742098	-50.201206	84.742098	-0.134014	-80.409550
5.750000	-0.136864	-81.767840	-49.998923	83.252823	-49.998923	83.252823	-0.135992	-81.043905
5.800000	-0.138895	-82.405804	-49.798522	81.764058	-49.798522	81.764058	-0.138004	-81.676665
5.850000	-0.140946	-83.042861	-49.601157	80.275674	-49.601157	80.275674	-0.140037	-82.308521
5.900000	-0.143037	-83.678103	-49.405275	78.788050	-49.405275	78.788050	-0.142111	-82.938570
5.950000	-0.145143	-84.312671	-49.212675	77.300786	-49.212675	77.300786	-0.144201	-83.567948
6.000000	-0.147294	-84.945220	-49.021206	75.814600	-49.021206	75.814600	-0.146339	-84.195313
6.050000	-0.149456	-85.577325	-48.833221	74.328708	-48.833221	74.328708	-0.148488	-84.822235
6.100000	-0.151670	-86.207213	-48.646059	72.844280	-48.646059	72.844280	-0.150692	-85.446944
6.150000	-0.153889	-86.836883	-48.462545	71.360026	-48.462545	71.360026	-0.152902	-86.071434
6.200000	-0.156167	-87.464145	-48.279582	69.877695	-48.279582	69.877695	-0.155173	-86.693518
6.250000	-0.158445	-88.091407	-48.100395	68.395363	-48.100395	68.395363	-0.157445	-87.315601
6.300000	-0.160789	-88.716080	-47.921520	66.915477	-47.921520	66.915477	-0.159786	-87.935091
6.350000	-0.163133	-89.340752	-47.746254	65.435591	-47.746254	65.435591	-0.162128	-88.554581
6.400000	-0.165539	-89.963086	-47.571613	63.958273	-47.571613	63.958273	-0.164535	-89.171724
6.450000	-0.167951	-90.585206	-47.400161	62.481187	-47.400161	62.481187	-0.166948	-89.788654
6.500000	-0.170420	-91.205233	-47.229599	61.006726	-47.229599	61.006726	-0.169422	-90.403480
6.550000	-0.172901	-91.824840	-47.061845	59.532791	-47.061845	59.532791	-0.171908	-91.017885
6.600000	-0.175434	-92.442594	-46.895206	58.061470	-46.895206	58.061470	-0.174451	-91.630425
6.650000	-0.177986	-93.059730	-46.731029	56.591020	-46.731029	56.591020	-0.177012	-92.242343
6.700000	-0.180586	-93.675247	-46.568156	55.123103	-46.568156	55.123103	-0.179625	-92.852629
6.750000	-0.183211	-94.289954	-46.407426	53.656453	-46.407426	53.656453	-0.182263	-93.462099
6.800000	-0.185879	-94.903268	-46.248160	52.192182	-46.248160	52.192182	-0.184946	-94.070164
6.850000	-0.188578	-95.515589	-46.090740	50.729610	-46.090740	50.729610	-0.187663	-94.677226
6.900000	-0.191315	-96.126740	-45.934920	49.269196	-45.934920	49.269196	-0.190419	-95.283106
6.950000	-0.194090	-96.736719	-45.780666	47.810939	-45.780666	47.810939	-0.193214	-95.887803
7.000000	-0.196898	-97.345743	-45.628129	46.354556	-45.628129	46.354556	-0.196044	-96.491532
7.050000	-0.199751	-97.953428	-45.476886	44.900797	-45.476886	44.900797	-0.198920	-97.093907
7.100000	-0.202631	-98.560364	-45.327468	43.448575	-45.327468	43.448575	-0.201825	-97.695524
7.150000	-0.205564	-99.165801	-45.179076	41.999430	-45.179076	41.999430	-0.204783	-98.295624
7.200000	-0.208518	-99.770689	-45.032609	40.551449	-45.032609	40.551449	-0.207763	-98.895167
7.250000	-0.211532	-100.373926	-44.886900	39.106960	-44.886900	39.106960	-0.210804	-99.493039
7.300000	-0.214561	-100.976806	-44.743216	37.663240	-44.743216	37.663240	-0.213861	-100.090548
7.350000	-0.217659	-101.577893	-44.600014	36.223366	-44.600014	36.223366	-0.216986	-100.686241
7.400000	-0.220766	-102.178805	-44.458944	34.783864	-44.458944	34.783864	-0.220119	-101.281757
7.450000	-0.223949	-102.777792	-44.318069	33.348467	-44.318069	33.348467	-0.223329	-101.875322
7.500000	-0.227133	-103.376778	-44.179442	31.913069	-44.179442	31.913069	-0.226541	-102.468888
7.550000	-0.230404	-103.973715	-44.040708	30.481907	-44.040708	30.481907	-0.229836	-103.060378
7.600000	-0.233676	-104.570652	-43.904155	29.050744	-43.904155	29.050744	-0.233132	-103.651869
7.650000	-0.237028	-105.165757	-43.767571	27.623139	-43.767571	27.623139	-0.236506	-104.241508
7.700000	-0.240389	-105.760695	-43.632910	26.195858	-43.632910	26.195858	-0.239887	-104.830978
7.750000	-0.243825	-106.354011	-43.498297	24.771413	-43.498297	24.771413	-0.243340	-105.418813
7.800000	-0.247277	-106.947003	-43.365343	23.347536	-43.365343	23.347536	-0.246807	-106.006320
7.850000	-0.250798	-107.538575	-43.232524	21.925757	-43.232524	21.925757	-0.250338	-106.592398
7.900000	-0.254343	-108.129673	-43.101092	20.504677	-43.101092	20.504677	-0.253890	-107.178001
7.950000	-0.257951	-108.719543	-42.969894	19.084966	-42.969894	19.084966	-0.257499	-107.762374
8.000000	-0.261591	-109.308801	-42.839798	17.665940	-42.839798	17.665940	-0.261137	-108.346132
8.050000	-0.265288	-109.897015	-42.710052	16.247592	-42.710052	16.247592	-0.264824	-108.928851
8.100000	-0.269025	-110.484485	-42.581111	14.829728	-42.581111	14.829728	-0.268546	-109.510828
8.150000	-0.272812	-111.071088	-42.452655	13.411924	-42.452655	13.411924	-0.272310	-110.091948
8.200000	-0.276648	-111.656825	-42.324690	11.994181	-42.324690	11.994181	-0.276116	-110.672208
8.250000	-0.280527	-112.241861	-42.197369	10.575985	-42.197369	10.575985	-0.279957	-111.251782
8.300000	-0.284465	-112.825918	-42.070210	9.157158	-42.070210	9.157158	-0.283845	-111.830395
8.350000	-0.288437	-113.409434	-41.943876	7.737512	-41.943876	7.737512	-0.287760	-112.408480
8.400000	-0.292478	-113.991865	-41.817361	6.316231	-41.817361	6.316231	-0.291729	-112.985513
8.450000	-0.296546	-114.573905	-41.691877	4.893949	-41.691877	4.893949	-0.295718	-113.562170
8.500000	-0.300692	-115.154766	-41.565857	3.468668	-41.565857	3.468668	-0.299766	-114.137696
8.550000	-0.304857	-115.735375	-41.441098	2.042433	-41.441098	2.042433	-0.303827	-114.712984
8.600000	-0.309111	-116.314720	-41.315438	0.611428	-41.315438	0.611428	-0.307951	-115.287079
8.650000	-0.313376	-116.893944	-41.191292	-0.820213	-41.191292	-0.820213	-0.312082	-115.861061
8.700000	-0.317739	-117.471828	-41.065876	-2.258853	-41.065876	-2.258853	-0.316280	-116.433802
8.750000	-0.322104	-118.049711	-40.942246	-3.697493	-40.942246	-3.697493	-0.320480	-117.006542
8.800000	-0.326579	-118.626189	-40.816982	-5.145871	-40.816982	-5.145871	-0.324748	-117.578010
8.850000	-0.331057	-119.202666	-40.693499	-6.594249	-40.693499	-6.594249	-0.329018	-118.149478
8.900000	-0.335637	-119.777903	-40.568611	-8.053659	-40.568611	-8.053659	-0.333347	-118.719855
8.950000	-0.340228	-120.353028	-40.445212	-9.514072	-40.445212	-9.514072	-0.337685	-119.290134
9.000000	-0.344915	-120.927071	-40.320671	-10.986593	-40.320671	-10.986593	-0.342072	-119.859494
9.050000	-0.349623	-121.500897	-40.197324	-12.461536	-40.197324	-12.461536	-0.346472	-120.428670
9.100000	-0.354419	-122.073791	-40.073131	-13.949393	-40.073131	-13.949393	-0.350915	-120.997088
9.150000	-0.359246	-122.646374	-39.949843	-15.441555	-39.949843	-15.441555	-0.355372	-121.565253
9.200000	-0.364152	-123.218163	-39.826033	-16.947116	-39.826033	-16.947116	-0.359865	-122.132807
9.250000	-0.369100	-123.789556	-39.702855	-18.459378	-39.702855	-18.459378	-0.364375	-122.700055
9.300000	-0.374119	-124.360286	-39.579501	-19.985150	-39.579501	-19.985150	-0.368913	-123.266825
9.350000	-0.379190	-124.930542	-39.456537	-21.520571	-39.456537	-21.520571	-0.373471	-123.833255
9.400000	-0.384324	-125.500257	-39.333755	-23.069183	-39.333755	-23.069183	-0.378048	-124.399326
9.450000	-0.389521	-126.069430	-39.211170	-24.630986	-39.211170	-24.630986	-0.382646	-124.965039
9.500000	-0.394771	-126.638174	-39.089123	-26.205178	-39.089123	-26.205178	-0.387258	-125.530499
9.550000	-0.400096	-127.206317	-38.967155	-27.796715	-38.967155	-27.796715	-0.391889	-126.095602
9.600000	-0.405465	-127.774134	-38.846062	-29.399312	-38.846062	-29.399312	-0.396529	-126.660540
9.650000	-0.410920	-128.341298	-38.725029	-31.024028	-38.725029	-31.024028	-0.401184	-127.225146
9.700000	-0.416410	-128.908232	-38.605167	-32.657908	-38.605167	-32.657908	-0.405845	-127.789657
9.750000	-0.421999	-129.474470	-38.485481	-34.319278	-38.485481	-34.319278	-0.410516	-128.353881
9.800000	-0.427612	-130.040563	-38.367194	-35.987329	-38.367194	-35.987329	-0.415191	-128.918063
9.850000	-0.433335	-130.605927	-38.249371	-37.688782	-38.249371	-37.688782	-0.419868	-129.482028
9.900000	-0.439073	-131.171222	-38.133074	-39.393848	-38.133074	-39.393848	-0.424547	-130.045981
9.950000	-0.444934	-131.735761	-38.017748	-41.138661	-38.017748	-41.138661	-0.429219	-130.609814
10.000000	-0.450799	-132.300300	-37.903933	-42.883473	-37.903933	-42.883473	-0.433894	-131.173647
