! freq	dB(S11)	phase(S11)	dB(S12)	phase(S12)	
!     	dB(S21)	phase(S21)	dB(S22)	phase(S22)	
!S-par simulation data
#  GHz  S  DB  R 50
0.000000	-0.000000	0.000000	-340.257014	180.000000	-340.257014	180.000000	-0.000000	0.000000
0.050000	-0.000249	-1.790393	-83.831696	91.170273	-83.831696	91.170273	-0.000110	-0.949437
0.100000	-0.000981	-3.580024	-78.110669	92.080684	-78.110669	92.080684	-0.000434	-1.898626
0.150000	-0.002171	-5.368155	-75.061689	92.529688	-75.061689	92.529688	-0.000965	-2.847323
0.200000	-0.003761	-7.154195	-73.161732	92.430443	-73.161732	92.430443	-0.001683	-3.795329
0.250000	-0.005699	-8.937603	-71.918797	91.767559	-71.918797	91.767559	-0.002570	-4.742459
0.300000	-0.007921	-10.717962	-71.096876	90.592556	-71.096876	90.592556	-0.003604	-5.688565
0.350000	-0.010363	-12.494966	-70.562660	88.990605	-70.562660	88.990605	-0.004761	-6.633537
0.400000	-0.012964	-14.268405	-70.233585	87.058104	-70.233585	87.058104	-0.006017	-7.577295
0.450000	-0.015669	-16.038145	-70.055806	84.888840	-70.055806	84.888840	-0.007350	-8.519793
0.500000	-0.018433	-17.804115	-69.993120	82.567138	-69.993120	82.567138	-0.008739	-9.461009
0.550000	-0.021218	-19.566281	-70.020750	80.165608	-70.020750	80.165608	-0.010166	-10.400939
0.600000	-0.023993	-21.324632	-70.121613	77.745467	-70.121613	77.745467	-0.011615	-11.339596
0.650000	-0.026738	-23.079126	-70.284506	75.358993	-70.284506	75.358993	-0.013074	-12.276986
0.700000	-0.029435	-24.829762	-70.501271	73.051235	-70.501271	73.051235	-0.014533	-13.213137
0.750000	-0.032077	-26.576573	-70.766321	70.859981	-70.766321	70.859981	-0.015983	-14.148089
0.800000	-0.034658	-28.319541	-71.076818	68.820558	-71.076818	68.820558	-0.017419	-15.081868
0.850000	-0.037176	-30.058637	-71.431580	66.967845	-71.431580	66.967845	-0.018838	-16.014497
0.900000	-0.039632	-31.793820	-71.830767	65.338802	-71.830767	65.338802	-0.020236	-16.945994
0.950000	-0.042027	-33.525038	-72.275636	63.975342	-72.275636	63.975342	-0.021613	-17.876374
1.000000	-0.044364	-35.252229	-72.768323	62.927793	-72.768323	62.927793	-0.022969	-18.805646
1.050000	-0.046648	-36.975326	-73.311576	62.259309	-73.311576	62.259309	-0.024303	-19.733814
1.100000	-0.048883	-38.694252	-73.908340	62.051636	-73.908340	62.051636	-0.025616	-20.660879
1.150000	-0.051073	-40.408930	-74.560999	62.412746	-74.560999	62.412746	-0.026910	-21.586837
1.200000	-0.053222	-42.119278	-75.269942	63.486584	-75.269942	63.486584	-0.028186	-22.511679
1.250000	-0.055334	-43.825212	-76.030849	65.464254	-76.030849	65.464254	-0.029445	-23.435395
1.300000	-0.057414	-45.526551	-76.828158	68.624803	-76.828158	68.624803	-0.030689	-24.357945
1.350000	-0.059464	-47.223309	-77.628397	73.247632	-77.628397	73.247632	-0.031920	-25.279337
1.400000	-0.061489	-48.915407	-78.366750	79.621109	-78.366750	79.621109	-0.033138	-26.199553
1.450000	-0.063492	-50.602769	-78.938118	87.867007	-78.938118	87.867007	-0.034347	-27.118573
1.500000	-0.065475	-52.285324	-79.210429	97.689912	-79.210429	97.689912	-0.035546	-28.036375
1.550000	-0.067442	-53.963005	-79.079638	108.228199	-79.079638	108.228199	-0.036737	-28.952937
1.600000	-0.069393	-55.635747	-78.537299	118.308325	-78.537299	118.308325	-0.037922	-29.868236
1.650000	-0.071332	-57.303496	-77.676699	126.995828	-77.676699	126.995828	-0.039102	-30.782248
1.700000	-0.073259	-58.965700	-76.608633	133.742451	-76.608633	133.742451	-0.040277	-31.694819
1.750000	-0.075177	-60.623249	-75.490745	138.976209	-75.490745	138.976209	-0.041449	-32.606168
1.800000	-0.077088	-62.275666	-74.366317	142.798870	-74.366317	142.798870	-0.042619	-33.516158
1.850000	-0.078993	-63.922917	-73.272754	145.503396	-73.272754	145.503396	-0.043788	-34.424765
1.900000	-0.080892	-65.564974	-72.226993	147.345958	-72.226993	147.345958	-0.044956	-35.331965
1.950000	-0.082788	-67.201817	-71.234652	148.528749	-71.234652	148.528749	-0.046123	-36.237735
2.000000	-0.084681	-68.833431	-70.295613	149.204807	-70.295613	149.204807	-0.047292	-37.142051
2.050000	-0.086571	-70.459807	-69.407107	149.488326	-69.407107	149.488326	-0.048461	-38.044891
2.100000	-0.088461	-72.080943	-68.565317	149.464458	-68.565317	149.464458	-0.049633	-38.946234
2.150000	-0.090351	-73.696842	-67.766179	149.197076	-67.766179	149.197076	-0.050806	-39.846057
2.200000	-0.092241	-75.307516	-67.005763	148.734520	-67.005763	148.734520	-0.051983	-40.744341
2.250000	-0.094132	-76.912980	-66.280440	148.113754	-66.280440	148.113754	-0.053162	-41.641064
2.300000	-0.096026	-78.513256	-65.586933	147.363336	-65.586933	147.363336	-0.054346	-42.536208
2.350000	-0.097923	-80.108372	-64.922326	146.505554	-64.922326	146.505554	-0.055533	-43.429753
2.400000	-0.099824	-81.698362	-64.284033	145.557975	-64.284033	145.557975	-0.056725	-44.321682
2.450000	-0.101729	-83.283266	-63.669773	144.534566	-63.669773	144.534566	-0.057922	-45.211976
2.500000	-0.103639	-84.863128	-63.077532	143.446527	-63.077532	143.446527	-0.059124	-46.100619
2.550000	-0.105556	-86.437785	-62.504759	142.300835	-62.504759	142.300835	-0.060332	-46.987523
2.600000	-0.107479	-88.007512	-61.950734	141.107464	-61.950734	141.107464	-0.061546	-47.872743
2.650000	-0.109410	-89.572371	-61.414054	139.872304	-61.414054	139.872304	-0.062766	-48.756265
2.700000	-0.111350	-91.132428	-60.893477	138.600225	-60.893477	138.600225	-0.063993	-49.638076
2.750000	-0.113299	-92.687756	-60.387896	137.295274	-60.387896	137.295274	-0.065227	-50.518162
2.800000	-0.115258	-94.238430	-59.896329	135.960836	-59.896329	135.960836	-0.066469	-51.396511
2.850000	-0.117228	-95.784531	-59.417894	134.599756	-59.417894	134.599756	-0.067718	-52.273112
2.900000	-0.119209	-97.326144	-58.951805	133.214437	-58.951805	133.214437	-0.068976	-53.147954
2.950000	-0.121203	-98.863360	-58.497356	131.806920	-58.497356	131.806920	-0.070243	-54.021028
3.000000	-0.123210	-100.396272	-58.053912	130.378950	-58.053912	130.378950	-0.071518	-54.892322
3.050000	-0.125232	-101.924979	-57.620902	128.932027	-57.620902	128.932027	-0.072803	-55.761830
3.100000	-0.127269	-103.449582	-57.197811	127.467448	-57.197811	127.467448	-0.074098	-56.629544
3.150000	-0.129322	-104.970188	-56.784172	125.986344	-56.784172	125.986344	-0.075403	-57.495455
3.200000	-0.131391	-106.486906	-56.379564	124.489708	-56.379564	124.489708	-0.076719	-58.359558
3.250000	-0.133479	-107.999850	-55.983605	122.978419	-55.983605	122.978419	-0.078046	-59.221847
3.300000	-0.135584	-109.509136	-55.595947	121.453266	-55.595947	121.453266	-0.079384	-60.082317
3.350000	-0.137710	-111.014884	-55.216276	119.914957	-55.216276	119.914957	-0.080735	-60.940964
3.400000	-0.139856	-112.517219	-54.844303	118.364143	-54.844303	118.364143	-0.082097	-61.797783
3.450000	-0.142023	-114.016268	-54.479765	116.801421	-54.479765	116.801421	-0.083473	-62.652773
3.500000	-0.144212	-115.512159	-54.122423	115.227348	-54.122423	115.227348	-0.084862	-63.505930
3.550000	-0.146424	-117.005027	-53.772057	113.642453	-53.772057	113.642453	-0.086265	-64.357253
3.600000	-0.148660	-118.495007	-53.428463	112.047235	-53.428463	112.047235	-0.087683	-65.206742
3.650000	-0.150920	-119.982237	-53.091458	110.442177	-53.091458	110.442177	-0.089115	-66.054396
3.700000	-0.153206	-121.466859	-52.760867	108.827748	-52.760867	108.827748	-0.090562	-66.900215
3.750000	-0.155518	-122.949018	-52.436534	107.204404	-52.436534	107.204404	-0.092025	-67.744200
3.800000	-0.157858	-124.428766	-52.118071	105.572250	-52.118071	105.572250	-0.093505	-68.586274
3.850000	-0.160226	-125.906360	-51.805606	103.932118	-51.805606	103.932118	-0.095002	-69.426519
3.900000	-0.162623	-127.381952	-51.499008	102.284453	-51.499008	102.284453	-0.096516	-70.264938
3.950000	-0.165049	-128.855697	-51.198155	100.629695	-51.198155	100.629695	-0.098048	-71.101535
4.000000	-0.167506	-130.327750	-50.902929	98.968286	-50.902929	98.968286	-0.099598	-71.936313
4.050000	-0.169992	-131.798270	-50.613223	97.300670	-50.613223	97.300670	-0.101167	-72.769279
4.100000	-0.172511	-133.267419	-50.328930	95.627286	-50.328930	95.627286	-0.102756	-73.600438
4.150000	-0.175061	-134.735360	-50.049950	93.948579	-50.049950	93.948579	-0.104364	-74.429796
4.200000	-0.177644	-136.202257	-49.776184	92.264989	-49.776184	92.264989	-0.105993	-75.257360
4.250000	-0.180260	-137.668278	-49.507540	90.576958	-49.507540	90.576958	-0.107642	-76.083138
4.300000	-0.182910	-139.133591	-49.243925	88.884923	-49.243925	88.884923	-0.109313	-76.907137
4.350000	-0.185594	-140.598367	-48.985250	87.189321	-48.985250	87.189321	-0.111006	-77.729367
4.400000	-0.188313	-142.062778	-48.731425	85.490582	-48.731425	85.490582	-0.112721	-78.549837
4.450000	-0.191067	-143.527000	-48.482365	83.789133	-48.482365	83.789133	-0.114459	-79.368556
4.500000	-0.193856	-144.991207	-48.237983	82.085392	-48.237983	82.085392	-0.116220	-80.185536
4.550000	-0.196682	-146.455577	-47.998194	80.379770	-47.998194	80.379770	-0.118005	-81.000788
4.600000	-0.199544	-147.920290	-47.762913	78.672667	-47.762913	78.672667	-0.119815	-81.814323
4.650000	-0.202443	-149.385526	-47.532056	76.964473	-47.532056	76.964473	-0.121650	-82.626154
4.700000	-0.205378	-150.851468	-47.305539	75.255564	-47.305539	75.255564	-0.123510	-83.436294
4.750000	-0.208351	-152.318298	-47.083278	73.546304	-47.083278	73.546304	-0.125396	-84.244756
4.800000	-0.211361	-153.786202	-46.865191	71.837040	-46.865191	71.837040	-0.127309	-85.051555
4.850000	-0.214409	-155.255365	-46.651194	70.128104	-46.651194	70.128104	-0.129249	-85.856705
4.900000	-0.217495	-156.725977	-46.441205	68.419809	-46.441205	68.419809	-0.131216	-86.660222
4.950000	-0.220618	-158.198225	-46.235141	66.712451	-46.235141	66.712451	-0.133211	-87.462121
5.000000	-0.223780	-159.672298	-46.032920	65.006306	-46.032920	65.006306	-0.135234	-88.262419
5.050000	-0.226981	-161.148486	-45.834429	63.301705	-45.834429	63.301705	-0.137288	-89.061065
5.100000	-0.230220	-162.626900	-45.639627	61.598829	-45.639627	61.598829	-0.139371	-89.858147
5.150000	-0.233497	-164.107734	-45.448434	59.897888	-45.448434	59.897888	-0.141484	-90.653682
5.200000	-0.236811	-165.591181	-45.260773	58.199074	-45.260773	58.199074	-0.143628	-91.447690
5.250000	-0.240164	-167.077436	-45.076564	56.502556	-45.076564	56.502556	-0.145803	-92.240190
5.300000	-0.243554	-168.566696	-44.895732	54.808482	-44.895732	54.808482	-0.148009	-93.031202
5.350000	-0.246981	-170.059155	-44.718204	53.116981	-44.718204	53.116981	-0.150247	-93.820747
5.400000	-0.250446	-171.555010	-44.543906	51.428158	-44.543906	51.428158	-0.152517	-94.608845
5.450000	-0.253948	-173.054459	-44.372769	49.742103	-44.372769	49.742103	-0.154821	-95.395520
5.500000	-0.257486	-174.557700	-44.204724	48.058883	-44.204724	48.058883	-0.157157	-96.180792
5.550000	-0.261060	-176.064929	-44.039707	46.378548	-44.039707	46.378548	-0.159528	-96.964686
5.600000	-0.264670	-177.576345	-43.877654	44.701131	-43.877654	44.701131	-0.161933	-97.747224
5.650000	-0.268316	-179.092146	-43.718506	43.026649	-43.718506	43.026649	-0.164372	-98.528431
5.700000	-0.271996	179.387470	-43.562205	41.355103	-43.562205	41.355103	-0.166847	-99.308331
5.750000	-0.275712	177.862305	-43.408698	39.686482	-43.408698	39.686482	-0.169358	-100.086950
5.800000	-0.279461	176.332161	-43.257933	38.020761	-43.257933	38.020761	-0.171905	-100.864313
5.850000	-0.283243	174.796843	-43.109864	36.357904	-43.109864	36.357904	-0.174489	-101.640448
5.900000	-0.287059	173.256152	-42.964445	34.697867	-42.964445	34.697867	-0.177110	-102.415381
5.950000	-0.290906	171.709895	-42.821637	33.040598	-42.821637	33.040598	-0.179768	-103.189139
6.000000	-0.294786	170.157874	-42.681400	31.386037	-42.681400	31.386037	-0.182465	-103.961752
6.050000	-0.298696	168.599898	-42.543703	29.734120	-42.543703	29.734120	-0.185201	-104.733249
6.100000	-0.302636	167.035773	-42.408513	28.084782	-42.408513	28.084782	-0.187975	-105.503658
6.150000	-0.306606	165.465309	-42.275803	26.437954	-42.275803	26.437954	-0.190789	-106.273011
6.200000	-0.310604	163.888316	-42.145551	24.793568	-42.145551	24.793568	-0.193643	-107.041339
6.250000	-0.314630	162.304606	-42.017735	23.151560	-42.017735	23.151560	-0.196538	-107.808672
6.300000	-0.318685	160.713686	-41.892365	21.511964	-41.892365	21.511964	-0.199475	-108.575003
6.350000	-0.322765	159.115666	-41.769406	19.874620	-41.769406	19.874620	-0.202455	-109.340410
6.400000	-0.326871	157.510364	-41.648847	18.239480	-41.648847	18.239480	-0.205476	-110.104924
6.450000	-0.331001	155.897604	-41.530679	16.606502	-41.530679	16.606502	-0.208539	-110.868583
6.500000	-0.335154	154.277211	-41.414897	14.975653	-41.414897	14.975653	-0.211646	-111.631420
6.550000	-0.339330	152.649016	-41.301499	13.346912	-41.301499	13.346912	-0.214797	-112.393472
6.600000	-0.343527	151.012852	-41.190484	11.720270	-41.190484	11.720270	-0.217991	-113.154776
6.650000	-0.347744	149.368554	-41.081854	10.095728	-41.081854	10.095728	-0.221230	-113.915371
6.700000	-0.351982	147.715966	-40.975612	8.473304	-40.975612	8.473304	-0.224515	-114.675296
6.750000	-0.356238	146.054933	-40.871764	6.853026	-40.871764	6.853026	-0.227845	-115.434590
6.800000	-0.360511	144.385307	-40.770317	5.234939	-40.770317	5.234939	-0.231221	-116.193294
6.850000	-0.364801	142.706943	-40.671278	3.619103	-40.671278	3.619103	-0.234645	-116.951451
6.900000	-0.369107	141.019704	-40.574656	2.005591	-40.574656	2.005591	-0.238115	-117.709103
6.950000	-0.373427	139.323459	-40.480461	0.394491	-40.480461	0.394491	-0.241634	-118.466295
7.000000	-0.377761	137.618082	-40.388702	-1.214096	-40.388702	-1.214096	-0.245201	-119.223072
7.050000	-0.382108	135.903455	-40.299389	-2.820053	-40.299389	-2.820053	-0.248817	-119.979482
7.100000	-0.386467	134.179466	-40.212532	-4.423252	-40.212532	-4.423252	-0.252484	-120.735572
7.150000	-0.390837	132.446012	-40.128142	-6.023555	-40.128142	-6.023555	-0.256201	-121.491391
7.200000	-0.395217	130.702997	-40.046225	-7.620813	-40.046225	-7.620813	-0.259969	-122.246993
7.250000	-0.399606	128.950334	-39.966792	-9.214868	-39.966792	-9.214868	-0.263789	-123.002428
7.300000	-0.404004	127.187945	-39.889848	-10.805559	-39.889848	-10.805559	-0.267662	-123.757753
7.350000	-0.408410	125.415761	-39.815401	-12.392717	-39.815401	-12.392717	-0.271588	-124.513024
7.400000	-0.412823	123.633722	-39.743454	-13.976177	-39.743454	-13.976177	-0.275568	-125.268300
7.450000	-0.417243	121.841779	-39.674012	-15.555772	-39.674012	-15.555772	-0.279604	-126.023642
7.500000	-0.421668	120.039893	-39.607077	-17.131343	-39.607077	-17.131343	-0.283696	-126.779113
7.550000	-0.426100	118.227711	-39.542717	-18.702598	-39.542717	-18.702598	-0.287846	-127.534791
7.600000	-0.430537	116.405540	-39.480867	-20.269533	-39.480867	-20.269533	-0.292055	-128.290739
7.650000	-0.434980	114.573378	-39.421526	-21.832032	-39.421526	-21.832032	-0.296323	-129.047032
7.700000	-0.439427	112.731233	-39.364690	-23.390001	-39.364690	-23.390001	-0.300652	-129.803745
7.750000	-0.443880	110.879126	-39.310357	-24.943378	-39.310357	-24.943378	-0.305042	-130.560960
7.800000	-0.448338	109.017090	-39.258525	-26.492132	-39.258525	-26.492132	-0.309496	-131.318762
7.850000	-0.452802	107.145172	-39.209190	-28.036277	-39.209190	-28.036277	-0.314014	-132.077241
7.900000	-0.457272	105.263432	-39.162351	-29.575876	-39.162351	-29.575876	-0.318599	-132.836494
7.950000	-0.461749	103.371943	-39.118008	-31.111048	-39.118008	-31.111048	-0.323253	-133.596622
8.000000	-0.466233	101.470794	-39.076165	-32.641980	-39.076165	-32.641980	-0.327977	-134.357735
8.050000	-0.470727	99.560087	-39.036827	-34.168936	-39.036827	-34.168936	-0.332774	-135.119950
8.100000	-0.475231	97.639937	-39.000008	-35.692265	-39.000008	-35.692265	-0.337646	-135.883392
8.150000	-0.479746	95.710375	-38.965751	-37.212394	-38.965751	-37.212394	-0.342598	-136.648215
8.200000	-0.484276	93.771553	-38.934086	-38.729915	-38.934086	-38.729915	-0.347632	-137.414571
8.250000	-0.488821	91.823732	-38.905025	-40.245578	-38.905025	-40.245578	-0.352753	-138.182609
8.300000	-0.493385	89.867088	-38.878621	-41.760252	-38.878621	-41.760252	-0.357964	-138.952504
8.350000	-0.497969	87.901811	-38.854942	-43.274990	-38.854942	-43.274990	-0.363271	-139.724453
8.400000	-0.502578	85.928105	-38.834077	-44.791055	-38.834077	-44.791055	-0.368679	-140.498673
8.450000	-0.507214	83.946191	-38.816142	-46.309955	-38.816142	-46.309955	-0.374196	-141.275402
8.500000	-0.511881	81.956300	-38.801280	-47.833490	-38.801280	-47.833490	-0.379831	-142.054911
8.550000	-0.516584	79.958680	-38.789677	-49.363798	-38.789677	-49.363798	-0.385592	-142.837502
8.600000	-0.521328	77.953593	-38.781560	-50.903430	-38.781560	-50.903430	-0.391491	-143.623517
8.650000	-0.526118	75.941313	-38.777217	-52.455424	-38.777217	-52.455424	-0.397544	-144.413346
8.700000	-0.530959	73.922127	-38.777004	-54.023413	-38.777004	-54.023413	-0.403767	-145.207437
8.750000	-0.535859	71.896335	-38.781368	-55.611755	-38.781368	-55.611755	-0.410180	-146.006308
8.800000	-0.540826	69.864120	-38.790989	-57.226416	-38.790989	-57.226416	-0.416816	-146.810692
8.850000	-0.545868	67.825951	-38.806475	-58.873436	-38.806475	-58.873436	-0.423703	-147.621202
8.900000	-0.550993	65.782164	-38.828712	-60.560756	-38.828712	-60.560756	-0.430882	-148.438684
8.950000	-0.556211	63.733106	-38.858822	-62.298202	-38.858822	-62.298202	-0.438405	-149.264152
9.000000	-0.561534	61.679134	-38.898234	-64.098061	-38.898234	-64.098061	-0.446341	-150.098831
9.050000	-0.566975	59.620615	-38.948781	-65.975896	-38.948781	-65.975896	-0.454776	-150.944213
9.100000	-0.572549	57.557928	-39.012844	-67.951710	-39.012844	-67.951710	-0.463830	-151.802146
9.150000	-0.578273	55.491462	-39.093550	-70.051651	-39.093550	-70.051651	-0.473659	-152.674938
9.200000	-0.584165	53.421636	-39.194931	-72.309440	-39.194931	-72.309440	-0.484472	-153.565390
9.250000	-0.590252	51.348822	-39.322887	-74.774564	-39.322887	-74.774564	-0.496586	-154.477489
9.300000	-0.596568	49.273429	-39.486322	-77.523682	-39.486322	-77.523682	-0.510497	-155.416995
9.350000	-0.603137	47.196046	-39.694627	-80.639741	-39.694627	-80.639741	-0.526761	-156.389052
9.400000	-0.610002	45.117144	-39.962849	-84.258469	-39.962849	-84.258469	-0.546282	-157.401847
9.450000	-0.617244	43.037248	-40.320041	-88.664783	-40.320041	-88.664783	-0.570939	-158.471359
9.500000	-0.624929	40.957182	-40.800862	-94.248315	-40.800862	-94.248315	-0.603228	-159.613305
9.550000	-0.633134	38.877858	-41.453148	-101.626022	-41.453148	-101.626022	-0.646876	-160.846841
9.600000	-0.642039	36.800857	-42.364956	-112.392517	-42.364956	-112.392517	-0.710748	-162.212914
9.650000	-0.651826	34.728925	-43.579288	-129.977310	-43.579288	-129.977310	-0.811218	-163.757167
9.700000	-0.662627	32.667119	-44.611204	-161.369414	-44.611204	-161.369414	-0.981129	-165.513362
9.750000	-0.674157	30.626130	-43.070990	150.568086	-43.070990	150.568086	-1.295550	-167.395389
9.800000	-0.683791	28.623591	-38.315141	105.557478	-38.315141	105.557478	-1.896029	-168.564487
9.850000	-0.682885	26.653075	-33.658955	66.371944	-33.658955	66.371944	-2.740859	-165.685491
9.900000	-0.669030	24.600442	-31.180314	29.183383	-31.180314	29.183383	-2.732159	-158.091445
9.950000	-0.663714	22.445529	-30.802183	0.722057	-30.802183	0.722057	-1.906640	-155.359645
10.000000	-0.669726	20.377093	-31.246679	-19.209586	-31.246679	-19.209586	-1.341079	-156.578854
