! freq	dB(S11)	phase(S11)	dB(S12)	phase(S12)	
!     	dB(S21)	phase(S21)	dB(S22)	phase(S22)	
!S-par simulation data
#  GHz  S  DB  R 50
0.000000	-87.853557	0.000000	-0.000352	0.000000	-0.000352	0.000000	-87.853557	0.000000
0.050000	-30.957569	-93.192852	-0.007489	-3.163507	-0.007489	-3.163507	-30.958190	-93.317276
0.100000	-24.969588	-96.463447	-0.024572	-6.290640	-0.024572	-6.290640	-24.970212	-96.712666
0.150000	-21.495003	-99.638249	-0.047375	-9.388930	-0.047375	-9.388930	-21.495697	-100.012523
0.200000	-19.054773	-102.737016	-0.075438	-12.468547	-0.075438	-12.468547	-19.055612	-103.236300
0.250000	-17.182169	-105.778050	-0.108847	-15.532137	-0.108847	-15.532137	-17.183182	-106.402160
0.300000	-15.671051	-108.773171	-0.147830	-18.577144	-0.147830	-18.577144	-15.672232	-109.522008
0.350000	-14.410713	-111.731699	-0.192170	-21.600730	-0.192170	-21.600730	-14.412029	-112.605383
0.400000	-13.336000	-114.657672	-0.241655	-24.599472	-0.241655	-24.599472	-13.337409	-115.656564
0.450000	-12.404612	-117.552862	-0.295914	-27.570599	-0.295914	-27.570599	-12.406074	-118.677549
0.500000	-11.587592	-120.417451	-0.354526	-30.511805	-0.354526	-30.511805	-11.589074	-121.668715
0.550000	-10.864548	-123.250342	-0.417090	-33.420732	-0.417090	-33.420732	-10.866028	-124.629152
0.600000	-10.219917	-126.050677	-0.483116	-36.295985	-0.483116	-36.295985	-10.221381	-127.558161
0.650000	-9.641771	-128.817567	-0.552120	-39.136555	-0.552120	-39.136555	-9.643216	-130.455000
0.700000	-9.120916	-131.549952	-0.623640	-41.941480	-0.623640	-41.941480	-9.122347	-133.318770
0.750000	-8.649908	-134.247080	-0.697204	-44.710228	-0.697204	-44.710228	-8.651337	-136.148874
0.800000	-8.222663	-136.908433	-0.772352	-47.442562	-0.772352	-47.442562	-8.224110	-138.944957
0.850000	-7.834226	-139.533564	-0.848633	-50.138342	-0.848633	-50.138342	-7.835714	-141.706749
0.900000	-7.480431	-142.122269	-0.925601	-52.797682	-0.925601	-52.797682	-7.481985	-144.434231
0.950000	-7.157491	-144.675099	-1.002837	-55.421440	-1.002837	-55.421440	-7.159139	-147.128112
1.000000	-6.862712	-147.191616	-1.079915	-58.009491	-1.079915	-58.009491	-6.864480	-149.788194
1.050000	-6.592711	-149.673972	-1.156493	-60.564233	-1.156493	-60.564233	-6.594623	-152.416702
1.100000	-6.345583	-152.122053	-1.232205	-63.085821	-1.232205	-63.085821	-6.347659	-155.013760
1.150000	-6.118760	-154.538064	-1.306784	-65.576646	-1.306784	-65.576646	-6.121017	-157.581635
1.200000	-5.911799	-156.919892	-1.379724	-68.034961	-1.379724	-68.034961	-5.914249	-160.118696
1.250000	-5.721109	-159.273531	-1.451093	-70.466701	-1.451093	-70.466701	-5.723759	-162.630607
1.300000	-5.547959	-161.593796	-1.520083	-72.867279	-1.520083	-72.867279	-5.550813	-165.113102
1.350000	-5.388559	-163.888222	-1.587021	-75.243979	-1.587021	-75.243979	-5.391615	-167.573139
1.400000	-5.243597	-166.153840	-1.651234	-77.594351	-1.651234	-77.594351	-5.246853	-170.008528
1.450000	-5.111050	-168.394611	-1.712816	-79.922296	-1.712816	-79.922296	-5.114499	-172.423046
1.500000	-4.990464	-170.610986	-1.771457	-82.228537	-1.771457	-82.228537	-4.994099	-174.817522
1.550000	-4.881257	-172.803955	-1.826919	-84.514291	-1.826919	-84.514291	-4.885071	-177.193262
1.600000	-4.782026	-174.976665	-1.879326	-86.782655	-1.879326	-86.782655	-4.786013	-179.553298
1.650000	-4.693380	-177.127795	-1.928048	-89.032922	-1.928048	-89.032922	-4.697536	178.102750
1.700000	-4.614227	-179.260137	-1.973166	-91.267921	-1.973166	-91.267921	-4.618551	175.772051
1.750000	-4.543425	178.623458	-2.014890	-93.490414	-2.014890	-93.490414	-4.547918	173.451900
1.800000	-4.481056	176.522669	-2.052906	-95.701142	-2.052906	-95.701142	-4.485724	171.141318
1.850000	-4.426759	174.436098	-2.087135	-97.901738	-2.087135	-97.901738	-4.431612	168.838533
1.900000	-4.380223	172.362370	-2.117505	-100.093828	-2.117505	-100.093828	-4.385276	166.541757
1.950000	-4.341182	170.300136	-2.143958	-102.279036	-2.143958	-102.279036	-4.346457	164.249192
2.000000	-4.309415	168.248071	-2.166445	-104.458976	-2.166445	-104.458976	-4.314939	161.959024
2.050000	-4.284742	166.204883	-2.184927	-106.635258	-2.184927	-106.635258	-4.290547	159.669425
2.100000	-4.267021	164.169306	-2.199375	-108.809486	-2.199375	-108.809486	-4.273147	157.378546
2.150000	-4.256149	162.140110	-2.209770	-110.983258	-2.209770	-110.983258	-4.262642	155.084519
2.200000	-4.252059	160.116099	-2.216102	-113.158172	-2.216102	-113.158172	-4.258973	152.785449
2.250000	-4.254721	158.096113	-2.218368	-115.335819	-2.218368	-115.335819	-4.262115	150.479416
2.300000	-4.264141	156.079033	-2.216576	-117.517791	-2.216576	-117.517791	-4.272083	148.164466
2.350000	-4.280360	154.063786	-2.210743	-119.705680	-2.210743	-119.705680	-4.288924	145.838610
2.400000	-4.303455	152.049343	-2.200893	-121.901078	-2.200893	-121.901078	-4.312723	143.499819
2.450000	-4.333541	150.034730	-2.187062	-124.105578	-2.187062	-124.105578	-4.343603	141.146017
2.500000	-4.370770	148.019033	-2.169292	-126.320777	-2.169292	-126.320777	-4.381723	138.775077
2.550000	-4.415652	146.001284	-2.147468	-128.548887	-2.147468	-128.548887	-4.427606	136.383869
2.600000	-4.468117	143.980768	-2.121828	-130.791049	-2.121828	-130.791049	-4.481190	133.970877
2.650000	-4.528444	141.956814	-2.092447	-133.048871	-2.092447	-133.048871	-4.542764	131.533769
2.700000	-4.596959	139.928854	-2.059410	-135.323967	-2.059410	-135.323967	-4.612667	129.070124
2.750000	-4.674037	137.896439	-2.022817	-137.617953	-2.022817	-137.617953	-4.691287	126.577427
2.800000	-4.760104	135.859260	-1.982779	-139.932448	-1.982779	-139.932448	-4.779068	124.053056
2.850000	-4.855643	133.817174	-1.939419	-142.269070	-1.939419	-142.269070	-4.876516	121.494260
2.900000	-4.961200	131.770228	-1.892877	-144.629433	-1.892877	-144.629433	-4.984199	118.898148
2.950000	-5.076453	129.719111	-1.843618	-147.012534	-1.843618	-147.012534	-5.101805	116.265876
3.000000	-5.203807	127.663507	-1.791206	-149.424722	-1.791206	-149.424722	-5.231810	113.586631
3.050000	-5.343231	125.604678	-1.736116	-151.865401	-1.736116	-151.865401	-5.374210	110.860410
3.100000	-5.495581	123.543862	-1.678552	-154.336129	-1.678552	-154.336129	-5.529913	108.083499
3.150000	-5.661936	121.482775	-1.618710	-156.838790	-1.618710	-156.838790	-5.700065	105.251237
3.200000	-5.843378	119.423764	-1.556840	-159.374918	-1.556840	-159.374918	-5.885826	102.359079
3.250000	-6.040975	117.369801	-1.493237	-161.945595	-1.493237	-161.945595	-6.088358	99.402765
3.300000	-6.256052	115.324679	-1.428185	-164.552181	-1.428185	-164.552181	-6.309103	96.376900
3.350000	-6.490085	113.293194	-1.361994	-167.195956	-1.361994	-167.195956	-6.549683	93.275421
3.400000	-6.744719	111.281382	-1.294993	-169.878102	-1.294993	-169.878102	-6.811929	90.091432
3.450000	-7.021793	109.296799	-1.227537	-172.599683	-1.227537	-172.599683	-7.097910	86.816995
3.500000	-7.323355	107.348902	-1.159999	-175.361633	-1.159999	-175.361633	-7.409972	83.442836
3.550000	-7.651694	105.449520	-1.092777	-178.164726	-1.092777	-178.164726	-7.750787	79.957966
3.600000	-8.009360	103.613488	-1.026290	178.990439	-1.026290	178.990439	-8.123400	76.349155
3.650000	-8.399192	101.859461	-0.960975	176.103464	-0.960975	176.103464	-8.531304	72.600220
3.700000	-8.824331	100.211018	-0.897288	173.174176	-0.897288	173.174176	-8.978514	68.691018
3.750000	-9.288232	98.698127	-0.835697	170.202648	-0.835697	170.202648	-9.469658	64.596050
3.800000	-9.794939	97.364064	-0.776743	167.188326	-0.776743	167.188326	-10.010481	60.276690
3.850000	-10.347982	96.256336	-0.720881	164.132782	-0.720881	164.132782	-10.606707	55.692836
3.900000	-10.951202	95.440619	-0.668603	161.036977	-0.668603	161.036977	-11.265334	50.785196
3.950000	-11.607956	95.003002	-0.620399	157.902197	-0.620399	157.902197	-11.994203	45.472507
4.000000	-12.320254	95.056714	-0.576748	154.730058	-0.576748	154.730058	-12.801706	39.641249
4.050000	-13.087122	95.750153	-0.538116	151.522514	-0.538116	151.522514	-13.695895	33.130106
4.100000	-13.901626	97.274466	-0.504948	148.281851	-0.504948	148.281851	-14.682164	25.707178
4.150000	-14.745752	99.864967	-0.477659	145.010679	-0.477659	145.010679	-15.757784	17.039727
4.200000	-15.582522	103.782137	-0.456628	141.711913	-0.456628	141.711913	-16.899801	6.666161
4.250000	-16.346663	109.245115	-0.442194	138.388751	-0.442194	138.388751	-18.041247	-5.985286
4.300000	-16.940983	116.288590	-0.434646	135.044640	-0.434646	135.044640	-19.036422	-21.405727
4.350000	-17.253942	124.569590	-0.434221	131.683237	-0.434221	131.683237	-19.650604	-39.469607
4.400000	-17.203707	133.283666	-0.441179	128.308258	-0.441179	128.308258	-19.654723	-58.780645
4.450000	-16.797300	141.398786	-0.455637	124.923774	-0.455637	124.923774	-19.038179	-77.031572
4.500000	-16.125574	148.173006	-0.477565	121.533924	-0.477565	121.533924	-18.020577	-92.720135
4.550000	-15.300552	153.330557	-0.506949	118.142697	-0.506949	118.142697	-16.841482	-105.639680
4.600000	-14.415249	156.946382	-0.543709	114.754025	-0.543709	114.754025	-15.654184	-116.256477
4.650000	-13.530359	159.253528	-0.587708	111.371727	-0.587708	111.371727	-14.530639	-125.145735
4.700000	-12.679545	160.512186	-0.638751	107.999462	-0.638751	107.999462	-13.496308	-132.778882
4.750000	-11.878827	160.952429	-0.696587	104.640680	-0.696587	104.640680	-12.555028	-139.497175
4.800000	-11.134056	160.759640	-0.760923	101.298588	-0.760923	101.298588	-11.701846	-145.538401
4.850000	-10.445660	160.077455	-0.831421	97.976116	-0.831421	97.976116	-10.928853	-151.067566
4.900000	-9.811378	159.015617	-0.907711	94.675894	-0.907711	94.675894	-10.227662	-156.200334
4.950000	-9.227744	157.657845	-0.989394	91.400237	-0.989394	91.400237	-9.590383	-161.019091
5.000000	-8.690880	156.068300	-1.076052	88.151136	-1.076052	88.151136	-9.009936	-165.583589
5.050000	-8.197186	154.293455	-1.167316	84.930902	-1.167316	84.930902	-8.480439	-169.934185
5.100000	-7.742680	152.376286	-1.262657	81.740281	-1.262657	81.740281	-7.996128	-174.109037
5.150000	-7.323890	150.346639	-1.361631	78.580287	-1.361631	78.580287	-7.552262	-178.133247
5.200000	-6.937645	148.228167	-1.463800	75.451643	-1.463800	75.451643	-7.144709	177.973536
5.250000	-6.581064	146.039733	-1.568733	72.354795	-1.568733	72.354795	-6.769857	174.195663
5.300000	-6.251545	143.796458	-1.676011	69.289936	-1.676011	69.289936	-6.424538	170.520457
5.350000	-5.946734	141.510508	-1.785232	66.257028	-1.785232	66.257028	-6.105957	166.937483
5.400000	-5.664510	139.191698	-1.896008	63.255828	-1.896008	63.255828	-5.811643	163.438007
5.450000	-5.402952	136.847956	-2.007973	60.285904	-2.007973	60.285904	-5.539398	160.014608
5.500000	-5.160326	134.485685	-2.120781	57.346669	-2.120781	57.346669	-5.287265	156.660889
5.550000	-4.935062	132.110043	-2.234107	54.437393	-2.234107	54.437393	-5.053491	153.371262
5.600000	-4.725738	129.725176	-2.347647	51.557231	-2.347647	51.557231	-4.836505	150.140784
5.650000	-4.531165	127.334360	-2.461101	48.705533	-2.461101	48.705533	-4.635001	146.965586
5.700000	-4.350154	124.940284	-2.574201	45.881239	-2.574201	45.881239	-4.447687	143.841555
5.750000	-4.181533	122.545033	-2.686729	43.082950	-2.686729	43.082950	-4.273301	140.764486
5.800000	-4.024336	120.150162	-2.798467	40.309530	-2.798467	40.309530	-4.110805	137.731068
5.850000	-3.878321	117.757063	-2.908994	37.561741	-2.908994	37.561741	-3.959917	134.741481
5.900000	-3.741291	115.366158	-3.018599	34.834175	-3.018599	34.834175	-3.818350	131.785801
5.950000	-3.613281	112.978212	-3.126880	32.127925	-3.126880	32.127925	-3.686117	128.865308
6.000000	-3.493623	110.593598	-3.233693	29.441775	-3.233693	29.441775	-3.562511	125.977529
6.050000	-3.381705	108.212502	-3.338904	26.774511	-3.338904	26.774511	-3.446890	123.120144
6.100000	-3.276971	105.834959	-3.442397	24.124927	-3.442397	24.124927	-3.338668	120.290977
6.150000	-3.178910	103.460874	-3.544067	21.491828	-3.544067	21.491828	-3.237312	117.487982
6.200000	-3.087057	101.090047	-3.643820	18.874035	-3.643820	18.874035	-3.142333	114.709228
6.250000	-3.000985	98.722192	-3.741574	16.270389	-3.741574	16.270389	-3.053288	111.952898
6.300000	-2.920490	96.357045	-3.837116	13.680262	-3.837116	13.680262	-2.969960	109.218098
6.350000	-2.845008	93.994053	-3.930520	11.101927	-3.930520	11.101927	-2.891766	106.502244
6.400000	-2.774214	91.632745	-4.021727	8.534295	-4.021727	8.534295	-2.818369	103.803815
6.450000	-2.707812	89.272612	-4.110687	5.976299	-4.110687	5.976299	-2.749461	101.121370
6.500000	-2.645530	86.913113	-4.197353	3.426898	-4.197353	3.426898	-2.684763	98.453548
6.550000	-2.587121	84.553682	-4.281685	0.885070	-4.281685	0.885070	-2.624018	95.799057
6.600000	-2.532361	82.193727	-4.363643	-1.650180	-4.363643	-1.650180	-2.566992	93.156675
6.650000	-2.481042	79.832637	-4.443192	-4.179832	-4.443192	-4.179832	-2.513474	90.525243
6.700000	-2.432979	77.469785	-4.520298	-6.704845	-4.520298	-6.704845	-2.463271	87.903660
6.750000	-2.388003	75.104523	-4.594927	-9.226163	-4.594927	-9.226163	-2.416207	85.290884
6.800000	-2.345960	72.736189	-4.667046	-11.744717	-4.667046	-11.744717	-2.372125	82.685920
6.850000	-2.306714	70.364101	-4.736620	-14.261425	-4.736620	-14.261425	-2.330884	80.087825
6.900000	-2.270142	67.987559	-4.803614	-16.777202	-4.803614	-16.777202	-2.292356	77.495697
6.950000	-2.236137	65.605839	-4.867988	-19.292957	-4.867988	-19.292957	-2.256430	74.908678
7.000000	-2.204603	63.218194	-4.929699	-21.809601	-4.929699	-21.809601	-2.223006	72.325944
7.050000	-2.175460	60.823849	-4.988701	-24.328053	-4.988701	-24.328053	-2.192000	69.746704
7.100000	-2.148640	58.421992	-5.044939	-26.849241	-5.044939	-26.849241	-2.163339	67.170196
7.150000	-2.124088	56.011773	-5.098355	-29.374113	-5.098355	-29.374113	-2.136965	64.595686
7.200000	-2.101762	53.592297	-5.148879	-31.903642	-5.148879	-31.903642	-2.112832	62.022455
7.250000	-2.081634	51.162612	-5.196435	-34.438836	-5.196435	-34.438836	-2.090906	59.449805
7.300000	-2.063691	48.721700	-5.240934	-36.980745	-5.240934	-36.980745	-2.071168	56.877046
7.350000	-2.047933	46.268470	-5.282273	-39.530475	-5.282273	-39.530475	-2.053613	54.303496
7.400000	-2.034377	43.801739	-5.320339	-42.089200	-5.320339	-42.089200	-2.038250	51.728473
7.450000	-2.023055	41.320218	-5.354998	-44.658175	-5.354998	-44.658175	-2.025105	49.151290
7.500000	-2.014022	38.822493	-5.386100	-47.238759	-5.386100	-47.238759	-2.014219	46.571247
7.550000	-2.007456	36.306151	-5.413298	-49.833076	-5.413298	-49.833076	-2.005759	43.987436
7.600000	-2.003362	33.770133	-5.436553	-52.442272	-5.436553	-52.442272	-1.999714	41.399230
7.650000	-2.001866	31.212466	-5.455637	-55.068180	-5.455637	-55.068180	-1.996194	38.805841
7.700000	-2.003131	28.630925	-5.470288	-57.712852	-5.470288	-57.712852	-1.995340	36.206435
7.750000	-2.007356	26.022985	-5.480212	-60.378609	-5.480212	-60.378609	-1.997322	33.600117
7.800000	-2.014789	23.385762	-5.485069	-63.068090	-5.485069	-63.068090	-2.002353	30.985923
7.850000	-2.025729	20.715945	-5.484476	-65.784322	-5.484476	-65.784322	-2.010693	28.362806
7.900000	-2.040546	18.009702	-5.477993	-68.530803	-5.477993	-68.530803	-2.022655	25.729619
7.950000	-2.059693	15.262578	-5.465121	-71.311604	-5.465121	-71.311604	-2.038624	23.085106
8.000000	-2.083726	12.469353	-5.445289	-74.131497	-5.445289	-74.131497	-2.059069	20.427883
8.050000	-2.113334	9.623873	-5.417849	-76.996118	-5.417849	-76.996118	-2.084565	17.756428
8.100000	-2.149371	6.718834	-5.382062	-79.912170	-5.382062	-79.912170	-2.115817	15.069073
8.150000	-2.191795	3.755756	-5.338445	-82.878688	-5.338445	-82.878688	-2.152726	12.366575
8.200000	-2.244089	0.704343	-5.283362	-85.922641	-5.283362	-85.922641	-2.198261	9.641904
8.250000	-2.306962	-2.438623	-5.217043	-89.047515	-5.217043	-89.047515	-2.252891	6.895532
8.300000	-2.382657	-5.688813	-5.138262	-92.267814	-5.138262	-92.267814	-2.318367	4.125473
8.350000	-2.474659	-9.070009	-5.045163	-95.605475	-5.045163	-95.605475	-2.397379	1.329216
8.400000	-2.584894	-12.590271	-4.937969	-99.068406	-4.937969	-99.068406	-2.491224	-1.491583
8.450000	-2.722091	-16.306985	-4.812240	-102.709270	-4.812240	-102.709270	-2.606493	-4.340657
8.500000	-2.889235	-20.226166	-4.669443	-106.534330	-4.669443	-106.534330	-2.744885	-7.211138
8.550000	-3.100446	-24.425408	-4.505349	-110.615105	-4.505349	-110.615105	-2.916214	-10.097372
8.600000	-3.369503	-28.960254	-4.319512	-115.003104	-4.319512	-115.003104	-3.128897	-12.979832
8.650000	-3.718941	-33.916501	-4.111338	-119.777181	-4.111338	-119.777181	-3.395886	-15.820749
8.700000	-4.183609	-39.407933	-3.881865	-125.040725	-3.881865	-125.040725	-3.734890	-18.545384
8.750000	-4.819702	-45.586360	-3.635323	-130.928823	-3.635323	-130.928823	-4.169457	-21.007199
8.800000	-5.726137	-52.668040	-3.382000	-137.626366	-3.382000	-137.626366	-4.729178	-22.906967
8.850000	-7.078486	-60.923133	-3.143596	-145.341499	-3.143596	-145.341499	-5.435735	-23.679183
8.900000	-9.240309	-70.744766	-2.959530	-154.308096	-2.959530	-154.308096	-6.264160	-22.309225
8.950000	-13.172877	-82.987609	-2.898537	-164.745256	-2.898537	-164.745256	-7.019500	-17.358521
9.000000	-23.611151	-104.689457	-3.056019	-176.658772	-3.056019	-176.658772	-7.214288	-8.740595
9.050000	-18.935744	82.553720	-3.550391	170.252895	-3.550391	170.252895	-6.418770	-0.281503
9.100000	-10.690040	63.740420	-4.471045	156.755418	-4.471045	156.755418	-5.005126	3.311612
9.150000	-6.869778	49.007005	-5.836077	143.833914	-5.836077	143.833914	-3.634686	1.903762
9.200000	-4.688341	36.111943	-7.593530	132.304156	-7.593530	132.304156	-2.596043	-2.303725
9.250000	-3.369568	24.987036	-9.665612	122.585093	-9.665612	122.585093	-1.891060	-7.518134
9.300000	-2.547856	15.485480	-12.002024	114.776845	-12.002024	114.776845	-1.434287	-12.823842
9.350000	-2.022730	7.352878	-14.606401	108.902058	-14.606401	108.902058	-1.143421	-17.865215
9.400000	-1.680780	0.333127	-17.539996	105.201855	-17.539996	105.201855	-0.960397	-22.544871
9.450000	-1.454413	-5.802697	-20.941083	104.612624	-20.941083	104.612624	-0.846636	-26.870122
9.500000	-1.300632	-11.264446	-25.078028	109.949325	-25.078028	109.949325	-0.776241	-30.894926
9.550000	-1.195246	-16.192546	-29.905194	130.699200	-29.905194	130.699200	-0.734360	-34.667213
9.600000	-1.122694	-20.697253	-31.846555	175.676194	-31.846555	175.676194	-0.711373	-38.231660
9.650000	-1.072907	-24.862802	-28.902825	-153.420670	-28.902825	-153.420670	-0.701083	-41.625811
9.700000	-1.039326	-28.751878	-26.006135	-143.032150	-26.006135	-143.032150	-0.699494	-44.879272
9.750000	-1.017534	-32.412120	-23.952454	-139.979606	-23.952454	-139.979606	-0.703957	-48.015503
9.800000	-1.004136	-35.888601	-22.467053	-139.584437	-22.467053	-139.584437	-0.712520	-51.057478
9.850000	-0.997024	-39.211401	-21.350103	-140.404031	-21.350103	-140.404031	-0.723997	-54.020881
9.900000	-0.994697	-42.404489	-20.483223	-141.846641	-20.483223	-141.846641	-0.737575	-56.918455
9.950000	-0.996066	-45.487146	-19.793907	-143.634003	-19.793907	-143.634003	-0.752686	-59.760628
10.000000	-1.000335	-48.475022	-19.235464	-145.621715	-19.235464	-145.621715	-0.768938	-62.556013
