! freq	dB(S11)	phase(S11)	dB(S12)	phase(S12)	
!     	dB(S21)	phase(S21)	dB(S22)	phase(S22)	
!S-par simulation data
#  GHz  S  DB  R 50
0.000000	-81.814090	0.000000	-0.000705	0.000000	-0.000705	0.000000	-81.814090	0.000000
0.050000	-44.516048	-88.683373	-0.005459	-3.099772	-0.005459	-3.099772	-44.562984	-91.729578
0.100000	-38.667670	-91.809726	-0.012174	-6.158268	-0.012174	-6.158268	-38.713892	-97.081783
0.150000	-35.193513	-94.285583	-0.017537	-9.203326	-0.017537	-9.203326	-35.246996	-102.071677
0.200000	-32.716054	-96.488307	-0.022436	-12.246145	-0.022436	-12.246145	-32.772191	-106.842192
0.250000	-30.790242	-98.544239	-0.027380	-15.288370	-0.027380	-15.288370	-30.846590	-111.480659
0.300000	-29.214670	-100.520583	-0.032548	-18.330313	-0.032548	-18.330313	-29.269955	-116.043562
0.350000	-27.880961	-102.447673	-0.037960	-21.372266	-0.037960	-21.372266	-27.934410	-120.558676
0.400000	-26.724160	-104.340452	-0.043611	-24.414615	-0.043611	-24.414615	-26.775193	-125.040511
0.450000	-25.702128	-106.206703	-0.049514	-27.457930	-0.049514	-27.457930	-25.750167	-129.497401
0.500000	-24.786235	-108.054562	-0.055653	-30.502639	-0.055653	-30.502639	-24.830870	-133.938187
0.550000	-23.956000	-109.887905	-0.062035	-33.549147	-0.062035	-33.549147	-23.996905	-138.367538
0.600000	-23.196218	-111.709208	-0.068678	-36.597889	-0.068678	-36.597889	-23.233115	-142.788782
0.650000	-22.495205	-113.520242	-0.075614	-39.649386	-0.075614	-39.649386	-22.527853	-147.204615
0.700000	-21.844120	-115.323362	-0.082842	-42.703795	-0.082842	-42.703795	-21.872413	-151.617531
0.750000	-21.235811	-117.119872	-0.090382	-45.761416	-0.090382	-45.761416	-21.259701	-156.029064
0.800000	-20.664308	-118.910743	-0.098268	-48.822739	-0.098268	-48.822739	-20.683771	-160.440496
0.850000	-20.124978	-120.697457	-0.106505	-51.887895	-0.106505	-51.887895	-20.140071	-164.852837
0.900000	-19.613661	-122.481027	-0.115132	-54.957388	-0.115132	-54.957388	-19.624458	-169.266902
0.950000	-19.127076	-124.262784	-0.124157	-58.031425	-0.124157	-58.031425	-19.133701	-173.683204
1.000000	-18.662348	-126.043980	-0.133605	-61.110325	-0.133605	-61.110325	-18.664953	-178.102099
1.050000	-18.217004	-127.825915	-0.143495	-64.194414	-0.143495	-64.194414	-18.215763	177.476223
1.100000	-17.788898	-129.609945	-0.153852	-67.284023	-0.153852	-67.284023	-17.784005	173.051715
1.150000	-17.376159	-131.397483	-0.164700	-70.379494	-0.164700	-70.379494	-17.367822	168.624459
1.200000	-16.977143	-133.190000	-0.176066	-73.481174	-0.176066	-73.481174	-16.965583	164.194649
1.250000	-16.590402	-134.989018	-0.187977	-76.589417	-0.187977	-76.589417	-16.575848	159.762583
1.300000	-16.214568	-136.796249	-0.200474	-79.704688	-0.200474	-79.704688	-16.197260	155.328622
1.350000	-15.848586	-138.613212	-0.213583	-82.827254	-0.213583	-82.827254	-15.828769	150.893260
1.400000	-15.491447	-140.441551	-0.227340	-85.957481	-0.227340	-85.957481	-15.469372	146.457011
1.450000	-15.142255	-142.282935	-0.241787	-89.095736	-0.241787	-89.095736	-15.118178	142.020437
1.500000	-14.800214	-144.139043	-0.256968	-92.242387	-0.256968	-92.242387	-14.774396	137.584130
1.550000	-14.464620	-146.011561	-0.272934	-95.397807	-0.272934	-95.397807	-14.437322	133.148698
1.600000	-14.134846	-147.902164	-0.289742	-98.562373	-0.289742	-98.562373	-14.106335	128.714751
1.650000	-13.810341	-149.812513	-0.307453	-101.736474	-0.307453	-101.736474	-13.780883	124.282890
1.700000	-13.490381	-151.744992	-0.326167	-104.920852	-0.326167	-104.920852	-13.460253	119.853798
1.750000	-13.174989	-153.699823	-0.345898	-108.115307	-0.345898	-108.115307	-13.144452	115.427834
1.800000	-12.863588	-155.679169	-0.366752	-111.320571	-0.366752	-111.320571	-12.832910	111.005569
1.850000	-12.555858	-157.684509	-0.388809	-114.537112	-0.388809	-114.537112	-12.525306	106.587434
1.900000	-12.251447	-159.717566	-0.412169	-117.765545	-0.412169	-117.765545	-12.221289	102.173845
1.950000	-11.950127	-161.779714	-0.436920	-121.006380	-0.436920	-121.006380	-11.920626	97.765094
2.000000	-11.651786	-163.871893	-0.463141	-124.259989	-0.463141	-124.259989	-11.623200	93.361321
2.050000	-11.356268	-165.995250	-0.490923	-127.526867	-0.490923	-127.526867	-11.328849	88.962622
2.100000	-11.063448	-168.150831	-0.520364	-130.807508	-0.520364	-130.807508	-11.037442	84.568989
2.150000	-10.773230	-170.339580	-0.551568	-134.102400	-0.551568	-134.102400	-10.748876	80.180307
2.200000	-10.485539	-172.562331	-0.584642	-137.412028	-0.584642	-137.412028	-10.463071	75.796348
2.250000	-10.200326	-174.819813	-0.619701	-140.736875	-0.619701	-140.736875	-10.179967	71.416766
2.300000	-9.917558	-177.112641	-0.656869	-144.077426	-0.656869	-144.077426	-9.899524	67.041098
2.350000	-9.637218	-179.441321	-0.696275	-147.434173	-0.696275	-147.434173	-9.621719	62.668757
2.400000	-9.359305	178.193750	-0.738059	-150.807614	-0.738059	-150.807614	-9.346542	58.299031
2.450000	-9.083826	175.792280	-0.782369	-154.198259	-0.782369	-154.198259	-9.073993	53.931080
2.500000	-8.810802	173.354083	-0.829362	-157.606633	-0.829362	-157.606633	-8.804086	49.563939
2.550000	-8.540130	170.878269	-0.879265	-161.033689	-0.879265	-161.033689	-8.536722	45.196476
2.600000	-8.271976	168.365647	-0.932206	-164.479605	-0.932206	-164.479605	-8.272055	40.827435
2.650000	-8.006377	165.816312	-0.988377	-167.944972	-0.988377	-167.944972	-8.010117	36.455445
2.700000	-7.743370	163.230439	-1.047984	-171.430406	-1.047984	-171.430406	-7.750945	32.079000
2.750000	-7.482994	160.608275	-1.111248	-174.936558	-1.111248	-174.936558	-7.494578	27.696458
2.800000	-7.225288	157.950127	-1.178407	-178.464113	-1.178407	-178.464113	-7.241058	23.306034
2.850000	-6.970291	155.256355	-1.249717	177.986202	-1.249717	177.986202	-6.990427	18.905802
2.900000	-6.718040	152.527365	-1.325456	174.413614	-1.325456	174.413614	-6.742728	14.493686
2.950000	-6.468571	149.763594	-1.405926	170.817301	-1.405926	170.817301	-6.498005	10.067459
3.000000	-6.221917	146.965504	-1.491454	167.196381	-1.491454	167.196381	-6.256301	5.624735
3.050000	-5.978111	144.133568	-1.582399	163.549911	-1.582399	163.549911	-6.017659	1.162963
3.100000	-5.737182	141.268263	-1.679155	159.876881	-1.679155	159.876881	-5.782123	-3.320580
3.150000	-5.499121	138.369704	-1.782213	156.175890	-1.782213	156.175890	-5.549703	-7.829100
3.200000	-5.263961	135.438350	-1.892063	152.445728	-1.892063	152.445728	-5.320450	-12.365805
3.250000	-5.031771	132.474972	-2.009184	148.685431	-2.009184	148.685431	-5.094444	-16.933737
3.300000	-4.802579	129.479938	-2.134169	144.893644	-2.134169	144.893644	-4.871730	-21.536417
3.350000	-4.576456	126.454014	-2.267579	141.069406	-2.267579	141.069406	-4.652390	-26.176980
3.400000	-4.353387	123.396937	-2.410261	137.210637	-2.410261	137.210637	-4.436438	-30.859991
3.450000	-4.133351	120.308073	-2.563267	133.314666	-2.563267	133.314666	-4.223894	-35.591028
3.500000	-3.916509	117.188861	-2.727215	129.381298	-2.727215	129.381298	-4.014907	-40.372536
3.550000	-3.702909	114.039291	-2.903154	125.408718	-2.903154	125.408718	-3.809545	-45.209087
3.600000	-3.492524	110.857566	-3.092841	121.392638	-3.092841	121.392638	-3.607847	-50.109098
3.650000	-3.285543	107.645042	-3.297207	117.333088	-3.297207	117.333088	-3.409983	-55.074859
3.700000	-3.082074	104.401481	-3.517814	113.228108	-3.517814	113.228108	-3.216075	-60.111629
3.750000	-2.882211	101.125214	-3.756999	109.073658	-3.756999	109.073658	-3.026277	-65.228312
3.800000	-2.686152	97.816221	-4.016759	104.868322	-4.016759	104.868322	-2.840790	-70.429957
3.850000	-2.494109	94.474461	-4.299365	100.610958	-4.299365	100.610958	-2.659829	-75.721376
3.900000	-2.306326	91.098436	-4.608138	96.298398	-4.608138	96.298398	-2.483680	-81.111410
3.950000	-2.123128	87.686720	-4.946957	91.927953	-4.946957	91.927953	-2.312704	-86.609021
4.000000	-1.944851	84.239669	-5.319427	87.500340	-5.319427	87.500340	-2.147220	-92.217745
4.050000	-1.771909	80.756227	-5.730691	83.014651	-5.730691	83.014651	-1.987666	-97.945427
4.100000	-1.604942	77.233701	-6.188143	78.468453	-6.188143	78.468453	-1.834754	-103.806023
4.150000	-1.444410	73.673353	-6.698204	73.866804	-6.698204	73.866804	-1.688900	-109.800457
4.200000	-1.290958	70.074717	-7.270288	69.213829	-7.270288	69.213829	-1.550763	-115.935926
4.250000	-1.145609	66.435899	-7.917908	64.515371	-7.917908	64.515371	-1.421429	-122.226433
4.300000	-1.009085	62.758589	-8.655697	59.786481	-8.655697	59.786481	-1.301586	-128.673759
4.350000	-0.882247	59.044289	-9.503816	55.048890	-9.503816	55.048890	-1.192080	-135.281723
4.400000	-0.766407	55.293890	-10.491730	50.339272	-10.491730	50.339272	-1.094247	-142.059937
4.450000	-0.662753	51.510514	-11.659927	45.721823	-11.659927	45.721823	-1.009256	-149.012023
4.500000	-0.572150	47.699340	-13.067464	41.303670	-13.067464	41.303670	-0.937913	-156.134866
4.550000	-0.495927	43.865701	-14.811825	37.299633	-14.811825	37.299633	-0.881517	-163.430410
4.600000	-0.435786	40.016643	-17.065001	34.234968	-17.065001	34.234968	-0.841739	-170.901826
4.650000	-0.391865	36.161909	-20.163329	33.326048	-20.163329	33.326048	-0.818597	-178.533890
4.700000	-0.365851	32.312062	-24.880432	39.712891	-24.880432	39.712891	-0.813718	173.673625
4.750000	-0.358609	28.480238	-30.946442	84.817306	-30.946442	84.817306	-0.827848	165.731012
4.800000	-0.370013	24.679709	-26.431018	144.840863	-26.431018	144.840863	-0.860727	157.656128
4.850000	-0.400361	20.925457	-21.095233	156.157357	-21.095233	156.157357	-0.912514	149.463246
4.900000	-0.449361	17.232740	-17.656723	156.192010	-17.656723	156.192010	-0.982760	141.170493
4.950000	-0.516313	13.616697	-15.207563	153.198093	-15.207563	153.198093	-1.070600	132.797747
5.000000	-0.600104	10.091716	-13.337462	149.012254	-13.337462	149.012254	-1.174754	124.366083
5.050000	-0.699416	6.672486	-11.848409	144.257578	-11.848409	144.257578	-1.293719	115.896976
5.100000	-0.812181	3.368667	-10.629539	139.218269	-10.629539	139.218269	-1.425286	107.412942
5.150000	-0.936317	0.188841	-9.613502	134.035626	-9.613502	134.035626	-1.567240	98.935023
5.200000	-1.069587	-2.861067	-8.755820	128.792730	-8.755820	128.792730	-1.717235	90.483149
5.250000	-1.209689	-5.777894	-8.025289	123.542154	-8.025289	123.542154	-1.872895	82.075726
5.300000	-1.354354	-8.561171	-7.398952	118.318691	-7.398952	118.318691	-2.031913	73.729311
5.350000	-1.501421	-11.212910	-6.859260	113.145811	-6.859260	113.145811	-2.192139	65.458384
5.400000	-1.648913	-13.737282	-6.392393	108.039250	-6.392393	108.039250	-2.351645	57.275190
5.450000	-1.795032	-16.139108	-5.987552	103.009985	-5.987552	103.009985	-2.508719	49.190682
5.500000	-1.938294	-18.426384	-5.635322	98.063731	-5.635322	98.063731	-2.662027	41.212061
5.550000	-2.077528	-20.607826	-5.327906	93.202917	-5.327906	93.202917	-2.810582	33.344006
5.600000	-2.211823	-22.691993	-5.058913	88.427992	-5.058913	88.427992	-2.953676	25.589407
5.650000	-2.340526	-24.687506	-4.822935	83.737605	-4.822935	83.737605	-3.090886	17.948988
5.700000	-2.463222	-26.602741	-4.615369	79.129044	-4.615369	79.129044	-3.222040	10.421420
5.750000	-2.579704	-28.445586	-4.432284	74.598578	-4.432284	74.598578	-3.347179	3.003467
5.800000	-2.689939	-30.223262	-4.270312	70.141730	-4.270312	70.141730	-3.466518	-4.309866
5.850000	-2.793998	-31.941942	-4.126634	65.753796	-4.126634	65.753796	-3.580373	-11.524733
5.900000	-2.892067	-33.607036	-3.998806	61.429595	-3.998806	61.429595	-3.689166	-18.648903
5.950000	-2.984504	-35.223754	-3.884568	57.162853	-3.884568	57.162853	-3.793463	-25.692657
6.000000	-3.071638	-36.795859	-3.782119	52.947837	-3.782119	52.947837	-3.893783	-32.666413
6.050000	-3.153816	-38.326274	-3.689922	48.778761	-3.689922	48.778761	-3.990641	-39.581532
6.100000	-3.231379	-39.817133	-3.606681	44.649855	-3.606681	44.649855	-4.084517	-46.450163
6.150000	-3.304643	-41.269850	-3.531305	40.555403	-3.531305	40.555403	-4.175838	-53.285111
6.200000	-3.373883	-42.685196	-3.462891	36.489781	-3.462891	36.489781	-4.264953	-60.099706
6.250000	-3.439316	-44.063385	-3.400705	32.447487	-3.400705	32.447487	-4.352117	-66.907665
6.300000	-3.501032	-45.403617	-3.344236	28.423348	-3.344236	28.423348	-4.437434	-73.723282
6.350000	-3.559156	-46.705803	-3.292963	24.411849	-3.292963	24.411849	-4.520948	-80.560737
6.400000	-3.613661	-47.969065	-3.246580	20.408013	-3.246580	20.408013	-4.602513	-87.434037
6.450000	-3.664422	-49.192392	-3.204901	16.407085	-3.204901	16.407085	-4.681816	-94.356923
6.500000	-3.711209	-50.374767	-3.167851	12.404559	-3.167851	12.404559	-4.758361	-101.342636
6.550000	-3.753686	-51.515310	-3.135464	8.396215	-3.135464	8.396215	-4.831456	-108.403645
6.600000	-3.791410	-52.613426	-3.107873	4.378149	-3.107873	4.378149	-4.900204	-115.551315
6.650000	-3.823834	-53.668971	-3.085306	0.346821	-3.085306	0.346821	-4.963499	-122.795533
6.700000	-3.850096	-54.681098	-3.068269	-3.701532	-3.068269	-3.701532	-5.019745	-130.147881
6.750000	-3.869865	-55.653678	-3.056826	-7.768475	-3.056826	-7.768475	-5.067923	-137.607212
6.800000	-3.882187	-56.587749	-3.051606	-11.856642	-3.051606	-11.856642	-5.106177	-145.179221
6.850000	-3.886254	-57.486679	-3.053154	-15.967623	-3.053154	-15.967623	-5.132760	-152.863193
6.900000	-3.881163	-58.354794	-3.062155	-20.102641	-3.062155	-20.102641	-5.145735	-160.655697
6.950000	-3.866144	-59.198211	-3.079276	-24.261970	-3.079276	-24.261970	-5.143346	-168.547692
7.000000	-3.840655	-60.024484	-3.105115	-28.444862	-3.105115	-28.444862	-5.124222	-176.524897
7.050000	-3.804211	-60.841988	-3.140362	-32.650070	-3.140362	-32.650070	-5.087145	175.429897
7.100000	-3.756526	-61.660047	-3.185706	-36.875563	-3.185706	-36.875563	-5.031302	167.337602
7.150000	-3.697553	-62.488650	-3.241812	-41.118527	-3.241812	-41.118527	-4.956379	159.222184
7.200000	-3.627513	-63.338082	-3.309309	-45.375377	-3.309309	-45.375377	-4.862620	151.109787
7.250000	-3.546902	-64.218515	-3.388761	-49.641805	-3.388761	-49.641805	-4.750845	143.027694
7.300000	-3.456492	-65.139572	-3.480657	-53.912838	-3.480657	-53.912838	-4.622428	135.003242
7.350000	-3.357303	-66.109923	-3.585390	-58.182931	-3.585390	-58.182931	-4.479225	127.062773
7.400000	-3.250564	-67.136926	-3.703242	-62.446080	-3.703242	-62.446080	-4.323474	119.230728
7.450000	-3.137660	-68.226370	-3.834374	-66.695949	-3.834374	-66.695949	-4.157672	111.528946
7.500000	-3.020075	-69.382307	-3.978817	-70.926016	-3.978817	-70.926016	-3.984440	103.976200
7.550000	-2.899254	-70.608516	-4.136684	-75.129000	-4.136684	-75.129000	-3.806271	96.591821
7.600000	-2.776826	-71.903984	-4.307491	-79.298904	-4.307491	-79.298904	-3.625904	89.384495
7.650000	-2.654205	-73.267591	-4.490874	-83.429574	-4.490874	-83.429574	-3.445641	82.362982
7.700000	-2.532684	-74.696883	-4.686356	-87.515262	-4.686356	-87.515262	-3.267521	75.533137
7.750000	-2.413405	-76.188330	-4.893361	-91.550730	-4.893361	-91.550730	-3.093286	68.898232
7.800000	-2.297348	-77.737604	-5.111232	-95.531338	-5.111232	-95.531338	-2.924372	62.459286
7.850000	-2.185318	-79.339837	-5.339246	-99.453108	-5.339246	-99.453108	-2.761913	56.215414
7.900000	-2.077949	-80.989872	-5.576633	-103.312761	-5.576633	-103.312761	-2.606760	50.164132
7.950000	-1.975718	-82.682474	-5.822597	-107.107729	-5.822597	-107.107729	-2.459509	44.301654
8.000000	-1.878951	-84.412505	-6.076327	-110.836150	-6.076327	-110.836150	-2.320535	38.623140
8.050000	-1.787847	-86.175064	-6.337019	-114.496840	-6.337019	-114.496840	-2.190018	33.122923
8.100000	-1.702492	-87.965588	-6.603885	-118.089261	-6.603885	-118.089261	-2.067985	27.794693
8.150000	-1.622935	-89.780138	-6.876125	-121.612727	-6.876125	-121.612727	-1.954412	22.633375
8.200000	-1.549092	-91.614898	-7.152989	-125.067866	-7.152989	-125.067866	-1.849098	17.631581
8.250000	-1.480766	-93.466405	-7.433847	-128.456514	-7.433847	-128.456514	-1.751696	12.780135
8.300000	-1.417771	-95.331922	-7.718089	-131.780180	-7.718089	-131.780180	-1.661880	8.071520
8.350000	-1.359888	-97.209167	-8.005166	-135.040724	-8.005166	-135.040724	-1.579295	3.498156
8.400000	-1.306882	-99.096290	-8.294587	-138.240306	-8.294587	-138.240306	-1.503566	-0.947548
8.450000	-1.258503	-100.991852	-8.585929	-141.381334	-8.585929	-141.381334	-1.434312	-5.273146
8.500000	-1.214498	-102.894789	-8.878828	-144.466421	-8.878828	-144.466421	-1.371156	-9.486123
8.550000	-1.174616	-104.804388	-9.172990	-147.498341	-9.172990	-147.498341	-1.313729	-13.593880
8.600000	-1.138610	-106.720253	-9.468185	-150.480000	-9.468185	-150.480000	-1.261675	-17.603714
8.650000	-1.106242	-108.642282	-9.764248	-153.414400	-9.764248	-153.414400	-1.214658	-21.522819
8.700000	-1.077284	-110.570640	-10.061084	-156.304619	-10.061084	-156.304619	-1.172363	-25.358284
8.750000	-1.051522	-112.505737	-10.358665	-159.153792	-10.358665	-159.153792	-1.134496	-29.117102
8.800000	-1.028814	-114.448391	-10.656831	-161.964340	-10.656831	-161.964340	-1.100869	-32.804831
8.850000	-1.008905	-116.399318	-10.955908	-164.740353	-10.955908	-164.740353	-1.071146	-36.429988
8.900000	-0.991623	-118.359579	-11.256092	-167.485042	-11.256092	-167.485042	-1.045108	-39.999387
8.950000	-0.976811	-120.330423	-11.557665	-170.201619	-11.557665	-170.201619	-1.022558	-43.519837
9.000000	-0.964324	-122.313282	-11.860995	-172.893293	-11.860995	-172.893293	-1.003325	-46.998174
9.050000	-0.954034	-124.309769	-12.166551	-175.563261	-12.166551	-175.563261	-0.987265	-50.441307
9.100000	-0.945824	-126.321677	-12.474911	-178.214692	-12.474911	-178.214692	-0.974254	-53.856257
9.150000	-0.939592	-128.350980	-12.786777	179.149279	-12.786777	179.149279	-0.964195	-57.250211
9.200000	-0.935218	-130.399435	-13.103106	176.525419	-13.103106	176.525419	-0.956965	-60.630657
9.250000	-0.932787	-132.471512	-13.424378	173.911436	-13.424378	173.911436	-0.952774	-64.005164
9.300000	-0.931981	-134.566364	-13.752645	171.303383	-13.752645	171.303383	-0.951192	-67.381908
9.350000	-0.932952	-136.689762	-14.088761	168.699215	-14.088761	168.699215	-0.952559	-70.770109
9.400000	-0.935569	-138.843084	-14.434690	166.096359	-14.434690	166.096359	-0.956748	-74.178039
9.450000	-0.939811	-141.029610	-14.792504	163.492812	-14.792504	163.492812	-0.963832	-77.615478
9.500000	-0.945769	-143.254994	-15.164597	160.887051	-15.164597	160.887051	-0.974095	-81.095183
9.550000	-0.953262	-145.518513	-15.553964	158.278741	-15.553964	158.278741	-0.987323	-84.623237
9.600000	-0.962607	-147.832029	-15.964601	155.668142	-15.964601	155.668142	-1.004288	-88.223064
9.650000	-0.973523	-150.190993	-16.400288	153.057850	-16.400288	153.057850	-1.024566	-91.895204
9.700000	-0.986382	-152.609562	-16.867648	150.453636	-16.867648	150.453636	-1.049121	-95.671011
9.750000	-1.001027	-155.085469	-17.372388	147.863387	-17.372388	147.863387	-1.077787	-99.554726
9.800000	-1.017721	-157.629558	-17.924129	145.304190	-17.924129	145.304190	-1.111370	-103.576513
9.850000	-1.036568	-160.247028	-18.533684	142.800075	-18.533684	142.800075	-1.150334	-107.757304
9.900000	-1.057622	-162.940709	-19.214003	140.385080	-19.214003	140.385080	-1.195036	-112.114332
9.950000	-1.081293	-165.725442	-19.986080	138.131211	-19.986080	138.131211	-1.246787	-116.695603
10.000000	-1.107750	-168.606714	-20.874112	136.139701	-20.874112	136.139701	-1.306320	-121.531015
