! freq	dB(S11)	phase(S11)	dB(S12)	phase(S12)	
!     	dB(S21)	phase(S21)	dB(S22)	phase(S22)	
!S-par simulation data
#  GHz  S  DB  R 50
0.000000	-84.673319	0.000000	-0.000507	0.000000	-0.000507	0.000000	-84.673319	0.000000
0.050000	-37.446800	-92.058118	-0.007182	-2.913176	-0.007182	-2.913176	-37.449232	-92.357733
0.100000	-31.477735	-95.211291	-0.014052	-5.783343	-0.014052	-5.783343	-31.482288	-95.792510
0.150000	-27.989226	-98.172738	-0.021398	-8.649571	-0.021398	-8.649571	-27.994342	-99.055029
0.200000	-25.524453	-101.047592	-0.030227	-11.512131	-0.030227	-11.512131	-25.529513	-102.234444
0.250000	-23.624139	-103.868198	-0.040613	-14.369357	-0.040613	-14.369357	-23.629026	-105.361618
0.300000	-22.084245	-106.648361	-0.052508	-17.219826	-0.052508	-17.219826	-22.089023	-108.450321
0.350000	-20.793446	-109.399976	-0.065641	-20.063610	-0.065641	-20.063610	-20.798224	-111.512609
0.400000	-19.685885	-112.128745	-0.079866	-22.900714	-0.079866	-22.900714	-19.690752	-114.554698
0.450000	-18.719586	-114.837949	-0.095092	-25.730997	-0.095092	-25.730997	-18.724608	-117.580665
0.500000	-17.866750	-117.529132	-0.111280	-28.554000	-0.111280	-28.554000	-17.871974	-120.593280
0.550000	-17.105533	-120.205050	-0.128286	-31.370155	-0.128286	-31.370155	-17.110983	-123.595962
0.600000	-16.420802	-122.866471	-0.146045	-34.179351	-0.146045	-34.179351	-16.426492	-126.590395
0.650000	-15.801811	-125.513148	-0.164517	-36.981123	-0.164517	-36.981123	-15.807749	-129.577633
0.700000	-15.239604	-128.145218	-0.183620	-39.775323	-0.183620	-39.775323	-15.245794	-132.558863
0.750000	-14.726330	-130.763278	-0.203249	-42.562170	-0.203249	-42.562170	-14.732774	-135.535227
0.800000	-14.256253	-133.367180	-0.223325	-45.341575	-0.223325	-45.341575	-14.262953	-138.507450
0.850000	-13.825823	-135.955589	-0.243784	-48.112903	-0.243784	-48.112903	-13.832782	-141.475999
0.900000	-13.430192	-138.529104	-0.264507	-50.876594	-0.264507	-50.876594	-13.437414	-144.441815
0.950000	-13.065823	-141.087710	-0.285403	-53.632808	-0.285403	-53.632808	-13.073314	-147.405603
1.000000	-12.730118	-143.630943	-0.306379	-56.381523	-0.306379	-56.381523	-12.737887	-150.368032
1.050000	-12.421593	-146.157503	-0.327330	-59.122408	-0.327330	-59.122408	-12.429653	-153.329874
1.100000	-12.137039	-148.668360	-0.348161	-61.856238	-0.348161	-61.856238	-12.145405	-156.292014
1.150000	-11.874660	-151.163280	-0.368785	-64.583242	-0.368785	-64.583242	-11.883352	-159.255273
1.200000	-11.633460	-153.641318	-0.389094	-67.303421	-0.389094	-67.303421	-11.642502	-162.220668
1.250000	-11.412095	-156.102123	-0.408988	-70.017117	-0.408988	-70.017117	-11.421519	-165.189326
1.300000	-11.208688	-158.546276	-0.428402	-72.725022	-0.428402	-72.725022	-11.218526	-168.162172
1.350000	-11.022158	-160.973550	-0.447258	-75.427542	-0.447258	-75.427542	-11.032449	-171.140295
1.400000	-10.852431	-163.382421	-0.465426	-78.124800	-0.465426	-78.124800	-10.863223	-174.125440
1.450000	-10.698977	-165.771983	-0.482794	-80.817292	-0.482794	-80.817292	-10.710327	-177.119507
1.500000	-10.558171	-168.146232	-0.499493	-83.506475	-0.499493	-83.506475	-10.570123	179.878394
1.550000	-10.431182	-170.502128	-0.515341	-86.192250	-0.515341	-86.192250	-10.443799	176.865545
1.600000	-10.318943	-172.836631	-0.530143	-88.874962	-0.530143	-88.874962	-10.332305	173.838355
1.650000	-10.218998	-175.152313	-0.543997	-91.555765	-0.543997	-91.555765	-10.233180	170.796991
1.700000	-10.130422	-177.449521	-0.556907	-94.235307	-0.556907	-94.235307	-10.145500	167.740507
1.750000	-10.053641	-179.726158	-0.568757	-96.914140	-0.568757	-96.914140	-10.069707	164.665829
1.800000	-9.988008	178.017991	-0.579539	-99.592998	-0.579539	-99.592998	-10.005158	161.571314
1.850000	-9.933123	175.783597	-0.589234	-102.272598	-0.589234	-102.272598	-9.951465	158.454930
1.900000	-9.888624	173.571416	-0.597831	-104.953658	-0.597831	-104.953658	-9.908270	155.314549
1.950000	-9.854172	171.382302	-0.605327	-107.636904	-0.605327	-107.636904	-9.875245	152.147943
2.000000	-9.829455	169.217212	-0.611726	-110.323056	-0.611726	-110.323056	-9.852087	148.952784
2.050000	-9.814176	167.077220	-0.617041	-113.012828	-0.617041	-113.012828	-9.838512	145.726637
2.100000	-9.808058	164.963518	-0.621291	-115.706925	-0.621291	-115.706925	-9.834251	142.466958
2.150000	-9.810832	162.877435	-0.624504	-118.406037	-0.624504	-118.406037	-9.839049	139.171091
2.200000	-9.822236	160.820433	-0.626715	-121.110833	-0.626715	-121.110833	-9.852658	135.836266
2.250000	-9.842012	158.794126	-0.627966	-123.821962	-0.627966	-123.821962	-9.874832	132.459592
2.300000	-9.869899	156.800278	-0.628305	-126.540045	-0.628305	-126.540045	-9.905325	129.038060
2.350000	-9.905628	154.840809	-0.627787	-129.265675	-0.627787	-129.265675	-9.943885	125.568539
2.400000	-9.948918	152.917803	-0.626472	-131.999410	-0.626472	-131.999410	-9.990248	122.047779
2.450000	-9.999471	151.033504	-0.624426	-134.741776	-0.624426	-134.741776	-10.044132	118.472411
2.500000	-10.056962	149.190311	-0.621719	-137.493258	-0.621719	-137.493258	-10.105232	114.838956
2.550000	-10.121282	147.392804	-0.618406	-140.254740	-0.618406	-140.254740	-10.173469	111.140973
2.600000	-10.191746	145.641905	-0.614593	-143.026224	-0.614593	-143.026224	-10.248168	107.377307
2.650000	-10.267910	143.940440	-0.610362	-145.808068	-0.610362	-145.808068	-10.328902	103.544211
2.700000	-10.349276	142.291322	-0.605800	-148.600586	-0.605800	-148.600586	-10.415193	99.637902
2.750000	-10.435284	140.697516	-0.600993	-151.404047	-0.600993	-151.404047	-10.506498	95.654602
2.800000	-10.525305	139.161989	-0.596030	-154.218676	-0.596030	-154.218676	-10.602204	91.590583
2.850000	-10.618633	137.687648	-0.591000	-157.044652	-0.591000	-157.044652	-10.701615	87.442230
2.900000	-10.714477	136.277264	-0.585995	-159.882108	-0.585995	-159.882108	-10.803950	83.206123
2.950000	-10.811955	134.933387	-0.581105	-162.731134	-0.581105	-162.731134	-10.908330	78.879118
3.000000	-10.910095	133.658232	-0.576420	-165.591772	-0.576420	-165.591772	-11.013774	74.458470
3.050000	-11.007824	132.453563	-0.572031	-168.464020	-0.572031	-168.464020	-11.119199	69.941947
3.100000	-11.103978	131.320553	-0.568024	-171.347832	-0.568024	-171.347832	-11.223413	65.327984
3.150000	-11.197303	130.259642	-0.564487	-174.243117	-0.564487	-174.243117	-11.325126	60.615832
3.200000	-11.286466	129.270381	-0.561504	-177.149744	-0.561504	-177.149744	-11.422955	55.805729
3.250000	-11.370075	128.351279	-0.559155	179.932463	-0.559155	179.932463	-11.515438	50.899066
3.300000	-11.446696	127.499667	-0.557518	177.003719	-0.557518	177.003719	-11.601061	45.898547
3.350000	-11.514886	126.711577	-0.556667	174.064276	-0.556667	174.064276	-11.678284	40.808333
3.400000	-11.573227	125.981654	-0.556672	171.114423	-0.556672	171.114423	-11.745577	35.634147
3.450000	-11.620365	125.303121	-0.557598	168.154484	-0.557598	168.154484	-11.801465	30.383329
3.500000	-11.655055	124.667803	-0.559503	165.184814	-0.559503	165.184814	-11.844574	25.064837
3.550000	-11.676204	124.066210	-0.562443	162.205795	-0.562443	162.205795	-11.873682	19.689165
3.600000	-11.682913	123.487703	-0.566463	159.217836	-0.566463	159.217836	-11.887765	14.268176
3.650000	-11.674515	122.920720	-0.571607	156.221366	-0.571607	156.221366	-11.886040	8.814868
3.700000	-11.650603	122.353070	-0.577909	153.216832	-0.577909	153.216832	-11.868005	3.343052
3.750000	-11.611048	121.772265	-0.585397	150.204696	-0.585397	150.204696	-11.833456	-2.133018
3.800000	-11.555328	121.164198	-0.594143	147.185142	-0.594143	147.185142	-11.781784	-7.597958
3.850000	-11.484585	120.517529	-0.604110	144.158979	-0.604110	144.158979	-11.714153	-13.037757
3.900000	-11.399526	119.821150	-0.615303	141.126683	-0.615303	141.126683	-11.631281	-18.439418
3.950000	-11.301073	119.065024	-0.627720	138.088730	-0.627720	138.088730	-11.534130	-23.791081
4.000000	-11.190327	118.240388	-0.641352	135.045588	-0.641352	135.045588	-11.423859	-29.082275
4.050000	-11.068521	117.339884	-0.656183	131.997710	-0.656183	131.997710	-11.301780	-34.304077
4.100000	-10.936976	116.357616	-0.672189	128.945538	-0.672189	128.945538	-11.169306	-39.449195
4.150000	-10.797060	115.289145	-0.689342	125.889491	-0.689342	125.889491	-11.027900	-44.511968
4.200000	-10.650148	114.131430	-0.707605	122.829966	-0.707605	122.829966	-10.879038	-49.488316
4.250000	-10.497591	112.882726	-0.726937	119.767336	-0.726937	119.767336	-10.724169	-54.375631
4.300000	-10.340687	111.542453	-0.747290	116.701941	-0.747290	116.701941	-10.564683	-59.172634
4.350000	-10.180664	110.111049	-0.768610	113.634094	-0.768610	113.634094	-10.401893	-63.879221
4.400000	-10.018662	108.589817	-0.790840	110.564069	-0.790840	110.564069	-10.237016	-68.496289
4.450000	-9.855728	106.980773	-0.813917	107.492106	-0.813917	107.492106	-10.071167	-73.025580
4.500000	-9.692810	105.286503	-0.837774	104.418406	-0.837774	104.418406	-9.905352	-77.469517
4.550000	-9.530758	103.510031	-0.862341	101.343130	-0.862341	101.343130	-9.740469	-81.831065
4.600000	-9.370326	101.654707	-0.887544	98.266399	-0.887544	98.266399	-9.577311	-86.113611
4.650000	-9.212177	99.724101	-0.913306	95.188288	-0.913306	95.188288	-9.416571	-90.320848
4.700000	-9.056886	97.721922	-0.939546	92.108831	-0.939546	92.108831	-9.258853	-94.456689
4.750000	-8.904955	95.651948	-0.966182	89.028017	-0.966182	89.028017	-9.104672	-98.525193
4.800000	-8.756811	93.517965	-0.993131	85.945789	-0.993131	85.945789	-8.954471	-102.530503
4.850000	-8.612822	91.323728	-1.020306	82.862045	-1.020306	82.862045	-8.808624	-106.476800
4.900000	-8.473298	89.072923	-1.047620	79.776637	-1.047620	79.776637	-8.667446	-110.368271
4.950000	-8.338502	86.769139	-1.074982	76.689367	-1.074982	76.689367	-8.531201	-114.209076
5.000000	-8.208658	84.415857	-1.102304	73.599992	-1.102304	73.599992	-8.400109	-118.003336
5.050000	-8.084111	82.014575	-1.129480	70.508098	-1.129480	70.508098	-8.274519	-121.753464
5.100000	-7.964889	79.570648	-1.156423	67.413427	-1.156423	67.413427	-8.154445	-125.465484
5.150000	-7.851127	77.087142	-1.183041	64.315578	-1.183041	64.315578	-8.040014	-129.143339
5.200000	-7.742943	74.566985	-1.209239	61.214098	-1.209239	61.214098	-7.931333	-132.790911
5.250000	-7.640443	72.012975	-1.234923	58.108478	-1.234923	58.108478	-7.828498	-136.412034
5.300000	-7.543724	69.427777	-1.259998	54.998155	-1.259998	54.998155	-7.731596	-140.010495
5.350000	-7.452880	66.813934	-1.284368	51.882506	-1.284368	51.882506	-7.640708	-143.590045
5.400000	-7.368007	64.173869	-1.307936	48.760844	-1.307936	48.760844	-7.555918	-147.154411
5.450000	-7.289204	61.509897	-1.330605	45.632420	-1.330605	45.632420	-7.477310	-150.707308
5.500000	-7.216575	58.824230	-1.352277	42.496415	-1.352277	42.496415	-7.404978	-154.252451
5.550000	-7.150238	56.118986	-1.372852	39.351932	-1.372852	39.351932	-7.339026	-157.793571
5.600000	-7.090324	53.396200	-1.392232	36.198001	-1.392232	36.198001	-7.279572	-161.334432
5.650000	-7.036981	50.657836	-1.410316	33.033561	-1.410316	33.033561	-7.226752	-164.878848
5.700000	-6.990382	47.905791	-1.427002	29.857463	-1.427002	29.857463	-7.180725	-168.430701
5.750000	-6.950722	45.141920	-1.442190	26.668455	-1.442190	26.668455	-7.141676	-171.993965
5.800000	-6.918226	42.368041	-1.455777	23.465177	-1.455777	23.465177	-7.109820	-175.572731
5.850000	-6.893156	39.585954	-1.467661	20.246151	-1.467661	20.246151	-7.085409	-179.171226
5.900000	-6.875811	36.797466	-1.477741	17.009768	-1.477741	17.009768	-7.068735	177.206147
5.950000	-6.866538	34.004409	-1.485915	13.754278	-1.485915	13.754278	-7.060140	173.554781
6.000000	-6.865733	31.208670	-1.492082	10.477772	-1.492082	10.477772	-7.060021	169.869827
6.050000	-6.873854	28.412231	-1.496144	7.178171	-1.496144	7.178171	-7.068839	166.146146
6.100000	-6.891427	25.617206	-1.498007	3.853206	-1.498007	3.853206	-7.087129	162.378259
6.150000	-6.919057	22.825900	-1.497577	0.500396	-1.497577	0.500396	-7.115513	158.560286
6.200000	-6.957438	20.040876	-1.494770	-2.882969	-1.494770	-2.882969	-7.154715	154.685874
6.250000	-7.007371	17.265043	-1.489507	-6.299857	-1.489507	-6.299857	-7.205577	150.748108
6.300000	-7.070344	14.502506	-1.481606	-9.755290	-1.481606	-9.755290	-7.269660	146.735928
6.350000	-7.146937	11.756942	-1.471120	-13.251424	-1.471120	-13.251424	-7.347633	142.643590
6.400000	-7.238388	9.033268	-1.458012	-16.792230	-1.458012	-16.792230	-7.440861	138.461610
6.450000	-7.346125	6.337502	-1.442268	-20.382073	-1.442268	-20.382073	-7.550952	134.179313
6.500000	-7.470851	3.674892	-1.424044	-24.022645	-1.424044	-24.022645	-7.678811	129.791147
6.550000	-7.616059	1.058110	-1.403129	-27.724442	-1.403129	-27.724442	-7.828346	125.272372
6.600000	-7.783231	-1.502418	-1.379729	-31.490998	-1.379729	-31.490998	-8.001501	120.611591
6.650000	-7.974869	-3.991508	-1.353994	-35.328684	-1.353994	-35.328684	-8.201463	115.789930
6.700000	-8.193801	-6.389619	-1.326140	-39.244411	-1.326140	-39.244411	-8.432037	110.785159
6.750000	-8.443429	-8.670000	-1.296463	-43.246502	-1.296463	-43.246502	-8.698073	105.568477
6.800000	-8.727098	-10.799653	-1.265393	-47.342551	-1.265393	-47.342551	-9.004952	100.108401
6.850000	-9.048649	-12.733547	-1.233474	-51.541673	-1.233474	-51.541673	-9.359560	94.363206
6.900000	-9.412473	-14.405645	-1.201418	-55.855903	-1.201418	-55.855903	-9.771142	88.272296
6.950000	-9.821989	-15.729735	-1.170185	-60.296494	-1.170185	-60.296494	-10.250459	81.760533
7.000000	-10.278603	-16.598225	-1.140949	-64.873014	-1.140949	-64.873014	-10.809885	74.734855
7.050000	-10.780813	-16.861648	-1.115177	-69.597655	-1.115177	-69.597655	-11.465463	67.055521
7.100000	-11.320221	-16.325818	-1.094693	-74.483108	-1.094693	-74.483108	-12.236424	58.517722
7.150000	-11.875569	-14.753306	-1.081742	-79.542297	-1.081742	-79.542297	-13.144215	48.809661
7.200000	-12.402805	-11.878674	-1.079171	-84.789687	-1.079171	-84.789687	-14.207699	37.419591
7.250000	-12.822079	-7.496355	-1.090653	-90.241135	-1.090653	-90.241135	-15.422516	23.473991
7.300000	-13.029266	-1.735209	-1.119862	-95.902081	-1.119862	-95.902081	-16.707567	5.794936
7.350000	-12.919297	4.865281	-1.171383	-101.780182	-1.171383	-101.780182	-17.791082	-16.913148
7.400000	-12.444008	11.359721	-1.250435	-107.879249	-1.250435	-107.879249	-18.141303	-44.283432
7.450000	-11.647265	16.766986	-1.362806	-114.197883	-1.362806	-114.197883	-17.373506	-72.364552
7.500000	-10.638329	20.478867	-1.514722	-120.728105	-1.514722	-120.728105	-15.788236	-96.700968
7.550000	-9.530666	22.315375	-1.713828	-127.458688	-1.713828	-127.458688	-13.943578	-116.252200
7.600000	-8.420903	22.508442	-1.965448	-134.359256	-1.965448	-134.359256	-12.181571	-132.362855
7.650000	-7.363965	21.352292	-2.275398	-141.396373	-2.275398	-141.396373	-10.605089	-146.261377
7.700000	-6.389487	19.132588	-2.649380	-148.529789	-2.649380	-148.529789	-9.229443	-158.744073
7.750000	-5.511829	16.128197	-3.090455	-155.710675	-3.090455	-155.710675	-8.043275	-170.313710
7.800000	-4.734601	12.557809	-3.600856	-162.889252	-3.600856	-162.889252	-7.027164	178.752339
7.850000	-4.056275	8.594525	-4.181902	-170.015124	-4.181902	-170.015124	-6.162278	168.299207
7.900000	-3.471061	4.385357	-4.832828	-177.042262	-4.832828	-177.042262	-5.430063	158.227555
7.950000	-2.971141	0.042819	-5.552352	176.068681	-5.552352	176.068681	-4.813566	148.478074
8.000000	-2.548450	-4.347120	-6.338872	169.352113	-6.338872	169.352113	-4.298334	139.014390
8.050000	-2.193780	-8.718785	-7.190766	162.832431	-7.190766	162.832431	-3.870416	129.803934
8.100000	-1.898216	-13.025443	-8.107243	156.527177	-8.107243	156.527177	-3.517491	120.817822
8.150000	-1.653469	-17.235028	-9.088718	150.449056	-9.088718	150.449056	-3.228832	112.027489
8.200000	-1.452429	-21.325556	-10.136598	144.610985	-10.136598	144.610985	-2.995712	103.404906
8.250000	-1.287728	-25.287525	-11.256194	139.018936	-11.256194	139.018936	-2.809392	94.915322
8.300000	-1.153573	-29.116067	-12.455097	133.686885	-12.455097	133.686885	-2.663288	86.525534
8.350000	-1.044988	-32.810855	-13.744757	128.638137	-13.744757	128.638137	-2.551959	78.200640
8.400000	-0.957741	-36.374681	-15.141831	123.913293	-15.141831	123.913293	-2.470978	69.904103
8.450000	-0.888388	-39.811343	-16.669136	119.588079	-16.669136	119.588079	-2.417013	61.597272
8.500000	-0.834092	-43.125104	-18.357977	115.806938	-18.357977	115.806938	-2.387636	53.237506
8.550000	-0.791959	-46.325946	-20.260965	112.806386	-20.260965	112.806386	-2.380119	44.782700
8.600000	-0.759942	-49.420793	-22.450934	111.069017	-22.450934	111.069017	-2.392957	36.187821
8.650000	-0.736339	-52.416492	-25.030901	111.615881	-25.030901	111.615881	-2.425093	27.404787
8.700000	-0.719734	-55.319637	-28.106588	116.806549	-28.106588	116.806549	-2.475798	18.382003
8.750000	-0.708940	-58.136468	-31.480746	132.042913	-31.480746	132.042913	-2.544538	9.064006
8.800000	-0.703066	-60.870853	-33.228489	162.446075	-33.228489	162.446075	-2.631217	-0.619297
8.850000	-0.701124	-63.530393	-31.641556	-170.426758	-31.641556	-170.426758	-2.734636	-10.723649
8.900000	-0.702391	-66.120055	-29.143561	-158.490263	-29.143561	-158.490263	-2.853514	-21.314954
8.950000	-0.706260	-68.643527	-27.072686	-155.327519	-27.072686	-155.327519	-2.985736	-32.468466
9.000000	-0.712137	-71.105434	-25.507691	-156.213740	-25.507691	-156.213740	-3.127372	-44.246818
9.050000	-0.719449	-73.511784	-24.338321	-159.154794	-24.338321	-159.154794	-3.272538	-56.678897
9.100000	-0.727772	-75.864503	-23.486432	-163.360726	-23.486432	-163.360726	-3.412905	-69.819059
9.150000	-0.736646	-78.168493	-22.894098	-168.359756	-22.894098	-168.359756	-3.537482	-83.651338
9.200000	-0.745686	-80.428316	-22.525812	-173.885074	-22.525812	-173.885074	-3.633667	-98.114388
9.250000	-0.754580	-82.647964	-22.363165	-179.756763	-22.363165	-179.756763	-3.688091	-113.095643
9.300000	-0.763107	-84.832048	-22.394152	174.178261	-22.394152	174.178261	-3.690141	-128.411094
9.350000	-0.771166	-86.985620	-22.608791	168.059486	-22.608791	168.059486	-3.635654	-143.828974
9.400000	-0.778757	-89.112358	-23.006952	162.022102	-23.006952	162.022102	-3.525361	-159.100617
9.450000	-0.785990	-91.216092	-23.586974	156.207155	-23.586974	156.207155	-3.367876	-173.985383
9.500000	-0.793052	-93.300177	-24.347839	150.757360	-24.347839	150.757360	-3.176731	171.705203
9.550000	-0.800161	-95.366954	-25.293297	145.831346	-25.293297	145.831346	-2.966183	158.104558
9.600000	-0.807536	-97.417976	-26.431257	141.626100	-26.431257	141.626100	-2.749290	145.294556
9.650000	-0.815374	-99.454259	-27.773441	138.411038	-27.773441	138.411038	-2.536623	133.307486
9.700000	-0.823810	-101.476735	-29.336143	136.558911	-29.336143	136.558911	-2.335368	122.119127
9.750000	-0.832936	-103.485879	-31.136045	136.694704	-31.136045	136.694704	-2.149680	111.693821
9.800000	-0.842802	-105.482025	-33.163136	139.899379	-33.163136	139.899379	-1.981526	101.984878
9.850000	-0.853428	-107.465375	-35.282024	148.008543	-35.282024	148.008543	-1.831470	92.945519
9.900000	-0.864785	-109.436620	-37.040993	162.675250	-37.040993	162.675250	-1.698529	84.505490
9.950000	-0.876840	-111.396280	-37.633639	-177.911330	-37.633639	-177.911330	-1.581451	76.610103
10.000000	-0.889551	-113.344958	-36.842203	-160.580293	-36.842203	-160.580293	-1.478744	69.208289
