! freq	dB(S11)	phase(S11)	dB(S12)	phase(S12)	
!     	dB(S21)	phase(S21)	dB(S22)	phase(S22)	
!S-par simulation data
#  GHz  S  DB  R 50
0.000000	-0.000000	0.000000	-344.614937	0.000000	-344.614937	0.000000	-0.000000	0.000000
0.050000	-0.001626	-2.302358	-101.893904	88.697447	-101.893904	88.697447	-0.000643	-0.929096
0.100000	-0.005246	-4.590996	-95.845730	87.198461	-95.845730	87.198461	-0.002060	-1.852969
0.150000	-0.009096	-6.865743	-92.377095	85.316503	-92.377095	85.316503	-0.003550	-2.771963
0.200000	-0.012577	-9.132112	-89.979752	83.676474	-89.979752	83.676474	-0.004895	-3.688468
0.250000	-0.015666	-11.392623	-88.164043	82.163418	-88.164043	82.163418	-0.006097	-4.603731
0.300000	-0.018531	-13.648510	-86.725924	80.707896	-86.725924	80.707896	-0.007227	-5.518409
0.350000	-0.021297	-15.899878	-85.555876	79.304855	-85.555876	79.304855	-0.008329	-6.432684
0.400000	-0.024027	-18.146277	-84.590343	77.961755	-84.590343	77.961755	-0.009429	-7.346568
0.450000	-0.026757	-20.386566	-83.795317	76.697137	-83.795317	76.697137	-0.010539	-8.259976
0.500000	-0.029497	-22.620466	-83.138045	75.521053	-83.138045	75.521053	-0.011662	-9.172881
0.550000	-0.032245	-24.847402	-82.599085	74.449605	-82.599085	74.449605	-0.012796	-10.085232
0.600000	-0.034994	-27.066591	-82.166960	73.505908	-82.166960	73.505908	-0.013940	-10.996967
0.650000	-0.037733	-29.276974	-81.836428	72.725454	-81.836428	72.725454	-0.015091	-11.908003
0.700000	-0.040455	-31.478549	-81.595338	72.130691	-81.595338	72.130691	-0.016244	-12.818346
0.750000	-0.043150	-33.670802	-81.439130	71.760043	-81.439130	71.760043	-0.017398	-13.727963
0.800000	-0.045812	-35.852697	-81.368898	71.679194	-81.368898	71.679194	-0.018551	-14.636779
0.850000	-0.048434	-38.023911	-81.380532	71.953927	-81.380532	71.953927	-0.019700	-15.544776
0.900000	-0.051015	-40.184115	-81.470469	72.666764	-81.470469	72.666764	-0.020847	-16.451934
0.950000	-0.053550	-42.332799	-81.635407	73.933222	-81.635407	73.933222	-0.021989	-17.358218
1.000000	-0.056039	-44.469541	-81.868317	75.898247	-81.868317	75.898247	-0.023128	-18.263598
1.050000	-0.058481	-46.593944	-82.155682	78.741827	-82.155682	78.741827	-0.024264	-19.168042
1.100000	-0.060876	-48.705642	-82.472471	82.673304	-82.472471	82.673304	-0.025397	-20.071520
1.150000	-0.063225	-50.804289	-82.775369	87.902371	-82.775369	87.902371	-0.026528	-20.974001
1.200000	-0.065529	-52.889572	-82.996679	94.565482	-82.996679	94.565482	-0.027658	-21.875455
1.250000	-0.067789	-54.961198	-83.046281	102.596176	-83.046281	102.596176	-0.028788	-22.775850
1.300000	-0.070005	-57.018598	-82.825387	111.591119	-82.825387	111.591119	-0.029918	-23.675131
1.350000	-0.072180	-59.061832	-82.288307	120.761045	-82.288307	120.761045	-0.031050	-24.573290
1.400000	-0.074314	-61.090690	-81.455909	129.284840	-81.455909	129.284840	-0.032183	-25.470295
1.450000	-0.076411	-63.104988	-80.405296	136.592219	-80.405296	136.592219	-0.033319	-26.366117
1.500000	-0.078470	-65.104564	-79.228911	142.474381	-79.228911	142.474381	-0.034458	-27.260725
1.550000	-0.080494	-67.089285	-78.003223	146.992433	-78.003223	146.992433	-0.035601	-28.154089
1.600000	-0.082483	-69.059037	-76.779321	150.334356	-76.779321	150.334356	-0.036747	-29.046180
1.650000	-0.084439	-71.013732	-75.586646	152.714945	-75.586646	152.714945	-0.037898	-29.936968
1.700000	-0.086363	-72.953302	-74.439983	154.328822	-74.439983	154.328822	-0.039053	-30.826426
1.750000	-0.088256	-74.877702	-73.345310	155.336263	-73.345310	155.336263	-0.040212	-31.714526
1.800000	-0.090119	-76.786908	-72.303697	155.863749	-72.303697	155.863749	-0.041376	-32.601240
1.850000	-0.091955	-78.680913	-71.313653	156.009369	-71.313653	156.009369	-0.042544	-33.486544
1.900000	-0.093762	-80.559568	-70.371905	155.846209	-70.371905	155.846209	-0.043717	-34.370395
1.950000	-0.095543	-82.422906	-69.475443	155.434431	-69.475443	155.434431	-0.044893	-35.252769
2.000000	-0.097299	-84.271142	-68.621543	154.822321	-68.621543	154.822321	-0.046073	-36.133658
2.050000	-0.099031	-86.104342	-67.806976	154.045283	-67.806976	154.045283	-0.047257	-37.013040
2.100000	-0.100741	-87.922589	-67.028730	153.131426	-67.028730	153.131426	-0.048444	-37.890894
2.150000	-0.102428	-89.725978	-66.284038	152.103272	-66.284038	152.103272	-0.049634	-38.767199
2.200000	-0.104095	-91.514619	-65.570387	150.979017	-65.570387	150.979017	-0.050826	-39.641936
2.250000	-0.105743	-93.288635	-64.885502	149.773492	-64.885502	149.773492	-0.052020	-40.515088
2.300000	-0.107373	-95.048159	-64.227327	148.498878	-64.227327	148.498878	-0.053216	-41.386637
2.350000	-0.108986	-96.793337	-63.594007	147.165259	-63.594007	147.165259	-0.054412	-42.256568
2.400000	-0.110584	-98.524324	-62.983868	145.781040	-62.983868	145.781040	-0.055610	-43.124867
2.450000	-0.112167	-100.241286	-62.395392	144.353273	-62.395392	144.353273	-0.056807	-43.991521
2.500000	-0.113738	-101.944395	-61.827206	142.887913	-61.827206	142.887913	-0.058005	-44.856517
2.550000	-0.115296	-103.633394	-61.277550	141.389086	-61.277550	141.389086	-0.059201	-45.719791
2.600000	-0.116845	-105.308924	-60.745872	139.862298	-60.745872	139.862298	-0.060397	-46.581387
2.650000	-0.118385	-106.971183	-60.231126	138.311201	-60.231126	138.311201	-0.061592	-47.441298
2.700000	-0.119917	-108.620371	-59.732357	136.738946	-59.732357	136.738946	-0.062785	-48.299516
2.750000	-0.121444	-110.256697	-59.248689	135.148267	-59.248689	135.148267	-0.063977	-49.156036
2.800000	-0.122967	-111.880372	-58.779319	133.541542	-58.779319	133.541542	-0.065167	-50.010855
2.850000	-0.124486	-113.491613	-58.323505	131.920850	-58.323505	131.920850	-0.066356	-50.863968
2.900000	-0.126004	-115.090640	-57.880567	130.288010	-57.880567	130.288010	-0.067544	-51.715374
2.950000	-0.127522	-116.677675	-57.449874	128.644626	-57.449874	128.644626	-0.068732	-52.565071
3.000000	-0.129042	-118.252944	-57.030840	126.992108	-57.030840	126.992108	-0.069919	-53.413059
3.050000	-0.130564	-119.816676	-56.622925	125.331704	-56.622925	125.331704	-0.071107	-54.259338
3.100000	-0.132091	-121.369100	-56.225625	123.664522	-56.225625	123.664522	-0.072297	-55.103908
3.150000	-0.133624	-122.910448	-55.838469	121.991544	-55.838469	121.991544	-0.073489	-55.946771
3.200000	-0.135164	-124.440951	-55.461021	120.313646	-55.461021	120.313646	-0.074685	-56.787927
3.250000	-0.136712	-125.960844	-55.092872	118.631608	-55.092872	118.631608	-0.075886	-57.627378
3.300000	-0.138271	-127.470360	-54.733638	116.946128	-54.733638	116.946128	-0.077094	-58.465124
3.350000	-0.139841	-128.969733	-54.382962	115.257832	-54.382962	115.257832	-0.078310	-59.301166
3.400000	-0.141423	-130.459197	-54.040506	113.567280	-54.040506	113.567280	-0.079537	-60.135504
3.450000	-0.143019	-131.938985	-53.705953	111.874977	-53.705953	111.874977	-0.080775	-60.968136
3.500000	-0.144631	-133.409330	-53.379008	110.181374	-53.379008	110.181374	-0.082028	-61.799061
3.550000	-0.146259	-134.870465	-53.059388	108.486880	-53.059388	108.486880	-0.083296	-62.628277
3.600000	-0.147904	-136.322620	-52.746830	106.791864	-52.746830	106.791864	-0.084583	-63.455780
3.650000	-0.149568	-137.766027	-52.441084	105.096658	-52.441084	105.096658	-0.085889	-64.281565
3.700000	-0.151252	-139.200913	-52.141914	103.401561	-52.141914	103.401561	-0.087216	-65.105629
3.750000	-0.152957	-140.627508	-51.849096	101.706847	-51.849096	101.706847	-0.088566	-65.927965
3.800000	-0.154684	-142.045696	-51.562275	100.012800	-51.562275	100.012800	-0.089942	-66.748492
3.850000	-0.156434	-143.456062	-51.281412	98.319622	-51.281412	98.319622	-0.091343	-67.567278
3.900000	-0.158207	-144.858828	-51.006314	96.627516	-51.006314	96.627516	-0.092771	-68.384317
3.950000	-0.160005	-146.254216	-50.736801	94.936661	-50.736801	94.936661	-0.094227	-69.199604
4.000000	-0.161827	-147.642444	-50.472699	93.247225	-50.472699	93.247225	-0.095711	-70.013132
4.050000	-0.163675	-149.023728	-50.213845	91.559357	-50.213845	91.559357	-0.097224	-70.824896
4.100000	-0.165550	-150.398284	-49.960082	89.873196	-49.960082	89.873196	-0.098765	-71.634893
4.150000	-0.167452	-151.766324	-49.711261	88.188867	-49.711261	88.188867	-0.100335	-72.443120
4.200000	-0.169380	-153.128058	-49.467241	86.506485	-49.467241	86.506485	-0.101934	-73.249575
4.250000	-0.171337	-154.483695	-49.227887	84.826155	-49.227887	84.826155	-0.103562	-74.054257
4.300000	-0.173321	-155.833441	-48.993070	83.147973	-48.993070	83.147973	-0.105218	-74.857168
4.350000	-0.175334	-157.177500	-48.762667	81.472028	-48.762667	81.472028	-0.106902	-75.658309
4.400000	-0.177376	-158.516074	-48.536560	79.798400	-48.536560	79.798400	-0.108614	-76.457684
4.450000	-0.179446	-159.849363	-48.314637	78.127164	-48.314637	78.127164	-0.110352	-77.255299
4.500000	-0.181545	-161.177565	-48.096792	76.458390	-48.096792	76.458390	-0.112117	-78.051160
4.550000	-0.183672	-162.500875	-47.882920	74.792140	-47.882920	74.792140	-0.113908	-78.845274
4.600000	-0.185829	-163.819486	-47.672925	73.128475	-47.672925	73.128475	-0.115725	-79.637651
4.650000	-0.188014	-165.133590	-47.466712	71.467449	-47.466712	71.467449	-0.117567	-80.428301
4.700000	-0.190228	-166.443375	-47.264190	69.809114	-47.264190	69.809114	-0.119434	-81.217235
4.750000	-0.192470	-167.749028	-47.065274	68.153517	-47.065274	68.153517	-0.121326	-82.004465
4.800000	-0.194740	-169.050736	-46.869881	66.500705	-46.869881	66.500705	-0.123242	-82.790005
4.850000	-0.197038	-170.348679	-46.677932	64.850719	-46.677932	64.850719	-0.125183	-83.573867
4.900000	-0.199363	-171.643040	-46.489349	63.203600	-46.489349	63.203600	-0.127147	-84.356067
4.950000	-0.201715	-172.933997	-46.304061	61.559386	-46.304061	61.559386	-0.129136	-85.136621
5.000000	-0.204094	-174.221728	-46.121996	59.918115	-46.121996	59.918115	-0.131149	-85.915543
5.050000	-0.206499	-175.506282	-45.943065	58.279954	-45.943065	58.279954	-0.133188	-86.692781
5.100000	-0.208930	-176.787973	-45.767232	56.644808	-45.767232	56.644808	-0.135251	-87.468423
5.150000	-0.211386	-178.066973	-45.594433	55.012710	-45.594433	55.012710	-0.137338	-88.242486
5.200000	-0.213865	-179.343450	-45.424609	53.383694	-45.424609	53.383694	-0.139451	-89.014988
5.250000	-0.216368	179.382428	-45.257701	51.757792	-45.257701	51.757792	-0.141589	-89.785946
5.300000	-0.218893	178.110495	-45.093655	50.135035	-45.093655	50.135035	-0.143753	-90.555379
5.350000	-0.221441	176.840587	-44.932416	48.515455	-44.932416	48.515455	-0.145944	-91.323307
5.400000	-0.224009	175.572542	-44.773933	46.899084	-44.773933	46.899084	-0.148161	-92.089746
5.450000	-0.226598	174.306198	-44.618157	45.285952	-44.618157	45.285952	-0.150405	-92.854718
5.500000	-0.229206	173.041396	-44.465039	43.676093	-44.465039	43.676093	-0.152677	-93.618240
5.550000	-0.231833	171.777979	-44.314533	42.069537	-44.314533	42.069537	-0.154977	-94.380333
5.600000	-0.234478	170.515791	-44.166596	40.466318	-44.166596	40.466318	-0.157307	-95.141016
5.650000	-0.237141	169.254677	-44.021184	38.866469	-44.021184	38.866469	-0.159665	-95.900310
5.700000	-0.239819	167.994484	-43.878255	37.270023	-43.878255	37.270023	-0.162054	-96.658234
5.750000	-0.242514	166.735059	-43.737771	35.677015	-43.737771	35.677015	-0.164474	-97.414809
5.800000	-0.245223	165.476254	-43.599691	34.087479	-43.599691	34.087479	-0.166924	-98.170055
5.850000	-0.247946	164.217919	-43.463980	32.501452	-43.463980	32.501452	-0.169407	-98.923994
5.900000	-0.250683	162.959907	-43.330601	30.918971	-43.330601	30.918971	-0.171923	-99.676646
5.950000	-0.253432	161.702072	-43.199519	29.340072	-43.199519	29.340072	-0.174472	-100.428032
6.000000	-0.256194	160.444269	-43.070701	27.764796	-43.070701	27.764796	-0.177055	-101.178174
6.050000	-0.258967	159.186356	-42.944113	26.193181	-42.944113	26.193181	-0.179672	-101.927093
6.100000	-0.261751	157.928191	-42.819726	24.625269	-42.819726	24.625269	-0.182325	-102.674811
6.150000	-0.264545	156.669633	-42.697506	23.061101	-42.697506	23.061101	-0.185014	-103.421350
6.200000	-0.267349	155.410543	-42.577426	21.500720	-42.577426	21.500720	-0.187739	-104.166733
6.250000	-0.270163	154.150784	-42.459456	19.944170	-42.459456	19.944170	-0.190502	-104.910981
6.300000	-0.272986	152.890179	-42.343592	18.391667	-42.343592	18.391667	-0.193304	-105.654071
6.350000	-0.275819	151.628622	-42.229786	16.843092	-42.229786	16.843092	-0.196145	-106.396075
6.400000	-0.278660	150.365981	-42.118010	15.298492	-42.118010	15.298492	-0.199025	-107.137016
6.450000	-0.281509	149.102123	-42.008240	13.757915	-42.008240	13.757915	-0.201944	-107.876917
6.500000	-0.284368	147.836919	-41.900449	12.221412	-41.900449	12.221412	-0.204904	-108.615802
6.550000	-0.287235	146.570241	-41.794614	10.689034	-41.794614	10.689034	-0.207905	-109.353696
6.600000	-0.290112	145.301962	-41.690710	9.160833	-41.690710	9.160833	-0.210948	-110.090623
6.650000	-0.292997	144.031956	-41.588714	7.636862	-41.588714	7.636862	-0.214032	-110.826608
6.700000	-0.295893	142.760101	-41.488604	6.117176	-41.488604	6.117176	-0.217159	-111.561675
6.750000	-0.298798	141.486275	-41.390356	4.601830	-41.390356	4.601830	-0.220330	-112.295850
6.800000	-0.301714	140.210357	-41.293948	3.090880	-41.293948	3.090880	-0.223543	-113.029158
6.850000	-0.304642	138.932230	-41.199360	1.584384	-41.199360	1.584384	-0.226801	-113.761627
6.900000	-0.307581	137.651778	-41.106570	0.082400	-41.106570	0.082400	-0.230103	-114.493281
6.950000	-0.310534	136.368886	-41.015557	-1.415013	-41.015557	-1.415013	-0.233451	-115.224149
7.000000	-0.313500	135.083441	-40.926302	-2.907794	-40.926302	-2.907794	-0.236844	-115.954256
7.050000	-0.316482	133.795335	-40.838783	-4.395883	-40.838783	-4.395883	-0.240282	-116.683631
7.100000	-0.319479	132.504458	-40.752981	-5.879219	-40.752981	-5.879219	-0.243767	-117.412301
7.150000	-0.322494	131.210705	-40.668877	-7.357738	-40.668877	-7.357738	-0.247299	-118.140296
7.200000	-0.325527	129.913972	-40.586452	-8.831378	-40.586452	-8.831378	-0.250878	-118.867643
7.250000	-0.328580	128.614157	-40.505686	-10.300075	-40.505686	-10.300075	-0.254504	-119.594372
7.300000	-0.331655	127.311162	-40.426560	-11.763766	-40.426560	-11.763766	-0.258177	-120.320513
7.350000	-0.334752	126.004890	-40.349056	-13.222386	-40.349056	-13.222386	-0.261899	-121.046096
7.400000	-0.337873	124.695247	-40.273156	-14.675869	-40.273156	-14.675869	-0.265669	-121.771152
7.450000	-0.341019	123.382140	-40.198841	-16.124150	-40.198841	-16.124150	-0.269488	-122.495712
7.500000	-0.344193	122.065481	-40.126093	-17.567164	-40.126093	-17.567164	-0.273355	-123.219807
7.550000	-0.347396	120.745020	-40.054935	-19.004610	-40.054935	-19.004610	-0.277274	-123.943453
7.600000	-0.350630	119.420827	-39.985309	-20.436650	-39.985309	-20.436650	-0.281241	-124.666703
7.650000	-0.353895	118.092821	-39.917197	-21.863218	-39.917197	-21.863218	-0.285259	-125.389591
7.700000	-0.357192	116.760923	-39.850581	-23.284248	-39.850581	-23.284248	-0.289326	-126.112151
7.750000	-0.360524	115.425055	-39.785442	-24.699673	-39.785442	-24.699673	-0.293443	-126.834417
7.800000	-0.363891	114.085142	-39.721763	-26.109426	-39.721763	-26.109426	-0.297610	-127.556424
7.850000	-0.367293	112.741113	-39.659527	-27.513440	-39.659527	-27.513440	-0.301828	-128.278210
7.900000	-0.370733	111.392896	-39.598715	-28.911650	-39.598715	-28.911650	-0.306096	-128.999811
7.950000	-0.374211	110.040423	-39.539310	-30.303987	-39.539310	-30.303987	-0.310414	-129.721264
8.000000	-0.377726	108.683625	-39.481294	-31.690387	-39.481294	-31.690387	-0.314783	-130.442607
8.050000	-0.381280	107.322438	-39.424650	-33.070780	-39.424650	-33.070780	-0.319202	-131.163880
8.100000	-0.384873	105.956797	-39.369360	-34.445102	-39.369360	-34.445102	-0.323672	-131.885122
8.150000	-0.388505	104.586638	-39.315406	-35.813284	-39.315406	-35.813284	-0.328193	-132.606374
8.200000	-0.392175	103.211898	-39.262770	-37.175258	-39.262770	-37.175258	-0.332765	-133.327677
8.250000	-0.395884	101.832515	-39.211434	-38.530957	-39.211434	-38.530957	-0.337388	-134.049073
8.300000	-0.399630	100.448424	-39.161381	-39.880312	-39.161381	-39.880312	-0.342062	-134.770606
8.350000	-0.403411	99.059844	-39.112536	-41.223630	-39.112536	-41.223630	-0.346784	-135.492306
8.400000	-0.407230	97.666318	-39.064961	-42.560312	-39.064961	-42.560312	-0.351559	-136.214233
8.450000	-0.411086	96.267487	-39.018694	-43.889894	-39.018694	-43.889894	-0.356388	-136.936455
8.500000	-0.414976	94.863950	-38.973585	-45.213192	-38.973585	-45.213192	-0.361267	-137.658979
8.550000	-0.418900	93.455253	-38.929691	-46.529610	-38.929691	-46.529610	-0.366197	-138.381881
8.600000	-0.422857	92.041419	-38.886973	-47.839193	-38.886973	-47.839193	-0.371179	-139.105200
8.650000	-0.426846	90.622574	-38.845375	-49.142115	-38.845375	-49.142115	-0.376211	-139.828972
8.700000	-0.430869	89.198134	-38.804969	-50.437605	-38.804969	-50.437605	-0.381297	-140.553293
8.750000	-0.434922	87.768839	-38.765589	-51.726643	-38.765589	-51.726643	-0.386430	-141.278133
8.800000	-0.439013	86.333455	-38.727410	-53.007570	-38.727410	-53.007570	-0.391620	-142.003673
8.850000	-0.443136	84.893053	-38.690214	-54.281787	-38.690214	-54.281787	-0.396857	-142.729832
8.900000	-0.447298	83.446681	-38.654115	-55.547955	-38.654115	-55.547955	-0.402149	-143.456774
8.950000	-0.451501	81.994789	-38.619000	-56.806590	-38.619000	-56.806590	-0.407490	-144.184484
9.000000	-0.455749	80.537053	-38.584870	-58.057094	-38.584870	-58.057094	-0.412884	-144.913051
9.050000	-0.460050	79.073255	-38.551701	-59.298919	-38.551701	-59.298919	-0.418331	-145.642553
9.100000	-0.464407	77.603751	-38.519383	-60.532214	-38.519383	-60.532214	-0.423827	-146.372979
9.150000	-0.468838	76.127609	-38.487943	-61.754925	-38.487943	-61.754925	-0.429380	-147.104529
9.200000	-0.473341	74.645794	-38.457166	-62.967721	-38.457166	-62.967721	-0.434980	-147.837082
9.250000	-0.477946	73.156977	-38.426978	-64.166414	-38.426978	-64.166414	-0.440638	-148.570923
9.300000	-0.482652	71.662161	-38.397011	-65.350338	-38.397011	-65.350338	-0.446346	-149.305914
9.350000	-0.487489	70.160484	-38.366575	-66.511523	-38.366575	-66.511523	-0.452109	-150.042272
9.400000	-0.492470	68.652226	-38.334105	-67.639903	-38.334105	-67.639903	-0.457924	-150.779989
9.450000	-0.497615	67.137423	-38.294832	-68.711963	-38.294832	-68.711963	-0.463792	-151.519109
9.500000	-0.502959	65.615525	-38.225021	-69.678187	-38.225021	-69.678187	-0.469716	-152.259806
9.550000	-0.508525	64.086695	-38.017930	-71.214240	-38.017930	-71.214240	-0.475695	-153.002105
9.600000	-0.514364	62.550367	-38.146995	-73.722505	-38.146995	-73.722505	-0.481733	-153.746206
9.650000	-0.520461	61.007662	-38.220355	-74.528346	-38.220355	-74.528346	-0.487822	-154.491900
9.700000	-0.526908	59.457253	-38.213363	-75.477224	-38.213363	-75.477224	-0.493972	-155.239595
9.750000	-0.533698	57.900077	-38.197111	-76.518043	-38.197111	-76.518043	-0.500177	-155.989124
9.800000	-0.540901	56.335577	-38.179074	-77.597620	-38.179074	-77.597620	-0.506441	-156.740724
9.850000	-0.548550	54.763904	-38.160984	-78.692819	-38.160984	-78.692819	-0.512765	-157.494446
9.900000	-0.556673	53.185369	-38.143328	-79.793389	-38.143328	-79.793389	-0.519147	-158.250298
9.950000	-0.565366	51.599350	-38.126316	-80.894764	-38.126316	-80.894764	-0.525595	-159.008594
10.000000	-0.574589	50.007010	-38.109914	-81.994364	-38.109914	-81.994364	-0.532100	-159.769064
