! freq	dB(S11)	phase(S11)	dB(S12)	phase(S12)	
!     	dB(S21)	phase(S21)	dB(S22)	phase(S22)	
!S-par simulation data
#  GHz  S  DB  R 50
0.000000	-0.000000	0.000000	-338.738202	0.000000	-338.738202	0.000000	-0.000000	0.000000
0.050000	-0.000113	-0.814586	-114.750215	87.507221	-114.750215	87.507221	-0.000113	-0.814418
0.100000	-0.000448	-1.628874	-108.973198	86.433785	-108.973198	86.433785	-0.000446	-1.628540
0.150000	-0.000987	-2.442595	-105.645019	85.920551	-105.645019	85.920551	-0.000983	-2.442099
0.200000	-0.001704	-3.255536	-103.316735	85.498863	-103.316735	85.498863	-0.001698	-3.254883
0.250000	-0.002579	-4.067469	-101.558534	85.079339	-101.558534	85.079339	-0.002571	-4.066664
0.300000	-0.003569	-4.878377	-100.171201	84.668830	-100.171201	84.668830	-0.003559	-4.877424
0.350000	-0.004650	-5.688165	-99.056054	84.291247	-99.056054	84.291247	-0.004638	-5.687068
0.400000	-0.005795	-6.496817	-98.152630	83.974403	-98.152630	83.974403	-0.005782	-6.495579
0.450000	-0.006982	-7.304351	-97.422668	83.748052	-97.422668	83.748052	-0.006969	-7.302972
0.500000	-0.008193	-8.110803	-96.841011	83.645246	-96.841011	83.645246	-0.008179	-8.109284
0.550000	-0.009413	-8.916221	-96.390839	83.704689	-96.390839	83.704689	-0.009400	-8.914561
0.600000	-0.010633	-9.720655	-96.060935	83.973756	-96.060935	83.973756	-0.010619	-9.718853
0.650000	-0.011844	-10.524153	-95.843964	84.512432	-95.843964	84.512432	-0.011831	-10.522208
0.700000	-0.013042	-11.326760	-95.735212	85.398621	-95.735212	85.398621	-0.013031	-11.324670
0.750000	-0.014226	-12.128511	-95.731382	86.735372	-95.731382	86.735372	-0.014215	-12.126274
0.800000	-0.015392	-12.929435	-95.829037	88.660523	-95.829037	88.660523	-0.015383	-12.927050
0.850000	-0.016543	-13.729552	-96.022065	91.358574	-96.022065	91.358574	-0.016534	-13.727019
0.900000	-0.017677	-14.528878	-96.297193	95.072113	-96.297193	95.072113	-0.017669	-14.526194
0.950000	-0.018797	-15.327418	-96.626166	100.103098	-96.626166	100.103098	-0.018789	-15.324584
1.000000	-0.019902	-16.125176	-96.953636	106.779047	-96.953636	106.779047	-0.019896	-16.122190
1.050000	-0.020995	-16.922149	-97.183868	115.338695	-97.183868	115.338695	-0.020989	-16.919011
1.100000	-0.022078	-17.718329	-97.180893	125.701237	-97.180893	125.701237	-0.022072	-17.715040
1.150000	-0.023150	-18.513709	-96.808429	137.206298	-96.808429	137.206298	-0.023145	-18.510268
1.200000	-0.024214	-19.308276	-96.009102	148.647183	-96.009102	148.647183	-0.024209	-19.304683
1.250000	-0.025270	-20.102015	-94.848978	158.819180	-94.848978	158.819180	-0.025265	-20.098271
1.300000	-0.026320	-20.894876	-93.453353	167.010452	-93.453353	167.010452	-0.026314	-20.890981
1.350000	-0.027363	-21.686876	-91.974123	173.308073	-91.974123	173.308073	-0.027358	-21.682831
1.400000	-0.028403	-22.477998	-90.495791	178.003726	-90.495791	178.003726	-0.028397	-22.473804
1.450000	-0.029438	-23.268225	-89.062857	-178.567215	-89.062857	-178.567215	-0.029432	-23.263882
1.500000	-0.030469	-24.057539	-87.694727	-176.112936	-87.694727	-176.112936	-0.030464	-24.053048
1.550000	-0.031498	-24.845920	-86.397221	-174.404370	-86.397221	-174.404370	-0.031492	-24.841282
1.600000	-0.032524	-25.633351	-85.169463	-173.268991	-85.169463	-173.268991	-0.032518	-25.628566
1.650000	-0.033548	-26.419813	-84.007591	-172.578573	-84.007591	-172.578573	-0.033542	-26.414882
1.700000	-0.034570	-27.204935	-82.879933	-172.326411	-82.879933	-172.326411	-0.034563	-27.199859
1.750000	-0.035592	-27.989535	-81.846651	-172.230574	-81.846651	-172.230574	-0.035585	-27.984315
1.800000	-0.036613	-28.772880	-80.848120	-172.387246	-80.848120	-172.387246	-0.036605	-28.767516
1.850000	-0.037633	-29.555328	-79.904523	-172.724282	-79.904523	-172.724282	-0.037625	-29.549820
1.900000	-0.038653	-30.336660	-78.999809	-173.205381	-78.999809	-173.205381	-0.038644	-30.331010
1.950000	-0.039672	-31.116877	-78.131965	-173.830543	-78.131965	-173.830543	-0.039664	-31.111086
2.000000	-0.040693	-31.896134	-77.305024	-174.539136	-77.305024	-174.539136	-0.040684	-31.890201
2.050000	-0.041714	-32.674045	-76.501503	-175.364533	-76.501503	-175.364533	-0.041705	-32.667971
2.100000	-0.042736	-33.451163	-75.739852	-176.238006	-75.739852	-176.238006	-0.042726	-33.444949
2.150000	-0.043759	-34.226695	-74.991485	-177.207630	-74.991485	-177.207630	-0.043750	-34.220342
2.200000	-0.044784	-35.001615	-74.285358	-178.204007	-74.285358	-178.204007	-0.044774	-34.995123
2.250000	-0.045812	-35.774698	-73.584785	-179.280641	-73.584785	-179.280641	-0.045801	-35.768067
2.300000	-0.046840	-36.547361	-72.926449	179.629162	-72.926449	179.629162	-0.046830	-36.540593
2.350000	-0.047873	-37.317927	-72.267716	178.471152	-72.267716	178.471152	-0.047862	-37.311021
2.400000	-0.048907	-38.088278	-71.650965	177.307877	-71.650965	177.307877	-0.048896	-38.081235
2.450000	-0.049946	-38.856261	-71.029202	176.086699	-71.029202	176.086699	-0.049935	-38.849082
2.500000	-0.050986	-39.624245	-70.448990	174.865520	-70.448990	174.865520	-0.050975	-39.616930
2.550000	-0.052034	-40.389585	-69.860169	173.594455	-69.860169	173.594455	-0.052023	-40.382134
2.600000	-0.053082	-41.154924	-69.308742	172.323390	-69.308742	172.323390	-0.053071	-41.147339
2.650000	-0.054140	-41.917786	-68.753088	171.015682	-68.753088	171.015682	-0.054128	-41.910066
2.700000	-0.055198	-42.680422	-68.227679	169.704643	-68.227679	169.704643	-0.055186	-42.672568
2.750000	-0.056265	-43.440759	-67.701648	168.366584	-67.701648	168.366584	-0.056254	-43.432772
2.800000	-0.057335	-44.200636	-67.199895	167.023122	-67.199895	167.023122	-0.057323	-44.192515
2.850000	-0.058415	-44.958403	-66.700501	165.659731	-66.700501	165.659731	-0.058403	-44.950151
2.900000	-0.059498	-45.715468	-66.220373	164.289697	-66.220373	164.289697	-0.059486	-45.707083
2.950000	-0.060590	-46.470624	-65.745075	162.905022	-65.745075	162.905022	-0.060578	-46.462108
3.000000	-0.061688	-47.224827	-65.284810	161.513026	-65.284810	161.513026	-0.061676	-47.216180
3.050000	-0.062795	-47.977333	-64.831426	160.110366	-64.831426	160.110366	-0.062783	-47.968555
3.100000	-0.063910	-48.728627	-64.389487	158.700090	-64.389487	158.700090	-0.063897	-48.719719
3.150000	-0.065033	-49.478445	-63.956130	157.282162	-63.956130	157.282162	-0.065021	-49.469408
3.200000	-0.066166	-50.226787	-63.531163	155.856582	-63.531163	155.856582	-0.066153	-50.217621
3.250000	-0.067307	-50.973882	-63.116187	154.425641	-63.116187	154.425641	-0.067294	-50.964588
3.300000	-0.068460	-51.719233	-62.706998	152.987195	-62.706998	152.987195	-0.068447	-51.709811
3.350000	-0.069620	-52.463574	-62.308960	151.545131	-62.308960	151.545131	-0.069607	-52.454024
3.400000	-0.070794	-53.205897	-61.914483	150.095832	-61.914483	150.095832	-0.070781	-53.196220
3.450000	-0.071974	-53.947454	-61.532111	148.644242	-61.532111	148.644242	-0.071961	-53.937651
3.500000	-0.073172	-54.686716	-61.151396	147.185774	-61.151396	147.185774	-0.073159	-54.676787
3.550000	-0.074375	-55.425463	-60.783559	145.726014	-60.783559	145.726014	-0.074361	-55.415409
3.600000	-0.075598	-56.161635	-60.415751	144.259795	-60.415751	144.259795	-0.075584	-56.151456
3.650000	-0.076824	-56.897547	-60.061443	142.793030	-60.061443	142.793030	-0.076810	-56.887243
3.700000	-0.078074	-57.630603	-59.705771	141.320264	-59.705771	141.320264	-0.078060	-57.620176
3.750000	-0.079324	-58.363660	-59.364092	139.847497	-59.364092	139.847497	-0.079310	-58.353108
3.800000	-0.080603	-59.093578	-59.019857	138.369217	-59.019857	138.369217	-0.080589	-59.082904
3.850000	-0.081883	-59.823496	-58.688746	136.890936	-58.688746	136.890936	-0.081868	-59.812699
3.900000	-0.083190	-60.550520	-58.356562	135.408418	-58.356562	135.408418	-0.083175	-60.539602
3.950000	-0.084499	-61.277281	-58.035457	133.925514	-58.035457	133.925514	-0.084484	-61.266242
4.000000	-0.085836	-62.001399	-57.714576	132.439404	-57.714576	132.439404	-0.085820	-61.990239
4.050000	-0.087178	-62.724989	-57.402962	130.952652	-57.402962	130.952652	-0.087162	-62.713708
4.100000	-0.088545	-63.446191	-57.092704	129.463523	-57.092704	129.463523	-0.088529	-63.434791
4.150000	-0.089921	-64.166597	-56.790110	127.973602	-56.790110	127.973602	-0.089905	-64.155077
4.200000	-0.091321	-64.884875	-56.489858	126.481967	-56.489858	126.481967	-0.091304	-64.873237
4.250000	-0.092733	-65.602090	-56.195848	124.989476	-56.195848	124.989476	-0.092716	-65.590333
4.300000	-0.094166	-66.317440	-55.905038	123.495794	-55.905038	123.495794	-0.094149	-66.305566
4.350000	-0.095615	-67.031459	-55.619210	122.001262	-55.619210	122.001262	-0.095598	-67.019467
4.400000	-0.097084	-67.743879	-55.337328	120.505948	-55.337328	120.505948	-0.097067	-67.731770
4.450000	-0.098573	-68.454700	-55.059310	119.009851	-55.059310	119.009851	-0.098555	-68.442475
4.500000	-0.100078	-69.164190	-54.785883	117.513278	-54.785883	117.513278	-0.100060	-69.151849
4.550000	-0.101608	-69.871817	-54.515329	116.016040	-54.515329	116.016040	-0.101589	-69.859360
4.600000	-0.103151	-70.578380	-54.249922	114.518551	-54.249922	114.518551	-0.103133	-70.565808
4.650000	-0.104723	-71.282817	-53.986511	113.020556	-53.986511	113.020556	-0.104705	-71.270130
4.700000	-0.106307	-71.986459	-53.728723	111.522460	-53.728723	111.522460	-0.106288	-71.973658
4.750000	-0.107923	-72.687716	-53.472156	110.024057	-53.472156	110.024057	-0.107904	-72.674801
4.800000	-0.109548	-73.388444	-53.221615	108.525639	-53.221615	108.525639	-0.109528	-73.375416
4.850000	-0.111210	-74.086533	-52.971612	107.027145	-52.971612	107.027145	-0.111190	-74.073391
4.900000	-0.112877	-74.784358	-52.727975	105.528667	-52.727975	105.528667	-0.112857	-74.771104
4.950000	-0.114588	-75.479294	-52.484273	104.030370	-52.484273	104.030370	-0.114567	-75.465927
5.000000	-0.116299	-76.174229	-52.247222	102.532073	-52.247222	102.532073	-0.116278	-76.160750
5.050000	-0.118059	-76.866030	-52.009574	101.034240	-52.009574	101.034240	-0.118038	-76.852439
5.100000	-0.119819	-77.557830	-51.778256	99.536407	-51.778256	99.536407	-0.119798	-77.544128
5.150000	-0.121627	-78.246777	-51.546987	98.039222	-51.546987	98.039222	-0.121605	-78.232964
5.200000	-0.123439	-78.935465	-51.321190	96.542095	-51.321190	96.542095	-0.123417	-78.921541
5.250000	-0.125295	-79.621578	-51.096018	95.045745	-51.096018	95.045745	-0.125272	-79.607544
5.300000	-0.127160	-80.307177	-50.875542	93.549550	-50.875542	93.549550	-0.127137	-80.293033
5.350000	-0.129066	-80.990479	-50.656201	92.054208	-50.656201	92.054208	-0.129043	-80.976225
5.400000	-0.130986	-81.673017	-50.440858	90.559151	-50.440858	90.559151	-0.130963	-81.658653
5.450000	-0.132944	-82.353533	-50.227101	89.064979	-50.227101	89.064979	-0.132920	-82.339060
5.500000	-0.134920	-83.033039	-50.016712	87.571250	-50.016712	87.571250	-0.134896	-83.018457
5.550000	-0.136931	-83.710795	-49.808308	86.078397	-49.808308	86.078397	-0.136907	-83.696104
5.600000	-0.138966	-84.387302	-49.602703	84.586170	-49.602703	84.586170	-0.138941	-84.372503
5.650000	-0.141031	-85.062328	-49.399435	83.094775	-49.399435	83.094775	-0.141006	-85.047420
5.700000	-0.143126	-85.735872	-49.198453	81.604212	-49.198453	81.604212	-0.143101	-85.720856
5.750000	-0.145247	-86.408198	-49.000115	80.114403	-49.000115	80.114403	-0.145222	-86.393074
5.800000	-0.147404	-87.078818	-48.803604	78.625649	-48.803604	78.625649	-0.147378	-87.063586
5.850000	-0.149582	-87.748476	-48.610005	77.137544	-48.610005	77.137544	-0.149556	-87.733136
5.900000	-0.151803	-88.416211	-48.417819	75.650735	-48.417819	75.650735	-0.151777	-88.400764
5.950000	-0.154040	-89.083236	-48.228777	74.164442	-48.228777	74.164442	-0.154013	-89.067681
6.000000	-0.156326	-89.748131	-48.040778	72.679698	-48.040778	72.679698	-0.156299	-89.732469
6.050000	-0.158623	-90.412559	-47.856123	71.195316	-47.856123	71.195316	-0.158596	-90.396790
6.100000	-0.160976	-91.074658	-47.672179	69.712746	-47.672179	69.712746	-0.160949	-91.058782
6.150000	-0.163336	-91.736528	-47.491749	68.230366	-47.491749	68.230366	-0.163308	-91.720545
6.200000	-0.165757	-92.395880	-47.311735	66.750068	-47.311735	66.750068	-0.165729	-92.379789
6.250000	-0.168180	-93.055231	-47.135377	65.269769	-47.135377	65.269769	-0.168151	-93.039034
6.300000	-0.170672	-93.711885	-46.959174	63.791829	-46.959174	63.791829	-0.170643	-93.695581
6.350000	-0.173165	-94.368539	-46.786475	62.313888	-46.786475	62.313888	-0.173136	-94.352128
6.400000	-0.175723	-95.022769	-46.614238	60.838176	-46.614238	60.838176	-0.175694	-95.006251
6.450000	-0.178288	-95.676778	-46.445091	59.362667	-46.445091	59.362667	-0.178259	-95.660153
6.500000	-0.180915	-96.328628	-46.276682	57.889237	-46.276682	57.889237	-0.180885	-96.311897
6.550000	-0.183554	-96.980047	-46.110987	56.416224	-46.110987	56.416224	-0.183523	-96.963208
6.600000	-0.186249	-97.629565	-45.946274	54.945121	-45.946274	54.945121	-0.186218	-97.612620
6.650000	-0.188964	-98.278450	-45.783933	53.474655	-45.783933	53.474655	-0.188933	-98.261397
6.700000	-0.191730	-98.925684	-45.622792	52.005916	-45.622792	52.005916	-0.191699	-98.908525
6.750000	-0.194522	-99.572093	-45.463714	50.538040	-45.463714	50.538040	-0.194490	-99.554827
6.800000	-0.197360	-100.217094	-45.306030	49.071694	-45.306030	49.071694	-0.197328	-100.199720
6.850000	-0.200231	-100.861089	-45.150127	47.606441	-45.150127	47.606441	-0.200199	-100.843608
6.900000	-0.203143	-101.503907	-44.995787	46.142510	-44.995787	46.142510	-0.203110	-101.486319
6.950000	-0.206094	-102.145549	-44.842976	44.679901	-44.842976	44.679901	-0.206061	-102.127853
7.000000	-0.209080	-102.786238	-44.691877	43.218399	-44.691877	43.218399	-0.209047	-102.768435
7.050000	-0.212114	-103.425592	-44.542080	41.758448	-44.542080	41.758448	-0.212080	-103.407681
7.100000	-0.215177	-104.064206	-44.394122	40.299384	-44.394122	40.299384	-0.215142	-104.046187
7.150000	-0.218295	-104.701339	-44.247264	38.842095	-44.247264	38.842095	-0.218260	-104.683212
7.200000	-0.221434	-105.337933	-44.102354	37.385470	-44.102354	37.385470	-0.221399	-105.319697
7.250000	-0.224638	-105.972911	-43.958366	35.930838	-43.958366	35.930838	-0.224602	-105.954568
7.300000	-0.227856	-106.607543	-43.816416	34.476647	-43.816416	34.476647	-0.227821	-106.589091
7.350000	-0.231147	-107.240438	-43.675230	33.024660	-43.675230	33.024660	-0.231111	-107.221877
7.400000	-0.234445	-107.873165	-43.536158	31.572893	-43.536158	31.572893	-0.234409	-107.854495
7.450000	-0.237824	-108.504047	-43.397714	30.123532	-43.397714	30.123532	-0.237788	-108.485268
7.500000	-0.241204	-109.134930	-43.261442	28.674172	-43.261442	28.674172	-0.241167	-109.116041
7.550000	-0.244673	-109.763873	-43.125681	27.227411	-43.125681	27.227411	-0.244636	-109.744874
7.600000	-0.248144	-110.392816	-42.992009	25.780651	-42.992009	25.780651	-0.248106	-110.373707
7.650000	-0.251697	-111.020049	-42.859004	24.336246	-42.859004	24.336246	-0.251659	-111.000831
7.700000	-0.255259	-111.647128	-42.727884	22.892055	-42.727884	22.892055	-0.255220	-111.627799
7.750000	-0.258897	-112.272716	-42.597566	21.449975	-42.597566	21.449975	-0.258859	-112.253276
7.800000	-0.262552	-112.898007	-42.468950	20.008317	-42.468950	20.008317	-0.262513	-112.878456
7.850000	-0.266277	-113.522015	-42.341258	18.568528	-42.341258	18.568528	-0.266238	-113.502352
7.900000	-0.270027	-114.145595	-42.215103	17.129363	-42.215103	17.129363	-0.269987	-114.125821
7.950000	-0.273839	-114.768088	-42.089977	15.691831	-42.089977	15.691831	-0.273799	-114.748203
8.000000	-0.277684	-115.390038	-41.966245	14.255116	-41.966245	14.255116	-0.277644	-115.370040
8.050000	-0.281586	-116.011085	-41.843631	12.819804	-41.843631	12.819804	-0.281546	-115.990974
8.100000	-0.285528	-116.631486	-41.722287	11.385494	-41.722287	11.385494	-0.285488	-116.611262
8.150000	-0.289520	-117.251154	-41.602136	9.952364	-41.602136	9.952364	-0.289479	-117.230817
8.200000	-0.293561	-117.870089	-41.483149	8.520415	-41.483149	8.520415	-0.293519	-117.849638
8.250000	-0.297643	-118.488448	-41.365414	7.089430	-41.365414	7.089430	-0.297602	-118.467883
8.300000	-0.301783	-119.106001	-41.248758	5.659795	-41.248758	5.659795	-0.301742	-119.085322
8.350000	-0.305958	-119.723123	-41.133396	4.230919	-41.133396	4.230919	-0.305916	-119.702329
8.400000	-0.310199	-120.339380	-41.019048	2.803556	-41.019048	2.803556	-0.310157	-120.318471
8.450000	-0.314466	-120.955336	-40.906021	1.376752	-40.906021	1.376752	-0.314424	-120.934311
8.500000	-0.318809	-121.570385	-40.793960	-0.048377	-40.793960	-0.048377	-0.318767	-121.549245
8.550000	-0.323170	-122.185248	-40.683235	-1.473141	-40.683235	-1.473141	-0.323128	-122.163991
8.600000	-0.327616	-122.799179	-40.573446	-2.896074	-40.573446	-2.896074	-0.327573	-122.777805
8.650000	-0.332072	-123.413024	-40.464990	-4.318826	-40.464990	-4.318826	-0.332030	-123.391533
8.700000	-0.336622	-124.025926	-40.357461	-5.739592	-40.357461	-5.739592	-0.336579	-124.004318
8.750000	-0.341173	-124.638829	-40.251247	-7.160358	-40.251247	-7.160358	-0.341131	-124.617102
8.800000	-0.345827	-125.250796	-40.145970	-8.578980	-40.145970	-8.578980	-0.345785	-125.228951
8.850000	-0.350484	-125.862762	-40.041953	-9.997601	-40.041953	-9.997601	-0.350441	-125.840799
8.900000	-0.355235	-126.473958	-39.938941	-11.414270	-39.938941	-11.414270	-0.355193	-126.451875
8.950000	-0.359997	-127.085083	-39.837117	-12.830761	-39.837117	-12.830761	-0.359955	-127.062880
9.000000	-0.364846	-127.695587	-39.736353	-14.245480	-39.736353	-14.245480	-0.364804	-127.673264
9.050000	-0.369715	-128.305966	-39.636721	-15.659844	-39.636721	-15.659844	-0.369673	-128.283522
9.100000	-0.374662	-128.915859	-39.538188	-17.072608	-39.538188	-17.072608	-0.374621	-128.893294
9.150000	-0.379637	-129.525590	-39.440750	-18.484838	-39.440750	-18.484838	-0.379596	-129.502903
9.200000	-0.384683	-130.134955	-39.344434	-19.895632	-39.344434	-19.895632	-0.384643	-130.112146
9.250000	-0.389766	-130.744136	-39.249195	-21.305708	-39.249195	-21.305708	-0.389726	-130.721204
9.300000	-0.394912	-131.353056	-39.155086	-22.714507	-39.155086	-22.714507	-0.394872	-131.330001
9.350000	-0.400102	-131.961789	-39.062054	-24.122394	-39.062054	-24.122394	-0.400063	-131.938610
9.400000	-0.405347	-132.570349	-38.970142	-25.529162	-38.970142	-25.529162	-0.405309	-132.547046
9.450000	-0.410646	-133.178735	-38.879326	-26.934810	-38.879326	-26.934810	-0.410609	-133.155308
9.500000	-0.415991	-133.787022	-38.789607	-28.339497	-38.789607	-28.339497	-0.415954	-133.763469
9.550000	-0.421398	-134.395167	-38.701020	-29.742839	-38.701020	-29.742839	-0.421362	-134.371489
9.600000	-0.426843	-135.003267	-38.613487	-31.145385	-38.613487	-31.145385	-0.426808	-134.979463
9.650000	-0.432359	-135.611277	-38.527144	-32.546337	-38.527144	-32.546337	-0.432325	-135.587346
9.700000	-0.437904	-136.219280	-38.441796	-33.946666	-38.441796	-33.946666	-0.437871	-136.195222
9.750000	-0.443528	-136.827263	-38.357711	-35.345125	-38.357711	-35.345125	-0.443497	-136.803078
9.800000	-0.449173	-137.435260	-38.274547	-36.743148	-38.274547	-36.743148	-0.449143	-137.410946
9.850000	-0.454906	-138.043326	-38.192738	-38.138990	-38.192738	-38.138990	-0.454877	-138.018883
9.900000	-0.460651	-138.651408	-38.111759	-39.534602	-38.111759	-39.534602	-0.460624	-138.626837
9.950000	-0.466492	-139.259670	-38.032245	-40.927684	-38.032245	-40.927684	-0.466466	-139.234968
10.000000	-0.472336	-139.867931	-37.953451	-42.320767	-37.953451	-42.320767	-0.472313	-139.843099
