! freq	dB(S11)	phase(S11)	dB(S12)	phase(S12)	
!     	dB(S21)	phase(S21)	dB(S22)	phase(S22)	
!S-par simulation data
#  GHz  S  DB  R 50
0.000000	-0.000000	-0.000000	-274.276481	-180.000000	-274.276481	-180.000000	0.000000	-0.000000
0.050000	-0.001497	-0.827265	-94.398163	89.068082	-94.398163	89.068082	-0.001487	-0.827712
0.100000	-0.003115	-1.641049	-88.380211	88.298628	-88.380211	88.298628	-0.003107	-1.642013
0.150000	-0.004045	-2.452068	-84.861858	87.495059	-84.861858	87.495059	-0.004041	-2.453501
0.200000	-0.004725	-3.263164	-82.367511	86.685751	-82.367511	86.685751	-0.004724	-3.265049
0.250000	-0.005344	-4.074454	-80.434955	85.876791	-80.434955	85.876791	-0.005345	-4.076788
0.300000	-0.005981	-4.885718	-78.858317	85.071211	-78.858317	85.071211	-0.005983	-4.888502
0.350000	-0.006663	-5.696769	-77.527311	84.270406	-77.527311	84.270406	-0.006665	-5.700006
0.400000	-0.007416	-6.507323	-76.377399	83.478017	-76.377399	83.478017	-0.007418	-6.511015
0.450000	-0.008191	-7.317713	-75.363180	82.688314	-75.363180	82.688314	-0.008192	-7.321859
0.500000	-0.009057	-8.127159	-74.460005	81.913103	-74.460005	81.913103	-0.009058	-8.131763
0.550000	-0.009945	-8.936305	-73.643271	81.142542	-73.643271	81.142542	-0.009945	-8.941368
0.600000	-0.010892	-9.744568	-72.900291	80.385683	-72.900291	80.385683	-0.010892	-9.750091
0.650000	-0.011871	-10.552191	-72.218088	79.639210	-72.218088	79.639210	-0.011870	-10.558175
0.700000	-0.012880	-11.359175	-71.587633	78.903124	-71.587633	78.903124	-0.012878	-11.365620
0.750000	-0.013923	-12.165118	-71.002719	78.184946	-71.002719	78.184946	-0.013922	-12.172025
0.800000	-0.014978	-12.970702	-70.455641	77.473025	-70.455641	77.473025	-0.014976	-12.978070
0.850000	-0.016062	-13.774908	-69.943936	76.786334	-69.943936	76.786334	-0.016060	-13.782739
0.900000	-0.017150	-14.578692	-69.461400	76.107887	-69.461400	76.107887	-0.017149	-14.586983
0.950000	-0.018251	-15.381447	-69.005861	75.449464	-69.005861	75.449464	-0.018250	-15.390199
1.000000	-0.019357	-16.183382	-68.573844	74.807911	-68.573844	74.807911	-0.019356	-16.192595
1.050000	-0.020465	-16.984661	-68.162923	74.179855	-68.162923	74.179855	-0.020465	-16.994333
1.100000	-0.021574	-17.784715	-67.770972	73.578188	-67.770972	73.578188	-0.021574	-17.794845
1.150000	-0.022682	-18.584372	-67.395985	72.985146	-67.395985	72.985146	-0.022683	-18.594960
1.200000	-0.023785	-19.382643	-67.036012	72.423025	-67.036012	72.423025	-0.023787	-19.393688
1.250000	-0.024886	-20.180383	-66.689760	71.873022	-66.689760	71.873022	-0.024888	-20.191883
1.300000	-0.025981	-20.977123	-66.355688	71.345798	-66.355688	71.345798	-0.025984	-20.989077
1.350000	-0.027070	-21.772916	-66.032166	70.840353	-66.032166	70.840353	-0.027074	-21.785323
1.400000	-0.028155	-22.568105	-65.719142	70.348767	-65.719142	70.348767	-0.028160	-22.580966
1.450000	-0.029230	-23.361918	-65.413243	69.888584	-65.413243	69.888584	-0.029235	-23.375229
1.500000	-0.030302	-24.155312	-65.116413	69.437830	-65.116413	69.437830	-0.030309	-24.169074
1.550000	-0.031365	-24.947329	-64.824489	69.017718	-64.824489	69.017718	-0.031372	-24.961540
1.600000	-0.032423	-25.738690	-64.539082	68.611565	-64.539082	68.611565	-0.032431	-25.753350
1.650000	-0.033476	-26.529079	-64.258484	68.226110	-64.258484	68.226110	-0.033485	-26.544186
1.700000	-0.034522	-27.318249	-63.979993	67.864784	-63.979993	67.864784	-0.034531	-27.333803
1.750000	-0.035564	-28.106811	-63.706922	67.515521	-63.706922	67.515521	-0.035575	-28.122810
1.800000	-0.036602	-28.894182	-63.434443	67.187338	-63.434443	67.187338	-0.036613	-28.910626
1.850000	-0.037636	-29.680704	-63.164901	66.874211	-63.164901	66.874211	-0.037648	-29.697593
1.900000	-0.038667	-30.466182	-62.895531	66.576738	-62.895531	66.576738	-0.038680	-30.483514
1.950000	-0.039696	-31.250615	-62.626565	66.294918	-62.626565	66.294918	-0.039709	-31.268390
2.000000	-0.040722	-32.034156	-62.357922	66.023563	-62.357922	66.023563	-0.040736	-32.052374
2.050000	-0.041747	-32.816450	-62.086810	65.766859	-62.086810	65.766859	-0.041761	-32.835109
2.100000	-0.042772	-33.598014	-61.816757	65.516026	-61.816757	65.516026	-0.042786	-33.617115
2.150000	-0.043795	-34.378118	-61.540994	65.276935	-61.540994	65.276935	-0.043810	-34.397660
2.200000	-0.044820	-35.157664	-61.267634	65.040073	-61.267634	65.040073	-0.044835	-35.177647
2.250000	-0.045846	-35.935532	-60.984937	64.809899	-60.984937	64.809899	-0.045861	-35.955955
2.300000	-0.046872	-36.713020	-60.706605	64.579594	-60.706605	64.579594	-0.046888	-36.733884
2.350000	-0.047902	-37.488608	-60.414911	64.348642	-60.414911	64.348642	-0.047918	-37.509912
2.400000	-0.048933	-38.264002	-60.130173	64.116755	-60.130173	64.116755	-0.048949	-38.285746
2.450000	-0.049970	-39.037271	-59.827638	63.874594	-59.827638	63.874594	-0.049986	-39.059455
2.500000	-0.051006	-39.810540	-59.535287	63.632434	-59.535287	63.632434	-0.051023	-39.833164
2.550000	-0.052052	-40.581457	-59.220268	63.368207	-59.220268	63.368207	-0.052069	-40.604521
2.600000	-0.053098	-41.352374	-58.916276	63.103980	-58.916276	63.103980	-0.053115	-41.375879
2.650000	-0.054154	-42.121113	-58.590342	62.809479	-58.590342	62.809479	-0.054172	-42.145059
2.700000	-0.055211	-42.889654	-58.273377	62.512226	-58.273377	62.512226	-0.055229	-42.914042
2.750000	-0.056280	-43.656203	-57.935723	62.178497	-57.935723	62.178497	-0.056298	-43.681033
2.800000	-0.057350	-44.422354	-57.604582	61.837471	-57.604582	61.837471	-0.057368	-44.447627
2.850000	-0.058433	-45.186711	-57.254509	61.455922	-57.254509	61.455922	-0.058451	-45.212427
2.900000	-0.059519	-45.950470	-56.908053	61.060864	-56.908053	61.060864	-0.059537	-45.976630
2.950000	-0.060617	-46.712643	-56.544913	60.623403	-56.544913	60.623403	-0.060636	-46.739249
3.000000	-0.061721	-47.474023	-56.181987	60.164742	-56.181987	60.164742	-0.061740	-47.501076
3.050000	-0.062837	-48.234036	-55.805115	59.663866	-55.805115	59.663866	-0.062856	-48.261537
3.100000	-0.063961	-48.993070	-55.424442	59.132839	-55.424442	59.132839	-0.063980	-49.021022
3.150000	-0.065096	-49.750962	-55.033088	58.561663	-55.033088	58.561663	-0.065116	-49.779366
3.200000	-0.066243	-50.507710	-54.633147	57.950339	-54.633147	57.950339	-0.066263	-50.536568
3.250000	-0.067400	-51.263543	-54.226397	57.302570	-54.226397	57.302570	-0.067420	-51.292858
3.300000	-0.068572	-52.018095	-53.805266	56.603777	-53.805266	56.603777	-0.068592	-52.047871
3.350000	-0.069751	-52.772070	-53.385997	55.879053	-53.385997	55.879053	-0.069773	-52.802308
3.400000	-0.070947	-53.524890	-52.952491	55.102465	-52.952491	55.102465	-0.070968	-53.555595
3.450000	-0.072161	-54.276489	-52.497059	54.264011	-52.497059	54.264011	-0.072184	-54.307666
3.500000	-0.073390	-55.027357	-52.034390	53.383985	-52.034390	53.383985	-0.073413	-55.059011
3.550000	-0.074632	-55.777522	-51.565041	52.461759	-51.565041	52.461759	-0.074656	-55.809658
3.600000	-0.075896	-56.526810	-51.076278	51.480265	-51.076278	51.480265	-0.075921	-56.559436
3.650000	-0.077182	-57.275416	-50.568164	50.441092	-50.568164	50.441092	-0.077207	-57.308539
3.700000	-0.078487	-58.023572	-50.050278	49.355283	-50.050278	49.355283	-0.078513	-58.057202
3.750000	-0.079811	-58.771331	-49.523611	48.222085	-49.523611	48.222085	-0.079839	-58.805475
3.800000	-0.081174	-59.518734	-48.956227	47.007401	-48.956227	47.007401	-0.081203	-59.553409
3.850000	-0.082564	-60.266161	-48.373732	45.739990	-48.373732	45.739990	-0.082595	-60.301380
3.900000	-0.083982	-61.013681	-47.782880	44.423830	-47.782880	44.423830	-0.084014	-61.049457
3.950000	-0.085449	-61.761710	-47.153270	43.029178	-47.153270	43.029178	-0.085483	-61.798066
4.000000	-0.086967	-62.510615	-46.492013	41.562834	-46.492013	41.562834	-0.087004	-62.547575
4.050000	-0.088550	-63.260910	-45.793276	40.018179	-45.793276	40.018179	-0.088590	-63.298505
4.100000	-0.090209	-64.013096	-45.058792	38.394868	-45.058792	38.394868	-0.090253	-64.051361
4.150000	-0.091982	-64.768371	-44.267265	36.672272	-44.267265	36.672272	-0.092031	-64.807355
4.200000	-0.093882	-65.527274	-43.431743	34.855956	-43.431743	34.855956	-0.093937	-65.567029
4.250000	-0.096000	-66.292383	-42.512847	32.908028	-42.512847	32.908028	-0.096064	-66.332993
4.300000	-0.098384	-67.064853	-41.525756	30.828143	-41.525756	30.828143	-0.098459	-67.106411
4.350000	-0.101201	-67.848609	-40.436821	28.572247	-40.436821	28.572247	-0.101291	-67.891251
4.400000	-0.104720	-68.649062	-39.216751	26.086037	-39.216751	26.086037	-0.104834	-68.692981
4.450000	-0.109406	-69.474042	-37.836582	23.292857	-37.836582	23.292857	-0.109555	-69.519517
4.500000	-0.116308	-70.338730	-36.230090	20.036407	-36.230090	20.036407	-0.116516	-70.386199
4.550000	-0.127761	-71.269642	-34.312290	16.036681	-34.312290	16.036681	-0.128076	-71.319832
4.600000	-0.150195	-72.321724	-31.927644	10.668548	-31.927644	10.668548	-0.150731	-72.375956
4.650000	-0.206033	-73.616733	-28.783975	2.265804	-28.783975	2.265804	-0.207141	-73.677675
4.700000	-0.402925	-75.321410	-24.378801	-14.967241	-24.378801	-14.967241	-0.406115	-75.393859
4.750000	-1.056247	-74.082455	-19.818381	-63.437689	-19.818381	-63.437689	-1.066850	-74.134205
4.800000	-0.543226	-70.598408	-23.136699	-120.736653	-23.136699	-120.736653	-0.547800	-70.603851
4.850000	-0.264030	-72.158924	-27.702567	-141.917969	-27.702567	-141.917969	-0.265596	-72.175144
4.900000	-0.188393	-73.481820	-30.904142	-151.680445	-30.904142	-151.680445	-0.189166	-73.505338
4.950000	-0.160214	-74.545790	-33.258077	-157.869621	-33.258077	-157.869621	-0.160686	-74.573664
5.000000	-0.147377	-75.476321	-35.101319	-162.592342	-35.101319	-162.592342	-0.147705	-75.507088
5.050000	-0.140993	-76.331974	-36.598898	-166.587794	-36.598898	-166.587794	-0.141241	-76.364833
5.100000	-0.137726	-77.142818	-37.857421	-170.194112	-37.857421	-170.194112	-0.137925	-77.177297
5.150000	-0.136194	-77.924026	-38.933177	-173.574420	-38.933177	-173.574420	-0.136362	-77.959821
5.200000	-0.135674	-78.685283	-39.874738	-176.826047	-39.874738	-176.826047	-0.135820	-78.722194
5.250000	-0.135818	-79.431771	-40.705626	179.998749	-40.705626	179.998749	-0.135948	-79.469654
5.300000	-0.136411	-80.167065	-41.445485	176.865637	-41.445485	176.865637	-0.136530	-80.205817
5.350000	-0.137325	-80.893582	-42.108793	173.752506	-42.108793	173.752506	-0.137435	-80.933123
5.400000	-0.138477	-81.613010	-42.706482	170.644939	-42.706482	170.644939	-0.138580	-81.653280
5.450000	-0.139825	-82.326072	-43.238830	167.532722	-43.238830	167.532722	-0.139924	-82.367020
5.500000	-0.141302	-83.034680	-43.729073	164.411376	-43.729073	164.411376	-0.141397	-83.076272
5.550000	-0.142898	-83.738989	-44.173936	161.277431	-44.173936	161.277431	-0.142990	-83.781195
5.600000	-0.144593	-84.439522	-44.577663	158.129552	-44.577663	158.129552	-0.144683	-84.482318
5.650000	-0.146374	-85.136691	-44.943735	154.967857	-44.943735	154.967857	-0.146462	-85.180055
5.700000	-0.148230	-85.830821	-45.275053	151.793592	-45.275053	151.793592	-0.148317	-85.874737
5.750000	-0.150154	-86.522176	-45.574074	148.608890	-45.574074	148.608890	-0.150240	-86.566630
5.800000	-0.152139	-87.210973	-45.842913	145.416572	-45.842913	145.416572	-0.152224	-87.255953
5.850000	-0.154189	-87.897020	-46.078218	142.220392	-46.078218	142.220392	-0.154274	-87.942514
5.900000	-0.156295	-88.580745	-46.285267	139.023778	-46.285267	139.023778	-0.156380	-88.626745
5.950000	-0.158426	-89.263417	-46.482688	135.830638	-46.482688	135.830638	-0.158511	-89.309919
6.000000	-0.160633	-89.942929	-46.639769	132.647915	-46.639769	132.647915	-0.160719	-89.989923
6.050000	-0.162856	-90.621804	-46.791538	129.470516	-46.791538	129.470516	-0.162943	-90.669290
6.100000	-0.165158	-91.297499	-46.904368	126.319739	-46.904368	126.319739	-0.165245	-91.345469
6.150000	-0.167467	-91.972902	-47.015215	123.173038	-47.015215	123.173038	-0.167555	-92.021355
6.200000	-0.169859	-92.645084	-47.088949	120.071166	-47.088949	120.071166	-0.169948	-92.694015
6.250000	-0.172251	-93.317267	-47.163314	116.969294	-47.163314	116.969294	-0.172341	-93.366675
6.300000	-0.174731	-93.986178	-47.202752	113.930961	-47.202752	113.930961	-0.174822	-94.036060
6.350000	-0.177211	-94.655090	-47.242369	110.892628	-47.242369	110.892628	-0.177303	-94.705446
6.400000	-0.179769	-95.321186	-47.254538	107.923137	-47.254538	107.923137	-0.179863	-95.372014
6.450000	-0.182336	-95.987026	-47.264213	104.959904	-47.264213	104.959904	-0.182431	-96.038326
6.500000	-0.184973	-96.650448	-47.252611	102.066087	-47.252611	102.066087	-0.185070	-96.702220
6.550000	-0.187625	-97.313386	-47.236779	99.186152	-47.236779	99.186152	-0.187723	-97.365630
6.600000	-0.190341	-97.974260	-47.204762	96.372380	-47.204762	96.372380	-0.190441	-98.026977
6.650000	-0.193080	-98.634446	-47.167484	93.580661	-47.167484	93.580661	-0.193181	-98.687636
6.700000	-0.195875	-99.292888	-47.118199	90.849074	-47.118199	90.849074	-0.195978	-99.346552
6.750000	-0.198699	-99.950456	-47.063151	88.147553	-47.063151	88.147553	-0.198805	-100.004596
6.800000	-0.201574	-100.606571	-46.999494	85.498379	-46.999494	85.498379	-0.201682	-100.661187
6.850000	-0.204485	-101.261647	-46.929955	82.886597	-46.929955	82.886597	-0.204595	-101.316741
6.900000	-0.207441	-101.915534	-46.854543	80.318504	-46.854543	80.318504	-0.207552	-101.971110
6.950000	-0.210440	-102.568234	-46.773413	77.794101	-46.773413	77.794101	-0.210553	-102.624292
7.000000	-0.213476	-103.219991	-46.688577	75.304553	-46.688577	75.304553	-0.213592	-103.276533
7.050000	-0.216564	-103.870427	-46.598386	72.863799	-46.598386	72.863799	-0.216682	-103.927457
7.100000	-0.219682	-104.520146	-46.506182	70.449383	-46.506182	70.449383	-0.219802	-104.577665
7.150000	-0.222859	-105.168427	-46.409127	68.087639	-46.409127	68.087639	-0.222982	-105.226440
7.200000	-0.226060	-105.816197	-46.311347	65.744357	-46.311347	65.744357	-0.226186	-105.874705
7.250000	-0.229329	-106.462432	-46.209323	63.456461	-46.209323	63.456461	-0.229457	-106.521439
7.300000	-0.232614	-107.108343	-46.107523	61.179977	-46.107523	61.179977	-0.232744	-107.167852
7.350000	-0.235975	-107.752636	-46.002159	58.960551	-46.002159	58.960551	-0.236108	-107.812652
7.400000	-0.239345	-108.396777	-45.897684	56.746384	-45.897684	56.746384	-0.239480	-108.457301
7.450000	-0.242799	-109.039235	-45.790381	54.590065	-45.790381	54.590065	-0.242937	-109.100275
7.500000	-0.246255	-109.681693	-45.684388	52.433745	-45.684388	52.433745	-0.246396	-109.743249
7.550000	-0.249805	-110.322424	-45.576354	50.335354	-45.576354	50.335354	-0.249948	-110.384504
7.600000	-0.253356	-110.963154	-45.469647	48.236963	-45.469647	48.236963	-0.253501	-111.025759
7.650000	-0.256993	-111.602399	-45.362118	46.187204	-45.362118	46.187204	-0.257142	-111.665538
7.700000	-0.260641	-112.241509	-45.255713	44.141865	-45.255713	44.141865	-0.260792	-112.305182
7.750000	-0.264368	-112.879360	-45.149438	42.136991	-45.149438	42.136991	-0.264522	-112.943577
7.800000	-0.268114	-113.516959	-45.044219	40.140210	-45.044219	40.140210	-0.268270	-113.581721
7.850000	-0.271932	-114.153509	-44.939850	38.176801	-44.939850	38.176801	-0.272092	-114.218825
7.900000	-0.275777	-114.789710	-44.836585	36.224515	-44.836585	36.224515	-0.275939	-114.855582
7.950000	-0.279688	-115.425053	-44.734691	34.299490	-44.734691	34.299490	-0.279853	-115.491491
8.000000	-0.283633	-116.059968	-44.634055	32.388095	-44.634055	32.388095	-0.283801	-116.126975
8.050000	-0.287638	-116.694201	-44.535134	30.498725	-44.535134	30.498725	-0.287809	-116.761785
8.100000	-0.291686	-117.327947	-44.437723	28.625087	-44.437723	28.625087	-0.291859	-117.396114
8.150000	-0.295786	-117.961169	-44.342211	26.768997	-44.342211	26.768997	-0.295962	-118.029926
8.200000	-0.299938	-118.593866	-44.248549	24.930452	-44.248549	24.930452	-0.300117	-118.663220
8.250000	-0.304135	-119.226176	-44.156831	23.105612	-44.156831	23.105612	-0.304317	-119.296135
8.300000	-0.308394	-119.857947	-44.067381	21.299958	-44.067381	21.299958	-0.308578	-119.928519
8.350000	-0.312689	-120.489450	-43.979794	19.504679	-43.979794	19.504679	-0.312876	-120.560641
8.400000	-0.317055	-121.120420	-43.894966	17.730154	-43.894966	17.730154	-0.317246	-121.192240
8.450000	-0.321450	-121.751222	-43.811806	15.963076	-43.811806	15.963076	-0.321644	-121.823677
8.500000	-0.325927	-122.381521	-43.731955	14.218341	-43.731955	14.218341	-0.326123	-122.454624
8.550000	-0.330424	-123.011731	-43.653478	12.478414	-43.653478	12.478414	-0.330623	-123.085484
8.600000	-0.335014	-123.641493	-43.578912	10.762523	-43.578912	10.762523	-0.335215	-123.715914
8.650000	-0.339614	-124.271222	-43.505341	9.048987	-43.505341	9.048987	-0.339819	-124.346311
8.700000	-0.344319	-124.900585	-43.436319	7.361357	-43.436319	7.361357	-0.344526	-124.976362
8.750000	-0.349025	-125.529948	-43.367841	5.673727	-43.367841	5.673727	-0.349236	-125.606413
8.800000	-0.353847	-126.159055	-43.304576	4.014099	-43.304576	4.014099	-0.354061	-126.236230
8.850000	-0.358671	-126.788161	-43.241768	2.354471	-43.241768	2.354471	-0.358889	-126.866046
8.900000	-0.363604	-127.417167	-43.184003	0.720539	-43.184003	0.720539	-0.363824	-127.495783
8.950000	-0.368549	-128.046164	-43.127035	-0.911057	-43.127035	-0.911057	-0.368773	-128.125514
9.000000	-0.373595	-128.675196	-43.074843	-2.519064	-43.074843	-2.519064	-0.373822	-128.755300
9.050000	-0.378664	-129.304235	-43.023838	-4.122353	-43.023838	-4.122353	-0.378895	-129.385097
9.100000	-0.383826	-129.933423	-42.977259	-5.704055	-42.977259	-5.704055	-0.384061	-130.015064
9.150000	-0.389022	-130.562661	-42.932297	-7.278561	-42.932297	-7.278561	-0.389260	-130.645087
9.200000	-0.394304	-131.192139	-42.891340	-8.833454	-42.891340	-8.833454	-0.394546	-131.275370
9.250000	-0.399630	-131.821738	-42.852454	-10.378542	-42.852454	-10.378542	-0.399877	-131.905783
9.300000	-0.405035	-132.451646	-42.817100	-11.906032	-42.817100	-11.906032	-0.405287	-132.536522
9.350000	-0.410497	-133.081774	-42.784279	-13.420952	-42.784279	-13.420952	-0.410753	-133.167494
9.400000	-0.416028	-133.712253	-42.754479	-14.920378	-42.754479	-14.920378	-0.416290	-133.798834
9.450000	-0.421629	-134.343083	-42.727670	-16.404311	-42.727670	-16.404311	-0.421897	-134.430541
9.500000	-0.427291	-134.974281	-42.703350	-17.874979	-42.703350	-17.874979	-0.427564	-135.062629
9.550000	-0.433037	-135.605993	-42.682459	-19.327075	-42.682459	-19.327075	-0.433317	-135.695253
9.600000	-0.438834	-136.238062	-42.663519	-20.768277	-42.663519	-20.768277	-0.439120	-136.328244
9.650000	-0.444729	-136.870842	-42.648416	-22.187694	-42.648416	-22.187694	-0.445023	-136.961972
9.700000	-0.450666	-137.503938	-42.634734	-23.598740	-42.634734	-23.598740	-0.450968	-137.596024
9.750000	-0.456718	-138.137979	-42.625254	-24.984674	-42.625254	-24.984674	-0.457028	-138.231050
9.800000	-0.462799	-138.772263	-42.616688	-26.364906	-42.616688	-26.364906	-0.463119	-138.866327
9.850000	-0.469014	-139.407764	-42.612638	-27.716626	-42.612638	-27.716626	-0.469344	-139.502854
9.900000	-0.475246	-140.043404	-42.609025	-29.065441	-42.609025	-29.065441	-0.475587	-140.139523
9.950000	-0.481631	-140.680571	-42.610187	-30.382306	-42.610187	-30.382306	-0.481983	-140.777759
10.000000	-0.488020	-141.317739	-42.611349	-31.699171	-42.611349	-31.699171	-0.488385	-141.415995
