! freq	dB(S11)	phase(S11)	dB(S12)	phase(S12)	
!     	dB(S21)	phase(S21)	dB(S22)	phase(S22)	
!S-par simulation data
#  GHz  S  DB  R 50
0.000000	0.000000	-0.000000	-308.308413	180.000000	-308.308413	180.000000	-0.000000	-0.000000
0.050000	-0.000737	-2.122324	-100.339875	88.611612	-100.339875	88.611612	-0.000399	-0.915152
0.100000	-0.002799	-4.241593	-94.348342	87.072807	-94.348342	87.072807	-0.001437	-1.827953
0.150000	-0.005843	-6.355534	-90.872947	85.579810	-90.872947	85.579810	-0.002808	-2.737520
0.200000	-0.009443	-8.462953	-88.439147	84.112766	-88.439147	84.112766	-0.004261	-3.644250
0.250000	-0.013194	-10.563760	-86.584758	82.672480	-86.584758	82.672480	-0.005668	-4.549010
0.300000	-0.016800	-12.658325	-85.106538	81.265307	-85.106538	81.265307	-0.006989	-5.452515
0.350000	-0.020150	-14.748089	-83.888425	79.893112	-83.888425	79.893112	-0.008240	-6.355337
0.400000	-0.023170	-16.832862	-82.874078	78.569686	-82.874078	78.569686	-0.009429	-7.257620
0.450000	-0.025947	-18.913701	-82.012096	77.294666	-82.012096	77.294666	-0.010583	-8.159547
0.500000	-0.028505	-20.989676	-81.285200	76.088834	-81.285200	76.088834	-0.011711	-9.061056
0.550000	-0.030945	-23.061251	-80.663572	74.951255	-80.663572	74.951255	-0.012828	-9.962182
0.600000	-0.033310	-25.127371	-80.139561	73.903339	-80.139561	73.903339	-0.013940	-10.862821
0.650000	-0.035646	-27.187803	-79.699049	72.954021	-79.699049	72.954021	-0.015052	-11.762934
0.700000	-0.037982	-29.241983	-79.334106	72.119943	-79.334106	72.119943	-0.016167	-12.662457
0.750000	-0.040335	-31.288981	-79.041819	71.428294	-79.041819	71.428294	-0.017287	-13.561286
0.800000	-0.042709	-33.329118	-78.810767	70.884872	-78.810767	70.884872	-0.018412	-14.459443
0.850000	-0.045111	-35.360587	-78.646960	70.548828	-78.646960	70.548828	-0.019542	-15.356739
0.900000	-0.047533	-37.384517	-78.536175	70.414644	-78.536175	70.414644	-0.020678	-16.253277
0.950000	-0.049976	-39.399050	-78.484827	70.565376	-78.484827	70.565376	-0.021818	-17.148862
1.000000	-0.052429	-41.405214	-78.481372	71.004853	-78.481372	71.004853	-0.022961	-18.043592
1.050000	-0.054889	-43.401659	-78.527478	71.828388	-78.527478	71.828388	-0.024107	-18.937322
1.100000	-0.057348	-45.388651	-78.614643	73.083613	-78.614643	73.083613	-0.025256	-19.830072
1.150000	-0.059798	-47.365599	-78.735721	74.867207	-78.735721	74.867207	-0.026404	-20.721775
1.200000	-0.062233	-49.332443	-78.877533	77.258982	-78.877533	77.258982	-0.027553	-21.612416
1.250000	-0.064641	-51.289227	-79.022149	80.328616	-79.022149	80.328616	-0.028701	-22.501995
1.300000	-0.067011	-53.235609	-79.144738	84.156585	-79.144738	84.156585	-0.029846	-23.390466
1.350000	-0.069323	-55.171267	-79.211124	88.781352	-79.211124	88.781352	-0.030988	-24.277791
1.400000	-0.071551	-57.096458	-79.185838	94.120819	-79.185838	94.120819	-0.032126	-25.163995
1.450000	-0.073662	-59.010950	-79.032471	100.025254	-79.032471	100.025254	-0.033259	-26.049065
1.500000	-0.075609	-60.913807	-78.714347	106.242127	-78.714347	106.242127	-0.034383	-26.932935
1.550000	-0.077387	-62.805097	-78.231021	112.421207	-78.231021	112.421207	-0.035496	-27.815670
1.600000	-0.079027	-64.684244	-77.595016	118.251586	-77.595016	118.251586	-0.036590	-28.697283
1.650000	-0.080612	-66.550345	-76.827386	123.461147	-76.827386	123.461147	-0.037649	-29.577744
1.700000	-0.082234	-68.403829	-75.970270	127.926849	-75.970270	127.926849	-0.038642	-30.457082
1.750000	-0.083940	-70.245283	-75.061323	131.627877	-75.061323	131.627877	-0.039504	-31.335133
1.800000	-0.085731	-72.074920	-74.127437	134.587033	-74.127437	134.587033	-0.040150	-32.210906
1.850000	-0.087579	-73.892981	-73.190312	136.875914	-73.190312	136.875914	-0.040766	-33.082175
1.900000	-0.089457	-75.699435	-72.263924	138.574490	-72.263924	138.574490	-0.041990	-33.950388
1.950000	-0.091340	-77.494289	-71.357992	139.770057	-71.357992	139.770057	-0.043556	-34.820055
2.000000	-0.093214	-79.277644	-70.478822	140.545237	-70.478822	140.545237	-0.045013	-35.690219
2.050000	-0.095071	-81.049479	-69.629141	140.966045	-69.629141	140.966045	-0.046339	-36.559486
2.100000	-0.096908	-82.809782	-68.809974	141.088251	-68.809974	141.088251	-0.047586	-37.427379
2.150000	-0.098721	-84.558560	-68.021267	140.958352	-68.021267	140.958352	-0.048791	-38.293776
2.200000	-0.100513	-86.295832	-67.262315	140.614859	-67.262315	140.614859	-0.049972	-39.158648
2.250000	-0.102283	-88.021636	-66.532037	140.089601	-66.532037	140.089601	-0.051141	-40.021991
2.300000	-0.104033	-89.736022	-65.829157	139.408890	-65.829157	139.408890	-0.052304	-40.883802
2.350000	-0.105765	-91.439051	-65.152315	138.594519	-65.152315	138.594519	-0.053463	-41.744079
2.400000	-0.107481	-93.130797	-64.500143	137.664588	-64.500143	137.664588	-0.054623	-42.602817
2.450000	-0.109184	-94.811344	-63.871303	136.634173	-63.871303	136.634173	-0.055784	-43.460011
2.500000	-0.110874	-96.480783	-63.264516	135.515874	-63.264516	135.515874	-0.056949	-44.315653
2.550000	-0.112553	-98.138861	-62.677967	134.317985	-62.677967	134.317985	-0.058117	-45.169686
2.600000	-0.114225	-99.786048	-62.111221	133.052140	-62.111221	133.052140	-0.059290	-46.022152
2.650000	-0.115891	-101.422462	-61.563207	131.725655	-61.563207	131.725655	-0.060469	-46.873045
2.700000	-0.117552	-103.048226	-61.032936	130.344680	-61.032936	130.344680	-0.061653	-47.722355
2.750000	-0.119210	-104.663470	-60.519489	128.914369	-60.519489	128.914369	-0.062844	-48.570077
2.800000	-0.120868	-106.268328	-60.022024	127.439011	-60.022024	127.439011	-0.064042	-49.416204
2.850000	-0.122525	-107.862940	-59.539760	125.922141	-59.539760	125.922141	-0.065248	-50.260729
2.900000	-0.124185	-109.447454	-59.071984	124.366616	-59.071984	124.366616	-0.066461	-51.103648
2.950000	-0.125848	-111.022018	-58.618039	122.774674	-58.618039	122.774674	-0.067683	-51.944957
3.000000	-0.127516	-112.586788	-58.177323	121.147970	-58.177323	121.147970	-0.068914	-52.784652
3.050000	-0.129191	-114.141923	-57.749290	119.487598	-57.749290	119.487598	-0.070154	-53.622732
3.100000	-0.130872	-115.687584	-57.333441	117.794086	-57.333441	117.794086	-0.071404	-54.459198
3.150000	-0.132562	-117.223940	-56.929328	116.067376	-56.929328	116.067376	-0.072664	-55.294053
3.200000	-0.134262	-118.751160	-56.536551	114.306773	-56.536551	114.306773	-0.073935	-56.127300
3.250000	-0.135972	-120.269419	-56.154759	112.510871	-56.154759	112.510871	-0.075218	-56.958948
3.300000	-0.137695	-121.778893	-55.783653	110.677428	-55.783653	110.677428	-0.076513	-57.789010
3.350000	-0.139431	-123.279764	-55.422985	108.803202	-55.422985	108.803202	-0.077820	-58.617502
3.400000	-0.141180	-124.772218	-55.072569	106.883702	-55.072569	106.883702	-0.079142	-59.444447
3.450000	-0.142945	-126.256444	-54.732288	104.912836	-54.732288	104.912836	-0.080479	-60.269877
3.500000	-0.144726	-127.732636	-54.402103	102.882408	-54.402103	102.882408	-0.081831	-61.093832
3.550000	-0.146524	-129.200997	-54.082077	100.781374	-54.082077	100.781374	-0.083202	-61.916369
3.600000	-0.148341	-130.661737	-53.772398	98.594739	-53.772398	98.594739	-0.084592	-62.737563
3.650000	-0.150179	-132.115076	-53.473421	96.301864	-53.473421	96.301864	-0.086005	-63.557517
3.700000	-0.152039	-133.561251	-53.185728	93.873805	-53.185728	93.873805	-0.087446	-64.376374
3.750000	-0.153924	-135.000523	-52.910215	91.268983	-52.910215	91.268983	-0.088919	-65.194340
3.800000	-0.155839	-136.432920	-52.648604	88.410744	-52.648604	88.410744	-0.090438	-66.011709
3.850000	-0.157792	-137.859112	-52.402927	85.204441	-52.402927	85.204441	-0.092019	-66.829008
3.900000	-0.159794	-139.279587	-52.176436	81.480205	-52.176436	81.480205	-0.093696	-67.647030
3.950000	-0.161873	-140.695058	-51.973892	76.934666	-51.973892	76.934666	-0.095536	-68.467155
4.000000	-0.164077	-142.106865	-51.799750	71.079463	-51.799750	71.079463	-0.097673	-69.291605
4.050000	-0.166577	-143.516837	-51.659161	62.515574	-51.659161	62.515574	-0.100539	-70.126088
4.100000	-0.169834	-144.929902	-51.514698	48.326433	-51.514698	48.326433	-0.105341	-70.981869
4.150000	-0.176503	-146.360148	-50.911145	17.167566	-50.911145	17.167566	-0.118969	-71.895857
4.200000	-0.208065	-147.775035	-46.297907	-68.117960	-46.297907	-68.117960	-0.197372	-72.783049
4.250000	-0.195442	-148.833283	-45.111830	167.395548	-45.111830	167.395548	-0.160176	-72.753952
4.300000	-0.181251	-150.263654	-47.092373	127.229540	-47.092373	127.229540	-0.119608	-73.707789
4.350000	-0.180199	-151.661433	-47.735439	111.227050	-47.735439	111.227050	-0.113095	-74.586424
4.400000	-0.181278	-153.038093	-47.927413	102.248828	-47.927413	102.248828	-0.112033	-75.421107
4.450000	-0.182948	-154.403382	-47.945997	96.107116	-47.945997	96.107116	-0.112455	-76.236500
4.500000	-0.184878	-155.760156	-47.876335	91.516142	-47.876335	91.516142	-0.113499	-77.040525
4.550000	-0.186923	-157.111120	-47.766033	87.699747	-47.766033	87.699747	-0.114804	-77.838283
4.600000	-0.189047	-158.456718	-47.629630	84.424836	-47.629630	84.424836	-0.116275	-78.631128
4.650000	-0.191227	-159.797533	-47.477537	81.513598	-47.477537	81.513598	-0.117852	-79.420157
4.700000	-0.193452	-161.133709	-47.315254	78.870589	-47.315254	78.870589	-0.119508	-80.205851
4.750000	-0.195714	-162.465684	-47.147089	76.415878	-47.147089	76.415878	-0.121223	-80.988731
4.800000	-0.198009	-163.793927	-46.975837	74.095623	-46.975837	74.095623	-0.122984	-81.769207
4.850000	-0.200332	-165.118665	-46.803012	71.880206	-46.803012	71.880206	-0.124786	-82.547464
4.900000	-0.202682	-166.440103	-46.629674	69.748167	-46.629674	69.748167	-0.126624	-83.323640
4.950000	-0.205059	-167.758434	-46.456577	67.683601	-46.456577	67.683601	-0.128497	-84.097840
5.000000	-0.207461	-169.073841	-46.284267	65.674483	-46.284267	65.674483	-0.130403	-84.870144
5.050000	-0.209890	-170.386198	-46.112928	63.716110	-46.112928	63.716110	-0.132345	-85.640412
5.100000	-0.212344	-171.696008	-45.943132	61.795525	-45.943132	61.795525	-0.134318	-86.408914
5.150000	-0.214820	-173.003435	-45.775082	59.907338	-45.775082	59.907338	-0.136321	-87.175696
5.200000	-0.217320	-174.308637	-45.608933	58.047206	-45.608933	58.047206	-0.138356	-87.940795
5.250000	-0.219843	-175.611772	-45.444796	56.211597	-45.444796	56.211597	-0.140421	-88.704245
5.300000	-0.222387	-176.912991	-45.282756	54.397612	-45.282756	54.397612	-0.142517	-89.466077
5.350000	-0.224955	-178.212367	-45.122838	52.603694	-45.122838	52.603694	-0.144646	-90.226244
5.400000	-0.227546	-179.510041	-44.965087	50.827922	-44.965087	50.827922	-0.146808	-90.984746
5.450000	-0.230158	179.193723	-44.809582	49.067434	-44.809582	49.067434	-0.149002	-91.741716
5.500000	-0.232791	177.898783	-44.656338	47.320891	-44.656338	47.320891	-0.151228	-92.497176
5.550000	-0.235445	176.604995	-44.505359	45.587161	-44.505359	45.587161	-0.153486	-93.251150
5.600000	-0.238118	175.312220	-44.356644	43.865288	-44.356644	43.865288	-0.155776	-94.003660
5.650000	-0.240812	174.020318	-44.210188	42.154462	-44.210188	42.154462	-0.158099	-94.754728
5.700000	-0.243527	172.729211	-44.065966	40.454964	-44.065966	40.454964	-0.160459	-95.504238
5.750000	-0.246261	171.438690	-43.923985	38.765351	-43.923985	38.765351	-0.162853	-96.252327
5.800000	-0.249015	170.148608	-43.784227	37.084986	-43.784227	37.084986	-0.165281	-96.999042
5.850000	-0.251786	168.858831	-43.646670	35.413506	-43.646670	35.413506	-0.167744	-97.744405
5.900000	-0.254576	167.569228	-43.511289	33.750631	-43.511289	33.750631	-0.170242	-98.488437
5.950000	-0.257384	166.279670	-43.378056	32.096153	-43.378056	32.096153	-0.172775	-99.231158
6.000000	-0.260210	164.990018	-43.246943	30.450193	-43.246943	30.450193	-0.175345	-99.972552
6.050000	-0.263055	163.700116	-43.117928	28.813156	-43.117928	28.813156	-0.177955	-100.712574
6.100000	-0.265918	162.409843	-42.990959	27.184386	-42.990959	27.184386	-0.180601	-101.451354
6.150000	-0.268797	161.119071	-42.865990	25.564033	-42.865990	25.564033	-0.183285	-102.188915
6.200000	-0.271695	159.827670	-42.742967	23.952357	-42.742967	23.952357	-0.186007	-102.925281
6.250000	-0.274610	158.535508	-42.621826	22.349753	-42.621826	22.349753	-0.188768	-103.660472
6.300000	-0.277544	157.242452	-42.502490	20.756788	-42.502490	20.756788	-0.191568	-104.394512
6.350000	-0.280500	155.948267	-42.384861	19.175177	-42.384861	19.175177	-0.194411	-105.127337
6.400000	-0.283481	154.652745	-42.268772	17.606635	-42.268772	17.606635	-0.197299	-105.858960
6.450000	-0.286484	153.356011	-42.154083	16.049957	-42.154083	16.049957	-0.200226	-106.589620
6.500000	-0.289525	152.057408	-42.040354	14.512504	-42.040354	14.512504	-0.203203	-107.319051
6.550000	-0.292604	150.757226	-41.927280	12.992735	-41.927280	12.992735	-0.206221	-108.047603
6.600000	-0.295727	149.455346	-41.814581	11.492813	-41.814581	11.492813	-0.209281	-108.775290
6.650000	-0.298960	148.150252	-41.699906	10.036208	-41.699906	10.036208	-0.212412	-109.501689
6.700000	-0.302295	146.843002	-41.583123	8.613398	-41.583123	8.613398	-0.215587	-110.227431
6.750000	-0.305937	145.531046	-41.456646	7.273125	-41.456646	7.273125	-0.218854	-110.952052
6.800000	-0.310111	144.213858	-41.312197	6.035483	-41.312197	6.035483	-0.222225	-111.675827
6.850000	-0.315786	142.888196	-41.116350	4.960834	-41.116350	4.960834	-0.225788	-112.398546
6.900000	-0.326578	141.554779	-40.759678	3.885399	-40.759678	3.885399	-0.229769	-113.119021
6.950000	-0.349272	140.326501	-40.125537	-0.597105	-40.125537	-0.597105	-0.233949	-113.826910
7.000000	-0.333101	139.152494	-40.633404	-6.336410	-40.633404	-6.336410	-0.234305	-114.542950
7.050000	-0.325458	137.797056	-40.899512	-6.604537	-40.899512	-6.604537	-0.237359	-115.270776
7.100000	-0.325804	136.450615	-40.900126	-7.190041	-40.900126	-7.190041	-0.240951	-115.992531
7.150000	-0.327982	135.113651	-40.840294	-8.189215	-40.840294	-8.189215	-0.244571	-116.711692
7.200000	-0.330612	133.779586	-40.767431	-9.366992	-40.767431	-9.366992	-0.248201	-117.429637
7.250000	-0.333452	132.446220	-40.689917	-10.657239	-40.689917	-10.657239	-0.251853	-118.146569
7.300000	-0.336379	131.111965	-40.611767	-12.011319	-40.611767	-12.011319	-0.255537	-118.862636
7.350000	-0.339343	129.776117	-40.534431	-13.399165	-40.534431	-13.399165	-0.259257	-119.578005
7.400000	-0.342325	128.438250	-40.458391	-14.807982	-40.458391	-14.807982	-0.263015	-120.292736
7.450000	-0.345316	127.098081	-40.383861	-16.229814	-40.383861	-16.229814	-0.266814	-121.006876
7.500000	-0.348310	125.755405	-40.310937	-17.659465	-40.310937	-17.659465	-0.270655	-121.720467
7.550000	-0.351306	124.410067	-40.239658	-19.093398	-40.239658	-19.093398	-0.274540	-122.433544
7.600000	-0.354301	123.061716	-40.170120	-20.529112	-40.170120	-20.529112	-0.278472	-123.146108
7.650000	-0.357293	121.710359	-40.102273	-21.964553	-40.102273	-21.964553	-0.282452	-123.858217
7.700000	-0.360282	120.356020	-40.036062	-23.398393	-40.036062	-23.398393	-0.286478	-124.569921
7.750000	-0.363268	118.998626	-39.971469	-24.829637	-39.971469	-24.829637	-0.290550	-125.281253
7.800000	-0.366250	117.638118	-39.908477	-26.257493	-39.908477	-26.257493	-0.294670	-125.992245
7.850000	-0.369228	116.274440	-39.847063	-27.681314	-39.847063	-27.681314	-0.298837	-126.702930
7.900000	-0.372201	114.907503	-39.787223	-29.100498	-39.787223	-29.100498	-0.303052	-127.413337
7.950000	-0.375171	113.536959	-39.729041	-30.514074	-39.729041	-30.514074	-0.307320	-128.123481
8.000000	-0.378136	112.163107	-39.672377	-31.922145	-39.672377	-31.922145	-0.311637	-128.833424
8.050000	-0.381098	110.785914	-39.617212	-33.324372	-39.617212	-33.324372	-0.316003	-129.543199
8.100000	-0.384057	109.405350	-39.563527	-34.720447	-39.563527	-34.720447	-0.320418	-130.252839
8.150000	-0.387013	108.021391	-39.511300	-36.110086	-39.511300	-36.110086	-0.324882	-130.962379
8.200000	-0.389967	106.634013	-39.460515	-37.493027	-39.460515	-37.493027	-0.329396	-131.671854
8.250000	-0.392919	105.242988	-39.411219	-38.868580	-39.411219	-38.868580	-0.333963	-132.381298
8.300000	-0.395871	103.848318	-39.363388	-40.236514	-39.363388	-40.236514	-0.338583	-133.090752
8.350000	-0.398822	102.450286	-39.316907	-41.597215	-39.316907	-41.597215	-0.343251	-133.800250
8.400000	-0.401774	101.048847	-39.271769	-42.950387	-39.271769	-42.950387	-0.347970	-134.509829
8.450000	-0.404729	99.643586	-39.228087	-44.294865	-39.228087	-44.294865	-0.352744	-135.219540
8.500000	-0.407687	98.234979	-39.185689	-45.631515	-39.185689	-45.631515	-0.357567	-135.929403
8.550000	-0.410651	96.822758	-39.144643	-46.959458	-39.144643	-46.959458	-0.362443	-136.639472
8.600000	-0.413620	95.406996	-39.104908	-48.278625	-39.104908	-48.278625	-0.367371	-137.349782
8.650000	-0.416598	93.987837	-39.066422	-49.589119	-39.066422	-49.589119	-0.372351	-138.060362
8.700000	-0.419587	92.564957	-39.029270	-50.889809	-39.029270	-50.889809	-0.377385	-138.771284
8.750000	-0.422587	91.138911	-38.993264	-52.181892	-38.993264	-52.181892	-0.382468	-139.482534
8.800000	-0.425603	89.708979	-38.958614	-53.463050	-38.958614	-53.463050	-0.387609	-140.194236
8.850000	-0.428634	88.275920	-38.925068	-54.735098	-38.925068	-54.735098	-0.392799	-140.906345
8.900000	-0.431686	86.839228	-38.892769	-55.996178	-38.892769	-55.996178	-0.398044	-141.618975
8.950000	-0.434760	85.399261	-38.861591	-57.246997	-38.861591	-57.246997	-0.403341	-142.332120
9.000000	-0.437859	83.955921	-38.831550	-58.486817	-38.831550	-58.486817	-0.408692	-143.045845
9.050000	-0.440988	82.509177	-38.802638	-59.715085	-38.802638	-59.715085	-0.414096	-143.760207
9.100000	-0.444146	81.059323	-38.774750	-60.932330	-38.774750	-60.932330	-0.419552	-144.475200
9.150000	-0.447344	79.605958	-38.747987	-62.136567	-38.747987	-62.136567	-0.425064	-145.190966
9.200000	-0.450577	78.149685	-38.722151	-63.329518	-38.722151	-63.329518	-0.430626	-145.907421
9.250000	-0.453858	76.689938	-38.697380	-64.508301	-38.697380	-64.508301	-0.436246	-146.624765
9.300000	-0.457183	75.227311	-38.673480	-65.674725	-38.673480	-65.674725	-0.441915	-147.342904
9.350000	-0.460564	73.761497	-38.650505	-66.826736	-38.650505	-66.826736	-0.447641	-148.061987
9.400000	-0.464000	72.292726	-38.628356	-67.964628	-38.628356	-67.964628	-0.453419	-148.782009
9.450000	-0.467499	70.821052	-38.606977	-69.087852	-38.606977	-69.087852	-0.459249	-149.503020
9.500000	-0.471069	69.346365	-38.586345	-70.194939	-38.586345	-70.194939	-0.465136	-150.225132
9.550000	-0.474706	67.869057	-38.566313	-71.287106	-38.566313	-71.287106	-0.471071	-150.948269
9.600000	-0.478431	66.388702	-38.546894	-72.360823	-38.546894	-72.360823	-0.477066	-151.672682
9.650000	-0.482234	64.905896	-38.527902	-73.418692	-38.527902	-73.418692	-0.483109	-152.398196
9.700000	-0.486137	63.420238	-38.509293	-74.456886	-38.509293	-74.456886	-0.489209	-153.125081
9.750000	-0.490134	61.932148	-38.490907	-75.477145	-38.490907	-75.477145	-0.495360	-153.853217
9.800000	-0.494240	60.441499	-38.472613	-76.477198	-38.472613	-76.477198	-0.501565	-154.582764
9.850000	-0.498460	58.948406	-38.454249	-77.456625	-38.454249	-77.456625	-0.507823	-155.313750
9.900000	-0.502798	57.453033	-38.435639	-78.415425	-38.435639	-78.415425	-0.514132	-156.046178
9.950000	-0.507273	55.955226	-38.416530	-79.350680	-38.416530	-79.350680	-0.520497	-156.780251
10.000000	-0.511874	54.455404	-38.396786	-80.265102	-38.396786	-80.265102	-0.526910	-157.515786
