! freq	dB(S11)	phase(S11)	dB(S12)	phase(S12)	
!     	dB(S21)	phase(S21)	dB(S22)	phase(S22)	
!S-par simulation data
#  GHz  S  DB  R 50
0.000000	-0.000000	-0.000000	-360.636707	180.000000	-360.636707	180.000000	-0.000000	-0.000000
0.050000	-0.000085	-0.888257	-104.889620	3.713104	-104.889620	3.713104	-0.000084	-0.866602
0.100000	-0.000337	-1.776345	-103.130444	28.149950	-103.130444	28.149950	-0.000335	-1.733036
0.150000	-0.000750	-2.664103	-101.421528	41.839554	-101.421528	41.839554	-0.000747	-2.599142
0.200000	-0.001315	-3.551387	-99.862958	50.447027	-99.862958	50.447027	-0.001308	-3.464776
0.250000	-0.002029	-4.438021	-98.506513	56.023173	-98.506513	56.023173	-0.002017	-4.329766
0.300000	-0.002866	-5.323942	-97.349718	59.980124	-97.349718	59.980124	-0.002847	-5.194052
0.350000	-0.003818	-6.209024	-96.368982	62.834591	-96.368982	62.834591	-0.003789	-6.057512
0.400000	-0.004870	-7.093184	-95.542634	64.982201	-95.542634	64.982201	-0.004829	-6.920067
0.450000	-0.006007	-7.976355	-94.852370	66.675469	-94.852370	66.675469	-0.005950	-7.781657
0.500000	-0.007214	-8.858486	-94.283848	68.087016	-94.283848	68.087016	-0.007138	-8.642237
0.550000	-0.008477	-9.739542	-93.826269	69.344361	-93.826269	69.344361	-0.008380	-9.501778
0.600000	-0.009784	-10.619502	-93.471760	70.550442	-93.471760	70.550442	-0.009661	-10.360264
0.650000	-0.011122	-11.498352	-93.214776	71.796911	-93.214776	71.796911	-0.010971	-11.217688
0.700000	-0.012482	-12.376089	-93.051546	73.173928	-93.051546	73.173928	-0.012299	-12.074051
0.750000	-0.013853	-13.252715	-92.979468	74.778580	-92.979468	74.778580	-0.013636	-12.929361
0.800000	-0.015229	-14.128235	-92.996337	76.723255	-92.996337	76.723255	-0.014976	-13.783628
0.850000	-0.016602	-15.002660	-93.099136	79.144713	-93.099136	79.144713	-0.016313	-14.636864
0.900000	-0.017969	-15.875997	-93.281985	82.213724	-93.281985	82.213724	-0.017642	-15.489081
0.950000	-0.019326	-16.748257	-93.532590	86.143041	-93.532590	86.143041	-0.018959	-16.340291
1.000000	-0.020668	-17.619448	-93.826346	91.186567	-93.826346	91.186567	-0.020262	-17.190505
1.050000	-0.021995	-18.489576	-94.117635	97.612921	-94.117635	97.612921	-0.021549	-18.039732
1.100000	-0.023305	-19.358647	-94.330523	105.624373	-94.330523	105.624373	-0.022819	-18.887978
1.150000	-0.024596	-20.226662	-94.357926	115.196321	-94.357926	115.196321	-0.024072	-19.735246
1.200000	-0.025870	-21.093623	-94.086027	125.881478	-94.086027	125.881478	-0.025307	-20.581538
1.250000	-0.027125	-21.959527	-93.448601	136.775500	-93.448601	136.775500	-0.026525	-21.426853
1.300000	-0.028363	-22.824322	-92.454538	146.777621	-92.454538	146.777621	-0.027725	-22.271144
1.350000	-0.029583	-23.688048	-91.225792	155.246295	-91.225792	155.246295	-0.028910	-23.114447
1.400000	-0.030788	-24.550696	-89.876644	162.030664	-89.876644	162.030664	-0.030080	-23.956754
1.450000	-0.031977	-25.412254	-88.493223	167.279299	-88.493223	167.279299	-0.031236	-24.798055
1.500000	-0.033153	-26.272711	-87.128006	171.249522	-87.128006	171.249522	-0.032380	-25.638338
1.550000	-0.034317	-27.132052	-85.808329	174.200272	-85.808329	174.200272	-0.033513	-26.477590
1.600000	-0.035469	-27.990261	-84.546074	176.351481	-84.546074	176.351481	-0.034635	-27.315796
1.650000	-0.036612	-28.847323	-83.344571	177.877054	-83.344571	177.877054	-0.035748	-28.152941
1.700000	-0.037745	-29.703220	-82.202773	178.910435	-82.202773	178.910435	-0.036854	-28.989009
1.750000	-0.038871	-30.557935	-81.117588	179.553049	-81.117588	179.553049	-0.037953	-29.823982
1.800000	-0.039990	-31.411447	-80.085114	179.882056	-80.085114	179.882056	-0.039046	-30.657843
1.850000	-0.041104	-32.263739	-79.101278	179.956538	-79.101278	179.956538	-0.040134	-31.490573
1.900000	-0.042213	-33.114790	-78.162143	179.822155	-78.162143	179.822155	-0.041219	-32.322155
1.950000	-0.043319	-33.964581	-77.264049	179.514558	-77.264049	179.514558	-0.042302	-33.152569
2.000000	-0.044422	-34.813091	-76.403661	179.061885	-76.403661	179.061885	-0.043382	-33.981796
2.050000	-0.045524	-35.660302	-75.577968	178.486585	-75.577968	178.486585	-0.044462	-34.809818
2.100000	-0.046626	-36.506192	-74.784274	177.806748	-74.784274	177.806748	-0.045541	-35.636615
2.150000	-0.047727	-37.350743	-74.020161	177.037099	-74.020161	177.037099	-0.046621	-36.462170
2.200000	-0.048830	-38.193934	-73.283469	176.189733	-73.283469	176.189733	-0.047703	-37.286463
2.250000	-0.049934	-39.035746	-72.572259	175.274675	-72.572259	175.274675	-0.048786	-38.109476
2.300000	-0.051041	-39.876160	-71.884794	174.300299	-71.884794	174.300299	-0.049872	-38.931191
2.350000	-0.052150	-40.715156	-71.219508	173.273656	-71.219508	173.273656	-0.050961	-39.751590
2.400000	-0.053264	-41.552718	-70.574992	172.200727	-70.574992	172.200727	-0.052054	-40.570656
2.450000	-0.054381	-42.388825	-69.949968	171.086619	-69.949968	171.086619	-0.053151	-41.388372
2.500000	-0.055504	-43.223462	-69.343279	169.935718	-69.343279	169.935718	-0.054253	-42.204721
2.550000	-0.056632	-44.056544	-68.752891	168.750538	-68.752891	168.750538	-0.055361	-43.019626
2.600000	-0.057766	-44.888120	-68.178931	167.535916	-68.178931	167.535916	-0.056474	-43.833130
2.650000	-0.058906	-45.718173	-67.620509	166.294684	-67.620509	166.294684	-0.057593	-44.645220
2.700000	-0.060053	-46.546689	-67.076811	165.029336	-67.076811	165.029336	-0.058720	-45.455879
2.750000	-0.061207	-47.373651	-66.547087	163.742078	-66.547087	163.742078	-0.059853	-46.265094
2.800000	-0.062369	-48.199045	-66.030649	162.434866	-66.030649	162.434866	-0.060993	-47.072851
2.850000	-0.063539	-49.022858	-65.526861	161.109446	-65.526861	161.109446	-0.062141	-47.879137
2.900000	-0.064717	-49.845076	-65.035133	159.767378	-65.035133	159.767378	-0.063298	-48.683938
2.950000	-0.065905	-50.665687	-64.554920	158.410066	-64.554920	158.410066	-0.064463	-49.487244
3.000000	-0.067101	-51.484678	-64.085714	157.038773	-64.085714	157.038773	-0.065637	-50.289043
3.050000	-0.068307	-52.302038	-63.627043	155.654644	-63.627043	155.654644	-0.066820	-51.089323
3.100000	-0.069522	-53.117756	-63.178465	154.258716	-63.178465	154.258716	-0.068012	-51.888074
3.150000	-0.070748	-53.931821	-62.739570	152.851932	-62.739570	152.851932	-0.069215	-52.685287
3.200000	-0.071985	-54.744225	-62.309971	151.435155	-62.309971	151.435155	-0.070428	-53.480951
3.250000	-0.073232	-55.554958	-61.889306	150.009173	-61.889306	150.009173	-0.071651	-54.275059
3.300000	-0.074491	-56.364011	-61.477234	148.574708	-61.477234	148.574708	-0.072885	-55.067601
3.350000	-0.075764	-57.171081	-61.071617	147.131245	-61.071617	147.131245	-0.074133	-55.858295
3.400000	-0.077048	-57.976384	-60.673700	145.680282	-60.673700	145.680282	-0.075393	-56.647341
3.450000	-0.078340	-58.780796	-60.288214	144.226063	-60.288214	144.226063	-0.076659	-57.435556
3.500000	-0.079651	-59.582539	-59.904742	142.762078	-59.904742	142.762078	-0.077945	-58.221281
3.550000	-0.080967	-60.383685	-59.534410	141.296266	-59.534410	141.296266	-0.079235	-59.006449
3.600000	-0.082305	-61.181847	-59.164473	139.821325	-59.164473	139.821325	-0.080547	-59.788830
3.650000	-0.083646	-61.979708	-58.808229	138.345618	-58.808229	138.345618	-0.081862	-60.570931
3.700000	-0.085014	-62.774271	-58.451000	136.861493	-58.451000	136.861493	-0.083204	-61.349951
3.750000	-0.086382	-63.568834	-58.107884	135.377369	-58.107884	135.377369	-0.084545	-62.128971
3.800000	-0.087781	-64.359788	-57.762610	133.885588	-57.762610	133.885588	-0.085917	-62.904616
3.850000	-0.089180	-65.150741	-57.430539	132.393808	-57.430539	132.393808	-0.087289	-63.680261
3.900000	-0.090608	-65.938381	-57.097753	130.896223	-57.097753	130.896223	-0.088690	-64.452804
3.950000	-0.092039	-66.725720	-56.776116	129.398110	-56.776116	129.398110	-0.090094	-65.225065
4.000000	-0.093498	-67.510046	-56.455014	127.895679	-56.455014	127.895679	-0.091526	-65.994504
4.050000	-0.094963	-68.293770	-56.143249	126.392385	-56.143249	126.392385	-0.092964	-66.763378
4.100000	-0.096455	-69.074787	-55.833098	124.885956	-55.833098	124.885956	-0.094429	-67.529712
4.150000	-0.097956	-69.854901	-55.530684	123.378481	-55.530684	123.378481	-0.095902	-68.295200
4.200000	-0.099482	-70.632617	-55.230816	121.868803	-55.230816	121.868803	-0.097401	-69.058433
4.250000	-0.101021	-71.409133	-54.937269	120.358024	-54.937269	120.358024	-0.098912	-69.820539
4.300000	-0.102582	-72.183560	-54.647073	118.845761	-54.647073	118.845761	-0.100446	-70.580677
4.350000	-0.104160	-72.956494	-54.361942	117.332438	-54.361942	117.332438	-0.101997	-71.339411
4.400000	-0.105759	-73.727649	-54.080854	115.818176	-54.080854	115.818176	-0.103568	-72.096466
4.450000	-0.107379	-74.497023	-53.803716	114.302976	-53.803716	114.302976	-0.105160	-72.851841
4.500000	-0.109016	-75.264926	-53.531219	112.787234	-53.531219	112.787234	-0.106771	-73.605825
4.550000	-0.110679	-76.030769	-53.261679	111.270735	-53.261679	111.270735	-0.108406	-74.357860
4.600000	-0.112357	-76.795445	-52.997292	109.753970	-52.997292	109.753970	-0.110057	-75.108788
4.650000	-0.114065	-77.557790	-52.734974	108.236674	-52.734974	108.236674	-0.111738	-75.857505
4.700000	-0.115785	-78.319269	-52.478253	106.719287	-52.478253	106.719287	-0.113430	-76.605397
4.750000	-0.117540	-79.078154	-52.222804	105.201629	-52.222804	105.201629	-0.115159	-77.350821
4.800000	-0.119304	-79.836470	-51.973334	103.683973	-51.973334	103.683973	-0.116895	-78.095700
4.850000	-0.121109	-80.591941	-51.724416	102.166325	-51.724416	102.166325	-0.118673	-78.837860
4.900000	-0.122919	-81.347132	-51.481808	100.648705	-51.481808	100.648705	-0.120456	-79.579750
4.950000	-0.124776	-82.099242	-51.239100	99.131385	-51.239100	99.131385	-0.122285	-80.318679
5.000000	-0.126633	-82.851352	-51.002990	97.614065	-51.002990	97.614065	-0.124115	-81.057609
5.050000	-0.128543	-83.600160	-50.766179	96.097337	-50.766179	96.097337	-0.125998	-81.793345
5.100000	-0.130454	-84.348968	-50.535653	94.580609	-50.535653	94.580609	-0.127881	-82.529080
5.150000	-0.132416	-85.094812	-50.305002	93.064623	-50.305002	93.064623	-0.129816	-83.261925
5.200000	-0.134382	-85.840386	-50.079780	91.548705	-50.079780	91.548705	-0.131755	-83.994508
5.250000	-0.136397	-86.583331	-49.854941	90.033602	-49.854941	90.033602	-0.133742	-84.724499
5.300000	-0.138422	-87.325749	-49.634742	88.518661	-49.634742	88.518661	-0.135739	-85.453971
5.350000	-0.140492	-88.065868	-49.415375	87.004544	-49.415375	87.004544	-0.137781	-86.181147
5.400000	-0.142577	-88.805220	-49.199913	85.490702	-49.199913	85.490702	-0.139838	-86.907557
5.450000	-0.144704	-89.542597	-48.985680	83.977634	-48.985680	83.977634	-0.141936	-87.631958
5.500000	-0.146852	-90.278988	-48.774659	82.464954	-48.774659	82.464954	-0.144055	-88.355355
5.550000	-0.149037	-91.013723	-48.565216	80.952950	-48.565216	80.952950	-0.146211	-89.077025
5.600000	-0.151250	-91.747276	-48.358313	79.441429	-48.358313	79.441429	-0.148394	-89.797462
5.650000	-0.153496	-92.479487	-48.153298	77.930440	-48.153298	77.930440	-0.150609	-90.516448
5.700000	-0.155776	-93.210356	-47.950150	76.419985	-47.950150	76.419985	-0.152858	-91.233982
5.750000	-0.158086	-93.940187	-47.749167	74.909876	-47.749167	74.909876	-0.155135	-91.950330
5.800000	-0.160436	-94.668565	-47.549338	73.400254	-47.549338	73.400254	-0.157451	-92.665019
5.850000	-0.162811	-95.396199	-47.351933	71.890758	-47.351933	71.890758	-0.159790	-93.378781
5.900000	-0.165236	-96.122343	-47.154868	70.381514	-47.154868	70.381514	-0.162175	-94.090688
5.950000	-0.167680	-96.848019	-46.960490	68.872149	-46.960490	68.872149	-0.164579	-94.801916
6.000000	-0.170185	-97.572290	-46.765426	67.362421	-46.765426	67.362421	-0.167035	-95.511105
6.050000	-0.172704	-98.296340	-46.573360	65.852337	-46.573360	65.852337	-0.169504	-96.219852
6.100000	-0.175299	-99.019281	-46.379162	64.340474	-46.379162	64.340474	-0.172032	-96.926390
6.150000	-0.177903	-99.742186	-46.188419	62.828152	-46.188419	62.828152	-0.174567	-97.632714
6.200000	-0.180608	-100.464686	-45.993244	61.310786	-45.993244	61.310786	-0.177168	-98.336672
6.250000	-0.183315	-101.187187	-45.802358	59.793420	-45.802358	59.793420	-0.179770	-99.040630
6.300000	-0.186131	-101.910270	-45.606762	58.267806	-45.606762	58.267806	-0.182426	-99.742697
6.350000	-0.189048	-102.634488	-45.408188	56.732934	-45.408188	56.732934	-0.185117	-100.443580
6.400000	-0.192103	-103.360713	-45.204920	55.183573	-45.204920	55.183573	-0.187841	-101.143296
6.450000	-0.195371	-104.090274	-44.994379	53.610723	-44.994379	53.610723	-0.190598	-101.841864
6.500000	-0.198993	-104.825297	-44.772528	51.997860	-44.772528	51.997860	-0.193385	-102.539303
6.550000	-0.203272	-105.569373	-44.532708	50.311980	-44.532708	50.311980	-0.196197	-103.235639
6.600000	-0.208937	-106.328970	-44.263388	48.479534	-44.263388	48.479534	-0.199026	-103.930911
6.650000	-0.218030	-107.116241	-43.944207	46.310679	-43.944207	46.310679	-0.201850	-104.625211
6.700000	-0.234896	-107.943539	-43.559861	43.439090	-43.559861	43.439090	-0.204641	-105.318863
6.750000	-0.283158	-108.812186	-43.120341	38.001082	-43.120341	38.001082	-0.207339	-106.012890
6.800000	-0.390232	-109.158491	-43.601166	27.432298	-43.601166	27.432298	-0.210542	-106.710491
6.850000	-0.338461	-109.060626	-45.320313	30.143729	-45.320313	30.143729	-0.214780	-107.399748
6.900000	-0.276420	-109.776835	-45.131425	35.850959	-45.131425	35.850959	-0.218062	-108.085335
6.950000	-0.255598	-110.576600	-44.695379	36.846396	-44.695379	36.846396	-0.221183	-108.771959
7.000000	-0.248214	-111.347213	-44.348999	36.363160	-44.348999	36.363160	-0.224347	-109.458441
7.050000	-0.245945	-112.094142	-44.069670	35.366806	-44.069670	35.366806	-0.227569	-110.144355
7.100000	-0.246025	-112.825476	-43.832080	34.154744	-43.832080	34.154744	-0.230845	-110.829554
7.150000	-0.247333	-113.546415	-43.621154	32.839349	-43.621154	32.839349	-0.234172	-111.513988
7.200000	-0.249355	-114.260113	-43.428169	31.469400	-43.428169	31.469400	-0.237547	-112.197643
7.250000	-0.251838	-114.968407	-43.248067	30.067984	-43.248067	30.067984	-0.240971	-112.880500
7.300000	-0.254656	-115.672255	-43.077873	28.646929	-43.077873	28.646929	-0.244448	-113.562475
7.350000	-0.257705	-116.372767	-42.915020	27.214514	-42.915020	27.214514	-0.247975	-114.243630
7.400000	-0.260865	-117.071536	-42.756880	25.778012	-42.756880	25.778012	-0.251537	-114.924241
7.450000	-0.264172	-117.768000	-42.603797	24.336105	-42.603797	24.336105	-0.255145	-115.604133
7.500000	-0.267609	-118.462327	-42.454874	22.891394	-42.454874	22.891394	-0.258807	-116.283194
7.550000	-0.271104	-119.155714	-42.309113	21.445449	-42.309113	21.445449	-0.262495	-116.961890
7.600000	-0.274741	-119.846738	-42.166863	19.998311	-42.166863	19.998311	-0.266258	-117.639509
7.650000	-0.278413	-120.537205	-42.027077	18.551193	-42.027077	18.551193	-0.270044	-118.316847
7.700000	-0.282184	-121.226078	-41.889934	17.104321	-41.889934	17.104321	-0.273892	-118.993368
7.750000	-0.286011	-121.914102	-41.755017	15.658060	-41.755017	15.658060	-0.277779	-119.669416
7.800000	-0.289897	-122.601229	-41.622260	14.212443	-41.622260	14.212443	-0.281708	-120.344964
7.850000	-0.293863	-123.287223	-41.491473	12.768214	-41.491473	12.768214	-0.285697	-121.019840
7.900000	-0.297859	-123.972820	-41.362615	11.324479	-41.362615	11.324479	-0.289710	-121.694481
7.950000	-0.301954	-124.657117	-41.235463	9.882961	-41.235463	9.882961	-0.293802	-122.368319
8.000000	-0.306077	-125.341092	-41.110071	8.442143	-41.110071	8.442143	-0.297918	-123.041953
8.050000	-0.310272	-126.024234	-40.986272	7.003147	-40.986272	7.003147	-0.302093	-123.715058
8.100000	-0.314519	-126.706828	-40.864037	5.565624	-40.864037	5.565624	-0.306314	-124.387812
8.150000	-0.318812	-127.388960	-40.743354	4.129346	-40.743354	4.129346	-0.310574	-125.060269
8.200000	-0.323182	-128.070388	-40.624044	2.695373	-40.624044	2.695373	-0.314900	-125.732272
8.250000	-0.327579	-128.751593	-40.506257	1.262161	-40.506257	1.262161	-0.319251	-126.404134
8.300000	-0.332063	-129.432103	-40.389711	-0.168294	-40.389711	-0.168294	-0.323679	-127.075553
8.350000	-0.336584	-130.112386	-40.274573	-1.597637	-40.274573	-1.597637	-0.328140	-127.746834
8.400000	-0.341175	-130.792217	-40.160676	-3.024753	-40.160676	-3.024753	-0.332663	-128.417836
8.450000	-0.345796	-131.471902	-40.048145	-4.450944	-40.048145	-4.450944	-0.337214	-129.088756
8.500000	-0.350502	-132.151154	-39.936733	-5.874358	-39.936733	-5.874358	-0.341842	-129.759427
8.550000	-0.355230	-132.830339	-39.826662	-7.297150	-39.826662	-7.297150	-0.346489	-130.430066
8.600000	-0.360053	-133.509183	-39.717626	-8.716834	-39.717626	-8.716834	-0.351223	-131.100542
8.650000	-0.364887	-134.188009	-39.609909	-10.136208	-39.609909	-10.136208	-0.355968	-131.771013
8.700000	-0.369827	-134.866618	-39.503152	-11.552165	-39.503152	-11.552165	-0.360810	-132.441431
8.750000	-0.374770	-135.545227	-39.397692	-12.968123	-39.397692	-12.968123	-0.365654	-133.111849
8.800000	-0.379827	-136.223775	-39.293127	-14.380388	-39.293127	-14.380388	-0.370604	-133.782350
8.850000	-0.384888	-136.902323	-39.189807	-15.792653	-39.189807	-15.792653	-0.375558	-134.452851
8.900000	-0.390055	-137.580978	-39.087385	-17.201588	-39.087385	-17.201588	-0.380611	-135.123561
8.950000	-0.395235	-138.259643	-38.986129	-18.610221	-38.986129	-18.610221	-0.385676	-135.794290
9.000000	-0.400512	-138.938557	-38.885774	-20.015902	-38.885774	-20.015902	-0.390833	-136.465331
9.050000	-0.405811	-139.617522	-38.786513	-21.420993	-38.786513	-21.420993	-0.396011	-137.136435
9.100000	-0.411199	-140.296851	-38.688154	-22.823514	-38.688154	-22.823514	-0.401274	-137.807933
9.150000	-0.416618	-140.976303	-38.590824	-24.225179	-38.590824	-24.225179	-0.406567	-138.479563
9.200000	-0.422117	-141.656208	-38.494395	-25.624655	-38.494395	-25.624655	-0.411938	-139.151646
9.250000	-0.427657	-142.336341	-38.398938	-27.023037	-38.398938	-27.023037	-0.417350	-139.823956
9.300000	-0.433267	-143.016989	-38.304379	-28.419603	-38.304379	-28.419603	-0.422831	-140.496755
9.350000	-0.438928	-143.698004	-38.210741	-29.814872	-38.210741	-29.814872	-0.428363	-141.169902
9.400000	-0.444650	-144.379565	-38.117996	-31.208684	-38.117996	-31.208684	-0.433958	-141.843549
9.450000	-0.450432	-145.061671	-38.026127	-32.601038	-38.026127	-32.601038	-0.439614	-142.517696
9.500000	-0.456265	-145.744321	-37.935145	-33.992270	-37.935145	-33.992270	-0.445323	-143.192326
9.550000	-0.462168	-146.427733	-37.845001	-35.381931	-37.845001	-35.381931	-0.451107	-143.867635
9.600000	-0.468113	-147.111656	-37.755734	-36.770778	-37.755734	-36.770778	-0.456935	-144.543388
9.650000	-0.474136	-147.796599	-37.667276	-38.157995	-37.667276	-38.157995	-0.462849	-145.220027
9.700000	-0.480192	-148.481983	-37.579682	-39.544670	-37.579682	-39.544670	-0.468799	-145.897042
9.750000	-0.486335	-149.168690	-37.492876	-40.929716	-37.492876	-40.929716	-0.474848	-146.575183
9.800000	-0.492501	-149.855732	-37.406915	-42.314449	-37.406915	-42.314449	-0.480923	-147.253603
9.850000	-0.498764	-150.544446	-37.321732	-43.697621	-37.321732	-43.697621	-0.487111	-147.933420
9.900000	-0.505040	-151.233349	-37.237372	-45.080663	-37.237372	-45.080663	-0.493315	-148.613391
9.950000	-0.511420	-151.924324	-37.153788	-46.462279	-37.153788	-46.462279	-0.499647	-149.295062
10.000000	-0.517804	-152.615299	-37.071000	-47.843895	-37.071000	-47.843895	-0.505984	-149.976732
