! freq	dB(S11)	phase(S11)	dB(S12)	phase(S12)	
!     	dB(S21)	phase(S21)	dB(S22)	phase(S22)	
!S-par simulation data
#  GHz  S  DB  R 50
0.000000	-0.000000	0.000000	-372.923458	180.000000	-372.923458	180.000000	-0.000000	0.000000
0.050000	-0.000254	-0.794136	-101.090409	178.828763	-101.090409	178.828763	-0.000123	-1.223371
0.100000	-0.000900	-1.589733	-99.564285	153.113284	-99.564285	153.113284	-0.000488	-2.446474
0.150000	-0.001727	-2.387055	-98.091700	137.571823	-98.091700	137.571823	-0.001087	-3.669050
0.200000	-0.002596	-3.185514	-96.700273	126.884463	-96.700273	126.884463	-0.001904	-4.890872
0.250000	-0.003460	-3.984447	-95.456213	119.264988	-95.456213	119.264988	-0.002934	-6.111659
0.300000	-0.004320	-4.783319	-94.377996	113.402584	-94.377996	113.402584	-0.004138	-7.331315
0.350000	-0.005187	-5.581849	-93.455082	108.826011	-93.455082	108.826011	-0.005502	-8.549640
0.400000	-0.006075	-6.379851	-92.674082	105.167937	-92.674082	105.167937	-0.007005	-9.766503
0.450000	-0.006990	-7.177211	-92.021729	102.204264	-92.021729	102.204264	-0.008623	-10.981798
0.500000	-0.007937	-7.973856	-91.486829	99.798361	-91.486829	99.798361	-0.010334	-12.195448
0.550000	-0.008918	-8.769737	-91.060621	97.870365	-91.060621	97.870365	-0.012117	-13.407397
0.600000	-0.009930	-9.564818	-90.736610	96.380335	-90.736610	96.380335	-0.013954	-14.617606
0.650000	-0.010971	-10.359073	-90.510212	95.319532	-90.510212	95.319532	-0.015826	-15.826054
0.700000	-0.012037	-11.152481	-90.378328	94.706899	-90.378328	94.706899	-0.017720	-17.032733
0.750000	-0.013125	-11.945029	-90.338774	94.589319	-90.338774	94.589319	-0.019622	-18.237638
0.800000	-0.014230	-12.736703	-90.389453	95.045001	-90.389453	95.045001	-0.021523	-19.440775
0.850000	-0.015349	-13.527497	-90.526957	96.189523	-90.526957	96.189523	-0.023414	-20.642149
0.900000	-0.016478	-14.317403	-90.744137	98.183376	-90.744137	98.183376	-0.025289	-21.841767
0.950000	-0.017613	-15.106417	-91.025839	101.237278	-91.025839	101.237278	-0.027142	-23.039637
1.000000	-0.018751	-15.894535	-91.341933	105.605215	-91.341933	105.605215	-0.028971	-24.235764
1.050000	-0.019890	-16.681754	-91.637552	111.543459	-91.637552	111.543459	-0.030772	-25.430148
1.100000	-0.021028	-17.468071	-91.824421	119.202403	-91.824421	119.202403	-0.032546	-26.622791
1.150000	-0.022162	-18.253483	-91.785791	128.436442	-91.785791	128.436442	-0.034290	-27.813687
1.200000	-0.023291	-19.037987	-91.412615	138.621306	-91.412615	138.621306	-0.036006	-29.002830
1.250000	-0.024414	-19.821580	-90.663973	148.724549	-90.663973	148.724549	-0.037694	-30.190210
1.300000	-0.025529	-20.604217	-89.580507	157.673329	-89.580507	157.673329	-0.039355	-31.375735
1.350000	-0.026637	-21.385933	-88.298964	164.990749	-88.298964	164.990749	-0.040991	-32.559467
1.400000	-0.027737	-22.166722	-86.929938	170.652828	-86.929938	170.652828	-0.042603	-33.741386
1.450000	-0.028828	-22.946577	-85.549479	174.870231	-85.549479	174.870231	-0.044194	-34.921473
1.500000	-0.029911	-23.725491	-84.200913	177.915681	-84.200913	177.915681	-0.045766	-36.099705
1.550000	-0.030986	-24.503455	-82.905310	-179.958611	-82.905310	-179.958611	-0.047320	-37.276059
1.600000	-0.032053	-25.280461	-81.670760	-178.546514	-81.670760	-178.546514	-0.048858	-38.450512
1.650000	-0.033112	-26.056499	-80.498451	-177.688242	-80.498451	-177.688242	-0.050383	-39.623037
1.700000	-0.034165	-26.831557	-79.386178	-177.262505	-79.386178	-177.262505	-0.051896	-40.793610
1.750000	-0.035210	-27.605626	-78.330244	-177.177686	-78.330244	-177.177686	-0.053398	-41.962205
1.800000	-0.036250	-28.378692	-77.326455	-177.364349	-77.326455	-177.364349	-0.054893	-43.128797
1.850000	-0.037284	-29.150745	-76.370609	-177.769470	-76.370609	-177.769470	-0.056380	-44.293359
1.900000	-0.038313	-29.921770	-75.458733	-178.352165	-75.458733	-178.352165	-0.057863	-45.455868
1.950000	-0.039339	-30.691756	-74.587173	-179.080585	-74.587173	-179.080585	-0.059342	-46.616299
2.000000	-0.040360	-31.460689	-73.752622	-179.929659	-73.752622	-179.929659	-0.060818	-47.774628
2.050000	-0.041379	-32.228555	-72.952109	179.120552	-72.952109	179.120552	-0.062294	-48.930833
2.100000	-0.042396	-32.995340	-72.182974	178.086062	-72.182974	178.086062	-0.063771	-50.084892
2.150000	-0.043411	-33.761030	-71.442839	176.979846	-71.442839	176.979846	-0.065249	-51.236784
2.200000	-0.044425	-34.525612	-70.729574	175.812514	-70.729574	175.812514	-0.066730	-52.386490
2.250000	-0.045438	-35.289070	-70.041274	174.592808	-70.041274	174.592808	-0.068214	-53.533992
2.300000	-0.046453	-36.051391	-69.376224	173.327986	-69.376224	173.327986	-0.069703	-54.679273
2.350000	-0.047468	-36.812561	-68.732883	172.024116	-68.732883	172.024116	-0.071198	-55.822318
2.400000	-0.048485	-37.572566	-68.109859	170.686304	-68.109859	170.686304	-0.072700	-56.963112
2.450000	-0.049504	-38.331391	-67.505891	169.318870	-67.505891	169.318870	-0.074209	-58.101643
2.500000	-0.050526	-39.089023	-66.919836	167.925495	-66.919836	167.925495	-0.075726	-59.237901
2.550000	-0.051551	-39.845395	-66.349767	166.508459	-66.349767	166.508459	-0.077252	-60.371775
2.600000	-0.052580	-40.600546	-65.795716	165.071543	-65.795716	165.071543	-0.078788	-61.503359
2.650000	-0.053614	-41.354462	-65.256801	163.617037	-65.256801	163.617037	-0.080334	-62.632645
2.700000	-0.054653	-42.107130	-64.732217	162.146935	-64.732217	162.146935	-0.081892	-63.759629
2.750000	-0.055697	-42.858537	-64.221222	160.662971	-64.221222	160.662971	-0.083460	-64.884309
2.800000	-0.056747	-43.608672	-63.723133	159.166665	-63.723133	159.166665	-0.085041	-66.006684
2.850000	-0.057804	-44.357521	-63.237321	157.659348	-63.237321	157.659348	-0.086634	-67.126754
2.900000	-0.058867	-45.105073	-62.763204	156.142195	-62.763204	156.142195	-0.088241	-68.244522
2.950000	-0.059938	-45.851317	-62.300242	154.616239	-62.300242	154.616239	-0.089861	-69.359992
3.000000	-0.061017	-46.596242	-61.847933	153.082398	-61.847933	153.082398	-0.091495	-70.473170
3.050000	-0.062104	-47.339836	-61.405811	151.541485	-61.405811	151.541485	-0.093143	-71.584062
3.100000	-0.063199	-48.082089	-60.973442	149.994221	-60.973442	149.994221	-0.094807	-72.692679
3.150000	-0.064304	-48.822991	-60.550421	148.441253	-60.550421	148.441253	-0.096486	-73.799030
3.200000	-0.065418	-49.562532	-60.136369	146.883155	-60.136369	146.883155	-0.098182	-74.903128
3.250000	-0.066542	-50.300703	-59.730931	145.320444	-59.730931	145.320444	-0.099893	-76.004988
3.300000	-0.067676	-51.037495	-59.333774	143.753582	-59.333774	143.753582	-0.101622	-77.104623
3.350000	-0.068821	-51.772899	-58.944586	142.182985	-58.944586	142.182985	-0.103368	-78.202053
3.400000	-0.069977	-52.506907	-58.563075	140.609027	-58.563075	140.609027	-0.105132	-79.297295
3.450000	-0.071144	-53.239512	-58.188963	139.032047	-58.188963	139.032047	-0.106915	-80.390370
3.500000	-0.072323	-53.970705	-57.821990	137.452350	-57.821990	137.452350	-0.108716	-81.481299
3.550000	-0.073515	-54.700479	-57.461912	135.870213	-57.461912	135.870213	-0.110537	-82.570106
3.600000	-0.074719	-55.428829	-57.108496	134.285889	-57.108496	134.285889	-0.112378	-83.656817
3.650000	-0.075935	-56.155748	-56.761523	132.699605	-56.761523	132.699605	-0.114239	-84.741456
3.700000	-0.077166	-56.881229	-56.420786	131.111570	-56.420786	131.111570	-0.116121	-85.824053
3.750000	-0.078409	-57.605268	-56.086088	129.521976	-56.086088	129.521976	-0.118024	-86.904636
3.800000	-0.079668	-58.327797	-55.756958	127.930945	-55.756958	127.930945	-0.119951	-87.983151
3.850000	-0.080940	-59.048872	-55.433525	126.338702	-55.433525	126.338702	-0.121900	-89.059718
3.900000	-0.082228	-59.768491	-55.115621	124.745394	-55.115621	124.745394	-0.123872	-90.134372
3.950000	-0.083530	-60.486649	-54.803085	123.151155	-54.803085	123.151155	-0.125868	-91.207145
4.000000	-0.084849	-61.203343	-54.495763	121.556112	-54.495763	121.556112	-0.127889	-92.278076
4.050000	-0.086183	-61.918570	-54.193509	119.960379	-54.193509	119.960379	-0.129935	-93.347201
4.100000	-0.087533	-62.632327	-53.896184	118.364065	-53.896184	118.364065	-0.132007	-94.414560
4.150000	-0.088900	-63.344611	-53.603656	116.767271	-53.603656	116.767271	-0.134105	-95.480192
4.200000	-0.090284	-64.055422	-53.315799	115.170091	-53.315799	115.170091	-0.136230	-96.544138
4.250000	-0.091685	-64.764757	-53.032490	113.572614	-53.032490	113.572614	-0.138382	-97.606442
4.300000	-0.093104	-65.472615	-52.753615	111.974924	-52.753615	111.974924	-0.140564	-98.667146
4.350000	-0.094540	-66.178996	-52.479063	110.377100	-52.479063	110.377100	-0.142774	-99.726296
4.400000	-0.095996	-66.883899	-52.208727	108.779217	-52.208727	108.779217	-0.145014	-100.783938
4.450000	-0.097470	-67.587323	-51.942507	107.181347	-51.942507	107.181347	-0.147284	-101.840118
4.500000	-0.098963	-68.289270	-51.680304	105.583556	-51.680304	105.583556	-0.149586	-102.894885
4.550000	-0.100476	-68.989740	-51.422024	103.985912	-51.422024	103.985912	-0.151920	-103.948288
4.600000	-0.102009	-69.688734	-51.167579	102.388475	-51.167579	102.388475	-0.154286	-105.000377
4.650000	-0.103563	-70.386253	-50.916881	100.791306	-50.916881	100.791306	-0.156685	-106.051204
4.700000	-0.105137	-71.082298	-50.669847	99.194462	-50.669847	99.194462	-0.159118	-107.100822
4.750000	-0.106732	-71.776873	-50.426397	97.598000	-50.426397	97.598000	-0.161587	-108.149283
4.800000	-0.108349	-72.469979	-50.186454	96.001972	-50.186454	96.001972	-0.164090	-109.196642
4.850000	-0.109987	-73.161619	-49.949943	94.406432	-49.949943	94.406432	-0.166629	-110.242956
4.900000	-0.111648	-73.851797	-49.716792	92.811430	-49.716792	92.811430	-0.169205	-111.288280
4.950000	-0.113332	-74.540514	-49.486932	91.217014	-49.486932	91.217014	-0.171819	-112.332672
5.000000	-0.115039	-75.227776	-49.260296	89.623234	-49.260296	89.623234	-0.174470	-113.376191
5.050000	-0.116770	-75.913523	-49.036706	88.030167	-49.036706	88.030167	-0.177161	-114.418863
5.100000	-0.118525	-76.597822	-48.816221	86.437830	-48.816221	86.437830	-0.179892	-115.460789
5.150000	-0.120305	-77.280679	-48.598778	84.846268	-48.598778	84.846268	-0.182663	-116.502030
5.200000	-0.122109	-77.962098	-48.384319	83.255524	-48.384319	83.255524	-0.185474	-117.542647
5.250000	-0.123939	-78.642085	-48.172785	81.665638	-48.172785	81.665638	-0.188326	-118.582707
5.300000	-0.125794	-79.320645	-47.964121	80.076652	-47.964121	80.076652	-0.191219	-119.622272
5.350000	-0.127675	-79.997784	-47.758273	78.488606	-47.758273	78.488606	-0.194155	-120.661410
5.400000	-0.129582	-80.673508	-47.555187	76.901537	-47.555187	76.901537	-0.197133	-121.700187
5.450000	-0.131516	-81.347824	-47.354813	75.315483	-47.354813	75.315483	-0.200154	-122.738672
5.500000	-0.133478	-82.020738	-47.157100	73.730481	-47.157100	73.730481	-0.203218	-123.776932
5.550000	-0.135467	-82.692256	-46.962001	72.146565	-46.962001	72.146565	-0.206326	-124.815039
5.600000	-0.137484	-83.362387	-46.769468	70.563770	-46.769468	70.563770	-0.209479	-125.853064
5.650000	-0.139529	-84.031138	-46.579455	68.982128	-46.579455	68.982128	-0.212676	-126.891078
5.700000	-0.141604	-84.698517	-46.391917	67.401672	-46.391917	67.401672	-0.215919	-127.929154
5.750000	-0.143708	-85.364531	-46.206810	65.822433	-46.206810	65.822433	-0.219206	-128.967368
5.800000	-0.145841	-86.029189	-46.024093	64.244440	-46.024093	64.244440	-0.222540	-130.005794
5.850000	-0.148005	-86.692499	-45.843724	62.667722	-45.843724	62.667722	-0.225920	-131.044509
5.900000	-0.150199	-87.354470	-45.665662	61.092306	-45.665662	61.092306	-0.229346	-132.083590
5.950000	-0.152424	-88.015112	-45.489868	59.518219	-45.489868	59.518219	-0.232819	-133.123115
6.000000	-0.154681	-88.674433	-45.316304	57.945485	-45.316304	57.945485	-0.236339	-134.163164
6.050000	-0.156969	-89.332442	-45.144932	56.374130	-45.144932	56.374130	-0.239907	-135.203818
6.100000	-0.159289	-89.989151	-44.975715	54.804175	-44.975715	54.804175	-0.243521	-136.245158
6.150000	-0.161642	-90.644568	-44.808619	53.235643	-44.808619	53.235643	-0.247184	-137.287266
6.200000	-0.164029	-91.298704	-44.643607	51.668554	-44.643607	51.668554	-0.250895	-138.330228
6.250000	-0.166448	-91.951569	-44.480647	50.102928	-44.480647	50.102928	-0.254654	-139.374126
6.300000	-0.168903	-92.603119	-44.319663	48.538849	-44.319663	48.538849	-0.258463	-140.419097
6.350000	-0.171392	-93.253422	-44.160669	46.976270	-44.160669	46.976270	-0.262321	-141.465185
6.400000	-0.173916	-93.902487	-44.003632	45.415209	-44.003632	45.415209	-0.266228	-142.512479
6.450000	-0.176476	-94.550326	-43.848523	43.855680	-43.848523	43.855680	-0.270184	-143.561069
6.500000	-0.179070	-95.196952	-43.695311	42.297698	-43.695311	42.297698	-0.274188	-144.611043
6.550000	-0.181701	-95.842374	-43.543967	40.741277	-43.543967	40.741277	-0.278242	-145.662494
6.600000	-0.184368	-96.486607	-43.394463	39.186430	-43.394463	39.186430	-0.282346	-146.715513
6.650000	-0.187071	-97.129661	-43.246770	37.633169	-43.246770	37.633169	-0.286499	-147.770194
6.700000	-0.189812	-97.771549	-43.100863	36.081505	-43.100863	36.081505	-0.290701	-148.826631
6.750000	-0.192591	-98.412284	-42.956714	34.531450	-42.956714	34.531450	-0.294954	-149.884919
6.800000	-0.195407	-99.051879	-42.814300	32.983013	-42.814300	32.983013	-0.299256	-150.945154
6.850000	-0.198261	-99.690346	-42.673594	31.436205	-42.673594	31.436205	-0.303607	-152.007433
6.900000	-0.201155	-100.327699	-42.534574	29.891036	-42.534574	29.891036	-0.308009	-153.071855
6.950000	-0.204087	-100.963951	-42.397216	28.347514	-42.397216	28.347514	-0.312461	-154.138518
7.000000	-0.207059	-101.599116	-42.261498	26.805649	-42.261498	26.805649	-0.316962	-155.207523
7.050000	-0.210071	-102.233207	-42.127398	25.265450	-42.127398	25.265450	-0.321514	-156.278970
7.100000	-0.213123	-102.866239	-41.994896	23.726927	-41.994896	23.726927	-0.326116	-157.352962
7.150000	-0.216216	-103.498226	-41.863970	22.190088	-41.863970	22.190088	-0.330767	-158.429601
7.200000	-0.219349	-104.129182	-41.734603	20.654943	-41.734603	20.654943	-0.335469	-159.508992
7.250000	-0.222524	-104.759122	-41.606774	19.121502	-41.606774	19.121502	-0.340221	-160.591237
7.300000	-0.225741	-105.388061	-41.480466	17.589776	-41.480466	17.589776	-0.345022	-161.676444
7.350000	-0.229000	-106.016013	-41.355662	16.059776	-41.355662	16.059776	-0.349873	-162.764718
7.400000	-0.232301	-106.642993	-41.232345	14.531513	-41.232345	14.531513	-0.354774	-163.856167
7.450000	-0.235645	-107.269018	-41.110499	13.005001	-41.110499	13.005001	-0.359725	-164.950899
7.500000	-0.239032	-107.894102	-40.990109	11.480252	-40.990109	11.480252	-0.364725	-166.049021
7.550000	-0.242465	-108.518222	-40.871153	9.957361	-40.871153	9.957361	-0.369776	-167.150802
7.600000	-0.245942	-109.141435	-40.753627	8.436266	-40.753627	8.436266	-0.374877	-168.256204
7.650000	-0.249462	-109.763757	-40.637517	6.916985	-40.637517	6.916985	-0.380026	-169.365338
7.700000	-0.253028	-110.385204	-40.522810	5.399539	-40.522810	5.399539	-0.385225	-170.478316
7.750000	-0.256638	-111.005792	-40.409496	3.883947	-40.409496	3.883947	-0.390471	-171.595251
7.800000	-0.260294	-111.625539	-40.297563	2.370232	-40.297563	2.370232	-0.395766	-172.716254
7.850000	-0.263995	-112.244462	-40.187000	0.858421	-40.187000	0.858421	-0.401109	-173.841440
7.900000	-0.267742	-112.862577	-40.077797	-0.651462	-40.077797	-0.651462	-0.406499	-174.970923
7.950000	-0.271535	-113.479901	-39.969945	-2.159386	-39.969945	-2.159386	-0.411937	-176.104816
8.000000	-0.275375	-114.096453	-39.863434	-3.665319	-39.863434	-3.665319	-0.417421	-177.243236
8.050000	-0.279262	-114.712250	-39.758257	-5.169229	-39.758257	-5.169229	-0.422952	-178.386297
8.100000	-0.283196	-115.327310	-39.654405	-6.671078	-39.654405	-6.671078	-0.428528	-179.534116
8.150000	-0.287178	-115.941650	-39.551872	-8.170828	-39.551872	-8.170828	-0.434150	179.313193
8.200000	-0.291207	-116.555290	-39.450651	-9.668435	-39.450651	-9.668435	-0.439817	178.155513
8.250000	-0.295285	-117.168248	-39.350735	-11.163855	-39.350735	-11.163855	-0.445528	176.992728
8.300000	-0.299411	-117.780542	-39.252120	-12.657041	-39.252120	-12.657041	-0.451283	175.824722
8.350000	-0.303586	-118.392191	-39.154799	-14.147941	-39.154799	-14.147941	-0.457080	174.651377
8.400000	-0.307810	-119.003215	-39.058768	-15.636500	-39.058768	-15.636500	-0.462920	173.472578
8.450000	-0.312083	-119.613632	-38.964022	-17.122661	-38.964022	-17.122661	-0.468801	172.288209
8.500000	-0.316406	-120.223463	-38.870558	-18.606363	-38.870558	-18.606363	-0.474724	171.098155
8.550000	-0.320779	-120.832727	-38.778372	-20.087541	-38.778372	-20.087541	-0.480685	169.902298
8.600000	-0.325203	-121.441443	-38.687460	-21.566128	-38.687460	-21.566128	-0.486686	168.700525
8.650000	-0.329677	-122.049633	-38.597820	-23.042053	-38.597820	-23.042053	-0.492725	167.492720
8.700000	-0.334201	-122.657316	-38.509449	-24.515239	-38.509449	-24.515239	-0.498801	166.278771
8.750000	-0.338777	-123.264513	-38.422344	-25.985610	-38.422344	-25.985610	-0.504912	165.058562
8.800000	-0.343407	-123.871227	-38.336523	-27.452951	-38.336523	-27.452951	-0.511060	163.831701
8.850000	-0.348088	-124.477498	-38.251965	-28.917300	-38.251965	-28.917300	-0.517241	162.598348
8.900000	-0.352822	-125.083348	-38.168671	-30.378566	-38.168671	-30.378566	-0.523454	161.358392
8.950000	-0.357607	-125.688799	-38.086637	-31.836656	-38.086637	-31.836656	-0.529698	160.111725
9.000000	-0.362446	-126.293873	-38.005863	-33.291472	-38.005863	-33.291472	-0.535971	158.858239
9.050000	-0.367337	-126.898591	-37.926347	-34.742914	-37.926347	-34.742914	-0.542273	157.597829
9.100000	-0.372282	-127.502977	-37.848087	-36.190877	-37.848087	-36.190877	-0.548600	156.330391
9.150000	-0.377280	-128.107052	-37.771083	-37.635254	-37.771083	-37.635254	-0.554953	155.055822
9.200000	-0.382332	-128.710839	-37.695333	-39.075933	-37.695333	-39.075933	-0.561329	153.774022
9.250000	-0.387438	-129.314361	-37.620835	-40.512801	-37.620835	-40.512801	-0.567726	152.484893
9.300000	-0.392598	-129.917642	-37.547589	-41.945739	-37.547589	-41.945739	-0.574143	151.188340
9.350000	-0.397814	-130.520706	-37.475592	-43.374627	-37.475592	-43.374627	-0.580577	149.884269
9.400000	-0.403084	-131.123575	-37.404844	-44.799341	-37.404844	-44.799341	-0.587027	148.572590
9.450000	-0.408409	-131.726274	-37.335342	-46.219755	-37.335342	-46.219755	-0.593491	147.253217
9.500000	-0.413791	-132.328827	-37.267085	-47.635739	-37.267085	-47.635739	-0.599966	145.926065
9.550000	-0.419228	-132.931260	-37.200071	-49.047162	-37.200071	-49.047162	-0.606451	144.591053
9.600000	-0.424721	-133.533596	-37.134297	-50.453889	-37.134297	-50.453889	-0.612943	143.248106
9.650000	-0.430271	-134.135862	-37.069762	-51.855785	-37.069762	-51.855785	-0.619439	141.897148
9.700000	-0.435878	-134.738082	-37.006462	-53.252709	-37.006462	-53.252709	-0.625938	140.538113
9.750000	-0.441543	-135.340283	-36.944394	-54.644523	-36.944394	-54.644523	-0.632437	139.170934
9.800000	-0.447265	-135.942490	-36.883556	-56.031084	-36.883556	-56.031084	-0.638933	137.795552
9.850000	-0.453044	-136.544730	-36.823944	-57.412248	-36.823944	-57.412248	-0.645423	136.411913
9.900000	-0.458882	-137.147029	-36.765555	-58.787871	-36.765555	-58.787871	-0.651905	135.019964
9.950000	-0.464779	-137.749415	-36.708383	-60.157807	-36.708383	-60.157807	-0.658376	133.619663
10.000000	-0.470735	-138.351915	-36.652425	-61.521909	-36.652425	-61.521909	-0.664833	132.210969
