! freq	dB(S11)	phase(S11)	dB(S12)	phase(S12)	
!     	dB(S21)	phase(S21)	dB(S22)	phase(S22)	
!S-par simulation data
#  GHz  S  DB  R 50
0.000000	-84.079928	0.000000	-0.000543	0.000000	-0.000543	0.000000	-84.079929	0.000000
0.050000	-41.351136	-92.276019	-0.001028	-2.672690	-0.001028	-2.672690	-41.351023	-92.272890
0.100000	-35.340557	-95.185240	-0.002472	-5.344922	-0.002472	-5.344922	-35.340441	-95.178970
0.150000	-31.835350	-97.951624	-0.004875	-8.016229	-0.004875	-8.016229	-31.835228	-97.942210
0.200000	-29.359460	-100.682396	-0.008193	-10.686198	-0.008193	-10.686198	-29.359331	-100.669829
0.250000	-27.450608	-103.397421	-0.012408	-13.354403	-0.012408	-13.354403	-27.450469	-103.381689
0.300000	-25.902797	-106.103480	-0.017484	-16.020446	-0.017484	-16.020446	-25.902647	-106.084570
0.350000	-24.606143	-108.803278	-0.023382	-18.683955	-0.023382	-18.683955	-24.605979	-108.781169
0.400000	-23.495054	-111.498010	-0.030051	-21.344588	-0.030051	-21.344588	-23.494875	-111.472681
0.450000	-22.527225	-114.188225	-0.037439	-24.002041	-0.037439	-24.002041	-22.527029	-114.159650
0.500000	-21.673773	-116.874161	-0.045486	-26.656043	-0.045486	-26.656043	-21.673559	-116.842309
0.550000	-20.914101	-119.555901	-0.054128	-29.306368	-0.054128	-29.306368	-20.913866	-119.520739
0.600000	-20.233005	-122.233454	-0.063298	-31.952830	-0.063298	-31.952830	-20.232750	-122.194944
0.650000	-19.619153	-124.906753	-0.072929	-34.595247	-0.072929	-34.595247	-19.618875	-124.864848
0.700000	-19.063582	-127.575765	-0.082945	-37.233523	-0.082945	-37.233523	-19.063280	-127.530415
0.750000	-18.558994	-130.240515	-0.093267	-39.867661	-0.093267	-39.867661	-18.558667	-130.191666
0.800000	-18.099684	-132.901003	-0.103817	-42.497666	-0.103817	-42.497666	-18.099332	-132.848591
0.850000	-17.680998	-135.557249	-0.114520	-45.123591	-0.114520	-45.123591	-17.680620	-135.501206
0.900000	-17.299101	-138.209306	-0.125300	-47.745537	-0.125300	-47.745537	-17.298696	-138.149554
0.950000	-16.950796	-140.857255	-0.136082	-50.363649	-0.136082	-50.363649	-16.950364	-140.793710
1.000000	-16.633400	-143.501210	-0.146791	-52.978118	-0.146791	-52.978118	-16.632941	-143.433778
1.050000	-16.344649	-146.141320	-0.157359	-55.589177	-0.157359	-55.589177	-16.344162	-146.069896
1.100000	-16.082621	-148.777765	-0.167715	-58.197100	-0.167715	-58.197100	-16.082106	-148.702236
1.150000	-15.845680	-151.410760	-0.177794	-60.802199	-0.177794	-60.802199	-15.845136	-151.331000
1.200000	-15.632430	-154.040552	-0.187536	-63.404823	-0.187536	-63.404823	-15.631858	-153.956421
1.250000	-15.441687	-156.667417	-0.196883	-66.005353	-0.196883	-66.005353	-15.441086	-156.578764
1.300000	-15.272827	-159.291615	-0.205769	-68.604176	-0.205769	-68.604176	-15.272198	-159.198268
1.350000	-15.124616	-161.913549	-0.214158	-71.201779	-0.214158	-71.201779	-15.123959	-161.815322
1.400000	-14.996346	-164.533583	-0.222004	-73.798629	-0.222004	-73.798629	-14.995660	-164.430273
1.450000	-14.887438	-167.152108	-0.229270	-76.395216	-0.229270	-76.395216	-14.886723	-167.043491
1.500000	-14.797428	-169.769535	-0.235924	-78.992046	-0.235924	-78.992046	-14.796685	-169.655364
1.550000	-14.725964	-172.386298	-0.241938	-81.589644	-0.241938	-81.589644	-14.725192	-172.266300
1.600000	-14.672797	-175.002847	-0.247291	-84.188547	-0.247291	-84.188547	-14.671995	-174.876724
1.650000	-14.637778	-177.619651	-0.251967	-86.789303	-0.251967	-86.789303	-14.636945	-177.487069
1.700000	-14.620856	179.762813	-0.255956	-89.392467	-0.255956	-89.392467	-14.619992	179.902221
1.750000	-14.622081	177.144054	-0.259253	-91.998600	-0.259253	-91.998600	-14.621184	177.290694
1.800000	-14.641601	174.523574	-0.261859	-94.608265	-0.261859	-94.608265	-14.640671	174.677899
1.850000	-14.679671	171.900872	-0.263781	-97.222025	-0.263781	-97.222025	-14.678706	172.063386
1.900000	-14.736858	169.275410	-0.265024	-99.840498	-0.265024	-99.840498	-14.735855	169.446682
1.950000	-14.813651	166.646671	-0.265608	-102.464259	-0.265608	-102.464259	-14.812609	166.827342
2.000000	-14.910460	164.014193	-0.265562	-105.093806	-0.265562	-105.093806	-14.909375	164.204976
2.050000	-15.028035	161.377491	-0.264918	-107.729677	-0.264918	-107.729677	-15.026904	161.579192
2.100000	-15.167289	158.736101	-0.263708	-110.372402	-0.263708	-110.372402	-15.166107	158.949632
2.150000	-15.329313	156.089576	-0.261972	-113.022492	-0.261972	-113.022492	-15.328073	156.315979
2.200000	-15.515404	153.437497	-0.259755	-115.680448	-0.259755	-115.680448	-15.514101	153.677964
2.250000	-15.727104	150.779480	-0.257106	-118.346749	-0.257106	-118.346749	-15.725730	151.035384
2.300000	-15.966238	148.115182	-0.254078	-121.021857	-0.254078	-121.021857	-15.964783	148.388115
2.350000	-16.234973	145.444316	-0.250730	-123.706212	-0.250730	-123.706212	-16.233426	145.736138
2.400000	-16.535893	142.766659	-0.247124	-126.400233	-0.247124	-126.400233	-16.534239	143.079558
2.450000	-16.872088	140.082075	-0.243326	-129.104310	-0.243326	-129.104310	-16.870310	140.418649
2.500000	-17.247286	137.390533	-0.239407	-131.818811	-0.239407	-131.818811	-17.245362	137.753899
2.550000	-17.666593	134.692001	-0.235442	-134.544315	-0.235442	-134.544315	-17.664494	135.086041
2.600000	-18.135059	131.986944	-0.231510	-137.280903	-0.231510	-137.280903	-18.132750	132.416353
2.650000	-18.659632	129.275932	-0.227691	-140.028850	-0.227691	-140.028850	-18.657064	129.746582
2.700000	-19.249094	126.559905	-0.224069	-142.788402	-0.224069	-142.788402	-19.246206	127.079266
2.750000	-19.914761	123.840339	-0.220728	-145.559769	-0.220728	-145.559769	-19.911465	124.418113
2.800000	-20.671533	121.119520	-0.217756	-148.343126	-0.217756	-148.343126	-20.667707	121.768632
2.850000	-21.539577	118.401035	-0.215243	-151.138615	-0.215243	-151.138615	-21.535039	119.139224
2.900000	-22.547124	115.690661	-0.213279	-153.946339	-0.213279	-153.946339	-22.541589	116.543202
2.950000	-23.735407	112.998136	-0.211955	-156.766368	-0.211955	-156.766368	-23.728408	114.002794
3.000000	-25.168112	110.341015	-0.211363	-159.598730	-0.211363	-159.598730	-25.158805	111.557846
3.050000	-26.951318	107.754154	-0.211596	-162.443417	-0.211596	-162.443417	-26.937997	109.287186
3.100000	-29.282122	105.317290	-0.212745	-165.300385	-0.212745	-165.300385	-29.260687	107.370552
3.150000	-32.597330	103.271190	-0.214916	-168.169681	-0.214916	-168.169681	-32.554494	106.347697
3.200000	-38.238312	102.823678	-0.218200	-171.051176	-0.218200	-171.051176	-38.093060	108.868973
3.250000	-53.713611	-169.283811	-0.222677	-173.944579	-0.222677	-173.944579	-50.036576	-178.806964
3.300000	-39.024241	-93.772049	-0.228433	-176.849691	-0.228433	-176.849691	-38.871662	-101.130835
3.350000	-32.672224	-93.468487	-0.235554	-179.766278	-0.235554	-179.766278	-32.642770	-96.947253
3.400000	-28.973829	-95.458275	-0.244121	177.305925	-0.244121	177.305925	-28.963201	-97.764814
3.450000	-26.343080	-97.939155	-0.254213	174.367220	-0.254213	174.367220	-26.338334	-99.675984
3.500000	-24.293802	-100.614536	-0.265907	171.417936	-0.265907	171.417936	-24.291511	-102.014306
3.550000	-22.611926	-103.390294	-0.279274	168.458434	-0.279274	168.458434	-22.610833	-104.567360
3.600000	-21.184057	-106.226829	-0.294381	165.489101	-0.294381	165.489101	-21.183607	-107.245884
3.650000	-19.942826	-109.104400	-0.311292	162.510347	-0.311292	162.510347	-19.942743	-110.005613
3.700000	-18.844917	-112.011932	-0.330065	159.522605	-0.330065	159.522605	-18.845050	-112.821963
3.750000	-17.860821	-114.942623	-0.350754	156.526328	-0.350754	156.526328	-17.861083	-115.680079
3.800000	-16.969385	-117.892313	-0.373449	153.521819	-0.373449	153.521819	-16.969722	-118.570912
3.850000	-16.155308	-120.857408	-0.398153	150.509745	-0.398153	150.509745	-16.155687	-121.487160
3.900000	-15.406795	-123.835597	-0.424901	147.490599	-0.424901	147.490599	-15.407195	-124.424220
3.950000	-14.714674	-126.825079	-0.453727	144.464879	-0.453727	144.464879	-14.715080	-127.378646
4.000000	-14.071663	-129.824393	-0.484655	141.433085	-0.484655	141.433085	-14.072066	-130.347771
4.050000	-13.471880	-132.832314	-0.517707	138.395719	-0.517707	138.395719	-13.472274	-133.329463
4.100000	-12.910500	-135.847792	-0.552897	135.353279	-0.552897	135.353279	-12.910881	-136.321980
4.150000	-12.383512	-138.869906	-0.590235	132.306258	-0.590235	132.306258	-12.383876	-139.323859
4.200000	-11.887537	-141.897835	-0.629727	129.255139	-0.629727	129.255139	-11.887883	-142.333854
4.250000	-11.419704	-144.930841	-0.671372	126.200391	-0.671372	126.200391	-11.420031	-145.350885
4.300000	-10.977543	-147.968253	-0.715166	123.142474	-0.715166	123.142474	-10.977851	-148.374004
4.350000	-10.558913	-151.009462	-0.761098	120.081825	-0.761098	120.081825	-10.559202	-151.402376
4.400000	-10.161974	-154.053939	-0.809177	117.018846	-0.809177	117.018846	-10.162243	-154.435296
4.450000	-9.785085	-157.101160	-0.859383	113.953949	-0.859383	113.953949	-9.785335	-157.472078
4.500000	-9.426754	-160.150629	-0.911676	110.887535	-0.911676	110.887535	-9.426985	-160.512083
4.550000	-9.085673	-163.201926	-0.966032	107.819956	-0.966032	107.819956	-9.085887	-163.554780
4.600000	-8.760670	-166.254671	-1.022425	104.751537	-1.022425	104.751537	-8.760866	-166.599694
4.650000	-8.450686	-169.308523	-1.080828	101.682580	-1.080828	101.682580	-8.450866	-169.646402
4.700000	-8.154761	-172.363176	-1.141209	98.613359	-1.141209	98.613359	-8.154925	-172.694527
4.750000	-7.872022	-175.418356	-1.203538	95.544121	-1.203538	95.544121	-7.872170	-175.743735
4.800000	-7.601669	-178.473825	-1.267782	92.475090	-1.267782	92.475090	-7.601803	-178.793733
4.850000	-7.342968	178.470629	-1.333909	89.406459	-1.333909	89.406459	-7.343088	178.155739
4.900000	-7.095247	175.415187	-1.401885	86.338399	-1.401885	86.338399	-7.095353	175.104904
4.950000	-6.857880	172.360005	-1.471676	83.271057	-1.471676	83.271057	-6.857973	172.053954
5.000000	-6.630292	169.305216	-1.543251	80.204554	-1.543251	80.204554	-6.630372	169.003057
5.050000	-6.412024	166.250942	-1.616599	77.139013	-1.616599	77.139013	-6.412091	165.952359
5.100000	-6.202501	163.197266	-1.691664	74.074495	-1.691664	74.074495	-6.202556	162.901975
5.150000	-6.001261	160.144260	-1.768414	71.011059	-1.768414	71.011059	-6.001305	159.852005
5.200000	-5.807874	157.091984	-1.846819	67.948747	-1.846819	67.948747	-5.807906	156.802527
5.250000	-5.621938	154.040484	-1.926852	64.887588	-1.926852	64.887588	-5.621958	153.753610
5.300000	-5.443077	150.989798	-2.008485	61.827594	-2.008485	61.827594	-5.443086	150.705308
5.350000	-5.270944	147.939955	-2.091693	58.768768	-2.091693	58.768768	-5.270940	147.657669
5.400000	-5.105210	144.890979	-2.176450	55.711103	-2.176450	55.711103	-5.105195	144.610731
5.450000	-4.945571	141.842893	-2.262733	52.654585	-2.262733	52.654585	-4.945545	141.564531
5.500000	-4.791742	138.795714	-2.350519	49.599193	-2.350519	49.599193	-4.791705	138.519100
5.550000	-4.643459	135.749464	-2.439786	46.544904	-2.439786	46.544904	-4.643410	135.474471
5.600000	-4.500472	132.704163	-2.530512	43.491689	-2.530512	43.491689	-4.500412	132.430677
5.650000	-4.362582	129.659848	-2.622679	40.439533	-2.622679	40.439533	-4.362511	129.387763
5.700000	-4.229571	126.616549	-2.716265	37.388408	-2.716265	37.388408	-4.229489	126.345768
5.750000	-4.101209	123.574290	-2.811239	34.338277	-2.811239	34.338277	-4.101117	123.304728
5.800000	-3.977313	120.533111	-2.907578	31.289116	-2.907578	31.289116	-3.977210	120.264690
5.850000	-3.857710	117.493058	-3.005254	28.240906	-3.005254	28.240906	-3.857597	117.225708
5.900000	-3.742242	114.454184	-3.104238	25.193627	-3.104238	25.193627	-3.742119	114.187841
5.950000	-3.630764	111.416544	-3.204497	22.147264	-3.204497	22.147264	-3.630631	111.151153
6.000000	-3.523141	108.380202	-3.305992	19.101804	-3.305992	19.101804	-3.523000	108.115710
6.050000	-3.419358	105.345285	-3.408676	16.057269	-3.408676	16.057269	-3.419208	105.081645
6.100000	-3.319064	102.311718	-3.512506	13.013558	-3.512506	13.013558	-3.318906	102.048891
6.150000	-3.222292	99.279642	-3.617424	9.970700	-3.617424	9.970700	-3.222128	99.017590
6.200000	-3.128952	96.249118	-3.723363	6.928666	-3.723363	6.928666	-3.128782	95.987807
6.250000	-3.038963	93.220200	-3.830246	3.887418	-3.830246	3.887418	-3.038788	92.959599
6.300000	-2.952358	90.193003	-3.937959	0.846926	-3.937959	0.846926	-2.952179	89.933081
6.350000	-2.868975	87.167481	-4.046412	-2.192926	-4.046412	-2.192926	-2.868794	86.908211
6.400000	-2.788762	84.143636	-4.155485	-5.232254	-4.155485	-5.232254	-2.788580	83.884989
6.450000	-2.711680	81.121436	-4.265038	-8.271214	-4.265038	-8.271214	-2.711499	80.863385
6.500000	-2.637566	78.100732	-4.374977	-11.310014	-4.374977	-11.310014	-2.637387	77.843249
6.550000	-2.566638	75.081567	-4.485015	-14.348905	-4.485015	-14.348905	-2.566464	74.824620
6.600000	-2.498782	72.063698	-4.594985	-17.388248	-4.594985	-17.388248	-2.498614	71.807252
6.650000	-2.434002	69.046882	-4.704645	-20.428490	-4.704645	-20.428490	-2.433843	68.790896
6.700000	-2.372265	66.030784	-4.813761	-23.470155	-4.813761	-23.470155	-2.372119	65.775215
6.750000	-2.313855	63.014970	-4.921795	-26.514192	-4.921795	-26.514192	-2.313722	62.759759
6.800000	-2.258417	59.998885	-5.028741	-29.561097	-5.028741	-29.561097	-2.258302	59.743973
6.850000	-2.206353	56.981737	-5.133859	-32.612394	-5.133859	-32.612394	-2.206259	56.727046
6.900000	-2.157582	53.962701	-5.236850	-35.669181	-5.236850	-35.669181	-2.157513	53.708142
6.950000	-2.112226	50.940649	-5.337162	-38.733154	-5.337162	-38.733154	-2.112185	50.686115
7.000000	-2.070630	47.913948	-5.433902	-41.806906	-5.433902	-41.806906	-2.070624	47.659305
7.050000	-2.032583	44.881513	-5.526903	-44.891738	-5.526903	-44.891738	-2.032616	44.626618
7.100000	-1.998999	41.839872	-5.614316	-47.993305	-5.614316	-47.993305	-1.999078	41.584518
7.150000	-1.969412	38.788219	-5.696357	-51.112295	-5.696357	-51.112295	-1.969545	38.532202
7.200000	-1.945015	35.721061	-5.770566	-54.257438	-5.770566	-54.257438	-1.945212	35.464087
7.250000	-1.925666	32.636509	-5.836696	-57.431293	-5.836696	-57.431293	-1.925937	32.378264
7.300000	-1.912478	29.527942	-5.892362	-60.644221	-5.892362	-60.644221	-1.912838	29.268014
7.350000	-1.906219	26.389594	-5.935847	-63.905220	-5.935847	-63.905220	-1.906685	26.127485
7.400000	-1.907772	23.214965	-5.965388	-67.224627	-5.965388	-67.224627	-1.908364	22.950085
7.450000	-1.919599	19.989918	-5.976658	-70.625424	-5.976658	-70.625424	-1.920350	19.721459
7.500000	-1.942136	16.710583	-5.969363	-74.114523	-5.969363	-74.114523	-1.943079	16.437675
7.550000	-1.981368	13.345676	-5.934540	-77.744849	-5.934540	-77.744849	-1.982561	13.066939
7.600000	-2.038153	9.892239	-5.872965	-81.524352	-5.872965	-81.524352	-2.039664	9.606212
7.650000	-2.120880	6.312855	-5.775524	-85.522182	-5.775524	-85.522182	-2.122815	6.017384
7.700000	-2.239155	2.573028	-5.635350	-89.810255	-5.635350	-89.810255	-2.241676	2.265197
7.750000	-2.407712	-1.369368	-5.444832	-94.488309	-5.444832	-94.488309	-2.411069	-1.693602
7.800000	-2.651133	-5.566435	-5.195125	-99.705729	-5.195125	-99.705729	-2.655744	-5.912932
7.850000	-3.011430	-10.068637	-4.878076	-105.684464	-4.878076	-105.684464	-3.018050	-10.446275
7.900000	-3.564153	-14.882021	-4.490302	-112.758874	-4.490302	-112.758874	-3.574278	-15.304934
7.950000	-4.455465	-19.799382	-4.043485	-121.447637	-4.043485	-121.447637	-4.472524	-20.291473
8.000000	-5.963270	-23.705864	-3.592861	-132.470914	-3.592861	-132.470914	-5.996662	-24.306167
8.050000	-8.498264	-21.801602	-3.286061	-146.625143	-3.286061	-146.625143	-8.579030	-22.523930
8.100000	-10.967223	1.014695	-3.419481	-164.208979	-3.419481	-164.208979	-11.143356	0.754271
8.150000	-8.413606	28.193298	-4.342942	176.264213	-4.342942	176.264213	-8.513296	28.650465
8.200000	-5.021559	29.562320	-6.142325	157.917236	-6.142325	157.917236	-5.060084	29.924165
8.250000	-3.078524	22.467249	-8.544417	143.049895	-8.544417	143.049895	-3.096993	22.707677
8.300000	-2.052322	14.682437	-11.230880	131.926941	-11.230880	131.926941	-2.062769	14.845070
8.350000	-1.499131	7.807833	-14.016331	123.933087	-14.016331	123.933087	-1.505721	7.920511
8.400000	-1.183590	1.917269	-16.855073	118.374573	-16.855073	118.374573	-1.188046	1.996142
8.450000	-0.997550	-3.155990	-19.714421	114.970250	-19.714421	114.970250	-1.000730	-3.100624
8.500000	-0.879254	-7.654451	-22.681987	113.559628	-22.681987	113.559628	-0.881594	-7.616300
8.550000	-0.802685	-11.705920	-25.762735	114.546034	-25.762735	114.546034	-0.804454	-11.680477
8.600000	-0.751689	-15.420294	-28.957791	118.761537	-28.957791	118.761537	-0.753053	-15.404350
8.650000	-0.717033	-18.876252	-32.152667	127.587988	-32.152667	127.587988	-0.718100	-18.867447
8.700000	-0.693226	-22.130567	-34.949701	142.219799	-34.949701	142.219799	-0.694072	-22.127115
8.750000	-0.676891	-25.224834	-36.689850	160.869734	-36.689850	160.869734	-0.677567	-25.225351
8.800000	-0.665971	-28.187821	-37.204668	177.549433	-37.204668	177.549433	-0.666515	-28.191196
8.850000	-0.658952	-31.046175	-37.172592	-171.277824	-37.172592	-171.277824	-0.659392	-31.051537
8.900000	-0.654934	-33.817897	-37.161072	-164.975778	-37.161072	-164.975778	-0.655292	-33.824533
8.950000	-0.653312	-36.517229	-37.426441	-162.041533	-37.426441	-162.041533	-0.653604	-36.524551
9.000000	-0.653769	-39.152701	-38.107121	-161.567092	-38.107121	-161.567092	-0.654011	-39.160190
9.050000	-0.655842	-41.739577	-39.274455	-162.971193	-39.274455	-162.971193	-0.656043	-41.746838
9.100000	-0.659442	-44.282872	-41.137927	-166.784427	-41.137927	-166.784427	-0.659611	-44.289548
9.150000	-0.664453	-46.789236	-44.103817	-175.547105	-44.103817	-175.547105	-0.664598	-46.795019
9.200000	-0.670813	-49.264423	-48.649539	156.586699	-48.649539	156.586699	-0.670941	-49.269044
9.250000	-0.678501	-51.713498	-49.411346	97.268894	-49.411346	97.268894	-0.678618	-51.716721
9.300000	-0.687526	-54.140997	-44.368321	53.283999	-44.368321	53.283999	-0.687637	-54.142611
9.350000	-0.697926	-56.551051	-39.705891	37.846478	-39.705891	37.846478	-0.698036	-56.550870
9.400000	-0.709766	-58.947485	-36.316717	30.827135	-36.316717	30.827135	-0.709879	-58.945340
9.450000	-0.723133	-61.333898	-33.675742	26.203658	-33.675742	26.203658	-0.723254	-61.329636
9.500000	-0.738140	-63.713723	-31.499753	22.543940	-31.499753	22.543940	-0.738272	-63.707202
9.550000	-0.754924	-66.090280	-29.637181	19.347953	-29.637181	19.347953	-0.755072	-66.081371
9.600000	-0.773650	-68.466821	-27.998786	16.396348	-27.998786	16.396348	-0.773817	-68.455401
9.650000	-0.794508	-70.846563	-26.527658	13.577266	-26.527658	13.577266	-0.794698	-70.832517
9.700000	-0.817722	-73.232723	-25.185176	10.826714	-25.185176	10.826714	-0.817939	-73.215940
9.750000	-0.843552	-75.628538	-23.943823	8.104225	-23.943823	8.104225	-0.843798	-75.608913
9.800000	-0.872295	-78.037291	-22.783207	5.381607	-22.783207	5.381607	-0.872574	-78.014720
9.850000	-0.904292	-80.462329	-21.687718	2.637219	-21.687718	2.637219	-0.904608	-80.436711
9.900000	-0.939936	-82.907075	-20.645088	-0.147204	-20.645088	-0.147204	-0.940291	-82.878309
9.950000	-0.979676	-85.375042	-19.645458	-2.988465	-19.645458	-2.988465	-0.980074	-85.343028
10.000000	-1.024025	-87.869836	-18.680762	-5.903174	-18.680762	-5.903174	-1.024467	-87.834473
