! freq	dB(S11)	phase(S11)	dB(S12)	phase(S12)	
!     	dB(S21)	phase(S21)	dB(S22)	phase(S22)	
!S-par simulation data
#  GHz  S  DB  R 50
0.000000	-0.000000	0.000000	-352.681859	0.000000	-352.681859	0.000000	0.000000	0.000000
0.050000	-0.001048	-0.786616	-102.916984	87.943298	-102.916984	87.943298	-0.003996	-1.851990
0.100000	-0.002572	-1.563312	-96.953329	87.074021	-96.953329	87.074021	-0.007570	-3.669451
0.150000	-0.003626	-2.335994	-93.485359	85.983122	-93.485359	85.983122	-0.009454	-5.482793
0.200000	-0.004402	-3.108017	-91.052205	84.841266	-91.052205	84.841266	-0.010859	-7.296712
0.250000	-0.005065	-3.880014	-89.197711	83.691355	-89.197711	83.691355	-0.012187	-9.110779
0.300000	-0.005708	-4.651980	-87.719667	82.555091	-87.719667	82.555091	-0.013594	-10.924208
0.350000	-0.006371	-5.423800	-86.502093	81.443091	-86.502093	81.443091	-0.015116	-12.736536
0.400000	-0.007073	-6.195356	-85.482707	80.366068	-85.482707	80.366068	-0.016772	-14.547318
0.450000	-0.007819	-6.966547	-84.619866	79.333527	-84.619866	79.333527	-0.018558	-16.356224
0.500000	-0.008616	-7.737243	-83.890513	78.361263	-83.890513	78.361263	-0.020478	-18.162765
0.550000	-0.009457	-8.507402	-83.271100	77.457741	-83.271100	77.457741	-0.022508	-19.966835
0.600000	-0.010338	-9.276984	-82.745987	76.633969	-82.745987	76.633969	-0.024632	-21.768302
0.650000	-0.011256	-10.045944	-82.304633	75.904163	-82.304633	75.904163	-0.026836	-23.567003
0.700000	-0.012205	-10.814249	-81.939136	75.284885	-81.939136	75.284885	-0.029107	-25.362796
0.750000	-0.013182	-11.581867	-81.643504	74.795623	-81.643504	74.795623	-0.031430	-27.155558
0.800000	-0.014181	-12.348758	-81.414542	74.464000	-81.414542	74.464000	-0.033795	-28.945099
0.850000	-0.015201	-13.114847	-81.252415	74.334248	-81.252415	74.334248	-0.036191	-30.731094
0.900000	-0.016235	-13.880186	-81.148772	74.426893	-81.148772	74.426893	-0.038604	-32.513753
0.950000	-0.017279	-14.644760	-81.100795	74.784240	-81.100795	74.784240	-0.041027	-34.293002
1.000000	-0.018331	-15.408557	-81.105477	75.457330	-81.105477	75.457330	-0.043451	-36.068776
1.050000	-0.019388	-16.171567	-81.159063	76.507419	-81.159063	76.507419	-0.045870	-37.841017
1.100000	-0.020448	-16.933780	-81.256296	78.007144	-81.256296	78.007144	-0.048279	-39.609671
1.150000	-0.021509	-17.695129	-81.390910	80.087110	-81.390910	80.087110	-0.050673	-41.374421
1.200000	-0.022568	-18.455629	-81.547363	82.837906	-81.547363	82.837906	-0.053047	-43.135330
1.250000	-0.023624	-19.215306	-81.704789	86.329525	-81.704789	86.329525	-0.055401	-44.892515
1.300000	-0.024677	-19.974152	-81.835831	90.635834	-81.835831	90.635834	-0.057731	-46.645943
1.350000	-0.025725	-20.732160	-81.904764	95.782107	-81.904764	95.782107	-0.060038	-48.395583
1.400000	-0.026768	-21.489322	-81.869905	101.708193	-81.869905	101.708193	-0.062321	-50.141407
1.450000	-0.027806	-22.245623	-81.689248	108.238932	-81.689248	108.238932	-0.064578	-51.883366
1.500000	-0.028837	-23.000963	-81.311471	115.065537	-81.311471	115.065537	-0.066809	-53.621037
1.550000	-0.029862	-23.755428	-80.750667	121.752349	-80.750667	121.752349	-0.069016	-55.354826
1.600000	-0.030882	-24.509008	-80.027797	127.961624	-80.027797	127.961624	-0.071199	-57.084722
1.650000	-0.031895	-25.261691	-79.179885	133.457855	-79.179885	133.457855	-0.073362	-58.810714
1.700000	-0.032904	-26.013506	-78.254890	138.162451	-78.254890	138.162451	-0.075504	-60.532955
1.750000	-0.033907	-26.764334	-77.272740	141.966468	-77.272740	141.966468	-0.077626	-62.250992
1.800000	-0.034906	-27.514217	-76.274109	144.981618	-76.274109	144.981618	-0.079731	-63.965059
1.850000	-0.035900	-28.263144	-75.280187	147.301649	-75.280187	147.301649	-0.081819	-65.675162
1.900000	-0.036890	-29.011090	-74.303748	149.021457	-74.303748	149.021457	-0.083893	-67.381270
1.950000	-0.037876	-29.758042	-73.353232	150.237637	-73.353232	150.237637	-0.085955	-69.083400
2.000000	-0.038860	-30.503998	-72.433819	151.037846	-72.433819	151.037846	-0.088006	-70.781617
2.050000	-0.039842	-31.248944	-71.547258	151.490582	-71.547258	151.490582	-0.090048	-72.475945
2.100000	-0.040822	-31.992867	-70.693790	151.652635	-70.693790	151.652635	-0.092083	-74.166418
2.150000	-0.041801	-32.735752	-69.872755	151.570698	-69.872755	151.570698	-0.094113	-75.853070
2.200000	-0.042779	-33.477588	-69.082977	151.283051	-69.082977	151.283051	-0.096140	-77.535943
2.250000	-0.043757	-34.218358	-68.323016	150.821100	-68.323016	150.821100	-0.098165	-79.215083
2.300000	-0.044736	-34.958051	-67.591318	150.210676	-67.591318	150.210676	-0.100189	-80.890543
2.350000	-0.045716	-35.696653	-66.886312	149.473113	-66.886312	149.473113	-0.102216	-82.562377
2.400000	-0.046698	-36.434149	-66.206462	148.626116	-66.206462	148.626116	-0.104246	-84.230649
2.450000	-0.047682	-37.170526	-65.550300	147.684453	-65.550300	147.684453	-0.106280	-85.895425
2.500000	-0.048668	-37.905772	-64.916441	146.660508	-64.916441	146.660508	-0.108321	-87.556777
2.550000	-0.049658	-38.639847	-64.303111	145.563370	-64.303111	145.563370	-0.110370	-89.214712
2.600000	-0.050651	-39.372764	-63.709649	144.403582	-63.709649	144.403582	-0.112428	-90.869387
2.650000	-0.051649	-40.104509	-63.134929	143.188610	-63.134929	143.188610	-0.114497	-92.520889
2.700000	-0.052652	-40.835070	-62.577910	141.924855	-62.577910	141.924855	-0.116579	-94.169312
2.750000	-0.053659	-41.564369	-62.036717	140.615661	-62.036717	140.615661	-0.118674	-95.814594
2.800000	-0.054673	-42.292511	-61.512173	139.269992	-61.512173	139.269992	-0.120783	-97.457131
2.850000	-0.055692	-43.019433	-61.002673	137.890014	-61.002673	137.890014	-0.122908	-99.096899
2.900000	-0.056718	-43.745122	-60.507457	136.479330	-60.507457	136.479330	-0.125050	-100.734011
2.950000	-0.057751	-44.469569	-60.025820	135.041094	-60.025820	135.041094	-0.127211	-102.368583
3.000000	-0.058791	-45.192761	-59.557109	133.578081	-59.557109	133.578081	-0.129391	-104.000737
3.050000	-0.059839	-45.914688	-59.100719	132.092737	-59.100719	132.092737	-0.131591	-105.630600
3.100000	-0.060896	-46.635341	-58.656087	130.587230	-58.656087	130.587230	-0.133812	-107.258302
3.150000	-0.061960	-47.354708	-58.222690	129.063482	-58.222690	129.063482	-0.136056	-108.883980
3.200000	-0.063034	-48.072781	-57.800040	127.523206	-57.800040	127.523206	-0.138323	-110.507772
3.250000	-0.064117	-48.789550	-57.387683	125.967932	-57.387683	125.967932	-0.140614	-112.129822
3.300000	-0.065210	-49.505006	-56.985195	124.399027	-56.985195	124.399027	-0.142931	-113.750279
3.350000	-0.066313	-50.219140	-56.592178	122.817723	-56.592178	122.817723	-0.145274	-115.369295
3.400000	-0.067427	-50.931945	-56.208262	121.225125	-56.208262	121.225125	-0.147643	-116.987026
3.450000	-0.068551	-51.643412	-55.833099	119.622230	-55.833099	119.622230	-0.150040	-118.603632
3.500000	-0.069686	-52.353535	-55.466361	118.009941	-55.466361	118.009941	-0.152466	-120.219276
3.550000	-0.070833	-53.062305	-55.107741	116.389073	-55.107741	116.389073	-0.154921	-121.834128
3.600000	-0.071992	-53.769716	-54.756952	114.760370	-54.756952	114.760370	-0.157405	-123.448359
3.650000	-0.073164	-54.475762	-54.413722	113.124505	-54.413722	113.124505	-0.159920	-125.062143
3.700000	-0.074347	-55.180437	-54.077794	111.482092	-54.077794	111.482092	-0.162467	-126.675659
3.750000	-0.075544	-55.883734	-53.748926	109.833693	-53.748926	109.833693	-0.165045	-128.289089
3.800000	-0.076755	-56.585588	-53.426672	108.179605	-53.426672	108.179605	-0.167657	-129.902633
3.850000	-0.077980	-57.286055	-53.111059	106.520553	-53.111059	106.520553	-0.170303	-131.516482
3.900000	-0.079218	-57.985129	-52.801882	104.856964	-52.801882	104.856964	-0.172981	-133.130830
3.950000	-0.080471	-58.682807	-52.498947	103.189229	-52.498947	103.189229	-0.175694	-134.745872
4.000000	-0.081739	-59.379085	-52.202070	101.517712	-52.202070	101.517712	-0.178442	-136.361806
4.050000	-0.083022	-60.073958	-51.911076	99.842745	-51.911076	99.842745	-0.181224	-137.978834
4.100000	-0.084321	-60.767425	-51.625802	98.164640	-51.625802	98.164640	-0.184042	-139.597159
4.150000	-0.085635	-61.459482	-51.346089	96.483681	-51.346089	96.483681	-0.186896	-141.216990
4.200000	-0.086966	-62.150126	-51.071791	94.800136	-51.071791	94.800136	-0.189786	-142.838535
4.250000	-0.088313	-62.839357	-50.802764	93.114252	-50.802764	93.114252	-0.192712	-144.462007
4.300000	-0.089677	-63.527171	-50.538877	91.426260	-50.538877	91.426260	-0.195675	-146.087620
4.350000	-0.091058	-64.213569	-50.280001	89.736376	-50.280001	89.736376	-0.198675	-147.715591
4.400000	-0.092457	-64.898548	-50.026015	88.044803	-50.026015	88.044803	-0.201712	-149.346140
4.450000	-0.093875	-65.582107	-49.776805	86.351732	-49.776805	86.351732	-0.204787	-150.979488
4.500000	-0.095310	-66.264248	-49.532262	84.657340	-49.532262	84.657340	-0.207899	-152.615859
4.550000	-0.096764	-66.944969	-49.292281	82.961798	-49.292281	82.961798	-0.211048	-154.255477
4.600000	-0.098238	-67.624272	-49.056763	81.265267	-49.056763	81.265267	-0.214236	-155.898570
4.650000	-0.099730	-68.302155	-48.825615	79.567898	-48.825615	79.567898	-0.217460	-157.545368
4.700000	-0.101243	-68.978622	-48.598747	77.869839	-48.598747	77.869839	-0.220722	-159.196100
4.750000	-0.102776	-69.653672	-48.376074	76.171228	-48.376074	76.171228	-0.224022	-160.850998
4.800000	-0.104330	-70.327307	-48.157515	74.472201	-48.157515	74.472201	-0.227359	-162.510296
4.850000	-0.105905	-70.999530	-47.942994	72.772887	-47.942994	72.772887	-0.230733	-164.174228
4.900000	-0.107501	-71.670342	-47.732437	71.073414	-47.732437	71.073414	-0.234144	-165.843029
4.950000	-0.109119	-72.339746	-47.525775	69.373903	-47.525775	69.373903	-0.237592	-167.516935
5.000000	-0.110759	-73.007745	-47.322942	67.674476	-47.322942	67.674476	-0.241075	-169.196184
5.050000	-0.112422	-73.674297	-47.123851	65.975264	-47.123851	65.975264	-0.244596	-170.881204
5.100000	-0.114108	-74.339450	-46.928474	64.276381	-46.928474	64.276381	-0.248152	-172.572058
5.150000	-0.115818	-75.003208	-46.736755	62.577943	-46.736755	62.577943	-0.251744	-174.268982
5.200000	-0.117552	-75.665576	-46.548640	60.880069	-46.548640	60.880069	-0.255369	-175.972215
5.250000	-0.119310	-76.326558	-46.364078	59.182876	-46.364078	59.182876	-0.259028	-177.681994
5.300000	-0.121092	-76.986158	-46.183022	57.486483	-46.183022	57.486483	-0.262720	-179.398554
5.350000	-0.122899	-77.644381	-46.005425	55.791012	-46.005425	55.791012	-0.266445	178.877867
5.400000	-0.124732	-78.301232	-45.831245	54.096586	-45.831245	54.096586	-0.270200	177.147037
5.450000	-0.126591	-78.956717	-45.660441	52.403331	-45.660441	52.403331	-0.273987	175.408721
5.500000	-0.128475	-79.610841	-45.492975	50.711377	-45.492975	50.711377	-0.277803	173.662689
5.550000	-0.130387	-80.263611	-45.328811	49.020858	-45.328811	49.020858	-0.281647	171.908711
5.600000	-0.132325	-80.915032	-45.167915	47.331913	-45.167915	47.331913	-0.285519	170.146560
5.650000	-0.134291	-81.565096	-45.010260	45.644705	-45.010260	45.644705	-0.289418	168.375917
5.700000	-0.136285	-82.213811	-44.855818	43.959391	-44.855818	43.959391	-0.293342	166.596555
5.750000	-0.138308	-82.861198	-44.704559	42.276107	-44.704559	42.276107	-0.297290	164.808346
5.800000	-0.140359	-83.507265	-44.556455	40.595019	-44.556455	40.595019	-0.301261	163.011077
5.850000	-0.142439	-84.152018	-44.411482	38.916297	-44.411482	38.916297	-0.305252	161.204538
5.900000	-0.144548	-84.795465	-44.269617	37.240122	-44.269617	37.240122	-0.309264	159.388524
5.950000	-0.146688	-85.437615	-44.130838	35.566684	-44.130838	35.566684	-0.313293	157.562835
6.000000	-0.148858	-86.078476	-43.995125	33.896182	-43.995125	33.896182	-0.317339	155.727276
6.050000	-0.151058	-86.718056	-43.862457	32.228825	-43.862457	32.228825	-0.321400	153.881659
6.100000	-0.153290	-87.356364	-43.732817	30.564833	-43.732817	30.564833	-0.325474	152.025802
6.150000	-0.155553	-87.993408	-43.606189	28.904440	-43.606189	28.904440	-0.329559	150.159530
6.200000	-0.157847	-88.629199	-43.482554	27.247891	-43.482554	27.247891	-0.333654	148.282675
6.250000	-0.160175	-89.263745	-43.361898	25.595443	-43.361898	25.595443	-0.337757	146.395078
6.300000	-0.162535	-89.897029	-43.244236	23.947470	-43.244236	23.947470	-0.341866	144.496348
6.350000	-0.164929	-90.529088	-43.129526	22.304171	-43.129526	22.304171	-0.345978	142.586576
6.400000	-0.167356	-91.159933	-43.017752	20.665849	-43.017752	20.665849	-0.350093	140.665632
6.450000	-0.169818	-91.789574	-42.908900	19.032821	-42.908900	19.032821	-0.354207	138.733394
6.500000	-0.172313	-92.418021	-42.802955	17.405423	-42.802955	17.405423	-0.358320	136.789753
6.550000	-0.174843	-93.045285	-42.699902	15.784005	-42.699902	15.784005	-0.362428	134.834609
6.600000	-0.177409	-93.671377	-42.599724	14.168937	-42.599724	14.168937	-0.366531	132.867875
6.650000	-0.180009	-94.296308	-42.502404	12.560606	-42.502404	12.560606	-0.370625	130.889479
6.700000	-0.182646	-94.920090	-42.407924	10.959416	-42.407924	10.959416	-0.374710	128.899359
6.750000	-0.185319	-95.542734	-42.316265	9.365790	-42.316265	9.365790	-0.378783	126.897468
6.800000	-0.188029	-96.164253	-42.227406	7.780170	-42.227406	7.780170	-0.382842	124.883775
6.850000	-0.190775	-96.784657	-42.141324	6.203016	-42.141324	6.203016	-0.386885	122.858262
6.900000	-0.193560	-97.403949	-42.058014	4.634911	-42.058014	4.634911	-0.390911	120.820798
6.950000	-0.196382	-98.022140	-41.977448	3.076369	-41.977448	3.076369	-0.394918	118.771400
7.000000	-0.199243	-98.639256	-41.899576	1.527811	-41.899576	1.527811	-0.398904	116.710229
7.050000	-0.202142	-99.255309	-41.824362	-0.010230	-41.824362	-0.010230	-0.402869	114.637333
7.100000	-0.205080	-99.870313	-41.751768	-1.537200	-41.751768	-1.537200	-0.406809	112.552781
7.150000	-0.208058	-100.484281	-41.681752	-3.052533	-41.681752	-3.052533	-0.410726	110.456656
7.200000	-0.211075	-101.097226	-41.614268	-4.555645	-41.614268	-4.555645	-0.414617	108.349065
7.250000	-0.214132	-101.709164	-41.549263	-6.045938	-41.549263	-6.045938	-0.418482	106.230127
7.300000	-0.217229	-102.320107	-41.486682	-7.522804	-41.486682	-7.522804	-0.422319	104.099987
7.350000	-0.220367	-102.930070	-41.426463	-8.985622	-41.426463	-8.985622	-0.426130	101.958804
7.400000	-0.223546	-103.539068	-41.368537	-10.433762	-41.368537	-10.433762	-0.429913	99.806759
7.450000	-0.226766	-104.147115	-41.312830	-11.866591	-41.312830	-11.866591	-0.433668	97.644053
7.500000	-0.230028	-104.754226	-41.259263	-13.283467	-41.259263	-13.283467	-0.437396	95.470906
7.550000	-0.233333	-105.360398	-41.207783	-14.683375	-41.207783	-14.683375	-0.441097	93.287342
7.600000	-0.236680	-105.965665	-41.158255	-16.066023	-41.158255	-16.066023	-0.444773	91.093848
7.650000	-0.240070	-106.570045	-41.110577	-17.430780	-41.110577	-17.430780	-0.448424	88.890706
7.700000	-0.243503	-107.173551	-41.064637	-18.777022	-41.064637	-18.777022	-0.452053	86.678215
7.750000	-0.246979	-107.776202	-41.020315	-20.104141	-41.020315	-20.104141	-0.455660	84.456694
7.800000	-0.250499	-108.378013	-40.977485	-21.411546	-40.977485	-21.411546	-0.459249	82.226480
7.850000	-0.254062	-108.979001	-40.936011	-22.698670	-40.936011	-22.698670	-0.462822	79.987929
7.900000	-0.257670	-109.579183	-40.895747	-23.964972	-40.895747	-23.964972	-0.466382	77.741412
7.950000	-0.261323	-110.178576	-40.856542	-25.209945	-40.856542	-25.209945	-0.469932	75.487320
8.000000	-0.265020	-110.777198	-40.818233	-26.433121	-40.818233	-26.433121	-0.473476	73.226058
8.050000	-0.268762	-111.375067	-40.780650	-27.634073	-40.780650	-27.634073	-0.477019	70.958047
8.100000	-0.272550	-111.972200	-40.743615	-28.812428	-40.743615	-28.812428	-0.480564	68.683723
8.150000	-0.276384	-112.568609	-40.706943	-29.967612	-40.706943	-29.967612	-0.484118	66.403474
8.200000	-0.280265	-113.164312	-40.670432	-31.099360	-40.670432	-31.099360	-0.487684	64.117779
8.250000	-0.284192	-113.759336	-40.633880	-32.207733	-40.633880	-32.207733	-0.491270	61.827172
8.300000	-0.288165	-114.353701	-40.597078	-33.292619	-40.597078	-33.292619	-0.494882	59.532137
8.350000	-0.292185	-114.947425	-40.559814	-34.353982	-40.559814	-34.353982	-0.498525	57.233164
8.400000	-0.296253	-115.540530	-40.521869	-35.391869	-40.521869	-35.391869	-0.502207	54.930752
8.450000	-0.300367	-116.133034	-40.483020	-36.406417	-40.483020	-36.406417	-0.505936	52.625403
8.500000	-0.304530	-116.724958	-40.443042	-37.397856	-40.443042	-37.397856	-0.509718	50.317625
8.550000	-0.308740	-117.316323	-40.401708	-38.366511	-40.401708	-38.366511	-0.513562	48.007929
8.600000	-0.312999	-117.907150	-40.358788	-39.312807	-40.358788	-39.312807	-0.517477	45.696828
8.650000	-0.317306	-118.497460	-40.314055	-40.237272	-40.314055	-40.237272	-0.521470	43.384832
8.700000	-0.321661	-119.087275	-40.267282	-41.140537	-40.267282	-41.140537	-0.525552	41.072452
8.750000	-0.326066	-119.676618	-40.218246	-42.023336	-40.218246	-42.023336	-0.529731	38.760195
8.800000	-0.330521	-120.265500	-40.166661	-42.886104	-40.166661	-42.886104	-0.534019	36.448586
8.850000	-0.335025	-120.853956	-40.112370	-43.730235	-40.112370	-43.730235	-0.538425	34.138118
8.900000	-0.339579	-121.442008	-40.055165	-44.556778	-40.055165	-44.556778	-0.542958	31.829279
8.950000	-0.344183	-122.029681	-39.994850	-45.366877	-39.994850	-45.366877	-0.547628	29.522545
9.000000	-0.348838	-122.616997	-39.931236	-46.161773	-39.931236	-46.161773	-0.552446	27.218381
9.050000	-0.353543	-123.203982	-39.864147	-46.942788	-39.864147	-46.942788	-0.557423	24.917243
9.100000	-0.358299	-123.790660	-39.793418	-47.711329	-39.793418	-47.711329	-0.562568	22.619569
9.150000	-0.363105	-124.377056	-39.718897	-48.468875	-39.718897	-48.468875	-0.567894	20.325784
9.200000	-0.367963	-124.963197	-39.640446	-49.216971	-39.640446	-49.216971	-0.573412	18.036297
9.250000	-0.372873	-125.549107	-39.557942	-49.957222	-39.557942	-49.957222	-0.579131	15.751498
9.300000	-0.377834	-126.134813	-39.471277	-50.691279	-39.471277	-50.691279	-0.585064	13.471759
9.350000	-0.382848	-126.720343	-39.380357	-51.420835	-39.380357	-51.420835	-0.591221	11.197432
9.400000	-0.387915	-127.305723	-39.285047	-52.147605	-39.285047	-52.147605	-0.597618	8.928916
9.450000	-0.393034	-127.890981	-39.185279	-52.873394	-39.185279	-52.873394	-0.604264	6.666529
9.500000	-0.398207	-128.476147	-39.081067	-53.599996	-39.081067	-53.599996	-0.611170	4.410494
9.550000	-0.403433	-129.061251	-38.972380	-54.329175	-38.972380	-54.329175	-0.618346	2.161075
9.600000	-0.408713	-129.646321	-38.859203	-55.062695	-38.859203	-55.062695	-0.625805	-0.081491
9.650000	-0.414046	-130.231389	-38.741535	-55.802310	-38.741535	-55.802310	-0.633557	-2.316989
9.700000	-0.419434	-130.816484	-38.619389	-56.549760	-38.619389	-56.549760	-0.641613	-4.545232
9.750000	-0.424876	-131.401638	-38.492789	-57.306762	-38.492789	-57.306762	-0.649986	-6.766056
9.800000	-0.430373	-131.986883	-38.361773	-58.075010	-38.361773	-58.075010	-0.658687	-8.979324
9.850000	-0.435925	-132.572250	-38.226388	-58.856170	-38.226388	-58.856170	-0.667727	-11.184926
9.900000	-0.441532	-133.157773	-38.086691	-59.651878	-38.086691	-59.651878	-0.677118	-13.382777
9.950000	-0.447196	-133.743485	-37.942750	-60.463740	-37.942750	-60.463740	-0.686871	-15.572822
10.000000	-0.452916	-134.329421	-37.794640	-61.293329	-37.794640	-61.293329	-0.696998	-17.755028
