! freq	dB(S11)	phase(S11)	dB(S12)	phase(S12)	
!     	dB(S21)	phase(S21)	dB(S22)	phase(S22)	
!S-par simulation data
#  GHz  S  DB  R 50
0.000000	-0.000000	-0.000000	-348.604636	180.000000	-348.604636	180.000000	0.000000	0.000000
0.050000	-0.000597	-0.949326	-89.036082	-111.525749	-89.036082	-111.525749	-0.000598	-1.171417
0.100000	-0.002109	-1.894419	-83.394561	-133.743514	-83.394561	-133.743514	-0.002183	-2.339039
0.150000	-0.003980	-2.834076	-80.686826	-156.435503	-80.686826	-156.435503	-0.004283	-3.501259
0.200000	-0.005815	-3.769226	-79.560629	-178.239794	-79.560629	-178.239794	-0.006494	-4.658315
0.250000	-0.007451	-4.701428	-79.469380	162.426355	-79.469380	162.426355	-0.008585	-5.811419
0.300000	-0.008891	-5.632020	-79.965380	146.006309	-79.965380	146.006309	-0.010490	-6.962004
0.350000	-0.010168	-6.561649	-80.803412	132.348135	-80.803412	132.348135	-0.012212	-8.110866
0.400000	-0.011314	-7.490599	-81.830378	121.270040	-81.830378	121.270040	-0.013762	-9.258380
0.450000	-0.012387	-8.419116	-82.953456	111.943356	-82.953456	111.943356	-0.015201	-10.404999
0.500000	-0.013415	-9.347254	-84.148210	103.957303	-84.148210	103.957303	-0.016563	-11.550866
0.550000	-0.014420	-10.274986	-85.406987	97.108434	-85.406987	97.108434	-0.017872	-12.695981
0.600000	-0.015415	-11.202244	-86.732660	91.293137	-86.732660	91.293137	-0.019150	-13.840271
0.650000	-0.016412	-12.129039	-88.164733	86.331325	-88.164733	86.331325	-0.020414	-14.983787
0.700000	-0.017417	-13.055328	-89.742798	82.264139	-89.742798	82.264139	-0.021674	-16.126477
0.750000	-0.018435	-13.980992	-91.509521	79.440125	-91.509521	79.440125	-0.022938	-17.268164
0.800000	-0.019466	-14.906029	-93.556364	78.321112	-93.556364	78.321112	-0.024211	-18.408849
0.850000	-0.020512	-15.830429	-96.011596	79.954275	-96.011596	79.954275	-0.025495	-19.548522
0.900000	-0.021573	-16.754142	-98.994196	87.146853	-98.994196	87.146853	-0.026791	-20.687098
0.950000	-0.022649	-17.677041	-101.918693	108.089284	-101.918693	108.089284	-0.028102	-21.824375
1.000000	-0.023738	-18.599204	-102.581318	141.345518	-102.581318	141.345518	-0.029426	-22.960471
1.050000	-0.024838	-19.520606	-100.215761	167.751497	-100.215761	167.751497	-0.030762	-24.095340
1.100000	-0.025950	-20.441141	-97.251294	179.068935	-97.251294	179.068935	-0.032110	-25.228806
1.150000	-0.027071	-21.360802	-94.769253	-177.111486	-94.769253	-177.111486	-0.033469	-26.360852
1.200000	-0.028201	-22.279633	-92.750699	-176.369342	-92.750699	-176.369342	-0.034838	-27.491540
1.250000	-0.029337	-23.197614	-91.065160	-177.221987	-91.065160	-177.221987	-0.036214	-28.620834
1.300000	-0.030482	-24.114366	-89.606442	-179.187501	-89.606442	-179.187501	-0.037601	-29.748102
1.350000	-0.031630	-25.030475	-88.336639	178.574883	-88.336639	178.574883	-0.038991	-30.874304
1.400000	-0.032783	-25.945757	-87.205084	175.987423	-87.205084	175.987423	-0.040386	-31.999135
1.450000	-0.033940	-26.859718	-86.167015	173.130900	-86.167015	173.130900	-0.041786	-33.121764
1.500000	-0.035099	-27.773006	-85.221587	170.185590	-85.221587	170.185590	-0.043190	-34.243269
1.550000	-0.036261	-28.685229	-84.342114	167.129508	-84.342114	167.129508	-0.044596	-35.362992
1.600000	-0.037425	-29.596564	-83.521324	164.020542	-83.521324	164.020542	-0.046005	-36.481225
1.650000	-0.038591	-30.506674	-82.741874	160.860691	-82.741874	160.860691	-0.047415	-37.597400
1.700000	-0.039759	-31.415769	-82.002590	157.676543	-82.002590	157.676543	-0.048828	-38.711865
1.750000	-0.040929	-32.323862	-81.298322	154.477716	-81.298322	154.477716	-0.050241	-39.824641
1.800000	-0.042100	-33.230886	-80.623158	151.270469	-80.623158	151.270469	-0.051656	-40.935618
1.850000	-0.043272	-34.136750	-79.971610	148.060000	-79.971610	148.060000	-0.053072	-42.044637
1.900000	-0.044447	-35.041572	-79.343663	144.850318	-79.343663	144.850318	-0.054489	-43.151899
1.950000	-0.045623	-35.945342	-78.736676	141.643740	-78.736676	141.643740	-0.055908	-44.257386
2.000000	-0.046801	-36.847909	-78.145639	138.442715	-78.145639	138.442715	-0.057328	-45.360847
2.050000	-0.047982	-37.749343	-77.570569	135.248172	-77.570569	135.248172	-0.058749	-46.462400
2.100000	-0.049165	-38.649687	-77.011021	132.060523	-77.011021	132.060523	-0.060173	-47.562121
2.150000	-0.050350	-39.548904	-76.465101	128.880362	-76.465101	128.880362	-0.061599	-48.659945
2.200000	-0.051540	-40.446837	-75.929133	125.708828	-75.929133	125.708828	-0.063028	-49.755618
2.250000	-0.052733	-41.343648	-75.405354	122.544734	-75.405354	122.544734	-0.064460	-50.849409
2.300000	-0.053929	-42.239325	-74.892876	119.387908	-74.892876	119.387908	-0.065895	-51.941306
2.350000	-0.055130	-43.133742	-74.389022	116.238752	-74.389022	116.238752	-0.067335	-53.031099
2.400000	-0.056337	-44.026916	-73.893763	113.096647	-73.893763	113.096647	-0.068779	-54.118823
2.450000	-0.057548	-44.918927	-73.407980	109.960630	-73.407980	109.960630	-0.070228	-55.204614
2.500000	-0.058765	-45.809766	-72.931152	106.830231	-72.931152	106.830231	-0.071683	-56.288463
2.550000	-0.059990	-46.698937	-72.455965	103.706840	-72.455965	103.706840	-0.073146	-57.369555
2.600000	-0.061219	-47.587251	-71.993825	100.586434	-71.993825	100.586434	-0.074614	-58.449236
2.650000	-0.062455	-48.474462	-71.540870	97.469866	-71.540870	97.469866	-0.076089	-59.527102
2.700000	-0.063701	-49.359940	-71.088655	94.357988	-71.088655	94.357988	-0.077574	-60.602128
2.750000	-0.064953	-50.244547	-70.648264	91.248009	-70.648264	91.248009	-0.079066	-61.675730
2.800000	-0.066214	-51.127779	-70.213195	88.140738	-70.213195	88.140738	-0.080567	-62.747092
2.850000	-0.067485	-52.009500	-69.781865	85.035413	-69.781865	85.035413	-0.082081	-63.816001
2.900000	-0.068763	-52.890337	-69.361392	81.930995	-69.361392	81.930995	-0.083601	-64.883479
2.950000	-0.070053	-53.769525	-68.943192	78.827691	-68.943192	78.827691	-0.085135	-65.948295
3.000000	-0.071354	-54.647437	-68.531382	75.724568	-68.531382	75.724568	-0.086681	-67.011063
3.050000	-0.072662	-55.524454	-68.129630	72.621515	-68.129630	72.621515	-0.088236	-68.072396
3.100000	-0.073987	-56.399548	-67.727843	69.517876	-67.727843	69.517876	-0.089809	-69.130659
3.150000	-0.075321	-57.273610	-67.334665	66.413557	-67.334665	66.413557	-0.091393	-70.187286
3.200000	-0.076664	-58.146642	-66.949756	63.308560	-66.949756	63.308560	-0.092989	-71.242279
3.250000	-0.078027	-59.017735	-66.565385	60.201784	-66.565385	60.201784	-0.094606	-72.294216
3.300000	-0.079398	-59.887922	-66.190250	57.094050	-66.190250	57.094050	-0.096233	-73.344731
3.350000	-0.080783	-60.756813	-65.820988	53.984918	-65.820988	53.984918	-0.097877	-74.393218
3.400000	-0.082186	-61.624019	-65.454811	50.873855	-65.454811	50.873855	-0.099542	-75.439083
3.450000	-0.083599	-62.490317	-65.097301	47.761769	-65.097301	47.761769	-0.101218	-76.483541
3.500000	-0.085030	-63.355058	-64.743852	44.647945	-64.743852	44.647945	-0.102916	-77.525595
3.550000	-0.086478	-64.218375	-64.395492	41.532699	-64.395492	41.532699	-0.104633	-78.565463
3.600000	-0.087937	-65.080784	-64.055257	38.416601	-64.055257	38.416601	-0.106364	-79.603944
3.650000	-0.089419	-65.941383	-63.717783	35.299063	-63.717783	35.299063	-0.108122	-80.639669
3.700000	-0.090916	-66.800822	-63.386863	32.180925	-63.386863	32.180925	-0.109897	-81.673642
3.750000	-0.092425	-67.659358	-63.063541	29.062320	-63.063541	29.062320	-0.111687	-82.706253
3.800000	-0.093962	-68.515839	-62.742103	25.943362	-62.742103	25.943362	-0.113510	-83.735785
3.850000	-0.095513	-69.371426	-62.428176	22.824608	-62.428176	22.824608	-0.115349	-84.763989
3.900000	-0.097080	-70.225863	-62.120282	19.706118	-62.120282	19.706118	-0.117208	-85.790486
3.950000	-0.098673	-71.078522	-61.815815	16.588828	-61.815815	16.588828	-0.119098	-86.814366
4.000000	-0.100281	-71.930296	-61.518320	13.472434	-61.518320	13.472434	-0.121005	-87.836953
4.050000	-0.101911	-72.780684	-61.225660	10.357636	-61.225660	10.357636	-0.122938	-88.857517
4.100000	-0.103566	-73.629572	-60.937462	7.245308	-60.937462	7.245308	-0.124900	-89.875914
4.150000	-0.105235	-74.477587	-60.655701	4.134600	-60.655701	4.134600	-0.126880	-90.893059
4.200000	-0.106933	-75.323993	-60.377846	1.027346	-60.377846	1.027346	-0.128892	-91.907901
4.250000	-0.108652	-76.169173	-60.105062	-2.076679	-60.105062	-2.076679	-0.130931	-92.921009
4.300000	-0.110388	-77.013497	-59.838194	-5.178391	-59.838194	-5.178391	-0.132989	-93.932908
4.350000	-0.112158	-77.856004	-59.574471	-8.274464	-59.574471	-8.274464	-0.135087	-94.942266
4.400000	-0.113947	-78.697555	-59.316112	-11.367154	-59.316112	-11.367154	-0.137207	-95.950302
4.450000	-0.115756	-79.538149	-59.062879	-14.456459	-59.062879	-14.456459	-0.139349	-96.957015
4.500000	-0.117601	-80.376975	-58.812680	-17.538822	-58.812680	-17.538822	-0.141535	-97.961315
4.550000	-0.119464	-81.214987	-58.567644	-20.617753	-58.567644	-20.617753	-0.143741	-98.964515
4.600000	-0.121353	-82.051839	-58.326779	-23.691738	-58.326779	-23.691738	-0.145977	-99.966151
4.650000	-0.123276	-82.887206	-58.089230	-26.758998	-58.089230	-26.758998	-0.148251	-100.965816
4.700000	-0.125217	-83.721783	-57.856342	-29.822582	-57.856342	-29.822582	-0.150548	-101.964439
4.750000	-0.127191	-84.555016	-57.626767	-32.879798	-57.626767	-32.879798	-0.152881	-102.961301
4.800000	-0.129195	-85.387039	-57.400626	-35.931138	-57.400626	-35.931138	-0.155250	-103.956605
4.850000	-0.131219	-86.218298	-57.178682	-38.978749	-57.178682	-38.978749	-0.157641	-104.950928
4.900000	-0.133283	-87.048050	-56.959241	-42.018965	-56.959241	-42.018965	-0.160077	-105.943343
4.950000	-0.135374	-87.876855	-56.743277	-45.054564	-56.743277	-45.054564	-0.162543	-106.934581
5.000000	-0.137485	-88.704925	-56.531087	-48.086573	-56.531087	-48.086573	-0.165033	-107.924902
5.050000	-0.139645	-89.531351	-56.320613	-51.110762	-56.320613	-51.110762	-0.167576	-108.913220
5.100000	-0.141826	-90.357078	-56.113650	-54.131755	-56.113650	-54.131755	-0.170144	-109.900702
5.150000	-0.144035	-91.181904	-55.909659	-57.148639	-55.909659	-57.148639	-0.172743	-110.887110
5.200000	-0.146288	-92.005369	-55.707459	-60.159684	-55.707459	-60.159684	-0.175392	-111.871930
5.250000	-0.148564	-92.828167	-55.508413	-63.168039	-55.508413	-63.168039	-0.178065	-112.855988
5.300000	-0.150876	-93.649927	-55.311584	-66.172310	-55.311584	-66.172310	-0.180778	-113.838865
5.350000	-0.153228	-94.470590	-55.116644	-69.172735	-55.116644	-69.172735	-0.183535	-114.820531
5.400000	-0.155604	-95.290623	-54.924553	-72.171082	-54.924553	-72.171082	-0.186317	-115.801509
5.450000	-0.158023	-96.109508	-54.733970	-75.165976	-54.733970	-75.165976	-0.189148	-116.781259
5.500000	-0.160478	-96.927542	-54.545424	-78.158790	-54.545424	-78.158790	-0.192017	-117.760131
5.550000	-0.162957	-97.744984	-54.359470	-81.150207	-54.359470	-81.150207	-0.194912	-118.738394
5.600000	-0.165490	-98.561200	-54.174375	-84.139391	-54.174375	-84.139391	-0.197864	-119.715440
5.650000	-0.168051	-99.376788	-53.991516	-87.127859	-53.991516	-87.127859	-0.200847	-120.691894
5.700000	-0.170642	-100.191750	-53.810836	-90.115611	-53.810836	-90.115611	-0.203862	-121.667753
5.750000	-0.173288	-101.005591	-53.630853	-93.102895	-53.630853	-93.102895	-0.206935	-122.642606
5.800000	-0.175961	-101.818929	-53.453142	-96.090297	-53.453142	-96.090297	-0.210036	-123.617032
5.850000	-0.178672	-102.631556	-53.277055	-99.077950	-53.277055	-99.077950	-0.213178	-124.590859
5.900000	-0.181433	-103.443308	-53.101976	-102.066612	-53.101976	-102.066612	-0.216371	-125.564002
5.950000	-0.184221	-104.254603	-52.929038	-105.056012	-52.929038	-105.056012	-0.219593	-126.536807
6.000000	-0.187057	-105.065136	-52.757260	-108.046921	-52.757260	-108.046921	-0.222864	-127.509071
6.050000	-0.189936	-105.875015	-52.586830	-111.039684	-52.586830	-111.039684	-0.226179	-128.480923
6.100000	-0.192844	-106.684485	-52.418446	-114.033699	-52.418446	-114.033699	-0.229524	-129.452528
6.150000	-0.195808	-107.493179	-52.250867	-117.030575	-52.250867	-117.030575	-0.232927	-130.423717
6.200000	-0.198810	-108.301413	-52.084980	-120.029548	-52.084980	-120.029548	-0.236368	-131.394710
6.250000	-0.201841	-109.109288	-51.921072	-123.030152	-51.921072	-123.030152	-0.239838	-132.365549
6.300000	-0.204939	-109.916412	-51.757742	-126.034807	-51.757742	-126.034807	-0.243375	-133.336168
6.350000	-0.208067	-110.723239	-51.596415	-129.041314	-51.596415	-129.041314	-0.246942	-134.306747
6.400000	-0.211233	-111.529684	-51.436752	-132.050202	-51.436752	-132.050202	-0.250547	-135.277274
6.450000	-0.214460	-112.335597	-51.278120	-135.062823	-51.278120	-135.062823	-0.254212	-136.247838
6.500000	-0.217718	-113.141269	-51.121466	-138.077271	-51.121466	-138.077271	-0.257908	-137.218463
6.550000	-0.221024	-113.946574	-50.966274	-141.094567	-50.966274	-141.094567	-0.261650	-138.189208
6.600000	-0.224383	-114.751537	-50.812510	-144.114760	-50.812510	-144.114760	-0.265444	-139.160187
6.650000	-0.227774	-115.556315	-50.660706	-147.136560	-50.660706	-147.136560	-0.269269	-140.131329
6.700000	-0.231224	-116.360786	-50.510279	-150.161145	-50.510279	-150.161145	-0.273149	-141.102837
6.750000	-0.234719	-117.165071	-50.361586	-153.187502	-50.361586	-153.187502	-0.277074	-142.074714
6.800000	-0.238247	-117.969231	-50.214837	-156.215056	-50.214837	-156.215056	-0.281029	-143.046859
6.850000	-0.241843	-118.773188	-50.069486	-159.244584	-50.069486	-159.244584	-0.285049	-144.019690
6.900000	-0.245478	-119.577080	-49.926066	-162.274734	-49.926066	-162.274734	-0.289104	-144.992961
6.950000	-0.249150	-120.380905	-49.784522	-165.305504	-49.784522	-165.305504	-0.293194	-145.966669
7.000000	-0.252892	-121.184687	-49.644570	-168.336519	-49.644570	-168.336519	-0.297349	-146.941337
7.050000	-0.256669	-121.988482	-49.506586	-171.367242	-49.506586	-171.367242	-0.301535	-147.916508
7.100000	-0.260493	-122.792302	-49.370421	-174.397453	-49.370421	-174.397453	-0.305765	-148.892411
7.150000	-0.264380	-123.596230	-49.236049	-177.426054	-49.236049	-177.426054	-0.310051	-149.869387
7.200000	-0.268301	-124.400238	-49.103595	179.546516	-49.103595	179.546516	-0.314368	-150.846978
7.250000	-0.272280	-125.204414	-48.972957	176.521483	-48.972957	176.521483	-0.318737	-151.825673
7.300000	-0.276314	-126.008809	-48.844185	173.499505	-48.844185	173.499505	-0.323154	-152.805485
7.350000	-0.280382	-126.813354	-48.717264	170.479627	-48.717264	170.479627	-0.327602	-153.786028
7.400000	-0.284520	-127.618262	-48.592178	167.464731	-48.592178	167.464731	-0.332109	-154.768129
7.450000	-0.288703	-128.423457	-48.468924	164.453729	-48.468924	164.453729	-0.336656	-155.751319
7.500000	-0.292921	-129.228877	-48.347436	161.445756	-48.347436	161.445756	-0.341234	-156.735356
7.550000	-0.297219	-130.034910	-48.227790	158.445885	-48.227790	158.445885	-0.345878	-157.721488
7.600000	-0.301554	-130.841257	-48.109865	155.450043	-48.109865	155.450043	-0.350554	-158.708607
7.650000	-0.305934	-131.648006	-47.993639	152.459379	-47.993639	152.459379	-0.355268	-159.696995
7.700000	-0.310385	-132.455473	-47.879162	149.477653	-47.879162	149.477653	-0.360040	-160.687498
7.750000	-0.314873	-133.263334	-47.766285	146.500673	-47.766285	146.500673	-0.364843	-161.679109
7.800000	-0.319418	-134.071834	-47.655032	143.531326	-47.655032	143.531326	-0.369692	-162.672494
7.850000	-0.324024	-134.881113	-47.545377	140.570864	-47.545377	140.570864	-0.374590	-163.667938
7.900000	-0.328668	-135.690868	-47.437198	137.615698	-47.437198	137.615698	-0.379518	-164.664614
7.950000	-0.333378	-136.501559	-47.330545	134.670641	-47.330545	134.670641	-0.384499	-165.663655
8.000000	-0.338141	-137.313042	-47.225323	131.733626	-47.225323	131.733626	-0.389520	-166.664620
8.050000	-0.342942	-138.125088	-47.121454	128.802256	-47.121454	128.802256	-0.394571	-167.666943
8.100000	-0.347821	-138.938432	-47.018992	125.883183	-47.018992	125.883183	-0.399681	-168.672312
8.150000	-0.352742	-139.752529	-46.917808	122.970704	-46.917808	122.970704	-0.404823	-169.679389
8.200000	-0.357707	-140.567379	-46.817871	120.064819	-46.817871	120.064819	-0.409998	-170.688175
8.250000	-0.362750	-141.383757	-46.719203	117.171193	-46.719203	117.171193	-0.415230	-171.700327
8.300000	-0.367831	-142.200896	-46.621700	114.283179	-46.621700	114.283179	-0.420490	-172.714114
8.350000	-0.372966	-143.019132	-46.525359	111.403158	-46.525359	111.403158	-0.425789	-173.730253
8.400000	-0.378169	-143.838899	-46.430174	108.533153	-46.430174	108.533153	-0.431136	-174.749590
8.450000	-0.383412	-144.659525	-46.336077	105.668386	-46.336077	105.668386	-0.436510	-175.770693
8.500000	-0.388718	-145.481664	-46.243092	102.812400	-46.243092	102.812400	-0.441929	-176.794879
8.550000	-0.394084	-146.305284	-46.151208	99.963935	-46.151208	99.963935	-0.447387	-177.822012
8.600000	-0.399488	-147.129862	-46.060368	97.120146	-46.060368	97.120146	-0.452871	-178.851042
8.650000	-0.404968	-147.956446	-45.970668	94.285146	-45.970668	94.285146	-0.458405	-179.883977
8.700000	-0.410496	-148.784399	-45.882063	91.455233	-45.882063	91.455233	-0.463970	179.080479
8.750000	-0.416064	-149.613417	-45.794491	88.629277	-45.794491	88.629277	-0.469560	178.042904
8.800000	-0.421717	-150.445014	-45.708227	85.811277	-45.708227	85.811277	-0.475204	177.000513
8.850000	-0.427410	-151.277804	-45.623070	82.996258	-45.623070	82.996258	-0.480871	175.955938
8.900000	-0.433152	-152.112128	-45.539070	80.185072	-45.539070	80.185072	-0.486569	174.908553
8.950000	-0.438970	-152.948972	-45.456557	77.378825	-45.456557	77.378825	-0.492310	173.856643
9.000000	-0.444827	-153.787125	-45.375236	74.574685	-45.375236	74.574685	-0.498075	172.802414
9.050000	-0.450745	-154.627365	-45.295362	71.773627	-45.295362	71.773627	-0.503874	171.744509
9.100000	-0.456728	-155.470001	-45.217181	68.975093	-45.217181	68.975093	-0.509709	170.682458
9.150000	-0.462751	-156.314066	-45.140319	66.177837	-45.140319	66.177837	-0.515566	169.617956
9.200000	-0.468846	-157.160860	-45.065426	63.382473	-45.065426	63.382473	-0.521460	168.548821
9.250000	-0.474995	-158.009858	-44.992400	60.587994	-44.992400	60.587994	-0.527382	167.476011
9.300000	-0.481185	-158.860409	-44.920859	57.794087	-44.920859	57.794087	-0.533325	166.400618
9.350000	-0.487457	-159.714426	-44.852104	55.000804	-44.852104	55.000804	-0.539308	165.319548
9.400000	-0.493774	-160.570379	-44.785286	52.207582	-44.785286	52.207582	-0.545311	164.235365
9.450000	-0.500137	-161.428269	-44.720364	49.414422	-44.720364	49.414422	-0.551337	163.148067
9.500000	-0.506582	-162.289958	-44.658971	46.621103	-44.658971	46.621103	-0.557398	162.054769
9.550000	-0.513068	-163.153488	-44.599620	43.827708	-44.599620	43.827708	-0.563478	160.958607
9.600000	-0.519610	-164.019667	-44.543006	41.034205	-44.543006	41.034205	-0.569581	159.858337
9.650000	-0.526224	-164.889440	-44.490220	38.240825	-44.490220	38.240825	-0.575712	158.752592
9.700000	-0.532880	-165.761197	-44.439748	35.447681	-44.439748	35.447681	-0.581861	157.643856
9.750000	-0.539603	-166.636417	-44.393148	32.655162	-44.393148	32.655162	-0.588034	156.529941
9.800000	-0.546388	-167.514947	-44.350450	29.863949	-44.350450	29.863949	-0.594229	155.411166
9.850000	-0.553215	-168.395608	-44.310345	27.073751	-44.310345	27.073751	-0.600439	154.289279
9.900000	-0.560120	-169.280660	-44.275513	24.286499	-44.275513	24.286499	-0.606675	153.161067
9.950000	-0.567078	-170.168649	-44.244375	21.502193	-44.244375	21.502193	-0.612927	152.028701
10.000000	-0.574077	-171.058924	-44.216103	18.720179	-44.216103	18.720179	-0.619192	150.893103
