! freq	dB(S11)	phase(S11)	dB(S12)	phase(S12)	
!     	dB(S21)	phase(S21)	dB(S22)	phase(S22)	
!S-par simulation data
#  GHz  S  DB  R 50
0.000000	-0.000000	0.000000	-359.950788	180.000000	-359.950788	180.000000	-0.000000	0.000000
0.050000	-0.000098	-0.768530	-117.671647	88.316104	-117.671647	88.316104	-0.000104	-0.768943
0.100000	-0.000390	-1.536823	-111.818549	87.257799	-111.818549	87.257799	-0.000411	-1.537622
0.150000	-0.000866	-2.304638	-108.478174	86.619117	-108.478174	86.619117	-0.000911	-2.305775
0.200000	-0.001498	-3.071835	-106.162022	86.132814	-106.162022	86.132814	-0.001571	-3.073253
0.250000	-0.002268	-3.838253	-104.424619	85.715835	-104.424619	85.715835	-0.002372	-3.839888
0.300000	-0.003165	-4.603693	-103.080201	85.360710	-103.080201	85.360710	-0.003297	-4.605481
0.350000	-0.004146	-5.368247	-102.007748	85.073409	-102.007748	85.073409	-0.004301	-5.370143
0.400000	-0.005200	-6.131743	-101.163108	84.892409	-101.163108	84.892409	-0.005373	-6.133709
0.450000	-0.006302	-6.894268	-100.499011	84.844659	-100.499011	84.844659	-0.006486	-6.896285
0.500000	-0.007437	-7.655795	-99.996679	84.979831	-99.996679	84.979831	-0.007625	-7.657855
0.550000	-0.008589	-8.416361	-99.640350	85.354695	-99.640350	85.354695	-0.008776	-8.418470
0.600000	-0.009748	-9.176004	-99.421069	86.045311	-99.421069	86.045311	-0.009928	-9.178176
0.650000	-0.010906	-9.934762	-99.333879	87.154496	-99.333879	87.154496	-0.011074	-9.937018
0.700000	-0.012055	-10.692675	-99.376055	88.824240	-99.376055	88.824240	-0.012210	-10.695038
0.750000	-0.013193	-11.449778	-99.544642	91.253432	-99.544642	91.253432	-0.013331	-11.452272
0.800000	-0.014316	-12.206100	-99.831942	94.720945	-99.831942	94.720945	-0.014438	-12.208751
0.850000	-0.015421	-12.961541	-100.209991	100.002149	-100.209991	100.002149	-0.015526	-12.964374
0.900000	-0.016509	-13.716215	-100.631148	107.275892	-100.631148	107.275892	-0.016598	-13.719250
0.950000	-0.017589	-14.470514	-100.959954	115.785082	-100.959954	115.785082	-0.017663	-14.473759
1.000000	-0.018645	-15.223692	-100.955841	128.000614	-100.955841	128.000614	-0.018707	-15.227170
1.050000	-0.019697	-15.976624	-100.750102	140.307060	-100.750102	140.307060	-0.019746	-15.980337
1.100000	-0.020727	-16.728320	-99.626205	153.068075	-99.626205	153.068075	-0.020766	-16.732283
1.150000	-0.021754	-17.479891	-98.542624	165.430701	-98.542624	165.430701	-0.021784	-17.484105
1.200000	-0.022762	-18.230085	-96.752254	173.411050	-96.752254	173.411050	-0.022786	-18.234556
1.250000	-0.023769	-18.980280	-95.268599	-178.608602	-95.268599	-178.608602	-0.023787	-18.985007
1.300000	-0.024764	-19.729324	-93.606202	-173.888156	-93.606202	-173.888156	-0.024778	-19.734307
1.350000	-0.025751	-20.477617	-92.024110	-170.570025	-92.024110	-170.570025	-0.025763	-20.482854
1.400000	-0.026733	-21.225145	-90.534855	-168.281347	-90.534855	-168.281347	-0.026743	-21.230634
1.450000	-0.027709	-21.971894	-89.137595	-166.752707	-89.137595	-166.752707	-0.027720	-21.977630
1.500000	-0.028682	-22.717849	-87.826178	-165.792722	-87.826178	-165.792722	-0.028692	-22.723829
1.550000	-0.029651	-23.462995	-86.592832	-165.265149	-86.592832	-165.265149	-0.029662	-23.469213
1.600000	-0.030617	-24.207315	-85.429756	-165.071923	-85.429756	-165.071923	-0.030630	-24.213767
1.650000	-0.031581	-24.950794	-84.329738	-165.141418	-84.329738	-165.141418	-0.031596	-24.957475
1.700000	-0.032543	-25.693109	-83.262520	-165.474842	-83.262520	-165.474842	-0.032560	-25.700012
1.750000	-0.033504	-26.434971	-82.280672	-165.902985	-82.280672	-165.902985	-0.033524	-26.442094
1.800000	-0.034464	-27.175740	-81.330290	-166.488364	-81.330290	-166.488364	-0.034487	-27.183079
1.850000	-0.035424	-27.915730	-80.429772	-167.186054	-80.429772	-167.186054	-0.035450	-27.923280
1.900000	-0.036385	-28.654749	-79.564181	-167.976361	-79.564181	-167.976361	-0.036412	-28.662505
1.950000	-0.037345	-29.392796	-78.731915	-168.859285	-78.731915	-168.859285	-0.037375	-29.400756
2.000000	-0.038307	-30.130005	-77.936751	-169.797382	-77.936751	-169.797382	-0.038339	-30.138166
2.050000	-0.039269	-30.866041	-77.162550	-170.812721	-77.162550	-170.812721	-0.039304	-30.874399
2.100000	-0.040233	-31.601384	-76.426825	-171.860640	-76.426825	-171.860640	-0.040270	-31.609938
2.150000	-0.041199	-32.335341	-75.702672	-172.973718	-75.702672	-172.973718	-0.041237	-32.344087
2.200000	-0.042167	-33.068763	-75.017819	-174.105314	-75.017819	-174.105314	-0.042206	-33.077700
2.250000	-0.043138	-33.800576	-74.337313	-175.292459	-74.337313	-175.292459	-0.043178	-33.809703
2.300000	-0.044110	-34.532022	-73.696535	-176.489164	-73.696535	-176.489164	-0.044151	-34.541337
2.350000	-0.045087	-35.261630	-73.054489	-177.733668	-73.054489	-177.733668	-0.045128	-35.271131
2.400000	-0.046064	-35.991048	-72.452304	-178.981940	-72.452304	-178.981940	-0.046107	-36.000736
2.450000	-0.047048	-36.718390	-71.844456	179.728329	-71.844456	179.728329	-0.047091	-36.728262
2.500000	-0.048033	-37.445731	-71.276378	178.438598	-71.276378	178.438598	-0.048076	-37.455787
2.550000	-0.049025	-38.170748	-70.699181	177.112665	-70.699181	177.112665	-0.049068	-38.180988
2.600000	-0.050018	-38.895764	-70.157961	175.786732	-70.157961	175.786732	-0.050061	-38.906189
2.650000	-0.051020	-39.618600	-69.611957	174.433901	-69.611957	174.433901	-0.051062	-39.629208
2.700000	-0.052023	-40.341238	-69.095132	173.078625	-69.095132	173.078625	-0.052065	-40.352029
2.750000	-0.053035	-41.061848	-68.577124	171.703322	-68.577124	171.703322	-0.053076	-41.072824
2.800000	-0.054050	-41.782054	-68.082578	170.324012	-68.082578	170.324012	-0.054090	-41.793213
2.850000	-0.055073	-42.500398	-67.589854	168.929812	-67.589854	168.929812	-0.055113	-42.511740
2.900000	-0.056100	-43.218121	-67.115759	167.530649	-67.115759	167.530649	-0.056139	-43.229647
2.950000	-0.057136	-43.934158	-66.645994	166.120474	-66.645994	166.120474	-0.057174	-43.945868
3.000000	-0.058177	-44.649351	-66.190754	164.704793	-66.190754	164.704793	-0.058214	-44.661246
3.050000	-0.059228	-45.363044	-65.741942	163.281051	-65.741942	163.281051	-0.059264	-45.375122
3.100000	-0.060284	-46.075663	-65.304155	161.851551	-65.304155	161.851551	-0.060319	-46.087926
3.150000	-0.061350	-46.786975	-64.874550	160.416246	-64.874550	160.416246	-0.061384	-46.799422
3.200000	-0.062423	-47.496978	-64.452977	158.975137	-64.452977	158.975137	-0.062457	-47.509610
3.250000	-0.063505	-48.205875	-64.041051	157.529951	-64.041051	157.529951	-0.063538	-48.218691
3.300000	-0.064598	-48.913224	-63.634589	156.079057	-63.634589	156.079057	-0.064629	-48.926224
3.350000	-0.065697	-49.619675	-63.238994	154.625411	-63.238994	154.625411	-0.065728	-49.632859
3.400000	-0.066810	-50.324331	-62.846659	153.166259	-62.846659	153.166259	-0.066840	-50.337699
3.450000	-0.067928	-51.028307	-62.466201	151.705362	-62.466201	151.705362	-0.067958	-51.041858
3.500000	-0.069063	-51.730238	-62.087108	150.239234	-62.087108	150.239234	-0.069092	-51.743973
3.550000	-0.070201	-52.431710	-61.720723	148.772125	-61.720723	148.772125	-0.070230	-52.445629
3.600000	-0.071359	-53.130885	-61.354073	147.300110	-61.354073	147.300110	-0.071388	-53.144987
3.650000	-0.072520	-53.829828	-61.000810	145.827681	-61.000810	145.827681	-0.072548	-53.844113
3.700000	-0.073703	-54.526220	-60.645879	144.350710	-60.645879	144.350710	-0.073731	-54.540687
3.750000	-0.074886	-55.222611	-60.304884	142.873738	-60.304884	142.873738	-0.074915	-55.237260
3.800000	-0.076096	-55.916194	-59.961013	141.392610	-59.961013	141.392610	-0.076125	-55.931024
3.850000	-0.077306	-56.609776	-59.630240	139.911482	-59.630240	139.911482	-0.077335	-56.624787
3.900000	-0.078542	-57.300764	-59.298103	138.427179	-59.298103	138.427179	-0.078571	-57.315954
3.950000	-0.079780	-57.991515	-58.977019	136.942587	-58.977019	136.942587	-0.079809	-58.006886
4.000000	-0.081043	-58.679891	-58.655900	135.455610	-58.655900	135.455610	-0.081073	-58.695441
4.050000	-0.082312	-59.367792	-58.344016	133.968156	-58.344016	133.968156	-0.082342	-59.383520
4.100000	-0.083604	-60.053543	-58.033263	132.478951	-58.033263	132.478951	-0.083635	-60.069448
4.150000	-0.084904	-60.738577	-57.730130	130.989162	-57.730130	130.989162	-0.084935	-60.754660
4.200000	-0.086226	-61.421691	-57.429149	129.498125	-57.429149	129.498125	-0.086258	-61.437950
4.250000	-0.087559	-62.103845	-57.134350	128.006464	-57.134350	128.006464	-0.087592	-62.120279
4.300000	-0.088913	-62.784312	-56.842600	126.513949	-56.842600	126.513949	-0.088947	-62.800921
4.350000	-0.090281	-63.463575	-56.555750	125.020825	-56.555750	125.020825	-0.090316	-63.480358
4.400000	-0.091668	-64.141388	-56.272732	123.527151	-56.272732	123.527151	-0.091704	-64.158345
4.450000	-0.093073	-64.817752	-55.993474	122.032926	-55.993474	122.032926	-0.093110	-64.834881
4.500000	-0.094494	-65.492906	-55.718731	120.538377	-55.718731	120.538377	-0.094532	-65.510207
4.550000	-0.095938	-66.166365	-55.446733	119.043374	-55.446733	119.043374	-0.095977	-66.183837
4.600000	-0.097395	-66.838856	-55.179843	117.548209	-55.179843	117.548209	-0.097435	-66.856499
4.650000	-0.098878	-67.509408	-54.914796	116.052718	-54.914796	116.052718	-0.098919	-67.527221
4.700000	-0.100373	-68.179235	-54.655370	114.557169	-54.655370	114.557169	-0.100414	-68.197217
4.750000	-0.101898	-68.846881	-54.396984	113.061449	-54.396984	113.061449	-0.101941	-68.865032
4.800000	-0.103431	-69.514044	-54.144663	111.565729	-54.144663	111.565729	-0.103475	-69.532363
4.850000	-0.105000	-70.178787	-53.892668	110.070014	-53.892668	110.070014	-0.105045	-70.197273
4.900000	-0.106572	-70.843289	-53.647118	108.574317	-53.647118	108.574317	-0.106619	-70.861943
4.950000	-0.108186	-71.505135	-53.401260	107.078818	-53.401260	107.078818	-0.108234	-71.523955
5.000000	-0.109801	-72.166981	-53.162171	105.583320	-53.162171	105.583320	-0.109849	-72.185966
5.050000	-0.111461	-72.825937	-52.922213	104.088231	-52.922213	104.088231	-0.111511	-72.845088
5.100000	-0.113123	-73.484894	-52.688707	102.593143	-52.688707	102.593143	-0.113173	-73.504210
5.150000	-0.114828	-74.141212	-52.455015	101.098591	-52.455015	101.098591	-0.114880	-74.160692
5.200000	-0.116538	-74.797290	-52.226889	99.604089	-52.226889	99.604089	-0.116591	-74.816935
5.250000	-0.118289	-75.450980	-51.999187	98.110209	-51.999187	98.110209	-0.118343	-75.470789
5.300000	-0.120049	-76.104193	-51.776247	96.616453	-51.776247	96.616453	-0.120104	-76.124166
5.350000	-0.121848	-76.755269	-51.554278	95.123370	-51.554278	95.123370	-0.121904	-76.775406
5.400000	-0.123660	-77.405633	-51.336343	93.630510	-51.336343	93.630510	-0.123717	-77.425933
5.450000	-0.125508	-78.054109	-51.119867	92.138340	-51.119867	92.138340	-0.125565	-78.074572
5.500000	-0.127374	-78.701641	-50.906765	90.646513	-50.906765	90.646513	-0.127432	-78.722268
5.550000	-0.129272	-79.347534	-50.695557	89.155363	-50.695557	89.155363	-0.129331	-79.368324
5.600000	-0.131193	-79.992256	-50.487125	87.664696	-50.487125	87.664696	-0.131253	-80.013209
5.650000	-0.133143	-80.635584	-50.280973	86.174669	-50.280973	86.174669	-0.133203	-80.656701
5.700000	-0.135121	-81.277519	-50.077057	84.685280	-50.077057	84.685280	-0.135182	-81.298798
5.750000	-0.137124	-81.918302	-49.875764	83.196470	-49.875764	83.196470	-0.137186	-81.939745
5.800000	-0.139161	-82.557473	-49.676217	81.708469	-49.676217	81.708469	-0.139224	-82.579080
5.850000	-0.141219	-83.195733	-49.479594	80.220965	-49.479594	80.220965	-0.141282	-83.217504
5.900000	-0.143316	-83.832170	-49.284277	78.734455	-49.284277	78.734455	-0.143380	-83.854104
5.950000	-0.145430	-84.467930	-49.092149	77.248342	-49.092149	77.248342	-0.145494	-84.490028
6.000000	-0.147590	-85.101660	-48.900930	75.763418	-48.900930	75.763418	-0.147654	-85.123923
6.050000	-0.149761	-85.734945	-48.713130	74.278774	-48.713130	74.278774	-0.149826	-85.757372
6.100000	-0.151984	-86.366001	-48.525882	72.795527	-48.525882	72.795527	-0.152050	-86.388594
6.150000	-0.154214	-86.996838	-48.342254	71.312426	-48.342254	71.312426	-0.154280	-87.019595
6.200000	-0.156504	-87.625253	-48.158856	69.830939	-48.158856	69.830939	-0.156570	-87.648177
6.250000	-0.158794	-88.253669	-47.979250	68.349452	-47.979250	68.349452	-0.158861	-88.276758
6.300000	-0.161150	-88.879479	-47.799588	66.869804	-47.799588	66.869804	-0.161218	-88.902736
6.350000	-0.163508	-89.505290	-47.623566	65.390155	-47.623566	65.390155	-0.163576	-89.528713
6.400000	-0.165928	-90.128747	-47.447826	63.912258	-47.447826	63.912258	-0.165996	-90.152337
6.450000	-0.168354	-90.751990	-47.275285	62.434521	-47.275285	62.434521	-0.168423	-90.775748
6.500000	-0.170839	-91.373126	-47.103332	60.958432	-47.103332	60.958432	-0.170908	-91.397052
6.550000	-0.173336	-91.993840	-46.934173	59.482673	-46.934173	59.482673	-0.173406	-92.017936
6.600000	-0.175887	-92.612690	-46.765877	58.008445	-46.765877	58.008445	-0.175957	-92.636955
6.650000	-0.178457	-93.230918	-46.600005	56.534726	-46.600005	56.534726	-0.178527	-93.255352
6.700000	-0.181075	-93.847516	-46.435243	55.062406	-46.435243	55.062406	-0.181146	-93.872120
6.750000	-0.183719	-94.463300	-46.272567	53.590785	-46.272567	53.590785	-0.183790	-94.488075
6.800000	-0.186406	-95.077685	-46.111221	52.120416	-46.111221	52.120416	-0.186478	-95.102630
6.850000	-0.189125	-95.691070	-45.951653	50.650943	-45.951653	50.650943	-0.189197	-95.716186
6.900000	-0.191883	-96.303278	-45.793612	49.182566	-45.793612	49.182566	-0.191955	-96.328566
6.950000	-0.194679	-96.914311	-45.637067	47.715286	-45.637067	47.715286	-0.194752	-96.939770
7.000000	-0.197509	-97.524383	-45.482224	46.248935	-45.482224	46.248935	-0.197582	-97.550014
7.050000	-0.200384	-98.133111	-45.328622	44.783887	-45.328622	44.783887	-0.200458	-98.158915
7.100000	-0.203287	-98.741088	-45.176875	43.319594	-45.176875	43.319594	-0.203361	-98.767064
7.150000	-0.206243	-99.347561	-45.026135	41.856810	-45.026135	41.856810	-0.206318	-99.373710
7.200000	-0.209219	-99.953484	-44.877387	40.394599	-44.877387	40.394599	-0.209296	-99.979805
7.250000	-0.212257	-100.557755	-44.729435	38.934105	-44.729435	38.934105	-0.212334	-100.584249
7.300000	-0.215310	-101.161667	-44.583593	37.473996	-44.583593	37.473996	-0.215388	-101.188334
7.350000	-0.218432	-101.763788	-44.438353	36.015812	-44.438353	36.015812	-0.218510	-101.790627
7.400000	-0.221562	-102.365734	-44.295328	34.557821	-44.295328	34.557821	-0.221641	-102.392745
7.450000	-0.224768	-102.965759	-44.152731	33.101957	-44.152731	33.101957	-0.224849	-102.992942
7.500000	-0.227977	-103.565785	-44.012437	31.646093	-44.012437	31.646093	-0.228058	-103.593140
7.550000	-0.231270	-104.163771	-43.872414	30.192553	-43.872414	30.192553	-0.231352	-104.191297
7.600000	-0.234565	-104.761757	-43.734612	28.739013	-43.734612	28.739013	-0.234648	-104.789454
7.650000	-0.237940	-105.357926	-43.597253	27.287599	-43.597253	27.287599	-0.238024	-105.385793
7.700000	-0.241324	-105.953931	-43.461880	25.836378	-43.461880	25.836378	-0.241409	-105.981967
7.750000	-0.244781	-106.548333	-43.327108	24.387078	-43.327108	24.387078	-0.244867	-106.576538
7.800000	-0.248254	-107.142415	-43.194103	22.938163	-43.194103	22.938163	-0.248341	-107.170787
7.850000	-0.251795	-107.735100	-43.061840	21.490960	-43.061840	21.490960	-0.251883	-107.763639
7.900000	-0.255360	-108.327319	-42.931145	20.044328	-42.931145	20.044328	-0.255449	-108.356024
7.950000	-0.258985	-108.918339	-42.801318	18.599196	-42.801318	18.599196	-0.259076	-108.947208
8.000000	-0.262643	-109.508758	-42.672876	17.154815	-42.672876	17.154815	-0.262734	-109.537790
8.050000	-0.266354	-110.098165	-42.545416	15.711723	-42.545416	15.711723	-0.266447	-110.127357
8.100000	-0.270106	-110.686848	-42.419173	14.269552	-42.419173	14.269552	-0.270200	-110.716199
8.150000	-0.273905	-111.274694	-42.294013	12.828459	-42.294013	12.828459	-0.274000	-111.304203
8.200000	-0.277752	-111.861705	-42.169917	11.388445	-42.169917	11.388445	-0.277848	-111.891369
8.250000	-0.281640	-112.448047	-42.046993	9.949305	-42.046993	9.949305	-0.281736	-112.477864
8.300000	-0.285583	-113.033452	-41.924992	8.511387	-41.924992	8.511387	-0.285681	-113.063420
8.350000	-0.289560	-113.618344	-41.804245	7.074144	-41.804245	7.074144	-0.289658	-113.648461
8.400000	-0.293602	-114.202211	-41.684292	5.638249	-41.684292	5.638249	-0.293701	-114.232472
8.450000	-0.297670	-114.785711	-41.565663	4.202840	-41.565663	4.202840	-0.297769	-114.816115
8.500000	-0.301812	-115.368108	-41.447712	2.768885	-41.447712	2.768885	-0.301911	-115.398651
8.550000	-0.305971	-115.950273	-41.331146	1.335239	-41.331146	1.335239	-0.306071	-115.980953
8.600000	-0.310213	-116.531272	-41.215154	-0.096870	-41.215154	-0.096870	-0.310313	-116.562083
8.650000	-0.314465	-117.112160	-41.100599	-1.528833	-41.100599	-1.528833	-0.314565	-117.143102
8.700000	-0.318809	-117.691833	-40.986526	-2.959201	-40.986526	-2.959201	-0.318908	-117.722897
8.750000	-0.323155	-118.271505	-40.873932	-4.389568	-40.873932	-4.389568	-0.323254	-118.302692
8.800000	-0.327602	-118.849923	-40.761740	-5.818310	-40.761740	-5.818310	-0.327700	-118.881224
8.850000	-0.332051	-119.428342	-40.650978	-7.247052	-40.650978	-7.247052	-0.332148	-119.459757
8.900000	-0.336594	-120.005680	-40.540713	-8.674419	-40.540713	-8.674419	-0.336689	-120.037199
8.950000	-0.341147	-120.582919	-40.431750	-10.101662	-40.431750	-10.101662	-0.341240	-120.614542
9.000000	-0.345786	-121.159240	-40.323370	-11.527769	-40.323370	-11.527769	-0.345877	-121.190956
9.050000	-0.350444	-121.735376	-40.216174	-12.953649	-40.216174	-12.953649	-0.350533	-121.767185
9.100000	-0.355181	-122.310744	-40.109640	-14.378617	-40.109640	-14.378617	-0.355266	-122.342635
9.150000	-0.359945	-122.885856	-40.004184	-15.803282	-40.004184	-15.803282	-0.360027	-122.917826
9.200000	-0.364780	-123.460336	-39.899459	-17.227239	-39.899459	-17.227239	-0.364858	-123.492378
9.250000	-0.369652	-124.034502	-39.795718	-18.650844	-39.795718	-18.650844	-0.369725	-124.066609
9.300000	-0.374586	-124.608162	-39.692769	-20.073927	-39.692769	-20.073927	-0.374653	-124.640326
9.350000	-0.379565	-125.181462	-39.590721	-21.496637	-39.590721	-21.496637	-0.379627	-125.213677
9.400000	-0.384599	-125.754370	-39.489518	-22.918987	-39.489518	-22.918987	-0.384654	-125.786628
9.450000	-0.389687	-126.326886	-39.389144	-24.340976	-39.389144	-24.340976	-0.389735	-126.359179
9.500000	-0.394821	-126.899111	-39.289661	-25.762741	-39.289661	-25.762741	-0.394861	-126.931431
9.550000	-0.400018	-127.470927	-39.190947	-27.184191	-39.190947	-27.184191	-0.400049	-127.503265
9.600000	-0.405254	-128.042539	-39.093159	-28.605524	-39.093159	-28.605524	-0.405274	-128.074887
9.650000	-0.410561	-128.613741	-38.996095	-30.026622	-38.996095	-30.026622	-0.410571	-128.646087
9.700000	-0.415898	-129.184812	-38.899982	-31.447680	-38.899982	-31.447680	-0.415896	-129.217150
9.750000	-0.421316	-129.755486	-38.804561	-32.868618	-38.804561	-32.868618	-0.421301	-129.787802
9.800000	-0.426755	-130.326088	-38.710106	-34.289564	-38.710106	-34.289564	-0.426726	-130.358377
9.850000	-0.432284	-130.896324	-38.616324	-35.710540	-38.616324	-35.710540	-0.432239	-130.928568
9.900000	-0.437825	-131.466531	-38.523514	-37.131537	-38.523514	-37.131537	-0.437765	-131.498728
9.950000	-0.443465	-132.036418	-38.431373	-38.552751	-38.431373	-38.552751	-0.443387	-132.068547
10.000000	-0.449110	-132.606305	-38.340198	-39.973965	-38.340198	-39.973965	-0.449012	-132.638366
