! freq	dB(S11)	phase(S11)	dB(S12)	phase(S12)	
!     	dB(S21)	phase(S21)	dB(S22)	phase(S22)	
!S-par simulation data
#  GHz  S  DB  R 50
0.000000	-0.000000	-0.000000	-355.168443	180.000000	-355.168443	180.000000	-0.000000	-0.000000
0.050000	-0.000478	-0.809328	-108.483704	88.890690	-108.483704	88.890690	-0.000912	-1.530700
0.100000	-0.001674	-1.615702	-102.504130	87.788042	-102.504130	87.788042	-0.003208	-3.055774
0.150000	-0.003162	-2.418373	-99.051246	86.699325	-99.051246	86.699325	-0.006084	-4.573650
0.200000	-0.004630	-3.218180	-96.654800	85.634691	-96.654800	85.634691	-0.008939	-6.085722
0.250000	-0.005977	-4.016515	-94.842436	84.600191	-94.842436	84.600191	-0.011562	-7.594595
0.300000	-0.007181	-4.814029	-93.413748	83.607739	-93.413748	83.607739	-0.013907	-9.101433
0.350000	-0.008265	-5.611141	-92.260230	82.669793	-92.260230	82.669793	-0.016009	-10.606991
0.400000	-0.009258	-6.408028	-91.318959	81.801940	-91.318959	81.801940	-0.017923	-12.111541
0.450000	-0.010185	-7.204712	-90.557549	81.031655	-90.557549	81.031655	-0.019695	-13.615001
0.500000	-0.011075	-8.001180	-89.940322	80.372804	-89.940322	80.372804	-0.021385	-15.117338
0.550000	-0.011944	-8.797376	-89.449260	79.851372	-89.449260	79.851372	-0.023024	-16.618378
0.600000	-0.012804	-9.593240	-89.072077	79.499444	-89.072077	79.499444	-0.024635	-18.117931
0.650000	-0.013662	-10.388711	-88.800488	79.357242	-88.800488	79.357242	-0.026236	-19.615812
0.700000	-0.014526	-11.183732	-88.629078	79.475903	-88.629078	79.475903	-0.027841	-21.111840
0.750000	-0.015399	-11.978214	-88.560218	79.946843	-88.560218	79.946843	-0.029458	-22.605709
0.800000	-0.016286	-12.772107	-88.590702	80.871276	-88.590702	80.871276	-0.031096	-24.097249
0.850000	-0.017188	-13.565376	-88.714697	82.375136	-88.714697	82.375136	-0.032756	-25.586349
0.900000	-0.018104	-14.358026	-88.920536	84.570645	-88.920536	84.570645	-0.034440	-27.073051
0.950000	-0.019035	-15.149985	-89.201944	87.704641	-89.201944	87.704641	-0.036149	-28.557077
1.000000	-0.019982	-15.941218	-89.534699	92.042784	-89.534699	92.042784	-0.037884	-30.038297
1.050000	-0.020943	-16.731690	-89.872192	97.877052	-89.872192	97.877052	-0.039644	-31.516590
1.100000	-0.021917	-17.521373	-90.134128	105.440299	-90.134128	105.440299	-0.041426	-32.991840
1.150000	-0.022904	-18.310238	-90.203784	114.725765	-90.203784	114.725765	-0.043229	-34.463939
1.200000	-0.023903	-19.098260	-89.954353	125.253891	-89.954353	125.253891	-0.045051	-35.932787
1.250000	-0.024912	-19.885413	-89.312196	136.020388	-89.312196	136.020388	-0.046889	-37.398286
1.300000	-0.025930	-20.671635	-88.291567	145.808592	-88.291567	145.808592	-0.048742	-38.860193
1.350000	-0.026956	-21.456943	-87.029894	153.941921	-87.029894	153.941921	-0.050606	-40.318572
1.400000	-0.027989	-22.241316	-85.652068	160.296626	-85.652068	160.296626	-0.052478	-41.773345
1.450000	-0.029027	-23.024736	-84.248407	165.063449	-84.248407	165.063449	-0.054357	-43.224438
1.500000	-0.030070	-23.807184	-82.871565	168.532848	-82.871565	168.532848	-0.056240	-44.671784
1.550000	-0.031115	-24.588644	-81.547539	170.983983	-81.547539	170.983983	-0.058124	-46.115322
1.600000	-0.032164	-25.369098	-80.286637	172.647363	-80.286637	172.647363	-0.060007	-47.554993
1.650000	-0.033213	-26.148532	-79.090838	173.701659	-79.090838	173.701659	-0.061889	-48.990744
1.700000	-0.034264	-26.926931	-77.958054	174.281935	-77.958054	174.281935	-0.063766	-50.422527
1.750000	-0.035315	-27.704279	-76.884415	174.489655	-76.884415	174.489655	-0.065638	-51.850298
1.800000	-0.036365	-28.480564	-75.865450	174.401286	-75.865450	174.401286	-0.067503	-53.274017
1.850000	-0.037415	-29.255772	-74.896668	174.074919	-74.896668	174.074919	-0.069361	-54.693648
1.900000	-0.038463	-30.029889	-73.973820	173.555136	-73.973820	173.555136	-0.071209	-56.109160
1.950000	-0.039510	-30.802904	-73.093011	172.876533	-73.093011	172.876533	-0.073047	-57.520524
2.000000	-0.040554	-31.574803	-72.250725	172.066261	-72.250725	172.066261	-0.074876	-58.927717
2.050000	-0.041598	-32.345575	-71.443815	171.145857	-71.443815	171.145857	-0.076694	-60.330718
2.100000	-0.042639	-33.115208	-70.669470	170.132585	-70.669470	170.132585	-0.078501	-61.729509
2.150000	-0.043678	-33.883690	-69.925186	169.040418	-69.925186	169.040418	-0.080298	-63.124078
2.200000	-0.044716	-34.651010	-69.208729	167.880770	-69.208729	167.880770	-0.082084	-64.514414
2.250000	-0.045751	-35.417157	-68.518101	166.663045	-68.518101	166.663045	-0.083860	-65.900509
2.300000	-0.046786	-36.182119	-67.851513	165.395052	-67.851513	165.395052	-0.085627	-67.282360
2.350000	-0.047819	-36.945886	-67.207358	164.083323	-67.207358	164.083323	-0.087385	-68.659966
2.400000	-0.048852	-37.708447	-66.584188	162.733359	-66.584188	162.733359	-0.089134	-70.033328
2.450000	-0.049884	-38.469791	-65.980696	161.349825	-65.980696	161.349825	-0.090877	-71.402451
2.500000	-0.050916	-39.229908	-65.395696	159.936696	-65.395696	159.936696	-0.092613	-72.767343
2.550000	-0.051948	-39.988733	-64.827261	158.496382	-64.827261	158.496382	-0.094343	-74.127830
2.600000	-0.052982	-40.746310	-64.275359	157.033049	-64.275359	157.033049	-0.096070	-75.484111
2.650000	-0.054017	-41.502627	-63.739083	155.549196	-63.739083	155.549196	-0.097795	-76.836200
2.700000	-0.055054	-42.257676	-63.217601	154.047000	-63.217601	154.047000	-0.099518	-78.184116
2.750000	-0.056094	-43.011446	-62.710151	152.528368	-62.710151	152.528368	-0.101241	-79.527880
2.800000	-0.057137	-43.763928	-62.216032	150.994974	-62.216032	150.994974	-0.102966	-80.867514
2.850000	-0.058184	-44.515112	-61.734597	149.448293	-61.734597	149.448293	-0.104694	-82.203044
2.900000	-0.059236	-45.264989	-61.265248	147.889633	-61.265248	147.889633	-0.106426	-83.534498
2.950000	-0.060292	-46.013549	-60.807431	146.320151	-60.807431	146.320151	-0.108165	-84.861906
3.000000	-0.061355	-46.760784	-60.360633	144.740882	-60.360633	144.740882	-0.109911	-86.185299
3.050000	-0.062423	-47.506684	-59.924375	143.152749	-59.924375	143.152749	-0.111667	-87.504712
3.100000	-0.063499	-48.251241	-59.498213	141.556577	-59.498213	141.556577	-0.113433	-88.820182
3.150000	-0.064583	-48.994447	-59.081731	139.953112	-59.081731	139.953112	-0.115211	-90.131746
3.200000	-0.065675	-49.736292	-58.674542	138.343024	-58.674542	138.343024	-0.117003	-91.439446
3.250000	-0.066776	-50.476770	-58.276281	136.726918	-58.276281	136.726918	-0.118810	-92.743324
3.300000	-0.067887	-51.215872	-57.886608	135.105345	-57.886608	135.105345	-0.120634	-94.043424
3.350000	-0.069008	-51.953591	-57.505202	133.478804	-57.505202	133.478804	-0.122476	-95.339794
3.400000	-0.070140	-52.689918	-57.131763	131.847751	-57.131763	131.847751	-0.124337	-96.632480
3.450000	-0.071284	-53.424848	-56.766008	130.212604	-56.766008	130.212604	-0.126219	-97.921535
3.500000	-0.072440	-54.158373	-56.407668	128.573743	-56.407668	128.573743	-0.128124	-99.207009
3.550000	-0.073609	-54.890486	-56.056491	126.931522	-56.056491	126.931522	-0.130051	-100.488957
3.600000	-0.074791	-55.621182	-55.712239	125.286264	-55.712239	125.286264	-0.132003	-101.767435
3.650000	-0.075988	-56.350454	-55.374686	123.638268	-55.374686	123.638268	-0.133981	-103.042499
3.700000	-0.077198	-57.078296	-55.043618	121.987813	-55.043618	121.987813	-0.135986	-104.314210
3.750000	-0.078425	-57.804704	-54.718832	120.335157	-54.718832	120.335157	-0.138018	-105.582629
3.800000	-0.079667	-58.529608	-54.399893	118.680466	-54.399893	118.680466	-0.140081	-106.847680
3.850000	-0.080926	-59.253067	-54.086881	117.024060	-54.086881	117.024060	-0.142173	-108.109572
3.900000	-0.082201	-59.975077	-53.779620	115.366148	-53.779620	115.366148	-0.144297	-109.368370
3.950000	-0.083494	-60.695632	-53.477943	113.706926	-53.477943	113.706926	-0.146452	-110.624142
4.000000	-0.084805	-61.414730	-53.181689	112.046580	-53.181689	112.046580	-0.148639	-111.876958
4.050000	-0.086133	-62.132366	-52.890708	110.385286	-52.890708	110.385286	-0.150859	-113.126889
4.100000	-0.087481	-62.848539	-52.604852	108.723210	-52.604852	108.723210	-0.153113	-114.374006
4.150000	-0.088847	-63.563244	-52.323982	107.060509	-52.323982	107.060509	-0.155401	-115.618383
4.200000	-0.090233	-64.276480	-52.047966	105.397334	-52.047966	105.397334	-0.157724	-116.860097
4.250000	-0.091639	-64.988245	-51.776676	103.733827	-51.776676	103.733827	-0.160082	-118.099222
4.300000	-0.093065	-65.698536	-51.509989	102.070126	-51.509989	102.070126	-0.162476	-119.335839
4.350000	-0.094512	-66.407354	-51.247788	100.406361	-51.247788	100.406361	-0.164907	-120.570025
4.400000	-0.095980	-67.114696	-50.989960	98.742656	-50.989960	98.742656	-0.167373	-121.801861
4.450000	-0.097469	-67.820562	-50.736397	97.079133	-50.736397	97.079133	-0.169876	-123.031430
4.500000	-0.098980	-68.524952	-50.486995	95.415906	-50.486995	95.415906	-0.172417	-124.258815
4.550000	-0.100513	-69.227867	-50.241654	93.753087	-50.241654	93.753087	-0.174994	-125.484101
4.600000	-0.102068	-69.929307	-50.000277	92.090781	-50.000277	92.090781	-0.177609	-126.707372
4.650000	-0.103646	-70.629272	-49.762770	90.429093	-49.762770	90.429093	-0.180260	-127.928716
4.700000	-0.105247	-71.327765	-49.529045	88.768121	-49.529045	88.768121	-0.182950	-129.148221
4.750000	-0.106871	-72.024787	-49.299014	87.107961	-49.299014	87.107961	-0.185676	-130.365976
4.800000	-0.108518	-72.720340	-49.072594	85.448705	-49.072594	85.448705	-0.188440	-131.582071
4.850000	-0.110188	-73.414427	-48.849705	83.790442	-48.849705	83.790442	-0.191241	-132.796598
4.900000	-0.111883	-74.107050	-48.630267	82.133259	-48.630267	82.133259	-0.194079	-134.009649
4.950000	-0.113601	-74.798214	-48.414206	80.477238	-48.414206	80.477238	-0.196954	-135.221317
5.000000	-0.115344	-75.487923	-48.201449	78.822460	-48.201449	78.822460	-0.199865	-136.431697
5.050000	-0.117112	-76.176116	-47.991846	77.169063	-47.991846	77.169063	-0.202815	-137.640836
5.100000	-0.118905	-76.862862	-47.785414	75.517068	-47.785414	75.517068	-0.205800	-138.848888
5.150000	-0.120723	-77.548167	-47.582086	73.866546	-47.582086	73.866546	-0.208821	-140.055948
5.200000	-0.122565	-78.232036	-47.381799	72.217567	-47.381799	72.217567	-0.211878	-141.262116
5.250000	-0.124433	-78.914474	-47.184489	70.570198	-47.184489	70.570198	-0.214970	-142.467490
5.300000	-0.126326	-79.595488	-46.990096	68.924503	-46.990096	68.924503	-0.218096	-143.672171
5.350000	-0.128244	-80.275085	-46.798560	67.280545	-46.798560	67.280545	-0.221256	-144.876257
5.400000	-0.130188	-80.953272	-46.609824	65.638385	-46.609824	65.638385	-0.224450	-146.079852
5.450000	-0.132158	-81.630056	-46.423833	63.998080	-46.423833	63.998080	-0.227676	-147.283057
5.500000	-0.134153	-82.305445	-46.240533	62.359687	-46.240533	62.359687	-0.230935	-148.485975
5.550000	-0.136175	-82.979448	-46.059872	60.723260	-46.059872	60.723260	-0.234226	-149.688709
5.600000	-0.138222	-83.652074	-45.881800	59.088853	-45.881800	59.088853	-0.237548	-150.891364
5.650000	-0.140296	-84.323332	-45.706266	57.456516	-45.706266	57.456516	-0.240900	-152.094044
5.700000	-0.142396	-84.993232	-45.533224	55.826299	-45.533224	55.826299	-0.244281	-153.296855
5.750000	-0.144522	-85.661783	-45.362628	54.198251	-45.362628	54.198251	-0.247691	-154.499903
5.800000	-0.146675	-86.328997	-45.194431	52.572419	-45.194431	52.572419	-0.251128	-155.703296
5.850000	-0.148855	-86.994885	-45.028592	50.948850	-45.028592	50.948850	-0.254592	-156.907140
5.900000	-0.151061	-87.659459	-44.865068	49.327590	-44.865068	49.327590	-0.258081	-158.111543
5.950000	-0.153295	-88.322731	-44.703817	47.708684	-44.703817	47.708684	-0.261594	-159.316615
6.000000	-0.155555	-88.984713	-44.544801	46.092178	-44.544801	46.092178	-0.265130	-160.522463
6.050000	-0.157843	-89.645419	-44.387980	44.478117	-44.387980	44.478117	-0.268686	-161.729198
6.100000	-0.160157	-90.304862	-44.233317	42.866548	-44.233317	42.866548	-0.272261	-162.936930
6.150000	-0.162500	-90.963059	-44.080777	41.257518	-44.080777	41.257518	-0.275853	-164.145769
6.200000	-0.164869	-91.620022	-43.930323	39.651076	-43.930323	39.651076	-0.279458	-165.355824
6.250000	-0.167267	-92.275770	-43.781922	38.047273	-43.781922	38.047273	-0.283074	-166.567207
6.300000	-0.169693	-92.930266	-43.635521	36.446281	-43.635521	36.446281	-0.286697	-167.780092
6.350000	-0.172148	-93.583581	-43.491111	34.848043	-43.491111	34.848043	-0.290320	-168.994528
6.400000	-0.174630	-94.235735	-43.348659	33.252621	-43.348659	33.252621	-0.293938	-170.210617
6.450000	-0.177141	-94.886746	-43.208135	31.660080	-43.208135	31.660080	-0.297542	-171.428450
6.500000	-0.179680	-95.536636	-43.069508	30.070494	-43.069508	30.070494	-0.301123	-172.648108
6.550000	-0.182248	-96.185427	-42.932749	28.483942	-42.932749	28.483942	-0.304669	-173.869643
6.600000	-0.184844	-96.833141	-42.797829	26.900514	-42.797829	26.900514	-0.308167	-175.093071
6.650000	-0.187470	-97.479805	-42.664718	25.320310	-42.664718	25.320310	-0.311602	-176.318344
6.700000	-0.190123	-98.125504	-42.533400	23.743241	-42.533400	23.743241	-0.314970	-177.545239
6.750000	-0.192806	-98.770191	-42.403829	22.169668	-42.403829	22.169668	-0.318271	-178.773657
6.800000	-0.195519	-99.413878	-42.275972	20.599837	-42.275972	20.599837	-0.321539	179.996711
6.850000	-0.198264	-100.056597	-42.149800	19.033956	-42.149800	19.033956	-0.324871	178.766133
6.900000	-0.201038	-100.698444	-42.025292	17.471997	-42.025292	17.471997	-0.328398	177.534534
6.950000	-0.203843	-101.339460	-41.902413	15.914178	-41.902413	15.914178	-0.332246	176.301173
7.000000	-0.206678	-101.979693	-41.781128	14.360757	-41.781128	14.360757	-0.336459	175.064845
7.050000	-0.209544	-102.619195	-41.661397	12.812033	-41.661397	12.812033	-0.340969	173.824396
7.100000	-0.212441	-103.258027	-41.543175	11.268364	-41.543175	11.268364	-0.345639	172.579204
7.150000	-0.215375	-103.896207	-41.426397	9.730796	-41.426397	9.730796	-0.350334	171.328773
7.200000	-0.218342	-104.533883	-41.311015	8.199409	-41.311015	8.199409	-0.354968	170.073879
7.250000	-0.221345	-105.171166	-41.196955	6.674786	-41.196955	6.674786	-0.359516	168.814903
7.300000	-0.224386	-105.808182	-41.084130	5.157725	-41.084130	5.157725	-0.363977	167.552073
7.350000	-0.227467	-106.445085	-40.972428	3.649215	-40.972428	3.649215	-0.368363	166.285515
7.400000	-0.230594	-107.082068	-40.861705	2.150494	-40.861705	2.150494	-0.372686	165.015271
7.450000	-0.233775	-107.719402	-40.751741	0.663623	-40.751741	0.663623	-0.376956	163.741196
7.500000	-0.237026	-108.357492	-40.642196	-0.808445	-40.642196	-0.808445	-0.381185	162.463078
7.550000	-0.240362	-108.996774	-40.532726	-2.263807	-40.532726	-2.263807	-0.385383	161.181146
7.600000	-0.243813	-109.637882	-40.422757	-3.698696	-40.422757	-3.698696	-0.389555	159.895325
7.650000	-0.247431	-110.281715	-40.311425	-5.108019	-40.311425	-5.108019	-0.393707	158.605537
7.700000	-0.251309	-110.929576	-40.197376	-6.484817	-40.197376	-6.484817	-0.397842	157.311703
7.750000	-0.255615	-111.583411	-40.078403	-7.819518	-40.078403	-7.819518	-0.401961	156.013742
7.800000	-0.260808	-112.247399	-39.949166	-9.092950	-39.949166	-9.092950	-0.406065	154.711209
7.850000	-0.267782	-112.926758	-39.801152	-10.289927	-39.801152	-10.289927	-0.410155	153.404250
7.900000	-0.277979	-113.626325	-39.623207	-11.408778	-39.623207	-11.408778	-0.414234	152.093276
7.950000	-0.297472	-114.356752	-39.371865	-12.486229	-39.371865	-12.486229	-0.418300	150.777527
8.000000	-0.339463	-115.080811	-38.978168	-13.923317	-38.978168	-13.923317	-0.422354	149.457220
8.050000	-0.411384	-115.511413	-38.438727	-17.581793	-38.438727	-17.581793	-0.426395	148.132201
8.100000	-0.420311	-115.542126	-38.415038	-24.192451	-38.415038	-24.192451	-0.430423	146.802498
8.150000	-0.373018	-115.936638	-38.905436	-27.278076	-38.905436	-27.278076	-0.434437	145.467930
8.200000	-0.343543	-116.561677	-39.157791	-28.022896	-39.157791	-28.022896	-0.438436	144.128500
8.250000	-0.329867	-117.224865	-39.223372	-28.638033	-39.223372	-28.638033	-0.442421	142.784139
8.300000	-0.323560	-117.884434	-39.215867	-29.457165	-39.215867	-29.457165	-0.446391	141.435204
8.350000	-0.321755	-118.533417	-39.171933	-30.486966	-39.171933	-30.486966	-0.450342	140.080494
8.400000	-0.321770	-119.175373	-39.116498	-31.624524	-39.116498	-31.624524	-0.454278	138.721343
8.450000	-0.323094	-119.810946	-39.054586	-32.847759	-39.054586	-32.847759	-0.458196	137.357137
8.500000	-0.325247	-120.441617	-38.989952	-34.128890	-38.989952	-34.128890	-0.462096	135.987842
8.550000	-0.327961	-121.068477	-38.924463	-35.449984	-38.924463	-35.449984	-0.465975	134.613430
8.600000	-0.331076	-121.692316	-38.859109	-36.799175	-38.859109	-36.799175	-0.469834	133.233877
8.650000	-0.334495	-122.313708	-38.794449	-38.168373	-38.794449	-38.168373	-0.473672	131.849163
8.700000	-0.338151	-122.933079	-38.730811	-39.551891	-38.730811	-39.551891	-0.477487	130.459275
8.750000	-0.342003	-123.550749	-38.668397	-40.945620	-38.668397	-40.945620	-0.481279	129.064202
8.800000	-0.346027	-124.166910	-38.607375	-42.346717	-38.607375	-42.346717	-0.485047	127.663714
8.850000	-0.350194	-124.781824	-38.547788	-43.752505	-38.547788	-43.752505	-0.488789	126.258038
8.900000	-0.354489	-125.395640	-38.489686	-45.161240	-38.489686	-45.161240	-0.492506	124.847180
8.950000	-0.358902	-126.008483	-38.433100	-46.571533	-38.433100	-46.571533	-0.496196	123.431153
9.000000	-0.363426	-126.620452	-38.378053	-47.982256	-38.378053	-47.982256	-0.499859	122.009974
9.050000	-0.368055	-127.231635	-38.324556	-49.392484	-38.324556	-49.392484	-0.503494	120.583666
9.100000	-0.372784	-127.842103	-38.272618	-50.801437	-38.272618	-50.801437	-0.507101	119.152258
9.150000	-0.377611	-128.451921	-38.222240	-52.208457	-38.222240	-52.208457	-0.510678	117.715786
9.200000	-0.382534	-129.061144	-38.173424	-53.612974	-38.173424	-53.612974	-0.514225	116.274290
9.250000	-0.387550	-129.669820	-38.126167	-55.014492	-38.126167	-55.014492	-0.517741	114.827817
9.300000	-0.392660	-130.277993	-38.080465	-56.412572	-38.080465	-56.412572	-0.521227	113.376420
9.350000	-0.397863	-130.885702	-38.036313	-57.806822	-38.036313	-57.806822	-0.524681	111.920160
9.400000	-0.403159	-131.492984	-37.993702	-59.196888	-37.993702	-59.196888	-0.528102	110.459100
9.450000	-0.408548	-132.099872	-37.952627	-60.582448	-37.952627	-60.582448	-0.531491	108.993315
9.500000	-0.414031	-132.706395	-37.913076	-61.963206	-37.913076	-61.963206	-0.534847	107.522882
9.550000	-0.419609	-133.312583	-37.875040	-63.338888	-37.875040	-63.338888	-0.538169	106.047886
9.600000	-0.425282	-133.918462	-37.838509	-64.709239	-37.838509	-64.709239	-0.541458	104.568420
9.650000	-0.431051	-134.524057	-37.803471	-66.074022	-37.803471	-66.074022	-0.544713	103.084580
9.700000	-0.436918	-135.129392	-37.769913	-67.433010	-37.769913	-67.433010	-0.547934	101.596473
9.750000	-0.442884	-135.734488	-37.737823	-68.785994	-37.737823	-68.785994	-0.551121	100.104210
9.800000	-0.448951	-136.339368	-37.707186	-70.132771	-37.707186	-70.132771	-0.554274	98.607908
9.850000	-0.455119	-136.944052	-37.677988	-71.473153	-37.677988	-71.473153	-0.557392	97.107692
9.900000	-0.461391	-137.548558	-37.650214	-72.806958	-37.650214	-72.806958	-0.560476	95.603693
9.950000	-0.467767	-138.152907	-37.623849	-74.134013	-37.623849	-74.134013	-0.563526	94.096049
10.000000	-0.474251	-138.757116	-37.598876	-75.454155	-37.598876	-75.454155	-0.566542	92.584903
