! freq	dB(S11)	phase(S11)	dB(S12)	phase(S12)	
!     	dB(S21)	phase(S21)	dB(S22)	phase(S22)	
!S-par simulation data
#  GHz  S  DB  R 50
0.000000	-0.000000	0.000000	-344.417133	180.000000	-344.417133	180.000000	-0.000000	-0.000000
0.050000	-0.000102	-0.761834	-116.127193	88.535245	-116.127193	88.535245	-0.000107	-0.871272
0.100000	-0.000403	-1.523411	-110.221759	87.257161	-110.221759	87.257161	-0.000424	-1.742291
0.150000	-0.000889	-2.284499	-106.864255	86.232824	-106.864255	86.232824	-0.000938	-2.612819
0.200000	-0.001538	-3.044910	-104.561268	85.429900	-104.561268	85.429900	-0.001630	-3.482661
0.250000	-0.002335	-3.804440	-102.852076	84.804841	-102.852076	84.804841	-0.002487	-4.351592
0.300000	-0.003239	-4.563066	-101.520753	84.304486	-101.520753	84.304486	-0.003470	-5.219566
0.350000	-0.004232	-5.320696	-100.466361	83.922093	-100.466361	83.922093	-0.004561	-6.086462
0.400000	-0.005289	-6.077309	-99.628262	83.662369	-99.628262	83.662369	-0.005736	-6.952227
0.450000	-0.006391	-6.832912	-98.969516	83.545415	-98.969516	83.545415	-0.006973	-7.816839
0.500000	-0.007519	-7.587532	-98.466916	83.605056	-98.466916	83.605056	-0.008251	-8.680301
0.550000	-0.008660	-8.341208	-98.105916	83.889799	-98.105916	83.889799	-0.009556	-9.542630
0.600000	-0.009804	-9.093983	-97.877799	84.466427	-97.877799	84.466427	-0.010872	-10.403856
0.650000	-0.010944	-9.845901	-97.777847	85.426591	-97.777847	85.426591	-0.012191	-11.264014
0.700000	-0.012073	-10.597004	-97.803771	86.897247	-97.803771	86.897247	-0.013504	-12.123139
0.750000	-0.013190	-11.347327	-97.953675	89.056153	-97.953675	89.056153	-0.014805	-12.981264
0.800000	-0.014292	-12.096900	-98.222474	92.153014	-98.222474	92.153014	-0.016090	-13.838420
0.850000	-0.015379	-12.845745	-98.594764	96.532670	-98.594764	96.532670	-0.017359	-14.694632
0.900000	-0.016451	-13.593879	-99.031029	102.641478	-99.031029	102.641478	-0.018608	-15.549920
0.950000	-0.017508	-14.341314	-99.444734	110.959887	-99.444734	110.959887	-0.019839	-16.404298
1.000000	-0.018552	-15.088056	-99.679068	121.755866	-99.679068	121.755866	-0.021052	-17.257774
1.050000	-0.019583	-15.834107	-99.523680	134.622199	-99.523680	134.622199	-0.022247	-18.110354
1.100000	-0.020603	-16.579463	-98.823142	148.150620	-98.823142	148.150620	-0.023426	-18.962035
1.150000	-0.021614	-17.324121	-97.608763	160.468384	-97.608763	160.468384	-0.024590	-19.812815
1.200000	-0.022615	-18.068072	-96.071053	170.394983	-96.071053	170.394983	-0.025740	-20.662684
1.250000	-0.023609	-18.811306	-94.409982	177.803192	-94.409982	177.803192	-0.026877	-21.511634
1.300000	-0.024595	-19.553780	-92.742734	-176.948070	-92.742734	-176.948070	-0.028004	-22.359608
1.350000	-0.025576	-20.295513	-91.144873	-173.242142	-91.144873	-173.242142	-0.029121	-23.206633
1.400000	-0.026552	-21.036490	-89.636477	-170.672126	-89.636477	-170.672126	-0.030230	-24.052691
1.450000	-0.027523	-21.776697	-88.220114	-168.939190	-88.220114	-168.939190	-0.031332	-24.897766
1.500000	-0.028491	-22.516119	-86.891016	-167.830070	-86.891016	-167.830070	-0.032428	-25.741838
1.550000	-0.029456	-23.254740	-85.641862	-167.193059	-85.641862	-167.193059	-0.033519	-26.584887
1.600000	-0.030419	-23.992546	-84.464885	-166.919317	-84.464885	-166.919317	-0.034605	-27.426895
1.650000	-0.031379	-24.729519	-83.352745	-166.929687	-83.352745	-166.929687	-0.035689	-28.267841
1.700000	-0.032338	-25.465343	-82.274690	-167.223899	-82.274690	-167.223899	-0.036769	-29.107319
1.750000	-0.033296	-26.200719	-81.283859	-167.619814	-81.283859	-167.619814	-0.037849	-29.946225
1.800000	-0.034253	-26.935017	-80.325569	-168.183524	-80.325569	-168.183524	-0.038927	-30.783754
1.850000	-0.035210	-27.668545	-79.418243	-168.867087	-79.418243	-168.867087	-0.040004	-31.620300
1.900000	-0.036167	-28.401114	-78.546757	-169.648844	-78.546757	-169.648844	-0.041081	-32.455623
1.950000	-0.037124	-29.132726	-77.709365	-170.528795	-77.709365	-170.528795	-0.042159	-33.289722
2.000000	-0.038081	-29.863512	-76.909814	-171.466922	-76.909814	-171.466922	-0.043237	-34.122766
2.050000	-0.039040	-30.593141	-76.131798	-172.486496	-76.131798	-172.486496	-0.044317	-34.954334
2.100000	-0.039999	-31.322262	-75.399170	-173.532906	-75.399170	-173.532906	-0.045398	-35.785253
2.150000	-0.040960	-32.050061	-74.679018	-174.645864	-74.679018	-174.645864	-0.046481	-36.614485
2.200000	-0.041923	-32.776860	-73.982866	-175.799704	-73.982866	-175.799704	-0.047567	-37.442442
2.250000	-0.042888	-33.502644	-73.309098	-176.989430	-73.309098	-176.989430	-0.048656	-38.269107
2.300000	-0.043855	-34.227400	-72.656265	-178.210808	-72.656265	-178.210808	-0.049748	-39.094463
2.350000	-0.044825	-34.951115	-72.023059	-179.460232	-72.023059	-179.460232	-0.050843	-39.918492
2.400000	-0.045798	-35.673773	-71.408298	179.265394	-71.408298	179.265394	-0.051943	-40.741180
2.450000	-0.046774	-36.395363	-70.810910	177.968741	-70.810910	177.968741	-0.053046	-41.562510
2.500000	-0.047753	-37.115871	-70.229918	176.652125	-70.229918	176.652125	-0.054154	-42.382468
2.550000	-0.048737	-37.835235	-69.663510	175.316869	-69.663510	175.316869	-0.055268	-43.200978
2.600000	-0.049725	-38.553491	-69.111883	173.965580	-69.111883	173.965580	-0.056387	-44.018086
2.650000	-0.050717	-39.270626	-68.574276	172.599789	-68.574276	172.599789	-0.057511	-44.833778
2.700000	-0.051715	-39.986629	-68.049991	171.220852	-68.049991	171.220852	-0.058642	-45.648040
2.750000	-0.052717	-40.701486	-67.538383	169.829974	-67.538383	169.829974	-0.059779	-46.460862
2.800000	-0.053725	-41.415187	-67.038856	168.428229	-67.038856	168.428229	-0.060922	-47.272229
2.850000	-0.054739	-42.127721	-66.550858	167.016578	-66.550858	167.016578	-0.062073	-48.082132
2.900000	-0.055760	-42.839075	-66.073876	165.595882	-66.073876	165.595882	-0.063232	-48.890558
2.950000	-0.056786	-43.549241	-65.607432	164.166919	-65.607432	164.166919	-0.064398	-49.697497
3.000000	-0.057820	-44.258207	-65.151082	162.730388	-65.151082	162.730388	-0.065573	-50.502939
3.050000	-0.058861	-44.965962	-64.704409	161.286925	-64.704409	161.286925	-0.066756	-51.306874
3.100000	-0.059910	-45.672498	-64.267025	159.837104	-64.267025	159.837104	-0.067949	-52.109294
3.150000	-0.060966	-46.377804	-63.838565	158.381451	-63.838565	158.381451	-0.069151	-52.910189
3.200000	-0.062031	-47.081872	-63.418686	156.920444	-63.418686	156.920444	-0.070363	-53.709551
3.250000	-0.063105	-47.784691	-63.007068	155.454518	-63.007068	155.454518	-0.071586	-54.507372
3.300000	-0.064188	-48.486254	-62.603407	153.984075	-62.603407	153.984075	-0.072819	-55.303646
3.350000	-0.065282	-49.186329	-62.205617	152.508860	-62.205617	152.508860	-0.074065	-56.098094
3.400000	-0.066386	-49.885075	-61.814957	151.029678	-61.814957	151.029678	-0.075324	-56.890913
3.450000	-0.067495	-50.583150	-61.436141	149.548785	-61.436141	149.548785	-0.076589	-57.682912
3.500000	-0.068621	-51.279210	-61.058868	148.062759	-61.058868	148.062759	-0.077873	-58.472454
3.550000	-0.069751	-51.974818	-60.694228	146.575781	-60.694228	146.575781	-0.079162	-59.261446
3.600000	-0.070900	-52.668160	-60.329532	145.084046	-60.329532	145.084046	-0.080474	-60.047691
3.650000	-0.072051	-53.361275	-59.978106	143.591917	-59.978106	143.591917	-0.081788	-60.833659
3.700000	-0.073225	-54.051872	-59.625254	142.095443	-59.625254	142.095443	-0.083130	-61.616590
3.750000	-0.074400	-54.742469	-59.286178	140.598969	-59.286178	140.598969	-0.084472	-62.399521
3.800000	-0.075600	-55.430294	-58.944502	139.098592	-58.944502	139.098592	-0.085845	-63.179128
3.850000	-0.076801	-56.118120	-58.615759	137.598214	-58.615759	137.598214	-0.087218	-63.958735
3.900000	-0.078027	-56.803384	-58.285888	136.094920	-58.285888	136.094920	-0.088622	-64.735289
3.950000	-0.079256	-57.488415	-57.966940	134.591361	-57.966940	134.591361	-0.090029	-65.511564
4.000000	-0.080510	-58.171101	-57.648150	133.085675	-57.648150	133.085675	-0.091465	-66.285062
4.050000	-0.081769	-58.853318	-57.338500	131.579564	-57.338500	131.579564	-0.092907	-67.058004
4.100000	-0.083051	-59.533410	-57.030136	130.071952	-57.030136	130.071952	-0.094378	-67.828447
4.150000	-0.084341	-60.212795	-56.729327	128.563840	-56.729327	128.563840	-0.095857	-68.598057
4.200000	-0.085653	-60.890282	-56.430789	127.054717	-56.430789	127.054717	-0.097363	-69.365449
4.250000	-0.086976	-61.566821	-56.138401	125.545088	-56.138401	125.545088	-0.098882	-70.131733
4.300000	-0.088320	-62.241692	-55.849141	124.034824	-55.849141	124.034824	-0.100426	-70.896082
4.350000	-0.089678	-62.915373	-55.564784	122.524106	-55.564784	122.524106	-0.101986	-71.659050
4.400000	-0.091054	-63.587620	-55.284301	121.013035	-55.284301	121.013035	-0.103568	-72.420367
4.450000	-0.092448	-64.258434	-55.007612	119.501609	-55.007612	119.501609	-0.105172	-73.180033
4.500000	-0.093858	-64.928050	-54.735445	117.990029	-54.735445	117.990029	-0.106795	-73.938331
4.550000	-0.095290	-65.595991	-54.466089	116.478234	-54.466089	116.478234	-0.108445	-74.694714
4.600000	-0.096736	-66.262972	-54.201812	114.966418	-54.201812	114.966418	-0.110110	-75.450011
4.650000	-0.098207	-66.928036	-53.939474	113.454557	-53.939474	113.454557	-0.111806	-76.203133
4.700000	-0.099690	-67.592381	-53.682696	111.942749	-53.682696	111.942749	-0.113515	-76.955447
4.750000	-0.101203	-68.254567	-53.427083	110.431096	-53.427083	110.431096	-0.115261	-77.705335
4.800000	-0.102723	-68.916275	-53.177441	108.919519	-53.177441	108.919519	-0.117016	-78.454689
4.850000	-0.104279	-69.575586	-52.928280	107.408320	-52.928280	107.408320	-0.118813	-79.201374
4.900000	-0.105839	-70.234657	-52.685438	105.897177	-52.685438	105.897177	-0.120615	-79.947794
4.950000	-0.107440	-70.891097	-52.442470	104.386655	-52.442470	104.386655	-0.122465	-80.691309
5.000000	-0.109041	-71.547537	-52.206115	102.876133	-52.206115	102.876133	-0.124316	-81.434824
5.050000	-0.110687	-72.201113	-51.969102	101.366491	-51.969102	101.366491	-0.126221	-82.175207
5.100000	-0.112335	-72.854688	-51.738385	99.856849	-51.738385	99.856849	-0.128127	-82.915591
5.150000	-0.114026	-73.505647	-51.507657	98.348183	-51.507657	98.348183	-0.130085	-83.653142
5.200000	-0.115721	-74.156368	-51.282370	96.839607	-51.282370	96.839607	-0.132048	-84.390436
5.250000	-0.117457	-74.804720	-51.057650	95.332059	-51.057650	95.332059	-0.134060	-85.125192
5.300000	-0.119202	-75.452598	-50.837599	93.824717	-50.837599	93.824717	-0.136082	-85.859442
5.350000	-0.120985	-76.098354	-50.618629	92.318419	-50.618629	92.318419	-0.138150	-86.591445
5.400000	-0.122781	-76.743404	-50.403628	90.812468	-50.403628	90.812468	-0.140233	-87.322699
5.450000	-0.124613	-77.386578	-50.190166	89.307540	-50.190166	89.307540	-0.142358	-88.051991
5.500000	-0.126462	-78.028816	-49.980041	87.803125	-49.980041	87.803125	-0.144504	-88.780302
5.550000	-0.128343	-78.669424	-49.771859	86.299681	-49.771859	86.299681	-0.146687	-89.506930
5.600000	-0.130247	-79.308868	-49.566445	84.796933	-49.566445	84.796933	-0.148898	-90.232354
5.650000	-0.132179	-79.946927	-49.363332	83.295080	-49.363332	83.295080	-0.151142	-90.956365
5.700000	-0.134140	-80.583599	-49.162471	81.794123	-49.162471	81.794123	-0.153420	-91.678962
5.750000	-0.136125	-81.219126	-48.964226	80.293959	-48.964226	80.293959	-0.155726	-92.400407
5.800000	-0.138143	-81.853050	-48.767771	78.794906	-48.767771	78.794906	-0.158072	-93.120239
5.850000	-0.140182	-82.486066	-48.574207	77.296525	-48.574207	77.296525	-0.160442	-93.839171
5.900000	-0.142260	-83.117267	-48.382016	75.799484	-48.382016	75.799484	-0.162858	-94.556304
5.950000	-0.144354	-83.747793	-48.192954	74.302971	-48.192954	74.302971	-0.165293	-95.272780
6.000000	-0.146494	-84.376298	-48.004893	72.808040	-48.004893	72.808040	-0.167782	-95.987283
6.050000	-0.148645	-85.004358	-47.820167	71.313477	-47.820167	71.313477	-0.170284	-96.701360
6.100000	-0.150848	-85.630197	-47.636107	69.820750	-47.636107	69.820750	-0.172846	-97.413305
6.150000	-0.153057	-86.255816	-47.455559	68.328213	-47.455559	68.328213	-0.175416	-98.125044
6.200000	-0.155326	-86.879019	-47.275379	66.837775	-47.275379	66.837775	-0.178055	-98.834507
6.250000	-0.157594	-87.502223	-47.098860	65.347336	-47.098860	65.347336	-0.180695	-99.543970
6.300000	-0.159929	-88.122825	-46.922442	63.859266	-46.922442	63.859266	-0.183412	-100.251028
6.350000	-0.162264	-88.743427	-46.749536	62.371196	-46.749536	62.371196	-0.186130	-100.958087
6.400000	-0.164662	-89.361677	-46.577044	60.885365	-46.577044	60.885365	-0.188920	-101.663017
6.450000	-0.167066	-89.979713	-46.407647	59.399737	-46.407647	59.399737	-0.191717	-102.367752
6.500000	-0.169527	-90.595641	-46.238944	57.916202	-46.238944	57.916202	-0.194581	-103.070623
6.550000	-0.172001	-91.211147	-46.072956	56.433085	-46.072956	56.433085	-0.197460	-103.773120
6.600000	-0.174528	-91.824786	-45.907913	54.951899	-45.907913	54.951899	-0.200401	-104.474003
6.650000	-0.177074	-92.437802	-45.745239	53.471356	-45.745239	53.471356	-0.203363	-105.174348
6.700000	-0.179668	-93.049184	-45.583733	51.992567	-45.583733	51.992567	-0.206381	-105.873319
6.750000	-0.182286	-93.659749	-45.424280	50.514655	-45.424280	50.514655	-0.209429	-106.571603
6.800000	-0.184949	-94.268910	-45.266194	49.038308	-45.266194	49.038308	-0.212526	-107.268738
6.850000	-0.187643	-94.877068	-45.109875	47.563079	-45.109875	47.563079	-0.215660	-107.965052
6.900000	-0.190375	-95.484043	-44.955097	46.089214	-44.955097	46.089214	-0.218838	-108.660430
6.950000	-0.193145	-96.089836	-44.801827	44.616713	-44.801827	44.616713	-0.222061	-109.354870
7.000000	-0.195948	-96.694663	-44.650252	43.145366	-44.650252	43.145366	-0.225321	-110.048571
7.050000	-0.198797	-97.298137	-44.499950	41.675634	-44.499950	41.675634	-0.228634	-110.741237
7.100000	-0.201673	-97.900853	-44.351476	40.206837	-44.351476	40.206837	-0.231977	-111.433344
7.150000	-0.204601	-98.502055	-44.204064	38.739909	-44.204064	38.739909	-0.235382	-112.124335
7.200000	-0.207551	-99.102700	-44.058594	37.273688	-44.058594	37.273688	-0.238811	-112.814933
7.250000	-0.210561	-99.701678	-43.913996	35.809591	-43.913996	35.809591	-0.242309	-113.504353
7.300000	-0.213585	-100.300293	-43.771440	34.345970	-43.771440	34.345970	-0.245824	-114.193529
7.350000	-0.216678	-100.897096	-43.629584	32.884726	-43.629584	32.884726	-0.249418	-114.881484
7.400000	-0.219779	-101.493722	-43.489853	31.423722	-43.489853	31.423722	-0.253020	-115.569327
7.450000	-0.222957	-102.088402	-43.350668	29.965348	-43.350668	29.965348	-0.256711	-116.255927
7.500000	-0.226135	-102.683082	-43.213679	28.506974	-43.213679	28.506974	-0.260403	-116.942527
7.550000	-0.229399	-103.275692	-43.077099	27.051478	-43.077099	27.051478	-0.264192	-117.627884
7.600000	-0.232664	-103.868301	-42.942633	25.595982	-42.942633	25.595982	-0.267983	-118.313240
7.650000	-0.236008	-104.459062	-42.808730	24.143126	-42.808730	24.143126	-0.271864	-118.997562
7.700000	-0.239360	-105.049655	-42.676727	22.690510	-42.676727	22.690510	-0.275755	-119.681789
7.750000	-0.242785	-105.638614	-42.545424	21.240290	-42.545424	21.240290	-0.279729	-120.365173
7.800000	-0.246227	-106.227246	-42.415825	19.790549	-42.415825	19.790549	-0.283722	-121.048388
7.850000	-0.249735	-106.814449	-42.287048	18.342955	-42.287048	18.342955	-0.287791	-121.730935
7.900000	-0.253267	-107.401176	-42.159797	16.896077	-42.159797	16.896077	-0.291887	-122.413258
7.950000	-0.256859	-107.986672	-42.033474	15.451095	-42.033474	15.451095	-0.296052	-123.095068
8.000000	-0.260483	-108.571553	-41.908516	14.007060	-41.908516	14.007060	-0.300252	-123.776622
8.050000	-0.264160	-109.155391	-41.784581	12.564667	-41.784581	12.564667	-0.304515	-124.457800
8.100000	-0.267877	-109.738484	-41.661864	11.123448	-41.661864	11.123448	-0.308821	-125.138710
8.150000	-0.271640	-110.320714	-41.540253	9.683619	-41.540253	9.683619	-0.313182	-125.819362
8.200000	-0.275451	-110.902081	-41.419726	8.245181	-41.419726	8.245181	-0.317597	-126.499755
8.250000	-0.279302	-111.482753	-41.300378	6.807883	-41.300378	6.807883	-0.322057	-127.179989
8.300000	-0.283209	-112.062455	-41.181995	5.372183	-41.181995	5.372183	-0.326580	-127.859998
8.350000	-0.287148	-112.641623	-41.064851	3.937379	-41.064851	3.937379	-0.331142	-128.539924
8.400000	-0.291152	-113.219722	-40.948567	2.504367	-40.948567	2.504367	-0.335775	-129.219682
8.450000	-0.295180	-113.797438	-40.833571	1.072012	-40.833571	1.072012	-0.340438	-129.899412
8.500000	-0.299281	-114.374000	-40.719343	-0.358370	-40.719343	-0.358370	-0.345184	-130.579056
8.550000	-0.303400	-114.950317	-40.606443	-1.788325	-40.606443	-1.788325	-0.349950	-131.258704
8.600000	-0.307601	-115.525407	-40.494231	-3.216143	-40.494231	-3.216143	-0.354808	-131.938374
8.650000	-0.311811	-116.100381	-40.383378	-4.643754	-40.383378	-4.643754	-0.359678	-132.618058
8.700000	-0.316111	-116.674066	-40.273143	-6.069081	-40.273143	-6.069081	-0.364650	-133.297897
8.750000	-0.320414	-117.247752	-40.164289	-7.494409	-40.164289	-7.494409	-0.369625	-133.977736
8.800000	-0.324815	-117.820101	-40.055997	-8.917326	-40.055997	-8.917326	-0.374713	-134.657889
8.850000	-0.329218	-118.392449	-39.949038	-10.340243	-39.949038	-10.340243	-0.379803	-135.338043
8.900000	-0.333713	-118.963637	-39.842716	-11.761030	-39.842716	-11.761030	-0.384997	-136.018621
8.950000	-0.338218	-119.534718	-39.737620	-13.181624	-39.737620	-13.181624	-0.390204	-136.699239
9.000000	-0.342808	-120.104803	-39.633228	-14.600361	-39.633228	-14.600361	-0.395506	-137.380369
9.050000	-0.347416	-120.674688	-39.529967	-16.018726	-39.529967	-16.018726	-0.400829	-138.061603
9.100000	-0.352100	-121.243730	-39.427468	-17.435495	-39.427468	-17.435495	-0.406240	-138.743415
9.150000	-0.356812	-121.812490	-39.326016	-18.851732	-39.326016	-18.851732	-0.411682	-139.425421
9.200000	-0.361592	-122.380550	-39.225374	-20.266620	-39.225374	-20.266620	-0.417201	-140.108047
9.250000	-0.366408	-122.948260	-39.125708	-21.680835	-39.125708	-21.680835	-0.422762	-140.790983
9.300000	-0.371284	-123.515400	-39.026892	-23.093934	-39.026892	-23.093934	-0.428391	-141.474558
9.350000	-0.376204	-124.082133	-38.928991	-24.506237	-38.928991	-24.506237	-0.434071	-142.158588
9.400000	-0.381177	-124.648417	-38.831972	-25.917642	-38.831972	-25.917642	-0.439811	-142.843248
9.450000	-0.386203	-125.214250	-38.735818	-27.328150	-38.735818	-27.328150	-0.445612	-143.528538
9.500000	-0.391273	-125.779740	-38.640570	-28.737958	-38.640570	-28.737958	-0.451462	-144.214424
9.550000	-0.396404	-126.344751	-38.546150	-30.146789	-38.546150	-30.146789	-0.457383	-144.901143
9.600000	-0.401571	-126.909514	-38.452649	-31.555101	-38.452649	-31.555101	-0.463345	-145.588398
9.650000	-0.406808	-127.473781	-38.359951	-32.962377	-38.359951	-32.962377	-0.469387	-146.276721
9.700000	-0.412073	-128.037882	-38.268176	-34.369296	-38.268176	-34.369296	-0.475461	-146.965490
9.750000	-0.417416	-128.601486	-38.177193	-35.775140	-38.177193	-35.775140	-0.481623	-147.655594
9.800000	-0.422779	-129.164993	-38.087127	-37.180767	-38.087127	-37.180767	-0.487809	-148.346026
9.850000	-0.428228	-129.728015	-37.997853	-38.585305	-37.997853	-38.585305	-0.494093	-149.038093
9.900000	-0.433688	-130.290997	-37.909480	-39.989745	-37.909480	-39.989745	-0.500391	-149.730339
9.950000	-0.439243	-130.853521	-37.821914	-41.393100	-37.821914	-41.393100	-0.506796	-150.424555
10.000000	-0.444802	-131.416046	-37.735223	-42.796454	-37.735223	-42.796454	-0.513205	-151.118771
