! freq	dB(S11)	phase(S11)	dB(S12)	phase(S12)	
!     	dB(S21)	phase(S21)	dB(S22)	phase(S22)	
!S-par simulation data
#  GHz  S  DB  R 50
0.000000	-0.000000	0.000000	-354.968189	0.000000	-354.968189	0.000000	-0.000000	0.000000
0.050000	-0.000198	-1.424120	-96.621650	157.954422	-96.621650	157.954422	-0.000796	-0.851341
0.100000	-0.000784	-2.847672	-95.212394	140.031954	-95.212394	140.031954	-0.002217	-1.709838
0.150000	-0.001728	-4.270133	-93.595406	127.290967	-93.595406	127.290967	-0.003411	-2.572459
0.200000	-0.002988	-5.691077	-92.069110	118.188126	-92.069110	118.188126	-0.004352	-3.436004
0.250000	-0.004531	-7.110029	-90.715327	111.567835	-90.715327	111.567835	-0.005162	-4.299241
0.300000	-0.006279	-8.526912	-89.544179	106.385150	-89.544179	106.385150	-0.005941	-5.161845
0.350000	-0.008193	-9.941484	-88.535649	102.248737	-88.535649	102.248737	-0.006730	-6.023699
0.400000	-0.010227	-11.353651	-87.669926	98.850728	-87.669926	98.850728	-0.007553	-6.884760
0.450000	-0.012340	-12.763376	-86.929237	96.000891	-86.929237	96.000891	-0.008420	-7.745006
0.500000	-0.014498	-14.170660	-86.299021	93.580124	-86.299021	93.580124	-0.009335	-8.604413
0.550000	-0.016675	-15.575530	-85.767769	91.514101	-85.767769	91.514101	-0.010296	-9.462961
0.600000	-0.018849	-16.978021	-85.326545	89.758243	-85.326545	89.758243	-0.011301	-10.320625
0.650000	-0.021009	-18.378170	-84.968504	88.289104	-84.968504	88.289104	-0.012345	-11.177386
0.700000	-0.023142	-19.776006	-84.688451	87.099560	-84.688451	87.099560	-0.013423	-12.033223
0.750000	-0.025245	-21.171551	-84.482476	86.196383	-84.482476	86.196383	-0.014530	-12.888119
0.800000	-0.027314	-22.564815	-84.347604	85.599459	-84.347604	85.599459	-0.015662	-13.742058
0.850000	-0.029347	-23.955797	-84.281426	85.342244	-84.281426	85.342244	-0.016813	-14.595027
0.900000	-0.031346	-25.344483	-84.281644	85.473246	-84.281644	85.473246	-0.017979	-15.447014
0.950000	-0.033312	-26.730851	-84.345433	86.058339	-84.345433	86.058339	-0.019157	-16.298008
1.000000	-0.035247	-28.114871	-84.468475	87.183542	-84.468475	87.183542	-0.020342	-17.148000
1.050000	-0.037153	-29.496505	-84.643467	88.957353	-84.643467	88.957353	-0.021532	-17.996982
1.100000	-0.039032	-30.875709	-84.857860	91.510618	-84.857860	91.510618	-0.022723	-18.844947
1.150000	-0.040888	-32.252437	-85.090638	94.989674	-85.090638	94.989674	-0.023914	-19.691886
1.200000	-0.042722	-33.626638	-85.308383	99.535367	-85.308383	99.535367	-0.025103	-20.537792
1.250000	-0.044536	-34.998260	-85.462057	105.237827	-85.462057	105.237827	-0.026287	-21.382658
1.300000	-0.046331	-36.367131	-85.479403	112.097318	-85.479403	112.097318	-0.027466	-22.226429
1.350000	-0.048111	-37.733311	-85.297223	119.785246	-85.297223	119.785246	-0.028639	-23.069141
1.400000	-0.049878	-39.096745	-84.871404	127.802224	-84.871404	127.802224	-0.029805	-23.910786
1.450000	-0.051631	-40.457381	-84.200026	135.556046	-84.200026	135.556046	-0.030964	-24.751354
1.500000	-0.053373	-41.815167	-83.323397	142.550816	-83.323397	142.550816	-0.032115	-25.590834
1.550000	-0.055105	-43.170053	-82.304337	148.503958	-82.304337	148.503958	-0.033259	-26.429215
1.600000	-0.056828	-44.521991	-81.205518	153.343553	-81.205518	153.343553	-0.034395	-27.266485
1.650000	-0.058544	-45.870934	-80.076498	157.137899	-80.076498	157.137899	-0.035524	-28.102633
1.700000	-0.060252	-47.216839	-78.951015	160.020674	-78.951015	160.020674	-0.036647	-28.937644
1.750000	-0.061953	-48.559663	-77.849599	162.140273	-77.849599	162.140273	-0.037762	-29.771507
1.800000	-0.063650	-49.899367	-76.783468	163.634135	-76.783468	163.634135	-0.038872	-30.604206
1.850000	-0.065341	-51.235914	-75.757866	164.619392	-75.757866	164.619392	-0.039977	-31.435728
1.900000	-0.067029	-52.569268	-74.774432	165.191839	-74.774432	165.191839	-0.041077	-32.266058
1.950000	-0.068713	-53.899399	-73.832743	165.428289	-73.832743	165.428289	-0.042172	-33.095182
2.000000	-0.070395	-55.226277	-72.931262	165.389859	-72.931262	165.389859	-0.043264	-33.923083
2.050000	-0.072075	-56.549875	-72.067908	165.125120	-72.067908	165.125120	-0.044353	-34.749747
2.100000	-0.073754	-57.870169	-71.240382	164.672791	-71.240382	164.672791	-0.045440	-35.575159
2.150000	-0.075433	-59.187138	-70.446358	164.063887	-70.446358	164.063887	-0.046525	-36.399302
2.200000	-0.077112	-60.500761	-69.683584	163.323413	-69.683584	163.323413	-0.047609	-37.222162
2.250000	-0.078791	-61.811025	-68.949936	162.471664	-68.949936	162.471664	-0.048693	-38.043723
2.300000	-0.080473	-63.117913	-68.243436	161.525227	-68.243436	161.525227	-0.049778	-38.863969
2.350000	-0.082157	-64.421417	-67.562264	160.497755	-67.562264	160.497755	-0.050863	-39.682886
2.400000	-0.083843	-65.721527	-66.904748	159.400560	-66.904748	159.400560	-0.051950	-40.500457
2.450000	-0.085534	-67.018237	-66.269361	158.243078	-66.269361	158.243078	-0.053040	-41.316670
2.500000	-0.087230	-68.311544	-65.654707	157.033225	-65.654707	157.033225	-0.054133	-42.131508
2.550000	-0.088931	-69.601299	-65.058588	155.775965	-65.058588	155.775965	-0.055229	-42.944896
2.600000	-0.090638	-70.887653	-64.480876	154.479122	-64.480876	154.479122	-0.056330	-43.756880
2.650000	-0.092352	-72.170610	-63.920490	153.147440	-63.920490	153.147440	-0.057435	-44.567446
2.700000	-0.094074	-73.450177	-63.376442	151.784998	-63.376442	151.784998	-0.058546	-45.376581
2.750000	-0.095805	-74.726363	-62.847828	150.395312	-62.847828	150.395312	-0.059662	-46.184272
2.800000	-0.097544	-75.999181	-62.333817	148.981431	-62.333817	148.981431	-0.060786	-46.990505
2.850000	-0.099294	-77.268644	-61.833644	147.546007	-61.833644	147.546007	-0.061916	-47.795270
2.900000	-0.101055	-78.534770	-61.346606	146.091356	-61.346606	146.091356	-0.063054	-48.598554
2.950000	-0.102827	-79.797578	-60.872052	144.619506	-60.872052	144.619506	-0.064199	-49.400345
3.000000	-0.104612	-81.057088	-60.409381	143.132243	-60.409381	143.132243	-0.065353	-50.200632
3.050000	-0.106410	-82.313324	-59.958037	141.631139	-59.958037	141.631139	-0.066517	-50.999406
3.100000	-0.108222	-83.566312	-59.517503	140.117587	-59.517503	140.117587	-0.067689	-51.796656
3.150000	-0.110049	-84.816079	-59.087300	138.592821	-59.087300	138.592821	-0.068872	-52.592372
3.200000	-0.111892	-86.062657	-58.666980	137.057941	-58.666980	137.057941	-0.070065	-53.386546
3.250000	-0.113750	-87.306078	-58.256127	135.513926	-58.256127	135.513926	-0.071269	-54.179168
3.300000	-0.115626	-88.546375	-57.854352	133.961654	-57.854352	133.961654	-0.072484	-54.970231
3.350000	-0.117520	-89.783585	-57.461290	132.401911	-57.461290	132.401911	-0.073711	-55.759727
3.400000	-0.119432	-91.017748	-57.076602	130.835404	-57.076602	130.835404	-0.074949	-56.547648
3.450000	-0.121364	-92.248903	-56.699967	129.262770	-56.699967	129.262770	-0.076201	-57.333989
3.500000	-0.123315	-93.477093	-56.331087	127.684584	-56.331087	127.684584	-0.077466	-58.118743
3.550000	-0.125288	-94.702362	-55.969678	126.101368	-55.969678	126.101368	-0.078744	-58.901904
3.600000	-0.127282	-95.924758	-55.615476	124.513594	-55.615476	124.513594	-0.080035	-59.683467
3.650000	-0.129298	-97.144329	-55.268230	122.921693	-55.268230	122.921693	-0.081341	-60.463428
3.700000	-0.131337	-98.361124	-54.927704	121.326057	-54.927704	121.326057	-0.082662	-61.241783
3.750000	-0.133399	-99.575197	-54.593676	119.727046	-54.593676	119.727046	-0.083998	-62.018527
3.800000	-0.135487	-100.786486	-54.265671	118.124871	-54.265671	118.124871	-0.085350	-62.793588
3.850000	-0.137599	-101.995168	-53.943776	116.519977	-53.943776	116.519977	-0.086718	-63.567032
3.900000	-0.139737	-103.201300	-53.627799	114.912639	-53.627799	114.912639	-0.088102	-64.338859
3.950000	-0.141901	-104.404940	-53.317559	113.303113	-53.317559	113.303113	-0.089503	-65.109066
4.000000	-0.144092	-105.606151	-53.012886	111.691635	-53.012886	111.691635	-0.090921	-65.877652
4.050000	-0.146311	-106.804995	-52.713616	110.078423	-52.713616	110.078423	-0.092356	-66.644616
4.100000	-0.148557	-108.001537	-52.419593	108.463684	-52.419593	108.463684	-0.093809	-67.409959
4.150000	-0.150832	-109.195843	-52.130670	106.847607	-52.130670	106.847607	-0.095281	-68.173681
4.200000	-0.153136	-110.387980	-51.846705	105.230372	-51.846705	105.230372	-0.096771	-68.935783
4.250000	-0.155470	-111.578018	-51.567565	103.612146	-51.567565	103.612146	-0.098281	-69.696266
4.300000	-0.157834	-112.766028	-51.293121	101.993089	-51.293121	101.993089	-0.099810	-70.455131
4.350000	-0.160228	-113.952082	-51.023250	100.373350	-51.023250	100.373350	-0.101359	-71.212382
4.400000	-0.162654	-115.136255	-50.757835	98.753070	-50.757835	98.753070	-0.102928	-71.968020
4.450000	-0.165112	-116.318622	-50.496764	97.132385	-50.496764	97.132385	-0.104519	-72.722049
4.500000	-0.167601	-117.499260	-50.239927	95.511422	-50.239927	95.511422	-0.106130	-73.474473
4.550000	-0.170124	-118.678248	-49.987223	93.890303	-49.987223	93.890303	-0.107763	-74.225295
4.600000	-0.172679	-119.855665	-49.738551	92.269146	-49.738551	92.269146	-0.109417	-74.974521
4.650000	-0.175269	-121.031594	-49.493816	90.648063	-49.493816	90.648063	-0.111094	-75.722155
4.700000	-0.177892	-122.206118	-49.252926	89.027162	-49.252926	89.027162	-0.112794	-76.468201
4.750000	-0.180549	-123.379321	-49.015793	87.406547	-49.015793	87.406547	-0.114518	-77.212668
4.800000	-0.183242	-124.551290	-48.782331	85.786319	-48.782331	85.786319	-0.116264	-77.955559
4.850000	-0.185969	-125.722111	-48.552458	84.166576	-48.552458	84.166576	-0.118035	-78.696883
4.900000	-0.188733	-126.891875	-48.326094	82.547413	-48.326094	82.547413	-0.119831	-79.436645
4.950000	-0.191532	-128.060671	-48.103163	80.928921	-48.103163	80.928921	-0.121651	-80.174854
5.000000	-0.194368	-129.228593	-47.883590	79.311190	-47.883590	79.311190	-0.123496	-80.911518
5.050000	-0.197242	-130.395704	-47.667212	77.694350	-47.667212	77.694350	-0.125369	-81.646577
5.100000	-0.200153	-131.562138	-47.454059	76.078454	-47.454059	76.078454	-0.127268	-82.380108
5.150000	-0.203101	-132.727992	-47.244063	74.463585	-47.244063	74.463585	-0.129193	-83.112121
5.200000	-0.206087	-133.893367	-47.037157	72.849827	-47.037157	72.849827	-0.131145	-83.842623
5.250000	-0.209112	-135.058361	-46.833277	71.237261	-46.833277	71.237261	-0.133125	-84.571626
5.300000	-0.212174	-136.223078	-46.632360	69.625970	-46.632360	69.625970	-0.135133	-85.299139
5.350000	-0.215276	-137.387622	-46.434347	68.016034	-46.434347	68.016034	-0.137169	-86.025174
5.400000	-0.218416	-138.552099	-46.239177	66.407532	-46.239177	66.407532	-0.139234	-86.749740
5.450000	-0.221595	-139.716617	-46.046794	64.800545	-46.046794	64.800545	-0.141328	-87.472848
5.500000	-0.224814	-140.881288	-45.857140	63.195153	-45.857140	63.195153	-0.143452	-88.194512
5.550000	-0.228073	-142.046222	-45.670161	61.591437	-45.670161	61.591437	-0.145606	-88.914742
5.600000	-0.231372	-143.211537	-45.485803	59.989477	-45.485803	59.989477	-0.147790	-89.633550
5.650000	-0.234712	-144.377347	-45.304013	58.389355	-45.304013	58.389355	-0.150006	-90.350950
5.700000	-0.238092	-145.543775	-45.124739	56.791156	-45.124739	56.791156	-0.152252	-91.066954
5.750000	-0.241513	-146.710942	-44.947931	55.194964	-44.947931	55.194964	-0.154531	-91.781576
5.800000	-0.244976	-147.878975	-44.773539	53.600867	-44.773539	53.600867	-0.156842	-92.494829
5.850000	-0.248481	-149.048002	-44.601512	52.008954	-44.601512	52.008954	-0.159186	-93.206726
5.900000	-0.252027	-150.218157	-44.431804	50.419318	-44.431804	50.419318	-0.161563	-93.917283
5.950000	-0.255616	-151.389575	-44.264364	48.832057	-44.264364	48.832057	-0.163973	-94.626513
6.000000	-0.259248	-152.562399	-44.099147	47.247270	-44.099147	47.247270	-0.166418	-95.334431
6.050000	-0.262924	-153.736773	-43.936104	45.665065	-43.936104	45.665065	-0.168897	-96.041053
6.100000	-0.266644	-154.912848	-43.775187	44.085554	-43.775187	44.085554	-0.171410	-96.746394
6.150000	-0.270408	-156.090781	-43.616350	42.508855	-43.616350	42.508855	-0.173960	-97.450470
6.200000	-0.274218	-157.270734	-43.459544	40.935095	-43.459544	40.935095	-0.176545	-98.153296
6.250000	-0.278074	-158.452878	-43.304722	39.364411	-43.304722	39.364411	-0.179166	-98.854888
6.300000	-0.281980	-159.637501	-43.151801	37.797098	-43.151801	37.797098	-0.181825	-99.555212
6.350000	-0.285934	-160.824699	-43.000765	36.233184	-43.000765	36.233184	-0.184522	-100.254338
6.400000	-0.289938	-162.014668	-42.851564	34.672843	-42.851564	34.672843	-0.187256	-100.952282
6.450000	-0.293994	-163.207622	-42.704143	33.116270	-42.704143	33.116270	-0.190028	-101.649063
6.500000	-0.298103	-164.403784	-42.558447	31.563677	-42.558447	31.563677	-0.192838	-102.344697
6.550000	-0.302268	-165.603397	-42.414418	30.015299	-42.414418	30.015299	-0.195687	-103.039204
6.600000	-0.306492	-166.806720	-42.271992	28.471399	-42.271992	28.471399	-0.198575	-103.732600
6.650000	-0.310778	-168.014035	-42.131104	26.932268	-42.131104	26.932268	-0.201503	-104.424905
6.700000	-0.315137	-169.226192	-41.991585	25.398875	-41.991585	25.398875	-0.204476	-105.116016
6.750000	-0.319554	-170.442042	-41.853622	23.869840	-41.853622	23.869840	-0.207481	-105.806292
6.800000	-0.324045	-171.662813	-41.716972	22.346594	-41.716972	22.346594	-0.210527	-106.495523
6.850000	-0.328642	-172.890351	-41.581297	20.831289	-41.581297	20.831289	-0.213624	-107.183501
6.900000	-0.333320	-174.123013	-41.446846	19.321999	-41.446846	19.321999	-0.216756	-107.870636
6.950000	-0.338080	-175.360742	-41.313600	17.818661	-41.313600	17.818661	-0.219923	-108.556974
7.000000	-0.342982	-176.606940	-41.180934	16.325290	-41.180934	16.325290	-0.223142	-109.242146
7.050000	-0.348011	-177.860307	-41.049026	14.840379	-41.049026	14.840379	-0.226400	-109.926451
7.100000	-0.353215	-179.123108	-40.917416	13.366633	-40.917416	13.366633	-0.229706	-110.609748
7.150000	-0.358591	179.605421	-40.786181	11.903171	-40.786181	11.903171	-0.233052	-111.292233
7.200000	-0.364215	178.322343	-40.654688	10.453492	-40.654688	10.453492	-0.236446	-111.973773
7.250000	-0.370102	177.027767	-40.522872	9.017457	-40.522872	9.017457	-0.239882	-112.654507
7.300000	-0.376347	175.718950	-40.390064	7.598261	-40.390064	7.598261	-0.243364	-113.334389
7.350000	-0.383035	174.394001	-40.255740	6.198006	-40.255740	6.198006	-0.246893	-114.013457
7.400000	-0.390275	173.050855	-40.119292	4.818856	-40.119292	4.818856	-0.250465	-114.691762
7.450000	-0.398317	171.683915	-39.979221	3.466774	-39.979221	3.466774	-0.254087	-115.369250
7.500000	-0.407279	170.292482	-39.835173	2.141803	-39.835173	2.141803	-0.257752	-116.046056
7.550000	-0.417834	168.863555	-39.683459	0.856598	-39.683459	0.856598	-0.261471	-116.722043
7.600000	-0.430244	167.396241	-39.523553	-0.390222	-39.523553	-0.390222	-0.265233	-117.397383
7.650000	-0.445694	165.873714	-39.350236	-1.586101	-39.350236	-1.586101	-0.269044	-118.072005
7.700000	-0.465825	164.278149	-39.157556	-2.722599	-39.157556	-2.722599	-0.272906	-118.745927
7.750000	-0.493484	162.583384	-38.936396	-3.793041	-38.936396	-3.793041	-0.276818	-119.419160
7.800000	-0.533867	160.749795	-38.672349	-4.798155	-38.672349	-4.798155	-0.280778	-120.091698
7.850000	-0.598673	158.705404	-38.337465	-5.764351	-38.337465	-5.764351	-0.284786	-120.763478
7.900000	-0.713269	156.346604	-37.886488	-6.813920	-37.886488	-6.813920	-0.288832	-121.434414
7.950000	-0.942119	153.543251	-37.242265	-8.368236	-37.242265	-8.368236	-0.292884	-122.104326
8.000000	-1.473065	150.458392	-36.305597	-11.877310	-36.305597	-11.877310	-0.296830	-122.773007
8.050000	-2.663589	150.412075	-35.289083	-21.087952	-35.289083	-21.087952	-0.300395	-123.441684
8.100000	-3.145362	161.250491	-35.591792	-36.057102	-35.591792	-36.057102	-0.303877	-124.115184
8.150000	-1.889547	165.073373	-37.248556	-42.756431	-37.248556	-42.756431	-0.308254	-124.789669
8.200000	-1.175612	162.563574	-38.372988	-41.627440	-38.372988	-41.627440	-0.312922	-125.460699
8.250000	-0.871544	159.720745	-38.836436	-39.461253	-38.836436	-39.461253	-0.317546	-126.129961
8.300000	-0.726549	157.260948	-38.985688	-38.060803	-38.985688	-38.060803	-0.322136	-126.798480
8.350000	-0.649840	155.118438	-39.000948	-37.451215	-39.000948	-37.451215	-0.326726	-127.466578
8.400000	-0.605456	153.186643	-38.960029	-37.402891	-38.960029	-37.402891	-0.331336	-128.134379
8.450000	-0.578798	151.399677	-38.894059	-37.749563	-38.894059	-37.749563	-0.335980	-128.801929
8.500000	-0.561740	149.704890	-38.818141	-38.350174	-38.818141	-38.350174	-0.340662	-129.469282
8.550000	-0.550903	148.077254	-38.738196	-39.137192	-38.738196	-39.137192	-0.345386	-130.136461
8.600000	-0.544100	146.497386	-38.657433	-40.058294	-38.657433	-40.058294	-0.350157	-130.803495
8.650000	-0.540024	144.952044	-38.577447	-41.078026	-38.577447	-41.078026	-0.354975	-131.470412
8.700000	-0.537854	143.431918	-38.499032	-42.171738	-38.499032	-42.171738	-0.359843	-132.137243
8.750000	-0.537056	141.930293	-38.422574	-43.321860	-38.422574	-43.321860	-0.364760	-132.804015
8.800000	-0.537295	140.442538	-38.348301	-44.516710	-38.348301	-44.516710	-0.369730	-133.470760
8.850000	-0.538279	138.964389	-38.276225	-45.745091	-38.276225	-45.745091	-0.374750	-134.137508
8.900000	-0.539834	137.493045	-38.206346	-46.999920	-38.206346	-46.999920	-0.379823	-134.804292
8.950000	-0.541832	136.026313	-38.138633	-48.275693	-38.138633	-48.275693	-0.384947	-135.471143
9.000000	-0.544176	134.562455	-38.073043	-49.568066	-38.073043	-49.568066	-0.390124	-136.138092
9.050000	-0.546793	133.100072	-38.009525	-50.873563	-38.009525	-50.873563	-0.395354	-136.805171
9.100000	-0.549625	131.638031	-37.948029	-52.189366	-37.948029	-52.189366	-0.400636	-137.472414
9.150000	-0.552627	130.175406	-37.888504	-53.513162	-37.888504	-53.513162	-0.405972	-138.139853
9.200000	-0.555763	128.711430	-37.830902	-54.843030	-37.830902	-54.843030	-0.411361	-138.807522
9.250000	-0.559005	127.245469	-37.775177	-56.177357	-37.775177	-56.177357	-0.416803	-139.475455
9.300000	-0.562327	125.776992	-37.721286	-57.514777	-37.721286	-57.514777	-0.422299	-140.143687
9.350000	-0.565711	124.305557	-37.669190	-58.854118	-37.669190	-58.854118	-0.427848	-140.812252
9.400000	-0.569141	122.830791	-37.618850	-60.194371	-37.618850	-60.194371	-0.433452	-141.481187
9.450000	-0.572601	121.352381	-37.570232	-61.534653	-37.570232	-61.534653	-0.439109	-142.150526
9.500000	-0.576080	119.870067	-37.523303	-62.874193	-37.523303	-62.874193	-0.444820	-142.820306
9.550000	-0.579567	118.383629	-37.478030	-64.212304	-37.478030	-64.212304	-0.450585	-143.490564
9.600000	-0.583055	116.892888	-37.434385	-65.548377	-37.434385	-65.548377	-0.456404	-144.161337
9.650000	-0.586534	115.397695	-37.392338	-66.881865	-37.392338	-66.881865	-0.462277	-144.832663
9.700000	-0.589999	113.897932	-37.351863	-68.212273	-37.351863	-68.212273	-0.468204	-145.504580
9.750000	-0.593442	112.393503	-37.312933	-69.539154	-37.312933	-69.539154	-0.474185	-146.177127
9.800000	-0.596859	110.884340	-37.275523	-70.862097	-37.275523	-70.862097	-0.480220	-146.850343
9.850000	-0.600244	109.370393	-37.239607	-72.180729	-37.239607	-72.180729	-0.486310	-147.524268
9.900000	-0.603593	107.851630	-37.205162	-73.494704	-37.205162	-73.494704	-0.492453	-148.198943
9.950000	-0.606903	106.328040	-37.172163	-74.803702	-37.172163	-74.803702	-0.498650	-148.874407
10.000000	-0.610170	104.799627	-37.140587	-76.107429	-37.140587	-76.107429	-0.504901	-149.550703
