! freq	dB(S11)	phase(S11)	dB(S12)	phase(S12)	
!     	dB(S21)	phase(S21)	dB(S22)	phase(S22)	
!S-par simulation data
#  GHz  S  DB  R 50
0.000000	-0.000000	0.000000	-355.484321	0.000000	-355.484321	0.000000	-0.000000	0.000000
0.050000	-0.001820	-1.113941	-108.012336	88.848886	-108.012336	88.848886	-0.001740	-1.114528
0.100000	-0.005143	-2.244798	-102.035756	87.707953	-102.035756	87.707953	-0.004985	-2.245100
0.150000	-0.007861	-3.386824	-98.588436	86.587801	-98.588436	86.587801	-0.007705	-3.386742
0.200000	-0.009800	-4.532067	-96.193154	85.498405	-96.193154	85.498405	-0.009674	-4.531802
0.250000	-0.011222	-5.677313	-94.393554	84.453727	-94.393554	84.453727	-0.011126	-5.677019
0.300000	-0.012406	-6.821581	-92.976662	83.461728	-92.976662	83.461728	-0.012334	-6.821324
0.350000	-0.013464	-7.964590	-91.837424	82.537497	-91.837424	82.537497	-0.013412	-7.964402
0.400000	-0.014476	-9.106263	-90.911910	81.696530	-90.911910	81.696530	-0.014437	-9.106156
0.450000	-0.015484	-10.246581	-90.159840	80.957204	-90.159840	80.957204	-0.015456	-10.246558
0.500000	-0.016512	-11.385525	-89.554749	80.341866	-89.554749	80.341866	-0.016492	-11.385583
0.550000	-0.017573	-12.523071	-89.078881	79.878283	-89.078881	79.878283	-0.017559	-12.523206
0.600000	-0.018672	-13.659183	-88.720309	79.601607	-88.720309	79.601607	-0.018662	-13.659390
0.650000	-0.019812	-14.793818	-88.471188	79.557079	-88.471188	79.557079	-0.019805	-14.794092
0.700000	-0.020992	-15.926930	-88.326563	79.803789	-88.326563	79.803789	-0.020988	-15.927266
0.750000	-0.022210	-17.058470	-88.283408	80.419936	-88.283408	80.419936	-0.022209	-17.058863
0.800000	-0.023464	-18.188388	-88.339572	81.510094	-88.339572	81.510094	-0.023465	-18.188834
0.850000	-0.024751	-19.316634	-88.492254	83.214916	-88.492254	83.214916	-0.024753	-19.317129
0.900000	-0.026068	-20.443158	-88.735382	85.722867	-88.735382	85.722867	-0.026070	-20.443699
0.950000	-0.027409	-21.567914	-89.054910	89.280844	-89.054910	89.280844	-0.027413	-21.568498
1.000000	-0.028773	-22.690855	-89.420649	94.192928	-89.420649	94.192928	-0.028777	-22.691479
1.050000	-0.030156	-23.811937	-89.773922	100.780692	-89.773922	100.780692	-0.030161	-23.812598
1.100000	-0.031554	-24.931118	-90.014922	109.258750	-90.014922	109.258750	-0.031559	-24.931814
1.150000	-0.032965	-26.048356	-90.005871	119.493760	-90.005871	119.493760	-0.032970	-26.049086
1.200000	-0.034386	-27.163613	-89.616121	130.754123	-89.616121	130.754123	-0.034391	-27.164375
1.250000	-0.035814	-28.276850	-88.802055	141.799390	-88.802055	141.799390	-0.035819	-28.277643
1.300000	-0.037248	-29.387940	-87.624831	151.391592	-87.624831	151.391592	-0.037252	-29.388764
1.350000	-0.038684	-30.496937	-86.250036	159.074352	-86.250036	159.074352	-0.038689	-30.497791
1.400000	-0.040122	-31.603807	-84.802104	164.911481	-84.802104	164.911481	-0.040126	-31.604690
1.450000	-0.041560	-32.708516	-83.359873	169.196230	-83.359873	169.196230	-0.041564	-32.709429
1.500000	-0.042996	-33.811033	-81.964470	172.255647	-81.964470	172.255647	-0.043000	-33.811976
1.550000	-0.044431	-34.911328	-80.633620	174.372069	-80.633620	174.372069	-0.044434	-34.912300
1.600000	-0.045862	-36.009370	-79.372425	175.766608	-79.372425	175.766608	-0.045866	-36.010372
1.650000	-0.047290	-37.105129	-78.179777	176.605781	-78.179777	176.605781	-0.047293	-37.106163
1.700000	-0.048714	-38.198579	-77.051806	177.013456	-77.051806	177.013456	-0.048717	-38.199643
1.750000	-0.050133	-39.289689	-75.983637	177.081870	-75.983637	177.081870	-0.050136	-39.290786
1.800000	-0.051548	-40.378434	-74.970240	176.880226	-74.970240	176.880226	-0.051551	-40.379564
1.850000	-0.052959	-41.464786	-74.006821	176.461001	-74.006821	176.461001	-0.052962	-41.465951
1.900000	-0.054366	-42.548720	-73.088981	175.864466	-73.088981	175.864466	-0.054369	-42.549920
1.950000	-0.055769	-43.630211	-72.212758	175.121901	-72.212758	175.121901	-0.055771	-43.631447
2.000000	-0.057168	-44.709234	-71.374618	174.257893	-71.374618	174.257893	-0.057170	-44.710507
2.050000	-0.058563	-45.785765	-70.571422	173.291993	-70.571422	173.291993	-0.058566	-45.787076
2.100000	-0.059956	-46.859781	-69.800384	172.239908	-69.800384	172.239908	-0.059959	-46.861131
2.150000	-0.061347	-47.931260	-69.059030	171.114392	-69.059030	171.114392	-0.061350	-47.932651
2.200000	-0.062736	-49.000179	-68.345157	169.925892	-68.345157	169.925892	-0.062739	-49.001612
2.250000	-0.064123	-50.066520	-67.656802	168.683045	-67.656802	168.683045	-0.064126	-50.067995
2.300000	-0.065511	-51.130260	-66.992207	167.393048	-66.992207	167.393048	-0.065514	-51.131779
2.350000	-0.066898	-52.191382	-66.349793	166.061942	-66.349793	166.061942	-0.066901	-52.192946
2.400000	-0.068286	-53.249867	-65.728141	164.694838	-65.728141	164.694838	-0.068289	-53.251477
2.450000	-0.069676	-54.305697	-65.125967	163.296083	-65.125967	163.296083	-0.069679	-54.307355
2.500000	-0.071067	-55.358857	-64.542109	161.869401	-64.542109	161.869401	-0.071071	-55.360563
2.550000	-0.072462	-56.409214	-63.974658	160.417053	-63.974658	160.417053	-0.072467	-56.410969
2.600000	-0.073861	-57.456869	-63.423600	158.942976	-63.423600	158.942976	-0.073866	-57.458674
2.650000	-0.075265	-58.501809	-62.888045	157.449545	-62.888045	157.449545	-0.075269	-58.503665
2.700000	-0.076673	-59.544021	-62.367174	155.938836	-62.367174	155.938836	-0.076678	-59.545930
2.750000	-0.078088	-60.583496	-61.860238	154.412679	-61.860238	154.412679	-0.078093	-60.585457
2.800000	-0.079509	-61.620222	-61.366546	152.872687	-61.366546	152.872687	-0.079514	-61.622237
2.850000	-0.080938	-62.654190	-60.885461	151.320291	-60.885461	151.320291	-0.080943	-62.656261
2.900000	-0.082375	-63.685394	-60.416392	149.756762	-60.416392	149.756762	-0.082380	-63.687519
2.950000	-0.083820	-64.713825	-59.958794	148.183236	-59.958794	148.183236	-0.083826	-64.716007
3.000000	-0.085276	-65.739478	-59.512158	146.600729	-59.512158	146.600729	-0.085282	-65.741717
3.050000	-0.086741	-66.762348	-59.076011	145.010153	-59.076011	145.010153	-0.086748	-66.764645
3.100000	-0.088218	-67.782433	-58.649913	143.412329	-58.649913	143.412329	-0.088225	-67.784789
3.150000	-0.089706	-68.799729	-58.233452	141.808000	-58.233452	141.808000	-0.089713	-68.802144
3.200000	-0.091207	-69.814235	-57.826241	140.197837	-57.826241	140.197837	-0.091214	-69.816711
3.250000	-0.092720	-70.825952	-57.427920	138.582450	-57.427920	138.582450	-0.092728	-70.828488
3.300000	-0.094248	-71.834880	-57.038150	136.962392	-57.038150	136.962392	-0.094255	-71.837478
3.350000	-0.095789	-72.841022	-56.656610	135.338170	-56.656610	135.338170	-0.095797	-72.843681
3.400000	-0.097346	-73.844381	-56.283001	133.710245	-56.283001	133.710245	-0.097354	-73.847103
3.450000	-0.098917	-74.844960	-55.917039	132.079040	-55.917039	132.079040	-0.098926	-74.847746
3.500000	-0.100506	-75.842767	-55.558457	130.444942	-55.558457	130.444942	-0.100514	-75.845616
3.550000	-0.102110	-76.837807	-55.207002	128.808309	-55.207002	128.808309	-0.102120	-76.840720
3.600000	-0.103733	-77.830088	-54.862434	127.169469	-54.862434	127.169469	-0.103742	-77.833066
3.650000	-0.105373	-78.819619	-54.524528	125.528723	-54.524528	125.528723	-0.105382	-78.822663
3.700000	-0.107031	-79.806410	-54.193067	123.886353	-54.193067	123.886353	-0.107041	-79.809520
3.750000	-0.108709	-80.790471	-53.867847	122.242616	-53.867847	122.242616	-0.108719	-80.793648
3.800000	-0.110407	-81.771698	-53.548429	120.597714	-53.548429	120.597714	-0.110418	-81.774942
3.850000	-0.112126	-82.750222	-53.234894	118.951927	-53.234894	118.951927	-0.112136	-82.753534
3.900000	-0.113865	-83.726058	-52.927064	117.305459	-52.927064	117.305459	-0.113876	-83.729438
3.950000	-0.115625	-84.699220	-52.624772	115.658501	-52.624772	115.658501	-0.115636	-84.702669
4.000000	-0.117408	-85.669726	-52.327854	114.011232	-52.327854	114.011232	-0.117419	-85.673244
4.050000	-0.119212	-86.637591	-52.036157	112.363816	-52.036157	112.363816	-0.119224	-86.641179
4.100000	-0.121040	-87.602836	-51.749534	110.716410	-51.749534	110.716410	-0.121051	-87.606494
4.150000	-0.122891	-88.565478	-51.467844	109.069158	-51.467844	109.069158	-0.122902	-88.569207
4.200000	-0.124766	-89.525538	-51.190952	107.422196	-51.190952	107.422196	-0.124777	-89.529339
4.250000	-0.126665	-90.483037	-50.918729	105.775652	-50.918729	105.775652	-0.126677	-90.486910
4.300000	-0.128589	-91.437997	-50.651051	104.129645	-50.651051	104.129645	-0.128601	-91.441943
4.350000	-0.130538	-92.390441	-50.387799	102.484286	-50.387799	102.484286	-0.130550	-92.394461
4.400000	-0.132513	-93.340393	-50.128860	100.839683	-50.128860	100.839683	-0.132526	-93.344487
4.450000	-0.134514	-94.287878	-49.874124	99.195933	-49.874124	99.195933	-0.134527	-94.292046
4.500000	-0.136542	-95.232920	-49.623486	97.553130	-49.623486	97.553130	-0.136555	-95.237164
4.550000	-0.138598	-96.175547	-49.376844	95.911362	-49.376844	95.911362	-0.138611	-96.179867
4.600000	-0.140680	-97.115786	-49.134102	94.270711	-49.134102	94.270711	-0.140694	-97.120183
4.650000	-0.142791	-98.053665	-48.895166	92.631257	-48.895166	92.631257	-0.142805	-98.058139
4.700000	-0.144931	-98.989212	-48.659945	90.993071	-48.659945	90.993071	-0.144945	-98.993764
4.750000	-0.147100	-99.922458	-48.428352	89.356224	-48.428352	89.356224	-0.147114	-99.927088
4.800000	-0.149298	-100.853432	-48.200304	87.720780	-48.200304	87.720780	-0.149312	-100.858142
4.850000	-0.151525	-101.782165	-47.975720	86.086803	-47.975720	86.086803	-0.151540	-101.786956
4.900000	-0.153784	-102.708691	-47.754521	84.454349	-47.754521	84.454349	-0.153798	-102.713562
4.950000	-0.156073	-103.633041	-47.536632	82.823474	-47.536632	82.823474	-0.156087	-103.637994
5.000000	-0.158393	-104.555248	-47.321981	81.194230	-47.321981	81.194230	-0.158408	-104.560284
5.050000	-0.160746	-105.475257	-47.110410	79.566741	-47.110410	79.566741	-0.160761	-105.480377
5.100000	-0.163131	-106.393196	-46.901945	77.940982	-46.901945	77.940982	-0.163146	-106.398399
5.150000	-0.165548	-107.309100	-46.696520	76.316996	-46.696520	76.316996	-0.165564	-107.314388
5.200000	-0.167998	-108.223005	-46.494070	74.694823	-46.494070	74.694823	-0.168014	-108.228379
5.250000	-0.170482	-109.134947	-46.294533	73.074502	-46.294533	73.074502	-0.170498	-109.140409
5.300000	-0.172999	-110.044966	-46.097850	71.456070	-46.097850	71.456070	-0.173016	-110.050515
5.350000	-0.175550	-110.953097	-45.903962	69.839559	-45.903962	69.839559	-0.175567	-110.958735
5.400000	-0.178136	-111.859381	-45.712812	68.225002	-45.712812	68.225002	-0.178153	-111.865109
5.450000	-0.180757	-112.763856	-45.524347	66.612429	-45.524347	66.612429	-0.180774	-112.769674
5.500000	-0.183412	-113.666562	-45.338513	65.001867	-45.338513	65.001867	-0.183430	-113.672472
5.550000	-0.186104	-114.567539	-45.155258	63.393343	-45.155258	63.393343	-0.186122	-114.573542
5.600000	-0.188831	-115.466829	-44.974534	61.786882	-44.974534	61.786882	-0.188850	-115.472926
5.650000	-0.191595	-116.364473	-44.796292	60.182506	-44.796292	60.182506	-0.191614	-116.370665
5.700000	-0.194396	-117.260513	-44.620484	58.580236	-44.620484	58.580236	-0.194415	-117.266800
5.750000	-0.197234	-118.154991	-44.447067	56.980093	-44.447067	56.980093	-0.197253	-118.161376
5.800000	-0.200109	-119.047951	-44.275995	55.382095	-44.275995	55.382095	-0.200129	-119.054434
5.850000	-0.203029	-119.939192	-44.107060	53.786638	-44.107060	53.786638	-0.203049	-119.945775
5.900000	-0.205989	-120.828943	-43.940352	52.193455	-43.940352	52.193455	-0.206009	-120.835626
5.950000	-0.208969	-121.717988	-43.776320	50.601420	-43.776320	50.601420	-0.208990	-121.724773
6.000000	-0.212010	-122.604919	-43.613960	49.012831	-43.613960	49.012831	-0.212031	-122.611807
6.050000	-0.215065	-123.491412	-43.454300	47.425017	-43.454300	47.425017	-0.215086	-123.498404
6.100000	-0.218189	-124.375723	-43.296150	45.841074	-43.296150	45.841074	-0.218210	-124.382820
6.150000	-0.221320	-125.259831	-43.140703	44.257522	-43.140703	44.257522	-0.221342	-125.267035
6.200000	-0.224528	-126.141725	-42.986632	42.678267	-42.986632	42.678267	-0.224550	-126.149038
6.250000	-0.227737	-127.023619	-42.835247	41.099011	-42.835247	41.099011	-0.227759	-127.031040
6.300000	-0.231030	-127.903304	-42.685132	39.524476	-42.685132	39.524476	-0.231053	-127.910837
6.350000	-0.234325	-128.782989	-42.537568	37.949940	-42.537568	37.949940	-0.234348	-128.790633
6.400000	-0.237699	-129.660844	-42.391393	36.379755	-42.391393	36.379755	-0.237722	-129.668603
6.450000	-0.241080	-130.538533	-42.247540	34.809964	-42.247540	34.809964	-0.241104	-130.546406
6.500000	-0.244535	-131.414738	-42.105170	33.244143	-42.105170	33.244143	-0.244559	-131.422727
6.550000	-0.248006	-132.290647	-41.964926	31.679116	-41.964926	31.679116	-0.248030	-132.298753
6.600000	-0.251543	-133.165384	-41.826235	30.117671	-41.826235	30.117671	-0.251568	-133.173610
6.650000	-0.255103	-134.039732	-41.689502	28.557420	-41.689502	28.557420	-0.255129	-134.048078
6.700000	-0.258724	-134.913188	-41.554373	27.000358	-41.554373	27.000358	-0.258750	-134.921656
6.750000	-0.262376	-135.786198	-41.421060	25.444891	-41.421060	25.444891	-0.262402	-135.794790
6.800000	-0.266081	-136.658561	-41.289382	23.892216	-41.289382	23.892216	-0.266108	-136.667277
6.850000	-0.269825	-137.530461	-41.159402	22.341537	-41.159402	22.341537	-0.269853	-137.539304
6.900000	-0.273617	-138.401922	-41.031071	20.793252	-41.031071	20.793252	-0.273644	-138.410892
6.950000	-0.277455	-139.272943	-40.904344	19.247362	-40.904344	19.247362	-0.277483	-139.282043
7.000000	-0.281333	-140.143695	-40.779262	17.703466	-40.779262	17.703466	-0.281361	-140.152926
7.050000	-0.285266	-141.014071	-40.655712	16.162365	-40.655712	16.162365	-0.285295	-141.023434
7.100000	-0.289232	-141.884311	-40.533789	14.622858	-40.533789	14.622858	-0.289261	-141.893809
7.150000	-0.293261	-142.754280	-40.413345	13.086543	-40.413345	13.086543	-0.293291	-142.763913
7.200000	-0.297315	-143.624208	-40.294495	11.551425	-40.294495	11.551425	-0.297345	-143.633978
7.250000	-0.301442	-144.494011	-40.177091	10.019896	-40.177091	10.019896	-0.301472	-144.503920
7.300000	-0.305586	-145.363828	-40.061234	8.489164	-40.061234	8.489164	-0.305617	-145.373876
7.350000	-0.309810	-146.233710	-39.946809	6.962420	-39.946809	6.962420	-0.309842	-146.243901
7.400000	-0.314045	-147.103620	-39.833870	5.436076	-39.833870	5.436076	-0.314077	-147.113953
7.450000	-0.318368	-147.973830	-39.722366	3.914120	-39.722366	3.914120	-0.318401	-147.984308
7.500000	-0.322694	-148.844039	-39.612275	2.392163	-39.612275	2.392163	-0.322727	-148.854663
7.550000	-0.327093	-149.714652	-39.503608	0.873801	-39.503608	0.873801	-0.327127	-149.725423
7.600000	-0.331541	-150.585602	-39.396343	-0.642263	-39.396343	-0.642263	-0.331575	-150.596522
7.650000	-0.336037	-151.456949	-39.290467	-2.156027	-39.290467	-2.156027	-0.336071	-151.468020
7.700000	-0.340581	-152.328752	-39.185965	-3.667487	-39.185965	-3.667487	-0.340616	-152.339975
7.750000	-0.345174	-153.201070	-39.082826	-5.176640	-39.082826	-5.176640	-0.345209	-153.212447
7.800000	-0.349816	-154.073963	-38.981038	-6.683481	-38.981038	-6.683481	-0.349851	-154.085495
7.850000	-0.354506	-154.947491	-38.880589	-8.188006	-38.880589	-8.188006	-0.354542	-154.959179
7.900000	-0.359245	-155.821714	-38.781468	-9.690210	-38.781468	-9.690210	-0.359282	-155.833560
7.950000	-0.364034	-156.696694	-38.683665	-11.190085	-38.683665	-11.190085	-0.364071	-156.708699
8.000000	-0.368871	-157.572491	-38.587169	-12.687624	-38.587169	-12.687624	-0.368909	-157.584656
8.050000	-0.373758	-158.449167	-38.491970	-14.182819	-38.491970	-14.182819	-0.373796	-158.461494
8.100000	-0.378694	-159.326783	-38.398059	-15.675662	-38.398059	-15.675662	-0.378732	-159.339273
8.150000	-0.383679	-160.205403	-38.305428	-17.166141	-38.305428	-17.166141	-0.383718	-160.218057
8.200000	-0.388713	-161.085088	-38.214066	-18.654247	-38.214066	-18.654247	-0.388752	-161.097908
8.250000	-0.393797	-161.965902	-38.123966	-20.139966	-38.123966	-20.139966	-0.393836	-161.978888
8.300000	-0.398930	-162.847908	-38.035121	-21.623285	-38.035121	-21.623285	-0.398970	-162.861061
8.350000	-0.404112	-163.731170	-37.947522	-23.104191	-37.947522	-23.104191	-0.404152	-163.744492
8.400000	-0.409343	-164.615751	-37.861162	-24.582668	-37.861162	-24.582668	-0.409384	-164.629242
8.450000	-0.414623	-165.501716	-37.776034	-26.058699	-37.776034	-26.058699	-0.414664	-165.515378
8.500000	-0.419953	-166.389130	-37.692131	-27.532266	-37.692131	-27.532266	-0.419994	-166.402963
8.550000	-0.425331	-167.278058	-37.609448	-29.003350	-37.609448	-29.003350	-0.425372	-167.292063
8.600000	-0.430758	-168.168565	-37.527977	-30.471930	-37.527977	-30.471930	-0.430799	-168.182743
8.650000	-0.436233	-169.060716	-37.447713	-31.937986	-37.447713	-31.937986	-0.436275	-169.075068
8.700000	-0.441757	-169.954579	-37.368649	-33.401494	-37.368649	-33.401494	-0.441799	-169.969104
8.750000	-0.447329	-170.850219	-37.290782	-34.862430	-37.290782	-34.862430	-0.447371	-170.864919
8.800000	-0.452950	-171.747786	-37.214127	-36.320653	-37.214127	-36.320653	-0.452993	-171.762661
8.850000	-0.458620	-172.647271	-37.138659	-37.776249	-37.138659	-37.776249	-0.458662	-172.662321
8.900000	-0.464337	-173.548740	-37.064373	-39.229190	-37.064373	-39.229190	-0.464379	-173.563966
8.950000	-0.470100	-174.452261	-36.991263	-40.679444	-36.991263	-40.679444	-0.470143	-174.467663
9.000000	-0.475911	-175.357903	-36.919325	-42.126982	-36.919325	-42.126982	-0.475953	-175.373480
9.050000	-0.481768	-176.265733	-36.848555	-43.571770	-36.848555	-43.571770	-0.481810	-176.281486
9.100000	-0.487670	-177.175820	-36.778949	-45.013775	-36.778949	-45.013775	-0.487712	-177.191748
9.150000	-0.493618	-178.088233	-36.710501	-46.452960	-36.710501	-46.452960	-0.493660	-178.104336
9.200000	-0.499611	-179.003040	-36.643207	-47.889291	-36.643207	-47.889291	-0.499653	-179.019319
9.250000	-0.505649	-179.920312	-36.577064	-49.322727	-36.577064	-49.322727	-0.505690	-179.936765
9.300000	-0.511730	179.159882	-36.512067	-50.753231	-36.512067	-50.753231	-0.511771	179.143256
9.350000	-0.517855	178.237472	-36.448213	-52.180762	-36.448213	-52.180762	-0.517896	178.220673
9.400000	-0.524023	177.312388	-36.385496	-53.605277	-36.385496	-53.605277	-0.524063	177.295418
9.450000	-0.530232	176.384561	-36.323914	-55.026734	-36.323914	-55.026734	-0.530272	176.367420
9.500000	-0.536483	175.453919	-36.263462	-56.445089	-36.263462	-56.445089	-0.536522	175.436610
9.550000	-0.542774	174.520392	-36.204136	-57.860295	-36.204136	-57.860295	-0.542812	174.502915
9.600000	-0.549106	173.583910	-36.145932	-59.272306	-36.145932	-59.272306	-0.549143	173.566266
9.650000	-0.555476	172.644400	-36.088846	-60.681075	-36.088846	-60.681075	-0.555512	172.626593
9.700000	-0.561885	171.701793	-36.032874	-62.086552	-36.032874	-62.086552	-0.561920	171.683823
9.750000	-0.568330	170.756017	-35.978011	-63.488688	-35.978011	-63.488688	-0.568364	170.737887
9.800000	-0.574812	169.807001	-35.924254	-64.887431	-35.924254	-64.887431	-0.574845	169.788713
9.850000	-0.581329	168.854673	-35.871598	-66.282730	-35.871598	-66.282730	-0.581360	168.836231
9.900000	-0.587881	167.898962	-35.820038	-67.674533	-35.820038	-67.674533	-0.587910	167.880368
9.950000	-0.594465	166.939797	-35.769571	-69.062785	-35.769571	-69.062785	-0.594493	166.921054
10.000000	-0.601081	165.977107	-35.720191	-70.447432	-35.720191	-70.447432	-0.601107	165.958218
