! freq	dB(S11)	phase(S11)	dB(S12)	phase(S12)	
!     	dB(S21)	phase(S21)	dB(S22)	phase(S22)	
!S-par simulation data
#  GHz  S  DB  R 50
0.000000	0.000000	0.000000	-320.829757	180.000000	-320.829757	180.000000	-0.000000	0.000000
0.050000	-0.000133	-0.761495	-88.272111	-170.945190	-88.272111	-170.945190	-0.000161	-1.638051
0.100000	-0.000506	-1.523362	-87.707021	170.501854	-87.707021	170.501854	-0.000638	-3.275679
0.150000	-0.001068	-2.285792	-87.318224	158.524954	-87.318224	158.524954	-0.001426	-4.912462
0.200000	-0.001756	-3.048729	-86.899456	148.802682	-86.899456	148.802682	-0.002499	-6.548035
0.250000	-0.002527	-3.811988	-86.453948	140.497706	-86.453948	140.497706	-0.003841	-8.182030
0.300000	-0.003353	-4.575331	-86.003451	133.274620	-86.003451	133.274620	-0.005426	-9.814119
0.350000	-0.004220	-5.338536	-85.568310	126.943624	-85.568310	126.943624	-0.007226	-11.444012
0.400000	-0.005123	-6.101420	-85.164130	121.368964	-85.164130	121.368964	-0.009213	-13.071455
0.450000	-0.006060	-6.863787	-84.805489	116.501867	-84.805489	116.501867	-0.011368	-14.695954
0.500000	-0.007024	-7.625628	-84.494662	112.146404	-84.494662	112.146404	-0.013637	-16.317832
0.550000	-0.008016	-8.386827	-84.239007	108.298949	-84.239007	108.298949	-0.016004	-17.936708
0.600000	-0.009033	-9.147329	-84.042448	104.915969	-84.042448	104.915969	-0.018446	-19.552459
0.650000	-0.010071	-9.907193	-83.899749	101.915421	-83.899749	101.915421	-0.020935	-21.165415
0.700000	-0.011131	-10.666183	-83.830568	99.401159	-83.830568	99.401159	-0.023461	-22.774600
0.750000	-0.012208	-11.424383	-83.829133	97.318424	-83.829133	97.318424	-0.026000	-24.380402
0.800000	-0.013297	-12.181777	-83.898026	95.692233	-83.898026	95.692233	-0.028537	-25.982761
0.850000	-0.014395	-12.938284	-84.045880	94.620383	-84.045880	94.620383	-0.031058	-27.581316
0.900000	-0.015499	-13.694048	-84.261310	94.076078	-84.261310	94.076078	-0.033559	-29.176671
0.950000	-0.016606	-14.448986	-84.551859	94.215409	-84.551859	94.215409	-0.036030	-30.768439
1.000000	-0.017714	-15.203092	-84.914799	95.187008	-84.914799	95.187008	-0.038465	-32.356573
1.050000	-0.018820	-15.956366	-85.340665	97.190306	-85.340665	97.190306	-0.040861	-33.941030
1.100000	-0.019922	-16.708805	-85.807153	100.476706	-85.807153	100.476706	-0.043215	-35.521762
1.150000	-0.021020	-17.460408	-86.269618	105.326021	-86.269618	105.326021	-0.045527	-37.098723
1.200000	-0.022111	-18.211173	-86.649945	111.964523	-86.649945	111.964523	-0.047796	-38.671865
1.250000	-0.023194	-18.961098	-86.833459	120.385951	-86.833459	120.385951	-0.050021	-40.241139
1.300000	-0.024270	-19.710143	-86.676488	130.118085	-86.676488	130.118085	-0.052204	-41.806320
1.350000	-0.025337	-20.458342	-86.123198	140.040675	-86.123198	140.040675	-0.054346	-43.367527
1.400000	-0.026395	-21.205689	-85.213818	149.067016	-85.213818	149.067016	-0.056451	-44.924708
1.450000	-0.027444	-21.952180	-84.062320	156.543125	-84.062320	156.543125	-0.058519	-46.477814
1.500000	-0.028484	-22.697809	-82.789725	162.324405	-82.789725	162.324405	-0.060554	-48.026793
1.550000	-0.029516	-23.442569	-81.485150	166.577435	-81.485150	166.577435	-0.062558	-49.571596
1.600000	-0.030539	-24.186451	-80.201522	169.577191	-80.201522	169.577191	-0.064533	-51.112177
1.650000	-0.031555	-24.929449	-78.965538	171.594472	-78.965538	171.594472	-0.066482	-52.648490
1.700000	-0.032564	-25.671552	-77.788194	172.855175	-77.788194	172.855175	-0.068407	-54.180491
1.750000	-0.033566	-26.412751	-76.672028	173.535085	-76.672028	173.535085	-0.070310	-55.708140
1.800000	-0.034561	-27.153036	-75.615384	173.767168	-75.615384	173.767168	-0.072195	-57.231399
1.850000	-0.035551	-27.892395	-74.614727	173.651170	-74.614727	173.651170	-0.074062	-58.750232
1.900000	-0.036536	-28.630817	-73.665844	173.262043	-73.665844	173.262043	-0.075915	-60.264608
1.950000	-0.037517	-29.368290	-72.764445	172.656494	-72.764445	172.656494	-0.077755	-61.774500
2.000000	-0.038494	-30.104803	-71.906448	171.877813	-71.906448	171.877813	-0.079584	-63.279881
2.050000	-0.039468	-30.840343	-71.088092	170.959383	-71.088092	170.959383	-0.081404	-64.780733
2.100000	-0.040440	-31.574897	-70.305975	169.927208	-70.305975	169.927208	-0.083217	-66.277036
2.150000	-0.041410	-32.308452	-69.557047	168.801739	-69.557047	168.801739	-0.085024	-67.768780
2.200000	-0.042379	-33.040995	-68.838585	167.599210	-68.838585	167.599210	-0.086828	-69.255955
2.250000	-0.043348	-33.772513	-68.148159	166.332621	-68.148159	166.332621	-0.088630	-70.738555
2.300000	-0.044317	-34.502994	-67.483605	165.012462	-67.483605	165.012462	-0.090431	-72.216582
2.350000	-0.045287	-35.232423	-66.842988	163.647259	-66.842988	163.647259	-0.092233	-73.690037
2.400000	-0.046258	-35.960787	-66.224579	162.243991	-66.224579	162.243991	-0.094036	-75.158930
2.450000	-0.047231	-36.688075	-65.626826	160.808401	-65.626826	160.808401	-0.095843	-76.623271
2.500000	-0.048207	-37.414271	-65.048334	159.345244	-65.048334	159.345244	-0.097654	-78.083078
2.550000	-0.049186	-38.139316	-64.487055	157.857603	-64.487055	157.857603	-0.099471	-79.538175
2.600000	-0.050169	-38.863244	-63.942731	156.349902	-63.942731	156.349902	-0.101295	-80.988784
2.650000	-0.051156	-39.586041	-63.414324	154.824853	-63.414324	154.824853	-0.103127	-82.434934
2.700000	-0.052148	-40.307697	-62.900889	153.284745	-62.900889	153.284745	-0.104968	-83.876659
2.750000	-0.053145	-41.028198	-62.401567	151.731519	-62.401567	151.731519	-0.106818	-85.313996
2.800000	-0.054147	-41.747533	-61.915577	150.166818	-61.915577	150.166818	-0.108680	-86.746985
2.850000	-0.055156	-42.465691	-61.442202	148.592047	-61.442202	148.592047	-0.110553	-88.175672
2.900000	-0.056171	-43.182659	-60.980787	147.008402	-60.980787	147.008402	-0.112438	-89.600105
2.950000	-0.057194	-43.898426	-60.530732	145.416908	-60.530732	145.416908	-0.114338	-91.020337
3.000000	-0.058223	-44.612982	-60.091483	143.818445	-60.091483	143.818445	-0.116251	-92.436423
3.050000	-0.059260	-45.326317	-59.662530	142.213771	-59.662530	142.213771	-0.118180	-93.848423
3.100000	-0.060306	-46.038419	-59.243406	140.603539	-59.243406	140.603539	-0.120124	-95.256401
3.150000	-0.061360	-46.749279	-58.833674	138.988315	-58.833674	138.988315	-0.122085	-96.660423
3.200000	-0.062423	-47.458887	-58.432933	137.368591	-58.432933	137.368591	-0.124064	-98.060560
3.250000	-0.063496	-48.167234	-58.040811	135.744795	-58.040811	135.744795	-0.126061	-99.456884
3.300000	-0.064578	-48.874311	-57.656961	134.117302	-57.656961	134.117302	-0.128077	-100.849472
3.350000	-0.065671	-49.580110	-57.281061	132.486443	-57.281061	132.486443	-0.130112	-102.238404
3.400000	-0.066773	-50.284621	-56.912811	130.852508	-56.912811	130.852508	-0.132168	-103.623763
3.450000	-0.067887	-50.987837	-56.551934	129.215758	-56.551934	129.215758	-0.134246	-105.005635
3.500000	-0.069012	-51.689750	-56.198166	127.576425	-56.198166	127.576425	-0.136344	-106.384109
3.550000	-0.070148	-52.390353	-55.851265	125.934719	-55.851265	125.934719	-0.138466	-107.759276
3.600000	-0.071297	-53.089640	-55.511001	124.290831	-55.511001	124.290831	-0.140611	-109.131230
3.650000	-0.072457	-53.787602	-55.177162	122.644936	-55.177162	122.644936	-0.142779	-110.500070
3.700000	-0.073630	-54.484234	-54.849545	120.997197	-54.849545	120.997197	-0.144972	-111.865894
3.750000	-0.074816	-55.179531	-54.527962	119.347767	-54.527962	119.347767	-0.147190	-113.228807
3.800000	-0.076016	-55.873427	-54.211993	117.696727	-54.211993	117.696727	-0.149436	-114.588794
3.850000	-0.077230	-56.565976	-53.901733	116.044286	-53.901733	116.044286	-0.151707	-115.946092
3.900000	-0.078457	-57.257173	-53.597024	114.390576	-53.597024	114.390576	-0.154006	-117.300811
3.950000	-0.079699	-57.947013	-53.297713	112.735724	-53.297713	112.735724	-0.156333	-118.653063
4.000000	-0.080955	-58.635492	-53.003659	111.079852	-53.003659	111.079852	-0.158688	-120.002963
4.050000	-0.082227	-59.322607	-52.714727	109.423082	-52.714727	109.423082	-0.161073	-121.350628
4.100000	-0.083514	-60.008354	-52.430787	107.765533	-52.430787	107.765533	-0.163487	-122.696178
4.150000	-0.084816	-60.692729	-52.151718	106.107325	-52.151718	106.107325	-0.165931	-124.039734
4.200000	-0.086135	-61.375730	-51.877403	104.448575	-51.877403	104.448575	-0.168406	-125.381420
4.250000	-0.087470	-62.057354	-51.607731	102.789400	-51.607731	102.789400	-0.170912	-126.721362
4.300000	-0.088821	-62.737599	-51.342595	101.129916	-51.342595	101.129916	-0.173451	-128.059687
4.350000	-0.090190	-63.416463	-51.081895	99.470241	-51.081895	99.470241	-0.176022	-129.396525
4.400000	-0.091576	-64.093946	-50.825532	97.810490	-50.825532	97.810490	-0.178626	-130.732008
4.450000	-0.092981	-64.770044	-50.573413	96.150779	-50.573413	96.150779	-0.181263	-132.066268
4.500000	-0.094403	-65.444758	-50.325447	94.491223	-50.325447	94.491223	-0.183935	-133.399441
4.550000	-0.095844	-66.118088	-50.081548	92.831938	-50.081548	92.831938	-0.186642	-134.731665
4.600000	-0.097303	-66.790031	-49.841633	91.173037	-49.841633	91.173037	-0.189383	-136.063077
4.650000	-0.098782	-67.460590	-49.605620	89.514634	-49.605620	89.514634	-0.192161	-137.393819
4.700000	-0.100281	-68.129764	-49.373431	87.856840	-49.373431	87.856840	-0.194974	-138.724032
4.750000	-0.101799	-68.797553	-49.144990	86.199765	-49.144990	86.199765	-0.197824	-140.053861
4.800000	-0.103338	-69.463959	-48.920223	84.543518	-48.920223	84.543518	-0.200710	-141.383452
4.850000	-0.104898	-70.128982	-48.699060	82.888206	-48.699060	82.888206	-0.203634	-142.712951
4.900000	-0.106479	-70.792626	-48.481431	81.233933	-48.481431	81.233933	-0.206596	-144.042506
4.950000	-0.108081	-71.454890	-48.267268	79.580801	-48.267268	79.580801	-0.209596	-145.372270
5.000000	-0.109705	-72.115777	-48.056505	77.928907	-48.056505	77.928907	-0.212635	-146.702392
5.050000	-0.111353	-72.775231	-47.849010	76.278411	-47.849010	76.278411	-0.215713	-148.033057
5.100000	-0.113023	-73.433312	-47.644797	74.629351	-47.644797	74.629351	-0.218831	-149.364403
5.150000	-0.114716	-74.090026	-47.443806	72.981813	-47.443806	72.981813	-0.221988	-150.696588
5.200000	-0.116433	-74.745374	-47.245976	71.335884	-47.245976	71.335884	-0.225185	-152.029769
5.250000	-0.118173	-75.399360	-47.051249	69.691643	-47.051249	69.691643	-0.228422	-153.364106
5.300000	-0.119938	-76.051988	-46.859569	68.049167	-46.859569	68.049167	-0.231699	-154.699759
5.350000	-0.121727	-76.703262	-46.670881	66.408528	-46.670881	66.408528	-0.235016	-156.036891
5.400000	-0.123542	-77.353186	-46.485130	64.769793	-46.485130	64.769793	-0.238373	-157.375665
5.450000	-0.125381	-78.001764	-46.302264	63.133026	-46.302264	63.133026	-0.241771	-158.716245
5.500000	-0.127247	-78.649003	-46.122232	61.498286	-46.122232	61.498286	-0.245209	-160.058800
5.550000	-0.129139	-79.294905	-45.944984	59.865627	-45.944984	59.865627	-0.248688	-161.403494
5.600000	-0.131058	-79.939477	-45.770472	58.235100	-45.770472	58.235100	-0.252208	-162.750498
5.650000	-0.133003	-80.582725	-45.598650	56.606751	-45.598650	56.606751	-0.255768	-164.099982
5.700000	-0.134976	-81.224653	-45.429472	54.980621	-45.429472	54.980621	-0.259369	-165.452116
5.750000	-0.136977	-81.865268	-45.262894	53.356749	-45.262894	53.356749	-0.263011	-166.807073
5.800000	-0.139006	-82.504576	-45.098873	51.735169	-45.098873	51.735169	-0.266693	-168.165027
5.850000	-0.141064	-83.142583	-44.937369	50.115911	-44.937369	50.115911	-0.270415	-169.526152
5.900000	-0.143151	-83.779297	-44.778341	48.499003	-44.778341	48.499003	-0.274177	-170.890624
5.950000	-0.145268	-84.414724	-44.621752	46.884470	-44.621752	46.884470	-0.277979	-172.258620
6.000000	-0.147414	-85.048870	-44.467565	45.272332	-44.467565	45.272332	-0.281821	-173.630318
6.050000	-0.149590	-85.681744	-44.315745	43.662611	-44.315745	43.662611	-0.285702	-175.005896
6.100000	-0.151798	-86.313353	-44.166257	42.055323	-44.166257	42.055323	-0.289622	-176.385535
6.150000	-0.154036	-86.943704	-44.019071	40.450484	-44.019071	40.450484	-0.293581	-177.769416
6.200000	-0.156306	-87.572806	-43.874154	38.848111	-43.874154	38.848111	-0.297579	-179.157719
6.250000	-0.158608	-88.200666	-43.731478	37.248216	-43.731478	37.248216	-0.301614	179.449372
6.300000	-0.160943	-88.827240	-43.591014	35.650925	-43.591014	35.650925	-0.305688	178.051458
6.350000	-0.163311	-89.452591	-43.452740	34.056144	-43.452740	34.056144	-0.309799	176.648555
6.400000	-0.165713	-90.076726	-43.316633	32.463890	-43.316633	32.463890	-0.313946	175.240479
6.450000	-0.168148	-90.699656	-43.182668	30.874180	-43.182668	30.874180	-0.318129	173.827043
6.500000	-0.170616	-91.321389	-43.050825	29.287035	-43.050825	29.287035	-0.322348	172.408064
6.550000	-0.173119	-91.941934	-42.921081	27.702477	-42.921081	27.702477	-0.326600	170.983354
6.600000	-0.175657	-92.561302	-42.793419	26.120532	-42.793419	26.120532	-0.330887	169.552728
6.650000	-0.178230	-93.179501	-42.667820	24.541230	-42.667820	24.541230	-0.335207	168.115999
6.700000	-0.180839	-93.796543	-42.544268	22.964605	-42.544268	22.964605	-0.339559	166.672981
6.750000	-0.183483	-94.412437	-42.422748	21.390697	-42.422748	21.390697	-0.343943	165.223488
6.800000	-0.186164	-95.027192	-42.303245	19.819551	-42.303245	19.819551	-0.348357	163.767332
6.850000	-0.188881	-95.640821	-42.185746	18.251218	-42.185746	18.251218	-0.352801	162.304329
6.900000	-0.191635	-96.253334	-42.070240	16.685755	-42.070240	16.685755	-0.357275	160.834291
6.950000	-0.194427	-96.864741	-41.956715	15.123228	-41.956715	15.123228	-0.361776	159.357035
7.000000	-0.197257	-97.475053	-41.845161	13.563709	-41.845161	13.563709	-0.366305	157.872376
7.050000	-0.200124	-98.084283	-41.735569	12.007280	-41.735569	12.007280	-0.370860	156.380131
7.100000	-0.203031	-98.692440	-41.627930	10.454029	-41.627930	10.454029	-0.375440	154.880116
7.150000	-0.205976	-99.299538	-41.522235	8.904055	-41.522235	8.904055	-0.380045	153.372151
7.200000	-0.208960	-99.905587	-41.418478	7.357466	-41.418478	7.357466	-0.384673	151.856055
7.250000	-0.211984	-100.510600	-41.316651	5.814381	-41.316651	5.814381	-0.389323	150.331651
7.300000	-0.215048	-101.114589	-41.216746	4.274926	-41.216746	4.274926	-0.393994	148.798762
7.350000	-0.218152	-101.717567	-41.118758	2.739240	-41.118758	2.739240	-0.398686	147.257214
7.400000	-0.221297	-102.319545	-41.022679	1.207472	-41.022679	1.207472	-0.403396	145.706834
7.450000	-0.224483	-102.920537	-40.928503	-0.320218	-40.928503	-0.320218	-0.408125	144.147454
7.500000	-0.227710	-103.520555	-40.836222	-1.843660	-40.836222	-1.843660	-0.412870	142.578906
7.550000	-0.230980	-104.119572	-40.745870	-3.362470	-40.745870	-3.362470	-0.417631	141.000614
7.600000	-0.234293	-104.717644	-40.657401	-4.876639	-40.657401	-4.876639	-0.422408	139.412817
7.650000	-0.237647	-105.314782	-40.570806	-6.385961	-40.570806	-6.385961	-0.427198	137.815360
7.700000	-0.241045	-105.911003	-40.486075	-7.890220	-40.486075	-7.890220	-0.432000	136.208089
7.750000	-0.244485	-106.506319	-40.403197	-9.389189	-40.403197	-9.389189	-0.436814	134.590860
7.800000	-0.247969	-107.100744	-40.322162	-10.882631	-40.322162	-10.882631	-0.441638	132.963529
7.850000	-0.251496	-107.694293	-40.242957	-12.370297	-40.242957	-12.370297	-0.446471	131.325959
7.900000	-0.255067	-108.286980	-40.165567	-13.851930	-40.165567	-13.851930	-0.451313	129.678018
7.950000	-0.258683	-108.878820	-40.089977	-15.327262	-40.089977	-15.327262	-0.456162	128.019582
8.000000	-0.262342	-109.469828	-40.016171	-16.796016	-40.016171	-16.796016	-0.461018	126.350532
8.050000	-0.266047	-110.060019	-39.944130	-18.257906	-39.944130	-18.257906	-0.465880	124.670755
8.100000	-0.269796	-110.649408	-39.873834	-19.712638	-39.873834	-19.712638	-0.470746	122.980146
8.150000	-0.273591	-111.238010	-39.805261	-21.159911	-39.805261	-21.159911	-0.475616	121.278609
8.200000	-0.277431	-111.825843	-39.738388	-22.599414	-39.738388	-22.599414	-0.480490	119.566055
8.250000	-0.281317	-112.412920	-39.673187	-24.030833	-39.673187	-24.030833	-0.485366	117.842403
8.300000	-0.285249	-112.999259	-39.609632	-25.453844	-39.609632	-25.453844	-0.490244	116.107584
8.350000	-0.289228	-113.584875	-39.547692	-26.868121	-39.547692	-26.868121	-0.495123	114.361536
8.400000	-0.293253	-114.169787	-39.487335	-28.273332	-39.487335	-28.273332	-0.500004	112.604208
8.450000	-0.297325	-114.754009	-39.428526	-29.669138	-39.428526	-29.669138	-0.504885	110.835560
8.500000	-0.301443	-115.337559	-39.371229	-31.055202	-39.371229	-31.055202	-0.509766	109.055565
8.550000	-0.305608	-115.920482	-39.315358	-32.431638	-39.315358	-32.431638	-0.514648	107.264698
8.600000	-0.309822	-116.502734	-39.260978	-33.797080	-39.260978	-33.797080	-0.519529	105.461844
8.650000	-0.314083	-117.084366	-39.207984	-35.151735	-39.207984	-35.151735	-0.524411	103.647629
8.700000	-0.318393	-117.665398	-39.156330	-36.495255	-39.156330	-36.495255	-0.529293	101.822076
8.750000	-0.322751	-118.245847	-39.105967	-37.827292	-39.105967	-37.827292	-0.534175	99.985221
8.800000	-0.327158	-118.825719	-39.056865	-39.147232	-39.056865	-39.147232	-0.539058	98.136871
8.850000	-0.331614	-119.405048	-39.008947	-40.454976	-39.008947	-40.454976	-0.543942	96.277340
8.900000	-0.336119	-119.983850	-38.962158	-41.750177	-38.962158	-41.750177	-0.548827	94.406710
8.950000	-0.340672	-120.562146	-38.916439	-43.032490	-38.916439	-43.032490	-0.553716	92.525080
9.000000	-0.345275	-121.139956	-38.871729	-44.301570	-38.871729	-44.301570	-0.558608	90.632564
9.050000	-0.349927	-121.717299	-38.827965	-45.557074	-38.827965	-45.557074	-0.563505	88.729296
9.100000	-0.354628	-122.294195	-38.785083	-46.798663	-38.785083	-46.798663	-0.568408	86.815423
9.150000	-0.359379	-122.870664	-38.743014	-48.025999	-38.743014	-48.025999	-0.573317	84.891113
9.200000	-0.364180	-123.446728	-38.701689	-49.238745	-38.701689	-49.238745	-0.578236	82.956550
9.250000	-0.369031	-124.022407	-38.661036	-50.436569	-38.661036	-50.436569	-0.583165	81.011938
9.300000	-0.373932	-124.597723	-38.620981	-51.619137	-38.620981	-51.619137	-0.588106	79.057498
9.350000	-0.378883	-125.172698	-38.581449	-52.786120	-38.581449	-52.786120	-0.593062	77.093471
9.400000	-0.383885	-125.747349	-38.542363	-53.937013	-38.542363	-53.937013	-0.598034	75.120017
9.450000	-0.388939	-126.321701	-38.503642	-55.071477	-38.503642	-55.071477	-0.603026	73.137425
9.500000	-0.394043	-126.895779	-38.465200	-56.189358	-38.465200	-56.189358	-0.608039	71.146094
9.550000	-0.399198	-127.469606	-38.426953	-57.290329	-38.426953	-57.290329	-0.613076	69.146342
9.600000	-0.404404	-128.043206	-38.388817	-58.374062	-38.388817	-58.374062	-0.618141	67.138504
9.650000	-0.409661	-128.616602	-38.350703	-59.440229	-38.350703	-59.440229	-0.623236	65.122936
9.700000	-0.414969	-129.189819	-38.312523	-60.488495	-38.312523	-60.488495	-0.628364	63.100010
9.750000	-0.420329	-129.762880	-38.274185	-61.518527	-38.274185	-61.518527	-0.633529	61.070118
9.800000	-0.425740	-130.335812	-38.235596	-62.529984	-38.235596	-62.529984	-0.638735	59.033670
9.850000	-0.431203	-130.908638	-38.196663	-63.522520	-38.196663	-63.522520	-0.643984	56.991090
9.900000	-0.436717	-131.481385	-38.157288	-64.495780	-38.157288	-64.495780	-0.649282	54.942822
9.950000	-0.442283	-132.054079	-38.117373	-65.449402	-38.117373	-65.449402	-0.654632	52.889326
10.000000	-0.447902	-132.626746	-38.076818	-66.383014	-38.076818	-66.383014	-0.660037	50.831076
