! freq	dB(S11)	phase(S11)	dB(S12)	phase(S12)	
!     	dB(S21)	phase(S21)	dB(S22)	phase(S22)	
!S-par simulation data
#  GHz  S  DB  R 50
0.000000	-0.000000	-0.000000	-369.269121	180.000000	-369.269121	180.000000	-0.000000	-0.000000
0.050000	-0.000281	-0.876032	-73.251036	-131.492967	-73.251036	-131.492967	-0.000151	-1.628692
0.100000	-0.000984	-1.753696	-70.183070	-158.316184	-70.183070	-158.316184	-0.000599	-3.257047
0.150000	-0.001869	-2.633202	-69.359796	-175.773178	-69.359796	-175.773178	-0.001338	-4.884726
0.200000	-0.002792	-3.513774	-69.133569	171.140364	-69.133569	171.140364	-0.002348	-6.511437
0.250000	-0.003714	-4.394664	-69.157143	160.504584	-69.157143	160.504584	-0.003628	-8.136808
0.300000	-0.004642	-5.275333	-69.295046	151.197802	-69.295046	151.197802	-0.005130	-9.760704
0.350000	-0.005591	-6.155497	-69.512036	142.886610	-69.512036	142.886610	-0.006842	-11.382844
0.400000	-0.006572	-7.034973	-69.785745	135.330808	-69.785745	135.330808	-0.008737	-13.003029
0.450000	-0.007592	-7.913651	-70.104473	128.392755	-70.104473	128.392755	-0.010791	-14.621094
0.500000	-0.008654	-8.791456	-70.461788	121.987695	-70.461788	121.987695	-0.012977	-16.236899
0.550000	-0.009756	-9.668337	-70.854331	116.060363	-70.854331	116.060363	-0.015269	-17.850335
0.600000	-0.010895	-10.544257	-71.280842	110.573495	-71.280842	110.573495	-0.017645	-19.461316
0.650000	-0.012062	-11.419320	-71.740456	105.450205	-71.740456	105.450205	-0.020078	-21.070113
0.700000	-0.013262	-12.293231	-72.237694	100.784294	-72.237694	100.784294	-0.022561	-22.675982
0.750000	-0.014483	-13.166114	-72.774137	96.511340	-72.774137	96.511340	-0.025070	-24.279247
0.800000	-0.015721	-14.037956	-73.354358	92.634988	-73.354358	92.634988	-0.027588	-25.879887
0.850000	-0.016973	-14.908658	-73.985077	89.209335	-73.985077	89.209335	-0.030104	-27.477654
0.900000	-0.018231	-15.778406	-74.672624	86.186413	-74.672624	86.186413	-0.032609	-29.073031
0.950000	-0.019493	-16.647092	-75.427409	83.658074	-75.427409	83.658074	-0.035094	-30.665750
1.000000	-0.020756	-17.514712	-76.261316	81.706569	-76.261316	81.706569	-0.037554	-32.255809
1.050000	-0.022017	-18.381261	-77.188579	80.461126	-77.188579	80.461126	-0.039983	-33.843203
1.100000	-0.023273	-19.246735	-78.225298	80.124919	-78.225298	80.124919	-0.042378	-35.427928
1.150000	-0.024523	-20.111130	-79.387027	81.020088	-79.387027	81.020088	-0.044737	-37.009980
1.200000	-0.025766	-20.974439	-80.680792	83.659721	-80.680792	83.659721	-0.047059	-38.589354
1.250000	-0.026999	-21.836658	-82.082027	88.845203	-82.082027	88.845203	-0.049344	-40.166043
1.300000	-0.028223	-22.697730	-83.452611	97.911397	-83.452611	97.911397	-0.051591	-41.739924
1.350000	-0.029437	-23.557696	-84.466524	111.552334	-84.466524	111.552334	-0.053801	-43.311106
1.400000	-0.030640	-24.416546	-84.642937	128.328814	-84.642937	128.328814	-0.055977	-44.879579
1.450000	-0.031833	-25.274270	-83.820785	144.208737	-83.820785	144.208737	-0.058120	-46.445337
1.500000	-0.033017	-26.130857	-82.366823	156.275481	-82.366823	156.275481	-0.060233	-48.008370
1.550000	-0.034190	-26.986295	-80.716352	164.303962	-80.716352	164.303962	-0.062316	-49.568673
1.600000	-0.035355	-27.840571	-79.103261	169.266620	-79.103261	169.266620	-0.064374	-51.126239
1.650000	-0.036511	-28.693671	-77.608025	172.159628	-77.608025	172.159628	-0.066407	-52.681063
1.700000	-0.037658	-29.545581	-76.243608	173.690193	-76.243608	173.690193	-0.068418	-54.233141
1.750000	-0.038799	-30.396286	-75.000122	174.313233	-75.000122	174.313233	-0.070410	-55.782474
1.800000	-0.039933	-31.245770	-73.862121	174.317548	-73.862121	174.317548	-0.072384	-57.329061
1.850000	-0.041061	-32.094017	-72.814448	173.889471	-72.814448	173.889471	-0.074344	-58.872906
1.900000	-0.042184	-32.941011	-71.843885	173.152262	-71.843885	173.152262	-0.076290	-60.414017
1.950000	-0.043302	-33.786734	-70.939366	172.189606	-70.939366	172.189606	-0.078226	-61.952402
2.000000	-0.044417	-34.631171	-70.091759	171.059716	-70.091759	171.059716	-0.080154	-63.488074
2.050000	-0.045530	-35.474304	-69.293540	169.803975	-69.293540	169.803975	-0.082075	-65.021049
2.100000	-0.046640	-36.316115	-68.538489	168.452358	-68.538489	168.452358	-0.083992	-66.551348
2.150000	-0.047749	-37.156589	-67.821441	167.026939	-67.821441	167.026939	-0.085906	-68.078993
2.200000	-0.048857	-37.995707	-67.138072	165.544196	-67.138072	165.544196	-0.087819	-69.604011
2.250000	-0.049966	-38.833452	-66.484740	164.016577	-66.484740	164.016577	-0.089733	-71.126435
2.300000	-0.051075	-39.669809	-65.858357	162.453577	-65.858357	162.453577	-0.091649	-72.646299
2.350000	-0.052186	-40.504760	-65.256283	160.862495	-65.256283	160.862495	-0.093570	-74.163643
2.400000	-0.053298	-41.338288	-64.676253	159.248977	-64.676253	159.248977	-0.095496	-75.678510
2.450000	-0.054414	-42.170379	-64.116307	157.617410	-64.116307	157.617410	-0.097430	-77.190948
2.500000	-0.055533	-43.001015	-63.574743	155.971210	-63.574743	155.971210	-0.099372	-78.701010
2.550000	-0.056657	-43.830118	-63.049412	154.312621	-63.049412	154.312621	-0.101325	-80.208654
2.600000	-0.057784	-44.657735	-62.539722	152.644286	-62.539722	152.644286	-0.103289	-81.714045
2.650000	-0.058917	-45.483851	-62.044517	150.967770	-62.044517	150.967770	-0.105266	-83.217250
2.700000	-0.060056	-46.308453	-61.562775	149.284285	-61.562775	149.284285	-0.107257	-84.718338
2.750000	-0.061201	-47.131527	-61.093587	147.594762	-61.093587	147.594762	-0.109263	-86.217384
2.800000	-0.062353	-47.953059	-60.636145	145.899909	-60.636145	145.899909	-0.111286	-87.714469
2.850000	-0.063512	-48.773037	-60.189726	144.200252	-60.189726	144.200252	-0.113326	-89.209676
2.900000	-0.064679	-49.591449	-59.753684	142.496173	-59.753684	142.496173	-0.115385	-90.703093
2.950000	-0.065854	-50.408282	-59.327436	140.787938	-59.327436	140.787938	-0.117464	-92.194813
3.000000	-0.067038	-51.223526	-58.910459	139.075724	-58.910459	139.075724	-0.119564	-93.684933
3.050000	-0.068231	-52.037170	-58.502282	137.359631	-58.502282	137.359631	-0.121685	-95.173556
3.100000	-0.069433	-52.849203	-58.102477	135.639702	-58.102477	135.639702	-0.123829	-96.660788
3.150000	-0.070646	-53.659617	-57.710658	133.915939	-57.710658	133.915939	-0.125998	-98.146739
3.200000	-0.071869	-54.468401	-57.326475	132.188306	-57.326475	132.188306	-0.128191	-99.631525
3.250000	-0.073103	-55.275547	-56.949612	130.456743	-56.949612	130.456743	-0.130410	-101.115264
3.300000	-0.074348	-56.081048	-56.579779	128.721173	-56.579779	128.721173	-0.132656	-102.598082
3.350000	-0.075605	-56.884895	-56.216714	126.981506	-56.216714	126.981506	-0.134929	-104.080107
3.400000	-0.076875	-57.687083	-55.860179	125.237648	-55.860179	125.237648	-0.137232	-105.561471
3.450000	-0.078157	-58.487604	-55.509957	123.489501	-55.509957	123.489501	-0.139563	-107.042312
3.500000	-0.079452	-59.286452	-55.165850	121.736969	-55.165850	121.736969	-0.141926	-108.522772
3.550000	-0.080760	-60.083623	-54.827678	119.979961	-54.827678	119.979961	-0.144319	-110.002996
3.600000	-0.082082	-60.879112	-54.495276	118.218394	-54.495276	118.218394	-0.146745	-111.483135
3.650000	-0.083419	-61.672914	-54.168494	116.452195	-54.168494	116.452195	-0.149204	-112.963344
3.700000	-0.084770	-62.465026	-53.847194	114.681301	-53.847194	114.681301	-0.151697	-114.443782
3.750000	-0.086136	-63.255445	-53.531253	112.905663	-53.531253	112.905663	-0.154225	-115.924613
3.800000	-0.087518	-64.044094	-53.220304	111.125038	-53.220304	111.125038	-0.156790	-117.406036
3.850000	-0.088917	-64.831045	-52.914516	109.339616	-52.914516	109.339616	-0.159391	-118.888208
3.900000	-0.090331	-65.616297	-52.613793	107.549395	-52.613793	107.549395	-0.162030	-120.371305
3.950000	-0.091763	-66.399849	-52.318047	105.754392	-52.318047	105.754392	-0.164706	-121.855510
4.000000	-0.093212	-67.181700	-52.027196	103.954639	-52.027196	103.954639	-0.167422	-123.341008
4.050000	-0.094678	-67.961851	-51.741164	102.150186	-51.741164	102.150186	-0.170177	-124.827990
4.100000	-0.096162	-68.740303	-51.459881	100.341101	-51.459881	100.341101	-0.172972	-126.316649
4.150000	-0.097665	-69.517055	-51.183283	98.527468	-51.183283	98.527468	-0.175809	-127.807185
4.200000	-0.099186	-70.292111	-50.911309	96.709386	-50.911309	96.709386	-0.178687	-129.299801
4.250000	-0.100727	-71.065472	-50.643902	94.886971	-50.643902	94.886971	-0.181608	-130.794705
4.300000	-0.102287	-71.837142	-50.381009	93.060357	-50.381009	93.060357	-0.184572	-132.292109
4.350000	-0.103868	-72.607122	-50.122579	91.229687	-50.122579	91.229687	-0.187580	-133.792228
4.400000	-0.105469	-73.375417	-49.868563	89.395123	-49.868563	89.395123	-0.190632	-135.295284
4.450000	-0.107091	-74.142032	-49.618914	87.556835	-49.618914	87.556835	-0.193730	-136.801502
4.500000	-0.108735	-74.906969	-49.373587	85.715006	-49.373587	85.715006	-0.196873	-138.311111
4.550000	-0.110401	-75.670236	-49.132539	83.869831	-49.132539	83.869831	-0.200063	-139.824345
4.600000	-0.112088	-76.431836	-48.895726	82.021509	-48.895726	82.021509	-0.203299	-141.341443
4.650000	-0.113799	-77.191777	-48.663105	80.170251	-48.663105	80.170251	-0.206584	-142.862646
4.700000	-0.115533	-77.950064	-48.434634	78.316270	-48.434634	78.316270	-0.209916	-144.388202
4.750000	-0.117290	-78.706704	-48.210272	76.459785	-48.210272	76.459785	-0.213296	-145.918363
4.800000	-0.119071	-79.461705	-47.989975	74.601017	-47.989975	74.601017	-0.216726	-147.453384
4.850000	-0.120877	-80.215074	-47.773702	72.740189	-47.773702	72.740189	-0.220204	-148.993524
4.900000	-0.122708	-80.966820	-47.561410	70.877520	-47.561410	70.877520	-0.223733	-150.539049
4.950000	-0.124564	-81.716950	-47.353056	69.013229	-47.353056	69.013229	-0.227312	-152.090228
5.000000	-0.126447	-82.465475	-47.148597	67.147531	-47.148597	67.147531	-0.230941	-153.647333
5.050000	-0.128356	-83.212334	-46.947958	65.280591	-46.947958	65.280591	-0.234623	-155.210925
5.100000	-0.130293	-83.957607	-46.751137	63.412671	-46.751137	63.412671	-0.238357	-156.781028
5.150000	-0.132256	-84.701304	-46.558090	61.543962	-46.558090	61.543962	-0.242141	-158.357929
5.200000	-0.134248	-85.443436	-46.368771	59.674643	-46.368771	59.674643	-0.245977	-159.941918
5.250000	-0.136268	-86.184014	-46.183134	57.804883	-46.183134	57.804883	-0.249865	-161.533290
5.300000	-0.138316	-86.923049	-46.001134	55.934837	-46.001134	55.934837	-0.253804	-163.132343
5.350000	-0.140393	-87.660554	-45.822726	54.064647	-45.822726	54.064647	-0.257795	-164.739381
5.400000	-0.142500	-88.396539	-45.647865	52.194437	-45.647865	52.194437	-0.261837	-166.354708
5.450000	-0.144637	-89.131018	-45.476507	50.324317	-45.476507	50.324317	-0.265931	-167.978635
5.500000	-0.146804	-89.864004	-45.308607	48.454380	-45.308607	48.454380	-0.270076	-169.611477
5.550000	-0.149002	-90.595509	-45.144124	46.584701	-45.144124	46.584701	-0.274273	-171.253548
5.600000	-0.151232	-91.325548	-44.983016	44.715337	-44.983016	44.715337	-0.278520	-172.905171
5.650000	-0.153489	-92.054321	-44.825178	42.846279	-44.825178	42.846279	-0.282812	-174.565337
5.700000	-0.155782	-92.781450	-44.670698	40.977649	-44.670698	40.977649	-0.287160	-176.237104
5.750000	-0.158109	-93.507156	-44.519480	39.109401	-44.519480	39.109401	-0.291559	-177.919408
5.800000	-0.160468	-94.231453	-44.371492	37.241517	-44.371492	37.241517	-0.296006	-179.612580
5.850000	-0.162862	-94.954356	-44.226702	35.373966	-44.226702	35.373966	-0.300502	178.683047
5.900000	-0.165289	-95.675881	-44.085082	33.506696	-44.085082	33.506696	-0.305046	176.967136
5.950000	-0.167750	-96.396044	-43.946608	31.639643	-43.946608	31.639643	-0.309637	175.239352
6.000000	-0.170247	-97.114861	-43.811257	29.772725	-43.811257	29.772725	-0.314273	173.499356
6.050000	-0.172779	-97.832348	-43.679012	27.905847	-43.679012	27.905847	-0.318955	171.746809
6.100000	-0.175346	-98.548523	-43.549859	26.038902	-43.549859	26.038902	-0.323680	169.981373
6.150000	-0.177950	-99.263403	-43.423790	24.171773	-43.423790	24.171773	-0.328449	168.202707
6.200000	-0.180590	-99.977004	-43.300800	22.304331	-43.300800	22.304331	-0.333259	166.410475
6.250000	-0.183267	-100.689346	-43.180888	20.436443	-43.180888	20.436443	-0.338109	164.604339
6.300000	-0.185983	-101.400418	-43.064095	18.567952	-43.064095	18.567952	-0.342998	162.783646
6.350000	-0.188736	-102.110268	-42.950402	16.698726	-42.950402	16.698726	-0.347924	160.948367
6.400000	-0.191528	-102.818913	-42.839825	14.828621	-42.839825	14.828621	-0.352885	159.098172
6.450000	-0.194358	-103.526373	-42.732386	12.957499	-42.732386	12.957499	-0.357880	157.232735
6.500000	-0.197228	-104.232666	-42.628115	11.085224	-42.628115	11.085224	-0.362906	155.351737
6.550000	-0.200136	-104.937813	-42.527045	9.211671	-42.527045	9.211671	-0.367962	153.454862
6.600000	-0.203085	-105.641833	-42.429217	7.336727	-42.429217	7.336727	-0.373044	151.541803
6.650000	-0.206074	-106.344746	-42.334679	5.460292	-42.334679	5.460292	-0.378152	149.612258
6.700000	-0.209104	-107.046573	-42.243483	3.582287	-42.243483	3.582287	-0.383282	147.665935
6.750000	-0.212175	-107.747335	-42.155690	1.702655	-42.155690	1.702655	-0.388432	145.702551
6.800000	-0.215287	-108.447051	-42.071365	-0.178634	-42.071365	-0.178634	-0.393599	143.721836
6.850000	-0.218440	-109.145744	-41.990582	-2.061579	-41.990582	-2.061579	-0.398781	141.723528
6.900000	-0.221637	-109.843425	-41.913452	-3.946161	-41.913452	-3.946161	-0.403974	139.707185
6.950000	-0.224876	-110.540115	-41.840065	-5.832303	-41.840065	-5.832303	-0.409177	137.672568
7.000000	-0.228158	-111.235848	-41.770481	-7.719865	-41.770481	-7.719865	-0.414385	135.619655
7.050000	-0.231484	-111.930646	-41.704797	-9.608677	-41.704797	-9.608677	-0.419596	133.548249
7.100000	-0.234853	-112.624532	-41.643114	-11.498517	-41.643114	-11.498517	-0.424806	131.458172
7.150000	-0.238265	-113.317528	-41.585540	-13.389105	-41.585540	-13.389105	-0.430012	129.349265
7.200000	-0.241722	-114.009659	-41.532185	-15.280099	-41.532185	-15.280099	-0.435211	127.221392
7.250000	-0.245224	-114.700946	-41.483164	-17.171093	-41.483164	-17.171093	-0.440400	125.074442
7.300000	-0.248771	-115.391415	-41.438597	-19.061608	-41.438597	-19.061608	-0.445575	122.908326
7.350000	-0.252362	-116.081088	-41.398604	-20.951093	-41.398604	-20.951093	-0.450732	120.722986
7.400000	-0.255999	-116.769990	-41.363309	-22.838918	-41.363309	-22.838918	-0.455869	118.518388
7.450000	-0.259682	-117.458147	-41.332838	-24.724372	-41.332838	-24.724372	-0.460983	116.294532
7.500000	-0.263411	-118.145581	-41.307314	-26.606658	-41.307314	-26.606658	-0.466069	114.051448
7.550000	-0.267188	-118.832305	-41.286977	-28.484780	-41.286977	-28.484780	-0.471124	111.788786
7.600000	-0.271011	-119.518359	-41.271845	-30.357825	-41.271845	-30.357825	-0.476145	109.507064
7.650000	-0.274881	-120.203769	-41.262037	-32.224717	-41.262037	-32.224717	-0.481131	107.206420
7.700000	-0.278798	-120.888561	-41.257674	-34.084285	-41.257674	-34.084285	-0.486076	104.887032
7.750000	-0.282763	-121.572760	-41.258868	-35.935261	-41.258868	-35.935261	-0.490980	102.549114
7.800000	-0.286776	-122.256395	-41.265728	-37.776278	-41.265728	-37.776278	-0.495840	100.192923
7.850000	-0.290836	-122.939490	-41.278358	-39.605872	-41.278358	-39.605872	-0.500653	97.818758
7.900000	-0.294945	-123.622074	-41.296853	-41.422476	-41.296853	-41.422476	-0.505418	95.426959
7.950000	-0.299103	-124.304174	-41.321300	-43.224426	-41.321300	-43.224426	-0.510133	93.017912
8.000000	-0.303309	-124.985817	-41.351778	-45.009955	-41.351778	-45.009955	-0.514796	90.592047
8.050000	-0.307564	-125.667031	-41.388354	-46.777197	-41.388354	-46.777197	-0.519408	88.149837
8.100000	-0.311869	-126.347846	-41.431084	-48.524185	-41.431084	-48.524185	-0.523966	85.691804
8.150000	-0.316223	-127.028285	-41.480079	-50.248585	-41.480079	-50.248585	-0.528471	83.218353
8.200000	-0.320628	-127.708378	-41.535365	-51.948150	-41.535365	-51.948150	-0.532923	80.730116
8.250000	-0.325082	-128.388159	-41.596895	-53.620845	-41.596895	-53.620845	-0.537324	78.227920
8.300000	-0.329587	-129.067657	-41.664666	-55.264290	-41.664666	-55.264290	-0.541674	75.712465
8.350000	-0.334141	-129.746902	-41.738662	-56.876001	-41.738662	-56.876001	-0.545975	73.184498
8.400000	-0.338747	-130.425924	-41.818848	-58.453386	-41.818848	-58.453386	-0.550230	70.644805
8.450000	-0.343402	-131.104753	-41.905168	-59.993744	-41.905168	-59.993744	-0.554442	68.094216
8.500000	-0.348109	-131.783421	-41.997547	-61.494262	-41.997547	-61.494262	-0.558614	65.533596
8.550000	-0.352867	-132.461959	-42.095885	-62.952008	-42.095885	-62.952008	-0.562749	62.963849
8.600000	-0.357675	-133.140397	-42.200059	-64.363928	-42.200059	-64.363928	-0.566854	60.385911
8.650000	-0.362535	-133.818767	-42.309916	-65.726842	-42.309916	-65.726842	-0.570931	57.800752
8.700000	-0.367447	-134.497103	-42.425274	-67.037435	-42.425274	-67.037435	-0.574988	55.209368
8.750000	-0.372410	-135.175435	-42.545913	-68.292256	-42.545913	-68.292256	-0.579030	52.612784
8.800000	-0.377425	-135.853799	-42.671638	-69.486333	-42.671638	-69.486333	-0.583064	50.011981
8.850000	-0.382493	-136.532227	-42.802063	-70.617126	-42.802063	-70.617126	-0.587097	47.408137
8.900000	-0.387613	-137.210753	-42.936833	-71.680739	-42.936833	-71.680739	-0.591136	44.802335
8.950000	-0.392784	-137.889412	-43.075534	-72.673135	-43.075534	-72.673135	-0.595189	42.195668
9.000000	-0.398008	-138.568236	-43.217684	-73.590146	-43.217684	-73.590146	-0.599266	39.589236
9.050000	-0.403284	-139.247262	-43.362727	-74.427490	-43.362727	-74.427490	-0.603373	36.984145
9.100000	-0.408613	-139.926523	-43.510020	-75.180802	-43.510020	-75.180802	-0.607521	34.381498
9.150000	-0.413993	-140.606055	-43.658819	-75.845672	-43.658819	-75.845672	-0.611718	31.782396
9.200000	-0.419427	-141.285894	-43.808271	-76.417711	-43.808271	-76.417711	-0.615974	29.187932
9.250000	-0.424913	-141.966077	-43.957397	-76.892626	-43.957397	-76.892626	-0.620297	26.599187
9.300000	-0.430452	-142.646639	-44.105080	-77.266330	-44.105080	-77.266330	-0.624699	24.017228
9.350000	-0.436044	-143.327618	-44.250052	-77.535081	-44.250052	-77.535081	-0.629187	21.443100
9.400000	-0.441689	-144.009056	-44.390797	-77.694444	-44.390797	-77.694444	-0.633773	18.877937
9.450000	-0.447387	-144.690993	-44.525663	-77.741869	-44.525663	-77.741869	-0.638466	16.322772
9.500000	-0.453139	-145.373462	-44.652939	-77.677089	-44.652939	-77.677089	-0.643276	13.778476
9.550000	-0.458943	-146.056501	-44.770681	-77.499949	-44.770681	-77.499949	-0.648211	11.245987
9.600000	-0.464800	-146.740150	-44.876795	-77.211893	-44.876795	-77.211893	-0.653280	8.726210
9.650000	-0.470711	-147.424448	-44.969063	-76.816292	-44.969063	-76.816292	-0.658492	6.220011
9.700000	-0.476674	-148.109435	-45.045192	-76.318758	-45.045192	-76.318758	-0.663856	3.728221
9.750000	-0.482691	-148.795152	-45.102871	-75.727419	-45.102871	-75.727419	-0.669380	1.251628
9.800000	-0.488760	-149.481640	-45.139843	-75.053122	-45.139843	-75.053122	-0.675071	-1.209019
9.850000	-0.494883	-150.168940	-45.153998	-74.309519	-45.153998	-74.309519	-0.680938	-3.653013
9.900000	-0.501059	-150.857093	-45.143463	-73.513013	-45.143463	-73.513013	-0.686988	-6.079692
9.950000	-0.507288	-151.546144	-45.106707	-72.682530	-45.106707	-72.682530	-0.693228	-8.488437
10.000000	-0.513570	-152.236133	-45.042626	-71.839111	-45.042626	-71.839111	-0.699663	-10.878672
