! freq	dB(S11)	phase(S11)	dB(S12)	phase(S12)	
!     	dB(S21)	phase(S21)	dB(S22)	phase(S22)	
!S-par simulation data
#  GHz  S  DB  R 50
0.000000	-0.000000	0.000000	-335.429519	180.000000	-335.429519	180.000000	-0.000000	-0.000000
0.050000	-0.000111	-0.953440	-75.060130	0.864705	-75.060130	0.864705	-0.000109	-1.718876
0.100000	-0.000440	-1.906622	-75.084267	1.428314	-75.084267	1.428314	-0.000435	-3.437512
0.150000	-0.000975	-2.859305	-75.124670	2.071160	-75.124670	2.071160	-0.000974	-5.155673
0.200000	-0.001697	-3.811283	-75.181372	2.747836	-75.181372	2.747836	-0.001720	-6.873135
0.250000	-0.002598	-4.762316	-75.255772	3.456292	-75.255772	3.456292	-0.002681	-8.589614
0.300000	-0.003636	-5.712345	-75.346814	4.197278	-75.346814	4.197278	-0.003829	-10.304976
0.350000	-0.004794	-6.661227	-75.455791	4.978194	-75.455791	4.978194	-0.005167	-12.018972
0.400000	-0.006050	-7.608889	-75.583443	5.807038	-75.583443	5.807038	-0.006685	-13.731396
0.450000	-0.007380	-8.555290	-75.730640	6.693482	-75.730640	6.693482	-0.008373	-15.442051
0.500000	-0.008763	-9.500412	-75.898377	7.649045	-75.898377	7.649045	-0.010220	-17.150749
0.550000	-0.010183	-10.444255	-76.087781	8.687469	-76.087781	8.687469	-0.012214	-18.857312
0.600000	-0.011623	-11.386834	-76.300099	9.825225	-76.300099	9.825225	-0.014344	-20.561572
0.650000	-0.013072	-12.328171	-76.536680	11.082198	-76.536680	11.082198	-0.016596	-22.263374
0.700000	-0.014520	-13.268293	-76.798946	12.482563	-76.798946	12.482563	-0.018957	-23.962572
0.750000	-0.015960	-14.207225	-77.088317	14.055909	-77.088317	14.055909	-0.021415	-25.659034
0.800000	-0.017387	-15.144994	-77.406104	15.838651	-77.406104	15.838651	-0.023955	-27.352638
0.850000	-0.018797	-16.081619	-77.753314	17.875787	-77.753314	17.875787	-0.026566	-29.043276
0.900000	-0.020189	-17.017118	-78.130325	20.223002	-78.130325	20.223002	-0.029233	-30.730848
0.950000	-0.021560	-17.951504	-78.536367	22.949006	-78.536367	22.949006	-0.031946	-32.415270
1.000000	-0.022911	-18.884783	-78.968693	26.137776	-78.968693	26.137776	-0.034691	-34.096466
1.050000	-0.024243	-19.816958	-79.421292	29.889806	-79.421292	29.889806	-0.037457	-35.774371
1.100000	-0.025555	-20.748026	-79.883013	34.320526	-79.883013	34.320526	-0.040233	-37.448932
1.150000	-0.026849	-21.677983	-80.335047	39.552431	-80.335047	39.552431	-0.043010	-39.120104
1.200000	-0.028126	-22.606819	-80.748120	45.695487	-80.748120	45.695487	-0.045779	-40.787852
1.250000	-0.029388	-23.534520	-81.080689	52.809558	-81.080689	52.809558	-0.048530	-42.452150
1.300000	-0.030635	-24.461022	-81.272516	60.876933	-81.272516	60.876933	-0.051255	-44.112829
1.350000	-0.031870	-25.386357	-81.275304	69.618506	-81.275304	69.618506	-0.053948	-45.770030
1.400000	-0.033093	-26.310504	-81.053637	78.629203	-81.053637	78.629203	-0.056604	-47.423750
1.450000	-0.034306	-27.233443	-80.603807	87.426842	-80.603807	87.426842	-0.059218	-49.073994
1.500000	-0.035511	-28.155153	-79.955171	95.588561	-79.955171	95.588561	-0.061787	-50.720772
1.550000	-0.036708	-29.075611	-79.157357	102.846366	-79.157357	102.846366	-0.064307	-52.364098
1.600000	-0.037899	-29.994794	-78.263423	109.100668	-78.263423	109.100668	-0.066776	-54.003994
1.650000	-0.039084	-30.912679	-77.318397	114.377040	-77.318397	114.377040	-0.069193	-55.640484
1.700000	-0.040265	-31.829242	-76.355286	118.769746	-76.355286	118.769746	-0.071559	-57.273597
1.750000	-0.041443	-32.744459	-75.395903	122.397857	-75.395903	122.397857	-0.073872	-58.903366
1.800000	-0.042617	-33.658307	-74.453489	125.379486	-74.453489	125.379486	-0.076134	-60.529826
1.850000	-0.043790	-34.570762	-73.535377	127.820003	-73.535377	127.820003	-0.078347	-62.153017
1.900000	-0.044962	-35.481801	-72.645098	129.808469	-72.645098	129.808469	-0.080512	-63.772981
1.950000	-0.046133	-36.391401	-71.783841	131.418074	-71.783841	131.418074	-0.082633	-65.389762
2.000000	-0.047304	-37.299539	-70.951417	132.708145	-70.951417	132.708145	-0.084712	-67.003407
2.050000	-0.048475	-38.206194	-70.146869	133.726510	-70.146869	133.726510	-0.086753	-68.613966
2.100000	-0.049648	-39.111344	-69.368846	134.511701	-69.368846	134.511701	-0.088759	-70.221491
2.150000	-0.050823	-40.014968	-68.615828	135.094839	-68.615828	135.094839	-0.090735	-71.826036
2.200000	-0.052000	-40.917045	-67.886264	135.501165	-67.886264	135.501165	-0.092685	-73.427656
2.250000	-0.053180	-41.817555	-67.178646	135.751254	-67.178646	135.751254	-0.094612	-75.026411
2.300000	-0.054363	-42.716479	-66.491553	135.861976	-66.491553	135.861976	-0.096523	-76.622362
2.350000	-0.055549	-43.613799	-65.823669	135.847248	-65.823669	135.847248	-0.098420	-78.215570
2.400000	-0.056740	-44.509496	-65.173789	135.718621	-65.173789	135.718621	-0.100310	-79.806103
2.450000	-0.057936	-45.403553	-64.540827	135.485751	-64.540827	135.485751	-0.102195	-81.394028
2.500000	-0.059136	-46.295953	-63.923801	135.156758	-63.923801	135.156758	-0.104082	-82.979416
2.550000	-0.060343	-47.186607	-63.320684	134.734919	-63.320684	134.734919	-0.105974	-84.562236
2.600000	-0.061555	-48.075571	-62.731950	134.230165	-62.731950	134.230165	-0.107875	-86.142677
2.650000	-0.062773	-48.962831	-62.156901	133.647461	-62.156901	133.647461	-0.109790	-87.720819
2.700000	-0.063999	-49.848373	-61.594923	132.991132	-61.594923	132.991132	-0.111722	-89.296746
2.750000	-0.065231	-50.732184	-61.045474	132.264981	-61.045474	132.264981	-0.113675	-90.870544
2.800000	-0.066471	-51.614251	-60.508080	131.472388	-60.508080	131.472388	-0.115652	-92.442304
2.850000	-0.067719	-52.494563	-59.982328	130.616396	-59.982328	130.616396	-0.117657	-94.012123
2.900000	-0.068976	-53.373109	-59.467860	129.699775	-59.467860	129.699775	-0.119691	-95.580098
2.950000	-0.070241	-54.249877	-58.964363	128.725082	-58.964363	128.725082	-0.121758	-97.146333
3.000000	-0.071516	-55.124859	-58.471571	127.694710	-58.471571	127.694710	-0.123859	-98.710937
3.050000	-0.072800	-55.998046	-57.989253	126.610929	-57.989253	126.610929	-0.125997	-100.274023
3.100000	-0.074094	-56.869429	-57.517210	125.475920	-57.517210	125.475920	-0.128173	-101.835707
3.150000	-0.075399	-57.739000	-57.055272	124.291805	-57.055272	124.291805	-0.130389	-103.396114
3.200000	-0.076715	-58.606754	-56.603294	123.060669	-56.603294	123.060669	-0.132646	-104.955371
3.250000	-0.078042	-59.472684	-56.161148	121.784580	-56.161148	121.784580	-0.134944	-106.513613
3.300000	-0.079381	-60.336784	-55.728722	120.465605	-55.728722	120.465605	-0.137284	-108.070978
3.350000	-0.080732	-61.199050	-55.305917	119.105820	-55.305917	119.105820	-0.139668	-109.627612
3.400000	-0.082096	-62.059477	-54.892639	117.707320	-54.892639	117.707320	-0.142094	-111.183665
3.450000	-0.083473	-62.918064	-54.488802	116.272223	-54.488802	116.272223	-0.144563	-112.739296
3.500000	-0.084864	-63.774806	-54.094318	114.802670	-54.094318	114.802670	-0.147075	-114.294667
3.550000	-0.086268	-64.629701	-53.709101	113.300826	-53.709101	113.300826	-0.149629	-115.849947
3.600000	-0.087687	-65.482750	-53.333057	111.768876	-53.333057	111.768876	-0.152225	-117.405313
3.650000	-0.089121	-66.333951	-52.966089	110.209021	-52.966089	110.209021	-0.154862	-118.960946
3.700000	-0.090571	-67.183304	-52.608088	108.623467	-52.608088	108.623467	-0.157541	-120.517035
3.750000	-0.092036	-68.030810	-52.258937	107.014417	-52.258937	107.014417	-0.160259	-122.073776
3.800000	-0.093518	-68.876390	-51.918315	105.383238	-51.918315	105.383238	-0.163018	-123.631417
3.850000	-0.095017	-69.720128	-51.586316	103.733111	-51.586316	103.733111	-0.165816	-125.190138
3.900000	-0.096534	-70.562025	-51.262777	102.066157	-51.262777	102.066157	-0.168651	-126.750157
3.950000	-0.098068	-71.402085	-50.947523	100.384443	-50.947523	100.384443	-0.171524	-128.311694
4.000000	-0.099620	-72.240313	-50.640365	98.689971	-50.640365	98.689971	-0.174433	-129.874979
4.050000	-0.101191	-73.076714	-50.341101	96.984666	-50.341101	96.984666	-0.177377	-131.440248
4.100000	-0.102782	-73.911292	-50.049515	95.270363	-50.049515	95.270363	-0.180357	-133.007741
4.150000	-0.104392	-74.744054	-49.765382	93.548802	-49.765382	93.548802	-0.183371	-134.577709
4.200000	-0.106022	-75.575007	-49.488465	91.821610	-49.488465	91.821610	-0.186420	-136.150405
4.250000	-0.107672	-76.404157	-49.218518	90.090303	-49.218518	90.090303	-0.189503	-137.726091
4.300000	-0.109344	-77.231514	-48.955289	88.356271	-48.955289	88.356271	-0.192620	-139.305035
4.350000	-0.111038	-78.057086	-48.698520	86.620780	-48.698520	86.620780	-0.195771	-140.887510
4.400000	-0.112753	-78.880881	-48.447948	84.884967	-48.447948	84.884967	-0.198957	-142.473797
4.450000	-0.114492	-79.702910	-48.203310	83.149836	-48.203310	83.149836	-0.202178	-144.064181
4.500000	-0.116253	-80.523182	-47.964341	81.416259	-47.964341	81.416259	-0.205435	-145.658955
4.550000	-0.118038	-81.341710	-47.730779	79.684981	-47.730779	79.684981	-0.208729	-147.258418
4.600000	-0.119847	-82.158504	-47.502362	77.956618	-47.502362	77.956618	-0.212060	-148.862873
4.650000	-0.121680	-82.973577	-47.278837	76.231662	-47.278837	76.231662	-0.215429	-150.472631
4.700000	-0.123538	-83.786941	-47.059954	74.510489	-47.059954	74.510489	-0.218839	-152.088008
4.750000	-0.125423	-84.598610	-46.845471	72.793358	-46.845471	72.793358	-0.222291	-153.709326
4.800000	-0.127333	-85.408598	-46.635156	71.080425	-46.635156	71.080425	-0.225786	-155.336912
4.850000	-0.129269	-86.216918	-46.428786	69.371747	-46.428786	69.371747	-0.229327	-156.971099
4.900000	-0.131233	-87.023586	-46.226147	67.667288	-46.226147	67.667288	-0.232914	-158.612226
4.950000	-0.133224	-87.828617	-46.027041	65.966927	-46.027041	65.966927	-0.236552	-160.260638
5.000000	-0.135243	-88.632028	-45.831279	64.270472	-45.831279	64.270472	-0.240241	-161.916684
5.050000	-0.137292	-89.433766	-45.638632	62.577802	-45.638632	62.577802	-0.243988	-163.581085
5.100000	-0.139370	-90.233919	-45.448991	60.888420	-45.448991	60.888420	-0.247792	-165.253870
5.150000	-0.141477	-91.032503	-45.262207	59.201951	-45.262207	59.201951	-0.251656	-166.935407
5.200000	-0.143614	-91.829539	-45.078149	57.517977	-45.078149	57.517977	-0.255582	-168.626069
5.250000	-0.145782	-92.625044	-44.896698	55.836052	-44.896698	55.836052	-0.259575	-170.326233
5.300000	-0.147981	-93.419037	-44.717750	54.155703	-44.717750	54.155703	-0.263636	-172.036285
5.350000	-0.150211	-94.211539	-44.541216	52.476444	-44.541216	52.476444	-0.267769	-173.756613
5.400000	-0.152473	-95.002569	-44.367020	50.797781	-44.367020	50.797781	-0.271977	-175.487614
5.450000	-0.154767	-95.792149	-44.195103	49.119219	-44.195103	49.119219	-0.276262	-177.229687
5.500000	-0.157095	-96.580299	-44.025418	47.440272	-44.025418	47.440272	-0.280628	-178.983241
5.550000	-0.159455	-97.367042	-43.857930	45.760470	-43.857930	45.760470	-0.285078	179.251312
5.600000	-0.161850	-98.152399	-43.692619	44.079365	-43.692619	44.079365	-0.289615	177.473554
5.650000	-0.164278	-98.936394	-43.529478	42.396537	-43.529478	42.396537	-0.294241	175.683059
5.700000	-0.166741	-99.719049	-43.368511	40.711606	-43.368511	40.711606	-0.298960	173.879395
5.750000	-0.169240	-100.500389	-43.209735	39.024234	-43.209735	39.024234	-0.303775	172.062125
5.800000	-0.171774	-101.280437	-43.053175	37.334131	-43.053175	37.334131	-0.308687	170.230803
5.850000	-0.174344	-102.059218	-42.898868	35.641068	-42.898868	35.641068	-0.313700	168.384978
5.900000	-0.176950	-102.836758	-42.746860	33.944872	-42.746860	33.944872	-0.318817	166.524191
5.950000	-0.179593	-103.613081	-42.597205	32.245444	-42.597205	32.245444	-0.324040	164.647975
6.000000	-0.182274	-104.388215	-42.449964	30.542755	-42.449964	30.542755	-0.329371	162.755855
6.050000	-0.184993	-105.162185	-42.305204	28.836853	-42.305204	28.836853	-0.334814	160.847348
6.100000	-0.187749	-105.935019	-42.162995	27.127873	-42.162995	27.127873	-0.340370	158.921960
6.150000	-0.190544	-106.706745	-42.023414	25.416032	-42.023414	25.416032	-0.346042	156.979190
6.200000	-0.193378	-107.477390	-41.886538	23.701638	-41.886538	23.701638	-0.351834	155.018526
6.250000	-0.196252	-108.246982	-41.752443	21.985092	-41.752443	21.985092	-0.357746	153.039442
6.300000	-0.199167	-109.015508	-41.621252	20.266844	-41.621252	20.266844	-0.363789	151.040554
6.350000	-0.202122	-109.783043	-41.493007	18.547590	-41.493007	18.547590	-0.369959	149.022108
6.400000	-0.205118	-110.549618	-41.367779	16.828028	-41.367779	16.828028	-0.376261	146.983539
6.450000	-0.208155	-111.315261	-41.245630	15.108945	-41.245630	15.108945	-0.382698	144.924261
6.500000	-0.211233	-112.080005	-41.126613	13.391225	-41.126613	13.391225	-0.389274	142.843671
6.550000	-0.214353	-112.843882	-41.010774	11.675833	-41.010774	11.675833	-0.395996	140.741142
6.600000	-0.217514	-113.606922	-40.898143	9.963821	-40.898143	9.963821	-0.402868	138.616023
6.650000	-0.220719	-114.369159	-40.788741	8.256316	-40.788741	8.256316	-0.409900	136.467635
6.700000	-0.223963	-115.130668	-40.682455	6.554118	-40.682455	6.554118	-0.417088	134.296696
6.750000	-0.227252	-115.891426	-40.579406	4.858841	-40.579406	4.858841	-0.424455	132.100775
6.800000	-0.230585	-116.651453	-40.479618	3.172106	-40.479618	3.172106	-0.432018	129.878373
6.850000	-0.233964	-117.410783	-40.383049	1.495473	-40.383049	1.495473	-0.439794	127.628391
6.900000	-0.237386	-118.169491	-40.289500	-0.170225	-40.289500	-0.170225	-0.447792	125.351491
6.950000	-0.240852	-118.927611	-40.198870	-1.823630	-40.198870	-1.823630	-0.456031	123.046720
7.000000	-0.244363	-119.685179	-40.111031	-3.463375	-40.111031	-3.463375	-0.464537	120.713041
7.050000	-0.247917	-120.442229	-40.025833	-5.088093	-40.025833	-5.088093	-0.473341	118.349312
7.100000	-0.251516	-121.198798	-39.943096	-6.696433	-39.943096	-6.696433	-0.482481	115.954274
7.150000	-0.255165	-121.954878	-39.862745	-8.285087	-39.862745	-8.285087	-0.492047	113.522935
7.200000	-0.258860	-122.710552	-39.784372	-9.854278	-39.784372	-9.854278	-0.502067	111.056509
7.250000	-0.262600	-123.465862	-39.707672	-11.403013	-39.707672	-11.403013	-0.512611	108.553513
7.300000	-0.266386	-124.220846	-39.632318	-12.930163	-39.632318	-12.930163	-0.523766	106.011770
7.350000	-0.270218	-124.975544	-39.557938	-14.434698	-39.557938	-14.434698	-0.535644	103.428738
7.400000	-0.274096	-125.729993	-39.484111	-15.915712	-39.484111	-15.915712	-0.548385	100.801416
7.450000	-0.278023	-126.484229	-39.410321	-17.371544	-39.410321	-17.371544	-0.562212	98.124289
7.500000	-0.282000	-127.238289	-39.335890	-18.800542	-39.335890	-18.800542	-0.577446	95.390039
7.550000	-0.286022	-127.992237	-39.260410	-20.206140	-39.260410	-20.206140	-0.594183	92.601383
7.600000	-0.290093	-128.746102	-39.182924	-21.585786	-39.182924	-21.585786	-0.613020	89.744904
7.650000	-0.294214	-129.499932	-39.102415	-22.939824	-39.102415	-22.939824	-0.634635	86.809447
7.700000	-0.298384	-130.253774	-39.018025	-24.271148	-39.018025	-24.271148	-0.659721	83.787094
7.750000	-0.302602	-131.007671	-38.928558	-25.582330	-38.928558	-25.582330	-0.689442	80.662431
7.800000	-0.306871	-131.761676	-38.832187	-26.877182	-38.832187	-26.877182	-0.725884	77.408251
7.850000	-0.311191	-132.515832	-38.727249	-28.163733	-38.727249	-28.163733	-0.771798	73.996478
7.900000	-0.315559	-133.270185	-38.611716	-29.454178	-38.611716	-29.454178	-0.831671	70.385972
7.950000	-0.319980	-134.024788	-38.482557	-30.770042	-38.482557	-30.770042	-0.914339	66.503965
8.000000	-0.324451	-134.779688	-38.337012	-32.148346	-38.337012	-32.148346	-1.035357	62.251930
8.050000	-0.328975	-135.534942	-38.172320	-33.663779	-38.172320	-33.663779	-1.230611	57.455275
8.100000	-0.333551	-136.290594	-37.992003	-35.456523	-37.992003	-35.456523	-1.582688	51.886375
8.150000	-0.338181	-137.046698	-37.825979	-37.794047	-37.825979	-37.794047	-2.325998	45.459410
8.200000	-0.342866	-137.803309	-37.808792	-40.831946	-37.808792	-40.831946	-4.097858	40.970871
8.250000	-0.347607	-138.560487	-38.130298	-42.481112	-38.130298	-42.481112	-6.034306	55.640676
8.300000	-0.352418	-139.318312	-38.188005	-40.591221	-38.188005	-40.591221	-3.756444	65.602244
8.350000	-0.357302	-140.076377	-37.754239	-39.573247	-37.754239	-39.573247	-2.374098	58.374594
8.400000	-0.362187	-140.835357	-37.193083	-40.234557	-37.193083	-40.234557	-2.009295	49.769221
8.450000	-0.367156	-141.595040	-36.573515	-42.026465	-36.573515	-42.026465	-2.107730	41.263292
8.500000	-0.372184	-142.355288	-35.876389	-45.036772	-35.876389	-45.036772	-2.586213	32.209819
8.550000	-0.377246	-143.115967	-35.104689	-49.961324	-35.104689	-49.961324	-3.675557	21.882824
8.600000	-0.382258	-143.876921	-34.380640	-58.001131	-34.380640	-58.001131	-6.168731	10.678248
8.650000	-0.387035	-144.638849	-34.100937	-69.948707	-34.100937	-69.948707	-12.558628	12.083250
8.700000	-0.391628	-145.404500	-34.835296	-83.250573	-34.835296	-83.250573	-12.320010	87.948058
8.750000	-0.396582	-146.173827	-36.513276	-92.013584	-36.513276	-92.013584	-5.796192	88.173915
8.800000	-0.401914	-146.943912	-38.343799	-93.891100	-38.343799	-93.891100	-3.245536	76.454410
8.850000	-0.407387	-147.714338	-39.746205	-91.079795	-39.746205	-91.079795	-2.115573	66.315666
8.900000	-0.412913	-148.485616	-40.606132	-86.518382	-40.606132	-86.518382	-1.549699	58.212685
8.950000	-0.418477	-149.258121	-41.045568	-82.003464	-41.045568	-82.003464	-1.236466	51.566449
9.000000	-0.424083	-150.032097	-41.216287	-78.230812	-41.216287	-78.230812	-1.050493	45.915343
9.050000	-0.429734	-150.807707	-41.233361	-75.303958	-41.233361	-75.303958	-0.933900	40.947126
9.100000	-0.435435	-151.585055	-41.166904	-73.103298	-41.166904	-73.103298	-0.857669	36.456448
9.150000	-0.441189	-152.364272	-41.054348	-71.487557	-41.054348	-71.487557	-0.806977	32.318453
9.200000	-0.446999	-153.145488	-40.916202	-70.328048	-40.916202	-70.328048	-0.773181	28.447230
9.250000	-0.452867	-153.928807	-40.763358	-69.518384	-40.763358	-69.518384	-0.750921	24.779946
9.300000	-0.458795	-154.714331	-40.601094	-68.981333	-40.601094	-68.981333	-0.736921	21.272598
9.350000	-0.464783	-155.502178	-40.431695	-68.662767	-40.431695	-68.662767	-0.729130	17.893845
9.400000	-0.470832	-156.292468	-40.255855	-68.524436	-40.255855	-68.524436	-0.726214	14.620104
9.450000	-0.476944	-157.085380	-40.073156	-68.542691	-40.073156	-68.542691	-0.727380	11.434495
9.500000	-0.483120	-157.881025	-39.882973	-68.698981	-39.882973	-68.698981	-0.732057	8.321504
9.550000	-0.489353	-158.679305	-39.685393	-68.973620	-39.685393	-68.973620	-0.739718	5.264695
9.600000	-0.495654	-159.480877	-39.476908	-69.385246	-39.476908	-69.385246	-0.750863	2.263519
9.650000	-0.502011	-160.285306	-39.259198	-69.911762	-39.259198	-69.911762	-0.765017	-0.699822
9.700000	-0.508432	-161.093316	-39.028142	-70.583569	-39.028142	-70.583569	-0.783178	-3.626543
9.750000	-0.514909	-161.904623	-38.785122	-71.394644	-38.785122	-71.394644	-0.805471	-6.528047
9.800000	-0.521441	-162.719685	-38.527633	-72.375548	-38.527633	-72.375548	-0.833291	-9.409029
9.850000	-0.528025	-163.538625	-38.255510	-73.547599	-38.255510	-73.547599	-0.868031	-12.275519
9.900000	-0.534653	-164.361491	-37.969537	-74.934192	-37.969537	-74.934192	-0.911533	-15.131951
9.950000	-0.541324	-165.188908	-37.668216	-76.598408	-37.668216	-76.598408	-0.967866	-17.977731
10.000000	-0.548023	-166.020420	-37.357058	-78.542298	-37.357058	-78.542298	-1.038868	-20.808927
