! freq	dB(S11)	phase(S11)	dB(S12)	phase(S12)	
!     	dB(S21)	phase(S21)	dB(S22)	phase(S22)	
!S-par simulation data
#  GHz  S  DB  R 50
0.000000	-0.000000	0.000000	-333.058846	0.000000	-333.058846	0.000000	-0.000000	0.000000
0.050000	-0.003903	-4.990948	-69.631677	90.015836	-69.631677	90.015836	-0.000816	-1.226134
0.100000	-0.011970	-9.939677	-63.660141	83.711271	-63.660141	83.711271	-0.002702	-2.445817
0.150000	-0.019724	-14.843809	-60.213370	80.685985	-60.213370	80.685985	-0.004786	-3.658684
0.200000	-0.026086	-19.712032	-57.765174	77.680394	-57.765174	77.680394	-0.006682	-4.867379
0.250000	-0.031362	-24.544723	-55.880408	74.681812	-55.880408	74.681812	-0.008345	-6.073903
0.300000	-0.036059	-29.337700	-54.358076	71.699102	-54.358076	71.699102	-0.009850	-7.279361
0.350000	-0.040549	-34.086892	-53.088425	68.738059	-53.088425	68.738059	-0.011279	-8.484216
0.400000	-0.045047	-38.786484	-52.006281	65.803609	-52.006281	65.803609	-0.012684	-9.688572
0.450000	-0.049702	-43.428617	-51.070449	62.901241	-51.070449	62.901241	-0.014100	-10.892381
0.500000	-0.054592	-48.011585	-50.250274	60.032766	-50.250274	60.032766	-0.015544	-12.095588
0.550000	-0.059760	-52.531876	-49.524815	57.200942	-49.524815	57.200942	-0.017023	-13.298093
0.600000	-0.065207	-56.983601	-48.879608	54.410067	-48.879608	54.410067	-0.018538	-14.499743
0.650000	-0.070837	-61.367120	-48.301689	51.660776	-48.301689	51.660776	-0.020082	-15.700442
0.700000	-0.076483	-65.681631	-47.781380	48.954251	-47.781380	48.954251	-0.021648	-16.900077
0.750000	-0.081917	-69.923454	-47.311765	46.293174	-47.311765	46.293174	-0.023227	-18.098482
0.800000	-0.086917	-74.091025	-46.886512	43.678479	-46.886512	43.678479	-0.024810	-19.295519
0.850000	-0.091352	-78.183488	-46.500175	41.110348	-46.500175	41.110348	-0.026390	-20.491068
0.900000	-0.095202	-82.199656	-46.148352	38.589150	-46.148352	38.589150	-0.027962	-21.684997
0.950000	-0.098522	-86.138529	-45.827412	36.115344	-45.827412	36.115344	-0.029520	-22.877172
1.000000	-0.101409	-90.000193	-45.534163	33.689004	-45.534163	33.689004	-0.031064	-24.067472
1.050000	-0.103961	-93.785424	-45.265832	31.310028	-45.265832	31.310028	-0.032591	-25.255787
1.100000	-0.106259	-97.495509	-45.019995	28.978161	-45.019995	28.978161	-0.034103	-26.442019
1.150000	-0.108361	-101.132084	-44.794514	26.693013	-44.794514	26.693013	-0.035602	-27.626082
1.200000	-0.110306	-104.697017	-44.587496	24.454080	-44.587496	24.454080	-0.037088	-28.807902
1.250000	-0.112122	-108.192330	-44.397251	22.260763	-44.397251	22.260763	-0.038564	-29.987416
1.300000	-0.113824	-111.618732	-44.222496	20.113341	-44.222496	20.113341	-0.040032	-31.164517
1.350000	-0.115429	-114.979943	-44.061607	18.010069	-44.061607	18.010069	-0.041494	-32.339210
1.400000	-0.116946	-118.278210	-43.913353	15.950141	-43.913353	15.950141	-0.042952	-33.511453
1.450000	-0.118384	-121.515815	-43.776620	13.932706	-43.776620	13.932706	-0.044406	-34.681211
1.500000	-0.119751	-124.695052	-43.650390	11.956876	-43.650390	11.956876	-0.045858	-35.848450
1.550000	-0.121055	-127.818218	-43.533735	10.021733	-43.533735	10.021733	-0.047308	-37.013141
1.600000	-0.122302	-130.887602	-43.425800	8.126335	-43.425800	8.126335	-0.048758	-38.175254
1.650000	-0.123501	-133.905474	-43.325801	6.269719	-43.325801	6.269719	-0.050206	-39.334761
1.700000	-0.124658	-136.874923	-43.232911	4.450242	-43.232911	4.450242	-0.051654	-40.491684
1.750000	-0.125778	-139.794007	-43.146941	2.670188	-43.146941	2.670188	-0.053102	-41.645755
1.800000	-0.126872	-142.671516	-43.066500	0.923306	-43.066500	0.923306	-0.054550	-42.797334
1.850000	-0.127943	-145.504474	-42.991577	-0.787332	-42.991577	-0.787332	-0.055998	-43.946085
1.900000	-0.129000	-148.297394	-42.921367	-2.464762	-42.921367	-2.464762	-0.057445	-45.092141
1.950000	-0.130047	-151.052306	-42.855364	-4.110044	-42.855364	-4.110044	-0.058893	-46.235476
2.000000	-0.131090	-153.769029	-42.793288	-5.722408	-42.793288	-5.722408	-0.060341	-47.375905
2.050000	-0.132135	-156.453602	-42.734332	-7.306533	-42.734332	-7.306533	-0.061790	-48.513731
2.100000	-0.133187	-159.102095	-42.678532	-8.858382	-42.678532	-8.858382	-0.063239	-49.648438
2.150000	-0.134250	-161.722522	-42.625029	-10.384678	-42.625029	-10.384678	-0.064689	-50.780554
2.200000	-0.135330	-164.311438	-42.573786	-11.881810	-42.573786	-11.881810	-0.066141	-51.909560
2.250000	-0.136429	-166.874420	-42.524217	-13.354573	-42.524217	-13.354573	-0.067594	-53.035824
2.300000	-0.137553	-169.411078	-42.476085	-14.802257	-42.476085	-14.802257	-0.069049	-54.159103
2.350000	-0.138704	-171.923525	-42.429048	-16.226605	-42.429048	-16.226605	-0.070506	-55.279434
2.400000	-0.139885	-174.414235	-42.382776	-17.629793	-42.382776	-17.629793	-0.071967	-56.396914
2.450000	-0.141103	-176.882654	-42.337016	-19.011132	-42.337016	-19.011132	-0.073431	-57.511240
2.500000	-0.142353	-179.333366	-42.291485	-20.375045	-42.291485	-20.375045	-0.074898	-58.622857
2.550000	-0.143649	178.236117	-42.245889	-21.719085	-42.245889	-21.719085	-0.076370	-59.731115
2.600000	-0.144983	175.820661	-42.200063	-23.048374	-42.200063	-23.048374	-0.077847	-60.836640
2.650000	-0.146365	173.421394	-42.153693	-24.361978	-42.153693	-24.361978	-0.079330	-61.938952
2.700000	-0.147792	171.035570	-42.106653	-25.662793	-42.106653	-25.662793	-0.080818	-63.038335
2.750000	-0.149269	168.662417	-42.058710	-26.951892	-42.058710	-26.951892	-0.082314	-64.134662
2.800000	-0.150798	166.300908	-42.009667	-28.230659	-42.009667	-28.230659	-0.083817	-65.227866
2.850000	-0.152379	163.948998	-41.959476	-29.501413	-41.959476	-29.501413	-0.085328	-66.318177
2.900000	-0.154019	161.606764	-41.907775	-30.764789	-41.907775	-30.764789	-0.086848	-67.405177
2.950000	-0.155712	159.271593	-41.854741	-32.023483	-41.854741	-32.023483	-0.088377	-68.489394
3.000000	-0.157470	156.943718	-41.799898	-33.278363	-41.799898	-33.278363	-0.089916	-69.570234
3.050000	-0.159285	154.620945	-41.743496	-34.531611	-41.743496	-34.531611	-0.091466	-70.648229
3.100000	-0.161167	152.302781	-41.685214	-35.784780	-41.685214	-35.784780	-0.093027	-71.723024
3.150000	-0.163113	149.987929	-41.625114	-37.039521	-41.625114	-37.039521	-0.094601	-72.794798
3.200000	-0.165125	147.675351	-41.563149	-38.297507	-41.563149	-38.297507	-0.096187	-73.863556
3.250000	-0.167210	145.364123	-41.499149	-39.560652	-41.499149	-39.560652	-0.097786	-74.929124
3.300000	-0.169361	143.053161	-41.433375	-40.829913	-41.433375	-40.829913	-0.099399	-75.991863
3.350000	-0.171599	140.741303	-41.365249	-42.108845	-41.365249	-42.108845	-0.101029	-77.051074
3.400000	-0.173904	138.427864	-41.295464	-43.396628	-41.295464	-43.396628	-0.102672	-78.107604
3.450000	-0.176287	136.111791	-41.223754	-44.695805	-41.223754	-44.695805	-0.104332	-79.161109
3.500000	-0.178752	133.792140	-41.150152	-46.007910	-41.150152	-46.007910	-0.106008	-80.211601
3.550000	-0.181300	131.467974	-41.074702	-47.334438	-41.074702	-47.334438	-0.107702	-81.259093
3.600000	-0.183936	129.138371	-40.997459	-48.676844	-40.997459	-48.676844	-0.109413	-82.303599
3.650000	-0.186661	126.802416	-40.918488	-50.036535	-40.918488	-50.036535	-0.111143	-83.345135
3.700000	-0.189479	124.459204	-40.837861	-51.414874	-40.837861	-51.414874	-0.112893	-84.383715
3.750000	-0.192394	122.107834	-40.755661	-52.813172	-40.755661	-52.813172	-0.114662	-85.419359
3.800000	-0.195413	119.746979	-40.671878	-54.233673	-40.671878	-54.233673	-0.116453	-86.451960
3.850000	-0.198537	117.376108	-40.586711	-55.676713	-40.586711	-55.676713	-0.118265	-87.481665
3.900000	-0.201769	114.994336	-40.500260	-57.143447	-40.500260	-57.143447	-0.120099	-88.508497
3.950000	-0.205113	112.600785	-40.412630	-58.634977	-40.412630	-58.634977	-0.121956	-89.532477
4.000000	-0.208570	110.195298	-40.324033	-60.150916	-40.324033	-60.150916	-0.123834	-90.553783
4.050000	-0.212153	107.775762	-40.234389	-61.694796	-40.234389	-61.694796	-0.125737	-91.572163
4.100000	-0.215865	105.341838	-40.143897	-63.266471	-40.143897	-63.266471	-0.127665	-92.587765
4.150000	-0.219710	102.892651	-40.052673	-64.866855	-40.052673	-64.866855	-0.129617	-93.600618
4.200000	-0.223695	100.427324	-39.960833	-66.496819	-39.960833	-66.496819	-0.131595	-94.610750
4.250000	-0.227827	97.944978	-39.868492	-68.157192	-39.868492	-68.157192	-0.133599	-95.618189
4.300000	-0.232112	95.444732	-39.775767	-69.848767	-39.775767	-69.848767	-0.135630	-96.622966
4.350000	-0.236557	92.925700	-39.682771	-71.572297	-39.682771	-71.572297	-0.137688	-97.625112
4.400000	-0.241173	90.386770	-39.589608	-73.328869	-39.589608	-73.328869	-0.139774	-98.624632
4.450000	-0.245968	87.827017	-39.496391	-75.119196	-39.496391	-75.119196	-0.141889	-99.621561
4.500000	-0.250950	85.245753	-39.403244	-76.943585	-39.403244	-76.943585	-0.144033	-100.615959
4.550000	-0.256127	82.642073	-39.310273	-78.802673	-39.310273	-78.802673	-0.146207	-101.607863
4.600000	-0.261509	80.015061	-39.217582	-80.697074	-39.217582	-80.697074	-0.148410	-102.597309
4.650000	-0.267109	77.363795	-39.125273	-82.627383	-39.125273	-82.627383	-0.150645	-103.584333
4.700000	-0.272936	74.687345	-39.033442	-84.594180	-39.033442	-84.594180	-0.152910	-104.568974
4.750000	-0.279002	71.984770	-38.942183	-86.598026	-38.942183	-86.598026	-0.155207	-105.551269
4.800000	-0.285321	69.255120	-38.851586	-88.639474	-38.851586	-88.639474	-0.157536	-106.531258
4.850000	-0.291905	66.497434	-38.761739	-90.719065	-38.761739	-90.719065	-0.159898	-107.508982
4.900000	-0.298768	63.710741	-38.672721	-92.837330	-38.672721	-92.837330	-0.162293	-108.484482
4.950000	-0.305926	60.894057	-38.584612	-94.994797	-38.584612	-94.994797	-0.164721	-109.457799
5.000000	-0.313393	58.046385	-38.497483	-97.191986	-38.497483	-97.191986	-0.167183	-110.428975
5.050000	-0.321193	55.165999	-38.411411	-99.430302	-38.411411	-99.430302	-0.169681	-111.398010
5.100000	-0.329335	52.252549	-38.326456	-101.709397	-38.326456	-101.709397	-0.172214	-112.364994
5.150000	-0.337839	49.304997	-38.242677	-104.029783	-38.242677	-104.029783	-0.174782	-113.329971
5.200000	-0.346722	46.322294	-38.160128	-106.391972	-38.160128	-106.391972	-0.177385	-114.292988
5.250000	-0.356003	43.303376	-38.078860	-108.796477	-38.078860	-108.796477	-0.180025	-115.254090
5.300000	-0.365702	40.247162	-37.998915	-111.243805	-37.998915	-111.243805	-0.182701	-116.213323
5.350000	-0.375839	37.152561	-37.920333	-113.734467	-37.920333	-113.734467	-0.185415	-117.170736
5.400000	-0.386435	34.018465	-37.843148	-116.268967	-37.843148	-116.268967	-0.188165	-118.126376
5.450000	-0.397512	30.843751	-37.767389	-118.847808	-37.767389	-118.847808	-0.190953	-119.080292
5.500000	-0.409091	27.627286	-37.693079	-121.471486	-37.693079	-121.471486	-0.193779	-120.032533
5.550000	-0.421195	24.367922	-37.620238	-124.140490	-37.620238	-124.140490	-0.196643	-120.983149
5.600000	-0.433845	21.064497	-37.548878	-126.855298	-37.548878	-126.855298	-0.199546	-121.932190
5.650000	-0.447070	17.715337	-37.479019	-129.616883	-37.479019	-129.616883	-0.202487	-122.879691
5.700000	-0.460894	14.319221	-37.410666	-132.425705	-37.410666	-132.425705	-0.205468	-123.825707
5.750000	-0.475331	10.875451	-37.343807	-135.281685	-37.343807	-135.281685	-0.208488	-124.770305
5.800000	-0.490403	7.382834	-37.278436	-138.185220	-37.278436	-138.185220	-0.211548	-125.713538
5.850000	-0.506131	3.840174	-37.214544	-141.136675	-37.214544	-141.136675	-0.214647	-126.655460
5.900000	-0.522533	0.246277	-37.152117	-144.136378	-37.152117	-144.136378	-0.217786	-127.596125
5.950000	-0.539627	-3.400049	-37.091140	-147.184621	-37.091140	-147.184621	-0.220964	-128.535587
6.000000	-0.557429	-7.099984	-37.031593	-150.281653	-37.031593	-150.281653	-0.224183	-129.473901
6.050000	-0.575951	-10.854695	-36.973453	-153.427687	-36.973453	-153.427687	-0.227442	-130.411124
6.100000	-0.595204	-14.665326	-36.916696	-156.622900	-36.916696	-156.622900	-0.230741	-131.347310
6.150000	-0.615195	-18.532996	-36.861288	-159.867442	-36.861288	-159.867442	-0.234080	-132.282517
6.200000	-0.635926	-22.458787	-36.807182	-163.161422	-36.807182	-163.161422	-0.237459	-133.216802
6.250000	-0.657396	-26.443736	-36.754313	-166.504868	-36.754313	-166.504868	-0.240879	-134.150224
6.300000	-0.679612	-30.490153	-36.702602	-169.898688	-36.702602	-169.898688	-0.244340	-135.082824
6.350000	-0.702546	-34.597665	-36.651919	-173.341310	-36.651919	-173.341310	-0.247841	-136.014681
6.400000	-0.726177	-38.767101	-36.602158	-176.831849	-36.602158	-176.831849	-0.251383	-136.945854
6.450000	-0.750477	-42.999197	-36.553248	179.630889	-36.553248	179.630889	-0.254964	-137.876404
6.500000	-0.775409	-47.294580	-36.505152	176.048239	-36.505152	176.048239	-0.258586	-138.806391
6.550000	-0.800929	-51.653749	-36.457855	172.421575	-36.457855	172.421575	-0.262249	-139.735878
6.600000	-0.826981	-56.077062	-36.411345	168.752307	-36.411345	168.752307	-0.265951	-140.664925
6.650000	-0.853499	-60.564712	-36.365605	165.041949	-36.365605	165.041949	-0.269693	-141.593597
6.700000	-0.880402	-65.115366	-36.320596	161.292976	-36.320596	161.292976	-0.273475	-142.521962
6.750000	-0.907615	-69.732219	-36.276313	157.505312	-36.276313	157.505312	-0.277298	-143.450069
6.800000	-0.935029	-74.413059	-36.232706	153.682242	-36.232706	153.682242	-0.281161	-144.377993
6.850000	-0.962534	-79.155917	-36.189732	149.826857	-36.189732	149.826857	-0.285064	-145.305800
6.900000	-0.990007	-83.962350	-36.147376	145.940604	-36.147376	145.940604	-0.289007	-146.233554
6.950000	-1.017323	-88.829331	-36.105597	142.027342	-36.105597	142.027342	-0.292990	-147.161322
7.000000	-1.044353	-93.755639	-36.064375	138.090094	-36.064375	138.090094	-0.297014	-148.089170
7.050000	-1.070967	-98.741114	-36.023701	134.131783	-36.023701	134.131783	-0.301078	-149.017169
7.100000	-1.097122	-103.781671	-35.983545	130.156797	-35.983545	130.156797	-0.305181	-149.945379
7.150000	-1.122927	-108.878736	-35.943917	126.168181	-35.943917	126.168181	-0.309327	-150.873880
7.200000	-1.149433	-114.027875	-35.904797	122.170485	-35.904797	122.170485	-0.313512	-151.802730
7.250000	-1.179978	-119.199409	-35.866188	118.167622	-35.866188	118.167622	-0.317738	-152.731999
7.300000	-1.198594	-124.349535	-35.828095	114.163920	-35.828095	114.163920	-0.322006	-153.661766
7.350000	-1.211818	-129.615970	-35.790505	110.163588	-35.790505	110.163588	-0.326315	-154.592079
7.400000	-1.228024	-134.924788	-35.753440	106.171428	-35.753440	106.171428	-0.330666	-155.523041
7.450000	-1.243533	-140.256832	-35.716882	102.191459	-35.716882	102.191459	-0.335059	-156.454691
7.500000	-1.257396	-145.609198	-35.680830	98.228055	-35.680830	98.228055	-0.339493	-157.387101
7.550000	-1.269178	-150.978297	-35.645293	94.286488	-35.645293	94.286488	-0.343971	-158.320374
7.600000	-1.278761	-156.358437	-35.610247	90.370436	-35.610247	90.370436	-0.348492	-159.254554
7.650000	-1.286031	-161.744189	-35.575673	86.484058	-35.575673	86.484058	-0.353056	-160.189710
7.700000	-1.290915	-167.129880	-35.541548	82.631385	-35.541548	82.631385	-0.357663	-161.125911
7.750000	-1.293371	-172.509710	-35.507838	78.816286	-35.507838	78.816286	-0.362314	-162.063227
7.800000	-1.293387	-177.877834	-35.474502	75.042448	-35.474502	75.042448	-0.367009	-163.001728
7.850000	-1.290916	176.772156	-35.441492	71.314590	-35.441492	71.314590	-0.371750	-163.941517
7.900000	-1.286047	171.445892	-35.408740	67.635311	-35.408740	67.635311	-0.376535	-164.882646
7.950000	-1.278871	166.148760	-35.376171	64.007216	-35.376171	64.007216	-0.381365	-165.825173
8.000000	-1.269483	160.886091	-35.343702	60.433041	-35.343702	60.433041	-0.386240	-166.769170
8.050000	-1.257997	155.662953	-35.311239	56.915261	-35.311239	56.915261	-0.391160	-167.714706
8.100000	-1.244547	150.484118	-35.278675	53.456078	-35.278675	53.456078	-0.396125	-168.661852
8.150000	-1.229252	145.354939	-35.245885	50.058495	-35.245885	50.058495	-0.401137	-169.610710
8.200000	-1.212281	140.279679	-35.212738	46.724231	-35.212738	46.724231	-0.406195	-170.561353
8.250000	-1.193836	135.261169	-35.179099	43.453597	-35.179099	43.453597	-0.411298	-171.513823
8.300000	-1.174094	130.302698	-35.144821	40.247673	-35.144821	40.247673	-0.416447	-172.468193
8.350000	-1.153232	125.407167	-35.109746	37.107272	-35.109746	37.107272	-0.421641	-173.424534
8.400000	-1.131431	120.577085	-35.073709	34.032940	-35.073709	34.032940	-0.426882	-174.382918
8.450000	-1.108861	115.815182	-35.036522	31.025534	-35.036522	31.025534	-0.432167	-175.343436
8.500000	-1.085689	111.124472	-34.997970	28.086215	-34.997970	28.086215	-0.437500	-176.306202
8.550000	-1.062100	106.504578	-34.957898	25.213013	-34.957898	25.213013	-0.442877	-177.271233
8.600000	-1.038251	101.956544	-34.916111	22.405423	-34.916111	22.405423	-0.448299	-178.238601
8.650000	-1.014288	97.481100	-34.872412	19.662683	-34.872412	19.662683	-0.453767	-179.208382
8.700000	-0.990349	93.078688	-34.826601	16.983781	-34.826601	16.983781	-0.459278	179.819353
8.750000	-0.966561	88.749483	-34.778476	14.367443	-34.778476	14.367443	-0.464834	178.844529
8.800000	-0.943048	84.495929	-34.727737	11.814178	-34.727737	11.814178	-0.470436	177.866979
8.850000	-0.919912	80.315193	-34.674281	9.320002	-34.674281	9.320002	-0.476081	176.886717
8.900000	-0.897244	76.206775	-34.617923	6.882807	-34.617923	6.882807	-0.481769	175.903670
8.950000	-0.875128	72.170002	-34.558498	4.500194	-34.558498	4.500194	-0.487500	174.917763
9.000000	-0.853636	68.204048	-34.495856	2.169466	-34.495856	2.169466	-0.493274	173.928922
9.050000	-0.832829	64.307957	-34.429879	-0.112378	-34.429879	-0.112378	-0.499090	172.937071
9.100000	-0.812781	60.482408	-34.360377	-2.347563	-34.360377	-2.347563	-0.504948	171.942056
9.150000	-0.793527	56.724997	-34.287383	-4.540658	-34.287383	-4.540658	-0.510848	170.943851
9.200000	-0.775096	53.033878	-34.210956	-6.696002	-34.210956	-6.696002	-0.516788	169.942410
9.250000	-0.757520	49.407732	-34.131199	-8.817821	-34.131199	-8.817821	-0.522769	168.937659
9.300000	-0.740820	45.845185	-34.048301	-10.910572	-34.048301	-10.910572	-0.528788	167.929524
9.350000	-0.725014	42.344825	-33.962557	-12.978885	-33.962557	-12.978885	-0.534847	166.917933
9.400000	-0.710130	38.906228	-33.874335	-15.027207	-33.874335	-15.027207	-0.540943	165.902752
9.450000	-0.696176	35.527856	-33.784225	-17.060411	-33.784225	-17.060411	-0.547077	164.883907
9.500000	-0.683139	32.207180	-33.693007	-19.083242	-33.693007	-19.083242	-0.553246	163.861390
9.550000	-0.671020	28.942711	-33.601570	-21.099659	-33.601570	-21.099659	-0.559450	162.835136
9.600000	-0.659814	25.732960	-33.510974	-23.112924	-33.510974	-23.112924	-0.565686	161.805081
9.650000	-0.649515	22.576439	-33.422440	-25.125314	-33.422440	-25.125314	-0.571953	160.771170
9.700000	-0.640122	19.472105	-33.337371	-27.137815	-33.337371	-27.137815	-0.578248	159.733322
9.750000	-0.631639	16.419302	-33.257388	-29.149731	-33.257388	-29.149731	-0.584566	158.691437
9.800000	-0.624032	13.415244	-33.183982	-31.158431	-33.183982	-31.158431	-0.590900	157.645616
9.850000	-0.617286	10.458502	-33.118712	-33.159241	-33.118712	-33.159241	-0.597238	156.595915
9.900000	-0.611387	7.547665	-33.063065	-35.145365	-33.063065	-35.145365	-0.603556	155.542517
9.950000	-0.606318	4.681345	-33.018380	-37.107966	-33.018380	-37.107966	-0.609804	154.485925
10.000000	-0.602064	1.858177	-32.985769	-39.036408	-32.985769	-39.036408	-0.615833	153.427681
