! freq	dB(S11)	phase(S11)	dB(S12)	phase(S12)	
!     	dB(S21)	phase(S21)	dB(S22)	phase(S22)	
!S-par simulation data
#  GHz  S  DB  R 50
0.000000	0.000000	0.000000	-253.276022	180.000000	-253.276022	180.000000	0.000000	0.000000
0.050000	-0.001371	-2.279237	-72.296381	87.647961	-72.296381	87.647961	-0.001373	-2.279510
0.100000	-0.004821	-4.549857	-66.294999	85.375712	-66.294999	85.375712	-0.004824	-4.550360
0.150000	-0.009141	-6.809362	-62.792423	83.141533	-62.792423	83.141533	-0.009140	-6.810061
0.200000	-0.013425	-9.059700	-60.314203	80.914794	-60.314203	80.914794	-0.013417	-9.060591
0.250000	-0.017360	-11.304738	-58.397646	78.688299	-58.397646	78.688299	-0.017344	-11.305833
0.300000	-0.020874	-13.546098	-56.838216	76.462167	-56.838216	76.462167	-0.020851	-13.547411
0.350000	-0.024021	-15.784806	-55.526410	74.238043	-55.526410	74.238043	-0.023994	-15.786348
0.400000	-0.026881	-18.021153	-54.396962	72.017838	-54.396962	72.017838	-0.026852	-18.022934
0.450000	-0.029523	-20.254805	-53.408647	69.803910	-53.408647	69.803910	-0.029495	-20.256830
0.500000	-0.032035	-22.485698	-52.531432	67.597227	-52.531432	67.597227	-0.032009	-22.487971
0.550000	-0.034463	-24.713469	-51.744722	65.399027	-51.744722	65.399027	-0.034441	-24.715989
0.600000	-0.036843	-26.937738	-51.033291	63.210418	-51.033291	63.210418	-0.036825	-26.940505
0.650000	-0.039201	-29.158133	-50.385552	61.032410	-50.385552	61.032410	-0.039187	-29.161146
0.700000	-0.041554	-31.374300	-49.792476	58.865933	-49.792476	58.865933	-0.041545	-31.377556
0.750000	-0.043916	-33.585604	-49.247499	56.712672	-49.247499	56.712672	-0.043912	-33.589101
0.800000	-0.046299	-35.791717	-48.744708	54.573489	-48.744708	54.573489	-0.046299	-35.795451
0.850000	-0.048705	-37.992445	-48.279055	52.448903	-48.279055	52.448903	-0.048709	-37.996413
0.900000	-0.051136	-40.187918	-47.845864	50.338569	-47.845864	50.338569	-0.051144	-40.192119
0.950000	-0.053594	-42.377574	-47.442358	48.244048	-47.442358	48.244048	-0.053605	-42.382004
1.000000	-0.056078	-44.561176	-47.065675	46.166032	-47.065675	46.166032	-0.056092	-44.565833
1.050000	-0.058586	-46.738507	-46.713351	44.105178	-46.713351	44.105178	-0.058602	-46.743392
1.100000	-0.061116	-48.909373	-46.383245	42.062113	-46.383245	42.062113	-0.061132	-48.914482
1.150000	-0.063663	-51.073593	-46.073482	40.037431	-46.073482	40.037431	-0.063680	-51.078927
1.200000	-0.066224	-53.231008	-45.782405	38.031694	-45.782405	38.031694	-0.066241	-53.236568
1.250000	-0.068795	-55.381476	-45.508540	36.045434	-45.508540	36.045434	-0.068812	-55.387262
1.300000	-0.071372	-57.524560	-45.250892	34.080040	-45.250892	34.080040	-0.071388	-57.530573
1.350000	-0.073951	-59.660457	-45.007920	32.135128	-45.007920	32.135128	-0.073966	-59.666698
1.400000	-0.076527	-61.789077	-44.778543	30.211126	-44.778543	30.211126	-0.076541	-61.795547
1.450000	-0.079098	-63.910347	-44.561773	28.308430	-44.561773	28.308430	-0.079110	-63.917050
1.500000	-0.081659	-66.024211	-44.356704	26.427399	-44.356704	26.427399	-0.081669	-66.031147
1.550000	-0.084207	-68.130626	-44.162499	24.568355	-44.162499	24.568355	-0.084215	-68.137799
1.600000	-0.086740	-70.229566	-43.978380	22.731581	-43.978380	22.731581	-0.086746	-70.236976
1.650000	-0.089255	-72.321016	-43.803624	20.917320	-43.803624	20.917320	-0.089259	-72.328666
1.700000	-0.091750	-74.404977	-43.637551	19.125772	-43.637551	19.125772	-0.091751	-74.412870
1.750000	-0.094223	-76.481464	-43.479521	17.357089	-43.479521	17.357089	-0.094222	-76.489602
1.800000	-0.096672	-78.550503	-43.328928	15.611375	-43.328928	15.611375	-0.096670	-78.558887
1.850000	-0.099097	-80.612132	-43.185200	13.888685	-43.185200	13.888685	-0.099093	-80.620764
1.900000	-0.101497	-82.666403	-43.047787	12.189014	-43.047787	12.189014	-0.101492	-82.675284
1.950000	-0.103872	-84.713376	-42.916167	10.512300	-42.916167	10.512300	-0.103865	-84.722509
2.000000	-0.106221	-86.753126	-42.789837	8.858420	-42.789837	8.858420	-0.106214	-86.762510
2.050000	-0.108546	-88.785734	-42.668315	7.227180	-42.668315	7.227180	-0.108538	-88.795371
2.100000	-0.110846	-90.811293	-42.551136	5.618321	-42.551136	5.618321	-0.110838	-90.821184
2.150000	-0.113124	-92.829905	-42.437850	4.031504	-42.437850	4.031504	-0.113115	-92.840051
2.200000	-0.115379	-94.841681	-42.328023	2.466316	-42.328023	2.466316	-0.115370	-94.852082
2.250000	-0.117614	-96.846741	-42.221235	0.922260	-42.221235	0.922260	-0.117605	-96.857397
2.300000	-0.119830	-98.845211	-42.117082	-0.601246	-42.117082	-0.601246	-0.119821	-98.856124
2.350000	-0.122029	-100.837227	-42.015169	-2.104869	-42.015169	-2.104869	-0.122021	-100.848396
2.400000	-0.124213	-102.822931	-41.915118	-3.589372	-41.915118	-3.589372	-0.124205	-102.834356
2.450000	-0.126384	-104.802472	-41.816564	-5.055604	-41.816564	-5.055604	-0.126377	-104.814155
2.500000	-0.128544	-106.776006	-41.719154	-6.504511	-41.719154	-6.504511	-0.128538	-106.787947
2.550000	-0.130696	-108.743448	-41.622524	-7.936476	-41.622524	-7.936476	-0.130690	-108.755648
2.600000	-0.132842	-110.705230	-41.526350	-9.353397	-41.526350	-9.353397	-0.132837	-110.717689
2.650000	-0.134984	-112.661524	-41.430327	-10.756507	-41.430327	-10.756507	-0.134980	-112.674245
2.700000	-0.137126	-114.612511	-41.334164	-12.147128	-41.334164	-12.147128	-0.137122	-114.625494
2.750000	-0.139269	-116.558375	-41.237590	-13.526664	-41.237590	-13.526664	-0.139266	-116.571622
2.800000	-0.141415	-118.499304	-41.140348	-14.896597	-41.140348	-14.896597	-0.141413	-118.512818
2.850000	-0.143568	-120.435494	-41.042203	-16.258480	-41.042203	-16.258480	-0.143566	-120.449276
2.900000	-0.145729	-122.367142	-40.942938	-17.613931	-40.942938	-17.613931	-0.145727	-122.381194
2.950000	-0.147901	-124.294449	-40.842355	-18.964624	-40.842355	-18.964624	-0.147898	-124.308776
3.000000	-0.150085	-126.217621	-40.740277	-20.312279	-40.740277	-20.312279	-0.150082	-126.232225
3.050000	-0.152284	-128.136868	-40.636548	-21.658653	-40.636548	-21.658653	-0.152281	-128.151753
3.100000	-0.154499	-130.052402	-40.531031	-23.005529	-40.531031	-23.005529	-0.154495	-130.067571
3.150000	-0.156733	-131.964438	-40.423611	-24.354706	-40.423611	-24.354706	-0.156728	-131.979896
3.200000	-0.158986	-133.873195	-40.314194	-25.707987	-40.314194	-25.707987	-0.158981	-133.888946
3.250000	-0.161262	-135.778894	-40.202703	-27.067168	-40.202703	-27.067168	-0.161256	-135.794943
3.300000	-0.163561	-137.681758	-40.089085	-28.434030	-40.089085	-28.434030	-0.163554	-137.698111
3.350000	-0.165884	-139.582014	-39.973301	-29.810323	-39.973301	-29.810323	-0.165876	-139.598675
3.400000	-0.168233	-141.479888	-39.855332	-31.197762	-39.855332	-31.197762	-0.168224	-141.496863
3.450000	-0.170609	-143.375611	-39.735177	-32.598015	-39.735177	-32.598015	-0.170599	-143.392906
3.500000	-0.173014	-145.269413	-39.612846	-34.012693	-39.612846	-34.012693	-0.173002	-145.287034
3.550000	-0.175447	-147.161528	-39.488368	-35.443346	-39.488368	-35.443346	-0.175433	-147.179481
3.600000	-0.177910	-149.052189	-39.361781	-36.891456	-39.361781	-36.891456	-0.177895	-149.070480
3.650000	-0.180404	-150.941630	-39.233135	-38.358429	-39.233135	-38.358429	-0.180387	-150.960267
3.700000	-0.182929	-152.830088	-39.102490	-39.845596	-39.102490	-39.845596	-0.182911	-152.849076
3.750000	-0.185485	-154.717799	-38.969913	-41.354203	-38.969913	-41.354203	-0.185466	-154.737146
3.800000	-0.188075	-156.604987	-38.835310	-42.886452	-38.835310	-42.886452	-0.188054	-156.624700
3.850000	-0.190697	-158.491923	-38.698929	-44.442479	-38.698929	-44.442479	-0.190675	-158.512009
3.900000	-0.193352	-160.378842	-38.560853	-46.023271	-38.560853	-46.023271	-0.193329	-160.399309
3.950000	-0.196040	-162.265980	-38.421166	-47.629732	-38.421166	-47.629732	-0.196015	-162.286836
4.000000	-0.198761	-164.153574	-38.279953	-49.262689	-38.279953	-49.262689	-0.198735	-164.174826
4.050000	-0.201514	-166.041858	-38.137295	-50.922886	-38.137295	-50.922886	-0.201487	-166.063513
4.100000	-0.204300	-167.931066	-37.993273	-52.610996	-37.993273	-52.610996	-0.204272	-167.953132
4.150000	-0.207119	-169.821429	-37.847966	-54.327622	-37.847966	-54.327622	-0.207090	-169.843914
4.200000	-0.209971	-171.713180	-37.701445	-56.073298	-37.701445	-56.073298	-0.209941	-171.736092
4.250000	-0.212854	-173.606547	-37.553778	-57.848494	-37.553778	-57.848494	-0.212824	-173.629895
4.300000	-0.215770	-175.501758	-37.405028	-59.653624	-37.405028	-59.653624	-0.215739	-175.525549
4.350000	-0.218717	-177.399038	-37.255249	-61.489045	-37.255249	-61.489045	-0.218685	-177.423280
4.400000	-0.221695	-179.298610	-37.104490	-63.355065	-37.104490	-63.355065	-0.221663	-179.323311
4.450000	-0.224704	178.799307	-36.952790	-65.251945	-36.952790	-65.251945	-0.224672	178.774137
4.500000	-0.227743	176.894494	-36.800181	-67.179902	-36.800181	-67.179902	-0.227711	176.868848
4.550000	-0.230813	174.986739	-36.646686	-69.139115	-36.646686	-69.139115	-0.230781	174.960608
4.600000	-0.233912	173.075831	-36.492319	-71.129728	-36.492319	-71.129728	-0.233880	173.049205
4.650000	-0.237040	171.161561	-36.337086	-73.151850	-36.337086	-73.151850	-0.237008	171.134433
4.700000	-0.240197	169.243728	-36.180982	-75.205562	-36.180982	-75.205562	-0.240165	169.216088
4.750000	-0.243382	167.322132	-36.023992	-77.290916	-36.023992	-77.290916	-0.243350	167.293971
4.800000	-0.246595	165.396578	-35.866093	-79.407939	-35.866093	-79.407939	-0.246563	165.367887
4.850000	-0.249836	163.466876	-35.707250	-81.556633	-35.707250	-81.556633	-0.249804	163.437646
4.900000	-0.253104	161.532841	-35.547419	-83.736979	-35.547419	-83.736979	-0.253072	161.503062
4.950000	-0.256399	159.594291	-35.386547	-85.948934	-35.386547	-85.948934	-0.256367	159.563954
5.000000	-0.259721	157.651053	-35.224567	-88.192436	-35.224567	-88.192436	-0.259689	157.620148
5.050000	-0.263070	155.702735	-35.061215	-90.468763	-35.061215	-90.468763	-0.263039	155.671252
5.100000	-0.266447	153.749380	-34.896582	-92.776437	-34.896582	-92.776437	-0.266415	153.717309
5.150000	-0.269850	151.790829	-34.730568	-95.115328	-34.730568	-95.115328	-0.269819	151.758159
5.200000	-0.273280	149.826929	-34.563064	-97.485287	-34.563064	-97.485287	-0.273249	149.793651
5.250000	-0.276738	147.857535	-34.393950	-99.886140	-34.393950	-99.886140	-0.276707	147.823639
5.300000	-0.280224	145.882507	-34.223093	-102.317690	-34.223093	-102.317690	-0.280192	145.847982
5.350000	-0.283738	143.901711	-34.050350	-104.779717	-34.050350	-104.779717	-0.283707	143.866546
5.400000	-0.287282	141.915020	-33.875565	-107.271974	-33.875565	-107.271974	-0.287251	141.879203
5.450000	-0.290857	139.922311	-33.698573	-109.794187	-33.698573	-109.794187	-0.290825	139.885833
5.500000	-0.294465	137.923469	-33.519193	-112.346055	-33.519193	-112.346055	-0.294432	137.886319
5.550000	-0.298107	135.918385	-33.337234	-114.927245	-33.337234	-114.927245	-0.298074	135.880551
5.600000	-0.301785	133.906955	-33.152491	-117.537396	-33.152491	-117.537396	-0.301751	133.868426
5.650000	-0.305501	131.889081	-32.964747	-120.176116	-32.964747	-120.176116	-0.305467	131.849845
5.700000	-0.309260	129.864670	-32.773770	-122.842979	-32.773770	-122.842979	-0.309225	129.824716
5.750000	-0.313064	127.833633	-32.579315	-125.537528	-32.579315	-125.537528	-0.313028	127.792949
5.800000	-0.316917	125.795887	-32.381121	-128.259273	-32.381121	-128.259273	-0.316880	125.754462
5.850000	-0.320824	123.751350	-32.178913	-131.007694	-32.178913	-131.007694	-0.320787	123.709172
5.900000	-0.324790	121.699946	-31.972398	-133.782240	-31.972398	-133.782240	-0.324752	121.657002
5.950000	-0.328822	119.641598	-31.761267	-136.582331	-31.761267	-136.582331	-0.328783	119.597877
6.000000	-0.332926	117.576232	-31.545193	-139.407364	-31.545193	-139.407364	-0.332887	117.531721
6.050000	-0.337112	115.503771	-31.323828	-142.256711	-31.323828	-142.256711	-0.337071	115.458458
6.100000	-0.341388	113.424137	-31.096805	-145.129731	-31.096805	-145.129731	-0.341346	113.378009
6.150000	-0.345765	111.337247	-30.863733	-148.025769	-30.863733	-148.025769	-0.345723	111.290292
6.200000	-0.350256	109.243012	-30.624197	-150.944172	-30.624197	-150.944172	-0.350213	109.195217
6.250000	-0.354875	107.141333	-30.377755	-153.884291	-30.377755	-153.884291	-0.354832	107.092685
6.300000	-0.359647	105.031765	-30.123252	-156.846385	-30.123252	-156.846385	-0.359603	104.982251
6.350000	-0.364584	102.914501	-29.860768	-159.828922	-29.860768	-159.828922	-0.364540	102.864106
6.400000	-0.369711	100.789387	-29.589745	-162.831366	-29.589745	-162.831366	-0.369667	100.738100
6.450000	-0.375053	98.656244	-29.309583	-165.853258	-29.309583	-165.853258	-0.375009	98.604049
6.500000	-0.380642	96.514856	-29.019631	-168.894239	-29.019631	-168.894239	-0.380598	96.461741
6.550000	-0.386514	94.364965	-28.719180	-171.954082	-28.719180	-171.954082	-0.386471	94.310915
6.600000	-0.392711	92.206261	-28.407457	-175.032730	-28.407457	-175.032730	-0.392671	92.151260
6.650000	-0.399286	90.038366	-28.083611	-178.130337	-28.083611	-178.130337	-0.399247	89.982401
6.700000	-0.406246	87.861915	-27.749636	178.754825	-27.749636	178.754825	-0.406209	87.804970
6.750000	-0.413765	85.674140	-27.398600	175.617606	-27.398600	175.617606	-0.413731	85.616198
6.800000	-0.421882	83.475507	-27.032309	172.459125	-27.032309	172.459125	-0.421852	83.416550
6.850000	-0.430670	81.265693	-26.650899	169.278680	-26.650899	169.278680	-0.430645	81.205704
6.900000	-0.440333	79.042539	-26.249667	166.071650	-26.249667	166.071650	-0.440314	78.981497
6.950000	-0.450988	76.805561	-25.829027	162.836327	-25.829027	162.836327	-0.450977	76.743445
7.000000	-0.462788	74.553822	-25.388701	159.569817	-25.388701	159.569817	-0.462785	74.490610
7.050000	-0.476087	72.284208	-24.923066	156.263945	-24.923066	156.263945	-0.476095	72.219875
7.100000	-0.491169	69.994989	-24.431251	152.912740	-24.431251	152.912740	-0.491189	69.929506
7.150000	-0.508463	67.683251	-23.910275	149.506716	-23.910275	149.506716	-0.508498	67.616587
7.200000	-0.528586	65.344889	-23.355555	146.032212	-23.355555	146.032212	-0.528639	65.277007
7.250000	-0.552240	62.975888	-22.764470	142.474284	-22.764470	142.474284	-0.552316	62.906747
7.300000	-0.580464	60.570444	-22.132130	138.811211	-22.132130	138.811211	-0.580567	60.499995
7.350000	-0.614881	58.120004	-21.450225	135.009974	-21.450225	135.009974	-0.615018	58.048188
7.400000	-0.657450	55.616253	-20.714237	131.033687	-20.714237	131.033687	-0.657628	55.543000
7.450000	-0.711213	53.047472	-19.915999	126.827473	-19.915999	126.827473	-0.711445	52.972697
7.500000	-0.781183	50.397268	-19.042221	122.305957	-19.042221	122.305957	-0.781486	50.320863
7.550000	-0.874638	47.649192	-18.082448	117.356790	-18.082448	117.356790	-0.875035	47.571023
7.600000	-1.003773	44.785916	-17.022070	111.806238	-17.022070	111.806238	-1.004301	44.705814
7.650000	-1.189122	41.801620	-15.846399	105.389697	-15.846399	105.389697	-1.189839	41.719381
7.700000	-1.466209	38.738451	-14.545231	97.694621	-14.545231	97.694621	-1.467214	38.653857
7.750000	-1.895742	35.804683	-13.126862	88.074887	-13.126862	88.074887	-1.897215	35.717639
7.800000	-2.563409	33.728985	-11.656962	75.589127	-11.656962	75.589127	-2.565676	33.640134
7.850000	-3.476101	34.535820	-10.336559	59.178245	-10.336559	59.178245	-3.479594	34.448773
7.900000	-4.112011	40.798775	-9.569026	38.773022	-9.569026	38.773022	-4.116288	40.722144
7.950000	-3.586109	48.228694	-9.746946	16.968518	-9.746946	16.968518	-3.589125	48.160475
8.000000	-2.495886	49.750803	-10.788064	-2.228413	-10.788064	-2.228413	-2.498141	49.675543
8.050000	-1.691105	47.229322	-12.227616	-16.971421	-12.227616	-16.971421	-1.694933	47.161913
8.100000	-1.194868	43.716586	-13.691399	-28.345132	-13.691399	-28.345132	-1.196780	43.655524
8.150000	-0.902024	40.090397	-15.133056	-37.169837	-15.133056	-37.169837	-0.902885	40.025491
8.200000	-0.727699	36.693330	-16.457202	-44.071450	-16.457202	-44.071450	-0.728110	36.624437
8.250000	-0.619466	33.549133	-17.656489	-49.715766	-17.656489	-49.715766	-0.619656	33.476953
8.300000	-0.549853	30.618827	-18.743716	-54.486874	-18.743716	-54.486874	-0.549923	30.543903
8.350000	-0.503717	27.858000	-19.735251	-58.626987	-19.735251	-58.626987	-0.503719	27.780708
8.400000	-0.472619	25.231752	-20.643507	-62.287391	-20.643507	-62.287391	-0.472580	25.152357
8.450000	-0.451322	22.710961	-21.482493	-65.577534	-21.482493	-65.577534	-0.451259	22.629646
8.500000	-0.436841	20.276677	-22.259150	-68.562746	-22.259150	-68.562746	-0.436764	20.193580
8.550000	-0.426916	17.909738	-22.987663	-71.306211	-22.987663	-71.306211	-0.426833	17.824953
8.600000	-0.420424	15.600641	-23.670891	-73.836391	-23.670891	-73.836391	-0.420339	15.514242
8.650000	-0.416383	13.338832	-24.317379	-76.185490	-24.317379	-76.185490	-0.416300	13.250871
8.700000	-0.414246	11.118297	-24.929938	-78.369810	-24.929938	-78.369810	-0.414167	11.028814
8.750000	-0.413642	8.935309	-25.508857	-80.396226	-25.508857	-80.396226	-0.413570	8.844332
8.800000	-0.414184	6.783762	-26.060797	-82.282516	-26.060797	-82.282516	-0.414120	6.691312
8.850000	-0.415663	4.660684	-26.587400	-84.034101	-26.587400	-84.034101	-0.415607	4.566772
8.900000	-0.417839	2.560541	-27.096458	-85.671408	-27.096458	-85.671408	-0.417794	2.465173
8.950000	-0.420749	0.486781	-27.577679	-87.167978	-27.577679	-87.167978	-0.420715	0.389957
9.000000	-0.424181	-1.566629	-28.041272	-88.547955	-28.041272	-88.547955	-0.424160	-1.664912
9.050000	-0.428076	-3.601086	-28.487942	-89.812941	-28.487942	-89.812941	-0.428068	-3.700835
9.100000	-0.432385	-5.617796	-28.918221	-90.964034	-28.918221	-90.964034	-0.432390	-5.719023
9.150000	-0.437070	-7.617806	-29.332460	-92.001974	-29.332460	-92.001974	-0.437090	-7.720526
9.200000	-0.442103	-9.602029	-29.730830	-92.927284	-29.730830	-92.927284	-0.442137	-9.706258
9.250000	-0.447460	-11.571268	-30.113327	-93.740407	-30.113327	-93.740407	-0.447510	-11.677026
9.300000	-0.453162	-13.524458	-30.475747	-94.427277	-30.475747	-94.427277	-0.453228	-13.631772
9.350000	-0.459169	-15.463476	-30.820433	-94.997677	-30.820433	-94.997677	-0.459253	-15.572372
9.400000	-0.465459	-17.389628	-31.148476	-95.459331	-31.148476	-95.459331	-0.465560	-17.500135
9.450000	-0.472024	-19.303401	-31.459102	-95.814532	-31.459102	-95.814532	-0.472144	-19.415550
9.500000	-0.478862	-21.205247	-31.751437	-96.066400	-31.751437	-96.066400	-0.479002	-21.319072
9.550000	-0.485971	-23.095587	-32.024530	-96.219011	-32.024530	-96.219011	-0.486131	-23.211123
9.600000	-0.493349	-24.974817	-32.277380	-96.277503	-32.277380	-96.277503	-0.493530	-25.092104
9.650000	-0.501015	-26.842636	-32.507143	-96.243086	-32.507143	-96.243086	-0.501219	-26.961716
9.700000	-0.508985	-28.698941	-32.711384	-96.122074	-32.711384	-96.122074	-0.509212	-28.819864
9.750000	-0.517231	-30.545363	-32.892560	-95.934928	-32.892560	-95.934928	-0.517483	-30.668177
9.800000	-0.525756	-32.382230	-33.049891	-95.692719	-33.049891	-95.692719	-0.526033	-32.506985
9.850000	-0.534564	-34.209863	-33.182781	-95.407519	-33.182781	-95.407519	-0.534868	-34.336611
9.900000	-0.543659	-36.028580	-33.290857	-95.092224	-33.290857	-95.092224	-0.543993	-36.157376
9.950000	-0.553048	-37.838694	-33.373995	-94.760335	-33.373995	-94.760335	-0.553412	-37.969596
10.000000	-0.562736	-39.640515	-33.432342	-94.425725	-33.432342	-94.425725	-0.563131	-39.773585
