! freq	dB(S11)	phase(S11)	dB(S12)	phase(S12)	
!     	dB(S21)	phase(S21)	dB(S22)	phase(S22)	
!S-par simulation data
#  GHz  S  DB  R 50
0.000000	0.000000	0.000000	-340.388456	0.000000	-340.388456	0.000000	-0.000000	0.000000
0.050000	-0.001925	-3.150861	-98.735628	87.987933	-98.735628	87.987933	-0.000587	-0.974605
0.100000	-0.006782	-6.287514	-92.756671	85.983221	-92.756671	85.983221	-0.002048	-1.945289
0.150000	-0.012818	-9.404784	-89.304580	83.993579	-89.304580	83.993579	-0.003831	-2.911192
0.200000	-0.018804	-12.504760	-86.901803	82.026470	-86.901803	82.026470	-0.005579	-3.873662
0.250000	-0.024225	-15.589819	-85.088821	80.091456	-85.088821	80.091456	-0.007165	-4.834134
0.300000	-0.028996	-18.661316	-83.661290	78.199191	-83.661290	78.199191	-0.008581	-5.793645
0.350000	-0.033227	-21.719637	-82.507387	76.359111	-82.507387	76.359111	-0.009870	-6.752736
0.400000	-0.037032	-24.763658	-81.563135	74.583520	-81.563135	74.583520	-0.011067	-7.711590
0.450000	-0.040505	-27.791058	-80.791292	72.890294	-80.791292	72.890294	-0.012200	-8.670223
0.500000	-0.043747	-30.800887	-80.160116	71.291761	-80.160116	71.291761	-0.013296	-9.628588
0.550000	-0.046820	-33.791433	-79.650740	69.806390	-79.650740	69.806390	-0.014369	-10.586597
0.600000	-0.049765	-36.759970	-79.253957	68.463793	-79.253957	68.463793	-0.015433	-11.544128
0.650000	-0.052618	-39.705625	-78.957324	67.287660	-78.957324	67.287660	-0.016496	-12.501095
0.700000	-0.055405	-42.627194	-78.753435	66.310112	-78.753435	66.310112	-0.017564	-13.457414
0.750000	-0.058139	-45.522547	-78.640443	65.581907	-78.640443	65.581907	-0.018642	-14.412977
0.800000	-0.060830	-48.390490	-78.614982	65.160038	-78.614982	65.160038	-0.019732	-15.367705
0.850000	-0.063484	-51.230250	-78.673593	65.113849	-78.673593	65.113849	-0.020836	-16.321535
0.900000	-0.066105	-54.040935	-78.813556	65.535749	-78.813556	65.535749	-0.021955	-17.274404
0.950000	-0.068692	-56.821586	-79.031268	66.548441	-79.031268	66.548441	-0.023090	-18.226251
1.000000	-0.071245	-59.571468	-79.319141	68.307649	-79.319141	68.307649	-0.024240	-19.177021
1.050000	-0.073760	-62.289965	-79.662306	71.007071	-79.662306	71.007071	-0.025405	-20.126663
1.100000	-0.076235	-64.976567	-80.032909	74.871006	-80.032909	74.871006	-0.026583	-21.075133
1.150000	-0.078666	-67.630871	-80.382549	80.119075	-80.382549	80.119075	-0.027774	-22.022387
1.200000	-0.081050	-70.252572	-80.635973	86.878461	-80.635973	86.878461	-0.028977	-22.968387
1.250000	-0.083384	-72.841458	-80.695244	95.034842	-80.695244	95.034842	-0.030189	-23.913098
1.300000	-0.085664	-75.396690	-80.458982	104.091355	-80.458982	104.091355	-0.031411	-24.856456
1.350000	-0.087886	-77.918946	-79.891247	113.170946	-79.891247	113.170946	-0.032639	-25.798458
1.400000	-0.090050	-80.408267	-79.028861	121.431681	-79.028861	121.431681	-0.033873	-26.739076
1.450000	-0.092153	-82.864762	-77.961229	128.351736	-77.961229	128.351736	-0.035112	-27.678284
1.500000	-0.094193	-85.288609	-76.784626	133.791958	-76.784626	133.791958	-0.036353	-28.616055
1.550000	-0.096170	-87.680042	-75.573449	137.866056	-75.573449	137.866056	-0.037597	-29.552368
1.600000	-0.098082	-90.039349	-74.374819	140.789673	-74.374819	140.789673	-0.038841	-30.487200
1.650000	-0.099931	-92.366868	-73.214540	142.787611	-73.214540	142.787611	-0.040086	-31.420529
1.700000	-0.101716	-94.662979	-72.104710	144.055305	-72.104710	144.055305	-0.041330	-32.352337
1.750000	-0.103438	-96.928101	-71.049500	144.750056	-71.049500	144.750056	-0.042572	-33.282605
1.800000	-0.105099	-99.162690	-70.048813	144.994289	-70.048813	144.994289	-0.043813	-34.211315
1.850000	-0.106699	-101.367229	-69.100417	144.882109	-69.100417	144.882109	-0.045051	-35.138449
1.900000	-0.108242	-103.541915	-68.200668	144.483297	-68.200668	144.483297	-0.046286	-36.063974
1.950000	-0.109728	-105.687298	-67.346240	143.854980	-67.346240	143.854980	-0.047519	-36.987873
2.000000	-0.111161	-107.804253	-66.534125	143.042792	-66.534125	143.042792	-0.048749	-37.910148
2.050000	-0.112543	-109.893349	-65.760982	142.080142	-65.760982	142.080142	-0.049976	-38.830784
2.100000	-0.113879	-111.955167	-65.023726	140.993492	-65.023726	140.993492	-0.051201	-39.749767
2.150000	-0.115171	-113.990298	-64.319550	139.803983	-64.319550	139.803983	-0.052423	-40.667080
2.200000	-0.116422	-115.999341	-63.645915	138.528655	-63.645915	138.528655	-0.053643	-41.582712
2.250000	-0.117635	-117.982898	-63.000532	137.181350	-63.000532	137.181350	-0.054862	-42.496647
2.300000	-0.118814	-119.941577	-62.381343	135.773404	-62.381343	135.773404	-0.056080	-43.408872
2.350000	-0.119963	-121.875985	-61.786491	134.314165	-61.786491	134.314165	-0.057297	-44.319374
2.400000	-0.121085	-123.786731	-61.214307	132.811396	-61.214307	132.811396	-0.058514	-45.228139
2.450000	-0.122183	-125.674420	-60.663281	131.271583	-60.663281	131.271583	-0.059732	-46.135155
2.500000	-0.123261	-127.539653	-60.132048	129.700176	-60.132048	129.700176	-0.060952	-47.040408
2.550000	-0.124321	-129.382569	-59.619115	128.101286	-59.619115	128.101286	-0.062174	-47.943847
2.600000	-0.125368	-131.204248	-59.123652	126.479470	-59.123652	126.479470	-0.063398	-48.845499
2.650000	-0.126405	-133.005277	-58.644630	124.838033	-58.644630	124.838033	-0.064626	-49.745351
2.700000	-0.127435	-134.786233	-58.181108	123.179810	-58.181108	123.179810	-0.065859	-50.643392
2.750000	-0.128460	-136.547690	-57.732227	121.507241	-57.732227	121.507241	-0.067097	-51.539610
2.800000	-0.129484	-138.290209	-57.297199	119.822438	-57.297199	119.822438	-0.068340	-52.433994
2.850000	-0.130509	-140.014345	-56.875299	118.127230	-56.875299	118.127230	-0.069590	-53.326535
2.900000	-0.131537	-141.720644	-56.465859	116.423209	-56.465859	116.423209	-0.070848	-54.217221
2.950000	-0.132572	-143.409642	-56.068264	114.711765	-56.068264	114.711765	-0.072113	-55.106044
3.000000	-0.133616	-145.081865	-55.681944	112.994114	-55.681944	112.994114	-0.073387	-55.992994
3.050000	-0.134670	-146.737830	-55.306373	111.271322	-55.306373	111.271322	-0.074671	-56.878062
3.100000	-0.135736	-148.378043	-54.941060	109.544327	-54.941060	109.544327	-0.075965	-57.761240
3.150000	-0.136819	-150.000917	-54.584874	107.813588	-54.584874	107.813588	-0.077271	-58.642251
3.200000	-0.137916	-151.611021	-54.238742	106.080646	-54.238742	106.080646	-0.078588	-59.521604
3.250000	-0.139031	-153.206843	-53.901598	104.345706	-53.901598	104.345706	-0.079916	-60.399046
3.300000	-0.140165	-154.788848	-53.573071	102.609341	-53.573071	102.609341	-0.081258	-61.274571
3.350000	-0.141318	-156.357493	-53.252814	100.872059	-53.252814	100.872059	-0.082612	-62.148174
3.400000	-0.142493	-157.913224	-52.940503	99.134311	-52.940503	99.134311	-0.083981	-63.019848
3.450000	-0.143690	-159.456477	-52.635835	97.396500	-52.635835	97.396500	-0.085364	-63.889592
3.500000	-0.144910	-160.987680	-52.338522	95.658986	-52.338522	95.658986	-0.086762	-64.757400
3.550000	-0.146153	-162.507249	-52.048296	93.922089	-52.048296	93.922089	-0.088176	-65.623271
3.600000	-0.147421	-164.015594	-51.764904	92.186095	-51.764904	92.186095	-0.089606	-66.487202
3.650000	-0.148714	-165.513112	-51.488106	90.451261	-51.488106	90.451261	-0.091052	-67.349192
3.700000	-0.150031	-167.000195	-51.217677	88.717815	-51.217677	88.717815	-0.092516	-68.209239
3.750000	-0.151374	-168.477222	-50.953405	86.985964	-50.953405	86.985964	-0.093997	-69.067345
3.800000	-0.152743	-169.944162	-50.695012	85.255976	-50.695012	85.255976	-0.095498	-69.923425
3.850000	-0.154138	-171.401815	-50.442397	83.527943	-50.442397	83.527943	-0.097017	-70.777565
3.900000	-0.155558	-172.850535	-50.195377	81.802013	-50.195377	81.802013	-0.098554	-71.629766
3.950000	-0.157003	-174.290668	-49.953781	80.078315	-49.953781	80.078315	-0.100112	-72.480033
4.000000	-0.158474	-175.722553	-49.717445	78.356965	-49.717445	78.356965	-0.101689	-73.328367
4.050000	-0.159969	-177.146519	-49.486213	76.638070	-49.486213	76.638070	-0.103287	-74.174774
4.100000	-0.161489	-178.562890	-49.259939	74.921723	-49.259939	74.921723	-0.104906	-75.019258
4.150000	-0.163033	-179.971982	-49.038483	73.208008	-49.038483	73.208008	-0.106545	-75.861824
4.200000	-0.164601	178.625898	-48.821711	71.496999	-48.821711	71.496999	-0.108207	-76.702479
4.250000	-0.166192	177.230448	-48.609496	69.788765	-48.609496	69.788765	-0.109891	-77.541229
4.300000	-0.167805	175.841375	-48.401717	68.083366	-48.401717	68.083366	-0.111597	-78.378082
4.350000	-0.169441	174.458389	-48.198260	66.380854	-48.198260	66.380854	-0.113326	-79.213045
4.400000	-0.171098	173.081211	-47.999015	64.681277	-47.999015	64.681277	-0.115078	-80.046127
4.450000	-0.172776	171.709566	-47.803877	62.984678	-47.803877	62.984678	-0.116854	-80.877338
4.500000	-0.174473	170.343184	-47.612747	61.291095	-47.612747	61.291095	-0.118655	-81.706688
4.550000	-0.176191	168.981804	-47.425530	59.600562	-47.425530	59.600562	-0.120480	-82.534187
4.600000	-0.177926	167.625170	-47.242135	57.913108	-47.242135	57.913108	-0.122330	-83.359846
4.650000	-0.179680	166.273030	-47.062476	56.228761	-47.062476	56.228761	-0.124205	-84.183676
4.700000	-0.181451	164.925140	-46.886469	54.547544	-46.886469	54.547544	-0.126106	-85.005692
4.750000	-0.183238	163.581260	-46.714038	52.869479	-46.714038	52.869479	-0.128034	-85.825904
4.800000	-0.185041	162.241156	-46.545105	51.194586	-46.545105	51.194586	-0.129988	-86.644327
4.850000	-0.186858	160.904600	-46.379601	49.522883	-46.379601	49.522883	-0.131969	-87.460974
4.900000	-0.188690	159.571368	-46.217456	47.854386	-46.217456	47.854386	-0.133978	-88.275861
4.950000	-0.190534	158.241241	-46.058605	46.189111	-46.058605	46.189111	-0.136014	-89.089002
5.000000	-0.192391	156.914007	-45.902985	44.527073	-45.902985	44.527073	-0.138079	-89.900413
5.050000	-0.194260	155.589562	-45.750561	42.868428	-45.750561	42.868428	-0.140174	-90.710037
5.100000	-0.196139	154.267579	-45.601257	41.213050	-45.601257	41.213050	-0.142299	-91.517965
5.150000	-0.198028	152.947858	-45.455020	39.560953	-45.455020	39.560953	-0.144453	-92.324215
5.200000	-0.199926	151.630205	-45.311799	37.912153	-45.311799	37.912153	-0.146637	-93.128805
5.250000	-0.201832	150.314432	-45.171544	36.266663	-45.171544	36.266663	-0.148851	-93.931753
5.300000	-0.203746	149.000351	-45.034209	34.624502	-45.034209	34.624502	-0.151097	-94.733077
5.350000	-0.205667	147.687783	-44.899749	32.985686	-44.899749	32.985686	-0.153374	-95.532797
5.400000	-0.207593	146.376550	-44.768122	31.350236	-44.768122	31.350236	-0.155683	-96.330933
5.450000	-0.209525	145.066481	-44.639289	29.718170	-44.639289	29.718170	-0.158024	-97.127505
5.500000	-0.211461	143.757406	-44.513211	28.089513	-44.513211	28.089513	-0.160398	-97.922533
5.550000	-0.213400	142.449160	-44.389852	26.464288	-44.389852	26.464288	-0.162805	-98.716039
5.600000	-0.215343	141.141583	-44.269178	24.842523	-44.269178	24.842523	-0.165246	-99.508044
5.650000	-0.217288	139.834519	-44.151157	23.224246	-44.151157	23.224246	-0.167721	-100.298570
5.700000	-0.219235	138.527814	-44.035757	21.609490	-44.035757	21.609490	-0.170230	-101.087640
5.750000	-0.221183	137.221320	-43.922950	19.998289	-43.922950	19.998289	-0.172775	-101.875276
5.800000	-0.223131	135.914890	-43.812708	18.390682	-43.812708	18.390682	-0.175354	-102.661501
5.850000	-0.225079	134.608383	-43.705006	16.786709	-43.705006	16.786709	-0.177970	-103.446340
5.900000	-0.227026	133.301661	-43.599818	15.186414	-43.599818	15.186414	-0.180622	-104.229816
5.950000	-0.228972	131.994589	-43.497121	13.589845	-43.497121	13.589845	-0.183311	-105.011954
6.000000	-0.230916	130.687036	-43.396895	11.997053	-43.396895	11.997053	-0.186036	-105.792778
6.050000	-0.232858	129.378874	-43.299118	10.408094	-43.299118	10.408094	-0.188800	-106.572314
6.100000	-0.234796	128.069980	-43.203770	8.823026	-43.203770	8.823026	-0.191601	-107.350587
6.150000	-0.236731	126.760232	-43.110835	7.241912	-43.110835	7.241912	-0.194441	-108.127624
6.200000	-0.238663	125.449513	-43.020294	5.664820	-43.020294	5.664820	-0.197320	-108.903450
6.250000	-0.240590	124.137709	-42.932132	4.091820	-42.932132	4.091820	-0.200239	-109.678093
6.300000	-0.242512	122.824652	-42.846400	2.523173	-42.846400	2.523173	-0.203199	-110.451531
6.350000	-0.244429	121.510281	-42.763021	0.958780	-42.763021	0.958780	-0.206199	-111.223842
6.400000	-0.246341	120.194494	-42.681981	-0.601273	-42.681981	-0.601273	-0.209240	-111.995055
6.450000	-0.248246	118.877188	-42.603268	-2.156897	-42.603268	-2.156897	-0.212322	-112.765197
6.500000	-0.250146	117.558267	-42.526870	-3.708000	-42.526870	-3.708000	-0.215445	-113.534298
6.550000	-0.252040	116.237634	-42.452777	-5.254483	-42.452777	-5.254483	-0.218611	-114.302386
6.600000	-0.253926	114.915199	-42.380978	-6.796244	-42.380978	-6.796244	-0.221819	-115.069491
6.650000	-0.255807	113.590873	-42.311464	-8.333177	-42.311464	-8.333177	-0.225070	-115.835643
6.700000	-0.257680	112.264570	-42.244226	-9.865169	-42.244226	-9.865169	-0.228363	-116.600870
6.750000	-0.259546	110.936206	-42.179256	-11.392107	-42.179256	-11.392107	-0.231701	-117.365205
6.800000	-0.261404	109.605702	-42.116545	-12.913870	-42.116545	-12.913870	-0.235082	-118.128676
6.850000	-0.263256	108.272979	-42.056089	-14.430335	-42.056089	-14.430335	-0.238508	-118.891316
6.900000	-0.265100	106.937963	-41.997878	-15.941372	-41.997878	-15.941372	-0.241979	-119.653156
6.950000	-0.266936	105.600581	-41.941909	-17.446850	-41.941909	-17.446850	-0.245495	-120.414227
7.000000	-0.268765	104.260763	-41.888174	-18.946632	-41.888174	-18.946632	-0.249056	-121.174562
7.050000	-0.270587	102.918442	-41.836670	-20.440577	-41.836670	-20.440577	-0.252663	-121.934193
7.100000	-0.272401	101.573554	-41.787392	-21.928542	-41.787392	-21.928542	-0.256317	-122.693152
7.150000	-0.274208	100.226034	-41.740335	-23.410379	-41.740335	-23.410379	-0.260017	-123.451473
7.200000	-0.276008	98.875822	-41.695496	-24.885934	-41.695496	-24.885934	-0.263764	-124.209189
7.250000	-0.277800	97.522859	-41.652872	-26.355054	-41.652872	-26.355054	-0.267559	-124.966334
7.300000	-0.279586	96.167089	-41.612462	-27.817580	-41.612462	-27.817580	-0.271401	-125.722942
7.350000	-0.281365	94.808456	-41.574261	-29.273348	-41.574261	-29.273348	-0.275291	-126.479047
7.400000	-0.283138	93.446908	-41.538270	-30.722194	-41.538270	-30.722194	-0.279229	-127.234684
7.450000	-0.284905	92.082391	-41.504488	-32.163949	-41.504488	-32.163949	-0.283216	-127.989888
7.500000	-0.286666	90.714856	-41.472914	-33.598442	-41.472914	-33.598442	-0.287252	-128.744695
7.550000	-0.288421	89.344116	-41.443641	-35.025166	-41.443641	-35.025166	-0.291339	-129.499126
7.600000	-0.290172	87.970255	-41.416580	-36.444258	-41.416580	-36.444258	-0.295476	-130.253235
7.650000	-0.291918	86.593225	-41.391733	-37.855539	-41.391733	-37.855539	-0.299663	-131.007058
7.700000	-0.293660	85.212978	-41.369103	-39.258825	-41.369103	-39.258825	-0.303900	-131.760632
7.750000	-0.295398	83.829467	-41.348694	-40.653929	-41.348694	-40.653929	-0.308187	-132.513994
7.800000	-0.297134	82.442645	-41.330513	-42.040663	-41.330513	-42.040663	-0.312524	-133.267182
7.850000	-0.298867	81.052464	-41.314564	-43.418836	-41.314564	-43.418836	-0.316913	-134.020234
7.900000	-0.300599	79.658875	-41.300857	-44.788253	-41.300857	-44.788253	-0.321352	-134.773188
7.950000	-0.302330	78.261828	-41.289401	-46.148717	-41.289401	-46.148717	-0.325843	-135.526082
8.000000	-0.304061	76.861273	-41.280208	-47.500030	-41.280208	-47.500030	-0.330386	-136.278956
8.050000	-0.305792	75.457155	-41.273291	-48.841989	-41.273291	-48.841989	-0.334980	-137.031849
8.100000	-0.307526	74.049421	-41.268665	-50.174388	-41.268665	-50.174388	-0.339626	-137.784800
8.150000	-0.309262	72.638011	-41.266348	-51.497018	-41.266348	-51.497018	-0.344324	-138.537851
8.200000	-0.311002	71.222863	-41.266362	-52.809669	-41.266362	-52.809669	-0.349075	-139.291040
8.250000	-0.312748	69.803912	-41.268729	-54.112125	-41.268729	-54.112125	-0.353878	-140.044409
8.300000	-0.314499	68.381087	-41.273477	-55.404165	-41.273477	-55.404165	-0.358734	-140.797999
8.350000	-0.316257	66.954547	-41.280495	-56.686201	-41.280495	-56.686201	-0.363639	-141.551834
8.400000	-0.318025	65.523886	-41.290015	-57.957129	-41.290015	-57.957129	-0.368598	-142.305977
8.450000	-0.319804	64.088764	-41.302224	-59.216040	-41.302224	-59.216040	-0.373615	-143.060497
8.500000	-0.321595	62.649646	-41.316832	-60.464209	-41.316832	-60.464209	-0.378682	-143.815387
8.550000	-0.323401	61.206096	-41.334083	-61.700509	-41.334083	-61.700509	-0.383803	-144.570721
8.600000	-0.325224	59.758083	-41.353986	-62.924914	-41.353986	-62.924914	-0.388978	-145.326536
8.650000	-0.327064	58.305654	-41.376502	-64.137628	-41.376502	-64.137628	-0.394204	-146.082855
8.700000	-0.328927	56.848217	-41.401964	-65.337201	-41.401964	-65.337201	-0.399486	-146.839775
8.750000	-0.330812	55.386363	-41.430027	-66.525297	-41.430027	-66.525297	-0.404818	-147.597250
8.800000	-0.332728	53.918861	-41.461383	-67.698902	-41.461383	-67.698902	-0.410208	-148.355460
8.850000	-0.334671	52.446608	-41.495525	-68.860490	-41.495525	-68.860490	-0.415648	-149.114310
8.900000	-0.336651	50.968573	-41.533027	-70.007692	-41.533027	-70.007692	-0.421144	-149.873955
8.950000	-0.338668	49.485062	-41.573724	-71.141507	-41.573724	-71.141507	-0.426691	-150.634370
9.000000	-0.340730	47.995594	-41.617887	-72.261063	-41.617887	-72.261063	-0.432292	-151.395630
9.050000	-0.342841	46.499770	-41.665746	-73.365731	-41.665746	-73.365731	-0.437947	-152.157802
9.100000	-0.345004	44.997769	-41.717223	-74.456291	-41.717223	-74.456291	-0.443653	-152.920862
9.150000	-0.347234	43.488333	-41.773022	-75.530314	-41.773022	-75.530314	-0.449415	-153.684989
9.200000	-0.349527	41.972304	-41.832725	-76.590097	-41.832725	-76.590097	-0.455226	-154.450056
9.250000	-0.351906	40.447802	-41.897382	-77.632147	-41.897382	-77.632147	-0.461094	-155.216318
9.300000	-0.354368	38.915715	-41.966579	-78.658861	-41.966579	-78.658861	-0.467011	-155.983633
9.350000	-0.356934	37.374540	-42.041188	-79.667852	-42.041188	-79.667852	-0.472983	-156.752184
9.400000	-0.359612	35.824205	-42.121345	-80.659653	-42.121345	-80.659653	-0.479006	-157.521953
9.450000	-0.362416	34.264052	-42.207516	-81.633794	-42.207516	-81.633794	-0.485080	-158.292990
9.500000	-0.365373	32.692741	-42.300564	-82.588737	-42.300564	-82.588737	-0.491207	-159.065424
9.550000	-0.368483	31.110753	-42.400413	-83.526174	-42.400413	-83.526174	-0.497383	-159.839146
9.600000	-0.371803	29.515059	-42.508930	-84.442306	-42.508930	-84.442306	-0.503614	-160.614459
9.650000	-0.375320	27.907117	-42.625604	-85.340474	-42.625604	-85.340474	-0.509891	-161.391131
9.700000	-0.379107	26.283321	-42.752773	-86.216844	-42.752773	-86.216844	-0.516222	-162.169481
9.750000	-0.383167	24.644420	-42.890463	-87.073884	-42.890463	-87.073884	-0.522601	-162.949350
9.800000	-0.387567	22.987667	-43.040779	-87.909910	-43.040779	-87.909910	-0.529030	-163.730920
9.850000	-0.392353	21.311754	-43.205173	-88.725456	-43.205173	-88.725456	-0.535509	-164.514211
9.900000	-0.397569	19.615597	-43.385147	-89.521799	-43.385147	-89.521799	-0.542034	-165.299213
9.950000	-0.403338	17.894922	-43.584419	-90.298150	-43.584419	-90.298150	-0.548610	-166.086156
10.000000	-0.409658	16.151137	-43.803480	-91.059078	-43.803480	-91.059078	-0.555230	-166.874809
