! freq	dB(S11)	phase(S11)	dB(S12)	phase(S12)	
!     	dB(S21)	phase(S21)	dB(S22)	phase(S22)	
!S-par simulation data
#  GHz  S  DB  R 50
0.000000	-0.000000	0.000000	-337.635364	0.000000	-337.635364	0.000000	-0.000000	0.000000
0.050000	-0.002600	-1.500653	-97.013674	88.787108	-97.013674	88.787108	-0.002189	-0.979209
0.100000	-0.005500	-2.977712	-91.008521	87.592201	-91.008521	87.592201	-0.004041	-1.940001
0.150000	-0.007204	-4.449422	-87.511258	86.406383	-87.511258	86.406383	-0.004997	-2.899049
0.200000	-0.008458	-5.920981	-85.044231	85.227879	-85.044231	85.227879	-0.005718	-3.858602
0.250000	-0.009599	-7.392609	-83.146902	84.059411	-83.146902	84.059411	-0.006411	-4.818407
0.300000	-0.010772	-8.863859	-81.614753	82.904753	-81.614753	82.904753	-0.007152	-5.778084
0.350000	-0.012022	-10.334404	-80.334673	81.765167	-80.334673	81.765167	-0.007958	-6.737403
0.400000	-0.013367	-11.803921	-79.242477	80.644286	-79.242477	80.644286	-0.008837	-7.696177
0.450000	-0.014810	-13.272169	-78.295940	79.545237	-78.295940	79.545237	-0.009787	-8.654272
0.500000	-0.016355	-14.738802	-77.468668	78.473935	-77.468668	78.473935	-0.010809	-9.611502
0.550000	-0.017984	-16.203744	-76.738312	77.432604	-76.738312	77.432604	-0.011891	-10.567830
0.600000	-0.019685	-17.666901	-76.089110	76.424384	-76.089110	76.424384	-0.013025	-11.523208
0.650000	-0.021448	-19.128164	-75.509603	75.453312	-75.509603	75.453312	-0.014202	-12.477585
0.700000	-0.023262	-20.587437	-74.990897	74.523741	-74.990897	74.523741	-0.015417	-13.430916
0.750000	-0.025118	-22.044641	-74.525949	73.640378	-74.525949	73.640378	-0.016662	-14.383165
0.800000	-0.027006	-23.499652	-74.109708	72.809734	-74.109708	72.809734	-0.017931	-15.334272
0.850000	-0.028918	-24.952252	-73.739186	72.042005	-73.739186	72.042005	-0.019220	-16.284132
0.900000	-0.030845	-26.402587	-73.408119	71.338588	-73.408119	71.338588	-0.020522	-17.232826
0.950000	-0.032780	-27.850612	-73.113209	70.706267	-73.113209	70.706267	-0.021832	-18.180336
1.000000	-0.034718	-29.296283	-72.851605	70.152455	-72.851605	70.152455	-0.023147	-19.126644
1.050000	-0.036654	-30.739563	-72.620783	69.685250	-72.620783	69.685250	-0.024463	-20.071734
1.100000	-0.038585	-32.180416	-72.418456	69.313486	-72.418456	69.313486	-0.025778	-21.015591
1.150000	-0.040505	-33.618625	-72.244043	69.055308	-72.244043	69.055308	-0.027090	-21.958108
1.200000	-0.042414	-35.054230	-72.094609	68.919493	-72.094609	68.919493	-0.028396	-22.899305
1.250000	-0.044309	-36.487307	-71.967068	68.912911	-71.967068	68.912911	-0.029697	-23.839221
1.300000	-0.046190	-37.917827	-71.859197	69.047741	-71.859197	69.047741	-0.030990	-24.777840
1.350000	-0.048056	-39.345763	-71.768600	69.336778	-71.768600	69.336778	-0.032275	-25.715148
1.400000	-0.049906	-40.771090	-71.692634	69.793216	-71.692634	69.793216	-0.033552	-26.651126
1.450000	-0.051741	-42.193766	-71.628369	70.431518	-71.628369	70.431518	-0.034821	-27.585750
1.500000	-0.053558	-43.613486	-71.572781	71.286131	-71.572781	71.286131	-0.036080	-28.518857
1.550000	-0.055361	-45.030521	-71.520678	72.348068	-71.520678	72.348068	-0.037332	-29.450577
1.600000	-0.057150	-46.444850	-71.467483	73.626250	-71.467483	73.626250	-0.038575	-30.380893
1.650000	-0.058926	-47.856453	-71.408068	75.126059	-71.408068	75.126059	-0.039812	-31.309784
1.700000	-0.060690	-49.265151	-71.335705	76.860753	-71.335705	76.860753	-0.041041	-32.237144
1.750000	-0.062442	-50.671125	-71.245022	78.807248	-71.245022	78.807248	-0.042264	-33.163058
1.800000	-0.064185	-52.074281	-71.129249	80.956859	-71.129249	80.956859	-0.043481	-34.087462
1.850000	-0.065919	-53.474608	-70.982129	83.284883	-70.982129	83.284883	-0.044694	-35.010334
1.900000	-0.067645	-54.872095	-70.798038	85.756982	-70.798038	85.756982	-0.045902	-35.931653
1.950000	-0.069365	-56.266737	-70.572454	88.330067	-70.572454	88.330067	-0.047106	-36.851397
2.000000	-0.071081	-57.658529	-70.302381	90.954357	-70.302381	90.954357	-0.048307	-37.769545
2.050000	-0.072793	-59.047471	-69.986637	93.576458	-69.986637	93.576458	-0.049506	-38.686076
2.100000	-0.074503	-60.433565	-69.625953	96.143044	-69.625953	96.143044	-0.050703	-39.600969
2.150000	-0.076212	-61.816815	-69.222856	98.604525	-69.222856	98.604525	-0.051899	-40.514202
2.200000	-0.077922	-63.197232	-68.781351	100.918120	-68.781351	100.918120	-0.053095	-41.425756
2.250000	-0.079633	-64.574827	-68.306494	103.049891	-68.306494	103.049891	-0.054291	-42.335610
2.300000	-0.081347	-65.949616	-67.803913	104.975586	-67.803913	104.975586	-0.055489	-43.243744
2.350000	-0.083066	-67.321619	-67.279374	106.680396	-67.279374	106.680396	-0.056688	-44.150139
2.400000	-0.084790	-68.690860	-66.738428	108.157913	-66.738428	108.157913	-0.057890	-45.054776
2.450000	-0.086521	-70.057366	-66.186173	109.408637	-66.186173	109.408637	-0.059094	-45.957636
2.500000	-0.088259	-71.421170	-65.627107	110.438334	-65.627107	110.438334	-0.060303	-46.858703
2.550000	-0.090008	-72.782193	-65.063505	111.247860	-65.063505	111.247860	-0.061515	-47.757878
2.600000	-0.091766	-74.140594	-64.500381	111.858912	-64.500381	111.858912	-0.062733	-48.655224
2.650000	-0.093536	-75.496419	-63.940296	112.284717	-63.940296	112.284717	-0.063956	-49.550725
2.700000	-0.095319	-76.849719	-63.385278	112.538888	-63.385278	112.538888	-0.065185	-50.444364
2.750000	-0.097116	-78.200550	-62.836895	112.634901	-62.836895	112.634901	-0.066420	-51.336128
2.800000	-0.098928	-79.548971	-62.296327	112.585731	-62.296327	112.585731	-0.067662	-52.226003
2.850000	-0.100757	-80.895049	-61.764436	112.403634	-61.764436	112.403634	-0.068912	-53.113975
2.900000	-0.102603	-82.238856	-61.241828	112.100024	-61.241828	112.100024	-0.070171	-54.000031
2.950000	-0.104467	-83.580468	-60.728897	111.685424	-60.728897	111.685424	-0.071437	-54.884160
3.000000	-0.106351	-84.919970	-60.225876	111.169455	-60.225876	111.169455	-0.072713	-55.766350
3.050000	-0.108257	-86.257449	-59.732867	110.560868	-59.732867	110.560868	-0.073999	-56.646592
3.100000	-0.110184	-87.593004	-59.249870	109.867587	-59.249870	109.867587	-0.075294	-57.524874
3.150000	-0.112136	-88.926736	-58.776811	109.096764	-58.776811	109.096764	-0.076600	-58.401188
3.200000	-0.114112	-90.258756	-58.313552	108.254841	-58.313552	108.254841	-0.077918	-59.275526
3.250000	-0.116115	-91.589183	-57.859915	107.347606	-57.859915	107.347606	-0.079246	-60.147879
3.300000	-0.118145	-92.918143	-57.415687	106.380257	-57.415687	106.380257	-0.080587	-61.018242
3.350000	-0.120205	-94.245771	-56.980632	105.357452	-56.980632	105.357452	-0.081940	-61.886608
3.400000	-0.122296	-95.572213	-56.554497	104.283366	-56.554497	104.283366	-0.083306	-62.752971
3.450000	-0.124419	-96.897624	-56.137018	103.161729	-56.137018	103.161729	-0.084686	-63.617326
3.500000	-0.126576	-98.222169	-55.727926	101.995877	-55.727926	101.995877	-0.086079	-64.479671
3.550000	-0.128770	-99.546028	-55.326947	100.788781	-55.326947	100.788781	-0.087487	-65.340000
3.600000	-0.131002	-100.869392	-54.933804	99.543086	-54.933804	99.543086	-0.088910	-66.198312
3.650000	-0.133274	-102.192466	-54.548224	98.261137	-54.548224	98.261137	-0.090348	-67.054605
3.700000	-0.135589	-103.515472	-54.169934	96.945003	-54.169934	96.945003	-0.091801	-67.908878
3.750000	-0.137949	-104.838648	-53.798662	95.596501	-53.798662	95.596501	-0.093270	-68.761129
3.800000	-0.140359	-106.162285	-53.433768	94.215938	-53.433768	94.215938	-0.094757	-69.611272
3.850000	-0.142821	-107.486657	-53.075380	92.806054	-53.075380	92.806054	-0.096261	-70.459395
3.900000	-0.145338	-108.812072	-52.723232	91.367973	-52.723232	91.367973	-0.097783	-71.305501
3.950000	-0.147913	-110.138864	-52.377057	89.902624	-52.377057	89.902624	-0.099322	-72.149590
4.000000	-0.150552	-111.467398	-52.036593	88.410744	-52.036593	88.410744	-0.100880	-72.991667
4.050000	-0.153259	-112.798076	-51.701575	86.892881	-51.701575	86.892881	-0.102456	-73.831734
4.100000	-0.156039	-114.131337	-51.371739	85.349394	-51.371739	85.349394	-0.104052	-74.669797
4.150000	-0.158899	-115.467668	-51.046818	83.780450	-51.046818	83.780450	-0.105668	-75.505860
4.200000	-0.161847	-116.807609	-50.726542	82.186018	-50.726542	82.186018	-0.107303	-76.339929
4.250000	-0.164891	-118.151761	-50.410635	80.565858	-50.410635	80.565858	-0.108960	-77.172011
4.300000	-0.168041	-119.500795	-50.098812	78.919509	-50.098812	78.919509	-0.110637	-78.002111
4.350000	-0.171308	-120.855466	-49.790778	77.246265	-49.790778	77.246265	-0.112335	-78.830238
4.400000	-0.174706	-122.216628	-49.486224	75.545154	-49.486224	75.545154	-0.114056	-79.656399
4.450000	-0.178252	-123.585250	-49.184823	73.814901	-49.184823	73.814901	-0.115799	-80.480605
4.500000	-0.181966	-124.962439	-48.886226	72.053890	-48.886226	72.053890	-0.117565	-81.302863
4.550000	-0.185871	-126.349470	-48.590055	70.260107	-48.590055	70.260107	-0.119353	-82.123185
4.600000	-0.189995	-127.747817	-48.295898	68.431077	-48.295898	68.431077	-0.121166	-82.941581
4.650000	-0.194376	-129.159199	-48.003298	66.563776	-48.003298	66.563776	-0.123002	-83.758062
4.700000	-0.199056	-130.585636	-47.711744	64.654521	-47.711744	64.654521	-0.124862	-84.572640
4.750000	-0.204091	-132.029521	-47.420658	62.698831	-47.420658	62.698831	-0.126748	-85.385329
4.800000	-0.209551	-133.493713	-47.129375	60.691248	-47.129375	60.691248	-0.128658	-86.196141
4.850000	-0.215525	-134.981660	-46.837124	58.625096	-46.837124	58.625096	-0.130594	-87.005092
4.900000	-0.222131	-136.497565	-46.542995	56.492171	-46.542995	56.492171	-0.132556	-87.812195
4.950000	-0.229519	-138.046609	-46.245905	54.282323	-46.245905	54.282323	-0.134544	-88.617466
5.000000	-0.237894	-139.635253	-45.944542	51.982894	-45.944542	51.982894	-0.136558	-89.420924
5.050000	-0.247672	-141.276626	-45.635689	49.567268	-45.635689	49.567268	-0.138601	-90.222440
5.100000	-0.258983	-142.971873	-45.320487	47.035504	-45.320487	47.035504	-0.140669	-91.022345
5.150000	-0.272689	-144.745284	-44.993091	44.338913	-44.993091	44.338913	-0.142765	-91.820385
5.200000	-0.289366	-146.607988	-44.652496	41.458075	-44.652496	41.458075	-0.144888	-92.616756
5.250000	-0.310402	-148.590159	-44.293026	38.336329	-44.293026	38.336329	-0.147039	-93.411417
5.300000	-0.337472	-150.722708	-43.910124	34.918088	-43.910124	34.918088	-0.149217	-94.204440
5.350000	-0.374075	-153.067347	-43.493394	31.092544	-43.493394	31.092544	-0.151423	-94.995796
5.400000	-0.425392	-155.700025	-43.032372	26.729606	-43.032372	26.729606	-0.153657	-95.785579
5.450000	-0.501491	-158.751990	-42.509496	21.609162	-42.509496	21.609162	-0.155921	-96.573848
5.500000	-0.621522	-162.430108	-41.901400	15.397124	-41.901400	15.397124	-0.158218	-97.360736
5.550000	-0.827716	-167.107284	-41.172833	7.508109	-41.172833	7.508109	-0.160561	-98.146420
5.600000	-1.223684	-173.473011	-40.278707	-3.116753	-40.278707	-3.116753	-0.162985	-98.931207
5.650000	-2.116654	177.130483	-39.186921	-18.589608	-39.186921	-18.589608	-0.165602	-99.715518
5.700000	-4.651107	162.781990	-38.052177	-43.093151	-38.052177	-43.093151	-0.168743	-100.499062
5.750000	-15.091260	161.940896	-37.867877	-81.801622	-37.867877	-81.801622	-0.172723	-101.276473
5.800000	-7.906394	-102.570850	-40.195443	-128.718328	-40.195443	-128.718328	-0.176010	-102.043162
5.850000	-3.160343	-117.608382	-43.729489	-171.212037	-43.729489	-171.212037	-0.178074	-102.811174
5.900000	-1.706547	-128.914269	-46.177201	151.864197	-46.177201	151.864197	-0.180101	-103.582307
5.950000	-1.116497	-136.386812	-47.001191	122.385526	-47.001191	122.385526	-0.182348	-104.353700
6.000000	-0.828203	-141.702290	-46.890852	101.371585	-46.890852	101.371585	-0.184766	-105.124175
6.050000	-0.669015	-145.773944	-46.467654	86.775931	-46.467654	86.775931	-0.187302	-105.893370
6.100000	-0.572274	-149.099094	-45.991196	76.206240	-45.991196	76.206240	-0.189924	-106.661219
6.150000	-0.510347	-151.930783	-45.538422	68.212556	-45.538422	68.212556	-0.192617	-107.427679
6.200000	-0.468741	-154.431120	-45.126779	61.863414	-45.126779	61.863414	-0.195369	-108.192779
6.250000	-0.440212	-156.691158	-44.756197	56.649409	-44.756197	56.649409	-0.198176	-108.956493
6.300000	-0.419749	-158.787771	-44.419811	52.176863	-44.419811	52.176863	-0.201031	-109.718939
6.350000	-0.405043	-160.758314	-44.112434	48.259889	-44.112434	48.259889	-0.203932	-110.480127
6.400000	-0.394685	-162.626456	-43.830115	44.783928	-43.830115	44.783928	-0.206881	-111.239995
6.450000	-0.387480	-164.415543	-43.568671	41.643968	-43.568671	41.643968	-0.209878	-111.998538
6.500000	-0.382200	-166.154536	-43.322707	38.716499	-43.322707	38.716499	-0.212913	-112.756065
6.550000	-0.378725	-167.845141	-43.091303	35.995292	-43.091303	35.995292	-0.215992	-113.512418
6.600000	-0.376800	-169.493283	-42.873030	33.458734	-42.873030	33.458734	-0.219120	-114.267469
6.650000	-0.375912	-171.113049	-42.665073	31.050032	-42.665073	31.050032	-0.222290	-115.021435
6.700000	-0.375854	-172.710413	-42.466022	28.746512	-42.466022	28.746512	-0.225502	-115.774382
6.750000	-0.376552	-174.288063	-42.275137	26.541065	-42.275137	26.541065	-0.228758	-116.526251
6.800000	-0.377871	-175.850517	-42.091388	24.417962	-42.091388	24.417962	-0.232058	-117.277092
6.850000	-0.379719	-177.401145	-41.913981	22.366531	-41.913981	22.366531	-0.235403	-118.026933
6.900000	-0.382027	-178.942818	-41.742243	20.378219	-41.742243	20.378219	-0.238791	-118.775804
6.950000	-0.384741	179.521973	-41.575588	18.446144	-41.575588	18.446144	-0.242224	-119.523736
7.000000	-0.387819	177.991037	-41.413505	16.564752	-41.413505	16.564752	-0.245702	-120.270757
7.050000	-0.391230	176.462415	-41.255539	14.729575	-41.255539	14.729575	-0.249226	-121.016898
7.100000	-0.394950	174.934320	-41.101276	12.937038	-41.101276	12.937038	-0.252794	-121.762190
7.150000	-0.398963	173.405094	-40.950336	11.184320	-40.950336	11.184320	-0.256409	-122.506662
7.200000	-0.403260	171.873168	-40.802358	9.469243	-40.802358	9.469243	-0.260069	-123.250346
7.250000	-0.407837	170.337025	-40.656996	7.790194	-40.656996	7.790194	-0.263776	-123.993273
7.300000	-0.412695	168.795170	-40.513909	6.146071	-40.513909	6.146071	-0.267530	-124.735474
7.350000	-0.417842	167.246096	-40.372748	4.536239	-40.372748	4.536239	-0.271331	-125.476980
7.400000	-0.423293	165.688253	-40.233156	2.960509	-40.233156	2.960509	-0.275179	-126.217824
7.450000	-0.429069	164.120010	-40.094748	1.419129	-40.094748	1.419129	-0.279075	-126.958037
7.500000	-0.435198	162.539617	-39.957108	-0.087213	-39.957108	-0.087213	-0.283019	-127.697652
7.550000	-0.441740	160.944445	-39.819664	-1.555722	-39.819664	-1.555722	-0.287014	-128.436676
7.600000	-0.448732	159.332849	-39.681936	-2.986217	-39.681936	-2.986217	-0.291059	-129.175170
7.650000	-0.456244	157.702347	-39.543289	-4.376454	-39.543289	-4.376454	-0.295153	-129.913165
7.700000	-0.464365	156.050060	-39.402969	-5.723581	-39.402969	-5.723581	-0.299297	-130.650694
7.750000	-0.473213	154.372585	-39.260067	-7.024062	-39.260067	-7.024062	-0.303492	-131.387789
7.800000	-0.482942	152.665837	-39.113463	-8.273575	-39.113463	-8.273575	-0.307738	-132.124482
7.850000	-0.493757	150.924825	-38.961757	-9.466895	-38.961757	-9.466895	-0.312037	-132.860806
7.900000	-0.505933	149.143345	-38.803174	-10.597761	-38.803174	-10.597761	-0.316389	-133.596790
7.950000	-0.519643	147.319037	-38.636869	-11.666261	-38.636869	-11.666261	-0.320790	-134.332494
8.000000	-0.535727	145.432847	-38.457600	-12.650602	-38.457600	-12.650602	-0.325251	-135.067889
8.050000	-0.554779	143.475758	-38.262466	-13.546727	-38.262466	-13.546727	-0.329770	-135.803030
8.100000	-0.577868	141.430315	-38.046198	-14.343512	-38.046198	-14.343512	-0.334347	-136.537939
8.150000	-0.606693	139.270977	-37.801042	-15.027989	-37.801042	-15.027989	-0.338987	-137.272631
8.200000	-0.643898	136.962309	-37.516231	-15.589481	-37.516231	-15.589481	-0.343694	-138.007112
8.250000	-0.693445	134.458353	-37.178209	-16.026337	-37.178209	-16.026337	-0.348470	-138.741377
8.300000	-0.762876	131.678870	-36.763700	-16.346491	-36.763700	-16.346491	-0.353322	-139.475379
8.350000	-0.865297	128.508159	-36.241444	-16.599148	-36.241444	-16.599148	-0.358259	-140.209024
8.400000	-1.028940	124.736796	-35.558348	-16.924823	-35.558348	-16.924823	-0.363290	-140.942089
8.450000	-1.313027	120.039489	-34.646271	-17.675394	-34.646271	-17.675394	-0.368413	-141.674134
8.500000	-1.875159	113.830118	-33.404911	-19.730798	-33.404911	-19.730798	-0.373583	-142.404169
8.550000	-3.192203	105.472548	-31.770331	-25.177620	-31.770331	-25.177620	-0.378530	-143.130353
8.600000	-6.959377	99.254183	-30.033888	-38.138125	-30.033888	-38.138125	-0.382168	-143.852560
8.650000	-10.948950	150.154740	-29.568014	-59.910632	-29.568014	-59.910632	-0.383669	-144.587565
8.700000	-4.598470	164.045848	-31.197381	-78.087176	-31.197381	-78.087176	-0.387143	-145.341791
8.750000	-2.282100	154.404176	-33.334157	-85.538153	-33.334157	-85.538153	-0.392809	-146.090649
8.800000	-1.436907	146.602192	-34.997407	-86.673129	-34.997407	-86.673129	-0.398761	-146.832910
8.850000	-1.062613	140.889228	-36.128044	-85.461184	-36.128044	-85.461184	-0.404595	-147.572549
8.900000	-0.872464	136.478682	-36.862442	-83.697921	-36.862442	-83.697921	-0.410322	-148.311374
8.950000	-0.764372	132.848102	-37.340012	-82.073907	-37.340012	-82.073907	-0.415991	-149.050129
9.000000	-0.698827	129.720058	-37.649569	-80.800840	-37.649569	-80.800840	-0.421635	-149.789146
9.050000	-0.657015	126.926198	-37.851061	-79.908560	-37.851061	-79.908560	-0.427279	-150.528599
9.100000	-0.629378	124.363273	-37.982412	-79.361942	-37.982412	-79.361942	-0.432937	-151.268599
9.150000	-0.610678	121.965107	-38.067641	-79.109154	-38.067641	-79.109154	-0.438620	-152.009223
9.200000	-0.597988	119.690424	-38.121505	-79.105808	-38.121505	-79.105808	-0.444334	-152.750558
9.250000	-0.589161	117.502658	-38.155517	-79.294530	-38.155517	-79.294530	-0.450083	-153.492616
9.300000	-0.583163	115.383582	-38.175503	-79.645827	-38.175503	-79.645827	-0.455870	-154.235468
9.350000	-0.579203	113.317437	-38.186003	-80.130075	-38.186003	-80.130075	-0.461699	-154.979164
9.400000	-0.576895	111.296996	-38.189574	-80.735889	-38.189574	-80.735889	-0.467576	-155.723884
9.450000	-0.575521	109.303640	-38.189756	-81.417386	-38.189756	-81.417386	-0.473492	-156.469429
9.500000	-0.575002	107.335836	-38.187303	-82.173076	-38.187303	-82.173076	-0.479453	-157.215962
9.550000	-0.575139	105.388201	-38.183353	-82.990174	-38.183353	-82.990174	-0.485460	-157.963530
9.600000	-0.575784	103.456474	-38.178738	-83.858184	-38.178738	-83.858184	-0.491513	-158.712183
9.650000	-0.576826	101.537248	-38.174073	-84.768433	-38.174073	-84.768433	-0.497613	-159.461967
9.700000	-0.578179	99.627772	-38.169812	-85.713697	-38.169812	-85.713697	-0.503760	-160.212932
9.750000	-0.579778	97.725810	-38.166300	-86.687920	-38.166300	-86.687920	-0.509954	-160.965127
9.800000	-0.581570	95.829532	-38.163793	-87.685992	-38.163793	-87.685992	-0.516195	-161.718600
9.850000	-0.583516	93.937432	-38.162487	-88.703564	-38.162487	-88.703564	-0.522484	-162.473402
9.900000	-0.585583	92.048269	-38.162529	-89.736919	-38.162529	-89.736919	-0.528820	-163.229582
9.950000	-0.587745	90.161016	-38.164031	-90.782855	-38.164031	-90.782855	-0.535203	-163.987192
10.000000	-0.589980	88.274821	-38.167076	-91.838600	-38.167076	-91.838600	-0.541633	-164.746283
