! freq	dB(S11)	phase(S11)	dB(S12)	phase(S12)	
!     	dB(S21)	phase(S21)	dB(S22)	phase(S22)	
!S-par simulation data
#  GHz  S  DB  R 50
0.000000	-0.000000	0.000000	-358.772177	180.000000	-358.772177	180.000000	-0.000000	0.000000
0.050000	-0.000099	-0.810621	-89.594826	163.203035	-89.594826	163.203035	-0.000262	-2.444527
0.100000	-0.000391	-1.621013	-87.940868	140.121064	-87.940868	140.121064	-0.001039	-4.887880
0.150000	-0.000868	-2.430953	-86.161452	125.458424	-86.161452	125.458424	-0.002316	-7.328879
0.200000	-0.001509	-3.240266	-84.530955	115.245443	-84.530955	115.245443	-0.004048	-9.766495
0.250000	-0.002296	-4.048794	-83.107986	107.703808	-83.107986	107.703808	-0.006199	-12.199680
0.300000	-0.003207	-4.856421	-81.883165	101.810990	-81.883165	101.810990	-0.008720	-14.627486
0.350000	-0.004219	-5.663064	-80.830704	96.993342	-80.830704	96.993342	-0.011557	-17.049043
0.400000	-0.005309	-6.468679	-79.925150	92.916624	-79.925150	92.916624	-0.014656	-19.463567
0.450000	-0.006457	-7.273247	-79.145195	89.378266	-79.145195	89.378266	-0.017962	-21.870354
0.500000	-0.007645	-8.076772	-78.473842	86.251413	-78.473842	86.251413	-0.021423	-24.268780
0.550000	-0.008857	-8.879271	-77.897720	83.454888	-77.897720	83.454888	-0.024992	-26.658285
0.600000	-0.010082	-9.680774	-77.406328	80.936449	-77.406328	80.936449	-0.028625	-29.038370
0.650000	-0.011310	-10.481305	-76.991971	78.665568	-76.991971	78.665568	-0.032285	-31.408476
0.700000	-0.012534	-11.280898	-76.648109	76.622546	-76.648109	76.622546	-0.035940	-33.768185
0.750000	-0.013747	-12.079596	-76.368942	74.796057	-76.368942	74.796057	-0.039563	-36.117237
0.800000	-0.014947	-12.877428	-76.150280	73.185472	-76.150280	73.185472	-0.043135	-38.455291
0.850000	-0.016133	-13.674417	-75.988724	71.797205	-75.988724	71.797205	-0.046640	-40.782032
0.900000	-0.017302	-14.470583	-75.881437	70.644325	-75.881437	70.644325	-0.050065	-43.097165
0.950000	-0.018455	-15.265940	-75.825935	69.746623	-75.825935	69.746623	-0.053403	-45.400414
1.000000	-0.019592	-16.060496	-75.819845	69.131030	-75.819845	69.131030	-0.056649	-47.691518
1.050000	-0.020713	-16.854257	-75.860615	68.832296	-75.860615	68.832296	-0.059800	-49.970233
1.100000	-0.021820	-17.647224	-75.945137	68.893784	-75.945137	68.893784	-0.062854	-52.236331
1.150000	-0.022913	-18.439393	-76.069221	69.368147	-76.069221	69.368147	-0.065814	-54.489599
1.200000	-0.023995	-19.230758	-76.226889	70.317450	-76.226889	70.317450	-0.068680	-56.729839
1.250000	-0.025065	-20.021313	-76.409415	71.811911	-76.409415	71.811911	-0.071456	-58.956873
1.300000	-0.026125	-20.811028	-76.603890	73.941066	-76.603890	73.941066	-0.074144	-61.170243
1.350000	-0.027176	-21.599908	-76.791539	76.762029	-76.791539	76.762029	-0.076749	-63.370092
1.400000	-0.028220	-22.387940	-76.947749	80.321641	-76.947749	80.321641	-0.079276	-65.556293
1.450000	-0.029257	-23.175110	-77.041809	84.620482	-77.041809	84.620482	-0.081730	-67.728739
1.500000	-0.030288	-23.961401	-77.039497	89.585280	-77.039497	89.585280	-0.084115	-69.887341
1.550000	-0.031314	-24.746798	-76.908772	95.049924	-76.908772	95.049924	-0.086434	-72.032029
1.600000	-0.032336	-25.531283	-76.627600	100.761702	-76.627600	100.761702	-0.088694	-74.162750
1.650000	-0.033355	-26.314840	-76.190595	106.421486	-76.190595	106.421486	-0.090898	-76.279473
1.700000	-0.034371	-27.097451	-75.610618	111.745536	-75.610618	111.745536	-0.093051	-78.382183
1.750000	-0.035385	-27.879099	-74.914302	116.520046	-74.914302	116.520046	-0.095155	-80.470886
1.800000	-0.036397	-28.659766	-74.134290	120.625239	-74.134290	120.625239	-0.097217	-82.545603
1.850000	-0.037409	-29.439435	-73.302158	124.027522	-73.302158	124.027522	-0.099238	-84.606374
1.900000	-0.038420	-30.218077	-72.443268	126.747637	-72.443268	126.747637	-0.101222	-86.653108
1.950000	-0.039431	-30.995674	-71.577933	128.849526	-71.577933	128.849526	-0.103173	-88.685881
2.000000	-0.040443	-31.772220	-70.720976	130.415383	-70.720976	130.415383	-0.105094	-90.704935
2.050000	-0.041455	-32.547698	-69.881263	131.520007	-69.881263	131.520007	-0.106988	-92.710378
2.100000	-0.042469	-33.322092	-69.064159	132.232113	-69.064159	132.232113	-0.108859	-94.702330
2.150000	-0.043485	-34.095385	-68.272589	132.611959	-68.272589	132.611959	-0.110708	-96.680927
2.200000	-0.044502	-34.867560	-67.507848	132.711000	-67.507848	132.711000	-0.112538	-98.646319
2.250000	-0.045522	-35.638602	-66.770175	132.572519	-66.770175	132.572519	-0.114352	-100.598667
2.300000	-0.046545	-36.408496	-66.059144	132.232642	-66.059144	132.232642	-0.116152	-102.538146
2.350000	-0.047572	-37.177225	-65.373932	131.721418	-65.373932	131.721418	-0.117941	-104.464941
2.400000	-0.048601	-37.944776	-64.713494	131.063833	-64.713494	131.063833	-0.119720	-106.379250
2.450000	-0.049635	-38.711133	-64.076676	130.280696	-64.076676	130.280696	-0.121491	-108.281277
2.500000	-0.050673	-39.476282	-63.462286	129.389382	-63.462286	129.389382	-0.123256	-110.171240
2.550000	-0.051715	-40.240182	-62.868731	128.402700	-62.868731	128.402700	-0.125018	-112.049112
2.600000	-0.052763	-41.002847	-62.295345	127.335110	-62.295345	127.335110	-0.126777	-113.915388
2.650000	-0.053815	-41.764262	-61.741027	126.196851	-61.741027	126.196851	-0.128536	-115.770311
2.700000	-0.054874	-42.524415	-61.204739	124.996619	-61.204739	124.996619	-0.130297	-117.614130
2.750000	-0.055938	-43.283224	-60.684749	123.739116	-60.684749	123.739116	-0.132060	-119.446518
2.800000	-0.057009	-44.040801	-60.181582	122.435981	-60.181582	122.435981	-0.133827	-121.268801
2.850000	-0.058086	-44.797080	-59.693738	121.090183	-59.693738	121.090183	-0.135600	-123.080768
2.900000	-0.059170	-45.552049	-59.220431	119.706434	-59.220431	119.706434	-0.137381	-124.882693
2.950000	-0.060261	-46.305696	-58.760934	118.288820	-58.760934	118.288820	-0.139169	-126.674851
3.000000	-0.061360	-47.058013	-58.314571	116.840905	-58.314571	116.840905	-0.140967	-128.457523
3.050000	-0.062467	-47.808987	-57.880716	115.365804	-57.880716	115.365804	-0.142776	-130.230995
3.100000	-0.063582	-48.558610	-57.458787	113.866252	-57.458787	113.866252	-0.144597	-131.995554
3.150000	-0.064706	-49.306873	-57.048245	112.344660	-57.048245	112.344660	-0.146431	-133.751492
3.200000	-0.065839	-50.053765	-56.648588	110.803160	-56.648588	110.803160	-0.148280	-135.499103
3.250000	-0.066981	-50.799279	-56.259347	109.243644	-56.259347	109.243644	-0.150143	-137.238683
3.300000	-0.068133	-51.543406	-55.880089	107.667796	-55.880089	107.667796	-0.152023	-138.970531
3.350000	-0.069295	-52.286220	-55.510759	106.077880	-55.510759	106.077880	-0.153920	-140.695357
3.400000	-0.070467	-53.027598	-55.150442	104.474060	-55.150442	104.474060	-0.155835	-142.412857
3.450000	-0.071651	-53.767452	-54.798499	102.856998	-54.798499	102.856998	-0.157770	-144.122980
3.500000	-0.072845	-54.505964	-54.455364	101.229381	-54.455364	101.229381	-0.159725	-145.826938
3.550000	-0.074052	-55.243021	-54.120308	99.591352	-54.120308	99.591352	-0.161702	-147.524546
3.600000	-0.075271	-55.978642	-53.793139	97.943985	-53.793139	97.943985	-0.163700	-149.216228
3.650000	-0.076501	-56.712864	-53.473705	96.288335	-53.473705	96.288335	-0.165720	-150.902458
3.700000	-0.077745	-57.445647	-53.161628	94.624902	-53.161628	94.624902	-0.167764	-152.583402
3.750000	-0.079002	-58.176895	-52.856438	92.953932	-52.856438	92.953932	-0.169834	-154.259076
3.800000	-0.080273	-58.906718	-52.558207	91.276590	-52.558207	91.276590	-0.171928	-155.930191
3.850000	-0.081557	-59.635113	-52.266702	89.593389	-52.266702	89.593389	-0.174047	-157.597046
3.900000	-0.082856	-60.362075	-51.981700	87.904792	-51.981700	87.904792	-0.176192	-159.259938
3.950000	-0.084169	-61.087603	-51.702990	86.211221	-51.702990	86.211221	-0.178364	-160.919169
4.000000	-0.085497	-61.811693	-51.430373	84.513054	-51.430373	84.513054	-0.180563	-162.575038
4.050000	-0.086841	-62.534220	-51.163461	82.810292	-51.163461	82.810292	-0.182792	-164.227610
4.100000	-0.088202	-63.255260	-50.902231	81.103507	-50.902231	81.103507	-0.185050	-165.877394
4.150000	-0.089578	-63.974857	-50.646584	79.393085	-50.646584	79.393085	-0.187338	-167.524785
4.200000	-0.090972	-64.693010	-50.396350	77.679251	-50.396350	77.679251	-0.189655	-169.170088
4.250000	-0.092382	-65.409717	-50.151369	75.962199	-50.151369	75.962199	-0.192003	-170.813608
4.300000	-0.093809	-66.124979	-49.911488	74.242086	-49.911488	74.242086	-0.194382	-172.455651
4.350000	-0.095255	-66.838769	-49.676533	72.518990	-49.676533	72.518990	-0.196793	-174.096512
4.400000	-0.096720	-67.550971	-49.446265	70.792786	-49.446265	70.792786	-0.199239	-175.736471
4.450000	-0.098204	-68.261730	-49.220694	69.063815	-49.220694	69.063815	-0.201719	-177.375951
4.500000	-0.099707	-68.971045	-48.999686	67.332095	-48.999686	67.332095	-0.204233	-179.015269
4.550000	-0.101230	-69.678918	-48.783113	65.597612	-48.783113	65.597612	-0.206781	179.345255
4.600000	-0.102772	-70.385351	-48.570848	63.860314	-48.570848	63.860314	-0.209365	177.705299
4.650000	-0.104335	-71.090347	-48.362772	62.120111	-48.362772	62.120111	-0.211986	176.064532
4.700000	-0.105919	-71.793810	-48.158714	60.376655	-48.158714	60.376655	-0.214647	174.422521
4.750000	-0.107525	-72.495770	-47.958585	58.629793	-47.958585	58.629793	-0.217349	172.778895
4.800000	-0.109153	-73.196302	-47.762309	56.879434	-47.762309	56.879434	-0.220093	171.133361
4.850000	-0.110803	-73.895409	-47.569771	55.125284	-47.569771	55.125284	-0.222879	169.485558
4.900000	-0.112476	-74.593094	-47.380857	53.366986	-47.380857	53.366986	-0.225710	167.835116
4.950000	-0.114171	-75.289361	-47.195455	51.604109	-47.195455	51.604109	-0.228588	166.181647
5.000000	-0.115889	-75.984216	-47.013450	49.836143	-47.013450	49.836143	-0.231517	164.524749
5.050000	-0.117633	-76.677484	-46.834667	48.061671	-46.834667	48.061671	-0.234506	162.863457
5.100000	-0.119400	-77.369459	-46.659081	46.281165	-46.659081	46.281165	-0.237550	161.198132
5.150000	-0.121193	-78.059925	-46.486490	44.492620	-46.486490	44.492620	-0.240663	159.527556
5.200000	-0.123011	-78.749028	-46.316803	42.695711	-46.316803	42.695711	-0.243846	157.851685
5.250000	-0.124854	-79.436717	-46.149854	40.888758	-46.149854	40.888758	-0.247110	156.169702
5.300000	-0.126724	-80.122974	-45.985466	39.069949	-45.985466	39.069949	-0.250467	154.480823
5.350000	-0.128619	-80.807914	-45.823505	37.238333	-45.823505	37.238333	-0.253924	152.784867
5.400000	-0.130542	-81.491356	-45.663659	35.389488	-45.663659	35.389488	-0.257514	151.079911
5.450000	-0.132491	-82.173548	-45.505836	33.523516	-45.505836	33.523516	-0.261235	149.366519
5.500000	-0.134469	-82.854235	-45.349529	31.632613	-45.349529	31.632613	-0.265149	147.641610
5.550000	-0.136473	-83.533663	-45.194613	29.716331	-45.194613	29.716331	-0.269264	145.905713
5.600000	-0.138507	-84.211684	-45.040457	27.765141	-45.040457	27.765141	-0.273661	144.155673
5.650000	-0.140568	-84.888387	-44.886637	25.773278	-44.886637	25.773278	-0.278399	142.390202
5.700000	-0.142658	-85.563782	-44.732452	23.730249	-44.732452	23.730249	-0.283584	140.606576
5.750000	-0.144777	-86.237807	-44.576773	21.618200	-44.576773	21.618200	-0.289406	138.799984
5.800000	-0.146923	-86.910625	-44.418954	19.426471	-44.418954	19.426471	-0.296010	136.968476
5.850000	-0.149100	-87.582029	-44.256177	17.107859	-44.256177	17.107859	-0.303959	135.099643
5.900000	-0.151302	-88.252286	-44.087718	14.645690	-44.087718	14.645690	-0.313565	133.190889
5.950000	-0.153533	-88.921202	-43.908144	11.938603	-43.908144	11.938603	-0.326313	131.217627
6.000000	-0.155789	-89.589009	-43.715221	8.924677	-43.715221	8.924677	-0.343476	129.167409
6.050000	-0.158069	-90.255619	-43.499124	5.368460	-43.499124	5.368460	-0.369600	126.987889
6.100000	-0.160369	-90.921192	-43.249803	0.913195	-43.249803	0.913195	-0.413425	124.606721
6.150000	-0.162688	-91.585957	-42.954681	-5.232151	-42.954681	-5.232151	-0.498278	121.878515
6.200000	-0.165045	-92.250491	-42.624603	-15.166297	-42.624603	-15.166297	-0.703406	118.512107
6.250000	-0.167669	-92.916339	-42.600485	-35.710435	-42.600485	-35.710435	-1.377078	114.534197
6.300000	-0.171784	-93.578911	-47.267945	-87.015748	-47.267945	-87.015748	-2.898336	121.037002
6.350000	-0.174627	-94.226716	-55.503726	65.989064	-55.503726	65.989064	-1.358106	127.746662
6.400000	-0.176579	-94.881587	-47.983584	35.469528	-47.983584	35.469528	-0.676515	123.521127
6.450000	-0.178856	-95.537805	-46.163673	24.255438	-46.163673	24.255438	-0.484309	120.007986
6.500000	-0.181315	-96.193270	-45.342026	17.688174	-45.342026	17.688174	-0.411721	117.170599
6.550000	-0.183880	-96.847662	-44.864196	13.073681	-44.864196	13.073681	-0.378875	114.687413
6.600000	-0.186519	-97.500911	-44.545019	9.472962	-44.545019	9.472962	-0.362643	112.400411
6.650000	-0.189215	-98.153034	-44.310244	6.450195	-44.310244	6.450195	-0.354246	110.225649
6.700000	-0.191963	-98.804054	-44.126684	3.792993	-44.126684	3.792993	-0.350056	108.119373
6.750000	-0.194756	-99.453997	-43.977069	1.383457	-43.977069	1.383457	-0.348326	106.056302
6.800000	-0.197594	-100.102869	-43.851788	-0.846973	-43.851788	-0.846973	-0.348150	104.021112
6.850000	-0.200476	-100.750689	-43.744703	-2.943972	-43.744703	-2.943972	-0.348996	102.003392
6.900000	-0.203400	-101.397463	-43.651966	-4.936906	-43.651966	-4.936906	-0.350548	99.996113
6.950000	-0.206367	-102.043212	-43.570855	-6.846992	-43.570855	-6.846992	-0.352605	97.994158
7.000000	-0.209376	-102.687963	-43.499396	-8.689651	-43.499396	-8.689651	-0.355035	95.993846
7.050000	-0.212427	-103.331736	-43.436265	-10.475221	-43.436265	-10.475221	-0.357755	93.992495
7.100000	-0.215519	-103.974547	-43.380476	-12.211288	-43.380476	-12.211288	-0.360707	91.988045
7.150000	-0.218654	-104.616416	-43.331278	-13.903484	-43.331278	-13.903484	-0.363855	89.978876
7.200000	-0.221831	-105.257361	-43.288089	-15.556017	-43.288089	-15.556017	-0.367171	87.963694
7.250000	-0.225051	-105.897400	-43.250447	-17.172038	-43.250447	-17.172038	-0.370638	85.941445
7.300000	-0.228313	-106.536553	-43.217976	-18.753899	-43.217976	-18.753899	-0.374244	83.911255
7.350000	-0.231618	-107.174840	-43.190368	-20.303340	-43.190368	-20.303340	-0.377983	81.872389
7.400000	-0.234967	-107.812278	-43.167366	-21.821618	-43.167366	-21.821618	-0.381850	79.824221
7.450000	-0.238359	-108.448890	-43.148748	-23.309610	-43.148748	-23.309610	-0.385844	77.766208
7.500000	-0.241795	-109.084694	-43.134323	-24.767885	-43.134323	-24.767885	-0.389968	75.697875
7.550000	-0.245276	-109.719694	-43.124007	-26.196123	-43.124007	-26.196123	-0.394227	73.618554
7.600000	-0.248801	-110.353929	-43.117557	-27.595063	-43.117557	-27.595063	-0.398623	71.528090
7.650000	-0.252371	-110.987420	-43.114836	-28.964619	-43.114836	-28.964619	-0.403163	69.426135
7.700000	-0.255986	-111.620188	-43.115718	-30.304554	-43.115718	-30.304554	-0.407853	67.312365
7.750000	-0.259646	-112.252255	-43.120082	-31.614492	-43.120082	-31.614492	-0.412702	65.186476
7.800000	-0.263352	-112.883643	-43.127814	-32.893932	-43.127814	-32.893932	-0.417720	63.048175
7.850000	-0.267104	-113.514375	-43.138805	-34.142256	-43.138805	-34.142256	-0.422917	60.897181
7.900000	-0.270902	-114.144473	-43.152945	-35.358735	-43.152945	-35.358735	-0.428306	58.733212
7.950000	-0.274747	-114.773961	-43.170126	-36.542529	-43.170126	-36.542529	-0.433898	56.555992
8.000000	-0.278639	-115.402861	-43.190239	-37.692691	-43.190239	-37.692691	-0.439708	54.365239
8.050000	-0.282578	-116.031199	-43.213169	-38.808161	-43.213169	-38.808161	-0.445751	52.160661
8.100000	-0.286565	-116.658998	-43.238797	-39.887766	-43.238797	-39.887766	-0.452043	49.941958
8.150000	-0.290601	-117.286278	-43.267021	-40.929797	-43.267021	-40.929797	-0.458604	47.708654
8.200000	-0.294686	-117.913064	-43.297696	-41.932791	-43.297696	-41.932791	-0.465454	45.460399
8.250000	-0.298819	-118.539388	-43.330640	-42.895607	-43.330640	-42.895607	-0.472611	43.196988
8.300000	-0.303002	-119.165277	-43.365679	-43.816576	-43.365679	-43.816576	-0.480097	40.918031
8.350000	-0.307234	-119.790755	-43.402615	-44.693905	-43.402615	-44.693905	-0.487935	38.623102
8.400000	-0.311517	-120.415851	-43.441218	-45.525682	-43.441218	-45.525682	-0.496152	36.311736
8.450000	-0.315850	-121.040592	-43.481225	-46.309894	-43.481225	-46.309894	-0.504775	33.983422
8.500000	-0.320234	-121.665005	-43.522328	-47.044444	-43.522328	-47.044444	-0.513836	31.637595
8.550000	-0.324670	-122.289120	-43.564167	-47.727192	-43.564167	-47.727192	-0.523367	29.273631
8.600000	-0.329158	-122.912965	-43.606325	-48.356003	-43.606325	-48.356003	-0.533406	26.890836
8.650000	-0.333698	-123.536570	-43.648318	-48.928821	-43.648318	-48.928821	-0.543991	24.488440
8.700000	-0.338291	-124.159965	-43.689588	-49.443758	-43.689588	-49.443758	-0.555168	22.065582
8.750000	-0.342938	-124.783182	-43.729503	-49.899219	-43.729503	-49.899219	-0.566986	19.621301
8.800000	-0.347641	-125.406250	-43.767290	-50.292706	-43.767290	-50.292706	-0.579514	17.154007
8.850000	-0.352398	-126.029205	-43.802201	-50.624993	-43.802201	-50.624993	-0.592801	14.662949
8.900000	-0.357210	-126.652080	-43.833403	-50.896344	-43.833403	-50.896344	-0.606916	12.146767
8.950000	-0.362079	-127.274911	-43.860037	-51.107974	-43.860037	-51.107974	-0.621935	9.603927
9.000000	-0.367004	-127.897731	-43.881251	-51.262179	-43.881251	-51.262179	-0.637946	7.032708
9.050000	-0.371986	-128.520577	-43.896251	-51.362409	-43.896251	-51.362409	-0.655050	4.431165
9.100000	-0.377026	-129.143487	-43.904350	-51.413243	-43.904350	-51.413243	-0.673358	1.797107
9.150000	-0.382124	-129.766499	-43.905028	-51.420247	-43.905028	-51.420247	-0.693004	-0.871947
9.200000	-0.387280	-130.389648	-43.898162	-51.390389	-43.898162	-51.390389	-0.714099	-3.577858
9.250000	-0.392498	-131.012984	-43.883265	-51.328449	-43.883265	-51.328449	-0.736908	-6.326113
9.300000	-0.397774	-131.636545	-43.860843	-51.242065	-43.860843	-51.242065	-0.761586	-9.119075
9.350000	-0.403111	-132.260374	-43.831412	-51.136841	-43.831412	-51.136841	-0.788374	-11.960905
9.400000	-0.408508	-132.884514	-43.795726	-51.017106	-43.795726	-51.017106	-0.817553	-14.856361
9.450000	-0.413965	-133.509011	-43.754711	-50.885501	-43.754711	-50.885501	-0.849458	-17.810905
9.500000	-0.419482	-134.133911	-43.709396	-50.742727	-43.709396	-50.742727	-0.884487	-20.830825
9.550000	-0.425058	-134.759260	-43.660831	-50.587473	-43.660831	-50.587473	-0.923115	-23.923391
9.600000	-0.430693	-135.385107	-43.610003	-50.416411	-43.610003	-50.416411	-0.965939	-27.097474
9.650000	-0.436387	-136.011504	-43.557795	-50.224402	-43.557795	-50.224402	-1.013692	-30.363575
9.700000	-0.442137	-136.638492	-43.504943	-50.005269	-43.504943	-50.005269	-1.067190	-33.732513
9.750000	-0.447942	-137.266117	-43.451978	-49.751691	-43.451978	-49.751691	-1.127482	-37.217950
9.800000	-0.453802	-137.894423	-43.399246	-49.455685	-43.399246	-49.455685	-1.195866	-40.836077
9.850000	-0.459713	-138.523453	-43.346919	-49.108882	-43.346919	-49.108882	-1.273960	-44.606194
9.900000	-0.465675	-139.153249	-43.295020	-48.702742	-43.295020	-48.702742	-1.363792	-48.551469
9.950000	-0.471686	-139.783851	-43.243445	-48.228699	-43.243445	-48.228699	-1.467928	-52.699927
10.000000	-0.477744	-140.415297	-43.191996	-47.678238	-43.191996	-47.678238	-1.589639	-57.085740
