! freq	dB(S11)	phase(S11)	dB(S12)	phase(S12)	
!     	dB(S21)	phase(S21)	dB(S22)	phase(S22)	
!S-par simulation data
#  GHz  S  DB  R 50
0.000000	-0.000000	0.000000	-292.225908	0.000000	-292.225908	0.000000	-0.000000	0.000000
0.050000	-0.014222	-4.303945	-91.791889	79.052362	-91.791889	79.052362	-0.000149	-0.803002
0.100000	-0.031721	-8.736812	-86.214790	80.080745	-86.214790	80.080745	-0.000599	-1.606167
0.150000	-0.041555	-13.195163	-82.839207	79.072819	-82.839207	79.072819	-0.001349	-2.409732
0.200000	-0.047155	-17.632556	-80.451682	77.367160	-80.451682	77.367160	-0.002392	-3.214045
0.250000	-0.050929	-22.036504	-78.629751	75.378299	-78.629751	75.378299	-0.003685	-4.019515
0.300000	-0.053925	-26.401156	-77.177859	73.264031	-77.177859	73.264031	-0.005148	-4.826465
0.350000	-0.056600	-30.721256	-75.990356	71.099024	-75.990356	71.099024	-0.006670	-5.634955
0.400000	-0.059161	-34.992325	-75.002923	68.925836	-75.002923	68.925836	-0.008143	-6.444661
0.450000	-0.061701	-39.210056	-74.173933	66.771585	-74.173933	66.771585	-0.009497	-7.255004
0.500000	-0.064256	-43.370347	-73.475040	64.656157	-73.475040	64.656157	-0.010709	-8.065349
0.550000	-0.066839	-47.469502	-72.886060	62.595798	-72.886060	62.595798	-0.011792	-8.875174
0.600000	-0.069445	-51.504287	-72.392155	60.604970	-72.392155	60.604970	-0.012780	-9.684129
0.650000	-0.072064	-55.471576	-71.982471	58.698006	-71.982471	58.698006	-0.013708	-10.492019
0.700000	-0.074679	-59.369079	-71.648403	56.889072	-71.648403	56.889072	-0.014605	-11.298766
0.750000	-0.077275	-63.195404	-71.382922	55.192397	-71.382922	55.192397	-0.015493	-12.104365
0.800000	-0.079835	-66.949255	-71.180726	53.623967	-71.180726	53.623967	-0.016385	-12.908833
0.850000	-0.082345	-70.629776	-71.037564	52.201631	-71.037564	52.201631	-0.017291	-13.712200
0.900000	-0.084790	-74.236519	-70.949959	50.945714	-70.949959	50.945714	-0.018213	-14.514496
0.950000	-0.087160	-77.769208	-70.915123	49.880285	-70.915123	49.880285	-0.019154	-15.315745
1.000000	-0.089443	-81.227713	-70.930694	49.034398	-70.930694	49.034398	-0.020113	-16.115964
1.050000	-0.091634	-84.613210	-70.993731	48.438932	-70.993731	48.438932	-0.021089	-16.915177
1.100000	-0.093725	-87.926535	-71.101537	48.132099	-71.101537	48.132099	-0.022079	-17.713396
1.150000	-0.095714	-91.167996	-71.251227	48.163133	-71.251227	48.163133	-0.023082	-18.510619
1.200000	-0.097601	-94.340754	-71.437606	48.573975	-71.437606	48.573975	-0.024096	-19.306875
1.250000	-0.099383	-97.445074	-71.655421	49.429866	-71.655421	49.429866	-0.025118	-20.102151
1.300000	-0.101060	-100.481100	-71.896369	50.809550	-71.896369	50.809550	-0.026147	-20.896426
1.350000	-0.102636	-103.451998	-72.147713	52.772022	-72.147713	52.772022	-0.027180	-21.689718
1.400000	-0.104114	-106.359528	-72.392617	55.379989	-72.392617	55.379989	-0.028217	-22.482024
1.450000	-0.105499	-109.205513	-72.608771	58.676219	-72.608771	58.676219	-0.029256	-23.273337
1.500000	-0.106795	-111.991822	-72.768579	62.663299	-72.768579	62.663299	-0.030296	-24.063653
1.550000	-0.108008	-114.720352	-72.841263	67.280527	-72.841263	67.280527	-0.031336	-24.852963
1.600000	-0.109144	-117.393012	-72.797477	72.387105	-72.797477	72.387105	-0.032375	-25.641260
1.650000	-0.110207	-120.011716	-72.615808	77.764733	-72.615808	77.764733	-0.033414	-26.428534
1.700000	-0.111205	-122.578366	-72.288697	83.147780	-72.288697	83.147780	-0.034451	-27.214776
1.750000	-0.112143	-125.094848	-71.824634	88.273905	-71.824634	88.273905	-0.035487	-27.999976
1.800000	-0.113028	-127.563023	-71.245288	92.933387	-71.245288	92.933387	-0.036521	-28.784124
1.850000	-0.113865	-129.984720	-70.579277	96.996223	-70.579277	96.996223	-0.037553	-29.567207
1.900000	-0.114661	-132.361265	-69.854755	100.404674	-69.854755	100.404674	-0.038584	-30.349202
1.950000	-0.115420	-134.694469	-69.097726	103.170225	-69.097726	103.170225	-0.039613	-31.130098
2.000000	-0.116150	-136.986524	-68.329207	105.348233	-68.329207	105.348233	-0.040641	-31.909893
2.050000	-0.116855	-139.239091	-67.563479	107.003147	-67.563479	107.003147	-0.041668	-32.688575
2.100000	-0.117540	-141.453783	-66.810210	108.203090	-66.810210	108.203090	-0.042694	-33.466131
2.150000	-0.118209	-143.632164	-66.075550	109.012845	-66.075550	109.012845	-0.043720	-34.242548
2.200000	-0.118869	-145.775750	-65.363118	109.490575	-65.363118	109.490575	-0.044746	-35.017814
2.250000	-0.119522	-147.886010	-64.674781	109.686810	-64.674781	109.686810	-0.045772	-35.791914
2.300000	-0.120172	-149.964361	-64.011236	109.644600	-64.011236	109.644600	-0.046799	-36.564837
2.350000	-0.120824	-152.012174	-63.372418	109.400231	-63.372418	109.400231	-0.047828	-37.336568
2.400000	-0.121480	-154.030772	-62.757786	108.984116	-62.757786	108.984116	-0.048858	-38.107096
2.450000	-0.122144	-156.021431	-62.166511	108.421693	-62.166511	108.421693	-0.049891	-38.876406
2.500000	-0.122819	-157.985383	-61.597607	107.734244	-61.597607	107.734244	-0.050926	-39.644485
2.550000	-0.123507	-159.923285	-61.049731	106.937619	-61.049731	106.937619	-0.051965	-40.411294
2.600000	-0.124211	-161.836860	-60.522142	106.049345	-60.522142	106.049345	-0.053008	-41.176847
2.650000	-0.124932	-163.727206	-60.013763	105.081913	-60.013763	105.081913	-0.054054	-41.941132
2.700000	-0.125674	-165.595382	-59.523554	104.045898	-59.523554	104.045898	-0.055106	-42.704134
2.750000	-0.126436	-167.442407	-59.050526	102.950290	-59.050526	102.950290	-0.056162	-43.465844
2.800000	-0.127222	-169.269264	-58.593743	101.802752	-58.593743	101.802752	-0.057225	-44.226249
2.850000	-0.128033	-171.076898	-58.152329	100.609847	-58.152329	100.609847	-0.058293	-44.985337
2.900000	-0.128869	-172.866220	-57.725463	99.377215	-57.725463	99.377215	-0.059368	-45.743097
2.950000	-0.129732	-174.638107	-57.312381	98.109719	-57.312381	98.109719	-0.060450	-46.499519
3.000000	-0.130623	-176.393406	-56.912372	96.811568	-56.912372	96.811568	-0.061539	-47.254590
3.050000	-0.131542	-178.132930	-56.524773	95.486417	-56.524773	95.486417	-0.062637	-48.008302
3.100000	-0.132490	-179.857464	-56.148971	94.137450	-56.148971	94.137450	-0.063743	-48.760644
3.150000	-0.133469	178.432381	-55.784349	92.767251	-55.784349	92.767251	-0.064858	-49.511590
3.200000	-0.134478	176.735853	-55.430387	91.378335	-55.430387	91.378335	-0.065982	-50.261132
3.250000	-0.135518	175.052096	-55.086641	89.973061	-55.086641	89.973061	-0.067116	-51.009275
3.300000	-0.136589	173.380432	-54.752648	88.553309	-54.752648	88.553309	-0.068261	-51.756011
3.350000	-0.137693	171.721139	-54.427735	87.119784	-54.427735	87.119784	-0.069416	-52.501208
3.400000	-0.138826	170.071564	-54.112046	85.676114	-54.112046	85.676114	-0.070582	-53.245120
3.450000	-0.139990	168.432207	-53.804905	84.222396	-53.804905	84.222396	-0.071760	-53.987601
3.500000	-0.141186	166.802481	-53.505966	82.759814	-53.505966	82.759814	-0.072949	-54.728643
3.550000	-0.142412	165.181817	-53.214905	81.289433	-53.214905	81.289433	-0.074150	-55.468242
3.600000	-0.143669	163.569668	-52.931422	79.812208	-52.931422	79.812208	-0.075365	-56.206389
3.650000	-0.144958	161.965504	-52.655232	78.329002	-52.655232	78.329002	-0.076592	-56.943078
3.700000	-0.146276	160.368811	-52.386073	76.840597	-52.386073	76.840597	-0.077833	-57.678305
3.750000	-0.147626	158.779095	-52.123697	75.347702	-52.123697	75.347702	-0.079087	-58.412064
3.800000	-0.149006	157.196136	-51.867828	73.850828	-51.867828	73.850828	-0.080357	-59.144286
3.850000	-0.150416	155.619171	-51.618307	72.350754	-51.618307	72.350754	-0.081641	-59.875031
3.900000	-0.151855	154.047751	-51.374928	70.848022	-51.374928	70.848022	-0.082941	-60.604293
3.950000	-0.153324	152.481446	-51.137498	69.343130	-51.137498	69.343130	-0.084256	-61.332071
4.000000	-0.154820	150.919837	-50.905836	67.836541	-50.905836	67.836541	-0.085587	-62.058360
4.050000	-0.156345	149.362517	-50.679772	66.328688	-50.679772	66.328688	-0.086934	-62.783159
4.100000	-0.157897	147.809095	-50.459144	64.819976	-50.459144	64.819976	-0.088298	-63.506463
4.150000	-0.159477	146.259189	-50.243802	63.310787	-50.243802	63.310787	-0.089679	-64.228273
4.200000	-0.161083	144.712430	-50.033602	61.801482	-50.033602	61.801482	-0.091077	-64.948585
4.250000	-0.162715	143.168463	-49.828410	60.292404	-49.828410	60.292404	-0.092493	-65.667399
4.300000	-0.164372	141.626938	-49.628097	58.783883	-49.628097	58.783883	-0.093928	-66.384714
4.350000	-0.166055	140.087522	-49.432543	57.276233	-49.432543	57.276233	-0.095381	-67.100529
4.400000	-0.167763	138.549888	-49.241634	55.769759	-49.241634	55.769759	-0.096853	-67.814845
4.450000	-0.169494	137.013720	-49.055262	54.264757	-49.055262	54.264757	-0.098345	-68.527661
4.500000	-0.171250	135.478713	-48.873323	52.761515	-48.873323	52.761515	-0.099856	-69.238979
4.550000	-0.173028	133.944569	-48.695720	51.260314	-48.695720	51.260314	-0.101387	-69.948799
4.600000	-0.174829	132.411001	-48.522361	49.761432	-48.522361	49.761432	-0.102939	-70.657123
4.650000	-0.176652	130.877729	-48.353156	48.265143	-48.353156	48.265143	-0.104512	-71.363953
4.700000	-0.178497	129.344483	-48.188022	46.771717	-48.188022	46.771717	-0.106107	-72.069290
4.750000	-0.180363	127.811001	-48.026877	45.281424	-48.026877	45.281424	-0.107723	-72.773137
4.800000	-0.182250	126.277030	-47.869646	43.794534	-47.869646	43.794534	-0.109361	-73.475498
4.850000	-0.184158	124.742322	-47.716253	42.311314	-47.716253	42.311314	-0.111022	-74.176375
4.900000	-0.186085	123.206640	-47.566629	40.832037	-47.566629	40.832037	-0.112706	-74.875772
4.950000	-0.188032	121.669753	-47.420705	39.356971	-47.420705	39.356971	-0.114413	-75.573692
5.000000	-0.189998	120.131438	-47.278417	37.886393	-47.278417	37.886393	-0.116144	-76.270141
5.050000	-0.191984	118.591398	-47.139759	36.420798	-47.139759	36.420798	-0.117900	-76.965058
5.100000	-0.193989	117.049486	-47.004617	34.960271	-47.004617	34.960271	-0.119680	-77.658514
5.150000	-0.196012	115.505504	-46.872930	33.505097	-46.872930	33.505097	-0.121485	-78.350513
5.200000	-0.198054	113.959256	-46.744641	32.055564	-46.744641	32.055564	-0.123316	-79.041060
5.250000	-0.200113	112.410557	-46.619694	30.611965	-46.619694	30.611965	-0.125173	-79.730163
5.300000	-0.202190	110.859227	-46.498034	29.174598	-46.498034	29.174598	-0.127056	-80.417826
5.350000	-0.204285	109.305091	-46.379606	27.743766	-46.379606	27.743766	-0.128965	-81.104057
5.400000	-0.206397	107.747985	-46.264358	26.319778	-46.264358	26.319778	-0.130901	-81.788863
5.450000	-0.208527	106.187747	-46.152237	24.902950	-46.152237	24.902950	-0.132865	-82.472249
5.500000	-0.210675	104.624224	-46.043192	23.493603	-46.043192	23.493603	-0.134856	-83.154225
5.550000	-0.212841	103.057271	-45.937173	22.092064	-45.937173	22.092064	-0.136876	-83.834798
5.600000	-0.215024	101.486745	-45.834127	20.698669	-45.834127	20.698669	-0.138924	-84.513975
5.650000	-0.217226	99.912514	-45.734005	19.313759	-45.734005	19.313759	-0.141002	-85.191766
5.700000	-0.219446	98.334449	-45.636756	17.937684	-45.636756	17.937684	-0.143108	-85.868178
5.750000	-0.221685	96.752430	-45.542328	16.570800	-45.542328	16.570800	-0.145245	-86.543221
5.800000	-0.223942	95.166341	-45.450671	15.213470	-45.450671	15.213470	-0.147412	-87.216903
5.850000	-0.226220	93.576075	-45.361731	13.866067	-45.361731	13.866067	-0.149609	-87.889235
5.900000	-0.228517	91.981527	-45.275456	12.528969	-45.275456	12.528969	-0.151838	-88.560226
5.950000	-0.230835	90.382604	-45.191793	11.202564	-45.191793	11.202564	-0.154098	-89.229885
6.000000	-0.233174	88.779215	-45.110686	9.887247	-45.110686	9.887247	-0.156390	-89.898223
6.050000	-0.235536	87.171276	-45.032078	8.583420	-45.032078	8.583420	-0.158714	-90.565252
6.100000	-0.237920	85.558711	-44.955911	7.291493	-44.955911	7.291493	-0.161071	-91.230980
6.150000	-0.240328	83.941448	-44.882126	6.011884	-44.882126	6.011884	-0.163461	-91.895419
6.200000	-0.242762	82.319422	-44.810660	4.745017	-44.810660	4.745017	-0.165884	-92.558581
6.250000	-0.245221	80.692576	-44.741449	3.491323	-44.741449	3.491323	-0.168342	-93.220477
6.300000	-0.247708	79.060641	-44.674495	2.251854	-44.674495	2.251854	-0.170835	-93.881065
6.350000	-0.250224	77.423784	-44.609655	1.026480	-44.609655	1.026480	-0.173363	-94.540412
6.400000	-0.252770	75.781963	-44.546855	-0.184350	-44.546855	-0.184350	-0.175927	-95.198529
6.450000	-0.255347	74.135147	-44.486018	-1.380184	-44.486018	-1.380184	-0.178525	-95.855430
6.500000	-0.257957	72.483307	-44.427063	-2.560566	-44.427063	-2.560566	-0.181160	-96.511127
6.550000	-0.260602	70.826423	-44.369904	-3.725039	-44.369904	-3.725039	-0.183832	-97.165633
6.600000	-0.263283	69.164478	-44.314452	-4.873146	-44.314452	-4.873146	-0.186540	-97.818962
6.650000	-0.266003	67.497465	-44.260613	-6.004433	-44.260613	-6.004433	-0.189286	-98.471126
6.700000	-0.268763	65.825378	-44.208288	-7.118448	-44.208288	-7.118448	-0.192069	-99.122138
6.750000	-0.271566	64.148220	-44.157373	-8.214746	-44.157373	-8.214746	-0.194890	-99.772014
6.800000	-0.274413	62.465999	-44.107757	-9.292891	-44.107757	-9.292891	-0.197750	-100.420767
6.850000	-0.277307	60.778728	-44.059326	-10.352457	-44.059326	-10.352457	-0.200648	-101.068411
6.900000	-0.280251	59.086426	-44.011957	-11.393034	-44.011957	-11.393034	-0.203586	-101.714960
6.950000	-0.283247	57.389117	-43.965522	-12.414231	-43.965522	-12.414231	-0.206563	-102.360430
7.000000	-0.286297	55.686830	-43.919887	-13.415678	-43.919887	-13.415678	-0.209581	-103.004835
7.050000	-0.289405	53.979601	-43.874911	-14.397032	-43.874911	-14.397032	-0.212639	-103.648190
7.100000	-0.292573	52.267469	-43.830445	-15.357981	-43.830445	-15.357981	-0.215737	-104.290510
7.150000	-0.295804	50.550477	-43.786335	-16.298251	-43.786335	-16.298251	-0.218877	-104.931810
7.200000	-0.299101	48.828676	-43.742419	-17.217609	-43.742419	-17.217609	-0.222058	-105.572108
7.250000	-0.302468	47.102120	-43.698528	-18.115867	-43.698528	-18.115867	-0.225282	-106.211417
7.300000	-0.305907	45.370865	-43.654488	-18.992895	-43.654488	-18.992895	-0.228547	-106.849755
7.350000	-0.309423	43.634975	-43.610118	-19.848620	-43.610118	-19.848620	-0.231855	-107.487138
7.400000	-0.313018	41.894516	-43.565230	-20.683035	-43.565230	-20.683035	-0.235207	-108.123581
7.450000	-0.316696	40.149557	-43.519634	-21.496207	-43.519634	-21.496207	-0.238602	-108.759102
7.500000	-0.320460	38.400173	-43.473131	-22.288281	-43.473131	-22.288281	-0.242040	-109.393718
7.550000	-0.324320	36.646254	-43.425453	-23.058596	-43.425453	-23.058596	-0.245525	-110.027407
7.600000	-0.328273	34.888075	-43.376445	-23.808406	-43.376445	-23.808406	-0.249054	-110.660227
7.650000	-0.332326	33.125717	-43.325903	-24.538143	-43.325903	-24.538143	-0.252628	-111.292194
7.700000	-0.336480	31.359266	-43.273620	-25.248343	-43.273620	-25.248343	-0.256247	-111.923327
7.750000	-0.340736	29.589025	-43.219526	-25.940652	-43.219526	-25.940652	-0.259910	-112.553686
7.800000	-0.345106	27.814692	-43.163197	-26.613962	-43.163197	-26.613962	-0.263620	-113.183211
7.850000	-0.349591	26.036532	-43.104533	-27.269965	-43.104533	-27.269965	-0.267377	-113.811954
7.900000	-0.354195	24.254639	-43.043344	-27.909632	-43.043344	-27.909632	-0.271180	-114.439935
7.950000	-0.358922	22.469107	-42.979449	-28.534045	-42.979449	-28.534045	-0.275030	-115.067172
8.000000	-0.363776	20.680030	-42.912676	-29.144394	-42.912676	-29.144394	-0.278927	-115.693683
8.050000	-0.368763	18.887502	-42.842866	-29.741970	-42.842866	-29.741970	-0.282872	-116.319488
8.100000	-0.373885	17.091618	-42.769876	-30.328165	-42.769876	-30.328165	-0.286865	-116.944606
8.150000	-0.379150	15.292439	-42.693531	-30.904367	-42.693531	-30.904367	-0.290906	-117.569048
8.200000	-0.384561	13.490061	-42.613715	-31.472193	-42.613715	-31.472193	-0.294996	-118.192837
8.250000	-0.390123	11.684612	-42.530380	-32.033382	-42.530380	-32.033382	-0.299135	-118.815997
8.300000	-0.395838	9.876183	-42.443457	-32.589618	-42.443457	-32.589618	-0.303323	-119.438550
8.350000	-0.401716	8.064783	-42.352761	-33.142589	-42.352761	-33.142589	-0.307562	-120.060499
8.400000	-0.407745	6.250783	-42.258747	-33.694152	-42.258747	-33.694152	-0.311847	-120.681922
8.450000	-0.413955	4.433842	-42.160678	-34.246025	-42.160678	-34.246025	-0.316186	-121.302753
8.500000	-0.420328	2.614403	-42.059217	-34.799830	-42.059217	-34.799830	-0.320573	-121.923087
8.550000	-0.426882	0.792343	-41.954035	-35.357501	-41.954035	-35.357501	-0.325011	-122.542903
8.600000	-0.433616	-1.032213	-41.845291	-35.920639	-41.845291	-35.920639	-0.329499	-123.162234
8.650000	-0.440529	-2.859103	-41.733257	-36.490618	-41.733257	-36.490618	-0.334038	-123.781118
8.700000	-0.447643	-4.688490	-41.617574	-37.069769	-41.617574	-37.069769	-0.338630	-124.399534
8.750000	-0.454932	-6.519956	-41.499107	-37.658081	-41.499107	-37.658081	-0.343269	-125.017569
8.800000	-0.462442	-8.353924	-41.376989	-38.259270	-41.376989	-38.259270	-0.347966	-125.635160
8.850000	-0.470136	-10.189875	-41.252379	-38.872068	-41.252379	-38.872068	-0.352710	-126.252412
8.900000	-0.478047	-12.028100	-41.124728	-39.499655	-41.124728	-39.499655	-0.357510	-126.869290
8.950000	-0.486160	-13.868357	-40.994658	-40.141673	-40.994658	-40.141673	-0.362360	-127.485850
9.000000	-0.494487	-15.710697	-40.862185	-40.799612	-40.862185	-40.799612	-0.367262	-128.102103
9.050000	-0.503035	-17.555139	-40.727423	-41.474556	-40.727423	-41.474556	-0.372219	-128.718067
9.100000	-0.511793	-19.401509	-40.590890	-42.165837	-40.590890	-42.165837	-0.377225	-129.333785
9.150000	-0.520791	-21.250077	-40.452246	-42.876345	-40.452246	-42.876345	-0.382289	-129.949248
9.200000	-0.529997	-23.100491	-40.312367	-43.603349	-40.312367	-43.603349	-0.387401	-130.564518
9.250000	-0.539454	-24.953155	-40.170732	-44.350656	-40.170732	-44.350656	-0.392572	-131.179583
9.300000	-0.549129	-26.807734	-40.028164	-45.115208	-40.028164	-45.115208	-0.397792	-131.794497
9.350000	-0.559049	-28.664498	-39.884453	-45.899209	-39.884453	-45.899209	-0.403069	-132.409266
9.400000	-0.569205	-30.523365	-39.739973	-46.701527	-39.739973	-46.701527	-0.408398	-133.023925
9.450000	-0.579598	-32.384385	-39.594899	-47.522020	-39.594899	-47.522020	-0.413780	-133.638496
9.500000	-0.590245	-34.247747	-39.449227	-48.361522	-39.449227	-48.361522	-0.419218	-134.253002
9.550000	-0.601120	-36.113259	-39.303440	-49.217646	-39.303440	-49.217646	-0.424707	-134.867473
9.600000	-0.612267	-37.981415	-39.157221	-50.093098	-39.157221	-50.093098	-0.430255	-135.481933
9.650000	-0.623641	-39.851839	-39.011203	-50.984099	-39.011203	-50.984099	-0.435852	-136.096406
9.700000	-0.635286	-41.725083	-38.865090	-51.893115	-38.865090	-51.893115	-0.441508	-136.710926
9.750000	-0.647170	-43.600907	-38.719310	-52.817409	-38.719310	-52.817409	-0.447216	-137.325510
9.800000	-0.659314	-45.479660	-38.573797	-53.757669	-38.573797	-53.757669	-0.452979	-137.940194
9.850000	-0.671712	-47.361431	-38.428685	-54.713030	-38.428685	-54.713030	-0.458797	-138.555001
9.900000	-0.684357	-49.246258	-38.284132	-55.682342	-38.284132	-55.682342	-0.464667	-139.169954
9.950000	-0.697271	-51.134632	-38.140030	-56.666370	-38.140030	-56.666370	-0.470595	-139.785098
10.000000	-0.710418	-53.026203	-37.996715	-57.662434	-37.996715	-57.662434	-0.476573	-140.400430
