! freq	dB(S11)	phase(S11)	dB(S12)	phase(S12)	
!     	dB(S21)	phase(S21)	dB(S22)	phase(S22)	
!S-par simulation data
#  GHz  S  DB  R 50
0.000000	0.000000	0.000000	-366.003115	180.000000	-366.003115	180.000000	-0.000000	0.000000
0.050000	-0.001626	-2.484406	-104.298401	88.614576	-104.298401	88.614576	-0.000501	-0.767671
0.100000	-0.005475	-4.955768	-98.324873	86.919934	-98.324873	86.919934	-0.001663	-1.531409
0.150000	-0.009862	-7.412073	-94.875937	85.312608	-94.875937	85.312608	-0.002951	-2.290988
0.200000	-0.013946	-9.857533	-92.476833	83.750581	-92.476833	83.750581	-0.004124	-3.048042
0.250000	-0.017559	-12.295416	-90.668651	82.234392	-90.668651	82.234392	-0.005155	-3.803835
0.300000	-0.020803	-14.727368	-89.247436	80.772280	-89.247436	80.772280	-0.006088	-4.559087
0.350000	-0.023824	-17.153890	-88.101613	79.373064	-88.101613	79.373064	-0.006975	-5.314116
0.400000	-0.026717	-19.574558	-87.167650	78.050039	-87.167650	78.050039	-0.007848	-6.069023
0.450000	-0.029545	-21.988340	-86.409051	76.823727	-86.409051	76.823727	-0.008729	-6.823822
0.500000	-0.032345	-24.394723	-85.794412	75.708959	-85.794412	75.708959	-0.009628	-7.578502
0.550000	-0.035135	-26.792857	-85.305513	74.728741	-85.305513	74.728741	-0.010548	-8.333028
0.600000	-0.037919	-29.181431	-84.934244	73.920817	-84.934244	73.920817	-0.011489	-9.087344
0.650000	-0.040698	-31.559917	-84.668745	73.317619	-84.668745	73.317619	-0.012443	-9.841398
0.700000	-0.043467	-33.927643	-84.502380	72.963964	-84.502380	72.963964	-0.013408	-10.595130
0.750000	-0.046222	-36.283506	-84.434364	72.931469	-84.434364	72.931469	-0.014375	-11.348456
0.800000	-0.048955	-38.626809	-84.461838	73.304431	-84.461838	73.304431	-0.015342	-12.101300
0.850000	-0.051661	-40.957041	-84.581048	74.188949	-84.581048	74.188949	-0.016305	-12.853593
0.900000	-0.054333	-43.273634	-84.787510	75.728822	-84.787510	75.728822	-0.017263	-13.605269
0.950000	-0.056967	-45.575976	-85.072723	78.116438	-85.072723	78.116438	-0.018215	-14.356264
1.000000	-0.059559	-47.863557	-85.418062	81.592823	-85.418062	81.592823	-0.019162	-15.106529
1.050000	-0.062104	-50.135910	-85.786930	86.437122	-85.786930	86.437122	-0.020106	-15.856022
1.100000	-0.064600	-52.392614	-86.113977	92.908494	-86.113977	92.908494	-0.021047	-16.604714
1.150000	-0.067044	-54.633292	-86.298063	101.103744	-86.298063	101.103744	-0.021987	-17.352580
1.200000	-0.069435	-56.857607	-86.215661	110.737697	-86.215661	110.737697	-0.022928	-18.099603
1.250000	-0.071772	-59.065264	-85.770181	121.009381	-85.770181	121.009381	-0.023870	-18.845769
1.300000	-0.074053	-61.255631	-84.943331	130.789161	-84.943331	130.789161	-0.024814	-19.591050
1.350000	-0.076280	-63.428850	-83.830989	139.203788	-83.830989	139.203788	-0.025761	-20.335456
1.400000	-0.078453	-65.584737	-82.555171	145.911932	-82.555171	145.911932	-0.026710	-21.078981
1.450000	-0.080573	-67.723140	-81.218467	150.979801	-81.218467	150.979801	-0.027661	-21.821618
1.500000	-0.082642	-69.843938	-79.887084	154.657485	-79.887084	154.657485	-0.028614	-22.563361
1.550000	-0.084662	-71.947042	-78.596828	157.225803	-78.596828	157.225803	-0.029569	-23.304204
1.600000	-0.086633	-74.032389	-77.364021	158.930852	-77.364021	158.930852	-0.030526	-24.044141
1.650000	-0.088558	-76.099945	-76.194046	159.968466	-76.194046	159.968466	-0.031485	-24.783162
1.700000	-0.090439	-78.149699	-75.086644	160.488407	-75.086644	160.488407	-0.032445	-25.521263
1.750000	-0.092279	-80.181668	-74.038886	160.603667	-74.038886	160.603667	-0.033406	-26.258433
1.800000	-0.094079	-82.195888	-73.046747	160.399441	-73.046747	160.399441	-0.034368	-26.994665
1.850000	-0.095843	-84.192419	-72.105911	159.940352	-72.105911	159.940352	-0.035330	-27.729949
1.900000	-0.097572	-86.171151	-71.211685	159.274070	-71.211685	159.274070	-0.036294	-28.464266
1.950000	-0.099268	-88.132187	-70.360283	158.439854	-70.360283	158.439854	-0.037258	-29.197605
2.000000	-0.100935	-90.075834	-69.548609	157.469388	-69.548609	157.469388	-0.038223	-29.929967
2.050000	-0.102575	-92.002228	-68.773392	156.386007	-68.773392	156.386007	-0.039189	-30.661341
2.100000	-0.104191	-93.911519	-68.031707	155.208382	-68.031707	155.208382	-0.040155	-31.391716
2.150000	-0.105783	-95.803869	-67.320940	153.951589	-67.320940	153.951589	-0.041123	-32.121082
2.200000	-0.107356	-97.679457	-66.638756	152.627913	-66.638756	152.627913	-0.042092	-32.849427
2.250000	-0.108910	-99.538472	-65.983068	151.247445	-65.983068	151.247445	-0.043063	-33.576741
2.300000	-0.110449	-101.381114	-65.352007	149.818538	-65.352007	149.818538	-0.044036	-34.303012
2.350000	-0.111973	-103.207594	-64.743893	148.348157	-64.743893	148.348157	-0.045010	-35.028228
2.400000	-0.113485	-105.018133	-64.157214	146.842148	-64.157214	146.842148	-0.045987	-35.752378
2.450000	-0.114987	-106.812958	-63.590605	145.305446	-63.590605	145.305446	-0.046967	-36.475451
2.500000	-0.116480	-108.592307	-63.042828	143.742245	-63.042828	143.742245	-0.047949	-37.197435
2.550000	-0.117966	-110.355934	-62.512284	142.155465	-62.512284	142.155465	-0.048935	-37.918283
2.600000	-0.119447	-112.104594	-61.998492	140.549019	-61.998492	140.549019	-0.049925	-38.638019
2.650000	-0.120925	-113.838543	-61.500512	138.925514	-61.500512	138.925514	-0.050919	-39.356630
2.700000	-0.122400	-115.558040	-61.017482	137.287213	-61.017482	137.287213	-0.051917	-40.074108
2.750000	-0.123874	-117.263351	-60.548612	135.636085	-60.548612	135.636085	-0.052920	-40.790439
2.800000	-0.125349	-118.954742	-60.093177	133.973847	-60.093177	133.973847	-0.053929	-41.505614
2.850000	-0.126825	-120.632483	-59.650507	132.302008	-59.650507	132.302008	-0.054943	-42.219622
2.900000	-0.128304	-122.296847	-59.219985	130.621891	-59.219985	130.621891	-0.055963	-42.932451
2.950000	-0.129787	-123.948109	-58.801038	128.934666	-58.801038	128.934666	-0.056989	-43.644093
3.000000	-0.131274	-125.586545	-58.393137	127.241365	-58.393137	127.241365	-0.058022	-44.354536
3.050000	-0.132768	-127.212431	-57.995789	125.542904	-57.995789	125.542904	-0.059063	-45.063771
3.100000	-0.134268	-128.826045	-57.608534	123.840099	-57.608534	123.840099	-0.060111	-45.771788
3.150000	-0.135775	-130.427664	-57.230947	122.133675	-57.230947	122.133675	-0.061166	-46.478578
3.200000	-0.137292	-132.017567	-56.862626	120.424280	-56.862626	120.424280	-0.062231	-47.184130
3.250000	-0.138817	-133.596029	-56.503197	118.712496	-56.503197	118.712496	-0.063303	-47.888438
3.300000	-0.140352	-135.163327	-56.152312	116.998842	-56.152312	116.998842	-0.064385	-48.591491
3.350000	-0.141898	-136.719737	-55.809641	115.283786	-55.809641	115.283786	-0.065477	-49.293281
3.400000	-0.143455	-138.265533	-55.474874	113.567750	-55.474874	113.567750	-0.066578	-49.993800
3.450000	-0.145023	-139.800987	-55.147721	111.851113	-55.147721	111.851113	-0.067690	-50.693040
3.500000	-0.146604	-141.326370	-54.827909	110.134218	-54.827909	110.134218	-0.068812	-51.390994
3.550000	-0.148198	-142.841950	-54.515177	108.417374	-54.515177	108.417374	-0.069945	-52.087654
3.600000	-0.149806	-144.347996	-54.209282	106.700863	-54.209282	106.700863	-0.071089	-52.783014
3.650000	-0.151427	-145.844771	-53.909993	104.984939	-53.909993	104.984939	-0.072246	-53.477066
3.700000	-0.153062	-147.332539	-53.617091	103.269832	-53.617091	103.269832	-0.073414	-54.169804
3.750000	-0.154712	-148.811559	-53.330367	101.555751	-53.330367	101.555751	-0.074595	-54.861222
3.800000	-0.156377	-150.281731	-53.049492	99.842948	-53.049492	99.842948	-0.075789	-55.551256
3.850000	-0.158058	-151.743690	-52.774429	98.131548	-52.774429	98.131548	-0.076997	-56.239959
3.900000	-0.159754	-153.197688	-52.504997	96.421705	-52.504997	96.421705	-0.078218	-56.927325
3.950000	-0.161466	-154.643974	-52.241027	94.713561	-52.241027	94.713561	-0.079454	-57.613349
4.000000	-0.163195	-156.082793	-51.982357	93.007242	-51.982357	93.007242	-0.080703	-58.298027
4.050000	-0.164939	-157.514389	-51.728832	91.302864	-51.728832	91.302864	-0.081968	-58.981355
4.100000	-0.166700	-158.939001	-51.480304	89.600533	-51.480304	89.600533	-0.083247	-59.663329
4.150000	-0.168478	-160.356866	-51.236633	87.900343	-51.236633	87.900343	-0.084542	-60.343944
4.200000	-0.170273	-161.768219	-50.997684	86.202379	-50.997684	86.202379	-0.085853	-61.023199
4.250000	-0.172084	-163.173290	-50.763328	84.506720	-50.763328	84.506720	-0.087181	-61.701089
4.300000	-0.173912	-164.572307	-50.533443	82.813434	-50.533443	82.813434	-0.088524	-62.377613
4.350000	-0.175757	-165.965495	-50.307912	81.122584	-50.307912	81.122584	-0.089885	-63.052768
4.400000	-0.177619	-167.353075	-50.086622	79.434225	-50.086622	79.434225	-0.091263	-63.726552
4.450000	-0.179499	-168.735266	-49.869464	77.748407	-49.869464	77.748407	-0.092659	-64.398963
4.500000	-0.181395	-170.112282	-49.656337	76.065174	-49.656337	76.065174	-0.094073	-65.070000
4.550000	-0.183308	-171.484337	-49.447140	74.384564	-49.447140	74.384564	-0.095505	-65.739662
4.600000	-0.185237	-172.851640	-49.241781	72.706610	-49.241781	72.706610	-0.096956	-66.407948
4.650000	-0.187184	-174.214395	-49.040166	71.031343	-49.040166	71.031343	-0.098427	-67.074857
4.700000	-0.189147	-175.572808	-48.842211	69.358787	-48.842211	69.358787	-0.099917	-67.740389
4.750000	-0.191126	-176.927076	-48.647830	67.688964	-48.647830	67.688964	-0.101427	-68.404545
4.800000	-0.193121	-178.277398	-48.456945	66.021892	-48.456945	66.021892	-0.102957	-69.067325
4.850000	-0.195133	-179.623967	-48.269477	64.357586	-48.269477	64.357586	-0.104508	-69.728729
4.900000	-0.197160	179.033027	-48.085355	62.696058	-48.085355	62.696058	-0.106080	-70.388759
4.950000	-0.199202	177.693395	-47.904506	61.037318	-47.904506	61.037318	-0.107673	-71.047415
5.000000	-0.201260	176.356952	-47.726863	59.381374	-47.726863	59.381374	-0.109288	-71.704700
5.050000	-0.203332	175.023639	-47.552347	57.728355	-47.552347	57.728355	-0.110927	-72.360555
5.100000	-0.205420	173.693139	-47.380915	56.078142	-47.380915	56.078142	-0.112588	-73.015042
5.150000	-0.207521	172.365276	-47.212508	54.430739	-47.212508	54.430739	-0.114272	-73.668165
5.200000	-0.209636	171.039877	-47.047068	52.786149	-47.047068	52.786149	-0.115979	-74.319924
5.250000	-0.211764	169.716773	-46.884541	51.144374	-46.884541	51.144374	-0.117710	-74.970324
5.300000	-0.213905	168.395797	-46.724874	49.505414	-46.724874	49.505414	-0.119466	-75.619368
5.350000	-0.216058	167.076784	-46.568018	47.869272	-46.568018	47.869272	-0.121245	-76.267059
5.400000	-0.218222	165.759573	-46.413922	46.235949	-46.413922	46.235949	-0.123050	-76.913401
5.450000	-0.220398	164.444005	-46.262543	44.605449	-46.262543	44.605449	-0.124880	-77.558398
5.500000	-0.222585	163.129926	-46.113836	42.977775	-46.113836	42.977775	-0.126736	-78.202054
5.550000	-0.224781	161.817182	-45.967759	41.352931	-45.967759	41.352931	-0.128618	-78.844373
5.600000	-0.226987	160.505622	-45.824272	39.730924	-45.824272	39.730924	-0.130527	-79.485361
5.650000	-0.229202	159.195101	-45.683337	38.111762	-45.683337	38.111762	-0.132462	-80.125022
5.700000	-0.231425	157.885472	-45.544917	36.495455	-45.544917	36.495455	-0.134424	-80.763362
5.750000	-0.233655	156.576594	-45.408978	34.882016	-45.408978	34.882016	-0.136415	-81.400386
5.800000	-0.235892	155.268329	-45.275487	33.271459	-45.275487	33.271459	-0.138433	-82.036100
5.850000	-0.238135	153.960539	-45.144412	31.663804	-45.144412	31.663804	-0.140480	-82.670510
5.900000	-0.240384	152.653091	-45.015724	30.059070	-45.015724	30.059070	-0.142555	-83.303622
5.950000	-0.242637	151.345854	-44.889393	28.457283	-44.889393	28.457283	-0.144660	-83.935442
6.000000	-0.244894	150.038701	-44.765392	26.858471	-44.765392	26.858471	-0.146794	-84.565977
6.050000	-0.247154	148.731505	-44.643696	25.262667	-44.643696	25.262667	-0.148959	-85.195234
6.100000	-0.249416	147.424144	-44.524280	23.669907	-44.524280	23.669907	-0.151153	-85.823221
6.150000	-0.251680	146.116498	-44.407121	22.080232	-44.407121	22.080232	-0.153379	-86.449943
6.200000	-0.253944	144.808451	-44.292196	20.493687	-44.292196	20.493687	-0.155636	-87.075409
6.250000	-0.256208	143.499887	-44.179483	18.910323	-44.179483	18.910323	-0.157924	-87.699627
6.300000	-0.258472	142.190663	-44.068998	17.330339	-44.068998	17.330339	-0.160246	-88.322550
6.350000	-0.260733	140.880693	-43.960690	15.753658	-43.960690	15.753658	-0.162600	-88.944242
6.400000	-0.262992	139.569872	-43.854539	14.180346	-43.854539	14.180346	-0.164987	-89.564711
6.450000	-0.265246	138.258096	-43.750528	12.610477	-43.750528	12.610477	-0.167407	-90.183965
6.500000	-0.267497	136.945266	-43.648640	11.044127	-43.648640	11.044127	-0.169860	-90.802012
6.550000	-0.269742	135.631286	-43.548858	9.481382	-43.548858	9.481382	-0.172348	-91.418863
6.600000	-0.271981	134.316061	-43.451167	7.922330	-43.451167	7.922330	-0.174870	-92.034526
6.650000	-0.274214	132.999500	-43.355550	6.367067	-43.355550	6.367067	-0.177426	-92.649011
6.700000	-0.276438	131.681515	-43.261993	4.815695	-43.261993	4.815695	-0.180018	-93.262326
6.750000	-0.278654	130.362022	-43.170480	3.268321	-43.170480	3.268321	-0.182645	-93.874482
6.800000	-0.280860	129.040938	-43.080998	1.725059	-43.080998	1.725059	-0.185308	-94.485489
6.850000	-0.283056	127.718184	-42.993533	0.186030	-42.993533	0.186030	-0.188007	-95.095356
6.900000	-0.285241	126.393685	-42.908070	-1.348642	-42.908070	-1.348642	-0.190743	-95.704095
6.950000	-0.287415	125.067367	-42.824595	-2.878824	-42.824595	-2.878824	-0.193516	-96.311714
7.000000	-0.289575	123.739162	-42.743095	-4.404379	-42.743095	-4.404379	-0.196326	-96.918226
7.050000	-0.291723	122.409003	-42.663556	-5.925163	-42.663556	-5.925163	-0.199173	-97.523641
7.100000	-0.293857	121.076826	-42.585963	-7.441027	-42.585963	-7.441027	-0.202059	-98.127969
7.150000	-0.295976	119.742573	-42.510302	-8.951817	-42.510302	-8.951817	-0.204984	-98.731223
7.200000	-0.298080	118.406187	-42.436560	-10.457371	-42.436560	-10.457371	-0.207947	-99.333412
7.250000	-0.300168	117.067614	-42.364721	-11.957525	-42.364721	-11.957525	-0.210949	-99.934550
7.300000	-0.302240	115.726806	-42.294771	-13.452109	-42.294771	-13.452109	-0.213990	-100.534647
7.350000	-0.304295	114.383715	-42.226694	-14.940946	-42.226694	-14.940946	-0.217072	-101.133715
7.400000	-0.306332	113.038299	-42.160474	-16.423857	-42.160474	-16.423857	-0.220194	-101.731766
7.450000	-0.308352	111.690520	-42.096096	-17.900657	-42.096096	-17.900657	-0.223356	-102.328812
7.500000	-0.310354	110.340341	-42.033543	-19.371159	-42.033543	-19.371159	-0.226559	-102.924866
7.550000	-0.312337	108.987624	-41.972858	-20.834879	-41.972858	-20.834879	-0.229805	-103.519899
7.600000	-0.314301	107.632445	-41.913963	-22.291893	-41.913963	-22.291893	-0.233092	-104.113965
7.650000	-0.316246	106.274780	-41.856841	-23.742003	-41.856841	-23.742003	-0.236421	-104.707078
7.700000	-0.318172	104.914610	-41.801472	-25.185006	-41.801472	-25.185006	-0.239793	-105.299250
7.750000	-0.320079	103.551917	-41.747837	-26.620697	-41.747837	-26.620697	-0.243207	-105.890495
7.800000	-0.321966	102.186689	-41.695915	-28.048869	-41.695915	-28.048869	-0.246664	-106.480827
7.850000	-0.323835	100.818917	-41.645686	-29.469313	-41.645686	-29.469313	-0.250163	-107.070258
7.900000	-0.325685	99.448597	-41.597128	-30.881818	-41.597128	-30.881818	-0.253706	-107.658802
7.950000	-0.327517	98.075728	-41.550218	-32.286172	-41.550218	-32.286172	-0.257293	-108.246473
8.000000	-0.329330	96.700313	-41.504935	-33.682161	-41.504935	-33.682161	-0.260924	-108.833285
8.050000	-0.331125	95.322359	-41.461255	-35.069572	-41.461255	-35.069572	-0.264599	-109.419251
8.100000	-0.332903	93.941878	-41.419154	-36.448191	-41.419154	-36.448191	-0.268318	-110.004387
8.150000	-0.334664	92.558884	-41.378607	-37.817804	-41.378607	-37.817804	-0.272083	-110.588707
8.200000	-0.336409	91.173398	-41.339590	-39.178196	-41.339590	-39.178196	-0.275892	-111.172224
8.250000	-0.338138	89.785442	-41.302075	-40.529154	-41.302075	-40.529154	-0.279746	-111.754955
8.300000	-0.339853	88.395045	-41.266039	-41.870466	-41.266039	-41.870466	-0.283646	-112.336913
8.350000	-0.341554	87.002238	-41.231452	-43.201919	-41.231452	-43.201919	-0.287591	-112.918113
8.400000	-0.343243	85.607057	-41.198290	-44.523304	-41.198290	-44.523304	-0.291583	-113.498572
8.450000	-0.344920	84.209543	-41.166523	-45.834412	-41.166523	-45.834412	-0.295621	-114.078304
8.500000	-0.346587	82.809739	-41.136125	-47.135036	-41.136125	-47.135036	-0.299705	-114.657324
8.550000	-0.348245	81.407695	-41.107066	-48.424971	-41.107066	-48.424971	-0.303835	-115.235649
8.600000	-0.349896	80.003462	-41.079320	-49.704014	-41.079320	-49.704014	-0.308012	-115.813294
8.650000	-0.351541	78.597099	-41.052856	-50.971965	-41.052856	-50.971965	-0.312237	-116.390276
8.700000	-0.353182	77.188664	-41.027646	-52.228626	-41.027646	-52.228626	-0.316508	-116.966609
8.750000	-0.354821	75.778224	-41.003662	-53.473802	-41.003662	-53.473802	-0.320826	-117.542312
8.800000	-0.356459	74.365767	-40.980922	-54.706783	-40.980922	-54.706783	-0.325194	-118.117373
8.850000	-0.358099	72.951454	-40.959347	-55.927881	-40.959347	-55.927881	-0.329610	-118.691838
8.900000	-0.359743	71.535363	-40.938909	-57.136908	-40.938909	-57.136908	-0.334073	-119.265723
8.950000	-0.361392	70.117575	-40.919578	-58.333682	-40.919578	-58.333682	-0.338584	-119.839045
9.000000	-0.363050	68.698176	-40.901326	-59.518024	-40.901326	-59.518024	-0.343143	-120.411822
9.050000	-0.364719	67.277255	-40.884125	-60.689756	-40.884125	-60.689756	-0.347749	-120.984071
9.100000	-0.366401	65.854907	-40.867947	-61.848705	-40.867947	-61.848705	-0.352404	-121.555808
9.150000	-0.368098	64.431227	-40.852764	-62.994702	-40.852764	-62.994702	-0.357107	-122.127053
9.200000	-0.369814	63.006317	-40.838550	-64.127580	-40.838550	-64.127580	-0.361859	-122.697823
9.250000	-0.371552	61.580281	-40.825278	-65.247175	-40.825278	-65.247175	-0.366658	-123.268136
9.300000	-0.373314	60.153227	-40.812922	-66.353328	-40.812922	-66.353328	-0.371506	-123.838010
9.350000	-0.375102	58.725266	-40.801457	-67.445882	-40.801457	-67.445882	-0.376402	-124.407464
9.400000	-0.376921	57.296513	-40.790860	-68.524684	-40.790860	-68.524684	-0.381347	-124.976517
9.450000	-0.378774	55.867085	-40.781106	-69.589584	-40.781106	-69.589584	-0.386339	-125.545187
9.500000	-0.380663	54.437103	-40.772172	-70.640435	-40.772172	-70.640435	-0.391380	-126.113493
9.550000	-0.382591	53.006692	-40.764038	-71.677095	-40.764038	-71.677095	-0.396470	-126.681455
9.600000	-0.384563	51.575977	-40.756683	-72.699424	-40.756683	-72.699424	-0.401607	-127.249092
9.650000	-0.386582	50.145090	-40.750087	-73.707285	-40.750087	-73.707285	-0.406793	-127.816423
9.700000	-0.388650	48.714161	-40.744232	-74.700546	-40.744232	-74.700546	-0.412026	-128.383470
9.750000	-0.390772	47.283326	-40.739101	-75.679077	-40.739101	-75.679077	-0.417308	-128.950251
9.800000	-0.392951	45.852722	-40.734678	-76.642753	-40.734678	-76.642753	-0.422637	-129.516786
9.850000	-0.395190	44.422488	-40.730948	-77.591450	-40.730948	-77.591450	-0.428014	-130.083098
9.900000	-0.397494	42.992765	-40.727900	-78.525052	-40.727900	-78.525052	-0.433439	-130.649205
9.950000	-0.399866	41.563698	-40.725520	-79.443441	-40.725520	-79.443441	-0.438911	-131.215130
10.000000	-0.402309	40.135430	-40.723800	-80.346509	-40.723800	-80.346509	-0.444430	-131.780893
