! freq	dB(S11)	phase(S11)	dB(S12)	phase(S12)	
!     	dB(S21)	phase(S21)	dB(S22)	phase(S22)	
!S-par simulation data
#  GHz  S  DB  R 50
0.000000	-0.000000	0.000000	-375.789647	0.000000	-375.789647	0.000000	0.000000	0.000000
0.050000	-0.000059	-0.759260	-71.015931	-169.317115	-71.015931	-169.317115	-0.000080	-0.766893
0.100000	-0.000236	-1.518422	-70.825658	175.947055	-70.825658	175.947055	-0.000318	-1.533623
0.150000	-0.000528	-2.277390	-70.938044	166.787091	-70.938044	166.787091	-0.000707	-2.300034
0.200000	-0.000929	-3.036079	-71.148052	159.223327	-71.148052	159.223327	-0.001236	-3.065991
0.250000	-0.001442	-3.794378	-71.428038	152.484409	-71.428038	152.484409	-0.001900	-3.831332
0.300000	-0.002050	-4.552243	-71.760490	146.240984	-71.760490	146.240984	-0.002674	-4.596008
0.350000	-0.002752	-5.309585	-72.140616	140.420802	-72.140616	140.420802	-0.003547	-5.359915
0.400000	-0.003538	-6.066340	-72.562722	134.970563	-72.562722	134.970563	-0.004504	-6.122991
0.450000	-0.004401	-6.822451	-73.022390	129.859361	-73.022390	129.859361	-0.005529	-6.885191
0.500000	-0.005334	-7.577868	-73.516348	125.066121	-73.516348	125.066121	-0.006607	-7.646492
0.550000	-0.006326	-8.332549	-74.042454	120.574921	-74.042454	120.574921	-0.007726	-8.406881
0.600000	-0.007371	-9.086460	-74.599692	116.373429	-74.599692	116.373429	-0.008874	-9.166360
0.650000	-0.008459	-9.839574	-75.188180	112.452700	-75.188180	112.452700	-0.010039	-9.924937
0.700000	-0.009583	-10.591870	-75.809188	108.807625	-75.809188	108.807625	-0.011214	-10.682627
0.750000	-0.010735	-11.343332	-76.465185	105.437806	-76.465185	105.437806	-0.012391	-11.439447
0.800000	-0.011909	-12.093951	-77.159931	102.348858	-77.159931	102.348858	-0.013565	-12.195417
0.850000	-0.013100	-12.843572	-77.895838	99.614008	-77.895838	99.614008	-0.014729	-12.950418
0.900000	-0.014300	-13.592303	-78.681278	97.212762	-78.681278	97.212762	-0.015881	-13.704573
0.950000	-0.015502	-14.340590	-79.534915	95.024581	-79.534915	95.024581	-0.017026	-14.458317
1.000000	-0.016706	-15.087543	-80.448467	93.475592	-80.448467	93.475592	-0.018149	-15.210832
1.050000	-0.017908	-15.834202	-81.460653	92.154485	-81.460653	92.154485	-0.019266	-15.963081
1.100000	-0.019099	-16.579391	-82.556127	91.972789	-82.556127	91.972789	-0.020356	-16.714001
1.150000	-0.020289	-17.324434	-83.801075	92.020702	-83.801075	92.020702	-0.021444	-17.464788
1.200000	-0.021459	-18.067874	-85.139859	94.594317	-85.139859	94.594317	-0.022503	-18.214129
1.250000	-0.022628	-18.811314	-86.723273	97.167933	-86.723273	97.167933	-0.023562	-18.963470
1.300000	-0.023777	-19.553452	-88.384811	103.898020	-88.384811	103.898020	-0.024600	-19.711624
1.350000	-0.024911	-20.294760	-89.994271	115.255763	-89.994271	115.255763	-0.025626	-20.459015
1.400000	-0.026031	-21.035240	-91.073343	132.064676	-91.073343	132.064676	-0.026640	-21.205634
1.450000	-0.027135	-21.774890	-91.020947	151.457885	-91.020947	151.457885	-0.027644	-21.951474
1.500000	-0.028225	-22.513710	-89.865935	168.101404	-89.865935	168.101404	-0.028640	-22.696524
1.550000	-0.029300	-23.251697	-88.200317	179.687134	-88.200317	179.687134	-0.029627	-23.440773
1.600000	-0.030361	-23.988847	-86.477513	-173.078269	-86.477513	-173.078269	-0.030607	-24.184208
1.650000	-0.031408	-24.725155	-84.874266	-168.791869	-84.874266	-168.791869	-0.031582	-24.926818
1.700000	-0.032439	-25.460317	-83.405473	-166.722553	-83.405473	-166.722553	-0.032550	-25.668288
1.750000	-0.033463	-26.195034	-82.115480	-165.373080	-82.115480	-165.373080	-0.033516	-26.409315
1.800000	-0.034475	-26.928696	-80.941990	-164.856928	-80.941990	-164.856928	-0.034478	-27.149275
1.850000	-0.035477	-27.661604	-79.876439	-164.936006	-79.876439	-164.936006	-0.035438	-27.888475
1.900000	-0.036470	-28.393586	-78.897679	-165.348091	-78.897679	-165.348091	-0.036397	-28.626727
1.950000	-0.037455	-29.124642	-77.991321	-166.093183	-77.991321	-166.093183	-0.037354	-29.364031
2.000000	-0.038434	-29.854907	-77.150394	-166.981152	-77.150394	-166.981152	-0.038311	-30.100517
2.050000	-0.039406	-30.584063	-76.357828	-168.069150	-76.357828	-168.069150	-0.039269	-30.835858
2.100000	-0.040374	-31.312567	-75.617254	-169.219754	-75.617254	-169.219754	-0.040227	-31.570522
2.150000	-0.041337	-32.039767	-74.908479	-170.495571	-74.908479	-170.495571	-0.041188	-32.303831
2.200000	-0.042298	-32.766465	-74.243373	-171.797934	-74.243373	-171.797934	-0.042149	-33.036615
2.250000	-0.043256	-33.491652	-73.598190	-173.179932	-73.598190	-173.179932	-0.043114	-33.767825
2.300000	-0.044215	-34.216493	-72.991525	-174.571975	-72.991525	-174.571975	-0.044081	-34.498674
2.350000	-0.045172	-34.939604	-72.395919	-176.014246	-72.395919	-176.014246	-0.045053	-35.227718
2.400000	-0.046130	-35.662538	-71.835669	-177.459289	-71.835669	-177.459289	-0.046026	-35.956576
2.450000	-0.047091	-36.383512	-71.279627	-178.934822	-71.279627	-178.934822	-0.047006	-36.683390
2.500000	-0.048052	-37.104485	-70.757050	179.589644	-70.757050	179.589644	-0.047987	-37.410204
2.550000	-0.049019	-37.823257	-70.233232	178.097197	-70.233232	178.097197	-0.048978	-38.134727
2.600000	-0.049987	-38.542029	-69.739215	176.604750	-69.739215	176.604750	-0.049969	-38.859250
2.650000	-0.050963	-39.258724	-69.244717	175.105979	-69.244717	175.105979	-0.050971	-39.581618
2.700000	-0.051940	-39.975230	-68.774533	173.606633	-68.774533	173.606633	-0.051974	-40.303791
2.750000	-0.052927	-40.689796	-68.304921	172.106619	-68.304921	172.106619	-0.052987	-41.023958
2.800000	-0.053917	-41.403974	-67.854929	170.606472	-67.854929	170.606472	-0.054003	-41.743725
2.850000	-0.054917	-42.116360	-67.406739	169.108419	-67.406739	169.108419	-0.055030	-42.461646
2.900000	-0.055921	-42.828148	-66.974091	167.611064	-66.974091	167.611064	-0.056060	-43.178953
2.950000	-0.056937	-43.538303	-66.544579	166.116876	-66.544579	166.116876	-0.057100	-43.894587
3.000000	-0.057958	-44.247641	-66.127025	164.624272	-66.127025	164.624272	-0.058146	-44.609384
3.050000	-0.058989	-44.955518	-65.713990	163.134943	-65.713990	163.134943	-0.059201	-45.322690
3.100000	-0.060029	-45.662350	-65.309731	161.647956	-65.309731	161.647956	-0.060264	-46.034931
3.150000	-0.061079	-46.367902	-64.911387	160.163845	-64.911387	160.163845	-0.061335	-46.745872
3.200000	-0.062139	-47.072174	-64.518981	158.682610	-64.518981	158.682610	-0.062416	-47.455513
3.250000	-0.063208	-47.775357	-64.133868	157.203624	-64.133868	157.203624	-0.063504	-48.164055
3.300000	-0.064290	-48.477017	-63.752148	155.727787	-63.752148	155.727787	-0.064604	-48.871055
3.350000	-0.065379	-49.177790	-63.379061	154.253523	-63.379061	154.253523	-0.065710	-49.577164
3.400000	-0.066484	-49.876790	-63.007083	152.782405	-63.007083	152.782405	-0.066830	-50.281488
3.450000	-0.067595	-50.575113	-62.645025	151.312245	-62.645025	151.312245	-0.067956	-50.985133
3.500000	-0.068723	-51.271409	-62.282028	149.844961	-62.282028	149.844961	-0.069098	-51.686746
3.550000	-0.069857	-51.967248	-61.930166	148.378148	-61.930166	148.378148	-0.070244	-52.387901
3.600000	-0.071011	-52.660799	-61.575535	146.913693	-61.575535	146.913693	-0.071409	-53.086772
3.650000	-0.072167	-53.354118	-61.233174	145.449386	-61.233174	145.449386	-0.072576	-53.785411
3.700000	-0.073348	-54.044888	-60.886419	143.986703	-60.886419	143.986703	-0.073765	-54.481513
3.750000	-0.074528	-54.735658	-60.552978	142.524020	-60.552978	142.524020	-0.074955	-55.177614
3.800000	-0.075736	-55.423614	-60.213712	141.062047	-60.213712	141.062047	-0.076170	-55.870921
3.850000	-0.076943	-56.111570	-59.887201	139.600074	-59.887201	139.600074	-0.077385	-56.564229
3.900000	-0.078177	-56.796921	-59.556625	138.137812	-59.556625	138.137812	-0.078625	-57.254956
3.950000	-0.079412	-57.482035	-59.236778	136.675524	-59.236778	136.675524	-0.079867	-57.945449
4.000000	-0.080672	-58.164759	-58.914524	135.212177	-58.914524	135.212177	-0.081133	-58.633581
4.050000	-0.081937	-58.847006	-58.601145	133.748618	-58.601145	133.748618	-0.082404	-59.321241
4.100000	-0.083225	-59.527087	-58.286907	132.283463	-58.286907	132.283463	-0.083698	-60.006766
4.150000	-0.084520	-60.206447	-57.979855	130.817775	-57.979855	130.817775	-0.084999	-60.691578
4.200000	-0.085835	-60.883871	-57.673379	129.350177	-57.673379	129.350177	-0.086322	-61.374484
4.250000	-0.087162	-61.560328	-57.372564	127.881623	-57.372564	127.881623	-0.087655	-62.056437
4.300000	-0.088507	-62.235084	-57.073640	126.411049	-57.073640	126.411049	-0.089007	-62.736716
4.350000	-0.089865	-62.908626	-56.779014	124.939032	-56.779014	124.939032	-0.090374	-63.415800
4.400000	-0.091241	-63.580706	-56.487467	123.465063	-56.487467	123.465063	-0.091758	-64.093446
4.450000	-0.092633	-64.251325	-56.199017	121.989143	-56.199017	121.989143	-0.093159	-64.769655
4.500000	-0.094040	-64.920726	-55.914705	120.511485	-55.914705	120.511485	-0.094576	-65.444665
4.550000	-0.095468	-65.588419	-55.632445	119.031393	-55.632445	119.031393	-0.096015	-66.117996
4.600000	-0.096908	-66.255137	-55.355246	117.549881	-55.355246	117.549881	-0.097466	-66.790368
4.650000	-0.098372	-66.919906	-55.079212	116.065529	-55.079212	116.065529	-0.098944	-67.460820
4.700000	-0.099845	-67.583944	-54.809026	114.580136	-54.809026	114.580136	-0.100431	-68.130553
4.750000	-0.101348	-68.245793	-54.539268	113.091624	-54.539268	113.091624	-0.101948	-68.798129
4.800000	-0.102857	-68.907156	-54.276008	111.602467	-54.276008	111.602467	-0.103473	-69.465227
4.850000	-0.104399	-69.566094	-54.012586	110.110084	-54.012586	110.110084	-0.105033	-70.129932
4.900000	-0.105945	-70.224790	-53.756174	108.617418	-53.756174	108.617418	-0.106597	-70.794398
4.950000	-0.107530	-70.880830	-53.499150	107.121643	-53.499150	107.121643	-0.108201	-71.456238
5.000000	-0.109114	-71.536870	-53.249514	105.625868	-53.249514	105.625868	-0.109806	-72.118079
5.050000	-0.110743	-72.190029	-52.998947	104.127361	-52.998947	104.127361	-0.111456	-72.777066
5.100000	-0.112371	-72.843189	-52.755405	102.628854	-52.755405	102.628854	-0.113107	-73.436053
5.150000	-0.114042	-73.493727	-52.511954	101.128605	-52.511954	101.128605	-0.114802	-74.092435
5.200000	-0.115717	-74.144028	-52.274561	99.628197	-52.274561	99.628197	-0.116501	-74.748581
5.250000	-0.117432	-74.791966	-52.038133	98.127027	-52.038133	98.127027	-0.118242	-75.402371
5.300000	-0.119155	-75.439433	-51.806928	96.625704	-51.806928	96.625704	-0.119991	-76.055690
5.350000	-0.120916	-76.084795	-51.577421	95.124537	-51.577421	95.124537	-0.121779	-76.706903
5.400000	-0.122691	-76.729456	-51.352426	93.623420	-51.352426	93.623420	-0.123581	-77.357413
5.450000	-0.124500	-77.372269	-51.129722	92.123261	-51.129722	92.123261	-0.125419	-78.006064
5.500000	-0.126328	-78.014157	-50.910933	90.623581	-50.910933	90.623581	-0.127275	-78.653784
5.550000	-0.128187	-78.654449	-50.694902	89.125502	-50.694902	89.125502	-0.129163	-79.299890
5.600000	-0.130071	-79.293600	-50.482289	87.628569	-50.482289	87.628569	-0.131076	-79.944843
5.650000	-0.131983	-79.931403	-50.272784	86.133688	-50.272784	86.133688	-0.133018	-80.588425
5.700000	-0.133924	-80.567858	-50.066286	84.640861	-50.066286	84.640861	-0.134989	-81.230634
5.750000	-0.135891	-81.203206	-49.863141	83.150319	-49.863141	83.150319	-0.136985	-81.871711
5.800000	-0.137893	-81.837005	-49.662666	81.662974	-49.662666	81.662974	-0.139017	-82.511203
5.850000	-0.139916	-82.469935	-49.465700	80.177909	-49.465700	80.177909	-0.141070	-83.149799
5.900000	-0.141981	-83.101125	-49.271120	78.697404	-49.271120	78.697404	-0.143164	-83.786602
5.950000	-0.144063	-83.731674	-49.080134	77.218935	-49.080134	77.218935	-0.145275	-84.422740
6.000000	-0.146193	-84.360303	-48.891291	75.746574	-48.891291	75.746574	-0.147434	-85.056884
6.050000	-0.148335	-84.988513	-48.706068	74.275773	-48.706068	74.275773	-0.149605	-85.690590
6.100000	-0.150533	-85.614630	-48.522768	72.812774	-48.522768	72.812774	-0.151831	-86.322107
6.150000	-0.152736	-86.240542	-48.343077	71.350647	-48.343077	71.350647	-0.154064	-86.953409
6.200000	-0.155003	-86.864200	-48.165097	69.898112	-48.165097	69.898112	-0.156359	-87.582334
6.250000	-0.157271	-87.487858	-47.990691	68.445577	-47.990691	68.445577	-0.158655	-88.211259
6.300000	-0.159608	-88.109110	-47.817779	67.004464	-47.817779	67.004464	-0.161021	-88.837627
6.350000	-0.161947	-88.730362	-47.648243	65.563351	-47.648243	65.563351	-0.163388	-89.463996
6.400000	-0.164351	-89.349459	-47.480278	64.133431	-47.480278	64.133431	-0.165821	-90.088057
6.450000	-0.166761	-89.968359	-47.315350	62.704529	-47.315350	62.704529	-0.168261	-90.711907
6.500000	-0.169233	-90.585345	-47.152022	61.286303	-47.152022	61.286303	-0.170763	-91.333693
6.550000	-0.171716	-91.201948	-46.991420	59.870211	-46.991420	59.870211	-0.173278	-91.955065
6.600000	-0.174255	-91.816868	-46.832417	58.464025	-46.832417	58.464025	-0.175850	-92.574611
6.650000	-0.176813	-92.431226	-46.675840	57.061140	-46.675840	57.061140	-0.178441	-93.193547
6.700000	-0.179421	-93.044125	-46.520842	55.667180	-46.520842	55.667180	-0.181085	-93.810888
6.750000	-0.182053	-93.656292	-46.367976	54.277681	-46.367976	54.277681	-0.183755	-94.427431
6.800000	-0.184729	-94.267211	-46.216667	52.895963	-46.216667	52.895963	-0.186472	-95.042605
6.850000	-0.187436	-94.877237	-46.067187	51.519804	-46.067187	51.519804	-0.189222	-95.656801
6.900000	-0.190180	-95.486217	-45.919251	50.150176	-45.919251	50.150176	-0.192014	-96.269847
6.950000	-0.192961	-96.094150	-45.772826	48.787081	-45.772826	48.787081	-0.194847	-96.881743
7.000000	-0.195773	-96.701230	-45.627952	47.429217	-45.627952	47.429217	-0.197714	-97.492701
7.050000	-0.198627	-97.307113	-45.484250	46.078678	-45.484250	46.078678	-0.200630	-98.102346
7.100000	-0.201507	-97.912326	-45.342133	44.732078	-45.342133	44.732078	-0.203575	-98.711258
7.150000	-0.204434	-98.516200	-45.200822	43.393356	-45.200822	43.393356	-0.206576	-99.318703
7.200000	-0.207380	-99.119579	-45.061165	42.057346	-45.061165	42.057346	-0.209599	-99.925612
7.250000	-0.210380	-99.721476	-44.921921	40.729473	-44.921921	40.729473	-0.212687	-100.530910
7.300000	-0.213392	-100.323048	-44.784437	39.403209	-44.784437	39.403209	-0.215789	-101.135859
7.350000	-0.216463	-100.922997	-44.646943	38.084989	-44.646943	38.084989	-0.218964	-101.739065
7.400000	-0.219540	-101.522786	-44.511356	36.767455	-44.511356	36.767455	-0.222148	-102.342101
7.450000	-0.222681	-102.120809	-44.375306	35.457469	-44.375306	35.457469	-0.225411	-102.943270
7.500000	-0.225823	-102.718832	-44.241355	34.147484	-44.241355	34.147484	-0.228676	-103.544440
7.550000	-0.229034	-103.314945	-44.106461	32.844094	-44.106461	32.844094	-0.232029	-104.143633
7.600000	-0.232246	-103.911058	-43.973629	31.540704	-43.973629	31.540704	-0.235383	-104.742825
7.650000	-0.235521	-104.505427	-43.839886	30.241660	-43.839886	30.241660	-0.238819	-105.340261
7.700000	-0.238802	-105.099638	-43.707910	28.943010	-43.707910	28.943010	-0.242264	-105.937536
7.750000	-0.242141	-105.692265	-43.575100	27.646585	-43.575100	27.646585	-0.245784	-106.533267
7.800000	-0.245493	-106.284576	-43.443736	26.350605	-43.443736	26.350605	-0.249319	-107.128688
7.850000	-0.248897	-106.875458	-43.311663	25.054915	-43.311663	25.054915	-0.252923	-107.722768
7.900000	-0.252320	-107.465863	-43.180691	23.759322	-43.180691	23.759322	-0.256550	-108.316400
7.950000	-0.255791	-108.054992	-43.049181	22.462323	-43.049181	22.462323	-0.260237	-108.908884
8.000000	-0.259286	-108.643482	-42.918408	21.164622	-42.918408	21.164622	-0.263955	-109.500794
8.050000	-0.262826	-109.230846	-42.787313	19.864112	-42.787313	19.864112	-0.267727	-110.091739
8.100000	-0.266397	-109.817404	-42.656575	18.561595	-42.656575	18.561595	-0.271536	-110.681995
8.150000	-0.270008	-110.402987	-42.525775	17.255213	-42.525775	17.255213	-0.275392	-111.271460
8.200000	-0.273659	-110.987593	-42.394945	15.944964	-42.394945	15.944964	-0.279293	-111.860135
8.250000	-0.277345	-111.571376	-42.264350	14.630191	-42.264350	14.630191	-0.283231	-112.448181
8.300000	-0.281080	-112.154007	-42.133338	13.309082	-42.133338	13.309082	-0.287223	-113.035348
8.350000	-0.284846	-112.735969	-42.002892	11.983242	-42.002892	11.983242	-0.291245	-113.622037
8.400000	-0.288671	-113.316597	-41.871656	10.647938	-41.871656	10.647938	-0.295326	-114.207773
8.450000	-0.292521	-113.896716	-41.741338	9.308201	-41.741338	9.308201	-0.299430	-114.793170
8.500000	-0.296444	-114.475312	-41.609887	7.955166	-41.609887	7.955166	-0.303600	-115.377554
8.550000	-0.300386	-115.053565	-41.479717	6.598553	-41.479717	6.598553	-0.307785	-115.961726
8.600000	-0.304414	-115.630101	-41.348122	5.224056	-41.348122	5.224056	-0.312042	-116.544839
8.650000	-0.308453	-116.206463	-41.218163	3.847446	-41.218163	3.847446	-0.316308	-117.127854
8.700000	-0.312596	-116.780911	-41.086565	2.447585	-41.086565	2.447585	-0.320650	-117.709783
8.750000	-0.316740	-117.355359	-40.956931	1.047723	-40.956931	1.047723	-0.324994	-118.291712
8.800000	-0.321007	-117.927691	-40.825550	-0.381553	-40.825550	-0.381553	-0.329419	-118.872545
8.850000	-0.325277	-118.500023	-40.696127	-1.810829	-40.696127	-1.810829	-0.333847	-119.453377
8.900000	-0.329668	-119.070392	-40.565557	-3.270880	-40.565557	-3.270880	-0.338347	-120.033289
8.950000	-0.334073	-119.640583	-40.436649	-4.733729	-40.436649	-4.733729	-0.342855	-120.613116
9.000000	-0.338598	-120.208970	-40.307233	-6.228059	-40.307233	-6.228059	-0.347426	-121.192186
9.050000	-0.343149	-120.776997	-40.179246	-7.728686	-40.179246	-7.728686	-0.352012	-121.771103
9.100000	-0.347818	-121.343385	-40.051408	-9.260775	-40.051408	-9.260775	-0.356653	-122.349413
9.150000	-0.352528	-121.909226	-39.924863	-10.803351	-39.924863	-10.803351	-0.361313	-122.927519
9.200000	-0.357350	-122.473600	-39.799118	-12.376582	-39.799118	-12.376582	-0.366020	-123.505154
9.250000	-0.362231	-123.037239	-39.674665	-13.965139	-39.674665	-13.965139	-0.370750	-124.082552
9.300000	-0.367218	-123.599584	-39.551621	-15.582704	-39.551621	-15.582704	-0.375519	-124.659600
9.350000	-0.372282	-124.161006	-39.430051	-17.220988	-39.430051	-17.220988	-0.380316	-125.236396
9.400000	-0.377443	-124.721313	-39.310418	-18.885780	-39.310418	-18.885780	-0.385143	-125.812948
9.450000	-0.382703	-125.280506	-39.192668	-20.577079	-39.192668	-20.577079	-0.390001	-126.389255
9.500000	-0.388050	-125.838765	-39.077258	-22.291554	-39.077258	-22.291554	-0.394882	-126.965405
9.550000	-0.393518	-126.395719	-38.964420	-24.038477	-38.964420	-24.038477	-0.399795	-127.541338
9.600000	-0.399042	-126.952111	-38.853794	-25.799686	-38.853794	-25.799686	-0.404722	-128.117202
9.650000	-0.404708	-127.507053	-38.746679	-27.597895	-38.746679	-27.597895	-0.409680	-128.692901
9.700000	-0.410483	-128.060916	-38.642952	-29.423811	-38.642952	-29.423811	-0.414660	-129.268516
9.750000	-0.416371	-128.613701	-38.542930	-31.277432	-38.542930	-31.277432	-0.419660	-129.844078
9.800000	-0.422374	-129.165405	-38.446941	-33.158591	-38.446941	-33.158591	-0.424678	-130.419615
9.850000	-0.428495	-129.716029	-38.355321	-35.066940	-38.355321	-35.066940	-0.429713	-130.995158
9.900000	-0.434737	-130.265571	-38.268413	-37.001938	-38.268413	-37.001938	-0.434762	-131.570739
9.950000	-0.441101	-130.814031	-38.186564	-38.962840	-38.186564	-38.962840	-0.439823	-132.146390
10.000000	-0.447592	-131.361408	-38.110120	-40.948681	-38.110120	-40.948681	-0.444896	-132.722143
