! freq	dB(S11)	phase(S11)	dB(S12)	phase(S12)	
!     	dB(S21)	phase(S21)	dB(S22)	phase(S22)	
!S-par simulation data
#  GHz  S  DB  R 50
0.000000	-81.208095	0.000000	-0.000756	0.000000	-0.000756	0.000000	-81.208095	0.000000
0.050000	-41.923295	-83.838300	-0.015575	-3.052045	-0.015575	-3.052045	-41.956036	-84.661837
0.100000	-36.043990	-90.699210	-0.021243	-6.063996	-0.021243	-6.063996	-36.077641	-92.350251
0.150000	-32.613962	-95.024983	-0.026144	-9.068860	-0.026144	-9.068860	-32.647779	-97.509715
0.200000	-30.185922	-98.589690	-0.031205	-12.070784	-0.031205	-12.070784	-30.219214	-101.910559
0.250000	-28.311382	-101.786570	-0.036614	-15.069980	-0.036614	-15.069980	-28.343701	-105.941662
0.300000	-26.789147	-104.787877	-0.042381	-18.066899	-0.042381	-18.066899	-26.820202	-109.773360
0.350000	-25.511638	-107.674159	-0.048496	-21.061994	-0.048496	-21.061994	-25.541220	-113.485341
0.400000	-24.415537	-110.486351	-0.054966	-24.055533	-0.054966	-24.055533	-24.443459	-117.117710
0.450000	-23.459935	-113.249884	-0.061787	-27.047697	-0.061787	-27.047697	-23.486051	-120.695121
0.500000	-22.615966	-115.981901	-0.068927	-30.038653	-0.068927	-30.038653	-22.640189	-124.234245
0.550000	-21.863463	-118.691576	-0.076362	-33.028471	-0.076362	-33.028471	-21.885741	-127.743519
0.600000	-21.188041	-121.384858	-0.084066	-36.017174	-0.084066	-36.017174	-21.208337	-131.227794
0.650000	-20.579365	-124.066172	-0.092012	-39.004767	-0.092012	-39.004767	-20.597651	-134.689858
0.700000	-20.027399	-126.739867	-0.100146	-41.991394	-0.100146	-41.991394	-20.043683	-138.133494
0.750000	-19.525203	-129.408598	-0.108428	-44.977137	-0.108428	-44.977137	-19.539494	-141.560082
0.800000	-19.068103	-132.074668	-0.116822	-47.962066	-0.116822	-47.962066	-19.080400	-144.969722
0.850000	-18.651159	-134.740485	-0.125282	-50.946346	-0.125282	-50.946346	-18.661458	-148.363331
0.900000	-18.270338	-137.408121	-0.133763	-53.930153	-0.133763	-53.930153	-18.278627	-151.741358
0.950000	-17.922581	-140.079617	-0.142225	-56.913677	-0.142225	-56.913677	-17.928829	-155.103725
1.000000	-17.605223	-142.757009	-0.150629	-59.897144	-0.150629	-59.897144	-17.609382	-158.450247
1.050000	-17.316003	-145.442366	-0.158935	-62.880803	-0.158935	-62.880803	-17.318003	-161.780561
1.100000	-17.052993	-148.137828	-0.167105	-65.864935	-0.167105	-65.864935	-17.052740	-165.094134
1.150000	-16.814539	-150.845628	-0.175105	-68.849844	-0.175105	-68.849844	-16.811918	-168.390261
1.200000	-16.599222	-153.568121	-0.182902	-71.835862	-0.182902	-71.835862	-16.594091	-171.668061
1.250000	-16.405814	-156.307812	-0.190463	-74.823349	-0.190463	-74.823349	-16.398009	-174.926462
1.300000	-16.233624	-159.067878	-0.197753	-77.812739	-0.197753	-77.812739	-16.222952	-178.163701
1.350000	-16.081366	-161.850846	-0.204752	-80.804410	-0.204752	-80.804410	-16.067616	178.621328
1.400000	-15.948248	-164.659854	-0.211436	-83.798798	-0.211436	-83.798798	-15.931189	175.430405
1.450000	-15.833585	-167.498311	-0.217784	-86.796364	-0.217784	-86.796364	-15.812966	172.265602
1.500000	-15.736786	-170.369941	-0.223779	-89.797589	-0.223779	-89.797589	-15.712335	169.129308
1.550000	-15.657342	-173.278824	-0.229405	-92.802979	-0.229405	-92.802979	-15.628767	166.024277
1.600000	-15.594811	-176.229444	-0.234653	-95.813061	-0.234653	-95.813061	-15.561801	162.953666
1.650000	-15.548813	-179.226744	-0.239515	-98.828382	-0.239515	-98.828382	-15.511031	159.921090
1.700000	-15.519014	177.723812	-0.243986	-101.849510	-0.243986	-101.849510	-15.476102	156.930672
1.750000	-15.505118	174.616170	-0.248069	-104.877033	-0.248069	-104.877033	-15.456689	153.987111
1.800000	-15.506857	171.443608	-0.251767	-107.911555	-0.251767	-107.911555	-15.452490	151.095745
1.850000	-15.523973	168.198653	-0.255089	-110.953700	-0.255089	-110.953700	-15.463210	148.262630
1.900000	-15.556364	164.872004	-0.258047	-114.004204	-0.258047	-114.004204	-15.488697	145.495414
1.950000	-15.603730	161.454038	-0.260658	-117.063747	-0.260658	-117.063747	-15.528598	142.802133
2.000000	-15.665569	157.935223	-0.262953	-120.132909	-0.262953	-120.132909	-15.582353	140.190865
2.050000	-15.741463	154.303971	-0.264960	-123.212376	-0.264960	-123.212376	-15.649476	137.671462
2.100000	-15.830876	150.547403	-0.266714	-126.302844	-0.266714	-126.302844	-15.729353	135.254925
2.150000	-15.933107	146.651258	-0.268258	-129.405022	-0.268258	-129.405022	-15.821198	132.953458
2.200000	-16.047230	142.599826	-0.269639	-132.519629	-0.269639	-132.519629	-15.923998	130.780496
2.250000	-16.172018	138.375938	-0.270911	-135.647390	-0.270911	-135.647390	-16.036442	128.750665
2.300000	-16.305855	133.961051	-0.272136	-138.789040	-0.272136	-138.789040	-16.156838	126.879655
2.350000	-16.446626	129.335463	-0.273382	-141.945317	-0.273382	-141.945317	-16.283025	125.183957
2.400000	-16.591596	124.478744	-0.274725	-145.116961	-0.274725	-145.116961	-16.412262	123.680402
2.450000	-16.737279	119.370457	-0.276250	-148.304715	-0.276250	-148.304715	-16.541124	122.385448
2.500000	-16.879299	113.991259	-0.278050	-151.509316	-0.278050	-151.509316	-16.665398	121.314130
2.550000	-17.011905	108.317959	-0.280237	-154.731896	-0.280237	-154.731896	-16.779637	120.483920
2.600000	-17.128748	102.345062	-0.282916	-157.972815	-0.282916	-157.972815	-16.877974	119.896957
2.650000	-17.222359	96.068907	-0.286210	-161.232781	-0.286210	-161.232781	-16.953609	119.553070
2.700000	-17.284504	89.496488	-0.290248	-164.512487	-0.290248	-164.512487	-16.999164	119.442543
2.750000	-17.306603	82.648206	-0.295174	-167.812603	-0.295174	-167.812603	-17.007067	119.544007
2.800000	-17.280374	75.559742	-0.301140	-171.133770	-0.301140	-171.133770	-16.970092	119.823113
2.850000	-17.198640	68.282276	-0.308309	-174.476594	-0.308309	-174.476594	-16.882026	120.232586
2.900000	-17.056177	60.880427	-0.316857	-177.841641	-0.316857	-177.841641	-16.738354	120.714066
2.950000	-16.850419	53.427804	-0.326971	178.770572	-0.326971	178.770572	-16.536816	121.201811
3.000000	-16.581840	46.000753	-0.338849	175.359587	-0.338849	175.359587	-16.277715	121.627764
3.050000	-16.253900	38.671519	-0.352701	171.925007	-0.352701	171.925007	-15.963884	121.927100
3.100000	-15.872565	31.502272	-0.368748	168.466515	-0.368748	168.466515	-15.600332	122.043165
3.150000	-15.444899	24.543764	-0.387251	164.983609	-0.387251	164.983609	-15.193027	121.928080
3.200000	-14.979686	17.829085	-0.408461	161.476147	-0.408461	161.476147	-14.749589	121.549400
3.250000	-14.486367	11.372657	-0.432606	157.944364	-0.432606	157.944364	-14.278407	120.891596
3.300000	-13.973174	5.178721	-0.459948	154.388347	-0.459948	154.388347	-13.786903	119.947924
3.350000	-13.447464	-0.758054	-0.490756	150.808309	-0.490756	150.808309	-13.281849	118.720691
3.400000	-12.915562	-6.449677	-0.525307	147.204599	-0.525307	147.204599	-12.769187	117.218909
3.450000	-12.382733	-11.912308	-0.563880	143.577712	-0.563880	143.577712	-12.253968	115.456145
3.500000	-11.853250	-17.164251	-0.606760	139.928296	-0.606760	139.928296	-11.740385	113.448743
3.550000	-11.330974	-22.228189	-0.654130	136.257608	-0.654130	136.257608	-11.232315	111.218948
3.600000	-10.817466	-27.114051	-0.706491	132.565591	-0.706491	132.565591	-10.731391	108.774509
3.650000	-10.315438	-31.844582	-0.764003	128.853981	-0.764003	128.853981	-10.240440	106.139485
3.700000	-9.826426	-36.435945	-0.826934	125.124093	-0.826934	125.124093	-9.761137	103.331117
3.750000	-9.351568	-40.902720	-0.895542	121.377410	-0.895542	121.377410	-9.294767	100.365737
3.800000	-8.891602	-45.256776	-0.970131	117.615437	-0.970131	117.615437	-8.842213	97.257273
3.850000	-8.447232	-49.510771	-1.050871	113.840166	-1.050871	113.840166	-8.404327	94.021652
3.900000	-8.018829	-53.674502	-1.137970	110.053552	-1.137970	110.053552	-7.981615	90.672054
3.950000	-7.606607	-57.756375	-1.231612	106.257679	-1.231612	106.257679	-7.574418	87.220673
4.000000	-7.210659	-61.763532	-1.331956	102.454745	-1.331956	102.454745	-7.182941	83.678774
4.050000	-6.830975	-65.701987	-1.439136	98.647041	-1.439136	98.647041	-6.807280	80.056756
4.100000	-6.467474	-69.576264	-1.553298	94.836928	-1.553298	94.836928	-6.447445	76.363705
4.150000	-6.120010	-73.390884	-1.674486	91.026857	-1.674486	91.026857	-6.103370	72.608944
4.200000	-5.788425	-77.148359	-1.802823	87.219351	-1.802823	87.219351	-5.774972	68.799892
4.250000	-5.472305	-80.853732	-1.938100	83.416620	-1.938100	83.416620	-5.461892	64.946017
4.300000	-5.171399	-84.507807	-2.080432	79.621078	-2.080432	79.621078	-5.163934	61.052795
4.350000	-4.885357	-88.112301	-2.229778	75.834985	-2.229778	75.834985	-4.880794	57.126365
4.400000	-4.613861	-91.668045	-2.386116	72.060620	-2.386116	72.060620	-4.612197	53.172007
4.450000	-4.356515	-95.176117	-2.549347	68.299993	-2.549347	68.299993	-4.357778	49.194790
4.500000	-4.112814	-98.637852	-2.719314	64.554682	-2.719314	64.554682	-4.117066	45.199305
4.550000	-3.882296	-102.053895	-2.895882	60.826107	-2.895882	60.826107	-3.889628	41.189258
4.600000	-3.664484	-105.424779	-3.078891	57.115373	-3.078891	57.115373	-3.675013	37.167778
4.650000	-3.458886	-108.750967	-3.268145	53.423277	-3.268145	53.423277	-3.472758	33.137422
4.700000	-3.265002	-112.032889	-3.463406	49.750381	-3.463406	49.750381	-3.282394	29.100179
4.750000	-3.082325	-115.270970	-3.664404	46.097124	-3.664404	46.097124	-3.103446	25.057475
4.800000	-2.910345	-118.465657	-3.870851	42.463926	-3.870851	42.463926	-2.935439	21.010174
4.850000	-2.748553	-121.617440	-4.082473	38.851215	-4.082473	38.851215	-2.777904	16.958584
4.900000	-2.596443	-124.726860	-4.299039	35.259339	-4.299039	35.259339	-2.630378	12.902452
4.950000	-2.453513	-127.794526	-4.520370	31.688412	-4.520370	31.688412	-2.492408	8.840966
5.000000	-2.319268	-130.821120	-4.746345	28.138185	-4.746345	28.138185	-2.363553	4.772749
5.050000	-2.193650	-133.804595	-4.976765	24.609309	-4.976765	24.609309	-2.243868	0.695034
5.100000	-2.075196	-136.752260	-5.211869	21.097512	-5.211869	21.097512	-2.131839	-3.393013
5.150000	-1.964356	-139.658998	-5.451390	17.604032	-5.451390	17.604032	-2.028111	-7.496528
5.200000	-1.860134	-142.529497	-5.695578	14.125325	-5.695578	14.125325	-1.931687	-11.617770
5.250000	-1.762307	-145.363408	-5.944460	10.659619	-5.944460	10.659619	-1.842469	-15.762009
5.300000	-1.670547	-148.161205	-6.198165	7.204445	-6.198165	7.204445	-1.760248	-19.934960
5.350000	-1.584086	-150.926789	-6.457136	3.756117	-6.457136	3.756117	-1.684274	-24.140132
5.400000	-1.503135	-153.656984	-6.721399	0.311909	-6.721399	0.311909	-1.615053	-28.389528
5.450000	-1.426592	-156.358733	-6.991822	-3.132275	-6.991822	-3.132275	-1.551368	-32.683042
5.500000	-1.354854	-159.027613	-7.268597	-6.581106	-7.268597	-6.581106	-1.494063	-37.039846
5.550000	-1.286937	-161.670243	-7.552826	-10.038142	-7.552826	-10.038142	-1.442023	-41.459176
5.600000	-1.222793	-164.286024	-7.845322	-13.508811	-7.845322	-13.508811	-1.395506	-45.956699
5.650000	-1.162182	-166.876065	-8.147278	-16.999045	-8.147278	-16.999045	-1.354527	-50.547234
5.700000	-1.104761	-169.442524	-8.460234	-20.514681	-8.460234	-20.514681	-1.318953	-55.244411
5.750000	-1.050209	-171.987640	-8.786047	-24.061447	-8.786047	-24.061447	-1.288680	-60.062384
5.800000	-0.998274	-174.513296	-9.126994	-27.645640	-9.126994	-27.645640	-1.263746	-65.018810
5.850000	-0.948723	-177.021459	-9.485887	-31.273620	-9.485887	-31.273620	-1.244245	-70.133510
5.900000	-0.901342	-179.514182	-9.866207	-34.951552	-9.866207	-34.951552	-1.230341	-75.428698
5.950000	-0.855954	178.006493	-10.272359	-38.685486	-10.272359	-38.685486	-1.222324	-80.931233
6.000000	-0.812410	175.538429	-10.710025	-42.480768	-10.710025	-42.480768	-1.220639	-86.674077
6.050000	-0.770525	173.078958	-11.185746	-46.337514	-11.185746	-46.337514	-1.225557	-92.682880
6.100000	-0.730182	170.625652	-11.707980	-50.253058	-11.707980	-50.253058	-1.237597	-98.991754
6.150000	-0.691064	168.176778	-12.287754	-54.245851	-12.287754	-54.245851	-1.257407	-105.624495
6.200000	-0.653550	165.727113	-12.939979	-58.290596	-12.939979	-58.290596	-1.284890	-112.640497
6.250000	-0.617842	163.273330	-13.682820	-62.355381	-13.682820	-62.355381	-1.320254	-120.080181
6.300000	-0.584203	160.812582	-14.541805	-66.391848	-14.541805	-66.391848	-1.363932	-127.993528
6.350000	-0.552955	158.342443	-15.550345	-70.310967	-15.550345	-70.310967	-1.415856	-136.415524
6.400000	-0.524572	155.860904	-16.755962	-73.948889	-16.755962	-73.948889	-1.475649	-145.382552
6.450000	-0.499645	153.366767	-18.227250	-76.992857	-18.227250	-76.992857	-1.542326	-154.921773
6.500000	-0.478803	150.860161	-20.065465	-78.835932	-20.065465	-78.835932	-1.614078	-165.038413
6.550000	-0.462906	148.342306	-22.418265	-77.997929	-22.418265	-77.997929	-1.688253	-175.739387
6.600000	-0.452576	145.816820	-25.416664	-70.848174	-25.416664	-70.848174	-1.761057	173.022695
6.650000	-0.448340	143.288975	-28.460612	-48.889039	-28.460612	-48.889039	-1.827995	161.319875
6.700000	-0.450476	140.765620	-28.335599	-13.449348	-28.335599	-13.449348	-1.884169	149.258740
6.750000	-0.458813	138.254345	-25.279032	7.126530	-25.279032	7.126530	-1.925181	136.982619
6.800000	-0.472785	135.762409	-22.374392	13.306632	-22.374392	13.306632	-1.947790	124.655347
6.850000	-0.491408	133.295404	-20.131677	13.386629	-20.131677	13.386629	-1.950706	112.447328
6.900000	-0.513497	130.856950	-18.415060	10.809794	-18.415060	10.809794	-1.934357	100.522278
6.950000	-0.537722	128.447660	-17.083313	6.995255	-17.083313	6.995255	-1.901116	89.019769
7.000000	-0.562819	126.065243	-16.036057	2.596437	-16.036057	2.596437	-1.854621	78.040258
7.050000	-0.587736	123.705721	-15.205380	-2.057091	-15.205380	-2.057091	-1.798747	67.655080
7.100000	-0.611667	121.363619	-14.542480	-6.779350	-14.542480	-6.779350	-1.737318	57.900941
7.150000	-0.634101	119.032666	-14.009949	-11.464787	-14.009949	-11.464787	-1.673665	48.776372
7.200000	-0.654758	116.706833	-13.580637	-16.054246	-13.580637	-16.054246	-1.610337	40.268212
7.250000	-0.673538	114.380366	-13.233673	-20.514968	-13.233673	-20.514968	-1.549222	32.351040
7.300000	-0.690524	112.048164	-12.951531	-24.834490	-12.951531	-24.834490	-1.491527	24.978601
7.350000	-0.705826	109.705428	-12.722146	-29.005535	-12.722146	-29.005535	-1.438096	18.121535
7.400000	-0.719721	107.348909	-12.533166	-33.038222	-12.533166	-33.038222	-1.389097	11.713521
7.450000	-0.732401	104.975126	-12.377124	-36.936795	-12.377124	-36.936795	-1.344710	5.722276
7.500000	-0.744095	102.581221	-12.247331	-40.710454	-12.247331	-40.710454	-1.304871	0.108112
7.550000	-0.755009	100.163784	-12.138905	-44.365852	-12.138905	-44.365852	-1.269553	-5.155135
7.600000	-0.765388	97.721204	-12.046703	-47.917878	-12.046703	-47.917878	-1.238376	-10.113638
7.650000	-0.775427	95.251293	-11.967180	-51.377036	-11.967180	-51.377036	-1.211086	-14.797521
7.700000	-0.785309	92.751923	-11.897422	-54.753488	-11.897422	-54.753488	-1.187424	-19.233867
7.750000	-0.795203	90.220963	-11.835018	-58.056929	-11.835018	-58.056929	-1.167139	-23.446926
7.800000	-0.805269	87.656238	-11.777963	-61.296532	-11.777963	-61.296532	-1.149999	-27.458365
7.850000	-0.815669	85.054489	-11.724631	-64.479730	-11.724631	-64.479730	-1.135859	-31.283244
7.900000	-0.826548	82.413839	-11.673509	-67.615920	-11.673509	-67.615920	-1.124470	-34.942534
7.950000	-0.838047	79.732027	-11.623386	-70.713224	-11.623386	-70.713224	-1.115642	-38.453042
8.000000	-0.850345	77.004297	-11.573210	-73.777748	-11.573210	-73.777748	-1.109327	-41.822962
8.050000	-0.863504	74.232339	-11.522194	-76.819308	-11.522194	-76.819308	-1.105161	-45.077804
8.100000	-0.877721	71.410287	-11.469573	-79.842537	-11.469573	-79.842537	-1.103185	-48.220248
8.150000	-0.893206	68.532606	-11.414577	-82.853646	-11.414577	-82.853646	-1.103383	-51.256945
8.200000	-0.910148	65.595001	-11.356577	-85.859455	-11.356577	-85.859455	-1.105685	-54.197540
8.250000	-0.928700	62.595001	-11.295168	-88.866453	-11.295168	-88.866453	-1.109968	-57.053389
8.300000	-0.949072	59.527840	-11.229912	-91.880691	-11.229912	-91.880691	-1.116202	-59.831583
8.350000	-0.971500	56.388264	-11.160421	-94.908229	-11.160421	-94.908229	-1.124368	-62.538533
8.400000	-0.996246	53.170473	-11.086356	-97.955188	-11.086356	-97.955188	-1.134464	-65.180042
8.450000	-1.023605	49.868054	-11.007423	-101.027805	-11.007423	-101.027805	-1.146498	-67.761364
8.500000	-1.053911	46.473900	-10.923368	-104.132486	-10.923368	-104.132486	-1.160493	-70.287252
8.550000	-1.087540	42.980131	-10.833985	-107.275858	-10.833985	-107.275858	-1.176482	-72.762005
8.600000	-1.124918	39.377991	-10.739113	-110.464824	-10.739113	-110.464824	-1.194510	-75.189493
8.650000	-1.166530	35.657743	-10.638644	-113.706613	-10.638644	-113.706613	-1.214628	-77.573189
8.700000	-1.212928	31.808544	-10.532529	-117.008833	-10.532529	-117.008833	-1.236900	-79.916187
8.750000	-1.264737	27.818311	-10.420786	-120.379515	-10.420786	-120.379515	-1.261390	-82.221210
8.800000	-1.322998	23.664933	-10.303151	-123.831530	-10.303151	-123.831530	-1.288285	-84.488867
8.850000	-1.388265	19.340424	-10.180194	-127.370423	-10.180194	-127.370423	-1.317539	-86.723075
8.900000	-1.461457	14.827760	-10.052240	-131.005795	-10.052240	-131.005795	-1.349211	-88.925422
8.950000	-1.543609	10.107960	-9.919754	-134.747777	-9.919754	-134.747777	-1.383342	-91.097124
9.000000	-1.635868	5.159888	-9.783368	-138.607003	-9.783368	-138.607003	-1.419948	-93.239026
9.050000	-1.739497	-0.039941	-9.643910	-142.594550	-9.643910	-142.594550	-1.459005	-95.351602
9.100000	-1.856178	-5.525440	-9.502362	-146.725734	-9.502362	-146.725734	-1.500481	-97.434223
9.150000	-1.987189	-11.321765	-9.360196	-151.010161	-9.360196	-151.010161	-1.544168	-99.487196
9.200000	-2.133870	-17.458122	-9.219115	-155.458045	-9.219115	-155.458045	-1.589772	-101.510370
9.250000	-2.297571	-23.968730	-9.081130	-160.080303	-9.081130	-160.080303	-1.636886	-103.503289
9.300000	-2.479409	-30.890101	-8.948625	-164.886857	-8.948625	-164.886857	-1.684942	-105.465681
9.350000	-2.680053	-38.260369	-8.824363	-169.886028	-8.824363	-169.886028	-1.733189	-107.397786
9.400000	-2.899627	-46.127168	-8.711717	-175.087293	-8.711717	-175.087293	-1.780639	-109.300356
9.450000	-3.136648	-54.521921	-8.614122	179.509116	-8.614122	179.509116	-1.826139	-111.176609
9.500000	-3.388122	-63.477338	-8.535380	173.904581	-8.535380	173.904581	-1.868371	-113.031628
9.550000	-3.648846	-73.017720	-8.479447	168.105017	-8.479447	168.105017	-1.905941	-114.873343
9.600000	-3.910861	-83.152538	-8.450289	162.121612	-8.450289	162.121612	-1.937489	-116.713163
9.650000	-4.163444	-93.860991	-8.451292	155.973119	-8.451292	155.973119	-1.961942	-118.566095
9.700000	-4.393644	-105.091261	-8.485268	149.682913	-8.485268	149.682913	-1.978637	-120.450153
9.750000	-4.587502	-116.752314	-8.554149	143.278676	-8.554149	143.278676	-1.987475	-122.385579
9.800000	-4.731625	-128.714733	-8.659053	136.790256	-8.659053	136.790256	-1.988960	-124.394246
9.850000	-4.815068	-140.811435	-8.800261	130.248630	-8.800261	130.248630	-1.984224	-126.499557
9.900000	-4.835049	-152.854125	-8.975419	123.685029	-8.975419	123.685029	-1.975204	-128.719185
9.950000	-4.792356	-164.658362	-9.182417	117.125680	-9.182417	117.125680	-1.964039	-131.073437
10.000000	-4.702578	-175.515614	-9.413899	110.811577	-9.413899	110.811577	-1.954392	-133.599607
