! freq	dB(S11)	phase(S11)	dB(S12)	phase(S12)	
!     	dB(S21)	phase(S21)	dB(S22)	phase(S22)	
!S-par simulation data
#  GHz  S  DB  R 50
0.000000	-0.000000	0.000000	-338.938510	0.000000	-338.938510	0.000000	0.000000	0.000000
0.050000	-0.000329	-0.803041	-96.187311	-175.089843	-96.187311	-175.089843	-0.000076	-0.816105
0.100000	-0.001192	-1.607991	-95.714588	168.309001	-95.714588	168.309001	-0.000303	-1.632064
0.150000	-0.002332	-2.415545	-95.288179	157.161899	-95.288179	157.161899	-0.000676	-2.447738
0.200000	-0.003537	-3.225266	-94.806530	148.105204	-94.806530	148.105204	-0.001186	-3.263000
0.250000	-0.004698	-4.036411	-94.290203	140.523368	-94.290203	140.523368	-0.001831	-4.077698
0.300000	-0.005789	-4.848114	-93.774818	133.995788	-93.774818	133.995788	-0.002588	-4.891779
0.350000	-0.006817	-5.659912	-93.280850	128.396441	-93.280850	128.396441	-0.003449	-5.705133
0.400000	-0.007798	-6.471456	-92.824730	123.582071	-92.824730	123.582071	-0.004402	-6.517688
0.450000	-0.008753	-7.282526	-92.417333	119.440510	-92.417333	119.440510	-0.005433	-7.329386
0.500000	-0.009695	-8.092985	-92.065673	115.885734	-92.065673	115.885734	-0.006529	-8.140186
0.550000	-0.010637	-8.902742	-91.774301	112.855000	-91.774301	112.855000	-0.007677	-8.950057
0.600000	-0.011587	-9.711737	-91.546300	110.306693	-91.546300	110.306693	-0.008866	-9.758982
0.650000	-0.012547	-10.519928	-91.383942	108.218877	-91.383942	108.218877	-0.010085	-10.566953
0.700000	-0.013522	-11.327283	-91.289071	106.588825	-91.289071	106.588825	-0.011325	-11.373967
0.750000	-0.014511	-12.133778	-91.263242	105.433702	-91.263242	105.433702	-0.012577	-12.180030
0.800000	-0.015514	-12.939394	-91.307617	104.792630	-91.307617	104.792630	-0.013835	-12.985149
0.850000	-0.016531	-13.744115	-91.422518	104.730238	-91.422518	104.730238	-0.015092	-13.789336
0.900000	-0.017560	-14.547928	-91.606479	105.341642	-91.606479	105.341642	-0.016344	-14.592601
0.950000	-0.018600	-15.350822	-91.854448	106.758067	-91.854448	106.758067	-0.017588	-15.394957
1.000000	-0.019648	-16.152788	-92.154636	109.150518	-92.154636	109.150518	-0.018820	-16.196415
1.050000	-0.020704	-16.953816	-92.483437	112.724766	-92.483437	112.724766	-0.020038	-16.996983
1.100000	-0.021764	-17.753900	-92.798337	117.693561	-92.798337	117.693561	-0.021241	-17.796670
1.150000	-0.022829	-18.553033	-93.031024	124.203798	-93.031024	124.203798	-0.022429	-18.595481
1.200000	-0.023895	-19.351207	-93.088193	132.202464	-93.088193	132.202464	-0.023600	-19.393420
1.250000	-0.024963	-20.148416	-92.872511	141.281130	-92.872511	141.281130	-0.024756	-20.190489
1.300000	-0.026031	-20.944611	-92.309819	150.624063	-92.309819	150.624063	-0.025895	-20.986648
1.350000	-0.027097	-21.739828	-91.436472	159.300561	-91.436472	159.300561	-0.027019	-21.781933
1.400000	-0.028162	-22.534058	-90.337191	166.720659	-90.337191	166.720659	-0.028129	-22.576340
1.450000	-0.029224	-23.327296	-89.110640	172.687409	-89.110640	172.687409	-0.029225	-23.369860
1.500000	-0.030284	-24.119532	-87.836351	177.279232	-87.836351	177.279232	-0.030310	-24.162486
1.550000	-0.031340	-24.910760	-86.566259	-179.303449	-86.566259	-179.303449	-0.031382	-24.954209
1.600000	-0.032393	-25.700970	-85.329626	-176.838470	-85.329626	-176.838470	-0.032445	-25.745018
1.650000	-0.033442	-26.490153	-84.140729	-175.127276	-84.140729	-175.127276	-0.033498	-26.534900
1.700000	-0.034487	-27.277934	-82.974804	-174.154823	-82.974804	-174.154823	-0.034541	-27.323509
1.750000	-0.035530	-28.065172	-81.906391	-173.444969	-81.906391	-173.444969	-0.035580	-28.111623
1.800000	-0.036569	-28.851117	-80.872627	-173.144955	-80.872627	-173.144955	-0.036613	-28.898552
1.850000	-0.037606	-29.636140	-79.896347	-173.137682	-79.896347	-173.137682	-0.037640	-29.684634
1.900000	-0.038639	-30.420031	-78.962328	-173.351565	-78.962328	-173.351565	-0.038664	-30.469666
1.950000	-0.039671	-31.202790	-78.068139	-173.786605	-78.068139	-173.786605	-0.039684	-31.253648
2.000000	-0.040700	-31.984585	-77.218575	-174.342081	-77.218575	-174.342081	-0.040703	-32.036727
2.050000	-0.041728	-32.765029	-76.395193	-175.066166	-76.395193	-175.066166	-0.041720	-32.818539
2.100000	-0.042755	-33.544684	-75.616801	-175.855377	-75.616801	-175.855377	-0.042737	-33.599605
2.150000	-0.043781	-34.322760	-74.854137	-176.774838	-74.854137	-176.774838	-0.043753	-34.379177
2.200000	-0.044807	-35.100230	-74.136037	-177.728279	-74.136037	-177.728279	-0.044771	-35.158172
2.250000	-0.045833	-35.875882	-73.425635	-178.783661	-73.425635	-178.783661	-0.045791	-35.935432
2.300000	-0.046860	-36.651121	-72.759048	-179.855189	-72.759048	-179.855189	-0.046812	-36.712295
2.350000	-0.047889	-37.424294	-72.093949	178.992554	-72.093949	178.992554	-0.047837	-37.487174
2.400000	-0.048918	-38.197256	-71.471792	177.834423	-71.471792	177.834423	-0.048864	-38.261848
2.450000	-0.049952	-38.967895	-70.846275	176.611694	-70.846275	176.611694	-0.049898	-39.034277
2.500000	-0.050986	-39.738533	-70.262794	175.388965	-70.262794	175.388965	-0.050932	-39.806706
2.550000	-0.052026	-40.506582	-69.672137	174.114067	-69.672137	174.114067	-0.051977	-40.576620
2.600000	-0.053067	-41.274631	-69.119100	172.839169	-69.119100	172.839169	-0.053022	-41.346534
2.650000	-0.054116	-42.040257	-68.562887	171.528323	-68.562887	171.528323	-0.054078	-42.114085
2.700000	-0.055166	-42.805663	-68.037059	170.214208	-68.037059	170.214208	-0.055135	-42.881421
2.750000	-0.056226	-43.568824	-67.511327	168.875181	-67.511327	168.875181	-0.056204	-43.646561
2.800000	-0.057287	-44.331535	-67.009967	167.531172	-67.009967	167.531172	-0.057276	-44.411261
2.850000	-0.058359	-45.092187	-66.511410	166.169846	-66.511410	166.169846	-0.058359	-45.173942
2.900000	-0.059434	-45.852154	-66.032181	164.802748	-66.032181	164.802748	-0.059447	-45.935951
2.950000	-0.060519	-46.610259	-65.558013	163.423606	-65.558013	163.423606	-0.060546	-46.696131
3.000000	-0.061609	-47.367434	-65.098914	162.038442	-65.098914	162.038442	-0.061651	-47.455398
3.050000	-0.062710	-48.122954	-64.646769	160.644926	-64.646769	160.644926	-0.062767	-48.213036
3.100000	-0.063818	-48.877292	-64.206072	159.245444	-64.206072	159.245444	-0.063891	-48.969513
3.150000	-0.064935	-49.630191	-63.773923	157.840209	-63.773923	157.840209	-0.065025	-49.724573
3.200000	-0.066063	-50.381651	-63.350130	156.429224	-63.350130	156.429224	-0.066170	-50.478217
3.250000	-0.067199	-51.131896	-62.936231	155.014333	-62.936231	155.014333	-0.067323	-51.230665
3.300000	-0.068347	-51.880440	-62.528037	153.593977	-62.528037	153.593977	-0.068489	-51.981438
3.350000	-0.069503	-52.628000	-62.130875	152.171039	-62.130875	152.171039	-0.069662	-52.731242
3.400000	-0.070675	-53.373592	-61.737138	150.742939	-61.737138	150.742939	-0.070851	-53.479110
3.450000	-0.071853	-54.118439	-61.355393	149.313216	-61.355393	149.313216	-0.072046	-54.226245
3.500000	-0.073049	-54.861048	-60.975111	147.878626	-60.975111	147.878626	-0.073260	-54.971178
3.550000	-0.074250	-55.603156	-60.607624	146.443117	-60.607624	146.443117	-0.074477	-55.715618
3.600000	-0.075473	-56.342754	-60.239913	145.003012	-60.239913	145.003012	-0.075716	-56.457592
3.650000	-0.076699	-57.082099	-59.885666	143.562513	-59.885666	143.562513	-0.076958	-57.199318
3.700000	-0.077950	-57.818662	-59.529746	142.117668	-59.529746	142.117668	-0.078224	-57.938311
3.750000	-0.079202	-58.555225	-59.187837	140.672822	-59.187837	140.672822	-0.079490	-58.677304
3.800000	-0.080483	-59.288731	-58.843015	139.223860	-58.843015	139.223860	-0.080785	-59.413301
3.850000	-0.081765	-60.022237	-58.511360	137.774898	-58.511360	137.774898	-0.082080	-60.149298
3.900000	-0.083076	-60.752926	-58.178303	136.322638	-58.178303	136.322638	-0.083402	-60.882537
3.950000	-0.084389	-61.483359	-57.856356	134.870078	-57.856356	134.870078	-0.084727	-61.615526
4.000000	-0.085730	-62.211219	-57.534348	133.414891	-57.534348	133.414891	-0.086078	-62.346001
4.050000	-0.087077	-62.938565	-57.221621	131.959180	-57.221621	131.959180	-0.087434	-63.075974
4.100000	-0.088450	-63.663588	-56.910018	130.501403	-56.910018	130.501403	-0.088816	-63.803683
4.150000	-0.089832	-64.387836	-56.606073	129.042939	-56.606073	129.042939	-0.090206	-64.530638
4.200000	-0.091238	-65.110016	-56.304298	127.582885	-56.304298	127.582885	-0.091619	-65.255581
4.250000	-0.092656	-65.831161	-56.008740	126.122038	-56.008740	126.122038	-0.093043	-65.979518
4.300000	-0.094097	-66.550495	-55.716271	124.660007	-55.716271	124.660007	-0.094489	-66.701699
4.350000	-0.095554	-67.268534	-55.428744	123.197132	-55.428744	123.197132	-0.095951	-67.422624
4.400000	-0.097031	-67.985021	-55.145107	121.733420	-55.145107	121.733420	-0.097431	-68.142050
4.450000	-0.098528	-68.699956	-54.865287	120.268870	-54.865287	120.268870	-0.098931	-68.859974
4.500000	-0.100043	-69.413598	-54.590051	118.803771	-54.590051	118.803771	-0.100448	-69.576654
4.550000	-0.101581	-70.125432	-54.317641	117.337903	-54.317641	117.337903	-0.101988	-70.291591
4.600000	-0.103135	-70.836235	-54.050413	115.871717	-54.050413	115.871717	-0.103543	-71.005539
4.650000	-0.104717	-71.544976	-53.785142	114.404895	-53.785142	114.404895	-0.105125	-71.717508
4.700000	-0.106310	-72.252946	-53.525558	112.937929	-53.525558	112.937929	-0.106719	-72.428740
4.750000	-0.107938	-72.958606	-53.267173	111.470530	-53.267173	111.470530	-0.108346	-73.137762
4.800000	-0.109573	-73.663754	-53.014899	110.003100	-53.014899	110.003100	-0.109981	-73.846298
4.850000	-0.111247	-74.366347	-52.763166	108.535513	-52.763166	108.535513	-0.111655	-74.552401
4.900000	-0.112925	-75.068685	-52.517892	107.067944	-52.517892	107.067944	-0.113332	-75.258263
4.950000	-0.114648	-75.768228	-52.272590	105.600569	-52.272590	105.600569	-0.115054	-75.961478
5.000000	-0.116371	-76.467772	-52.034026	104.133194	-52.034026	104.133194	-0.116777	-76.664692
5.050000	-0.118143	-77.164287	-51.794947	102.666440	-51.794947	102.666440	-0.118550	-77.365052
5.100000	-0.119917	-77.860802	-51.562272	101.199687	-51.562272	101.199687	-0.120323	-78.065412
5.150000	-0.121737	-78.554563	-51.329765	99.733885	-51.329765	99.733885	-0.122144	-78.763192
5.200000	-0.123562	-79.248074	-51.102798	98.268169	-51.102798	98.268169	-0.123970	-79.460737
5.250000	-0.125432	-79.939105	-50.876599	96.803668	-50.876599	96.803668	-0.125842	-80.155972
5.300000	-0.127311	-80.629639	-50.655165	95.339409	-50.655165	95.339409	-0.127723	-80.850744
5.350000	-0.129231	-81.317963	-50.435022	93.876557	-50.435022	93.876557	-0.129648	-81.543472
5.400000	-0.131165	-82.005551	-50.218951	92.414172	-50.218951	92.414172	-0.131587	-82.235519
5.450000	-0.133137	-82.691196	-50.004624	90.953312	-50.004624	90.953312	-0.133565	-82.925782
5.500000	-0.135129	-83.375870	-49.793750	89.493214	-49.793750	89.493214	-0.135564	-83.615154
5.550000	-0.137155	-84.058866	-49.585011	88.034683	-49.585011	88.034683	-0.137598	-84.302997
5.600000	-0.139205	-84.740662	-49.379172	86.577272	-49.379172	86.577272	-0.139659	-84.989748
5.650000	-0.141286	-85.421039	-49.175800	85.121396	-49.175800	85.121396	-0.141752	-85.675218
5.700000	-0.143397	-86.099996	-48.974836	83.667055	-48.974836	83.667055	-0.143877	-86.359407
5.750000	-0.145534	-86.777787	-48.776622	82.214147	-48.776622	82.214147	-0.146030	-87.042555
5.800000	-0.147708	-87.453947	-48.580374	80.763243	-48.580374	80.763243	-0.148221	-87.724245
5.850000	-0.149904	-88.129188	-48.387116	79.313599	-48.387116	79.313599	-0.150436	-88.405124
5.900000	-0.152142	-88.802594	-48.195428	77.866472	-48.195428	77.866472	-0.152696	-89.084381
5.950000	-0.154397	-89.475323	-48.006930	76.420369	-48.006930	76.420369	-0.154974	-89.763048
6.000000	-0.156701	-90.146022	-47.819648	74.977333	-47.819648	74.977333	-0.157305	-90.439943
6.050000	-0.159017	-90.816278	-47.635724	73.535027	-47.635724	73.535027	-0.159649	-91.116457
6.100000	-0.161389	-91.484318	-47.452696	72.096367	-47.452696	72.096367	-0.162053	-91.791066
6.150000	-0.163768	-92.152141	-47.273164	70.658093	-47.273164	70.658093	-0.164464	-92.465490
6.200000	-0.166210	-92.817575	-47.094241	69.224060	-47.094241	69.224060	-0.166943	-93.137891
6.250000	-0.168652	-93.483009	-46.918929	67.790027	-46.918929	67.790027	-0.169423	-93.810291
6.300000	-0.171166	-94.145890	-46.743963	66.360842	-46.743963	66.360842	-0.171979	-94.480568
6.350000	-0.173680	-94.808771	-46.572453	64.931657	-46.572453	64.931657	-0.174535	-95.150845
6.400000	-0.176260	-95.469364	-46.401554	63.507089	-46.401554	63.507089	-0.177164	-95.819257
6.450000	-0.178848	-96.129748	-46.233712	62.082940	-46.233712	62.082940	-0.179800	-96.487498
6.500000	-0.181497	-96.788101	-46.066715	60.663121	-46.066715	60.663121	-0.182502	-97.154122
6.550000	-0.184160	-97.446048	-45.902411	59.244167	-45.902411	59.244167	-0.185219	-97.820422
6.600000	-0.186880	-98.102211	-45.739161	57.829209	-45.739161	57.829209	-0.187996	-98.485339
6.650000	-0.189619	-98.757780	-45.578269	56.415583	-45.578269	56.415583	-0.190795	-99.149796
6.700000	-0.192411	-99.411807	-45.418617	55.005581	-45.418617	55.005581	-0.193650	-99.813094
6.750000	-0.195229	-100.065061	-45.261018	53.597391	-45.261018	53.597391	-0.196533	-100.475812
6.800000	-0.198094	-100.717004	-45.104825	52.192427	-45.104825	52.192427	-0.199466	-101.137580
6.850000	-0.200992	-101.368009	-44.950406	50.789767	-44.950406	50.789767	-0.202435	-101.798670
6.900000	-0.203932	-102.017923	-44.797541	49.389915	-44.797541	49.389915	-0.205448	-102.459004
6.950000	-0.206912	-102.666746	-44.646195	47.992869	-44.646195	47.992869	-0.208504	-103.118583
7.000000	-0.209928	-103.314688	-44.496535	46.598198	-44.496535	46.598198	-0.211597	-103.777585
7.050000	-0.212992	-103.961398	-44.348163	45.206850	-44.348163	45.206850	-0.214742	-104.435778
7.100000	-0.216086	-104.607428	-44.201594	43.817434	-44.201594	43.817434	-0.217918	-105.093553
7.150000	-0.219236	-105.252096	-44.056105	42.431880	-44.056105	42.431880	-0.221154	-105.750493
7.200000	-0.222408	-105.896272	-43.912524	41.047803	-43.912524	41.047803	-0.224413	-106.407155
7.250000	-0.225645	-106.538971	-43.769834	39.668160	-43.769834	39.668160	-0.227741	-107.062985
7.300000	-0.228898	-107.181355	-43.629144	38.289528	-43.629144	38.289528	-0.231086	-107.718655
7.350000	-0.232224	-107.822161	-43.489180	36.915951	-43.489180	36.915951	-0.234508	-108.373527
7.400000	-0.235559	-108.462816	-43.351292	35.542897	-43.351292	35.542897	-0.237939	-109.028334
7.450000	-0.238975	-109.101807	-43.213990	34.175593	-43.213990	34.175593	-0.241457	-109.682415
7.500000	-0.242393	-109.740797	-43.078825	32.808290	-43.078825	32.808290	-0.244976	-110.336497
7.550000	-0.245902	-110.378051	-42.944127	31.447539	-42.944127	31.447539	-0.248592	-110.989967
7.600000	-0.249412	-111.015304	-42.811486	30.086788	-42.811486	30.086788	-0.252210	-111.643438
7.650000	-0.253006	-111.651040	-42.679470	28.732382	-42.679470	28.732382	-0.255919	-112.296529
7.700000	-0.256610	-112.286638	-42.549307	27.378552	-42.549307	27.378552	-0.259638	-112.949586
7.750000	-0.260292	-112.920926	-42.419912	26.030891	-42.419912	26.030891	-0.263442	-113.602478
7.800000	-0.263991	-113.554951	-42.292189	24.684464	-42.292189	24.684464	-0.267265	-114.255338
7.850000	-0.267762	-114.187862	-42.165359	23.344051	-42.165359	23.344051	-0.271167	-114.908230
7.900000	-0.271558	-114.820400	-42.040041	22.005643	-42.040041	22.005643	-0.275098	-115.561132
7.950000	-0.275419	-115.452005	-41.915727	20.673100	-41.915727	20.673100	-0.279103	-116.214241
8.000000	-0.279313	-116.083143	-41.792783	19.343490	-41.792783	19.343490	-0.283145	-116.867454
8.050000	-0.283264	-116.713516	-41.670936	18.019577	-41.670936	18.019577	-0.287257	-117.521022
8.100000	-0.287258	-117.343343	-41.550338	16.699734	-41.550338	16.699734	-0.291417	-118.174845
8.150000	-0.291302	-117.972560	-41.430910	15.385368	-41.430910	15.385368	-0.295640	-118.829142
8.200000	-0.295397	-118.601166	-41.312628	14.076481	-41.312628	14.076481	-0.299926	-119.483913
8.250000	-0.299534	-119.229303	-41.195571	12.772761	-41.195571	12.772761	-0.304266	-120.139239
8.300000	-0.303731	-119.856783	-41.079568	11.476274	-41.079568	11.476274	-0.308685	-120.795344
8.350000	-0.307958	-120.483973	-40.964872	10.183654	-40.964872	10.183654	-0.313143	-121.451926
8.400000	-0.312242	-121.110583	-40.851231	8.898766	-40.851231	8.898766	-0.317680	-122.109463
8.450000	-0.316591	-121.736584	-40.738587	7.623610	-40.738587	7.623610	-0.322311	-122.768322
8.500000	-0.320983	-122.362215	-40.627091	6.355305	-40.627091	6.355305	-0.327007	-123.428171
8.550000	-0.325418	-122.987486	-40.516720	5.094092	-40.516720	5.094092	-0.331770	-124.089067
8.600000	-0.329913	-123.612292	-40.407347	3.843224	-40.407347	3.843224	-0.336627	-124.751554
8.650000	-0.334462	-124.236700	-40.298974	2.602975	-40.298974	2.602975	-0.341579	-125.415754
8.700000	-0.339056	-124.860812	-40.191651	1.371605	-40.191651	1.371605	-0.346610	-126.081428
8.750000	-0.343694	-125.484639	-40.085353	0.149419	-40.085353	0.149419	-0.351720	-126.748650
8.800000	-0.348403	-126.108045	-39.979850	-1.056216	-39.979850	-1.056216	-0.356972	-127.418768
8.850000	-0.353157	-126.731222	-39.875290	-2.250705	-39.875290	-2.250705	-0.362318	-128.090906
8.900000	-0.357955	-127.354181	-39.771643	-3.433636	-39.771643	-3.433636	-0.367762	-128.765165
8.950000	-0.362811	-127.976886	-39.668769	-4.600936	-39.668769	-4.600936	-0.373337	-129.442348
9.000000	-0.367727	-128.599359	-39.566559	-5.749774	-39.566559	-5.749774	-0.379065	-130.123093
9.050000	-0.372689	-129.221683	-39.465100	-6.884067	-39.465100	-6.884067	-0.384917	-130.806706
9.100000	-0.377696	-129.843870	-39.364355	-8.003298	-39.364355	-8.003298	-0.390896	-131.493318
9.150000	-0.382773	-130.465886	-39.263958	-9.097103	-39.263958	-9.097103	-0.397090	-132.185126
9.200000	-0.387899	-131.087816	-39.164039	-10.171122	-39.164039	-10.171122	-0.403455	-132.881094
9.250000	-0.393072	-131.709680	-39.064599	-11.226155	-39.064599	-11.226155	-0.409986	-133.581108
9.300000	-0.398298	-132.331487	-38.965443	-12.257549	-38.965443	-12.257549	-0.416727	-134.286233
9.350000	-0.403591	-132.953269	-38.866182	-13.256848	-38.866182	-13.256848	-0.423758	-134.998501
9.400000	-0.408930	-133.575061	-38.767081	-14.232211	-38.767081	-14.232211	-0.431015	-135.716226
9.450000	-0.414316	-134.196873	-38.668083	-15.182759	-38.668083	-15.182759	-0.438510	-136.439670
9.500000	-0.419768	-134.818755	-38.568521	-16.094187	-38.568521	-16.094187	-0.446390	-137.172349
9.550000	-0.425275	-135.440732	-38.468483	-16.970478	-38.468483	-16.970478	-0.454634	-137.913580
9.600000	-0.430829	-136.062808	-38.368108	-17.815306	-38.368108	-17.815306	-0.463218	-138.662609
9.650000	-0.436434	-136.685008	-38.267166	-18.624238	-38.267166	-18.624238	-0.472197	-139.420655
9.700000	-0.442109	-137.307437	-38.164550	-19.376802	-38.164550	-19.376802	-0.481837	-140.193325
9.750000	-0.447832	-137.930045	-38.061032	-20.089230	-38.061032	-20.089230	-0.491981	-140.976734
9.800000	-0.453602	-138.552844	-37.956530	-20.759908	-37.956530	-20.759908	-0.502669	-141.771458
9.850000	-0.459434	-139.175940	-37.849950	-21.369120	-37.849950	-21.369120	-0.514195	-142.583247
9.900000	-0.465326	-139.799358	-37.741094	-21.914320	-37.741094	-21.914320	-0.526676	-143.413444
9.950000	-0.471265	-140.423051	-37.630536	-22.405412	-37.630536	-22.405412	-0.540021	-144.259581
10.000000	-0.477252	-141.047033	-37.518196	-22.840218	-37.518196	-22.840218	-0.554294	-145.122501
