! freq	dB(S11)	phase(S11)	dB(S12)	phase(S12)	
!     	dB(S21)	phase(S21)	dB(S22)	phase(S22)	
!S-par simulation data
#  GHz  S  DB  R 50
0.000000	-0.000000	0.000000	-381.761713	0.000000	-381.761713	0.000000	-0.000000	0.000000
0.050000	-0.000093	-0.840994	-108.686378	77.092507	-108.686378	77.092507	-0.000123	-1.003056
0.100000	-0.000370	-1.681786	-103.985299	70.156546	-103.985299	70.156546	-0.000487	-2.005812
0.150000	-0.000823	-2.522185	-101.670008	67.916175	-101.670008	67.916175	-0.001079	-3.007987
0.200000	-0.001437	-3.362025	-100.104330	67.804955	-100.104330	67.804955	-0.001875	-4.009346
0.250000	-0.002205	-4.201111	-98.890476	68.473280	-98.890476	68.473280	-0.002863	-5.009618
0.300000	-0.003096	-5.039388	-97.892420	69.293099	-97.892420	69.293099	-0.003997	-6.008742
0.350000	-0.004098	-5.876731	-97.065292	70.102122	-97.065292	70.102122	-0.005256	-7.006566
0.400000	-0.005190	-6.713071	-96.384260	70.854166	-96.384260	70.854166	-0.006613	-8.003017
0.450000	-0.006354	-7.548363	-95.834933	71.568345	-95.834933	71.568345	-0.008043	-8.998058
0.500000	-0.007573	-8.382582	-95.408353	72.291670	-95.408353	72.291670	-0.009523	-9.991679
0.550000	-0.008831	-9.215720	-95.099151	73.086341	-95.099151	73.086341	-0.011034	-10.983889
0.600000	-0.010113	-10.047784	-94.904737	74.028015	-94.904737	74.028015	-0.012560	-11.974710
0.650000	-0.011409	-10.878788	-94.824785	75.209927	-94.824785	75.209927	-0.014089	-12.964172
0.700000	-0.012709	-11.708753	-94.860682	76.751508	-94.860682	76.751508	-0.015612	-13.952305
0.750000	-0.014005	-12.537703	-95.014572	78.812013	-95.014572	78.812013	-0.017122	-14.939138
0.800000	-0.015292	-13.365662	-95.287320	81.610442	-95.287320	81.610442	-0.018615	-15.924696
0.850000	-0.016564	-14.192654	-95.674021	85.451965	-95.674021	85.451965	-0.020088	-16.909000
0.900000	-0.017820	-15.018698	-96.154364	90.753746	-96.154364	90.753746	-0.021539	-17.892063
0.950000	-0.019057	-15.843814	-96.673761	98.038029	-96.673761	98.038029	-0.022968	-18.873895
1.000000	-0.020275	-16.668014	-97.114211	107.803978	-97.114211	107.803978	-0.024375	-19.854498
1.050000	-0.021472	-17.491310	-97.275425	120.147506	-97.275425	120.147506	-0.025761	-20.833868
1.100000	-0.022650	-18.313706	-96.929988	134.192704	-96.929988	134.192704	-0.027128	-21.811997
1.150000	-0.023810	-19.135208	-95.983913	148.019065	-95.983913	148.019065	-0.028476	-22.788874
1.200000	-0.024951	-19.955812	-94.570770	159.774093	-94.570770	159.774093	-0.029808	-23.764483
1.250000	-0.026077	-20.775516	-92.926021	168.768270	-92.926021	168.768270	-0.031125	-24.738805
1.300000	-0.027186	-21.594274	-91.220243	175.190470	-91.220243	175.190470	-0.032427	-25.711760
1.350000	-0.028282	-22.412114	-89.566952	179.735725	-89.566952	179.735725	-0.033717	-26.683381
1.400000	-0.029365	-23.229025	-88.001906	-177.096737	-88.001906	-177.096737	-0.034997	-27.653642
1.450000	-0.030438	-24.044995	-86.533633	-174.933852	-86.533633	-174.933852	-0.036267	-28.622518
1.500000	-0.031502	-24.860008	-85.159014	-173.510323	-85.159014	-173.510323	-0.037529	-29.589981
1.550000	-0.032558	-25.674047	-83.870660	-172.639551	-83.870660	-172.639551	-0.038785	-30.556003
1.600000	-0.033607	-26.487097	-82.660147	-172.189488	-82.660147	-172.189488	-0.040034	-31.520558
1.650000	-0.034651	-27.299139	-81.519343	-172.065410	-81.519343	-172.065410	-0.041278	-32.483615
1.700000	-0.035691	-28.110153	-80.440889	-172.198226	-80.440889	-172.198226	-0.042519	-33.445148
1.750000	-0.036727	-28.920122	-79.418306	-172.536673	-79.418306	-172.536673	-0.043756	-34.405129
1.800000	-0.037762	-29.729026	-78.445962	-173.042064	-78.445962	-173.042064	-0.044990	-35.363530
1.850000	-0.038795	-30.536845	-77.518978	-173.684740	-77.518978	-173.684740	-0.046222	-36.320324
1.900000	-0.039828	-31.343559	-76.633130	-174.441623	-76.633130	-174.441623	-0.047454	-37.275484
1.950000	-0.040861	-32.149148	-75.784751	-175.294505	-75.784751	-175.294505	-0.048684	-38.228984
2.000000	-0.041895	-32.953593	-74.970646	-176.228843	-74.970646	-176.228843	-0.049915	-39.180800
2.050000	-0.042931	-33.756874	-74.188018	-177.232881	-74.188018	-177.232881	-0.051146	-40.130905
2.100000	-0.043969	-34.558972	-73.434411	-178.297019	-73.434411	-178.297019	-0.052378	-41.079276
2.150000	-0.045010	-35.359868	-72.707654	-179.413338	-72.707654	-179.413338	-0.053612	-42.025889
2.200000	-0.046055	-36.159542	-72.005823	179.424757	-72.005823	179.424757	-0.054847	-42.970722
2.250000	-0.047104	-36.957977	-71.327204	178.222797	-71.327204	178.222797	-0.056085	-43.913753
2.300000	-0.048157	-37.755154	-70.670262	176.985464	-70.670262	176.985464	-0.057326	-44.854961
2.350000	-0.049215	-38.551056	-70.033620	175.716745	-70.033620	175.716745	-0.058570	-45.794324
2.400000	-0.050278	-39.345665	-69.416035	174.420063	-69.416035	174.420063	-0.059818	-46.731825
2.450000	-0.051346	-40.138965	-68.816384	173.098369	-68.816384	173.098369	-0.061070	-47.667443
2.500000	-0.052420	-40.930939	-68.233645	171.754228	-68.233645	171.754228	-0.062327	-48.601161
2.550000	-0.053501	-41.721512	-67.665980	170.389090	-67.665980	170.389090	-0.063589	-49.532877
2.600000	-0.054588	-42.510726	-67.113541	169.005862	-67.113541	169.005862	-0.064856	-50.462659
2.650000	-0.055682	-43.298568	-66.575539	167.606247	-66.575539	167.606247	-0.066130	-51.390490
2.700000	-0.056783	-44.085021	-66.051249	166.191756	-66.051249	166.191756	-0.067410	-52.316356
2.750000	-0.057891	-44.870074	-65.540003	164.763738	-65.540003	164.763738	-0.068697	-53.240243
2.800000	-0.059007	-45.653712	-65.041184	163.323395	-65.041184	163.323395	-0.069991	-54.162138
2.850000	-0.060130	-46.435923	-64.554223	161.871808	-64.554223	161.871808	-0.071293	-55.082029
2.900000	-0.061261	-47.216694	-64.078589	160.409952	-64.078589	160.409952	-0.072604	-55.999905
2.950000	-0.062401	-47.996014	-63.613790	158.938706	-63.613790	158.938706	-0.073923	-56.915755
3.000000	-0.063549	-48.773871	-63.159369	157.458867	-63.159369	157.458867	-0.075251	-57.829570
3.050000	-0.064706	-49.550256	-62.714896	155.971161	-62.714896	155.971161	-0.076590	-58.741340
3.100000	-0.065872	-50.325157	-62.279972	154.476248	-62.279972	154.476248	-0.077938	-59.651057
3.150000	-0.067047	-51.098565	-61.854221	152.974734	-61.854221	152.974734	-0.079297	-60.558714
3.200000	-0.068231	-51.870472	-61.437293	151.467171	-61.437293	151.467171	-0.080667	-61.464305
3.250000	-0.069426	-52.640867	-61.028855	149.954069	-61.028855	149.954069	-0.082049	-62.367824
3.300000	-0.070630	-53.409744	-60.628598	148.435897	-60.628598	148.435897	-0.083443	-63.269265
3.350000	-0.071845	-54.177094	-60.236226	146.913086	-60.236226	146.913086	-0.084850	-64.168625
3.400000	-0.073070	-54.942911	-59.851464	145.386036	-59.851464	145.386036	-0.086270	-65.065900
3.450000	-0.074307	-55.707188	-59.474048	143.855118	-59.474048	143.855118	-0.087703	-65.961088
3.500000	-0.075554	-56.469918	-59.103731	142.320674	-59.103731	142.320674	-0.089151	-66.854187
3.550000	-0.076813	-57.231096	-58.740278	140.783024	-58.740278	140.783024	-0.090613	-67.745196
3.600000	-0.078084	-57.990716	-58.383466	139.242465	-58.383466	139.242465	-0.092091	-68.634114
3.650000	-0.079367	-58.748775	-58.033083	137.699273	-58.033083	137.699273	-0.093584	-69.520941
3.700000	-0.080662	-59.505267	-57.688927	136.153707	-57.688927	136.153707	-0.095093	-70.405681
3.750000	-0.081971	-60.260188	-57.350805	134.606008	-57.350805	134.606008	-0.096619	-71.288333
3.800000	-0.083293	-61.013468	-57.018240	133.056328	-57.018240	133.056328	-0.098163	-72.168810
3.850000	-0.084629	-61.765170	-56.691375	131.504970	-56.691375	131.504970	-0.099725	-73.047207
3.900000	-0.085979	-62.515293	-56.370042	129.952129	-56.370042	129.952129	-0.101305	-73.923528
3.950000	-0.087343	-63.263834	-56.054079	128.397990	-56.054079	128.397990	-0.102904	-74.797777
4.000000	-0.088722	-64.010792	-55.743335	126.842725	-55.743335	126.842725	-0.104522	-75.669961
4.050000	-0.090116	-64.756165	-55.437660	125.286496	-55.437660	125.286496	-0.106160	-76.540085
4.100000	-0.091526	-65.499953	-55.136916	123.729456	-55.136916	123.729456	-0.107819	-77.408157
4.150000	-0.092952	-66.242156	-54.840966	122.171748	-54.840966	122.171748	-0.109498	-78.274185
4.200000	-0.094395	-66.982772	-54.549682	120.613507	-54.549682	120.613507	-0.111198	-79.138177
4.250000	-0.095854	-67.721803	-54.262939	119.054858	-54.262939	119.054858	-0.112920	-80.000141
4.300000	-0.097331	-68.459250	-53.980618	117.495922	-53.980618	117.495922	-0.114665	-80.860089
4.350000	-0.098826	-69.195112	-53.702605	115.936811	-53.702605	115.936811	-0.116432	-81.718030
4.400000	-0.100339	-69.929393	-53.428788	114.377630	-53.428788	114.377630	-0.118222	-82.573975
4.450000	-0.101871	-70.662093	-53.159062	112.818477	-53.159062	112.818477	-0.120037	-83.427937
4.500000	-0.103422	-71.393216	-52.893326	111.259448	-52.893326	111.259448	-0.121875	-84.279927
4.550000	-0.104993	-72.122763	-52.631480	109.700629	-52.631480	109.700629	-0.123739	-85.129958
4.600000	-0.106584	-72.850737	-52.373429	108.142103	-52.373429	108.142103	-0.125627	-85.978045
4.650000	-0.108196	-73.577142	-52.119084	106.583949	-52.119084	106.583949	-0.127542	-86.824201
4.700000	-0.109829	-74.301982	-51.868355	105.026239	-51.868355	105.026239	-0.129482	-87.668441
4.750000	-0.111483	-75.025260	-51.621157	103.469041	-51.621157	103.469041	-0.131449	-88.510780
4.800000	-0.113161	-75.746980	-51.377409	101.912422	-51.377409	101.912422	-0.133444	-89.351236
4.850000	-0.114860	-76.467148	-51.137031	100.356441	-51.137031	100.356441	-0.135466	-90.189824
4.900000	-0.116583	-77.185769	-50.899947	98.801155	-50.899947	98.801155	-0.137516	-91.026561
4.950000	-0.118330	-77.902847	-50.666083	97.246619	-50.666083	97.246619	-0.139594	-91.861465
5.000000	-0.120101	-78.618388	-50.435368	95.692882	-50.435368	95.692882	-0.141702	-92.694555
5.050000	-0.121898	-79.332332	-50.207607	94.140030	-50.207607	94.140030	-0.143840	-93.525772
5.100000	-0.123720	-80.044753	-49.982867	92.588073	-49.982867	92.588073	-0.146009	-94.355215
5.150000	-0.125568	-80.755657	-49.761083	91.037053	-49.761083	91.037053	-0.148208	-95.182903
5.200000	-0.127442	-81.465051	-49.542191	89.487006	-49.542191	89.487006	-0.150437	-96.008858
5.250000	-0.129343	-82.172941	-49.326132	87.937971	-49.326132	87.937971	-0.152698	-96.833099
5.300000	-0.131272	-82.879337	-49.112846	86.389980	-49.112846	86.389980	-0.154991	-97.655650
5.350000	-0.133228	-83.584246	-48.902276	84.843066	-48.902276	84.843066	-0.157316	-98.476532
5.400000	-0.135212	-84.287676	-48.694367	83.297258	-48.694367	83.297258	-0.159674	-99.295767
5.450000	-0.137236	-84.989129	-48.488291	81.752992	-48.488291	81.752992	-0.162076	-100.112825
5.500000	-0.139275	-85.689818	-48.285848	80.209327	-48.285848	80.209327	-0.164497	-100.929044
5.550000	-0.141350	-86.388744	-48.085446	78.667117	-48.085446	78.667117	-0.166958	-101.743358
5.600000	-0.143451	-87.086411	-47.887768	77.125946	-47.887768	77.125946	-0.169449	-102.556309
5.650000	-0.145585	-87.782588	-47.692419	75.586070	-47.692419	75.586070	-0.171977	-103.367682
5.700000	-0.147751	-88.477276	-47.499341	74.047488	-47.499341	74.047488	-0.174541	-104.177475
5.750000	-0.149944	-89.170742	-47.308841	72.510021	-47.308841	72.510021	-0.177137	-104.985999
5.800000	-0.152176	-89.862498	-47.120208	70.974113	-47.120208	70.974113	-0.179776	-105.792746
5.850000	-0.154432	-90.553292	-46.934366	69.439122	-46.934366	69.439122	-0.182441	-106.598517
5.900000	-0.156732	-91.242165	-46.750031	67.905964	-46.750031	67.905964	-0.185157	-107.402336
5.950000	-0.159051	-91.930329	-46.568669	66.373509	-46.568669	66.373509	-0.187893	-108.205453
6.000000	-0.161422	-92.616371	-46.388494	64.843167	-46.388494	64.843167	-0.190687	-109.006464
6.050000	-0.163805	-93.301950	-46.211443	63.313305	-46.211443	63.313305	-0.193495	-109.807028
6.100000	-0.166248	-93.985216	-46.035298	61.785842	-46.035298	61.785842	-0.196370	-110.605357
6.150000	-0.168697	-94.668256	-45.862402	60.258623	-45.862402	60.258623	-0.199252	-111.403473
6.200000	-0.171214	-95.348806	-45.690163	58.734094	-45.690163	58.734094	-0.202208	-112.199248
6.250000	-0.173731	-96.029356	-45.521274	57.209566	-45.521274	57.209566	-0.205165	-112.995023
6.300000	-0.176322	-96.707252	-45.352826	55.688027	-45.352826	55.688027	-0.208204	-113.788376
6.350000	-0.178915	-97.385148	-45.187584	54.166488	-45.187584	54.166488	-0.211245	-114.581730
6.400000	-0.181577	-98.060671	-45.023039	52.647736	-45.023039	52.647736	-0.214363	-115.372988
6.450000	-0.184246	-98.735979	-44.861341	51.129238	-44.861341	51.129238	-0.217489	-116.164056
6.500000	-0.186980	-99.409188	-44.700568	49.613317	-44.700568	49.613317	-0.220686	-116.953335
6.550000	-0.189727	-100.081977	-44.542319	48.097911	-44.542319	48.097911	-0.223898	-117.742256
6.600000	-0.192533	-100.752932	-44.385193	46.584863	-44.385193	46.584863	-0.227176	-118.529675
6.650000	-0.195360	-101.423276	-44.230301	45.072600	-44.230301	45.072600	-0.230477	-119.316593
6.700000	-0.198240	-102.092040	-44.076707	43.562467	-44.076707	43.562467	-0.233837	-120.102273
6.750000	-0.201148	-102.760016	-43.925087	42.053400	-43.925087	42.053400	-0.237228	-120.887333
6.800000	-0.204103	-103.426657	-43.774914	40.546227	-43.774914	40.546227	-0.240672	-121.671398
6.850000	-0.207092	-104.092346	-43.626484	39.040408	-43.626484	39.040408	-0.244154	-122.454751
6.900000	-0.210123	-104.756934	-43.479629	37.536241	-43.479629	37.536241	-0.247682	-123.237326
6.950000	-0.213196	-105.420422	-43.334313	36.033726	-43.334313	36.033726	-0.251256	-124.019124
7.000000	-0.216303	-106.083030	-43.190678	34.532613	-43.190678	34.532613	-0.254870	-124.800339
7.050000	-0.219459	-106.744407	-43.048402	33.033461	-43.048402	33.033461	-0.258539	-125.580738
7.100000	-0.222644	-107.405113	-42.907895	31.535450	-42.907895	31.535450	-0.262240	-126.360724
7.150000	-0.225886	-108.064474	-42.768591	30.039721	-42.768591	30.039721	-0.266004	-127.139883
7.200000	-0.229149	-108.723357	-42.631124	28.544865	-42.631124	28.544865	-0.269793	-127.918772
7.250000	-0.232476	-109.380804	-42.494727	27.052625	-42.494727	27.052625	-0.273654	-128.696854
7.300000	-0.235819	-110.037949	-42.360216	25.560978	-42.360216	25.560978	-0.277533	-129.474783
7.350000	-0.239233	-110.693586	-42.226664	24.072294	-42.226664	24.072294	-0.281492	-130.251952
7.400000	-0.242655	-111.349081	-42.095032	22.583913	-42.095032	22.583913	-0.285460	-131.029060
7.450000	-0.246157	-112.003019	-41.964265	21.098857	-41.964265	21.098857	-0.289519	-131.805485
7.500000	-0.249660	-112.656958	-41.835437	19.613800	-41.835437	19.613800	-0.293579	-132.581911
7.550000	-0.253251	-113.309316	-41.707398	18.132447	-41.707398	18.132447	-0.297737	-133.357764
7.600000	-0.256842	-113.961673	-41.581219	16.651093	-41.581219	16.651093	-0.301898	-134.133618
7.650000	-0.260515	-114.612695	-41.455939	15.173205	-41.455939	15.173205	-0.306150	-134.909107
7.700000	-0.264197	-115.263595	-41.332358	13.695632	-41.332358	13.695632	-0.310412	-135.684564
7.750000	-0.267952	-115.913390	-41.209767	12.221276	-41.209767	12.221276	-0.314758	-136.459837
7.800000	-0.271725	-116.562963	-41.088736	10.747564	-41.088736	10.747564	-0.319122	-137.235074
7.850000	-0.275565	-117.211645	-40.968770	9.276812	-40.968770	9.276812	-0.323563	-138.010282
7.900000	-0.279429	-117.860029	-40.850241	7.807045	-40.850241	7.807045	-0.328031	-138.785481
7.950000	-0.283354	-118.507716	-40.732837	6.339967	-40.732837	6.339967	-0.332568	-139.560776
8.000000	-0.287311	-119.155056	-40.616766	4.874232	-40.616766	4.874232	-0.337141	-140.336120
8.050000	-0.291323	-119.801875	-40.501863	3.410900	-40.501863	3.410900	-0.341774	-141.111658
8.100000	-0.295374	-120.448324	-40.388205	1.949285	-40.388205	1.949285	-0.346452	-141.887335
8.150000	-0.299474	-121.094408	-40.275747	0.489775	-40.275747	0.489775	-0.351183	-142.663273
8.200000	-0.303621	-121.740126	-40.164461	-0.967630	-40.164461	-0.967630	-0.355966	-143.439473
8.250000	-0.307810	-122.385613	-40.054392	-2.423244	-40.054392	-2.423244	-0.360795	-144.215971
8.300000	-0.312056	-123.030773	-39.945436	-3.876349	-39.945436	-3.876349	-0.365685	-144.992887
8.350000	-0.316336	-123.675807	-39.837702	-5.327990	-39.837702	-5.327990	-0.370612	-145.770108
8.400000	-0.320682	-124.320589	-39.731037	-6.776704	-39.731037	-6.776704	-0.375609	-146.547937
8.450000	-0.325055	-124.965324	-39.625588	-8.224297	-39.625588	-8.224297	-0.380635	-147.326045
8.500000	-0.329504	-125.609919	-39.521174	-9.668528	-39.521174	-9.668528	-0.385740	-148.104987
8.550000	-0.333973	-126.254516	-39.417961	-11.111997	-39.417961	-11.111997	-0.390865	-148.884148
8.600000	-0.338528	-126.899125	-39.315760	-12.551655	-39.315760	-12.551655	-0.396078	-149.664406
8.650000	-0.343095	-127.543752	-39.214734	-13.990925	-39.214734	-13.990925	-0.401302	-150.444791
8.700000	-0.347760	-128.188589	-39.114710	-15.425921	-39.114710	-15.425921	-0.406623	-151.226572
8.750000	-0.352428	-128.833426	-39.015825	-16.860917	-39.015825	-16.860917	-0.411947	-152.008352
8.800000	-0.357208	-129.478716	-38.917942	-18.291164	-38.917942	-18.291164	-0.417376	-152.791864
8.850000	-0.361990	-130.124007	-38.821149	-19.721410	-38.821149	-19.721410	-0.422808	-153.575377
8.900000	-0.366880	-130.769932	-38.725374	-21.147226	-38.725374	-21.147226	-0.428337	-154.360672
8.950000	-0.371783	-131.415915	-38.630639	-22.572639	-38.630639	-22.572639	-0.433878	-155.146129
9.000000	-0.376788	-132.062687	-38.536929	-23.993955	-38.536929	-23.993955	-0.439506	-155.933387
9.050000	-0.381816	-132.709616	-38.444219	-25.414452	-38.444219	-25.414452	-0.445154	-156.721005
9.100000	-0.386942	-133.357456	-38.352531	-26.831204	-38.352531	-26.831204	-0.450882	-157.510409
9.150000	-0.392103	-134.005600	-38.261813	-28.246707	-38.261813	-28.246707	-0.456638	-158.300408
9.200000	-0.397357	-134.654743	-38.172104	-29.658831	-38.172104	-29.658831	-0.462465	-159.092142
9.250000	-0.402659	-135.304386	-38.083348	-31.069266	-38.083348	-31.069266	-0.468328	-159.884745
9.300000	-0.408048	-135.955079	-37.995578	-32.476704	-37.995578	-32.476704	-0.474253	-160.678998
9.350000	-0.413501	-136.606522	-37.908750	-33.882001	-37.908750	-33.882001	-0.480224	-161.474431
9.400000	-0.419035	-137.259026	-37.822881	-35.284697	-37.822881	-35.284697	-0.486246	-162.271394
9.450000	-0.424650	-137.912590	-37.737951	-36.684792	-37.737951	-36.684792	-0.492322	-163.069887
9.500000	-0.430339	-138.567179	-37.653945	-38.082693	-37.653945	-38.082693	-0.498442	-163.869751
9.550000	-0.436129	-139.223202	-37.570883	-39.477525	-37.570883	-39.477525	-0.504622	-164.671537
9.600000	-0.441984	-139.880166	-37.488702	-40.870585	-37.488702	-40.870585	-0.510838	-165.474500
9.650000	-0.447964	-140.539009	-37.407479	-42.260101	-37.407479	-42.260101	-0.517121	-166.279815
9.700000	-0.453998	-141.198653	-37.327089	-43.648276	-37.327089	-43.648276	-0.523432	-167.086074
9.750000	-0.460186	-141.860699	-37.247675	-45.032427	-37.247675	-45.032427	-0.529817	-167.895159
9.800000	-0.466415	-142.523345	-37.169041	-46.415676	-37.169041	-46.415676	-0.536222	-168.704914
9.850000	-0.472830	-143.188999	-37.091409	-47.794420	-37.091409	-47.794420	-0.542706	-169.518013
9.900000	-0.479270	-143.854988	-37.014498	-49.172710	-37.014498	-49.172710	-0.549203	-170.331467
9.950000	-0.485936	-144.524680	-36.938620	-50.546010	-36.938620	-50.546010	-0.555786	-171.148826
10.000000	-0.492606	-145.194371	-36.863400	-51.919310	-36.863400	-51.919310	-0.562373	-171.966185
