! freq	dB(S11)	phase(S11)	dB(S12)	phase(S12)	
!     	dB(S21)	phase(S21)	dB(S22)	phase(S22)	
!S-par simulation data
#  GHz  S  DB  R 50
0.000000	-87.935091	0.000000	-0.000348	0.000000	-0.000348	0.000000	-87.935091	0.000000
0.050000	-29.386627	-93.576505	-0.007887	-3.476466	-0.007887	-3.476466	-29.386373	-93.576713
0.100000	-23.400067	-97.217239	-0.029030	-6.936902	-0.029030	-6.936902	-23.399942	-97.217264
0.150000	-19.930265	-100.774258	-0.061093	-10.370290	-0.061093	-10.370290	-19.930274	-100.773672
0.200000	-17.498232	-104.257697	-0.102101	-13.771249	-0.102101	-13.771249	-17.498336	-104.256300
0.250000	-15.637986	-107.675881	-0.150823	-17.138545	-0.150823	-17.138545	-15.638136	-107.673734
0.300000	-14.142302	-111.035971	-0.206752	-20.470648	-0.206752	-20.470648	-14.142461	-111.033272
0.350000	-12.900701	-114.343424	-0.269523	-23.765416	-0.269523	-23.765416	-12.900846	-114.340405
0.400000	-11.846782	-117.601982	-0.338663	-27.020793	-0.338663	-27.020793	-11.846902	-117.598836
0.450000	-10.938495	-120.812135	-0.413775	-30.233496	-0.413775	-30.233496	-10.938586	-120.809004
0.500000	-10.146202	-123.974528	-0.494231	-33.401571	-0.494231	-33.401571	-10.146265	-123.971500
0.550000	-9.448999	-127.088526	-0.579424	-36.522819	-0.579424	-36.522819	-9.449036	-127.085646
0.600000	-8.831453	-130.153046	-0.668714	-39.595190	-0.668714	-39.595190	-8.831467	-130.150328
0.650000	-8.281123	-133.168153	-0.761384	-42.618169	-0.761384	-42.618169	-8.281119	-133.165589
0.700000	-7.788868	-136.132822	-0.856776	-45.590404	-0.856776	-45.590404	-7.788849	-136.130389
0.750000	-7.346781	-139.047448	-0.954195	-48.512124	-0.954195	-48.512124	-7.346751	-139.045116
0.800000	-6.948551	-141.912396	-1.052988	-51.383623	-1.052988	-51.383623	-6.948512	-141.910132
0.850000	-6.589226	-144.727660	-1.152518	-54.204877	-1.152518	-54.204877	-6.589180	-144.725427
0.900000	-6.264029	-147.494999	-1.252198	-56.977681	-1.252198	-56.977681	-6.263979	-147.492762
0.950000	-5.969424	-150.215126	-1.351458	-59.702792	-1.351458	-59.702792	-5.969371	-150.212853
1.000000	-5.702292	-152.889218	-1.449755	-62.381445	-1.449755	-62.381445	-5.702238	-152.886877
1.050000	-5.460061	-155.518340	-1.546554	-65.014773	-1.546554	-65.014773	-5.460006	-155.515902
1.100000	-5.239538	-158.106343	-1.641547	-67.606714	-1.641547	-67.606714	-5.239483	-158.103782
1.150000	-5.039099	-160.653909	-1.734257	-70.158016	-1.734257	-70.158016	-5.039044	-160.651203
1.200000	-4.856915	-163.163015	-1.824310	-72.670730	-1.824310	-72.670730	-4.856860	-163.160142
1.250000	-4.691382	-165.635711	-1.911367	-75.146979	-1.911367	-75.146979	-4.691327	-165.632653
1.300000	-4.541339	-168.073400	-1.995028	-77.588245	-1.995028	-77.588245	-4.541284	-168.070142
1.350000	-4.405262	-170.479011	-2.075106	-79.997529	-2.075106	-79.997529	-4.405206	-170.475537
1.400000	-4.282056	-172.854696	-2.151357	-82.377055	-2.151357	-82.377055	-4.281999	-172.850994
1.450000	-4.170756	-175.202611	-2.223563	-84.729050	-2.223563	-84.729050	-4.170698	-175.198670
1.500000	-4.070512	-177.524906	-2.291532	-87.055736	-2.291532	-87.055736	-4.070452	-177.520717
1.550000	-3.980572	-179.823722	-2.355093	-89.359322	-2.355093	-89.359322	-3.980510	-179.819275
1.600000	-3.900276	177.898822	-2.414099	-91.641998	-2.414099	-91.641998	-3.900211	177.903534
1.650000	-3.829046	175.640628	-2.468418	-93.905931	-2.468418	-93.905931	-3.828978	175.645611
1.700000	-3.766376	173.399620	-2.517938	-96.153264	-2.517938	-96.153264	-3.766304	173.404882
1.750000	-3.711826	171.173751	-2.562564	-98.386116	-2.562564	-98.386116	-3.711749	171.179298
1.800000	-3.665017	168.961000	-2.602214	-100.606578	-2.602214	-100.606578	-3.664936	168.966837
1.850000	-3.625628	166.759369	-2.636821	-102.816716	-2.636821	-102.816716	-3.625542	166.765503
1.900000	-3.593463	164.566967	-2.666273	-105.018506	-2.666273	-105.018506	-3.593371	164.573402
1.950000	-3.568295	162.381778	-2.690528	-107.214034	-2.690528	-107.214034	-3.568198	162.388522
2.000000	-3.549875	160.201779	-2.709612	-109.405391	-2.709612	-109.405391	-3.549772	160.208839
2.050000	-3.538075	158.025064	-2.723506	-111.594557	-2.723506	-111.594557	-3.537966	158.032447
2.100000	-3.532806	155.849744	-2.732198	-113.783501	-2.732198	-113.783501	-3.532691	155.857458
2.150000	-3.534023	153.673942	-2.735691	-115.974177	-2.735691	-115.974177	-3.533902	153.681996
2.200000	-3.541720	151.495795	-2.733993	-118.168535	-2.733993	-118.168535	-3.541593	151.504200
2.250000	-3.555932	149.313448	-2.727125	-120.368515	-2.727125	-120.368515	-3.555798	149.322215
2.300000	-3.576734	147.125053	-2.715117	-122.576058	-2.715117	-122.576058	-3.576594	147.134194
2.350000	-3.604242	144.928766	-2.698008	-124.793105	-2.698008	-124.793105	-3.604095	144.938297
2.400000	-3.638615	142.722749	-2.675850	-127.021599	-2.675850	-127.021599	-3.638462	142.732684
2.450000	-3.680055	140.505162	-2.648703	-129.263488	-2.648703	-129.263488	-3.679896	140.515520
2.500000	-3.728812	138.274168	-2.616640	-131.520729	-2.616640	-131.520729	-3.728648	138.284971
2.550000	-3.785349	136.027559	-2.579640	-133.795709	-2.579640	-133.795709	-3.785179	136.038829
2.600000	-3.849864	133.763793	-2.537911	-136.090068	-2.537911	-136.090068	-3.849688	133.775555
2.650000	-3.922767	131.481039	-2.491564	-138.405794	-2.491564	-138.405794	-3.922585	131.493323
2.700000	-4.004528	129.177477	-2.440728	-140.744879	-2.440728	-140.744879	-4.004340	129.190315
2.750000	-4.095684	126.851297	-2.385546	-143.109325	-2.385546	-143.109325	-4.095491	126.864725
2.800000	-4.196848	124.500708	-2.326181	-145.501138	-2.326181	-145.501138	-4.196649	124.514767
2.850000	-4.308709	122.123945	-2.262813	-147.922325	-2.262813	-147.922325	-4.308505	122.138681
2.900000	-4.432051	119.719281	-2.195642	-150.374889	-2.195642	-150.374889	-4.431840	119.734744
2.950000	-4.567754	117.285039	-2.124892	-152.860819	-2.124892	-152.860819	-4.567537	117.301286
3.000000	-4.716815	114.819609	-2.050809	-155.382085	-2.050809	-155.382085	-4.716590	114.836706
3.050000	-4.880354	112.321472	-1.973664	-157.940623	-1.973664	-157.940623	-4.880122	112.339490
3.100000	-5.059639	109.789220	-1.893756	-160.538324	-1.893756	-160.538324	-5.059398	109.808240
3.150000	-5.256252	107.221193	-1.811380	-163.177482	-1.811380	-163.177482	-5.256001	107.241309
3.200000	-5.471842	104.616281	-1.726903	-165.859901	-1.726903	-165.859901	-5.471580	104.637601
3.250000	-5.708110	101.974038	-1.640750	-168.586772	-1.640750	-168.586772	-5.707834	101.996682
3.300000	-5.967154	99.293919	-1.553339	-171.359600	-1.553339	-171.359600	-5.966863	99.318026
3.350000	-6.251373	96.575742	-1.465125	-174.179736	-1.465125	-174.179736	-6.251064	96.601473
3.400000	-6.563524	93.819770	-1.376591	-177.048337	-1.376591	-177.048337	-6.563193	93.847311
3.450000	-6.906792	91.026821	-1.288251	-179.966342	-1.288251	-179.966342	-6.906435	91.056392
3.500000	-7.284886	88.198408	-1.200650	177.065569	-1.200650	177.065569	-7.284497	88.230267
3.550000	-7.702159	85.336914	-1.114360	174.047011	-1.114360	174.047011	-7.701732	85.371371
3.600000	-8.163777	82.445838	-1.029974	170.977930	-1.029974	170.977930	-8.163302	82.483266
3.650000	-8.675940	79.530123	-0.948105	167.858638	-0.948105	167.858638	-8.675406	79.570978
3.700000	-9.246200	76.596630	-0.869381	164.689854	-0.869381	164.689854	-9.245591	76.641480
3.750000	-9.883908	73.654841	-0.794434	161.472726	-0.794434	161.472726	-9.883205	73.704402
3.800000	-10.601479	70.718480	-0.723995	158.207895	-0.723995	158.207895	-10.600652	70.773703
3.850000	-11.413637	67.806927	-0.658615	154.898535	-0.658615	154.898535	-11.412646	67.869050
3.900000	-12.340724	64.948300	-0.598893	151.547252	-0.598893	151.547252	-12.339508	65.019012
3.950000	-13.410761	62.185590	-0.545394	148.157135	-0.545394	148.157135	-13.409224	62.267280
4.000000	-14.664018	59.588437	-0.498637	144.731738	-0.498637	144.731738	-14.661999	59.684638
4.050000	-16.161515	57.278695	-0.459090	141.275055	-0.459090	141.275055	-16.158723	57.394942
4.100000	-18.002274	55.493123	-0.427153	137.791471	-0.427153	137.791471	-17.998114	55.638773
4.150000	-20.362310	54.765209	-0.403152	134.285711	-0.403152	134.285711	-20.355354	54.957779
4.200000	-23.594659	56.602947	-0.387330	130.762768	-0.387330	130.762768	-23.580485	56.879722
4.250000	-28.476411	67.238043	-0.379840	127.227827	-0.379840	127.227827	-28.434229	67.670214
4.300000	-34.244230	117.463196	-0.380744	123.686176	-0.380744	123.686176	-34.097325	117.538514
4.350000	-29.221398	176.725419	-0.390006	120.143123	-0.390006	120.143123	-29.177004	176.234741
4.400000	-24.085024	-171.336934	-0.407561	116.603973	-0.407561	116.603973	-24.072200	-171.644378
4.450000	-20.751235	-169.177662	-0.433180	113.073915	-0.433180	113.073915	-20.745646	-169.393113
4.500000	-18.349644	-169.775076	-0.466483	109.557715	-0.466483	109.557715	-18.346643	-169.940282
4.550000	-16.493851	-171.500578	-0.507080	106.059853	-0.507080	106.059853	-16.492032	-171.634669
4.600000	-14.995799	-173.790497	-0.554660	102.585054	-0.554660	102.585054	-14.994604	-173.903677
4.650000	-13.748963	-176.376698	-0.608421	99.135953	-0.608421	99.135953	-13.748136	-176.474671
4.700000	-12.689881	-179.141992	-0.667923	95.716153	-0.667923	95.716153	-12.689284	-179.228487
4.750000	-11.776521	177.985921	-0.732561	92.328348	-0.732561	92.328348	-11.776077	177.908406
4.800000	-10.979794	175.051053	-0.801706	88.974737	-0.801706	88.974737	-10.979455	174.980765
4.850000	-10.278687	172.081726	-0.874710	85.657026	-0.874710	85.657026	-10.278424	172.017392
4.900000	-9.657491	169.096908	-0.950921	82.376440	-0.950921	82.376440	-9.657282	169.037577
4.950000	-9.104119	166.109651	-1.029688	79.133745	-1.029688	79.133745	-9.103950	166.054594
5.000000	-8.609053	163.129064	-1.110368	75.929277	-1.110368	75.929277	-8.608915	163.077713
5.050000	-8.165085	160.161847	-1.192331	72.763655	-1.192331	72.763655	-8.164970	160.113747
5.100000	-7.765492	157.212185	-1.274949	69.635736	-1.274949	69.635736	-7.765394	157.166977
5.150000	-7.405113	154.282965	-1.357644	66.544744	-1.357644	66.544744	-7.405029	154.240357
5.200000	-7.079631	151.375983	-1.439858	63.489609	-1.439858	63.489609	-7.079557	151.335739
5.250000	-6.785395	148.492195	-1.521067	60.469005	-1.521067	60.469005	-6.785329	148.454117
5.300000	-6.519122	145.631659	-1.600799	57.481065	-1.600799	57.481065	-6.519061	145.595585
5.350000	-6.278909	142.795115	-1.678466	54.525336	-1.678466	54.525336	-6.278851	142.760909
5.400000	-6.061598	139.980770	-1.753760	51.598384	-1.753760	51.598384	-6.061541	139.948321
5.450000	-5.865257	137.187649	-1.826287	48.698213	-1.826287	48.698213	-5.865201	137.156866
5.500000	-5.688888	134.415371	-1.895492	45.823743	-1.895492	45.823743	-5.688831	134.386177
5.550000	-5.530495	131.661703	-1.961137	42.971772	-1.961137	42.971772	-5.530435	131.634037
5.600000	-5.388655	128.924743	-2.022948	40.139659	-2.022948	40.139659	-5.388592	128.898557
5.650000	-5.262685	126.203058	-2.080484	37.325412	-2.080484	37.325412	-5.262618	126.178315
5.700000	-5.151648	123.494545	-2.133446	34.526314	-2.133446	34.526314	-5.151577	123.471217
5.750000	-5.054403	120.796699	-2.181705	31.739255	-2.181705	31.739255	-5.054325	120.774770
5.800000	-4.970473	118.107416	-2.224950	28.961618	-2.224950	28.961618	-4.970389	118.086878
5.850000	-4.899750	115.424477	-2.262757	26.190659	-2.262757	26.190659	-4.899659	115.405330
5.900000	-4.841300	112.745117	-2.295149	23.423069	-2.295149	23.423069	-4.841201	112.727372
5.950000	-4.794861	110.066857	-2.321925	20.655853	-2.321925	20.655853	-4.794753	110.050532
6.000000	-4.760912	107.386905	-2.342568	17.885581	-2.342568	17.885581	-4.760796	107.372032
6.050000	-4.738855	104.702508	-2.357181	15.108958	-2.357181	15.108958	-4.738730	104.689124
6.100000	-4.728728	102.010878	-2.365622	12.322581	-2.365622	12.322581	-4.728593	101.999033
6.150000	-4.731205	99.308627	-2.367499	9.522239	-2.367499	9.522239	-4.731059	99.298385
6.200000	-4.746479	96.592666	-2.362755	6.704081	-2.362755	6.704081	-4.746322	96.584104
6.250000	-4.774798	93.860050	-2.351398	3.864374	-2.351398	3.864374	-4.774629	93.853260
6.300000	-4.817121	91.107013	-2.333177	0.998236	-2.333177	0.998236	-4.816939	91.102106
6.350000	-4.874632	88.329440	-2.307862	-1.899788	-2.307862	-1.899788	-4.874437	88.326550
6.400000	-4.947909	85.524524	-2.275642	-4.833609	-2.275642	-4.833609	-4.947698	85.523805
6.450000	-5.038358	82.688444	-2.236449	-7.808653	-2.236449	-7.808653	-5.038130	82.690081
6.500000	-5.148646	79.815342	-2.189894	-10.833392	-2.189894	-10.833392	-5.148398	79.819565
6.550000	-5.279922	76.903070	-2.136404	-13.911713	-2.136404	-13.911713	-5.279651	76.910140
6.600000	-5.434700	73.947738	-2.076064	-17.050313	-2.076064	-17.050313	-5.434401	73.957968
6.650000	-5.617192	70.943328	-2.008709	-20.259782	-2.008709	-20.259782	-5.616857	70.957112
6.700000	-5.830086	67.888632	-1.934935	-23.544792	-1.934935	-23.544792	-5.829708	67.906426
6.750000	-6.079369	64.778484	-1.854806	-26.917608	-1.854806	-26.917608	-6.078933	64.800872
6.800000	-6.370580	61.611985	-1.768946	-30.386412	-1.768946	-30.386412	-6.370070	61.639676
6.850000	-6.711338	58.389084	-1.678010	-33.961626	-1.678010	-33.961626	-6.710726	58.422971
6.900000	-7.111336	55.112777	-1.582857	-37.654398	-1.582857	-37.654398	-7.110586	55.153998
6.950000	-7.583091	51.791054	-1.484596	-41.476538	-1.484596	-41.476538	-7.582149	51.841085
7.000000	-8.143059	48.440159	-1.384641	-45.440395	-1.384641	-45.440395	-8.141842	48.500960
7.050000	-8.813348	45.090254	-1.284763	-49.558637	-1.284763	-49.558637	-8.811727	45.164495
7.100000	-9.624942	41.796511	-1.187177	-53.844783	-1.187177	-53.844783	-9.622707	41.887978
7.150000	-10.622280	38.662335	-1.094647	-58.312067	-1.094647	-58.312067	-10.619065	38.776643
7.200000	-11.870066	35.881248	-1.010411	-62.969751	-1.010411	-62.969751	-11.865181	36.027033
7.250000	-13.470106	33.833861	-0.938111	-67.824231	-0.938111	-67.824231	-13.462123	34.025037
7.300000	-15.599578	33.474589	-0.882590	-72.886925	-0.882590	-72.886925	-15.584949	33.736093
7.350000	-18.552480	37.264581	-0.848352	-78.153378	-0.848352	-78.153378	-18.520577	37.636219
7.400000	-22.564860	54.097943	-0.841195	-83.622097	-0.841195	-83.622097	-22.477550	54.544911
7.450000	-24.438735	100.143396	-0.866458	-89.278785	-0.866458	-89.278785	-24.296082	99.916766
7.500000	-20.328389	134.207549	-0.929603	-95.102805	-0.929603	-95.102805	-20.269421	133.681714
7.550000	-16.271531	143.233151	-1.036170	-101.066538	-1.036170	-101.066538	-16.247470	142.826554
7.600000	-13.280261	143.938726	-1.190375	-107.131843	-1.190375	-107.131843	-13.267945	143.622805
7.650000	-11.006847	141.557224	-1.395403	-113.254495	-1.395403	-113.254495	-10.999513	141.299005
7.700000	-9.214944	137.789091	-1.651940	-119.386479	-1.651940	-119.386479	-9.210120	137.569663
7.750000	-7.768996	133.296226	-1.961418	-125.477979	-1.961418	-125.477979	-7.765570	133.104009
7.800000	-6.583051	128.449700	-2.320709	-131.484329	-2.320709	-131.484329	-6.580471	128.277691
7.850000	-5.603176	123.440870	-2.727861	-137.360476	-2.727861	-137.360476	-5.601130	123.284246
7.900000	-4.787422	118.398952	-3.178006	-143.075896	-3.178006	-143.075896	-4.785728	118.254450
7.950000	-4.107048	113.405764	-3.666752	-148.601210	-3.666752	-148.601210	-4.105593	113.270979
8.000000	-3.537471	108.514254	-4.188940	-153.921399	-4.188940	-153.921399	-3.536185	108.387423
8.050000	-3.059972	103.758924	-4.739657	-159.025750	-4.739657	-159.025750	-3.058810	103.638704
8.100000	-2.659027	99.159933	-5.314273	-163.910906	-5.314273	-163.910906	-2.657960	99.045290
8.150000	-2.321307	94.725386	-5.908882	-168.581292	-5.908882	-168.581292	-2.320317	94.615518
8.200000	-2.036890	90.460442	-6.519618	-173.039707	-6.519618	-173.039707	-2.035964	90.354712
8.250000	-1.796036	86.358490	-7.144337	-177.300072	-7.144337	-177.300072	-1.795169	86.256404
8.300000	-1.592482	82.418678	-7.779791	178.633079	-7.779791	178.633079	-1.591669	82.319829
8.350000	-1.419176	78.627626	-8.425602	174.741894	-8.425602	174.741894	-1.418414	78.531702
8.400000	-1.271968	74.981250	-9.079363	171.020704	-9.079363	171.020704	-1.271255	74.887991
8.450000	-1.146075	71.465797	-9.741692	167.453322	-9.741692	167.453322	-1.145410	71.375000
8.500000	-1.038684	68.076109	-10.410881	164.034357	-10.410881	164.034357	-1.038066	67.987606
8.550000	-0.946281	64.797492	-11.089156	160.747640	-11.089156	160.747640	-0.945709	64.711154
8.600000	-0.867168	61.626561	-11.774832	157.590998	-11.774832	157.590998	-0.866641	61.542276
8.650000	-0.798790	58.549553	-12.471278	154.550104	-12.471278	154.550104	-0.798307	58.467237
8.700000	-0.739639	55.559335	-13.179791	151.618870	-13.179791	151.618870	-0.739198	55.478917
8.750000	-0.688875	52.654246	-13.898948	148.799040	-13.898948	148.799040	-0.688474	52.575662
8.800000	-0.644980	49.823886	-14.632792	146.081717	-14.632792	146.081717	-0.644617	49.747086
8.850000	-0.606896	47.060816	-15.384885	143.461926	-15.384885	143.461926	-0.606570	46.985755
8.900000	-0.573904	44.360323	-16.157914	140.939090	-16.157914	140.939090	-0.573612	44.286960
8.950000	-0.545659	41.722001	-16.951646	138.521879	-16.951646	138.521879	-0.545399	41.650293
9.000000	-0.521209	39.136265	-17.774357	136.204775	-17.774357	136.204775	-0.520979	39.066171
9.050000	-0.500113	36.599381	-18.631168	133.993069	-18.631168	133.993069	-0.499910	36.530858
9.100000	-0.482079	34.109419	-19.526625	131.899584	-19.526625	131.899584	-0.481900	34.042416
9.150000	-0.466793	31.663726	-20.467343	129.942318	-20.467343	129.942318	-0.466637	31.598185
9.200000	-0.453817	29.256913	-21.465808	128.135081	-21.465808	128.135081	-0.453680	29.192772
9.250000	-0.442917	26.886446	-22.534461	126.507038	-22.534461	126.507038	-0.442797	26.823631
9.300000	-0.433998	24.552068	-23.685726	125.120066	-23.685726	125.120066	-0.433892	24.490489
9.350000	-0.426792	22.250075	-24.942919	124.044563	-24.942919	124.044563	-0.426699	22.189632
9.400000	-0.421103	19.977649	-26.336977	123.387966	-26.336977	123.387966	-0.421020	19.918227
9.450000	-0.416807	17.733127	-27.909282	123.334685	-27.909282	123.334685	-0.416733	17.674597
9.500000	-0.413892	15.517034	-29.710113	124.342232	-29.710113	124.342232	-0.413826	15.459234
9.550000	-0.412140	13.325417	-31.829108	127.078582	-31.829108	127.078582	-0.412080	13.268179
9.600000	-0.411469	11.156972	-34.372045	133.034241	-34.372045	133.034241	-0.411417	11.100105
9.650000	-0.411841	9.011179	-37.348692	145.819706	-37.348692	145.819706	-0.411795	8.954463
9.700000	-0.413210	6.887342	-39.836028	172.345428	-39.836028	172.345428	-0.413171	6.830523
9.750000	-0.415463	4.783147	-39.617909	-153.823165	-39.617909	-153.823165	-0.415434	4.725957
9.800000	-0.418556	2.697681	-37.142771	-130.544870	-37.142771	-130.544870	-0.418538	2.639827
9.850000	-0.422496	0.631172	-34.532996	-119.699844	-34.532996	-119.699844	-0.422492	0.572307
9.900000	-0.427217	-1.417847	-32.383771	-114.561328	-32.383771	-114.561328	-0.427231	-1.478093
9.950000	-0.432667	-3.450610	-30.633232	-112.152158	-30.633232	-112.152158	-0.432703	-3.512629
10.000000	-0.438820	-5.467759	-29.179559	-111.224745	-29.179559	-111.224745	-0.438885	-5.531977
