! freq	dB(S11)	phase(S11)	dB(S12)	phase(S12)	
!     	dB(S21)	phase(S21)	dB(S22)	phase(S22)	
!S-par simulation data
#  GHz  S  DB  R 50
0.000000	-0.000000	0.000000	-356.193824	180.000000	-356.193824	180.000000	0.000000	0.000000
0.050000	-0.000101	-0.763307	-117.930789	89.154311	-117.930789	89.154311	-0.000101	-0.763337
0.100000	-0.000400	-1.526362	-111.981157	88.383215	-111.981157	88.383215	-0.000399	-1.526424
0.150000	-0.000888	-2.288914	-108.570663	87.702812	-108.570663	87.702812	-0.000886	-2.289010
0.200000	-0.001533	-3.050820	-106.211948	87.094399	-106.211948	87.094399	-0.001530	-3.050952
0.250000	-0.002318	-3.811915	-104.447749	86.554267	-104.447749	86.554267	-0.002314	-3.812085
0.300000	-0.003227	-4.572002	-103.084839	86.096102	-103.084839	86.096102	-0.003222	-4.572213
0.350000	-0.004217	-5.331182	-101.998047	85.722212	-101.998047	85.722212	-0.004211	-5.331435
0.400000	-0.005277	-6.089289	-101.140899	85.469297	-101.140899	85.469297	-0.005271	-6.089586
0.450000	-0.006381	-6.846421	-100.464870	85.358277	-100.464870	85.358277	-0.006374	-6.846762
0.500000	-0.007513	-7.602557	-99.950232	85.434825	-99.950232	85.434825	-0.007507	-7.602943
0.550000	-0.008660	-8.357743	-99.580557	85.751070	-99.580557	85.751070	-0.008654	-8.358173
0.600000	-0.009810	-9.112022	-99.346300	86.377887	-99.346300	86.377887	-0.009805	-9.112494
0.650000	-0.010957	-9.865435	-99.241967	87.411441	-99.241967	87.411441	-0.010952	-9.865949
0.700000	-0.012094	-10.618024	-99.264369	88.984356	-99.264369	88.984356	-0.012089	-10.618579
0.750000	-0.013218	-11.369825	-99.410330	91.281661	-99.410330	91.281661	-0.013214	-11.370420
0.800000	-0.014327	-12.120867	-99.672636	94.561580	-99.672636	94.561580	-0.014325	-12.121501
0.850000	-0.015419	-12.871051	-100.028183	99.546622	-100.028183	99.546622	-0.015417	-12.871723
0.900000	-0.016494	-13.620488	-100.433893	106.401108	-100.433893	106.401108	-0.016493	-13.621196
0.950000	-0.017562	-14.369560	-100.762831	114.454688	-100.762831	114.454688	-0.017561	-14.370305
1.000000	-0.018607	-15.117536	-100.809851	126.105548	-100.809851	126.105548	-0.018608	-15.118316
1.050000	-0.019649	-15.865269	-100.668718	137.937603	-100.668718	137.937603	-0.019650	-15.866085
1.100000	-0.020670	-16.611790	-99.657981	150.675635	-99.657981	150.675635	-0.020671	-16.612640
1.150000	-0.021689	-17.358188	-98.663223	163.046549	-98.663223	163.046549	-0.021691	-17.359072
1.200000	-0.022691	-18.103228	-96.929348	171.379159	-96.929348	171.379159	-0.022693	-18.104147
1.250000	-0.023692	-18.848269	-95.484661	179.711768	-95.484661	179.711768	-0.023694	-18.849222
1.300000	-0.024682	-19.592174	-93.835429	-175.260644	-93.835429	-175.260644	-0.024684	-19.593161
1.350000	-0.025666	-20.335335	-92.256313	-171.696525	-92.256313	-171.696525	-0.025668	-20.336356
1.400000	-0.026644	-21.077739	-90.764934	-169.214417	-90.764934	-169.214417	-0.026647	-21.078795
1.450000	-0.027618	-21.819372	-89.363197	-167.533631	-89.363197	-167.533631	-0.027621	-21.820463
1.500000	-0.028589	-22.560218	-88.046379	-166.452921	-88.046379	-166.452921	-0.028591	-22.561344
1.550000	-0.029556	-23.300263	-86.807429	-165.828365	-86.807429	-165.828365	-0.029558	-23.301424
1.600000	-0.030520	-24.039491	-85.638902	-165.556172	-85.638902	-165.556172	-0.030523	-24.040686
1.650000	-0.031483	-24.777885	-84.533747	-165.560493	-84.533747	-165.560493	-0.031486	-24.779116
1.700000	-0.032444	-25.515127	-83.461535	-165.842077	-83.461535	-165.842077	-0.032446	-25.516393
1.750000	-0.033404	-26.251921	-82.475424	-166.223109	-82.475424	-166.223109	-0.033406	-26.253222
1.800000	-0.034363	-26.987634	-81.521025	-166.768814	-81.521025	-166.768814	-0.034366	-26.988971
1.850000	-0.035322	-27.722576	-80.616894	-167.432145	-80.616894	-167.432145	-0.035325	-27.723948
1.900000	-0.036281	-28.456557	-79.747985	-168.192193	-79.747985	-168.192193	-0.036284	-28.457966
1.950000	-0.037241	-29.189579	-78.912673	-169.048960	-78.912673	-169.048960	-0.037243	-29.191022
2.000000	-0.038201	-29.921772	-78.114757	-169.963192	-78.114757	-169.963192	-0.038203	-29.923251
2.050000	-0.039162	-30.652805	-77.337981	-170.957878	-77.337981	-170.957878	-0.039164	-30.654321
2.100000	-0.040124	-31.383155	-76.599951	-171.986422	-76.599951	-171.986422	-0.040126	-31.384706
2.150000	-0.041088	-32.112136	-75.873606	-173.082680	-75.873606	-173.082680	-0.041090	-32.113723
2.200000	-0.042053	-32.840588	-75.186806	-174.198144	-75.186806	-174.198144	-0.042055	-32.842211
2.250000	-0.043021	-33.567453	-74.504417	-175.371223	-74.504417	-175.371223	-0.043023	-33.569112
2.300000	-0.043990	-34.293955	-73.861977	-176.554200	-73.861977	-176.554200	-0.043992	-34.295650
2.350000	-0.044964	-35.018643	-73.218300	-177.786669	-73.218300	-177.786669	-0.044966	-35.020373
2.400000	-0.045938	-35.743145	-72.614683	-179.023035	-72.614683	-179.023035	-0.045941	-35.744910
2.450000	-0.046919	-36.465597	-72.005408	179.697733	-72.005408	179.697733	-0.046922	-36.467398
2.500000	-0.047900	-37.188049	-71.436084	178.418500	-71.436084	178.418500	-0.047903	-37.189885
2.550000	-0.048889	-37.908208	-70.857627	177.101879	-70.857627	177.101879	-0.048892	-37.910079
2.600000	-0.049878	-38.628367	-70.315300	175.785258	-70.315300	175.785258	-0.049881	-38.630273
2.650000	-0.050876	-39.346375	-69.768187	174.440882	-69.768187	174.440882	-0.050879	-39.348315
2.700000	-0.051874	-40.064186	-69.250369	173.093983	-69.250369	173.093983	-0.051877	-40.066162
2.750000	-0.052882	-40.779999	-68.731375	171.726431	-68.731375	171.726431	-0.052885	-40.782009
2.800000	-0.053892	-41.495412	-68.235933	170.354749	-68.235933	170.354749	-0.053895	-41.497456
2.850000	-0.054911	-42.208988	-67.742324	168.967717	-67.742324	168.967717	-0.054914	-42.211067
2.900000	-0.055933	-42.921951	-67.267412	167.575568	-67.267412	167.575568	-0.055936	-42.924065
2.950000	-0.056964	-43.633251	-66.796847	166.172068	-66.796847	166.172068	-0.056968	-43.635399
3.000000	-0.058000	-44.343719	-66.340856	164.762893	-66.340856	164.762893	-0.058004	-44.345901
3.050000	-0.059046	-45.052705	-65.891314	163.345406	-65.891314	163.345406	-0.059050	-45.054921
3.100000	-0.060097	-45.760633	-65.452832	161.921983	-65.452832	161.921983	-0.060101	-45.762882
3.150000	-0.061157	-46.467269	-65.022557	160.492571	-65.022557	160.492571	-0.061161	-46.469552
3.200000	-0.062226	-47.172615	-64.600335	159.057170	-64.600335	159.057170	-0.062230	-47.174931
3.250000	-0.063302	-47.876868	-64.187788	157.617558	-64.187788	157.617558	-0.063307	-47.879217
3.300000	-0.064389	-48.579591	-63.780718	156.172053	-63.780718	156.172053	-0.064394	-48.581974
3.350000	-0.065483	-49.281429	-63.384543	154.723700	-63.384543	154.723700	-0.065488	-49.283844
3.400000	-0.066590	-49.981495	-62.991633	153.269652	-62.991633	153.269652	-0.066595	-49.983943
3.450000	-0.067703	-50.680887	-62.610632	151.813796	-62.610632	151.813796	-0.067708	-50.683368
3.500000	-0.068832	-51.378261	-62.230992	150.352519	-62.230992	150.352519	-0.068837	-51.380775
3.550000	-0.069965	-52.075181	-61.864094	148.890222	-61.864094	148.890222	-0.069970	-52.077727
3.600000	-0.071117	-52.769832	-61.496921	147.422828	-61.496921	147.422828	-0.071122	-52.772410
3.650000	-0.072272	-53.464253	-61.143172	145.955003	-61.143172	145.955003	-0.072277	-53.466864
3.700000	-0.073449	-54.156153	-60.787738	144.482440	-60.787738	144.482440	-0.073454	-54.158796
3.750000	-0.074626	-54.848052	-60.446279	143.009878	-60.446279	143.009878	-0.074632	-54.850727
3.800000	-0.075830	-55.537175	-60.101924	141.532964	-60.101924	141.532964	-0.075835	-55.539882
3.850000	-0.077033	-56.226298	-59.770702	140.056049	-59.770702	140.056049	-0.077039	-56.229037
3.900000	-0.078263	-56.912855	-59.438100	138.575792	-59.438100	138.575792	-0.078269	-56.915625
3.950000	-0.079495	-57.599179	-59.116581	137.095230	-59.116581	137.095230	-0.079501	-57.601981
4.000000	-0.080752	-58.283153	-58.795014	135.612140	-58.795014	135.612140	-0.080758	-58.285987
4.050000	-0.082013	-58.966658	-58.482707	134.128544	-58.482707	134.128544	-0.082020	-58.969523
4.100000	-0.083299	-59.648035	-58.171523	132.643074	-58.171523	132.643074	-0.083305	-59.650931
4.150000	-0.084592	-60.328704	-57.867976	131.156980	-57.867976	131.156980	-0.084598	-60.331631
4.200000	-0.085907	-61.007472	-57.566578	129.669534	-57.566578	129.669534	-0.085913	-61.010431
4.250000	-0.087233	-61.685291	-57.271375	128.181411	-57.271375	128.181411	-0.087239	-61.688280
4.300000	-0.088579	-62.361440	-56.979220	126.692349	-56.979220	126.692349	-0.088586	-62.364460
4.350000	-0.089940	-63.036397	-56.691974	125.202614	-56.691974	125.202614	-0.089947	-63.039448
4.400000	-0.091319	-63.709919	-56.408563	123.712258	-56.408563	123.712258	-0.091326	-63.713000
4.450000	-0.092717	-64.382005	-56.128917	122.221280	-56.128917	122.221280	-0.092723	-64.385117
4.500000	-0.094130	-65.052894	-55.853793	120.729921	-55.853793	120.729921	-0.094136	-65.056036
4.550000	-0.095565	-65.722104	-55.581414	119.238029	-55.581414	119.238029	-0.095572	-65.725277
4.600000	-0.097013	-66.390356	-55.314153	117.745929	-55.314153	117.745929	-0.097020	-66.393559
4.650000	-0.098488	-67.056687	-55.048732	116.253416	-55.048732	116.253416	-0.098495	-67.059921
4.700000	-0.099974	-67.722299	-54.788945	114.760814	-54.788945	114.760814	-0.099980	-67.725563
4.750000	-0.101490	-68.385751	-54.530192	113.267945	-54.530192	113.267945	-0.101497	-68.389045
4.800000	-0.103013	-69.048724	-54.277519	111.775057	-54.277519	111.775057	-0.103020	-69.052047
4.850000	-0.104572	-69.709299	-54.025163	110.282071	-54.025163	110.282071	-0.104579	-69.712652
4.900000	-0.106135	-70.369635	-53.779270	108.789093	-53.779270	108.789093	-0.106143	-70.373017
4.950000	-0.107739	-71.027337	-53.533059	107.296208	-53.533059	107.296208	-0.107746	-71.030750
5.000000	-0.109343	-71.685040	-53.293635	105.803322	-53.293635	105.803322	-0.109350	-71.688482
5.050000	-0.110993	-72.339877	-53.053331	104.310734	-53.053331	104.310734	-0.111001	-72.343348
5.100000	-0.112644	-72.994715	-52.819496	102.818147	-52.819496	102.818147	-0.112651	-72.998215
5.150000	-0.114338	-73.646935	-52.585466	101.325997	-52.585466	101.325997	-0.114345	-73.650465
5.200000	-0.116036	-74.298917	-52.357017	99.833888	-52.357017	99.833888	-0.116044	-74.302476
5.250000	-0.117776	-74.948531	-52.128986	98.342316	-52.128986	98.342316	-0.117783	-74.952118
5.300000	-0.119524	-75.597670	-51.905729	96.850851	-51.905729	96.850851	-0.119532	-75.601287
5.350000	-0.121310	-76.244689	-51.683440	95.359984	-51.683440	95.359984	-0.121318	-76.248334
5.400000	-0.123110	-76.891000	-51.465195	93.869317	-51.465195	93.869317	-0.123118	-76.894675
5.450000	-0.124945	-77.535438	-51.248407	92.379276	-51.248407	92.379276	-0.124952	-77.539141
5.500000	-0.126797	-78.178939	-51.035001	90.889548	-51.035001	90.889548	-0.126805	-78.182670
5.550000	-0.128682	-78.820811	-50.823489	89.400445	-50.823489	89.400445	-0.128690	-78.824571
5.600000	-0.130589	-79.461520	-50.614759	87.911788	-50.614759	87.911788	-0.130597	-79.465308
5.650000	-0.132524	-80.100845	-50.408313	86.423727	-50.408313	86.423727	-0.132532	-80.104661
5.700000	-0.134488	-80.738784	-50.204104	84.936263	-50.204104	84.936263	-0.134496	-80.742628
5.750000	-0.136476	-81.375580	-50.002523	83.449344	-50.002523	83.449344	-0.136484	-81.379451
5.800000	-0.138498	-82.010774	-49.802691	81.963187	-49.802691	81.963187	-0.138506	-82.014673
5.850000	-0.140540	-82.645061	-49.605788	80.477501	-49.605788	80.477501	-0.140548	-82.648988
5.900000	-0.142622	-83.277535	-49.410192	78.992758	-49.410192	78.992758	-0.142630	-83.281489
5.950000	-0.144719	-83.909336	-49.217792	77.508393	-49.217792	77.508393	-0.144728	-83.913318
6.000000	-0.146862	-84.539118	-49.026299	76.025164	-49.026299	76.025164	-0.146871	-84.543127
6.050000	-0.149016	-85.168457	-48.838235	74.542202	-48.838235	74.542202	-0.149025	-85.172493
6.100000	-0.151223	-85.795577	-48.650719	73.060579	-48.650719	73.060579	-0.151232	-85.799641
6.150000	-0.153435	-86.422479	-48.466833	71.579097	-48.466833	71.579097	-0.153444	-86.426569
6.200000	-0.155706	-87.046970	-48.283174	70.099168	-48.283174	70.099168	-0.155715	-87.051087
6.250000	-0.157978	-87.671461	-48.103318	68.619239	-48.103318	68.619239	-0.157987	-87.675605
6.300000	-0.160316	-88.293357	-47.923399	67.141084	-47.923399	67.141084	-0.160325	-88.297528
6.350000	-0.162654	-88.915253	-47.747132	65.662930	-47.747132	65.662930	-0.162664	-88.919450
6.400000	-0.165055	-89.534803	-47.571144	64.186471	-47.571144	64.186471	-0.165065	-89.539027
6.450000	-0.167462	-90.154140	-47.398363	62.710167	-47.398363	62.710167	-0.167471	-90.158389
6.500000	-0.169926	-90.771375	-47.226167	61.235461	-47.226167	61.235461	-0.169936	-90.775651
6.550000	-0.172403	-91.388190	-47.056773	59.761076	-47.056773	59.761076	-0.172413	-91.392492
6.600000	-0.174933	-92.003143	-46.888241	58.288178	-46.888241	58.288178	-0.174943	-92.007471
6.650000	-0.177481	-92.617476	-46.722140	56.815776	-46.722140	56.815776	-0.177491	-92.621830
6.700000	-0.180078	-93.230182	-46.557148	55.344735	-46.557148	55.344735	-0.180088	-93.234562
6.750000	-0.182699	-93.842074	-46.394247	53.874373	-46.394247	53.874373	-0.182710	-93.846479
6.800000	-0.185364	-94.452568	-46.232677	52.405233	-46.232677	52.405233	-0.185375	-94.456998
6.850000	-0.188060	-95.062062	-46.072889	50.936964	-46.072889	50.936964	-0.188071	-95.066518
6.900000	-0.190795	-95.670380	-45.914630	49.469764	-45.914630	49.469764	-0.190806	-95.674862
6.950000	-0.193567	-96.277522	-45.757870	48.003633	-45.757870	48.003633	-0.193579	-96.282028
7.000000	-0.196373	-96.883702	-45.602814	46.538409	-45.602814	46.538409	-0.196384	-96.888234
7.050000	-0.199224	-97.488536	-45.449000	45.074455	-45.449000	45.074455	-0.199235	-97.493093
7.100000	-0.202101	-98.092618	-45.297046	43.611237	-45.297046	43.611237	-0.202113	-98.097200
7.150000	-0.205032	-98.695193	-45.146100	42.149492	-45.146100	42.149492	-0.205043	-98.699800
7.200000	-0.207983	-99.297216	-44.997150	40.688305	-44.997150	40.688305	-0.207995	-99.301848
7.250000	-0.210994	-99.897582	-44.848995	39.228794	-44.848995	39.228794	-0.211006	-99.902239
7.300000	-0.214021	-100.497588	-44.702957	37.769658	-44.702957	37.769658	-0.214033	-100.502269
7.350000	-0.217115	-101.095795	-44.557520	36.312397	-44.557520	36.312397	-0.217127	-101.100501
7.400000	-0.220217	-101.693827	-44.414303	34.855325	-44.414303	34.855325	-0.220230	-101.698557
7.450000	-0.223396	-102.289927	-44.271513	33.400326	-44.271513	33.400326	-0.223408	-102.294682
7.500000	-0.226576	-102.886028	-44.131033	31.945327	-44.131033	31.945327	-0.226588	-102.890808
7.550000	-0.229840	-103.480076	-43.990821	30.492590	-43.990821	30.492590	-0.229853	-103.484880
7.600000	-0.233105	-104.074124	-43.852838	29.039853	-43.852838	29.039853	-0.233118	-104.078952
7.650000	-0.236450	-104.666341	-43.715297	27.589184	-43.715297	27.589184	-0.236463	-104.671194
7.700000	-0.239803	-105.258392	-43.579747	26.138702	-43.579747	26.138702	-0.239816	-105.263269
7.750000	-0.243228	-105.848825	-43.444799	24.690087	-43.444799	24.690087	-0.243242	-105.853727
7.800000	-0.246670	-106.438935	-43.311623	23.241845	-43.311623	23.241845	-0.246683	-106.443861
7.850000	-0.250178	-107.027632	-43.179190	21.795263	-43.179190	21.795263	-0.250192	-107.032583
7.900000	-0.253710	-107.615859	-43.048329	20.349236	-43.048329	20.349236	-0.253724	-107.620834
7.950000	-0.257302	-108.202871	-42.918339	18.904661	-42.918339	18.904661	-0.257316	-108.207870
8.000000	-0.260925	-108.789274	-42.789738	17.460813	-42.789738	17.460813	-0.260939	-108.794298
8.050000	-0.264601	-109.374649	-42.662122	16.018211	-42.662122	16.018211	-0.264616	-109.379698
8.100000	-0.268317	-109.959290	-42.535727	14.576498	-42.535727	14.576498	-0.268331	-109.964363
8.150000	-0.272080	-110.543081	-42.410419	13.135826	-42.410419	13.135826	-0.272094	-110.548179
8.200000	-0.275889	-111.126021	-42.286178	11.696195	-42.286178	11.696195	-0.275904	-111.131144
8.250000	-0.279739	-111.708279	-42.163115	10.257404	-42.163115	10.257404	-0.279754	-111.713426
8.300000	-0.283644	-112.289582	-42.040979	8.819789	-42.040979	8.819789	-0.283659	-112.294754
8.350000	-0.287582	-112.870361	-41.920100	7.382822	-41.920100	7.382822	-0.287597	-112.875558
8.400000	-0.291583	-113.450091	-41.800022	5.947149	-41.800022	5.947149	-0.291598	-113.455314
8.450000	-0.295610	-114.029445	-41.681272	4.511940	-41.681272	4.511940	-0.295625	-114.034692
8.500000	-0.299708	-114.607669	-41.563207	3.078124	-41.563207	3.078124	-0.299724	-114.612942
8.550000	-0.303825	-115.185653	-41.446531	1.644601	-41.446531	1.644601	-0.303841	-115.190951
8.600000	-0.308023	-115.762437	-41.330438	0.212546	-41.330438	0.212546	-0.308038	-115.767762
8.650000	-0.312230	-116.339108	-41.215784	-1.219371	-41.215784	-1.219371	-0.312246	-116.344458
8.700000	-0.316527	-116.914522	-41.101624	-2.649771	-41.101624	-2.649771	-0.316543	-116.919899
8.750000	-0.320826	-117.489936	-40.988944	-4.080171	-40.988944	-4.080171	-0.320842	-117.495339
8.800000	-0.325224	-118.064050	-40.876680	-5.509031	-40.876680	-5.509031	-0.325240	-118.069480
8.850000	-0.329624	-118.638164	-40.765847	-6.937891	-40.765847	-6.937891	-0.329640	-118.643620
8.900000	-0.334115	-119.211151	-40.655526	-8.365456	-40.655526	-8.365456	-0.334131	-119.216635
8.950000	-0.338616	-119.784036	-40.546510	-9.792903	-40.546510	-9.792903	-0.338633	-119.789547
9.000000	-0.343201	-120.355958	-40.438091	-11.219285	-40.438091	-11.219285	-0.343218	-120.361496
9.050000	-0.347805	-120.927686	-40.330861	-12.645453	-40.330861	-12.645453	-0.347822	-120.933253
9.100000	-0.352485	-121.498603	-40.224307	-14.070772	-40.224307	-14.070772	-0.352502	-121.504198
9.150000	-0.357192	-122.069250	-40.118837	-15.495807	-40.118837	-15.495807	-0.357210	-122.074873
9.200000	-0.361967	-122.639225	-40.014112	-16.920188	-40.014112	-16.920188	-0.361985	-122.644878
9.250000	-0.366778	-123.208865	-39.910379	-18.344243	-39.910379	-18.344243	-0.366796	-123.214547
9.300000	-0.371649	-123.777963	-39.807453	-19.767819	-39.807453	-19.767819	-0.371667	-123.783674
9.350000	-0.376564	-124.346673	-39.705438	-21.191054	-39.705438	-21.191054	-0.376583	-124.352415
9.400000	-0.381531	-124.914958	-39.604281	-22.613963	-39.604281	-22.613963	-0.381550	-124.920730
9.450000	-0.386551	-125.482817	-39.503968	-24.036545	-39.503968	-24.036545	-0.386571	-125.488621
9.500000	-0.391615	-126.050355	-39.404555	-25.458929	-39.404555	-25.458929	-0.391635	-126.056190
9.550000	-0.396740	-126.617443	-39.305931	-26.881034	-39.305931	-26.881034	-0.396761	-126.623310
9.600000	-0.401902	-127.184300	-39.208241	-28.303039	-39.208241	-28.303039	-0.401923	-127.190200
9.650000	-0.407133	-127.750698	-39.111297	-29.724845	-39.111297	-29.724845	-0.407154	-127.756632
9.700000	-0.412391	-128.316944	-39.015312	-31.146621	-39.015312	-31.146621	-0.412413	-128.322911
9.750000	-0.417728	-128.882735	-38.920044	-32.568311	-38.920044	-32.568311	-0.417750	-128.888737
9.800000	-0.423084	-129.448439	-38.825747	-33.990012	-38.825747	-33.990012	-0.423107	-129.454476
9.850000	-0.428527	-130.013708	-38.732155	-35.411770	-38.732155	-35.411770	-0.428550	-130.019780
9.900000	-0.433981	-130.578940	-38.639535	-36.833550	-38.639535	-36.833550	-0.434004	-130.585048
9.950000	-0.439529	-131.143772	-38.547622	-38.255563	-38.547622	-38.255563	-0.439553	-131.149918
10.000000	-0.445081	-131.708604	-38.456671	-39.677576	-38.456671	-39.677576	-0.445106	-131.714788
