! freq	dB(S11)	phase(S11)	dB(S12)	phase(S12)	
!     	dB(S21)	phase(S21)	dB(S22)	phase(S22)	
!S-par simulation data
#  GHz  S  DB  R 50
0.000000	-6153.053111	0.000000	-0.000000	0.000000	-0.000000	0.000000	-6153.053111	0.000000
0.050000	-35.316738	-94.017303	-0.008898	-3.629788	-0.008898	-3.629788	-35.306630	-92.143399
0.100000	-29.373403	-98.827298	-0.018579	-7.208549	-0.018579	-7.208549	-29.355658	-95.116160
0.150000	-25.896726	-103.558479	-0.029995	-10.778498	-0.029995	-10.778498	-25.876327	-98.004405
0.200000	-23.435299	-108.192684	-0.043632	-14.339944	-0.043632	-14.339944	-23.412955	-100.799486
0.250000	-21.532470	-112.762058	-0.059420	-17.893663	-0.059420	-17.893663	-21.508505	-103.534273
0.300000	-19.983433	-117.292827	-0.077236	-21.441360	-0.077236	-21.441360	-19.958194	-106.234396
0.350000	-18.679282	-121.799058	-0.097094	-24.984009	-0.097094	-24.984009	-18.653106	-108.913367
0.400000	-17.555155	-126.288608	-0.119029	-28.522034	-0.119029	-28.522034	-17.528349	-111.578698
0.450000	-16.569683	-130.765278	-0.143145	-32.055308	-0.143145	-32.055308	-16.542511	-114.234198
0.500000	-15.693717	-135.231815	-0.169315	-35.583967	-0.169315	-35.583967	-15.666387	-116.882529
0.550000	-14.907175	-139.688783	-0.197570	-39.107663	-0.197570	-39.107663	-14.879857	-119.524560
0.600000	-14.194991	-144.136411	-0.227864	-42.626155	-0.227864	-42.626155	-14.167816	-122.160851
0.650000	-13.545793	-148.574470	-0.260156	-46.139167	-0.260156	-46.139167	-13.518865	-124.791629
0.700000	-12.950619	-153.002652	-0.294368	-49.646525	-0.294368	-49.646525	-12.924017	-127.417070
0.750000	-12.402239	-157.420684	-0.330396	-53.148173	-0.330396	-53.148173	-12.376019	-130.037390
0.800000	-11.894876	-161.828177	-0.368150	-56.644045	-0.368150	-56.644045	-11.869081	-132.652784
0.850000	-11.423781	-166.224753	-0.407531	-60.134119	-0.407531	-60.134119	-11.398442	-135.263520
0.900000	-10.984997	-170.610064	-0.448439	-63.618410	-0.448439	-63.618410	-10.960134	-137.869958
0.950000	-10.575186	-174.983796	-0.490773	-67.096954	-0.490773	-67.096954	-10.550816	-140.472557
1.000000	-10.191505	-179.345667	-0.534433	-70.569809	-0.534433	-70.569809	-10.167639	-143.071881
1.050000	-9.831510	176.304575	-0.579324	-74.037050	-0.579324	-74.037050	-9.808156	-145.668596
1.100000	-9.493078	171.967159	-0.625355	-77.498773	-0.625355	-77.498773	-9.470244	-148.263468
1.150000	-9.174357	167.642302	-0.672447	-80.955107	-0.672447	-80.955107	-9.152048	-150.857353
1.200000	-8.873714	163.330216	-0.720525	-84.406220	-0.720525	-84.406220	-8.851938	-153.451194
1.250000	-8.589706	159.031113	-0.769524	-87.852330	-0.769524	-87.852330	-8.568468	-156.046012
1.300000	-8.321184	154.745514	-0.819395	-91.293615	-0.819395	-91.293615	-8.300493	-158.642969
1.350000	-8.066853	150.473380	-0.870068	-94.730515	-0.870068	-94.730515	-8.046715	-161.243206
1.400000	-7.825679	146.214980	-0.921490	-98.163414	-0.921490	-98.163414	-7.806106	-163.847940
1.450000	-7.596733	141.970607	-0.973609	-101.592737	-0.973609	-101.592737	-7.577736	-166.458447
1.500000	-7.379177	137.740584	-1.026375	-105.018948	-1.026375	-105.018948	-7.360769	-169.076055
1.550000	-7.172249	133.525261	-1.079736	-108.442540	-1.079736	-108.442540	-7.154447	-171.702142
1.600000	-6.975259	129.325017	-1.133641	-111.864032	-1.133641	-111.864032	-6.958081	-174.338136
1.650000	-6.787579	125.140256	-1.188038	-115.283963	-1.188038	-115.283963	-6.771048	-176.985517
1.700000	-6.608554	120.971110	-1.242875	-118.702898	-1.242875	-118.702898	-6.592693	-179.645543
1.750000	-6.438078	116.819536	-1.298102	-122.121410	-1.298102	-122.121410	-6.422921	177.678814
1.800000	-6.275009	112.683584	-1.353666	-125.540101	-1.353666	-125.540101	-6.260585	174.988176
1.850000	-6.119432	108.565713	-1.409511	-128.959647	-1.409511	-128.959647	-6.105783	172.278910
1.900000	-5.970695	104.465399	-1.465591	-132.380633	-1.465591	-132.380633	-5.957863	169.550349
1.950000	-5.828435	100.383139	-1.521852	-135.803731	-1.521852	-135.803731	-5.816469	166.800699
2.000000	-5.692547	96.320511	-1.578229	-139.229798	-1.578229	-139.229798	-5.681508	164.026794
2.050000	-5.562274	92.275795	-1.634701	-142.659193	-1.634701	-142.659193	-5.552220	161.229545
2.100000	-5.437990	88.252891	-1.691156	-146.093412	-1.691156	-146.093412	-5.429003	158.402348
2.150000	-5.318719	84.248414	-1.747611	-149.532369	-1.747611	-149.532369	-5.310873	155.548552
2.200000	-5.204850	80.266388	-1.803934	-152.977927	-1.803934	-152.977927	-5.198247	152.660724
2.250000	-5.095686	76.304424	-1.860133	-156.430146	-1.860133	-156.430146	-5.090423	149.740990
2.300000	-4.991294	72.364585	-1.916108	-159.890596	-1.916108	-159.890596	-4.987491	146.784334
2.350000	-4.891422	68.446836	-1.971810	-163.360181	-1.971810	-163.360181	-4.889210	143.789022
2.400000	-4.795778	64.550671	-2.027204	-166.839660	-2.027204	-166.839660	-4.795295	140.754041
2.450000	-4.704515	60.678584	-2.082155	-170.331319	-2.082155	-170.331319	-4.705934	137.672573
2.500000	-4.617010	56.827325	-2.136721	-173.834570	-2.136721	-173.834570	-4.620487	134.548828
2.550000	-4.533792	53.002037	-2.190653	-177.353756	-2.190653	-177.353756	-4.539553	131.369469
2.600000	-4.454097	49.197978	-2.244070	179.112721	-2.244070	179.112721	-4.462335	128.142089
2.650000	-4.378294	45.418917	-2.296754	175.560663	-2.296754	175.560663	-4.389265	124.854930
2.700000	-4.306005	41.662684	-2.348725	171.990020	-2.348725	171.990020	-4.319963	121.509943
2.750000	-4.237270	37.930256	-2.399864	168.398056	-2.399864	168.398056	-4.254509	118.100867
2.800000	-4.172085	34.222111	-2.450065	164.782195	-2.450065	164.782195	-4.192937	114.622224
2.850000	-4.110173	30.536401	-2.499336	161.142015	-2.499336	161.142015	-4.134975	111.074946
2.900000	-4.051902	26.876273	-2.547405	157.471259	-2.547405	157.471259	-4.081091	107.443863
2.950000	-3.996733	23.237543	-2.594415	153.772281	-2.594415	153.772281	-4.030711	103.737537
3.000000	-3.945249	19.624654	-2.639970	150.035592	-2.639970	150.035592	-3.984577	99.933296
3.050000	-3.896933	16.033426	-2.684229	146.263914	-2.684229	146.263914	-3.942137	96.040427
3.100000	-3.852185	12.466469	-2.726869	142.448853	-2.726869	142.448853	-3.903945	92.040155
3.150000	-3.810874	8.922372	-2.767857	138.588625	-2.767857	138.588625	-3.869925	87.930396
3.200000	-3.773085	5.401134	-2.807043	134.678424	-2.807043	134.678424	-3.840275	83.701858
3.250000	-3.739130	1.904203	-2.844139	130.709664	-2.844139	130.709664	-3.815507	79.336559
3.300000	-3.708727	-1.570899	-2.879225	126.683127	-2.879225	126.683127	-3.795380	74.838435
3.350000	-3.682815	-5.019014	-2.911613	122.578365	-2.911613	122.578365	-3.781325	70.162997
3.400000	-3.660840	-8.444072	-2.941579	118.401022	-2.941579	118.401022	-3.772773	65.324987
3.450000	-3.643213	-11.843921	-2.968793	114.139335	-2.968793	114.139335	-3.770516	60.299593
3.500000	-3.630345	-15.216174	-2.992929	109.780448	-2.992929	109.780448	-3.775439	55.059625
3.550000	-3.622905	-18.556402	-3.013517	105.304627	-3.013517	105.304627	-3.788957	49.562510
3.600000	-3.620868	-21.863438	-3.030577	100.705788	-3.030577	100.705788	-3.811518	43.795036
3.650000	-3.625069	-25.129459	-3.043617	95.956184	-3.043617	95.956184	-3.845197	37.695231
3.700000	-3.635599	-28.349507	-3.052694	91.042449	-3.052694	91.042449	-3.891050	31.231198
3.750000	-3.653105	-31.511490	-3.057618	85.931176	-3.057618	85.931176	-3.951615	24.324020
3.800000	-3.677778	-34.601835	-3.058630	80.591299	-3.058630	80.591299	-4.029228	16.896000
3.850000	-3.709475	-37.602345	-3.056367	74.985289	-3.056367	74.985289	-4.126556	8.849127
3.900000	-3.747688	-40.482937	-3.052056	69.051547	-3.052056	69.051547	-4.247565	0.019786
3.950000	-3.790193	-43.217001	-3.048156	62.747334	-3.048156	62.747334	-4.394136	-9.722801
4.000000	-3.833001	-45.753496	-3.049032	55.976043	-3.049032	55.976043	-4.569664	-20.661685
4.050000	-3.868080	-48.045543	-3.062020	48.651964	-3.062020	48.651964	-4.772717	-33.081900
4.100000	-3.881688	-50.046570	-3.099096	40.667015	-3.099096	40.667015	-4.994920	-47.359996
4.150000	-3.852213	-51.735774	-3.179216	31.901530	-3.179216	31.901530	-5.212961	-63.931591
4.200000	-3.750095	-53.162014	-3.331129	22.239395	-3.331129	22.239395	-5.378086	-83.203342
4.250000	-3.543743	-54.501177	-3.595845	11.598663	-3.595845	11.598663	-5.410584	-105.339178
4.300000	-3.214675	-56.085964	-4.026978	-0.019755	-4.026978	-0.019755	-5.219600	-129.937192
4.350000	-2.777723	-58.334581	-4.684781	-12.469028	-4.684781	-12.469028	-4.763874	-155.840137
4.400000	-2.287328	-61.553680	-5.621013	-25.421399	-5.621013	-25.421399	-4.106974	178.516388
4.450000	-1.814663	-65.782308	-6.864554	-38.419449	-6.864554	-38.419449	-3.383624	154.442499
4.500000	-1.415419	-70.796957	-8.411066	-50.991577	-8.411066	-50.991577	-2.717160	132.651978
4.550000	-1.112611	-76.272290	-10.229761	-62.781688	-10.229761	-62.781688	-2.170694	113.339435
4.600000	-0.901261	-81.927502	-12.279957	-73.616230	-12.279957	-73.616230	-1.753258	96.368134
4.650000	-0.763973	-87.588381	-14.520132	-83.471460	-14.520132	-83.471460	-1.447450	81.479343
4.700000	-0.679605	-93.176979	-16.930285	-92.463912	-16.930285	-92.463912	-1.226018	68.317823
4.750000	-0.631765	-98.676013	-19.493385	-100.765762	-19.493385	-100.765762	-1.066109	56.587057
4.800000	-0.608365	-104.099190	-22.189555	-108.624230	-22.189555	-108.624230	-0.949902	46.030349
4.850000	-0.601379	-109.473475	-24.953052	-116.421112	-24.953052	-116.421112	-0.864991	36.456435
4.900000	-0.604601	-114.832348	-27.742389	-124.720208	-27.742389	-124.720208	-0.800811	27.639851
4.950000	-0.615008	-120.204923	-30.341673	-134.289820	-30.341673	-134.289820	-0.751879	19.466195
5.000000	-0.630544	-125.619011	-32.380076	-145.749089	-32.380076	-145.749089	-0.714029	11.827979
5.050000	-0.650127	-131.102701	-33.345730	-158.536773	-33.345730	-158.536773	-0.684677	4.653526
5.100000	-0.672990	-136.676648	-33.097067	-170.460222	-33.097067	-170.460222	-0.661656	-2.141179
5.150000	-0.698869	-142.360724	-31.919790	-179.966591	-31.919790	-179.966591	-0.643773	-8.608664
5.200000	-0.727705	-148.172767	-30.261154	172.798365	-30.261154	172.798365	-0.630255	-14.790973
5.250000	-0.759552	-154.128772	-28.446001	166.955284	-28.446001	166.955284	-0.620621	-20.721910
5.300000	-0.794516	-160.242980	-26.647742	161.767888	-26.647742	161.767888	-0.614584	-26.428759
5.350000	-0.832791	-166.532535	-24.939731	156.811968	-24.939731	156.811968	-0.612075	-31.928846
5.400000	-0.874400	-173.005338	-23.357118	151.875051	-23.357118	151.875051	-0.612960	-37.244079
5.450000	-0.919321	-179.668088	-21.906270	146.870906	-21.906270	146.870906	-0.617182	-42.390462
5.500000	-0.967462	173.473550	-20.581764	141.767968	-20.581764	141.767968	-0.624723	-47.379571
5.550000	-1.018612	166.416827	-19.374698	136.559391	-19.374698	136.559391	-0.635552	-52.220781
5.600000	-1.072432	159.160991	-18.275309	131.249034	-18.275309	131.249034	-0.649624	-56.920751
5.650000	-1.128406	151.709994	-17.274739	125.846599	-17.274739	125.846599	-0.666824	-61.485315
5.700000	-1.185838	144.070766	-16.365194	120.364084	-16.365194	120.364084	-0.686986	-65.918072
5.750000	-1.243859	136.259070	-15.539893	114.816573	-15.539893	114.816573	-0.709801	-70.224641
5.800000	-1.301585	128.305305	-14.791857	109.222739	-14.791857	109.222739	-0.734739	-74.418674
5.850000	-1.357869	120.214540	-14.116421	103.592499	-14.116421	103.592499	-0.761622	-78.489672
5.900000	-1.411564	112.020016	-13.508913	97.944515	-13.508913	97.944515	-0.789855	-82.444942
5.950000	-1.461605	103.754890	-12.964674	92.295962	-12.964674	92.295962	-0.818856	-86.290028
6.000000	-1.506992	95.453281	-12.479562	86.663549	-12.479562	86.663549	-0.848042	-90.029158
6.050000	-1.546882	87.150975	-12.049630	81.063612	-12.049630	81.063612	-0.876838	-93.667021
6.100000	-1.580641	78.884137	-11.671046	75.511721	-11.671046	75.511721	-0.904702	-97.208784
6.150000	-1.607883	70.687982	-11.340053	70.022302	-11.340053	70.022302	-0.931154	-100.660035
6.200000	-1.628481	62.595513	-11.052946	64.608302	-11.052946	64.608302	-0.955797	-104.026678
6.250000	-1.642562	54.636449	-10.806073	59.280926	-10.806073	59.280926	-0.978328	-107.314793
6.300000	-1.650096	46.848673	-10.597797	54.056487	-10.597797	54.056487	-0.998382	-110.526006
6.350000	-1.652535	39.224889	-10.419956	48.925969	-10.419956	48.925969	-1.016254	-113.677046
6.400000	-1.649714	31.809619	-10.273515	43.910823	-10.273515	43.910823	-1.031563	-116.763637
6.450000	-1.642820	24.594722	-10.152749	39.003835	-10.152749	39.003835	-1.044613	-119.796739
6.500000	-1.632471	17.594961	-10.055538	34.210984	-10.055538	34.210984	-1.055451	-122.779133
6.550000	-1.619369	10.817139	-9.979418	29.534558	-9.979418	29.534558	-1.064215	-125.714275
6.600000	-1.604410	4.243733	-9.920331	24.964602	-9.920331	24.964602	-1.071260	-128.609450
6.650000	-1.588043	-2.100253	-9.878008	20.513721	-9.878008	20.513721	-1.076584	-131.462657
6.700000	-1.571037	-8.253739	-9.847950	16.161628	-9.847950	16.161628	-1.080652	-134.282796
6.750000	-1.553821	-14.203491	-9.829526	11.915321	-9.829526	11.915321	-1.083543	-137.068742
6.800000	-1.536857	-19.964968	-9.820519	7.767079	-9.820519	7.767079	-1.085510	-139.823812
6.850000	-1.520520	-25.548650	-9.819276	3.711858	-9.819276	3.711858	-1.086753	-142.549993
6.900000	-1.505284	-30.943864	-9.825003	-0.244122	-9.825003	-0.244122	-1.087400	-145.245424
6.950000	-1.491116	-36.206068	-9.834857	-4.129568	-9.834857	-4.129568	-1.087739	-147.918798
7.000000	-1.478340	-41.325314	-9.848470	-7.938723	-9.848470	-7.938723	-1.087845	-150.567949
7.050000	-1.467124	-46.313468	-9.864781	-11.677339	-9.864781	-11.677339	-1.087847	-153.194116
7.100000	-1.457605	-51.182377	-9.882843	-15.351203	-9.882843	-15.351203	-1.087858	-155.798422
7.150000	-1.449894	-55.943801	-9.901807	-18.966112	-9.901807	-18.966112	-1.087979	-158.381900
7.200000	-1.444089	-60.609390	-9.920911	-22.527861	-9.920911	-22.527861	-1.088295	-160.945507
7.250000	-1.440273	-65.190683	-9.939468	-26.042249	-9.939468	-26.042249	-1.088885	-163.490134
7.300000	-1.438525	-69.699129	-9.956856	-29.515092	-9.956856	-29.515092	-1.089817	-166.016619
7.350000	-1.438927	-74.146144	-9.972507	-32.952246	-9.972507	-32.952246	-1.091155	-168.525748
7.400000	-1.441564	-78.543172	-9.985898	-36.359651	-9.985898	-36.359651	-1.092956	-171.018265
7.450000	-1.446535	-82.901788	-9.996540	-39.743378	-9.996540	-39.743378	-1.095278	-173.494868
7.500000	-1.453957	-87.233820	-10.003970	-43.109707	-10.003970	-43.109707	-1.098175	-175.956211
7.550000	-1.464096	-91.551488	-10.007561	-46.465071	-10.007561	-46.465071	-1.101736	-178.402292
7.600000	-1.477035	-95.868903	-10.007010	-49.817295	-10.007010	-49.817295	-1.106000	179.165678
7.650000	-1.493019	-100.199946	-10.001865	-53.174061	-10.001865	-53.174061	-1.111037	176.747213
7.700000	-1.512371	-104.559785	-9.991655	-56.543898	-9.991655	-56.543898	-1.116932	174.341904
7.750000	-1.535519	-108.965366	-9.975868	-59.936506	-9.975868	-59.936506	-1.123787	171.949440
7.800000	-1.563047	-113.436087	-9.953941	-63.363208	-9.953941	-63.363208	-1.131726	169.569637
7.850000	-1.595767	-117.994755	-9.925232	-66.837601	-9.925232	-66.837601	-1.140910	167.202496
7.900000	-1.634831	-122.668978	-9.889002	-70.376533	-9.889002	-70.376533	-1.151545	164.848279
7.950000	-1.680983	-127.475237	-9.845312	-73.991036	-9.845312	-73.991036	-1.163712	162.506233
8.000000	-1.738148	-132.485823	-9.791560	-77.725509	-9.791560	-77.725509	-1.178091	160.180089
8.050000	-1.809508	-137.746853	-9.727354	-81.611353	-9.727354	-81.611353	-1.195031	157.870904
8.100000	-1.901253	-143.339253	-9.651545	-85.703239	-9.651545	-85.703239	-1.215206	155.582583
8.150000	-2.024450	-149.386829	-9.563135	-90.086906	-9.563135	-90.086906	-1.239605	153.322508
8.200000	-2.199366	-156.075963	-9.462659	-94.895649	-9.462659	-94.895649	-1.269537	151.104180
8.250000	-2.463345	-163.675728	-9.355363	-100.328929	-9.355363	-100.328929	-1.306376	148.951474
8.300000	-2.902946	-172.682850	-9.259723	-106.763656	-9.259723	-106.763656	-1.351267	146.916063
8.350000	-3.725509	176.121859	-9.237281	-114.823923	-9.237281	-114.823923	-1.400709	145.097857
8.400000	-5.522774	161.711213	-9.484028	-125.461445	-9.484028	-125.461445	-1.431464	143.663243
8.450000	-10.444860	146.112113	-10.587555	-138.975868	-10.587555	-138.975868	-1.363771	142.628309
8.500000	-19.320045	-132.649235	-13.567769	-148.591645	-13.567769	-148.591645	-1.130554	141.034434
8.550000	-8.098387	-119.592969	-16.993741	-135.134357	-16.993741	-135.134357	-0.921994	138.077856
8.600000	-4.814885	-136.526958	-16.457707	-115.020362	-16.457707	-115.020362	-0.859843	134.823170
8.650000	-3.562985	-150.577533	-14.855602	-110.369814	-14.855602	-110.369814	-0.869736	131.882815
8.700000	-2.997569	-161.966913	-13.764590	-112.013827	-13.764590	-112.013827	-0.897258	129.216178
8.750000	-2.715700	-171.717148	-13.072181	-115.511891	-13.072181	-115.511891	-0.925439	126.716874
8.800000	-2.568769	179.510342	-12.621390	-119.598900	-12.621390	-119.598900	-0.949959	124.318339
8.850000	-2.489275	171.287621	-12.315258	-123.883103	-12.315258	-123.883103	-0.970354	121.980078
8.900000	-2.447053	163.378536	-12.104881	-128.247321	-12.104881	-128.247321	-0.986924	119.681313
8.950000	-2.425853	155.636187	-11.962647	-132.653108	-11.962647	-132.653108	-1.000075	117.409651
9.000000	-2.416121	147.967640	-11.872454	-137.089176	-11.872454	-137.089176	-1.010151	115.157201
9.050000	-2.411784	140.314432	-11.824715	-141.553234	-11.824715	-141.553234	-1.017402	112.918539
9.100000	-2.408670	132.640500	-11.814565	-146.045833	-11.814565	-146.045833	-1.021939	110.689775
9.150000	-2.403741	124.927956	-11.837959	-150.565677	-11.837959	-150.565677	-1.023938	108.467336
9.200000	-2.394889	117.172425	-11.892791	-155.110030	-11.892791	-155.110030	-1.023521	106.248282
9.250000	-2.380603	109.379045	-11.978171	-159.674407	-11.978171	-159.674407	-1.020792	104.029982
9.300000	-2.359868	101.560615	-12.093763	-164.252297	-12.093763	-164.252297	-1.015867	101.809959
9.350000	-2.332119	93.735843	-12.239543	-168.835296	-12.239543	-168.835296	-1.008898	99.585890
9.400000	-2.297087	85.928466	-12.416079	-173.413064	-12.416079	-173.413064	-1.000048	97.355505
9.450000	-2.255033	78.165555	-12.623424	-177.973594	-12.623424	-177.973594	-0.989565	95.116863
9.500000	-2.206681	70.473862	-12.861110	177.495453	-12.861110	177.495453	-0.977762	92.868586
9.550000	-2.152901	62.880240	-13.128975	173.007031	-13.128975	173.007031	-0.964950	90.609621
9.600000	-2.094754	55.410181	-13.426653	168.574190	-13.426653	168.574190	-0.951460	88.339400
9.650000	-2.033425	48.086874	-13.753548	164.209675	-13.753548	164.209675	-0.937622	86.057875
9.700000	-1.970126	40.932113	-14.108929	159.926356	-14.108929	159.926356	-0.923750	83.765417
9.750000	-1.906078	33.966402	-14.491788	155.737344	-14.491788	155.737344	-0.910138	81.462829
9.800000	-1.842447	27.198242	-14.900449	151.650381	-14.900449	151.650381	-0.897012	79.151736
9.850000	-1.780213	20.636929	-15.333426	147.674038	-15.333426	147.674038	-0.884541	76.833773
9.900000	-1.720207	14.288391	-15.789077	143.815606	-15.789077	143.815606	-0.872831	74.510767
9.950000	-1.663100	8.155486	-16.265633	140.081185	-16.265633	140.081185	-0.861923	72.184648
10.000000	-1.609407	2.238381	-16.761221	136.475837	-16.761221	136.475837	-0.851802	69.857363
