! freq	dB(S11)	phase(S11)	dB(S12)	phase(S12)	
!     	dB(S21)	phase(S21)	dB(S22)	phase(S22)	
!S-par simulation data
#  GHz  S  DB  R 50
0.000000	-0.000000	0.000000	-352.463125	0.000000	-352.463125	0.000000	-0.000000	0.000000
0.050000	-0.003779	-1.757662	-97.144529	88.192288	-97.144529	88.192288	-0.002263	-1.317508
0.100000	-0.007219	-3.482438	-91.186961	86.692304	-91.186961	86.692304	-0.004469	-2.653078
0.150000	-0.009032	-5.203025	-87.728376	85.291440	-87.728376	85.291440	-0.005926	-3.989561
0.200000	-0.010368	-6.924118	-85.296736	83.905335	-85.296736	83.905335	-0.007250	-5.324090
0.250000	-0.011619	-8.645359	-83.438164	82.526078	-83.438164	82.526078	-0.008629	-6.656404
0.300000	-0.012936	-10.366005	-81.951734	81.160503	-81.951734	81.160503	-0.010112	-7.986458
0.350000	-0.014358	-12.085607	-80.722962	79.814478	-80.722962	79.814478	-0.011678	-9.314590
0.400000	-0.015905	-13.803735	-79.689557	78.496184	-79.689557	78.496184	-0.013314	-10.640758
0.450000	-0.017575	-15.520066	-78.809959	77.213192	-78.809959	77.213192	-0.014997	-11.965028
0.500000	-0.019373	-17.234119	-78.060500	75.978099	-78.060500	75.978099	-0.016711	-13.287304
0.550000	-0.021278	-18.945785	-77.417928	74.797525	-77.417928	74.797525	-0.018437	-14.607781
0.600000	-0.023275	-20.654923	-76.866586	73.679901	-76.866586	73.679901	-0.020164	-15.926558
0.650000	-0.025352	-22.361365	-76.395730	72.635951	-76.395730	72.635951	-0.021887	-17.243679
0.700000	-0.027495	-24.064963	-75.997231	71.677919	-75.997231	71.677919	-0.023601	-18.559177
0.750000	-0.029693	-25.765583	-75.664866	70.819943	-75.664866	70.819943	-0.025303	-19.873073
0.800000	-0.031935	-27.463028	-75.395066	70.081859	-75.395066	70.081859	-0.026993	-21.185336
0.850000	-0.034212	-29.156963	-75.187444	69.495164	-75.187444	69.495164	-0.028671	-22.495857
0.900000	-0.036510	-30.847580	-75.034238	69.072777	-75.034238	69.072777	-0.030339	-23.804770
0.950000	-0.038821	-32.534796	-74.932860	68.843139	-74.932860	68.843139	-0.031997	-25.112059
1.000000	-0.041137	-34.218532	-74.880929	68.840116	-74.880929	68.840116	-0.033647	-26.417698
1.050000	-0.043453	-35.898717	-74.875977	69.104016	-74.875977	69.104016	-0.035291	-27.721662
1.100000	-0.045762	-37.575285	-74.915067	69.682639	-74.915067	69.682639	-0.036929	-29.023918
1.150000	-0.048060	-39.247901	-74.996739	70.664435	-74.996739	70.664435	-0.038562	-30.324305
1.200000	-0.050341	-40.916613	-75.112906	72.113367	-75.112906	72.113367	-0.040190	-31.622838
1.250000	-0.052605	-42.581528	-75.252798	74.087562	-75.252798	74.087562	-0.041816	-32.919557
1.300000	-0.054849	-44.242597	-75.403255	76.664093	-75.403255	76.664093	-0.043440	-34.214428
1.350000	-0.057071	-45.899776	-75.545776	79.913486	-75.545776	79.913486	-0.045062	-35.507418
1.400000	-0.059270	-47.553021	-75.655605	83.883894	-75.655605	83.883894	-0.046682	-36.798496
1.450000	-0.061446	-49.202269	-75.701357	88.582166	-75.701357	88.582166	-0.048301	-38.087616
1.500000	-0.063596	-50.847061	-75.634495	93.988411	-75.634495	93.988411	-0.049918	-39.374541
1.550000	-0.065723	-52.487803	-75.431867	99.836903	-75.431867	99.836903	-0.051536	-40.659456
1.600000	-0.067827	-54.124466	-75.074314	105.862132	-75.074314	105.862132	-0.053152	-41.942337
1.650000	-0.069910	-55.757022	-74.560271	111.764013	-74.560271	111.764013	-0.054768	-43.223158
1.700000	-0.071970	-57.385204	-73.895995	117.231721	-73.895995	117.231721	-0.056384	-44.501772
1.750000	-0.074012	-59.009288	-73.124525	122.098029	-73.124525	122.098029	-0.058000	-45.778309
1.800000	-0.076035	-60.629136	-72.274899	126.249534	-72.274899	126.249534	-0.059616	-47.052687
1.850000	-0.078040	-62.244732	-71.379088	129.666962	-71.379088	129.666962	-0.061233	-48.324888
1.900000	-0.080030	-63.856067	-70.463053	132.388278	-70.463053	132.388278	-0.062850	-49.594897
1.950000	-0.082006	-65.463133	-69.545914	134.481859	-69.545914	134.481859	-0.064469	-50.862701
2.000000	-0.083970	-67.065927	-68.640721	136.026754	-68.640721	136.026754	-0.066089	-52.128286
2.050000	-0.085922	-68.664450	-67.755790	137.100840	-67.755790	137.100840	-0.067711	-53.391645
2.100000	-0.087865	-70.258707	-66.896019	137.774956	-66.896019	137.774956	-0.069335	-54.652768
2.150000	-0.089801	-71.848707	-66.063961	138.110777	-66.063961	138.110777	-0.070962	-55.911652
2.200000	-0.091731	-73.434463	-65.260622	138.160690	-65.260622	138.160690	-0.072592	-57.168291
2.250000	-0.093656	-75.015993	-64.486015	137.968598	-64.486015	137.968598	-0.074226	-58.422686
2.300000	-0.095579	-76.593318	-63.739542	137.571060	-63.739542	137.571060	-0.075864	-59.674837
2.350000	-0.097500	-78.166463	-63.020249	136.998451	-63.020249	136.998451	-0.077508	-60.924746
2.400000	-0.099422	-79.735460	-62.326985	136.276027	-62.326985	136.276027	-0.079157	-62.172419
2.450000	-0.101345	-81.300341	-61.658513	135.424835	-61.658513	135.424835	-0.080812	-63.417862
2.500000	-0.103272	-82.861146	-61.013574	134.462477	-61.013574	134.462477	-0.082474	-64.661085
2.550000	-0.105203	-84.417745	-60.389976	133.400128	-60.389976	133.400128	-0.084145	-65.902002
2.600000	-0.107141	-85.970360	-59.787628	132.254806	-59.787628	132.254806	-0.085823	-67.140725
2.650000	-0.109086	-87.519045	-59.205374	131.036861	-59.205374	131.036861	-0.087511	-68.377268
2.700000	-0.111040	-89.063856	-58.642123	129.755125	-58.642123	129.755125	-0.089210	-69.611649
2.750000	-0.113005	-90.604850	-58.096857	128.417169	-58.096857	128.417169	-0.090919	-70.843887
2.800000	-0.114980	-92.142093	-57.568625	127.029510	-57.568625	127.029510	-0.092639	-72.074004
2.850000	-0.116968	-93.675653	-57.056542	125.597781	-57.056542	125.597781	-0.094372	-73.302024
2.900000	-0.118969	-95.205599	-56.559786	124.126870	-56.559786	124.126870	-0.096119	-74.527972
2.950000	-0.120986	-96.732009	-56.077592	122.621038	-56.077592	122.621038	-0.097879	-75.751876
3.000000	-0.123018	-98.254962	-55.609251	121.084010	-55.609251	121.084010	-0.099655	-76.973765
3.050000	-0.125066	-99.774539	-55.154100	119.519054	-55.154100	119.519054	-0.101446	-78.193671
3.100000	-0.127133	-101.290828	-54.711525	117.929050	-54.711525	117.929050	-0.103254	-79.411628
3.150000	-0.129219	-102.803918	-54.280953	116.316539	-54.280953	116.316539	-0.105079	-80.627672
3.200000	-0.131324	-104.313904	-53.861851	114.683772	-53.861851	114.683772	-0.106922	-81.841841
3.250000	-0.133450	-105.820882	-53.453720	113.032750	-53.453720	113.032750	-0.108785	-83.054173
3.300000	-0.135598	-107.324953	-53.056096	111.365254	-53.056096	111.365254	-0.110667	-84.264711
3.350000	-0.137768	-108.826220	-52.668542	109.682873	-52.668542	109.682873	-0.112571	-85.473499
3.400000	-0.139962	-110.324789	-52.290651	107.987031	-52.290651	107.987031	-0.114496	-86.680582
3.450000	-0.142179	-111.820771	-51.922042	106.279002	-51.922042	106.279002	-0.116443	-87.886009
3.500000	-0.144421	-113.314279	-51.562357	104.559932	-51.562357	104.559932	-0.118414	-89.089828
3.550000	-0.146689	-114.805428	-51.211259	102.830853	-51.211259	102.830853	-0.120408	-90.292092
3.600000	-0.148984	-116.294338	-50.868431	101.092693	-50.868431	101.092693	-0.122428	-91.492854
3.650000	-0.151305	-117.781129	-50.533577	99.346292	-50.533577	99.346292	-0.124473	-92.692170
3.700000	-0.153654	-119.265926	-50.206416	97.592407	-50.206416	97.592407	-0.126545	-93.890097
3.750000	-0.156031	-120.748856	-49.886683	95.831727	-49.886683	95.831727	-0.128644	-95.086695
3.800000	-0.158438	-122.229979	-49.573955	94.064631	-49.573955	94.064631	-0.130772	-96.281973
3.850000	-0.160874	-123.709509	-49.268194	92.291972	-49.268194	92.291972	-0.132930	-97.476053
3.900000	-0.163341	-125.187580	-48.969175	90.514256	-48.969175	90.514256	-0.135117	-98.669001
3.950000	-0.165838	-126.664330	-48.676688	88.731943	-48.676688	88.731943	-0.137334	-99.860884
4.000000	-0.168367	-128.139898	-48.390532	86.945453	-48.390532	86.945453	-0.139582	-101.051771
4.050000	-0.170927	-129.614426	-48.110517	85.155167	-48.110517	85.155167	-0.141863	-102.241735
4.100000	-0.173518	-131.088057	-47.836464	83.361433	-47.836464	83.361433	-0.144176	-103.430848
4.150000	-0.176143	-132.560938	-47.568203	81.564568	-47.568203	81.564568	-0.146522	-104.619185
4.200000	-0.178800	-134.033216	-47.305572	79.764862	-47.305572	79.764862	-0.148903	-105.806825
4.250000	-0.181490	-135.505041	-47.048420	77.962579	-47.048420	77.962579	-0.151319	-106.993847
4.300000	-0.184213	-136.976565	-46.796600	76.157960	-46.796600	76.157960	-0.153770	-108.180330
4.350000	-0.186971	-138.447941	-46.549976	74.351226	-46.549976	74.351226	-0.156257	-109.366359
4.400000	-0.189762	-139.919325	-46.308418	72.542578	-46.308418	72.542578	-0.158781	-110.552019
4.450000	-0.192588	-141.390873	-46.071802	70.732202	-46.071802	70.732202	-0.161343	-111.737396
4.500000	-0.195448	-142.862745	-45.840010	68.920265	-45.840010	68.920265	-0.163943	-112.922578
4.550000	-0.198343	-144.335099	-45.612931	67.106924	-45.612931	67.106924	-0.166582	-114.107658
4.600000	-0.201273	-145.808097	-45.390460	65.292319	-45.390460	65.292319	-0.169261	-115.292726
4.650000	-0.204238	-147.281903	-45.172497	63.476582	-45.172497	63.476582	-0.171980	-116.477879
4.700000	-0.207238	-148.756681	-44.958946	61.659831	-44.958946	61.659831	-0.174739	-117.663212
4.750000	-0.210273	-150.232595	-44.749717	59.842179	-44.749717	59.842179	-0.177541	-118.848824
4.800000	-0.213344	-151.709814	-44.544725	58.023725	-44.544725	58.023725	-0.180384	-120.034816
4.850000	-0.216449	-153.188504	-44.343890	56.204566	-44.343890	56.204566	-0.183271	-121.221289
4.900000	-0.219590	-154.668834	-44.147134	54.384787	-44.147134	54.384787	-0.186200	-122.408348
4.950000	-0.222765	-156.150975	-43.954386	52.564471	-43.954386	52.564471	-0.189174	-123.596100
5.000000	-0.225976	-157.635096	-43.765576	50.743693	-43.765576	50.743693	-0.192193	-124.784651
5.050000	-0.229223	-159.121472	-43.580639	48.922512	-43.580639	48.922512	-0.195258	-125.974159
5.100000	-0.232505	-160.610188	-43.399523	47.101014	-43.399523	47.101014	-0.198369	-127.164700
5.150000	-0.235821	-162.101418	-43.222173	45.279263	-43.222173	45.279263	-0.201527	-128.356388
5.200000	-0.239171	-163.595334	-43.048533	43.457319	-43.048533	43.457319	-0.204732	-129.549341
5.250000	-0.242556	-165.092111	-42.878551	41.635240	-42.878551	41.635240	-0.207984	-130.743677
5.300000	-0.245973	-166.591923	-42.712181	39.813085	-42.712181	39.813085	-0.211284	-131.939515
5.350000	-0.249424	-168.094945	-42.549378	37.990907	-42.549378	37.990907	-0.214632	-133.136980
5.400000	-0.252908	-169.601351	-42.390099	36.168763	-42.390099	36.168763	-0.218030	-134.336195
5.450000	-0.256424	-171.111316	-42.234306	34.346705	-42.234306	34.346705	-0.221477	-135.537287
5.500000	-0.259972	-172.625016	-42.081964	32.524790	-42.081964	32.524790	-0.224974	-136.740384
5.550000	-0.263551	-174.142623	-41.933038	30.703071	-41.933038	30.703071	-0.228522	-137.945618
5.600000	-0.267161	-175.664313	-41.787497	28.881605	-41.787497	28.881605	-0.232120	-139.153122
5.650000	-0.270801	-177.190260	-41.645315	27.060449	-41.645315	27.060449	-0.235770	-140.363029
5.700000	-0.274471	-178.720637	-41.506466	25.239663	-41.506466	25.239663	-0.239472	-141.575478
5.750000	-0.278169	179.744384	-41.370925	23.419307	-41.370925	23.419307	-0.243226	-142.790607
5.800000	-0.281896	178.204631	-41.238674	21.599447	-41.238674	21.599447	-0.247033	-144.008558
5.850000	-0.285650	176.659932	-41.109694	19.780148	-41.109694	19.780148	-0.250893	-145.229473
5.900000	-0.289430	175.110119	-40.983968	17.961481	-40.983968	17.961481	-0.254806	-146.453499
5.950000	-0.293236	173.555022	-40.861483	16.143520	-40.861483	16.143520	-0.258773	-147.680784
6.000000	-0.297067	171.994474	-40.742229	14.326345	-40.742229	14.326345	-0.262795	-148.911476
6.050000	-0.300921	170.428310	-40.626195	12.510038	-40.626195	12.510038	-0.266870	-150.145728
6.100000	-0.304798	168.856367	-40.513375	10.694687	-40.513375	10.694687	-0.271001	-151.383695
6.150000	-0.308697	167.278482	-40.403765	8.880386	-40.403765	8.880386	-0.275186	-152.625531
6.200000	-0.312617	165.694495	-40.297360	7.067236	-40.297360	7.067236	-0.279427	-153.871396
6.250000	-0.316557	164.104250	-40.194162	5.255342	-40.194162	5.255342	-0.283723	-155.121450
6.300000	-0.320515	162.507306	-40.094264	3.444884	-40.094264	3.444884	-0.288077	-156.376053
6.350000	-0.324491	160.903782	-39.997583	1.635929	-39.997583	1.635929	-0.292487	-157.635187
6.400000	-0.328484	159.293530	-39.904128	-0.171392	-39.904128	-0.171392	-0.296953	-158.899020
6.450000	-0.332491	157.676405	-39.813904	-1.976941	-39.813904	-1.976941	-0.301475	-160.167722
6.500000	-0.336512	156.052264	-39.726922	-3.780569	-39.726922	-3.780569	-0.306054	-161.441463
6.550000	-0.340545	154.420969	-39.643195	-5.582117	-39.643195	-5.582117	-0.310689	-162.720417
6.600000	-0.344589	152.782386	-39.562735	-7.381417	-39.562735	-7.381417	-0.315380	-164.004760
6.650000	-0.348644	151.136383	-39.485560	-9.178288	-39.485560	-9.178288	-0.320128	-165.294668
6.700000	-0.352706	149.482835	-39.411687	-10.972538	-39.411687	-10.972538	-0.324932	-166.590322
6.750000	-0.356777	147.821621	-39.341136	-12.763960	-39.341136	-12.763960	-0.329792	-167.891903
6.800000	-0.360853	146.152623	-39.273931	-14.552337	-39.273931	-14.552337	-0.334708	-169.199594
6.850000	-0.364933	144.475730	-39.210094	-16.337435	-39.210094	-16.337435	-0.339680	-170.513580
6.900000	-0.369017	142.790836	-39.149654	-18.119005	-39.149654	-18.119005	-0.344708	-171.834048
6.950000	-0.373104	141.097841	-39.092638	-19.896781	-39.092638	-19.896781	-0.349792	-173.161186
7.000000	-0.377191	139.396649	-39.039077	-21.670479	-39.039077	-21.670479	-0.354930	-174.495185
7.050000	-0.381277	137.687172	-38.989004	-23.439800	-38.989004	-23.439800	-0.360124	-175.836236
7.100000	-0.385362	135.969327	-38.942455	-25.204419	-38.942455	-25.204419	-0.365372	-177.184533
7.150000	-0.389444	134.243040	-38.899467	-26.963995	-38.899467	-26.963995	-0.370674	-178.540270
7.200000	-0.393522	132.508241	-38.860079	-28.718162	-38.860079	-28.718162	-0.376030	-179.903642
7.250000	-0.397595	130.764868	-38.824334	-30.466530	-38.824334	-30.466530	-0.381439	178.725152
7.300000	-0.401663	129.012867	-38.792276	-32.208681	-38.792276	-32.208681	-0.386900	177.345916
7.350000	-0.405723	127.252191	-38.763951	-33.944174	-38.763951	-33.944174	-0.392414	175.958450
7.400000	-0.409776	125.482800	-38.739409	-35.672533	-38.739409	-35.672533	-0.397978	174.562555
7.450000	-0.413820	123.704664	-38.718701	-37.393253	-38.718701	-37.393253	-0.403592	173.158030
7.500000	-0.417855	121.917757	-38.701881	-39.105793	-38.701881	-39.105793	-0.409256	171.744676
7.550000	-0.421881	120.121683	-38.689181	-40.809166	-38.689181	-40.809166	-0.414971	170.321890
7.600000	-0.425896	118.316818	-38.680491	-42.503104	-38.680491	-42.503104	-0.420732	168.889854
7.650000	-0.429902	116.503162	-38.675875	-44.186940	-38.675875	-44.186940	-0.426540	167.448369
7.700000	-0.433897	114.680729	-38.675395	-45.859958	-38.675395	-45.859958	-0.432394	165.997235
7.750000	-0.437884	112.850011	-38.678889	-47.522051	-38.678889	-47.522051	-0.438289	164.536795
7.800000	-0.441860	111.010179	-38.686837	-49.171270	-38.686837	-49.171270	-0.444228	163.065889
7.850000	-0.445828	109.161651	-38.699131	-50.807224	-38.699131	-50.807224	-0.450209	161.584744
7.900000	-0.449788	107.304471	-38.715846	-52.428966	-38.715846	-52.428966	-0.456230	160.093166
7.950000	-0.453742	105.438690	-38.737061	-54.035479	-38.737061	-54.035479	-0.462289	158.590962
8.000000	-0.457690	103.564370	-38.762857	-55.625663	-38.762857	-55.625663	-0.468385	157.077942
8.050000	-0.461634	101.681578	-38.793316	-57.198336	-38.793316	-57.198336	-0.474516	155.553917
8.100000	-0.465577	99.790391	-38.828525	-58.752217	-38.828525	-58.752217	-0.480680	154.018703
8.150000	-0.469521	97.890802	-38.868623	-60.285687	-38.868623	-60.285687	-0.486875	152.471993
8.200000	-0.473469	95.982904	-38.913702	-61.797193	-38.913702	-61.797193	-0.493100	150.913604
8.250000	-0.477424	94.066883	-38.963802	-63.285320	-38.963802	-63.285320	-0.499352	149.343487
8.300000	-0.481390	92.142842	-39.019014	-64.748291	-39.019014	-64.748291	-0.505629	147.761475
8.350000	-0.485371	90.210886	-39.079432	-66.184176	-39.079432	-66.184176	-0.511928	146.167405
8.400000	-0.489372	88.271128	-39.145145	-67.590869	-39.145145	-67.590869	-0.518248	144.561122
8.450000	-0.493398	86.323681	-39.216245	-68.966074	-39.216245	-68.966074	-0.524586	142.942477
8.500000	-0.497455	84.368663	-39.292815	-70.307282	-39.292815	-70.307282	-0.530939	141.311327
8.550000	-0.501549	82.406192	-39.374937	-71.611749	-39.374937	-71.611749	-0.537305	139.667538
8.600000	-0.505689	80.436387	-39.462683	-72.876469	-39.462683	-72.876469	-0.543681	138.010984
8.650000	-0.509882	78.459365	-39.556113	-74.098145	-39.556113	-74.098145	-0.550064	136.341547
8.700000	-0.514136	76.475241	-39.655274	-75.273159	-39.655274	-75.273159	-0.556452	134.659121
8.750000	-0.518462	74.484128	-39.760191	-76.397540	-39.760191	-76.397540	-0.562842	132.963608
8.800000	-0.522873	72.485982	-39.870956	-77.465613	-39.870956	-77.465613	-0.569230	131.254635
8.850000	-0.527380	70.481054	-39.987434	-78.473646	-39.987434	-78.473646	-0.575613	129.532413
8.900000	-0.531994	68.469431	-40.109542	-79.416334	-40.109542	-79.416334	-0.581989	127.796880
8.950000	-0.536732	66.451188	-40.237143	-80.287849	-40.237143	-80.287849	-0.588354	126.047990
9.000000	-0.541608	64.426387	-40.370030	-81.081810	-40.370030	-81.081810	-0.594705	124.285709
9.050000	-0.546642	62.395071	-40.507906	-81.791237	-40.507906	-81.791237	-0.601039	122.510019
9.100000	-0.551851	60.357262	-40.650365	-82.408534	-40.650365	-82.408534	-0.607353	120.720916
9.150000	-0.557259	58.312961	-40.796863	-82.925467	-40.796863	-82.925467	-0.613644	118.918415
9.200000	-0.562887	56.262140	-40.946690	-83.333181	-40.946690	-83.333181	-0.619907	117.102544
9.250000	-0.568764	54.204738	-41.098930	-83.622240	-41.098930	-83.622240	-0.626141	115.273354
9.300000	-0.574918	52.140661	-41.252421	-83.782719	-41.252421	-83.782719	-0.632342	113.430910
9.350000	-0.581381	50.069772	-41.405707	-83.804363	-41.405707	-83.804363	-0.638507	111.575298
9.400000	-0.588193	47.991810	-41.556910	-83.675096	-41.556910	-83.675096	-0.644632	109.706483
9.450000	-0.595397	45.906530	-41.703743	-83.384545	-41.703743	-83.384545	-0.650714	107.824597
9.500000	-0.603034	43.813709	-41.843576	-82.925153	-41.843576	-82.925153	-0.656751	105.929930
9.550000	-0.611156	41.712980	-41.973234	-82.289278	-41.973234	-82.289278	-0.662739	104.022654
9.600000	-0.619818	39.603900	-42.089032	-81.471688	-42.089032	-81.471688	-0.668677	102.102961
9.650000	-0.629087	37.485938	-42.186789	-80.470603	-42.186789	-80.470603	-0.674562	100.171068
9.700000	-0.639035	35.358467	-42.261890	-79.288849	-42.261890	-79.288849	-0.680391	98.227212
9.750000	-0.649747	33.220750	-42.309414	-77.935038	-42.309414	-77.935038	-0.686163	96.271657
9.800000	-0.661317	31.071924	-42.324333	-76.424606	-42.324333	-76.424606	-0.691874	94.304689
9.850000	-0.673854	28.910986	-42.301782	-74.780504	-42.301782	-74.780504	-0.697524	92.326617
9.900000	-0.687484	26.736772	-42.237382	-73.033334	-42.237382	-73.033334	-0.703110	90.337777
9.950000	-0.702352	24.547935	-42.127589	-71.220732	-42.127589	-71.220732	-0.708632	88.338526
10.000000	-0.718626	22.342924	-41.970007	-69.385936	-41.970007	-69.385936	-0.714088	86.329247
