! freq	dB(S11)	phase(S11)	dB(S12)	phase(S12)	
!     	dB(S21)	phase(S21)	dB(S22)	phase(S22)	
!S-par simulation data
#  GHz  S  DB  R 50
0.000000	0.000000	-0.000000	-323.407191	180.000000	-323.407191	180.000000	0.000000	-0.000000
0.050000	-0.002824	-3.711107	-94.869238	87.808655	-94.869238	87.808655	-0.000625	-0.821845
0.100000	-0.008743	-7.395836	-88.891110	85.611365	-88.891110	85.611365	-0.001882	-1.638349
0.150000	-0.014678	-11.055300	-85.436239	83.410882	-85.436239	83.410882	-0.003111	-2.450777
0.200000	-0.019942	-14.698285	-83.020445	81.216690	-83.020445	81.216690	-0.004213	-3.261404
0.250000	-0.024664	-18.326469	-81.185168	79.041789	-81.185168	79.041789	-0.005231	-4.071064
0.300000	-0.029128	-21.939682	-79.723236	76.898102	-79.723236	76.898102	-0.006220	-4.880104
0.350000	-0.033490	-25.536840	-78.523145	74.793734	-78.523145	74.793734	-0.007205	-5.688626
0.400000	-0.037814	-29.116085	-77.520241	72.736457	-77.520241	72.736457	-0.008195	-6.496660
0.450000	-0.042121	-32.673664	-76.678236	70.738987	-76.678236	70.738987	-0.009194	-7.304186
0.500000	-0.046408	-36.209126	-75.964830	68.805372	-75.964830	68.805372	-0.010203	-8.111255
0.550000	-0.050661	-39.720988	-75.359848	66.943109	-75.359848	66.943109	-0.011221	-8.917881
0.600000	-0.054861	-43.207113	-74.850283	65.163009	-74.850283	65.163009	-0.012245	-9.724055
0.650000	-0.058983	-46.664535	-74.428457	63.481224	-74.428457	63.481224	-0.013275	-10.529747
0.700000	-0.063015	-50.093732	-74.082150	61.904152	-74.082150	61.904152	-0.014308	-11.334972
0.750000	-0.066940	-53.493487	-73.805203	60.445786	-73.805203	60.445786	-0.015342	-12.139706
0.800000	-0.070739	-56.861019	-73.595889	59.130727	-73.595889	59.130727	-0.016376	-12.943887
0.850000	-0.074400	-60.194865	-73.450927	57.984240	-73.450927	57.984240	-0.017407	-13.747469
0.900000	-0.077933	-63.497977	-73.360647	57.009855	-73.360647	57.009855	-0.018435	-14.550480
0.950000	-0.081313	-66.764076	-73.331701	56.272315	-73.331701	56.272315	-0.019459	-15.352773
1.000000	-0.084558	-69.997157	-73.354255	55.777682	-73.354255	55.777682	-0.020478	-16.154394
1.050000	-0.087663	-73.193988	-73.429913	55.593003	-73.429913	55.593003	-0.021492	-16.955245
1.100000	-0.090633	-76.354875	-73.554631	55.767158	-73.554631	55.767158	-0.022503	-17.755301
1.150000	-0.093481	-79.480958	-73.722353	56.350521	-73.722353	56.350521	-0.023511	-18.554558
1.200000	-0.096203	-82.568637	-73.930138	57.465948	-73.930138	57.465948	-0.024516	-19.352900
1.250000	-0.098824	-85.623500	-74.164133	59.114530	-74.164133	59.114530	-0.025520	-20.150434
1.300000	-0.101330	-88.638009	-74.411686	61.527221	-74.411686	61.527221	-0.026523	-20.946940
1.350000	-0.103750	-91.620027	-74.651383	64.639031	-74.651383	64.639031	-0.027526	-21.742591
1.400000	-0.106077	-94.564369	-74.848866	68.626095	-74.848866	68.626095	-0.028529	-22.537219
1.450000	-0.108325	-97.474855	-74.972167	73.403023	-74.972167	73.403023	-0.029533	-23.330899
1.500000	-0.110499	-100.350627	-74.976401	78.891573	-74.976401	78.891573	-0.030539	-24.123576
1.550000	-0.112602	-103.191582	-74.822501	84.874287	-74.822501	84.874287	-0.031547	-24.915213
1.600000	-0.114645	-106.000936	-74.502786	91.002421	-74.502786	91.002421	-0.032556	-25.705874
1.650000	-0.116623	-108.774906	-73.994505	96.904881	-73.994505	96.904881	-0.033567	-26.495405
1.700000	-0.118551	-111.519269	-73.351332	102.320182	-73.351332	102.320182	-0.034580	-27.283954
1.750000	-0.120427	-114.231486	-72.591004	107.002222	-72.591004	107.002222	-0.035595	-28.071401
1.800000	-0.122256	-116.913279	-71.758551	110.885938	-71.758551	110.885938	-0.036612	-28.857764
1.850000	-0.124043	-119.565475	-70.888404	113.983224	-70.888404	113.983224	-0.037631	-29.643029
1.900000	-0.125786	-122.184989	-69.995317	116.271556	-69.995317	116.271556	-0.038651	-30.427029
1.950000	-0.127499	-124.780398	-69.121887	118.025134	-69.121887	118.025134	-0.039673	-31.210054
2.000000	-0.129179	-127.348840	-68.266798	119.240484	-68.266798	119.240484	-0.040696	-31.991949
2.050000	-0.130832	-129.891217	-67.437011	120.002066	-67.437011	120.002066	-0.041720	-32.772706
2.100000	-0.132461	-132.408441	-66.636241	120.383914	-66.636241	120.383914	-0.042744	-33.552316
2.150000	-0.134068	-134.901433	-65.866074	120.448790	-65.866074	120.448790	-0.043769	-34.330773
2.200000	-0.135658	-137.371117	-65.126747	120.248946	-65.126747	120.248946	-0.044794	-35.108074
2.250000	-0.137234	-139.818422	-64.417681	119.827492	-64.417681	119.827492	-0.045817	-35.884219
2.300000	-0.138800	-142.244280	-63.737821	119.219874	-63.737821	119.219874	-0.046836	-36.659211
2.350000	-0.140358	-144.649622	-63.085863	118.455234	-63.085863	118.455234	-0.047849	-37.433063
2.400000	-0.141914	-147.035376	-62.460390	117.557583	-62.460390	117.557583	-0.048848	-38.205798
2.450000	-0.143470	-149.402472	-61.859962	116.546769	-61.859962	116.546769	-0.049821	-38.977448
2.500000	-0.145029	-151.751835	-61.283164	115.439271	-61.283164	115.439271	-0.050746	-39.748054
2.550000	-0.146596	-154.083698	-60.728074	114.245762	-60.728074	114.245762	-0.051563	-40.517564
2.600000	-0.148173	-156.399750	-60.194092	112.981688	-60.194092	112.981688	-0.052163	-41.285634
2.650000	-0.149764	-158.700904	-59.679996	111.656539	-59.679996	111.656539	-0.052445	-42.050365
2.700000	-0.151372	-160.988068	-59.184652	110.278362	-59.184652	110.278362	-0.052894	-42.808736
2.750000	-0.153001	-163.262148	-58.707008	108.854009	-58.707008	108.854009	-0.054256	-43.565064
2.800000	-0.154653	-165.524045	-58.246094	107.389342	-58.246094	107.389342	-0.055979	-44.323934
2.850000	-0.156331	-167.774657	-57.801014	105.889398	-57.801014	105.889398	-0.057566	-45.084045
2.900000	-0.158039	-170.014879	-57.370943	104.358519	-57.370943	104.358519	-0.058963	-45.843580
2.950000	-0.159779	-172.245603	-56.955118	102.800466	-56.955118	102.800466	-0.060244	-46.601812
3.000000	-0.161555	-174.467723	-56.552837	101.218508	-56.552837	101.218508	-0.061462	-47.358560
3.050000	-0.163369	-176.682130	-56.163452	99.615495	-56.163452	99.615495	-0.062649	-48.113800
3.100000	-0.165224	-178.889716	-55.786363	97.993925	-55.786363	97.993925	-0.063820	-48.867536
3.150000	-0.167123	178.908623	-55.421018	96.355993	-55.421018	96.355993	-0.064985	-49.619781
3.200000	-0.169068	176.711989	-55.066906	94.703634	-55.066906	94.703634	-0.066147	-50.370541
3.250000	-0.171064	174.519479	-54.723554	93.038560	-54.723554	93.038560	-0.067313	-51.119821
3.300000	-0.173112	172.330183	-54.390525	91.362295	-54.390525	91.362295	-0.068482	-51.867623
3.350000	-0.175212	170.143091	-54.067574	89.676840	-54.067574	89.676840	-0.069657	-52.614061
3.400000	-0.177374	167.957526	-53.753975	87.982016	-53.753975	87.982016	-0.070841	-53.358899
3.450000	-0.179598	165.772394	-53.449607	86.279825	-53.449607	86.279825	-0.072033	-54.102289
3.500000	-0.181890	163.586678	-53.154034	84.570742	-53.154034	84.570742	-0.073234	-54.844106
3.550000	-0.184252	161.399397	-52.867072	82.856149	-52.867072	82.856149	-0.074446	-55.584450
3.600000	-0.186684	159.209633	-52.588436	81.136861	-52.588436	81.136861	-0.075669	-56.323335
3.650000	-0.189193	157.016355	-52.317844	79.413506	-52.317844	79.413506	-0.076903	-57.060728
3.700000	-0.191788	154.818205	-52.055050	77.686627	-52.055050	77.686627	-0.078150	-57.796543
3.750000	-0.194468	152.614426	-51.799864	75.957107	-51.799864	75.957107	-0.079409	-58.530887
3.800000	-0.197238	150.403979	-51.552063	74.225495	-51.552063	74.225495	-0.080682	-59.263756
3.850000	-0.200107	148.185340	-51.311470	72.492263	-51.311470	72.492263	-0.081968	-59.995073
3.900000	-0.203084	145.957236	-51.077930	70.757996	-51.077930	70.757996	-0.083269	-60.724843
3.950000	-0.206170	143.718831	-50.851252	69.023232	-50.851252	69.023232	-0.084584	-61.453128
4.000000	-0.209373	141.468894	-50.631276	67.288427	-50.631276	67.288427	-0.085914	-62.179926
4.050000	-0.212711	139.204970	-50.417964	65.554106	-50.417964	65.554106	-0.087261	-62.905115
4.100000	-0.216189	136.926359	-50.211131	63.820736	-50.211131	63.820736	-0.088623	-63.628792
4.150000	-0.219814	134.631778	-50.010637	62.088751	-50.010637	62.088751	-0.090002	-64.350976
4.200000	-0.223601	132.319363	-49.816403	60.358630	-49.816403	60.358630	-0.091397	-65.071640
4.250000	-0.227577	129.986060	-49.628472	58.631027	-49.628472	58.631027	-0.092811	-65.790694
4.300000	-0.231745	127.631412	-49.446623	56.906271	-49.446623	56.906271	-0.094243	-66.508251
4.350000	-0.236123	125.253501	-49.270780	55.184844	-49.270780	55.184844	-0.095692	-67.224311
4.400000	-0.240742	122.848959	-49.101003	53.467463	-49.101003	53.467463	-0.097161	-67.938804
4.450000	-0.245630	120.415146	-48.937270	51.754763	-48.937270	51.754763	-0.098649	-68.651731
4.500000	-0.250803	117.950772	-48.779420	50.047148	-48.779420	50.047148	-0.100156	-69.363162
4.550000	-0.256291	115.453158	-48.627423	48.345248	-48.627423	48.345248	-0.101683	-70.073098
4.600000	-0.262159	112.916283	-48.481527	46.650308	-48.481527	46.650308	-0.103231	-70.781426
4.650000	-0.268432	110.338647	-48.341552	44.962802	-48.341552	44.962802	-0.104801	-71.488238
4.700000	-0.275151	107.717224	-48.207448	43.283471	-48.207448	43.283471	-0.106391	-72.193559
4.750000	-0.282378	105.047303	-48.079286	41.613396	-48.079286	41.613396	-0.108002	-72.897373
4.800000	-0.290222	102.320340	-47.957396	39.954461	-47.957396	39.954461	-0.109637	-73.599584
4.850000	-0.298720	99.535020	-47.841511	38.307179	-47.841511	38.307179	-0.111295	-74.300314
4.900000	-0.307958	96.685678	-47.731686	36.672943	-47.731686	36.672943	-0.112974	-74.999566
4.950000	-0.318081	93.762514	-47.628213	35.054071	-47.628213	35.054071	-0.114677	-75.697278
5.000000	-0.329237	90.756607	-47.531242	33.452827	-47.531242	33.452827	-0.116405	-76.393448
5.050000	-0.341529	87.663044	-47.440627	31.870686	-47.440627	31.870686	-0.118157	-77.088151
5.100000	-0.355130	84.472351	-47.356472	30.310190	-47.356472	30.310190	-0.119933	-77.781394
5.150000	-0.370375	81.164579	-47.279343	28.776449	-47.279343	28.776449	-0.121734	-78.473072
5.200000	-0.387464	77.731264	-47.209064	27.272181	-47.209064	27.272181	-0.123562	-79.163272
5.250000	-0.406671	74.159654	-47.145628	25.801227	-47.145628	25.801227	-0.125414	-79.852027
5.300000	-0.428389	70.430743	-47.089193	24.369163	-47.089193	24.369163	-0.127293	-80.539327
5.350000	-0.453236	66.514306	-47.040124	22.984814	-47.040124	22.984814	-0.129199	-81.225114
5.400000	-0.481688	62.391576	-46.998128	21.654467	-46.998128	21.654467	-0.131132	-81.909452
5.450000	-0.514539	58.027881	-46.963164	20.388960	-46.963164	20.388960	-0.133092	-82.592323
5.500000	-0.552629	53.389809	-46.934779	19.199218	-46.934779	19.199218	-0.135080	-83.273754
5.550000	-0.597090	48.432101	-46.912306	18.099761	-46.912306	18.099761	-0.137097	-83.953744
5.600000	-0.649302	43.101391	-46.894553	17.107498	-46.894553	17.107498	-0.139143	-84.632299
5.650000	-0.710856	37.338458	-46.879547	16.240526	-46.879547	16.240526	-0.141217	-85.309441
5.700000	-0.783959	31.059018	-46.864270	15.522532	-46.864270	15.522532	-0.143321	-85.985153
5.750000	-0.870737	24.185495	-46.844265	14.971551	-46.844265	14.971551	-0.145455	-86.659481
5.800000	-0.974453	16.587480	-46.812657	14.612572	-46.812657	14.612572	-0.147619	-87.332388
5.850000	-1.097526	8.164315	-46.760956	14.449352	-46.760956	14.449352	-0.149814	-88.003935
5.900000	-1.243359	-1.256437	-46.676795	14.479876	-46.676795	14.479876	-0.152040	-88.674091
5.950000	-1.413669	-11.829148	-46.546622	14.662355	-46.546622	14.662355	-0.154298	-89.342881
6.000000	-1.607902	-23.719389	-46.356834	14.911061	-46.356834	14.911061	-0.156588	-90.010317
6.050000	-1.820741	-37.068911	-46.098050	15.087310	-46.098050	15.087310	-0.158911	-90.676408
6.100000	-2.039307	-51.949731	-45.770386	15.011236	-45.770386	15.011236	-0.161266	-91.341165
6.150000	-2.241509	-68.295745	-45.387629	14.500814	-45.387629	14.500814	-0.163655	-92.004603
6.200000	-2.397682	-85.848074	-44.976354	13.420683	-44.976354	13.420683	-0.166078	-92.666724
6.250000	-2.479810	-104.104368	-44.570778	11.737958	-44.570778	11.737958	-0.168535	-93.327547
6.300000	-2.472480	-122.401365	-44.202736	9.520293	-44.202736	9.520293	-0.171027	-93.987075
6.350000	-2.381956	-140.062461	-43.893797	6.915969	-43.893797	6.915969	-0.173555	-94.645328
6.400000	-2.230839	-156.563554	-43.652744	4.093916	-43.652744	4.093916	-0.176118	-95.302316
6.450000	-2.047453	-171.608265	-43.477686	1.205091	-43.477686	1.205091	-0.178717	-95.958051
6.500000	-1.856138	174.896482	-43.360504	-1.638256	-43.360504	-1.638256	-0.181353	-96.612538
6.550000	-1.673182	162.879257	-43.289936	-4.366759	-43.289936	-4.366759	-0.184025	-97.265795
6.600000	-1.507004	152.197744	-43.255218	-6.945685	-43.255218	-6.945685	-0.186734	-97.917836
6.650000	-1.360658	142.684587	-43.247169	-9.363347	-43.247169	-9.363347	-0.189480	-98.568677
6.700000	-1.234256	134.183302	-43.258647	-11.620200	-43.258647	-11.620200	-0.192263	-99.218316
6.750000	-1.125867	126.526315	-43.283825	-13.728272	-43.283825	-13.728272	-0.195084	-99.866789
6.800000	-1.033394	119.588555	-43.318769	-15.698829	-43.318769	-15.698829	-0.197943	-100.514103
6.850000	-0.954567	113.259109	-43.360560	-17.544526	-43.360560	-17.544526	-0.200840	-101.160273
6.900000	-0.887340	107.447583	-43.407122	-19.276692	-43.407122	-19.276692	-0.203776	-101.805308
6.950000	-0.829850	102.075824	-43.456948	-20.906045	-43.456948	-20.906045	-0.206751	-102.449224
7.000000	-0.780482	97.077517	-43.508955	-22.442230	-43.508955	-22.442230	-0.209765	-103.092043
7.050000	-0.737937	92.399937	-43.562375	-23.892849	-43.562375	-23.892849	-0.212818	-103.733779
7.100000	-0.701251	88.005140	-43.616637	-25.262390	-43.616637	-25.262390	-0.215913	-104.374422
7.150000	-0.669305	83.845022	-43.671285	-26.559399	-43.671285	-26.559399	-0.219047	-105.014036
7.200000	-0.641471	79.894303	-43.725971	-27.786576	-43.725971	-27.786576	-0.222222	-105.652616
7.250000	-0.617143	76.127204	-43.780388	-28.947350	-43.780388	-28.947350	-0.225438	-106.290177
7.300000	-0.595818	72.521929	-43.834255	-30.044505	-43.834255	-30.044505	-0.228696	-106.926737
7.350000	-0.577079	69.059962	-43.887303	-31.080308	-43.887303	-31.080308	-0.231995	-107.562311
7.400000	-0.560579	65.725508	-43.939263	-32.056619	-43.939263	-32.056619	-0.235336	-108.196918
7.450000	-0.546027	62.505035	-43.989856	-32.974986	-43.989856	-32.974986	-0.238720	-108.830573
7.500000	-0.533178	59.386895	-44.038789	-33.836732	-44.038789	-33.836732	-0.242147	-109.463294
7.550000	-0.521855	56.362831	-44.085699	-34.641845	-44.085699	-34.641845	-0.245617	-110.095079
7.600000	-0.511851	53.421969	-44.130298	-35.392635	-44.130298	-35.392635	-0.249132	-110.725965
7.650000	-0.503018	50.556776	-44.172239	-36.090159	-44.172239	-36.090159	-0.252690	-111.355971
7.700000	-0.495233	47.760663	-44.211154	-36.735500	-44.211154	-36.735500	-0.256292	-111.985114
7.750000	-0.488390	45.027846	-44.246662	-37.329817	-44.246662	-37.329817	-0.259938	-112.613412
7.800000	-0.482397	42.353233	-44.278363	-37.874387	-44.278363	-37.874387	-0.263630	-113.240884
7.850000	-0.477175	39.732323	-44.305848	-38.370639	-44.305848	-38.370639	-0.267366	-113.867548
7.900000	-0.472659	37.161128	-44.328702	-38.820188	-44.328702	-38.820188	-0.271148	-114.493423
7.950000	-0.468788	34.636104	-44.346504	-39.224864	-44.346504	-39.224864	-0.274976	-115.118528
8.000000	-0.465513	32.154087	-44.358838	-39.586730	-44.358838	-39.586730	-0.278849	-115.742881
8.050000	-0.462789	29.712249	-44.365294	-39.908101	-44.365294	-39.908101	-0.282769	-116.366503
8.100000	-0.460578	27.308053	-44.365478	-40.191553	-44.365478	-40.191553	-0.286735	-116.989412
8.150000	-0.458853	24.939576	-44.358939	-40.439578	-44.358939	-40.439578	-0.290748	-117.611621
8.200000	-0.457582	22.604694	-44.345320	-40.655391	-44.345320	-40.655391	-0.294809	-118.233150
8.250000	-0.456735	20.301166	-44.324380	-40.842733	-44.324380	-40.842733	-0.298917	-118.854027
8.300000	-0.456290	18.027308	-44.295848	-41.005192	-44.295848	-41.005192	-0.303073	-119.474272
8.350000	-0.456248	15.783120	-44.259024	-41.145588	-44.259024	-41.145588	-0.307279	-120.093872
8.400000	-0.456551	13.564115	-44.214656	-41.269972	-44.214656	-41.269972	-0.311531	-120.712914
8.450000	-0.457197	11.370155	-44.162316	-41.381450	-44.162316	-41.381450	-0.315830	-121.331394
8.500000	-0.458174	9.200094	-44.101951	-41.483996	-44.101951	-41.483996	-0.320177	-121.949333
8.550000	-0.459471	7.052868	-44.033566	-41.581615	-44.033566	-41.581615	-0.324571	-122.566750
8.600000	-0.461109	4.929790	-43.956275	-41.678634	-43.956275	-41.678634	-0.329019	-123.183613
8.650000	-0.463046	2.827571	-43.871105	-41.779449	-43.871105	-41.779449	-0.333515	-123.799996
8.700000	-0.465271	0.745214	-43.778302	-41.887850	-43.778302	-41.887850	-0.338059	-124.415922
8.750000	-0.467778	-1.318102	-43.678114	-42.007464	-43.678114	-42.007464	-0.342652	-125.031413
8.800000	-0.470558	-3.363159	-43.570843	-42.141712	-43.570843	-42.141712	-0.347293	-125.646489
8.850000	-0.473606	-5.390707	-43.456836	-42.293774	-43.456836	-42.293774	-0.351982	-126.261169
8.900000	-0.476927	-7.400786	-43.336158	-42.467567	-43.336158	-42.467567	-0.356722	-126.875460
8.950000	-0.480523	-9.393708	-43.209049	-42.666737	-43.209049	-42.666737	-0.361513	-127.489374
9.000000	-0.484369	-11.371388	-43.076564	-42.891900	-43.076564	-42.891900	-0.366353	-128.102956
9.050000	-0.488462	-13.334510	-42.939201	-43.144880	-42.939201	-43.144880	-0.371241	-128.716225
9.100000	-0.492798	-15.283753	-42.797479	-43.427129	-42.797479	-43.427129	-0.376176	-129.329196
9.150000	-0.497375	-17.219801	-42.651930	-43.739720	-42.651930	-43.739720	-0.381159	-129.941885
9.200000	-0.502190	-19.143345	-42.503094	-44.083336	-42.503094	-44.083336	-0.386189	-130.554298
9.250000	-0.507264	-21.054074	-42.351066	-44.461139	-42.351066	-44.461139	-0.391270	-131.166412
9.300000	-0.512581	-22.953598	-42.196801	-44.870822	-42.196801	-44.870822	-0.396403	-131.778233
9.350000	-0.518136	-24.842966	-42.040962	-45.311001	-42.040962	-45.311001	-0.401592	-132.389740
9.400000	-0.523933	-26.722971	-41.884062	-45.780669	-41.884062	-45.780669	-0.406853	-133.000914
9.450000	-0.529976	-28.594449	-41.726593	-46.278435	-41.726593	-46.278435	-0.412214	-133.611805
9.500000	-0.536273	-30.458285	-41.569021	-46.802524	-41.569021	-46.802524	-0.417705	-134.222670
9.550000	-0.542841	-32.315284	-41.411726	-47.351324	-41.411726	-47.351324	-0.423314	-134.833982
9.600000	-0.549716	-34.166217	-41.255007	-47.923427	-41.255007	-47.923427	-0.428963	-135.445992
9.650000	-0.556894	-36.012797	-41.099427	-48.513724	-41.099427	-48.513724	-0.434593	-136.058320
9.700000	-0.564402	-37.856235	-40.945269	-49.118985	-40.945269	-49.118985	-0.440211	-136.670648
9.750000	-0.572333	-39.697840	-40.792641	-49.736708	-40.792641	-49.736708	-0.445851	-137.282864
9.800000	-0.580573	-41.539212	-40.642031	-50.360071	-40.642031	-50.360071	-0.451517	-137.895024
9.850000	-0.589348	-43.381792	-40.493179	-50.988378	-40.493179	-50.988378	-0.457236	-138.507150
9.900000	-0.598738	-45.228302	-40.346188	-51.614803	-40.346188	-51.614803	-0.463012	-139.119338
9.950000	-0.608693	-47.079527	-40.201099	-52.236407	-40.201099	-52.236407	-0.468832	-139.731611
10.000000	-0.619258	-48.936398	-40.057834	-52.851277	-40.057834	-52.851277	-0.474700	-140.343990
