! freq	dB(S11)	phase(S11)	dB(S12)	phase(S12)	
!     	dB(S21)	phase(S21)	dB(S22)	phase(S22)	
!S-par simulation data
#  GHz  S  DB  R 50
0.000000	-83.727407	0.000000	-0.000566	0.000000	-0.000566	0.000000	-83.727406	0.000000
0.050000	-36.607212	-92.875071	-0.005558	-2.931404	-0.005558	-2.931404	-36.565842	-92.541391
0.100000	-30.577743	-96.017343	-0.014451	-5.825274	-0.014451	-5.825274	-30.571388	-95.496289
0.150000	-27.087873	-98.929247	-0.023850	-8.702591	-0.023850	-8.702591	-27.082836	-98.402371
0.200000	-24.629863	-102.017215	-0.034291	-11.573542	-0.034291	-11.573542	-24.619850	-101.298993
0.250000	-22.725094	-105.085871	-0.046237	-14.439711	-0.046237	-14.439711	-22.717805	-104.176974
0.300000	-21.175717	-108.118385	-0.059826	-17.300687	-0.059826	-17.300687	-21.171040	-107.030489
0.350000	-19.873647	-111.124429	-0.075056	-20.155940	-0.075056	-20.155940	-19.870492	-109.860082
0.400000	-18.753966	-114.110158	-0.091906	-23.004908	-0.091906	-23.004908	-18.751531	-112.668623
0.450000	-17.773886	-117.080265	-0.110242	-25.847516	-0.110242	-25.847516	-17.771737	-115.460343
0.500000	-16.905171	-120.036460	-0.130062	-28.683131	-0.130062	-28.683131	-16.903097	-118.237174
0.550000	-16.126983	-122.980539	-0.151263	-31.511561	-0.151263	-31.511561	-16.124909	-121.001314
0.600000	-15.424086	-125.913394	-0.173767	-34.332505	-0.173767	-34.332505	-15.422003	-123.753941
0.650000	-14.785226	-128.835260	-0.197522	-37.145442	-0.197522	-37.145442	-14.783153	-126.495466
0.700000	-14.201210	-131.746566	-0.222426	-39.950182	-0.222426	-39.950182	-14.199174	-129.226408
0.750000	-13.664989	-134.647332	-0.248399	-42.746353	-0.248399	-42.746353	-13.663014	-131.946811
0.800000	-13.170760	-137.537601	-0.275348	-45.533698	-0.275348	-45.533698	-13.168865	-134.656704
0.850000	-12.713733	-140.417404	-0.303176	-48.312011	-0.303176	-48.312011	-12.711930	-137.356079
0.900000	-12.289978	-143.286700	-0.331788	-51.081077	-0.331788	-51.081077	-12.288269	-140.044852
0.950000	-11.896184	-146.145461	-0.361088	-53.840718	-0.361088	-53.840718	-11.894569	-142.722946
1.000000	-11.529565	-148.993643	-0.390980	-56.590769	-0.390980	-56.590769	-11.528041	-145.390278
1.050000	-11.187592	-151.831375	-0.421361	-59.331241	-0.421361	-59.331241	-11.186153	-148.046952
1.100000	-10.868143	-154.658733	-0.452137	-62.062114	-0.452137	-62.062114	-10.866785	-150.693025
1.150000	-10.569365	-157.475821	-0.483212	-64.783413	-0.483212	-64.783413	-10.568084	-153.328602
1.200000	-10.289626	-160.282780	-0.514497	-67.495203	-0.514497	-67.495203	-10.288421	-155.953835
1.250000	-10.027479	-163.079776	-0.545901	-70.197594	-0.545901	-70.197594	-10.026349	-158.568918
1.300000	-9.781729	-165.866903	-0.577339	-72.890636	-0.577339	-72.890636	-9.780676	-161.173980
1.350000	-9.551122	-168.644494	-0.608729	-75.574619	-0.608729	-75.574619	-9.550150	-163.769406
1.400000	-9.334751	-171.412647	-0.639988	-78.249625	-0.639988	-78.249625	-9.333864	-166.355354
1.450000	-9.131450	-174.171886	-0.671048	-80.916149	-0.671048	-80.916149	-9.130654	-168.932413
1.500000	-8.940458	-176.922396	-0.701839	-83.574379	-0.701839	-83.574379	-8.939759	-171.500842
1.550000	-8.760999	-179.664480	-0.732295	-86.224625	-0.732295	-86.224625	-8.760404	-174.061023
1.600000	-8.592365	177.601543	-0.762354	-88.867221	-0.762354	-88.867221	-8.591878	-176.613356
1.650000	-8.433905	174.875347	-0.791960	-91.502520	-0.791960	-91.502520	-8.433533	-179.158257
1.700000	-8.284905	172.156466	-0.821071	-94.131010	-0.821071	-94.131010	-8.284651	178.303730
1.750000	-8.145405	169.445185	-0.849578	-96.752502	-0.849578	-96.752502	-8.145275	175.772737
1.800000	-8.013956	166.740159	-0.877535	-99.368303	-0.877535	-99.368303	-8.013953	173.247409
1.850000	-7.890826	164.041806	-0.904819	-101.978123	-0.904819	-101.978123	-7.890954	170.727980
1.900000	-7.775223	161.349415	-0.931436	-104.582696	-0.931436	-104.582696	-7.775485	168.213671
1.950000	-7.666749	158.662638	-0.957356	-107.182434	-0.957356	-107.182434	-7.667147	165.704023
2.000000	-7.565352	155.981452	-0.982501	-109.777481	-0.982501	-109.777481	-7.565890	163.198827
2.050000	-7.470053	153.304921	-1.006942	-112.368743	-1.006942	-112.368743	-7.470734	160.697155
2.100000	-7.381440	150.633550	-1.030512	-114.955968	-1.030512	-114.955968	-7.382268	158.199148
2.150000	-7.298219	147.966136	-1.053357	-117.540239	-1.053357	-117.540239	-7.299199	155.703734
2.200000	-7.220963	145.303099	-1.075311	-120.121426	-1.075311	-120.121426	-7.222100	153.210906
2.250000	-7.148758	142.643606	-1.096482	-122.700288	-1.096482	-122.700288	-7.150058	150.719901
2.300000	-7.081710	139.987649	-1.116792	-125.277033	-1.116792	-125.277033	-7.083180	148.230399
2.350000	-7.019498	137.334889	-1.136253	-127.852075	-1.136253	-127.852075	-7.021147	145.741922
2.400000	-6.961738	134.684948	-1.154896	-130.425837	-1.154896	-130.425837	-6.963573	143.253992
2.450000	-6.908614	132.037851	-1.172635	-132.998565	-1.172635	-132.998565	-6.910647	140.766200
2.500000	-6.859324	129.392977	-1.189608	-135.570721	-1.189608	-135.570721	-6.861563	138.278135
2.550000	-6.814487	126.750605	-1.205634	-138.142548	-1.205634	-138.142548	-6.816945	135.789244
2.600000	-6.773141	124.110082	-1.220903	-140.714404	-1.220903	-140.714404	-6.775830	133.299298
2.650000	-6.735673	121.471539	-1.235290	-143.286616	-1.235290	-143.286616	-6.738605	130.807685
2.700000	-6.701594	118.834645	-1.248888	-145.859430	-1.248888	-145.859430	-6.704781	128.314175
2.750000	-6.670883	116.199329	-1.261676	-148.433153	-1.261676	-148.433153	-6.674339	125.818298
2.800000	-6.643460	113.565503	-1.273651	-151.008070	-1.273651	-151.008070	-6.647199	123.319626
2.850000	-6.618957	110.932959	-1.284888	-153.584327	-1.284888	-153.584327	-6.622990	120.818020
2.900000	-6.597643	108.301796	-1.295297	-156.162372	-1.295297	-156.162372	-6.601985	118.312675
2.950000	-6.578904	105.671739	-1.305029	-158.742121	-1.305029	-158.742121	-6.583566	115.803881
3.000000	-6.563151	103.042979	-1.313955	-161.324166	-1.313955	-161.324166	-6.568147	113.290532
3.050000	-6.549815	100.415290	-1.322220	-163.908328	-1.322220	-163.908328	-6.555157	110.773048
3.100000	-6.539088	97.788804	-1.329761	-166.495058	-1.329761	-166.495058	-6.544788	108.250593
3.150000	-6.530729	95.163467	-1.336636	-169.084377	-1.336636	-169.084377	-6.536798	105.723156
3.200000	-6.524645	92.539313	-1.342865	-171.676438	-1.342865	-171.676438	-6.531094	103.190457
3.250000	-6.520877	89.916457	-1.348428	-174.271548	-1.348428	-174.271548	-6.527717	100.651908
3.300000	-6.519089	87.294814	-1.353419	-176.869489	-1.353419	-176.869489	-6.526332	98.107923
3.350000	-6.519507	84.674653	-1.357766	-179.470824	-1.357766	-179.470824	-6.527163	95.557397
3.400000	-6.521866	82.055940	-1.361545	177.924622	-1.361545	177.924622	-6.529945	93.000642
3.450000	-6.526132	79.438800	-1.364762	175.316701	-1.364762	175.316701	-6.534646	90.437333
3.500000	-6.532239	76.823342	-1.367437	172.705329	-1.367437	172.705329	-6.541198	87.867267
3.550000	-6.540126	74.209686	-1.369586	170.090433	-1.369586	170.090433	-6.549541	85.290252
3.600000	-6.549734	71.597955	-1.371227	167.471952	-1.371227	167.471952	-6.559618	82.706111
3.650000	-6.561013	68.988280	-1.372376	164.849832	-1.372376	164.849832	-6.571377	80.114679
3.700000	-6.573914	66.380797	-1.373048	162.224027	-1.373048	162.224027	-6.584771	77.515802
3.750000	-6.588395	63.775643	-1.373258	159.594500	-1.373258	159.594500	-6.599758	74.909339
3.800000	-6.604451	61.173014	-1.373010	156.961140	-1.373010	156.961140	-6.616335	72.294988
3.850000	-6.622018	58.573000	-1.372327	154.324004	-1.372327	154.324004	-6.634437	69.672796
3.900000	-6.641070	55.975737	-1.371220	151.683075	-1.371220	151.683075	-6.654040	67.042656
3.950000	-6.661589	53.381363	-1.369699	149.038341	-1.369699	149.038341	-6.675126	64.404471
4.000000	-6.683562	50.790009	-1.367773	146.389792	-1.367773	146.389792	-6.697682	61.758153
4.050000	-6.706984	48.201806	-1.365450	143.737425	-1.365450	143.737425	-6.721704	59.103623
4.100000	-6.731856	45.616876	-1.362736	141.081237	-1.362736	141.081237	-6.747193	56.440813
4.150000	-6.758187	43.035337	-1.359636	138.421227	-1.359636	138.421227	-6.774160	53.769659
4.200000	-6.785995	40.457303	-1.356153	135.757394	-1.356153	135.757394	-6.802622	51.090107
4.250000	-6.815303	37.882879	-1.352289	133.089739	-1.352289	133.089739	-6.832604	48.402109
4.300000	-6.846147	35.312164	-1.348045	130.418258	-1.348045	130.418258	-6.864140	45.705621
4.350000	-6.878567	32.745251	-1.343421	127.742948	-1.343421	127.742948	-6.897273	43.000605
4.400000	-6.912633	30.182269	-1.338409	125.063759	-1.338409	125.063759	-6.932074	40.286932
4.450000	-6.948409	27.623298	-1.333006	122.380679	-1.333006	122.380679	-6.968607	37.564571
4.500000	-6.985949	25.068367	-1.327211	119.693732	-1.327211	119.693732	-7.006930	34.833581
4.550000	-7.025338	22.517543	-1.321017	117.002891	-1.321017	117.002891	-7.047127	32.093933
4.600000	-7.066668	19.970883	-1.314416	114.308126	-1.314416	114.308126	-7.089295	29.345594
4.650000	-7.110045	17.428442	-1.307399	111.609393	-1.307399	111.609393	-7.133543	26.588528
4.700000	-7.155588	14.890269	-1.299957	108.906643	-1.299957	108.906643	-7.179992	23.822696
4.750000	-7.203425	12.356408	-1.292076	106.199810	-1.292076	106.199810	-7.228777	21.048051
4.800000	-7.253700	9.826903	-1.283746	103.488821	-1.283746	103.488821	-7.280048	18.264540
4.850000	-7.306571	7.301795	-1.274952	100.773585	-1.274952	100.773585	-7.333969	15.472096
4.900000	-7.362210	4.781125	-1.265681	98.053999	-1.265681	98.053999	-7.390720	12.670645
4.950000	-7.420805	2.264935	-1.255919	95.329944	-1.255919	95.329944	-7.450498	9.860093
5.000000	-7.482561	-0.246726	-1.245649	92.601283	-1.245649	92.601283	-7.513518	7.040332
5.050000	-7.547768	-2.753703	-1.234846	89.867753	-1.234846	89.867753	-7.580083	4.211026
5.100000	-7.616610	-5.256029	-1.223506	87.129281	-1.223506	87.129281	-7.650390	1.372221
5.150000	-7.689350	-7.753623	-1.211612	84.385670	-1.211612	84.385670	-7.724715	-1.476265
5.200000	-7.766273	-10.246388	-1.199151	81.636704	-1.199151	81.636704	-7.803360	-4.334643
5.250000	-7.847688	-12.734200	-1.186110	78.882145	-1.186110	78.882145	-7.886653	-7.203157
5.300000	-7.933933	-15.216905	-1.172474	76.121732	-1.172474	76.121732	-7.974950	-10.082093
5.350000	-8.025370	-17.694311	-1.158234	73.355181	-1.158234	73.355181	-8.068637	-12.971777
5.400000	-8.122396	-20.166178	-1.143379	70.582183	-1.143379	70.582183	-8.168135	-15.872581
5.450000	-8.225439	-22.632207	-1.127902	67.802406	-1.127902	67.802406	-8.273901	-18.784933
5.500000	-8.334967	-25.092030	-1.111797	65.015491	-1.111797	65.015491	-8.386436	-21.709319
5.550000	-8.451488	-27.545191	-1.095062	62.221056	-1.095062	62.221056	-8.506283	-24.646288
5.600000	-8.575559	-29.991130	-1.077698	59.418692	-1.077698	59.418692	-8.634040	-27.596464
5.650000	-8.707859	-32.429065	-1.059702	56.607871	-1.059702	56.607871	-8.770437	-30.560710
5.700000	-8.849066	-34.858121	-1.041083	53.788119	-1.041083	53.788119	-8.916211	-33.539849
5.750000	-8.999842	-37.277344	-1.021862	50.959043	-1.021862	50.959043	-9.072085	-36.534632
5.800000	-9.160993	-39.685467	-1.002057	48.120137	-1.002057	48.120137	-9.238940	-39.546079
5.850000	-9.333403	-42.080946	-0.981693	45.270874	-0.981693	45.270874	-9.417754	-42.575336
5.900000	-9.518051	-44.461902	-0.960800	42.410705	-0.960800	42.410705	-9.609613	-45.623706
5.950000	-9.716025	-46.826045	-0.939417	39.539064	-0.939417	39.539064	-9.815737	-48.692663
6.000000	-9.928530	-49.170585	-0.917588	36.655370	-0.917588	36.655370	-10.037492	-51.783889
6.050000	-10.156915	-51.492115	-0.895366	33.759026	-0.895366	33.759026	-10.276423	-54.899312
6.100000	-10.402689	-53.786466	-0.872812	30.849428	-0.872812	30.849428	-10.534281	-58.041154
6.150000	-10.667546	-56.048520	-0.849999	27.925966	-0.849999	27.925966	-10.813067	-61.212000
6.200000	-10.953402	-58.271969	-0.827005	24.988026	-0.827005	24.988026	-11.115079	-64.414883
6.250000	-11.262423	-60.449004	-0.803922	22.035000	-0.803922	22.035000	-11.442974	-67.653405
6.300000	-11.597391	-62.568400	-0.780853	19.065933	-0.780853	19.065933	-11.800215	-70.932885
6.350000	-11.960841	-64.618755	-0.757915	16.080569	-0.757915	16.080569	-12.190143	-74.257917
6.400000	-12.355999	-66.584365	-0.735233	13.078350	-0.735233	13.078350	-12.617099	-77.635170
6.450000	-12.786576	-68.445158	-0.712945	10.058747	-0.712945	10.058747	-13.086304	-81.073101
6.500000	-13.256847	-70.175209	-0.691201	7.021270	-0.691201	7.021270	-13.604109	-84.582647
6.550000	-13.771731	-71.740631	-0.670163	3.965479	-0.670163	3.965479	-14.178358	-88.178302
6.600000	-14.336872	-73.096549	-0.650005	0.890993	-0.650005	0.890993	-14.818899	-91.879773
6.650000	-14.958670	-74.182671	-0.630914	-2.202500	-0.630914	-2.202500	-15.538338	-95.714672
6.700000	-15.644198	-74.916762	-0.613089	-5.315231	-0.613089	-5.315231	-16.353171	-99.723026
6.750000	-16.400840	-75.184947	-0.596738	-8.447342	-0.596738	-8.447342	-17.285553	-103.965223
6.800000	-17.235303	-74.827437	-0.582082	-11.598867	-0.582082	-11.598867	-18.366170	-108.536816
6.850000	-18.151224	-73.618252	-0.569351	-14.769730	-0.569351	-14.769730	-19.639066	-113.598002
6.900000	-19.143047	-71.221905	-0.558806	-17.959928	-0.558806	-17.959928	-21.170368	-119.452101
6.950000	-20.183677	-67.188546	-0.550702	-21.169101	-0.550702	-21.169101	-23.061623	-126.713293
7.000000	-21.204228	-61.010528	-0.545262	-24.396541	-0.545262	-24.396541	-25.469087	-136.770156
7.050000	-22.064093	-52.290535	-0.542737	-27.641586	-0.542737	-27.641586	-28.567106	-153.390411
7.100000	-22.551270	-41.247813	-0.543376	-30.903411	-0.543376	-30.903411	-31.795822	173.827998
7.150000	-22.478933	-29.183944	-0.547425	-34.181019	-0.547425	-34.181019	-31.624502	126.227379
7.200000	-21.839444	-18.038082	-0.555123	-37.473238	-0.555123	-37.473238	-28.190560	94.001590
7.250000	-20.811521	-9.180577	-0.566702	-40.778719	-0.566702	-40.778719	-24.924286	77.487793
7.300000	-19.610047	-2.901506	-0.582378	-44.095940	-0.582378	-44.095940	-22.343929	67.408385
7.350000	-18.382166	1.165353	-0.602353	-47.423211	-0.602353	-47.423211	-20.276553	60.068835
7.400000	-17.202166	3.538824	-0.626807	-50.758677	-0.626807	-50.758677	-18.568186	54.092311
7.450000	-16.099464	4.667111	-0.655898	-54.100337	-0.655898	-54.100337	-17.119032	48.882186
7.500000	-15.081315	4.885214	-0.689759	-57.446054	-0.689759	-57.446054	-15.864629	44.143901
7.550000	-14.145004	4.421547	-0.728595	-60.793558	-0.728595	-60.793558	-14.761764	39.721701
7.600000	-13.285209	3.461413	-0.772375	-64.140405	-0.772375	-64.140405	-13.780636	35.514623
7.650000	-12.494849	2.123632	-0.821133	-67.484170	-0.821133	-67.484170	-12.899564	31.465978
7.700000	-11.767094	0.494858	-0.874868	-70.822384	-0.874868	-70.822384	-12.102459	27.539004
7.750000	-11.095741	-1.360572	-0.933544	-74.152561	-0.933544	-74.152561	-11.377053	23.709161
7.800000	-10.475310	-3.394004	-0.997088	-77.472227	-0.997088	-77.472227	-10.713778	19.959712
7.850000	-9.901005	-5.567978	-1.065389	-80.778946	-1.065389	-80.778946	-10.105015	16.279067
7.900000	-9.368648	-7.853173	-1.138302	-84.070350	-1.138302	-84.070350	-9.544583	12.659118
7.950000	-8.874588	-10.226276	-1.215648	-87.344163	-1.215648	-87.344163	-9.027389	9.094158
8.000000	-8.415624	-12.668504	-1.297216	-90.598225	-1.297216	-90.598225	-8.549169	5.580160
8.050000	-7.988935	-15.164539	-1.382765	-93.830516	-1.382765	-93.830516	-8.106309	2.114278
8.100000	-7.592018	-17.701760	-1.472025	-97.039175	-1.472025	-97.039175	-7.695703	-1.305501
8.150000	-7.222760	-20.269922	-1.564729	-100.222219	-1.564729	-100.222219	-7.314781	-4.680133
8.200000	-6.879162	-22.860020	-1.660550	-103.378102	-1.660550	-103.378102	-6.961181	-8.010674
8.250000	-6.559292	-25.464455	-1.759131	-106.505807	-1.759131	-106.505807	-6.632678	-11.298359
8.300000	-6.261506	-28.077105	-1.860129	-109.604244	-1.860129	-109.604244	-6.327401	-14.543781
8.350000	-5.984301	-30.692816	-1.963193	-112.672522	-1.963193	-112.672522	-6.043668	-17.747440
8.400000	-5.726308	-33.307254	-2.067963	-115.709957	-2.067963	-115.709957	-5.779961	-20.909802
8.450000	-5.486266	-35.916786	-2.174079	-118.716062	-2.174079	-118.716062	-5.534899	-24.031332
8.500000	-5.263017	-38.518392	-2.281180	-121.690541	-2.281180	-121.690541	-5.307223	-27.112523
8.550000	-5.055490	-41.109580	-2.388906	-124.633282	-2.388906	-124.633282	-5.095783	-30.153919
8.600000	-4.862697	-43.688325	-2.496907	-127.544350	-2.496907	-127.544350	-4.899520	-33.156122
8.650000	-4.683723	-46.253010	-2.604836	-130.423967	-2.604836	-130.423967	-4.717461	-36.119800
8.700000	-4.517719	-48.802377	-2.712359	-133.272510	-2.712359	-133.272510	-4.548707	-39.045696
8.750000	-4.363898	-51.335491	-2.819152	-136.090487	-2.819152	-136.090487	-4.392428	-41.934625
8.800000	-4.221716	-53.851321	-2.924847	-138.877899	-2.924847	-138.877899	-4.248050	-44.786710
8.850000	-4.090295	-56.349833	-3.029193	-141.636155	-3.029193	-141.636155	-4.114656	-47.603716
8.900000	-3.969006	-58.830864	-3.131911	-144.366095	-3.131911	-144.366095	-3.991590	-50.386667
8.950000	-3.857266	-61.294446	-3.232736	-147.068632	-3.232736	-147.068632	-3.878244	-53.136650
9.000000	-3.754533	-63.740787	-3.331420	-149.744743	-3.331420	-149.744743	-3.774055	-55.854807
9.050000	-3.660306	-66.170254	-3.427731	-152.395450	-3.427731	-152.395450	-3.678502	-58.542333
9.100000	-3.574121	-68.583351	-3.521456	-155.021811	-3.521456	-155.021811	-3.591104	-61.200471
9.150000	-3.495548	-70.980714	-3.612397	-157.624900	-3.612397	-157.624900	-3.511413	-63.830507
9.200000	-3.424188	-73.363089	-3.700373	-160.205798	-3.700373	-160.205798	-3.439017	-66.433766
9.250000	-3.359676	-75.731329	-3.785221	-162.765577	-3.785221	-162.765577	-3.373535	-69.011612
9.300000	-3.301671	-78.086380	-3.866794	-165.305286	-3.866794	-165.305286	-3.314615	-71.565441
9.350000	-3.249861	-80.429278	-3.944962	-167.825940	-3.944962	-167.825940	-3.261932	-74.096683
9.400000	-3.204018	-82.761031	-4.019564	-170.328319	-4.019564	-170.328319	-3.215246	-76.606583
9.450000	-3.163871	-85.082876	-4.090500	-172.813355	-4.090500	-172.813355	-3.174276	-79.096680
9.500000	-3.129118	-87.396205	-4.157733	-175.282069	-4.157733	-175.282069	-3.138706	-81.568723
9.550000	-3.099537	-89.702358	-4.221197	-177.735197	-4.221197	-177.735197	-3.108306	-84.024259
9.600000	-3.074928	-92.002746	-4.280836	179.826624	-4.280836	179.826624	-3.082865	-86.464862
9.650000	-3.055106	-94.298850	-4.336610	177.402872	-4.336610	177.402872	-3.062190	-88.892139
9.700000	-3.039907	-96.592217	-4.388494	174.993147	-4.388494	174.993147	-3.046103	-91.307726
9.750000	-3.029179	-98.884468	-4.436471	172.597189	-4.436471	172.597189	-3.034447	-93.713296
9.800000	-3.022787	-101.177297	-4.480540	170.214882	-4.480540	170.214882	-3.027077	-96.110555
9.850000	-3.020612	-103.472473	-4.520710	167.846273	-4.520710	167.846273	-3.023862	-98.501250
9.900000	-3.022547	-105.771848	-4.557000	165.491575	-4.557000	165.491575	-3.024688	-100.887173
9.950000	-3.028495	-108.077360	-4.589440	163.151183	-4.589440	163.151183	-3.029450	-103.270160
10.000000	-3.038377	-110.391036	-4.618069	160.825678	-4.618069	160.825678	-3.038059	-105.652102
