! freq	dB(S11)	phase(S11)	dB(S12)	phase(S12)	
!     	dB(S21)	phase(S21)	dB(S22)	phase(S22)	
!S-par simulation data
#  GHz  S  DB  R 50
0.000000	-0.000000	0.000000	-364.021303	180.000000	-364.021303	180.000000	-0.000000	0.000000
0.050000	-0.000105	-0.801622	-117.277805	89.168632	-117.277805	89.168632	-0.000102	-0.765181
0.100000	-0.000417	-1.602982	-111.317667	88.357957	-111.317667	88.357957	-0.000405	-1.530104
0.150000	-0.000921	-2.403840	-107.895861	87.586911	-107.895861	87.586911	-0.000893	-2.294536
0.200000	-0.001596	-3.204002	-105.535173	86.871489	-105.535173	86.871489	-0.001546	-3.058288
0.250000	-0.002426	-4.003253	-103.780146	86.231625	-103.780146	86.231625	-0.002346	-3.821155
0.300000	-0.003371	-4.801564	-102.415613	85.676052	-102.415613	85.676052	-0.003255	-4.583113
0.350000	-0.004411	-5.598832	-101.337808	85.225030	-101.337808	85.225030	-0.004254	-5.344068
0.400000	-0.005523	-6.395028	-100.483659	84.900203	-100.483659	84.900203	-0.005317	-6.104000
0.450000	-0.006683	-7.190150	-99.814177	84.729559	-99.814177	84.729559	-0.006425	-6.862915
0.500000	-0.007874	-7.984221	-99.304601	84.750105	-99.304601	84.750105	-0.007560	-7.620840
0.550000	-0.009082	-8.777275	-98.939263	85.011424	-98.939263	85.011424	-0.008708	-8.377812
0.600000	-0.010295	-9.569353	-98.708625	85.580729	-98.708625	85.580729	-0.009859	-9.133877
0.650000	-0.011504	-10.360497	-98.607333	86.550261	-98.607333	86.550261	-0.011005	-9.889078
0.700000	-0.012704	-11.150749	-98.632518	88.048206	-98.632518	88.048206	-0.012141	-10.643456
0.750000	-0.013890	-11.940144	-98.781613	90.254434	-98.781613	90.254434	-0.013263	-11.397048
0.800000	-0.015062	-12.728712	-99.048544	93.421511	-99.048544	93.421511	-0.014371	-12.149884
0.850000	-0.016217	-13.516478	-99.416278	97.896681	-99.416278	97.896681	-0.015463	-12.901987
0.900000	-0.017356	-14.303458	-99.842626	104.124292	-99.842626	104.124292	-0.016540	-13.653374
0.950000	-0.018479	-15.089665	-100.237365	112.569325	-100.237365	112.569325	-0.017602	-14.404057
1.000000	-0.019587	-15.875106	-100.440952	123.459240	-100.440952	123.459240	-0.018650	-15.154042
1.050000	-0.020681	-16.659781	-100.246382	136.326620	-100.246382	136.326620	-0.019685	-15.903330
1.100000	-0.021762	-17.443689	-99.510452	149.731974	-99.510452	149.731974	-0.020709	-16.651921
1.150000	-0.022832	-18.226824	-98.276132	161.851151	-98.276132	161.851151	-0.021723	-17.399808
1.200000	-0.023892	-19.009178	-96.734275	171.585776	-96.734275	171.585776	-0.022728	-18.146984
1.250000	-0.024943	-19.790739	-95.078201	178.850195	-95.078201	178.850195	-0.023724	-18.893439
1.300000	-0.025986	-20.571460	-93.419464	-175.994122	-93.419464	-175.994122	-0.024714	-19.639129
1.350000	-0.027022	-21.351362	-91.830355	-172.345509	-91.830355	-172.345509	-0.025698	-20.384072
1.400000	-0.028052	-22.130428	-90.329868	-169.808554	-90.329868	-169.808554	-0.026677	-21.128255
1.450000	-0.029077	-22.908644	-88.920286	-168.092595	-88.920286	-168.092595	-0.027651	-21.871663
1.500000	-0.030098	-23.685991	-87.596874	-166.989767	-87.596874	-166.989767	-0.028622	-22.614281
1.550000	-0.031115	-24.462454	-86.352438	-166.351853	-86.352438	-166.351853	-0.029590	-23.356092
1.600000	-0.032130	-25.238014	-85.179361	-166.072274	-85.179361	-166.072274	-0.030555	-24.097082
1.650000	-0.033142	-26.012655	-84.070438	-166.073355	-84.070438	-166.073355	-0.031519	-24.837235
1.700000	-0.034151	-26.786025	-82.995058	-166.355271	-82.995058	-166.355271	-0.032480	-25.576229
1.750000	-0.035160	-27.558899	-82.006382	-166.737856	-82.006382	-166.737856	-0.033442	-26.314772
1.800000	-0.036169	-28.330582	-81.049849	-167.286790	-81.049849	-167.286790	-0.034402	-27.052229
1.850000	-0.037176	-29.101413	-80.143952	-167.954546	-80.143952	-167.954546	-0.035362	-27.788911
1.900000	-0.038183	-29.871185	-79.273597	-168.719804	-79.273597	-168.719804	-0.036322	-28.524627
1.950000	-0.039191	-30.639898	-78.437096	-169.582564	-78.437096	-169.582564	-0.037282	-29.259379
2.000000	-0.040199	-31.407697	-77.638220	-170.503164	-77.638220	-170.503164	-0.038243	-29.993298
2.050000	-0.041208	-32.174219	-76.860682	-171.504741	-76.860682	-171.504741	-0.039205	-30.726051
2.100000	-0.042218	-32.939986	-76.122050	-172.540352	-76.122050	-172.540352	-0.040168	-31.458118
2.150000	-0.043230	-33.704245	-75.395268	-173.644032	-75.395268	-173.644032	-0.041133	-32.188809
2.200000	-0.044243	-34.467921	-74.708132	-174.766995	-74.708132	-174.766995	-0.042100	-32.918968
2.250000	-0.045260	-35.229849	-74.025561	-175.947812	-74.025561	-175.947812	-0.043069	-33.647533
2.300000	-0.046277	-35.991378	-73.382991	-177.138557	-73.382991	-177.138557	-0.044039	-34.375733
2.350000	-0.047299	-36.750910	-72.739334	-178.378950	-72.739334	-178.378950	-0.045014	-35.102110
2.400000	-0.048322	-37.510237	-72.135749	-179.623248	-72.135749	-179.623248	-0.045990	-35.828301
2.450000	-0.049352	-38.267309	-71.526661	179.089495	-71.526661	179.089495	-0.046971	-36.552431
2.500000	-0.050381	-39.024382	-70.957500	177.802237	-70.957500	177.802237	-0.047953	-37.276562
2.550000	-0.051419	-39.778934	-70.379368	176.477547	-70.379368	176.477547	-0.048943	-37.998390
2.600000	-0.052457	-40.533487	-69.837326	175.152857	-69.837326	175.152857	-0.049933	-38.720217
2.650000	-0.053505	-41.285678	-69.290640	173.800409	-69.290640	173.800409	-0.050932	-39.439883
2.700000	-0.054553	-42.037654	-68.773214	172.445438	-68.773214	172.445438	-0.051932	-40.159353
2.750000	-0.055611	-42.787437	-68.254732	171.069838	-68.254732	171.069838	-0.052941	-40.876814
2.800000	-0.056671	-43.536781	-67.759775	169.690111	-67.759775	169.690111	-0.053951	-41.593874
2.850000	-0.057741	-44.284113	-67.266749	168.295073	-67.266749	168.295073	-0.054971	-42.309089
2.900000	-0.058814	-45.030775	-66.792405	166.894931	-66.792405	166.894931	-0.055995	-43.023689
2.950000	-0.059897	-45.775616	-66.322485	165.483486	-66.322485	165.483486	-0.057027	-43.736618
3.000000	-0.060985	-46.519546	-65.867137	164.066390	-65.867137	164.066390	-0.058064	-44.448711
3.050000	-0.062083	-47.261857	-65.418294	162.641033	-65.418294	162.641033	-0.059111	-45.159316
3.100000	-0.063188	-48.003011	-64.980523	161.209777	-64.980523	161.209777	-0.060164	-45.868858
3.150000	-0.064301	-48.742756	-64.550994	159.772583	-64.550994	159.772583	-0.061225	-46.577104
3.200000	-0.065424	-49.481092	-64.129546	158.329451	-64.129546	158.329451	-0.062295	-47.284053
3.250000	-0.066555	-50.218237	-63.717787	156.882158	-63.717787	156.882158	-0.063372	-47.989905
3.300000	-0.067697	-50.953716	-63.311548	155.429039	-63.311548	155.429039	-0.064461	-48.694221
3.350000	-0.068847	-51.688230	-62.916200	153.973115	-62.916200	153.973115	-0.065556	-49.397648
3.400000	-0.070010	-52.420815	-62.524176	152.511583	-62.524176	152.511583	-0.066664	-50.099295
3.450000	-0.071180	-53.152670	-62.144036	151.048278	-62.144036	151.048278	-0.067778	-50.800267
3.500000	-0.072367	-53.882330	-61.765332	149.579657	-61.765332	149.579657	-0.068909	-51.499212
3.550000	-0.073558	-54.611498	-61.399328	148.110042	-61.399328	148.110042	-0.070043	-52.197701
3.600000	-0.074770	-55.338204	-61.033139	146.635457	-61.033139	146.635457	-0.071197	-52.893912
3.650000	-0.075984	-56.064661	-60.680313	145.160455	-60.680313	145.160455	-0.072353	-53.589893
3.700000	-0.077222	-56.788387	-60.325909	143.680865	-60.325909	143.680865	-0.073531	-54.283342
3.750000	-0.078461	-57.512113	-59.985400	142.201276	-59.985400	142.201276	-0.074710	-54.976792
3.800000	-0.079727	-58.232836	-59.642118	140.717509	-59.642118	140.717509	-0.075916	-55.667454
3.850000	-0.080994	-58.953559	-59.311888	139.233742	-59.311888	139.233742	-0.077121	-56.358117
3.900000	-0.082288	-59.671513	-58.980385	137.746801	-58.980385	137.746801	-0.078352	-57.046204
3.950000	-0.083585	-60.389215	-58.659899	136.259572	-58.659899	136.259572	-0.079586	-57.734057
4.000000	-0.084908	-61.104385	-58.339453	134.769979	-58.339453	134.769979	-0.080844	-58.419552
4.050000	-0.086237	-61.819049	-58.028218	133.279912	-58.028218	133.279912	-0.082107	-59.104577
4.100000	-0.087591	-62.531426	-57.718176	131.788126	-57.718176	131.788126	-0.083394	-59.787466
4.150000	-0.088953	-63.243041	-57.415739	130.295767	-57.415739	130.295767	-0.084689	-60.469645
4.200000	-0.090338	-63.952616	-57.115504	128.802201	-57.115504	128.802201	-0.086006	-61.149917
4.250000	-0.091736	-64.661172	-56.821446	127.308031	-56.821446	127.308031	-0.087334	-61.829236
4.300000	-0.093154	-65.367939	-56.530473	125.813054	-56.530473	125.813054	-0.088682	-62.506881
4.350000	-0.094589	-66.073430	-56.244408	124.317499	-56.244408	124.317499	-0.090045	-63.183329
4.400000	-0.096042	-66.777387	-55.962197	122.821442	-55.962197	122.821442	-0.091426	-63.858338
4.450000	-0.097515	-67.479810	-55.683766	121.324881	-55.683766	121.324881	-0.092825	-64.531908
4.500000	-0.099005	-68.180955	-55.409858	119.828043	-55.409858	119.828043	-0.094240	-65.204277
4.550000	-0.100519	-68.880311	-55.138725	118.330816	-55.138725	118.330816	-0.095677	-65.874963
4.600000	-0.102046	-69.578646	-54.872697	116.833467	-54.872697	116.833467	-0.097127	-66.544686
4.650000	-0.103602	-70.274939	-54.608553	115.335877	-54.608553	115.335877	-0.098604	-67.212485
4.700000	-0.105169	-70.970467	-54.350015	113.838264	-54.350015	113.838264	-0.100091	-67.879563
4.750000	-0.106769	-71.663703	-54.092569	112.340585	-54.092569	112.340585	-0.101610	-68.544475
4.800000	-0.108376	-72.356431	-53.841159	110.842932	-53.841159	110.842932	-0.103135	-69.208907
4.850000	-0.110022	-73.046621	-53.590139	109.345412	-53.590139	109.345412	-0.104696	-69.870936
4.900000	-0.111671	-73.736557	-53.345522	107.847925	-53.345522	107.847925	-0.106261	-70.532725
4.950000	-0.113364	-74.423712	-53.100673	106.350790	-53.100673	106.350790	-0.107867	-71.191875
5.000000	-0.115057	-75.110868	-52.862538	104.853656	-52.862538	104.853656	-0.109473	-71.851025
5.050000	-0.116800	-75.795005	-52.623623	103.357114	-52.623623	103.357114	-0.111125	-72.507305
5.100000	-0.118542	-76.479142	-52.391104	101.860571	-52.391104	101.860571	-0.112777	-73.163585
5.150000	-0.120331	-77.160530	-52.158474	100.364744	-52.158474	100.364744	-0.114474	-73.817243
5.200000	-0.122124	-77.841667	-51.931366	98.868983	-51.931366	98.868983	-0.116174	-74.470662
5.250000	-0.123962	-78.520323	-51.704745	97.374017	-51.704745	97.374017	-0.117916	-75.121710
5.300000	-0.125808	-79.198483	-51.482854	95.879210	-51.482854	95.879210	-0.119666	-75.772282
5.350000	-0.127695	-79.874427	-51.261984	94.385240	-51.261984	94.385240	-0.121454	-76.420732
5.400000	-0.129596	-80.549633	-51.045127	92.891548	-51.045127	92.891548	-0.123256	-77.068473
5.450000	-0.131534	-81.222888	-50.829767	91.398699	-50.829767	91.398699	-0.125093	-77.714338
5.500000	-0.133491	-81.895167	-50.617772	89.906271	-50.617772	89.906271	-0.126947	-78.359266
5.550000	-0.135482	-82.565756	-50.407696	88.414662	-50.407696	88.414662	-0.128834	-79.002564
5.600000	-0.137497	-83.235138	-50.200398	86.923636	-50.200398	86.923636	-0.130743	-79.644698
5.650000	-0.139542	-83.903087	-49.995395	85.433376	-49.995395	85.433376	-0.132680	-80.285447
5.700000	-0.141617	-84.569604	-49.792639	83.943881	-49.792639	83.943881	-0.134646	-80.924810
5.750000	-0.143717	-85.234942	-49.592509	82.455073	-49.592509	82.455073	-0.136636	-81.563028
5.800000	-0.145854	-85.898628	-49.394149	80.967228	-49.394149	80.967228	-0.138660	-82.199645
5.850000	-0.148012	-86.561384	-49.198704	79.479970	-49.198704	79.479970	-0.140704	-82.835355
5.900000	-0.150211	-87.222277	-49.004599	77.993887	-49.004599	77.993887	-0.142788	-83.469253
5.950000	-0.152428	-87.882482	-48.813663	76.508271	-48.813663	76.508271	-0.144887	-84.102477
6.000000	-0.154692	-88.540622	-48.623680	75.024054	-48.623680	75.024054	-0.147032	-84.733684
6.050000	-0.156969	-89.198309	-48.437085	73.540165	-48.437085	73.540165	-0.149188	-85.364448
6.100000	-0.159300	-89.853737	-48.251097	72.057913	-48.251097	72.057913	-0.151396	-85.992995
6.150000	-0.161638	-90.508942	-48.068688	70.575831	-48.068688	70.575831	-0.153611	-86.621324
6.200000	-0.164038	-91.161702	-47.886574	69.095634	-47.886574	69.095634	-0.155884	-87.247245
6.250000	-0.166439	-91.814462	-47.708199	67.615436	-47.708199	67.615436	-0.158157	-87.873166
6.300000	-0.168909	-92.464600	-47.529844	66.137378	-47.529844	66.137378	-0.160497	-88.496496
6.350000	-0.171380	-93.114738	-47.355076	64.659320	-47.355076	64.659320	-0.162837	-89.119826
6.400000	-0.173916	-93.762518	-47.180656	63.183296	-47.180656	63.183296	-0.165239	-89.740815
6.450000	-0.176459	-94.410083	-47.009393	61.707457	-47.009393	61.707457	-0.167648	-90.361590
6.500000	-0.179063	-95.055546	-46.838771	60.233528	-46.838771	60.233528	-0.170114	-90.980270
6.550000	-0.181680	-95.700589	-46.670913	58.759981	-46.670913	58.759981	-0.172592	-91.598530
6.600000	-0.184353	-96.343779	-46.503961	57.288202	-46.503961	57.288202	-0.175124	-92.214934
6.650000	-0.187045	-96.986351	-46.339413	55.817014	-46.339413	55.817014	-0.177673	-92.830720
6.700000	-0.189788	-97.627314	-46.176008	54.347439	-46.176008	54.347439	-0.180271	-93.444883
6.750000	-0.192557	-98.267471	-46.014679	52.878671	-46.014679	52.878671	-0.182894	-94.058236
6.800000	-0.195372	-98.906252	-45.854704	51.411347	-45.854704	51.411347	-0.185560	-94.670196
6.850000	-0.198220	-99.544050	-45.696508	49.945055	-45.696508	49.945055	-0.188258	-95.281161
6.900000	-0.201109	-100.180698	-45.539851	48.480025	-45.539851	48.480025	-0.190993	-95.890955
6.950000	-0.204037	-100.816195	-45.384703	47.016258	-45.384703	47.016258	-0.193767	-96.499578
7.000000	-0.207000	-101.450759	-45.231259	45.553562	-45.231259	45.553562	-0.196573	-97.107244
7.050000	-0.210010	-102.084017	-45.079079	44.092364	-45.079079	44.092364	-0.199425	-97.713572
7.100000	-0.213049	-102.716548	-44.928748	42.632036	-44.928748	42.632036	-0.202303	-98.319151
7.150000	-0.216143	-103.347627	-44.779457	41.173445	-44.779457	41.173445	-0.205234	-98.923233
7.200000	-0.219259	-103.978177	-44.632142	39.715514	-44.632142	39.715514	-0.208185	-99.526767
7.250000	-0.222438	-104.607141	-44.485667	38.259562	-44.485667	38.259562	-0.211197	-100.128654
7.300000	-0.225633	-105.235764	-44.341275	36.804053	-44.341275	36.804053	-0.214223	-100.730185
7.350000	-0.228899	-105.862680	-44.197544	35.350764	-44.197544	35.350764	-0.217318	-101.329930
7.400000	-0.232173	-106.489431	-44.055990	33.897699	-44.055990	33.897699	-0.220420	-101.929501
7.450000	-0.235528	-107.114365	-43.914934	32.447091	-43.914934	32.447091	-0.223598	-102.527157
7.500000	-0.238883	-107.739299	-43.776132	30.996484	-43.776132	30.996484	-0.226777	-103.124814
7.550000	-0.242328	-108.362320	-43.637684	29.548569	-43.637684	29.548569	-0.230040	-103.720437
7.600000	-0.245773	-108.985342	-43.501409	28.100655	-43.501409	28.100655	-0.233305	-104.316060
7.650000	-0.249302	-109.606675	-43.365653	26.655214	-43.365653	26.655214	-0.236648	-104.909871
7.700000	-0.252839	-110.227855	-43.231844	25.209998	-43.231844	25.209998	-0.239999	-105.503518
7.750000	-0.256452	-110.847559	-43.098702	23.767028	-43.098702	23.767028	-0.243423	-106.095567
7.800000	-0.260082	-111.466969	-42.967301	22.324508	-42.967301	22.324508	-0.246862	-106.687296
7.850000	-0.263782	-112.085108	-42.836700	20.884002	-42.836700	20.884002	-0.250368	-107.277631
7.900000	-0.267506	-112.702822	-42.707652	19.444168	-42.707652	19.444168	-0.253897	-107.867501
7.950000	-0.271294	-113.319456	-42.579521	18.006114	-42.579521	18.006114	-0.257486	-108.456174
8.000000	-0.275113	-113.935550	-42.452773	16.568949	-42.452773	16.568949	-0.261106	-109.044248
8.050000	-0.278989	-114.550745	-42.327045	15.133329	-42.327045	15.133329	-0.264779	-109.631310
8.100000	-0.282906	-115.165296	-42.202546	13.698810	-42.202546	13.698810	-0.268490	-110.217650
8.150000	-0.286872	-115.779115	-42.079158	12.265599	-42.079158	12.265599	-0.272249	-110.803154
8.200000	-0.290887	-116.392202	-41.956858	10.833695	-41.956858	10.833695	-0.276053	-111.387824
8.250000	-0.294944	-117.004712	-41.835749	9.402864	-41.835749	9.402864	-0.279898	-111.971825
8.300000	-0.299058	-117.616416	-41.715604	7.973536	-41.715604	7.973536	-0.283797	-112.554890
8.350000	-0.303207	-118.227685	-41.596716	6.545051	-41.596716	6.545051	-0.287728	-113.137443
8.400000	-0.307421	-118.838086	-41.478681	5.118253	-41.478681	5.118253	-0.291723	-113.718970
8.450000	-0.311663	-119.448183	-41.361960	3.692074	-41.361960	3.692074	-0.295742	-114.300130
8.500000	-0.315980	-120.057366	-41.245993	2.267752	-41.245993	2.267752	-0.299833	-114.880189
8.550000	-0.320315	-120.666360	-41.131388	0.843833	-41.131388	0.843833	-0.303942	-115.460014
8.600000	-0.324734	-121.274409	-41.017450	-0.578072	-41.017450	-0.578072	-0.308130	-116.038674
8.650000	-0.329164	-121.882372	-40.904910	-1.999782	-40.904910	-1.999782	-0.312328	-116.617223
8.700000	-0.333687	-122.489375	-40.792966	-3.419338	-40.792966	-3.419338	-0.316615	-117.194554
8.750000	-0.338213	-123.096379	-40.682446	-4.838894	-40.682446	-4.838894	-0.320904	-117.771886
8.800000	-0.342841	-123.702424	-40.572460	-6.256175	-40.572460	-6.256175	-0.325290	-118.347962
8.850000	-0.347471	-124.308470	-40.463850	-7.673455	-40.463850	-7.673455	-0.329678	-118.924039
8.900000	-0.352196	-124.913720	-40.355858	-9.088723	-40.355858	-9.088723	-0.334155	-119.499033
8.950000	-0.356932	-125.518898	-40.249128	-10.503809	-40.249128	-10.503809	-0.338643	-120.073929
9.000000	-0.361755	-126.123429	-40.143091	-11.917136	-40.143091	-11.917136	-0.343214	-120.647905
9.050000	-0.366597	-126.727831	-40.038213	-13.330111	-40.038213	-13.330111	-0.347802	-121.221696
9.100000	-0.371518	-127.331721	-39.934094	-14.741572	-39.934094	-14.741572	-0.352466	-121.794716
9.150000	-0.376468	-127.935440	-39.831044	-16.152529	-39.831044	-16.152529	-0.357156	-122.367480
9.200000	-0.381488	-128.538768	-39.728808	-17.562205	-39.728808	-17.562205	-0.361912	-122.939611
9.250000	-0.386545	-129.141900	-39.627566	-18.971239	-39.627566	-18.971239	-0.366704	-123.511426
9.300000	-0.391665	-129.744746	-39.527181	-20.379210	-39.527181	-20.379210	-0.371555	-124.082735
9.350000	-0.396830	-130.347388	-39.427726	-21.786423	-39.427726	-21.786423	-0.376449	-124.653682
9.400000	-0.402049	-130.949835	-39.329166	-23.192775	-39.329166	-23.192775	-0.381394	-125.224236
9.450000	-0.407323	-131.552085	-39.231482	-24.598269	-39.231482	-24.598269	-0.386391	-125.794397
9.500000	-0.412643	-132.154215	-39.134720	-26.003090	-39.134720	-26.003090	-0.391431	-126.364265
9.550000	-0.418025	-132.756175	-39.038794	-27.406972	-39.038794	-27.406972	-0.396530	-126.933724
9.600000	-0.423445	-133.358073	-38.943807	-28.810351	-38.943807	-28.810351	-0.401664	-127.502977
9.650000	-0.428937	-133.959845	-38.849630	-30.212728	-38.849630	-30.212728	-0.406867	-128.071820
9.700000	-0.434457	-134.561596	-38.756397	-31.614756	-38.756397	-31.614756	-0.412096	-128.640530
9.750000	-0.440058	-135.163285	-38.663961	-33.015737	-38.663961	-33.015737	-0.417401	-129.208843
9.800000	-0.445679	-135.764978	-38.572466	-34.416504	-38.572466	-34.416504	-0.422726	-129.777082
9.850000	-0.451389	-136.366690	-38.481767	-35.816199	-38.481767	-35.816199	-0.428133	-130.344955
9.900000	-0.457111	-136.968413	-38.391996	-37.215795	-38.391996	-37.215795	-0.433553	-130.912799
9.950000	-0.462929	-137.570257	-38.303033	-38.614309	-38.303033	-38.614309	-0.439063	-131.480323
10.000000	-0.468752	-138.172101	-38.214972	-40.012824	-38.214972	-40.012824	-0.444577	-132.047846
