! freq	dB(S11)	phase(S11)	dB(S12)	phase(S12)	
!     	dB(S21)	phase(S21)	dB(S22)	phase(S22)	
!S-par simulation data
#  GHz  S  DB  R 50
0.000000	-0.000000	0.000000	-348.909679	180.000000	-348.909679	180.000000	-0.000000	0.000000
0.050000	-0.002599	-1.939367	-94.640221	88.388446	-94.640221	88.388446	-0.002164	-1.622736
0.100000	-0.006379	-3.856649	-88.665714	86.699315	-88.665714	86.699315	-0.005124	-3.226411
0.150000	-0.009061	-5.765977	-85.207793	84.951014	-85.207793	84.951014	-0.007254	-4.824319
0.200000	-0.011083	-7.673945	-82.784525	83.188947	-82.784525	83.188947	-0.008997	-6.421725
0.250000	-0.012824	-9.581167	-80.935224	81.438747	-80.935224	81.438747	-0.010616	-8.019031
0.300000	-0.014505	-11.486882	-79.463061	79.720634	-79.463061	79.720634	-0.012244	-9.615639
0.350000	-0.016228	-13.390794	-78.247570	78.037015	-78.247570	78.037015	-0.013919	-11.211201
0.400000	-0.018033	-15.292260	-77.228469	76.397523	-77.228469	76.397523	-0.015657	-12.805259
0.450000	-0.019938	-17.190822	-76.364145	74.809157	-76.364145	74.809157	-0.017461	-14.397496
0.500000	-0.021955	-19.085744	-75.631162	73.285451	-75.631162	73.285451	-0.019332	-15.987460
0.550000	-0.024070	-20.976858	-75.005838	71.831716	-75.005838	71.831716	-0.021256	-17.575084
0.600000	-0.026271	-22.863937	-74.472270	70.455906	-74.472270	70.455906	-0.023223	-19.160271
0.650000	-0.028548	-24.746699	-74.019530	69.168711	-74.019530	69.168711	-0.025224	-20.742898
0.700000	-0.030886	-26.624888	-73.639277	67.982358	-73.639277	67.982358	-0.027251	-22.322858
0.750000	-0.033276	-28.498267	-73.325045	66.910934	-73.325045	66.910934	-0.029298	-23.900056
0.800000	-0.035704	-30.366489	-73.072995	65.974500	-73.072995	65.974500	-0.031357	-25.474333
0.850000	-0.038160	-32.228977	-72.882368	65.205202	-72.882368	65.205202	-0.033423	-27.045400
0.900000	-0.040632	-34.086015	-72.744981	64.614059	-72.744981	64.614059	-0.035491	-28.613442
0.950000	-0.043110	-35.937436	-72.657843	64.228634	-72.657843	64.228634	-0.037557	-30.178386
1.000000	-0.045585	-37.783081	-72.618118	64.081437	-72.618118	64.081437	-0.039619	-31.740159
1.050000	-0.048052	-39.622804	-72.622822	64.210739	-72.622822	64.210739	-0.041675	-33.298688
1.100000	-0.050504	-41.456470	-72.668452	64.661330	-72.668452	64.661330	-0.043721	-34.853905
1.150000	-0.052935	-43.283487	-72.752630	65.516984	-72.752630	65.516984	-0.045757	-36.405487
1.200000	-0.055340	-45.103910	-72.866755	66.834095	-72.866755	66.834095	-0.047781	-37.953462
1.250000	-0.057718	-46.917898	-72.999838	68.661290	-72.999838	68.661290	-0.049793	-39.497910
1.300000	-0.060065	-48.725349	-73.138717	71.063269	-73.138717	71.063269	-0.051793	-41.038771
1.350000	-0.062382	-50.526170	-73.265585	74.095556	-73.265585	74.095556	-0.053779	-42.575982
1.400000	-0.064666	-52.320275	-73.357486	77.790372	-73.357486	77.790372	-0.055753	-44.109488
1.450000	-0.066917	-54.107540	-73.386297	82.141118	-73.386297	82.141118	-0.057713	-45.639208
1.500000	-0.069132	-55.887170	-73.309239	87.117560	-73.309239	87.117560	-0.059659	-47.164688
1.550000	-0.071314	-57.659852	-73.107982	92.478793	-73.107982	92.478793	-0.061591	-48.686294
1.600000	-0.073464	-59.425529	-72.766816	97.992607	-72.766816	97.992607	-0.063512	-50.203983
1.650000	-0.075584	-61.184151	-72.284556	103.400320	-72.284556	103.400320	-0.065420	-51.717710
1.700000	-0.077675	-62.935963	-71.680992	108.483835	-71.680992	108.483835	-0.067316	-53.227600
1.750000	-0.079735	-64.680105	-70.962226	113.007111	-70.962226	113.007111	-0.069201	-54.733153
1.800000	-0.081769	-66.416966	-70.167473	116.887369	-70.167473	116.887369	-0.071075	-56.234572
1.850000	-0.083777	-68.146520	-69.325160	120.096869	-69.325160	120.096869	-0.072939	-57.731825
1.900000	-0.085761	-69.868675	-68.458109	122.654305	-68.458109	122.654305	-0.074793	-59.224842
1.950000	-0.087724	-71.583420	-67.584903	124.617080	-67.584903	124.617080	-0.076639	-60.713600
2.000000	-0.089666	-73.290835	-66.719420	126.059820	-66.719420	126.059820	-0.078477	-62.198126
2.050000	-0.091591	-74.990926	-65.870097	127.050750	-65.870097	127.050750	-0.080309	-63.678407
2.100000	-0.093500	-76.683710	-65.042190	127.653216	-65.042190	127.653216	-0.082134	-65.154431
2.150000	-0.095396	-78.369206	-64.238704	127.923367	-64.238704	127.923367	-0.083955	-66.626193
2.200000	-0.097279	-80.047444	-63.461108	127.909655	-63.461108	127.909655	-0.085772	-68.093691
2.250000	-0.099152	-81.718460	-62.709854	127.653251	-62.709854	127.653251	-0.087587	-69.556925
2.300000	-0.101016	-83.382297	-61.984741	127.188860	-61.984741	127.188860	-0.089399	-71.015901
2.350000	-0.102874	-85.039004	-61.285164	126.545638	-61.285164	126.545638	-0.091211	-72.470628
2.400000	-0.104728	-86.688640	-60.610279	125.748071	-60.610279	125.748071	-0.093023	-73.921118
2.450000	-0.106578	-88.331267	-59.959116	124.816758	-59.959116	124.816758	-0.094837	-75.367389
2.500000	-0.108427	-89.966956	-59.330650	123.769086	-59.330650	123.769086	-0.096654	-76.809460
2.550000	-0.110276	-91.595561	-58.723183	122.616844	-58.723183	122.616844	-0.098474	-78.247220
2.600000	-0.112128	-93.217394	-58.136479	121.376259	-58.136479	121.376259	-0.100299	-79.680833
2.650000	-0.113983	-94.832544	-57.569543	120.057908	-57.569543	120.057908	-0.102130	-81.110333
2.700000	-0.115842	-96.441107	-57.021427	118.670901	-57.021427	118.670901	-0.103969	-82.535753
2.750000	-0.117709	-98.043184	-56.491238	117.223136	-56.491238	117.223136	-0.105815	-83.957133
2.800000	-0.119583	-99.638883	-55.978135	115.721487	-55.978135	115.721487	-0.107671	-85.374515
2.850000	-0.121467	-101.228317	-55.481328	114.171975	-55.481328	114.171975	-0.109537	-86.787944
2.900000	-0.123361	-102.811603	-55.000076	112.579896	-55.000076	112.579896	-0.111414	-88.197469
2.950000	-0.125267	-104.388866	-54.533686	110.949929	-54.533686	110.949929	-0.113304	-89.603143
3.000000	-0.127186	-105.960233	-54.081506	109.286232	-54.081506	109.286232	-0.115207	-91.005021
3.050000	-0.129119	-107.525839	-53.642923	107.592508	-53.642923	107.592508	-0.117125	-92.403161
3.100000	-0.131068	-109.085821	-53.217362	105.872071	-53.217362	105.872071	-0.119058	-93.797627
3.150000	-0.133033	-110.640323	-52.804280	104.127895	-52.804280	104.127895	-0.121008	-95.188482
3.200000	-0.135016	-112.189492	-52.403165	102.362654	-52.403165	102.362654	-0.122976	-96.575795
3.250000	-0.137018	-113.733480	-52.013532	100.578762	-52.013532	100.578762	-0.124962	-97.959636
3.300000	-0.139039	-115.272442	-51.634923	98.778394	-51.634923	98.778394	-0.126967	-99.340081
3.350000	-0.141080	-116.806539	-51.266900	96.963519	-51.266900	96.963519	-0.128993	-100.717206
3.400000	-0.143144	-118.335935	-50.909050	95.135915	-50.909050	95.135915	-0.131039	-102.091090
3.450000	-0.145230	-119.860799	-50.560978	93.297188	-50.560978	93.297188	-0.133108	-103.461817
3.500000	-0.147339	-121.381301	-50.222309	91.448788	-50.222309	91.448788	-0.135200	-104.829471
3.550000	-0.149473	-122.897617	-49.892682	89.592020	-49.892682	89.592020	-0.137316	-106.194140
3.600000	-0.151631	-124.409927	-49.571755	87.728057	-49.571755	87.728057	-0.139456	-107.555915
3.650000	-0.153816	-125.918412	-49.259201	85.857949	-49.259201	85.857949	-0.141622	-108.914890
3.700000	-0.156027	-127.423259	-48.954707	83.982633	-48.954707	83.982633	-0.143814	-110.271159
3.750000	-0.158266	-128.924656	-48.657974	82.102937	-48.657974	82.102937	-0.146033	-111.624820
3.800000	-0.160535	-130.422664	-48.368620	80.219464	-48.368620	80.219464	-0.148281	-112.975871
3.850000	-0.162832	-131.917629	-48.086486	78.333030	-48.086486	78.333030	-0.150557	-114.324527
3.900000	-0.165159	-133.409750	-47.811308	76.444176	-47.811308	76.444176	-0.152863	-115.670895
3.950000	-0.167517	-134.899228	-47.542837	74.553362	-47.542837	74.553362	-0.155198	-117.015081
4.000000	-0.169906	-136.386269	-47.280835	72.660977	-47.280835	72.660977	-0.157564	-118.357197
4.050000	-0.172327	-137.871080	-47.025074	70.767339	-47.025074	70.767339	-0.159961	-119.697354
4.100000	-0.174780	-139.353873	-46.775341	68.872703	-46.775341	68.872703	-0.162390	-121.035666
4.150000	-0.177266	-140.834861	-46.531432	66.977264	-46.531432	66.977264	-0.164851	-122.372250
4.200000	-0.179786	-142.314260	-46.293155	65.081165	-46.293155	65.081165	-0.167346	-123.707224
4.250000	-0.182340	-143.792290	-46.060329	63.184498	-46.060329	63.184498	-0.169874	-125.040710
4.300000	-0.184929	-145.269173	-45.832784	61.287308	-45.832784	61.287308	-0.172436	-126.372829
4.350000	-0.187553	-146.745133	-45.610359	59.389603	-45.610359	59.389603	-0.175032	-127.703705
4.400000	-0.190213	-148.220399	-45.392906	57.491352	-45.392906	57.491352	-0.177664	-129.033466
4.450000	-0.192910	-149.695199	-45.180286	55.592490	-45.180286	55.592490	-0.180331	-130.362239
4.500000	-0.195644	-151.169768	-44.972368	53.692925	-44.972368	53.692925	-0.183035	-131.690154
4.550000	-0.198415	-152.644340	-44.769034	51.792541	-44.769034	51.792541	-0.185775	-133.017343
4.600000	-0.201224	-154.119155	-44.570174	49.891198	-44.570174	49.891198	-0.188552	-134.343940
4.650000	-0.204072	-155.594454	-44.375687	47.988741	-44.375687	47.988741	-0.191366	-135.670081
4.700000	-0.206958	-157.070481	-44.185482	46.084999	-44.185482	46.084999	-0.194218	-136.995902
4.750000	-0.209884	-158.547482	-43.999476	44.179792	-43.999476	44.179792	-0.197108	-138.321542
4.800000	-0.212850	-160.025707	-43.817594	42.272929	-43.817594	42.272929	-0.200037	-139.647142
4.850000	-0.215856	-161.505410	-43.639771	40.364216	-43.639771	40.364216	-0.203005	-140.972844
4.900000	-0.218903	-162.986845	-43.465949	38.453457	-43.465949	38.453457	-0.206012	-142.298792
4.950000	-0.221991	-164.470270	-43.296076	36.540456	-43.296076	36.540456	-0.209058	-143.625131
5.000000	-0.225120	-165.955948	-43.130109	34.625021	-43.130109	34.625021	-0.212144	-144.952008
5.050000	-0.228293	-167.444264	-42.968051	32.706839	-42.968051	32.706839	-0.215272	-146.279609
5.100000	-0.231508	-168.935389	-42.809844	30.785839	-42.809844	30.785839	-0.218440	-147.608061
5.150000	-0.234766	-170.429594	-42.655463	28.861848	-42.655463	28.861848	-0.221648	-148.937514
5.200000	-0.238067	-171.927151	-42.504892	26.934708	-42.504892	26.934708	-0.224898	-150.268124
5.250000	-0.241412	-173.428340	-42.358119	25.004270	-42.358119	25.004270	-0.228188	-151.600044
5.300000	-0.244800	-174.933440	-42.215135	23.070401	-42.215135	23.070401	-0.231519	-152.933431
5.350000	-0.248232	-176.442735	-42.075939	21.132980	-42.075939	21.132980	-0.234891	-154.268442
5.400000	-0.251708	-177.956512	-41.940532	19.191902	-41.940532	19.191902	-0.238305	-155.605237
5.450000	-0.255229	-179.475062	-41.808920	17.247076	-41.808920	17.247076	-0.241760	-156.943975
5.500000	-0.258795	179.001322	-41.681113	15.298426	-41.681113	15.298426	-0.245257	-158.284819
5.550000	-0.262407	177.472341	-41.557123	13.345893	-41.557123	13.345893	-0.248795	-159.627931
5.600000	-0.266064	175.937696	-41.436966	11.389429	-41.436966	11.389429	-0.252375	-160.973476
5.650000	-0.269767	174.397081	-41.320659	9.429004	-41.320659	9.429004	-0.255996	-162.321619
5.700000	-0.273516	172.850189	-41.208224	7.464599	-41.208224	7.464599	-0.259659	-163.672528
5.750000	-0.277311	171.296707	-41.099683	5.496206	-41.099683	5.496206	-0.263363	-165.026371
5.800000	-0.281153	169.736321	-40.995061	3.523830	-40.995061	3.523830	-0.267109	-166.383316
5.850000	-0.285042	168.168712	-40.894383	1.547483	-40.894383	1.547483	-0.270896	-167.743534
5.900000	-0.288979	166.593556	-40.797676	-0.432815	-40.797676	-0.432815	-0.274725	-169.107196
5.950000	-0.292963	165.010527	-40.704970	-2.417039	-40.704970	-2.417039	-0.278595	-170.474476
6.000000	-0.296994	163.419295	-40.616295	-4.405161	-40.616295	-4.405161	-0.282505	-171.845545
6.050000	-0.301074	161.819526	-40.531683	-6.397153	-40.531683	-6.397153	-0.286456	-173.220580
6.100000	-0.305202	160.210882	-40.451164	-8.392989	-40.451164	-8.392989	-0.290448	-174.599756
6.150000	-0.309379	158.593021	-40.374775	-10.392647	-40.374775	-10.392647	-0.294481	-175.983247
6.200000	-0.313605	156.965600	-40.302549	-12.396113	-40.302549	-12.396113	-0.298553	-177.371233
6.250000	-0.317881	155.328268	-40.234525	-14.403383	-40.234525	-14.403383	-0.302665	-178.763890
6.300000	-0.322208	153.680210	-40.170908	-16.414634	-40.170908	-16.414634	-0.306818	179.838383
6.350000	-0.326585	152.021501	-40.111582	-18.429730	-40.111582	-18.429730	-0.311010	178.435611
6.400000	-0.331012	150.351781	-40.056591	-20.448718	-40.056591	-20.448718	-0.315241	177.027614
6.450000	-0.335490	148.670687	-40.005981	-22.471671	-40.005981	-22.471671	-0.319510	175.614211
6.500000	-0.340017	146.978503	-39.959575	-24.498460	-39.959575	-24.498460	-0.323815	174.195533
6.550000	-0.344598	145.273713	-39.917832	-26.529607	-39.917832	-26.529607	-0.328159	172.770852
6.600000	-0.349230	143.556449	-39.880634	-28.565094	-39.880634	-28.565094	-0.332540	171.340227
6.650000	-0.353916	141.826336	-39.848047	-30.605111	-39.848047	-30.605111	-0.336957	169.903478
6.700000	-0.358654	140.082995	-39.820143	-32.649888	-39.820143	-32.649888	-0.341410	168.460423
6.750000	-0.363447	138.326049	-39.797003	-34.699693	-39.797003	-34.699693	-0.345899	167.010882
6.800000	-0.368294	136.555113	-39.778714	-36.754838	-39.778714	-36.754838	-0.350422	165.554673
6.850000	-0.373196	134.769806	-39.765376	-38.815678	-39.765376	-38.815678	-0.354979	164.091617
6.900000	-0.378155	132.969576	-39.757154	-40.882690	-39.757154	-40.882690	-0.359569	162.621455
6.950000	-0.383171	131.154024	-39.754173	-42.956346	-39.754173	-42.956346	-0.364193	161.144002
7.000000	-0.388246	129.322924	-39.756515	-45.037093	-39.756515	-45.037093	-0.368849	159.659156
7.050000	-0.393379	127.475889	-39.764330	-47.125500	-39.764330	-47.125500	-0.373536	158.166740
7.100000	-0.398577	125.611074	-39.778292	-49.222986	-39.778292	-49.222986	-0.378257	156.665885
7.150000	-0.403832	123.731161	-39.797525	-51.328623	-39.797525	-51.328623	-0.383004	155.157873
7.200000	-0.409148	121.834166	-39.822788	-53.443983	-39.822788	-53.443983	-0.387781	153.641769
7.250000	-0.414529	119.919705	-39.854308	-55.569895	-39.854308	-55.569895	-0.392586	152.117401
7.300000	-0.419973	117.988197	-39.892050	-57.706704	-39.892050	-57.706704	-0.397418	150.584976
7.350000	-0.425487	116.037482	-39.936936	-59.856611	-39.936936	-59.856611	-0.402279	149.043482
7.400000	-0.431071	114.068164	-39.988927	-62.020056	-39.988927	-62.020056	-0.407167	147.493213
7.450000	-0.436726	112.079877	-40.048366	-64.198219	-40.048366	-64.198219	-0.412080	145.934006
7.500000	-0.442455	110.072259	-40.115631	-66.392392	-40.115631	-66.392392	-0.417019	144.365696
7.550000	-0.448261	108.044520	-40.191312	-68.604411	-40.191312	-68.604411	-0.421983	142.787919
7.600000	-0.454145	105.996734	-40.275711	-70.835510	-40.275711	-70.835510	-0.426972	141.200715
7.650000	-0.460111	103.928564	-40.369335	-73.087447	-40.369335	-73.087447	-0.431985	139.603926
7.700000	-0.466162	101.839684	-40.472746	-75.362190	-40.472746	-75.362190	-0.437023	137.997401
7.750000	-0.472300	99.729778	-40.586560	-77.661964	-40.586560	-77.661964	-0.442084	136.380986
7.800000	-0.478529	97.598543	-40.711457	-79.989302	-40.711457	-79.989302	-0.447171	134.754533
7.850000	-0.484853	95.445690	-40.848187	-82.347121	-40.848187	-82.347121	-0.452282	133.117893
7.900000	-0.491276	93.270943	-40.997575	-84.738823	-40.997575	-84.738823	-0.457420	131.470918
7.950000	-0.497802	91.074046	-41.160534	-87.168412	-41.160534	-87.168412	-0.462585	129.813461
8.000000	-0.504436	88.854757	-41.338071	-89.640672	-41.338071	-89.640672	-0.467780	128.145374
8.050000	-0.511183	86.612856	-41.531299	-92.161383	-41.531299	-92.161383	-0.473007	126.466507
8.100000	-0.518049	84.348141	-41.741448	-94.737625	-41.741448	-94.737625	-0.478270	124.776704
8.150000	-0.525039	82.060181	-41.970023	-97.379008	-41.970023	-97.379008	-0.483574	123.075682
8.200000	-0.532161	79.748815	-42.218543	-100.097068	-42.218543	-100.097068	-0.488926	121.363263
8.250000	-0.539421	77.414161	-42.488527	-102.905479	-42.488527	-102.905479	-0.494334	119.639379
8.300000	-0.546824	75.056114	-42.781790	-105.822874	-42.781790	-105.822874	-0.499810	117.903819
8.350000	-0.554385	72.673910	-43.100724	-108.878624	-43.100724	-108.878624	-0.505372	116.155986
8.400000	-0.562096	70.269910	-43.445926	-112.087490	-43.445926	-112.087490	-0.511030	114.396853
8.450000	-0.569992	67.840416	-43.821786	-115.524776	-43.821786	-115.524776	-0.516832	112.624129
8.500000	-0.578062	65.388606	-44.228410	-119.219819	-44.228410	-119.219819	-0.522800	110.839095
8.550000	-0.586334	62.912673	-44.668258	-123.283075	-44.668258	-123.283075	-0.529005	109.040154
8.600000	-0.594821	60.413100	-45.141294	-127.829806	-45.141294	-127.829806	-0.535530	107.226811
8.650000	-0.603537	57.890829	-45.644468	-133.015236	-45.644468	-133.015236	-0.542485	105.398611
8.700000	-0.612538	55.343616	-46.167727	-139.182280	-46.167727	-139.182280	-0.550130	103.552520
8.750000	-0.621822	52.775082	-46.692269	-146.529752	-46.692269	-146.529752	-0.558656	101.689296
8.800000	-0.631541	50.180139	-47.149225	-155.973970	-47.149225	-155.973970	-0.568933	99.801404
8.850000	-0.641731	47.563595	-47.452933	-167.793440	-47.452933	-167.793440	-0.581605	97.889407
8.900000	-0.652692	44.922288	-47.374345	176.962209	-47.374345	176.962209	-0.599026	95.944171
8.950000	-0.664957	42.255910	-46.584973	157.893933	-46.584973	157.893933	-0.625829	93.959366
9.000000	-0.679721	39.565769	-44.797684	135.187258	-44.797684	135.187258	-0.672249	91.943408
9.050000	-0.700032	36.863101	-41.966385	107.644599	-41.966385	107.644599	-0.762199	90.011184
9.100000	-0.727242	34.220108	-39.067870	70.519014	-39.067870	70.519014	-0.892195	88.743256
9.150000	-0.734131	31.667758	-38.697156	28.017131	-38.697156	28.017131	-0.857640	88.152692
9.200000	-0.725939	28.953741	-40.620567	0.070969	-40.620567	0.070969	-0.723244	86.518111
9.250000	-0.727901	26.157626	-42.596581	-13.216780	-42.596581	-13.216780	-0.655800	84.406182
9.300000	-0.735599	23.347289	-44.049719	-18.611391	-44.049719	-18.611391	-0.628650	82.284193
9.350000	-0.745657	20.528779	-44.982001	-19.790733	-44.982001	-19.790733	-0.618083	80.205246
9.400000	-0.756865	17.700516	-45.463748	-18.748427	-45.463748	-18.748427	-0.614760	78.159023
9.450000	-0.768743	14.861761	-45.591309	-16.762618	-45.591309	-16.762618	-0.614823	76.132270
9.500000	-0.781108	12.012184	-45.445129	-14.574425	-45.445129	-14.574425	-0.616710	74.116935
9.550000	-0.793892	9.151394	-45.095030	-12.636095	-45.095030	-12.636095	-0.619683	72.108004
9.600000	-0.807031	6.280313	-44.617528	-11.139473	-44.617528	-11.139473	-0.623281	70.101857
9.650000	-0.820500	3.399648	-44.063058	-10.130816	-44.063058	-10.130816	-0.627282	68.096470
9.700000	-0.834295	0.509866	-43.464117	-9.601997	-43.464117	-9.601997	-0.631566	66.090537
9.750000	-0.848402	-2.388072	-42.845421	-9.491652	-42.845421	-9.491652	-0.636047	64.083250
9.800000	-0.862807	-5.293078	-42.222872	-9.728122	-42.222872	-9.728122	-0.640673	62.074202
9.850000	-0.877508	-8.204328	-41.604339	-10.258972	-41.604339	-10.258972	-0.645415	60.063155
9.900000	-0.892504	-11.120954	-40.994035	-11.038311	-40.994035	-11.038311	-0.650255	58.050017
9.950000	-0.907778	-14.041755	-40.395749	-12.014741	-40.395749	-12.014741	-0.655178	56.034951
10.000000	-0.923321	-16.965776	-39.810207	-13.156158	-39.810207	-13.156158	-0.660176	54.018124
