! freq	dB(S11)	phase(S11)	dB(S12)	phase(S12)	
!     	dB(S21)	phase(S21)	dB(S22)	phase(S22)	
!S-par simulation data
#  GHz  S  DB  R 50
0.000000	-82.559685	0.000000	-0.000647	0.000000	-0.000647	0.000000	-82.559685	0.000000
0.050000	-40.448058	-92.342089	-0.004966	-3.031848	-0.004966	-3.031848	-40.443707	-92.230900
0.100000	-34.490588	-95.549275	-0.012314	-6.027277	-0.012314	-6.027277	-34.489548	-95.358891
0.150000	-31.041402	-98.747957	-0.019028	-9.005529	-0.019028	-9.005529	-31.040853	-98.481103
0.200000	-28.616195	-101.954590	-0.025486	-11.979185	-0.025486	-11.979185	-28.615357	-101.602742
0.250000	-26.759354	-105.140824	-0.032221	-14.950633	-0.032221	-14.950633	-26.758441	-104.697855
0.300000	-25.267492	-108.295620	-0.039458	-17.919908	-0.039458	-17.919908	-25.266829	-107.759458
0.350000	-24.031421	-111.420101	-0.047186	-20.886692	-0.047186	-20.886692	-24.031156	-110.790381
0.400000	-22.987014	-114.517440	-0.055334	-23.850711	-0.055334	-23.850711	-22.987165	-113.794303
0.450000	-22.096690	-117.590183	-0.063807	-26.811635	-0.063807	-26.811635	-22.097200	-116.773802
0.500000	-21.329101	-120.644488	-0.072449	-29.769820	-0.072449	-29.769820	-21.329886	-119.734843
0.550000	-20.663948	-123.684003	-0.081136	-32.725576	-0.081136	-32.725576	-20.664930	-122.680865
0.600000	-20.087661	-126.711546	-0.089747	-35.679282	-0.089747	-35.679282	-20.088781	-125.614466
0.650000	-19.591716	-129.729590	-0.098147	-38.631481	-0.098147	-38.631481	-19.592936	-128.537845
0.700000	-19.164894	-132.741117	-0.106240	-41.582971	-0.106240	-41.582971	-19.166197	-131.453810
0.750000	-18.801071	-135.748021	-0.113932	-44.534488	-0.113932	-44.534488	-18.802458	-134.364037
0.800000	-18.498108	-138.751956	-0.121107	-47.486946	-0.121107	-47.486946	-18.499596	-137.269869
0.850000	-18.251882	-141.754755	-0.127686	-50.441363	-0.127686	-50.441363	-18.253497	-140.172879
0.900000	-18.059569	-144.757991	-0.133603	-53.398776	-0.133603	-53.398776	-18.061346	-143.074360
0.950000	-17.920228	-147.763174	-0.138790	-56.360361	-0.138790	-56.360361	-17.922206	-145.975461
1.000000	-17.833527	-150.771787	-0.143193	-59.327375	-0.143193	-59.327375	-17.835752	-148.877250
1.050000	-17.800011	-153.785294	-0.146771	-62.301165	-0.146771	-62.301165	-17.802533	-151.780691
1.100000	-17.821148	-156.805150	-0.149497	-65.283171	-0.149497	-65.283171	-17.824021	-154.686624
1.150000	-17.899421	-159.832791	-0.151360	-68.274925	-0.151360	-68.274925	-17.902704	-157.595716
1.200000	-18.038495	-162.869624	-0.152365	-71.278044	-0.152365	-71.278044	-18.042254	-160.508388
1.250000	-18.243471	-165.916990	-0.152541	-74.294231	-0.152541	-74.294231	-18.247779	-163.424689
1.300000	-18.522801	-168.976399	-0.151922	-77.325628	-0.151922	-77.325628	-18.527746	-166.344157
1.350000	-18.884508	-172.048629	-0.150603	-80.373803	-0.150603	-80.373803	-18.890191	-169.265281
1.400000	-19.341275	-175.134339	-0.148689	-83.440660	-0.148689	-83.440660	-19.347818	-172.185247
1.450000	-19.910506	-178.233589	-0.146316	-86.528144	-0.146316	-86.528144	-19.918061	-175.098992
1.500000	-20.616651	178.654586	-0.143652	-89.638222	-0.143652	-89.638222	-20.625409	-177.997645
1.550000	-21.495232	175.533011	-0.140901	-92.772865	-0.140901	-92.772865	-21.505434	179.134477
1.600000	-22.596408	172.407821	-0.138293	-95.933171	-0.138293	-95.933171	-22.608362	176.322868
1.650000	-24.015977	169.292948	-0.136129	-99.122848	-0.136129	-99.122848	-24.030012	173.628860
1.700000	-25.906792	166.221246	-0.134727	-102.342782	-0.134727	-102.342782	-25.923035	171.175932
1.750000	-28.592564	163.283223	-0.134453	-105.594675	-0.134453	-105.594675	-28.609416	169.302394
1.800000	-32.937639	160.835016	-0.135716	-108.880077	-0.135716	-108.880077	-32.937568	169.319993
1.850000	-43.381889	163.119388	-0.138966	-112.200341	-0.138966	-112.200341	-42.771013	-174.946519
1.900000	-39.727072	-33.116857	-0.144714	-115.556782	-0.144714	-115.556782	-39.169627	-42.666837
1.950000	-30.914183	-33.364518	-0.153501	-118.950235	-0.153501	-118.950235	-30.788265	-35.191464
2.000000	-26.415581	-36.123582	-0.165882	-122.380983	-0.165882	-122.380983	-26.349928	-35.994586
2.050000	-23.321901	-39.321129	-0.182460	-125.849119	-0.182460	-125.849119	-23.277862	-38.266444
2.100000	-20.939194	-42.693929	-0.203859	-129.354305	-0.203859	-129.354305	-20.905935	-41.075520
2.150000	-18.990350	-46.166515	-0.230723	-132.895731	-0.230723	-132.895731	-18.963460	-44.152923
2.200000	-17.336351	-49.708358	-0.263722	-136.472165	-0.263722	-136.472165	-17.313634	-47.391690
2.250000	-15.897584	-53.303844	-0.303548	-140.081893	-0.303548	-140.081893	-15.877796	-50.739876
2.300000	-14.624867	-56.942664	-0.350787	-143.722197	-0.350787	-143.722197	-14.607238	-54.167289
2.350000	-13.485022	-60.617521	-0.406046	-147.390083	-0.406046	-147.390083	-13.469046	-57.655389
2.400000	-12.454856	-64.322181	-0.469889	-151.082011	-0.469889	-151.082011	-12.440182	-61.190910
2.450000	-11.517522	-68.050820	-0.542829	-154.793919	-0.542829	-154.793919	-11.503899	-64.763406
2.500000	-10.660382	-71.797699	-0.625308	-158.521273	-0.625308	-158.521273	-10.647624	-68.363983
2.550000	-9.873662	-75.557098	-0.717792	-162.259180	-0.717792	-162.259180	-9.861630	-71.984752
2.600000	-9.149770	-79.322930	-0.820454	-166.002176	-0.820454	-166.002176	-9.138355	-75.617917
2.650000	-8.482448	-83.089229	-0.933467	-169.744731	-0.933467	-169.744731	-8.471567	-79.256318
2.700000	-7.866516	-86.850003	-1.056902	-173.481173	-1.056902	-173.481173	-7.856103	-82.893061
2.750000	-7.297595	-90.599308	-1.190721	-177.205800	-1.190721	-177.205800	-7.287599	-86.521506
2.800000	-6.771911	-94.331329	-1.334783	179.087017	-1.334783	179.087017	-6.762288	-90.135298
2.850000	-6.286241	-98.040242	-1.488898	175.402956	-1.488898	175.402956	-6.276958	-93.728200
2.900000	-5.837578	-101.720813	-1.652675	171.747130	-1.652675	171.747130	-5.828609	-97.294629
2.950000	-5.423460	-105.367482	-1.825758	168.124990	-1.825758	168.124990	-5.414783	-100.828781
3.000000	-5.040830	-108.977404	-2.007413	164.539305	-2.007413	164.539305	-5.032426	-104.327540
3.050000	-4.687728	-112.545795	-2.197218	160.994765	-2.197218	160.994765	-4.679583	-107.786001
3.100000	-4.362035	-116.069222	-2.394552	157.494723	-2.394552	157.494723	-4.354137	-111.200603
3.150000	-4.061922	-119.544250	-2.598773	154.042520	-2.598773	154.042520	-4.054262	-114.567832
3.200000	-3.785524	-122.968486	-2.809163	150.640462	-2.809163	150.640462	-3.778094	-117.885229
3.250000	-3.530935	-126.340696	-3.025002	147.289699	-3.025002	147.289699	-3.523729	-121.151515
3.300000	-3.296515	-129.659643	-3.245593	143.991372	-3.245593	143.991372	-3.289529	-124.365441
3.350000	-3.080727	-132.924584	-3.470244	140.746129	-3.470244	140.746129	-3.073959	-127.526272
3.400000	-2.882135	-136.135226	-3.698278	137.554158	-3.698278	137.554158	-2.875583	-130.633748
3.450000	-2.699397	-139.291691	-3.929037	134.415233	-3.929037	134.415233	-2.693063	-133.688040
3.500000	-2.531264	-142.394469	-4.161889	131.328749	-4.161889	131.328749	-2.525152	-136.689712
3.550000	-2.376577	-145.444376	-4.396229	128.293772	-4.396229	128.293772	-2.370691	-139.639676
3.600000	-2.234261	-148.442513	-4.631481	125.309073	-4.631481	125.309073	-2.228608	-142.539150
3.650000	-2.103320	-151.390223	-4.867101	122.373175	-4.867101	122.373175	-2.097911	-145.389622
3.700000	-1.982839	-154.289055	-5.102571	119.484380	-5.102571	119.484380	-1.977685	-148.192812
3.750000	-1.871972	-157.140730	-5.337405	116.640811	-5.337405	116.640811	-1.867091	-150.950643
3.800000	-1.770176	-159.945687	-5.570885	113.841773	-5.570885	113.841773	-1.765588	-153.663867
3.850000	-1.676478	-162.707460	-5.802801	111.083594	-5.802801	111.083594	-1.672208	-156.336243
3.900000	-1.590232	-165.428123	-6.032736	108.363973	-6.032736	108.363973	-1.586311	-158.970173
3.950000	-1.510851	-168.109819	-6.260281	105.680502	-6.260281	105.680502	-1.507314	-161.568184
4.000000	-1.437801	-170.754749	-6.485035	103.030678	-6.485035	103.030678	-1.434691	-164.132926
4.050000	-1.370599	-173.365160	-6.706597	100.411894	-6.706597	100.411894	-1.367968	-166.667171
4.100000	-1.308810	-175.943340	-6.924557	97.821438	-6.924557	97.821438	-1.306720	-169.173824
4.150000	-1.252042	-178.491617	-7.138484	95.256475	-7.138484	95.256475	-1.250568	-171.655939
4.200000	-1.199950	178.987638	-7.347923	92.714023	-7.347923	92.714023	-1.199180	-174.116746
4.250000	-1.152226	176.492007	-7.552372	90.190919	-7.552372	90.190919	-1.152270	-176.559688
4.300000	-1.108607	174.019011	-7.751273	87.683771	-7.751273	87.683771	-1.109595	-178.988471
4.350000	-1.068869	171.566089	-7.943985	85.188889	-7.943985	85.188889	-1.070960	178.592869
4.400000	-1.032829	169.130577	-8.129766	82.702200	-8.129766	82.702200	-1.036221	176.179869
4.450000	-1.000350	166.709669	-8.307735	80.219121	-8.307735	80.219121	-1.005288	173.767525
4.500000	-0.971347	164.300372	-8.476829	77.734396	-8.476829	77.734396	-0.978137	171.350117
4.550000	-0.945788	161.899437	-8.635754	75.241862	-8.635754	75.241862	-0.954821	168.920991
4.600000	-0.923715	159.503276	-8.782907	72.734129	-8.782907	72.734129	-0.935491	166.472243
4.650000	-0.905256	157.107842	-8.916277	70.202118	-8.916277	70.202118	-0.920427	163.994281
4.700000	-0.890658	154.708456	-9.033313	67.634393	-9.033313	67.634393	-0.910091	161.475203
4.750000	-0.880327	152.299582	-9.130738	65.016162	-9.130738	65.016162	-0.905194	158.899875
4.800000	-0.874628	149.875708	-9.205676	62.332485	-9.205676	62.332485	-0.906442	156.253503
4.850000	-0.875112	147.426077	-9.249642	59.547340	-9.249642	59.547340	-0.916277	153.499946
4.900000	-0.883052	144.940835	-9.256457	56.626691	-9.256457	56.626691	-0.936961	150.606966
4.950000	-0.900913	142.405649	-9.215781	53.514518	-9.215781	53.514518	-0.972749	147.522007
5.000000	-0.932751	139.801221	-9.113313	50.125449	-9.113313	50.125449	-1.030803	144.167053
5.050000	-0.986458	137.097798	-8.925777	46.305472	-8.925777	46.305472	-1.125476	140.404986
5.100000	-1.073906	134.266039	-8.628990	41.843827	-8.628990	41.843827	-1.279878	136.057246
5.150000	-1.221857	131.266254	-8.179896	36.300570	-8.179896	36.300570	-1.549122	130.762819
5.200000	-1.487521	128.109565	-7.526701	28.830285	-7.526701	28.830285	-2.067031	123.881223
5.250000	-1.998360	125.158904	-6.642870	17.702351	-6.642870	17.702351	-3.221339	114.331043
5.300000	-2.958406	124.745571	-5.720325	-0.594357	-5.720325	-0.594357	-6.479321	101.849295
5.350000	-3.617433	133.382259	-5.854377	-29.641433	-5.854377	-29.641433	-17.097975	143.155838
5.400000	-2.239253	139.430775	-8.683150	-60.894768	-8.683150	-60.894768	-6.016404	-170.706085
5.450000	-1.147069	135.540942	-13.322720	-80.853107	-13.322720	-80.853107	-2.488183	173.544303
5.500000	-0.712471	130.591087	-18.404926	-90.024360	-18.404926	-90.024360	-1.365878	162.020312
5.550000	-0.537115	126.353195	-23.685417	-90.822883	-23.685417	-90.822883	-0.917787	154.093725
5.600000	-0.457531	122.693342	-29.258385	-81.410200	-29.258385	-81.410200	-0.703335	148.167460
5.650000	-0.418880	119.406298	-34.019401	-55.007057	-34.019401	-55.007057	-0.589273	143.419125
5.700000	-0.398692	116.338377	-35.469539	-21.636842	-35.469539	-21.636842	-0.521747	139.359708
5.750000	-0.388419	113.405406	-34.935302	-2.589902	-34.935302	-2.589902	-0.479766	135.747745
5.800000	-0.383981	110.550099	-34.817315	5.193147	-34.817315	5.193147	-0.452769	132.429523
5.850000	-0.383688	107.733663	-35.736848	7.780230	-35.736848	7.780230	-0.435783	129.314924
5.900000	-0.386234	104.925036	-37.918129	8.134452	-37.918129	8.134452	-0.424871	126.316069
5.950000	-0.391984	102.100424	-43.071796	6.140428	-43.071796	6.140428	-0.419681	123.404800
6.000000	-0.400721	99.241898	-53.748481	-129.614111	-53.748481	-129.614111	-0.418869	120.535095
6.050000	-0.413246	96.325706	-40.198318	-172.957661	-40.198318	-172.957661	-0.422715	117.679058
6.100000	-0.430370	93.331712	-33.521207	-176.156220	-33.521207	-176.156220	-0.431523	114.809419
6.150000	-0.453177	90.240085	-29.256101	-179.017545	-29.256101	-179.017545	-0.445934	111.901431
6.200000	-0.483899	87.017216	-25.973793	177.999809	-25.973793	177.999809	-0.467733	108.925878
6.250000	-0.525136	83.631883	-23.239109	174.793987	-23.239109	174.793987	-0.499009	105.854085
6.300000	-0.581578	80.033043	-20.827288	171.298187	-20.827288	171.298187	-0.543716	102.645926
6.350000	-0.659081	76.171029	-18.635087	167.459408	-18.635087	167.459408	-0.606812	99.262901
6.400000	-0.767204	71.973603	-16.587751	163.196831	-16.587751	163.196831	-0.696450	95.653496
6.450000	-0.921044	67.345685	-14.635210	158.399380	-14.635210	158.399380	-0.825481	91.754350
6.500000	-1.144155	62.169866	-12.747191	152.922866	-12.747191	152.922866	-1.013792	87.494646
6.550000	-1.480701	56.265749	-10.892309	146.531154	-10.892309	146.531154	-1.298203	82.780463
6.600000	-2.005543	49.439901	-9.068697	138.933897	-9.068697	138.933897	-1.739259	77.556454
6.650000	-2.852704	41.530649	-7.300872	129.777899	-7.300872	129.777899	-2.439330	71.903417
6.700000	-4.272903	32.607622	-5.651222	118.699535	-5.651222	118.699535	-3.567839	66.340533
6.750000	-6.775112	23.724142	-4.235386	105.476012	-4.235386	105.476012	-5.373189	62.747091
6.800000	-11.453439	20.555770	-3.212333	90.460782	-3.212333	90.460782	-7.934217	66.440372
6.850000	-18.579245	62.655494	-2.702193	74.754444	-2.702193	74.754444	-9.884864	85.231079
6.900000	-12.716403	115.189206	-2.696110	59.839777	-2.696110	59.839777	-8.772655	106.372051
6.950000	-8.102786	115.713320	-3.055341	46.768144	-3.055341	46.768144	-6.578906	113.508295
7.000000	-5.657280	109.518388	-3.612225	35.806665	-3.612225	35.806665	-4.907627	112.891299
7.050000	-4.220338	102.786920	-4.243951	26.730663	-4.243951	26.730663	-3.786720	109.715188
7.100000	-3.312686	96.580153	-4.879861	19.164946	-4.879861	19.164946	-3.034189	105.879402
7.150000	-2.706766	91.032620	-5.485776	12.752008	-5.485776	12.752008	-2.514753	102.014155
7.200000	-2.282626	86.065667	-6.049188	7.199193	-6.049188	7.199193	-2.143543	98.307916
7.250000	-1.974678	81.573729	-6.567179	2.296294	-6.567179	2.296294	-1.870169	94.800177
7.300000	-1.744168	77.461211	-7.041397	-2.110688	-7.041397	-2.110688	-1.663387	91.481502
7.350000	-1.567138	73.650486	-7.475365	-6.134467	-7.475365	-6.134467	-1.503283	88.328143
7.400000	-1.428545	70.083388	-7.872488	-9.854939	-7.872488	-9.854939	-1.377099	85.316092
7.450000	-1.318164	66.713219	-8.236545	-13.333623	-8.236545	-13.333623	-1.276026	82.422413
7.500000	-1.226899	63.486182	-8.576064	-16.638230	-8.576064	-16.638230	-1.192071	79.616575
7.550000	-1.153419	60.403277	-8.886058	-19.768822	-8.886058	-19.768822	-1.124141	76.900272
7.600000	-1.091191	57.416254	-9.177030	-22.784301	-9.177030	-22.784301	-1.066389	74.243825
7.650000	-1.039366	54.522912	-9.446726	-25.687729	-9.446726	-25.687729	-1.018089	71.645747
7.700000	-0.995171	51.701021	-9.699973	-28.505928	-9.699973	-28.505928	-0.976740	69.091856
7.750000	-0.957424	48.941806	-9.937799	-31.249491	-9.937799	-31.249491	-0.941283	66.576212
7.800000	-0.925106	46.237003	-10.161467	-33.928313	-10.161467	-33.928313	-0.910799	64.093160
7.850000	-0.896977	43.575163	-10.373901	-36.556014	-10.373901	-36.556014	-0.884159	61.635204
7.900000	-0.872874	40.955566	-10.574147	-39.133412	-10.574147	-39.133412	-0.861221	59.201157
7.950000	-0.851653	38.366588	-10.765951	-41.674286	-10.765951	-41.674286	-0.840937	56.783774
8.000000	-0.833424	35.809851	-10.947731	-44.176603	-10.947731	-44.176603	-0.823413	54.383122
8.050000	-0.817380	33.276777	-11.122508	-46.650520	-11.122508	-46.650520	-0.807906	51.994054
8.100000	-0.803484	30.767071	-11.289782	-49.096262	-11.289782	-49.096262	-0.794385	49.615672
8.150000	-0.791378	28.276834	-11.450826	-51.518394	-11.450826	-51.518394	-0.782522	47.245492
8.200000	-0.780861	25.803807	-11.606268	-53.919502	-11.606268	-53.919502	-0.772130	44.881871
8.250000	-0.771850	23.346999	-11.756188	-56.300625	-11.756188	-56.300625	-0.763135	42.523733
8.300000	-0.764045	20.903056	-11.901959	-58.665726	-11.901959	-58.665726	-0.755262	40.169342
8.350000	-0.757600	18.473431	-12.042509	-61.012755	-12.042509	-61.012755	-0.748652	37.818361
8.400000	-0.752099	16.053595	-12.180001	-63.347234	-12.180001	-63.347234	-0.742923	35.469171
8.450000	-0.747590	13.643898	-12.314056	-65.668514	-12.314056	-65.668514	-0.738120	33.121352
8.500000	-0.744000	11.243411	-12.445012	-67.977569	-12.445012	-67.977569	-0.734175	30.774258
8.550000	-0.741265	8.851324	-12.573177	-70.275219	-12.573177	-70.275219	-0.731030	28.427347
8.600000	-0.739330	6.466934	-12.698833	-72.562152	-12.698833	-72.562152	-0.728637	26.080162
8.650000	-0.738149	4.089627	-12.822235	-74.838941	-12.822235	-74.838941	-0.726953	23.732325
8.700000	-0.737683	1.718866	-12.943620	-77.106060	-12.943620	-77.106060	-0.725943	21.383526
8.750000	-0.737897	-0.645819	-13.063200	-79.363893	-13.063200	-79.363893	-0.725575	19.033517
8.800000	-0.738789	-3.004612	-13.181043	-81.612369	-13.181043	-81.612369	-0.725849	16.682036
8.850000	-0.740305	-5.358136	-13.297476	-83.852123	-13.297476	-83.852123	-0.726715	14.328994
8.900000	-0.742425	-7.706709	-13.412661	-86.083330	-13.412661	-86.083330	-0.728155	11.974295
8.950000	-0.745131	-10.050615	-13.526747	-88.306112	-13.526747	-88.306112	-0.730152	9.617878
9.000000	-0.748408	-12.390107	-13.639870	-90.520549	-13.639870	-90.520549	-0.732694	7.259717
9.050000	-0.752245	-14.725415	-13.752154	-92.726681	-13.752154	-92.726681	-0.735770	4.899814
9.100000	-0.756631	-17.056749	-13.863714	-94.924512	-13.863714	-94.924512	-0.739369	2.538200
9.150000	-0.761558	-19.384300	-13.974654	-97.114020	-13.974654	-97.114020	-0.743483	0.174929
9.200000	-0.767020	-21.708247	-14.085068	-99.295155	-14.085068	-99.295155	-0.748107	-2.189927
9.250000	-0.773014	-24.028757	-14.195044	-101.467844	-14.195044	-101.467844	-0.753235	-4.556273
9.300000	-0.779535	-26.345992	-14.304659	-103.631998	-14.304659	-103.631998	-0.758862	-6.924002
9.350000	-0.786582	-28.660103	-14.413986	-105.787508	-14.413986	-105.787508	-0.764985	-9.292993
9.400000	-0.794154	-30.971240	-14.523088	-107.934256	-14.523088	-107.934256	-0.771601	-11.663111
9.450000	-0.802253	-33.279552	-14.632024	-110.072110	-14.632024	-110.072110	-0.778707	-14.034213
9.500000	-0.810880	-35.585185	-14.740846	-112.200928	-14.740846	-112.200928	-0.786303	-16.406149
9.550000	-0.820038	-37.888287	-14.849600	-114.320565	-14.849600	-114.320565	-0.794386	-18.778760
9.600000	-0.829730	-40.189009	-14.958328	-116.430867	-14.958328	-116.430867	-0.802955	-21.151885
9.650000	-0.839961	-42.487503	-15.067066	-118.531678	-15.067066	-118.531678	-0.812009	-23.525359
9.700000	-0.850737	-44.783928	-15.175846	-120.622839	-15.175846	-120.622839	-0.821548	-25.899014
9.750000	-0.862063	-47.078448	-15.284696	-122.704193	-15.284696	-122.704193	-0.831570	-28.272683
9.800000	-0.873947	-49.371231	-15.393640	-124.775579	-15.393640	-124.775579	-0.842075	-30.646200
9.850000	-0.886396	-51.662453	-15.502698	-126.836839	-15.502698	-126.836839	-0.853062	-33.019399
9.900000	-0.899419	-53.952298	-15.611887	-128.887820	-15.611887	-128.887820	-0.864529	-35.392118
9.950000	-0.913024	-56.240956	-15.721221	-130.928367	-15.721221	-130.928367	-0.876477	-37.764201
10.000000	-0.927221	-58.528627	-15.830710	-132.958333	-15.830710	-132.958333	-0.888903	-40.135493
