! freq	dB(S11)	phase(S11)	dB(S12)	phase(S12)	
!     	dB(S21)	phase(S21)	dB(S22)	phase(S22)	
!S-par simulation data
#  GHz  S  DB  R 50
0.000000	-0.000000	0.000000	-351.964866	180.000000	-351.964866	180.000000	-0.000000	0.000000
0.050000	-0.000734	-0.812586	-98.486750	87.988382	-98.486750	87.988382	-0.002086	-3.334999
0.100000	-0.001995	-1.618382	-92.502422	85.983375	-92.502422	85.983375	-0.007261	-6.653997
0.150000	-0.003026	-2.420358	-89.041225	83.991716	-89.041225	83.991716	-0.013540	-9.952097
0.200000	-0.003846	-3.221194	-86.625710	82.019642	-86.625710	82.019642	-0.019658	-13.232541
0.250000	-0.004572	-4.021671	-84.795802	80.074904	-84.795802	80.074904	-0.025161	-16.498522
0.300000	-0.005282	-4.821893	-83.346743	78.165874	-83.346743	78.165874	-0.030032	-19.751810
0.350000	-0.006013	-5.621790	-82.166789	76.299700	-82.166789	76.299700	-0.034417	-22.992931
0.400000	-0.006780	-6.421250	-81.191528	74.485722	-81.191528	74.485722	-0.038436	-26.220866
0.450000	-0.007591	-7.220137	-80.382744	72.737489	-80.382744	72.737489	-0.042181	-29.433420
0.500000	-0.008441	-8.018372	-79.708827	71.063835	-79.708827	71.063835	-0.045739	-32.629639
0.550000	-0.009328	-8.815847	-79.150329	69.478126	-79.150329	69.478126	-0.049160	-35.807855
0.600000	-0.010247	-9.612384	-78.696747	68.001692	-78.696747	68.001692	-0.052474	-38.965449
0.650000	-0.011199	-10.407805	-78.335310	66.650485	-78.335310	66.650485	-0.055709	-42.101539
0.700000	-0.012201	-11.201762	-78.057860	65.445857	-78.057860	65.445857	-0.058882	-45.214939
0.750000	-0.013368	-11.993564	-77.861178	64.421233	-77.861178	64.421233	-0.062002	-48.303601
0.800000	-0.015155	-12.783565	-77.740994	63.612159	-77.740994	63.612159	-0.065075	-51.366361
0.850000	-0.017656	-13.579872	-77.693290	63.059968	-77.693290	63.059968	-0.068105	-54.402465
0.900000	-0.018911	-14.381173	-77.715237	62.818085	-77.715237	62.818085	-0.071093	-57.411050
0.950000	-0.019482	-15.176762	-77.804352	62.955366	-77.804352	62.955366	-0.074036	-60.391197
1.000000	-0.020186	-15.968679	-77.956903	63.556743	-77.956903	63.556743	-0.076935	-63.342202
1.050000	-0.021038	-16.758957	-78.166938	64.727319	-78.166938	64.727319	-0.079784	-66.263480
1.100000	-0.021974	-17.548175	-78.424363	66.594035	-78.424363	66.594035	-0.082583	-69.154547
1.150000	-0.022956	-18.336489	-78.712118	69.302603	-78.712118	69.302603	-0.085326	-72.015026
1.200000	-0.023965	-19.123939	-79.002446	73.003515	-79.002446	73.003515	-0.088012	-74.844634
1.250000	-0.024988	-19.910532	-79.253089	77.817679	-79.253089	77.817679	-0.090637	-77.643180
1.300000	-0.026019	-20.696247	-79.402379	83.794585	-79.402379	83.794585	-0.093196	-80.409879
1.350000	-0.027053	-21.481092	-79.384017	90.745181	-79.384017	90.745181	-0.095691	-83.145385
1.400000	-0.028087	-22.265057	-79.140910	98.272964	-79.140910	98.272964	-0.098117	-85.849752
1.450000	-0.029121	-23.048131	-78.649698	105.811932	-78.649698	105.811932	-0.100475	-88.523098
1.500000	-0.030153	-23.830301	-77.931805	112.797538	-77.931805	112.797538	-0.102764	-91.165608
1.550000	-0.031182	-24.611555	-77.042103	118.834293	-77.042103	118.834293	-0.104983	-93.777521
1.600000	-0.032208	-25.391879	-76.045532	123.753951	-76.045532	123.753951	-0.107133	-96.359129
1.650000	-0.033232	-26.171260	-74.998622	127.568483	-74.998622	127.568483	-0.109215	-98.910771
1.700000	-0.034253	-26.949685	-73.942303	130.387446	-73.942303	130.387446	-0.111231	-101.432827
1.750000	-0.035272	-27.727138	-72.902634	132.350665	-72.902634	132.350665	-0.113181	-103.925718
1.800000	-0.036288	-28.503605	-71.894413	133.587564	-71.894413	133.587564	-0.115068	-106.389894
1.850000	-0.037302	-29.279070	-70.924642	134.192669	-70.924642	134.192669	-0.116894	-108.825838
1.900000	-0.038315	-30.053509	-69.993547	134.188413	-69.993547	134.188413	-0.118661	-111.233762
1.950000	-0.039328	-30.826904	-69.090205	133.426443	-69.090205	133.426443	-0.120373	-113.614213
2.000000	-0.040339	-31.599252	-68.102502	130.973588	-68.102502	130.973588	-0.122033	-115.968042
2.050000	-0.041351	-32.370537	-65.972141	135.280481	-65.972141	135.280481	-0.123645	-118.295813
2.100000	-0.042363	-33.140744	-66.327244	138.163256	-66.327244	138.163256	-0.125211	-120.598103
2.150000	-0.043376	-33.909856	-65.828398	135.631235	-65.828398	135.631235	-0.126735	-122.875498
2.200000	-0.044390	-34.677860	-65.181545	133.945027	-65.181545	133.945027	-0.128222	-125.128592
2.250000	-0.045406	-35.444739	-64.533501	132.473245	-64.533501	132.473245	-0.129673	-127.357985
2.300000	-0.046424	-36.210479	-63.903431	131.045983	-63.903431	131.045983	-0.131094	-129.564279
2.350000	-0.047445	-36.975065	-63.295200	129.610187	-63.295200	129.610187	-0.132486	-131.748079
2.400000	-0.048469	-37.738481	-62.709199	128.147927	-62.709199	128.147927	-0.133855	-133.909989
2.450000	-0.049496	-38.500714	-62.144784	126.653962	-62.144784	126.653962	-0.135202	-136.050612
2.500000	-0.050528	-39.261750	-61.600973	125.128101	-61.600973	125.128101	-0.136531	-138.170547
2.550000	-0.051564	-40.021547	-61.076434	123.571620	-61.076434	123.571620	-0.137845	-140.269967
2.600000	-0.052604	-40.780118	-60.570412	121.987886	-60.570412	121.987886	-0.139148	-142.349914
2.650000	-0.053650	-41.537451	-60.081877	120.379730	-60.081877	120.379730	-0.140441	-144.410971
2.700000	-0.054701	-42.293531	-59.609865	118.749909	-59.609865	118.749909	-0.141728	-146.453716
2.750000	-0.055758	-43.048346	-59.153474	117.100992	-59.153474	117.100992	-0.143012	-148.478720
2.800000	-0.056822	-43.801884	-58.711870	115.435321	-58.711870	115.435321	-0.144294	-150.486545
2.850000	-0.057892	-44.554134	-58.284278	113.755005	-58.284278	113.755005	-0.145576	-152.477744
2.900000	-0.058968	-45.305083	-57.869983	112.061927	-57.869983	112.061927	-0.146861	-154.452863
2.950000	-0.060053	-46.054720	-57.468322	110.357762	-57.468322	110.357762	-0.148150	-156.412436
3.000000	-0.061144	-46.803034	-57.078682	108.643994	-57.078682	108.643994	-0.149446	-158.356990
3.050000	-0.062244	-47.550016	-56.700495	106.921939	-56.700495	106.921939	-0.150749	-160.287040
3.100000	-0.063352	-48.295654	-56.333234	105.192761	-56.333234	105.192761	-0.152060	-162.203092
3.150000	-0.064470	-49.039925	-55.976365	103.457434	-55.976365	103.457434	-0.153382	-164.105499
3.200000	-0.065596	-49.782819	-55.629444	101.716899	-55.629444	101.716899	-0.154715	-165.994764
3.250000	-0.066731	-50.524342	-55.292099	99.972024	-55.292099	99.972024	-0.156060	-167.871506
3.300000	-0.067877	-51.264485	-54.963935	98.223522	-54.963935	98.223522	-0.157417	-169.736189
3.350000	-0.069032	-52.003240	-54.644586	96.472026	-54.644586	96.472026	-0.158787	-171.589265
3.400000	-0.070199	-52.740600	-54.333708	94.718100	-54.333708	94.718100	-0.160171	-173.431177
3.450000	-0.071376	-53.476557	-54.030983	92.962248	-54.030983	92.962248	-0.161569	-175.262356
3.500000	-0.072564	-54.211105	-53.736111	91.204920	-53.736111	91.204920	-0.162980	-177.083222
3.550000	-0.073764	-54.944237	-53.448815	89.446520	-53.448815	89.446520	-0.164406	-178.894187
3.600000	-0.074976	-55.675947	-53.168834	87.687412	-53.168834	87.687412	-0.165846	179.304350
3.650000	-0.076200	-56.406229	-52.895922	85.927925	-52.895922	85.927925	-0.167299	177.511998
3.700000	-0.077437	-57.135078	-52.629852	84.168356	-52.629852	84.168356	-0.168766	175.728379
3.750000	-0.078686	-57.862489	-52.370408	82.408977	-52.370408	82.408977	-0.170247	173.953122
3.800000	-0.079950	-58.588427	-52.117370	80.650051	-52.117370	80.650051	-0.171740	172.186035
3.850000	-0.081228	-59.312918	-51.870577	78.891803	-51.870577	78.891803	-0.173246	170.426587
3.900000	-0.082520	-60.035958	-51.629850	77.134443	-51.629850	77.134443	-0.174763	168.674439
3.950000	-0.083826	-60.757545	-51.395022	75.378171	-51.395022	75.378171	-0.176291	166.929262
4.000000	-0.085148	-61.477675	-51.165936	73.623171	-51.165936	73.623171	-0.177830	165.190738
4.050000	-0.086485	-62.196346	-50.942444	71.869621	-50.942444	71.869621	-0.179379	163.458556
4.100000	-0.087838	-62.913556	-50.724406	70.117688	-50.724406	70.117688	-0.180936	161.732416
4.150000	-0.089207	-63.629302	-50.511692	68.367536	-50.511692	68.367536	-0.182501	160.012027
4.200000	-0.090594	-64.343440	-50.304198	66.619523	-50.304198	66.619523	-0.184074	158.297620
4.250000	-0.091997	-65.056240	-50.101780	64.873439	-50.101780	64.873439	-0.185653	156.587926
4.300000	-0.093418	-65.767573	-49.904335	63.129600	-49.904335	63.129600	-0.187236	154.883161
4.350000	-0.094856	-66.477439	-49.711759	61.388156	-49.711759	61.388156	-0.188824	153.183071
4.400000	-0.096313	-67.185839	-49.523952	59.649255	-49.523952	59.649255	-0.190415	151.487411
4.450000	-0.097788	-67.892772	-49.340822	57.913047	-49.340822	57.913047	-0.192009	149.795944
4.500000	-0.099283	-68.598239	-49.162278	56.179679	-49.162278	56.179679	-0.193603	148.108444
4.550000	-0.100797	-69.302242	-48.988238	54.449303	-48.988238	54.449303	-0.195198	146.424690
4.600000	-0.102332	-70.004781	-48.818619	52.722070	-48.818619	52.722070	-0.196792	144.744473
4.650000	-0.103886	-70.705858	-48.653348	50.998135	-48.653348	50.998135	-0.198384	143.067590
4.700000	-0.105462	-71.405476	-48.492351	49.277654	-48.492351	49.277654	-0.199973	141.393847
4.750000	-0.107059	-72.103637	-48.335560	47.560786	-48.335560	47.560786	-0.201558	139.723060
4.800000	-0.108677	-72.800343	-48.182908	45.847694	-48.182908	45.847694	-0.203138	138.055050
4.850000	-0.110318	-73.495599	-48.034334	44.138542	-48.034334	44.138542	-0.204712	136.389649
4.900000	-0.111981	-74.189406	-47.889778	42.433500	-47.889778	42.433500	-0.206279	134.726696
4.950000	-0.113667	-74.881769	-47.749183	40.732740	-47.749183	40.732740	-0.207838	133.066038
5.000000	-0.115377	-75.572692	-47.612494	39.036438	-47.612494	39.036438	-0.209389	131.407530
5.050000	-0.117112	-76.262062	-47.479810	37.345173	-47.479810	37.345173	-0.210928	129.751187
5.100000	-0.118870	-76.950133	-47.350766	35.658299	-47.350766	35.658299	-0.212458	128.096547
5.150000	-0.120653	-77.636688	-47.225601	33.976764	-47.225601	33.976764	-0.213975	126.443772
5.200000	-0.122461	-78.321872	-47.104081	32.300267	-47.104081	32.300267	-0.215480	124.792585
5.250000	-0.124295	-79.005634	-46.986241	30.629210	-46.986241	30.629210	-0.216972	123.142940
5.300000	-0.126155	-79.687953	-46.872075	28.963903	-46.872075	28.963903	-0.218449	121.494769
5.350000	-0.128041	-80.368945	-46.761381	27.304107	-46.761381	27.304107	-0.219913	119.847873
5.400000	-0.129955	-81.048427	-46.654410	25.650840	-46.654410	25.650840	-0.221359	118.202345
5.450000	-0.131894	-81.726647	-46.550741	24.003250	-46.550741	24.003250	-0.222790	116.557894
5.500000	-0.133864	-82.403346	-46.450774	22.362791	-46.450774	22.362791	-0.224203	114.914675
5.550000	-0.135859	-83.078771	-46.354072	20.728551	-46.354072	20.728551	-0.225600	113.272435
5.600000	-0.137885	-83.752770	-46.260874	19.101551	-46.260874	19.101551	-0.226978	111.631239
5.650000	-0.139938	-84.425431	-46.171006	17.481621	-46.171006	17.481621	-0.228338	109.990983
5.700000	-0.142021	-85.096763	-46.084438	15.869007	-46.084438	15.869007	-0.229679	108.351627
5.750000	-0.144135	-85.766696	-46.001279	14.264399	-46.001279	14.264399	-0.231000	106.713190
5.800000	-0.146276	-86.435393	-45.921211	12.667148	-45.921211	12.667148	-0.232302	105.075543
5.850000	-0.148451	-87.102634	-45.844643	11.078930	-45.844643	11.078930	-0.233583	103.438813
5.900000	-0.150655	-87.768684	-45.771053	9.498414	-45.771053	9.498414	-0.234845	101.802826
5.950000	-0.152892	-88.433323	-45.700862	7.927382	-45.700862	7.927382	-0.236086	100.167717
6.000000	-0.155159	-89.096739	-45.633690	6.364927	-45.633690	6.364927	-0.237307	98.533375
6.050000	-0.157459	-89.758842	-45.569713	4.812059	-45.569713	4.812059	-0.238507	96.899869
6.100000	-0.159791	-90.419668	-45.508853	3.268910	-45.508853	3.268910	-0.239687	95.267194
6.150000	-0.162155	-91.079276	-45.450982	1.735419	-45.450982	1.735419	-0.240846	93.635335
6.200000	-0.164555	-91.737557	-45.396331	0.212908	-45.396331	0.212908	-0.241985	92.004399
6.250000	-0.166985	-92.394714	-45.344458	-1.299908	-45.344458	-1.299908	-0.243105	90.374277
6.300000	-0.169453	-93.050498	-45.295913	-2.800346	-45.295913	-2.800346	-0.244203	88.745199
6.350000	-0.171952	-93.705180	-45.250093	-4.290408	-45.250093	-4.290408	-0.245284	87.117005
6.400000	-0.174488	-94.358587	-45.207392	-5.767916	-45.207392	-5.767916	-0.246344	85.489893
6.450000	-0.177058	-95.010846	-45.167519	-7.233625	-45.167519	-7.233625	-0.247386	83.863813
6.500000	-0.179663	-95.661924	-45.130551	-8.686636	-45.130551	-8.686636	-0.248411	82.238864
6.550000	-0.182305	-96.311813	-45.096514	-10.126265	-45.096514	-10.126265	-0.249417	80.615127
6.600000	-0.184982	-96.960615	-45.065166	-11.553091	-45.065166	-11.553091	-0.250408	78.992574
6.650000	-0.187697	-97.608190	-45.036843	-12.964774	-45.036843	-12.964774	-0.251381	77.371449
6.700000	-0.190451	-98.254619	-45.011353	-14.361572	-45.011353	-14.361572	-0.252340	75.751759
6.750000	-0.193239	-98.900008	-44.988441	-15.744201	-44.988441	-15.744201	-0.253284	74.133463
6.800000	-0.196065	-99.544306	-44.968226	-17.111304	-44.968226	-17.111304	-0.254216	72.516722
6.850000	-0.198929	-100.187529	-44.950667	-18.462337	-44.950667	-18.462337	-0.255135	70.901623
6.900000	-0.201831	-100.829691	-44.935721	-19.796738	-44.935721	-19.796738	-0.256044	69.288255
6.950000	-0.204771	-101.470808	-44.923344	-21.113927	-44.923344	-21.113927	-0.256942	67.676710
7.000000	-0.207750	-102.110896	-44.913483	-22.413304	-44.913483	-22.413304	-0.257832	66.067085
7.050000	-0.210769	-102.749970	-44.906086	-23.694255	-44.906086	-23.694255	-0.258714	64.459477
7.100000	-0.213827	-103.388047	-44.901093	-24.956145	-44.901093	-24.956145	-0.259590	62.853990
7.150000	-0.216924	-104.025144	-44.898441	-26.198328	-44.898441	-26.198328	-0.260462	61.250727
7.200000	-0.220062	-104.661276	-44.898061	-27.420140	-44.898061	-27.420140	-0.261331	59.649794
7.250000	-0.223240	-105.296462	-44.899877	-28.620908	-44.899877	-28.620908	-0.262198	58.051301
7.300000	-0.226459	-105.930719	-44.903809	-29.799946	-44.903809	-29.799946	-0.263065	56.455359
7.350000	-0.229719	-106.564064	-44.909768	-30.956561	-44.909768	-30.956561	-0.263934	54.862079
7.400000	-0.233020	-107.196515	-44.917659	-32.090054	-44.917659	-32.090054	-0.264807	53.271576
7.450000	-0.236364	-107.828091	-44.927378	-33.199725	-44.927378	-33.199725	-0.265685	51.683966
7.500000	-0.239749	-108.458810	-44.938814	-34.284875	-44.938814	-34.284875	-0.266571	50.099365
7.550000	-0.243178	-109.088654	-44.951910	-35.343681	-44.951910	-35.343681	-0.267466	48.518032
7.600000	-0.246650	-109.717681	-44.966461	-36.376529	-44.966461	-36.376529	-0.268372	46.939955
7.650000	-0.250165	-110.345909	-44.982329	-37.382752	-44.982329	-37.382752	-0.269292	45.365254
7.700000	-0.253723	-110.973359	-44.999364	-38.361706	-44.999364	-38.361706	-0.270227	43.794046
7.750000	-0.257325	-111.600050	-45.017408	-39.312774	-45.017408	-39.312774	-0.271181	42.226453
7.800000	-0.260970	-112.226002	-45.036293	-40.235373	-45.036293	-40.235373	-0.272154	40.662593
7.850000	-0.264660	-112.851236	-45.055841	-41.128960	-45.055841	-41.128960	-0.273149	39.102585
7.900000	-0.268394	-113.475772	-45.075865	-41.993039	-45.075865	-41.993039	-0.274168	37.546549
7.950000	-0.272174	-114.099632	-45.096167	-42.827169	-45.096167	-42.827169	-0.275214	35.994602
8.000000	-0.275998	-114.722837	-45.116541	-43.630969	-45.116541	-43.630969	-0.276290	34.446862
8.050000	-0.279868	-115.345408	-45.136773	-44.404129	-45.136773	-44.404129	-0.277396	32.903446
8.100000	-0.283783	-115.967367	-45.156639	-45.146415	-45.156639	-45.146415	-0.278537	31.364470
8.150000	-0.287745	-116.588737	-45.175911	-45.857676	-45.175911	-45.857676	-0.279714	29.830046
8.200000	-0.291753	-117.209539	-45.194351	-46.537855	-45.194351	-46.537855	-0.280930	28.300289
8.250000	-0.295808	-117.829798	-45.211717	-47.186987	-45.211717	-47.186987	-0.282188	26.775309
8.300000	-0.299910	-118.449535	-45.227764	-47.805216	-45.227764	-47.805216	-0.283489	25.255216
8.350000	-0.304059	-119.068774	-45.242243	-48.392790	-45.242243	-48.392790	-0.284837	23.740118
8.400000	-0.308256	-119.687539	-45.254905	-48.950073	-45.254905	-48.950073	-0.286234	22.230121
8.450000	-0.312501	-120.305854	-45.265501	-49.477544	-45.265501	-49.477544	-0.287683	20.725329
8.500000	-0.316794	-120.923743	-45.273782	-49.975800	-45.273782	-49.975800	-0.289186	19.225844
8.550000	-0.321136	-121.541231	-45.279506	-50.445558	-45.279506	-50.445558	-0.290747	17.731765
8.600000	-0.325527	-122.158342	-45.282437	-50.887651	-45.282437	-50.887651	-0.292367	16.243189
8.650000	-0.329968	-122.775102	-45.282343	-51.303032	-45.282343	-51.303032	-0.294049	14.760211
8.700000	-0.334458	-123.391537	-45.279006	-51.692762	-45.279006	-51.692762	-0.295797	13.282923
8.750000	-0.338998	-124.007671	-45.272217	-52.058011	-45.272217	-52.058011	-0.297612	11.811415
8.800000	-0.343590	-124.623522	-45.261614	-52.399104	-45.261614	-52.399104	-0.299501	10.346032
8.850000	-0.348234	-125.239128	-45.247167	-52.718475	-45.247167	-52.718475	-0.301463	8.886608
8.900000	-0.352929	-125.854516	-45.228715	-53.017574	-45.228715	-53.017574	-0.303501	7.433222
8.950000	-0.357675	-126.469714	-45.206113	-53.297919	-45.206113	-53.297919	-0.305618	5.985954
9.000000	-0.362473	-127.084749	-45.179236	-53.561078	-45.179236	-53.561078	-0.307816	4.544878
9.050000	-0.367323	-127.699649	-45.147979	-53.808663	-45.147979	-53.808663	-0.310098	3.110067
9.100000	-0.372227	-128.314443	-45.112254	-54.042310	-45.112254	-54.042310	-0.312467	1.681590
9.150000	-0.377183	-128.929159	-45.071997	-54.263668	-45.071997	-54.263668	-0.314926	0.259514
9.200000	-0.382193	-129.543826	-45.027161	-54.474384	-45.027161	-54.474384	-0.317476	-1.156099
9.250000	-0.387256	-130.158474	-44.977719	-54.676088	-44.977719	-54.676088	-0.320121	-2.565187
9.300000	-0.392374	-130.773132	-44.923666	-54.870380	-44.923666	-54.870380	-0.322863	-3.967693
9.350000	-0.397547	-131.387830	-44.865011	-55.058818	-44.865011	-55.058818	-0.325705	-5.363563
9.400000	-0.402774	-132.002599	-44.801783	-55.242907	-44.801783	-55.242907	-0.328650	-6.752746
9.450000	-0.408058	-132.617469	-44.734025	-55.424086	-44.734025	-55.424086	-0.331699	-8.135192
9.500000	-0.413397	-133.232473	-44.661797	-55.603721	-44.661797	-55.603721	-0.334856	-9.510857
9.550000	-0.418793	-133.847642	-44.585167	-55.783095	-44.585167	-55.783095	-0.338123	-10.879698
9.600000	-0.424246	-134.463007	-44.504220	-55.963407	-44.504220	-55.963407	-0.341502	-12.241675
9.650000	-0.429756	-135.078601	-44.419045	-56.145761	-44.419045	-56.145761	-0.344996	-13.596751
9.700000	-0.435324	-135.694457	-44.329742	-56.331165	-44.329742	-56.331165	-0.348608	-14.944893
9.750000	-0.440951	-136.310609	-44.236415	-56.520532	-44.236415	-56.520532	-0.352339	-16.286070
9.800000	-0.446636	-136.927090	-44.139174	-56.714676	-44.139174	-56.714676	-0.356193	-17.620253
9.850000	-0.452381	-137.543934	-44.038130	-56.914311	-44.038130	-56.914311	-0.360171	-18.947416
9.900000	-0.458186	-138.161176	-43.933395	-57.120059	-43.933395	-57.120059	-0.364276	-20.267537
9.950000	-0.464052	-138.778851	-43.825084	-57.332446	-43.825084	-57.332446	-0.368510	-21.580596
10.000000	-0.469978	-139.396994	-43.713305	-57.551911	-43.713305	-57.551911	-0.372876	-22.886575
