! freq	dB(S11)	phase(S11)	dB(S12)	phase(S12)	
!     	dB(S21)	phase(S21)	dB(S22)	phase(S22)	
!S-par simulation data
#  GHz  S  DB  R 50
0.000000	-0.000000	-0.000000	-339.382216	180.000000	-339.382216	180.000000	-0.000000	-0.000000
0.050000	-0.000105	-0.817193	-113.678956	89.140804	-113.678956	89.140804	-0.000117	-1.036429
0.100000	-0.000415	-1.634129	-107.709094	88.292349	-107.709094	88.292349	-0.000466	-2.072586
0.150000	-0.000918	-2.450573	-104.271979	87.465658	-104.271979	87.465658	-0.001036	-3.108218
0.200000	-0.001592	-3.266330	-101.891476	86.672038	-101.891476	86.672038	-0.001807	-4.143104
0.250000	-0.002424	-4.081183	-100.112138	85.927579	-100.112138	85.927579	-0.002770	-5.176981
0.300000	-0.003373	-4.895097	-98.720583	85.242907	-98.720583	85.242907	-0.003886	-6.209776
0.350000	-0.004421	-5.707962	-97.612692	84.637256	-97.612692	84.637256	-0.005136	-7.241325
0.400000	-0.005544	-6.519741	-96.725278	84.131753	-96.725278	84.131753	-0.006497	-8.271532
0.450000	-0.006720	-7.330425	-96.018947	83.752426	-96.018947	83.752426	-0.007945	-9.300337
0.500000	-0.007931	-8.140027	-95.468285	83.532016	-95.468285	83.532016	-0.009457	-10.327704
0.550000	-0.009161	-8.948576	-95.056759	83.512520	-95.056759	83.512520	-0.011014	-11.353617
0.600000	-0.010399	-9.756108	-94.773824	83.748822	-94.773824	83.748822	-0.012599	-12.378079
0.650000	-0.011634	-10.562662	-94.613084	84.313929	-94.613084	84.313929	-0.014198	-13.401101
0.700000	-0.012862	-11.368276	-94.570874	85.306560	-94.570874	85.306560	-0.015799	-14.422703
0.750000	-0.014076	-12.172987	-94.644731	86.861991	-94.644731	86.861991	-0.017394	-15.442906
0.800000	-0.015275	-12.976822	-94.831074	89.166933	-94.831074	89.166933	-0.018975	-16.461732
0.850000	-0.016458	-13.779806	-95.120971	92.477531	-95.120971	92.477531	-0.020539	-17.479199
0.900000	-0.017623	-14.581957	-95.492115	97.133334	-95.492115	97.133334	-0.022081	-18.495324
0.950000	-0.018772	-15.383288	-95.894629	103.542467	-95.894629	103.542467	-0.023600	-19.510119
1.000000	-0.019904	-16.183805	-96.231179	112.079487	-96.231179	112.079487	-0.025095	-20.523591
1.050000	-0.021021	-16.983509	-96.345500	122.818930	-96.345500	122.818930	-0.026566	-21.535743
1.100000	-0.022124	-17.782400	-96.057766	135.147232	-96.057766	135.147232	-0.028013	-22.546571
1.150000	-0.023215	-18.580472	-95.269318	147.652726	-95.269318	147.652726	-0.029438	-23.556070
1.200000	-0.024294	-19.377715	-94.045931	158.775082	-94.045931	158.775082	-0.030842	-24.564229
1.250000	-0.025363	-20.174119	-92.561743	167.675405	-92.561743	167.675405	-0.032226	-25.571035
1.300000	-0.026423	-20.969634	-90.969609	174.261731	-90.969609	174.261731	-0.033591	-26.576409
1.350000	-0.027475	-21.764280	-89.390755	179.033321	-89.390755	179.033321	-0.034940	-27.580391
1.400000	-0.028521	-22.558041	-87.873372	-177.585112	-87.873372	-177.585112	-0.036275	-28.582959
1.450000	-0.029561	-23.350901	-86.435602	-175.244907	-86.435602	-175.244907	-0.037597	-29.584090
1.500000	-0.030596	-24.142841	-85.080702	-173.683981	-85.080702	-173.683981	-0.038907	-30.583758
1.550000	-0.031628	-24.933844	-83.805298	-172.711417	-83.805298	-172.711417	-0.040208	-31.581937
1.600000	-0.032656	-25.723890	-82.603462	-172.188994	-82.603462	-172.188994	-0.041500	-32.578601
1.650000	-0.033681	-26.512962	-81.468620	-172.016054	-81.468620	-172.016054	-0.042786	-33.573723
1.700000	-0.034704	-27.301040	-80.394398	-172.118461	-80.394398	-172.118461	-0.044065	-34.567274
1.750000	-0.035726	-28.088105	-79.374945	-172.440854	-79.374945	-172.440854	-0.045340	-35.559229
1.800000	-0.036746	-28.874138	-78.405035	-172.941302	-78.405035	-172.941302	-0.046612	-36.549558
1.850000	-0.037766	-29.659121	-77.480053	-173.587593	-77.480053	-173.587593	-0.047881	-37.538236
1.900000	-0.038786	-30.443036	-76.595948	-174.354646	-76.595948	-174.354646	-0.049149	-38.525234
1.950000	-0.039806	-31.225863	-75.749166	-175.222684	-75.749166	-175.222684	-0.050416	-39.510527
2.000000	-0.040827	-32.007585	-74.936585	-176.175926	-74.936585	-176.175926	-0.051683	-40.494090
2.050000	-0.041849	-32.788185	-74.155458	-177.201645	-74.155458	-177.201645	-0.052951	-41.475896
2.100000	-0.042872	-33.567644	-73.403355	-178.289467	-73.403355	-178.289467	-0.054220	-42.455922
2.150000	-0.043896	-34.345945	-72.678125	-179.430861	-72.678125	-179.430861	-0.055492	-43.434144
2.200000	-0.044923	-35.123072	-71.977851	179.381250	-71.977851	179.381250	-0.056766	-44.410539
2.250000	-0.045952	-35.899008	-71.300823	178.152786	-71.300823	178.152786	-0.058044	-45.385085
2.300000	-0.046983	-36.673737	-70.645506	176.888736	-70.645506	176.888736	-0.059325	-46.357762
2.350000	-0.048018	-37.447242	-70.010519	175.593330	-70.010519	175.593330	-0.060611	-47.328549
2.400000	-0.049056	-38.219509	-69.394615	174.270182	-69.394615	174.270182	-0.061902	-48.297426
2.450000	-0.050097	-38.990522	-68.796664	172.922396	-68.796664	172.922396	-0.063197	-49.264376
2.500000	-0.051142	-39.760267	-68.215639	171.552653	-68.215639	171.552653	-0.064499	-50.229382
2.550000	-0.052192	-40.528673	-67.649704	170.162522	-67.649704	170.162522	-0.065807	-51.192341
2.600000	-0.053247	-41.295780	-67.098995	168.754953	-67.098995	168.754953	-0.067121	-52.153322
2.650000	-0.054306	-42.061575	-66.562716	167.331695	-66.562716	167.331695	-0.068443	-53.112312
2.700000	-0.055371	-42.826045	-66.040134	165.894294	-66.040134	165.894294	-0.069772	-54.069297
2.750000	-0.056441	-43.589176	-65.530577	164.444116	-65.530577	164.444116	-0.071109	-55.024265
2.800000	-0.057517	-44.350957	-65.033423	162.982375	-65.033423	162.982375	-0.072454	-55.977205
2.850000	-0.058600	-45.111376	-64.548094	161.510152	-64.548094	161.510152	-0.073808	-56.928108
2.900000	-0.059689	-45.870419	-64.074057	160.028416	-64.074057	160.028416	-0.075171	-57.876962
2.950000	-0.060786	-46.628077	-63.610816	158.538035	-63.610816	158.538035	-0.076544	-58.823761
3.000000	-0.061890	-47.384338	-63.157908	157.039791	-63.157908	157.039791	-0.077926	-59.768498
3.050000	-0.063001	-48.139191	-62.714900	155.534389	-62.714900	155.534389	-0.079319	-60.711165
3.100000	-0.064121	-48.892626	-62.281390	154.022465	-62.281390	154.022465	-0.080723	-61.651758
3.150000	-0.065250	-49.644634	-61.857001	152.504600	-61.857001	152.504600	-0.082138	-62.590273
3.200000	-0.066387	-50.395204	-61.441376	150.981318	-61.441376	150.981318	-0.083565	-63.526705
3.250000	-0.067534	-51.144328	-61.034185	149.453099	-61.034185	149.453099	-0.085004	-64.461053
3.300000	-0.068691	-51.891997	-60.635113	147.920380	-60.635113	147.920380	-0.086456	-65.393315
3.350000	-0.069857	-52.638203	-60.243865	146.383563	-60.243865	146.383563	-0.087921	-66.323491
3.400000	-0.071034	-53.382938	-59.860165	144.843014	-59.860165	144.843014	-0.089400	-67.251580
3.450000	-0.072222	-54.126194	-59.483748	143.299070	-59.483748	143.299070	-0.090893	-68.177585
3.500000	-0.073421	-54.867965	-59.114366	141.752043	-59.114366	141.752043	-0.092400	-69.101506
3.550000	-0.074632	-55.608243	-58.751785	140.202218	-58.751785	140.202218	-0.093923	-70.023348
3.600000	-0.075855	-56.347023	-58.395781	138.649860	-58.395781	138.649860	-0.095461	-70.943114
3.650000	-0.077091	-57.084298	-58.046143	137.095213	-58.046143	137.095213	-0.097015	-71.860808
3.700000	-0.078339	-57.820062	-57.702670	135.538505	-57.702670	135.538505	-0.098587	-72.776437
3.750000	-0.079600	-58.554312	-57.365170	133.979945	-57.365170	133.979945	-0.100175	-73.690007
3.800000	-0.080876	-59.286975	-57.033166	132.419664	-57.033166	132.419664	-0.101782	-74.601436
3.850000	-0.082166	-60.018114	-56.706802	130.857925	-56.706802	130.857925	-0.103407	-75.510823
3.900000	-0.083471	-60.747724	-56.385912	129.294894	-56.385912	129.294894	-0.105051	-76.418175
3.950000	-0.084790	-61.475802	-56.070338	127.730728	-56.070338	127.730728	-0.106715	-77.323504
4.000000	-0.086125	-62.202345	-55.759928	126.165574	-55.759928	126.165574	-0.108398	-78.226819
4.050000	-0.087475	-62.927350	-55.454537	124.599569	-55.454537	124.599569	-0.110102	-79.128133
4.100000	-0.088842	-63.650815	-55.154026	123.032840	-55.154026	123.032840	-0.111827	-80.027457
4.150000	-0.090225	-64.372738	-54.858263	121.465508	-54.858263	121.465508	-0.113573	-80.924805
4.200000	-0.091625	-65.093118	-54.567121	119.897687	-54.567121	119.897687	-0.115342	-81.820190
4.250000	-0.093043	-65.811953	-54.280478	118.329483	-54.280478	118.329483	-0.117134	-82.713627
4.300000	-0.094478	-66.529242	-53.998217	116.760995	-53.998217	116.760995	-0.118948	-83.605132
4.350000	-0.095932	-67.244985	-53.720227	115.192318	-53.720227	115.192318	-0.120786	-84.494719
4.400000	-0.097404	-67.959183	-53.446400	113.623541	-53.446400	113.623541	-0.122649	-85.382407
4.450000	-0.098895	-68.671835	-53.176633	112.054747	-53.176633	112.054747	-0.124537	-86.268212
4.500000	-0.100405	-69.382942	-52.910826	110.486017	-52.910826	110.486017	-0.126450	-87.152154
4.550000	-0.101936	-70.092505	-52.648884	108.917424	-52.648884	108.917424	-0.128389	-88.034249
4.600000	-0.103486	-70.800526	-52.390715	107.349040	-52.390715	107.349040	-0.130354	-88.914520
4.650000	-0.105058	-71.507007	-52.136231	105.780932	-52.136231	105.780932	-0.132346	-89.792985
4.700000	-0.106650	-72.211950	-51.885346	104.213163	-51.885346	104.213163	-0.134366	-90.669667
4.750000	-0.108264	-72.915357	-51.637977	102.645795	-51.637977	102.645795	-0.136415	-91.544585
4.800000	-0.109900	-73.617231	-51.394046	101.078885	-51.394046	101.078885	-0.138491	-92.417764
4.850000	-0.111558	-74.317576	-51.153477	99.512488	-51.153477	99.512488	-0.140597	-93.289227
4.900000	-0.113238	-75.016395	-50.916194	97.946654	-50.916194	97.946654	-0.142732	-94.158996
4.950000	-0.114942	-75.713692	-50.682127	96.381435	-50.682127	96.381435	-0.144898	-95.027096
5.000000	-0.116670	-76.409472	-50.451207	94.816876	-50.451207	94.816876	-0.147094	-95.893553
5.050000	-0.118422	-77.103673	-50.223242	93.253056	-50.223242	93.253056	-0.149323	-96.758323
5.100000	-0.120199	-77.796367	-49.998300	91.689989	-49.998300	91.689989	-0.151583	-97.621504
5.150000	-0.122001	-78.487558	-49.776319	90.127715	-49.776319	90.127715	-0.153876	-98.483124
5.200000	-0.123827	-79.177254	-49.557238	88.566273	-49.557238	88.566273	-0.156201	-99.343209
5.250000	-0.125680	-79.865459	-49.340998	87.005700	-49.340998	87.005700	-0.158559	-100.201789
5.300000	-0.127558	-80.552180	-49.127542	85.446031	-49.127542	85.446031	-0.160951	-101.058892
5.350000	-0.129463	-81.237423	-48.916815	83.887300	-48.916815	83.887300	-0.163377	-101.914547
5.400000	-0.131395	-81.921196	-48.708763	82.329540	-48.708763	82.329540	-0.165838	-102.768787
5.450000	-0.133354	-82.603507	-48.503334	80.772781	-48.503334	80.772781	-0.168334	-103.621640
5.500000	-0.135341	-83.284361	-48.300478	79.217053	-48.300478	79.217053	-0.170865	-104.473138
5.550000	-0.137356	-83.963768	-48.100145	77.662384	-48.100145	77.662384	-0.173432	-105.323315
5.600000	-0.139399	-84.641735	-47.902288	76.108801	-47.902288	76.108801	-0.176035	-106.172201
5.650000	-0.141471	-85.318272	-47.706862	74.556329	-47.706862	74.556329	-0.178675	-107.019832
5.700000	-0.143573	-85.993386	-47.513820	73.004994	-47.513820	73.004994	-0.181352	-107.866239
5.750000	-0.145704	-86.667087	-47.323120	71.454819	-47.323120	71.454819	-0.184067	-108.711459
5.800000	-0.147865	-87.339385	-47.134719	69.905826	-47.134719	69.905826	-0.186820	-109.555525
5.850000	-0.150063	-88.010048	-46.948279	68.358251	-46.948279	68.358251	-0.189618	-110.398291
5.900000	-0.152292	-88.679268	-46.763995	66.811953	-46.763995	66.811953	-0.192456	-111.239930
5.950000	-0.154539	-89.347775	-46.582695	65.266311	-46.582695	65.266311	-0.195316	-112.081039
6.000000	-0.156834	-90.014144	-46.402616	63.722635	-46.402616	63.722635	-0.198237	-112.920559
6.050000	-0.159141	-90.680046	-46.225666	62.179409	-46.225666	62.179409	-0.201173	-113.759753
6.100000	-0.161505	-91.343611	-46.049660	60.638430	-46.049660	60.638430	-0.204178	-114.597321
6.150000	-0.163874	-92.006947	-45.876901	59.097681	-45.876901	59.097681	-0.207191	-115.434740
6.200000	-0.166307	-92.667759	-45.704841	57.559463	-45.704841	57.559463	-0.210282	-116.270526
6.250000	-0.168740	-93.328571	-45.536123	56.021244	-45.536123	56.021244	-0.213374	-117.106313
6.300000	-0.171244	-93.986680	-45.367889	54.485844	-45.367889	54.485844	-0.216552	-117.940496
6.350000	-0.173749	-94.644790	-45.202852	52.950444	-45.202852	52.950444	-0.219732	-118.774680
6.400000	-0.176320	-95.300472	-45.038548	51.417671	-45.038548	51.417671	-0.222992	-119.607560
6.450000	-0.178898	-95.955934	-44.877086	49.885137	-44.877086	49.885137	-0.226261	-120.440322
6.500000	-0.181537	-96.609236	-44.716574	48.355025	-44.716574	48.355025	-0.229605	-121.272057
6.550000	-0.184190	-97.262106	-44.558583	46.825398	-44.558583	46.825398	-0.232964	-122.103585
6.600000	-0.186899	-97.913077	-44.401735	45.297975	-44.401735	45.297975	-0.236392	-122.934333
6.650000	-0.189628	-98.563414	-44.247118	43.771287	-44.247118	43.771287	-0.239844	-123.764821
6.700000	-0.192408	-99.212103	-44.093809	42.246574	-44.093809	42.246574	-0.243357	-124.594748
6.750000	-0.195215	-99.859968	-43.942473	40.722850	-43.942473	40.722850	-0.246903	-125.424393
6.800000	-0.198068	-100.506428	-43.792588	39.200864	-43.792588	39.200864	-0.250504	-126.253666
6.850000	-0.200955	-101.151883	-43.644443	37.680120	-43.644443	37.680120	-0.254144	-127.082672
6.900000	-0.203882	-101.796166	-43.497870	36.160870	-43.497870	36.160870	-0.257834	-127.911463
6.950000	-0.206850	-102.439277	-43.352832	34.643115	-43.352832	34.643115	-0.261571	-128.740038
7.000000	-0.209853	-103.081438	-43.209467	33.126605	-43.209467	33.126605	-0.265350	-129.568524
7.050000	-0.212904	-103.722270	-43.067453	31.611840	-43.067453	31.611840	-0.269186	-130.396883
7.100000	-0.215984	-104.362366	-42.927197	30.098070	-42.927197	30.098070	-0.273055	-131.225243
7.150000	-0.219120	-105.000989	-42.788130	28.586289	-42.788130	28.586289	-0.276991	-132.053605
7.200000	-0.222277	-105.639077	-42.650887	27.075250	-42.650887	27.075250	-0.280952	-132.882023
7.250000	-0.225499	-106.275561	-42.514694	25.566438	-42.514694	25.566438	-0.284989	-133.710612
7.300000	-0.228737	-106.911700	-42.380376	24.058118	-42.380376	24.058118	-0.289044	-134.539278
7.350000	-0.232046	-107.546117	-42.246985	22.552254	-42.246985	22.552254	-0.293184	-135.368325
7.400000	-0.235364	-108.180368	-42.115506	21.046633	-42.115506	21.046633	-0.297334	-136.197429
7.450000	-0.238763	-108.812792	-41.984851	19.543688	-41.984851	19.543688	-0.301577	-137.027169
7.500000	-0.242164	-109.445217	-41.856132	18.040743	-41.856132	18.040743	-0.305823	-137.856910
7.550000	-0.245653	-110.075725	-41.728149	16.540681	-41.728149	16.540681	-0.310173	-138.687584
7.600000	-0.249145	-110.706233	-41.602025	15.040618	-41.602025	15.040618	-0.314524	-139.518259
7.650000	-0.252719	-111.335055	-41.476743	13.543160	-41.476743	13.543160	-0.318973	-140.350016
7.700000	-0.256303	-111.963724	-41.353156	12.045937	-41.353156	12.045937	-0.323432	-141.181872
7.750000	-0.259963	-112.590928	-41.230504	10.551040	-41.230504	10.551040	-0.327980	-142.014922
7.800000	-0.263640	-113.217838	-41.109403	9.056609	-41.109403	9.056609	-0.332548	-142.848212
7.850000	-0.267388	-113.843489	-40.989312	7.564228	-40.989312	7.564228	-0.337198	-143.682770
7.900000	-0.271161	-114.468721	-40.870645	6.072531	-40.870645	6.072531	-0.341877	-144.517752
7.950000	-0.274997	-115.092890	-40.753054	4.582616	-40.753054	4.582616	-0.346629	-145.354037
8.000000	-0.278866	-115.716527	-40.636775	3.093592	-40.636775	3.093592	-0.351420	-146.190975
8.050000	-0.282791	-116.339284	-40.521622	1.606089	-40.521622	1.606089	-0.356277	-147.029210
8.100000	-0.286758	-116.961411	-40.407688	0.119672	-40.407688	0.119672	-0.361182	-147.868373
8.150000	-0.290774	-117.582826	-40.294919	-1.365478	-40.294919	-1.365478	-0.366144	-148.708787
8.200000	-0.294840	-118.203529	-40.183289	-2.849361	-40.183289	-2.849361	-0.371164	-149.550452
8.250000	-0.298947	-118.823676	-40.072851	-4.332219	-40.072851	-4.332219	-0.376234	-150.393276
8.300000	-0.303113	-119.443044	-39.963489	-5.813642	-39.963489	-5.813642	-0.381372	-151.237724
8.350000	-0.307314	-120.061997	-39.855334	-7.294272	-39.855334	-7.294272	-0.386550	-152.083196
8.400000	-0.311581	-120.680120	-39.748207	-8.773315	-39.748207	-8.773315	-0.391806	-152.930715
8.450000	-0.315875	-121.297954	-39.642291	-10.251784	-39.642291	-10.251784	-0.397095	-153.779076
8.500000	-0.320245	-121.914923	-39.537369	-11.728529	-39.537369	-11.728529	-0.402472	-154.629960
8.550000	-0.324633	-122.531716	-39.433650	-13.204904	-39.433650	-13.204904	-0.407872	-155.481455
8.600000	-0.329107	-123.147625	-39.330907	-14.679434	-39.330907	-14.679434	-0.413372	-156.336005
8.650000	-0.333590	-123.763453	-39.229347	-16.153786	-39.229347	-16.153786	-0.418885	-157.190886
8.700000	-0.338168	-124.378397	-39.128760	-17.626186	-39.128760	-17.626186	-0.424510	-158.049407
8.750000	-0.342748	-124.993341	-39.029325	-19.098585	-39.029325	-19.098585	-0.430138	-158.907928
8.800000	-0.347406	-125.607622	-38.930901	-20.569439	-38.930901	-20.569439	-0.435859	-159.769623
8.850000	-0.352115	-126.221510	-38.833531	-22.039332	-38.833531	-22.039332	-0.441641	-160.633446
8.900000	-0.356875	-126.835029	-38.737210	-23.508283	-38.737210	-23.508283	-0.447485	-161.499472
8.950000	-0.361686	-127.448202	-38.641934	-24.976311	-38.641934	-24.976311	-0.453391	-162.367774
9.000000	-0.366548	-128.061051	-38.547698	-26.443433	-38.547698	-26.443433	-0.459359	-163.238426
9.050000	-0.371462	-128.673600	-38.454499	-27.909669	-38.454499	-27.909669	-0.465391	-164.111505
9.100000	-0.376427	-129.285872	-38.362331	-29.375034	-38.362331	-29.375034	-0.471486	-164.987087
9.150000	-0.381445	-129.897893	-38.271194	-30.839547	-38.271194	-30.839547	-0.477645	-165.865248
9.200000	-0.386514	-130.509684	-38.181083	-32.303222	-38.181083	-32.303222	-0.483868	-166.746066
9.250000	-0.391635	-131.121271	-38.091996	-33.766076	-38.091996	-33.766076	-0.490156	-167.629619
9.300000	-0.396809	-131.732679	-38.003933	-35.228123	-38.003933	-35.228123	-0.496510	-168.515986
9.350000	-0.402034	-132.343931	-37.916890	-36.689377	-37.916890	-36.689377	-0.502930	-169.405246
9.400000	-0.407312	-132.955053	-37.830867	-38.149851	-37.830867	-38.149851	-0.509415	-170.297480
9.450000	-0.412643	-133.566070	-37.745864	-39.609557	-37.745864	-39.609557	-0.515968	-171.192769
9.500000	-0.418026	-134.177007	-37.661880	-41.068506	-37.661880	-41.068506	-0.522588	-172.091193
9.550000	-0.423461	-134.787889	-37.578914	-42.526707	-37.578914	-42.526707	-0.529276	-172.992836
9.600000	-0.428949	-135.398744	-37.496969	-43.984169	-37.496969	-43.984169	-0.536031	-173.897779
9.650000	-0.434490	-136.009595	-37.416043	-45.440900	-37.416043	-45.440900	-0.542856	-174.806106
9.700000	-0.440083	-136.620471	-37.336139	-46.896904	-37.336139	-46.896904	-0.549749	-175.717901
9.750000	-0.445729	-137.231398	-37.257257	-48.352186	-37.257257	-48.352186	-0.556712	-176.633249
9.800000	-0.451428	-137.842401	-37.179401	-49.806748	-37.179401	-49.806748	-0.563745	-177.552234
9.850000	-0.457179	-138.453509	-37.102571	-51.260593	-37.102571	-51.260593	-0.570849	-178.474943
9.900000	-0.462982	-139.064749	-37.026770	-52.713718	-37.026770	-52.713718	-0.578023	-179.401461
9.950000	-0.468838	-139.676148	-36.952002	-54.166121	-36.952002	-54.166121	-0.585269	179.668125
10.000000	-0.474746	-140.287733	-36.878268	-55.617799	-36.878268	-55.617799	-0.592586	178.733727
