! freq	dB(S11)	phase(S11)	dB(S12)	phase(S12)	
!     	dB(S21)	phase(S21)	dB(S22)	phase(S22)	
!S-par simulation data
#  GHz  S  DB  R 50
0.000000	-85.673706	0.000000	-0.000452	0.000000	-0.000452	0.000000	-85.673706	0.000000
0.050000	-35.183755	-92.966223	-0.004510	-2.874029	-0.004510	-2.874029	-35.177921	-92.564481
0.100000	-29.178336	-96.180180	-0.014187	-5.723527	-0.014187	-5.723527	-29.172795	-95.376792
0.150000	-25.680539	-99.317946	-0.026311	-8.551013	-0.026311	-8.551013	-25.675374	-98.113697
0.200000	-23.212667	-102.419912	-0.039937	-11.366453	-0.039937	-11.366453	-23.207852	-100.816110
0.250000	-21.311768	-105.494031	-0.055233	-14.174772	-0.055233	-14.174772	-21.307182	-103.492483
0.300000	-19.771043	-108.545416	-0.072477	-16.977356	-0.072477	-16.977356	-19.766484	-106.148034
0.350000	-18.479211	-111.579030	-0.091745	-19.774087	-0.091745	-19.774087	-18.474440	-108.787259
0.400000	-17.370374	-114.597862	-0.113087	-22.564024	-0.113087	-22.564024	-17.365150	-111.412413
0.450000	-16.402631	-117.603307	-0.136565	-25.345708	-0.136565	-25.345708	-16.396753	-114.024019
0.500000	-15.546032	-120.596789	-0.162001	-28.118483	-0.162001	-28.118483	-15.539409	-116.622846
0.550000	-14.779913	-123.578166	-0.189297	-30.881415	-0.189297	-30.881415	-14.772551	-119.208465
0.600000	-14.089725	-126.546195	-0.218411	-33.633137	-0.218411	-33.633137	-14.081706	-121.779611
0.650000	-13.463421	-129.500595	-0.249147	-36.373295	-0.249147	-36.373295	-13.454873	-124.336255
0.700000	-12.891956	-132.440939	-0.281351	-39.101417	-0.281351	-39.101417	-12.883007	-126.878205
0.750000	-12.368683	-135.366443	-0.314915	-41.816628	-0.314915	-41.816628	-12.359447	-129.404819
0.800000	-11.887839	-138.277032	-0.349678	-44.518568	-0.349678	-44.518568	-11.878401	-131.916085
0.850000	-11.444184	-141.173365	-0.385451	-47.207514	-0.385451	-47.207514	-11.434603	-134.412665
0.900000	-11.034545	-144.054732	-0.422128	-49.882491	-0.422128	-49.882491	-11.024860	-136.893761
0.950000	-10.655217	-146.921759	-0.459533	-52.543794	-0.459533	-52.543794	-10.645453	-139.359936
1.000000	-10.303348	-149.774680	-0.497515	-55.191419	-0.497515	-55.191419	-10.293522	-141.811353
1.050000	-9.976477	-152.613744	-0.535928	-57.825442	-0.535928	-57.825442	-9.966600	-144.248201
1.100000	-9.672460	-155.439216	-0.574630	-60.446008	-0.574630	-60.446008	-9.662539	-146.670704
1.150000	-9.389417	-158.251380	-0.613484	-63.053327	-0.613484	-63.053327	-9.379460	-149.079119
1.200000	-9.125693	-161.050540	-0.652358	-65.647666	-0.652358	-65.647666	-9.115707	-151.473739
1.250000	-8.879820	-163.837026	-0.691126	-68.229346	-0.691126	-68.229346	-8.869813	-153.854897
1.300000	-8.651147	-166.610389	-0.729634	-70.797930	-0.729634	-70.797930	-8.641128	-156.222108
1.350000	-8.436944	-169.372929	-0.767846	-73.355732	-0.767846	-73.355732	-8.426920	-158.577819
1.400000	-8.237648	-172.123237	-0.805572	-75.901384	-0.805572	-75.901384	-8.227631	-160.920548
1.450000	-8.051412	-174.862849	-0.842773	-78.436439	-0.842773	-78.436439	-8.041409	-163.251943
1.500000	-7.877734	-177.591805	-0.879328	-80.960975	-0.879328	-80.960975	-7.867757	-165.572080
1.550000	-7.715998	179.689608	-0.915133	-83.475304	-0.915133	-83.475304	-7.706057	-167.881302
1.600000	-7.564861	176.980128	-0.950176	-85.980697	-0.950176	-85.980697	-7.554967	-170.180988
1.650000	-7.424766	174.280492	-0.984247	-88.476459	-0.984247	-88.476459	-7.414932	-172.470437
1.700000	-7.293904	171.588777	-1.017436	-90.964492	-1.017436	-90.964492	-7.284142	-174.751727
1.750000	-7.172535	168.905332	-1.049566	-93.444476	-1.049566	-93.444476	-7.162858	-177.024592
1.800000	-7.059945	166.229359	-1.080604	-95.917214	-1.080604	-95.917214	-7.050366	-179.289965
1.850000	-6.955685	163.560306	-1.110489	-98.383272	-1.110489	-98.383272	-6.946218	178.451461
1.900000	-6.860267	160.898438	-1.138972	-100.842458	-1.138972	-100.842458	-6.850930	176.199733
1.950000	-6.771503	158.241544	-1.166358	-103.296957	-1.166358	-103.296957	-6.762311	173.952561
2.000000	-6.689927	155.589908	-1.192427	-105.746595	-1.192427	-105.746595	-6.680896	171.710010
2.050000	-6.615218	152.942993	-1.217130	-108.192020	-1.217130	-108.192020	-6.606367	169.471335
2.100000	-6.547083	150.300271	-1.240425	-110.633903	-1.240425	-110.633903	-6.538430	167.235787
2.150000	-6.485250	147.661225	-1.262277	-113.072941	-1.262277	-113.072941	-6.476816	165.002608
2.200000	-6.429470	145.025355	-1.282657	-115.509845	-1.282657	-115.509845	-6.421277	162.771033
2.250000	-6.379513	142.392176	-1.301546	-117.945336	-1.301546	-117.945336	-6.371584	160.540296
2.300000	-6.335167	139.761221	-1.318933	-120.380131	-1.318933	-120.380131	-6.327527	158.309622
2.350000	-6.296238	137.132044	-1.334814	-122.814935	-1.334814	-122.814935	-6.288914	156.078235
2.400000	-6.262547	134.504222	-1.349192	-125.250433	-1.349192	-125.250433	-6.255567	153.845357
2.450000	-6.233929	131.877355	-1.362079	-127.687282	-1.362079	-127.687282	-6.227323	151.610203
2.500000	-6.210233	129.251068	-1.373489	-130.126113	-1.373489	-130.126113	-6.204034	149.371990
2.550000	-6.191520	126.625009	-1.383378	-132.567665	-1.383378	-132.567665	-6.185764	147.129726
2.600000	-6.177454	123.998840	-1.391832	-135.012424	-1.391832	-135.012424	-6.172177	144.882753
2.650000	-6.167919	121.372276	-1.398877	-137.460935	-1.398877	-137.460935	-6.163159	142.630280
2.700000	-6.162808	118.745065	-1.404537	-139.913722	-1.404537	-139.913722	-6.158606	140.371511
2.750000	-6.162024	116.116989	-1.408841	-142.371292	-1.408841	-142.371292	-6.158425	138.105649
2.800000	-6.165479	113.487864	-1.411817	-144.834134	-1.411817	-144.834134	-6.162528	135.831891
2.850000	-6.173092	110.857541	-1.413496	-147.302722	-1.413496	-147.302722	-6.170839	133.549434
2.900000	-6.184791	108.225909	-1.413910	-149.777515	-1.413910	-149.777515	-6.183286	131.257467
2.950000	-6.200509	105.592895	-1.413092	-152.258959	-1.413092	-152.258959	-6.199807	128.955176
3.000000	-6.220185	102.958466	-1.411078	-154.747489	-1.411078	-154.747489	-6.220343	126.641741
3.050000	-6.243767	100.322630	-1.407902	-157.243523	-1.407902	-157.243523	-6.244845	124.316337
3.100000	-6.271206	97.685437	-1.403604	-159.747469	-1.403604	-159.747469	-6.273267	121.978130
3.150000	-6.302457	95.046977	-1.398223	-162.259720	-1.398223	-162.259720	-6.305569	119.626280
3.200000	-6.337483	92.407388	-1.391798	-164.780656	-1.391798	-164.780656	-6.341715	117.259936
3.250000	-6.376249	89.766851	-1.384372	-167.310644	-1.384372	-167.310644	-6.381675	114.878240
3.300000	-6.418725	87.125594	-1.375988	-169.850035	-1.375988	-169.850035	-6.425423	112.480321
3.350000	-6.464688	84.483893	-1.366740	-172.398580	-1.366740	-172.398580	-6.472735	110.066355
3.400000	-6.514398	81.842033	-1.356598	-174.957409	-1.356598	-174.957409	-6.523881	107.634031
3.450000	-6.568020	79.200447	-1.345565	-177.527475	-1.345565	-177.527475	-6.579035	105.181224
3.500000	-6.625088	76.559502	-1.333800	179.892348	-1.333800	179.892348	-6.637727	102.709617
3.550000	-6.685838	73.919737	-1.321288	177.300944	-1.321288	177.300944	-6.700202	100.216707
3.600000	-6.750196	71.281651	-1.308093	174.698262	-1.308093	174.698262	-6.766391	97.701945
3.650000	-6.818030	68.645737	-1.294288	172.084491	-1.294288	172.084491	-6.836165	95.165219
3.700000	-6.889626	66.012878	-1.279862	169.458270	-1.279862	169.458270	-6.909824	92.603281
3.750000	-6.964516	63.383236	-1.264952	166.821208	-1.264952	166.821208	-6.986893	90.018884
3.800000	-7.043310	60.758406	-1.249495	164.170527	-1.249495	164.170527	-7.068009	87.405580
3.850000	-7.125394	58.138199	-1.233644	161.508627	-1.233644	161.508627	-7.152547	84.767868
3.900000	-7.211193	55.524287	-1.217378	158.833405	-1.217378	158.833405	-7.240956	82.100447
3.950000	-7.300441	52.916951	-1.200783	156.145904	-1.200783	156.145904	-7.332970	79.404949
4.000000	-7.393233	50.317405	-1.183894	153.445471	-1.183894	153.445471	-7.428700	76.679098
4.050000	-7.489613	47.726803	-1.166750	150.731704	-1.166750	150.731704	-7.528203	73.921130
4.100000	-7.589386	45.145460	-1.149418	148.005474	-1.149418	148.005474	-7.631287	71.132332
4.150000	-7.692862	42.575881	-1.131914	145.264861	-1.131914	145.264861	-7.738298	68.306972
4.200000	-7.799639	40.017209	-1.114311	142.512062	-1.114311	142.512062	-7.848824	65.449785
4.250000	-7.910125	37.473090	-1.096629	139.744357	-1.096629	139.744357	-7.963321	62.552566
4.300000	-8.023946	34.942379	-1.078926	136.963997	-1.078926	136.963997	-8.081408	59.620398
4.350000	-8.141316	32.428083	-1.061237	134.169293	-1.061237	134.169293	-8.203341	56.647505
4.400000	-8.262111	29.930574	-1.043602	131.360945	-1.043602	131.360945	-8.329013	53.634796
4.450000	-8.386313	27.451203	-1.026059	128.538859	-1.026059	128.538859	-8.458430	50.580859
4.500000	-8.513993	24.992475	-1.008650	125.702131	-1.008650	125.702131	-8.591710	47.481765
4.550000	-8.644951	22.553418	-0.991396	122.852303	-0.991396	122.852303	-8.728659	44.341152
4.600000	-8.779396	20.139341	-0.974358	119.986819	-0.974358	119.986819	-8.869569	41.149536
4.650000	-8.917049	17.747226	-0.957534	117.108340	-0.957534	117.108340	-9.014151	37.914429
4.700000	-9.058067	15.382914	-0.940992	114.214276	-0.940992	114.214276	-9.162657	34.625765
4.750000	-9.202272	13.044375	-0.924729	111.306482	-0.924729	111.306482	-9.314922	31.288686
4.800000	-9.349681	10.735301	-0.908794	108.383731	-0.908794	108.383731	-9.471044	27.897509
4.850000	-9.500229	8.456675	-0.893208	105.446197	-0.893208	105.446197	-9.631010	24.451550
4.900000	-9.653838	6.208843	-0.877981	102.494334	-0.877981	102.494334	-9.794797	20.951197
4.950000	-9.810474	3.996527	-0.863172	99.526574	-0.863172	99.526574	-9.962485	17.389103
5.000000	-9.970049	1.815955	-0.848742	96.545106	-0.848742	96.545106	-10.133993	13.772581
5.050000	-10.132490	-0.325167	-0.834781	93.547146	-0.834781	93.547146	-10.309421	10.089195
5.100000	-10.297709	-2.428182	-0.821275	90.533764	-0.821275	90.533764	-10.488735	6.341891
5.150000	-10.465621	-4.491598	-0.808241	87.504777	-0.808241	87.504777	-10.671950	2.528646
5.200000	-10.636137	-6.513954	-0.795692	84.459983	-0.795692	84.459983	-10.859084	-1.352625
5.250000	-10.809165	-8.493825	-0.783643	81.399158	-0.783643	81.399158	-11.050157	-5.304085
5.300000	-10.984607	-10.429826	-0.772106	78.322056	-0.772106	78.322056	-11.245192	-9.327981
5.350000	-11.162363	-12.320620	-0.761091	75.228404	-0.761091	75.228404	-11.444216	-13.426655
5.400000	-11.342334	-14.164917	-0.750608	72.117903	-0.750608	72.117903	-11.647258	-17.602560
5.450000	-11.524417	-15.961484	-0.740664	68.990222	-0.740664	68.990222	-11.854351	-21.858271
5.500000	-11.708511	-17.709142	-0.731268	65.844996	-0.731268	65.844996	-12.065530	-26.196509
5.550000	-11.894518	-19.406771	-0.722425	62.681825	-0.722425	62.681825	-12.280834	-30.620159
5.600000	-12.082339	-21.053309	-0.714140	59.500269	-0.714140	59.500269	-12.500302	-35.132290
5.650000	-12.272216	-22.654674	-0.706345	56.302375	-0.706345	56.302375	-12.724185	-39.723755
5.700000	-12.463390	-24.195605	-0.699197	53.082416	-0.699197	53.082416	-12.952096	-44.423500
5.750000	-12.656117	-25.682571	-0.692620	49.842474	-0.692620	49.842474	-13.184269	-49.222373
5.800000	-12.850328	-27.114727	-0.686620	46.581916	-0.686620	46.581916	-13.420718	-54.124469
5.850000	-13.045963	-28.491275	-0.681199	43.300049	-0.681199	43.300049	-13.661441	-59.134208
5.900000	-13.242971	-29.811460	-0.676364	39.996119	-0.676364	39.996119	-13.906409	-64.256363
5.950000	-13.441317	-31.074567	-0.672119	36.669304	-0.672119	36.669304	-14.155556	-69.496075
6.000000	-13.640976	-32.279921	-0.668471	33.318710	-0.668471	33.318710	-14.408767	-74.858864
6.050000	-13.841937	-33.426891	-0.665428	29.943366	-0.665428	29.943366	-14.665866	-80.350623
6.100000	-14.044206	-34.514900	-0.662999	26.542217	-0.662999	26.542217	-14.926592	-85.977585
6.150000	-14.247807	-35.543438	-0.661197	23.114116	-0.661197	23.114116	-15.190585	-91.746271
6.200000	-14.452782	-36.512088	-0.660034	19.657820	-0.660034	19.657820	-15.457362	-97.663378
6.250000	-14.659199	-37.420561	-0.659529	16.171979	-0.659529	16.171979	-15.726294	-103.735637
6.300000	-14.867085	-38.267433	-0.659714	12.654417	-0.659714	12.654417	-15.996406	-109.973237
6.350000	-15.076660	-39.054153	-0.660600	9.104175	-0.660600	9.104175	-16.266832	-116.378784
6.400000	-15.288127	-39.781176	-0.662213	5.519512	-0.662213	5.519512	-16.536375	-122.957302
6.450000	-15.501770	-40.449359	-0.664584	1.898532	-0.664584	1.898532	-16.803632	-129.712332
6.500000	-15.717988	-41.060059	-0.667747	-1.760832	-0.667747	-1.760832	-17.067023	-136.645294
6.550000	-15.937337	-41.615222	-0.671744	-5.460841	-0.671744	-5.460841	-17.324828	-143.754749
6.600000	-16.160589	-42.117474	-0.676619	-9.203971	-0.676619	-9.203971	-17.575276	-151.035581
6.650000	-16.388817	-42.570176	-0.682423	-12.992947	-0.682423	-12.992947	-17.816668	-158.478166
6.700000	-16.623494	-42.977424	-0.689215	-16.830776	-0.689215	-16.830776	-18.047554	-166.067629
6.750000	-16.866668	-43.343754	-0.697069	-20.721173	-0.697069	-20.721173	-18.266847	-173.783762
6.800000	-17.121098	-43.674702	-0.706053	-24.667545	-0.706053	-24.667545	-18.474458	178.401802
6.850000	-17.390518	-43.975539	-0.716257	-28.674056	-0.716257	-28.674056	-18.671262	170.523051
6.900000	-17.679947	-44.250842	-0.727783	-32.745388	-0.727783	-32.745388	-18.859532	162.620486
6.950000	-17.996124	-44.503311	-0.740757	-36.886833	-0.740757	-36.886833	-19.043269	154.740996
7.000000	-18.348093	-44.731858	-0.755330	-41.104408	-0.755330	-41.104408	-19.228514	146.937989
7.050000	-18.748050	-44.928505	-0.771692	-45.404987	-0.771692	-45.404987	-19.423652	139.272283
7.100000	-19.212579	-45.073212	-0.790085	-49.796463	-0.790085	-49.796463	-19.639734	131.814548
7.150000	-19.765379	-45.123054	-0.810850	-54.289091	-0.810850	-54.289091	-19.891281	124.654691
7.200000	-20.439126	-44.995587	-0.834407	-58.893328	-0.834407	-58.893328	-20.196088	117.905891
7.250000	-21.280676	-44.534131	-0.861304	-63.620833	-0.861304	-63.620833	-20.575353	111.723091
7.300000	-22.360921	-43.425136	-0.892304	-68.485958	-0.892304	-68.485958	-21.054145	106.342037
7.350000	-23.789259	-40.994770	-0.928448	-73.505395	-0.928448	-73.505395	-21.659058	102.139389
7.400000	-25.729201	-35.617558	-0.971163	-78.698514	-0.971163	-78.698514	-22.408983	99.742461
7.450000	-28.314152	-22.850497	-1.022406	-84.087666	-1.022406	-84.087666	-23.283374	100.192999
7.500000	-30.594683	7.131091	-1.084863	-89.698384	-1.084863	-89.698384	-24.130644	105.001499
7.550000	-28.946803	46.884325	-1.162209	-95.559354	-1.162209	-95.559354	-24.504293	115.218005
7.600000	-24.786029	68.255818	-1.259439	-101.701972	-1.259439	-101.701972	-23.762964	128.537255
7.650000	-21.017001	75.719477	-1.382877	-108.154785	-1.382877	-108.154785	-21.858429	139.313988
7.700000	-17.883179	77.082666	-1.542331	-114.959913	-1.542331	-114.959913	-19.379139	144.263054
7.750000	-15.236416	75.526791	-1.749037	-122.139345	-1.749037	-122.139345	-16.868992	144.229885
7.800000	-12.948187	72.184572	-2.017722	-129.709382	-2.017722	-129.709382	-14.529550	140.783886
7.850000	-10.941086	67.561668	-2.367168	-137.670684	-2.367168	-137.670684	-12.409194	135.041068
7.900000	-9.178002	61.970779	-2.816237	-145.981279	-2.816237	-145.981279	-10.519421	127.752092
7.950000	-7.634480	55.605110	-3.387823	-154.572572	-3.387823	-154.572572	-8.851898	119.357942
8.000000	-6.299708	48.660393	-4.102214	-163.322893	-4.102214	-163.322893	-7.402146	110.213489
8.050000	-5.165185	41.332969	-4.976367	-172.068486	-4.976367	-172.068486	-6.163309	100.611390
8.100000	-4.220495	33.823110	-6.021358	179.386364	-6.021358	179.386364	-5.124882	90.812129
8.150000	-3.450702	26.320455	-7.241637	171.251632	-7.241637	171.251632	-4.271183	81.043406
8.200000	-2.836226	18.986157	-8.636116	163.736311	-8.636116	163.736311	-3.581685	71.490540
8.250000	-2.355187	11.943361	-10.199320	157.052590	-10.199320	157.052590	-3.033554	62.292530
8.300000	-1.981759	5.256783	-11.931007	151.380875	-11.931007	151.380875	-2.600051	53.521417
8.350000	-1.696335	-1.029000	-13.824357	146.997226	-13.824357	146.997226	-2.260773	45.229139
8.400000	-1.478272	-6.918604	-15.882809	144.208903	-15.882809	144.208903	-1.994315	37.412107
8.450000	-1.312465	-12.423593	-18.093217	143.552157	-18.093217	143.552157	-1.784964	30.060669
8.500000	-1.186004	-17.574657	-20.415509	145.799651	-20.415509	145.799651	-1.619232	23.143275
8.550000	-1.089115	-22.405734	-22.715278	151.990626	-22.715278	151.990626	-1.486850	16.624692
8.600000	-1.014608	-26.948824	-24.661175	162.860511	-24.661175	162.860511	-1.380218	10.471864
8.650000	-0.957141	-31.232720	-25.766565	176.989806	-25.766565	176.989806	-1.293658	4.655496
8.700000	-0.911739	-35.303483	-25.951677	-169.525119	-25.951677	-169.525119	-1.221706	-0.877789
8.750000	-0.875853	-39.182152	-25.504912	-159.454687	-25.504912	-159.454687	-1.161567	-6.150049
8.800000	-0.847855	-42.877612	-24.843613	-153.502346	-24.843613	-153.502346	-1.111518	-11.166438
8.850000	-0.825424	-46.426761	-24.222401	-150.300544	-24.222401	-150.300544	-1.068833	-15.972520
8.900000	-0.807470	-49.846114	-23.710759	-148.960665	-23.710759	-148.960665	-1.032228	-20.586968
8.950000	-0.793251	-53.147169	-23.326143	-148.865206	-23.326143	-148.865206	-1.000825	-25.021642
9.000000	-0.782172	-56.341006	-23.064467	-149.579437	-23.064467	-149.579437	-0.973897	-29.288038
9.050000	-0.773576	-59.445606	-22.905616	-150.789132	-22.905616	-150.789132	-0.950566	-33.409809
9.100000	-0.767134	-62.470426	-22.837244	-152.332429	-22.837244	-152.332429	-0.930380	-37.398213
9.150000	-0.762692	-65.420116	-22.853219	-154.105653	-22.853219	-154.105653	-0.913122	-41.256582
9.200000	-0.759989	-68.305068	-22.942013	-156.018039	-22.942013	-156.018039	-0.898391	-44.998553
9.250000	-0.758826	-71.134053	-23.095073	-158.011704	-23.095073	-158.011704	-0.885873	-48.636058
9.300000	-0.759100	-73.912883	-23.308191	-160.047787	-23.308191	-160.047787	-0.875382	-52.176259
9.350000	-0.760845	-76.643343	-23.582656	-162.093611	-23.582656	-162.093611	-0.866914	-55.618161
9.400000	-0.763879	-79.334598	-23.912393	-164.120700	-23.912393	-164.120700	-0.860165	-58.976204
9.450000	-0.768163	-81.990873	-24.297785	-166.106312	-24.297785	-166.106312	-0.855034	-62.255459
9.500000	-0.773731	-84.614765	-24.742267	-168.023371	-24.742267	-168.023371	-0.851504	-65.457165
9.550000	-0.780426	-87.213338	-25.244826	-169.855623	-25.244826	-169.855623	-0.849329	-68.593916
9.600000	-0.788446	-89.785997	-25.815877	-171.553434	-25.815877	-171.553434	-0.848682	-71.658494
9.650000	-0.797552	-92.340531	-26.456099	-173.105601	-26.456099	-173.105601	-0.849236	-74.667368
9.700000	-0.807955	-94.877086	-27.179688	-174.428035	-27.179688	-174.428035	-0.851162	-77.614020
9.750000	-0.819502	-97.400944	-27.995561	-175.481230	-27.995561	-175.481230	-0.854242	-80.509620
9.800000	-0.832300	-99.914242	-28.922173	-176.132040	-28.922173	-176.132040	-0.858528	-83.353439
9.850000	-0.846348	-102.420155	-29.981258	-176.223819	-29.981258	-176.223819	-0.863960	-86.149568
9.900000	-0.861626	-104.921819	-31.200761	-175.516861	-31.200761	-175.516861	-0.870463	-88.902720
9.950000	-0.878293	-107.421858	-32.615018	-173.442414	-32.615018	-173.442414	-0.878116	-91.611540
10.000000	-0.896189	-109.923073	-34.261288	-169.481565	-34.261288	-169.481565	-0.886730	-94.284853
