! freq	dB(S11)	phase(S11)	dB(S12)	phase(S12)	
!     	dB(S21)	phase(S21)	dB(S22)	phase(S22)	
!S-par simulation data
#  GHz  S  DB  R 50
0.000000	0.000000	0.000000	-352.947303	0.000000	-352.947303	0.000000	-0.000000	0.000000
0.050000	-0.000071	-0.849191	-92.148266	-170.161740	-92.148266	-170.161740	-0.000072	-0.772607
0.100000	-0.000285	-1.698254	-91.816720	175.566423	-91.816720	175.566423	-0.000285	-1.545078
0.150000	-0.000635	-2.547061	-91.661035	166.686288	-91.661035	166.686288	-0.000635	-2.317284
0.200000	-0.001117	-3.395502	-91.509249	159.422065	-91.509249	159.422065	-0.001115	-3.089110
0.250000	-0.001729	-4.243433	-91.347215	153.067131	-91.347215	153.067131	-0.001721	-3.860413
0.300000	-0.002451	-5.090801	-91.181202	147.308205	-91.181202	147.308205	-0.002433	-4.631143
0.350000	-0.003280	-5.937499	-91.019061	142.086696	-91.019061	142.086696	-0.003244	-5.401198
0.400000	-0.004203	-6.783449	-90.869788	137.354161	-90.869788	137.354161	-0.004142	-6.170511
0.450000	-0.005210	-7.628586	-90.741921	133.082906	-90.741921	133.082906	-0.005114	-6.939028
0.500000	-0.006291	-8.472856	-90.643221	129.256350	-90.643221	129.256350	-0.006149	-7.706708
0.550000	-0.007433	-9.316216	-90.580652	125.866598	-90.580652	125.866598	-0.007234	-8.473524
0.600000	-0.008627	-10.158634	-90.560474	122.914819	-90.560474	122.914819	-0.008359	-9.239458
0.650000	-0.009861	-11.000084	-90.588352	120.412988	-90.588352	120.412988	-0.009513	-10.004502
0.700000	-0.011128	-11.840550	-90.669426	118.386597	-90.669426	118.386597	-0.010687	-10.768654
0.750000	-0.012419	-12.680021	-90.808244	116.878393	-90.808244	116.878393	-0.011875	-11.531918
0.800000	-0.013725	-13.518492	-91.008460	115.953393	-91.008460	115.953393	-0.013068	-12.294303
0.850000	-0.015042	-14.355959	-91.272094	115.705399	-91.272094	115.705399	-0.014262	-13.055817
0.900000	-0.016362	-15.192425	-91.598023	116.264782	-91.598023	116.264782	-0.015453	-13.816472
0.950000	-0.017682	-16.027889	-91.979140	117.805826	-91.979140	117.805826	-0.016635	-14.576278
1.000000	-0.018997	-16.862354	-92.397402	120.548168	-92.397402	120.548168	-0.017808	-15.335248
1.050000	-0.020305	-17.695824	-92.816139	124.738871	-92.816139	124.738871	-0.018968	-16.093389
1.100000	-0.021602	-18.528301	-93.170758	130.589907	-93.170758	130.589907	-0.020114	-16.850709
1.150000	-0.022887	-19.359785	-93.364481	138.142219	-93.364481	138.142219	-0.021246	-17.607216
1.200000	-0.024158	-20.190277	-93.284047	147.071756	-93.284047	147.071756	-0.022363	-18.362912
1.250000	-0.025415	-21.019776	-92.846541	156.586704	-92.846541	156.586704	-0.023465	-19.117800
1.300000	-0.026656	-21.848236	-92.034991	165.591976	-92.034991	165.591976	-0.024552	-19.871845
1.350000	-0.027881	-22.675695	-90.954525	173.300055	-90.954525	173.300055	-0.025624	-20.625079
1.400000	-0.029092	-23.502147	-89.719890	179.430149	-89.719890	179.430149	-0.026684	-21.377499
1.450000	-0.030287	-24.327586	-88.425608	-175.945180	-88.425608	-175.945180	-0.027730	-22.129099
1.500000	-0.031468	-25.152003	-87.132904	-172.597812	-87.132904	-172.597812	-0.028764	-22.879873
1.550000	-0.032635	-25.975387	-85.875502	-170.273060	-85.875502	-170.273060	-0.029788	-23.629811
1.600000	-0.033790	-26.797727	-84.669299	-168.745779	-84.669299	-168.745779	-0.030802	-24.378903
1.650000	-0.034931	-27.619012	-83.519986	-167.834944	-83.519986	-167.834944	-0.031807	-25.127140
1.700000	-0.036058	-28.438848	-82.401765	-167.517782	-82.401765	-167.517782	-0.032802	-25.874201
1.750000	-0.037179	-29.258121	-81.376065	-167.410710	-81.376065	-167.410710	-0.033793	-26.620805
1.800000	-0.038289	-30.076049	-80.386633	-167.627433	-80.386633	-167.627433	-0.034778	-27.366314
1.850000	-0.039391	-30.893017	-79.452252	-168.075438	-79.452252	-168.075438	-0.035758	-28.111040
1.900000	-0.040485	-31.708796	-78.558622	-168.695719	-78.558622	-168.695719	-0.036734	-28.854798
1.950000	-0.041572	-32.523387	-77.703050	-169.488276	-77.703050	-169.488276	-0.037706	-29.597585
2.000000	-0.042654	-33.336958	-76.889392	-170.373057	-76.889392	-170.373057	-0.038677	-30.339537
2.050000	-0.043730	-34.149099	-76.100880	-171.386950	-76.100880	-171.386950	-0.039646	-31.080320
2.100000	-0.044803	-34.960612	-75.360229	-172.439711	-75.360229	-172.439711	-0.040614	-31.820587
2.150000	-0.045872	-35.770495	-74.635294	-173.587510	-74.635294	-173.587510	-0.041582	-32.559517
2.200000	-0.046939	-36.579145	-73.936727	-174.789563	-73.936727	-174.789563	-0.042550	-33.297433
2.250000	-0.048004	-37.386544	-73.262571	-176.036739	-73.262571	-176.036739	-0.043520	-34.034320
2.300000	-0.049068	-38.192675	-72.611073	-177.321582	-72.611073	-177.321582	-0.044492	-34.770163
2.350000	-0.050133	-38.997521	-71.980652	-178.637967	-71.980652	-178.637967	-0.045466	-35.504947
2.400000	-0.051198	-39.801064	-71.369886	-179.980839	-71.369886	-179.980839	-0.046443	-36.238655
2.450000	-0.052264	-40.603289	-70.777486	178.653995	-70.777486	178.653995	-0.047424	-36.971273
2.500000	-0.053333	-41.404177	-70.202287	177.270029	-70.202287	177.270029	-0.048408	-37.702787
2.550000	-0.054405	-42.203655	-69.642367	175.869604	-69.642367	175.869604	-0.049397	-38.433131
2.600000	-0.055481	-43.001763	-69.097707	174.455925	-69.097707	174.455925	-0.050391	-39.162341
2.650000	-0.056561	-43.798486	-68.567417	173.031002	-68.567417	173.031002	-0.051391	-39.890401
2.700000	-0.057645	-44.593810	-68.050682	171.596531	-68.050682	171.596531	-0.052396	-40.617299
2.750000	-0.058735	-45.387719	-67.546759	170.153942	-67.546759	170.153942	-0.053407	-41.343019
2.800000	-0.059832	-46.180199	-67.054961	168.704446	-67.054961	168.704446	-0.054424	-42.067550
2.850000	-0.060934	-46.971237	-66.574661	167.249065	-66.574661	167.249065	-0.055448	-42.790879
2.900000	-0.062044	-47.760819	-66.105277	165.788662	-66.105277	165.788662	-0.056480	-43.512992
2.950000	-0.063162	-48.548933	-65.646273	164.323969	-65.646273	164.323969	-0.057518	-44.233878
3.000000	-0.064288	-49.335565	-65.197155	162.855600	-65.197155	162.855600	-0.058565	-44.953524
3.050000	-0.065423	-50.120705	-64.757463	161.384074	-64.757463	161.384074	-0.059619	-45.671920
3.100000	-0.066566	-50.904341	-64.326773	159.909825	-64.326773	159.909825	-0.060681	-46.389053
3.150000	-0.067720	-51.686462	-63.904687	158.433218	-63.904687	158.433218	-0.061752	-47.104914
3.200000	-0.068884	-52.467058	-63.490839	156.954556	-63.490839	156.954556	-0.062832	-47.819491
3.250000	-0.070058	-53.246119	-63.084887	155.474091	-63.084887	155.474091	-0.063921	-48.532775
3.300000	-0.071243	-54.023636	-62.686510	153.992031	-62.686510	153.992031	-0.065019	-49.244755
3.350000	-0.072443	-54.799329	-62.293609	152.508336	-62.293609	152.508336	-0.066128	-49.955192
3.400000	-0.073654	-55.573392	-61.907432	151.023301	-61.907432	151.023301	-0.067248	-50.664249
3.450000	-0.074873	-56.346635	-61.532691	149.537687	-61.532691	149.537687	-0.068374	-51.372609
3.500000	-0.076111	-57.117416	-61.159057	148.050335	-61.159057	148.050335	-0.069515	-52.078876
3.550000	-0.077355	-57.887644	-60.797710	146.562643	-60.797710	146.562643	-0.070661	-52.784672
3.600000	-0.078621	-58.655114	-60.435799	145.073253	-60.435799	145.073253	-0.071825	-53.488115
3.650000	-0.079891	-59.422306	-60.086903	143.583707	-60.086903	143.583707	-0.072992	-54.191320
3.700000	-0.081188	-60.186443	-59.735998	142.092437	-59.735998	142.092437	-0.074181	-54.891908
3.750000	-0.082486	-60.950580	-59.398720	140.601168	-59.398720	140.601168	-0.075370	-55.592496
3.800000	-0.083815	-61.711367	-59.058188	139.108096	-59.058188	139.108096	-0.076585	-56.290202
3.850000	-0.085145	-62.472155	-58.730505	137.615025	-58.730505	137.615025	-0.077800	-56.987908
3.900000	-0.086506	-63.229861	-58.401077	136.120335	-58.401077	136.120335	-0.079040	-57.682950
3.950000	-0.087869	-63.987286	-58.082493	134.625498	-58.082493	134.625498	-0.080283	-58.377750
4.000000	-0.089262	-64.741905	-57.763518	133.129204	-57.763518	133.129204	-0.081549	-59.070111
4.050000	-0.090661	-65.495962	-57.453594	131.632619	-57.453594	131.632619	-0.082821	-59.761985
4.100000	-0.092088	-66.247491	-57.144492	130.134740	-57.144492	130.134740	-0.084116	-60.451652
4.150000	-0.093525	-66.998177	-56.842841	128.636429	-56.842841	128.636429	-0.085419	-61.140583
4.200000	-0.094987	-67.746618	-56.543091	127.136995	-56.543091	127.136995	-0.086744	-61.827545
4.250000	-0.096462	-68.493936	-56.249367	125.636998	-56.249367	125.636998	-0.088079	-62.513523
4.300000	-0.097962	-69.239293	-55.958501	124.136060	-55.958501	124.136060	-0.089436	-63.197772
4.350000	-0.099478	-69.983249	-55.672397	122.634449	-55.672397	122.634449	-0.090807	-63.880787
4.400000	-0.101015	-70.725532	-55.389993	121.132085	-55.389993	121.132085	-0.092196	-64.562319
4.450000	-0.102573	-71.466139	-55.111232	119.628967	-55.111232	119.628967	-0.093604	-65.242369
4.500000	-0.104150	-72.205358	-54.836907	118.125284	-54.836907	118.125284	-0.095029	-65.921183
4.550000	-0.105752	-72.942632	-54.565239	116.620810	-54.565239	116.620810	-0.096477	-66.598267
4.600000	-0.107370	-73.678803	-54.298644	115.115950	-54.298644	115.115950	-0.097938	-67.274365
4.650000	-0.109018	-74.412765	-54.033844	113.610315	-54.033844	113.610315	-0.099428	-67.948490
4.700000	-0.110678	-75.145905	-53.774658	112.104451	-53.774658	112.104451	-0.100928	-68.621877
4.750000	-0.112373	-75.876580	-53.516516	110.597898	-53.516516	110.597898	-0.102460	-69.293051
4.800000	-0.114077	-76.606712	-53.264444	109.091239	-53.264444	109.091239	-0.104001	-69.963735
4.850000	-0.115821	-77.334128	-53.012768	107.584052	-53.012768	107.584052	-0.105579	-70.631971
4.900000	-0.117570	-78.061276	-52.767536	106.076839	-52.767536	106.076839	-0.107161	-71.299963
4.950000	-0.119364	-78.785468	-52.522145	104.569344	-52.522145	104.569344	-0.108785	-71.965275
5.000000	-0.121159	-79.509659	-52.283496	103.061849	-52.283496	103.061849	-0.110410	-72.630588
5.050000	-0.123006	-80.230662	-52.044216	101.554408	-52.044216	101.554408	-0.112083	-73.292995
5.100000	-0.124853	-80.951666	-51.811352	100.046966	-51.811352	100.046966	-0.113756	-73.955402
5.150000	-0.126749	-81.669784	-51.578577	98.539932	-51.578577	98.539932	-0.115474	-74.615164
5.200000	-0.128651	-82.387640	-51.351347	97.032934	-51.351347	97.032934	-0.117197	-75.274685
5.250000	-0.130598	-83.102910	-51.124835	95.526651	-51.124835	95.526651	-0.118961	-75.931817
5.300000	-0.132554	-83.817663	-50.903092	94.020511	-50.903092	94.020511	-0.120735	-76.588473
5.350000	-0.134553	-84.530126	-50.682615	92.515333	-50.682615	92.515333	-0.122546	-77.242995
5.400000	-0.136567	-85.241824	-50.466213	91.010477	-50.466213	91.010477	-0.124371	-77.896807
5.450000	-0.138620	-85.951521	-50.251548	89.506765	-50.251548	89.506765	-0.126231	-78.548738
5.500000	-0.140692	-86.660216	-50.040341	88.003625	-50.040341	88.003625	-0.128108	-79.199728
5.550000	-0.142800	-87.367193	-49.831273	86.501735	-49.831273	86.501735	-0.130017	-79.849088
5.600000	-0.144933	-88.072940	-49.625113	85.000739	-49.625113	85.000739	-0.131949	-80.497282
5.650000	-0.147097	-88.777244	-49.421433	83.501022	-49.421433	83.501022	-0.133908	-81.144091
5.700000	-0.149292	-89.480102	-49.220172	82.002583	-49.220172	82.002583	-0.135894	-81.789515
5.750000	-0.151514	-90.181783	-49.021675	80.505373	-49.021675	80.505373	-0.137905	-82.433795
5.800000	-0.153774	-90.881814	-48.825159	79.009884	-48.825159	79.009884	-0.139948	-83.076476
5.850000	-0.156055	-91.580924	-48.631647	77.515496	-48.631647	77.515496	-0.142012	-83.718252
5.900000	-0.158379	-92.278193	-48.439721	76.023313	-48.439721	76.023313	-0.144113	-84.358218
5.950000	-0.160721	-92.974788	-48.250997	74.532037	-48.250997	74.532037	-0.146230	-84.997514
6.000000	-0.163113	-93.669362	-48.063504	73.043478	-48.063504	73.043478	-0.148392	-85.634798
6.050000	-0.165517	-94.363499	-47.879377	71.555569	-47.879377	71.555569	-0.150565	-86.271641
6.100000	-0.167979	-95.055451	-47.696155	70.070903	-47.696155	70.070903	-0.152788	-86.906277
6.150000	-0.170446	-95.747190	-47.516437	68.586579	-47.516437	68.586579	-0.155018	-87.540695
6.200000	-0.172978	-96.436593	-47.337324	67.106017	-47.337324	67.106017	-0.157305	-88.172717
6.250000	-0.175511	-97.125997	-47.161830	65.625456	-47.161830	65.625456	-0.159593	-88.804740
6.300000	-0.178116	-97.812930	-46.986664	64.149149	-46.986664	64.149149	-0.161946	-89.434189
6.350000	-0.180721	-98.499864	-46.814960	62.672842	-46.814960	62.672842	-0.164299	-90.063637
6.400000	-0.183394	-99.184607	-46.643830	61.200512	-46.643830	61.200512	-0.166714	-90.690763
6.450000	-0.186074	-99.869152	-46.475762	59.728542	-46.475762	59.728542	-0.169135	-91.317678
6.500000	-0.188817	-100.551776	-46.308487	58.260198	-46.308487	58.260198	-0.171614	-91.942517
6.550000	-0.191574	-101.234017	-46.143901	56.792579	-46.143901	56.792579	-0.174105	-92.566941
6.600000	-0.194388	-101.914595	-45.980302	55.328177	-45.980302	55.328177	-0.176648	-93.189530
6.650000	-0.197223	-102.594620	-45.819049	53.864848	-45.819049	53.864848	-0.179211	-93.811509
6.700000	-0.200110	-103.273229	-45.658956	52.404291	-45.658956	52.404291	-0.181821	-94.431888
6.750000	-0.203024	-103.951131	-45.500887	50.945121	-45.500887	50.945121	-0.184457	-95.051468
6.800000	-0.205987	-104.627849	-45.344138	49.488256	-45.344138	49.488256	-0.187136	-95.669678
6.850000	-0.208983	-105.303723	-45.189111	48.033040	-45.189111	48.033040	-0.189847	-96.286910
6.900000	-0.212021	-105.978634	-45.035553	46.579665	-45.035553	46.579665	-0.192597	-96.902994
6.950000	-0.215102	-106.652581	-44.883433	45.128131	-44.883433	45.128131	-0.195385	-97.517929
7.000000	-0.218218	-107.325770	-44.732921	43.677992	-44.732921	43.677992	-0.198206	-98.131930
7.050000	-0.221384	-107.997896	-44.583582	42.229806	-44.583582	42.229806	-0.201074	-98.744623
7.100000	-0.224579	-108.669452	-44.435982	40.782605	-44.435982	40.782605	-0.203968	-99.356588
7.150000	-0.227833	-109.339869	-44.289305	39.337376	-44.289305	39.337376	-0.206916	-99.967095
7.200000	-0.231110	-110.009887	-44.144493	37.892775	-44.144493	37.892775	-0.209886	-100.577071
7.250000	-0.234453	-110.678711	-44.000374	36.450064	-44.000374	36.450064	-0.212917	-101.185451
7.300000	-0.237813	-111.347290	-43.858239	35.007695	-43.858239	35.007695	-0.215963	-101.793487
7.350000	-0.241248	-112.014646	-43.716584	33.567030	-43.716584	33.567030	-0.219078	-102.399801
7.400000	-0.244692	-112.681891	-43.577025	32.126495	-43.577025	32.126495	-0.222201	-103.005948
7.450000	-0.248221	-113.347912	-43.437758	30.687383	-43.437758	30.687383	-0.225403	-103.610258
7.500000	-0.251752	-114.013933	-43.300689	29.248272	-43.300689	29.248272	-0.228605	-104.214569
7.550000	-0.255377	-114.678761	-43.163747	27.810220	-43.163747	27.810220	-0.231894	-104.816942
7.600000	-0.259003	-115.343589	-43.028931	26.372167	-43.028931	26.372167	-0.235184	-105.419315
7.650000	-0.262718	-116.007466	-42.894433	24.934649	-42.894433	24.934649	-0.238555	-106.019974
7.700000	-0.266443	-116.671256	-42.761829	23.497180	-42.761829	23.497180	-0.241934	-106.620477
7.750000	-0.270250	-117.334322	-42.629728	22.059837	-42.629728	22.059837	-0.245388	-107.219480
7.800000	-0.274075	-117.997243	-42.499312	20.622519	-42.499312	20.622519	-0.248858	-107.818182
7.850000	-0.277976	-118.659651	-42.369578	19.185049	-42.369578	19.185049	-0.252395	-108.415590
7.900000	-0.281904	-119.321888	-42.241344	17.747528	-42.241344	17.747528	-0.255957	-109.012565
7.950000	-0.285901	-119.983807	-42.113962	16.309709	-42.113962	16.309709	-0.259580	-109.608440
8.000000	-0.289933	-120.645568	-41.987922	14.871741	-41.987922	14.871741	-0.263234	-110.203763
8.050000	-0.294029	-121.307186	-41.862889	13.433461	-41.862889	13.433461	-0.266943	-110.798167
8.100000	-0.298169	-121.968704	-41.739071	11.994957	-41.739071	11.994957	-0.270692	-111.391916
8.150000	-0.302365	-122.630234	-41.616399	10.556245	-41.616399	10.556245	-0.274488	-111.984918
8.200000	-0.306616	-123.291776	-41.494849	9.117324	-41.494849	9.117324	-0.278332	-112.577172
8.250000	-0.310916	-123.953457	-41.374559	7.678389	-41.374559	7.678389	-0.282216	-113.168838
8.300000	-0.315281	-124.615334	-41.255335	6.239435	-41.255335	6.239435	-0.286155	-113.759681
8.350000	-0.319683	-125.277417	-41.137475	4.800676	-41.137475	4.800676	-0.290125	-114.350118
8.400000	-0.324157	-125.939915	-41.020700	3.362307	-41.020700	3.362307	-0.294154	-114.939742
8.450000	-0.328691	-126.602939	-40.905155	1.924737	-40.905155	1.924737	-0.298232	-115.528743
8.500000	-0.333268	-127.266318	-40.790915	0.487708	-40.790915	0.487708	-0.302342	-116.117324
8.550000	-0.337934	-127.930761	-40.677815	-0.947248	-40.677815	-0.947248	-0.306522	-116.705062
8.600000	-0.342631	-128.595582	-40.566079	-2.381391	-40.566079	-2.381391	-0.310725	-117.292550
8.650000	-0.347423	-129.261852	-40.455523	-3.812181	-40.455523	-3.812181	-0.314999	-117.879238
8.700000	-0.352263	-129.928967	-40.346291	-5.240761	-40.346291	-5.240761	-0.319305	-118.465597
8.750000	-0.357175	-130.597406	-40.238312	-6.665870	-40.238312	-6.665870	-0.323662	-119.051438
8.800000	-0.362170	-131.267672	-40.131600	-8.085731	-40.131600	-8.085731	-0.328072	-119.636772
8.850000	-0.367211	-131.938910	-40.026151	-9.502801	-40.026151	-9.502801	-0.332512	-120.221837
8.900000	-0.372380	-132.613437	-39.921912	-10.909783	-39.921912	-10.909783	-0.337027	-120.806254
8.950000	-0.377592	-133.289093	-39.818889	-12.313191	-39.818889	-12.313191	-0.341565	-121.390498
9.000000	-0.382935	-133.968515	-39.717000	-13.704548	-39.717000	-13.704548	-0.346169	-121.974225
9.050000	-0.388364	-134.650562	-39.616199	-15.087329	-39.616199	-15.087329	-0.350811	-122.557704
9.100000	-0.393899	-135.335890	-39.516439	-16.459391	-39.516439	-16.459391	-0.355499	-123.140875
9.150000	-0.399601	-136.026637	-39.417489	-17.813767	-39.417489	-17.813767	-0.360245	-123.723707
9.200000	-0.405374	-136.719616	-39.319522	-19.160861	-39.319522	-19.160861	-0.365017	-124.306400
9.250000	-0.411445	-137.422345	-39.221798	-20.476865	-39.221798	-20.476865	-0.369867	-124.888707
9.300000	-0.417628	-138.128509	-39.124773	-21.782381	-39.124773	-21.782381	-0.374740	-125.470929
9.350000	-0.424137	-138.844881	-39.027652	-23.056839	-39.027652	-23.056839	-0.379675	-126.052912
9.400000	-0.430867	-139.567693	-38.930733	-24.312773	-38.930733	-24.312773	-0.384642	-126.634804
9.450000	-0.438061	-140.303660	-38.833019	-25.531971	-38.833019	-25.531971	-0.389665	-127.216548
9.500000	-0.445773	-141.053163	-38.734297	-26.715825	-38.734297	-26.715825	-0.394735	-127.798206
9.550000	-0.454192	-141.819649	-38.633921	-27.858298	-38.633921	-27.858298	-0.399851	-128.379805
9.600000	-0.463665	-142.608944	-38.530856	-28.949865	-38.530856	-28.949865	-0.405017	-128.961378
9.650000	-0.474524	-143.424886	-38.424468	-29.987663	-38.424468	-29.987663	-0.410229	-129.542959
9.700000	-0.487379	-144.274742	-38.313656	-30.964027	-38.313656	-30.964027	-0.415486	-130.124578
9.750000	-0.502984	-145.165659	-38.197497	-31.874035	-38.197497	-31.874035	-0.420786	-130.706262
9.800000	-0.523486	-146.118733	-38.073122	-32.697070	-38.073122	-32.697070	-0.426135	-131.288056
9.850000	-0.551574	-147.151675	-37.938738	-33.424855	-37.938738	-33.424855	-0.431529	-131.869988
9.900000	-0.591802	-148.287800	-37.792267	-34.048392	-37.792267	-34.048392	-0.436966	-132.452085
9.950000	-0.655592	-149.577204	-37.628622	-34.540299	-37.628622	-34.540299	-0.442450	-133.034395
10.000000	-0.763910	-151.061840	-37.443451	-34.883606	-37.443451	-34.883606	-0.447977	-133.616950
