! freq	dB(S11)	phase(S11)	dB(S12)	phase(S12)	
!     	dB(S21)	phase(S21)	dB(S22)	phase(S22)	
!S-par simulation data
#  GHz  S  DB  R 50
0.000000	-0.000000	0.000000	-361.421750	180.000000	-361.421750	180.000000	-0.000000	0.000000
0.050000	-0.005597	-1.217439	-103.575961	88.675181	-103.575961	88.675181	-0.005383	-1.217732
0.100000	-0.010132	-2.482893	-97.594657	87.368268	-97.594657	87.368268	-0.009956	-2.482325
0.150000	-0.012103	-3.752025	-94.137693	86.093733	-94.137693	86.093733	-0.011994	-3.751335
0.200000	-0.013239	-5.018395	-91.726505	84.859721	-91.726505	84.859721	-0.013169	-5.017767
0.250000	-0.014101	-6.282172	-89.902223	83.674653	-89.902223	83.674653	-0.014054	-6.281634
0.300000	-0.014910	-7.544108	-88.452233	82.538044	-88.452233	82.538044	-0.014876	-7.543653
0.350000	-0.015731	-8.804374	-87.269833	81.456459	-87.269833	81.456459	-0.015706	-8.803988
0.400000	-0.016597	-10.063095	-86.290154	80.436128	-86.290154	80.436128	-0.016579	-10.062766
0.450000	-0.017524	-11.320302	-85.471908	79.485499	-85.471908	79.485499	-0.017510	-11.320021
0.500000	-0.018517	-12.575975	-84.787456	78.615616	-84.787456	78.615616	-0.018506	-12.575733
0.550000	-0.019575	-13.830060	-84.217629	77.840477	-84.217629	77.840477	-0.019567	-13.829850
0.600000	-0.020697	-15.082491	-83.748814	77.177518	-83.748814	77.177518	-0.020691	-15.082306
0.650000	-0.021880	-16.333189	-83.371198	76.648297	-83.371198	76.648297	-0.021875	-16.333026
0.700000	-0.023118	-17.582075	-83.077649	76.279449	-83.077649	76.279449	-0.023115	-17.581927
0.750000	-0.024408	-18.829065	-82.862944	76.103998	-82.862944	76.103998	-0.024406	-18.828929
0.800000	-0.025745	-20.074078	-82.723172	76.163075	-82.723172	76.163075	-0.025744	-20.073951
0.850000	-0.027122	-21.317035	-82.655196	76.508164	-82.655196	76.508164	-0.027122	-21.316912
0.900000	-0.028537	-22.557857	-82.656045	77.203893	-82.656045	77.203893	-0.028537	-22.557736
0.950000	-0.029983	-23.796469	-82.722129	78.331322	-82.722129	78.331322	-0.029984	-23.796347
1.000000	-0.031456	-25.032800	-82.848068	79.991333	-82.848068	79.991333	-0.031457	-25.032675
1.050000	-0.032952	-26.266780	-83.024932	82.306992	-83.024932	82.306992	-0.032954	-26.266649
1.100000	-0.034467	-27.498343	-83.237608	85.422253	-83.237608	85.422253	-0.034469	-27.498204
1.150000	-0.035997	-28.727426	-83.461186	89.491732	-83.461186	89.491732	-0.035999	-28.727276
1.200000	-0.037539	-29.953967	-83.656867	94.652753	-83.656867	94.652753	-0.037540	-29.953806
1.250000	-0.039089	-31.177909	-83.769504	100.969359	-83.769504	100.969359	-0.039090	-31.177734
1.300000	-0.040645	-32.399078	-83.721610	108.377166	-83.721610	108.377166	-0.040646	-32.398887
1.350000	-0.042204	-33.617532	-83.453563	116.465059	-83.453563	116.465059	-0.042205	-33.617325
1.400000	-0.043764	-34.833222	-82.932771	124.672412	-82.932771	124.672412	-0.043764	-34.832997
1.450000	-0.045323	-36.046097	-82.172925	132.407257	-82.172925	132.407257	-0.045323	-36.045853
1.500000	-0.046879	-37.256111	-81.225930	139.231531	-81.225930	139.231531	-0.046879	-37.255847
1.550000	-0.048432	-38.463218	-80.158217	144.938677	-80.158217	144.938677	-0.048432	-38.462933
1.600000	-0.049981	-39.667373	-79.029951	149.517273	-79.029951	149.517273	-0.049980	-39.667067
1.650000	-0.051524	-40.868535	-77.885808	153.070274	-77.885808	153.070274	-0.051523	-40.868207
1.700000	-0.053061	-42.066663	-76.754805	155.745190	-76.754805	155.745190	-0.053059	-42.066312
1.750000	-0.054591	-43.261717	-75.653860	157.692066	-75.653860	157.692066	-0.054589	-43.261343
1.800000	-0.056115	-44.453660	-74.591729	159.044470	-74.591729	159.044470	-0.056112	-44.453262
1.850000	-0.057632	-45.642456	-73.572084	159.913951	-73.572084	159.913951	-0.057629	-45.642034
1.900000	-0.059142	-46.828070	-72.595608	160.390793	-72.595608	160.390793	-0.059139	-46.827624
1.950000	-0.060646	-48.010468	-71.661312	160.547042	-71.661312	160.547042	-0.060642	-48.009997
2.000000	-0.062143	-49.189619	-70.767341	160.439930	-70.767341	160.439930	-0.062139	-49.189124
2.050000	-0.063635	-50.365492	-69.911442	160.114973	-69.911442	160.114973	-0.063631	-50.364972
2.100000	-0.065122	-51.538058	-69.091236	159.608519	-69.091236	159.608519	-0.065117	-51.537514
2.150000	-0.066603	-52.707290	-68.304370	158.949768	-68.304370	158.949768	-0.066599	-52.706721
2.200000	-0.068081	-53.873162	-67.548596	158.162340	-67.548596	158.162340	-0.068076	-53.872568
2.250000	-0.069556	-55.035649	-66.821810	157.265479	-66.821810	157.265479	-0.069551	-55.035030
2.300000	-0.071027	-56.194727	-66.122063	156.274982	-66.122063	156.274982	-0.071022	-56.194084
2.350000	-0.072497	-57.350377	-65.447565	155.203906	-65.447565	155.203906	-0.072492	-57.349709
2.400000	-0.073966	-58.502576	-64.796680	154.063124	-64.796680	154.063124	-0.073961	-58.501884
2.450000	-0.075435	-59.651308	-64.167910	152.861748	-64.167910	152.861748	-0.075430	-59.650592
2.500000	-0.076904	-60.796555	-63.559890	151.607463	-63.559890	151.607463	-0.076899	-60.795815
2.550000	-0.078375	-61.938149	-62.970492	150.305036	-62.970492	150.305036	-0.078370	-61.937384
2.600000	-0.079849	-63.076227	-62.399570	148.962217	-62.399570	148.962217	-0.079843	-63.075439
2.650000	-0.081325	-64.210779	-61.846067	147.583693	-61.846067	147.583693	-0.081320	-64.209967
2.700000	-0.082806	-65.341793	-61.309013	146.173517	-61.309013	146.173517	-0.082801	-65.340957
2.750000	-0.084292	-66.469261	-60.787522	144.735206	-60.787522	144.735206	-0.084287	-66.468401
2.800000	-0.085784	-67.593175	-60.280776	143.271829	-60.280776	143.271829	-0.085779	-67.592291
2.850000	-0.087282	-68.713530	-59.788024	141.786075	-59.788024	141.786075	-0.087277	-68.712622
2.900000	-0.088788	-69.830322	-59.308573	140.280306	-59.308573	140.280306	-0.088783	-69.829391
2.950000	-0.090303	-70.943549	-58.841780	138.756608	-58.841780	138.756608	-0.090298	-70.942593
3.000000	-0.091827	-72.053209	-58.387053	137.216830	-58.387053	137.216830	-0.091822	-72.052228
3.050000	-0.093361	-73.159303	-57.943841	135.662614	-57.943841	135.662614	-0.093356	-73.158298
3.100000	-0.094905	-74.261833	-57.511630	134.095424	-57.511630	134.095424	-0.094901	-74.260804
3.150000	-0.096462	-75.360803	-57.089945	132.516571	-57.089945	132.516571	-0.096457	-75.359749
3.200000	-0.098030	-76.456219	-56.678339	130.927228	-56.678339	130.927228	-0.098026	-76.455140
3.250000	-0.099612	-77.548087	-56.276397	129.328455	-56.276397	129.328455	-0.099608	-77.546982
3.300000	-0.101208	-78.636415	-55.883730	127.721203	-55.883730	127.721203	-0.101204	-78.635285
3.350000	-0.102818	-79.721214	-55.499972	126.106336	-55.499972	126.106336	-0.102814	-79.720057
3.400000	-0.104444	-80.802494	-55.124782	124.484635	-55.124782	124.484635	-0.104440	-80.801310
3.450000	-0.106085	-81.880268	-54.757837	122.856811	-54.757837	122.856811	-0.106081	-81.879057
3.500000	-0.107743	-82.954550	-54.398834	121.223510	-54.398834	121.223510	-0.107740	-82.953312
3.550000	-0.109418	-84.025356	-54.047486	119.585325	-54.047486	119.585325	-0.109415	-84.024090
3.600000	-0.111112	-85.092702	-53.703525	117.942794	-53.703525	117.942794	-0.111108	-85.091407
3.650000	-0.112824	-86.156608	-53.366695	116.296413	-53.366695	116.296413	-0.112820	-86.155283
3.700000	-0.114555	-87.217091	-53.036754	114.646636	-53.036754	114.646636	-0.114551	-87.215737
3.750000	-0.116305	-88.274174	-52.713475	112.993882	-52.713475	112.993882	-0.116302	-88.272789
3.800000	-0.118077	-89.327733	-52.396418	111.338440	-52.396418	111.338440	-0.118074	-89.326316
3.850000	-0.119870	-90.377938	-52.085621	109.680791	-52.085621	109.680791	-0.119866	-90.376490
3.900000	-0.121684	-91.424816	-51.780886	108.021262	-51.780886	108.021262	-0.121681	-91.423334
3.950000	-0.123520	-92.468391	-51.482026	106.360152	-51.482026	106.360152	-0.123517	-92.466876
4.000000	-0.125379	-93.508691	-51.188861	104.697744	-51.188861	104.697744	-0.125375	-93.507142
4.050000	-0.127261	-94.545745	-50.901221	103.034295	-50.901221	103.034295	-0.127257	-94.544161
4.100000	-0.129166	-95.579582	-50.618944	101.370048	-50.618944	101.370048	-0.129162	-95.577962
4.150000	-0.131095	-96.610233	-50.341874	99.705229	-50.341874	99.705229	-0.131091	-96.608576
4.200000	-0.133049	-97.637729	-50.069863	98.040046	-50.069863	98.040046	-0.133045	-97.636035
4.250000	-0.135028	-98.662103	-49.802769	96.374697	-49.802769	96.374697	-0.135023	-98.660370
4.300000	-0.137032	-99.683389	-49.540457	94.709364	-49.540457	94.709364	-0.137027	-99.681617
4.350000	-0.139062	-100.701621	-49.282796	93.044217	-49.282796	93.044217	-0.139057	-100.699810
4.400000	-0.141118	-101.716836	-49.029661	91.379418	-49.029661	91.379418	-0.141113	-101.714984
4.450000	-0.143201	-102.729070	-48.780933	89.715116	-48.780933	89.715116	-0.143195	-102.727176
4.500000	-0.145311	-103.738361	-48.536496	88.051452	-48.536496	88.051452	-0.145305	-103.736425
4.550000	-0.147448	-104.744747	-48.296242	86.388557	-48.296242	86.388557	-0.147442	-104.742768
4.600000	-0.149613	-105.748268	-48.060062	84.726554	-48.060062	84.726554	-0.149607	-105.746246
4.650000	-0.151807	-106.748964	-47.827856	83.065559	-47.827856	83.065559	-0.151801	-106.746897
4.700000	-0.154030	-107.746876	-47.599526	81.405681	-47.599526	81.405681	-0.154023	-107.744765
4.750000	-0.156281	-108.742047	-47.374976	79.747023	-47.374976	79.747023	-0.156274	-108.739889
4.800000	-0.158562	-109.734518	-47.154115	78.089678	-47.154115	78.089678	-0.158555	-109.732315
4.850000	-0.160873	-110.724334	-46.936856	76.433737	-46.936856	76.433737	-0.160865	-110.722084
4.900000	-0.163214	-111.711540	-46.723114	74.779285	-46.723114	74.779285	-0.163206	-111.709242
4.950000	-0.165585	-112.696179	-46.512808	73.126400	-46.512808	73.126400	-0.165577	-112.693833
5.000000	-0.167987	-113.678297	-46.305857	71.475156	-46.305857	71.475156	-0.167979	-113.675903
5.050000	-0.170422	-114.657837	-46.102123	69.825699	-46.102123	69.825699	-0.170413	-114.655394
5.100000	-0.172889	-115.634954	-45.901602	68.178024	-45.901602	68.178024	-0.172879	-115.632462
5.150000	-0.175387	-116.609697	-45.704223	66.532189	-45.704223	66.532189	-0.175377	-116.607155
5.200000	-0.177917	-117.582114	-45.509917	64.888251	-45.509917	64.888251	-0.177907	-117.579522
5.250000	-0.180480	-118.552254	-45.318617	63.246263	-45.318617	63.246263	-0.180470	-118.549613
5.300000	-0.183076	-119.520167	-45.130259	61.606274	-45.130259	61.606274	-0.183066	-119.517475
5.350000	-0.185705	-120.485904	-44.944780	59.968329	-44.944780	59.968329	-0.185694	-120.483162
5.400000	-0.188367	-121.449515	-44.762120	58.332472	-44.762120	58.332472	-0.188356	-121.446722
5.450000	-0.191075	-122.410355	-44.581890	56.699497	-44.581890	56.699497	-0.191064	-122.407511
5.500000	-0.193801	-123.370131	-44.404823	55.067645	-44.404823	55.067645	-0.193789	-123.367236
5.550000	-0.196568	-124.327535	-44.230225	53.438483	-44.230225	53.438483	-0.196556	-124.324590
5.600000	-0.199366	-125.283246	-44.058317	51.811243	-44.058317	51.811243	-0.199353	-125.280250
5.650000	-0.202199	-126.237041	-43.888937	50.186372	-43.888937	50.186372	-0.202187	-126.233995
5.700000	-0.205070	-127.188920	-43.722002	48.563871	-43.722002	48.563871	-0.205057	-127.185824
5.750000	-0.207971	-128.139302	-43.557624	46.943389	-43.557624	46.943389	-0.207958	-128.136156
5.800000	-0.210916	-129.087588	-43.395488	45.325734	-43.395488	45.325734	-0.210902	-129.084392
5.850000	-0.213879	-130.035026	-43.236009	43.709310	-43.236009	43.709310	-0.213866	-130.031780
5.900000	-0.216891	-130.980297	-43.078623	42.096072	-43.078623	42.096072	-0.216877	-130.977002
5.950000	-0.219939	-131.924037	-42.923509	40.485222	-42.923509	40.485222	-0.219925	-131.920694
6.000000	-0.223024	-132.866303	-42.770627	38.876775	-42.770627	38.876775	-0.223010	-132.862910
6.050000	-0.226146	-133.807150	-42.619937	37.270747	-42.619937	37.270747	-0.226131	-133.803710
6.100000	-0.229305	-134.746638	-42.471400	35.667149	-42.471400	35.667149	-0.229290	-134.743151
6.150000	-0.232501	-135.684825	-42.324981	34.065993	-42.324981	34.065993	-0.232486	-135.681290
6.200000	-0.235735	-136.621767	-42.180645	32.467291	-42.180645	32.467291	-0.235720	-136.618186
6.250000	-0.239006	-137.557526	-42.038355	30.871051	-42.038355	30.871051	-0.238991	-137.553899
6.300000	-0.242317	-138.492113	-41.898070	29.277390	-41.898070	29.277390	-0.242302	-138.488440
6.350000	-0.245666	-139.425639	-41.759771	27.686209	-41.759771	27.686209	-0.245651	-139.421922
6.400000	-0.249054	-140.358165	-41.623427	26.097515	-41.623427	26.097515	-0.249038	-140.354404
6.450000	-0.252480	-141.289752	-41.489007	24.511316	-41.489007	24.511316	-0.252464	-141.285947
6.500000	-0.255945	-142.220459	-41.356484	22.927616	-41.356484	22.927616	-0.255929	-142.216611
6.550000	-0.259449	-143.150348	-41.225829	21.346423	-41.225829	21.346423	-0.259432	-143.146457
6.600000	-0.262992	-144.079480	-41.097016	19.767742	-41.097016	19.767742	-0.262975	-144.075548
6.650000	-0.266574	-145.007917	-40.970019	18.191578	-40.970019	18.191578	-0.266557	-145.003943
6.700000	-0.270195	-145.935721	-40.844814	16.617938	-40.844814	16.617938	-0.270178	-145.931706
6.750000	-0.273856	-146.862954	-40.721375	15.046827	-40.721375	15.046827	-0.273839	-146.858899
6.800000	-0.277557	-147.789679	-40.599682	13.478251	-40.599682	13.478251	-0.277540	-147.785584
6.850000	-0.281298	-148.715960	-40.479711	11.912216	-40.479711	11.912216	-0.281281	-148.711825
6.900000	-0.285079	-149.641859	-40.361441	10.348730	-40.361441	10.348730	-0.285061	-149.637684
6.950000	-0.288900	-150.567441	-40.244853	8.787798	-40.244853	8.787798	-0.288882	-150.563226
7.000000	-0.292761	-151.492768	-40.129926	7.229430	-40.129926	7.229430	-0.292743	-151.488515
7.050000	-0.296663	-152.417907	-40.016641	5.673633	-40.016641	5.673633	-0.296645	-152.413614
7.100000	-0.300605	-153.342920	-39.904981	4.120417	-39.904981	4.120417	-0.300587	-153.338588
7.150000	-0.304587	-154.267874	-39.794929	2.569791	-39.794929	2.569791	-0.304569	-154.263502
7.200000	-0.308611	-155.192833	-39.686468	1.021768	-39.686468	1.021768	-0.308592	-155.188420
7.250000	-0.312675	-156.117862	-39.579582	-0.523641	-39.579582	-0.523641	-0.312656	-156.113410
7.300000	-0.316780	-157.043029	-39.474256	-2.066424	-39.474256	-2.066424	-0.316761	-157.038535
7.350000	-0.320925	-157.968398	-39.370475	-3.606564	-39.370475	-3.606564	-0.320906	-157.963862
7.400000	-0.325112	-158.894037	-39.268226	-5.144047	-39.268226	-5.144047	-0.325093	-158.889458
7.450000	-0.329340	-159.820011	-39.167496	-6.678856	-39.167496	-6.678856	-0.329320	-159.815388
7.500000	-0.333608	-160.746389	-39.068271	-8.210971	-39.068271	-8.210971	-0.333588	-160.741720
7.550000	-0.337920	-161.673260	-38.970557	-9.740254	-38.970557	-9.740254	-0.337899	-161.668544
7.600000	-0.342272	-162.600676	-38.874327	-11.266801	-38.874327	-11.266801	-0.342251	-162.595910
7.650000	-0.346665	-163.528703	-38.779570	-12.790587	-38.779570	-12.790587	-0.346644	-163.523886
7.700000	-0.351100	-164.457411	-38.686275	-14.311588	-38.686275	-14.311588	-0.351078	-164.452540
7.750000	-0.355575	-165.386866	-38.594431	-15.829777	-38.594431	-15.829777	-0.355553	-165.381939
7.800000	-0.360092	-166.317140	-38.504030	-17.345126	-38.504030	-17.345126	-0.360069	-166.312152
7.850000	-0.364649	-167.248299	-38.415062	-18.857603	-38.415062	-18.857603	-0.364626	-167.243249
7.900000	-0.369247	-168.180414	-38.327517	-20.367176	-38.327517	-20.367176	-0.369223	-168.175297
7.950000	-0.373886	-169.113553	-38.241388	-21.873812	-38.241388	-21.873812	-0.373861	-169.108366
8.000000	-0.378566	-170.047788	-38.156665	-23.377474	-38.156665	-23.377474	-0.378540	-170.042525
8.050000	-0.383286	-170.983187	-38.073342	-24.878125	-38.073342	-24.878125	-0.383260	-170.977844
8.100000	-0.388047	-171.919822	-37.991409	-26.375723	-37.991409	-26.375723	-0.388019	-171.914393
8.150000	-0.392848	-172.857762	-37.910860	-27.870228	-37.910860	-27.870228	-0.392819	-172.852242
8.200000	-0.397689	-173.797079	-37.831688	-29.361596	-37.831688	-29.361596	-0.397659	-173.791461
8.250000	-0.402571	-174.737843	-37.753885	-30.849780	-37.753885	-30.849780	-0.402539	-174.732121
8.300000	-0.407492	-175.680125	-37.677445	-32.334733	-37.677445	-32.334733	-0.407459	-175.674292
8.350000	-0.412453	-176.623998	-37.602362	-33.816405	-37.602362	-33.816405	-0.412419	-176.618045
8.400000	-0.417454	-177.569533	-37.528628	-35.294745	-37.528628	-35.294745	-0.417417	-177.563452
8.450000	-0.422493	-178.516802	-37.456237	-36.769698	-37.456237	-36.769698	-0.422455	-178.510584
8.500000	-0.427572	-179.465876	-37.385183	-38.241210	-37.385183	-38.241210	-0.427531	-179.459512
8.550000	-0.432689	179.583171	-37.315459	-39.709224	-37.315459	-39.709224	-0.432646	179.589692
8.600000	-0.437845	178.630267	-37.247061	-41.173679	-37.247061	-41.173679	-0.437800	178.636957
8.650000	-0.443039	177.675340	-37.179980	-42.634516	-37.179980	-42.634516	-0.442991	177.682210
8.700000	-0.448271	176.718317	-37.114213	-44.091672	-37.114213	-44.091672	-0.448220	176.725379
8.750000	-0.453541	175.759125	-37.049751	-45.545083	-37.049751	-45.545083	-0.453486	175.766393
8.800000	-0.458848	174.797589	-36.986626	-46.994515	-36.986626	-46.994515	-0.458790	174.805077
8.850000	-0.464193	173.833731	-36.924795	-48.440062	-36.924795	-48.440062	-0.464131	173.841455
8.900000	-0.469574	172.867477	-36.864254	-49.881657	-36.864254	-49.881657	-0.469507	172.875453
8.950000	-0.474991	171.898754	-36.804994	-51.319229	-36.804994	-51.319229	-0.474919	171.906998
9.000000	-0.480443	170.927488	-36.747010	-52.752706	-36.747010	-52.752706	-0.480367	170.936018
9.050000	-0.485930	169.953605	-36.690294	-54.182017	-36.690294	-54.182017	-0.485848	169.962441
9.100000	-0.491452	168.977033	-36.634840	-55.607087	-36.634840	-55.607087	-0.491364	168.986193
9.150000	-0.497007	167.997696	-36.580641	-57.027842	-36.580641	-57.027842	-0.496913	168.007202
9.200000	-0.502596	167.015521	-36.527690	-58.444208	-36.527690	-58.444208	-0.502495	167.025395
9.250000	-0.508218	166.030435	-36.475979	-59.856106	-36.475979	-59.856106	-0.508110	166.040700
9.300000	-0.513872	165.042363	-36.425500	-61.263462	-36.425500	-61.263462	-0.513755	165.053045
9.350000	-0.519557	164.051232	-36.376247	-62.666197	-36.376247	-62.666197	-0.519432	164.062355
9.400000	-0.525273	163.056969	-36.328210	-64.064234	-36.328210	-64.064234	-0.525139	163.068560
9.450000	-0.531019	162.059499	-36.281383	-65.457494	-36.281383	-65.457494	-0.530876	162.071588
9.500000	-0.536795	161.058750	-36.235756	-66.845900	-36.235756	-66.845900	-0.536641	161.071365
9.550000	-0.542599	160.054648	-36.191320	-68.229372	-36.191320	-68.229372	-0.542434	160.067820
9.600000	-0.548431	159.047120	-36.148067	-69.607832	-36.148067	-69.607832	-0.548254	159.060882
9.650000	-0.554291	158.036093	-36.105988	-70.981203	-36.105988	-70.981203	-0.554101	158.050479
9.700000	-0.560176	157.021495	-36.065073	-72.349405	-36.065073	-72.349405	-0.559972	157.036541
9.750000	-0.566087	156.003254	-36.025312	-73.712362	-36.025312	-73.712362	-0.565869	156.018996
9.800000	-0.572022	154.981297	-35.986696	-75.069995	-35.986696	-75.069995	-0.571788	154.997774
9.850000	-0.577981	153.955552	-35.949214	-76.422229	-35.949214	-76.422229	-0.577730	153.972806
9.900000	-0.583963	152.925949	-35.912857	-77.768987	-35.912857	-77.768987	-0.583694	152.944021
9.950000	-0.589965	151.892417	-35.877612	-79.110194	-35.877612	-79.110194	-0.589678	151.911351
10.000000	-0.595989	150.854885	-35.843470	-80.445776	-35.843470	-80.445776	-0.595681	150.874727
