! freq	dB(S11)	phase(S11)	dB(S12)	phase(S12)	
!     	dB(S21)	phase(S21)	dB(S22)	phase(S22)	
!S-par simulation data
#  GHz  S  DB  R 50
0.000000	0.000000	0.000000	-325.863653	0.000000	-325.863653	0.000000	-0.000000	0.000000
0.050000	-0.000940	-1.503498	-109.269197	89.015915	-109.269197	89.015915	-0.000520	-0.768946
0.100000	-0.003220	-3.000356	-103.304080	87.893525	-103.304080	87.893525	-0.001688	-1.533701
0.150000	-0.005938	-4.489316	-99.858884	86.781480	-99.858884	86.781480	-0.002941	-2.294218
0.200000	-0.008529	-5.972466	-97.468612	85.708527	-97.468612	85.708527	-0.004043	-3.052206
0.250000	-0.010878	-7.452652	-95.662111	84.677871	-95.662111	84.677871	-0.005013	-3.809142
0.300000	-0.012992	-8.931046	-94.239623	83.700593	-94.239623	83.700593	-0.005893	-4.565554
0.350000	-0.014933	-10.408321	-93.092861	82.788076	-93.092861	82.788076	-0.006736	-5.321701
0.400000	-0.016758	-11.884674	-92.159091	81.955345	-92.159091	81.955345	-0.007577	-6.077670
0.450000	-0.018508	-13.359960	-91.406325	81.230413	-91.406325	81.230413	-0.008445	-6.833467
0.500000	-0.020221	-14.834097	-90.798843	80.626345	-90.798843	80.626345	-0.009348	-7.589106
0.550000	-0.021915	-16.306870	-90.318873	80.169820	-90.318873	80.169820	-0.010289	-8.344579
0.600000	-0.023602	-17.778052	-89.954409	79.894274	-89.954409	79.894274	-0.011266	-9.099875
0.650000	-0.025289	-19.247422	-89.697480	79.842178	-89.697480	79.842178	-0.012269	-9.854971
0.700000	-0.026982	-20.714765	-89.543013	80.068153	-89.543013	80.068153	-0.013288	-10.609825
0.750000	-0.028685	-22.179732	-89.493910	80.670713	-89.493910	80.670713	-0.014311	-11.364350
0.800000	-0.030398	-23.642120	-89.547182	81.760408	-89.547182	81.760408	-0.015326	-12.118446
0.850000	-0.032123	-25.101799	-89.696809	83.476427	-89.696809	83.476427	-0.016325	-12.872016
0.900000	-0.033859	-26.558810	-89.930320	85.944657	-89.930320	85.944657	-0.017308	-13.625005
0.950000	-0.035605	-28.012842	-90.239483	89.438848	-90.239483	89.438848	-0.018273	-14.377295
1.000000	-0.037360	-29.463751	-90.595206	94.252606	-90.595206	94.252606	-0.019225	-15.128815
1.050000	-0.039123	-30.911400	-90.941394	100.697522	-90.941394	100.697522	-0.020166	-15.879514
1.100000	-0.040893	-32.355665	-91.182851	108.987826	-91.182851	108.987826	-0.021101	-16.629360
1.150000	-0.042667	-33.796428	-91.187304	119.015163	-91.187304	119.015163	-0.022034	-17.378332
1.200000	-0.044444	-35.233580	-90.826016	130.105363	-90.826016	130.105363	-0.022967	-18.126421
1.250000	-0.046223	-36.667017	-90.049312	141.076134	-90.049312	141.076134	-0.023903	-18.873621
1.300000	-0.048001	-38.096474	-88.908022	150.700545	-88.908022	150.700545	-0.024841	-19.619893
1.350000	-0.049778	-39.522023	-87.560938	158.477687	-87.560938	158.477687	-0.025783	-20.365274
1.400000	-0.051551	-40.943582	-86.131998	164.431558	-86.131998	164.431558	-0.026730	-21.109763
1.450000	-0.053320	-42.361072	-84.702062	168.832386	-84.702062	168.832386	-0.027679	-21.853357
1.500000	-0.055083	-43.774420	-83.314480	171.997789	-83.314480	171.997789	-0.028632	-22.596054
1.550000	-0.056840	-45.183557	-81.988650	174.207936	-81.988650	174.207936	-0.029588	-23.337849
1.600000	-0.058590	-46.588421	-80.730769	175.684797	-80.730769	175.684797	-0.030546	-24.078738
1.650000	-0.060331	-47.988951	-79.540410	176.596672	-79.540410	176.596672	-0.031506	-24.818713
1.700000	-0.062064	-49.385092	-78.414115	177.069272	-78.414115	177.069272	-0.032467	-25.557769
1.750000	-0.063789	-50.776794	-77.347257	177.196438	-77.347257	177.196438	-0.033429	-26.295897
1.800000	-0.065505	-52.164007	-76.334953	177.048681	-76.334953	177.048681	-0.034393	-27.033088
1.850000	-0.067212	-53.546688	-75.372500	176.679510	-75.372500	176.679510	-0.035357	-27.769334
1.900000	-0.068910	-54.924798	-74.455549	176.130003	-74.455549	176.130003	-0.036322	-28.504624
1.950000	-0.070599	-56.298298	-73.580170	175.432067	-73.580170	175.432067	-0.037288	-29.238949
2.000000	-0.072281	-57.667157	-72.742846	174.610780	-72.742846	174.610780	-0.038254	-29.972297
2.050000	-0.073954	-59.031343	-71.940445	173.686072	-71.940445	173.686072	-0.039221	-30.704658
2.100000	-0.075621	-60.390829	-71.170187	172.673950	-71.170187	172.673950	-0.040188	-31.436021
2.150000	-0.077281	-61.745592	-70.429598	171.587401	-70.429598	171.587401	-0.041157	-32.166374
2.200000	-0.078935	-63.095612	-69.716476	170.437061	-69.716476	170.437061	-0.042127	-32.895706
2.250000	-0.080583	-64.440870	-69.028855	169.231714	-69.028855	169.231714	-0.043098	-33.624005
2.300000	-0.082228	-65.781353	-68.364976	167.978674	-68.364976	167.978674	-0.044071	-34.351259
2.350000	-0.083869	-67.117048	-67.723259	166.684081	-67.723259	166.684081	-0.045046	-35.077457
2.400000	-0.085507	-68.447947	-67.102283	165.353120	-67.102283	165.353120	-0.046024	-35.802586
2.450000	-0.087143	-69.774044	-66.500762	163.990202	-66.500762	163.990202	-0.047004	-36.526635
2.500000	-0.088779	-71.095336	-65.917534	162.599103	-65.917534	162.599103	-0.047987	-37.249592
2.550000	-0.090415	-72.411615	-65.350690	161.182120	-65.350690	161.182120	-0.048973	-37.971397
2.600000	-0.092052	-73.723091	-64.800214	159.743236	-64.800214	159.743236	-0.049964	-38.692085
2.650000	-0.093692	-75.029770	-64.265214	158.284855	-64.265214	158.284855	-0.050958	-39.411644
2.700000	-0.095335	-76.331662	-63.744873	156.809080	-63.744873	156.809080	-0.051957	-40.130064
2.750000	-0.096982	-77.628776	-63.238440	155.317763	-63.238440	155.317763	-0.052961	-40.847333
2.800000	-0.098635	-78.921127	-62.745225	153.812538	-62.745225	153.812538	-0.053970	-41.563439
2.850000	-0.100294	-80.208729	-62.264590	152.294852	-62.264590	152.294852	-0.054985	-42.278372
2.900000	-0.101960	-81.491602	-61.795947	150.765994	-61.795947	150.765994	-0.056006	-42.992121
2.950000	-0.103635	-82.769767	-61.338748	149.227114	-61.338748	149.227114	-0.057033	-43.704676
3.000000	-0.105319	-84.043247	-60.892486	147.679241	-60.892486	147.679241	-0.058068	-44.416025
3.050000	-0.107013	-85.312066	-60.456689	146.123303	-60.456689	146.123303	-0.059109	-45.126159
3.100000	-0.108718	-86.576255	-60.030915	144.560132	-60.030915	144.560132	-0.060159	-45.835069
3.150000	-0.110436	-87.835842	-59.614754	142.990482	-59.614754	142.990482	-0.061216	-46.542743
3.200000	-0.112166	-89.090859	-59.207820	141.415036	-59.207820	141.415036	-0.062282	-47.249173
3.250000	-0.113911	-90.341343	-58.809751	139.834414	-58.809751	139.834414	-0.063356	-47.954350
3.300000	-0.115670	-91.587329	-58.420209	138.249182	-58.420209	138.249182	-0.064440	-48.658265
3.350000	-0.117446	-92.828856	-58.038875	136.659854	-58.038875	136.659854	-0.065534	-49.360909
3.400000	-0.119237	-94.065964	-57.665447	135.066902	-57.665447	135.066902	-0.066637	-50.062274
3.450000	-0.121046	-95.298698	-57.299644	133.470758	-57.299644	133.470758	-0.067751	-50.762352
3.500000	-0.122874	-96.527100	-56.941196	131.871819	-56.941196	131.871819	-0.068875	-51.461135
3.550000	-0.124720	-97.751219	-56.589851	130.270450	-56.589851	130.270450	-0.070011	-52.158616
3.600000	-0.126585	-98.971102	-56.245370	128.666986	-56.245370	128.666986	-0.071158	-52.854788
3.650000	-0.128472	-100.186800	-55.907525	127.061738	-55.907525	127.061738	-0.072317	-53.549644
3.700000	-0.130379	-101.398364	-55.576101	125.454993	-55.576101	125.454993	-0.073488	-54.243177
3.750000	-0.132308	-102.605848	-55.250893	123.847016	-55.250893	123.847016	-0.074672	-54.935382
3.800000	-0.134261	-103.809135	-54.931460	122.238021	-54.931460	122.238021	-0.075869	-55.626194
3.850000	-0.136236	-105.008460	-54.617883	120.628287	-54.617883	120.628287	-0.077079	-56.315665
3.900000	-0.138236	-106.203881	-54.309986	119.018025	-54.309986	119.018025	-0.078304	-57.003790
3.950000	-0.140260	-107.395459	-54.007597	117.407428	-54.007597	117.407428	-0.079542	-57.690565
4.000000	-0.142309	-108.583254	-53.710556	115.796680	-53.710556	115.796680	-0.080795	-58.375985
4.050000	-0.144383	-109.767330	-53.418706	114.185949	-53.418706	114.185949	-0.082063	-59.060045
4.100000	-0.146484	-110.947750	-53.131902	112.575394	-53.131902	112.575394	-0.083346	-59.742742
4.150000	-0.148611	-112.124582	-52.850000	110.965163	-52.850000	110.965163	-0.084644	-60.424072
4.200000	-0.150766	-113.297892	-52.572866	109.355394	-52.572866	109.355394	-0.085958	-61.104032
4.250000	-0.152948	-114.467747	-52.300370	107.746215	-52.300370	107.746215	-0.087289	-61.782619
4.300000	-0.155158	-115.634218	-52.032387	106.137748	-52.032387	106.137748	-0.088636	-62.459831
4.350000	-0.157396	-116.797374	-51.768799	104.530107	-51.768799	104.530107	-0.090000	-63.135664
4.400000	-0.159664	-117.957288	-51.509492	102.923396	-51.509492	102.923396	-0.091382	-63.810117
4.450000	-0.161961	-119.114031	-51.254354	101.317717	-51.254354	101.317717	-0.092782	-64.483189
4.500000	-0.164288	-120.267679	-51.003282	99.713163	-51.003282	99.713163	-0.094199	-65.154877
4.550000	-0.166646	-121.418306	-50.756172	98.109821	-50.756172	98.109821	-0.095635	-65.825181
4.600000	-0.169033	-122.565987	-50.512929	96.507775	-50.512929	96.507775	-0.097090	-66.494100
4.650000	-0.171452	-123.710799	-50.273457	94.907104	-50.273457	94.907104	-0.098564	-67.161634
4.700000	-0.173902	-124.852820	-50.037667	93.307880	-50.037667	93.307880	-0.100058	-67.827782
4.750000	-0.176384	-125.992128	-49.805472	91.710174	-49.805472	91.710174	-0.101572	-68.492545
4.800000	-0.178898	-127.128803	-49.576787	90.114051	-49.576787	90.114051	-0.103106	-69.155922
4.850000	-0.181444	-128.262925	-49.351533	88.519574	-49.351533	88.519574	-0.104661	-69.817915
4.900000	-0.184023	-129.394574	-49.129630	86.926802	-49.129630	86.926802	-0.106237	-70.478525
4.950000	-0.186635	-130.523834	-48.911005	85.335792	-48.911005	85.335792	-0.107834	-71.137753
5.000000	-0.189280	-131.650785	-48.695583	83.746598	-48.695583	83.746598	-0.109454	-71.795600
5.050000	-0.191960	-132.775420	-48.483207	82.159354	-48.483207	82.159354	-0.111097	-72.452009
5.100000	-0.194673	-133.897921	-48.273906	80.574031	-48.273906	80.574031	-0.112762	-73.107041
5.150000	-0.197420	-135.018374	-48.067612	78.990675	-48.067612	78.990675	-0.114450	-73.760700
5.200000	-0.200202	-136.136864	-47.864264	77.409332	-47.864264	77.409332	-0.116162	-74.412987
5.250000	-0.203018	-137.253476	-47.663799	75.830047	-47.663799	75.830047	-0.117898	-75.063906
5.300000	-0.205869	-138.368299	-47.466158	74.252861	-47.466158	74.252861	-0.119658	-75.713461
5.350000	-0.208754	-139.481418	-47.271284	72.677817	-47.271284	72.677817	-0.121443	-76.361654
5.400000	-0.211675	-140.592921	-47.079122	71.104955	-47.079122	71.104955	-0.123253	-77.008489
5.450000	-0.214631	-141.702897	-46.889618	69.534315	-46.889618	69.534315	-0.125088	-77.653971
5.500000	-0.217622	-142.811434	-46.702719	67.965937	-46.702719	67.965937	-0.126949	-78.298104
5.550000	-0.220649	-143.918622	-46.518377	66.399859	-46.518377	66.399859	-0.128837	-78.940892
5.600000	-0.223711	-145.024550	-46.336541	64.836121	-46.336541	64.836121	-0.130751	-79.582340
5.650000	-0.226810	-146.129309	-46.157165	63.274761	-46.157165	63.274761	-0.132692	-80.222452
5.700000	-0.229944	-147.232989	-45.980203	61.715818	-45.980203	61.715818	-0.134660	-80.861236
5.750000	-0.233115	-148.335682	-45.805610	60.159331	-45.805610	60.159331	-0.136657	-81.498695
5.800000	-0.236322	-149.437479	-45.633344	58.605340	-45.633344	58.605340	-0.138682	-82.134835
5.850000	-0.239566	-150.538472	-45.463363	57.053885	-45.463363	57.053885	-0.140735	-82.769663
5.900000	-0.242846	-151.638754	-45.295626	55.505007	-45.295626	55.505007	-0.142818	-83.403185
5.950000	-0.246162	-152.738417	-45.130093	53.958747	-45.130093	53.958747	-0.144930	-84.035407
6.000000	-0.249516	-153.837555	-44.966727	52.415148	-44.966727	52.415148	-0.147072	-84.666336
6.050000	-0.252907	-154.936262	-44.805490	50.874254	-44.805490	50.874254	-0.149244	-85.295978
6.100000	-0.256335	-156.034632	-44.646345	49.336110	-44.646345	49.336110	-0.151447	-85.924341
6.150000	-0.259799	-157.132758	-44.489258	47.800762	-44.489258	47.800762	-0.153681	-86.551431
6.200000	-0.263302	-158.230736	-44.334194	46.268258	-44.334194	46.268258	-0.155947	-87.177257
6.250000	-0.266841	-159.328661	-44.181120	44.738650	-44.181120	44.738650	-0.158245	-87.801826
6.300000	-0.270420	-160.426634	-44.029972	43.212118	-44.029972	43.212118	-0.160576	-88.425092
6.350000	-0.274037	-161.524754	-43.880753	41.688593	-43.880753	41.688593	-0.162941	-89.047118
6.400000	-0.277691	-162.623117	-43.733429	40.168129	-43.733429	40.168129	-0.165339	-89.667912
6.450000	-0.281383	-163.721819	-43.587971	38.650787	-43.587971	38.650787	-0.167770	-90.287482
6.500000	-0.285113	-164.820957	-43.444347	37.136627	-43.444347	37.136627	-0.170236	-90.905838
6.550000	-0.288881	-165.920628	-43.302529	35.625716	-43.302529	35.625716	-0.172736	-91.522988
6.600000	-0.292688	-167.020930	-43.162487	34.118120	-43.162487	34.118120	-0.175271	-92.138941
6.650000	-0.296533	-168.121959	-43.024192	32.613909	-43.024192	32.613909	-0.177842	-92.753706
6.700000	-0.300416	-169.223815	-42.887617	31.113160	-42.887617	31.113160	-0.180448	-93.367293
6.750000	-0.304338	-170.326596	-42.752733	29.615950	-42.752733	29.615950	-0.183091	-93.979711
6.800000	-0.308300	-171.430399	-42.619512	28.122361	-42.619512	28.122361	-0.185770	-94.590971
6.850000	-0.312300	-172.535324	-42.487928	26.632480	-42.487928	26.632480	-0.188486	-95.201081
6.900000	-0.316339	-173.641470	-42.357952	25.146398	-42.357952	25.146398	-0.191240	-95.810053
6.950000	-0.320418	-174.748936	-42.229559	23.664211	-42.229559	23.664211	-0.194031	-96.417896
7.000000	-0.324536	-175.857822	-42.102721	22.186021	-42.102721	22.186021	-0.196861	-97.024621
7.050000	-0.328695	-176.968228	-41.977411	20.711934	-41.977411	20.711934	-0.199730	-97.630238
7.100000	-0.332893	-178.080254	-41.853602	19.242064	-41.853602	19.242064	-0.202638	-98.234758
7.150000	-0.337133	-179.194001	-41.731266	17.776531	-41.731266	17.776531	-0.205586	-98.838192
7.200000	-0.341413	179.690430	-41.610378	16.315462	-41.610378	16.315462	-0.208573	-99.440550
7.250000	-0.345734	178.572938	-41.490908	14.858991	-41.490908	14.858991	-0.211601	-100.041845
7.300000	-0.350097	177.453421	-41.372828	13.407260	-41.372828	13.407260	-0.214670	-100.642087
7.350000	-0.354503	176.331778	-41.256111	11.960423	-41.256111	11.960423	-0.217780	-101.241288
7.400000	-0.358951	175.207906	-41.140726	10.518639	-41.140726	10.518639	-0.220932	-101.839459
7.450000	-0.363442	174.081703	-41.026644	9.082082	-41.026644	9.082082	-0.224126	-102.436612
7.500000	-0.367977	172.953064	-40.913833	7.650933	-40.913833	7.650933	-0.227362	-103.032759
7.550000	-0.372559	171.821772	-40.802253	6.225644	-40.802253	6.225644	-0.230643	-103.627869
7.600000	-0.377186	170.687827	-40.691879	4.806190	-40.691879	4.806190	-0.233968	-104.221997
7.650000	-0.381860	169.551125	-40.582675	3.392799	-40.582675	3.392799	-0.237337	-104.815157
7.700000	-0.386581	168.411561	-40.474605	1.985713	-40.474605	1.985713	-0.240750	-105.407360
7.750000	-0.391351	167.269027	-40.367631	0.585196	-40.367631	0.585196	-0.244207	-105.998618
7.800000	-0.396171	166.123417	-40.261710	-0.808471	-40.261710	-0.808471	-0.247710	-106.588945
7.850000	-0.401043	164.974623	-40.156799	-2.194983	-40.156799	-2.194983	-0.251259	-107.178352
7.900000	-0.405968	163.822536	-40.052852	-3.574011	-40.052852	-3.574011	-0.254853	-107.766852
7.950000	-0.410948	162.667044	-39.949818	-4.945195	-39.949818	-4.945195	-0.258495	-108.354458
8.000000	-0.415985	161.508036	-39.847642	-6.308150	-39.847642	-6.308150	-0.262183	-108.941182
8.050000	-0.421082	160.345400	-39.746266	-7.662451	-39.746266	-7.662451	-0.265919	-109.527038
8.100000	-0.426241	159.179018	-39.645625	-9.007639	-39.645625	-9.007639	-0.269703	-110.112037
8.150000	-0.431466	158.008774	-39.545649	-10.343209	-39.545649	-10.343209	-0.273536	-110.696192
8.200000	-0.436761	156.834547	-39.446259	-11.668609	-39.446259	-11.668609	-0.277417	-111.279517
8.250000	-0.442128	155.656214	-39.347368	-12.983233	-39.347368	-12.983233	-0.281349	-111.862024
8.300000	-0.447574	154.473648	-39.248880	-14.286411	-39.248880	-14.286411	-0.285330	-112.443724
8.350000	-0.453104	153.286719	-39.150686	-15.577406	-39.150686	-15.577406	-0.289363	-113.024631
8.400000	-0.458724	152.095290	-39.052665	-16.855401	-39.052665	-16.855401	-0.293447	-113.604757
8.450000	-0.464441	150.899221	-38.954676	-18.119489	-38.954676	-18.119489	-0.297584	-114.184113
8.500000	-0.470263	149.698362	-38.856562	-19.368661	-38.856562	-19.368661	-0.301773	-114.762712
8.550000	-0.476202	148.492557	-38.758140	-20.601790	-38.758140	-20.601790	-0.306016	-115.340563
8.600000	-0.482268	147.281641	-38.659200	-21.817617	-38.659200	-21.817617	-0.310314	-115.917678
8.650000	-0.488475	146.065436	-38.559498	-23.014728	-38.559498	-23.014728	-0.314668	-116.494066
8.700000	-0.494841	144.843751	-38.458748	-24.191534	-38.458748	-24.191534	-0.319078	-117.069737
8.750000	-0.501383	143.616377	-38.356611	-25.346244	-38.356611	-25.346244	-0.323546	-117.644697
8.800000	-0.508137	142.382817	-38.252533	-26.475676	-38.252533	-26.475676	-0.328076	-118.218925
8.850000	-0.515123	141.143064	-38.146133	-27.578460	-38.146133	-27.578460	-0.332667	-118.792453
8.900000	-0.522378	139.896828	-38.036813	-28.651953	-38.036813	-28.651953	-0.337320	-119.365285
8.950000	-0.529946	138.643785	-37.923849	-29.693159	-37.923849	-29.693159	-0.342038	-119.937419
9.000000	-0.537882	137.383563	-37.806346	-30.698684	-37.806346	-30.698684	-0.346823	-120.508850
9.050000	-0.546256	136.115731	-37.683194	-31.664700	-37.683194	-31.664700	-0.351677	-121.079568
9.100000	-0.555158	134.839787	-37.553003	-32.586919	-37.553003	-32.586919	-0.356604	-121.649553
9.150000	-0.564702	133.555139	-37.414009	-33.460598	-37.414009	-33.460598	-0.361607	-122.218779
9.200000	-0.574986	132.261674	-37.264905	-34.284013	-37.264905	-34.284013	-0.366685	-122.787254
9.250000	-0.586251	130.957928	-37.102035	-35.048199	-37.102035	-35.048199	-0.371850	-123.354866
9.300000	-0.598817	129.642553	-36.920831	-35.745959	-36.920831	-35.745959	-0.377108	-123.921503
9.350000	-0.613109	128.314152	-36.715479	-36.372345	-36.715479	-36.372345	-0.382468	-124.487022
9.400000	-0.629585	126.972039	-36.480620	-36.930219	-36.480620	-36.930219	-0.387930	-125.051303
9.450000	-0.649011	125.614688	-36.207327	-37.424302	-36.207327	-37.424302	-0.393499	-125.614089
9.500000	-0.672526	124.240584	-35.883560	-37.870721	-35.883560	-37.870721	-0.399178	-126.174998
9.550000	-0.701619	122.849295	-35.496300	-38.306328	-35.496300	-38.306328	-0.404956	-126.733558
9.600000	-0.739686	121.440005	-35.014623	-38.814283	-35.014623	-38.814283	-0.410809	-127.288621
9.650000	-0.791837	120.021013	-34.404216	-39.587856	-34.404216	-39.587856	-0.416627	-127.838632
9.700000	-0.864686	118.618710	-33.640972	-40.953025	-33.640972	-40.953025	-0.422155	-128.381813
9.750000	-0.970833	117.316250	-32.686366	-43.628359	-32.686366	-43.628359	-0.426696	-128.915080
9.800000	-1.118733	116.336838	-31.577864	-48.791507	-31.577864	-48.791507	-0.428692	-129.437927
9.850000	-1.274355	116.132066	-30.538150	-57.991587	-30.538150	-57.991587	-0.425521	-129.962668
9.900000	-1.286889	116.770286	-30.102016	-71.238843	-30.102016	-71.238843	-0.417263	-130.529208
9.950000	-1.082490	116.841231	-30.673311	-84.470299	-30.673311	-84.470299	-0.412351	-131.158082
10.000000	-0.860583	115.638746	-31.883839	-93.269446	-31.883839	-93.269446	-0.416164	-131.798429
