! freq	dB(S11)	phase(S11)	dB(S12)	phase(S12)	
!     	dB(S21)	phase(S21)	dB(S22)	phase(S22)	
!S-par simulation data
#  GHz  S  DB  R 50
0.000000	-79.763787	0.000000	-0.000893	0.000000	-0.000893	0.000000	-79.763787	0.000000
0.050000	-50.396216	-83.991766	-0.009769	-3.021713	-0.009769	-3.021713	-50.395743	-83.987231
0.100000	-44.275938	-90.485122	-0.014250	-6.022035	-0.014250	-6.022035	-44.275313	-90.474466
0.150000	-40.708183	-95.079578	-0.018597	-9.018914	-0.018597	-9.018914	-40.707371	-95.063924
0.200000	-38.222339	-99.057710	-0.023399	-12.008961	-0.023399	-12.008961	-38.221397	-99.037492
0.250000	-36.334847	-102.714821	-0.028421	-14.991799	-0.028421	-14.991799	-36.333812	-102.690071
0.300000	-34.829917	-106.188055	-0.033399	-17.968446	-0.033399	-17.968446	-34.828809	-106.158664
0.350000	-33.591411	-109.550851	-0.038176	-20.940534	-0.038176	-20.940534	-33.590240	-109.516666
0.400000	-32.552131	-112.838725	-0.042685	-23.909363	-0.042685	-23.909363	-32.550899	-112.799563
0.450000	-31.671220	-116.071576	-0.046903	-26.875983	-0.046903	-26.875983	-31.669928	-116.027218
0.500000	-30.916985	-119.265875	-0.050868	-29.841373	-0.050868	-29.841373	-30.915630	-119.216080
0.550000	-30.268988	-122.430196	-0.054611	-32.806150	-0.054611	-32.806150	-30.267568	-122.374691
0.600000	-29.714773	-125.569552	-0.058162	-35.770774	-0.058162	-35.770774	-29.713283	-125.508008
0.650000	-29.241527	-128.689272	-0.061561	-38.735601	-0.061561	-38.735601	-29.239963	-128.621320
0.700000	-28.840509	-131.792720	-0.064840	-41.700878	-0.064840	-41.700878	-28.838866	-131.717939
0.750000	-28.507101	-134.881978	-0.068018	-44.666826	-0.068018	-44.666826	-28.505373	-134.799868
0.800000	-28.236557	-137.959230	-0.071115	-47.633615	-0.071115	-47.633615	-28.234738	-137.869206
0.850000	-28.024916	-141.026424	-0.074149	-50.601385	-0.074149	-50.601385	-28.022998	-140.927812
0.900000	-27.869783	-144.085179	-0.077130	-53.570266	-0.077130	-53.570266	-27.867759	-143.977194
0.950000	-27.770045	-147.136972	-0.080069	-56.540395	-0.080069	-56.540395	-27.767905	-147.018682
1.000000	-27.725261	-150.183305	-0.082973	-59.511899	-0.082973	-59.511899	-27.722996	-150.053609
1.050000	-27.735847	-153.225724	-0.085850	-62.484908	-0.085850	-62.484908	-27.733443	-153.083310
1.100000	-27.803109	-156.265883	-0.088707	-65.459554	-0.088707	-65.459554	-27.800553	-156.109170
1.150000	-27.929329	-159.305604	-0.091550	-68.435968	-0.091550	-68.435968	-27.926603	-159.132678
1.200000	-28.117916	-162.346969	-0.094387	-71.414284	-0.094387	-71.414284	-28.115001	-162.155478
1.250000	-28.373640	-165.392426	-0.097227	-74.394636	-0.097227	-74.394636	-28.370511	-165.179449
1.300000	-28.704431	-168.445201	-0.100079	-77.377205	-0.100079	-77.377205	-28.701058	-168.206950
1.350000	-29.117723	-171.509060	-0.102954	-80.362078	-0.102954	-80.362078	-29.114069	-171.240735
1.400000	-29.625355	-174.589107	-0.105864	-83.349379	-0.105864	-83.349379	-29.621375	-174.284388
1.450000	-30.243521	-177.692439	-0.108821	-86.339229	-0.108821	-86.339229	-30.239160	-177.342778
1.500000	-30.994854	179.170537	-0.111842	-89.331741	-0.111842	-89.331741	-30.990046	179.577095
1.550000	-31.912006	175.983580	-0.114940	-92.327018	-0.114940	-92.327018	-31.906671	176.464463
1.600000	-33.044173	172.719376	-0.118135	-95.325155	-0.118135	-95.325155	-33.038230	173.301412
1.650000	-34.470101	169.327424	-0.121444	-98.326234	-0.121444	-98.326234	-34.463500	170.055047
1.700000	-36.327116	165.701637	-0.124887	-101.330324	-0.124887	-101.330324	-36.320007	166.656542
1.750000	-38.887824	161.572611	-0.128485	-104.337479	-0.128485	-104.337479	-38.881374	162.931389
1.800000	-42.825147	155.990244	-0.132257	-107.347739	-0.132257	-107.347739	-42.827535	158.262940
1.850000	-50.742602	141.284022	-0.136227	-110.361128	-0.136227	-110.361128	-50.900840	147.258431
1.900000	-53.443088	4.226700	-0.140418	-113.377684	-0.140418	-113.377684	-54.017984	-2.655773
1.950000	-43.294626	-18.615160	-0.144853	-116.397394	-0.144853	-116.397394	-43.376480	-21.372473
2.000000	-38.466298	-24.855892	-0.149551	-119.420193	-0.149551	-119.420193	-38.503618	-26.506053
2.050000	-35.266901	-29.184609	-0.154531	-122.446030	-0.154531	-122.446030	-35.290338	-30.378327
2.100000	-32.855920	-32.917726	-0.159815	-125.474836	-0.159815	-125.474836	-32.872881	-33.862951
2.150000	-30.913272	-36.390894	-0.165421	-128.506526	-0.165421	-128.506526	-30.926552	-37.180179
2.200000	-29.282803	-39.729192	-0.171365	-131.540994	-0.171365	-131.540994	-29.293730	-40.411761
2.250000	-27.876575	-42.989838	-0.177662	-134.578119	-0.177662	-134.578119	-27.885873	-43.594996
2.300000	-26.640147	-46.202643	-0.184326	-137.617766	-0.184326	-137.617766	-26.648252	-46.749266
2.350000	-25.537467	-49.384584	-0.191366	-140.659781	-0.191366	-140.659781	-25.544661	-49.885559
2.400000	-24.543556	-52.546098	-0.198785	-143.703979	-0.198785	-143.703979	-24.550031	-53.010558
2.450000	-23.639856	-55.693332	-0.206600	-146.750240	-0.206600	-146.750240	-23.645745	-56.128205
2.500000	-22.813021	-58.830808	-0.214804	-149.798342	-0.214804	-149.798342	-22.818424	-59.241280
2.550000	-22.052556	-61.961258	-0.223401	-152.848109	-0.223401	-152.848109	-22.057548	-62.351425
2.600000	-21.350343	-65.086604	-0.232379	-155.899322	-0.232379	-155.899322	-21.354980	-65.459704
2.650000	-20.699811	-68.208022	-0.241729	-158.951783	-0.241729	-158.951783	-20.704139	-68.566701
2.700000	-20.095622	-71.326241	-0.251438	-162.005290	-0.251438	-162.005290	-20.099676	-71.672697
2.750000	-19.533377	-74.441662	-0.261489	-165.059648	-0.261489	-165.059648	-19.537189	-74.777752
2.800000	-19.009408	-77.554457	-0.271860	-168.114666	-0.271860	-168.114666	-19.013001	-77.881771
2.850000	-18.520672	-80.664604	-0.282528	-171.170162	-0.282528	-171.170162	-18.524067	-80.984530
2.900000	-18.064513	-83.771992	-0.293463	-174.225962	-0.293463	-174.225962	-18.067728	-84.085746
2.950000	-17.638636	-86.876424	-0.304632	-177.281906	-0.304632	-177.281906	-17.641689	-87.185083
3.000000	-17.241066	-89.977646	-0.315998	179.662144	-0.315998	179.662144	-17.243970	-90.282179
3.050000	-16.870160	-93.075342	-0.327523	176.606312	-0.327523	176.606312	-16.872928	-93.376640
3.100000	-16.524167	-96.169307	-0.339164	173.550690	-0.339164	173.550690	-16.526813	-96.468170
3.150000	-16.201997	-99.259166	-0.350876	170.495360	-0.350876	170.495360	-16.204532	-99.556357
3.200000	-15.902463	-102.344656	-0.362612	167.440369	-0.362612	167.440369	-15.904897	-102.640891
3.250000	-15.624365	-105.425607	-0.374322	164.385734	-0.374322	164.385734	-15.626710	-105.721553
3.300000	-15.366729	-108.501850	-0.385954	161.331442	-0.385954	161.331442	-15.368997	-108.798147
3.350000	-15.128677	-111.573270	-0.397459	158.277450	-0.397459	158.277450	-15.130877	-111.870535
3.400000	-14.909414	-114.639816	-0.408782	155.223683	-0.408782	155.223683	-14.911557	-114.938648
3.450000	-14.708217	-117.701501	-0.419873	152.170030	-0.419873	152.170030	-14.710314	-118.002488
3.500000	-14.524432	-120.758409	-0.430678	149.116351	-0.430678	149.116351	-14.526493	-121.062132
3.550000	-14.357463	-123.810697	-0.441147	146.062467	-0.441147	146.062467	-14.359498	-124.117731
3.600000	-14.206769	-126.858591	-0.451229	143.008169	-0.451229	143.008169	-14.208789	-127.169518
3.650000	-14.071860	-129.902395	-0.460877	139.953214	-0.460877	139.953214	-14.073874	-130.217798
3.700000	-13.952291	-132.942480	-0.470045	136.897325	-0.470045	136.897325	-13.954310	-133.262954
3.750000	-13.847664	-135.979288	-0.478691	133.840195	-0.478691	133.840195	-13.849698	-136.305442
3.800000	-13.757911	-139.013284	-0.486761	130.781445	-0.486761	130.781445	-13.759970	-139.345757
3.850000	-13.682419	-142.045113	-0.494231	127.720735	-0.494231	127.720735	-13.684513	-142.384556
3.900000	-13.620902	-145.075411	-0.501071	124.657672	-0.501071	124.657672	-13.623041	-145.422498
3.950000	-13.573111	-148.104865	-0.507253	121.591843	-0.507253	121.591843	-13.575305	-148.460304
4.000000	-13.538831	-151.134209	-0.512756	118.522811	-0.512756	118.522811	-13.541090	-151.498744
4.050000	-13.517877	-154.164220	-0.517563	115.450122	-0.517563	115.450122	-13.520209	-154.538635
4.100000	-13.510094	-157.195708	-0.521664	112.373311	-0.521664	112.373311	-13.512510	-157.580834
4.150000	-13.515358	-160.229513	-0.525052	109.291899	-0.525052	109.291899	-13.517867	-160.626235
4.200000	-13.533568	-163.266496	-0.527729	106.205400	-0.527729	106.205400	-13.536180	-163.675755
4.250000	-13.564651	-166.307530	-0.529701	103.113326	-0.529701	103.113326	-13.567374	-166.730334
4.300000	-13.608553	-169.353498	-0.530981	100.015189	-0.530981	100.015189	-13.611397	-169.790928
4.350000	-13.665243	-172.405277	-0.531586	96.910503	-0.531586	96.910503	-13.668217	-172.858496
4.400000	-13.734837	-175.463824	-0.531536	93.798710	-0.531536	93.798710	-13.737951	-175.934096
4.450000	-13.817326	-178.530022	-0.530861	90.679331	-0.530861	90.679331	-13.820590	-179.018715
4.500000	-13.912583	178.395370	-0.529604	87.551993	-0.529604	87.551993	-13.916007	177.886793
4.550000	-14.020622	175.311551	-0.527806	84.416267	-0.527806	84.416267	-14.024216	174.781509
4.600000	-14.141455	172.217760	-0.525514	81.271748	-0.525514	81.271748	-14.145229	171.664540
4.650000	-14.275090	169.113276	-0.522777	78.118055	-0.522777	78.118055	-14.279056	168.535023
4.700000	-14.421523	165.997429	-0.519650	74.954835	-0.519650	74.954835	-14.425691	165.392132
4.750000	-14.580728	162.869602	-0.516189	71.781767	-0.516189	71.781767	-14.585111	162.235083
4.800000	-14.752652	159.729234	-0.512456	68.598561	-0.512456	68.598561	-14.757262	159.063133
4.850000	-14.937197	156.575825	-0.508511	65.404961	-0.508511	65.404961	-14.942047	155.875589
4.900000	-15.134216	153.408936	-0.504418	62.200746	-0.504418	62.200746	-15.139320	152.671801
4.950000	-15.343490	150.228186	-0.500241	58.985729	-0.500241	58.985729	-15.348862	149.451170
5.000000	-15.564718	147.033252	-0.496044	55.759755	-0.496044	55.759755	-15.570372	146.213141
5.050000	-15.797587	143.823542	-0.491891	52.522460	-0.491891	52.522460	-15.803539	142.956805
5.100000	-16.041408	140.599141	-0.487845	49.273994	-0.487845	49.273994	-16.047672	139.682071
5.150000	-16.295484	137.359853	-0.483964	46.014295	-0.483964	46.014295	-16.302075	136.388507
5.200000	-16.558934	134.105505	-0.480305	42.743325	-0.480305	42.743325	-16.565865	133.075708
5.250000	-16.830667	130.835921	-0.476921	39.461066	-0.476921	39.461066	-16.837950	129.743292
5.300000	-17.109343	127.550908	-0.473859	36.167513	-0.473859	36.167513	-17.116988	126.390895
5.350000	-17.393340	124.250228	-0.471166	32.862673	-0.471166	32.862673	-17.401354	123.018163
5.400000	-17.680718	120.933579	-0.468881	29.546556	-0.468881	29.546556	-17.689100	119.624753
5.450000	-17.969180	117.600563	-0.467040	26.219169	-0.467040	26.219169	-17.977926	116.210337
5.500000	-18.256043	114.250668	-0.465676	22.880511	-0.465676	22.880511	-18.265138	112.774604
5.550000	-18.538209	110.883246	-0.464814	19.530565	-0.464814	19.530565	-18.547627	109.317283
5.600000	-18.812153	107.497498	-0.464479	16.169292	-0.464479	16.169292	-18.821857	105.838162
5.650000	-19.073662	104.092256	-0.464697	12.796501	-0.464697	12.796501	-19.083596	102.336895
5.700000	-19.318261	100.666397	-0.465485	9.412086	-0.465485	9.412086	-19.328351	98.813523
5.750000	-19.541464	97.218951	-0.466854	6.016027	-0.466854	6.016027	-19.551621	95.268541
5.800000	-19.738313	93.748707	-0.468817	2.608137	-0.468817	2.608137	-19.748429	91.702474
5.850000	-19.903729	90.254516	-0.471391	-0.811823	-0.471391	-0.811823	-19.913678	88.116174
5.900000	-20.032677	86.735395	-0.474592	-4.244143	-0.474592	-4.244143	-20.042322	84.510865
5.950000	-20.120371	83.190647	-0.478440	-7.689168	-0.478440	-7.689168	-20.129567	80.888160
6.000000	-20.162499	79.619977	-0.482959	-11.147297	-0.482959	-11.147297	-20.171103	77.250037
6.050000	-20.155447	76.023580	-0.488180	-14.618986	-0.488180	-14.618986	-20.163326	73.598784
6.100000	-20.096514	72.402195	-0.494142	-18.104741	-0.494142	-18.104741	-20.103557	69.936879
6.150000	-19.984081	68.757104	-0.500893	-21.605121	-0.500893	-21.605121	-19.990202	66.266844
6.200000	-19.817712	65.090059	-0.508491	-25.120728	-0.508491	-25.120728	-19.822862	62.591076
6.250000	-19.598187	61.403169	-0.517010	-28.652201	-0.517010	-28.652201	-19.602354	58.911670
6.300000	-19.326181	57.698406	-0.526559	-32.200585	-0.526559	-32.200585	-19.329390	55.230258
6.350000	-19.005965	53.978507	-0.537222	-35.766224	-0.537222	-35.766224	-19.008276	51.547973
6.400000	-18.641417	50.245603	-0.549122	-39.349812	-0.549122	-39.349812	-18.642916	47.865270
6.450000	-18.237050	46.501516	-0.562397	-42.952035	-0.562397	-42.952035	-18.237842	44.182015
6.500000	-17.797789	42.747674	-0.577207	-46.573553	-0.577207	-46.573553	-17.797988	40.497551
6.550000	-17.328751	38.985068	-0.593733	-50.214984	-0.593733	-50.214984	-17.328475	36.810793
6.600000	-16.835061	35.214262	-0.612176	-53.876883	-0.612176	-53.876883	-16.834424	33.120342
6.650000	-16.321695	31.435436	-0.632758	-57.559724	-0.632758	-57.559724	-16.320802	29.424603
6.700000	-15.794365	27.648648	-0.655660	-61.263380	-0.655660	-61.263380	-15.793307	25.722106
6.750000	-15.254948	23.853052	-0.681291	-64.989318	-0.681291	-64.989318	-15.253808	22.010717
6.800000	-14.709010	20.048407	-0.709850	-68.736901	-0.709850	-68.736901	-14.707852	18.289129
6.850000	-14.160151	16.234146	-0.741636	-72.506042	-0.741636	-72.506042	-14.159029	14.555979
6.900000	-13.611575	12.409732	-0.776958	-76.296458	-0.776958	-76.296458	-13.610527	10.810138
6.950000	-13.066106	8.574732	-0.816139	-80.107647	-0.816139	-80.107647	-13.065161	7.050754
7.000000	-12.526214	4.728873	-0.859505	-83.938875	-0.859505	-83.938875	-12.525388	3.277283
7.050000	-11.994041	0.872103	-0.907388	-87.789154	-0.907388	-87.789154	-11.993345	-0.510485
7.100000	-11.471345	-2.995426	-0.960137	-91.657313	-0.960137	-91.657313	-11.470781	-4.312478
7.150000	-10.959673	-6.873256	-1.018101	-95.541873	-1.018101	-95.541873	-10.959236	-8.128246
7.200000	-10.460589	-10.760465	-1.081541	-99.440859	-1.081541	-99.440859	-10.460273	-11.956775
7.250000	-9.975233	-14.655914	-1.150741	-103.352196	-1.150741	-103.352196	-9.975026	-15.796829
7.300000	-9.504555	-18.558139	-1.225961	-107.273554	-1.225961	-107.273554	-9.504442	-19.646821
7.350000	-9.049334	-22.465357	-1.307427	-111.202360	-1.307427	-111.202360	-9.049300	-23.504830
7.400000	-8.610198	-26.375482	-1.395330	-115.135828	-1.395330	-115.135828	-8.610228	-27.368623
7.450000	-8.187636	-30.286152	-1.489818	-119.070980	-1.489818	-119.070980	-8.187713	-31.235684
7.500000	-7.782004	-34.194759	-1.590990	-123.004690	-1.590990	-123.004690	-7.782113	-35.103251
7.550000	-7.393556	-38.098370	-1.698976	-126.933598	-1.698976	-126.933598	-7.393681	-38.968273
7.600000	-7.022453	-41.994033	-1.813689	-130.854415	-1.813689	-130.854415	-7.022581	-42.827611
7.650000	-6.668712	-45.878658	-1.935070	-134.763812	-1.935070	-134.763812	-6.668831	-46.678033
7.700000	-6.332256	-49.749100	-2.063006	-138.658490	-2.063006	-138.658490	-6.332355	-50.516256
7.750000	-6.012916	-53.602215	-2.197330	-142.535221	-2.197330	-142.535221	-6.012986	-54.339005
7.800000	-5.710443	-57.434913	-2.337825	-146.390898	-2.337825	-146.390898	-5.710477	-58.143063
7.850000	-5.424513	-61.244209	-2.484225	-150.222575	-2.484225	-150.222575	-5.424505	-61.925326
7.900000	-5.154735	-65.027270	-2.636221	-154.027498	-2.636221	-154.027498	-5.154681	-65.682849
7.950000	-4.900741	-68.781158	-2.793479	-157.802835	-2.793479	-157.802835	-4.900639	-69.412597
8.000000	-4.661998	-72.503568	-2.955594	-161.546417	-2.955594	-161.546417	-4.661847	-73.112156
8.050000	-4.437924	-76.192509	-3.122138	-165.256393	-3.122138	-165.256393	-4.437724	-76.779434
8.100000	-4.227939	-79.846138	-3.292676	-168.931056	-3.292676	-168.931056	-4.227690	-80.412499
8.150000	-4.031439	-83.462910	-3.466754	-172.568989	-3.466754	-172.568989	-4.031144	-84.009721
8.200000	-3.847805	-87.041587	-3.643908	-176.169061	-3.643908	-176.169061	-3.847465	-87.569784
8.250000	-3.676407	-90.581236	-3.823664	-179.730427	-3.823664	-179.730427	-3.676024	-91.091682
8.300000	-3.516611	-94.081225	-4.005550	176.747484	-4.005550	176.747484	-3.516189	-94.574716
8.350000	-3.367827	-97.541021	-4.189080	173.265172	-4.189080	173.265172	-3.367368	-98.018291
8.400000	-3.229468	-100.960369	-4.373767	169.822886	-4.373767	169.822886	-3.228973	-101.422096
8.450000	-3.100843	-104.339860	-4.559176	166.420067	-4.559176	166.420067	-3.100315	-104.786662
8.500000	-2.981362	-107.679937	-4.744865	163.056329	-4.744865	163.056329	-2.980803	-108.112381
8.550000	-2.870454	-110.981255	-4.930404	159.731097	-4.930404	159.731097	-2.869864	-111.399862
8.600000	-2.767569	-114.244663	-5.115380	156.443627	-5.115380	156.443627	-2.766950	-114.649913
8.650000	-2.672186	-117.471179	-5.299397	153.193026	-5.299397	153.193026	-2.671537	-117.863511
8.700000	-2.583806	-120.661968	-5.482073	149.978268	-5.482073	149.978268	-2.583127	-121.041789
8.750000	-2.501959	-123.818321	-5.663047	146.798216	-5.663047	146.798216	-2.501248	-124.186002
8.800000	-2.426541	-126.939508	-5.841566	143.653805	-5.841566	143.653805	-2.425797	-127.295413
8.850000	-2.356319	-130.032090	-6.018253	140.538548	-6.018253	140.538548	-2.355541	-130.376504
8.900000	-2.291556	-133.093561	-6.192027	137.455197	-6.192027	137.455197	-2.290741	-133.426786
8.950000	-2.231698	-136.126710	-6.362828	134.401102	-6.362828	134.401102	-2.230844	-136.449013
9.000000	-2.176398	-139.133235	-6.530391	131.374719	-6.530391	131.374719	-2.175501	-139.444862
9.050000	-2.125344	-142.114784	-6.694453	128.374550	-6.694453	128.374550	-2.124400	-142.415962
9.100000	-2.078337	-145.072455	-6.854586	125.399666	-6.854586	125.399666	-2.077344	-145.363399
9.150000	-2.035037	-148.008376	-7.010666	122.448035	-7.010666	122.448035	-2.033991	-148.289282
9.200000	-1.995170	-150.924400	-7.162523	119.517887	-7.162523	119.517887	-1.994068	-151.195447
9.250000	-1.958510	-153.822162	-7.309944	116.607655	-7.309944	116.607655	-1.957348	-154.083516
9.300000	-1.924850	-156.703274	-7.452719	113.715769	-7.452719	113.715769	-1.923625	-156.955091
9.350000	-1.894001	-159.569321	-7.590652	110.840656	-7.590652	110.840656	-1.892710	-159.811745
9.400000	-1.865830	-162.421644	-7.723425	107.980977	-7.723425	107.980977	-1.864471	-162.654812
9.450000	-1.840173	-165.261825	-7.850852	105.135084	-7.850852	105.135084	-1.838743	-165.485863
9.500000	-1.816843	-168.091558	-7.972877	102.301143	-7.972877	102.301143	-1.815341	-168.306584
9.550000	-1.795710	-170.912258	-8.089324	99.477583	-8.089324	99.477583	-1.794135	-171.118381
9.600000	-1.776655	-173.725291	-8.200022	96.662828	-8.200022	96.662828	-1.775007	-173.922615
9.650000	-1.759572	-176.531969	-8.304803	93.855301	-8.304803	93.855301	-1.757851	-176.720590
9.700000	-1.744378	-179.333515	-8.403440	91.053453	-8.403440	91.053453	-1.742587	-179.513527
9.750000	-1.731015	177.868891	-8.495641	88.255694	-8.495641	88.255694	-1.729154	177.697402
9.800000	-1.719355	175.073989	-8.581434	85.460272	-8.581434	85.460272	-1.717430	174.910940
9.850000	-1.709330	172.280707	-8.660658	82.665561	-8.660658	82.665561	-1.707344	172.126021
9.900000	-1.700876	169.488038	-8.733153	79.869907	-8.733153	79.869907	-1.698836	169.341641
9.950000	-1.693937	166.695041	-8.798761	77.071629	-8.798761	77.071629	-1.691850	166.556863
10.000000	-1.688463	163.900844	-8.857323	74.269007	-8.857323	74.269007	-1.686337	163.770816
