! freq	dB(S11)	phase(S11)	dB(S12)	phase(S12)	
!     	dB(S21)	phase(S21)	dB(S22)	phase(S22)	
!S-par simulation data
#  GHz  S  DB  R 50
0.000000	0.000000	0.000000	-379.923348	0.000000	-379.923348	0.000000	-0.000000	0.000000
0.050000	-0.000102	-0.761419	-118.052419	87.175596	-118.052419	87.175596	-0.000102	-0.761552
0.100000	-0.000402	-1.522583	-112.331463	86.181786	-112.331463	86.181786	-0.000403	-1.522848
0.150000	-0.000893	-2.283239	-109.045450	85.835300	-109.045450	85.835300	-0.000894	-2.283634
0.200000	-0.001541	-3.043240	-106.752279	85.571822	-106.752279	85.571822	-0.001543	-3.043765
0.250000	-0.002328	-3.802424	-105.028162	85.306803	-105.028162	85.306803	-0.002332	-3.803075
0.300000	-0.003239	-4.560592	-103.695221	85.058633	-103.695221	85.058633	-0.003244	-4.561369
0.350000	-0.004230	-5.317849	-102.634633	84.859079	-102.634633	84.859079	-0.004236	-5.318750
0.400000	-0.005291	-6.074033	-101.803917	84.755636	-101.803917	84.755636	-0.005297	-6.075056
0.450000	-0.006393	-6.829241	-101.156112	84.785207	-101.156112	84.785207	-0.006400	-6.830387
0.500000	-0.007524	-7.583458	-100.673234	85.004968	-100.673234	85.004968	-0.007531	-7.584725
0.550000	-0.008668	-8.336729	-100.340091	85.480029	-100.340091	85.480029	-0.008675	-8.338117
0.600000	-0.009814	-9.089099	-100.148372	86.296963	-100.148372	86.296963	-0.009822	-9.090607
0.650000	-0.010957	-9.840611	-100.093743	87.573312	-100.093743	87.573312	-0.010965	-9.842240
0.700000	-0.012090	-10.591305	-100.173861	89.472810	-100.173861	89.472810	-0.012098	-10.593056
0.750000	-0.013210	-11.341218	-100.385326	92.227021	-100.385326	92.227021	-0.013218	-11.343090
0.800000	-0.014315	-12.090379	-100.717781	96.162654	-100.717781	96.162654	-0.014323	-12.092373
0.850000	-0.015403	-12.838690	-101.127631	102.166196	-101.127631	102.166196	-0.015411	-12.840806
0.900000	-0.016475	-13.586259	-101.553709	110.435363	-101.553709	110.435363	-0.016483	-13.588497
0.950000	-0.017539	-14.333465	-101.844692	119.950714	-101.844692	119.950714	-0.017548	-14.335826
1.000000	-0.018582	-15.079582	-101.675262	133.204613	-101.675262	133.204613	-0.018591	-15.082066
1.050000	-0.019622	-15.825459	-101.287163	146.313946	-101.287163	146.313946	-0.019630	-15.828064
1.100000	-0.020641	-16.570128	-99.924769	158.700440	-99.924769	158.700440	-0.020650	-16.572856
1.150000	-0.021659	-17.314675	-98.663902	170.647748	-98.663902	170.647748	-0.021668	-17.317525
1.200000	-0.022659	-18.057870	-96.793168	177.764016	-96.793168	177.764016	-0.022668	-18.060843
1.250000	-0.023660	-18.801066	-95.254814	-175.119717	-95.254814	-175.119717	-0.023669	-18.804160
1.300000	-0.024649	-19.543128	-93.587140	-171.041964	-93.587140	-171.041964	-0.024659	-19.546345
1.350000	-0.025633	-20.284450	-92.014384	-168.217373	-92.014384	-168.217373	-0.025642	-20.287788
1.400000	-0.026611	-21.025018	-90.540467	-166.306187	-90.540467	-166.306187	-0.026621	-21.028477
1.450000	-0.027585	-21.764816	-89.160327	-165.068629	-89.160327	-165.068629	-0.027595	-21.768396
1.500000	-0.028556	-22.503831	-87.865850	-164.336073	-87.865850	-164.336073	-0.028566	-22.507532
1.550000	-0.029523	-23.242047	-86.648414	-163.988857	-86.648414	-163.988857	-0.029534	-23.245868
1.600000	-0.030488	-23.979448	-85.499906	-163.940808	-85.499906	-163.940808	-0.030499	-23.983389
1.650000	-0.031451	-24.716019	-84.413062	-164.128837	-84.413062	-164.128837	-0.031462	-24.720079
1.700000	-0.032412	-25.451442	-83.358160	-164.555302	-83.358160	-164.555302	-0.032424	-25.455621
1.750000	-0.033372	-26.186418	-82.386703	-165.067470	-82.386703	-165.067470	-0.033384	-26.190716
1.800000	-0.034332	-26.920319	-81.445868	-165.722809	-81.445868	-165.722809	-0.034344	-26.924734
1.850000	-0.035291	-27.653450	-80.553811	-166.480413	-80.553811	-166.480413	-0.035303	-27.657984
1.900000	-0.036250	-28.385626	-79.695853	-167.322939	-79.695853	-167.322939	-0.036263	-28.390277
1.950000	-0.037209	-29.116845	-78.870488	-168.250386	-78.870488	-168.250386	-0.037222	-29.121614
2.000000	-0.038169	-29.847241	-78.081481	-169.228724	-78.081481	-169.228724	-0.038182	-29.852126
2.050000	-0.039129	-30.576482	-77.312941	-170.278309	-77.312941	-170.278309	-0.039143	-30.581484
2.100000	-0.040091	-31.305042	-76.582226	-171.358099	-76.582226	-171.358099	-0.040105	-31.310160
2.150000	-0.041054	-32.032240	-75.862745	-172.498300	-75.862745	-172.498300	-0.041069	-32.037474
2.200000	-0.042019	-32.758912	-75.182003	-173.655744	-75.182003	-173.655744	-0.042034	-32.764261
2.250000	-0.042986	-33.484005	-74.505374	-174.864918	-74.505374	-174.864918	-0.043001	-33.489469
2.300000	-0.043955	-34.208737	-73.867994	-176.083027	-73.867994	-176.083027	-0.043970	-34.214315
2.350000	-0.044927	-34.931663	-73.229180	-177.345819	-73.229180	-177.345819	-0.044943	-34.937356
2.400000	-0.045901	-35.654405	-72.629820	-178.612145	-72.629820	-178.612145	-0.045917	-35.660211
2.450000	-0.046881	-36.375106	-72.024675	-179.917357	-72.024675	-179.917357	-0.046897	-36.381026
2.500000	-0.047860	-37.095808	-71.458958	178.777431	-71.458958	178.777431	-0.047877	-37.101842
2.550000	-0.048848	-37.814229	-70.884025	177.438164	-70.884025	177.438164	-0.048865	-37.820375
2.600000	-0.049836	-38.532650	-70.344797	176.098897	-70.344797	176.098897	-0.049853	-38.538908
2.650000	-0.050832	-39.248930	-69.800679	174.734260	-69.800679	174.734260	-0.050850	-39.255300
2.700000	-0.051829	-39.965016	-69.285533	173.367318	-69.285533	173.367318	-0.051848	-39.971498
2.750000	-0.052836	-40.679112	-68.769097	171.981442	-68.769097	171.981442	-0.052854	-40.685705
2.800000	-0.053844	-41.392811	-68.275965	170.591780	-68.275965	170.591780	-0.053863	-41.399515
2.850000	-0.054861	-42.104682	-67.784551	169.188012	-67.784551	169.188012	-0.054880	-42.111496
2.900000	-0.055882	-42.815944	-67.311641	167.779542	-67.311641	167.779542	-0.055901	-42.822869
2.950000	-0.056912	-43.525551	-66.842964	166.360621	-66.842964	166.360621	-0.056932	-43.532585
3.000000	-0.057946	-44.234329	-66.388712	164.936476	-66.388712	164.936476	-0.057966	-44.241473
3.050000	-0.058990	-44.941633	-65.940799	163.504668	-65.940799	163.504668	-0.059010	-44.948886
3.100000	-0.060040	-45.647884	-65.503828	162.067387	-65.503828	162.067387	-0.060060	-45.655245
3.150000	-0.061098	-46.352849	-65.074960	160.624579	-65.074960	160.624579	-0.061119	-46.360319
3.200000	-0.062165	-47.056530	-64.654052	159.176246	-64.654052	159.176246	-0.062186	-47.064107
3.250000	-0.063240	-47.759123	-64.242723	157.724027	-64.242723	157.724027	-0.063261	-47.766808
3.300000	-0.064325	-48.460195	-63.836794	156.266368	-63.836794	156.266368	-0.064347	-48.467987
3.350000	-0.065417	-49.160384	-63.441673	154.806082	-63.441673	154.806082	-0.065440	-49.168283
3.400000	-0.066523	-49.858810	-63.049752	153.340542	-63.049752	153.340542	-0.066546	-49.866814
3.450000	-0.067634	-50.556565	-62.669662	151.873335	-62.669662	151.873335	-0.067657	-50.564676
3.500000	-0.068761	-51.252311	-62.290877	150.401131	-62.290877	150.401131	-0.068785	-51.260527
3.550000	-0.069893	-51.947604	-61.924766	148.927989	-61.924766	148.927989	-0.069916	-51.955926
3.600000	-0.071043	-52.640639	-61.558328	147.450156	-61.558328	147.450156	-0.071067	-52.649065
3.650000	-0.072196	-53.333445	-61.205256	145.971927	-61.205256	145.971927	-0.072220	-53.341976
3.700000	-0.073371	-54.023740	-60.850451	144.489351	-60.850451	144.489351	-0.073396	-54.032375
3.750000	-0.074547	-54.714034	-60.509572	143.006775	-60.509572	143.006775	-0.074572	-54.722773
3.800000	-0.075749	-55.401564	-60.165748	141.520217	-60.165748	141.520217	-0.075774	-55.410406
3.850000	-0.076951	-56.089094	-59.835018	140.033660	-59.835018	140.033660	-0.076977	-56.098039
3.900000	-0.078179	-56.774068	-59.502862	138.544060	-59.502862	138.544060	-0.078205	-56.783115
3.950000	-0.079409	-57.458809	-59.181754	137.054182	-59.181754	137.054182	-0.079435	-57.467959
4.000000	-0.080664	-58.141210	-58.860556	135.562017	-58.860556	135.562017	-0.080691	-58.150462
4.050000	-0.081924	-58.823144	-58.548587	134.069395	-58.548587	134.069395	-0.081951	-58.832497
4.100000	-0.083208	-59.502958	-58.237700	132.575091	-58.237700	132.575091	-0.083235	-59.512413
4.150000	-0.084499	-60.182066	-57.934424	131.080227	-57.934424	131.080227	-0.084527	-60.191622
4.200000	-0.085812	-60.859281	-57.633260	129.584163	-57.633260	129.584163	-0.085840	-60.868937
4.250000	-0.087137	-61.535549	-57.338265	128.087499	-57.338265	128.087499	-0.087165	-61.545305
4.300000	-0.088481	-62.210154	-57.046285	126.590014	-57.046285	126.590014	-0.088510	-62.220010
4.350000	-0.089840	-62.883571	-56.759188	125.091942	-56.759188	125.091942	-0.089869	-62.893526
4.400000	-0.091217	-63.555557	-56.475898	123.593339	-56.475898	123.593339	-0.091247	-63.565611
4.450000	-0.092613	-64.226114	-56.196347	122.094205	-56.196347	122.094205	-0.092643	-64.236266
4.500000	-0.094024	-64.895476	-55.921292	120.594757	-55.921292	120.594757	-0.094054	-64.905727
4.550000	-0.095457	-65.563165	-55.648956	119.094870	-55.648956	119.094870	-0.095488	-65.573514
4.600000	-0.096904	-66.229898	-55.381719	117.594824	-55.381719	117.594824	-0.096935	-66.240345
4.650000	-0.098377	-66.894718	-55.116289	116.094460	-55.116289	116.094460	-0.098408	-66.905262
4.700000	-0.099860	-67.558820	-54.856483	114.594039	-54.856483	114.594039	-0.099892	-67.569461
4.750000	-0.101374	-68.220769	-54.597674	113.093446	-54.597674	113.093446	-0.101406	-68.231507
4.800000	-0.102895	-68.882240	-54.344940	111.592852	-54.344940	111.592852	-0.102928	-68.893074
4.850000	-0.104452	-69.541319	-54.092483	110.092254	-54.092483	110.092254	-0.104485	-69.552250
4.900000	-0.106013	-70.200160	-53.846490	108.591672	-53.846490	108.591672	-0.106047	-70.211187
4.950000	-0.107615	-70.856375	-53.600134	107.091271	-53.600134	107.091271	-0.107649	-70.867497
5.000000	-0.109217	-71.512591	-53.360572	105.590869	-53.360572	105.590869	-0.109251	-71.523808
5.050000	-0.110864	-72.165948	-53.120080	104.090849	-53.120080	104.090849	-0.110899	-72.177260
5.100000	-0.112512	-72.819305	-52.886068	102.590829	-52.886068	102.590829	-0.112548	-72.830712
5.150000	-0.114204	-73.470052	-52.651815	101.091312	-52.651815	101.091312	-0.114240	-73.481553
5.200000	-0.115900	-74.120561	-52.423149	99.591840	-52.423149	99.591840	-0.115936	-74.132156
5.250000	-0.117637	-74.768707	-52.194860	98.092954	-52.194860	98.092954	-0.117674	-74.780396
5.300000	-0.119383	-75.416379	-51.971348	96.594186	-51.971348	96.594186	-0.119420	-75.428162
5.350000	-0.121167	-76.061935	-51.748768	95.096050	-51.748768	95.096050	-0.121204	-76.073812
5.400000	-0.122964	-76.706786	-51.530230	93.598125	-51.530230	93.598125	-0.123001	-76.718755
5.450000	-0.124796	-77.349766	-51.313120	92.100851	-51.313120	92.100851	-0.124834	-77.361829
5.500000	-0.126645	-77.991812	-51.099385	90.603901	-51.099385	90.603901	-0.126684	-78.003966
5.550000	-0.128527	-78.632231	-50.887521	89.107590	-50.887521	89.107590	-0.128566	-78.644478
5.600000	-0.130432	-79.271490	-50.678427	87.611737	-50.678427	87.611737	-0.130471	-79.283829
5.650000	-0.132364	-79.909365	-50.471598	86.116487	-50.471598	86.116487	-0.132404	-79.921797
5.700000	-0.134325	-80.545858	-50.266991	84.621843	-50.266991	84.621843	-0.134366	-80.558382
5.750000	-0.136310	-81.181209	-50.065000	83.127745	-50.065000	83.127745	-0.136351	-81.193824
5.800000	-0.138329	-81.814959	-49.864735	81.634414	-49.864735	81.634414	-0.138371	-81.827666
5.850000	-0.140368	-82.447804	-49.667395	80.141553	-49.667395	80.141553	-0.140410	-82.460602
5.900000	-0.142447	-83.078838	-49.471333	78.649634	-49.471333	78.649634	-0.142489	-83.091727
5.950000	-0.144541	-83.709200	-49.278469	77.158091	-49.278469	77.158091	-0.144584	-83.722179
6.000000	-0.146681	-84.337544	-49.086479	75.667677	-49.086479	75.667677	-0.146724	-84.350614
6.050000	-0.148832	-84.965445	-48.897926	74.177527	-48.897926	74.177527	-0.148876	-84.978606
6.100000	-0.151035	-85.591130	-48.709881	72.688702	-48.709881	72.688702	-0.151079	-85.604381
6.150000	-0.153244	-86.216595	-48.525483	71.200017	-48.525483	71.200017	-0.153289	-86.229937
6.200000	-0.155512	-86.839651	-48.341264	69.712864	-48.341264	69.712864	-0.155558	-86.853083
6.250000	-0.157781	-87.462707	-48.160871	68.225710	-48.160871	68.225710	-0.157827	-87.476229
6.300000	-0.160115	-88.083168	-47.980363	66.740304	-47.980363	66.740304	-0.160162	-88.096780
6.350000	-0.162450	-88.703629	-47.803530	65.254897	-47.803530	65.254897	-0.162497	-88.717331
6.400000	-0.164847	-89.321743	-47.626930	63.771157	-47.626930	63.771157	-0.164895	-89.335535
6.450000	-0.167251	-89.939644	-47.453555	62.287568	-47.453555	62.287568	-0.167299	-89.953525
6.500000	-0.169712	-90.555442	-47.280725	60.805549	-47.280725	60.805549	-0.169760	-90.569413
6.550000	-0.172185	-91.170820	-47.110709	59.323843	-47.110709	59.323843	-0.172234	-91.184880
6.600000	-0.174711	-91.784334	-46.941522	57.843595	-46.941522	57.843595	-0.174761	-91.798484
6.650000	-0.177256	-92.397228	-46.774771	56.363833	-46.774771	56.363833	-0.177306	-92.411467
6.700000	-0.179849	-93.008492	-46.609103	54.885404	-46.609103	54.885404	-0.179900	-93.022821
6.750000	-0.182467	-93.618942	-46.445525	53.407641	-46.445525	53.407641	-0.182519	-93.633360
6.800000	-0.185129	-94.227990	-46.283260	51.931074	-46.283260	51.931074	-0.185181	-94.242497
6.850000	-0.187821	-94.836038	-46.122769	50.455360	-46.122769	50.455360	-0.187874	-94.850634
6.900000	-0.190552	-95.442907	-45.963793	48.980694	-45.963793	48.980694	-0.190605	-95.457592
6.950000	-0.193322	-96.048596	-45.806305	47.507074	-45.806305	47.507074	-0.193375	-96.063371
7.000000	-0.196124	-96.653322	-45.650514	46.034343	-45.650514	46.034343	-0.196178	-96.668186
7.050000	-0.198971	-97.256699	-45.495945	44.562855	-45.495945	44.562855	-0.199026	-97.271652
7.100000	-0.201845	-97.859320	-45.343236	43.092090	-45.343236	43.092090	-0.201900	-97.874363
7.150000	-0.204772	-98.460431	-45.191510	41.622767	-45.191510	41.622767	-0.204828	-98.475563
7.200000	-0.207720	-99.060988	-45.041786	40.153991	-45.041786	40.153991	-0.207776	-99.076209
7.250000	-0.210728	-99.659881	-44.892825	38.686859	-44.892825	38.686859	-0.210785	-99.675191
7.300000	-0.213751	-100.258412	-44.745993	37.220094	-44.745993	37.220094	-0.213808	-100.273813
7.350000	-0.216842	-100.855138	-44.599724	35.755170	-44.599724	35.755170	-0.216900	-100.870627
7.400000	-0.219941	-101.451686	-44.455695	34.290432	-44.455695	34.290432	-0.219999	-101.467266
7.450000	-0.223116	-102.046295	-44.312046	32.827727	-44.312046	32.827727	-0.223175	-102.061964
7.500000	-0.226292	-102.640903	-44.170734	31.365023	-44.170734	31.365023	-0.226352	-102.656662
7.550000	-0.229553	-103.233448	-44.029637	29.904541	-44.029637	29.904541	-0.229614	-103.249296
7.600000	-0.232816	-103.825992	-43.890795	28.444059	-43.890795	28.444059	-0.232877	-103.841930
7.650000	-0.236157	-104.416694	-43.752347	26.985609	-43.752347	26.985609	-0.236219	-104.432722
7.700000	-0.239507	-105.007228	-43.615912	25.527343	-43.615912	25.527343	-0.239569	-105.023346
7.750000	-0.242929	-105.596133	-43.480035	24.070913	-43.480035	24.070913	-0.242993	-105.612342
7.800000	-0.246368	-106.184713	-43.345945	22.614849	-43.345945	22.614849	-0.246432	-106.201012
7.850000	-0.249873	-106.771869	-43.212560	21.160419	-43.212560	21.160419	-0.249938	-106.788259
7.900000	-0.253402	-107.358551	-43.080756	19.706533	-43.080756	19.706533	-0.253467	-107.375031
7.950000	-0.256991	-107.944005	-42.949792	18.254075	-42.949792	18.254075	-0.257056	-107.960577
8.000000	-0.260611	-108.528847	-42.820216	16.802332	-42.820216	16.802332	-0.260677	-108.545509
8.050000	-0.264285	-109.112650	-42.691601	15.351813	-42.691601	15.351813	-0.264352	-109.129403
8.100000	-0.267998	-109.695710	-42.564198	13.902168	-42.564198	13.902168	-0.268065	-109.712555
8.150000	-0.271758	-110.277911	-42.437865	12.453544	-42.437865	12.453544	-0.271826	-110.294848
8.200000	-0.275565	-110.859252	-42.312583	11.005941	-42.312583	11.005941	-0.275634	-110.876280
8.250000	-0.279412	-111.439902	-42.188467	9.559162	-42.188467	9.559162	-0.279482	-111.457022
8.300000	-0.283314	-112.019584	-42.065253	8.113534	-42.065253	8.113534	-0.283385	-112.036797
8.350000	-0.287249	-112.598735	-41.943293	6.668539	-41.943293	6.668539	-0.287320	-112.616040
8.400000	-0.291248	-113.176822	-41.822098	5.224807	-41.822098	5.224807	-0.291320	-113.194220
8.450000	-0.295273	-113.754527	-41.702236	3.781527	-41.702236	3.781527	-0.295345	-113.772018
8.500000	-0.299369	-114.331083	-41.583014	2.339602	-41.583014	2.339602	-0.299442	-114.348668
8.550000	-0.303484	-114.907396	-41.465193	0.897960	-41.465193	0.897960	-0.303557	-114.925074
8.600000	-0.307679	-115.482488	-41.347899	-0.542263	-41.347899	-0.542263	-0.307753	-115.500259
8.650000	-0.311884	-116.057463	-41.232066	-1.982353	-41.232066	-1.982353	-0.311959	-116.075328
8.700000	-0.316179	-116.631157	-41.116658	-3.420988	-41.116658	-3.420988	-0.316255	-116.649117
8.750000	-0.320477	-117.204850	-41.002763	-4.859623	-41.002763	-4.859623	-0.320553	-117.222905
8.800000	-0.324872	-117.777214	-40.889201	-6.296798	-40.889201	-6.296798	-0.324950	-117.795364
8.850000	-0.329270	-118.349578	-40.777105	-7.733972	-40.777105	-7.733972	-0.329348	-118.367823
8.900000	-0.333760	-118.920787	-40.665445	-9.169937	-40.665445	-9.169937	-0.333838	-118.939128
8.950000	-0.338259	-119.491891	-40.555112	-10.605791	-40.555112	-10.605791	-0.338339	-119.510328
9.000000	-0.342843	-120.062003	-40.445310	-12.040671	-40.445310	-12.040671	-0.342923	-120.080537
9.050000	-0.347445	-120.631918	-40.336710	-13.475356	-40.336710	-13.475356	-0.347525	-120.650548
9.100000	-0.352123	-121.200994	-40.228725	-14.909287	-40.228725	-14.909287	-0.352204	-121.219721
9.150000	-0.356829	-121.769791	-40.121827	-16.342968	-40.121827	-16.342968	-0.356910	-121.788616
9.200000	-0.361603	-122.337892	-40.015622	-17.776095	-40.015622	-17.776095	-0.361685	-122.356815
9.250000	-0.366412	-122.905645	-39.910401	-19.208945	-39.910401	-19.208945	-0.366495	-122.924666
9.300000	-0.371282	-123.472833	-39.805943	-20.641420	-39.805943	-20.641420	-0.371365	-123.491953
9.350000	-0.376195	-124.039617	-39.702376	-22.073627	-39.702376	-22.073627	-0.376279	-124.058837
9.400000	-0.381162	-124.605955	-39.599633	-23.505611	-39.599633	-23.505611	-0.381246	-124.625274
9.450000	-0.386180	-125.171847	-39.497701	-24.937371	-39.497701	-24.937371	-0.386265	-125.191266
9.500000	-0.391243	-125.737398	-39.396647	-26.369031	-39.396647	-26.369031	-0.391329	-125.756918
9.550000	-0.396367	-126.302475	-39.296334	-27.800550	-39.296334	-27.800550	-0.396454	-126.322095
9.600000	-0.401528	-126.867305	-39.196945	-29.232060	-39.196945	-29.232060	-0.401614	-126.887027
9.650000	-0.406757	-127.431645	-39.098240	-30.663553	-39.098240	-30.663553	-0.406844	-127.451469
9.700000	-0.412015	-127.995821	-39.000495	-32.095095	-39.000495	-32.095095	-0.412102	-128.015748
9.750000	-0.417350	-128.559505	-38.903392	-33.526784	-38.903392	-33.526784	-0.417438	-128.579535
9.800000	-0.422705	-129.123094	-38.807274	-34.958544	-38.807274	-34.958544	-0.422794	-129.143227
9.850000	-0.428147	-129.686204	-38.711769	-36.390657	-38.711769	-36.390657	-0.428236	-129.706442
9.900000	-0.433599	-130.249274	-38.617265	-37.822824	-38.617265	-37.822824	-0.433689	-130.269616
9.950000	-0.439146	-130.811894	-38.523361	-39.255594	-38.523361	-39.255594	-0.439236	-130.832341
10.000000	-0.444697	-131.374515	-38.430462	-40.688364	-38.430462	-40.688364	-0.444787	-131.395067
