! freq	dB(S11)	phase(S11)	dB(S12)	phase(S12)	
!     	dB(S21)	phase(S21)	dB(S22)	phase(S22)	
!S-par simulation data
#  GHz  S  DB  R 50
0.000000	-81.381015	0.000000	-0.000741	0.000000	-0.000741	0.000000	-81.381015	0.000000
0.050000	-74.255403	9.471909	-0.005434	-2.670868	-0.005434	-2.670868	-74.420212	8.949327
0.100000	-69.120765	-17.827624	-0.012267	-5.296778	-0.012267	-5.296778	-69.192968	-17.832735
0.150000	-65.898102	-39.117089	-0.016818	-7.904108	-0.016818	-7.904108	-65.891273	-38.830886
0.200000	-63.563706	-54.685956	-0.019915	-10.508770	-0.019915	-10.508770	-63.510843	-54.172429
0.250000	-61.742558	-66.391277	-0.022313	-13.114164	-0.022313	-13.114164	-61.663707	-65.673395
0.300000	-60.260333	-75.600650	-0.024443	-15.720660	-0.024443	-15.720660	-60.167178	-74.686924
0.350000	-59.016876	-83.429214	-0.026529	-18.327832	-0.026529	-18.327832	-58.916071	-82.321425
0.400000	-57.953922	-90.267973	-0.028652	-20.935408	-0.028652	-20.935408	-57.849920	-88.965207
0.450000	-57.032253	-96.431374	-0.030853	-23.543137	-0.030853	-23.543137	-56.928228	-94.930863
0.500000	-56.227109	-102.094782	-0.033158	-26.150835	-0.033158	-26.150835	-56.125798	-100.392045
0.550000	-55.516604	-107.437843	-0.035562	-28.758388	-0.035562	-28.758388	-55.420207	-105.527721
0.600000	-54.885038	-112.561408	-0.038057	-31.365750	-0.038057	-31.365750	-54.795533	-110.438279
0.650000	-54.320715	-117.531243	-0.040635	-33.972905	-0.040635	-33.972905	-54.240043	-115.189140
0.700000	-53.814238	-122.396386	-0.043286	-36.579866	-0.043286	-36.579866	-53.744376	-119.829229
0.750000	-53.357830	-127.193847	-0.046000	-39.186666	-0.046000	-39.186666	-53.300844	-124.395686
0.800000	-52.945350	-131.951192	-0.048768	-41.793355	-0.048768	-41.793355	-52.903519	-128.916376
0.850000	-52.572040	-136.690026	-0.051583	-44.399999	-0.051583	-44.399999	-52.548054	-133.413442
0.900000	-52.230644	-141.427143	-0.054433	-47.006681	-0.054433	-47.006681	-52.226992	-137.905360
0.950000	-51.916309	-146.171213	-0.057310	-49.613478	-0.057310	-49.613478	-51.935590	-142.402363
1.000000	-51.624478	-150.926346	-0.060208	-52.220472	-0.060208	-52.220472	-51.669359	-146.910520
1.050000	-51.350809	-155.692273	-0.063123	-54.827747	-0.063123	-54.827747	-51.423969	-151.431908
1.100000	-51.091136	-160.464447	-0.066050	-57.435389	-0.066050	-57.435389	-51.195177	-155.964665
1.150000	-50.841370	-165.232930	-0.068988	-60.043523	-0.068988	-60.043523	-50.979004	-160.502633
1.200000	-50.597096	-169.982441	-0.071932	-62.652230	-0.071932	-62.652230	-50.770544	-165.033807
1.250000	-50.354553	-174.695304	-0.074882	-65.261573	-0.074882	-65.261573	-50.565369	-169.543181
1.300000	-50.110289	-179.350234	-0.077837	-67.871633	-0.077837	-67.871633	-50.359400	-174.012250
1.350000	-49.861105	176.076927	-0.080796	-70.482489	-0.080796	-70.482489	-50.148670	-178.419191
1.400000	-49.604076	171.612463	-0.083760	-73.094215	-0.083760	-73.094215	-49.929374	177.260541
1.450000	-49.336420	167.284874	-0.086730	-75.706894	-0.086730	-75.706894	-49.697759	173.054265
1.500000	-49.053142	163.142007	-0.089707	-78.320709	-0.089707	-78.320709	-49.447637	169.007137
1.550000	-48.754216	159.194228	-0.092691	-80.935623	-0.092691	-80.935623	-49.177973	165.132520
1.600000	-48.437665	155.464851	-0.095686	-83.551700	-0.095686	-83.551700	-48.885883	161.454593
1.650000	-48.101618	151.973336	-0.098691	-86.169005	-0.098691	-86.169005	-48.568729	157.993831
1.700000	-47.745780	148.723675	-0.101710	-88.787542	-0.101710	-88.787542	-48.225849	154.755902
1.750000	-47.364076	145.754556	-0.104745	-91.407523	-0.104745	-91.407523	-47.850162	151.777830
1.800000	-46.956667	143.052835	-0.107798	-94.028932	-0.107798	-94.028932	-47.441974	149.047665
1.850000	-46.521790	140.612622	-0.110871	-96.651824	-0.110871	-96.651824	-46.999663	146.558993
1.900000	-46.057276	138.422885	-0.113967	-99.276270	-0.113967	-99.276270	-46.521403	144.299602
1.950000	-45.561793	136.462032	-0.117087	-101.902324	-0.117087	-101.902324	-46.006548	142.246797
2.000000	-45.035266	134.700144	-0.120235	-104.530019	-0.120235	-104.530019	-45.456023	140.370078
2.050000	-44.477726	133.105373	-0.123413	-107.159403	-0.123413	-107.159403	-44.870933	138.637410
2.100000	-43.889980	131.643044	-0.126622	-109.790523	-0.126622	-109.790523	-44.253230	137.014821
2.150000	-43.273629	130.277594	-0.129864	-112.423425	-0.129864	-112.423425	-43.605652	135.468455
2.200000	-42.631029	128.974463	-0.133143	-115.058152	-0.133143	-115.058152	-42.931598	133.966415
2.250000	-41.965167	127.701717	-0.136460	-117.694749	-0.136460	-117.694749	-42.234952	132.480184
2.300000	-41.279506	126.431270	-0.139817	-120.333258	-0.139817	-120.333258	-41.519881	130.985556
2.350000	-40.577790	125.139621	-0.143217	-122.973719	-0.143217	-122.973719	-40.790638	129.463053
2.400000	-39.863860	123.808132	-0.146661	-125.616174	-0.146661	-125.616174	-40.051382	127.897912
2.450000	-39.141489	122.422903	-0.150152	-128.260663	-0.150152	-128.260663	-39.306041	126.279733
2.500000	-38.414248	120.974355	-0.153691	-130.907226	-0.153691	-130.907226	-38.558211	124.601920
2.550000	-37.683475	119.454300	-0.157283	-133.555971	-0.157283	-133.555971	-37.809132	122.858939
2.600000	-36.954229	117.862259	-0.160928	-136.206869	-0.160928	-136.206869	-37.063763	121.051971
2.650000	-36.229069	116.198042	-0.164628	-138.859958	-0.164628	-138.859958	-36.324484	119.182057
2.700000	-35.510177	114.463164	-0.168386	-141.515276	-0.168386	-141.515276	-35.593277	117.251493
2.750000	-34.801954	112.663920	-0.172201	-144.172735	-0.172201	-144.172735	-34.874358	115.266404
2.800000	-34.101069	110.797110	-0.176081	-146.832591	-0.176081	-146.832591	-34.164179	113.224735
2.850000	-33.410916	108.869707	-0.180027	-149.494782	-0.180027	-149.494782	-33.465969	111.132894
2.900000	-32.732447	106.885885	-0.184041	-152.159342	-0.184041	-152.159342	-32.780518	108.994778
2.950000	-32.066398	104.849850	-0.188126	-154.826304	-0.188126	-154.826304	-32.108419	106.814196
3.000000	-31.413325	102.765706	-0.192286	-157.495698	-0.192286	-157.495698	-31.450100	104.594781
3.050000	-30.773631	100.637370	-0.196523	-160.167556	-0.196523	-160.167556	-30.805853	102.339938
3.100000	-30.147594	98.468521	-0.200842	-162.841905	-0.200842	-162.841905	-30.175862	100.052813
3.150000	-29.535088	96.262205	-0.205247	-165.518799	-0.205247	-165.518799	-29.559917	97.735994
3.200000	-28.936275	94.021652	-0.209741	-168.198263	-0.209741	-168.198263	-28.958110	95.392167
3.250000	-28.351515	91.750107	-0.214328	-170.880290	-0.214328	-170.880290	-28.370740	93.023990
3.300000	-27.780789	89.450149	-0.219012	-173.564898	-0.219012	-173.564898	-27.797736	90.633557
3.350000	-27.224043	87.124112	-0.223797	-176.252103	-0.223797	-176.252103	-27.238999	88.222746
3.400000	-26.681193	84.774099	-0.228687	-178.941916	-0.228687	-178.941916	-26.694408	85.793234
3.450000	-26.152139	82.402009	-0.233685	178.365654	-0.233685	178.365654	-26.163828	83.346518
3.500000	-25.636763	80.009552	-0.238797	175.670602	-0.238797	175.670602	-25.647117	80.883938
3.550000	-25.134945	77.598272	-0.244025	172.972927	-0.244025	172.972927	-25.144127	78.406689
3.600000	-24.646557	75.169564	-0.249373	170.272634	-0.249373	170.272634	-24.654712	75.915848
3.650000	-24.171472	72.724691	-0.254845	167.569729	-0.254845	167.569729	-24.178725	73.412380
3.700000	-23.709565	70.264801	-0.260442	164.864225	-0.260442	164.864225	-23.716027	70.897158
3.750000	-23.260714	67.790941	-0.266168	162.156137	-0.266168	162.156137	-23.266483	68.370975
3.800000	-22.824622	65.303806	-0.272027	159.445430	-0.272027	159.445430	-22.829785	65.834348
3.850000	-22.401415	62.804578	-0.278017	156.732184	-0.278017	156.732184	-22.406047	63.288174
3.900000	-21.990989	60.294068	-0.284138	154.016427	-0.284138	154.016427	-21.995157	60.733064
3.950000	-21.593250	57.773028	-0.290389	151.298190	-0.290389	151.298190	-21.597015	58.169584
4.000000	-21.208115	55.242163	-0.296769	148.577506	-0.296769	148.577506	-21.211528	55.598263
4.050000	-20.835509	52.702131	-0.303274	145.854413	-0.303274	145.854413	-20.838619	53.019599
4.100000	-20.475369	50.153553	-0.309900	143.128948	-0.309900	143.128948	-20.478217	50.434061
4.150000	-20.127643	47.597017	-0.316642	140.401150	-0.316642	140.401150	-20.130267	47.842095
4.200000	-19.792290	45.033078	-0.323491	137.671057	-0.323491	137.671057	-19.794725	45.244124
4.250000	-19.469282	42.462267	-0.330440	134.938707	-0.330440	134.938707	-19.471558	42.640551
4.300000	-19.158604	39.885087	-0.337478	132.204135	-0.337478	132.204135	-19.160748	40.031762
4.350000	-18.860252	37.302020	-0.344592	129.467374	-0.344592	129.467374	-18.862291	37.418126
4.400000	-18.574276	34.713471	-0.351769	126.728429	-0.351769	126.728429	-18.576232	34.799950
4.450000	-18.300730	32.119894	-0.358992	123.987321	-0.358992	123.987321	-18.302625	32.177581
4.500000	-18.039628	29.521768	-0.366243	121.244087	-0.366243	121.244087	-18.041483	29.551387
4.550000	-17.791030	26.919492	-0.373502	118.498730	-0.373502	118.498730	-17.792863	26.921674
4.600000	-17.555013	24.313450	-0.380746	115.751244	-0.380746	115.751244	-17.556842	24.288730
4.650000	-17.331674	21.704006	-0.387953	113.001608	-0.387953	113.001608	-17.333516	21.652827
4.700000	-17.121134	19.091511	-0.395096	110.249787	-0.395096	110.249787	-17.123006	19.014225
4.750000	-16.923535	16.476298	-0.402149	107.495727	-0.402149	107.495727	-16.925454	16.373165
4.800000	-16.739049	13.858688	-0.409082	104.739358	-0.409082	104.739358	-16.741031	13.729874
4.850000	-16.567876	11.238987	-0.415865	101.980587	-0.415865	101.980587	-16.569938	11.084567
4.900000	-16.410247	8.617492	-0.422466	99.219299	-0.422466	99.219299	-16.412406	8.437443
4.950000	-16.266431	5.994493	-0.428853	96.455352	-0.428853	96.455352	-16.268705	5.788690
5.000000	-16.136737	3.370274	-0.434992	93.688581	-0.434992	93.688581	-16.139145	3.138488
5.050000	-16.021817	0.745104	-0.440841	90.918715	-0.440841	90.918715	-16.024379	0.486985
5.100000	-15.921817	-1.880700	-0.446372	88.145586	-0.446372	88.145586	-15.924556	-2.165619
5.150000	-15.837203	-4.506834	-0.451550	85.368929	-0.451550	85.368929	-15.840143	-4.819149
5.200000	-15.768507	-7.132974	-0.456343	82.588445	-0.456343	82.588445	-15.771675	-7.473425
5.250000	-15.716338	-9.758761	-0.460716	79.803798	-0.460716	79.803798	-15.719763	-10.128245
5.300000	-15.681389	-12.383792	-0.464640	77.014613	-0.464640	77.014613	-15.685104	-12.783380
5.350000	-15.664456	-15.007593	-0.468084	74.220476	-0.468084	74.220476	-15.668499	-15.438557
5.400000	-15.666447	-17.629608	-0.471024	71.420930	-0.471024	71.420930	-15.670861	-18.093444
5.450000	-15.688407	-20.249161	-0.473435	68.615479	-0.473435	68.615479	-15.693243	-20.747624
5.500000	-15.731537	-22.865423	-0.475299	65.803583	-0.475299	65.803583	-15.736854	-23.400570
5.550000	-15.797224	-25.477367	-0.476601	62.984658	-0.476601	62.984658	-15.803091	-26.051604
5.600000	-15.887075	-28.083703	-0.477333	60.158077	-0.477333	60.158077	-15.893572	-28.699852
5.650000	-16.003173	-30.682724	-0.477487	57.323099	-0.477487	57.323099	-16.010401	-31.344135
5.700000	-16.147745	-33.272281	-0.477068	54.478992	-0.477068	54.478992	-16.155824	-33.982923
5.750000	-16.323166	-35.849729	-0.476093	51.625072	-0.476093	51.625072	-16.332245	-36.614281
5.800000	-16.532494	-38.411565	-0.474585	48.760546	-0.474585	48.760546	-16.542756	-39.235618
5.850000	-16.779377	-40.953209	-0.472576	45.884588	-0.472576	45.884588	-16.791054	-41.843499
5.900000	-17.068212	-43.468620	-0.470108	42.996337	-0.470108	42.996337	-17.081603	-44.433332
5.950000	-17.404461	-45.949611	-0.467236	40.094865	-0.467236	40.094865	-17.419953	-46.998842
6.000000	-17.794976	-48.384811	-0.464028	37.179171	-0.464028	37.179171	-17.813092	-49.531229
6.050000	-18.247731	-50.759282	-0.460570	34.248431	-0.460570	34.248431	-18.269178	-52.018809
6.100000	-18.773230	-53.051605	-0.456960	31.301703	-0.456960	31.301703	-18.798997	-54.444737
6.150000	-19.385079	-55.230860	-0.453313	28.338046	-0.453313	28.338046	-19.416597	-56.784538
6.200000	-20.101302	-57.251011	-0.449760	25.356523	-0.449760	25.356523	-20.140716	-59.001528
6.250000	-20.946419	-59.040877	-0.446451	22.356215	-0.446451	22.356215	-20.997099	-61.038572
6.300000	-21.955605	-60.479101	-0.443562	19.336011	-0.443562	19.336011	-22.023201	-62.797448
6.350000	-23.178261	-61.364509	-0.441279	16.295270	-0.441279	16.295270	-23.272866	-64.113045
6.400000	-24.689926	-61.314091	-0.439811	13.233207	-0.439811	13.233207	-24.831463	-64.665106
6.450000	-26.607827	-59.526663	-0.439388	10.149112	-0.439388	10.149112	-26.841014	-63.760990
6.500000	-29.104641	-54.083055	-0.440259	7.042366	-0.440259	7.042366	-29.548463	-59.626678
6.550000	-32.277507	-39.762352	-0.442694	3.912464	-0.442694	3.912464	-33.302103	-46.596114
6.600000	-34.693795	-5.828242	-0.447001	0.758833	-0.447001	0.758833	-36.778826	-7.145398
6.650000	-32.691171	32.608190	-0.453480	-2.418623	-0.453480	-2.418623	-33.941443	39.532117
6.700000	-29.000713	50.814126	-0.462451	-5.619888	-0.462451	-5.619888	-29.510223	56.907831
6.750000	-25.889244	57.689073	-0.474254	-8.844814	-0.474254	-8.844814	-26.138396	62.318902
6.800000	-23.403848	59.981949	-0.489240	-12.093044	-0.489240	-12.093044	-23.546706	63.615588
6.850000	-21.364842	60.159014	-0.507766	-15.363986	-0.507766	-15.363986	-21.455951	63.124171
6.900000	-19.641851	59.205819	-0.530222	-18.656912	-0.530222	-18.656912	-19.704351	61.701939
6.950000	-18.151467	57.584493	-0.556978	-21.970696	-0.556978	-21.970696	-18.196626	59.735910
7.000000	-16.839207	55.535868	-0.588374	-25.303833	-0.588374	-25.303833	-16.873113	57.423817
7.050000	-15.667786	53.194897	-0.624759	-28.654655	-0.624759	-28.654655	-15.694005	54.875305
7.100000	-14.610968	50.644813	-0.666471	-32.021217	-0.666471	-32.021217	-14.631717	52.157653
7.150000	-13.649683	47.940099	-0.713823	-35.401294	-0.713823	-35.401294	-13.666411	49.314859
7.200000	-12.769648	45.118078	-0.767118	-38.792419	-0.767118	-38.792419	-12.783341	46.377145
7.250000	-11.959942	42.205681	-0.826646	-42.191854	-0.826646	-42.191854	-11.971293	43.366459
7.300000	-11.212140	39.224134	-0.892574	-45.596539	-0.892574	-45.596539	-11.221647	40.300249
7.350000	-10.519417	36.189344	-0.965073	-49.003306	-0.965073	-49.003306	-10.527450	37.191756
7.400000	-9.876229	33.114226	-1.044267	-52.408831	-1.044267	-52.408831	-9.883067	34.051880
7.450000	-9.277997	30.009575	-1.130227	-55.809668	-1.130227	-55.809668	-9.283854	30.889865
7.500000	-8.720874	26.884644	-1.222970	-59.202299	-1.222970	-59.202299	-8.725918	27.713750
7.550000	-8.201647	23.747463	-1.322518	-62.583009	-1.322518	-62.583009	-8.206011	24.530653
7.600000	-7.717438	20.605395	-1.428711	-65.948358	-1.428711	-65.948358	-7.721228	21.347101
7.650000	-7.265746	17.464830	-1.541398	-69.294888	-1.541398	-69.294888	-7.269048	18.168864
7.700000	-6.844343	14.331526	-1.660376	-72.619254	-1.660376	-72.619254	-6.847227	15.001187
7.750000	-6.451223	11.210674	-1.785391	-75.918268	-1.785391	-75.918268	-6.453750	11.848838
7.800000	-6.084562	8.106949	-1.916144	-79.188934	-1.916144	-79.188934	-6.086778	8.716138
7.850000	-5.742767	5.024747	-2.052317	-82.428206	-2.052317	-82.428206	-5.744715	5.607202
7.900000	-5.424231	1.967727	-2.193506	-85.633704	-2.193506	-85.633704	-5.425945	2.525420
7.950000	-5.127473	-1.060896	-2.339296	-88.803276	-2.339296	-88.803276	-5.128981	-0.526213
8.000000	-4.851131	-4.058272	-2.489252	-91.934971	-2.489252	-91.934971	-4.852459	-3.545030
8.050000	-4.594016	-7.021664	-2.642927	-95.026797	-2.642927	-95.026797	-4.595187	-6.528447
8.100000	-4.354689	-9.949803	-2.799846	-98.078284	-2.799846	-98.078284	-4.355720	-9.475356
8.150000	-4.132278	-12.840116	-2.959543	-101.087348	-2.959543	-101.087348	-4.133185	-12.383279
8.200000	-3.925702	-15.691236	-3.121524	-104.053181	-3.121524	-104.053181	-3.926500	-15.250956
8.250000	-3.733834	-18.502584	-3.285316	-106.975735	-3.285316	-106.975735	-3.734535	-18.077916
8.300000	-3.555720	-21.273483	-3.450453	-109.854761	-3.450453	-109.854761	-3.556334	-20.863562
8.350000	-3.390723	-24.002345	-3.616395	-112.688994	-3.616395	-112.688994	-3.391261	-23.606359
8.400000	-3.237074	-26.693234	-3.782988	-115.483083	-3.782988	-115.483083	-3.237543	-26.310511
8.450000	-3.095357	-29.339867	-3.949326	-118.230730	-3.949326	-118.230730	-3.095765	-28.969682
8.500000	-2.963668	-31.948053	-4.115439	-120.938298	-4.115439	-120.938298	-2.964021	-31.589826
8.550000	-2.841945	-34.515157	-4.280642	-123.603290	-4.280642	-123.603290	-2.842250	-34.168306
8.600000	-2.729385	-37.042597	-4.444626	-126.227396	-4.444626	-126.227396	-2.729646	-36.706594
8.650000	-2.625103	-39.532667	-4.607205	-128.813179	-4.607205	-128.813179	-2.625325	-39.207041
8.700000	-2.529203	-41.982599	-4.767563	-131.357997	-4.767563	-131.357997	-2.529391	-41.666871
8.750000	-2.440147	-44.399146	-4.926158	-133.868901	-4.926158	-133.868901	-2.440304	-44.092933
8.800000	-2.358772	-46.775769	-5.081547	-136.339440	-5.081547	-136.339440	-2.358902	-46.478633
8.850000	-2.283352	-49.121140	-5.234594	-138.778531	-5.234594	-138.778531	-2.283459	-48.832750
8.900000	-2.214353	-51.431257	-5.384150	-141.182316	-5.384150	-141.182316	-2.214439	-51.151252
8.950000	-2.150873	-53.710574	-5.530511	-143.555407	-5.530511	-143.555407	-2.150941	-53.438644
9.000000	-2.092760	-55.959217	-5.673201	-145.898097	-5.673201	-145.898097	-2.092813	-55.695064
9.050000	-2.039782	-58.177986	-5.811860	-148.211348	-5.811860	-148.211348	-2.039823	-57.921322
9.100000	-1.991297	-60.370464	-5.946750	-150.498858	-5.946750	-150.498858	-1.991327	-60.121040
9.150000	-1.947618	-62.534430	-6.076800	-152.758656	-6.076800	-152.758656	-1.947640	-62.291977
9.200000	-1.907785	-64.675764	-6.202917	-154.996643	-6.202917	-154.996643	-1.907800	-64.440070
9.250000	-1.872333	-66.791254	-6.323662	-157.209969	-6.323662	-157.209969	-1.872345	-66.562078
9.300000	-1.840408	-68.886332	-6.439974	-159.404048	-6.439974	-159.404048	-1.840418	-68.663480
9.350000	-1.812251	-70.959952	-6.550918	-161.578178	-6.550918	-161.578178	-1.812262	-70.743219
9.400000	-1.787504	-73.014716	-6.656698	-163.735077	-6.656698	-163.735077	-1.787517	-72.803917
9.450000	-1.766029	-75.052061	-6.757147	-165.876406	-6.757147	-165.876406	-1.766046	-74.847021
9.500000	-1.747890	-77.072450	-6.851712	-168.002991	-6.851712	-168.002991	-1.747912	-76.872994
9.550000	-1.732624	-79.079101	-6.941008	-170.118055	-6.941008	-170.118055	-1.732653	-78.885078
9.600000	-1.720668	-81.071033	-7.023700	-172.221371	-7.023700	-172.221371	-1.720706	-80.882275
9.650000	-1.711379	-83.052147	-7.100941	-174.316626	-7.100941	-174.316626	-1.711427	-82.868518
9.700000	-1.705206	-85.021917	-7.171383	-176.404238	-7.171383	-176.404238	-1.705267	-84.843266
9.750000	-1.701723	-86.983115	-7.235797	-178.486921	-7.235797	-178.486921	-1.701797	-86.809311
9.800000	-1.701124	-88.936507	-7.293489	179.433764	-7.293489	179.433764	-1.701212	-88.767415
9.850000	-1.703344	-90.883653	-7.344432	177.355798	-7.344432	177.355798	-1.703448	-90.719145
9.900000	-1.708281	-92.826179	-7.388741	175.277140	-7.388741	175.277140	-1.708401	-92.666136
9.950000	-1.716226	-94.765129	-7.425554	173.195472	-7.425554	173.195472	-1.716363	-94.609422
10.000000	-1.726773	-96.702303	-7.455836	171.109237	-7.455836	171.109237	-1.726928	-96.550825
