! freq	dB(S11)	phase(S11)	dB(S12)	phase(S12)	
!     	dB(S21)	phase(S21)	dB(S22)	phase(S22)	
!S-par simulation data
#  GHz  S  DB  R 50
0.000000	-83.178900	0.000000	-0.000602	0.000000	-0.000602	0.000000	-83.178900	0.000000
0.050000	-41.137222	-92.598023	-0.004445	-2.801470	-0.004445	-2.801470	-41.102281	-91.300211
0.100000	-35.168405	-96.102437	-0.011352	-5.570734	-0.011352	-5.570734	-35.149936	-93.716042
0.150000	-31.694730	-99.607766	-0.017793	-8.322817	-0.017793	-8.322817	-31.676639	-96.128546
0.200000	-29.235818	-103.120252	-0.023905	-11.070166	-0.023905	-11.070166	-29.215141	-98.508641
0.250000	-27.334703	-106.613711	-0.030191	-13.815843	-0.030191	-13.815843	-27.312329	-100.847197
0.300000	-25.788529	-110.079756	-0.036945	-16.560175	-0.036945	-16.560175	-25.765717	-103.151069
0.350000	-24.488990	-113.519817	-0.044235	-19.302777	-0.044235	-19.302777	-24.466481	-105.427283
0.400000	-23.371665	-116.936510	-0.052064	-22.043195	-0.052064	-22.043195	-23.349794	-107.680104
0.450000	-22.396156	-120.331629	-0.060435	-24.780817	-0.060435	-24.780817	-22.375001	-109.911404
0.500000	-21.532760	-123.710155	-0.069248	-27.515594	-0.069248	-27.515594	-21.512245	-112.125513
0.550000	-20.760874	-127.075036	-0.078442	-30.247445	-0.078442	-30.247445	-20.740887	-114.324605
0.600000	-20.065644	-130.428585	-0.087967	-32.976297	-0.087967	-32.976297	-20.046086	-116.510122
0.650000	-19.436224	-133.772864	-0.097777	-35.702085	-0.097777	-35.702085	-19.417031	-118.683088
0.700000	-18.862585	-137.110530	-0.107805	-38.425149	-0.107805	-38.425149	-18.843740	-120.845601
0.750000	-18.337588	-140.443195	-0.118014	-41.145647	-0.118014	-41.145647	-18.319116	-122.998622
0.800000	-17.856196	-143.772143	-0.128376	-43.863637	-0.128376	-43.863637	-17.838161	-125.142552
0.850000	-17.413416	-147.098767	-0.138859	-46.579368	-0.138859	-46.579368	-17.395907	-127.278317
0.900000	-17.005168	-150.424113	-0.149438	-49.293046	-0.149438	-49.293046	-16.988288	-129.406592
0.950000	-16.628279	-153.749012	-0.160091	-52.004822	-0.160091	-52.004822	-16.612140	-131.527803
1.000000	-16.280001	-157.074141	-0.170798	-54.714839	-0.170798	-54.714839	-16.264716	-133.642345
1.050000	-15.957993	-160.400033	-0.181536	-57.423223	-0.181536	-57.423223	-15.943673	-135.750557
1.100000	-15.660245	-163.727104	-0.192282	-60.130084	-0.192282	-60.130084	-15.646994	-137.852740
1.150000	-15.385016	-167.055665	-0.203008	-62.835530	-0.203008	-62.835530	-15.372929	-139.949177
1.200000	-15.130787	-170.385946	-0.213684	-65.539667	-0.213684	-65.539667	-15.119956	-142.040147
1.250000	-14.896228	-173.718107	-0.224272	-68.242617	-0.224272	-68.242617	-14.886736	-144.125939
1.300000	-14.680439	-177.052295	-0.234730	-70.944504	-0.234730	-70.944504	-14.672366	-146.206772
1.350000	-14.482099	179.611478	-0.245016	-73.645531	-0.245016	-73.645531	-14.475521	-148.283109
1.400000	-14.300286	176.273200	-0.255087	-76.345910	-0.255087	-76.345910	-14.295276	-150.355351
1.450000	-14.134174	172.932895	-0.264897	-79.045897	-0.264897	-79.045897	-14.130806	-152.423954
1.500000	-13.983026	169.590622	-0.274400	-81.745792	-0.274400	-81.745792	-13.981376	-154.489438
1.550000	-13.846185	166.246475	-0.283554	-84.445933	-0.283554	-84.445933	-13.846332	-156.552397
1.600000	-13.723059	162.900589	-0.292319	-87.146701	-0.292319	-87.146701	-13.725089	-158.613507
1.650000	-13.613125	159.553141	-0.300660	-89.848509	-0.300660	-89.848509	-13.617127	-160.673531
1.700000	-13.515911	156.204358	-0.308545	-92.551797	-0.308545	-92.551797	-13.521986	-162.733329
1.750000	-13.431004	152.854525	-0.315949	-95.257030	-0.315949	-95.257030	-13.439261	-164.793868
1.800000	-13.358038	149.503997	-0.322852	-97.964685	-0.322852	-97.964685	-13.368595	-166.856224
1.850000	-13.296693	146.153208	-0.329239	-100.675251	-0.329239	-100.675251	-13.309682	-168.921598
1.900000	-13.246812	142.802693	-0.335093	-103.389264	-0.335093	-103.389264	-13.262381	-170.991384
1.950000	-13.208159	139.453112	-0.340411	-106.107232	-0.340411	-106.107232	-13.226472	-173.067113
2.000000	-13.180424	136.105227	-0.345197	-108.829610	-0.345197	-108.829610	-13.201659	-175.150378
2.050000	-13.163455	132.759948	-0.349452	-111.556883	-0.349452	-111.556883	-13.187812	-177.242989
2.100000	-13.157142	129.418348	-0.353184	-114.289530	-0.353184	-114.289530	-13.184843	-179.346944
2.150000	-13.161412	126.081684	-0.356401	-117.028026	-0.356401	-117.028026	-13.192703	178.535557
2.200000	-13.176231	122.751428	-0.359113	-119.772841	-0.359113	-119.772841	-13.211388	176.402083
2.250000	-13.201604	119.429290	-0.361332	-122.524439	-0.361332	-122.524439	-13.240939	174.249953
2.300000	-13.237578	116.117254	-0.363072	-125.283285	-0.363072	-125.283285	-13.281436	172.076201
2.350000	-13.284238	112.817615	-0.364348	-128.049841	-0.364348	-128.049841	-13.333010	169.877546
2.400000	-13.341711	109.533023	-0.365177	-130.824574	-0.365177	-130.824574	-13.395836	167.650343
2.450000	-13.410165	106.266531	-0.365574	-133.607954	-0.365574	-133.607954	-13.470139	165.390538
2.500000	-13.489813	103.021652	-0.365559	-136.400458	-0.365559	-136.400458	-13.556194	163.093608
2.550000	-13.581140	99.803098	-0.365143	-139.202793	-0.365143	-139.202793	-13.654573	160.753440
2.600000	-13.684217	96.615104	-0.364354	-142.015261	-0.364354	-142.015261	-13.765422	158.365099
2.650000	-13.799386	93.463091	-0.363216	-144.838377	-0.363216	-144.838377	-13.889180	155.922108
2.700000	-13.927031	90.353309	-0.361753	-147.672670	-0.361753	-147.672670	-14.026345	153.417123
2.750000	-14.067575	87.292976	-0.359989	-150.518689	-0.359989	-150.518689	-14.177471	150.841783
2.800000	-14.221474	84.290447	-0.357953	-153.377005	-0.357953	-153.377005	-14.343167	148.186524
2.850000	-14.389210	81.355400	-0.355676	-156.248211	-0.355676	-156.248211	-14.524094	145.440356
2.900000	-14.571276	78.499081	-0.353193	-159.132922	-0.353193	-159.132922	-14.720951	142.590583
2.950000	-14.768154	75.734574	-0.350541	-162.031781	-0.350541	-162.031781	-14.934466	139.622480
3.000000	-14.980288	73.077134	-0.347763	-164.945457	-0.347763	-164.945457	-15.165368	136.518882
3.050000	-15.208035	70.544567	-0.344906	-167.874646	-0.344906	-167.874646	-15.414345	133.259701
3.100000	-15.451599	68.157668	-0.342023	-170.820075	-0.342023	-170.820075	-15.681989	129.821349
3.150000	-15.711019	65.942869	-0.339174	-173.782693	-0.339174	-173.782693	-15.968797	126.173441
3.200000	-15.985806	63.929541	-0.336428	-176.763310	-0.336428	-176.763310	-16.274781	122.281938
3.250000	-16.274827	62.148865	-0.333859	-179.762558	-0.333859	-179.762558	-16.599316	118.110153
3.300000	-16.576189	60.638647	-0.331552	177.218719	-0.331552	177.218719	-16.941037	113.612554
3.350000	-16.886789	59.441392	-0.329600	174.179651	-0.329600	174.179651	-17.297297	108.736546
3.400000	-17.201859	58.603515	-0.328107	171.119344	-0.328107	171.119344	-17.663574	103.422696
3.450000	-17.514407	58.173321	-0.327190	168.036878	-0.327190	168.036878	-18.032699	97.606351
3.500000	-17.814613	58.197061	-0.326979	164.931317	-0.326979	164.931317	-18.393925	91.221735
3.550000	-18.089308	58.712286	-0.327618	161.801712	-0.327618	161.801712	-18.731978	84.209950
3.600000	-18.321795	59.738039	-0.329268	158.647101	-0.329268	158.647101	-19.026447	76.532203
3.650000	-18.492375	61.262388	-0.332104	155.466525	-0.332104	155.466525	-19.252113	68.188372
3.700000	-18.580001	63.229767	-0.336321	152.259028	-0.336321	152.259028	-19.381024	59.237747
3.750000	-18.565205	65.533025	-0.342133	149.023670	-0.342133	149.023670	-19.386808	49.813870
3.800000	-18.431085	68.015832	-0.349820	145.758892	-0.349820	145.758892	-19.247232	40.121925
3.850000	-18.174902	70.482687	-0.359605	142.464429	-0.359605	142.464429	-18.959648	30.422402
3.900000	-17.801896	72.745698	-0.371769	139.139468	-0.371769	139.139468	-18.533520	20.958240
3.950000	-17.326206	74.646052	-0.386613	135.783266	-0.386613	135.783266	-17.990278	11.921652
4.000000	-16.767601	76.072445	-0.404467	132.395171	-0.404467	132.395171	-17.357616	3.431479
4.050000	-16.147700	76.965259	-0.425680	128.974644	-0.425680	128.974644	-16.663762	-4.465411
4.100000	-15.486940	77.309463	-0.450628	125.521277	-0.450628	125.521277	-15.933607	-11.777487
4.150000	-14.802831	77.122236	-0.479711	122.034819	-0.479711	122.034819	-15.187036	-18.547803
4.200000	-14.109343	76.440368	-0.513349	118.515200	-0.513349	118.515200	-14.438853	-24.836320
4.250000	-13.417062	75.310190	-0.551985	114.962556	-0.551985	114.962556	-13.699508	-30.707705
4.300000	-12.733997	73.783459	-0.596031	111.377513	-0.596031	111.377513	-12.976367	-36.226511
4.350000	-12.064742	71.900118	-0.646088	107.759998	-0.646088	107.759998	-12.273184	-41.442597
4.400000	-11.413453	69.707839	-0.702607	104.111197	-0.702607	104.111197	-11.593241	-46.408338
4.450000	-10.782655	67.246562	-0.766091	100.432344	-0.766091	100.432344	-10.938243	-51.165810
4.500000	-10.174058	64.552625	-0.837002	96.725142	-0.837002	96.725142	-10.309177	-55.750874
4.550000	-9.588583	61.656480	-0.915834	92.991457	-0.915834	92.991457	-9.706341	-60.192080
4.600000	-9.026720	58.584841	-1.003070	89.233489	-1.003070	89.233489	-9.129704	-64.512832
4.650000	-8.488663	55.361187	-1.099175	85.453776	-1.099175	85.453776	-8.579026	-68.732150
4.700000	-7.974388	52.005950	-1.204614	81.655140	-1.204614	81.655140	-8.053923	-72.865140
4.750000	-7.483748	48.537175	-1.319844	77.840722	-1.319844	77.840722	-7.553946	-76.923714
4.800000	-7.016545	44.972358	-1.445170	74.014150	-1.445170	74.014150	-7.078646	-80.918042
4.850000	-6.572441	41.326302	-1.580918	70.179149	-1.580918	70.179149	-6.627475	-84.855414
4.900000	-6.151036	37.612436	-1.727364	66.339656	-1.727364	66.339656	-6.199858	-88.741300
4.950000	-5.751879	33.843004	-1.884731	62.499769	-1.884731	62.499769	-5.795195	-92.579669
5.000000	-5.374473	30.029216	-2.053185	58.663695	-2.053185	58.663695	-5.412865	-96.373261
5.050000	-5.018355	26.181100	-2.232910	54.835827	-2.232910	54.835827	-5.052297	-100.123366
5.100000	-4.682891	22.308556	-2.423865	51.020371	-2.423865	51.020371	-4.712765	-103.831409
5.150000	-4.367595	18.420076	-2.626139	47.221827	-2.626139	47.221827	-4.393707	-107.497058
5.200000	-4.071593	14.523960	-2.839480	43.443778	-2.839480	43.443778	-4.094178	-111.121351
5.250000	-3.794272	10.627192	-3.063846	39.690248	-3.063846	39.690248	-3.813513	-114.703445
5.300000	-3.534911	6.736253	-3.299080	35.964856	-3.299080	35.964856	-3.550940	-118.242773
5.350000	-3.292764	2.856951	-3.544985	32.270945	-3.544985	32.270945	-3.305675	-121.738690
5.400000	-3.067069	-1.005563	-3.801341	28.611554	-3.801341	28.611554	-3.076918	-125.190548
5.450000	-2.857051	-4.846773	-4.067908	24.989388	-4.067908	24.989388	-2.863868	-128.597767
5.500000	-2.661929	-8.662784	-4.344437	21.406812	-4.344437	21.406812	-2.665717	-131.959884
5.550000	-2.480922	-12.450296	-4.630679	17.865834	-4.630679	17.865834	-2.481666	-135.276589
5.600000	-2.313255	-16.206580	-4.926396	14.368116	-4.926396	14.368116	-2.310922	-138.547752
5.650000	-2.158264	-19.929062	-5.231348	10.915474	-5.231348	10.915474	-2.152804	-141.772948
5.700000	-2.015191	-23.616023	-5.545320	7.508928	-5.545320	7.508928	-2.006541	-144.952461
5.750000	-1.883200	-27.266653	-5.868175	4.148666	-5.868175	4.148666	-1.871290	-148.087269
5.800000	-1.761587	-30.880214	-6.199815	0.835084	-6.199815	0.835084	-1.746336	-151.178051
5.850000	-1.649677	-34.456371	-6.540196	-2.431662	-6.540196	-2.431662	-1.630994	-154.225671
5.900000	-1.546824	-37.995156	-6.889342	-5.651633	-6.889342	-5.651633	-1.524610	-157.231166
5.950000	-1.452412	-41.496932	-7.247353	-8.825063	-7.247353	-8.825063	-1.426562	-160.195729
6.000000	-1.365862	-44.962360	-7.614411	-11.952327	-7.614411	-11.952327	-1.336261	-163.120693
6.050000	-1.286627	-48.392373	-7.990796	-15.033902	-7.990796	-15.033902	-1.253151	-166.007518
6.100000	-1.214193	-51.788139	-8.376893	-18.070321	-8.376893	-18.070321	-1.176712	-168.857772
6.150000	-1.148081	-55.151045	-8.773210	-21.062134	-8.773210	-21.062134	-1.106455	-171.673116
6.200000	-1.087844	-58.482663	-9.180388	-24.009857	-9.180388	-24.009857	-1.041925	-174.455292
6.250000	-1.033069	-61.784737	-9.599227	-26.913920	-9.599227	-26.913920	-0.982699	-177.206107
6.300000	-0.983469	-65.058608	-10.030521	-29.773662	-10.030521	-29.773662	-0.928478	-179.926827
6.350000	-0.938584	-68.306956	-10.475630	-32.590073	-10.475630	-32.590073	-0.878794	177.379954
6.400000	-0.898090	-71.531942	-10.935978	-35.362878	-10.935978	-35.362878	-0.833318	174.712289
6.450000	-0.861695	-74.735836	-11.413275	-38.091370	-11.413275	-38.091370	-0.791746	172.068203
6.500000	-0.829131	-77.921012	-11.909566	-40.774268	-11.909566	-40.774268	-0.753801	169.445696
6.550000	-0.800156	-81.089943	-12.427308	-43.409524	-12.427308	-43.409524	-0.719232	166.842750
6.600000	-0.774552	-84.245194	-12.969458	-45.994069	-12.969458	-45.994069	-0.687814	164.257328
6.650000	-0.752126	-87.389426	-13.539592	-48.523448	-13.539592	-48.523448	-0.659345	161.687382
6.700000	-0.732706	-90.525391	-14.142073	-50.991324	-14.142073	-50.991324	-0.633643	159.130844
6.750000	-0.716141	-93.655939	-14.782261	-53.388735	-14.782261	-53.388735	-0.610552	156.585634
6.800000	-0.702303	-96.784021	-15.466818	-55.703019	-15.466818	-55.703019	-0.589936	154.049655
6.850000	-0.691082	-99.912694	-16.204133	-57.916141	-16.204133	-57.916141	-0.571681	151.520787
6.900000	-0.682418	-103.045207	-17.004889	-60.000282	-17.004889	-60.000282	-0.555715	148.996919
6.950000	-0.676241	-106.184975	-17.883069	-61.915169	-17.883069	-61.915169	-0.541965	146.475805
7.000000	-0.672477	-109.335399	-18.857250	-63.602199	-18.857250	-63.602199	-0.530358	143.955183
7.050000	-0.671102	-112.500072	-19.952605	-64.966622	-19.952605	-64.966622	-0.520865	141.432805
7.100000	-0.672323	-115.684725	-21.203838	-65.781622	-21.203838	-65.781622	-0.513666	138.905779
7.150000	-0.675718	-118.889444	-22.661047	-65.873407	-22.661047	-65.873407	-0.508391	136.372822
7.200000	-0.681565	-122.120181	-24.395518	-64.649214	-24.395518	-64.649214	-0.505291	133.831087
7.250000	-0.689935	-125.381299	-26.503538	-60.964862	-26.503538	-60.964862	-0.504436	131.278080
7.300000	-0.700927	-128.677408	-29.059770	-52.240949	-29.059770	-52.240949	-0.505930	128.711223
7.350000	-0.714675	-132.013393	-31.764804	-33.485453	-31.764804	-33.485453	-0.509909	126.127837
7.400000	-0.731348	-135.394440	-32.854078	-1.400545	-32.854078	-1.400545	-0.516546	123.525137
7.450000	-0.751157	-138.826070	-30.743656	27.979969	-30.743656	27.979969	-0.526059	120.900217
7.500000	-0.774359	-142.314167	-27.723808	42.514382	-27.723808	42.514382	-0.538712	118.250039
7.550000	-0.801401	-145.867351	-25.079613	48.501686	-25.079613	48.501686	-0.554955	115.570358
7.600000	-0.832553	-149.490528	-22.890192	50.711248	-22.890192	50.711248	-0.575078	112.858664
7.650000	-0.868273	-153.190971	-21.044062	50.964663	-21.044062	50.964663	-0.599551	110.111451
7.700000	-0.909106	-156.976481	-19.449007	50.084383	-19.449007	50.084383	-0.628935	107.325050
7.750000	-0.955699	-160.855436	-18.040705	48.478592	-18.040705	48.478592	-0.663894	104.495639
7.800000	-1.008821	-164.836822	-16.774790	46.367067	-16.774790	46.367067	-0.705219	101.619258
7.850000	-1.069382	-168.930277	-15.620080	43.875618	-15.620080	43.875618	-0.753843	98.691840
7.900000	-1.138461	-173.146121	-14.554138	41.079297	-14.554138	41.079297	-0.810875	95.709261
7.950000	-1.217338	-177.495370	-13.560491	38.023837	-13.560491	38.023837	-0.877622	92.667418
8.000000	-1.307523	178.010256	-12.626854	34.737058	-12.626854	34.737058	-0.955634	89.562346
8.050000	-1.410806	173.358355	-11.743991	31.235323	-11.743991	31.235323	-1.046736	86.390390
8.100000	-1.529297	168.535896	-10.904965	27.527399	-10.904965	27.527399	-1.153083	83.148436
8.150000	-1.665686	163.527157	-10.104240	23.614726	-10.104240	23.614726	-1.277414	79.833449
8.200000	-1.822993	158.317707	-9.338236	19.497414	-9.338236	19.497414	-1.422796	76.444546
8.250000	-2.004508	152.895442	-8.604924	15.175562	-8.604924	15.175562	-1.592549	72.983701
8.300000	-2.214273	147.246420	-7.902911	10.645983	-7.902911	10.645983	-1.790732	69.454915
8.350000	-2.456107	141.364564	-7.232276	5.911528	-7.232276	5.911528	-2.021124	65.867483
8.400000	-2.737217	135.222280	-6.592085	0.956457	-6.592085	0.956457	-2.290892	62.231060
8.450000	-3.062975	128.816561	-5.984218	-4.213304	-5.984218	-4.213304	-2.605174	58.567875
8.500000	-3.440512	122.138705	-5.410395	-9.596110	-5.410395	-9.596110	-2.970673	54.907430
8.550000	-3.877917	115.182565	-4.872822	-15.186836	-4.872822	-15.186836	-3.394690	51.291296
8.600000	-4.384339	107.944800	-4.374030	-20.976101	-4.374030	-20.976101	-3.884960	47.776601
8.650000	-4.970126	100.424724	-3.916672	-26.949706	-3.916672	-26.949706	-4.449348	44.440431
8.700000	-5.647056	92.623507	-3.503299	-33.088398	-3.503299	-33.088398	-5.095329	41.385411
8.750000	-6.428758	84.542394	-3.136123	-39.368079	-3.136123	-39.368079	-5.829067	38.746824
8.800000	-7.331914	76.175216	-2.817352	-45.761664	-2.817352	-45.761664	-6.653803	36.713550
8.850000	-8.375858	67.514658	-2.547389	-52.235811	-2.547389	-52.235811	-7.565957	35.510603
8.900000	-9.586655	58.535144	-2.325598	-58.757752	-2.325598	-58.757752	-8.552055	35.408643
8.950000	-11.001095	49.159177	-2.152227	-65.296216	-2.152227	-65.296216	-9.575919	36.782868
9.000000	-12.672521	39.243855	-2.025104	-71.820261	-2.025104	-71.820261	-10.568637	39.958300
9.050000	-14.688458	28.517161	-1.940268	-78.305019	-1.940268	-78.305019	-11.428927	45.026454
9.100000	-17.192445	16.237278	-1.896413	-84.726814	-1.896413	-84.726814	-12.007171	51.790556
9.150000	-20.444673	0.496487	-1.889300	-91.069978	-1.889300	-91.069978	-12.199691	59.334556
9.200000	-24.804083	-25.187024	-1.915048	-97.324246	-1.915048	-97.324246	-12.001748	66.474136
9.250000	-28.615472	-78.842204	-1.970203	-103.483538	-1.970203	-103.483538	-11.505946	72.303797
9.300000	-25.955044	-136.599341	-2.051344	-109.546687	-2.051344	-109.546687	-10.841778	76.489380
9.350000	-21.932009	-164.257097	-2.156099	-115.512780	-2.156099	-115.512780	-10.111846	79.080106
9.400000	-19.042528	179.421368	-2.281765	-121.386060	-2.281765	-121.386060	-9.384439	80.365179
9.450000	-16.926395	166.871674	-2.426142	-127.172261	-2.426142	-127.172261	-8.693713	80.647345
9.500000	-15.291560	155.942591	-2.587297	-132.878966	-2.587297	-132.878966	-8.053446	80.186616
9.550000	-13.974101	145.866598	-2.763876	-138.513038	-2.763876	-138.513038	-7.466600	79.171213
9.600000	-12.877772	136.305017	-2.954907	-144.080728	-2.954907	-144.080728	-6.931369	77.737722
9.650000	-11.941977	127.089063	-3.159653	-149.587910	-3.159653	-149.587910	-6.443912	75.986829
9.700000	-11.126005	118.125807	-3.377401	-155.040895	-3.377401	-155.040895	-5.999356	73.996456
9.750000	-10.402518	109.369859	-3.607754	-160.443979	-3.607754	-160.443979	-5.593234	71.818656
9.800000	-9.753057	100.807181	-3.850657	-165.798124	-3.850657	-165.798124	-5.222345	69.485449
9.850000	-9.162135	92.409322	-4.105290	-171.110257	-4.105290	-171.110257	-4.881424	67.038952
9.900000	-8.621141	84.188862	-4.371831	-176.377700	-4.371831	-176.377700	-4.568873	64.489959
9.950000	-8.122732	76.148303	-4.649936	178.399500	-4.649936	178.399500	-4.282201	61.856241
10.000000	-7.661513	68.291256	-4.939225	173.221959	-4.939225	173.221959	-4.019272	59.151927
