! freq	dB(S11)	phase(S11)	dB(S12)	phase(S12)	
!     	dB(S21)	phase(S21)	dB(S22)	phase(S22)	
!S-par simulation data
#  GHz  S  DB  R 50
0.000000	-0.000000	0.000000	-371.126355	0.000000	-371.126355	0.000000	-0.000000	0.000000
0.050000	-0.000071	-0.798533	-96.932184	4.528317	-96.932184	4.528317	-0.000083	-0.759996
0.100000	-0.000284	-1.596936	-96.939263	5.844377	-96.939263	5.844377	-0.000328	-1.519819
0.150000	-0.000633	-2.395082	-96.960504	7.805396	-96.960504	7.805396	-0.000729	-2.279307
0.200000	-0.001111	-3.192858	-96.996661	9.857566	-96.996661	9.857566	-0.001273	-3.038319
0.250000	-0.001717	-3.990124	-97.054234	11.870171	-97.054234	11.870171	-0.001955	-3.796686
0.300000	-0.002431	-4.786830	-97.138320	13.795840	-97.138320	13.795840	-0.002748	-4.554360
0.350000	-0.003247	-5.582871	-97.258133	15.607401	-97.258133	15.607401	-0.003640	-5.311236
0.400000	-0.004153	-6.378177	-97.423854	17.291540	-97.423854	17.291540	-0.004614	-6.067253
0.450000	-0.005138	-7.172690	-97.647731	18.843813	-97.647731	18.843813	-0.005655	-6.822371
0.500000	-0.006190	-7.966364	-97.944759	20.266946	-97.944759	20.266946	-0.006747	-7.576570
0.550000	-0.007297	-8.759165	-98.333846	21.570489	-98.333846	21.570489	-0.007876	-8.329844
0.600000	-0.008449	-9.551069	-98.839769	22.771759	-98.839769	22.771759	-0.009030	-9.082198
0.650000	-0.009636	-10.342062	-99.496563	23.898842	-99.496563	23.898842	-0.010199	-9.833647
0.700000	-0.010849	-11.132135	-100.353684	24.997929	-100.353684	24.997929	-0.011373	-10.584209
0.750000	-0.012080	-11.921288	-101.488138	26.151517	-101.488138	26.151517	-0.012547	-11.333908
0.800000	-0.013321	-12.709523	-103.031082	27.529503	-103.031082	27.529503	-0.013713	-12.082766
0.850000	-0.014567	-13.496844	-105.235880	29.571530	-105.235880	29.571530	-0.014870	-12.830806
0.900000	-0.015812	-14.283260	-108.695379	34.047561	-108.695379	34.047561	-0.016012	-13.578049
0.950000	-0.017053	-15.068777	-114.646098	62.903211	-114.646098	62.903211	-0.017140	-14.324514
1.000000	-0.018287	-15.853405	-118.548006	145.437717	-118.548006	145.437717	-0.018251	-15.070214
1.050000	-0.019510	-16.637151	-109.138428	-169.272850	-109.138428	-169.272850	-0.019345	-15.815163
1.100000	-0.020720	-17.420020	-103.906119	-163.788764	-103.906119	-163.788764	-0.020423	-16.559368
1.150000	-0.021918	-18.202019	-100.353178	-161.916749	-100.353178	-161.916749	-0.021484	-17.302835
1.200000	-0.023101	-18.983150	-97.612089	-161.136417	-97.612089	-161.136417	-0.022530	-18.045567
1.250000	-0.024269	-19.763414	-95.350408	-160.858827	-95.350408	-160.858827	-0.023562	-18.787562
1.300000	-0.025421	-20.542775	-93.399707	-160.879037	-93.399707	-160.879037	-0.024580	-19.528786
1.350000	-0.026559	-21.321267	-91.678083	-161.086954	-91.678083	-161.086954	-0.025586	-20.269264
1.400000	-0.027683	-22.098887	-90.128856	-161.433430	-90.128856	-161.433430	-0.026581	-21.008990
1.450000	-0.028793	-22.875629	-88.714609	-161.888587	-88.714609	-161.888587	-0.027567	-21.747954
1.500000	-0.029891	-23.651486	-87.409325	-162.432876	-87.409325	-162.432876	-0.028544	-22.486146
1.550000	-0.030976	-24.426449	-86.194159	-163.052702	-86.194159	-163.052702	-0.029514	-23.223552
1.600000	-0.032050	-25.200510	-85.055010	-163.738124	-85.055010	-163.738124	-0.030478	-23.960161
1.650000	-0.033113	-25.973657	-83.981039	-164.481565	-83.981039	-164.481565	-0.031437	-24.695958
1.700000	-0.034165	-26.745550	-82.941436	-165.292890	-82.941436	-165.292890	-0.032391	-25.430635
1.750000	-0.035212	-27.516957	-81.983766	-166.129621	-81.983766	-166.129621	-0.033343	-26.164876
1.800000	-0.036250	-28.287198	-81.056309	-167.017213	-81.056309	-167.017213	-0.034293	-26.898066
1.850000	-0.037283	-29.056606	-80.176519	-167.941134	-80.176519	-167.941134	-0.035242	-27.630506
1.900000	-0.038309	-29.824984	-79.329293	-168.902137	-79.329293	-168.902137	-0.036190	-28.362010
1.950000	-0.039331	-30.592331	-78.513352	-169.900223	-78.513352	-169.900223	-0.037137	-29.092579
2.000000	-0.040350	-31.358792	-77.732088	-170.925093	-77.732088	-170.925093	-0.038086	-29.822339
2.050000	-0.041364	-32.124010	-76.969870	-171.987461	-76.969870	-171.987461	-0.039036	-30.550967
2.100000	-0.042378	-32.888497	-76.244078	-173.068641	-76.244078	-173.068641	-0.039987	-31.278924
2.150000	-0.043389	-33.651518	-75.528003	-174.187445	-75.528003	-174.187445	-0.040941	-32.005540
2.200000	-0.044401	-34.413972	-74.849719	-175.318746	-74.849719	-175.318746	-0.041897	-32.731635
2.250000	-0.045412	-35.174725	-74.173952	-176.487538	-74.173952	-176.487538	-0.042858	-33.456171
2.300000	-0.046423	-35.935089	-73.536969	-177.663754	-73.536969	-177.663754	-0.043820	-34.180349
2.350000	-0.047437	-36.693505	-72.896903	-178.877090	-72.896903	-178.877090	-0.044788	-34.902737
2.400000	-0.048452	-37.451721	-72.296279	179.906253	-72.296279	179.906253	-0.045758	-35.624941
2.450000	-0.049471	-38.207730	-71.688203	178.653075	-71.688203	178.653075	-0.046736	-36.345118
2.500000	-0.050490	-38.963740	-71.119926	177.399896	-71.119926	177.399896	-0.047715	-37.065295
2.550000	-0.051517	-39.717277	-70.540798	176.111014	-70.540798	176.111014	-0.048704	-37.783198
2.600000	-0.052545	-40.470814	-69.997882	174.822133	-69.997882	174.822133	-0.049693	-38.501102
2.650000	-0.053581	-41.222025	-69.448848	173.503916	-69.448848	173.503916	-0.050693	-39.216868
2.700000	-0.054618	-41.973024	-68.929212	172.183033	-68.929212	172.183033	-0.051694	-39.932440
2.750000	-0.055666	-42.721857	-68.407446	170.838278	-68.407446	170.838278	-0.052706	-40.646022
2.800000	-0.056715	-43.470257	-67.909319	169.488750	-67.909319	169.488750	-0.053720	-41.359206
2.850000	-0.057775	-44.216663	-67.412415	168.120045	-67.412415	168.120045	-0.054744	-42.070561
2.900000	-0.058839	-44.962405	-66.934275	166.744947	-66.934275	166.744947	-0.055772	-42.781306
2.950000	-0.059913	-45.706337	-66.460163	165.354698	-66.460163	165.354698	-0.056811	-43.490392
3.000000	-0.060993	-46.449366	-66.000678	163.956874	-66.000678	163.956874	-0.057854	-44.198648
3.050000	-0.062082	-47.190781	-65.547557	162.547334	-65.547557	162.547334	-0.058906	-44.905427
3.100000	-0.063179	-47.931044	-65.105555	161.129425	-65.105555	161.129425	-0.059966	-45.611149
3.150000	-0.064286	-48.669900	-64.671844	159.702707	-64.671844	159.702707	-0.061034	-46.315583
3.200000	-0.065402	-49.407350	-64.246276	158.267179	-64.246276	158.267179	-0.062110	-47.018730
3.250000	-0.066528	-50.143609	-63.830578	156.825270	-63.830578	156.825270	-0.063195	-47.720786
3.300000	-0.067665	-50.878202	-63.420497	155.374425	-63.420497	155.374425	-0.064290	-48.421317
3.350000	-0.068810	-51.611828	-63.021562	153.919190	-63.021562	153.919190	-0.065391	-49.120963
3.400000	-0.069969	-52.343523	-62.626105	152.455176	-62.626105	152.455176	-0.066505	-49.818843
3.450000	-0.071135	-53.074484	-62.242812	150.988371	-62.242812	150.988371	-0.067625	-50.516051
3.500000	-0.072319	-53.803245	-61.861184	149.513188	-61.861184	149.513188	-0.068760	-51.211246
3.550000	-0.073507	-54.531511	-61.492517	148.036452	-61.492517	148.036452	-0.069899	-51.905989
3.600000	-0.074716	-55.257305	-61.123979	146.551953	-61.123979	146.551953	-0.071057	-52.598470
3.650000	-0.075928	-55.982850	-60.769013	145.066819	-60.769013	145.066819	-0.072216	-53.290722
3.700000	-0.077164	-56.705650	-60.412873	143.574709	-60.412873	143.574709	-0.073397	-53.980462
3.750000	-0.078401	-57.428450	-60.070763	142.082598	-60.070763	142.082598	-0.074578	-54.670202
3.800000	-0.079666	-58.148231	-59.726370	140.584434	-59.726370	140.584434	-0.075783	-55.357178
3.850000	-0.080931	-58.868012	-59.395113	139.086271	-59.395113	139.086271	-0.076989	-56.044153
3.900000	-0.082223	-59.585007	-59.063073	137.583850	-59.063073	137.583850	-0.078219	-56.728574
3.950000	-0.083519	-60.301750	-58.742127	136.081042	-58.742127	136.081042	-0.079452	-57.412764
4.000000	-0.084841	-61.015946	-58.421679	134.575414	-58.421679	134.575414	-0.080707	-58.094616
4.050000	-0.086168	-61.729632	-58.110525	133.069223	-58.110525	133.069223	-0.081968	-58.776001
4.100000	-0.087520	-62.441018	-57.800963	131.561327	-57.800963	131.561327	-0.083251	-59.455271
4.150000	-0.088881	-63.151637	-57.499104	130.052864	-57.499104	130.052864	-0.084541	-60.133836
4.200000	-0.090265	-63.860205	-57.199771	128.543529	-57.199771	128.543529	-0.085852	-60.810512
4.250000	-0.091661	-64.567748	-56.906733	127.033759	-56.906733	127.033759	-0.087174	-61.486243
4.300000	-0.093078	-65.273494	-56.617021	125.523705	-56.617021	125.523705	-0.088515	-62.160316
4.350000	-0.094511	-65.977955	-56.332349	124.013448	-56.332349	124.013448	-0.089871	-62.833204
4.400000	-0.095962	-66.680876	-56.051688	122.503289	-56.051688	122.503289	-0.091243	-63.504666
4.450000	-0.097433	-67.382255	-55.774948	120.993227	-55.774948	120.993227	-0.092634	-64.174701
4.500000	-0.098921	-68.082351	-55.502809	119.483475	-55.502809	119.483475	-0.094039	-64.843546
4.550000	-0.100432	-68.780650	-55.233585	117.974157	-55.233585	117.974157	-0.095467	-65.510724
4.600000	-0.101957	-69.477925	-54.969474	116.465227	-54.969474	116.465227	-0.096907	-66.176948
4.650000	-0.103510	-70.173151	-54.707373	114.957073	-54.707373	114.957073	-0.098373	-66.841265
4.700000	-0.105075	-70.867610	-54.450830	113.449286	-54.450830	113.449286	-0.099850	-67.504866
4.750000	-0.106671	-71.559771	-54.195477	111.942601	-54.195477	111.942601	-0.101357	-68.166321
4.800000	-0.108276	-72.251424	-53.946075	110.436193	-53.946075	110.436193	-0.102872	-68.827299
4.850000	-0.109918	-72.940533	-53.697116	108.931171	-53.697116	108.931171	-0.104421	-69.485892
4.900000	-0.111564	-73.629389	-53.454456	107.426297	-53.454456	107.426297	-0.105975	-70.144247
4.950000	-0.113253	-74.315462	-53.211560	105.923037	-53.211560	105.923037	-0.107569	-70.799983
5.000000	-0.114942	-75.001535	-52.975272	104.419778	-52.975272	104.419778	-0.109164	-71.455719
5.050000	-0.116680	-75.684590	-52.738130	102.918294	-52.738130	102.918294	-0.110805	-72.108603
5.100000	-0.118419	-76.367646	-52.507289	101.416810	-52.507289	101.416810	-0.112446	-72.761488
5.150000	-0.120204	-77.047956	-52.276193	99.916898	-52.276193	99.916898	-0.114132	-73.411765
5.200000	-0.121993	-77.728016	-52.050534	98.417128	-52.050534	98.417128	-0.115821	-74.061805
5.250000	-0.123826	-78.405600	-51.825168	96.918685	-51.825168	96.918685	-0.117553	-74.709483
5.300000	-0.125667	-79.082690	-51.604444	95.420508	-51.604444	95.420508	-0.119293	-75.356690
5.350000	-0.127550	-79.757571	-51.384517	93.923398	-51.384517	93.923398	-0.121072	-76.001780
5.400000	-0.129446	-80.431717	-51.168502	92.426645	-51.168502	92.426645	-0.122864	-76.646165
5.450000	-0.131380	-81.103920	-50.953750	90.930704	-50.953750	90.930704	-0.124692	-77.288678
5.500000	-0.133332	-81.775152	-50.742239	89.435170	-50.742239	89.435170	-0.126538	-77.930256
5.550000	-0.135318	-82.444703	-50.532421	87.940217	-50.532421	87.940217	-0.128416	-78.570206
5.600000	-0.137329	-83.113053	-50.325228	86.445679	-50.325228	86.445679	-0.130318	-79.208994
5.650000	-0.139369	-83.779980	-50.120126	84.951523	-50.120126	84.951523	-0.132248	-79.846395
5.700000	-0.141439	-84.445483	-49.917084	83.457750	-49.917084	83.457750	-0.134207	-80.482411
5.750000	-0.143536	-85.109816	-49.716502	81.964201	-49.716502	81.964201	-0.136191	-81.117282
5.800000	-0.145668	-85.772509	-49.517465	80.470966	-49.517465	80.470966	-0.138209	-81.750548
5.850000	-0.147821	-86.434278	-49.321224	78.977843	-49.321224	78.977843	-0.140247	-82.382904
5.900000	-0.150016	-87.094200	-49.126065	77.484942	-49.126065	77.484942	-0.142326	-83.013444
5.950000	-0.152228	-87.753438	-48.934007	75.992080	-48.934007	75.992080	-0.144420	-83.643307
6.000000	-0.154489	-88.410629	-48.742615	74.499339	-48.742615	74.499339	-0.146561	-84.271145
6.050000	-0.156761	-89.067372	-48.554598	73.006603	-48.554598	73.006603	-0.148713	-84.898538
6.100000	-0.159089	-89.721874	-48.366880	71.513892	-48.366880	71.513892	-0.150918	-85.523703
6.150000	-0.161423	-90.376156	-48.182777	70.021178	-48.182777	70.021178	-0.153129	-86.148647
6.200000	-0.163820	-91.028014	-47.998656	68.528425	-47.998656	68.528425	-0.155399	-86.771169
6.250000	-0.166217	-91.679872	-47.818356	67.035673	-47.818356	67.035673	-0.157669	-87.393691
6.300000	-0.168685	-92.329131	-47.637765	65.542874	-47.637765	65.542874	-0.160006	-88.013603
6.350000	-0.171152	-92.978390	-47.460852	64.050075	-47.460852	64.050075	-0.162343	-88.633514
6.400000	-0.173686	-93.625310	-47.284057	62.557299	-47.284057	62.557299	-0.164743	-89.251065
6.450000	-0.176227	-94.272017	-47.110484	61.064526	-47.110484	61.064526	-0.167148	-89.868402
6.500000	-0.178828	-94.916638	-46.937400	59.571908	-46.937400	59.571908	-0.169611	-90.483624
6.550000	-0.181443	-95.560842	-46.767128	58.079320	-46.767128	58.079320	-0.172087	-91.098422
6.600000	-0.184114	-96.203204	-46.597683	56.587062	-46.597683	56.587062	-0.174615	-91.711348
6.650000	-0.186805	-96.844954	-46.430681	55.094914	-46.430681	55.094914	-0.177161	-92.323648
6.700000	-0.189547	-97.485100	-46.264806	53.603297	-46.264806	53.603297	-0.179755	-92.934312
6.750000	-0.192315	-98.124446	-46.101047	52.111944	-46.101047	52.111944	-0.182374	-93.544157
6.800000	-0.195129	-98.762418	-45.938679	50.621324	-45.938679	50.621324	-0.185035	-94.152596
6.850000	-0.197977	-99.399411	-45.778141	49.131228	-45.778141	49.131228	-0.187728	-94.760030
6.900000	-0.200865	-100.035253	-45.619218	47.642045	-45.619218	47.642045	-0.190458	-95.366283
6.950000	-0.203794	-100.669945	-45.461877	46.153775	-45.461877	46.153775	-0.193226	-95.971354
7.000000	-0.206757	-101.303700	-45.306340	44.666550	-45.306340	44.666550	-0.196026	-96.575461
7.050000	-0.209769	-101.936144	-45.152170	43.180786	-45.152170	43.180786	-0.198870	-97.178218
7.100000	-0.212809	-102.567856	-44.999957	41.696122	-44.999957	41.696122	-0.201741	-97.780222
7.150000	-0.215905	-103.198105	-44.848927	40.213655	-44.848927	40.213655	-0.204664	-98.380718
7.200000	-0.219023	-103.827818	-44.699975	38.732237	-44.699975	38.732237	-0.207608	-98.980663
7.250000	-0.222205	-104.455926	-44.552046	37.253962	-44.552046	37.253962	-0.210610	-99.578953
7.300000	-0.225403	-105.083686	-44.406285	35.776552	-44.406285	35.776552	-0.213628	-100.176885
7.350000	-0.228673	-105.709706	-44.261408	34.303466	-44.261408	34.303466	-0.216712	-100.773026
7.400000	-0.231952	-106.335557	-44.118764	32.830903	-44.118764	32.830903	-0.219805	-101.368993
7.450000	-0.235311	-106.959544	-43.976875	31.364097	-43.976875	31.364097	-0.222973	-101.963046
7.500000	-0.238672	-107.583532	-43.837267	29.897292	-43.837267	29.897292	-0.226142	-102.557099
7.550000	-0.242124	-108.205540	-43.698288	28.437943	-43.698288	28.437943	-0.229395	-103.149126
7.600000	-0.245576	-108.827549	-43.561497	26.978594	-43.561497	26.978594	-0.232650	-103.741154
7.650000	-0.249113	-109.447793	-43.425458	25.527229	-43.425458	25.527229	-0.235984	-104.331384
7.700000	-0.252658	-110.067878	-43.291393	24.076589	-43.291393	24.076589	-0.239326	-104.921450
7.750000	-0.256282	-110.686403	-43.158167	22.634303	-43.158167	22.634303	-0.242743	-105.509940
7.800000	-0.259922	-111.304618	-43.026717	21.193688	-43.026717	21.193688	-0.246175	-106.098113
7.850000	-0.263634	-111.921470	-42.896165	19.761617	-42.896165	19.761617	-0.249676	-106.684921
7.900000	-0.267370	-112.537868	-42.767197	18.332393	-42.767197	18.332393	-0.253201	-107.271272
7.950000	-0.271172	-113.153091	-42.639166	16.911699	-42.639166	16.911699	-0.256789	-107.856457
8.000000	-0.275007	-113.767727	-42.512526	15.495271	-42.512526	15.495271	-0.260410	-108.441059
8.050000	-0.278900	-114.381367	-42.386848	14.087141	-42.386848	14.087141	-0.264087	-109.024685
8.100000	-0.282834	-114.994294	-42.262358	12.684938	-42.262358	12.684938	-0.267806	-109.607612
8.150000	-0.286820	-115.606394	-42.138849	11.290569	-42.138849	11.290569	-0.271575	-110.189741
8.200000	-0.290856	-116.217667	-42.016306	9.904033	-42.016306	9.904033	-0.275396	-110.771072
8.250000	-0.294936	-116.828271	-41.894769	8.524626	-41.894769	8.524626	-0.279260	-111.351771
8.300000	-0.299076	-117.437940	-41.773945	7.155199	-41.773945	7.155199	-0.283186	-111.931585
8.350000	-0.303251	-118.047093	-41.654168	5.791952	-41.654168	5.791952	-0.287149	-112.510921
8.400000	-0.307496	-118.655212	-41.534812	4.441066	-41.534812	4.441066	-0.291184	-113.089301
8.450000	-0.311769	-119.262956	-41.416565	3.095169	-41.416565	3.095169	-0.295249	-113.667342
8.500000	-0.316121	-119.869575	-41.298401	1.764238	-41.298401	1.764238	-0.299398	-114.244371
8.550000	-0.320492	-120.475953	-41.181443	0.436863	-41.181443	0.436863	-0.303569	-114.821190
8.600000	-0.324952	-121.081124	-41.064168	-0.872725	-41.064168	-0.872725	-0.307837	-115.396955
8.650000	-0.329424	-121.686179	-40.948242	-2.180421	-40.948242	-2.180421	-0.312117	-115.972622
8.700000	-0.333995	-122.289951	-40.831530	-3.467307	-40.831530	-3.467307	-0.316509	-116.547211
8.750000	-0.338568	-122.893724	-40.716366	-4.754193	-40.716366	-4.754193	-0.320903	-117.121800
8.800000	-0.343251	-123.496147	-40.599868	-6.017048	-40.599868	-6.017048	-0.325425	-117.695304
8.850000	-0.347937	-124.098570	-40.484911	-7.279902	-40.484911	-7.279902	-0.329949	-118.268807
8.900000	-0.352726	-124.699800	-40.368522	-8.519535	-40.368522	-8.519535	-0.334597	-118.841400
8.950000	-0.357526	-125.300922	-40.253408	-9.757058	-40.253408	-9.757058	-0.339257	-119.413909
9.000000	-0.362421	-125.900999	-40.136797	-10.972406	-40.136797	-10.972406	-0.344035	-119.985668
9.050000	-0.367337	-126.500866	-40.021138	-12.183318	-40.021138	-12.183318	-0.348839	-120.557276
9.100000	-0.372340	-127.099828	-39.903961	-13.373327	-39.903961	-13.373327	-0.353754	-121.128280
9.150000	-0.377375	-127.698488	-39.787344	-14.556368	-39.787344	-14.556368	-0.358709	-121.699082
9.200000	-0.382488	-128.296373	-39.669243	-15.719988	-39.669243	-15.719988	-0.363768	-122.269411
9.250000	-0.387643	-128.893870	-39.551232	-16.873896	-39.551232	-16.873896	-0.368881	-122.839502
9.300000	-0.392868	-129.490715	-39.431836	-18.010068	-39.431836	-18.010068	-0.374091	-123.409235
9.350000	-0.398144	-130.087093	-39.311968	-19.133570	-39.311968	-19.133570	-0.379372	-123.978712
9.400000	-0.403483	-130.682933	-39.190892	-20.241215	-39.190892	-20.241215	-0.384741	-124.547930
9.450000	-0.408883	-131.278236	-39.068679	-21.333003	-39.068679	-21.333003	-0.390198	-125.116890
9.500000	-0.414337	-131.873107	-38.945522	-22.411005	-38.945522	-22.411005	-0.395734	-125.685674
9.550000	-0.419863	-132.467375	-38.820445	-23.469708	-38.820445	-23.469708	-0.401378	-126.254214
9.600000	-0.425434	-133.061312	-38.694793	-24.516897	-38.694793	-24.516897	-0.407090	-126.822647
9.650000	-0.431088	-133.654586	-38.566300	-25.541055	-38.566300	-25.541055	-0.412933	-127.390864
9.700000	-0.436777	-134.247621	-38.437721	-26.556180	-38.437721	-26.556180	-0.418829	-127.959026
9.750000	-0.442562	-134.839940	-38.305227	-27.544202	-38.305227	-27.544202	-0.424881	-128.527019
9.800000	-0.448372	-135.432106	-38.173272	-28.525908	-38.173272	-28.525908	-0.430973	-129.094991
9.850000	-0.454289	-136.023508	-38.036147	-29.476028	-38.036147	-29.476028	-0.437247	-129.662856
9.900000	-0.460221	-136.614836	-37.900349	-30.422823	-37.900349	-30.422823	-0.443544	-130.230719
9.950000	-0.466272	-137.205356	-37.757921	-31.333040	-37.757921	-31.333040	-0.450054	-130.798553
10.000000	-0.472328	-137.795877	-37.617790	-32.243258	-37.617790	-32.243258	-0.456568	-131.366388
