! freq	dB(S11)	phase(S11)	dB(S12)	phase(S12)	
!     	dB(S21)	phase(S21)	dB(S22)	phase(S22)	
!S-par simulation data
#  GHz  S  DB  R 50
0.000000	-0.000000	0.000000	-363.508483	0.000000	-363.508483	0.000000	-0.000000	0.000000
0.050000	-0.000880	-1.476948	-106.337990	88.894870	-106.337990	88.894870	-0.001069	-0.877345
0.100000	-0.003095	-2.948414	-100.350225	87.792145	-100.350225	87.792145	-0.002355	-1.745193
0.150000	-0.005867	-4.412857	-96.883955	86.696059	-96.883955	86.696059	-0.003227	-2.610679
0.200000	-0.008616	-5.871602	-94.468239	85.614601	-94.468239	85.614601	-0.003964	-3.476002
0.250000	-0.011142	-7.327166	-92.632607	84.554119	-92.632607	84.554119	-0.004713	-4.341277
0.300000	-0.013399	-8.780653	-91.175550	83.525007	-91.175550	83.525007	-0.005531	-5.206354
0.350000	-0.015423	-10.232771	-89.988086	82.537908	-89.988086	82.537908	-0.006444	-6.071078
0.400000	-0.017265	-11.683762	-89.006465	81.605244	-89.006465	81.605244	-0.007467	-6.935318
0.450000	-0.018970	-13.133506	-88.196017	80.747705	-88.196017	80.747705	-0.008628	-7.798901
0.500000	-0.020595	-14.581963	-87.521744	79.974454	-87.521744	79.974454	-0.009940	-8.661753
0.550000	-0.022169	-16.028941	-86.964548	79.302923	-86.964548	79.302923	-0.011448	-9.523635
0.600000	-0.023716	-17.474235	-86.510907	78.753756	-86.510907	78.753756	-0.013218	-10.383950
0.650000	-0.025252	-18.917640	-86.151145	78.351782	-86.151145	78.351782	-0.015295	-11.241181
0.700000	-0.026789	-20.358960	-85.878322	78.127267	-85.878322	78.127267	-0.017443	-12.092464
0.750000	-0.028338	-21.797855	-85.692106	78.133658	-85.692106	78.133658	-0.018622	-12.937411
0.800000	-0.029904	-23.234137	-85.588281	78.425036	-85.588281	78.425036	-0.018474	-13.785718
0.850000	-0.031491	-24.667685	-85.561671	79.064258	-85.561671	79.064258	-0.018342	-14.640737
0.900000	-0.033099	-26.098542	-85.603773	80.101554	-85.603773	80.101554	-0.018729	-15.497837
0.950000	-0.034730	-27.526398	-85.714537	81.658836	-85.714537	81.658836	-0.019534	-16.354248
1.000000	-0.036384	-28.951107	-85.886529	83.864249	-85.886529	83.864249	-0.020559	-17.209137
1.050000	-0.038060	-30.372529	-86.106642	86.873292	-86.106642	86.873292	-0.021689	-18.062471
1.100000	-0.039756	-31.790531	-86.352101	90.862723	-86.352101	90.862723	-0.022869	-18.914362
1.150000	-0.041471	-33.204989	-86.585328	96.006908	-86.585328	96.006908	-0.024071	-19.764915
1.200000	-0.043202	-34.615785	-86.749411	102.422382	-86.749411	102.422382	-0.025281	-20.614205
1.250000	-0.044948	-36.022806	-86.769163	110.071580	-86.769163	110.071580	-0.026490	-21.462287
1.300000	-0.046705	-37.425773	-86.552695	118.663947	-86.552695	118.663947	-0.027694	-22.309143
1.350000	-0.048470	-38.824750	-86.057424	127.527993	-86.057424	127.527993	-0.028889	-23.154848
1.400000	-0.050242	-40.219644	-85.289729	135.957062	-85.289729	135.957062	-0.030076	-23.999412
1.450000	-0.052018	-41.610367	-84.306362	143.407564	-84.306362	143.407564	-0.031253	-24.842842
1.500000	-0.053795	-42.996836	-83.184996	149.620445	-83.184996	149.620445	-0.032419	-25.685138
1.550000	-0.055571	-44.378973	-81.996411	154.580598	-81.996411	154.580598	-0.033576	-26.526296
1.600000	-0.057344	-45.756706	-80.792257	158.412125	-80.792257	158.412125	-0.034723	-27.366312
1.650000	-0.059112	-47.129967	-79.605066	161.289369	-79.605066	161.289369	-0.035862	-28.205176
1.700000	-0.060873	-48.498693	-78.453030	163.385837	-78.453030	163.385837	-0.036992	-29.042878
1.750000	-0.062627	-49.862827	-77.344997	164.852782	-77.344997	164.852782	-0.038114	-29.879408
1.800000	-0.064371	-51.222313	-76.284213	165.814152	-76.284213	165.814152	-0.039230	-30.714752
1.850000	-0.066105	-52.577103	-75.270762	166.368606	-75.270762	166.368606	-0.040339	-31.548896
1.900000	-0.067827	-53.927150	-74.303051	166.593739	-74.303051	166.593739	-0.041443	-32.381825
1.950000	-0.069537	-55.272414	-73.378675	166.550427	-73.378675	166.550427	-0.042543	-33.213526
2.000000	-0.071234	-56.612857	-72.494910	166.286556	-72.494910	166.286556	-0.043639	-34.043981
2.050000	-0.072918	-57.948445	-71.648982	165.840008	-71.648982	165.840008	-0.044732	-34.873174
2.100000	-0.074590	-59.279148	-70.838210	165.240966	-70.838210	165.240966	-0.045824	-35.701091
2.150000	-0.076248	-60.604939	-70.060075	164.513665	-70.060075	164.513665	-0.046913	-36.527713
2.200000	-0.077894	-61.925795	-69.312248	163.677722	-69.312248	163.677722	-0.048003	-37.353025
2.250000	-0.079527	-63.241695	-68.592595	162.749144	-68.592595	162.749144	-0.049092	-38.177010
2.300000	-0.081148	-64.552622	-67.899174	161.741093	-67.899174	161.741093	-0.050182	-38.999652
2.350000	-0.082759	-65.858563	-67.230215	160.664472	-67.230215	160.664472	-0.051274	-39.820934
2.400000	-0.084359	-67.159507	-66.584116	159.528377	-66.584116	159.528377	-0.052368	-40.640841
2.450000	-0.085950	-68.455444	-65.959418	158.340448	-65.959418	158.340448	-0.053465	-41.459356
2.500000	-0.087533	-69.746370	-65.354797	157.107139	-65.354797	157.107139	-0.054565	-42.276464
2.550000	-0.089109	-71.032063	-64.768152	155.832425	-64.768152	155.832425	-0.055669	-43.092087
2.600000	-0.090680	-72.312742	-64.199384	154.522871	-64.199384	154.522871	-0.056778	-43.906271
2.650000	-0.092246	-73.588410	-63.647475	153.182434	-63.647475	153.182434	-0.057892	-44.719003
2.700000	-0.093809	-74.859070	-63.111491	151.814536	-63.111491	151.814536	-0.059012	-45.530266
2.750000	-0.095372	-76.124730	-62.590578	150.422154	-62.590578	150.422154	-0.060138	-46.340048
2.800000	-0.096934	-77.385400	-62.083949	149.007884	-62.083949	149.007884	-0.061271	-47.148336
2.850000	-0.098498	-78.641092	-61.590881	147.574003	-61.590881	147.574003	-0.062411	-47.955117
2.900000	-0.100066	-79.891820	-61.110706	146.122515	-61.110706	146.122515	-0.063558	-48.760378
2.950000	-0.101638	-81.137600	-60.642806	144.655188	-60.642806	144.655188	-0.064714	-49.564107
3.000000	-0.103216	-82.378450	-60.186609	143.173591	-60.186609	143.173591	-0.065878	-50.366293
3.050000	-0.104802	-83.614391	-59.741582	141.679119	-59.741582	141.679119	-0.067052	-51.166925
3.100000	-0.106398	-84.845445	-59.307232	140.173018	-59.307232	140.173018	-0.068234	-51.965992
3.150000	-0.108004	-86.071636	-58.883097	138.656401	-58.883097	138.656401	-0.069427	-52.763485
3.200000	-0.109623	-87.292991	-58.468748	137.130273	-58.468748	137.130273	-0.070630	-53.559394
3.250000	-0.111255	-88.509539	-58.063780	135.595536	-58.063780	135.595536	-0.071843	-54.353709
3.300000	-0.112902	-89.721309	-57.667818	134.053008	-57.667818	134.053008	-0.073068	-55.146424
3.350000	-0.114565	-90.928334	-57.280508	132.503430	-57.280508	132.503430	-0.074304	-55.937529
3.400000	-0.116246	-92.130647	-56.901517	130.947478	-56.901517	130.947478	-0.075553	-56.727017
3.450000	-0.117945	-93.328286	-56.530531	129.385767	-56.530531	129.385767	-0.076813	-57.514882
3.500000	-0.119664	-94.521286	-56.167258	127.818864	-56.167258	127.818864	-0.078086	-58.301117
3.550000	-0.121403	-95.709689	-55.811417	126.247285	-55.811417	126.247285	-0.079373	-59.085716
3.600000	-0.123165	-96.893535	-55.462746	124.671511	-55.462746	124.671511	-0.080673	-59.868674
3.650000	-0.124949	-98.072868	-55.120997	123.091984	-55.120997	123.091984	-0.081987	-60.649986
3.700000	-0.126756	-99.247732	-54.785935	121.509114	-54.785935	121.509114	-0.083315	-61.429648
3.750000	-0.128588	-100.418175	-54.457335	119.923282	-54.457335	119.923282	-0.084658	-62.207656
3.800000	-0.130446	-101.584055	-54.134739	118.334748	-54.134739	118.334748	-0.086017	-62.983935
3.850000	-0.132330	-102.745618	-53.818214	116.743971	-53.818214	116.743971	-0.087391	-63.758554
3.900000	-0.134241	-103.902913	-53.507566	115.151262	-53.507566	115.151262	-0.088781	-64.531510
3.950000	-0.136178	-105.055995	-53.202613	113.556912	-53.202613	113.556912	-0.090188	-65.302802
4.000000	-0.138143	-106.204919	-52.903177	111.961198	-52.903177	111.961198	-0.091611	-66.072429
4.050000	-0.140135	-107.349743	-52.609094	110.364380	-52.609094	110.364380	-0.093052	-66.840390
4.100000	-0.142156	-108.490523	-52.320202	108.766707	-52.320202	108.766707	-0.094510	-67.606685
4.150000	-0.144206	-109.627322	-52.036349	107.168415	-52.036349	107.168415	-0.095986	-68.371314
4.200000	-0.146284	-110.760199	-51.757391	105.569727	-51.757391	105.569727	-0.097481	-69.134278
4.250000	-0.148392	-111.889219	-51.483186	103.970858	-51.483186	103.970858	-0.098994	-69.895577
4.300000	-0.150529	-113.014446	-51.213601	102.372015	-51.213601	102.372015	-0.100527	-70.655215
4.350000	-0.152696	-114.135946	-50.948507	100.773392	-50.948507	100.773392	-0.102079	-71.413192
4.400000	-0.154893	-115.253787	-50.687783	99.175180	-50.687783	99.175180	-0.103651	-72.169512
4.450000	-0.157120	-116.368038	-50.431308	97.577560	-50.431308	97.577560	-0.105244	-72.924177
4.500000	-0.159377	-117.478770	-50.178968	95.980708	-50.178968	95.980708	-0.106857	-73.677190
4.550000	-0.161665	-118.586054	-49.930655	94.384794	-49.930655	94.384794	-0.108492	-74.428557
4.600000	-0.163983	-119.689965	-49.686263	92.789981	-49.686263	92.789981	-0.110149	-75.178281
4.650000	-0.166331	-120.790577	-49.445688	91.196429	-49.445688	91.196429	-0.111828	-75.926366
4.700000	-0.168710	-121.887967	-49.208832	89.604293	-49.208832	89.604293	-0.113530	-76.672819
4.750000	-0.171120	-122.982212	-48.975600	88.013723	-48.975600	88.013723	-0.115254	-77.417645
4.800000	-0.173561	-124.073392	-48.745900	86.424867	-48.745900	86.424867	-0.117002	-78.160849
4.850000	-0.176033	-125.161588	-48.519641	84.837869	-48.519641	84.837869	-0.118774	-78.902438
4.900000	-0.178537	-126.246881	-48.296736	83.252871	-48.296736	83.252871	-0.120571	-79.642419
4.950000	-0.181072	-127.329355	-48.077102	81.670013	-48.077102	81.670013	-0.122392	-80.380800
5.000000	-0.183638	-128.409096	-47.860654	80.089433	-47.860654	80.089433	-0.124238	-81.117588
5.050000	-0.186238	-129.486080	-47.647219	78.511380	-47.647219	78.511380	-0.126111	-81.852721
5.100000	-0.188870	-130.560514	-47.436819	76.935893	-47.436819	76.935893	-0.128011	-82.586279
5.150000	-0.191534	-131.632489	-47.229374	75.363108	-47.229374	75.363108	-0.129937	-83.318270
5.200000	-0.194232	-132.702097	-47.024808	73.793165	-47.024808	73.793165	-0.131890	-84.048703
5.250000	-0.196962	-133.769432	-46.823047	72.226205	-46.823047	72.226205	-0.133871	-84.777588
5.300000	-0.199726	-134.834592	-46.624015	70.662372	-46.624015	70.662372	-0.135879	-85.504934
5.350000	-0.202524	-135.897674	-46.427640	69.101813	-46.427640	69.101813	-0.137916	-86.230752
5.400000	-0.205357	-136.958781	-46.233847	67.544682	-46.233847	67.544682	-0.139982	-86.955052
5.450000	-0.208226	-138.018016	-46.042565	65.991139	-46.042565	65.991139	-0.142077	-87.677845
5.500000	-0.211130	-139.075486	-45.853720	64.441351	-45.853720	64.441351	-0.144202	-88.399144
5.550000	-0.214072	-140.131303	-45.667238	62.895495	-45.667238	62.895495	-0.146357	-89.118958
5.600000	-0.217051	-141.185580	-45.483046	61.353761	-45.483046	61.353761	-0.148543	-89.837301
5.650000	-0.220070	-142.238436	-45.301066	59.816351	-45.301066	59.816351	-0.150760	-90.554184
5.700000	-0.223128	-143.289994	-45.121221	58.283485	-45.121221	58.283485	-0.153008	-91.269620
5.750000	-0.226228	-144.340385	-44.943431	56.755402	-44.943431	56.755402	-0.155289	-91.983623
5.800000	-0.229371	-145.389744	-44.767613	55.232364	-44.767613	55.232364	-0.157602	-92.696204
5.850000	-0.232559	-146.438215	-44.593678	53.714659	-44.593678	53.714659	-0.159948	-93.407378
5.900000	-0.235794	-147.485949	-44.421535	52.202610	-44.421535	52.202610	-0.162327	-94.117158
5.950000	-0.239079	-148.533111	-44.251084	50.696577	-44.251084	50.696577	-0.164740	-94.825558
6.000000	-0.242416	-149.579875	-44.082218	49.196964	-44.082218	49.196964	-0.167188	-95.532593
6.050000	-0.245809	-150.626432	-43.914820	47.704230	-43.914820	47.704230	-0.169670	-96.238278
6.100000	-0.249261	-151.672989	-43.748762	46.218896	-43.748762	46.218896	-0.172188	-96.942627
6.150000	-0.252779	-152.719775	-43.583898	44.741563	-43.583898	44.741563	-0.174741	-97.645654
6.200000	-0.256367	-153.767046	-43.420066	43.272918	-43.420066	43.272918	-0.177330	-98.347376
6.250000	-0.260033	-154.815088	-43.257080	41.813763	-43.257080	41.813763	-0.179957	-99.047808
6.300000	-0.263790	-155.864295	-43.094605	40.365536	-43.094605	40.365536	-0.182622	-99.746911
6.350000	-0.267648	-156.915016	-42.932474	38.928944	-42.932474	38.928944	-0.185325	-100.444756
6.400000	-0.271619	-157.967701	-42.770374	37.505317	-42.770374	37.505317	-0.188066	-101.141360
6.450000	-0.275725	-159.022883	-42.607918	36.096236	-42.607918	36.096236	-0.190847	-101.836738
6.500000	-0.279991	-160.081205	-42.444635	34.703598	-42.444635	34.703598	-0.193667	-102.530906
6.550000	-0.284450	-161.143450	-42.279928	33.329695	-42.279928	33.329695	-0.196527	-103.223880
6.600000	-0.289150	-162.210596	-42.113036	31.977310	-42.113036	31.977310	-0.199428	-103.915674
6.650000	-0.294153	-163.283878	-41.942968	30.649842	-41.942968	30.649842	-0.202371	-104.606303
6.700000	-0.299615	-164.366057	-41.767235	29.355490	-41.767235	29.355490	-0.205362	-105.295648
6.750000	-0.305513	-165.456227	-41.587069	28.088621	-41.587069	28.088621	-0.208388	-105.984091
6.800000	-0.312072	-166.558175	-41.399065	26.860399	-41.399065	26.860399	-0.211458	-106.671395
6.850000	-0.319960	-167.681185	-41.194224	25.692456	-41.194224	25.692456	-0.214587	-107.357305
6.900000	-0.329337	-168.824757	-40.973281	24.574457	-40.973281	24.574457	-0.217757	-108.042252
6.950000	-0.340411	-169.990601	-40.735442	23.506990	-40.735442	23.506990	-0.220969	-108.726274
7.000000	-0.355975	-171.206252	-40.451957	22.525091	-40.451957	22.525091	-0.224245	-109.408862
7.050000	-0.377820	-172.478873	-40.114994	21.601667	-40.114994	21.601667	-0.227574	-110.090277
7.100000	-0.412749	-173.845391	-39.681191	20.691478	-39.681191	20.691478	-0.230963	-110.770202
7.150000	-0.475753	-175.350540	-39.084367	19.573831	-39.084367	19.573831	-0.234398	-111.448283
7.200000	-0.605313	-177.018548	-38.219013	17.500520	-38.219013	17.500520	-0.237799	-112.123756
7.250000	-0.906275	-178.511304	-36.995261	11.915764	-36.995261	11.915764	-0.240782	-112.795470
7.300000	-1.392764	-177.293663	-36.102586	-2.527295	-36.102586	-2.527295	-0.242311	-113.468672
7.350000	-1.179875	-173.879282	-37.453772	-18.115394	-37.453772	-18.115394	-0.244269	-114.157459
7.400000	-0.753586	-174.474776	-39.355287	-20.081830	-39.355287	-20.081830	-0.248343	-114.842894
7.450000	-0.562435	-176.134832	-40.266656	-16.885942	-40.266656	-16.885942	-0.252592	-115.521072
7.500000	-0.479225	-177.715953	-40.569390	-14.135584	-40.569390	-14.135584	-0.256669	-116.196291
7.550000	-0.439901	-179.144092	-40.613637	-12.563546	-40.613637	-12.563546	-0.260640	-116.870034
7.600000	-0.419670	179.536552	-40.558194	-11.880158	-40.558194	-11.880158	-0.264569	-117.542788
7.650000	-0.408662	178.286457	-40.463827	-11.766537	-40.463827	-11.766537	-0.268491	-118.214761
7.700000	-0.402911	177.084313	-40.353254	-12.044569	-40.353254	-12.044569	-0.272424	-118.886012
7.750000	-0.400297	175.915402	-40.236873	-12.591526	-40.236873	-12.591526	-0.276381	-119.556586
7.800000	-0.399788	174.771632	-40.119385	-13.340756	-40.119385	-13.340756	-0.280372	-120.226451
7.850000	-0.400296	173.640860	-40.002917	-14.194538	-40.002917	-14.194538	-0.284389	-120.895863
7.900000	-0.402025	172.526791	-39.888593	-15.183965	-39.888593	-15.183965	-0.288455	-121.564490
7.950000	-0.404298	171.420452	-39.776715	-16.238258	-39.776715	-16.238258	-0.292561	-122.232593
8.000000	-0.406995	170.320088	-39.667194	-17.343871	-39.667194	-17.343871	-0.296704	-122.900229
8.050000	-0.410085	169.225209	-39.560216	-18.498594	-39.560216	-18.498594	-0.300891	-123.567332
8.100000	-0.413515	168.134634	-39.455983	-19.696541	-39.455983	-19.696541	-0.305134	-124.233822
8.150000	-0.417129	167.046032	-39.353934	-20.917548	-39.353934	-20.917548	-0.309417	-124.899915
8.200000	-0.420906	165.959021	-39.253989	-22.159083	-39.253989	-22.159083	-0.313740	-125.565621
8.250000	-0.424873	164.873257	-39.156443	-23.423592	-39.156443	-23.423592	-0.318122	-126.230801
8.300000	-0.428961	163.787691	-39.060932	-24.701755	-39.060932	-24.701755	-0.322552	-126.895590
8.350000	-0.433138	162.702041	-38.967182	-25.989262	-38.967182	-25.989262	-0.327022	-127.560085
8.400000	-0.437421	161.615808	-38.875400	-27.287253	-38.875400	-27.287253	-0.331546	-128.224194
8.450000	-0.441788	160.528633	-38.785399	-28.592307	-38.785399	-28.592307	-0.336120	-128.887985
8.500000	-0.446231	159.440190	-38.697104	-29.902691	-38.697104	-29.902691	-0.340745	-129.551487
8.550000	-0.450743	158.350189	-38.610447	-31.216921	-38.610447	-31.216921	-0.345419	-130.214727
8.600000	-0.455318	157.258367	-38.525365	-32.533710	-38.525365	-32.533710	-0.350145	-130.877733
8.650000	-0.459953	156.164488	-38.441801	-33.851930	-38.441801	-33.851930	-0.354921	-131.540533
8.700000	-0.464646	155.068330	-38.359702	-35.170581	-38.359702	-35.170581	-0.359749	-132.203155
8.750000	-0.469395	153.969692	-38.279015	-36.488766	-38.279015	-36.488766	-0.364629	-132.865627
8.800000	-0.474200	152.868257	-38.199723	-37.805582	-38.199723	-37.805582	-0.369562	-133.527976
8.850000	-0.479060	151.763955	-38.121751	-39.120313	-38.121751	-39.120313	-0.374548	-134.190235
8.900000	-0.483975	150.656616	-38.045058	-40.432278	-38.045058	-40.432278	-0.379587	-134.852436
8.950000	-0.488945	149.546078	-37.969605	-41.740840	-37.969605	-41.740840	-0.384678	-135.514607
9.000000	-0.493973	148.432185	-37.895353	-43.045396	-37.895353	-43.045396	-0.389822	-136.176779
9.050000	-0.499061	147.314787	-37.822267	-44.345374	-37.822267	-44.345374	-0.395019	-136.838981
9.100000	-0.504210	146.193738	-37.750313	-45.640228	-37.750313	-45.640228	-0.400270	-137.501245
9.150000	-0.509425	145.068897	-37.679455	-46.929427	-37.679455	-46.929427	-0.405574	-138.163601
9.200000	-0.514708	143.940125	-37.609663	-48.212459	-37.609663	-48.212459	-0.410932	-138.826080
9.250000	-0.520065	142.807288	-37.540906	-49.488822	-37.540906	-49.488822	-0.416345	-139.488714
9.300000	-0.525499	141.670254	-37.473153	-50.758025	-37.473153	-50.758025	-0.421811	-140.151535
9.350000	-0.531016	140.528894	-37.406377	-52.019581	-37.406377	-52.019581	-0.427332	-140.814573
9.400000	-0.536621	139.383081	-37.340549	-53.273012	-37.340549	-53.273012	-0.432907	-141.477862
9.450000	-0.542322	138.232693	-37.275644	-54.517839	-37.275644	-54.517839	-0.438537	-142.141435
9.500000	-0.548124	137.077605	-37.211636	-55.753587	-37.211636	-55.753587	-0.444223	-142.805323
9.550000	-0.554035	135.917701	-37.148503	-56.979782	-37.148503	-56.979782	-0.449963	-143.469560
9.600000	-0.560063	134.752861	-37.086221	-58.195948	-37.086221	-58.195948	-0.455758	-144.134179
9.650000	-0.566217	133.582971	-37.024769	-59.401608	-37.024769	-59.401608	-0.461609	-144.799215
9.700000	-0.572506	132.407920	-36.964129	-60.596282	-36.964129	-60.596282	-0.467515	-145.464700
9.750000	-0.578940	131.227596	-36.904283	-61.779490	-36.904283	-61.779490	-0.473477	-146.130670
9.800000	-0.585529	130.041892	-36.845216	-62.950746	-36.845216	-62.950746	-0.479495	-146.797159
9.850000	-0.592284	128.850704	-36.786914	-64.109562	-36.786914	-64.109562	-0.485569	-147.464202
9.900000	-0.599218	127.653929	-36.729365	-65.255447	-36.729365	-65.255447	-0.491699	-148.131834
9.950000	-0.606342	126.451469	-36.672561	-66.387906	-36.672561	-66.387906	-0.497885	-148.800091
10.000000	-0.613671	125.243229	-36.616497	-67.506441	-36.616497	-67.506441	-0.504127	-149.469008
