! freq	dB(S11)	phase(S11)	dB(S12)	phase(S12)	
!     	dB(S21)	phase(S21)	dB(S22)	phase(S22)	
!S-par simulation data
#  GHz  S  DB  R 50
0.000000	-84.313206	0.000000	-0.000529	0.000000	-0.000529	0.000000	-84.313206	0.000000
0.050000	-43.941206	-90.815595	-0.004685	-2.478359	-0.004685	-2.478359	-43.937178	-90.527436
0.100000	-38.041539	-94.132455	-0.009998	-4.922107	-0.009998	-4.922107	-38.037523	-93.574865
0.150000	-34.565096	-97.180488	-0.014389	-7.356765	-0.014389	-7.356765	-34.560744	-96.348031
0.200000	-32.093419	-100.062347	-0.018667	-9.788809	-0.018667	-9.788809	-32.088858	-98.954435
0.250000	-30.177099	-102.847954	-0.023139	-12.218747	-0.023139	-12.218747	-30.172452	-101.464917
0.300000	-28.613305	-105.577386	-0.027852	-14.646857	-0.027852	-14.646857	-28.608677	-103.919616
0.350000	-27.293414	-108.268888	-0.032812	-17.073419	-0.032812	-17.073419	-27.288898	-106.336733
0.400000	-26.152346	-110.934144	-0.038019	-19.498772	-0.038019	-19.498772	-26.148017	-108.727916
0.450000	-25.148104	-113.580553	-0.043478	-21.923203	-0.043478	-21.923203	-25.144021	-111.100563
0.500000	-24.252035	-116.212965	-0.049196	-24.346921	-0.049196	-24.346921	-24.248244	-113.459549
0.550000	-23.443729	-118.834627	-0.055181	-26.770069	-0.055181	-26.770069	-23.440266	-115.808162
0.600000	-22.708136	-121.447748	-0.061436	-29.192734	-0.061436	-29.192734	-22.705028	-118.148658
0.650000	-22.033987	-124.053640	-0.067973	-31.614949	-0.067973	-31.614949	-22.031259	-120.482410
0.700000	-21.412154	-126.653802	-0.074775	-34.036766	-0.074775	-34.036766	-21.409820	-122.810929
0.750000	-20.835607	-129.248948	-0.081840	-36.458190	-0.081840	-36.458190	-20.833679	-125.134968
0.800000	-20.298875	-131.839444	-0.089175	-38.879202	-0.089175	-38.879202	-20.297365	-127.454956
0.850000	-19.797220	-134.425886	-0.096768	-41.299805	-0.096768	-41.299805	-19.796138	-129.771517
0.900000	-19.326719	-137.008716	-0.104612	-43.719999	-0.104612	-43.719999	-19.326072	-132.085125
0.950000	-18.884140	-139.588245	-0.112698	-46.139782	-0.112698	-46.139782	-18.883937	-134.396141
1.000000	-18.466713	-142.164766	-0.121022	-48.559153	-0.121022	-48.559153	-18.466961	-136.704912
1.050000	-18.072059	-144.738538	-0.129575	-50.978121	-0.129575	-50.978121	-18.072768	-139.011759
1.100000	-17.698114	-147.309789	-0.138352	-53.396699	-0.138352	-53.396699	-17.699292	-141.316988
1.150000	-17.343073	-149.878721	-0.147346	-55.814907	-0.147346	-55.814907	-17.344729	-143.620889
1.200000	-17.005344	-152.445510	-0.156553	-58.232775	-0.156553	-58.232775	-17.007491	-145.923740
1.250000	-16.683517	-155.010307	-0.165968	-60.650337	-0.165968	-60.650337	-16.686165	-148.225812
1.300000	-16.376399	-157.573201	-0.175590	-63.067634	-0.175590	-63.067634	-16.379560	-150.527358
1.350000	-16.082784	-160.134338	-0.185412	-65.484724	-0.185412	-65.484724	-16.086470	-152.828649
1.400000	-15.801651	-162.693803	-0.195431	-67.901668	-0.195431	-67.901668	-15.805872	-155.129930
1.450000	-15.532071	-165.251659	-0.205645	-70.318533	-0.205645	-70.318533	-15.536839	-157.431443
1.500000	-15.273202	-167.807952	-0.216053	-72.735394	-0.216053	-72.735394	-15.278526	-159.733426
1.550000	-15.024270	-170.362716	-0.226654	-75.152330	-0.226654	-75.152330	-15.030159	-162.036116
1.600000	-14.784568	-172.915970	-0.237447	-77.569429	-0.237447	-77.569429	-14.791029	-164.339746
1.650000	-14.553443	-175.467723	-0.248433	-79.986782	-0.248433	-79.986782	-14.560481	-166.644555
1.700000	-14.330285	-178.017979	-0.259612	-82.404483	-0.259612	-82.404483	-14.337905	-168.950772
1.750000	-14.114543	179.433272	-0.270987	-84.822633	-0.270987	-84.822633	-14.122748	-171.258641
1.800000	-13.905718	176.886065	-0.282563	-87.241343	-0.282563	-87.241343	-13.914510	-173.568431
1.850000	-13.703327	174.340422	-0.294343	-89.660724	-0.294343	-89.660724	-13.712708	-175.880402
1.900000	-13.506877	171.796321	-0.306325	-92.080863	-0.306325	-92.080863	-13.516845	-178.194735
1.950000	-13.315965	169.253802	-0.318517	-94.501874	-0.318517	-94.501874	-13.326519	179.488299
2.000000	-13.130235	166.712952	-0.330929	-96.923905	-0.330929	-96.923905	-13.141374	177.168336
2.050000	-12.949269	164.173726	-0.343560	-99.347020	-0.343560	-99.347020	-12.960990	174.845257
2.100000	-12.772730	161.636152	-0.356416	-101.771324	-0.356416	-101.771324	-12.785029	172.518815
2.150000	-12.600325	159.100349	-0.369515	-104.196995	-0.369515	-104.196995	-12.613200	170.188563
2.200000	-12.431722	156.566273	-0.382855	-106.624084	-0.382855	-106.624084	-12.445168	167.854409
2.250000	-12.266639	154.033943	-0.396444	-109.052687	-0.396444	-109.052687	-12.280653	165.516132
2.300000	-12.104819	151.503451	-0.410301	-111.482968	-0.410301	-111.482968	-12.119398	163.173327
2.350000	-11.946007	148.974806	-0.424431	-113.915015	-0.424431	-113.915015	-11.961147	160.825794
2.400000	-11.789973	146.447992	-0.438841	-116.348895	-0.438841	-116.348895	-11.805670	158.473401
2.450000	-11.636501	143.923067	-0.453546	-118.784747	-0.453546	-118.784747	-11.652751	156.115823
2.500000	-11.485383	141.400089	-0.468565	-121.222725	-0.468565	-121.222725	-11.502183	153.752708
2.550000	-11.336449	138.878998	-0.483899	-123.662858	-0.483899	-123.662858	-11.353794	151.384044
2.600000	-11.189535	136.359798	-0.499561	-126.105260	-0.499561	-126.105260	-11.207420	149.009614
2.650000	-11.044459	133.842588	-0.515580	-128.550184	-0.515580	-128.550184	-11.062879	146.628872
2.700000	-10.901122	131.327235	-0.531953	-130.997630	-0.531953	-130.997630	-10.920070	144.241949
2.750000	-10.759414	128.813698	-0.548692	-133.447737	-0.548692	-133.447737	-10.778884	141.848649
2.800000	-10.619215	126.301979	-0.565822	-135.900799	-0.565822	-135.900799	-10.639198	139.448487
2.850000	-10.480482	123.791917	-0.583346	-138.356945	-0.583346	-138.356945	-10.500968	137.041434
2.900000	-10.343196	121.283326	-0.601268	-140.816378	-0.601268	-140.816378	-10.364172	134.627382
2.950000	-10.207346	118.776008	-0.619604	-143.279515	-0.619604	-143.279515	-10.228797	132.205910
3.000000	-10.072998	116.269616	-0.638358	-145.746837	-0.638358	-145.746837	-10.094907	129.776696
3.050000	-9.940314	113.763638	-0.657516	-148.218824	-0.657516	-148.218824	-9.962656	127.339666
3.100000	-9.809566	111.257325	-0.677084	-150.696712	-0.677084	-150.696712	-9.832308	124.893963
3.150000	-9.681198	108.749689	-0.697016	-153.181456	-0.697016	-153.181456	-9.704296	122.439655
3.200000	-9.556002	106.239172	-0.717273	-155.675357	-0.717273	-155.675357	-9.579387	119.975967
3.250000	-9.435531	103.723158	-0.737802	-158.182931	-0.737802	-158.182931	-9.459079	117.501536
3.300000	-9.321902	101.199015	-0.758493	-160.709134	-0.758493	-160.709134	-9.345402	115.016960
3.350000	-9.221785	98.660596	-0.779298	-163.271956	-0.779298	-163.271956	-9.244695	112.521892
3.400000	-9.148763	96.107470	-0.800635	-165.905332	-0.800635	-165.905332	-9.169609	110.029929
3.450000	-9.146031	93.592255	-0.826922	-168.715386	-0.826922	-168.715386	-9.159104	107.632627
3.500000	-9.409718	92.191146	-0.922559	-172.151718	-0.922559	-172.151718	-9.369720	106.523822
3.550000	-8.494046	96.465414	-1.351710	-172.577469	-1.351710	-172.577469	-8.372907	109.502861
3.600000	-8.102001	89.173016	-1.067759	-174.361627	-1.067759	-174.361627	-8.098036	102.313809
3.650000	-8.054249	85.587355	-1.026668	-177.108553	-1.026668	-177.108553	-8.067918	98.834758
3.700000	-7.971809	82.722694	-1.031251	-179.739457	-1.031251	-179.739457	-7.990930	95.987223
3.750000	-7.869591	80.075087	-1.049470	177.690456	-1.049470	177.690456	-7.891108	93.315621
3.800000	-7.757088	77.518379	-1.073672	175.151291	-1.073672	175.151291	-7.779889	90.711086
3.850000	-7.639507	75.005004	-1.101006	172.627985	-1.101006	172.627985	-7.663115	88.134923
3.900000	-7.518299	72.521986	-1.130817	170.115954	-1.130817	170.115954	-7.542416	85.575734
3.950000	-7.395190	70.057807	-1.162417	167.610801	-1.162417	167.610801	-7.419644	83.025104
4.000000	-7.271082	67.607053	-1.195488	165.110402	-1.195488	165.110402	-7.295763	80.479306
4.050000	-7.146093	65.168774	-1.230099	162.614297	-1.230099	162.614297	-7.170906	77.936967
4.100000	-7.021028	62.739172	-1.265934	160.121141	-1.265934	160.121141	-7.045911	75.396498
4.150000	-6.895971	60.318010	-1.303054	157.630890	-1.303054	157.630890	-6.920869	72.857583
4.200000	-6.771131	57.904612	-1.341442	155.143413	-1.341442	155.143413	-6.795997	70.320020
4.250000	-6.646835	55.497723	-1.380966	152.658395	-1.380966	152.658395	-6.671633	67.783662
4.300000	-6.523030	53.098194	-1.421790	150.176364	-1.421790	150.176364	-6.547721	65.248887
4.350000	-6.400014	50.704884	-1.463765	147.697066	-1.463765	147.697066	-6.424569	62.715718
4.400000	-6.277883	48.317815	-1.506905	145.220730	-1.506905	145.220730	-6.302274	60.184468
4.450000	-6.156672	45.937616	-1.551308	142.747921	-1.551308	142.747921	-6.180872	57.655728
4.500000	-6.036588	43.563326	-1.596822	140.278381	-1.596822	140.278381	-6.060576	55.129508
4.550000	-5.917663	41.195800	-1.643560	137.812848	-1.643560	137.812848	-5.941416	52.606582
4.600000	-5.800013	38.834807	-1.691471	135.351439	-1.691471	135.351439	-5.823512	50.087237
4.650000	-5.683738	36.479964	-1.740481	132.894133	-1.740481	132.894133	-5.706967	47.571609
4.700000	-5.568899	34.132736	-1.790751	130.442188	-1.790751	130.442188	-5.591840	45.061025
4.750000	-5.455587	31.791866	-1.842092	127.994940	-1.842092	127.994940	-5.478228	42.554999
4.800000	-5.343880	29.458309	-1.894583	125.553320	-1.894583	125.553320	-5.366209	40.054564
4.850000	-5.233846	27.132062	-1.948185	123.117538	-1.948185	123.117538	-5.255852	37.560046
4.900000	-5.125538	24.813023	-2.002850	120.687713	-2.002850	120.687713	-5.147212	35.071670
4.950000	-5.019057	22.502119	-2.058624	118.264813	-2.058624	118.264813	-5.040392	32.590528
5.000000	-4.914379	20.198343	-2.115376	115.848145	-2.115376	115.848145	-4.935370	30.115969
5.050000	-4.811669	17.903369	-2.173200	113.439359	-2.173200	113.439359	-4.832312	27.649811
5.100000	-4.710903	15.616458	-2.231989	111.037962	-2.231989	111.037962	-4.731194	25.191587
5.150000	-4.612114	13.337786	-2.291713	108.644253	-2.291713	108.644253	-4.632054	22.741662
5.200000	-4.515364	11.067781	-2.352355	106.258769	-2.352355	106.258769	-4.534953	20.300653
5.250000	-4.420722	8.806910	-2.413890	103.882100	-2.413890	103.882100	-4.439963	17.869226
5.300000	-4.328153	6.554790	-2.476252	101.513994	-2.476252	101.513994	-4.347049	15.447125
5.350000	-4.237672	4.311551	-2.539407	99.154688	-2.539407	99.154688	-4.256229	13.034613
5.400000	-4.149366	2.077861	-2.603335	96.804956	-2.603335	96.804956	-4.167591	10.632529
5.450000	-4.063217	-0.146421	-2.667985	94.464768	-2.667985	94.464768	-4.081119	8.240820
5.500000	-3.979186	-2.361530	-2.733315	92.133981	-2.733315	92.133981	-3.996776	5.859301
5.550000	-3.897268	-4.567431	-2.799294	89.812723	-2.799294	89.812723	-3.914560	3.488068
5.600000	-3.817579	-6.763293	-2.865899	87.501962	-2.865899	87.501962	-3.834589	1.128093
5.650000	-3.739985	-8.949983	-2.933094	85.200900	-2.933094	85.200900	-3.756732	-1.221574
5.700000	-3.664458	-11.127633	-3.000864	82.909502	-3.000864	82.909502	-3.680965	-3.561087
5.750000	-3.591005	-13.296176	-3.069203	80.627964	-3.069203	80.627964	-3.607298	-5.890395
5.800000	-3.519637	-15.455578	-3.138121	78.356495	-3.138121	78.356495	-3.535752	-8.209527
5.850000	-3.450209	-17.606801	-3.207644	76.094231	-3.207644	76.094231	-3.466186	-10.519658
5.900000	-3.382657	-19.750352	-3.277826	73.840848	-3.277826	73.840848	-3.398545	-12.821489
5.950000	-3.316972	-21.886558	-3.348768	71.596357	-3.348768	71.596357	-3.332838	-15.115618
6.000000	-3.253013	-24.016663	-3.420628	69.359862	-3.420628	69.359862	-3.268942	-17.403736
6.050000	-3.190606	-26.142234	-3.493617	67.130228	-3.493617	67.130228	-3.206704	-19.687958
6.100000	-3.129590	-28.265042	-3.568051	64.906375	-3.568051	64.906375	-3.145999	-21.970768
6.150000	-3.069803	-30.387870	-3.644566	62.687077	-3.644566	62.687077	-3.086739	-24.256279
6.200000	-3.010875	-32.514893	-3.723881	60.469799	-3.723881	60.469799	-3.028627	-26.550111
6.250000	-2.952428	-34.651765	-3.807153	58.251901	-3.807153	58.251901	-2.971417	-28.860081
6.300000	-2.893947	-36.807752	-3.896372	56.029799	-3.896372	56.029799	-2.914830	-31.198989
6.350000	-2.834614	-39.000882	-3.995457	53.798156	-3.995457	53.798156	-2.858554	-33.591457
6.400000	-2.773661	-41.254183	-4.109428	51.553127	-4.109428	51.553127	-2.802525	-36.067972
6.450000	-2.710041	-43.626220	-4.251370	49.292940	-4.251370	49.292940	-2.747721	-38.705806
6.500000	-2.644717	-46.232148	-4.447287	47.045745	-4.447287	47.045745	-2.699825	-41.651684
6.550000	-2.590698	-49.348115	-4.759946	44.998552	-4.759946	44.998552	-2.685997	-45.242442
6.600000	-2.652995	-53.701816	-5.339893	44.494013	-5.339893	44.494013	-2.869885	-50.271457
6.650000	-3.467862	-58.122489	-5.558785	51.637108	-5.558785	51.637108	-4.073317	-54.175128
6.700000	-3.935377	-52.694998	-4.037439	50.386556	-4.037439	50.386556	-4.360980	-45.229460
6.750000	-3.419219	-52.157385	-3.790593	44.075414	-3.790593	44.075414	-3.566581	-45.153486
6.800000	-3.137325	-53.946971	-3.860354	40.043964	-3.860354	40.043964	-3.206061	-47.558766
6.850000	-2.984785	-56.010071	-3.953706	37.028944	-3.953706	37.028944	-3.025203	-50.027215
6.900000	-2.888106	-58.070453	-4.038064	34.443680	-4.038064	34.443680	-2.915314	-52.375521
6.950000	-2.820558	-60.094595	-4.111636	32.080204	-4.111636	32.080204	-2.840639	-54.620006
7.000000	-2.769945	-62.083635	-4.176252	29.843268	-4.176252	29.843268	-2.785706	-56.788225
7.050000	-2.730159	-64.043944	-4.233793	27.684925	-4.233793	27.684925	-2.743047	-58.900971
7.100000	-2.698292	-65.980011	-4.285309	25.581849	-4.285309	25.581849	-2.709156	-60.969987
7.150000	-2.672626	-67.895422	-4.331507	23.519791	-4.331507	23.519791	-2.681992	-63.003385
7.200000	-2.651250	-69.796038	-4.373734	21.484327	-4.373734	21.484327	-2.659407	-65.011962
7.250000	-2.633984	-71.682365	-4.411867	19.472801	-4.411867	19.472801	-2.641154	-66.996926
7.300000	-2.620473	-73.555894	-4.446016	17.481321	-4.446016	17.481321	-2.626812	-68.960922
7.350000	-2.610066	-75.419300	-4.476717	15.504886	-4.476717	15.504886	-2.615671	-70.908325
7.400000	-2.602536	-77.273870	-4.504100	13.541087	-4.504100	13.541087	-2.607476	-72.841128
7.450000	-2.597718	-79.120729	-4.528256	11.587975	-4.528256	11.587975	-2.602044	-74.760988
7.500000	-2.595498	-80.960885	-4.549246	9.643923	-4.549246	9.643923	-2.599243	-76.669320
7.550000	-2.595792	-82.795258	-4.567110	7.707529	-4.567110	7.707529	-2.598980	-78.567359
7.600000	-2.598742	-84.624378	-4.581622	5.777973	-4.581622	5.777973	-2.601388	-80.455559
7.650000	-2.604208	-86.449373	-4.592931	3.853723	-4.592931	3.853723	-2.606320	-82.335441
7.700000	-2.612089	-88.271195	-4.601149	1.933525	-4.601149	1.933525	-2.613670	-84.208253
7.750000	-2.622391	-90.090600	-4.606273	0.016405	-4.606273	0.016405	-2.623440	-86.074865
7.800000	-2.635132	-91.908335	-4.608289	-1.898575	-4.608289	-1.898575	-2.635645	-87.936106
7.850000	-2.650343	-93.725141	-4.607185	-3.812329	-4.607185	-3.812329	-2.650313	-89.792782
7.900000	-2.668099	-95.541766	-4.602905	-5.725771	-4.602905	-5.725771	-2.667515	-91.645644
7.950000	-2.688693	-97.359100	-4.595137	-7.639970	-4.595137	-7.639970	-2.687542	-93.495283
8.000000	-2.711933	-99.177900	-4.584190	-9.555849	-4.584190	-9.555849	-2.710203	-95.342845
8.050000	-2.737901	-100.998932	-4.570044	-11.474334	-4.570044	-11.474334	-2.735577	-97.189093
8.100000	-2.766691	-102.822971	-4.552680	-13.396367	-4.552680	-13.396367	-2.763756	-99.034796
8.150000	-2.798409	-104.650810	-4.532080	-15.322920	-4.532080	-15.322920	-2.794847	-100.880725
8.200000	-2.833176	-106.483256	-4.508227	-17.254997	-4.508227	-17.254997	-2.828969	-102.727659
8.250000	-2.871325	-108.321522	-4.480897	-19.194115	-4.480897	-19.194115	-2.866453	-104.576548
8.300000	-2.913013	-110.166550	-4.450093	-21.141505	-4.450093	-21.141505	-2.907457	-106.428306
8.350000	-2.958150	-112.018652	-4.416088	-23.097657	-4.416088	-23.097657	-2.951892	-108.283510
8.400000	-3.006965	-113.878746	-4.378839	-25.063847	-4.378839	-25.063847	-2.999987	-110.142985
8.450000	-3.060135	-115.748863	-4.337924	-27.042876	-4.337924	-27.042876	-3.052420	-112.008251
8.500000	-3.117417	-117.628657	-4.293822	-29.034584	-4.293822	-29.034584	-3.108952	-113.879439
8.550000	-3.179439	-119.519906	-4.246256	-31.041745	-4.246256	-31.041745	-3.170218	-115.757971
8.600000	-3.246485	-121.423340	-4.195301	-33.065944	-4.195301	-33.065944	-3.236509	-117.644622
8.650000	-3.318847	-123.339520	-4.141078	-35.108801	-4.141078	-35.108801	-3.308128	-119.540058
8.700000	-3.397153	-125.269627	-4.083518	-37.173293	-4.083518	-37.173293	-3.385725	-121.445388
8.750000	-3.482407	-127.215326	-4.022437	-39.264105	-4.022437	-39.264105	-3.470340	-123.362129
8.800000	-3.574945	-129.175956	-3.958195	-41.383186	-3.958195	-41.383186	-3.562355	-125.290130
8.850000	-3.675722	-131.151525	-3.890907	-43.535206	-3.890907	-43.535206	-3.662800	-127.229732
8.900000	-3.785980	-133.141246	-3.820766	-45.726343	-3.820766	-45.726343	-3.773037	-129.180701
8.950000	-3.907390	-135.142829	-3.748111	-47.965106	-3.748111	-47.965106	-3.894939	-131.141635
9.000000	-4.042186	-137.151044	-3.673584	-50.263209	-3.673584	-50.263209	-4.031074	-133.108691
9.050000	-4.195249	-139.153069	-3.598427	-52.647345	-3.598427	-52.647345	-4.187122	-135.071476
9.100000	-4.371513	-141.118531	-3.525984	-55.146766	-3.525984	-55.146766	-4.369359	-137.003022
9.150000	-4.578833	-142.978863	-3.463647	-57.811401	-3.463647	-57.811401	-4.588461	-138.837845
9.200000	-4.828782	-144.532627	-3.433803	-60.734256	-3.433803	-60.734256	-4.863400	-140.368617
9.250000	-5.104996	-145.241956	-3.502830	-63.940041	-3.502830	-63.940041	-5.193465	-140.978111
9.300000	-5.183209	-144.367956	-3.816382	-66.482431	-3.816382	-66.482431	-5.352478	-139.525894
9.350000	-4.736595	-145.355080	-4.051358	-65.474019	-4.051358	-65.474019	-4.867402	-139.453799
9.400000	-4.586523	-149.984607	-3.683559	-65.203677	-3.683559	-65.203677	-4.614471	-143.773143
9.450000	-4.777155	-154.057995	-3.330727	-67.272306	-3.330727	-67.272306	-4.752280	-147.818404
9.500000	-5.044832	-157.319732	-3.095374	-69.912565	-3.095374	-69.912565	-4.994275	-151.017696
9.550000	-5.327931	-160.202621	-2.920623	-72.630246	-2.920623	-72.630246	-5.261713	-153.774389
9.600000	-5.620728	-162.934386	-2.773502	-75.351004	-2.773502	-75.351004	-5.542220	-156.329266
9.650000	-5.926357	-165.598381	-2.642296	-78.073393	-2.642296	-78.073393	-5.836769	-158.768836
9.700000	-6.249653	-168.244705	-2.520288	-80.807950	-2.520288	-80.807950	-6.148900	-161.144662
9.750000	-6.594647	-170.898299	-2.404029	-83.563341	-2.404029	-83.563341	-6.481897	-163.483416
9.800000	-6.965577	-173.572090	-2.292093	-86.346597	-2.292093	-86.346597	-6.839467	-165.794915
9.850000	-7.367908	-176.276343	-2.183912	-89.165714	-2.183912	-89.165714	-7.226482	-168.080517
9.900000	-7.806370	-179.015528	-2.079194	-92.024328	-2.079194	-92.024328	-7.647045	-170.337777
9.950000	-8.286163	178.208598	-1.977962	-94.924498	-1.977962	-94.924498	-8.105599	-172.559718
10.000000	-8.813896	175.394693	-1.880459	-97.868599	-1.880459	-97.868599	-8.607721	-174.734351
