! freq	dB(S11)	phase(S11)	dB(S12)	phase(S12)	
!     	dB(S21)	phase(S21)	dB(S22)	phase(S22)	
!S-par simulation data
#  GHz  S  DB  R 50
0.000000	-0.000000	0.000000	-304.800708	0.000000	-304.800708	0.000000	-0.000000	0.000000
0.050000	-0.000779	-1.088495	-83.228242	87.646735	-83.228242	87.646735	-0.002165	-3.315554
0.100000	-0.002455	-2.170423	-77.218134	85.568236	-77.218134	85.568236	-0.007343	-6.613685
0.150000	-0.004163	-3.246240	-73.716039	83.434051	-73.716039	83.434051	-0.013385	-9.890358
0.200000	-0.005612	-4.318709	-71.246443	81.292304	-71.246443	81.292304	-0.019038	-13.148983
0.250000	-0.006872	-5.389818	-69.343588	79.154167	-69.343588	79.154167	-0.024106	-16.395357
0.300000	-0.008018	-6.460162	-67.802639	77.024787	-67.802639	77.024787	-0.028640	-19.630445
0.350000	-0.009126	-7.529966	-66.513614	74.907739	-66.513614	74.907739	-0.032794	-22.854340
0.400000	-0.010248	-8.599243	-65.411082	72.806144	-65.411082	72.806144	-0.036697	-26.066001
0.450000	-0.011426	-9.667890	-64.454553	70.724520	-64.454553	70.724520	-0.040430	-29.262661
0.500000	-0.012676	-10.735913	-63.612672	68.663594	-63.612672	68.663594	-0.044065	-32.444055
0.550000	-0.014008	-11.803294	-62.864698	66.625643	-62.864698	66.625643	-0.047630	-35.608626
0.600000	-0.015426	-12.870041	-62.195267	64.612877	-62.195267	64.612877	-0.051139	-38.754867
0.650000	-0.016923	-13.936191	-61.592657	62.627448	-61.592657	62.627448	-0.054598	-41.881357
0.700000	-0.018480	-15.001780	-61.047709	60.671465	-61.047709	60.671465	-0.058008	-44.986773
0.750000	-0.020070	-16.066775	-60.554259	58.749060	-60.554259	58.749060	-0.061364	-48.068468
0.800000	-0.021653	-17.131087	-60.106144	56.862379	-60.106144	56.862379	-0.064661	-51.125330
0.850000	-0.023196	-18.194537	-59.697905	55.012790	-59.697905	55.012790	-0.067898	-54.156898
0.900000	-0.024684	-19.256963	-59.324137	53.199534	-59.324137	53.199534	-0.071075	-57.164166
0.950000	-0.026106	-20.318061	-58.982385	51.426751	-58.982385	51.426751	-0.074185	-60.144926
1.000000	-0.027471	-21.377608	-58.669605	49.696445	-58.669605	49.696445	-0.077223	-63.098530
1.050000	-0.028791	-22.435450	-58.383142	48.010589	-58.383142	48.010589	-0.080187	-66.024441
1.100000	-0.030083	-23.491495	-58.120653	46.371137	-58.120653	46.371137	-0.083075	-68.922227
1.150000	-0.031360	-24.545705	-57.880043	44.780011	-57.880043	44.780011	-0.085884	-71.791559
1.200000	-0.032632	-25.598070	-57.659420	43.239107	-57.659420	43.239107	-0.088615	-74.632202
1.250000	-0.033905	-26.648593	-57.457057	41.750282	-57.457057	41.750282	-0.091265	-77.444011
1.300000	-0.035184	-27.697205	-57.271855	40.317778	-57.271855	40.317778	-0.093833	-80.225669
1.350000	-0.036470	-28.743990	-57.101750	38.941080	-57.101750	38.941080	-0.096322	-82.978460
1.400000	-0.037762	-29.788951	-56.945329	37.621864	-56.945329	37.621864	-0.098734	-85.702483
1.450000	-0.039060	-30.832083	-56.801244	36.361710	-56.801244	36.361710	-0.101070	-88.397907
1.500000	-0.040364	-31.873380	-56.668194	35.162081	-56.668194	35.162081	-0.103334	-91.064960
1.550000	-0.041671	-32.912831	-56.544915	34.024289	-56.544915	34.024289	-0.105527	-93.703926
1.600000	-0.042982	-33.950422	-56.430165	32.949459	-56.430165	32.949459	-0.107653	-96.315145
1.650000	-0.044295	-34.986137	-56.322714	31.938493	-56.322714	31.938493	-0.109716	-98.898999
1.700000	-0.045609	-36.019958	-56.221343	30.992019	-56.221343	30.992019	-0.111717	-101.455915
1.750000	-0.046924	-37.051868	-56.124831	30.110340	-56.124831	30.110340	-0.113663	-103.986360
1.800000	-0.048239	-38.081845	-56.031957	29.293380	-56.031957	29.293380	-0.115555	-106.490832
1.850000	-0.049554	-39.109870	-55.941495	28.540625	-55.941495	28.540625	-0.117399	-108.969863
1.900000	-0.050869	-40.135923	-55.852220	27.851064	-55.852220	27.851064	-0.119199	-111.424012
1.950000	-0.052183	-41.159984	-55.762906	27.223126	-55.762906	27.223126	-0.120957	-113.853859
2.000000	-0.053498	-42.182032	-55.672337	26.654630	-55.672337	26.654630	-0.122679	-116.260009
2.050000	-0.054813	-43.202048	-55.579313	26.142732	-55.579313	26.142732	-0.124369	-118.643083
2.100000	-0.056127	-44.220012	-55.482660	25.683887	-55.482660	25.683887	-0.126030	-121.003718
2.150000	-0.057443	-45.235904	-55.381246	25.273828	-55.381246	25.273828	-0.127667	-123.342566
2.200000	-0.058759	-46.249708	-55.273992	24.907552	-55.273992	24.907552	-0.129282	-125.660288
2.250000	-0.060077	-47.261405	-55.159890	24.579338	-55.159890	24.579338	-0.130881	-127.957556
2.300000	-0.061397	-48.270978	-55.038017	24.282781	-55.038017	24.282781	-0.132466	-130.235046
2.350000	-0.062719	-49.278412	-54.907552	24.010848	-54.907552	24.010848	-0.134040	-132.493444
2.400000	-0.064044	-50.283691	-54.767788	23.755963	-54.767788	23.755963	-0.135608	-134.733438
2.450000	-0.065372	-51.286803	-54.618143	23.510110	-54.618143	23.510110	-0.137172	-136.955718
2.500000	-0.066705	-52.287733	-54.458171	23.264951	-54.458171	23.264951	-0.138736	-139.160977
2.550000	-0.068042	-53.286376	-54.286936	23.011214	-54.286936	23.011214	-0.140302	-141.349233
2.600000	-0.069385	-54.282815	-54.104849	22.740302	-54.104849	22.740302	-0.141873	-143.521917
2.650000	-0.070733	-55.277042	-53.911888	22.443767	-53.911888	22.443767	-0.143452	-145.679722
2.700000	-0.072089	-56.269050	-53.708151	22.113399	-53.708151	22.113399	-0.145042	-147.823338
2.750000	-0.073451	-57.258833	-53.493848	21.741342	-53.493848	21.741342	-0.146644	-149.953453
2.800000	-0.074821	-58.246388	-53.269277	21.320184	-53.269277	21.320184	-0.148261	-152.070753
2.850000	-0.076200	-59.231712	-53.034814	20.843021	-53.034814	20.843021	-0.149895	-154.175919
2.900000	-0.077588	-60.214805	-52.790883	20.303499	-52.790883	20.303499	-0.151549	-156.269630
2.950000	-0.078986	-61.195669	-52.537940	19.695829	-52.537940	19.695829	-0.153224	-158.352563
3.000000	-0.080394	-62.174309	-52.276449	19.014778	-52.276449	19.014778	-0.154922	-160.425389
3.050000	-0.081814	-63.150730	-52.006861	18.255639	-52.006861	18.255639	-0.156644	-162.488778
3.100000	-0.083246	-64.124944	-51.729594	17.414182	-51.729594	17.414182	-0.158394	-164.543395
3.150000	-0.084690	-65.096961	-51.445016	16.486582	-51.445016	16.486582	-0.160172	-166.589906
3.200000	-0.086148	-66.066798	-51.153419	15.469351	-51.153419	15.469351	-0.161980	-168.628970
3.250000	-0.087620	-67.034474	-50.855012	14.359237	-50.855012	14.359237	-0.163820	-170.661247
3.300000	-0.089108	-68.000013	-50.549895	13.153139	-50.549895	13.153139	-0.165694	-172.687397
3.350000	-0.090612	-68.963326	-50.236942	11.841985	-50.236942	11.841985	-0.167606	-174.707820
3.400000	-0.092130	-69.924949	-49.920740	10.448450	-49.920740	10.448450	-0.169547	-176.724233
3.450000	-0.093672	-70.883905	-49.591180	8.916027	-49.591180	8.916027	-0.171541	-178.735269
3.500000	-0.095231	-71.841192	-49.256480	7.289773	-49.256480	7.289773	-0.173571	179.256450
3.550000	-0.096808	-72.796836	-48.916722	5.567894	-48.916722	5.567894	-0.175638	177.250629
3.600000	-0.098409	-73.750318	-48.564203	3.710529	-48.564203	3.710529	-0.177760	175.247357
3.650000	-0.100038	-74.701910	-48.198136	1.718822	-48.198136	1.718822	-0.179938	173.245395
3.700000	-0.101689	-75.652101	-47.823426	-0.383285	-47.823426	-0.383285	-0.182163	171.243904
3.750000	-0.103363	-76.600938	-47.440187	-2.598560	-47.440187	-2.598560	-0.184438	169.242564
3.800000	-0.105082	-77.547848	-47.026103	-5.014427	-47.026103	-5.014427	-0.186805	167.239928
3.850000	-0.106834	-78.493816	-46.595708	-7.564582	-46.595708	-7.564582	-0.189241	165.235466
3.900000	-0.108619	-79.438985	-46.151465	-10.244742	-46.151465	-10.244742	-0.191744	163.228974
3.950000	-0.110461	-80.383350	-45.669565	-13.132684	-45.669565	-13.132684	-0.194364	161.218183
4.000000	-0.112363	-81.327481	-45.152134	-16.214152	-45.152134	-16.214152	-0.197108	159.202393
4.050000	-0.114341	-82.271908	-44.591331	-19.507502	-44.591331	-19.507502	-0.200004	157.180196
4.100000	-0.116415	-83.217343	-43.977175	-23.034744	-43.977175	-23.034744	-0.203097	155.149872
4.150000	-0.118619	-84.164775	-43.296808	-26.822724	-43.296808	-26.822724	-0.206451	153.109231
4.200000	-0.121006	-85.115618	-42.533415	-30.905070	-42.533415	-30.905070	-0.210169	151.055356
4.250000	-0.123664	-86.071961	-41.664571	-35.325589	-41.664571	-35.325589	-0.214420	148.984169
4.300000	-0.126730	-87.036729	-40.666701	-40.132980	-40.666701	-40.132980	-0.219468	146.890386
4.350000	-0.130531	-88.015916	-39.478421	-45.447227	-39.478421	-45.447227	-0.225926	144.762624
4.400000	-0.135701	-89.019121	-38.032650	-51.417384	-38.032650	-51.417384	-0.234971	142.584091
4.450000	-0.143730	-90.064363	-36.225403	-58.329986	-36.225403	-58.329986	-0.249322	140.323459
4.500000	-0.158933	-91.190881	-33.863505	-66.850647	-33.863505	-66.850647	-0.276761	137.912922
4.550000	-0.197618	-92.492241	-30.570789	-78.878032	-30.570789	-78.878032	-0.346288	135.191867
4.600000	-0.353379	-94.100097	-25.602905	-102.202507	-25.602905	-102.202507	-0.623218	131.939741
4.650000	-0.750990	-92.434289	-21.469933	-168.869852	-21.469933	-168.869852	-1.315411	134.629028
4.700000	-0.312997	-92.064671	-26.820573	135.972706	-26.820573	135.972706	-0.513580	134.575908
4.750000	-0.201726	-93.584072	-31.334017	116.019500	-31.334017	116.019500	-0.326307	131.344410
4.800000	-0.172866	-94.816872	-34.331412	104.250328	-34.331412	104.250328	-0.279329	128.657483
4.850000	-0.162777	-95.901882	-36.463621	95.145607	-36.463621	95.145607	-0.263180	126.226488
4.900000	-0.158789	-96.916299	-38.088543	87.225568	-38.088543	87.225568	-0.256804	123.908988
4.950000	-0.157515	-97.889892	-39.345512	80.028191	-39.345512	80.028191	-0.254686	121.650523
5.000000	-0.157593	-98.838279	-40.333954	73.343960	-40.333954	73.343960	-0.254643	119.422778
5.050000	-0.158448	-99.769285	-41.109093	67.089995	-41.109093	67.089995	-0.255768	117.210894
5.100000	-0.159753	-100.688500	-41.730098	61.196881	-41.730098	61.196881	-0.257554	115.005156
5.150000	-0.161358	-101.598799	-42.228689	55.631782	-42.228689	55.631782	-0.259773	112.800175
5.200000	-0.163175	-102.502074	-42.629442	50.368683	-42.629442	50.368683	-0.262293	110.592311
5.250000	-0.165150	-103.399628	-42.951723	45.384276	-42.951723	45.384276	-0.265033	108.378987
5.300000	-0.167248	-104.292385	-43.210966	40.656411	-43.210966	40.656411	-0.267943	106.158305
5.350000	-0.169446	-105.181023	-43.419563	36.163687	-43.419563	36.163687	-0.270990	103.928814
5.400000	-0.171728	-106.066052	-43.587515	31.885510	-43.587515	31.885510	-0.274152	101.689373
5.450000	-0.174083	-106.947868	-43.722926	27.802277	-43.722926	27.802277	-0.277414	99.439059
5.500000	-0.176504	-107.826783	-43.832387	23.895564	-43.832387	23.895564	-0.280767	97.177107
5.550000	-0.178984	-108.703048	-43.921277	20.148248	-43.921277	20.148248	-0.284204	94.902874
5.600000	-0.181519	-109.576871	-43.994002	16.544562	-43.994002	16.544562	-0.287721	92.615810
5.650000	-0.184108	-110.448426	-44.054185	13.070095	-44.054185	13.070095	-0.291315	90.315439
5.700000	-0.186746	-111.317862	-44.104821	9.711744	-44.104821	9.711744	-0.294986	88.001343
5.750000	-0.189433	-112.185309	-44.148395	6.457632	-44.148395	6.457632	-0.298732	85.673157
5.800000	-0.192167	-113.050881	-44.186980	3.297015	-44.186980	3.297015	-0.302554	83.330558
5.850000	-0.194947	-113.914679	-44.222319	0.220170	-44.222319	0.220170	-0.306455	80.973258
5.900000	-0.197773	-114.776796	-44.255881	-2.781715	-44.255881	-2.781715	-0.310435	78.601004
5.950000	-0.200644	-115.637318	-44.288916	-5.716653	-44.288916	-5.716653	-0.314497	76.213571
6.000000	-0.203559	-116.496322	-44.322496	-8.591969	-44.322496	-8.591969	-0.318644	73.810761
6.050000	-0.206520	-117.353884	-44.357543	-11.414406	-44.357543	-11.414406	-0.322879	71.392397
6.100000	-0.209525	-118.210072	-44.394861	-14.190229	-44.394861	-14.190229	-0.327207	68.958326
6.150000	-0.212574	-119.064955	-44.435156	-16.925326	-44.435156	-16.925326	-0.331632	66.508411
6.200000	-0.215668	-119.918595	-44.479053	-19.625305	-44.479053	-19.625305	-0.336159	64.042533
6.250000	-0.218806	-120.771056	-44.527111	-22.295600	-44.527111	-22.295600	-0.340793	61.560587
6.300000	-0.221991	-121.622353	-44.580048	-24.940764	-44.580048	-24.940764	-0.345545	59.061771
6.350000	-0.225221	-122.472595	-44.638150	-27.567495	-44.638150	-27.567495	-0.350418	56.546699
6.400000	-0.228497	-123.321841	-44.701843	-30.181367	-44.701843	-30.181367	-0.355419	54.015287
6.450000	-0.231817	-124.170148	-44.771525	-32.788258	-44.771525	-32.788258	-0.360557	51.467452
6.500000	-0.235184	-125.017573	-44.847576	-35.394494	-44.847576	-35.394494	-0.365839	48.903106
6.550000	-0.238596	-125.864174	-44.930357	-38.007018	-44.930357	-38.007018	-0.371278	46.322145
6.600000	-0.242055	-126.710007	-45.020217	-40.633592	-45.020217	-40.633592	-0.376883	43.724447
6.650000	-0.245560	-127.555128	-45.117493	-43.283040	-45.117493	-43.283040	-0.382667	41.109863
6.700000	-0.249118	-128.399526	-45.223278	-45.970903	-45.223278	-45.970903	-0.388670	38.476187
6.750000	-0.252714	-129.243453	-45.335710	-48.695196	-45.335710	-48.695196	-0.394841	35.828766
6.800000	-0.256359	-130.086822	-45.456481	-51.474303	-45.456481	-51.474303	-0.401237	33.163723
6.850000	-0.260063	-130.929604	-45.587347	-54.349256	-45.587347	-54.349256	-0.407946	30.476309
6.900000	-0.263809	-131.772041	-45.725806	-57.310820	-45.725806	-57.310820	-0.414897	27.772967
6.950000	-0.267597	-132.614169	-45.871810	-60.363101	-45.871810	-60.363101	-0.422091	25.054201
7.000000	-0.271446	-133.455926	-46.027551	-63.593289	-46.027551	-63.593289	-0.429698	22.311105
7.050000	-0.275343	-134.297466	-46.190745	-66.996148	-46.190745	-66.996148	-0.437667	19.548356
7.100000	-0.279298	-135.138822	-46.360854	-70.654822	-46.360854	-70.654822	-0.446129	16.760672
7.150000	-0.283304	-135.980090	-46.535299	-74.575849	-46.535299	-74.575849	-0.455064	13.950746
7.200000	-0.287370	-136.821334	-46.710216	-78.885590	-46.710216	-78.885590	-0.464661	11.111707
7.250000	-0.291492	-137.662627	-46.880554	-83.608733	-46.880554	-83.608733	-0.474944	8.244741
7.300000	-0.295679	-138.504068	-47.034764	-88.913051	-47.034764	-88.913051	-0.486178	5.341654
7.350000	-0.299928	-139.345719	-47.161625	-94.835807	-47.161625	-94.835807	-0.498447	2.402055
7.400000	-0.304255	-140.187733	-47.229598	-101.634775	-47.229598	-101.634775	-0.512284	-0.588605
7.450000	-0.308655	-141.030160	-47.216025	-109.289288	-47.216025	-109.289288	-0.527863	-3.631314
7.500000	-0.313151	-141.873208	-47.057251	-118.030297	-47.057251	-118.030297	-0.546160	-6.748670
7.550000	-0.317749	-142.716974	-46.707842	-127.743910	-46.707842	-127.743910	-0.567922	-9.951838
7.600000	-0.322480	-143.561706	-46.089193	-138.368972	-46.089193	-138.368972	-0.595001	-13.273976
7.650000	-0.327383	-144.407658	-45.140862	-149.595184	-45.140862	-149.595184	-0.630238	-16.756594
7.700000	-0.332513	-145.255119	-43.842173	-161.090742	-43.842173	-161.090742	-0.678042	-20.455848
7.750000	-0.337993	-146.104589	-42.158668	-172.598061	-42.158668	-172.598061	-0.748187	-24.482580
7.800000	-0.344051	-146.956685	-40.070592	175.877868	-40.070592	175.877868	-0.861144	-29.023996
7.850000	-0.351163	-147.811915	-37.550851	163.848998	-37.550851	163.848998	-1.065627	-34.414643
7.900000	-0.360414	-148.669239	-34.538544	149.965281	-34.538544	149.965281	-1.499397	-41.277633
7.950000	-0.374169	-149.517047	-31.003567	130.974452	-31.003567	130.974452	-2.642235	-50.429165
8.000000	-0.392796	-150.294228	-27.504893	99.956437	-27.504893	99.956437	-6.371845	-55.625917
8.050000	-0.392672	-150.982192	-26.572990	57.149367	-26.572990	57.149367	-7.577507	-11.189159
8.100000	-0.379282	-151.804744	-28.545510	25.211926	-28.545510	25.211926	-3.222119	-10.500173
8.150000	-0.375687	-152.686737	-30.785745	7.390220	-30.785745	7.390220	-1.849827	-19.541455
8.200000	-0.377334	-153.565029	-32.582492	-3.512786	-32.582492	-3.512786	-1.362612	-26.599982
8.250000	-0.380901	-154.435942	-33.995329	-11.072969	-33.995329	-11.072969	-1.167932	-32.181690
8.300000	-0.385209	-155.302663	-35.189611	-16.838512	-35.189611	-16.838512	-1.102765	-36.937368
8.350000	-0.389864	-156.167655	-36.317174	-21.190066	-36.317174	-21.190066	-1.131357	-41.143636
8.400000	-0.394804	-157.033091	-37.516476	-22.734300	-37.516476	-22.734300	-1.270416	-44.590391
8.450000	-0.400377	-157.899694	-38.230889	-18.300260	-38.230889	-18.300260	-1.409835	-46.305986
8.500000	-0.406574	-158.761648	-37.591046	-16.657859	-37.591046	-16.657859	-1.201890	-47.684219
8.550000	-0.412156	-159.620870	-37.220665	-20.981946	-37.220665	-20.981946	-0.964830	-50.888284
8.600000	-0.417416	-160.483014	-37.243626	-25.297043	-37.243626	-25.297043	-0.862094	-54.455563
8.650000	-0.422706	-161.347856	-37.370641	-28.771618	-37.370641	-28.771618	-0.822328	-57.856990
8.700000	-0.428082	-162.214863	-37.507864	-31.666267	-37.507864	-31.666267	-0.808161	-61.090720
8.750000	-0.433538	-163.083828	-37.630830	-34.205238	-37.630830	-34.205238	-0.805334	-64.205205
8.800000	-0.439068	-163.954769	-37.734480	-36.511822	-37.734480	-36.511822	-0.808492	-67.232886
8.850000	-0.444666	-164.827762	-37.819318	-38.662635	-37.819318	-38.662635	-0.815143	-70.195758
8.900000	-0.450330	-165.702905	-37.887604	-40.707138	-37.887604	-40.707138	-0.824020	-73.108760
8.950000	-0.456058	-166.580323	-37.941975	-42.678253	-37.941975	-42.678253	-0.834429	-75.982150
9.000000	-0.461854	-167.460394	-37.984222	-44.595758	-37.984222	-44.595758	-0.846041	-78.820836
9.050000	-0.467712	-168.342985	-38.018251	-46.481990	-38.018251	-46.481990	-0.858475	-81.634209
9.100000	-0.473632	-169.228222	-38.046216	-48.347759	-38.046216	-48.347759	-0.871576	-84.426372
9.150000	-0.479616	-170.116232	-38.070023	-50.200878	-38.070023	-50.200878	-0.885237	-87.200610
9.200000	-0.485667	-171.007326	-38.091284	-52.046742	-38.091284	-52.046742	-0.899404	-89.958867
9.250000	-0.491782	-171.901437	-38.111662	-53.889689	-38.111662	-53.889689	-0.913988	-92.704549
9.300000	-0.497964	-172.798799	-38.132351	-55.732004	-38.132351	-55.732004	-0.928956	-95.439194
9.350000	-0.504214	-173.699571	-38.154437	-57.575119	-38.154437	-57.575119	-0.944276	-98.164551
9.400000	-0.510533	-174.603918	-38.178817	-59.419606	-38.178817	-59.419606	-0.959919	-100.882178
9.450000	-0.516923	-175.512016	-38.206221	-61.265366	-38.206221	-61.265366	-0.975863	-103.593482
9.500000	-0.523384	-176.424051	-38.237225	-63.111773	-38.237225	-63.111773	-0.992089	-106.299755
9.550000	-0.529917	-177.340222	-38.272264	-64.957799	-38.272264	-64.957799	-1.008583	-109.002204
9.600000	-0.536523	-178.260741	-38.311647	-66.802115	-38.311647	-66.802115	-1.025330	-111.701963
9.650000	-0.543201	-179.185836	-38.355569	-68.643166	-38.355569	-68.643166	-1.042320	-114.400116
9.700000	-0.549951	179.884248	-38.404128	-70.479248	-38.404128	-70.479248	-1.059540	-117.097702
9.750000	-0.556770	178.949246	-38.457333	-72.308560	-38.457333	-72.308560	-1.076981	-119.795729
9.800000	-0.563656	178.008872	-38.515122	-74.129256	-38.515122	-74.129256	-1.094635	-122.495178
9.850000	-0.570603	177.062813	-38.577368	-75.939482	-38.577368	-75.939482	-1.112493	-125.197010
9.900000	-0.577605	176.110733	-38.643898	-77.737415	-38.643898	-77.737415	-1.130546	-127.902169
9.950000	-0.584651	175.152261	-38.714495	-79.521284	-38.714495	-79.521284	-1.148787	-130.611586
10.000000	-0.591729	174.186996	-38.788914	-81.289401	-38.788914	-81.289401	-1.167207	-133.326179
