! freq	dB(S11)	phase(S11)	dB(S12)	phase(S12)	
!     	dB(S21)	phase(S21)	dB(S22)	phase(S22)	
!S-par simulation data
#  GHz  S  DB  R 50
0.000000	-6153.053111	0.000000	-0.000000	0.000000	-0.000000	0.000000	-6153.053111	0.000000
0.050000	-36.527648	-92.899869	-0.004535	-2.967683	-0.004535	-2.967683	-36.527736	-92.897515
0.100000	-30.536356	-95.833280	-0.013803	-5.901859	-0.013803	-5.901859	-30.536316	-95.828005
0.150000	-27.055893	-98.803770	-0.023930	-8.814432	-0.023930	-8.814432	-27.055766	-98.795260
0.200000	-24.605112	-101.793271	-0.034680	-11.718255	-0.034680	-11.718255	-24.604950	-101.781653
0.250000	-22.720672	-104.782578	-0.046542	-14.616965	-0.046542	-14.616965	-22.720502	-104.768141
0.300000	-21.196416	-107.758250	-0.059819	-17.510538	-0.059819	-17.510538	-21.196241	-107.741209
0.350000	-19.921830	-110.714749	-0.074538	-20.398110	-0.074538	-20.398110	-19.921644	-110.695185
0.400000	-18.831949	-113.650281	-0.090668	-23.278463	-0.090668	-23.278463	-18.831748	-113.628191
0.450000	-17.885924	-116.564365	-0.108160	-26.150086	-0.108160	-26.150086	-17.885707	-116.539688
0.500000	-17.053953	-119.459383	-0.126800	-29.012475	-0.126800	-29.012475	-17.053719	-119.432047
0.550000	-16.315691	-122.336775	-0.146428	-31.864925	-0.146428	-31.864925	-16.315442	-122.306702
0.600000	-15.657162	-125.197159	-0.166900	-34.706405	-0.166900	-34.706405	-15.656899	-125.164270
0.650000	-15.066083	-128.042330	-0.187996	-37.536958	-0.187996	-37.536958	-15.065808	-128.006555
0.700000	-14.533328	-130.873394	-0.209525	-40.356558	-0.209525	-40.356558	-14.533040	-130.834667
0.750000	-14.052498	-133.690737	-0.231307	-43.164899	-0.231307	-43.164899	-14.052199	-133.648991
0.800000	-13.617806	-136.495107	-0.253151	-45.962213	-0.253151	-45.962213	-13.617495	-136.450277
0.850000	-13.224307	-139.287285	-0.274883	-48.748978	-0.274883	-48.748978	-13.223984	-139.239302
0.900000	-12.868085	-142.067875	-0.296344	-51.525677	-0.296344	-51.525677	-12.867750	-142.016669
0.950000	-12.545999	-144.837397	-0.317387	-54.292805	-0.317387	-54.292805	-12.545650	-144.782893
1.000000	-12.255335	-147.596437	-0.337882	-57.050954	-0.337882	-57.050954	-12.254971	-147.538551
1.050000	-11.993798	-150.345612	-0.357711	-59.800733	-0.357711	-59.800733	-11.993420	-150.284254
1.100000	-11.759442	-153.085581	-0.376766	-62.542747	-0.376766	-62.542747	-11.759048	-153.020654
1.150000	-11.550613	-155.817055	-0.394943	-65.277589	-0.394943	-65.277589	-11.550201	-155.748449
1.200000	-11.365906	-158.540794	-0.412136	-68.005849	-0.412136	-68.005849	-11.365476	-158.468391
1.250000	-11.204133	-161.257612	-0.428238	-70.728145	-0.428238	-70.728145	-11.203685	-161.181281
1.300000	-11.064717	-163.968263	-0.443106	-73.445057	-0.443106	-73.445057	-11.064248	-163.887858
1.350000	-10.946409	-166.673818	-0.456648	-76.157498	-0.456648	-76.157498	-10.945919	-166.589180
1.400000	-10.848540	-169.375239	-0.468754	-78.866362	-0.468754	-78.866362	-10.848028	-169.286192
1.450000	-10.770586	-172.073529	-0.479318	-81.572666	-0.479318	-81.572666	-10.770050	-171.979882
1.500000	-10.712154	-174.769726	-0.488252	-84.277531	-0.488252	-84.277531	-10.711592	-174.671265
1.550000	-10.672979	-177.464895	-0.495481	-86.982166	-0.495481	-86.982166	-10.672392	-177.361386
1.600000	-10.652923	179.839875	-0.500949	-89.687847	-0.500949	-89.687847	-10.652307	179.948690
1.650000	-10.651969	177.143481	-0.504620	-92.395891	-0.504620	-92.395891	-10.651321	177.257890
1.700000	-10.670220	174.444814	-0.506477	-95.107637	-0.506477	-95.107637	-10.669540	174.565135
1.750000	-10.707910	171.742766	-0.506521	-97.824433	-0.506521	-97.824433	-10.707194	171.869353
1.800000	-10.765399	169.036238	-0.504773	-100.547624	-0.504773	-100.547624	-10.764644	169.169485
1.850000	-10.843189	166.324155	-0.501270	-103.278536	-0.501270	-103.278536	-10.842390	166.464504
1.900000	-10.942147	163.605388	-0.496046	-106.018587	-0.496046	-106.018587	-10.941301	163.753340
1.950000	-11.063098	160.878904	-0.489176	-108.769092	-0.489176	-108.769092	-11.062198	161.035025
2.000000	-11.206814	158.143838	-0.480763	-111.531187	-0.480763	-111.531187	-11.205856	158.308765
2.050000	-11.374490	155.399330	-0.470910	-114.306058	-0.470910	-114.306058	-11.373465	155.573785
2.100000	-11.567548	152.644614	-0.459733	-117.094840	-0.459733	-117.094840	-11.566448	152.829425
2.150000	-11.787675	149.879043	-0.447361	-119.898610	-0.447361	-119.898610	-11.786490	150.075163
2.200000	-12.036871	147.102117	-0.433940	-122.718375	-0.433940	-122.718375	-12.035589	147.310649
2.250000	-12.317503	144.313514	-0.419627	-125.555068	-0.419627	-125.555068	-12.316109	144.535747
2.300000	-12.632384	141.513136	-0.404592	-128.409535	-0.404592	-128.409535	-12.630859	141.750586
2.350000	-12.984872	138.701160	-0.389017	-131.282534	-0.389017	-131.282534	-12.983194	138.955630
2.400000	-13.379002	135.878115	-0.373095	-134.174715	-0.373095	-134.174715	-13.377144	136.151768
2.450000	-13.819669	133.044983	-0.357029	-137.086622	-0.357029	-137.086622	-13.817595	133.340447
2.500000	-14.312873	130.203336	-0.341030	-140.018677	-0.341030	-140.018677	-14.310538	130.523845
2.550000	-14.866711	127.355490	-0.325325	-142.971622	-0.325325	-142.971622	-14.864053	127.705199
2.600000	-15.490004	124.505216	-0.310139	-145.945169	-0.310139	-145.945169	-15.486943	124.889341
2.650000	-16.194879	121.657771	-0.295697	-148.939322	-0.295697	-148.939322	-16.191301	122.083110
2.700000	-16.997318	118.820953	-0.282227	-151.953937	-0.282227	-151.953937	-16.993062	119.296603
2.750000	-17.919004	116.006632	-0.269953	-154.988718	-0.269953	-154.988718	-17.913825	116.545156
2.800000	-18.990410	113.233616	-0.259098	-158.043210	-0.259098	-158.043210	-18.983923	113.853055
2.850000	-20.256346	110.533450	-0.249876	-161.116806	-0.249876	-161.116806	-20.247902	111.261040
2.900000	-21.786686	107.963388	-0.242492	-164.208739	-0.242492	-164.208739	-21.775081	108.843055
2.950000	-23.699471	105.639568	-0.237138	-167.318096	-0.237138	-167.318096	-23.682187	106.748967
3.000000	-26.218637	103.839885	-0.233990	-170.443815	-0.233990	-170.443815	-26.189292	105.336274
3.050000	-29.855115	103.437971	-0.233208	-173.584704	-0.233208	-173.584704	-29.791344	105.718658
3.100000	-36.250129	109.265568	-0.234927	-176.739442	-0.234927	-176.739442	-35.994875	113.787869
3.150000	-45.467852	-150.162862	-0.239291	-179.906721	-0.239291	-179.906721	-43.833261	-156.528726
3.200000	-33.744065	-106.390529	-0.246389	176.915032	-0.246389	176.915032	-33.622003	-110.042241
3.250000	-28.419190	-103.613449	-0.256249	173.727547	-0.256249	173.727547	-28.387813	-105.622195
3.300000	-25.110927	-104.646331	-0.268898	170.532467	-0.268898	170.532467	-25.098395	-106.022073
3.350000	-22.717142	-106.733298	-0.284421	167.331323	-0.284421	167.331323	-22.711157	-107.781603
3.400000	-20.846897	-109.228952	-0.302513	164.126191	-0.302513	164.126191	-20.843900	-110.070321
3.450000	-19.318690	-111.958043	-0.323395	160.918331	-0.323395	160.918331	-19.317222	-112.661877
3.500000	-18.031342	-114.811445	-0.346749	157.709441	-0.346749	157.709441	-18.030751	-115.415107
3.550000	-16.925356	-117.746579	-0.372614	154.501026	-0.372614	154.501026	-16.925298	-118.275184
3.600000	-15.961159	-120.733275	-0.400807	151.294608	-0.400807	151.294608	-15.961442	-121.203352
3.650000	-15.110939	-123.752806	-0.431067	148.091447	-0.431067	148.091447	-15.111454	-124.175633
3.700000	-14.355054	-126.794083	-0.463179	144.892678	-0.463179	144.892678	-14.355731	-127.177962
3.750000	-13.678917	-129.849353	-0.496899	141.699275	-0.496899	141.699275	-13.679712	-130.200565
3.800000	-13.071957	-132.913134	-0.531986	138.512214	-0.531986	138.512214	-13.072841	-133.236640
3.850000	-12.525066	-135.981086	-0.568118	135.331990	-0.568118	135.331990	-12.526021	-136.280706
3.900000	-12.031227	-139.050248	-0.604986	132.158950	-0.604986	132.158950	-12.032240	-139.329044
3.950000	-11.584873	-142.118498	-0.642274	128.993261	-0.642274	128.993261	-11.585937	-142.378975
4.000000	-11.181867	-145.184289	-0.679646	125.834987	-0.679646	125.834987	-11.182976	-145.428555
4.050000	-10.818377	-148.246659	-0.716748	122.683768	-0.716748	122.683768	-10.819528	-148.476466
4.100000	-10.491026	-151.305182	-0.753237	119.538945	-0.753237	119.538945	-10.492218	-151.521996
4.150000	-10.197261	-154.359796	-0.788767	116.399705	-0.788767	116.399705	-10.198494	-154.564877
4.200000	-9.935204	-157.410766	-0.822973	113.265012	-0.822973	113.265012	-9.936480	-157.605216
4.250000	-9.703387	-160.458730	-0.855474	110.133500	-0.855474	110.133500	-9.704707	-160.643518
4.300000	-9.499960	-163.504728	-0.885959	107.003452	-0.885959	107.003452	-9.501327	-163.680693
4.350000	-9.324190	-166.550029	-0.914053	103.872927	-0.914053	103.872927	-9.325608	-166.717929
4.400000	-9.175878	-169.596276	-0.939349	100.739549	-0.939349	100.739549	-9.177352	-169.756809
4.450000	-9.051949	-172.645006	-0.961860	97.601357	-0.961860	97.601357	-9.053482	-172.798742
4.500000	-8.955456	-175.698789	-0.980853	94.454642	-0.980853	94.454642	-8.957055	-175.846333
4.550000	-8.884797	-178.759630	-0.996271	91.296779	-0.996271	91.296779	-8.886469	-178.901508
4.600000	-8.838881	178.170588	-1.008078	88.125258	-1.008078	88.125258	-8.840633	178.033902
4.650000	-8.823216	175.087003	-1.015308	84.933032	-1.015308	84.933032	-8.825058	174.954968
4.700000	-8.833714	171.989186	-1.018544	81.719581	-1.018544	81.719581	-8.835656	171.861361
4.750000	-8.874358	168.872814	-1.017239	78.478340	-1.017239	78.478340	-8.876414	168.748717
4.800000	-8.946011	165.735651	-1.011427	75.205582	-1.011427	75.205582	-8.948196	165.614807
4.850000	-9.053150	162.573252	-1.000767	71.893672	-1.000767	71.893672	-9.055485	162.455134
4.900000	-9.198354	159.383264	-0.985365	68.537389	-0.985365	68.537389	-9.200861	159.267321
4.950000	-9.385408	156.163597	-0.965338	65.130894	-0.965338	65.130894	-9.388116	156.049232
5.000000	-9.619682	152.912539	-0.940829	61.667363	-0.940829	61.667363	-9.622627	152.799077
5.050000	-9.908530	149.629237	-0.912036	58.138756	-0.912036	58.138756	-9.911759	149.515886
5.100000	-10.261590	146.314897	-0.879292	54.536066	-0.879292	54.536066	-10.265165	146.200695
5.150000	-10.689484	142.975077	-0.843201	50.852293	-0.843201	50.852293	-10.693487	142.858856
5.200000	-11.207573	139.619993	-0.804441	47.078652	-0.804441	47.078652	-11.212119	139.500267
5.250000	-11.836861	136.268796	-0.763886	43.205764	-0.763886	43.205764	-11.842110	136.143603
5.300000	-12.609120	132.959062	-0.722663	39.220974	-0.722663	39.220974	-12.615322	132.825606
5.350000	-13.564707	129.757320	-0.682227	35.117661	-0.682227	35.117661	-13.572252	129.611645
5.400000	-14.767096	126.785220	-0.644229	30.887828	-0.644229	30.887828	-14.776649	126.621386
5.450000	-16.325254	124.310872	-0.610811	26.519191	-0.610811	26.519191	-16.338099	124.118907
5.500000	-18.427942	122.957634	-0.584454	22.004296	-0.584454	22.004296	-18.446949	122.719719
5.550000	-21.451353	124.496792	-0.567931	17.338348	-0.567931	17.338348	-21.484663	124.179681
5.600000	-26.156799	136.924361	-0.564749	12.514550	-0.564749	12.514550	-26.238002	136.515861
5.650000	-30.435421	-167.918477	-0.577903	7.537951	-0.577903	7.537951	-30.592492	-167.468620
5.700000	-24.641139	-121.364549	-0.611935	2.405890	-0.611935	2.405890	-24.663281	-120.779015
5.750000	-19.666143	-112.477241	-0.670233	-2.869266	-0.670233	-2.869266	-19.665983	-112.126498
5.800000	-16.247679	-112.420417	-0.757669	-8.278445	-0.757669	-8.278445	-16.243966	-112.174692
5.850000	-13.696030	-115.053408	-0.877040	-13.798378	-0.877040	-13.798378	-13.691704	-114.863337
5.900000	-11.676198	-118.928896	-1.032824	-19.407886	-1.032824	-19.407886	-11.671947	-118.771532
5.950000	-10.022833	-123.439563	-1.226690	-25.075186	-1.226690	-25.075186	-10.018818	-123.303343
6.000000	-8.641131	-128.322657	-1.461226	-30.768176	-1.461226	-30.768176	-8.637382	-128.200679
6.050000	-7.472082	-133.413452	-1.736674	-36.451428	-1.736674	-36.451428	-7.468584	-133.301435
6.100000	-6.476215	-138.608128	-2.052976	-42.089484	-2.052976	-42.089484	-6.472943	-138.503185
6.150000	-5.624506	-143.830621	-2.408635	-47.649313	-2.408635	-47.649313	-5.621433	-143.730739
6.200000	-4.895205	-149.023649	-2.801546	-53.100196	-2.801546	-53.100196	-4.892307	-148.927358
6.250000	-4.270286	-154.143896	-3.228658	-58.417255	-3.228658	-58.417255	-4.267542	-154.050104
6.300000	-3.735429	-159.157692	-3.686593	-63.578804	-3.686593	-63.578804	-3.732820	-159.065554
6.350000	-3.277383	-164.043007	-4.171562	-68.572178	-4.171562	-68.572178	-3.274893	-163.951872
6.400000	-2.885219	-168.784744	-4.679941	-73.388557	-4.679941	-73.388557	-2.882834	-168.694096
6.450000	-2.549486	-173.374189	-5.208270	-78.023813	-5.208270	-78.023813	-2.547194	-173.283611
6.500000	-2.262005	-177.807780	-5.753376	-82.477747	-5.753376	-82.477747	-2.259796	-177.716930
6.550000	-2.015719	177.914026	-6.312450	-86.753269	-6.312450	-86.753269	-2.013583	178.005429
6.600000	-1.804556	173.787757	-6.883092	-90.855599	-6.883092	-90.855599	-1.802485	173.879947
6.650000	-1.623315	169.807785	-7.463325	-94.791553	-7.463325	-94.791553	-1.621304	169.900959
6.700000	-1.467840	165.968941	-8.051101	-98.566743	-8.051101	-98.566743	-1.465882	166.063269
6.750000	-1.334705	162.266366	-8.644172	-102.185791	-8.644172	-102.185791	-1.332794	162.361995
6.800000	-1.218799	158.677439	-9.245802	-105.673456	-9.245802	-105.673456	-1.216931	158.774484
6.850000	-1.119266	155.207428	-9.851522	-109.021801	-9.851522	-109.021801	-1.117436	155.305998
6.900000	-1.033022	151.841438	-10.463243	-112.246088	-10.463243	-112.246088	-1.031227	151.941625
6.950000	-0.958145	148.571257	-11.081262	-115.353360	-11.081262	-115.353360	-0.956381	148.673142
7.000000	-0.893579	145.394340	-11.703752	-118.343257	-11.703752	-118.343257	-0.891842	145.497998
7.050000	-0.836948	142.293332	-12.335985	-121.233884	-12.335985	-121.233884	-0.835235	142.398824
7.100000	-0.788382	139.274548	-12.972293	-124.011553	-12.972293	-124.011553	-0.786689	139.381937
7.150000	-0.745608	136.317379	-13.621427	-126.699169	-13.621427	-126.699169	-0.743933	136.426712
7.200000	-0.708804	133.426788	-14.278459	-129.281654	-14.278459	-129.281654	-0.707142	133.538118
7.250000	-0.676580	130.588798	-14.950472	-131.772719	-14.950472	-131.772719	-0.674929	130.702169
7.300000	-0.648700	127.801912	-15.637084	-134.163655	-15.637084	-134.163655	-0.647055	127.917368
7.350000	-0.624596	125.059853	-16.341815	-136.453074	-16.341815	-136.453074	-0.622952	125.177437
7.400000	-0.603726	122.355905	-17.069707	-138.639071	-17.069707	-138.639071	-0.602079	122.475658
7.450000	-0.586054	119.688656	-17.821266	-140.701250	-17.821266	-140.701250	-0.584399	119.810627
7.500000	-0.570874	117.048423	-18.607314	-142.645161	-18.607314	-142.645161	-0.569205	117.172656
7.550000	-0.558521	114.436053	-19.426122	-144.419462	-19.426122	-144.419462	-0.556830	114.562612
7.600000	-0.548318	111.841796	-20.292994	-146.029154	-20.292994	-146.029154	-0.546596	111.970738
7.650000	-0.540523	109.263522	-21.211418	-147.400612	-21.211418	-147.400612	-0.538759	109.394929
7.700000	-0.534876	106.694792	-22.196279	-148.495966	-22.196279	-148.495966	-0.533057	106.828757
7.750000	-0.531480	104.130324	-23.260128	-149.210197	-23.260128	-149.210197	-0.529589	104.266969
7.800000	-0.530466	101.563963	-24.418776	-149.394449	-24.418776	-149.394449	-0.528481	101.703449
7.850000	-0.531820	98.989210	-25.696150	-148.884152	-25.696150	-148.884152	-0.529714	99.131731
7.900000	-0.536193	96.395960	-27.102880	-147.204389	-27.102880	-147.204389	-0.533924	96.541819
7.950000	-0.543496	93.778238	-28.667262	-144.049751	-28.667262	-144.049751	-0.541016	93.927782
8.000000	-0.555107	91.116862	-30.335064	-138.138931	-30.335064	-138.138931	-0.552332	91.270682
8.050000	-0.571307	88.403559	-32.024268	-128.854650	-32.024268	-128.854650	-0.568131	88.562373
8.100000	-0.594432	85.608282	-33.370930	-115.175001	-33.370930	-115.175001	-0.590662	85.773275
8.150000	-0.626975	82.703874	-34.017211	-98.993046	-34.017211	-98.993046	-0.622299	82.876719
8.200000	-0.674574	79.645220	-34.043602	-84.086427	-34.043602	-84.086427	-0.668400	79.828297
8.250000	-0.755360	76.353980	-34.355599	-71.148391	-34.355599	-71.148391	-0.746240	76.549581
8.300000	-0.910952	72.971566	-34.923942	-41.850916	-34.923942	-41.850916	-0.896258	73.167818
8.350000	-1.060381	69.797587	-30.828885	-24.342111	-30.828885	-24.342111	-1.043449	69.977146
8.400000	-1.263273	65.649671	-30.040765	-14.606582	-30.040765	-14.606582	-1.241849	65.851077
8.450000	-1.739186	60.896923	-26.922083	18.526231	-26.922083	18.526231	-1.702743	61.114890
8.500000	-2.738791	57.530297	-19.094879	27.487629	-19.094879	27.487629	-2.670959	57.653342
8.550000	-3.717879	61.335776	-13.137071	4.162519	-13.137071	4.162519	-3.642825	61.031760
8.600000	-3.438335	64.370657	-10.578393	-23.605113	-10.578393	-23.605113	-3.419302	63.868871
8.650000	-3.322626	61.699085	-9.416776	-44.360742	-9.416776	-44.360742	-3.339982	61.244751
8.700000	-3.782833	58.487454	-8.501205	-61.366150	-8.501205	-61.366150	-3.825868	58.079490
8.750000	-4.709639	57.759091	-7.698813	-77.916682	-7.698813	-77.916682	-4.783368	57.416411
8.800000	-5.721902	62.548778	-7.182000	-95.349179	-7.182000	-95.349179	-5.830752	62.414630
8.850000	-5.877592	72.318627	-7.153458	-113.231843	-7.153458	-113.231843	-5.991179	72.566205
8.900000	-4.895396	79.505945	-7.667092	-130.061106	-7.667092	-130.061106	-4.974703	79.990214
8.950000	-3.671666	80.794512	-8.587291	-144.551275	-8.587291	-144.551275	-3.719288	81.309167
9.000000	-2.728307	78.658096	-9.713136	-156.322402	-9.713136	-156.322402	-2.757583	79.137328
9.050000	-2.081201	75.356632	-10.897754	-165.796776	-10.897754	-165.796776	-2.100275	75.795089
9.100000	-1.646967	71.814277	-12.062786	-173.451911	-12.062786	-173.451911	-1.660150	72.218831
9.150000	-1.350733	68.371006	-13.174973	-179.751825	-13.174973	-179.751825	-1.360302	68.749271
9.200000	-1.143894	65.122586	-14.222483	174.960981	-14.222483	174.960981	-1.151128	65.480746
9.250000	-0.995911	62.079342	-15.203566	170.439066	-15.203566	170.439066	-1.001568	62.422092
9.300000	-0.883904	59.200204	-16.142277	166.440632	-16.142277	166.440632	-0.888416	59.530685
9.350000	-0.799801	56.479172	-17.028399	162.899479	-17.028399	162.899479	-0.803480	56.800034
9.400000	-0.734458	53.884175	-17.876408	159.700621	-17.876408	159.700621	-0.737506	54.197313
9.450000	-0.682705	51.394937	-18.693338	156.777884	-18.693338	156.777884	-0.685263	51.701799
9.500000	-0.641668	49.000367	-19.478642	154.097331	-19.478642	154.097331	-0.643844	49.302142
9.550000	-0.607864	46.677233	-20.248962	151.598497	-20.248962	151.598497	-0.609726	46.974750
9.600000	-0.580673	44.426706	-20.993990	149.286198	-20.993990	149.286198	-0.582286	44.720740
9.650000	-0.557765	42.227780	-21.733554	147.109762	-21.733554	147.109762	-0.559167	42.518838
9.700000	-0.538932	40.082509	-22.458929	145.080437	-22.458929	145.080437	-0.540163	40.371075
9.750000	-0.523463	37.985866	-23.171268	143.194095	-23.171268	143.194095	-0.524553	38.272335
9.800000	-0.509744	35.916037	-23.900970	141.392006	-23.900970	141.392006	-0.510708	36.200608
9.850000	-0.498530	33.887112	-24.622384	139.727701	-24.622384	139.727701	-0.499394	34.170066
9.900000	-0.489171	31.891252	-25.345601	138.193286	-25.345601	138.193286	-0.489951	32.172782
9.950000	-0.481094	29.919365	-26.085545	136.764888	-26.085545	136.764888	-0.481803	30.199596
10.000000	-0.474197	27.970305	-26.844298	135.444771	-26.844298	135.444771	-0.474847	28.249347
