! freq	dB(S11)	phase(S11)	dB(S12)	phase(S12)	
!     	dB(S21)	phase(S21)	dB(S22)	phase(S22)	
!S-par simulation data
#  GHz  S  DB  R 50
0.000000	-82.623887	0.000000	-0.000642	0.000000	-0.000642	0.000000	-82.623886	0.000000
0.050000	-43.394947	-90.637989	-0.004952	-2.807953	-0.004952	-2.807953	-43.394741	-90.512696
0.100000	-37.519160	-94.256483	-0.011332	-5.578405	-0.011332	-5.578405	-37.520239	-94.237329
0.150000	-34.054774	-97.547865	-0.016607	-8.335184	-0.016607	-8.335184	-34.054327	-97.552950
0.200000	-31.595589	-100.643640	-0.021474	-11.088733	-0.021474	-11.088733	-31.594772	-100.654601
0.250000	-29.694369	-103.634531	-0.026455	-13.840660	-0.026455	-13.840660	-29.693623	-103.646033
0.300000	-28.149180	-106.562762	-0.031716	-16.590885	-0.031716	-16.590885	-28.148583	-106.573079
0.350000	-26.851803	-109.449029	-0.037281	-19.339237	-0.037281	-19.339237	-26.851310	-109.457906
0.400000	-25.736930	-112.306491	-0.043120	-22.085750	-0.043120	-22.085750	-25.736474	-112.314360
0.450000	-24.763266	-115.141954	-0.049212	-24.830430	-0.049212	-24.830430	-24.762793	-115.149542
0.500000	-23.900790	-117.962134	-0.055505	-27.573547	-0.055505	-27.573547	-23.900272	-117.970146
0.550000	-23.130498	-120.769046	-0.061995	-30.315064	-0.061995	-30.315064	-23.129919	-120.778183
0.600000	-22.436527	-123.565896	-0.068653	-33.055164	-0.068653	-33.055164	-22.435887	-123.576702
0.650000	-21.807790	-126.354244	-0.075463	-35.793898	-0.075463	-35.793898	-21.807094	-126.367144
0.700000	-21.235133	-129.135556	-0.082407	-38.531356	-0.082407	-38.531356	-21.234389	-129.150844
0.750000	-20.711630	-131.910779	-0.089469	-41.267588	-0.089469	-41.267588	-20.710848	-131.928643
0.800000	-20.231543	-134.680719	-0.096633	-44.002652	-0.096633	-44.002652	-20.230731	-134.701254
0.850000	-19.790478	-137.445931	-0.103881	-46.736589	-0.103881	-46.736589	-19.789644	-137.469161
0.900000	-19.383956	-140.207125	-0.111192	-49.469511	-0.111192	-49.469511	-19.383104	-140.233019
0.950000	-19.008964	-142.964665	-0.118548	-52.201473	-0.118548	-52.201473	-19.008098	-142.993152
1.000000	-18.662715	-145.718946	-0.125929	-54.932564	-0.125929	-54.932564	-18.661837	-145.749927
1.050000	-18.342817	-148.470326	-0.133315	-57.662887	-0.133315	-57.662887	-18.341926	-148.503686
1.100000	-18.047193	-151.219138	-0.140684	-60.392559	-0.140684	-60.392559	-18.046288	-151.254751
1.150000	-17.774029	-153.965695	-0.148018	-63.121711	-0.148018	-63.121711	-17.773108	-154.003435
1.200000	-17.521729	-156.710301	-0.155295	-65.850490	-0.155295	-65.850490	-17.520786	-156.750045
1.250000	-17.288873	-159.453251	-0.162498	-68.579054	-0.162498	-68.579054	-17.287903	-159.494885
1.300000	-17.074458	-162.194817	-0.169605	-71.307580	-0.169605	-71.307580	-17.073455	-162.238236
1.350000	-16.877066	-164.935326	-0.176601	-74.036260	-0.176601	-74.036260	-16.876022	-164.980443
1.400000	-16.695664	-167.675075	-0.183472	-76.765289	-0.183472	-76.765289	-16.694571	-167.721819
1.450000	-16.529306	-170.414361	-0.190202	-79.494876	-0.190202	-79.494876	-16.528156	-170.462678
1.500000	-16.377127	-173.153485	-0.196781	-82.225236	-0.196781	-82.225236	-16.375912	-173.203340
1.550000	-16.238326	-175.892754	-0.203197	-84.956593	-0.203197	-84.956593	-16.237036	-175.944131
1.600000	-16.112158	-178.632477	-0.209442	-87.689177	-0.209442	-87.689177	-16.110784	-178.685380
1.650000	-15.997922	178.627030	-0.215509	-90.423223	-0.215509	-90.423223	-15.996457	178.572581
1.700000	-15.894962	175.885450	-0.221394	-93.158970	-0.221394	-93.158970	-15.893396	175.829414
1.750000	-15.802648	173.142461	-0.227094	-95.896659	-0.227094	-95.896659	-15.800975	173.084783
1.800000	-15.720382	170.397738	-0.232608	-98.636534	-0.232608	-98.636534	-15.718595	170.338345
1.850000	-15.647584	167.650957	-0.237936	-101.378838	-0.237936	-101.378838	-15.645677	167.589762
1.900000	-15.583778	164.901762	-0.243081	-104.123844	-0.243081	-104.123844	-15.581746	164.838664
1.950000	-15.528398	162.149814	-0.248048	-106.871804	-0.248048	-106.871804	-15.526238	162.084700
2.000000	-15.480810	159.394818	-0.252844	-109.622924	-0.252844	-109.622924	-15.478518	159.327566
2.050000	-15.440472	156.636450	-0.257479	-112.377442	-0.257479	-112.377442	-15.438049	156.566932
2.100000	-15.406845	153.874396	-0.261962	-115.135587	-0.261962	-115.135587	-15.404291	153.802477
2.150000	-15.379387	151.108345	-0.266306	-117.897585	-0.266306	-117.897585	-15.376704	151.033887
2.200000	-15.357549	148.337992	-0.270523	-120.663657	-0.270523	-120.663657	-15.354740	148.260859
2.250000	-15.340774	145.563043	-0.274626	-123.434020	-0.274626	-123.434020	-15.337845	145.483097
2.300000	-15.328494	142.783214	-0.278632	-126.208882	-0.278632	-126.208882	-15.325451	142.700323
2.350000	-15.320129	139.998232	-0.282558	-128.988447	-0.282558	-128.988447	-15.316979	139.912270
2.400000	-15.315081	137.207835	-0.286419	-131.772913	-0.286419	-131.772913	-15.311833	137.118685
2.450000	-15.312737	134.411779	-0.290235	-134.562472	-0.290235	-134.562472	-15.309402	134.319336
2.500000	-15.312466	131.609833	-0.294024	-137.357310	-0.294024	-137.357310	-15.309055	131.514005
2.550000	-15.313634	128.801647	-0.297807	-140.157730	-0.297807	-140.157730	-15.310158	128.702357
2.600000	-15.315523	125.987153	-0.301604	-142.963792	-0.301604	-142.963792	-15.311995	125.884346
2.650000	-15.317446	123.166177	-0.305436	-145.775667	-0.305436	-145.775667	-15.313878	123.059816
2.700000	-15.318695	120.338563	-0.309324	-148.593521	-0.309324	-148.593521	-15.315100	120.228635
2.750000	-15.318546	117.504174	-0.313291	-151.417516	-0.313291	-151.417516	-15.314937	117.390688
2.800000	-15.316262	114.662893	-0.317357	-154.247812	-0.317357	-154.247812	-15.312651	114.545886
2.850000	-15.311094	111.814624	-0.321546	-157.084566	-0.321546	-157.084566	-15.307494	111.694155
2.900000	-15.302287	108.959288	-0.325880	-159.927933	-0.325880	-159.927933	-15.298707	108.835444
2.950000	-15.289082	106.096823	-0.330384	-162.778068	-0.330384	-162.778068	-15.285533	105.969719
3.000000	-15.270725	103.227186	-0.335080	-165.635124	-0.335080	-165.635124	-15.267215	103.096961
3.050000	-15.246468	100.350346	-0.339994	-168.499255	-0.339994	-168.499255	-15.243004	100.217164
3.100000	-15.215582	97.466284	-0.345152	-171.370616	-0.345152	-171.370616	-15.212170	97.330333
3.150000	-15.177269	94.574910	-0.350582	-174.249445	-0.350582	-174.249445	-15.173913	94.436404
3.200000	-15.130831	91.676221	-0.356313	-177.135904	-0.356313	-177.135904	-15.127534	91.535393
3.250000	-15.075713	88.770291	-0.362371	179.969927	-0.362371	179.969927	-15.072476	88.627391
3.300000	-15.011332	85.857118	-0.368786	177.067887	-0.368786	177.067887	-15.008154	85.712408
3.350000	-14.937159	82.936690	-0.375589	174.157813	-0.375589	174.157813	-14.934039	82.790447
3.400000	-14.852730	80.008990	-0.382814	171.239541	-0.382814	171.239541	-14.849666	79.861495
3.450000	-14.757656	77.073988	-0.390497	168.312904	-0.390497	168.312904	-14.754643	76.925527
3.500000	-14.651623	74.131637	-0.398675	165.377736	-0.398675	165.377736	-14.648659	73.982500
3.550000	-14.534405	71.181878	-0.407389	162.433872	-0.407389	162.433872	-14.531484	71.032350
3.600000	-14.405862	68.224630	-0.416681	159.481146	-0.416681	159.481146	-14.402980	68.074991
3.650000	-14.265945	65.259798	-0.426599	156.519396	-0.426599	156.519396	-14.263098	65.110320
3.700000	-14.114697	62.287266	-0.437191	153.548466	-0.437191	153.548466	-14.111881	62.138209
3.750000	-13.952254	59.306905	-0.448510	150.568204	-0.448510	150.568204	-13.949466	59.158517
3.800000	-13.778528	56.318396	-0.460631	147.578259	-0.460631	147.578259	-13.775765	56.170914
3.850000	-13.594138	53.321757	-0.473600	144.578702	-0.473600	144.578702	-13.591399	53.175395
3.900000	-13.399481	50.316830	-0.487480	141.569419	-0.487480	141.569419	-13.396766	50.171787
3.950000	-13.195027	47.303461	-0.502341	138.550309	-0.502341	138.550309	-13.192338	47.159917
4.000000	-12.981316	44.281500	-0.518256	135.521293	-0.518256	135.521293	-12.978653	44.139617
4.050000	-12.758944	41.250813	-0.535301	132.482316	-0.535301	132.482316	-12.756310	41.110735
4.100000	-12.528560	38.211283	-0.553557	129.433351	-0.553557	129.433351	-12.525960	38.073137
4.150000	-12.290854	35.162819	-0.573111	126.374402	-0.573111	126.374402	-12.288292	35.026717
4.200000	-12.046551	32.105365	-0.594051	123.305506	-0.594051	123.305506	-12.044032	31.971400
4.250000	-11.796397	29.038900	-0.616469	120.226744	-0.616469	120.226744	-11.793927	28.907152
4.300000	-11.541157	25.963449	-0.640461	117.138235	-0.640461	117.138235	-11.538742	25.833985
4.350000	-11.281604	22.879086	-0.666127	114.040149	-0.666127	114.040149	-11.279248	22.751958
4.400000	-11.018391	19.785847	-0.693585	110.932607	-0.693585	110.932607	-11.016101	19.661094
4.450000	-10.752305	16.683924	-0.722942	107.815895	-0.722942	107.815895	-10.750086	16.561577
4.500000	-10.484359	13.573777	-0.754255	104.690566	-0.754255	104.690566	-10.482215	13.453852
4.550000	-10.215068	10.455538	-0.787670	101.556825	-0.787670	101.556825	-10.213003	10.338042
4.600000	-9.945232	7.329657	-0.823275	98.415205	-0.823275	98.415205	-9.943250	7.214589
4.650000	-9.675541	4.196583	-0.861169	95.266232	-0.861169	95.266232	-9.673644	4.083931
4.700000	-9.406637	1.056816	-0.901459	92.110480	-0.901459	92.110480	-9.404826	0.946559
4.750000	-9.139120	-2.089085	-0.944252	88.948586	-0.944252	88.948586	-9.137396	-2.196976
4.800000	-8.873529	-5.240516	-0.989672	85.781235	-0.989672	85.781235	-8.871892	-5.346079
4.850000	-8.610697	-8.396520	-1.037687	82.609456	-1.037687	82.609456	-8.609146	-8.499799
4.900000	-8.350980	-11.556471	-1.088438	79.433960	-1.088438	79.433960	-8.349513	-11.657518
4.950000	-8.094861	-14.719538	-1.141992	76.255661	-1.141992	76.255661	-8.093476	-14.818412
5.000000	-7.842785	-17.884837	-1.198410	73.075532	-1.198410	73.075532	-7.841478	-17.981605
5.050000	-7.595114	-21.051443	-1.257796	69.894604	-1.257796	69.894604	-7.593882	-21.146178
5.100000	-7.352289	-24.218334	-1.320132	66.713988	-1.320132	66.713988	-7.351130	-24.311113
5.150000	-7.114641	-27.384499	-1.385443	63.534795	-1.385443	63.534795	-7.113549	-27.475406
5.200000	-6.882462	-30.548905	-1.453740	60.358165	-1.453740	60.358165	-6.881433	-30.638027
5.250000	-6.656006	-33.710494	-1.525021	57.185261	-1.525021	57.185261	-6.655038	-33.797922
5.300000	-6.435496	-36.868200	-1.599271	54.017258	-1.599271	54.017258	-6.434582	-36.954029
5.350000	-6.221115	-40.020954	-1.676458	50.855338	-1.676458	50.855338	-6.220254	-40.105279
5.400000	-6.013018	-43.167688	-1.756538	47.700677	-1.756538	47.700677	-6.012204	-43.250609
5.450000	-5.811325	-46.307352	-1.839451	44.554437	-1.839451	44.554437	-5.810556	-46.388968
5.500000	-5.616126	-49.438913	-1.925122	41.417755	-1.925122	41.417755	-5.615398	-49.519325
5.550000	-5.427484	-52.561371	-2.013464	38.291736	-2.013464	38.291736	-5.426795	-52.640678
5.600000	-5.245433	-55.673762	-2.104375	35.177444	-2.104375	35.177444	-5.244780	-55.752062
5.650000	-5.070016	-58.775035	-2.197753	32.076039	-2.197753	32.076039	-5.069398	-58.852428
5.700000	-4.901228	-61.864294	-2.293464	28.988507	-2.293464	28.988507	-4.900641	-61.940876
5.750000	-4.738997	-64.940853	-2.391354	25.915594	-2.391354	25.915594	-4.738441	-65.016716
5.800000	-4.583264	-68.003966	-2.491274	22.858112	-2.491274	22.858112	-4.582738	-68.079202
5.850000	-4.433953	-71.052957	-2.593063	19.816797	-2.593063	19.816797	-4.433456	-71.127654
5.900000	-4.290970	-74.087223	-2.696557	16.792302	-2.696557	16.792302	-4.290500	-74.161464
5.950000	-4.154206	-77.106235	-2.801581	13.785196	-2.801581	13.785196	-4.153764	-77.180101
6.000000	-4.023541	-80.109539	-2.907957	10.795961	-2.907957	10.795961	-4.023127	-80.183107
6.050000	-3.898843	-83.096762	-3.015500	7.824990	-3.015500	7.824990	-3.898455	-83.170108
6.100000	-3.779969	-86.067613	-3.124024	4.872586	-3.124024	4.872586	-3.779608	-86.140806
6.150000	-3.666770	-89.021875	-3.233339	1.938962	-3.233339	1.938962	-3.666435	-89.094984
6.200000	-3.559089	-91.959417	-3.343255	-0.975758	-3.343255	-0.975758	-3.558781	-92.032505
6.250000	-3.456766	-94.880182	-3.453582	-3.871534	-3.453582	-3.871534	-3.456482	-94.953311
6.300000	-3.359720	-97.783830	-3.564100	-6.748007	-3.564100	-6.748007	-3.359462	-97.857059
6.350000	-3.267694	-100.670827	-3.674643	-9.605725	-3.674643	-9.605725	-3.267461	-100.744213
6.400000	-3.180518	-103.541347	-3.785026	-12.444900	-3.785026	-12.444900	-3.180309	-103.614943
6.450000	-3.098021	-106.395634	-3.895070	-15.265823	-3.895070	-15.265823	-3.097836	-106.469490
6.500000	-3.020034	-109.233997	-4.004595	-18.068855	-4.004595	-18.068855	-3.019872	-109.308164
6.550000	-2.946386	-112.056810	-4.113431	-20.854424	-4.113431	-20.854424	-2.946246	-112.131336
6.600000	-2.876912	-114.864506	-4.221409	-23.623022	-4.221409	-23.623022	-2.876793	-114.939436
6.650000	-2.811447	-117.657575	-4.328367	-26.375201	-4.328367	-26.375201	-2.811348	-117.732954
6.700000	-2.749772	-120.436801	-4.434197	-29.111840	-4.434197	-29.111840	-2.749692	-120.512672
6.750000	-2.692022	-123.201586	-4.538507	-31.832257	-4.538507	-31.832257	-2.691959	-123.277996
6.800000	-2.637577	-125.954464	-4.641541	-34.539287	-4.641541	-34.539287	-2.637531	-126.031451
6.850000	-2.586655	-128.694662	-4.742842	-37.232041	-4.742842	-37.232041	-2.586624	-128.772268
6.900000	-2.538935	-131.423587	-4.842444	-39.912079	-4.842444	-39.912079	-2.538917	-131.501854
6.950000	-2.494279	-134.141998	-4.940224	-42.580222	-4.940224	-42.580222	-2.494274	-134.220964
7.000000	-2.452718	-136.850094	-5.035885	-45.236655	-5.035885	-45.236655	-2.452723	-136.929801
7.050000	-2.413809	-139.549783	-5.129676	-47.883497	-5.129676	-47.883497	-2.413824	-139.630268
7.100000	-2.377884	-142.240439	-5.220940	-50.519962	-5.220940	-50.519962	-2.377907	-142.321743
7.150000	-2.344338	-144.924452	-5.310195	-53.148728	-5.310195	-53.148728	-2.344368	-145.006610
7.200000	-2.313481	-147.601526	-5.396781	-55.769352	-5.396781	-55.769352	-2.313517	-147.684577
7.250000	-2.284891	-150.273401	-5.481055	-58.383770	-5.481055	-58.383770	-2.284932	-150.357381
7.300000	-2.258644	-152.940621	-5.562673	-60.992491	-5.562673	-60.992491	-2.258688	-153.025567
7.350000	-2.234603	-155.604223	-5.641622	-63.596611	-5.641622	-63.596611	-2.234650	-155.690169
7.400000	-2.212601	-158.265293	-5.717960	-66.197291	-5.717960	-66.197291	-2.212649	-158.352273
7.450000	-2.192748	-160.924620	-5.791282	-68.795264	-5.791282	-68.795264	-2.192797	-161.012669
7.500000	-2.174669	-163.583354	-5.862057	-71.391848	-5.862057	-71.391848	-2.174718	-163.672501
7.550000	-2.158690	-166.242512	-5.929482	-73.987903	-5.929482	-73.987903	-2.158738	-166.332791
7.600000	-2.144356	-168.902958	-5.994237	-76.584498	-5.994237	-76.584498	-2.144403	-168.994396
7.650000	-2.131882	-171.565994	-6.055724	-79.182829	-6.055724	-79.182829	-2.131926	-171.658620
7.700000	-2.121047	-174.232381	-6.114225	-81.783753	-6.114225	-81.783753	-2.121087	-174.326220
7.750000	-2.111866	-176.903310	-6.169551	-84.388450	-6.169551	-84.388450	-2.111902	-176.998387
7.800000	-2.104328	-179.579931	-6.221578	-86.998076	-6.221578	-86.998076	-2.104359	-179.676269
7.850000	-2.098272	177.737178	-6.270531	-89.613284	-6.270531	-89.613284	-2.098297	177.639561
7.900000	-2.093875	175.045969	-6.315872	-92.236050	-6.315872	-92.236050	-2.093893	174.947053
7.950000	-2.090847	172.346803	-6.358173	-94.866157	-6.358173	-94.866157	-2.090857	172.246576
8.000000	-2.089454	169.636788	-6.396683	-97.506405	-6.396683	-97.506405	-2.089455	169.535234
8.050000	-2.089426	166.916618	-6.431977	-100.156247	-6.431977	-100.156247	-2.089415	166.813729
8.100000	-2.090922	164.183885	-6.463574	-102.818074	-6.463574	-102.818074	-2.090898	164.079655
8.150000	-2.093855	161.438212	-6.491629	-105.492356	-6.491629	-105.492356	-2.093817	161.332637
8.200000	-2.098229	158.678492	-6.516079	-108.180274	-6.516079	-108.180274	-2.098174	158.571573
8.250000	-2.104139	155.902739	-6.536638	-110.883890	-6.536638	-110.883890	-2.104064	155.794480
8.300000	-2.111430	153.111682	-6.553679	-113.602615	-6.553679	-113.602615	-2.111334	153.002090
8.350000	-2.120389	150.301169	-6.566452	-116.340719	-6.566452	-116.340719	-2.120266	150.190259
8.400000	-2.130752	147.473538	-6.575636	-119.096030	-6.575636	-119.096030	-2.130601	147.361326
8.450000	-2.142833	144.624220	-6.580447	-121.873346	-6.580447	-121.873346	-2.142649	144.510731
8.500000	-2.156465	141.754771	-6.581343	-124.671290	-6.581343	-124.671290	-2.156245	141.640032
8.550000	-2.171836	138.862265	-6.577903	-127.493107	-6.577903	-127.493107	-2.171575	138.746313
8.600000	-2.188984	135.945862	-6.570101	-130.339928	-6.570101	-130.339928	-2.188677	135.828739
8.650000	-2.207922	133.005191	-6.557994	-133.212429	-6.557994	-133.212429	-2.207565	132.886947
8.700000	-2.228927	130.036372	-6.541018	-136.115062	-6.541018	-136.115062	-2.228515	129.917071
8.750000	-2.251806	127.042212	-6.519768	-139.045142	-6.519768	-139.045142	-2.251333	126.921917
8.800000	-2.277131	124.015059	-6.493070	-142.011409	-6.493070	-142.011409	-2.276592	123.893862
8.850000	-2.304589	120.959701	-6.461832	-145.009002	-6.461832	-145.009002	-2.303979	120.837690
8.900000	-2.334643	117.870463	-6.425238	-148.044680	-6.425238	-148.044680	-2.333956	117.747752
8.950000	-2.367398	114.746794	-6.383319	-151.119551	-6.383319	-151.119551	-2.366629	114.623511
9.000000	-2.403075	111.586857	-6.335909	-154.236210	-6.335909	-154.236210	-2.402219	111.463150
9.050000	-2.441935	108.388611	-6.282824	-157.397527	-6.282824	-157.397527	-2.440987	108.264651
9.100000	-2.484372	105.148736	-6.223702	-160.607926	-6.223702	-160.607926	-2.483327	105.024725
9.150000	-2.530694	101.865418	-6.158436	-163.870099	-6.158436	-163.870099	-2.529548	101.741587
9.200000	-2.581287	98.536356	-6.086867	-167.187313	-6.086867	-167.187313	-2.580035	98.412968
9.250000	-2.636634	95.158639	-6.008779	-170.563568	-6.008779	-170.563568	-2.635273	95.035997
9.300000	-2.697306	91.729065	-5.923946	-174.003214	-5.923946	-174.003214	-2.695832	91.607515
9.350000	-2.763976	88.244100	-5.832140	-177.510988	-5.832140	-177.510988	-2.762384	88.124039
9.400000	-2.837564	84.698745	-5.732980	178.906591	-5.732980	178.906591	-2.835850	84.580636
9.450000	-2.919072	81.088466	-5.626215	175.243606	-5.626215	175.243606	-2.917229	80.972837
9.500000	-3.009549	77.409501	-5.511757	171.495153	-5.511757	171.495153	-3.007570	77.296940
9.550000	-3.110393	73.656601	-5.389378	167.654509	-5.389378	167.654509	-3.108266	73.547771
9.600000	-3.223294	69.824049	-5.258859	163.714357	-5.258859	163.714357	-3.221005	69.719689
9.650000	-3.350301	65.905767	-5.120005	159.666834	-5.120005	159.666834	-3.347829	65.806695
9.700000	-3.494236	61.893403	-4.972410	155.500976	-4.972410	155.500976	-3.491554	61.800526
9.750000	-3.657989	57.781799	-4.816093	151.209328	-4.816093	151.209328	-3.655062	57.696071
9.800000	-3.845495	53.563937	-4.650861	146.781172	-4.650861	146.781172	-3.842278	53.486357
9.850000	-4.061990	49.232023	-4.476394	142.203018	-4.476394	142.203018	-4.058429	49.163604
9.900000	-4.313062	44.783714	-4.292830	137.465693	-4.292830	137.465693	-4.309099	44.725393
9.950000	-4.606173	40.217503	-4.100108	132.556602	-4.100108	132.556602	-4.601753	40.170073
10.000000	-4.950657	35.536847	-3.898188	127.462368	-3.898188	127.462368	-4.945750	35.500846
