! freq	dB(S11)	phase(S11)	dB(S12)	phase(S12)	
!     	dB(S21)	phase(S21)	dB(S22)	phase(S22)	
!S-par simulation data
#  GHz  S  DB  R 50
0.000000	-83.650422	0.000000	-0.000571	0.000000	-0.000571	0.000000	-83.650422	0.000000
0.050000	-37.396216	-93.042413	-0.005673	-3.039593	-0.005673	-3.039593	-37.409145	-92.481310
0.100000	-31.381668	-96.503697	-0.014891	-6.038848	-0.014891	-6.038848	-31.392069	-95.385378
0.150000	-27.869548	-99.867029	-0.024015	-9.018819	-0.024015	-9.018819	-27.875970	-98.197418
0.200000	-25.384014	-103.200742	-0.033409	-11.994348	-0.033409	-11.994348	-25.385261	-100.988266
0.250000	-23.462337	-106.518229	-0.043780	-14.969314	-0.043780	-14.969314	-23.457588	-103.773008
0.300000	-21.898214	-109.824128	-0.055492	-17.944208	-0.055492	-17.944208	-21.887143	-106.557030
0.350000	-20.581409	-113.121080	-0.068689	-20.918848	-0.068689	-20.918848	-20.564327	-109.342504
0.400000	-19.445917	-116.411171	-0.083414	-23.893026	-0.083414	-23.893026	-19.423924	-112.129453
0.450000	-18.449018	-119.696014	-0.099677	-26.866618	-0.099677	-26.866618	-18.424082	-114.915424
0.500000	-17.561246	-122.976494	-0.117447	-29.839599	-0.117447	-29.839599	-17.535981	-117.695262
0.550000	-16.761469	-126.252333	-0.136690	-32.812011	-0.136690	-32.812011	-16.738465	-120.462705
0.600000	-16.034125	-129.522197	-0.157375	-35.783942	-0.157375	-35.783942	-16.015127	-123.213844
0.650000	-15.367520	-132.784315	-0.179473	-38.755511	-0.179473	-38.755511	-15.352977	-125.950248
0.700000	-14.752719	-136.037216	-0.202959	-41.726866	-0.202959	-41.726866	-14.742035	-128.678347
0.750000	-14.182754	-139.280181	-0.227810	-44.698177	-0.227810	-44.698177	-14.174906	-131.405755
0.800000	-13.652051	-142.513256	-0.254002	-47.669638	-0.254002	-47.669638	-13.646088	-134.138200
0.850000	-13.156185	-145.736711	-0.281559	-50.641486	-0.281559	-50.641486	-13.151412	-136.879122
0.900000	-12.691084	-148.951851	-0.310394	-53.613943	-0.310394	-53.613943	-12.687098	-139.629232
0.950000	-12.253595	-152.159241	-0.340519	-56.587286	-0.340519	-56.587286	-12.250173	-142.388999
1.000000	-11.840930	-155.359567	-0.371924	-59.561813	-0.371924	-59.561813	-11.837964	-145.158380
1.050000	-11.450674	-158.553380	-0.404597	-62.537852	-0.404597	-62.537852	-11.448121	-147.937309
1.100000	-11.080722	-161.741105	-0.438534	-65.515760	-0.438534	-65.515760	-11.078574	-150.725840
1.150000	-10.729228	-164.923057	-0.473729	-68.495925	-0.473729	-68.495925	-10.727496	-153.524185
1.200000	-10.394563	-168.099473	-0.510184	-71.478769	-0.510184	-71.478769	-10.393270	-156.332735
1.250000	-10.075280	-171.270528	-0.547903	-74.464741	-0.547903	-74.464741	-10.074465	-159.152060
1.300000	-9.770144	-174.436248	-0.586918	-77.454418	-0.586918	-77.454418	-9.769865	-161.983184
1.350000	-9.477927	-177.596863	-0.627221	-80.448247	-0.627221	-80.448247	-9.478257	-164.826810
1.400000	-9.197581	179.247525	-0.668830	-83.446778	-0.668830	-83.446778	-9.198606	-167.684024
1.450000	-8.928155	176.096814	-0.711771	-86.450590	-0.711771	-86.450590	-8.929970	-170.556031
1.500000	-8.668779	172.950891	-0.756077	-89.460292	-0.756077	-89.460292	-8.671481	-173.444119
1.550000	-8.418662	169.809632	-0.801787	-92.476523	-0.801787	-92.476523	-8.422340	-176.349631
1.600000	-8.177071	166.672892	-0.848948	-95.499950	-0.848948	-95.499950	-8.181808	-179.273930
1.650000	-7.943335	163.540501	-0.897615	-98.531269	-0.897615	-98.531269	-7.949197	177.781611
1.700000	-7.716831	160.412262	-0.947851	-101.571202	-0.947851	-101.571202	-7.723874	174.815623
1.750000	-7.496980	157.287946	-0.999729	-104.620496	-0.999729	-104.620496	-7.505247	171.826743
1.800000	-7.283247	154.167291	-1.053334	-107.679925	-1.053334	-107.679925	-7.292772	168.813617
1.850000	-7.075132	151.049996	-1.108758	-110.750284	-1.108758	-110.750284	-7.085942	165.774893
1.900000	-6.872173	147.935750	-1.166124	-113.832528	-1.166124	-113.832528	-6.884289	162.708920
1.950000	-6.673928	144.824156	-1.225555	-116.927525	-1.225555	-116.927525	-6.687374	159.614318
2.000000	-6.479993	141.714755	-1.287163	-120.036003	-1.287163	-120.036003	-6.494790	156.490054
2.050000	-6.289994	138.607073	-1.351094	-123.158838	-1.351094	-123.158838	-6.306165	153.334817
2.100000	-6.103583	135.500590	-1.417508	-126.296915	-1.417508	-126.296915	-6.121156	150.147314
2.150000	-5.920441	132.394741	-1.486578	-129.451132	-1.486578	-129.451132	-5.939446	146.926279
2.200000	-5.740273	129.288911	-1.558498	-132.622395	-1.558498	-132.622395	-5.760745	143.670476
2.250000	-5.562810	126.182440	-1.633475	-135.811612	-1.633475	-135.811612	-5.584785	140.378712
2.300000	-5.387807	123.074621	-1.711738	-139.019691	-1.711738	-139.019691	-5.411327	137.049841
2.350000	-5.215044	119.964700	-1.793534	-142.247535	-1.793534	-142.247535	-5.240152	133.682777
2.400000	-5.044329	116.851884	-1.879130	-145.496033	-1.879130	-145.496033	-5.071068	130.276500
2.450000	-4.875491	113.735339	-1.968816	-148.766058	-1.968816	-148.766058	-4.903906	126.830071
2.500000	-4.708389	110.614194	-2.062903	-152.058457	-2.062903	-152.058457	-4.738520	123.342637
2.550000	-4.542870	107.487409	-2.161815	-155.374563	-2.161815	-155.374563	-4.574758	119.812527
2.600000	-4.378880	104.354156	-2.265837	-158.714654	-2.265837	-158.714654	-4.412559	116.240003
2.650000	-4.216356	101.213495	-2.375360	-162.079440	-2.375360	-162.079440	-4.251854	112.624564
2.700000	-4.055265	98.064476	-2.490798	-165.469563	-2.490798	-165.469563	-4.092602	108.965847
2.750000	-3.895600	94.906152	-2.612596	-168.885583	-2.612596	-168.885583	-3.934789	105.263640
2.800000	-3.737384	91.737588	-2.741228	-172.327972	-2.741228	-172.327972	-3.778428	101.517899
2.850000	-3.580667	88.557875	-2.877198	-175.797090	-2.877198	-175.797090	-3.623560	97.728754
2.900000	-3.425526	85.366145	-3.021042	-179.293181	-3.021042	-179.293181	-3.470251	93.896527
2.950000	-3.272066	82.161577	-3.173330	177.183646	-3.173330	177.183646	-3.318597	90.021742
3.000000	-3.120419	78.943419	-3.334663	173.633431	-3.334663	173.633431	-3.168718	86.105135
3.050000	-2.970741	75.711001	-3.505676	170.056373	-3.505676	170.056373	-3.020763	82.147664
3.100000	-2.823215	72.463745	-3.687039	166.452846	-3.687039	166.452846	-2.874902	78.150521
3.150000	-2.678045	69.201013	-3.879535	162.823131	-3.879535	162.823131	-2.731332	74.114734
3.200000	-2.535466	65.922452	-4.083909	159.168006	-4.083909	159.168006	-2.590280	70.042036
3.250000	-2.395722	62.628024	-4.300852	155.488713	-4.300852	155.488713	-2.451983	65.934769
3.300000	-2.259071	59.317664	-4.531167	151.786410	-4.531167	151.786410	-2.316692	61.795096
3.350000	-2.125779	55.991454	-4.775687	148.062452	-4.775687	148.062452	-2.184671	57.625410
3.400000	-1.996121	52.649619	-5.035278	144.318387	-5.035278	144.318387	-2.056189	53.428320
3.450000	-1.870378	49.292526	-5.310833	140.555939	-5.310833	140.555939	-1.931522	49.206637
3.500000	-1.748825	45.920669	-5.603276	136.776992	-5.603276	136.776992	-1.810946	44.963343
3.550000	-1.631738	42.534653	-5.913557	132.983553	-5.913557	132.983553	-1.694732	40.701567
3.600000	-1.519383	39.135169	-6.242649	129.177717	-6.242649	129.177717	-1.583146	36.424542
3.650000	-1.412015	35.722951	-6.591544	125.361605	-6.591544	125.361605	-1.476438	32.135559
3.700000	-1.309876	32.298730	-6.961244	121.537293	-6.961244	121.537293	-1.374848	27.837909
3.750000	-1.213192	28.863169	-7.352749	117.706701	-7.352749	117.706701	-1.278597	23.534814
3.800000	-1.122285	25.416548	-7.767093	113.871383	-7.767093	113.871383	-1.187998	19.229357
3.850000	-1.037256	21.959329	-8.205055	110.032559	-8.205055	110.032559	-1.103146	14.924445
3.900000	-0.958296	18.491294	-8.667394	106.190489	-8.667394	106.190489	-1.024217	10.622460
3.950000	-0.885594	15.011576	-9.154632	102.344149	-9.154632	102.344149	-0.951383	6.325200
4.000000	-0.819358	11.518356	-9.666870	98.490520	-9.666870	98.490520	-0.884823	2.033636
4.050000	-0.759840	8.008411	-10.203487	94.623433	-10.203487	94.623433	-0.824750	-2.252440
4.100000	-0.707386	4.476428	-10.762621	90.731636	-10.762621	90.731636	-0.771448	-6.534943
4.150000	-0.662522	0.913884	-11.340261	86.795418	-11.340261	86.795418	-0.725345	-10.818336
4.200000	-0.626096	-2.692721	-11.928717	82.780748	-11.928717	82.780748	-0.687132	-15.110980
4.250000	-0.599711	-6.366029	-12.513187	78.625815	-12.513187	78.625815	-0.658121	-19.427983
4.300000	-0.586168	-10.142407	-13.067497	74.221505	-13.067497	74.221505	-0.640585	-23.795179
4.350000	-0.591384	-14.086282	-13.542723	69.359294	-13.542723	69.359294	-0.639334	-28.258885
4.400000	-0.630023	-18.326895	-13.840954	63.588225	-13.840954	63.588225	-0.666250	-32.911896
4.450000	-0.740685	-23.116003	-13.779778	55.936554	-13.779778	55.936554	-0.752241	-37.933129
4.500000	-1.060124	-28.984788	-13.004203	43.873749	-13.004203	43.873749	-1.004849	-43.673254
4.550000	-2.270500	-35.922983	-11.009857	19.166460	-11.009857	19.166460	-1.927114	-49.793072
4.600000	-4.518313	-19.716453	-10.016525	-37.284316	-10.016525	-37.284316	-3.407525	-39.579137
4.650000	-1.544406	-15.675744	-14.567412	-88.590796	-14.567412	-88.590796	-1.329763	-37.806846
4.700000	-0.749774	-23.307486	-18.172094	-112.948541	-18.172094	-112.948541	-0.718148	-44.686779
4.750000	-0.537375	-28.961148	-19.670660	-126.684057	-19.670660	-126.684057	-0.552412	-50.181271
4.800000	-0.463214	-33.523189	-19.890216	-135.338794	-19.890216	-135.338794	-0.495312	-54.829828
4.850000	-0.435435	-37.546593	-19.487608	-141.373538	-19.487608	-141.373538	-0.475063	-59.037477
4.900000	-0.429149	-41.257694	-18.802199	-146.006074	-18.802199	-146.006074	-0.472132	-62.973066
4.950000	-0.434664	-44.775178	-18.014092	-149.916506	-18.014092	-149.916506	-0.478909	-66.726263
5.000000	-0.447052	-48.175979	-17.216535	-153.480175	-17.216535	-153.480175	-0.491475	-70.359696
5.050000	-0.465608	-51.475496	-16.434289	-156.810265	-16.434289	-156.810265	-0.509361	-73.878107
5.100000	-0.488135	-54.715276	-15.693184	-160.034150	-15.693184	-160.034150	-0.530749	-77.320553
5.150000	-0.514652	-57.901755	-14.994473	-163.181111	-14.994473	-163.181111	-0.555711	-80.687022
5.200000	-0.544436	-61.050827	-14.339715	-166.282684	-14.339715	-166.282684	-0.583635	-83.993087
5.250000	-0.577377	-64.169700	-13.726391	-169.351650	-13.726391	-169.351650	-0.614444	-87.243221
5.300000	-0.613392	-67.264641	-13.151285	-172.396142	-13.151285	-172.396142	-0.648078	-90.441822
5.350000	-0.652188	-70.342768	-12.611085	-175.423336	-12.611085	-175.423336	-0.684275	-93.597055
5.400000	-0.694107	-73.406809	-12.102336	-178.434915	-12.102336	-178.434915	-0.723356	-96.706883
5.450000	-0.738689	-76.462848	-11.621874	178.563925	-11.621874	178.563925	-0.764896	-99.781712
5.500000	-0.786499	-79.513403	-11.166825	175.572689	-11.166825	175.572689	-0.809420	-102.817541
5.550000	-0.837137	-82.562647	-10.734542	172.587737	-10.734542	172.587737	-0.856555	-105.823238
5.600000	-0.891023	-85.613894	-10.322686	169.607641	-10.322686	169.607641	-0.906692	-108.797910
5.650000	-0.948117	-88.670168	-9.929186	166.630044	-9.929186	166.630044	-0.959796	-111.745913
5.700000	-1.008567	-91.734581	-9.552201	163.652718	-9.552201	163.652718	-1.016009	-114.669952
5.750000	-1.072723	-94.810777	-9.190064	160.673187	-9.190064	160.673187	-1.075673	-117.571551
5.800000	-1.140407	-97.900236	-8.841471	157.689203	-8.841471	157.689203	-1.138647	-120.456093
5.850000	-1.212414	-101.008721	-8.505000	154.696374	-8.505000	154.696374	-1.205763	-123.324537
5.900000	-1.288289	-104.135507	-8.179905	151.692579	-8.179905	151.692579	-1.276710	-126.184168
5.950000	-1.368859	-107.286916	-7.865294	148.669495	-7.865294	148.669495	-1.352741	-129.041456
6.000000	-1.453724	-110.461911	-7.561213	145.621046	-7.561213	145.621046	-1.434373	-131.908871
6.050000	-1.542843	-113.663715	-7.269526	142.528087	-7.269526	142.528087	-1.525464	-134.815083
6.100000	-1.634248	-116.893885	-6.999417	139.365966	-6.999417	139.365966	-1.639279	-137.813440
6.150000	-1.721154	-120.190573	-6.787155	136.248452	-6.787155	136.248452	-1.834407	-140.813526
6.200000	-1.830439	-123.733527	-6.541775	134.099998	-6.541775	134.099998	-2.021562	-142.290337
6.250000	-1.968272	-127.110695	-6.182160	131.124438	-6.182160	131.124438	-2.006893	-144.709930
6.300000	-2.098764	-130.501688	-5.887032	127.893620	-5.887032	127.893620	-2.074157	-147.557602
6.350000	-2.233276	-133.962322	-5.617230	124.681077	-5.617230	124.681077	-2.178910	-150.368487
6.400000	-2.376140	-137.494707	-5.358408	121.474614	-5.358408	121.474614	-2.301700	-153.129428
6.450000	-2.528460	-141.095414	-5.106831	118.256979	-5.106831	118.256979	-2.436728	-155.857570
6.500000	-2.691029	-144.765875	-4.861443	115.019997	-4.861443	115.019997	-2.582772	-158.560283
6.550000	-2.864808	-148.510696	-4.621799	111.758193	-4.621799	111.758193	-2.739867	-161.240259
6.600000	-3.051331	-152.340544	-4.387708	108.465721	-4.387708	108.465721	-2.908981	-163.896419
6.650000	-3.250879	-156.254484	-4.159266	105.142315	-4.159266	105.142315	-3.090036	-166.529186
6.700000	-3.464565	-160.259283	-3.936560	101.785782	-3.936560	101.785782	-3.283859	-169.135656
6.750000	-3.693665	-164.363831	-3.719800	98.393947	-3.719800	98.393947	-3.491442	-171.711043
6.800000	-3.939474	-168.577259	-3.509257	94.965260	-3.509257	94.965260	-3.713794	-174.249339
6.850000	-4.202319	-172.898393	-3.305111	91.502159	-3.305111	91.502159	-3.951020	-176.747266
6.900000	-4.483644	-177.338495	-3.107686	88.003542	-3.107686	88.003542	-4.204238	-179.196218
6.950000	-4.785833	178.076818	-2.917688	84.465494	-2.917688	84.465494	-4.475365	178.420747
7.000000	-5.108554	173.356242	-2.735063	80.894125	-2.735063	80.894125	-4.763827	176.105918
7.050000	-5.452966	168.489007	-2.560103	77.290525	-2.560103	77.290525	-5.070357	173.870759
7.100000	-5.821256	163.437747	-2.393860	73.651920	-2.393860	73.651920	-5.396517	171.744078
7.150000	-6.213374	158.202549	-2.236227	69.983762	-2.236227	69.983762	-5.741839	169.733923
7.200000	-6.629754	152.773331	-2.087277	66.289555	-2.087277	66.289555	-6.106231	167.853849
7.250000	-7.070979	147.113357	-1.947781	62.570383	-1.947781	62.570383	-6.489640	166.136181
7.300000	-7.536554	141.187331	-1.818290	58.829153	-1.818290	58.829153	-6.891025	164.613336
7.350000	-8.025429	134.993697	-1.698216	55.071677	-1.698216	55.071677	-7.308906	163.291963
7.400000	-8.536008	128.502163	-1.587707	51.301427	-1.587707	51.301427	-7.741329	162.198458
7.450000	-9.062366	121.617531	-1.488318	47.521230	-1.488318	47.521230	-8.182828	161.407996
7.500000	-9.601297	114.361452	-1.398551	43.737048	-1.398551	43.737048	-8.630572	160.903497
7.550000	-10.146106	106.700979	-1.318323	39.952794	-1.318323	39.952794	-9.079171	160.708024
7.600000	-10.681843	98.552150	-1.248541	36.173326	-1.248541	36.173326	-9.517479	160.881223
7.650000	-11.196089	89.918309	-1.188492	32.403018	-1.188492	32.403018	-9.937253	161.416118
7.700000	-11.676354	80.831235	-1.137323	28.645231	-1.137323	28.645231	-10.330867	162.287100
7.750000	-12.101332	71.301791	-1.095100	24.904423	-1.095100	24.904423	-10.685021	163.489345
7.800000	-12.444212	61.379992	-1.062053	21.186098	-1.062053	21.186098	-10.983144	164.999732
7.850000	-12.701226	51.230544	-1.036623	17.490809	-1.036623	17.490809	-11.224059	166.715909
7.900000	-12.863032	40.989060	-1.018338	13.821087	-1.018338	13.821087	-11.401588	168.563323
7.950000	-12.911509	30.838854	-1.007708	10.184045	-1.007708	10.184045	-11.501698	170.451810
8.000000	-12.867958	20.932860	-1.003168	6.577647	-1.003168	6.577647	-11.536084	172.277630
8.050000	-12.746466	11.382231	-1.004043	3.002673	-1.004043	3.002673	-11.511059	173.964460
8.100000	-12.557632	2.311864	-1.010196	-0.536732	-1.010196	-0.536732	-11.429904	175.426578
8.150000	-12.321318	-6.233922	-1.020929	-4.040029	-1.020929	-4.040029	-11.303862	176.613577
8.200000	-12.058059	-14.292323	-1.035274	-7.509994	-1.035274	-7.509994	-11.146976	177.523092
8.250000	-11.780226	-21.868886	-1.052766	-10.945948	-1.052766	-10.945948	-10.967806	178.140698
8.300000	-11.497748	-28.940375	-1.073140	-14.344019	-1.073140	-14.344019	-10.773248	178.434693
8.350000	-11.220904	-35.619346	-1.095446	-17.710339	-1.095446	-17.710339	-10.573472	178.465544
8.400000	-10.954859	-41.945105	-1.119223	-21.045955	-1.119223	-21.045955	-10.373742	178.252036
8.450000	-10.704665	-47.917131	-1.144108	-24.348203	-1.144108	-24.348203	-10.178680	177.786886
8.500000	-10.472452	-53.607422	-1.169534	-27.621662	-1.169534	-27.621662	-9.991921	177.116804
8.550000	-10.259925	-59.051732	-1.195072	-30.868128	-1.195072	-30.868128	-9.816039	176.264735
8.600000	-10.067449	-64.289070	-1.220350	-34.090440	-1.220350	-34.090440	-9.652481	175.257389
8.650000	-9.895837	-69.341934	-1.245017	-37.290073	-1.245017	-37.290073	-9.502672	174.109824
8.700000	-9.745193	-74.236969	-1.268754	-40.469426	-1.268754	-40.469426	-9.367427	172.840501
8.750000	-9.615416	-78.998084	-1.291276	-43.631020	-1.291276	-43.631020	-9.247250	171.465951
8.800000	-9.507619	-83.640474	-1.312216	-46.776619	-1.312216	-46.776619	-9.143409	169.995571
8.850000	-9.420223	-88.192517	-1.331454	-49.910148	-1.331454	-49.910148	-9.055084	168.449333
8.900000	-9.352944	-92.672065	-1.348816	-53.034397	-1.348816	-53.034397	-8.982279	166.838738
8.950000	-9.305523	-97.095792	-1.364163	-56.152218	-1.364163	-56.152218	-8.924944	165.174144
9.000000	-9.277754	-101.479484	-1.377386	-59.266507	-1.377386	-59.266507	-8.883003	163.464972
9.050000	-9.269490	-105.838306	-1.388413	-62.380199	-1.388413	-62.380199	-8.856370	161.719910
9.100000	-9.280657	-110.187048	-1.397204	-65.496255	-1.397204	-65.496255	-8.844965	159.947096
9.150000	-9.311250	-114.540367	-1.403750	-68.617652	-1.403750	-68.617652	-8.848721	158.154306
9.200000	-9.361336	-118.913021	-1.408080	-71.747371	-1.408080	-71.747371	-8.867584	156.349121
9.250000	-9.431055	-123.320106	-1.410251	-74.888385	-1.410251	-74.888385	-8.901517	154.539101
9.300000	-9.520522	-127.777281	-1.410365	-78.043618	-1.410365	-78.043618	-8.950430	152.732016
9.350000	-9.630108	-132.300703	-1.408528	-81.215959	-1.408528	-81.215959	-9.014389	150.935565
9.400000	-9.761371	-136.915963	-1.404781	-84.410016	-1.404781	-84.410016	-9.094331	149.160498
9.450000	-9.912289	-141.631307	-1.399519	-87.626060	-1.399519	-87.626060	-9.188414	147.413244
9.500000	-10.084479	-146.475600	-1.392820	-90.868629	-1.392820	-90.868629	-9.297554	145.705774
9.550000	-10.277815	-151.473370	-1.384947	-94.140586	-1.384947	-94.140586	-9.421313	144.049529
9.600000	-10.491121	-156.637690	-1.376209	-97.442511	-1.376209	-97.442511	-9.558465	142.451616
9.650000	-10.725873	-162.023835	-1.366808	-100.781784	-1.366808	-100.781784	-9.709812	140.934211
9.700000	-10.979399	-167.641577	-1.357157	-104.157538	-1.357157	-104.157538	-9.873131	139.502741
9.750000	-11.250559	-173.529559	-1.347614	-107.573495	-1.347614	-107.573495	-10.047494	138.172436
9.800000	-11.536875	-179.751262	-1.338713	-111.035976	-1.338713	-111.035976	-10.231419	136.966997
9.850000	-11.833872	173.686863	-1.330920	-114.543120	-1.330920	-114.543120	-10.422148	135.887587
9.900000	-12.135582	166.707536	-1.324998	-118.102078	-1.324998	-118.102078	-10.616971	134.960188
9.950000	-12.433352	159.281834	-1.321659	-121.713509	-1.321659	-121.713509	-10.812033	134.191252
10.000000	-12.718179	151.403385	-1.321474	-125.376304	-1.321474	-125.376304	-11.003774	133.579036
