! freq	dB(S11)	phase(S11)	dB(S12)	phase(S12)	
!     	dB(S21)	phase(S21)	dB(S22)	phase(S22)	
!S-par simulation data
#  GHz  S  DB  R 50
0.000000	-0.000000	0.000000	-356.338129	0.000000	-356.338129	0.000000	-0.000000	0.000000
0.050000	-0.000925	-1.441460	-110.113754	89.090875	-110.113754	89.090875	-0.000509	-0.766449
0.100000	-0.003129	-2.876065	-104.137806	87.942658	-104.137806	87.942658	-0.001671	-1.528883
0.150000	-0.005686	-4.302812	-100.690246	86.868957	-100.690246	86.868957	-0.002945	-2.287124
0.200000	-0.008074	-5.724019	-98.301293	85.840670	-98.301293	85.840670	-0.004084	-3.042765
0.250000	-0.010222	-7.142487	-96.497792	84.855146	-96.497792	84.855146	-0.005092	-3.797300
0.300000	-0.012161	-8.559312	-95.079632	83.923348	-95.079632	83.923348	-0.006007	-4.551289
0.350000	-0.013962	-9.975098	-93.938356	83.057393	-93.938356	83.057393	-0.006878	-5.305028
0.400000	-0.015683	-11.390011	-93.011232	82.273403	-93.011232	82.273403	-0.007739	-6.058624
0.450000	-0.017364	-12.803911	-92.266548	81.601226	-92.266548	81.601226	-0.008617	-6.812095
0.500000	-0.019034	-14.216724	-91.668415	81.055452	-91.668415	81.055452	-0.009520	-7.565445
0.550000	-0.020705	-15.628252	-91.199196	80.665038	-91.199196	80.665038	-0.010450	-8.318650
0.600000	-0.022382	-17.038281	-90.847049	80.466413	-90.847049	80.466413	-0.011405	-9.071679
0.650000	-0.024067	-18.446597	-90.604184	80.506034	-90.604184	80.506034	-0.012378	-9.824485
0.700000	-0.025760	-19.852989	-90.465696	80.843922	-90.465696	80.843922	-0.013361	-10.577011
0.750000	-0.027462	-21.257110	-90.434707	81.588321	-90.434707	81.588321	-0.014347	-11.329156
0.800000	-0.029169	-22.658752	-90.507993	82.861949	-90.507993	82.861949	-0.015328	-12.080830
0.850000	-0.030881	-24.057775	-90.678632	84.820024	-90.678632	84.820024	-0.016300	-12.831950
0.900000	-0.032595	-25.454205	-90.932405	87.603280	-90.932405	87.603280	-0.017262	-13.582484
0.950000	-0.034310	-26.847730	-91.257182	91.512847	-91.257182	91.512847	-0.018215	-14.332329
1.000000	-0.036026	-28.238199	-91.616240	96.862882	-91.616240	96.862882	-0.019161	-15.081429
1.050000	-0.037741	-29.625471	-91.940730	103.960802	-91.940730	103.960802	-0.020101	-15.829739
1.100000	-0.039454	-31.009417	-92.119249	112.952047	-92.119249	112.952047	-0.021038	-16.577228
1.150000	-0.041165	-32.389919	-92.010086	123.558911	-92.010086	123.558911	-0.021974	-17.323875
1.200000	-0.042872	-33.766864	-91.499067	134.885787	-91.499067	134.885787	-0.022911	-18.069666
1.250000	-0.044575	-35.140152	-90.576069	145.654516	-90.576069	145.654516	-0.023850	-18.814590
1.300000	-0.046274	-36.509520	-89.327836	154.765671	-89.327836	154.765671	-0.024792	-19.558604
1.350000	-0.047967	-37.875040	-87.919893	161.948842	-87.919893	161.948842	-0.025738	-20.301739
1.400000	-0.049655	-39.236630	-86.464686	167.357145	-86.464686	167.357145	-0.026687	-21.043992
1.450000	-0.051337	-40.594215	-85.029436	171.305849	-85.029436	171.305849	-0.027639	-21.785357
1.500000	-0.053012	-41.947723	-83.647620	174.113334	-83.647620	174.113334	-0.028593	-22.525830
1.550000	-0.054680	-43.297089	-82.332714	176.044945	-82.332714	176.044945	-0.029551	-23.265405
1.600000	-0.056342	-44.642249	-81.087682	177.305586	-81.087682	177.305586	-0.030510	-24.004076
1.650000	-0.057996	-45.983146	-79.910432	178.048842	-79.910432	178.048842	-0.031471	-24.741837
1.700000	-0.059644	-47.319723	-78.796703	178.388933	-78.796703	178.388933	-0.032433	-25.478679
1.750000	-0.061283	-48.651929	-77.741516	178.411068	-77.741516	178.411068	-0.033396	-26.214595
1.800000	-0.062916	-49.979716	-76.739876	178.179364	-76.739876	178.179364	-0.034360	-26.949577
1.850000	-0.064541	-51.303038	-75.787076	177.742599	-75.787076	177.742599	-0.035325	-27.683614
1.900000	-0.066160	-52.621852	-74.878827	177.138323	-74.878827	177.138323	-0.036290	-28.416699
1.950000	-0.067772	-53.936118	-74.011273	176.395799	-74.011273	176.395799	-0.037256	-29.148820
2.000000	-0.069377	-55.245800	-73.180982	175.538094	-73.180982	175.538094	-0.038222	-29.879967
2.050000	-0.070977	-56.550863	-72.384904	174.583594	-72.384904	174.583594	-0.039189	-30.610131
2.100000	-0.072571	-57.851275	-71.620332	173.547113	-71.620332	173.547113	-0.040156	-31.339300
2.150000	-0.074159	-59.147006	-70.884860	172.440696	-70.884860	172.440696	-0.041125	-32.067463
2.200000	-0.075744	-60.438031	-70.176345	171.274232	-70.176345	171.274232	-0.042094	-32.794609
2.250000	-0.077324	-61.724324	-69.492873	170.055909	-69.492873	170.055909	-0.043065	-33.520727
2.300000	-0.078902	-63.005865	-68.832731	168.792555	-68.832731	168.792555	-0.044038	-34.245806
2.350000	-0.080477	-64.282635	-68.194378	167.489910	-68.194378	167.489910	-0.045012	-34.969833
2.400000	-0.082050	-65.554616	-67.576429	166.152831	-67.576429	166.152831	-0.045988	-35.692797
2.450000	-0.083622	-66.821795	-66.977627	164.785454	-66.977627	164.785454	-0.046967	-36.414688
2.500000	-0.085193	-68.084160	-66.396836	163.391320	-66.396836	163.391320	-0.047949	-37.135493
2.550000	-0.086765	-69.341492	-65.832172	161.972576	-65.832172	161.972576	-0.048934	-37.855152
2.600000	-0.088339	-70.593993	-65.283637	160.532973	-65.283637	160.532973	-0.049923	-38.573702
2.650000	-0.089915	-71.841661	-64.750355	159.074771	-64.750355	159.074771	-0.050915	-39.291131
2.700000	-0.091494	-73.084492	-64.231528	157.599947	-64.231528	157.599947	-0.051912	-40.007429
2.750000	-0.093077	-74.322488	-63.726418	156.110238	-63.726418	156.110238	-0.052914	-40.722583
2.800000	-0.094665	-75.555653	-63.234348	154.607178	-63.234348	154.607178	-0.053921	-41.436583
2.850000	-0.096258	-76.783990	-62.754692	153.092125	-62.754692	153.092125	-0.054933	-42.149418
2.900000	-0.097858	-78.007509	-62.286871	151.566289	-62.286871	151.566289	-0.055952	-42.861077
2.950000	-0.099465	-79.226219	-61.830350	150.030745	-61.830350	150.030745	-0.056976	-43.571551
3.000000	-0.101080	-80.440132	-61.384628	148.486460	-61.384628	148.486460	-0.058008	-44.280829
3.050000	-0.102704	-81.649263	-60.949242	146.934297	-60.949242	146.934297	-0.059046	-44.988901
3.100000	-0.104338	-82.853629	-60.523760	145.375037	-60.523760	145.375037	-0.060093	-45.695757
3.150000	-0.105983	-84.053247	-60.107775	143.809383	-60.107775	143.809383	-0.061147	-46.401388
3.200000	-0.107639	-85.248139	-59.700911	142.237974	-59.700911	142.237974	-0.062209	-47.105784
3.250000	-0.109307	-86.438327	-59.302811	140.661387	-59.302811	140.661387	-0.063281	-47.808936
3.300000	-0.110989	-87.623837	-58.913143	139.080150	-58.913143	139.080150	-0.064361	-48.510836
3.350000	-0.112684	-88.804695	-58.531595	137.494744	-58.531595	137.494744	-0.065451	-49.211475
3.400000	-0.114393	-89.980930	-58.157869	135.905609	-58.157869	135.905609	-0.066551	-49.910844
3.450000	-0.116118	-91.152573	-57.791690	134.313148	-57.791690	134.313148	-0.067661	-50.608937
3.500000	-0.117859	-92.319655	-57.432793	132.717733	-57.432793	132.717733	-0.068782	-51.305745
3.550000	-0.119616	-93.482211	-57.080932	131.119704	-57.080932	131.119704	-0.069914	-52.001260
3.600000	-0.121391	-94.640277	-56.735870	129.519379	-56.735870	129.519379	-0.071057	-52.695476
3.650000	-0.123184	-95.793891	-56.397385	127.917048	-56.397385	127.917048	-0.072213	-53.388386
3.700000	-0.124995	-96.943092	-56.065266	126.312982	-56.065266	126.312982	-0.073380	-54.079984
3.750000	-0.126826	-98.087920	-55.739313	124.707432	-55.739313	124.707432	-0.074560	-54.770263
3.800000	-0.128678	-99.228232	-55.419082	123.100588	-55.419082	123.100588	-0.075754	-55.459159
3.850000	-0.130550	-100.364262	-55.104665	121.492730	-55.104665	121.492730	-0.076961	-56.146724
3.900000	-0.132444	-101.496056	-54.795886	119.884059	-54.795886	119.884059	-0.078182	-56.832954
3.950000	-0.134359	-102.623661	-54.492580	118.274763	-54.492580	118.274763	-0.079416	-57.517843
4.000000	-0.136297	-103.747124	-54.194588	116.665019	-54.194588	116.665019	-0.080666	-58.201386
4.050000	-0.138258	-104.866497	-53.901757	115.054992	-53.901757	115.054992	-0.081930	-58.883580
4.100000	-0.140242	-105.981828	-53.613942	113.444836	-53.613942	113.444836	-0.083209	-59.564420
4.150000	-0.142250	-107.093172	-53.331004	111.834697	-53.331004	111.834697	-0.084504	-60.243903
4.200000	-0.144283	-108.200581	-53.052810	110.224712	-53.052810	110.224712	-0.085815	-60.922026
4.250000	-0.146340	-109.304109	-52.779232	108.615010	-52.779232	108.615010	-0.087142	-61.598784
4.300000	-0.148423	-110.403812	-52.510148	107.005710	-52.510148	107.005710	-0.088486	-62.274177
4.350000	-0.150532	-111.499747	-52.245439	105.396928	-52.245439	105.396928	-0.089847	-62.948200
4.400000	-0.152667	-112.591971	-51.984994	103.788769	-51.984994	103.788769	-0.091225	-63.620853
4.450000	-0.154829	-113.680544	-51.728702	102.181335	-51.728702	102.181335	-0.092621	-64.292133
4.500000	-0.157018	-114.765524	-51.476460	100.574721	-51.476460	100.574721	-0.094035	-64.962039
4.550000	-0.159235	-115.846971	-51.228167	98.969016	-51.228167	98.969016	-0.095467	-65.630570
4.600000	-0.161479	-116.924948	-50.983725	97.364303	-50.983725	97.364303	-0.096918	-66.297724
4.650000	-0.163752	-117.999517	-50.743041	95.760662	-50.743041	95.760662	-0.098389	-66.963502
4.700000	-0.166054	-119.070739	-50.506025	94.158166	-50.506025	94.158166	-0.099879	-67.627903
4.750000	-0.168384	-120.138680	-50.272589	92.556885	-50.272589	92.556885	-0.101389	-68.290927
4.800000	-0.170744	-121.203404	-50.042649	90.956884	-50.042649	90.956884	-0.102919	-68.952574
4.850000	-0.173134	-122.264974	-49.816125	89.358224	-49.816125	89.358224	-0.104470	-69.612845
4.900000	-0.175554	-123.323459	-49.592938	87.760961	-49.592938	87.760961	-0.106042	-70.271741
4.950000	-0.178004	-124.378923	-49.373011	86.165148	-49.373011	86.165148	-0.107635	-70.929263
5.000000	-0.180484	-125.431433	-49.156272	84.570835	-49.156272	84.570835	-0.109250	-71.585413
5.050000	-0.182997	-126.480936	-48.942557	82.978137	-48.942557	82.978137	-0.110888	-72.240132
5.100000	-0.185542	-127.527628	-48.731897	81.387030	-48.731897	81.387030	-0.112549	-72.893483
5.150000	-0.188117	-128.571577	-48.524225	79.797554	-48.524225	79.797554	-0.114232	-73.545468
5.200000	-0.190725	-129.612853	-48.319476	78.209743	-48.319476	78.209743	-0.115939	-74.196089
5.250000	-0.193364	-130.651525	-48.117589	76.623631	-48.117589	76.623631	-0.117670	-74.845350
5.300000	-0.196035	-131.687663	-47.918501	75.039248	-47.918501	75.039248	-0.119424	-75.493254
5.350000	-0.198739	-132.721339	-47.722156	73.456621	-47.722156	73.456621	-0.121203	-76.139803
5.400000	-0.201475	-133.752622	-47.528496	71.875774	-47.528496	71.875774	-0.123007	-76.785002
5.450000	-0.204245	-134.781585	-47.337465	70.296731	-47.337465	70.296731	-0.124836	-77.428854
5.500000	-0.207047	-135.808298	-47.149012	68.719511	-47.149012	68.719511	-0.126690	-78.071365
5.550000	-0.209882	-136.832835	-46.963084	67.144132	-46.963084	67.144132	-0.128570	-78.712537
5.600000	-0.212751	-137.855267	-46.779631	65.570611	-46.779631	65.570611	-0.130477	-79.352377
5.650000	-0.215653	-138.875666	-46.598606	63.998962	-46.598606	63.998962	-0.132410	-79.990888
5.700000	-0.218589	-139.894107	-46.419962	62.429197	-46.419962	62.429197	-0.134371	-80.628077
5.750000	-0.221558	-140.910661	-46.243653	60.861327	-46.243653	60.861327	-0.136358	-81.263947
5.800000	-0.224562	-141.925402	-46.069635	59.295362	-46.069635	59.295362	-0.138374	-81.898506
5.850000	-0.227599	-142.938404	-45.897867	57.731309	-45.897867	57.731309	-0.140418	-82.531759
5.900000	-0.230670	-143.949742	-45.728308	56.169176	-45.728308	56.169176	-0.142491	-83.163712
5.950000	-0.233776	-144.959487	-45.560917	54.608968	-45.560917	54.608968	-0.144592	-83.794372
6.000000	-0.236916	-145.967716	-45.395657	53.050691	-45.395657	53.050691	-0.146723	-84.423744
6.050000	-0.240090	-146.974503	-45.232491	51.494349	-45.232491	51.494349	-0.148884	-85.051836
6.100000	-0.243299	-147.979921	-45.071382	49.939946	-45.071382	49.939946	-0.151075	-85.678655
6.150000	-0.246543	-148.984046	-44.912297	48.387485	-44.912297	48.387485	-0.153297	-86.304207
6.200000	-0.249820	-149.986952	-44.755201	46.836968	-44.755201	46.836968	-0.155550	-86.928501
6.250000	-0.253133	-150.988715	-44.600063	45.288399	-44.600063	45.288399	-0.157834	-87.551544
6.300000	-0.256481	-151.989367	-44.446818	43.741865	-44.446818	43.741865	-0.160151	-88.173290
6.350000	-0.259864	-152.989032	-44.295472	42.197284	-44.295472	42.197284	-0.162501	-88.793801
6.400000	-0.263282	-153.987786	-44.145997	40.654659	-44.145997	40.654659	-0.164883	-89.413086
6.450000	-0.266735	-154.985704	-43.998363	39.113993	-43.998363	39.113993	-0.167298	-90.031153
6.500000	-0.270222	-155.982862	-43.852545	37.575291	-43.852545	37.575291	-0.169747	-90.648011
6.550000	-0.273743	-156.979335	-43.708516	36.038556	-43.708516	36.038556	-0.172229	-91.263668
6.600000	-0.277299	-157.975199	-43.566250	34.503795	-43.566250	34.503795	-0.174746	-91.878134
6.650000	-0.280890	-158.970529	-43.425723	32.971013	-43.425723	32.971013	-0.177297	-92.491418
6.700000	-0.284515	-159.965400	-43.286911	31.440217	-43.286911	31.440217	-0.179883	-93.103529
6.750000	-0.288175	-160.959889	-43.149793	29.911415	-43.149793	29.911415	-0.182505	-93.714476
6.800000	-0.291869	-161.954071	-43.014345	28.384618	-43.014345	28.384618	-0.185163	-94.324270
6.850000	-0.295597	-162.948021	-42.880546	26.859835	-42.880546	26.859835	-0.187857	-94.932920
6.900000	-0.299359	-163.941815	-42.748377	25.337079	-42.748377	25.337079	-0.190587	-95.540436
6.950000	-0.303155	-164.935529	-42.617816	23.816363	-42.617816	23.816363	-0.193355	-96.146829
7.000000	-0.306985	-165.929238	-42.488846	22.297703	-42.488846	22.297703	-0.196160	-96.752108
7.050000	-0.310848	-166.923017	-42.361447	20.781116	-42.361447	20.781116	-0.199003	-97.356284
7.100000	-0.314746	-167.916942	-42.235602	19.266620	-42.235602	19.266620	-0.201884	-97.959369
7.150000	-0.318676	-168.911089	-42.111293	17.754236	-42.111293	17.754236	-0.204804	-98.561372
7.200000	-0.322640	-169.905532	-41.988503	16.243985	-41.988503	16.243985	-0.207763	-99.162306
7.250000	-0.326637	-170.900348	-41.867216	14.735892	-41.867216	14.735892	-0.210761	-99.762180
7.300000	-0.330667	-171.895610	-41.747415	13.229984	-41.747415	13.229984	-0.213799	-100.361006
7.350000	-0.334729	-172.891393	-41.629087	11.726288	-41.629087	11.726288	-0.216878	-100.958796
7.400000	-0.338823	-173.887774	-41.512214	10.224834	-41.512214	10.224834	-0.219997	-101.555562
7.450000	-0.342950	-174.884826	-41.396784	8.725655	-41.396784	8.725655	-0.223157	-102.151314
7.500000	-0.347108	-175.882624	-41.282780	7.228785	-41.282780	7.228785	-0.226358	-102.746065
7.550000	-0.351299	-176.881281	-41.170187	5.734363	-41.170187	5.734363	-0.229603	-103.339785
7.600000	-0.355522	-177.880840	-41.058996	4.242328	-41.058996	4.242328	-0.232890	-103.932529
7.650000	-0.359775	-178.881375	-40.949192	2.752721	-40.949192	2.752721	-0.236220	-104.524310
7.700000	-0.364059	-179.882959	-40.840762	1.265583	-40.840762	1.265583	-0.239593	-105.115139
7.750000	-0.368372	179.114335	-40.733692	-0.219041	-40.733692	-0.219041	-0.243009	-105.705030
7.800000	-0.372716	178.110431	-40.627969	-1.701104	-40.627969	-1.701104	-0.246469	-106.293995
7.850000	-0.377089	177.105259	-40.523580	-3.180558	-40.523580	-3.180558	-0.249973	-106.882047
7.900000	-0.381491	176.098744	-40.420512	-4.657354	-40.420512	-4.657354	-0.253522	-107.469199
7.950000	-0.385921	175.090814	-40.318752	-6.131439	-40.318752	-6.131439	-0.257115	-108.055464
8.000000	-0.390380	174.081397	-40.218287	-7.602761	-40.218287	-7.602761	-0.260754	-108.640855
8.050000	-0.394866	173.070421	-40.119104	-9.071265	-40.119104	-9.071265	-0.264438	-109.225386
8.100000	-0.399380	172.057814	-40.021189	-10.536894	-40.021189	-10.536894	-0.268168	-109.809070
8.150000	-0.403920	171.043505	-39.924530	-11.999591	-39.924530	-11.999591	-0.271944	-110.391920
8.200000	-0.408486	170.027422	-39.829114	-13.459297	-39.829114	-13.459297	-0.275767	-110.973951
8.250000	-0.413077	169.009496	-39.734926	-14.915953	-39.734926	-14.915953	-0.279637	-111.555176
8.300000	-0.417694	167.989657	-39.641955	-16.369497	-39.641955	-16.369497	-0.283554	-112.135609
8.350000	-0.422335	166.967834	-39.550185	-17.819868	-39.550185	-17.819868	-0.287519	-112.715264
8.400000	-0.426999	165.943959	-39.459604	-19.267002	-39.459604	-19.267002	-0.291532	-113.294156
8.450000	-0.431687	164.917963	-39.370197	-20.710839	-39.370197	-20.710839	-0.295594	-113.872298
8.500000	-0.436397	163.889778	-39.281951	-22.151312	-39.281951	-22.151312	-0.299704	-114.449705
8.550000	-0.441129	162.859336	-39.194850	-23.588360	-39.194850	-23.588360	-0.303863	-115.026391
8.600000	-0.445882	161.826570	-39.108881	-25.021917	-39.108881	-25.021917	-0.308071	-115.602372
8.650000	-0.450655	160.791414	-39.024029	-26.451920	-39.024029	-26.451920	-0.312329	-116.177662
8.700000	-0.455448	159.753803	-38.940279	-27.878305	-38.940279	-27.878305	-0.316637	-116.752276
8.750000	-0.460259	158.713670	-38.857615	-29.301008	-38.857615	-29.301008	-0.320995	-117.326228
8.800000	-0.465089	157.670837	-38.776035	-30.719802	-38.776035	-30.719802	-0.325405	-117.899507
8.850000	-0.469936	156.625350	-38.695510	-32.134782	-38.695510	-32.134782	-0.329866	-118.472156
8.900000	-0.474799	155.577145	-38.616024	-33.545889	-38.616024	-33.545889	-0.334379	-119.044191
8.950000	-0.479677	154.526162	-38.537562	-34.953061	-38.537562	-34.953061	-0.338942	-119.615627
9.000000	-0.484569	153.472338	-38.460105	-36.356239	-38.460105	-36.356239	-0.343558	-120.186481
9.050000	-0.489475	152.415614	-38.383637	-37.755365	-38.383637	-37.755365	-0.348225	-120.756766
9.100000	-0.494393	151.355931	-38.308142	-39.150383	-38.308142	-39.150383	-0.352944	-121.326500
9.150000	-0.499323	150.293231	-38.233600	-40.541236	-38.233600	-40.541236	-0.357716	-121.895699
9.200000	-0.504262	149.227456	-38.159995	-41.927873	-38.159995	-41.927873	-0.362540	-122.464377
9.250000	-0.509211	148.158550	-38.087308	-43.310241	-38.087308	-43.310241	-0.367417	-123.032552
9.300000	-0.514168	147.086458	-38.015521	-44.688290	-38.015521	-44.688290	-0.372347	-123.600240
9.350000	-0.519132	146.011127	-37.944616	-46.061975	-37.944616	-46.061975	-0.377330	-124.167456
9.400000	-0.524102	144.932504	-37.874574	-47.431249	-37.874574	-47.431249	-0.382367	-124.734219
9.450000	-0.529077	143.850538	-37.805375	-48.796071	-37.805375	-48.796071	-0.387457	-125.300543
9.500000	-0.534055	142.765179	-37.737001	-50.156400	-37.737001	-50.156400	-0.392601	-125.866446
9.550000	-0.539035	141.676377	-37.669432	-51.512198	-37.669432	-51.512198	-0.397799	-126.431945
9.600000	-0.544016	140.584087	-37.602649	-52.863432	-37.602649	-52.863432	-0.403051	-126.997057
9.650000	-0.548997	139.488262	-37.536631	-54.210069	-37.536631	-54.210069	-0.408358	-127.561799
9.700000	-0.553976	138.388857	-37.471358	-55.552081	-37.471358	-55.552081	-0.413718	-128.126187
9.750000	-0.558952	137.285831	-37.406812	-56.889442	-37.406812	-56.889442	-0.419133	-128.690240
9.800000	-0.563923	136.179143	-37.342971	-58.222129	-37.342971	-58.222129	-0.424603	-129.253975
9.850000	-0.568889	135.068752	-37.279814	-59.550124	-37.279814	-59.550124	-0.430128	-129.817409
9.900000	-0.573847	133.954622	-37.217323	-60.873410	-37.217323	-60.873410	-0.435707	-130.380560
9.950000	-0.578797	132.836717	-37.155475	-62.191974	-37.155475	-62.191974	-0.441342	-130.943446
10.000000	-0.583737	131.715003	-37.094251	-63.505808	-37.094251	-63.505808	-0.447031	-131.506086
