! freq	dB(S11)	phase(S11)	dB(S12)	phase(S12)	
!     	dB(S21)	phase(S21)	dB(S22)	phase(S22)	
!S-par simulation data
#  GHz  S  DB  R 50
0.000000	-85.334421	0.000000	-0.000470	0.000000	-0.000470	0.000000	-85.334421	0.000000
0.050000	-32.948254	-93.144745	-0.008820	-3.271832	-0.008820	-3.271832	-32.946884	-93.058006
0.100000	-26.960067	-96.712180	-0.019675	-6.514202	-0.019675	-6.514202	-26.959015	-96.527821
0.150000	-23.481554	-100.153786	-0.035547	-9.746629	-0.035547	-9.746629	-23.481295	-99.867694
0.200000	-21.039930	-103.527492	-0.056072	-12.962552	-0.056072	-12.962552	-21.040067	-103.137797
0.250000	-19.170553	-106.847628	-0.080372	-16.159607	-0.080372	-16.159607	-19.170545	-106.355327
0.300000	-17.666371	-110.121415	-0.107842	-19.336761	-0.107842	-19.336761	-17.665869	-109.529361
0.350000	-16.415664	-113.356461	-0.137958	-22.494284	-0.137958	-22.494284	-16.414586	-112.667787
0.400000	-15.352681	-116.557869	-0.170408	-25.631894	-0.170408	-25.631894	-15.351127	-115.775114
0.450000	-14.436401	-119.728505	-0.204985	-28.748384	-0.204985	-28.748384	-14.434568	-118.853272
0.500000	-13.636220	-122.872746	-0.241310	-31.844414	-0.241310	-31.844414	-13.634310	-121.905613
0.550000	-12.931627	-125.992311	-0.279100	-34.919578	-0.279100	-34.919578	-12.929805	-124.933179
0.600000	-12.308860	-129.087177	-0.318081	-37.972504	-0.318081	-37.972504	-12.307250	-127.935458
0.650000	-11.755273	-132.158924	-0.357868	-41.003740	-0.357868	-41.003740	-11.753944	-130.913785
0.700000	-11.261611	-135.208319	-0.398100	-44.013483	-0.398100	-44.013483	-11.260591	-133.868816
0.750000	-10.821608	-138.235230	-0.438395	-47.001276	-0.438395	-47.001276	-10.820898	-136.800353
0.800000	-10.429404	-141.240407	-0.478350	-49.967661	-0.478350	-49.967661	-10.428984	-139.709150
0.850000	-10.079960	-144.224976	-0.517569	-52.913654	-0.517569	-52.913654	-10.079799	-142.596371
0.900000	-9.769355	-147.190046	-0.555662	-55.840324	-0.555662	-55.840324	-9.769415	-145.463155
0.950000	-9.494508	-150.136823	-0.592238	-58.748882	-0.592238	-58.748882	-9.494750	-148.310721
1.000000	-9.252786	-153.066829	-0.626917	-61.640890	-0.626917	-61.640890	-9.253174	-151.140600
1.050000	-9.042022	-155.981818	-0.659337	-64.518170	-0.659337	-64.518170	-9.042522	-153.954541
1.100000	-8.860452	-158.883768	-0.689151	-67.382799	-0.689151	-67.382799	-8.861033	-156.754501
1.150000	-8.706664	-161.774875	-0.716034	-70.237095	-0.716034	-70.237095	-8.707302	-159.542638
1.200000	-8.579571	-164.657541	-0.739683	-73.083610	-0.739683	-73.083610	-8.580246	-162.321302
1.250000	-8.478383	-167.534366	-0.759823	-75.925121	-0.759823	-75.925121	-8.479080	-165.093022
1.300000	-8.403136	-170.408140	-0.776115	-78.764655	-0.776115	-78.764655	-8.403843	-167.860473
1.350000	-8.353088	-173.281972	-0.788420	-81.605547	-0.788420	-81.605547	-8.353798	-170.626677
1.400000	-8.328312	-176.159015	-0.796551	-84.451231	-0.796551	-84.451231	-8.329021	-173.394654
1.450000	-8.329178	-179.042579	-0.800357	-87.305344	-0.800357	-87.305344	-8.329888	-176.167559
1.500000	-8.356376	178.063872	-0.799724	-90.171732	-0.799724	-90.171732	-8.357089	-178.948664
1.550000	-8.410943	175.156734	-0.794577	-93.054440	-0.794577	-93.054440	-8.411664	178.258654
1.600000	-8.494309	172.232286	-0.784887	-95.957718	-0.784887	-95.957718	-8.495045	175.450947
1.650000	-8.608352	169.286704	-0.770670	-98.886018	-0.770670	-98.886018	-8.609114	172.624724
1.700000	-8.755484	166.316101	-0.752000	-101.843987	-0.752000	-101.843987	-8.756281	169.776509
1.750000	-8.938747	163.316568	-0.729005	-104.836468	-0.729005	-104.836468	-8.939592	166.902901
1.800000	-9.161963	160.284246	-0.701883	-107.868486	-0.701883	-107.868486	-9.162868	164.000684
1.850000	-9.429923	157.215422	-0.670903	-110.945234	-0.670903	-110.945234	-9.430899	161.066969
1.900000	-9.749137	154.106207	-0.636382	-114.072657	-0.636382	-114.072657	-9.750194	158.099019
1.950000	-10.127383	150.953615	-0.598781	-117.256398	-0.598781	-117.256398	-10.128527	155.095348
2.000000	-10.573330	147.756719	-0.558721	-120.500538	-0.558721	-120.500538	-10.574559	152.056796
2.050000	-11.100828	144.513944	-0.516808	-123.811925	-0.516808	-123.811925	-11.102124	148.984785
2.100000	-11.726478	141.227366	-0.473855	-127.195514	-0.473855	-127.195514	-11.727794	145.885373
2.150000	-12.473466	137.902533	-0.430785	-130.656568	-0.430785	-130.656568	-12.474702	142.770240
2.200000	-13.374784	134.551643	-0.388675	-134.200275	-0.388675	-134.200275	-13.375727	139.661446
2.250000	-14.479500	131.199849	-0.348778	-137.831641	-0.348778	-137.831641	-14.479695	136.601227
2.300000	-15.863137	127.898163	-0.312476	-141.553789	-0.312476	-141.553789	-15.861555	133.671163
2.350000	-17.655791	124.756997	-0.281311	-145.369626	-0.281311	-145.369626	-17.649827	131.045321
2.400000	-20.109270	122.054483	-0.256975	-149.280935	-0.256975	-149.280935	-20.090964	129.157132
2.450000	-23.821199	120.716787	-0.241292	-153.288115	-0.241292	-153.288115	-23.756082	129.429017
2.500000	-30.913539	126.502525	-0.236196	-157.389920	-0.236196	-157.389920	-30.466844	140.159132
2.550000	-36.619234	-114.437689	-0.243844	-161.584150	-0.243844	-161.584150	-34.715327	-120.415118
2.600000	-25.520562	-89.129236	-0.266142	-165.864466	-0.266142	-165.864466	-25.290354	-89.449976
2.650000	-20.454398	-89.284487	-0.305060	-170.223320	-0.305060	-170.223320	-20.363420	-87.326283
2.700000	-17.177470	-92.084915	-0.362454	-174.650883	-0.362454	-174.650883	-17.124906	-89.110200
2.750000	-14.752103	-95.720213	-0.439989	-179.135125	-0.439989	-179.135125	-14.715962	-92.141391
2.800000	-12.832444	-99.735186	-0.539062	176.337978	-0.539062	176.337978	-12.805036	-95.735133
2.850000	-11.253036	-103.954169	-0.660910	171.784013	-0.660910	171.784013	-11.230916	-99.629796
2.900000	-9.921944	-108.286031	-0.806080	167.220217	-0.806080	167.220217	-9.903316	-103.693944
2.950000	-8.782314	-112.675735	-0.974743	162.664109	-0.974743	162.664109	-8.766137	-107.851898
3.000000	-7.796322	-117.084625	-1.166692	158.133097	-1.166692	158.133097	-7.781944	-112.053257
3.050000	-6.937235	-121.482883	-1.381300	153.643944	-1.381300	153.643944	-6.924223	-116.260966
3.100000	-6.185176	-125.846472	-1.617554	149.212215	-1.617554	149.212215	-6.173228	-120.446291
3.150000	-5.524907	-130.155353	-1.874170	144.852273	-1.874170	144.852273	-5.513808	-124.586046
3.200000	-4.944024	-134.393352	-2.149498	140.576200	-2.149498	140.576200	-4.933613	-128.661798
3.250000	-4.432057	-138.548210	-2.441678	136.393265	-2.441678	136.393265	-4.422213	-132.659640
3.300000	-3.980325	-142.610354	-2.748819	132.310884	-2.748819	132.310884	-3.970953	-136.568812
3.350000	-3.582119	-146.570366	-3.068970	128.336954	-3.068970	128.336954	-3.573147	-140.379057
3.400000	-3.229614	-150.428226	-3.400185	124.469984	-3.400185	124.469984	-3.220982	-144.089535
3.450000	-2.917787	-154.179698	-3.740674	120.713339	-3.740674	120.713339	-2.909449	-147.695528
3.500000	-2.641710	-157.824203	-4.088715	117.066817	-4.088715	117.066817	-2.633627	-151.196022
3.550000	-2.397056	-161.362622	-4.442721	113.528908	-4.442721	113.528908	-2.389196	-154.591550
3.600000	-2.180027	-164.797005	-4.801250	110.097060	-4.801250	110.097060	-2.172365	-157.883879
3.650000	-1.987289	-168.130310	-5.163013	106.767905	-5.163013	106.767905	-1.979803	-161.075732
3.700000	-1.815916	-171.366167	-5.526874	103.537482	-5.526874	103.537482	-1.808587	-164.170544
3.750000	-1.663342	-174.508678	-5.891848	100.401415	-5.891848	100.401415	-1.656155	-167.172258
3.800000	-1.527594	-177.560427	-6.256745	97.356913	-6.256745	97.356913	-1.520536	-170.083322
3.850000	-1.406370	179.471965	-6.621170	94.397153	-6.621170	94.397153	-1.399428	-172.910239
3.900000	-1.297956	176.583856	-6.984538	91.517344	-6.984538	91.517344	-1.291122	-175.657556
3.950000	-1.200853	173.770627	-7.346368	88.712749	-7.346368	88.712749	-1.194118	-178.329810
4.000000	-1.114203	171.031410	-7.705338	85.982410	-7.705338	85.982410	-1.107559	179.072212
4.050000	-1.035982	168.354927	-8.062832	83.314948	-8.062832	83.314948	-1.029423	176.537269
4.100000	-0.965595	165.740083	-8.417879	80.709217	-8.417879	80.709217	-0.959115	174.064320
4.150000	-0.902163	163.182835	-8.770320	78.161125	-8.770320	78.161125	-0.895758	171.649366
4.200000	-0.844916	160.679338	-9.120051	75.666790	-9.120051	75.666790	-0.838581	169.288593
4.250000	-0.793176	158.225946	-9.467017	73.222541	-9.467017	73.222541	-0.786908	166.978386
4.300000	-0.746349	155.819218	-9.811210	70.824917	-9.811210	70.824917	-0.740144	164.715323
4.350000	-0.703912	153.455910	-10.152656	68.470667	-10.152656	68.470667	-0.697767	162.496180
4.400000	-0.665403	151.132973	-10.491421	66.156738	-10.491421	66.156738	-0.659316	160.317919
4.450000	-0.630415	148.847544	-10.827595	63.880275	-10.827595	63.880275	-0.624384	158.177687
4.500000	-0.598589	146.596937	-11.161300	61.638602	-11.161300	61.638602	-0.592612	156.072802
4.550000	-0.569608	144.378635	-11.492680	59.429221	-11.492680	59.429221	-0.563683	154.000750
4.600000	-0.543189	142.190281	-11.821902	57.249798	-11.821902	57.249798	-0.537315	151.959172
4.650000	-0.519082	140.029667	-12.149153	55.098156	-12.149153	55.098156	-0.513258	149.945855
4.700000	-0.497067	137.894726	-12.474641	52.972260	-12.474641	52.972260	-0.491292	147.958724
4.750000	-0.476945	135.783519	-12.798592	50.870215	-12.798592	50.870215	-0.471218	145.995830
4.800000	-0.458542	133.694233	-13.121249	48.790252	-13.121249	48.790252	-0.452861	144.055346
4.850000	-0.441699	131.625166	-13.442873	46.730722	-13.442873	46.730722	-0.436065	142.135553
4.900000	-0.426278	129.574721	-13.763746	44.690085	-13.763746	44.690085	-0.420689	140.234837
4.950000	-0.412152	127.541400	-14.084165	42.666909	-14.084165	42.666909	-0.406609	138.351679
5.000000	-0.399212	125.523796	-14.404448	40.659855	-14.404448	40.659855	-0.393713	136.484645
5.050000	-0.387423	123.521494	-14.724145	38.668629	-14.724145	38.668629	-0.381968	134.633322
5.100000	-0.376604	121.531994	-15.044614	36.690775	-15.044614	36.690775	-0.371193	132.795147
5.150000	-0.366678	119.554181	-15.366225	34.725267	-15.366225	34.725267	-0.361310	130.968973
5.200000	-0.357578	117.586999	-15.689374	32.771145	-15.689374	32.771145	-0.352252	129.153712
5.250000	-0.349241	115.629445	-16.014484	30.827511	-16.014484	30.827511	-0.343956	127.348328
5.300000	-0.341611	113.680569	-16.342007	28.893528	-16.342007	28.893528	-0.336367	125.551833
5.350000	-0.334682	111.739954	-16.671763	26.968991	-16.671763	26.968991	-0.329477	123.763780
5.400000	-0.328544	109.808131	-17.002068	25.054914	-17.002068	25.054914	-0.323375	121.984674
5.450000	-0.322713	107.879367	-17.340450	23.144735	-17.340450	23.144735	-0.317581	120.208656
5.500000	-0.317533	105.957120	-17.681511	21.242860	-17.681511	21.242860	-0.312435	118.439214
5.550000	-0.312855	104.039068	-18.027837	19.346996	-18.027837	19.346996	-0.307787	116.673929
5.600000	-0.308534	102.124012	-18.382092	17.455426	-18.382092	17.455426	-0.303496	114.911612
5.650000	-0.304875	100.213133	-18.739378	15.571088	-18.739378	15.571088	-0.299861	113.153279
5.700000	-0.301416	98.303312	-19.108281	13.688805	-19.108281	13.688805	-0.296425	111.395924
5.750000	-0.298599	96.395925	-19.481447	11.812530	-19.481447	11.812530	-0.293624	109.640648
5.800000	-0.296040	94.488742	-19.866642	9.938019	-19.866642	9.938019	-0.291078	107.885356
5.850000	-0.293910	92.581899	-20.261470	8.066446	-20.261470	8.066446	-0.288955	106.130041
5.900000	-0.292211	90.673932	-20.667125	6.196001	-20.667125	6.196001	-0.287256	104.373110
5.950000	-0.290756	88.765329	-21.087923	4.326193	-21.087923	4.326193	-0.285797	102.615265
6.000000	-0.289934	86.852794	-21.518374	2.453274	-21.518374	2.453274	-0.284957	100.852625
6.050000	-0.289277	84.938968	-21.968191	0.578579	-21.968191	0.578579	-0.284277	99.088463
6.100000	-0.289230	83.019389	-22.430970	-1.306802	-22.430970	-1.306802	-0.284191	97.317678
6.150000	-0.289707	81.093902	-22.909774	-3.208710	-22.909774	-3.208710	-0.284614	95.540289
6.200000	-0.290817	79.160769	-23.404086	-5.139686	-23.404086	-5.139686	-0.285650	93.754525
6.250000	-0.292747	77.217666	-23.911745	-7.121890	-23.911745	-7.121890	-0.287479	91.958047
6.300000	-0.295824	75.261318	-24.427539	-9.196168	-24.427539	-9.196168	-0.290415	90.147606
6.350000	-0.300904	73.284851	-24.936321	-11.468807	-24.936321	-11.468807	-0.295285	88.316369
6.400000	-0.309428	71.280841	-25.414857	-14.133214	-25.414857	-14.133214	-0.303474	86.457175
6.450000	-0.324761	69.237922	-25.819334	-17.632893	-25.819334	-17.632893	-0.318225	84.559044
6.500000	-0.357467	67.146057	-26.071576	-23.326351	-26.071576	-23.326351	-0.349699	82.612250
6.550000	-0.432150	65.076541	-26.174712	-34.512607	-26.174712	-34.512607	-0.421549	80.685460
6.600000	-0.562743	63.683952	-27.186145	-59.382845	-27.186145	-59.382845	-0.547133	79.407920
6.650000	-0.506326	62.919085	-32.416956	-87.928549	-32.416956	-87.928549	-0.492750	78.732775
6.700000	-0.397986	61.032887	-39.698419	-95.499732	-39.698419	-95.499732	-0.388278	76.975219
6.750000	-0.352493	58.895236	-47.203672	-104.385445	-47.203672	-104.385445	-0.344397	74.972991
6.800000	-0.335611	56.779373	-51.831883	-163.091540	-51.831883	-163.091540	-0.328096	72.989392
6.850000	-0.329766	54.696694	-45.423383	153.812826	-45.423383	153.812826	-0.322425	71.035190
6.900000	-0.329286	52.633846	-40.418601	145.424462	-40.418601	145.424462	-0.321918	69.096951
6.950000	-0.331122	50.577124	-37.007582	141.496931	-37.007582	141.496931	-0.323640	67.161964
7.000000	-0.334800	48.521508	-34.396690	139.118473	-34.396690	139.118473	-0.327136	65.224887
7.050000	-0.339848	46.462103	-32.277419	137.136681	-32.277419	137.136681	-0.331952	63.280814
7.100000	-0.346053	44.395358	-30.487399	135.252106	-30.487399	135.252106	-0.337885	61.326132
7.150000	-0.353331	42.318482	-28.931542	133.371207	-28.931542	133.371207	-0.344859	59.357945
7.200000	-0.361676	40.229096	-27.549448	131.462276	-27.549448	131.462276	-0.352869	57.373742
7.250000	-0.371128	38.125021	-26.300362	129.514473	-26.300362	129.514473	-0.361959	55.371192
7.300000	-0.381764	36.004148	-25.155478	127.524307	-25.155478	127.524307	-0.372207	53.348014
7.350000	-0.393696	33.864337	-24.093663	125.490728	-24.093663	125.490728	-0.383726	51.301875
7.400000	-0.407064	31.703345	-23.098925	123.413224	-23.098925	123.413224	-0.396659	49.230324
7.450000	-0.422043	29.518766	-22.158841	121.291069	-22.158841	121.291069	-0.411181	47.130719
7.500000	-0.438847	27.307969	-21.263534	119.123004	-21.263534	119.123004	-0.427509	45.000171
7.550000	-0.457731	25.068039	-20.404987	116.907097	-20.404987	116.907097	-0.445900	42.835481
7.600000	-0.479007	22.795715	-19.576567	114.640667	-19.576567	114.640667	-0.466669	40.633069
7.650000	-0.503046	20.487323	-18.772690	112.320215	-18.772690	112.320215	-0.490192	38.388899
7.700000	-0.530304	18.138693	-17.988576	109.941349	-17.988576	109.941349	-0.516929	36.098393
7.750000	-0.561330	15.745070	-17.220068	107.498685	-17.220068	107.498685	-0.547437	33.756329
7.800000	-0.596801	13.301009	-16.463501	104.985723	-16.463501	104.985723	-0.582401	31.356719
7.850000	-0.637548	10.800251	-15.715599	102.394675	-15.715599	102.394675	-0.622663	28.892673
7.900000	-0.684790	8.233733	-14.971863	99.713739	-14.971863	99.713739	-0.669460	26.354138
7.950000	-0.740056	5.591344	-14.228643	96.929447	-14.228643	96.929447	-0.724343	23.729896
8.000000	-0.804452	2.868557	-13.487706	94.035583	-13.487706	94.035583	-0.788441	21.014989
8.050000	-0.879675	0.057155	-12.748309	91.020511	-12.748309	91.020511	-0.863481	18.200228
8.100000	-0.969512	-2.864843	-12.002370	87.853016	-12.002370	87.853016	-0.953315	15.260811
8.150000	-1.077645	-5.912867	-11.248503	84.509695	-11.248503	84.509695	-1.061699	12.179098
8.200000	-1.207031	-9.092428	-10.491384	80.979732	-10.491384	80.979732	-1.191668	8.948350
8.250000	-1.363571	-12.422861	-9.728888	77.230908	-9.728888	77.230908	-1.349259	5.545711
8.300000	-1.558298	-15.940648	-8.953610	73.201121	-8.953610	73.201121	-1.545778	1.927596
8.350000	-1.800116	-19.653460	-8.171919	68.863821	-8.171919	68.863821	-1.790425	-1.918369
8.400000	-2.104212	-23.579639	-7.385331	64.165549	-7.385331	64.165549	-2.098916	-6.019647
8.450000	-2.492852	-27.730791	-6.596867	59.039353	-6.596867	59.039353	-2.494436	-10.402007
8.500000	-2.991460	-32.085093	-5.816236	53.440714	-5.816236	53.440714	-3.003800	-15.059937
8.550000	-3.644689	-36.592560	-5.051727	47.284135	-5.051727	47.284135	-3.674578	-19.976493
8.600000	-4.506772	-41.099944	-4.320363	40.527331	-4.320363	40.527331	-4.566342	-25.043086
8.650000	-5.660291	-45.265002	-3.642977	33.127371	-3.642977	33.127371	-5.773679	-29.998986
8.700000	-7.211841	-48.356265	-3.045312	25.103683	-3.045312	25.103683	-7.431481	-34.237051
8.750000	-9.293362	-48.753531	-2.554765	16.528364	-2.554765	16.528364	-9.749836	-36.297847
8.800000	-11.932189	-42.532281	-2.198814	7.544083	-2.198814	7.544083	-12.993288	-31.929965
8.850000	-14.300267	-23.159013	-1.992506	-1.623517	-1.992506	-1.623517	-16.638138	-9.548769
8.900000	-13.986574	4.481243	-1.939406	-10.722943	-1.939406	-10.722943	-16.267691	30.102088
8.950000	-11.543472	20.359817	-2.029004	-19.512266	-2.029004	-19.512266	-12.699777	48.601645
9.000000	-9.187104	24.833177	-2.239994	-27.794252	-2.239994	-27.794252	-9.796566	51.831252
9.050000	-7.380698	24.325307	-2.540993	-35.477069	-2.540993	-35.477069	-7.743234	50.066628
9.100000	-6.035292	21.693241	-2.905969	-42.513958	-2.905969	-42.513958	-6.271358	46.500780
9.150000	-5.027534	18.218094	-3.310828	-48.918475	-3.310828	-48.918475	-5.190624	42.343427
9.200000	-4.263827	14.465623	-3.736415	-54.731349	-3.736415	-54.731349	-4.380838	38.080392
9.250000	-3.676011	10.696232	-4.168596	-60.017634	-4.168596	-60.017634	-3.761741	33.915732
9.300000	-3.216750	7.023658	-4.597859	-64.844544	-4.597859	-64.844544	-3.280016	29.927632
9.350000	-2.853251	3.494316	-5.017908	-69.273334	-5.017908	-69.273334	-2.899658	26.139792
9.400000	-2.562130	0.122014	-5.424796	-73.359205	-5.424796	-73.359205	-2.595416	22.550776
9.450000	-2.327180	-3.092530	-5.815590	-77.145637	-5.815590	-77.145637	-2.349960	19.151220
9.500000	-2.135414	-6.160445	-6.189458	-80.677452	-6.189458	-80.677452	-2.149548	15.922170
9.550000	-1.975400	-9.104542	-6.548660	-84.006551	-6.548660	-84.006551	-1.982183	12.834089
9.600000	-1.844884	-11.915867	-6.887765	-87.127717	-6.887765	-87.127717	-1.845429	9.894747
9.650000	-1.734201	-14.629086	-7.213000	-90.100417	-7.213000	-90.100417	-1.729241	7.063912
9.700000	-1.642537	-17.237709	-7.519993	-92.918778	-7.519993	-92.918778	-1.632730	4.347632
9.750000	-1.564656	-19.764542	-7.813000	-95.618900	-7.813000	-95.618900	-1.550471	1.720187
9.800000	-1.499102	-22.212255	-8.090808	-98.206498	-8.090808	-98.206498	-1.480941	-0.821916
9.850000	-1.443709	-24.590313	-8.354541	-100.696341	-8.354541	-100.696341	-1.421894	-3.289328
9.900000	-1.396577	-26.908276	-8.605744	-103.102808	-8.605744	-103.102808	-1.371361	-5.692636
9.950000	-1.357173	-29.166665	-8.843120	-105.427408	-8.843120	-105.427408	-1.328783	-8.032675
10.000000	-1.323471	-31.379055	-9.070191	-107.689329	-9.070191	-107.689329	-1.292070	-10.324050
