! freq	dB(S11)	phase(S11)	dB(S12)	phase(S12)	
!     	dB(S21)	phase(S21)	dB(S22)	phase(S22)	
!S-par simulation data
#  GHz  S  DB  R 50
0.000000	-0.000000	0.000000	-386.100180	0.000000	-386.100180	0.000000	-0.000000	0.000000
0.050000	-0.000723	-1.165055	-111.584757	89.323643	-111.584757	89.323643	-0.000526	-0.823601
0.100000	-0.002470	-2.325015	-105.620899	88.212788	-105.620899	88.212788	-0.001764	-1.643285
0.150000	-0.004541	-3.479019	-102.176372	87.207655	-102.176372	87.207655	-0.003183	-2.458621
0.200000	-0.006508	-4.628787	-99.789350	86.263876	-99.789350	86.263876	-0.004495	-3.271063
0.250000	-0.008290	-5.776529	-97.987820	85.371542	-97.987820	85.371542	-0.005673	-4.082212
0.300000	-0.009897	-6.923187	-96.572143	84.540277	-96.572143	84.540277	-0.006740	-4.892721
0.350000	-0.011378	-8.069310	-95.434137	83.781575	-95.434137	83.781575	-0.007739	-5.702955
0.400000	-0.012776	-9.215092	-94.511324	83.111634	-94.511324	83.111634	-0.008703	-6.513049
0.450000	-0.014124	-10.360507	-93.772439	82.561468	-93.772439	82.561468	-0.009655	-7.323010
0.500000	-0.015450	-11.505500	-93.181605	82.145938	-93.181605	82.145938	-0.010609	-8.132808
0.550000	-0.016765	-12.649953	-92.721421	81.895568	-92.721421	81.895568	-0.011571	-8.942381
0.600000	-0.018080	-13.793742	-92.380302	81.849176	-92.380302	81.849176	-0.012541	-9.751658
0.650000	-0.019399	-14.936744	-92.150734	82.056773	-92.150734	82.056773	-0.013520	-10.560567
0.700000	-0.020727	-16.078843	-92.028094	82.583580	-92.028094	82.583580	-0.014507	-11.369032
0.750000	-0.022065	-17.219863	-92.015909	83.547873	-92.015909	83.547873	-0.015501	-12.176948
0.800000	-0.023415	-18.359700	-92.110893	85.085591	-92.110893	85.085591	-0.016500	-12.984241
0.850000	-0.024776	-19.498283	-92.305348	87.370308	-92.305348	87.370308	-0.017502	-13.790858
0.900000	-0.026149	-20.635627	-92.583260	90.560806	-92.583260	90.560806	-0.018508	-14.596798
0.950000	-0.027532	-21.771585	-92.928324	94.991235	-92.928324	94.991235	-0.019515	-15.401969
1.000000	-0.028925	-22.906090	-93.295087	101.001852	-93.295087	101.001852	-0.020524	-16.206327
1.050000	-0.030327	-24.039079	-93.599794	108.896052	-93.599794	108.896052	-0.021535	-17.009833
1.100000	-0.031737	-25.170496	-93.712589	118.736297	-93.712589	118.736297	-0.022547	-17.812455
1.150000	-0.033154	-26.300290	-93.483181	130.047886	-93.483181	130.047886	-0.023561	-18.614162
1.200000	-0.034576	-27.428414	-92.817304	141.704061	-92.817304	141.704061	-0.024575	-19.414930
1.250000	-0.036002	-28.554824	-91.747500	152.363760	-91.747500	152.363760	-0.025592	-20.214737
1.300000	-0.037432	-29.679403	-90.392457	161.084333	-90.392457	161.084333	-0.026609	-21.013521
1.350000	-0.038863	-30.802188	-88.920444	167.812925	-88.920444	167.812925	-0.027628	-21.811308
1.400000	-0.040296	-31.923145	-87.432094	172.811999	-87.432094	172.811999	-0.028648	-22.608082
1.450000	-0.041730	-33.042242	-85.982362	176.432458	-85.982362	176.432458	-0.029669	-23.403829
1.500000	-0.043163	-34.159449	-84.596141	178.992305	-84.596141	178.992305	-0.030691	-24.198537
1.550000	-0.044596	-35.274739	-83.281747	-179.255737	-83.281747	-179.255737	-0.031713	-24.992194
1.600000	-0.046027	-36.388085	-82.039260	-178.121067	-82.039260	-178.121067	-0.032736	-25.784786
1.650000	-0.047457	-37.499462	-80.865039	-177.462514	-80.865039	-177.462514	-0.033760	-26.576302
1.700000	-0.048885	-38.608847	-79.754026	-177.175674	-79.754026	-177.175674	-0.034784	-27.366731
1.750000	-0.050311	-39.716217	-78.700854	-177.182816	-78.700854	-177.182816	-0.035809	-28.156061
1.800000	-0.051735	-40.821551	-77.700358	-177.425461	-77.700358	-177.425461	-0.036834	-28.944281
1.850000	-0.053158	-41.924830	-76.747786	-177.859071	-76.747786	-177.859071	-0.037859	-29.731377
1.900000	-0.054579	-43.026035	-75.838859	-178.449301	-75.838859	-178.449301	-0.038885	-30.517339
1.950000	-0.055998	-44.125147	-74.969766	-179.169337	-74.969766	-179.169337	-0.039911	-31.302154
2.000000	-0.057416	-45.222150	-74.137132	-179.997994	-74.137132	-179.997994	-0.040939	-32.085811
2.050000	-0.058833	-46.317028	-73.337967	179.081653	-73.337967	179.081653	-0.041967	-32.868296
2.100000	-0.060250	-47.409766	-72.569625	178.083267	-72.569625	178.083267	-0.042996	-33.649597
2.150000	-0.061667	-48.500351	-71.829760	177.017985	-71.829760	177.017985	-0.044026	-34.429702
2.200000	-0.063085	-49.588768	-71.116281	175.894973	-71.116281	175.894973	-0.045058	-35.208598
2.250000	-0.064503	-50.675006	-70.427327	174.721832	-70.427327	174.721832	-0.046092	-35.986272
2.300000	-0.065923	-51.759054	-69.761229	173.504919	-69.761229	173.504919	-0.047127	-36.762713
2.350000	-0.067346	-52.840901	-69.116489	172.249591	-69.116489	172.249591	-0.048165	-37.537906
2.400000	-0.068772	-53.920538	-68.491758	170.960388	-68.491758	170.960388	-0.049206	-38.311840
2.450000	-0.070201	-54.997957	-67.885816	169.641190	-67.885816	169.641190	-0.050250	-39.084501
2.500000	-0.071634	-56.073151	-67.297557	168.295327	-67.297557	168.295327	-0.051297	-39.855878
2.550000	-0.073072	-57.146016	-66.725070	166.924759	-66.725070	166.924759	-0.052348	-40.625901
2.600000	-0.074517	-58.216643	-66.168440	165.533095	-66.168440	165.533095	-0.053403	-41.394614
2.650000	-0.075967	-59.285028	-65.626818	164.122479	-65.626818	164.122479	-0.054463	-42.162004
2.700000	-0.077425	-60.351169	-65.099424	162.694793	-65.099424	162.694793	-0.055528	-42.928059
2.750000	-0.078891	-61.415063	-64.585544	161.251700	-64.585544	161.251700	-0.056598	-43.692768
2.800000	-0.080365	-62.476709	-64.084516	159.794670	-64.084516	159.794670	-0.057674	-44.456119
2.850000	-0.081849	-63.536108	-63.595734	158.325012	-63.595734	158.325012	-0.058756	-45.218101
2.900000	-0.083342	-64.593260	-63.118632	156.843895	-63.118632	156.843895	-0.059844	-45.978703
2.950000	-0.084847	-65.648168	-62.652689	155.352367	-62.652689	155.352367	-0.060940	-46.737915
3.000000	-0.086362	-66.700836	-62.197418	153.851369	-62.197418	153.851369	-0.062043	-47.495724
3.050000	-0.087890	-67.751267	-61.752366	152.341750	-61.752366	152.341750	-0.063153	-48.252122
3.100000	-0.089431	-68.799468	-61.317113	150.824279	-61.317113	150.824279	-0.064272	-49.007099
3.150000	-0.090985	-69.845446	-60.891262	149.299653	-60.891262	149.299653	-0.065400	-49.760644
3.200000	-0.092554	-70.889208	-60.474443	147.768508	-60.474443	147.768508	-0.066536	-50.512749
3.250000	-0.094138	-71.930765	-60.066311	146.231422	-60.066311	146.231422	-0.067682	-51.263405
3.300000	-0.095737	-72.970125	-59.666539	144.688925	-59.666539	144.688925	-0.068838	-52.012603
3.350000	-0.097353	-74.007300	-59.274819	143.141502	-59.274819	143.141502	-0.070004	-52.760334
3.400000	-0.098985	-75.042304	-58.890865	141.589602	-58.890865	141.589602	-0.071180	-53.506592
3.450000	-0.100636	-76.075150	-58.514401	140.033634	-58.514401	140.033634	-0.072368	-54.251367
3.500000	-0.102304	-77.105853	-58.145171	138.473979	-58.145171	138.473979	-0.073567	-54.994654
3.550000	-0.103992	-78.134429	-57.782930	136.910987	-57.782930	136.910987	-0.074778	-55.736446
3.600000	-0.105699	-79.160895	-57.427448	135.344983	-57.427448	135.344983	-0.076002	-56.476735
3.650000	-0.107427	-80.185271	-57.078505	133.776268	-57.078505	133.776268	-0.077238	-57.215517
3.700000	-0.109175	-81.207575	-56.735892	132.205122	-56.735892	132.205122	-0.078487	-57.952785
3.750000	-0.110945	-82.227829	-56.399411	130.631805	-56.399411	130.631805	-0.079749	-58.688534
3.800000	-0.112738	-83.245967	-56.068588	129.056487	-56.068588	129.056487	-0.081026	-59.422693
3.850000	-0.114554	-84.262102	-55.743551	127.479484	-55.743551	127.479484	-0.082318	-60.155323
3.900000	-0.116394	-85.276258	-55.424128	125.901005	-55.424128	125.901005	-0.083624	-60.886421
3.950000	-0.118257	-86.288461	-55.110154	124.321246	-55.110154	124.321246	-0.084945	-61.615982
4.000000	-0.120145	-87.298738	-54.801470	122.740388	-54.801470	122.740388	-0.086282	-62.344004
4.050000	-0.122058	-88.307116	-54.497927	121.158601	-54.497927	121.158601	-0.087635	-63.070484
4.100000	-0.123997	-89.313625	-54.199380	119.576044	-54.199380	119.576044	-0.089004	-63.795419
4.150000	-0.125963	-90.318295	-53.905692	117.992865	-53.905692	117.992865	-0.090389	-64.518807
4.200000	-0.127955	-91.321157	-53.616729	116.409204	-53.616729	116.409204	-0.091792	-65.240647
4.250000	-0.129975	-92.322243	-53.332366	114.825191	-53.332366	114.825191	-0.093212	-65.960937
4.300000	-0.132022	-93.321586	-53.052480	113.240947	-53.052480	113.240947	-0.094650	-66.679677
4.350000	-0.134099	-94.319223	-52.776956	111.656587	-52.776956	111.656587	-0.096107	-67.396865
4.400000	-0.136204	-95.315187	-52.505680	110.072216	-52.505680	110.072216	-0.097582	-68.112502
4.450000	-0.138340	-96.309517	-52.238545	108.487933	-52.238545	108.487933	-0.099076	-68.826588
4.500000	-0.140505	-97.302249	-51.975447	106.903833	-51.975447	106.903833	-0.100590	-69.539124
4.550000	-0.142702	-98.293423	-51.716287	105.320001	-51.716287	105.320001	-0.102123	-70.250111
4.600000	-0.144929	-99.283079	-51.460968	103.736518	-51.460968	103.736518	-0.103677	-70.959549
4.650000	-0.147189	-100.271258	-51.209398	102.153460	-51.209398	102.153460	-0.105252	-71.667442
4.700000	-0.149481	-101.258002	-50.961488	100.570897	-50.961488	100.570897	-0.106847	-72.373790
4.750000	-0.151806	-102.243355	-50.717152	98.988894	-50.717152	98.988894	-0.108464	-73.078597
4.800000	-0.154164	-103.227360	-50.476308	97.407513	-50.476308	97.407513	-0.110103	-73.781866
4.850000	-0.156556	-104.210063	-50.238876	95.826809	-50.238876	95.826809	-0.111765	-74.483599
4.900000	-0.158983	-105.191510	-50.004778	94.246836	-50.004778	94.246836	-0.113449	-75.183800
4.950000	-0.161444	-106.171749	-49.773941	92.667643	-49.773941	92.667643	-0.115156	-75.882473
5.000000	-0.163942	-107.150829	-49.546292	91.089274	-49.546292	91.089274	-0.116886	-76.579623
5.050000	-0.166476	-108.128752	-49.321648	89.511810	-49.321648	89.511810	-0.118641	-77.275188
5.100000	-0.169047	-109.105620	-49.100064	87.935255	-49.100064	87.935255	-0.120421	-77.969239
5.150000	-0.171656	-110.081485	-48.881477	86.359644	-48.881477	86.359644	-0.122226	-78.661782
5.200000	-0.174301	-111.056400	-48.665823	84.785009	-48.665823	84.785009	-0.124055	-79.352823
5.250000	-0.176985	-112.030417	-48.453043	83.211382	-48.453043	83.211382	-0.125910	-80.042367
5.300000	-0.179707	-113.003593	-48.243077	81.638789	-48.243077	81.638789	-0.127792	-80.730421
5.350000	-0.182468	-113.975983	-48.035870	80.067257	-48.035870	80.067257	-0.129699	-81.416992
5.400000	-0.185269	-114.947643	-47.831367	78.496809	-47.831367	78.496809	-0.131634	-82.102086
5.450000	-0.188109	-115.918631	-47.629515	76.927469	-47.629515	76.927469	-0.133595	-82.785711
5.500000	-0.190990	-116.889007	-47.430263	75.359256	-47.430263	75.359256	-0.135584	-83.467874
5.550000	-0.193911	-117.858831	-47.233564	73.792190	-47.233564	73.792190	-0.137601	-84.148583
5.600000	-0.196874	-118.828162	-47.039368	72.226288	-47.039368	72.226288	-0.139647	-84.827847
5.650000	-0.199879	-119.797064	-46.847631	70.661567	-46.847631	70.661567	-0.141721	-85.505674
5.700000	-0.202926	-120.765599	-46.658308	69.098043	-46.658308	69.098043	-0.143825	-86.182073
5.750000	-0.206016	-121.733831	-46.471356	67.535730	-46.471356	67.535730	-0.145959	-86.857053
5.800000	-0.209149	-122.701826	-46.286733	65.974642	-46.286733	65.974642	-0.148122	-87.530623
5.850000	-0.212325	-123.669648	-46.104401	64.414793	-46.104401	64.414793	-0.150316	-88.202793
5.900000	-0.215546	-124.637367	-45.924320	62.856196	-45.924320	62.856196	-0.152541	-88.873574
5.950000	-0.218811	-125.605048	-45.746452	61.298862	-45.746452	61.298862	-0.154797	-89.542974
6.000000	-0.222121	-126.572763	-45.570763	59.742804	-45.570763	59.742804	-0.157085	-90.211005
6.050000	-0.225476	-127.540581	-45.397216	58.188035	-45.397216	58.188035	-0.159405	-90.877677
6.100000	-0.228877	-128.508573	-45.225778	56.634566	-45.225778	56.634566	-0.161758	-91.543002
6.150000	-0.232325	-129.476813	-45.056417	55.082409	-45.056417	55.082409	-0.164144	-92.206991
6.200000	-0.235819	-130.445372	-44.889100	53.531576	-44.889100	53.531576	-0.166563	-92.869656
6.250000	-0.239360	-131.414327	-44.723798	51.982080	-44.723798	51.982080	-0.169016	-93.531007
6.300000	-0.242950	-132.383777	-44.560434	50.433993	-44.560434	50.433993	-0.171504	-94.191002
6.350000	-0.246589	-133.353781	-44.399030	48.887269	-44.399030	48.887269	-0.174028	-94.849710
6.400000	-0.250276	-134.324417	-44.239558	47.341923	-44.239558	47.341923	-0.176586	-95.507143
6.450000	-0.254012	-135.295765	-44.081992	45.797967	-44.081992	45.797967	-0.179180	-96.163314
6.500000	-0.257797	-136.267906	-43.926305	44.255419	-43.926305	44.255419	-0.181810	-96.818237
6.550000	-0.261631	-137.240919	-43.772472	42.714292	-43.772472	42.714292	-0.184476	-97.471925
6.600000	-0.265516	-138.214889	-43.620468	41.174602	-43.620468	41.174602	-0.187178	-98.124391
6.650000	-0.269451	-139.189898	-43.470270	39.636367	-43.470270	39.636367	-0.189918	-98.775649
6.700000	-0.273436	-140.166032	-43.321855	38.099605	-43.321855	38.099605	-0.192696	-99.425713
6.750000	-0.277473	-141.143377	-43.175201	36.564333	-43.175201	36.564333	-0.195511	-100.074598
6.800000	-0.281561	-142.122019	-43.030285	35.030572	-43.030285	35.030572	-0.198364	-100.722318
6.850000	-0.285701	-143.102048	-42.887087	33.498341	-42.887087	33.498341	-0.201257	-101.368888
6.900000	-0.289893	-144.083553	-42.745587	31.967663	-42.745587	31.967663	-0.204188	-102.014323
6.950000	-0.294138	-145.066625	-42.605763	30.438558	-42.605763	30.438558	-0.207159	-102.658637
7.000000	-0.298436	-146.051356	-42.467598	28.911051	-42.467598	28.911051	-0.210169	-103.301848
7.050000	-0.302787	-147.037839	-42.331071	27.385164	-42.331071	27.385164	-0.213220	-103.943969
7.100000	-0.307191	-148.026169	-42.196165	25.860925	-42.196165	25.860925	-0.216312	-104.585017
7.150000	-0.311650	-149.016442	-42.062862	24.338357	-42.062862	24.338357	-0.219444	-105.225008
7.200000	-0.316162	-150.008756	-41.931144	22.817488	-41.931144	22.817488	-0.222618	-105.863959
7.250000	-0.320729	-151.003208	-41.800993	21.298347	-41.800993	21.298347	-0.225834	-106.501885
7.300000	-0.325351	-151.999899	-41.672394	19.780962	-41.672394	19.780962	-0.229092	-107.138804
7.350000	-0.330029	-152.998929	-41.545330	18.265362	-41.545330	18.265362	-0.232392	-107.774733
7.400000	-0.334761	-154.000402	-41.419784	16.751578	-41.419784	16.751578	-0.235735	-108.409688
7.450000	-0.339549	-155.004420	-41.295742	15.239641	-41.295742	15.239641	-0.239122	-109.043687
7.500000	-0.344394	-156.011090	-41.173187	13.729584	-41.173187	13.729584	-0.242552	-109.676748
7.550000	-0.349296	-157.020642	-41.052095	12.221524	-41.052095	12.221524	-0.246027	-110.308849
7.600000	-0.354256	-158.033070	-40.932462	10.715414	-40.932462	10.715414	-0.249547	-110.940049
7.650000	-0.359271	-159.048483	-40.814274	9.211287	-40.814274	9.211287	-0.253112	-111.570366
7.700000	-0.364344	-160.066992	-40.697516	7.709178	-40.697516	7.709178	-0.256722	-112.199819
7.750000	-0.369474	-161.088709	-40.582174	6.209124	-40.582174	6.209124	-0.260376	-112.828427
7.800000	-0.374662	-162.113748	-40.468233	4.711161	-40.468233	4.711161	-0.264077	-113.456208
7.850000	-0.379906	-163.142225	-40.355679	3.215324	-40.355679	3.215324	-0.267823	-114.083181
7.900000	-0.385209	-164.174255	-40.244498	1.721651	-40.244498	1.721651	-0.271616	-114.709366
7.950000	-0.390569	-165.209958	-40.134677	0.230179	-40.134677	0.230179	-0.275455	-115.334782
8.000000	-0.395987	-166.249452	-40.026202	-1.259055	-40.026202	-1.259055	-0.279341	-115.959449
8.050000	-0.401463	-167.292858	-39.919059	-2.746013	-39.919059	-2.746013	-0.283274	-116.583387
8.100000	-0.406997	-168.340299	-39.813234	-4.230656	-39.813234	-4.230656	-0.287255	-117.206616
8.150000	-0.412590	-169.391899	-39.708714	-5.712948	-39.708714	-5.712948	-0.291283	-117.829157
8.200000	-0.418241	-170.447782	-39.605487	-7.192850	-39.605487	-7.192850	-0.295359	-118.451029
8.250000	-0.423950	-171.508076	-39.503538	-8.670325	-39.503538	-8.670325	-0.299483	-119.072254
8.300000	-0.429717	-172.572909	-39.402854	-10.145335	-39.402854	-10.145335	-0.303656	-119.692853
8.350000	-0.435543	-173.642410	-39.303423	-11.617842	-39.303423	-11.617842	-0.307878	-120.312846
8.400000	-0.441427	-174.716710	-39.205230	-13.087810	-39.205230	-13.087810	-0.312148	-120.932257
8.450000	-0.447369	-175.795942	-39.108264	-14.555202	-39.108264	-14.555202	-0.316468	-121.551105
8.500000	-0.453369	-176.880239	-39.012511	-16.019982	-39.012511	-16.019982	-0.320838	-122.169414
8.550000	-0.459428	-177.969737	-38.917958	-17.482114	-38.917958	-17.482114	-0.325257	-122.787204
8.600000	-0.465544	-179.064572	-38.824592	-18.941563	-38.824592	-18.941563	-0.329725	-123.404500
8.650000	-0.471718	179.835118	-38.732401	-20.398294	-38.732401	-20.398294	-0.334244	-124.021322
8.700000	-0.477950	178.729194	-38.641370	-21.852274	-38.641370	-21.852274	-0.338813	-124.637695
8.750000	-0.484239	177.617516	-38.551489	-23.303469	-38.551489	-23.303469	-0.343433	-125.253641
8.800000	-0.490588	176.499678	-38.462752	-24.751725	-38.462752	-24.751725	-0.348105	-125.869167
8.850000	-0.496993	175.375789	-38.375140	-26.197129	-38.375140	-26.197129	-0.352828	-126.484316
8.900000	-0.503454	174.245703	-38.288639	-27.639654	-38.288639	-27.639654	-0.357602	-127.099110
8.950000	-0.509972	173.109276	-38.203236	-29.079269	-38.203236	-29.079269	-0.362427	-127.713575
9.000000	-0.516545	171.966361	-38.118918	-30.515946	-38.118918	-30.515946	-0.367303	-128.327734
9.050000	-0.523173	170.816811	-38.035673	-31.949660	-38.035673	-31.949660	-0.372230	-128.941613
9.100000	-0.529856	169.660479	-37.953488	-33.380383	-37.953488	-33.380383	-0.377209	-129.555235
9.150000	-0.536594	168.497215	-37.872350	-34.808093	-37.872350	-34.808093	-0.382239	-130.168628
9.200000	-0.543384	167.326869	-37.792247	-36.232765	-37.792247	-36.232765	-0.387321	-130.781814
9.250000	-0.550228	166.149291	-37.713167	-37.654378	-37.713167	-37.654378	-0.392454	-131.394822
9.300000	-0.557124	164.964330	-37.635097	-39.072911	-37.635097	-39.072911	-0.397639	-132.007675
9.350000	-0.564071	163.771835	-37.558024	-40.488346	-37.558024	-40.488346	-0.402876	-132.620402
9.400000	-0.571069	162.571654	-37.481937	-41.900664	-37.481937	-41.900664	-0.408164	-133.233028
9.450000	-0.578116	161.363635	-37.406822	-43.309850	-37.406822	-43.309850	-0.413505	-133.845580
9.500000	-0.585213	160.147626	-37.332669	-44.715890	-37.332669	-44.715890	-0.418896	-134.458085
9.550000	-0.592357	158.923474	-37.259465	-46.118768	-37.259465	-46.118768	-0.424340	-135.070571
9.600000	-0.599549	157.691028	-37.187197	-47.518475	-37.187197	-47.518475	-0.429835	-135.683066
9.650000	-0.606786	156.450136	-37.115856	-48.914999	-37.115856	-48.914999	-0.435382	-136.295598
9.700000	-0.614067	155.200647	-37.045428	-50.308333	-37.045428	-50.308333	-0.440980	-136.908194
9.750000	-0.621392	153.942410	-36.975902	-51.698468	-36.975902	-51.698468	-0.446629	-137.520884
9.800000	-0.628759	152.675275	-36.907266	-53.085400	-36.907266	-53.085400	-0.452330	-138.133698
9.850000	-0.636166	151.399094	-36.839511	-54.469123	-36.839511	-54.469123	-0.458082	-138.746663
9.900000	-0.643613	150.113720	-36.772623	-55.849636	-36.772623	-55.849636	-0.463885	-139.359811
9.950000	-0.651097	148.819006	-36.706593	-57.226937	-36.706593	-57.226937	-0.469739	-139.973171
10.000000	-0.658618	147.514808	-36.641410	-58.601027	-36.641410	-58.601027	-0.475644	-140.586774
