! freq	dB(S11)	phase(S11)	dB(S12)	phase(S12)	
!     	dB(S21)	phase(S21)	dB(S22)	phase(S22)	
!S-par simulation data
#  GHz  S  DB  R 50
0.000000	-83.904353	0.000000	-0.000554	0.000000	-0.000554	0.000000	-83.904353	0.000000
0.050000	-46.681160	-92.104441	-0.003738	-2.549723	-0.003738	-2.549723	-46.661616	-91.517931
0.100000	-40.663561	-95.393278	-0.010372	-5.071560	-0.010372	-5.071560	-40.644348	-94.218635
0.150000	-37.146575	-98.405142	-0.016766	-7.569645	-0.016766	-7.569645	-37.127817	-96.644811
0.200000	-34.655775	-101.335382	-0.021911	-10.056599	-0.021911	-10.056599	-34.637508	-98.991788
0.250000	-32.729504	-104.224503	-0.026063	-12.539955	-0.026063	-12.539955	-32.711695	-101.300119
0.300000	-31.162327	-107.087623	-0.029643	-15.022731	-0.029643	-15.022731	-31.144904	-103.584892
0.350000	-29.844685	-109.932783	-0.032960	-17.505879	-0.032960	-17.505879	-29.827564	-105.854118
0.400000	-28.711128	-112.765081	-0.036208	-19.989568	-0.036208	-19.989568	-28.694234	-108.112915
0.450000	-27.719540	-115.587854	-0.039507	-22.473710	-0.039507	-22.473710	-27.702821	-110.364745
0.500000	-26.841358	-118.403360	-0.042932	-24.958132	-0.042932	-24.958132	-26.824785	-112.612115
0.550000	-26.054416	-121.213763	-0.046502	-27.442654	-0.046502	-27.442654	-26.037986	-114.857057
0.600000	-25.344445	-124.019591	-0.050252	-29.927135	-0.050252	-29.927135	-25.328183	-117.100575
0.650000	-24.699890	-126.821453	-0.054191	-32.411442	-0.054191	-32.411442	-24.683846	-119.343595
0.700000	-24.111433	-129.619788	-0.058318	-34.895468	-0.058318	-34.895468	-24.095678	-121.586808
0.750000	-23.571859	-132.414753	-0.062627	-37.379130	-0.062627	-37.379130	-23.556484	-123.830710
0.800000	-23.075343	-135.206370	-0.067108	-39.862364	-0.067108	-39.862364	-23.060458	-126.075694
0.850000	-22.617166	-137.994542	-0.071751	-42.345124	-0.071751	-42.345124	-22.602896	-128.322096
0.900000	-22.193420	-140.779098	-0.076540	-44.827382	-0.076540	-44.827382	-22.179905	-130.570223
0.950000	-21.800658	-143.559860	-0.081458	-47.309135	-0.081458	-47.309135	-21.788046	-132.820341
1.000000	-21.436056	-146.336572	-0.086487	-49.790393	-0.086487	-49.790393	-21.424502	-135.072736
1.050000	-21.097194	-149.108941	-0.091609	-52.271183	-0.091609	-52.271183	-21.086858	-137.327715
1.100000	-20.781983	-151.876637	-0.096806	-54.751547	-0.096806	-54.751547	-20.773029	-139.585612
1.150000	-20.488605	-154.639300	-0.102058	-57.231544	-0.102058	-57.231544	-20.481197	-141.846798
1.200000	-20.215465	-157.396534	-0.107347	-59.711245	-0.107347	-59.711245	-20.209764	-144.111693
1.250000	-19.961154	-160.147912	-0.112656	-62.190737	-0.112656	-62.190737	-19.957319	-146.380769
1.300000	-19.725130	-162.892506	-0.117964	-64.670120	-0.117964	-64.670120	-19.723330	-148.654917
1.350000	-19.504597	-165.630886	-0.123260	-67.149508	-0.123260	-67.149508	-19.504955	-150.933906
1.400000	-19.300160	-168.361419	-0.128523	-69.629032	-0.128523	-69.629032	-19.302828	-153.219267
1.450000	-19.109917	-171.084252	-0.133743	-72.108805	-0.133743	-72.108805	-19.115014	-155.511131
1.500000	-18.933433	-173.798434	-0.138907	-74.588981	-0.138907	-74.588981	-18.941079	-157.810592
1.550000	-18.770129	-176.503102	-0.144001	-77.069715	-0.144001	-77.069715	-18.780437	-160.118708
1.600000	-18.618580	-179.198268	-0.149022	-79.551112	-0.149022	-79.551112	-18.631638	-162.435767
1.650000	-18.479389	178.118296	-0.153951	-82.033436	-0.153951	-82.033436	-18.495296	-164.764217
1.700000	-18.350538	175.445725	-0.158794	-84.516708	-0.158794	-84.516708	-18.369360	-167.103529
1.750000	-18.232387	172.786132	-0.163539	-87.001192	-0.163539	-87.001192	-18.254196	-169.456143
1.800000	-18.124145	170.140184	-0.168183	-89.487024	-0.168183	-89.487024	-18.148999	-171.823083
1.850000	-18.025307	167.508965	-0.172726	-91.974369	-0.172726	-91.974369	-18.053257	-174.205815
1.900000	-17.935476	164.893824	-0.177165	-94.463412	-0.177165	-94.463412	-17.966567	-176.606112
1.950000	-17.854178	162.296053	-0.181502	-96.954323	-0.181502	-96.954323	-17.888449	-179.025703
2.000000	-17.780877	159.716820	-0.185740	-99.447247	-0.185740	-99.447247	-17.818361	178.533816
2.050000	-17.715133	157.157560	-0.189883	-101.942343	-0.189883	-101.942343	-17.755860	176.070558
2.100000	-17.656515	154.619796	-0.193936	-104.439769	-0.193936	-104.439769	-17.700512	173.582531
2.150000	-17.604593	152.105151	-0.197903	-106.939681	-0.197903	-106.939681	-17.651885	171.067638
2.200000	-17.558937	149.615341	-0.201792	-109.442229	-0.201792	-109.442229	-17.609548	168.523679
2.250000	-17.519113	147.152177	-0.205610	-111.947564	-0.205610	-111.947564	-17.573067	165.948357
2.300000	-17.484682	144.717562	-0.209366	-114.455831	-0.209366	-114.455831	-17.542001	163.339283
2.350000	-17.455193	142.313486	-0.213067	-116.967172	-0.213067	-116.967172	-17.515898	160.693980
2.400000	-17.430180	139.942021	-0.216725	-119.481728	-0.216725	-119.481728	-17.494292	158.009895
2.450000	-17.409163	137.605310	-0.220348	-121.999636	-0.220348	-121.999636	-17.476697	155.284411
2.500000	-17.391636	135.305555	-0.223949	-124.521032	-0.223949	-124.521032	-17.462605	152.514862
2.550000	-17.377124	133.045907	-0.227537	-127.046129	-0.227537	-127.046129	-17.451534	149.697473
2.600000	-17.364992	130.827830	-0.231126	-129.574983	-0.231126	-129.574983	-17.442839	146.830502
2.650000	-17.354649	128.653585	-0.234728	-132.107723	-0.234728	-132.107723	-17.435917	143.911274
2.700000	-17.345471	126.525398	-0.238356	-134.644479	-0.238356	-134.644479	-17.430129	140.937178
2.750000	-17.336794	124.445417	-0.242022	-137.185377	-0.242022	-137.185377	-17.424791	137.905704
2.800000	-17.327914	122.415675	-0.245742	-139.730546	-0.245742	-139.730546	-17.419176	134.814494
2.850000	-17.318088	120.438038	-0.249529	-142.280112	-0.249529	-142.280112	-17.412514	131.661391
2.900000	-17.306528	118.514149	-0.253399	-144.834202	-0.253399	-144.834202	-17.403983	128.444505
2.950000	-17.292405	116.645366	-0.257368	-147.392945	-0.257368	-147.392945	-17.392722	125.162279
3.000000	-17.274850	114.832697	-0.261452	-149.956469	-0.261452	-149.956469	-17.377822	121.813558
3.050000	-17.252960	113.076728	-0.265668	-152.524903	-0.265668	-152.524903	-17.358338	118.397663
3.100000	-17.225799	111.377550	-0.270036	-155.098377	-0.270036	-155.098377	-17.333293	114.914472
3.150000	-17.192332	109.735291	-0.274577	-157.677078	-0.274577	-157.677078	-17.301602	111.363777
3.200000	-17.151555	108.148779	-0.279311	-160.261144	-0.279311	-160.261144	-17.262221	107.746849
3.250000	-17.102570	106.615551	-0.284260	-162.850650	-0.284260	-162.850650	-17.214215	104.066430
3.300000	-17.044428	105.133008	-0.289447	-165.445727	-0.289447	-165.445727	-17.156605	100.325335
3.350000	-16.976216	103.697779	-0.294896	-168.046508	-0.294896	-168.046508	-17.088451	96.527204
3.400000	-16.897076	102.305713	-0.300634	-170.653124	-0.300634	-170.653124	-17.008882	92.676497
3.450000	-16.806228	100.951893	-0.306690	-173.265705	-0.306690	-173.265705	-16.917111	88.778462
3.500000	-16.702984	99.630684	-0.313092	-175.884378	-0.313092	-175.884378	-16.812461	84.839079
3.550000	-16.586775	98.335802	-0.319874	-178.509270	-0.319874	-178.509270	-16.694383	80.864958
3.600000	-16.457162	97.060423	-0.327070	178.859500	-0.327070	178.859500	-16.562474	76.863231
3.650000	-16.313855	95.797298	-0.334715	176.221813	-0.334715	176.221813	-16.416491	72.841398
3.700000	-16.156719	94.538910	-0.342848	173.577559	-0.342848	173.577559	-16.256358	68.807173
3.750000	-15.985783	93.277624	-0.351510	170.926636	-0.351510	170.926636	-16.082172	64.768304
3.800000	-15.800857	92.005458	-0.360758	168.268798	-0.360758	168.268798	-15.893811	60.732642
3.850000	-15.602666	90.715125	-0.370626	165.604107	-0.370626	165.604107	-15.692085	56.707575
3.900000	-15.391714	89.399658	-0.381162	162.932492	-0.381162	162.932492	-15.477578	52.699926
3.950000	-15.168638	88.052598	-0.392417	160.253894	-0.392417	160.253894	-15.251001	48.715934
4.000000	-14.934192	86.668105	-0.404444	157.568271	-0.404444	157.568271	-15.013179	44.761157
4.050000	-14.689224	85.241038	-0.417299	154.875597	-0.417299	154.875597	-14.765023	40.840412
4.100000	-14.434655	83.767003	-0.431040	152.175866	-0.431040	152.175866	-14.507509	36.957738
4.150000	-14.171460	82.242385	-0.445726	149.469094	-0.445726	149.469094	-14.241657	33.116395
4.200000	-13.900646	80.664342	-0.461421	146.755320	-0.461421	146.755320	-13.968510	29.318884
4.250000	-13.623237	79.030785	-0.478188	144.034606	-0.478188	144.034606	-13.689116	25.566981
4.300000	-13.340250	77.340342	-0.496093	141.307045	-0.496093	141.307045	-13.404510	21.861804
4.350000	-13.052687	75.592301	-0.515204	138.572756	-0.515204	138.572756	-13.115703	18.203872
4.400000	-12.761386	73.785925	-0.535603	135.831821	-0.535603	135.831821	-12.823536	14.593693
4.450000	-12.467307	71.921669	-0.557361	133.084432	-0.557361	133.084432	-12.528963	11.030791
4.500000	-12.171485	70.001074	-0.580535	130.330881	-0.580535	130.330881	-12.233007	7.513816
4.550000	-11.874762	68.025449	-0.605194	127.571425	-0.605194	127.571425	-11.936492	4.041642
4.600000	-11.577924	65.996425	-0.631409	124.806356	-0.631409	124.806356	-11.640188	0.612919
4.650000	-11.281706	63.915907	-0.659248	122.036008	-0.659248	122.036008	-11.344807	-2.773864
4.700000	-10.986785	61.786011	-0.688778	119.260750	-0.688778	119.260750	-11.051004	-6.120325
4.750000	-10.693785	59.609022	-0.720064	116.480991	-0.720064	116.480991	-10.759379	-9.428145
4.800000	-10.403278	57.387347	-0.753171	113.697179	-0.753171	113.697179	-10.470481	-12.699028
4.850000	-10.115784	55.123482	-0.788157	110.909802	-0.788157	110.909802	-10.184805	-15.934666
4.900000	-9.831775	52.819981	-0.825079	108.119384	-0.825079	108.119384	-9.902799	-19.136710
4.950000	-9.551677	50.479425	-0.863991	105.326486	-0.863991	105.326486	-9.624867	-22.306756
5.000000	-9.275873	48.104407	-0.904939	102.531707	-0.904939	102.531707	-9.351369	-25.446320
5.050000	-9.004632	45.696872	-0.948009	99.735663	-0.948009	99.735663	-9.082557	-28.556231
5.100000	-8.738355	43.260123	-0.993196	96.939060	-0.993196	96.939060	-8.818806	-31.638477
5.150000	-8.477308	40.796673	-1.040530	94.142590	-1.040530	94.142590	-8.560364	-34.694281
5.200000	-8.221723	38.308986	-1.090034	91.346967	-1.090034	91.346967	-8.307443	-37.724760
5.250000	-7.971799	35.799468	-1.141726	88.552929	-1.141726	88.552929	-8.060227	-40.730928
5.300000	-7.727707	33.270463	-1.195614	85.761231	-1.195614	85.761231	-7.818871	-43.713697
5.350000	-7.489590	30.724243	-1.251699	82.972639	-1.251699	82.972639	-7.583504	-46.673878
5.400000	-7.257564	28.163006	-1.309973	80.187931	-1.309973	80.187931	-7.354229	-49.612189
5.450000	-7.031721	25.588874	-1.370422	77.407885	-1.370422	77.407885	-7.131127	-52.529260
5.500000	-6.812132	23.003887	-1.433022	74.633280	-1.433022	74.633280	-6.914258	-55.425638
5.550000	-6.598844	20.409999	-1.497739	71.864892	-1.497739	71.864892	-6.703661	-58.301795
5.600000	-6.391886	17.809081	-1.564535	69.103481	-1.564535	69.103481	-6.499355	-61.158134
5.650000	-6.191290	15.202874	-1.633374	66.349887	-1.633374	66.349887	-6.301366	-63.994791
5.700000	-5.997055	12.593123	-1.704197	63.604861	-1.704197	63.604861	-6.109687	-66.812064
5.750000	-5.809141	9.981476	-1.776921	60.869019	-1.776921	60.869019	-5.924271	-69.610408
5.800000	-5.627508	7.369432	-1.851475	58.143031	-1.851475	58.143031	-5.745072	-72.390026
5.850000	-5.452103	4.758393	-1.927777	55.427532	-1.927777	55.427532	-5.572032	-75.151096
5.900000	-5.282860	2.149668	-2.005741	52.723120	-2.005741	52.723120	-5.405083	-77.893769
5.950000	-5.119702	-0.455531	-2.085275	50.030352	-2.085275	50.030352	-5.244142	-80.618180
6.000000	-4.962543	-3.056089	-2.166280	47.349738	-2.166280	47.349738	-5.089120	-83.324455
6.050000	-4.811286	-5.650986	-2.248652	44.681744	-2.248652	44.681744	-4.939915	-86.012715
6.100000	-4.665827	-8.239301	-2.332283	42.026782	-2.332283	42.026782	-4.796420	-88.683080
6.150000	-4.526054	-10.820207	-2.417063	39.385214	-2.417063	39.385214	-4.658519	-91.335678
6.200000	-4.391850	-13.392974	-2.502875	36.757348	-2.502875	36.757348	-4.526091	-93.970642
6.250000	-4.263091	-15.956965	-2.589602	34.143437	-2.589602	34.143437	-4.399008	-96.588124
6.300000	-4.139727	-18.511426	-2.677121	31.543989	-2.677121	31.543989	-4.277213	-99.187914
6.350000	-4.021550	-21.056105	-2.765309	28.958836	-2.765309	28.958836	-4.160494	-101.770579
6.400000	-3.908427	-23.590650	-2.854045	26.388059	-2.854045	26.388059	-4.048713	-104.336326
6.450000	-3.800220	-26.114802	-2.943208	23.831678	-2.943208	23.831678	-3.941726	-106.885384
6.500000	-3.696792	-28.628386	-3.032679	21.289662	-3.032679	21.289662	-3.839391	-109.418005
6.550000	-3.598005	-31.131318	-3.122337	18.761921	-3.122337	18.761921	-3.741563	-111.934470
6.600000	-3.503720	-33.623596	-3.212065	16.248310	-3.212065	16.248310	-3.648096	-114.435081
6.650000	-3.413800	-36.105305	-3.301749	13.748633	-3.301749	13.748633	-3.558845	-116.920167
6.700000	-3.328109	-38.576609	-3.391276	11.262637	-3.391276	11.262637	-3.473667	-119.390082
6.750000	-3.246510	-41.037756	-3.480535	8.790020	-3.480535	8.790020	-3.392418	-121.845204
6.800000	-3.168873	-43.489071	-3.569423	6.330430	-3.569423	6.330430	-3.314957	-124.285935
6.850000	-3.095064	-45.930958	-3.657837	3.883464	-3.657837	3.883464	-3.241144	-126.712700
6.900000	-3.024990	-48.363810	-3.745663	1.448800	-3.745663	1.448800	-3.170873	-129.125803
6.950000	-2.958523	-50.788205	-3.832807	-0.974077	-3.832807	-0.974077	-3.104005	-131.525727
7.000000	-2.895506	-53.204884	-3.919196	-3.385844	-3.919196	-3.385844	-3.040376	-133.913106
7.050000	-2.835821	-55.614562	-4.004751	-5.787092	-4.004751	-5.787092	-2.979857	-136.288442
7.100000	-2.779353	-58.018035	-4.089395	-8.178452	-4.089395	-8.178452	-2.922320	-138.652255
7.150000	-2.725990	-60.416174	-4.173059	-10.560599	-4.173059	-10.560599	-2.867643	-141.005077
7.200000	-2.675625	-62.809930	-4.255679	-12.934251	-4.255679	-12.934251	-2.815704	-143.347455
7.250000	-2.628152	-65.200334	-4.337200	-15.300166	-4.337200	-15.300166	-2.766385	-145.679944
7.300000	-2.583472	-67.588502	-4.417572	-17.659144	-4.417572	-17.659144	-2.719573	-148.003109
7.350000	-2.541489	-69.975633	-4.496752	-20.012027	-4.496752	-20.012027	-2.675154	-150.317525
7.400000	-2.502111	-72.363018	-4.574708	-22.359699	-4.574708	-22.359699	-2.633020	-152.623769
7.450000	-2.465249	-74.752042	-4.651412	-24.703084	-4.651412	-24.703084	-2.593064	-154.922428
7.500000	-2.430818	-77.144186	-4.726848	-27.043154	-4.726848	-27.043154	-2.555182	-157.214089
7.550000	-2.398786	-79.541184	-4.800966	-29.380898	-4.800966	-29.380898	-2.519310	-159.499218
7.600000	-2.369025	-81.944678	-4.873810	-31.717453	-4.873810	-31.717453	-2.485306	-161.778561
7.650000	-2.341464	-84.356500	-4.945395	-34.053934	-4.945395	-34.053934	-2.453071	-164.052711
7.700000	-2.316033	-86.778615	-5.015743	-36.391507	-5.015743	-36.391507	-2.422508	-166.322261
7.750000	-2.292666	-89.213132	-5.084891	-38.731394	-5.084891	-38.731394	-2.393520	-168.587805
7.800000	-2.271303	-91.662314	-5.152889	-41.074877	-5.152889	-41.074877	-2.366012	-170.849936
7.850000	-2.251884	-94.128598	-5.219802	-43.423300	-5.219802	-43.423300	-2.339886	-173.109245
7.900000	-2.234356	-96.614610	-5.285711	-45.778079	-5.285711	-45.778079	-2.315047	-175.366323
7.950000	-2.218666	-99.123182	-5.350713	-48.140703	-5.350713	-48.140703	-2.291396	-177.621763
8.000000	-2.204768	-101.657380	-5.414927	-50.512744	-5.414927	-50.512744	-2.268833	-179.876156
8.050000	-2.192616	-104.220524	-5.478494	-52.895865	-5.478494	-52.895865	-2.247256	177.869902
8.100000	-2.182170	-106.816224	-5.541582	-55.291827	-5.541582	-55.291827	-2.226560	175.615814
8.150000	-2.173410	-109.448854	-5.604378	-57.702682	-5.604378	-57.702682	-2.206641	173.360959
8.200000	-2.166301	-112.122862	-5.667122	-60.130493	-5.667122	-60.130493	-2.187382	171.104698
8.250000	-2.160795	-114.842579	-5.730091	-62.577236	-5.730091	-62.577236	-2.168653	168.846410
8.300000	-2.156865	-117.613191	-5.793600	-65.045191	-5.793600	-65.045191	-2.150325	166.585443
8.350000	-2.154467	-120.439499	-5.858003	-67.536425	-5.858003	-67.536425	-2.132261	164.321177
8.400000	-2.153608	-123.328647	-5.923730	-70.053917	-5.923730	-70.053917	-2.114319	162.052848
8.450000	-2.154315	-126.289633	-5.991332	-72.601333	-5.991332	-72.601333	-2.096333	159.779546
8.500000	-2.156514	-129.327117	-6.061336	-75.180430	-6.061336	-75.180430	-2.078136	157.500657
8.550000	-2.160206	-132.449350	-6.134407	-77.794346	-6.134407	-77.794346	-2.059547	155.215313
8.600000	-2.165481	-135.671226	-6.211547	-80.448746	-6.211547	-80.448746	-2.040326	152.922082
8.650000	-2.172278	-138.998716	-6.293567	-83.145469	-6.293567	-83.145469	-2.020279	150.620192
8.700000	-2.180623	-142.443143	-6.381570	-85.888300	-6.381570	-85.888300	-1.999171	148.308398
8.750000	-2.190622	-146.023046	-6.477178	-88.683492	-6.477178	-88.683492	-1.976683	145.984729
8.800000	-2.202314	-149.751794	-6.581977	-91.534827	-6.581977	-91.534827	-1.952536	143.647524
8.850000	-2.215756	-153.643495	-6.697793	-94.445898	-6.697793	-94.445898	-1.926452	141.294909
8.900000	-2.231112	-157.721360	-6.827291	-97.422880	-6.827291	-97.422880	-1.898042	138.923914
8.950000	-2.248586	-162.011486	-6.973779	-100.471768	-6.973779	-100.471768	-1.866887	136.530913
9.000000	-2.268331	-166.531531	-7.140440	-103.594375	-7.140440	-103.594375	-1.832709	134.112781
9.050000	-2.290678	-171.313350	-7.332130	-106.795223	-7.332130	-106.795223	-1.795083	131.664371
9.100000	-2.316043	-176.391129	-7.554808	-110.076513	-7.554808	-110.076513	-1.753624	129.179568
9.150000	-2.344943	178.199497	-7.815742	-113.436510	-7.815742	-113.436510	-1.708037	126.651252
9.200000	-2.378113	172.413255	-8.124760	-116.869032	-8.124760	-116.869032	-1.658069	124.070005
9.250000	-2.416418	166.207959	-8.493601	-120.357096	-8.493601	-120.357096	-1.603745	121.425681
9.300000	-2.461037	159.531786	-8.938141	-123.869116	-8.938141	-123.869116	-1.545310	118.705469
9.350000	-2.513423	152.332039	-9.478751	-127.346746	-9.478751	-127.346746	-1.483460	115.895091
9.400000	-2.575432	144.550869	-10.142660	-130.684995	-10.142660	-130.684995	-1.419469	112.978159
9.450000	-2.649262	136.133165	-10.965243	-133.695398	-10.965243	-133.695398	-1.355436	109.937902
9.500000	-2.737367	127.032209	-11.991296	-136.039235	-11.991296	-136.039235	-1.294433	106.759094
9.550000	-2.842390	117.211345	-13.273618	-137.085801	-13.273618	-137.085801	-1.240622	103.429569
9.600000	-2.966879	106.652783	-14.852235	-135.621027	-14.852235	-135.621027	-1.199280	99.943526
9.650000	-3.112774	95.369652	-16.654032	-129.371030	-16.654032	-129.371030	-1.176545	96.305779
9.700000	-3.280636	83.420718	-18.171459	-115.427154	-18.171459	-115.427154	-1.178576	92.536030
9.750000	-3.469296	70.908065	-18.256307	-95.517993	-18.256307	-95.517993	-1.210829	88.668169
9.800000	-3.675548	57.977512	-16.638707	-79.621732	-16.638707	-79.621732	-1.277299	84.748799
9.850000	-3.894070	44.818238	-14.478627	-72.167331	-14.478627	-72.167331	-1.379038	80.832775
9.900000	-4.118455	31.638318	-12.495604	-70.625503	-12.495604	-70.625503	-1.514493	76.974508
9.950000	-4.342316	18.646391	-10.844782	-72.318274	-10.844782	-72.318274	-1.679362	73.220368
10.000000	-4.549663	6.370678	-9.553313	-75.749945	-9.553313	-75.749945	-1.858721	69.570282
