! freq	dB(S11)	phase(S11)	dB(S12)	phase(S12)	
!     	dB(S21)	phase(S21)	dB(S22)	phase(S22)	
!S-par simulation data
#  GHz  S  DB  R 50
0.000000	-82.175690	0.000000	-0.000676	0.000000	-0.000676	0.000000	-82.175690	0.000000
0.050000	-34.684632	-91.912778	-0.015107	-3.467754	-0.015107	-3.467754	-34.682963	-91.773903
0.100000	-28.739511	-95.659278	-0.027470	-6.900002	-0.027470	-6.900002	-28.737616	-95.381383
0.150000	-25.306708	-99.205298	-0.041602	-10.321664	-0.041602	-10.321664	-25.304468	-98.788834
0.200000	-22.899897	-102.750238	-0.058738	-13.732784	-0.058738	-13.732784	-22.897164	-102.194171
0.250000	-21.061806	-106.289624	-0.078824	-17.130913	-0.078824	-17.130913	-21.058512	-105.592557
0.300000	-19.587630	-109.809586	-0.101248	-20.515847	-0.101248	-20.515847	-19.583777	-108.970293
0.350000	-18.367851	-113.305072	-0.125454	-23.888124	-0.125454	-23.888124	-18.363461	-112.322452
0.400000	-17.338439	-116.774354	-0.151048	-27.247799	-0.151048	-27.247799	-17.333534	-115.647271
0.450000	-16.461952	-120.215360	-0.177714	-30.593773	-0.177714	-30.593773	-16.456542	-118.942423
0.500000	-15.706787	-123.631121	-0.205007	-33.926962	-0.205007	-33.926962	-15.700882	-122.210812
0.550000	-15.052505	-127.023065	-0.232593	-37.247492	-0.232593	-37.247492	-15.046112	-125.453631
0.600000	-14.485313	-130.392075	-0.260135	-40.555265	-0.260135	-40.555265	-14.478430	-128.671427
0.650000	-13.996251	-133.738774	-0.287239	-43.850150	-0.287239	-43.850150	-13.988867	-131.864343
0.700000	-13.573781	-137.066336	-0.313591	-47.133761	-0.313591	-47.133761	-13.565885	-135.035331
0.750000	-13.211390	-140.376413	-0.338875	-50.407092	-0.338875	-50.407092	-13.202960	-138.185643
0.800000	-12.906271	-143.670055	-0.362690	-53.671055	-0.362690	-53.671055	-12.897275	-141.315656
0.850000	-12.653763	-146.949728	-0.384735	-56.927695	-0.384735	-56.927695	-12.644160	-144.427315
0.900000	-12.450489	-150.217732	-0.404745	-60.179198	-0.404745	-60.179198	-12.440226	-147.522322
0.950000	-12.294781	-153.476213	-0.422446	-63.427958	-0.422446	-63.427958	-12.283789	-150.602026
1.000000	-12.185508	-156.727463	-0.437602	-66.676723	-0.437602	-66.676723	-12.173703	-153.667797
1.050000	-12.122295	-159.973791	-0.450018	-69.928540	-0.450018	-69.928540	-12.109569	-156.720838
1.100000	-12.105513	-163.217475	-0.459539	-73.186734	-0.459539	-73.186734	-12.091728	-159.762073
1.150000	-12.136319	-166.460675	-0.466059	-76.454893	-0.466059	-76.454893	-12.121301	-162.791996
1.200000	-12.216728	-169.705326	-0.469524	-79.736841	-0.469524	-79.736841	-12.200255	-165.810455
1.250000	-12.349741	-172.952984	-0.469940	-83.036619	-0.469940	-83.036619	-12.331524	-168.816355
1.300000	-12.540769	-176.204687	-0.467313	-86.359035	-0.467313	-86.359035	-12.520415	-171.806798
1.350000	-12.794360	-179.460299	-0.461855	-89.708096	-0.461855	-89.708096	-12.771348	-174.777393
1.400000	-13.118041	177.281730	-0.453790	-93.088312	-0.453790	-93.088312	-13.091655	-177.720408
1.450000	-13.521808	174.025237	-0.443425	-96.504257	-0.443425	-96.504257	-13.491033	179.376523
1.500000	-14.019047	170.777644	-0.431157	-99.960524	-0.431157	-99.960524	-13.982404	176.532923
1.550000	-14.627978	167.552172	-0.417483	-103.461654	-0.417483	-103.461654	-14.583222	173.779761
1.600000	-15.374010	164.371810	-0.403003	-107.012060	-0.403003	-107.012060	-15.317583	171.167118
1.650000	-16.293823	161.276984	-0.388427	-110.615934	-0.388427	-110.615934	-16.219735	168.778821
1.700000	-17.442874	158.341665	-0.374575	-114.277139	-0.374575	-114.277139	-17.340267	166.762675
1.750000	-18.910516	155.711312	-0.362388	-117.999087	-0.362388	-117.999087	-18.757632	165.399509
1.800000	-20.852767	153.693569	-0.352881	-121.784060	-0.352881	-121.784060	-20.599913	165.258176
1.850000	-23.589045	153.164725	-0.347304	-125.635570	-0.347304	-125.635570	-23.093287	167.844544
1.900000	-27.888324	157.379072	-0.346915	-129.554264	-0.346915	-129.554264	-26.581812	177.715025
1.950000	-35.434499	-168.907007	-0.353089	-133.540200	-0.353089	-133.540200	-30.433216	-149.810340
2.000000	-31.775054	-84.981496	-0.367209	-137.591808	-0.367209	-137.591808	-28.736503	-100.476700
2.050000	-25.105334	-70.008547	-0.390723	-141.706495	-0.390723	-141.706495	-24.184730	-79.845500
2.100000	-21.040807	-68.677483	-0.425370	-145.881487	-0.425370	-145.881487	-20.622248	-74.157521
2.150000	-18.162244	-70.288517	-0.472068	-150.108560	-0.472068	-150.108560	-17.922858	-73.243201
2.200000	-15.932951	-73.080933	-0.532328	-154.381590	-0.532328	-154.381590	-15.775467	-74.438047
2.250000	-14.117309	-76.448637	-0.607322	-158.691815	-0.607322	-158.691815	-14.003830	-76.695620
2.300000	-12.591430	-80.139986	-0.698037	-163.029106	-0.698037	-163.029106	-12.504279	-79.559245
2.350000	-11.282414	-84.027542	-0.805231	-167.382188	-0.805231	-167.382188	-11.212262	-82.795919
2.400000	-10.143723	-88.036416	-0.929401	-171.738932	-0.929401	-171.738932	-10.085185	-86.271458
2.450000	-9.143712	-92.117112	-1.070753	-176.086698	-1.070753	-176.086698	-9.093463	-89.900660
2.500000	-8.259719	-96.233805	-1.229196	179.587282	-1.229196	179.587282	-8.215593	-93.624974
2.550000	-7.475279	-100.358500	-1.404602	175.296541	-1.404602	175.296541	-7.435795	-97.401984
2.600000	-6.776800	-104.468482	-1.595962	171.052433	-1.595962	171.052433	-6.740922	-101.197475
2.650000	-6.153586	-108.545725	-1.802334	166.865800	-1.802334	166.865800	-6.120564	-104.986102
2.700000	-5.596782	-112.575383	-2.022570	162.746249	-2.022570	162.746249	-5.566055	-108.747637
2.750000	-5.098881	-116.545349	-2.255355	158.701975	-2.255355	158.701975	-5.070023	-112.465933
2.800000	-4.653402	-120.445962	-2.499256	154.739658	-2.499256	154.739658	-4.626082	-116.128233
2.850000	-4.254672	-124.269762	-2.752769	150.864444	-2.752769	150.864444	-4.228629	-119.724671
2.900000	-3.897678	-128.011280	-3.014359	147.079973	-3.014359	147.079973	-3.872703	-123.247871
2.950000	-3.577963	-131.666818	-3.282499	143.388478	-3.282499	143.388478	-3.553886	-126.692608
3.000000	-3.291546	-135.234237	-3.555699	139.790904	-3.555699	139.790904	-3.268230	-130.055504
3.050000	-3.034871	-138.712741	-3.832531	136.287062	-3.832531	136.287062	-3.012199	-133.334746
3.100000	-2.804755	-142.102675	-4.111646	132.875787	-4.111646	132.875787	-2.782632	-136.529831
3.150000	-2.600713	-145.393294	-4.390482	129.567509	-4.390482	129.567509	-2.579051	-139.629739
3.200000	-2.415444	-148.610217	-4.670222	126.335206	-4.670222	126.335206	-2.394181	-142.658573
3.250000	-2.249064	-151.744704	-4.948760	123.187539	-4.948760	123.187539	-2.228141	-145.607560
3.300000	-2.099560	-154.799864	-5.225127	120.120954	-5.225127	120.120954	-2.078927	-148.479363
3.350000	-1.964814	-157.781204	-5.498802	117.129523	-5.498802	117.129523	-1.944430	-151.279066
3.400000	-1.844073	-160.687242	-5.768108	114.214451	-5.768108	114.214451	-1.823897	-154.004946
3.450000	-1.735241	-163.526067	-6.033031	111.367269	-6.033031	111.367269	-1.715239	-156.664702
3.500000	-1.637112	-166.301460	-6.292926	108.583914	-6.292926	108.583914	-1.617255	-159.261854
3.550000	-1.548619	-169.017246	-6.547200	105.860296	-6.547200	105.860296	-1.528881	-161.799989
3.600000	-1.469612	-171.671526	-6.793796	103.198019	-6.793796	103.198019	-1.449966	-164.277006
3.650000	-1.398382	-174.274311	-7.033574	100.586806	-7.033574	100.586806	-1.378806	-166.702654
3.700000	-1.335151	-176.822548	-7.263786	98.029267	-7.263786	98.029267	-1.315621	-169.073625
3.750000	-1.277210	-179.335123	-7.488816	95.506639	-7.488816	95.506639	-1.257707	-171.408745
3.800000	-1.225779	178.196679	-7.703606	93.026802	-7.703606	93.026802	-1.206281	-173.698902
3.850000	-1.177893	175.752088	-7.915003	90.569726	-7.915003	90.569726	-1.158386	-175.965142
3.900000	-1.137813	173.359051	-8.108533	88.160917	-8.108533	88.160917	-1.118261	-178.178465
3.950000	-1.099937	170.978706	-8.299764	85.763577	-8.299764	85.763577	-1.080327	179.621412
4.000000	-1.068269	168.634693	-8.474165	83.398373	-8.474165	83.398373	-1.048564	177.459363
4.050000	-1.039756	166.304855	-8.640493	81.044110	-8.640493	81.044110	-1.019929	175.312765
4.100000	-1.015126	163.992737	-8.795245	78.703526	-8.795245	78.703526	-0.995143	173.185480
4.150000	-0.995238	161.693616	-8.933150	76.368539	-8.933150	76.368539	-0.975041	171.073874
4.200000	-0.977315	159.399847	-9.065069	74.035858	-9.065069	74.035858	-0.956881	168.968724
4.250000	-0.965986	157.108808	-9.169649	71.691045	-9.169649	71.691045	-0.945200	166.871162
4.300000	-0.956614	154.814038	-9.266685	69.336657	-9.266685	69.336657	-0.935432	164.771588
4.350000	-0.952927	152.506948	-9.338785	66.952413	-9.338785	66.952413	-0.931214	162.664804
4.400000	-0.952460	150.186419	-9.396977	64.542457	-9.396977	64.542457	-0.930120	160.547828
4.450000	-0.958401	147.834860	-9.427064	62.075227	-9.427064	62.075227	-0.935225	158.406490
4.500000	-0.970711	145.444709	-9.430264	59.539723	-9.430264	59.539723	-0.946458	156.233513
4.550000	-0.991019	143.000667	-9.401562	56.909727	-9.401562	56.909727	-0.965350	154.015526
4.600000	-1.022394	140.477976	-9.332446	54.140807	-9.332446	54.140807	-0.994787	151.731139
4.650000	-1.067489	137.857729	-9.218837	51.195938	-9.218837	51.195938	-1.037229	149.364019
4.700000	-1.131543	135.108146	-9.051823	48.010281	-9.051823	48.010281	-1.097556	146.887272
4.750000	-1.221048	132.197619	-8.824326	44.512289	-8.824326	44.512289	-1.181777	144.274709
4.800000	-1.354980	129.039520	-8.510973	40.500068	-8.510973	40.500068	-1.307461	141.455608
4.850000	-1.557745	125.565626	-8.097915	35.761046	-8.097915	35.761046	-1.496899	138.378870
4.900000	-1.872744	121.706946	-7.572690	29.971979	-7.572690	29.971979	-1.789237	135.002410
4.950000	-2.410567	117.393992	-6.909929	22.388136	-6.909929	22.388136	-2.282692	131.318971
5.000000	-3.393115	113.046525	-6.139206	11.891788	-6.139206	11.891788	-3.164929	127.827827
5.050000	-5.255492	111.587289	-5.433165	-3.265510	-5.433165	-3.265510	-4.755795	127.324147
5.100000	-7.684840	125.294303	-5.315211	-24.363536	-5.315211	-24.363536	-6.596446	139.284069
5.150000	-6.267905	149.487713	-6.545654	-48.616838	-6.545654	-48.616838	-5.440958	158.379889
5.200000	-3.492468	151.283611	-9.152307	-69.231810	-9.152307	-69.231810	-3.134206	160.308364
5.250000	-2.035077	145.340502	-12.412556	-83.323365	-12.412556	-83.323365	-1.852613	155.308028
5.300000	-1.343313	139.238036	-15.848210	-92.020145	-15.848210	-92.020145	-1.232916	149.934563
5.350000	-0.997205	134.050124	-19.307987	-96.750190	-19.307987	-96.750190	-0.921862	145.289452
5.400000	-0.810357	129.646653	-22.795470	-98.218950	-22.795470	-98.218950	-0.754632	141.311602
5.450000	-0.701820	125.780911	-26.379578	-96.466548	-26.379578	-96.466548	-0.658423	137.798256
5.500000	-0.636750	122.283399	-30.035701	-90.866049	-30.035701	-90.866049	-0.601731	134.603006
5.550000	-0.597425	119.031790	-33.600350	-80.776057	-33.600350	-80.776057	-0.568523	131.617626
5.600000	-0.574905	115.942469	-36.702997	-67.174679	-36.702997	-67.174679	-0.550754	128.766448
5.650000	-0.563540	112.944483	-39.404605	-54.729372	-39.404605	-54.729372	-0.543376	125.984962
5.700000	-0.561259	109.991868	-42.521848	-49.961669	-42.521848	-49.961669	-0.544640	123.229426
5.750000	-0.567305	107.039801	-47.743810	-71.814546	-47.743810	-71.814546	-0.554060	120.455928
5.800000	-0.581763	104.045654	-45.547001	-152.273433	-45.547001	-152.273433	-0.571965	117.622372
5.850000	-0.606150	100.966486	-37.392852	-177.223603	-37.392852	-177.223603	-0.600117	114.684699
5.900000	-0.643617	97.753305	-31.815987	175.495963	-31.815987	175.495963	-0.641969	111.591320
5.950000	-0.698492	94.358513	-27.548455	170.924325	-27.548455	170.924325	-0.702206	108.291696
6.000000	-0.781935	90.688903	-23.890461	166.619282	-23.890461	166.619282	-0.792754	104.683541
6.050000	-0.910014	86.653089	-20.612679	161.787065	-20.612679	161.787065	-0.930795	100.665525
6.100000	-1.113214	82.126334	-17.561331	155.970235	-17.561331	155.970235	-1.148972	96.095535
6.150000	-1.444936	76.987615	-14.666926	148.730708	-14.666926	148.730708	-1.504815	90.826780
6.200000	-2.023305	71.151417	-11.862769	139.366015	-11.862769	139.366015	-2.126972	84.722803
6.250000	-3.057035	65.062205	-9.223315	127.137578	-9.223315	127.137578	-3.250280	78.166034
6.300000	-4.873218	61.027530	-6.930512	111.453419	-6.930512	111.453419	-5.278733	73.501897
6.350000	-7.444229	66.430703	-5.285510	92.838578	-5.285510	92.838578	-8.348911	79.442503
6.400000	-8.505580	86.627400	-4.492743	73.670681	-4.492743	73.670681	-9.650907	104.891211
6.450000	-6.846590	100.461198	-4.411786	56.713070	-4.411786	56.713070	-7.456106	121.207321
6.500000	-5.107291	102.193471	-4.706773	43.077130	-4.706773	43.077130	-5.409637	122.570565
6.550000	-3.976770	99.501942	-5.111959	32.351929	-5.111959	32.351929	-4.150350	119.364474
6.600000	-3.287499	95.669391	-5.494722	23.796033	-5.494722	23.796033	-3.401345	115.185285
6.650000	-2.862673	91.687154	-5.804900	16.696006	-5.804900	16.696006	-2.945277	110.984920
6.700000	-2.599656	87.795919	-6.031191	10.551322	-6.031191	10.551322	-2.664672	106.955155
6.750000	-2.451008	84.040180	-6.166771	5.072039	-6.166771	5.072039	-2.506424	103.110972
6.800000	-2.375251	80.378955	-6.227758	-0.039689	-6.227758	-0.039689	-2.425524	99.385086
6.850000	-2.365127	76.781104	-6.210510	-4.919948	-6.210510	-4.919948	-2.413890	95.732598
6.900000	-2.410427	73.201988	-6.124365	-9.718074	-6.124365	-9.718074	-2.460600	92.095367
6.950000	-2.511243	69.603199	-5.973628	-14.554132	-5.973628	-14.554132	-2.565785	88.422531
7.000000	-2.677273	65.950153	-5.758373	-19.548089	-5.758373	-19.548089	-2.739903	84.664504
7.050000	-2.913593	62.228466	-5.490148	-24.790714	-5.490148	-24.790714	-2.988813	80.795007
7.100000	-3.249998	58.428359	-5.166762	-30.440322	-5.166762	-30.440322	-3.345201	76.776923
7.150000	-3.719830	54.599294	-4.798494	-36.642196	-4.798494	-36.642196	-3.847044	72.627859
7.200000	-4.374254	50.895539	-4.400295	-43.557294	-4.400295	-43.557294	-4.554804	68.456290
7.250000	-5.290295	47.718380	-3.995888	-51.370061	-3.995888	-51.370061	-5.566069	64.598449
7.300000	-6.565413	46.039713	-3.623528	-60.253554	-3.623528	-60.253554	-7.026917	61.977369
7.350000	-8.255446	47.865766	-3.335062	-70.273159	-3.335062	-70.273159	-9.105770	62.816926
7.400000	-10.049696	57.642809	-3.209082	-81.448744	-3.209082	-81.448744	-11.674269	73.602882
7.450000	-10.577053	76.357810	-3.315123	-93.437183	-3.315123	-93.437183	-12.711727	99.676339
7.500000	-9.014299	92.015165	-3.700132	-105.687864	-3.700132	-105.687864	-10.447447	121.043475
7.550000	-6.860123	97.156529	-4.366550	-117.532774	-4.366550	-117.532774	-7.653749	126.460030
7.600000	-5.106896	95.963861	-5.260927	-128.445676	-5.260927	-128.445676	-5.581125	124.445942
7.650000	-3.845174	92.136422	-6.313470	-138.159630	-6.313470	-138.159630	-4.157370	119.875952
7.700000	-2.970521	87.456929	-7.454131	-146.603174	-7.454131	-146.603174	-3.193390	114.662444
7.750000	-2.354046	82.696322	-8.638462	-153.960096	-8.638462	-153.960096	-2.522205	109.526064
7.800000	-1.921614	78.133888	-9.827438	-160.333307	-9.827438	-160.333307	-2.054591	104.708833
7.850000	-1.608840	73.844798	-11.010949	-165.934165	-11.010949	-165.934165	-1.717557	100.246361
7.900000	-1.378330	69.826490	-12.184732	-170.911167	-12.184732	-170.911167	-1.469567	96.113058
7.950000	-1.210594	66.081658	-13.327065	-175.326961	-13.327065	-175.326961	-1.289116	92.299924
8.000000	-1.082205	62.543339	-14.461609	-179.341817	-14.461609	-179.341817	-1.150885	88.723285
8.050000	-0.988103	59.216853	-15.556619	177.046766	-15.556619	177.046766	-1.049331	85.385420
8.100000	-0.911499	56.009410	-16.675044	173.663845	-16.675044	173.663845	-0.966493	82.180149
8.150000	-0.851879	52.926883	-17.796293	170.524809	-17.796293	170.524809	-0.901785	79.112996
8.200000	-0.807798	49.968644	-18.894573	167.643508	-18.894573	167.643508	-0.853641	76.181564
8.250000	-0.773355	47.090524	-20.006585	164.947753	-20.006585	164.947753	-0.815764	73.336396
8.300000	-0.746467	44.275213	-21.145016	162.416349	-21.145016	162.416349	-0.785930	70.558044
8.350000	-0.725905	41.511323	-22.317884	160.041778	-22.317884	160.041778	-0.762824	67.833604
8.400000	-0.710686	38.788546	-23.535233	157.820354	-23.535233	157.820354	-0.745393	65.151422
8.450000	-0.700695	36.100830	-24.788999	155.782185	-24.788999	155.782185	-0.733507	62.503945
8.500000	-0.694922	33.433867	-26.100410	153.936181	-26.100410	153.936181	-0.726087	59.875258
8.550000	-0.692496	30.776804	-27.502664	152.285082	-27.502664	152.285082	-0.722208	57.253673
8.600000	-0.693185	28.122816	-29.019753	150.861512	-29.019753	150.861512	-0.721620	54.631516
8.650000	-0.696823	25.465241	-30.684770	149.709977	-30.684770	149.709977	-0.724145	52.001298
8.700000	-0.703574	22.795543	-32.527595	148.935016	-32.527595	148.935016	-0.729956	49.353039
8.750000	-0.713750	20.100865	-34.583907	148.766838	-34.583907	148.766838	-0.739381	46.671839
8.800000	-0.726868	17.376367	-36.983085	149.372929	-36.983085	149.372929	-0.751915	43.953118
8.850000	-0.743097	14.614417	-39.891636	151.194774	-39.891636	151.194774	-0.767741	41.188311
8.900000	-0.762669	11.806842	-43.643526	155.218690	-43.643526	155.218690	-0.787111	38.368256
8.950000	-0.785951	8.943765	-49.086189	163.238175	-49.086189	163.238175	-0.810420	35.481819
9.000000	-0.814743	5.991015	-57.201092	-145.349263	-57.201092	-145.349263	-0.839602	32.489596
9.050000	-0.848734	2.951079	-54.792739	-73.381768	-54.792739	-73.381768	-0.874344	29.395606
9.100000	-0.888865	-0.191449	-49.291487	-26.183840	-49.291487	-26.183840	-0.915669	26.182632
9.150000	-0.936331	-3.454298	-45.131826	-9.119679	-45.131826	-9.119679	-0.964878	22.830873
9.200000	-0.992625	-6.857708	-41.706749	5.150455	-41.706749	5.150455	-1.023595	19.317734
9.250000	-1.063318	-10.478609	-38.055982	16.152436	-38.055982	16.152436	-1.097855	15.556275
9.300000	-1.148657	-14.300547	-34.554473	23.971093	-34.554473	23.971093	-1.187956	11.566324
9.350000	-1.257282	-18.417166	-31.052399	28.080873	-31.052399	28.080873	-1.303257	7.242376
9.400000	-1.397214	-22.881301	-27.687703	29.280751	-27.687703	29.280751	-1.452453	2.525538
9.450000	-1.582473	-27.777546	-24.465641	28.068882	-24.465641	28.068882	-1.650716	-2.679445
9.500000	-1.835630	-33.209572	-21.371704	24.737410	-21.371704	24.737410	-1.922452	-8.490742
9.550000	-2.193855	-39.292971	-18.392010	19.371676	-18.392010	19.371676	-2.307904	-15.044077
9.600000	-2.715278	-46.109918	-15.540931	11.925324	-15.540931	11.925324	-2.870388	-22.447259
9.650000	-3.508313	-53.662440	-12.819325	2.125768	-12.819325	2.125768	-3.729270	-30.746634
9.700000	-4.725688	-61.514213	-10.321805	-10.139454	-10.321805	-10.139454	-5.059125	-39.548643
9.750000	-6.561858	-68.275977	-8.169284	-24.723718	-8.169284	-24.723718	-7.104796	-47.456140
9.800000	-9.113261	-70.683518	-6.484644	-40.896409	-6.484644	-40.896409	-10.071843	-50.771778
9.850000	-11.887392	-63.559553	-5.313332	-57.407644	-5.313332	-57.407644	-13.517894	-41.985760
9.900000	-13.319803	-47.430949	-4.579233	-73.060128	-4.579233	-73.060128	-15.067997	-19.942505
9.950000	-13.049581	-34.541212	-4.131354	-87.309258	-4.131354	-87.309258	-14.182997	-4.703812
10.000000	-12.430182	-29.313381	-3.842467	-100.148056	-3.842467	-100.148056	-13.164636	-0.787151
