! freq	dB(S11)	phase(S11)	dB(S12)	phase(S12)	
!     	dB(S21)	phase(S21)	dB(S22)	phase(S22)	
!S-par simulation data
#  GHz  S  DB  R 50
0.000000	-0.000000	0.000000	-375.090162	180.000000	-375.090162	180.000000	-0.000000	0.000000
0.050000	-0.001633	-2.548293	-104.122846	88.516961	-104.122846	88.516961	-0.000497	-0.774432
0.100000	-0.005579	-5.083806	-98.147945	86.828935	-98.147945	86.828935	-0.001660	-1.545030
0.150000	-0.010200	-7.603841	-94.701073	85.206484	-94.701073	85.206484	-0.002967	-2.311495
0.200000	-0.014583	-10.112080	-92.305333	83.622756	-92.305333	83.622756	-0.004170	-3.075396
0.250000	-0.018486	-12.611695	-90.501621	82.081769	-90.501621	82.081769	-0.005232	-3.837994
0.300000	-0.021969	-15.104418	-89.085940	80.593249	-89.085940	80.593249	-0.006193	-4.600035
0.350000	-0.025170	-17.590838	-87.946609	79.167012	-87.946609	79.167012	-0.007102	-5.361854
0.400000	-0.028188	-20.070502	-87.020151	77.817182	-87.020151	77.817182	-0.007990	-6.123558
0.450000	-0.031087	-22.542247	-86.270263	76.565279	-86.270263	76.565279	-0.008879	-6.885162
0.500000	-0.033918	-25.005497	-85.665518	75.427164	-85.665518	75.427164	-0.009779	-7.646644
0.550000	-0.036705	-27.459278	-85.187856	74.427116	-85.187856	74.427116	-0.010693	-8.407961
0.600000	-0.039460	-29.902086	-84.829502	73.604820	-84.829502	73.604820	-0.011621	-9.169043
0.650000	-0.042191	-32.333317	-84.578756	72.994802	-84.578756	72.994802	-0.012560	-9.929830
0.700000	-0.044902	-34.752204	-84.429255	72.644789	-84.429255	72.644789	-0.013507	-10.690259
0.750000	-0.047591	-37.157487	-84.380643	72.631159	-84.380643	72.631159	-0.014458	-11.450246
0.800000	-0.050256	-39.548379	-84.430398	73.044695	-84.430398	73.044695	-0.015411	-12.209717
0.850000	-0.052896	-41.924306	-84.574975	74.000658	-84.574975	74.000658	-0.016363	-12.968613
0.900000	-0.055507	-44.284630	-84.809824	75.656348	-84.809824	75.656348	-0.017313	-13.726875
0.950000	-0.058087	-46.628669	-85.125624	78.223530	-85.125624	78.223530	-0.018262	-14.484448
1.000000	-0.060632	-48.955855	-85.501242	81.968379	-85.501242	81.968379	-0.019208	-15.241288
1.050000	-0.063138	-51.265675	-85.894387	87.196374	-85.894387	87.196374	-0.020154	-15.997357
1.100000	-0.065603	-53.557669	-86.229200	94.176932	-86.229200	94.176932	-0.021100	-16.752626
1.150000	-0.068025	-55.831428	-86.390104	102.965089	-86.390104	102.965089	-0.022046	-17.507071
1.200000	-0.070401	-58.086592	-86.243360	113.148538	-86.243360	113.148538	-0.022993	-18.260673
1.250000	-0.072729	-60.322848	-85.699993	123.752736	-85.699993	123.752736	-0.023942	-19.013417
1.300000	-0.075007	-62.539506	-84.768073	133.552880	-84.768073	133.552880	-0.024893	-19.765271
1.350000	-0.077234	-64.736755	-83.569557	141.748741	-83.569557	141.748741	-0.025845	-20.516244
1.400000	-0.079411	-66.914412	-82.235298	148.125927	-82.235298	148.125927	-0.026800	-21.266326
1.450000	-0.081536	-69.072334	-80.864389	152.846853	-80.864389	152.846853	-0.027757	-22.015508
1.500000	-0.083609	-71.210416	-79.515891	156.208895	-79.515891	156.208895	-0.028715	-22.763784
1.550000	-0.085632	-73.328585	-78.219359	158.507616	-78.219359	158.507616	-0.029675	-23.511144
1.600000	-0.087605	-75.426802	-76.986777	159.988572	-76.986777	159.988572	-0.030637	-24.257580
1.650000	-0.089530	-77.505059	-75.820785	160.841688	-75.820785	160.841688	-0.031599	-25.003085
1.700000	-0.091406	-79.563377	-74.719465	161.209871	-74.719465	161.209871	-0.032563	-25.747649
1.750000	-0.093236	-81.601805	-73.678898	161.199917	-73.678898	161.199917	-0.033528	-26.491264
1.800000	-0.095022	-83.620415	-72.694475	160.891906	-72.694475	160.891906	-0.034493	-27.233921
1.850000	-0.096766	-85.619306	-71.761539	160.346388	-71.761539	160.346388	-0.035459	-27.975609
1.900000	-0.098469	-87.598385	-70.875211	159.607960	-70.875211	159.607960	-0.036425	-28.716309
1.950000	-0.100133	-89.557800	-70.031589	158.713313	-70.031589	158.713313	-0.037393	-29.456009
2.000000	-0.101762	-91.497923	-69.227498	157.692045	-69.227498	157.692045	-0.038361	-30.194710
2.050000	-0.103357	-93.418932	-68.459639	156.565966	-68.459639	156.565966	-0.039329	-30.932401
2.100000	-0.104921	-95.321023	-67.725073	155.352529	-67.725073	155.352529	-0.040299	-31.669072
2.150000	-0.106457	-97.204405	-67.021185	154.065833	-67.021185	154.065833	-0.041270	-32.404710
2.200000	-0.107966	-99.069299	-66.345645	152.717373	-66.345645	152.717373	-0.042242	-33.139305
2.250000	-0.109451	-100.915940	-65.696375	151.316593	-65.696375	151.316593	-0.043216	-33.872845
2.300000	-0.110915	-102.744575	-65.071512	149.871317	-65.071512	149.871317	-0.044192	-34.605319
2.350000	-0.112360	-104.555459	-64.469387	148.388068	-64.469387	148.388068	-0.045170	-35.336715
2.400000	-0.113788	-106.348856	-63.888496	146.872320	-63.888496	146.872320	-0.046150	-36.067022
2.450000	-0.115201	-108.125040	-63.327483	145.328700	-63.327483	145.328700	-0.047133	-36.796227
2.500000	-0.116602	-109.884289	-62.785120	143.761135	-62.785120	143.761135	-0.048119	-37.524320
2.550000	-0.117993	-111.626354	-62.259827	142.172389	-62.259827	142.172389	-0.049108	-38.251252
2.600000	-0.119375	-113.352081	-61.751115	140.566095	-61.751115	140.566095	-0.050102	-38.977048
2.650000	-0.120751	-115.061765	-61.258049	138.944696	-61.258049	138.944696	-0.051099	-39.701696
2.700000	-0.122123	-116.755705	-60.779772	137.310306	-60.779772	137.310306	-0.052102	-40.425185
2.750000	-0.123492	-118.434204	-60.315500	135.664763	-60.315500	135.664763	-0.053109	-41.147504
2.800000	-0.124860	-120.097565	-59.864510	134.009673	-59.864510	134.009673	-0.054121	-41.868641
2.850000	-0.126229	-121.746095	-59.426138	132.346438	-59.426138	132.346438	-0.055139	-42.588587
2.900000	-0.127600	-123.380101	-58.999768	130.676291	-58.999768	130.676291	-0.056163	-43.307330
2.950000	-0.128975	-124.999891	-58.584832	129.000318	-58.584832	129.000318	-0.057194	-44.024861
3.000000	-0.130355	-126.605773	-58.180801	127.319477	-58.180801	127.319477	-0.058231	-44.741168
3.050000	-0.131742	-128.198054	-57.787185	125.634614	-57.787185	125.634614	-0.059276	-45.456242
3.100000	-0.133137	-129.777043	-57.403527	123.946482	-57.403527	123.946482	-0.060328	-46.170073
3.150000	-0.134540	-131.343045	-57.029402	122.255748	-57.029402	122.255748	-0.061388	-46.882651
3.200000	-0.135953	-132.896366	-56.664410	120.563007	-56.664410	120.563007	-0.062457	-47.593968
3.250000	-0.137377	-134.437308	-56.308180	118.868790	-56.308180	118.868790	-0.063535	-48.304014
3.300000	-0.138813	-135.966174	-55.960362	117.173570	-55.960362	117.173570	-0.064621	-49.012781
3.350000	-0.140262	-137.483262	-55.620628	115.477774	-55.620628	115.477774	-0.065718	-49.720259
3.400000	-0.141725	-138.988871	-55.288671	113.781781	-55.288671	113.781781	-0.066824	-50.426441
3.450000	-0.143202	-140.483293	-54.964200	112.085933	-54.964200	112.085933	-0.067941	-51.131320
3.500000	-0.144694	-141.966822	-54.646942	110.390538	-54.646942	110.390538	-0.069068	-51.834886
3.550000	-0.146202	-143.439745	-54.336639	108.695871	-54.336639	108.695871	-0.070207	-52.537134
3.600000	-0.147726	-144.902349	-54.033048	107.002183	-54.033048	107.002183	-0.071357	-53.238056
3.650000	-0.149268	-146.354917	-53.735937	105.309697	-53.735937	105.309697	-0.072519	-53.937645
3.700000	-0.150826	-147.797728	-53.445089	103.618617	-53.445089	103.618617	-0.073693	-54.635894
3.750000	-0.152403	-149.231058	-53.160298	101.929124	-53.160298	101.929124	-0.074880	-55.332799
3.800000	-0.153999	-150.654792	-52.881231	100.241468	-52.881231	100.241468	-0.076081	-56.028294
3.850000	-0.155613	-152.069612	-52.607853	98.555727	-52.607853	98.555727	-0.077295	-56.722432
3.900000	-0.157247	-153.475782	-52.339986	96.872032	-52.339986	96.872032	-0.078522	-57.415208
3.950000	-0.158900	-154.873564	-52.077459	95.190505	-52.077459	95.190505	-0.079764	-58.106618
4.000000	-0.160572	-156.263216	-51.820112	93.511254	-51.820112	93.511254	-0.081021	-58.796657
4.050000	-0.162264	-157.644993	-51.567789	91.834376	-51.567789	91.834376	-0.082292	-59.485320
4.100000	-0.163977	-159.019145	-51.320345	90.159960	-51.320345	90.159960	-0.083579	-60.172604
4.150000	-0.165709	-160.385919	-51.077640	88.488085	-51.077640	88.488085	-0.084881	-60.858506
4.200000	-0.167462	-161.745559	-50.839539	86.818822	-50.839539	86.818822	-0.086199	-61.543022
4.250000	-0.169235	-163.098305	-50.605915	85.152236	-50.605915	85.152236	-0.087534	-62.226150
4.300000	-0.171029	-164.444392	-50.376646	83.488384	-50.376646	83.488384	-0.088886	-62.907887
4.350000	-0.172843	-165.784053	-50.151615	81.827317	-50.151615	81.827317	-0.090254	-63.588231
4.400000	-0.174678	-167.117517	-49.930711	80.169081	-49.930711	80.169081	-0.091641	-64.267179
4.450000	-0.176533	-168.445010	-49.713825	78.513717	-49.713825	78.513717	-0.093045	-64.944731
4.500000	-0.178408	-169.766752	-49.500857	76.861261	-49.500857	76.861261	-0.094467	-65.620885
4.550000	-0.180304	-171.082963	-49.291706	75.211744	-49.291706	75.211744	-0.095908	-66.295640
4.600000	-0.182220	-172.393856	-49.086280	73.565194	-49.086280	73.565194	-0.097368	-66.968996
4.650000	-0.184156	-173.699644	-48.884487	71.921636	-48.884487	71.921636	-0.098847	-67.640952
4.700000	-0.186112	-175.000533	-48.686242	70.281090	-48.686242	70.281090	-0.100346	-68.311508
4.750000	-0.188089	-176.296729	-48.491460	68.643575	-48.491460	68.643575	-0.101866	-68.980665
4.800000	-0.190084	-177.588433	-48.300062	67.009106	-48.300062	67.009106	-0.103406	-69.648422
4.850000	-0.192099	-178.875842	-48.111972	65.377697	-48.111972	65.377697	-0.104966	-70.314782
4.900000	-0.194134	179.840849	-47.927116	63.749359	-47.927116	63.749359	-0.106548	-70.979745
4.950000	-0.196187	178.561450	-47.745423	62.124101	-47.745423	62.124101	-0.108152	-71.643312
5.000000	-0.198259	177.285771	-47.566825	60.501933	-47.566825	60.501933	-0.109778	-72.305485
5.050000	-0.200351	176.013773	-47.391234	58.882994	-47.391234	58.882994	-0.111427	-72.966207
5.100000	-0.202460	174.745113	-47.218616	57.267157	-47.218616	57.267157	-0.113099	-73.625539
5.150000	-0.204587	173.479612	-47.048911	55.654427	-47.048911	55.654427	-0.114794	-74.283485
5.200000	-0.206732	172.217096	-46.882059	54.044808	-46.882059	54.044808	-0.116512	-74.940048
5.250000	-0.208894	170.957392	-46.718007	52.438304	-46.718007	52.438304	-0.118255	-75.595230
5.300000	-0.211072	169.700331	-46.556699	50.834919	-46.556699	50.834919	-0.120022	-76.249036
5.350000	-0.213267	168.445746	-46.398085	49.234657	-46.398085	49.234657	-0.121814	-76.901468
5.400000	-0.215478	167.193474	-46.242115	47.637523	-46.242115	47.637523	-0.123631	-77.552532
5.450000	-0.217704	165.943354	-46.088743	46.043521	-46.088743	46.043521	-0.125474	-78.202230
5.500000	-0.219946	164.695229	-45.937921	44.452659	-45.937921	44.452659	-0.127342	-78.850569
5.550000	-0.222202	163.448943	-45.789608	42.864942	-45.789608	42.864942	-0.129237	-79.497552
5.600000	-0.224472	162.204343	-45.643761	41.280379	-45.643761	41.280379	-0.131158	-80.143185
5.650000	-0.226756	160.961282	-45.500340	39.698978	-45.500340	39.698978	-0.133107	-80.787472
5.700000	-0.229053	159.719610	-45.359306	38.120752	-45.359306	38.120752	-0.135083	-81.430420
5.750000	-0.231363	158.479186	-45.220622	36.545712	-45.220622	36.545712	-0.137087	-82.072035
5.800000	-0.233685	157.239866	-45.084253	34.973873	-45.084253	34.973873	-0.139119	-82.712322
5.850000	-0.236019	156.001512	-44.950164	33.405252	-44.950164	33.405252	-0.141180	-83.351287
5.900000	-0.238364	154.763988	-44.818323	31.839868	-44.818323	31.839868	-0.143270	-83.988937
5.950000	-0.240720	153.527161	-44.688697	30.277742	-44.688697	30.277742	-0.145389	-84.625280
6.000000	-0.243085	152.290898	-44.561258	28.718899	-44.561258	28.718899	-0.147538	-85.260321
6.050000	-0.245461	151.055072	-44.435974	27.163365	-44.435974	27.163365	-0.149718	-85.894068
6.100000	-0.247845	149.819557	-44.312820	25.611170	-44.312820	25.611170	-0.151928	-86.526528
6.150000	-0.250238	148.584229	-44.191767	24.062347	-44.191767	24.062347	-0.154169	-87.157710
6.200000	-0.252638	147.348968	-44.072789	22.516931	-44.072789	22.516931	-0.156442	-87.787620
6.250000	-0.255046	146.113656	-43.955863	20.974963	-43.955863	20.974963	-0.158746	-88.416268
6.300000	-0.257460	144.878163	-43.840985	19.436638	-43.840985	19.436638	-0.161084	-89.043607
6.350000	-0.259881	143.642380	-43.728113	17.901853	-43.728113	17.901853	-0.163454	-89.669700
6.400000	-0.262307	142.406196	-43.617224	16.370659	-43.617224	16.370659	-0.165858	-90.294557
6.450000	-0.264738	141.169504	-43.508296	14.843110	-43.508296	14.843110	-0.168295	-90.918186
6.500000	-0.267173	139.932198	-43.401309	13.319263	-43.401309	13.319263	-0.170766	-91.540596
6.550000	-0.269612	138.694175	-43.296241	11.799181	-43.296241	11.799181	-0.173271	-92.161798
6.600000	-0.272055	137.455336	-43.193072	10.282928	-43.193072	10.282928	-0.175810	-92.781799
6.650000	-0.274499	136.215583	-43.091783	8.770574	-43.091783	8.770574	-0.178384	-93.400611
6.700000	-0.276946	134.974820	-42.992354	7.262193	-42.992354	7.262193	-0.180994	-94.018242
6.750000	-0.279394	133.732957	-42.894767	5.757860	-42.894767	5.757860	-0.183640	-94.634704
6.800000	-0.281843	132.489903	-42.799004	4.257659	-42.799004	4.257659	-0.186321	-95.250006
6.850000	-0.284292	131.245570	-42.705045	2.761673	-42.705045	2.761673	-0.189039	-95.864159
6.900000	-0.286741	129.999875	-42.612873	1.269992	-42.612873	1.269992	-0.191794	-96.477174
6.950000	-0.289189	128.752736	-42.522471	-0.217292	-42.522471	-0.217292	-0.194586	-97.089061
7.000000	-0.291636	127.504073	-42.433820	-1.700082	-42.433820	-1.700082	-0.197415	-97.699832
7.050000	-0.294081	126.253810	-42.346903	-3.178278	-42.346903	-3.178278	-0.200283	-98.309497
7.100000	-0.296524	125.001874	-42.261703	-4.651776	-42.261703	-4.651776	-0.203189	-98.918069
7.150000	-0.298965	123.748194	-42.178201	-6.120470	-42.178201	-6.120470	-0.206133	-99.525558
7.200000	-0.301402	122.492701	-42.096381	-7.584248	-42.096381	-7.584248	-0.209117	-100.131977
7.250000	-0.303836	121.235330	-42.016225	-9.042998	-42.016225	-9.042998	-0.212140	-100.737337
7.300000	-0.306266	119.976020	-41.937715	-10.496600	-41.937715	-10.496600	-0.215202	-101.341651
7.350000	-0.308692	118.714710	-41.860832	-11.944937	-41.860832	-11.944937	-0.218305	-101.944931
7.400000	-0.311113	117.451344	-41.785559	-13.387885	-41.785559	-13.387885	-0.221448	-102.547188
7.450000	-0.313530	116.185868	-41.711878	-14.825319	-41.711878	-14.825319	-0.224632	-103.148437
7.500000	-0.315941	114.918232	-41.639769	-16.257111	-41.639769	-16.257111	-0.227857	-103.748689
7.550000	-0.318347	113.648290	-41.569255	-17.682873	-41.569255	-17.682873	-0.231125	-104.347916
7.600000	-0.320747	112.376091	-41.500277	-19.102719	-41.500277	-19.102719	-0.234435	-104.946173
7.650000	-0.323142	111.101595	-41.432813	-20.516514	-41.432813	-20.516514	-0.237787	-105.543474
7.700000	-0.325530	109.824764	-41.366843	-21.924122	-41.366843	-21.924122	-0.241182	-106.139833
7.750000	-0.327913	108.545563	-41.302348	-23.325406	-41.302348	-23.325406	-0.244619	-106.735263
7.800000	-0.330290	107.263960	-41.239305	-24.720227	-41.239305	-24.720227	-0.248099	-107.329779
7.850000	-0.332661	105.979928	-41.177693	-26.108445	-41.177693	-26.108445	-0.251623	-107.923393
7.900000	-0.335026	104.693440	-41.117490	-27.489920	-41.117490	-27.489920	-0.255190	-108.516120
7.950000	-0.337386	103.404477	-41.058674	-28.864510	-41.058674	-28.864510	-0.258801	-109.107974
8.000000	-0.339740	102.113019	-41.001222	-30.232076	-41.001222	-30.232076	-0.262457	-109.698970
8.050000	-0.342088	100.819051	-40.945110	-31.592474	-40.945110	-31.592474	-0.266157	-110.289122
8.100000	-0.344432	99.522562	-40.890315	-32.945564	-40.890315	-32.945564	-0.269901	-110.878445
8.150000	-0.346771	98.223543	-40.836812	-34.291204	-40.836812	-34.291204	-0.273691	-111.466954
8.200000	-0.349106	96.921991	-40.784577	-35.629254	-40.784577	-35.629254	-0.277526	-112.054665
8.250000	-0.351436	95.617905	-40.733584	-36.959574	-40.733584	-36.959574	-0.281407	-112.641591
8.300000	-0.353764	94.311285	-40.683808	-38.282024	-40.683808	-38.282024	-0.285333	-113.227749
8.350000	-0.356089	93.002140	-40.635221	-39.596466	-40.635221	-39.596466	-0.289306	-113.813154
8.400000	-0.358411	91.690478	-40.587799	-40.902764	-40.587799	-40.902764	-0.293324	-114.397822
8.450000	-0.360732	90.376313	-40.541513	-42.200782	-40.541513	-42.200782	-0.297390	-114.981769
8.500000	-0.363053	89.059662	-40.496336	-43.490386	-40.496336	-43.490386	-0.301502	-115.565010
8.550000	-0.365374	87.740544	-40.452241	-44.771444	-40.452241	-44.771444	-0.305660	-116.147563
8.600000	-0.367696	86.418986	-40.409198	-46.043825	-40.409198	-46.043825	-0.309866	-116.729443
8.650000	-0.370020	85.095014	-40.367180	-47.307401	-40.367180	-47.307401	-0.314120	-117.310666
8.700000	-0.372347	83.768659	-40.326158	-48.562047	-40.326158	-48.562047	-0.318420	-117.891251
8.750000	-0.374678	82.439959	-40.286101	-49.807636	-40.286101	-49.807636	-0.322769	-118.471213
8.800000	-0.377015	81.108853	-40.247012	-51.043644	-40.247012	-51.043644	-0.327167	-119.050544
8.850000	-0.379359	79.775486	-40.208828	-52.270344	-40.208828	-52.270344	-0.331613	-119.629288
8.900000	-0.381712	78.439906	-40.171518	-53.487620	-40.171518	-53.487620	-0.336108	-120.207464
8.950000	-0.384074	77.102163	-40.135052	-54.695357	-40.135052	-54.695357	-0.340650	-120.785088
9.000000	-0.386447	75.762313	-40.099398	-55.893444	-40.099398	-55.893444	-0.345241	-121.362177
9.050000	-0.388832	74.420412	-40.064527	-57.081771	-40.064527	-57.081771	-0.349880	-121.938752
9.100000	-0.391233	73.076522	-40.030407	-58.260231	-40.030407	-58.260231	-0.354568	-122.514828
9.150000	-0.393649	71.730709	-39.997006	-59.428721	-39.997006	-59.428721	-0.359305	-123.090425
9.200000	-0.396083	70.383043	-39.964294	-60.587139	-39.964294	-60.587139	-0.364090	-123.665561
9.250000	-0.398536	69.033594	-39.932239	-61.735384	-39.932239	-61.735384	-0.368924	-124.240255
9.300000	-0.401012	67.682440	-39.900810	-62.873362	-39.900810	-62.873362	-0.373807	-124.814526
9.350000	-0.403511	66.329660	-39.869976	-64.000976	-39.869976	-64.000976	-0.378739	-125.388393
9.400000	-0.406035	64.975336	-39.839705	-65.118136	-39.839705	-65.118136	-0.383720	-125.961875
9.450000	-0.408587	63.619556	-39.809965	-66.224751	-39.809965	-66.224751	-0.388749	-126.534991
9.500000	-0.411169	62.262408	-39.780725	-67.320733	-39.780725	-67.320733	-0.393828	-127.107762
9.550000	-0.413784	60.903986	-39.751955	-68.405998	-39.751955	-68.405998	-0.398955	-127.680207
9.600000	-0.416432	59.544385	-39.723622	-69.480461	-39.723622	-69.480461	-0.404132	-128.252347
9.650000	-0.419118	58.183706	-39.695696	-70.544042	-39.695696	-70.544042	-0.409357	-128.824201
9.700000	-0.421842	56.822050	-39.668146	-71.596659	-39.668146	-71.596659	-0.414630	-129.395790
9.750000	-0.424608	55.459522	-39.640942	-72.638234	-39.640942	-72.638234	-0.419953	-129.967135
9.800000	-0.427418	54.096231	-39.614052	-73.668692	-39.614052	-73.668692	-0.425324	-130.538257
9.850000	-0.430275	52.732287	-39.587447	-74.687955	-39.587447	-74.687955	-0.430743	-131.109177
9.900000	-0.433180	51.367804	-39.561096	-75.695950	-39.561096	-75.695950	-0.436211	-131.679916
9.950000	-0.436138	50.002898	-39.534970	-76.692603	-39.534970	-76.692603	-0.441727	-132.250497
10.000000	-0.439149	48.637688	-39.509038	-77.677841	-39.509038	-77.677841	-0.447291	-132.820941
