! freq	dB(S11)	phase(S11)	dB(S12)	phase(S12)	
!     	dB(S21)	phase(S21)	dB(S22)	phase(S22)	
!S-par simulation data
#  GHz  S  DB  R 50
0.000000	-0.000000	0.000000	-338.890692	0.000000	-338.890692	0.000000	0.000000	0.000000
0.050000	-0.000113	-0.951693	-113.075728	90.405747	-113.075728	90.405747	-0.000113	-0.951743
0.100000	-0.000447	-1.903119	-107.003776	90.582234	-107.003776	90.582234	-0.000447	-1.903220
0.150000	-0.000991	-2.854030	-103.432103	90.432528	-103.432103	90.432528	-0.000991	-2.854181
0.200000	-0.001725	-3.804214	-100.911914	89.994947	-100.911914	89.994947	-0.001726	-3.804414
0.250000	-0.002639	-4.753424	-98.999234	89.353730	-98.999234	89.353730	-0.002641	-4.753673
0.300000	-0.003692	-5.701600	-97.490296	88.625198	-97.490296	88.625198	-0.003694	-5.701896
0.350000	-0.004866	-6.648594	-96.277747	87.878519	-96.277747	87.878519	-0.004869	-6.648938
0.400000	-0.006137	-7.594335	-95.295597	87.173893	-95.295597	87.173893	-0.006140	-7.594725
0.450000	-0.007481	-8.538777	-94.501008	86.558652	-94.501008	86.558652	-0.007485	-8.539213
0.500000	-0.008878	-9.481904	-93.865151	86.074037	-93.865151	86.074037	-0.008882	-9.482386
0.550000	-0.010310	-10.423718	-93.368304	85.761094	-93.368304	85.761094	-0.010314	-10.424244
0.600000	-0.011760	-11.364233	-92.996965	85.665782	-92.996965	85.665782	-0.011765	-11.364804
0.650000	-0.013218	-12.303472	-92.741985	85.843931	-92.741985	85.843931	-0.013222	-12.304087
0.700000	-0.014673	-13.241462	-92.597213	86.366788	-92.597213	86.366788	-0.014677	-13.242121
0.750000	-0.016118	-14.178229	-92.558269	87.327873	-92.558269	87.327873	-0.016123	-14.178933
0.800000	-0.017549	-15.113798	-92.621070	88.851736	-92.621070	88.851736	-0.017553	-15.114546
0.850000	-0.018961	-16.048189	-92.779597	91.104626	-92.779597	91.104626	-0.018966	-16.048982
0.900000	-0.020353	-16.981420	-93.022061	94.305183	-93.022061	94.305183	-0.020358	-16.982256
0.950000	-0.021724	-17.913500	-93.324315	98.727910	-93.324315	98.727910	-0.021729	-17.914381
1.000000	-0.023074	-18.844435	-93.639493	104.680276	-93.639493	104.680276	-0.023079	-18.845360
1.050000	-0.024404	-19.774227	-93.885570	112.416402	-93.885570	112.416402	-0.024408	-19.775197
1.100000	-0.025713	-20.702871	-93.941185	121.948610	-93.941185	121.948610	-0.025717	-20.703886
1.150000	-0.027004	-21.630360	-93.672003	132.797970	-93.672003	132.797970	-0.027008	-21.631420
1.200000	-0.028278	-22.556682	-92.997810	143.926284	-92.997810	143.926284	-0.028282	-22.557786
1.250000	-0.029536	-23.481822	-91.949804	154.130503	-91.949804	154.130503	-0.029540	-23.482971
1.300000	-0.030780	-24.405709	-90.632680	162.550896	-90.632680	162.550896	-0.030783	-24.406904
1.350000	-0.032011	-25.328376	-89.199549	169.114346	-89.199549	169.114346	-0.032014	-25.329616
1.400000	-0.033230	-26.249800	-87.744588	174.038921	-87.744588	174.038921	-0.033233	-26.251085
1.450000	-0.034440	-27.169958	-86.321334	177.637392	-86.321334	177.637392	-0.034443	-27.171288
1.500000	-0.035642	-28.088826	-84.955393	-179.797194	-84.955393	-179.797194	-0.035645	-28.090202
1.550000	-0.036836	-29.006380	-83.656327	-178.026568	-83.656327	-178.026568	-0.036839	-29.007800
1.600000	-0.038025	-29.922593	-82.425394	-176.867956	-82.425394	-176.867956	-0.038027	-29.924058
1.650000	-0.039208	-30.837439	-81.259902	-176.184217	-81.259902	-176.184217	-0.039210	-30.838950
1.700000	-0.040387	-31.750893	-80.155510	-175.872904	-80.155510	-175.872904	-0.040389	-31.752449
1.750000	-0.041562	-32.662929	-79.107384	-175.857141	-79.107384	-175.857141	-0.041564	-32.664529
1.800000	-0.042735	-33.573520	-78.110752	-176.078726	-78.110752	-176.078726	-0.042737	-33.575165
1.850000	-0.043907	-34.482640	-77.161150	-176.493110	-77.161150	-176.493110	-0.043909	-34.484331
1.900000	-0.045077	-35.390266	-76.254514	-177.065795	-76.254514	-177.065795	-0.045079	-35.392000
1.950000	-0.046247	-36.296370	-75.387193	-177.769757	-75.387193	-177.769757	-0.046249	-36.298149
2.000000	-0.047417	-37.200929	-74.555933	-178.583584	-74.555933	-178.583584	-0.047419	-37.202752
2.050000	-0.048588	-38.103919	-73.757838	-179.490130	-73.757838	-179.490130	-0.048590	-38.105786
2.100000	-0.049760	-39.005315	-72.990332	179.524474	-72.990332	179.524474	-0.049762	-39.007226
2.150000	-0.050934	-39.905096	-72.251119	178.471555	-72.251119	178.471555	-0.050936	-39.907051
2.200000	-0.052110	-40.803238	-71.538155	177.360444	-71.538155	177.360444	-0.052112	-40.805236
2.250000	-0.053288	-41.699720	-70.849606	176.198891	-70.849606	176.198891	-0.053290	-41.701761
2.300000	-0.054470	-42.594520	-70.183830	174.993383	-70.183830	174.993383	-0.054472	-42.596604
2.350000	-0.055655	-43.487619	-69.539348	173.749388	-69.539348	173.749388	-0.055657	-43.489746
2.400000	-0.056844	-44.378996	-68.914823	172.471547	-68.914823	172.471547	-0.056846	-44.381165
2.450000	-0.058038	-45.268632	-68.309047	171.163822	-68.309047	171.163822	-0.058040	-45.270844
2.500000	-0.059236	-46.156510	-67.720921	169.829617	-67.720921	169.829617	-0.059238	-46.158764
2.550000	-0.060439	-47.042533	-67.148540	168.470964	-67.148540	168.470964	-0.060441	-47.044828
2.600000	-0.061648	-47.926761	-66.591992	167.091516	-66.591992	167.091516	-0.061650	-47.929097
2.650000	-0.062862	-48.809177	-66.050429	165.693459	-66.050429	165.693459	-0.062865	-48.811555
2.700000	-0.064083	-49.689767	-65.523073	164.278710	-65.523073	164.278710	-0.064086	-49.692186
2.750000	-0.065311	-50.568516	-65.009209	162.848955	-65.009209	162.848955	-0.065314	-50.570975
2.800000	-0.066546	-51.445409	-64.508176	161.405689	-64.508176	161.405689	-0.066548	-51.447908
2.850000	-0.067788	-52.320433	-64.019364	159.950234	-64.019364	159.950234	-0.067791	-52.322973
2.900000	-0.069038	-53.193577	-63.542207	158.483770	-63.542207	158.483770	-0.069041	-53.196156
2.950000	-0.070296	-54.064827	-63.076182	157.007349	-63.076182	157.007349	-0.070299	-54.067445
3.000000	-0.071563	-54.934172	-62.620800	155.521914	-62.620800	155.521914	-0.071566	-54.936830
3.050000	-0.072839	-55.801603	-62.175606	154.028312	-62.175606	154.028312	-0.072842	-55.804300
3.100000	-0.074124	-56.667109	-61.740175	152.527304	-61.740175	152.527304	-0.074128	-56.669844
3.150000	-0.075420	-57.530682	-61.314110	151.019580	-61.314110	151.019580	-0.075424	-57.533455
3.200000	-0.076726	-58.392312	-60.897040	149.505763	-60.897040	149.505763	-0.076730	-58.395123
3.250000	-0.078043	-59.251992	-60.488614	147.986417	-60.488614	147.986417	-0.078046	-59.254841
3.300000	-0.079371	-60.109716	-60.088507	146.462056	-60.088507	146.462056	-0.079374	-60.112602
3.350000	-0.080710	-60.965476	-59.696408	144.933149	-59.696408	144.933149	-0.080714	-60.968399
3.400000	-0.082062	-61.819267	-59.312027	143.400122	-59.312027	143.400122	-0.082066	-61.822227
3.450000	-0.083426	-62.671084	-58.935090	141.863366	-58.935090	141.863366	-0.083430	-62.674081
3.500000	-0.084804	-63.520923	-58.565338	140.323239	-58.565338	140.323239	-0.084808	-63.523956
3.550000	-0.086195	-64.368780	-58.202526	138.780068	-58.202526	138.780068	-0.086199	-64.371849
3.600000	-0.087600	-65.214652	-57.846422	137.234157	-57.846422	137.234157	-0.087604	-65.217756
3.650000	-0.089019	-66.058537	-57.496806	135.685781	-57.496806	135.685781	-0.089024	-66.061676
3.700000	-0.090454	-66.900432	-57.153470	134.135199	-57.153470	134.135199	-0.090458	-66.903606
3.750000	-0.091903	-67.740338	-56.816215	132.582645	-56.816215	132.582645	-0.091908	-67.743546
3.800000	-0.093370	-68.578166	-56.484561	131.028271	-56.484561	131.028271	-0.093374	-68.581408
3.850000	-0.094852	-69.414003	-56.158644	129.472365	-56.158644	129.472365	-0.094857	-69.417280
3.900000	-0.096352	-70.247851	-55.838291	127.915110	-55.838291	127.915110	-0.096356	-70.251161
3.950000	-0.097869	-71.079711	-55.523337	126.356681	-55.523337	126.356681	-0.097873	-71.083054
4.000000	-0.099403	-71.909585	-55.213627	124.797237	-55.213627	124.797237	-0.099408	-71.912961
4.050000	-0.100956	-72.737476	-54.909011	123.236927	-54.909011	123.236927	-0.100961	-72.740885
4.100000	-0.102528	-73.563387	-54.609347	121.675892	-54.609347	121.675892	-0.102533	-73.566828
4.150000	-0.104119	-74.387322	-54.314498	120.114261	-54.314498	120.114261	-0.104124	-74.390795
4.200000	-0.105729	-75.209286	-54.024334	118.552155	-54.024334	118.552155	-0.105734	-75.212790
4.250000	-0.107360	-76.029283	-53.738730	116.989688	-53.738730	116.989688	-0.107365	-76.032818
4.300000	-0.109012	-76.847320	-53.457566	115.426967	-53.457566	115.426967	-0.109017	-76.850886
4.350000	-0.110684	-77.663402	-53.180729	113.864092	-53.180729	113.864092	-0.110689	-77.666998
4.400000	-0.112379	-78.477536	-52.908107	112.301157	-52.908107	112.301157	-0.112384	-78.481163
4.450000	-0.114095	-79.289731	-52.639596	110.738250	-52.639596	110.738250	-0.114100	-79.293387
4.500000	-0.115834	-80.099993	-52.375094	109.175454	-52.375094	109.175454	-0.115839	-80.103678
4.550000	-0.117596	-80.908331	-52.114505	107.612847	-52.114505	107.612847	-0.117601	-80.912045
4.600000	-0.119385	-81.714424	-51.857083	106.050571	-51.857083	106.050571	-0.119391	-81.718167
4.650000	-0.121200	-82.518529	-51.603270	104.488645	-51.603270	104.488645	-0.121205	-82.522300
4.700000	-0.123028	-83.321650	-51.354834	102.926953	-51.354834	102.926953	-0.123033	-83.325449
4.750000	-0.124894	-84.121817	-51.107973	101.365962	-51.107973	101.365962	-0.124899	-84.125643
4.800000	-0.126770	-84.921336	-50.866797	99.805171	-50.866797	99.805171	-0.126775	-84.925189
4.850000	-0.128690	-85.717614	-50.626603	98.245373	-50.626603	98.245373	-0.128695	-85.721494
4.900000	-0.130615	-86.513572	-50.392343	96.685694	-50.392343	96.685694	-0.130620	-86.517478
4.950000	-0.132590	-87.306015	-50.158550	95.127319	-50.158550	95.127319	-0.132596	-87.309947
5.000000	-0.134567	-88.098458	-49.930885	93.568945	-49.930885	93.568945	-0.134572	-88.102415
5.050000	-0.136600	-88.887124	-49.703243	92.012206	-49.703243	92.012206	-0.136605	-88.891106
5.100000	-0.138634	-89.675790	-49.481416	90.455466	-49.481416	90.455466	-0.138639	-89.679796
5.150000	-0.140722	-90.461050	-49.260154	88.900400	-49.260154	88.900400	-0.140728	-90.465081
5.200000	-0.142816	-91.246002	-49.043949	87.345486	-49.043949	87.345486	-0.142821	-91.250056
5.250000	-0.144960	-92.027913	-48.828785	85.792242	-48.828785	85.792242	-0.144966	-92.031990
5.300000	-0.147115	-92.809217	-48.618001	84.239331	-48.618001	84.239331	-0.147121	-92.813316
5.350000	-0.149317	-93.587838	-48.408672	82.688046	-48.408672	82.688046	-0.149323	-93.591959
5.400000	-0.151536	-94.365564	-48.203118	81.137302	-48.203118	81.137302	-0.151542	-94.369708
5.450000	-0.153798	-95.140956	-47.999379	79.588103	-47.999379	79.588103	-0.153803	-95.145121
5.500000	-0.156081	-95.915181	-47.798875	78.039676	-47.798875	78.039676	-0.156087	-95.919367
5.550000	-0.158404	-96.687409	-47.600496	76.492685	-47.600496	76.492685	-0.158410	-96.691615
5.600000	-0.160755	-97.458211	-47.404872	74.946718	-47.404872	74.946718	-0.160761	-97.462436
5.650000	-0.163140	-98.227342	-47.211638	73.402048	-47.211638	73.402048	-0.163146	-98.231587
5.700000	-0.165560	-98.994803	-47.020731	71.858673	-47.020731	71.858673	-0.165566	-98.999066
5.750000	-0.168009	-99.760907	-46.832438	70.316430	-46.832438	70.316430	-0.168016	-99.765190
5.800000	-0.170500	-100.525114	-46.646096	68.775771	-46.646096	68.775771	-0.170506	-100.529414
5.850000	-0.173015	-101.288265	-46.462554	67.236057	-46.462554	67.236057	-0.173021	-101.292582
5.900000	-0.175578	-102.049306	-46.280629	65.698232	-46.280629	65.698232	-0.175584	-102.053640
5.950000	-0.178159	-102.809580	-46.101658	64.161141	-46.101658	64.161141	-0.178166	-102.813930
6.000000	-0.180796	-103.567550	-45.924011	62.626258	-45.924011	62.626258	-0.180803	-103.571916
6.050000	-0.183447	-104.325024	-45.749440	61.091882	-45.749440	61.091882	-0.183453	-104.329405
6.100000	-0.186160	-105.080018	-45.575938	59.560043	-45.575938	59.560043	-0.186166	-105.084414
6.150000	-0.188880	-105.834773	-45.405607	58.028465	-45.405607	58.028465	-0.188886	-105.839183
6.200000	-0.191670	-106.586892	-45.236121	56.499767	-45.236121	56.499767	-0.191677	-106.591316
6.250000	-0.194461	-107.339012	-45.069878	54.971068	-45.069878	54.971068	-0.194468	-107.343449
6.300000	-0.197331	-108.088359	-44.904285	53.445597	-44.904285	53.445597	-0.197337	-108.092808
6.350000	-0.200201	-108.837706	-44.741790	51.920127	-44.741790	51.920127	-0.200208	-108.842167
6.400000	-0.203145	-109.584608	-44.580167	50.397691	-44.580167	50.397691	-0.203151	-109.589081
6.450000	-0.206096	-110.331289	-44.421309	48.875531	-44.421309	48.875531	-0.206103	-110.335773
6.500000	-0.209115	-111.075839	-44.263517	47.356190	-44.263517	47.356190	-0.209122	-111.080333
6.550000	-0.212148	-111.819962	-44.108189	45.837414	-44.108189	45.837414	-0.212155	-111.824466
6.600000	-0.215244	-112.562252	-43.954092	44.321225	-43.954092	44.321225	-0.215251	-112.566765
6.650000	-0.218361	-113.303931	-43.802192	42.805898	-43.802192	42.805898	-0.218368	-113.308452
6.700000	-0.221535	-114.044056	-43.651664	41.292910	-43.651664	41.292910	-0.221542	-114.048586
6.750000	-0.224738	-114.783404	-43.503092	39.781091	-43.503092	39.781091	-0.224745	-114.787942
6.800000	-0.227991	-115.521462	-43.356010	38.271347	-43.356010	38.271347	-0.227998	-115.526007
6.850000	-0.231280	-116.258598	-43.210670	36.763084	-43.210670	36.763084	-0.231287	-116.263149
6.900000	-0.234614	-116.994689	-43.066918	35.256620	-43.066918	35.256620	-0.234621	-116.999246
6.950000	-0.237991	-117.729733	-42.924717	33.751953	-42.924717	33.751953	-0.237998	-117.734296
7.000000	-0.241406	-118.463958	-42.784183	32.248798	-42.784183	32.248798	-0.241413	-118.468525
7.050000	-0.244874	-119.197034	-42.645030	30.747758	-42.645030	30.747758	-0.244881	-119.201606
7.100000	-0.248372	-119.929497	-42.507608	29.247932	-42.507608	29.247932	-0.248379	-119.934072
7.150000	-0.251930	-120.660731	-42.371416	27.750537	-42.371416	27.750537	-0.251937	-120.665309
7.200000	-0.255512	-121.391537	-42.237004	26.254056	-42.237004	26.254056	-0.255519	-121.396118
7.250000	-0.259162	-122.121058	-42.103687	24.760314	-42.103687	24.760314	-0.259169	-122.125641
7.300000	-0.262829	-122.850315	-41.972186	23.267181	-41.972186	23.267181	-0.262836	-122.854900
7.350000	-0.266573	-123.578254	-41.841664	21.777090	-41.841664	21.777090	-0.266580	-123.582839
7.400000	-0.270326	-124.306072	-41.712980	20.287302	-41.712980	20.287302	-0.270333	-124.310658
7.450000	-0.274165	-125.032562	-41.585171	18.800845	-41.585171	18.800845	-0.274172	-125.037149
7.500000	-0.278006	-125.759053	-41.459216	17.314389	-41.459216	17.314389	-0.278012	-125.763639
7.550000	-0.281940	-126.484232	-41.334044	15.831540	-41.334044	15.831540	-0.281947	-126.488817
7.600000	-0.285877	-127.209412	-41.210650	14.348691	-41.210650	14.348691	-0.285883	-127.213995
7.650000	-0.289901	-127.933516	-41.088119	12.869111	-41.088119	12.869111	-0.289907	-127.938098
7.700000	-0.293935	-128.657523	-40.967216	11.389828	-40.967216	11.389828	-0.293941	-128.662103
7.750000	-0.298049	-129.380672	-40.847244	9.913472	-40.847244	9.913472	-0.298055	-129.385248
7.800000	-0.302181	-130.103648	-40.728763	8.437702	-40.728763	8.437702	-0.302187	-130.108221
7.850000	-0.306386	-130.825960	-40.611269	6.964514	-40.611269	6.964514	-0.306392	-130.830529
7.900000	-0.310618	-131.548050	-40.495143	5.492188	-40.495143	5.492188	-0.310624	-131.552615
7.950000	-0.314915	-132.269648	-40.380051	4.022103	-40.380051	4.022103	-0.314921	-132.274208
8.000000	-0.319247	-132.990999	-40.266218	2.553139	-40.266218	2.553139	-0.319253	-132.995554
8.050000	-0.323637	-133.712005	-40.153456	1.086080	-40.153456	1.086080	-0.323643	-133.716555
8.100000	-0.328070	-134.432767	-40.041854	-0.379617	-40.041854	-0.379617	-0.328076	-134.437311
8.150000	-0.332554	-135.153309	-39.931352	-1.843736	-39.931352	-1.843736	-0.332560	-135.157847
8.200000	-0.337089	-135.873632	-39.821924	-3.306276	-39.821924	-3.306276	-0.337095	-135.878163
8.250000	-0.341667	-136.593838	-39.713616	-4.767553	-39.713616	-4.767553	-0.341673	-136.598362
8.300000	-0.346305	-137.313878	-39.606307	-6.227060	-39.606307	-6.227060	-0.346312	-137.318395
8.350000	-0.350979	-138.033877	-39.500131	-7.685602	-39.500131	-7.685602	-0.350985	-138.038386
8.400000	-0.355721	-138.753791	-39.394889	-9.142214	-39.394889	-9.142214	-0.355727	-138.758293
8.450000	-0.360490	-139.473715	-39.290786	-10.598140	-39.290786	-10.598140	-0.360496	-139.478208
8.500000	-0.365336	-140.193664	-39.187561	-12.052007	-39.187561	-12.052007	-0.365342	-140.198148
8.550000	-0.370202	-140.913646	-39.085477	-13.505445	-39.085477	-13.505445	-0.370208	-140.918122
8.600000	-0.375153	-141.633792	-38.984225	-14.956732	-38.984225	-14.956732	-0.375160	-141.638259
8.650000	-0.380115	-142.353968	-38.884108	-16.407819	-38.884108	-16.407819	-0.380122	-142.358426
8.700000	-0.385172	-143.074477	-38.784786	-17.856704	-38.784786	-17.856704	-0.385179	-143.078925
8.750000	-0.390232	-143.794985	-38.686588	-19.305588	-38.686588	-19.305588	-0.390239	-143.799424
8.800000	-0.395395	-144.516024	-38.589159	-20.752258	-38.589159	-20.752258	-0.395402	-144.520453
8.850000	-0.400561	-145.237063	-38.492811	-22.198928	-38.492811	-22.198928	-0.400568	-145.241482
8.900000	-0.405822	-145.958746	-38.397264	-23.643751	-38.397264	-23.643751	-0.405830	-145.963154
8.950000	-0.411094	-146.680486	-38.302734	-25.088407	-38.302734	-25.088407	-0.411102	-146.684885
9.000000	-0.416453	-147.402957	-38.209031	-26.531559	-38.209031	-26.531559	-0.416462	-147.407345
9.050000	-0.421832	-148.125573	-38.116290	-27.974410	-38.116290	-27.974410	-0.421841	-148.129951
9.100000	-0.427290	-148.848979	-38.024396	-29.416072	-38.024396	-29.416072	-0.427299	-148.853347
9.150000	-0.432776	-149.572647	-37.933421	-30.857337	-37.933421	-30.857337	-0.432786	-149.577005
9.200000	-0.438332	-150.297137	-37.843306	-32.297697	-37.843306	-32.297697	-0.438343	-150.301484
9.250000	-0.443924	-151.022038	-37.754076	-33.737604	-37.754076	-33.737604	-0.443936	-151.026375
9.300000	-0.449579	-151.747763	-37.665714	-35.176854	-37.665714	-35.176854	-0.449592	-151.752090
9.350000	-0.455279	-152.474078	-37.578214	-36.615635	-37.578214	-36.615635	-0.455292	-152.478396
9.400000	-0.461032	-153.201194	-37.491582	-38.053971	-37.491582	-38.053971	-0.461046	-153.205501
9.450000	-0.466838	-153.929109	-37.405801	-39.491863	-37.405801	-39.491863	-0.466853	-153.933407
9.500000	-0.472689	-154.657770	-37.320881	-40.929486	-37.320881	-40.929486	-0.472706	-154.662059
9.550000	-0.478602	-155.387475	-37.236814	-42.366730	-37.236814	-42.366730	-0.478620	-155.391754
9.600000	-0.484551	-156.117840	-37.153592	-43.803838	-37.153592	-43.803838	-0.484570	-156.122111
9.650000	-0.490569	-156.849527	-37.071239	-45.240675	-37.071239	-45.240675	-0.490590	-156.853788
9.700000	-0.496615	-157.581757	-36.989706	-46.677470	-36.989706	-46.677470	-0.496638	-157.586010
9.750000	-0.502739	-158.315619	-36.909070	-48.114139	-36.909070	-48.114139	-0.502763	-158.319865
9.800000	-0.508882	-159.049878	-36.829220	-49.550820	-36.829220	-49.550820	-0.508908	-159.054116
9.850000	-0.515110	-159.786116	-36.750312	-50.987557	-36.750312	-50.987557	-0.515138	-159.790346
9.900000	-0.521350	-160.522568	-36.672143	-52.424319	-36.672143	-52.424319	-0.521380	-160.526792
9.950000	-0.527681	-161.261382	-36.594979	-53.861354	-36.594979	-53.861354	-0.527713	-161.265601
10.000000	-0.534016	-162.000197	-36.518495	-55.298389	-36.518495	-55.298389	-0.534051	-162.004409
