! freq	dB(S11)	phase(S11)	dB(S12)	phase(S12)	
!     	dB(S21)	phase(S21)	dB(S22)	phase(S22)	
!S-par simulation data
#  GHz  S  DB  R 50
0.000000	-157.607697	0.000000	0.000000	0.000000	0.000000	0.000000	-157.607697	0.000000
0.050000	-33.967015	-93.793886	-0.006904	-3.599337	-0.006904	-3.599337	-33.954049	-93.314273
0.100000	-27.980148	-97.616988	-0.019517	-7.149806	-0.019517	-7.149806	-27.972759	-96.692420
0.150000	-24.504214	-101.460883	-0.033664	-10.678828	-0.033664	-10.678828	-24.499141	-100.098568
0.200000	-22.059449	-105.302668	-0.050099	-14.198028	-0.050099	-14.198028	-22.054401	-103.489874
0.250000	-20.181434	-109.126830	-0.069338	-17.708121	-0.069338	-17.708121	-20.175590	-106.849345
0.300000	-18.664593	-112.927690	-0.091509	-21.207430	-0.091509	-21.207430	-18.657816	-110.173912
0.350000	-17.397253	-116.707503	-0.116282	-24.695460	-0.116282	-24.695460	-17.389647	-113.467954
0.400000	-16.314581	-120.468384	-0.143501	-28.171179	-0.143501	-28.171179	-16.306279	-116.733198
0.450000	-15.376698	-124.212028	-0.173100	-31.632742	-0.173100	-31.632742	-15.367817	-119.968943
0.500000	-14.552957	-127.942482	-0.204655	-35.080605	-0.204655	-35.080605	-14.543577	-123.178008
0.550000	-13.822686	-131.662045	-0.237912	-38.514532	-0.237912	-38.514532	-13.812850	-126.360675
0.600000	-13.171234	-135.372500	-0.272655	-41.933985	-0.272655	-41.933985	-13.160950	-129.516079
0.650000	-12.588120	-139.075523	-0.308656	-45.338164	-0.308656	-45.338164	-12.577364	-132.642329
0.700000	-12.062625	-142.773473	-0.345573	-48.728161	-0.345573	-48.728161	-12.051355	-135.740755
0.750000	-11.587522	-146.468092	-0.383163	-52.104191	-0.383163	-52.104191	-11.575681	-138.810775
0.800000	-11.158001	-150.161251	-0.421180	-55.465930	-0.421180	-55.465930	-11.145509	-141.850283
0.850000	-10.769290	-153.855320	-0.459341	-58.813900	-0.459341	-58.813900	-10.756053	-144.858405
0.900000	-10.414957	-157.552199	-0.497432	-62.150282	-0.497432	-62.150282	-10.400891	-147.838220
0.950000	-10.094714	-161.255161	-0.535147	-65.474044	-0.535147	-65.474044	-10.079697	-150.784273
1.000000	-9.802972	-164.966027	-0.572339	-68.787767	-0.572339	-68.787767	-9.786896	-153.700406
1.050000	-9.538601	-168.688482	-0.608735	-72.091877	-0.608735	-72.091877	-9.521335	-156.583808
1.100000	-9.298988	-172.425462	-0.644158	-75.387892	-0.644158	-75.387892	-9.280396	-159.434760
1.150000	-9.081521	-176.179725	-0.678477	-78.677558	-0.678477	-78.677558	-9.061464	-162.254183
1.200000	-8.886012	-179.956843	-0.711401	-81.961924	-0.711401	-81.961924	-8.864318	-165.038559
1.250000	-8.708492	176.243046	-0.743024	-85.243281	-0.743024	-85.243281	-8.685014	-167.792654
1.300000	-8.550736	172.409882	-0.772881	-88.522984	-0.772881	-88.522984	-8.525262	-170.508900
1.350000	-8.408381	168.545951	-0.801237	-91.803093	-0.801237	-91.803093	-8.380737	-173.194035
1.400000	-8.282414	164.641270	-0.827746	-95.085748	-0.827746	-95.085748	-8.252371	-175.842185
1.450000	-8.170477	160.695028	-0.852535	-98.372683	-0.852535	-98.372683	-8.137814	-178.456106
1.500000	-8.072058	156.700616	-0.875514	-101.666214	-0.875514	-101.666214	-8.036526	178.966301
1.550000	-7.986427	152.652003	-0.896658	-104.968675	-0.896658	-104.968675	-7.947751	176.426556
1.600000	-7.911816	148.548345	-0.916156	-108.281492	-0.916156	-108.281492	-7.869729	173.922660
1.650000	-7.848742	144.376036	-0.933873	-111.608469	-0.933873	-111.608469	-7.802906	171.460805
1.700000	-7.794777	140.139849	-0.950199	-114.949413	-0.950199	-114.949413	-7.744893	169.035934
1.750000	-7.750018	135.827451	-0.965120	-118.307447	-0.965120	-118.307447	-7.695729	166.653208
1.800000	-7.713284	131.435454	-0.978800	-121.683564	-0.978800	-121.683564	-7.654227	164.312565
1.850000	-7.683635	126.958585	-0.991326	-125.079320	-0.991326	-125.079320	-7.619432	162.015053
1.900000	-7.660787	122.378334	-1.002660	-128.499968	-1.002660	-128.499968	-7.590990	159.767949
1.950000	-7.642172	117.715024	-1.013233	-131.941493	-1.013233	-131.941493	-7.566448	157.559882
2.000000	-7.627464	112.952578	-1.023113	-135.408758	-1.023113	-135.408758	-7.545425	155.397031
2.050000	-7.615473	108.087229	-1.032551	-138.903655	-1.032551	-138.903655	-7.526749	153.279419
2.100000	-7.604946	103.125385	-1.041814	-142.425170	-1.041814	-142.425170	-7.509221	151.202758
2.150000	-7.594618	98.044935	-1.051218	-145.980456	-1.051218	-145.980456	-7.491554	149.174026
2.200000	-7.582942	92.855332	-1.061100	-149.567924	-1.061100	-149.567924	-7.472295	147.186784
2.250000	-7.568432	87.556941	-1.071800	-153.188703	-1.071800	-153.188703	-7.450037	145.237961
2.300000	-7.549559	82.151660	-1.083671	-156.843742	-1.083671	-156.843742	-7.423347	143.323335
2.350000	-7.524780	76.643095	-1.097078	-160.533800	-1.097078	-160.533800	-7.390801	141.437405
2.400000	-7.492574	71.036709	-1.112396	-164.259438	-1.112396	-164.259438	-7.351014	139.573301
2.450000	-7.451485	65.339916	-1.130005	-168.021011	-1.130005	-168.021011	-7.302683	137.722742
2.500000	-7.400169	59.562097	-1.150288	-171.818659	-1.150288	-171.818659	-7.244629	135.876062
2.550000	-7.337167	53.713326	-1.173705	-175.653082	-1.173705	-175.653082	-7.175580	134.021875
2.600000	-7.261759	47.808510	-1.200577	-179.523182	-1.200577	-179.523182	-7.094974	132.147960
2.650000	-7.173263	41.862241	-1.231273	176.571571	-1.231273	176.571571	-7.002287	130.241366
2.700000	-7.071299	35.890203	-1.266151	172.631918	-1.266151	172.631918	-6.897277	128.288648
2.750000	-6.955811	29.908748	-1.305550	168.658801	-1.305550	168.658801	-6.779999	126.276238
2.800000	-6.827067	23.934439	-1.349788	164.653349	-1.349788	164.653349	-6.650801	124.190834
2.850000	-6.685656	17.983576	-1.399158	160.616859	-1.399158	160.616859	-6.510314	122.019781
2.900000	-6.532456	12.071765	-1.453922	156.550769	-1.453922	156.550769	-6.359423	119.751407
2.950000	-6.368593	6.213530	-1.514310	152.456640	-1.514310	152.456640	-6.199223	117.375305
3.000000	-6.195392	0.422013	-1.580516	148.336115	-1.580516	148.336115	-6.030980	114.882530
3.050000	-6.014321	-5.291239	-1.652695	144.190895	-1.652695	144.190895	-5.856074	112.265716
3.100000	-5.826933	-10.916392	-1.730962	140.022698	-1.730962	140.022698	-5.675952	109.519109
3.150000	-5.634733	-16.444241	-1.815447	135.833011	-1.815447	135.833011	-5.492013	106.637031
3.200000	-5.439337	-21.868249	-1.906173	131.623529	-1.906173	131.623529	-5.305746	103.616701
3.250000	-5.242352	-27.184794	-2.003063	127.396022	-2.003063	127.396022	-5.118622	100.458213
3.300000	-5.045201	-32.390665	-2.106052	123.151887	-2.106052	123.151887	-4.931943	97.161284
3.350000	-4.849136	-37.480649	-2.215158	118.891925	-2.215158	118.891925	-4.746883	93.722530
3.400000	-4.655523	-42.465591	-2.329782	114.618589	-2.329782	114.618589	-4.564624	90.157158
3.450000	-4.465225	-47.327997	-2.450365	110.330438	-2.450365	110.330438	-4.386089	86.445672
3.500000	-4.279231	-52.084063	-2.576130	106.029719	-2.576130	106.029719	-4.212099	82.608045
3.550000	-4.098390	-56.726755	-2.707034	101.715445	-2.707034	101.715445	-4.043534	78.635788
3.600000	-3.923359	-61.260299	-2.842658	97.387485	-2.842658	97.387485	-3.881027	74.532919
3.650000	-3.754624	-65.691330	-2.982482	93.045494	-2.982482	93.045494	-3.725055	70.305420
3.700000	-3.593013	-70.012563	-3.126170	88.686466	-3.126170	88.686466	-3.576573	65.941043
3.750000	-3.438312	-74.242678	-3.272984	84.310896	-3.272984	84.310896	-3.435323	61.458987
3.800000	-3.291932	-78.363966	-3.422279	79.911285	-3.422279	79.911285	-3.303053	56.829085
3.850000	-3.153093	-82.400058	-3.573318	75.488255	-3.573318	75.488255	-3.178942	52.075602
3.900000	-3.023054	-86.339840	-3.724935	71.031740	-3.724935	71.031740	-3.064705	47.170496
3.950000	-2.901536	-90.195090	-3.876211	66.537542	-3.876211	66.537542	-2.960260	42.118242
4.000000	-2.789233	-93.965437	-4.025631	61.993994	-4.025631	61.993994	-2.866857	36.898749
4.050000	-2.686802	-97.651950	-4.171415	57.386723	-4.171415	57.386723	-2.785868	31.488880
4.100000	-2.594207	-101.263045	-4.312096	52.703771	-4.312096	52.703771	-2.717916	25.876979
4.150000	-2.513663	-104.789418	-4.443920	47.908252	-4.443920	47.908252	-2.667203	19.992190
4.200000	-2.444366	-108.245159	-4.565948	42.989562	-4.565948	42.989562	-2.633762	13.831228
4.250000	-2.389882	-111.615563	-4.672316	37.879420	-4.672316	37.879420	-2.625393	7.266182
4.300000	-2.351817	-114.899206	-4.759303	32.521087	-4.759303	32.521087	-2.648117	0.202168
4.350000	-2.333472	-118.082366	-4.821597	26.819665	-4.821597	26.819665	-2.713284	-7.531492
4.400000	-2.339443	-121.137280	-4.853451	20.633501	-4.853451	20.633501	-2.839529	-16.199218
4.450000	-2.375576	-124.010536	-4.850233	13.752252	-4.850233	13.752252	-3.057930	-26.214795
4.500000	-2.449126	-126.588666	-4.811379	5.823321	-4.811379	5.823321	-3.427560	-38.328965
4.550000	-2.562053	-128.650956	-4.753476	-3.697064	-4.753476	-3.697064	-4.056872	-53.881497
4.600000	-2.689932	-129.796655	-4.740268	-15.646990	-4.740268	-15.646990	-5.145968	-75.567110
4.650000	-2.719263	-129.556757	-4.958694	-31.137327	-4.958694	-31.137327	-6.939742	-109.525651
4.700000	-2.409752	-128.483351	-5.825278	-50.722804	-5.825278	-50.722804	-8.550567	-166.571234
4.750000	-1.719457	-129.198158	-7.921045	-72.448317	-7.921045	-72.448317	-6.832007	127.071293
4.800000	-1.068363	-132.866191	-11.514058	-91.480503	-11.514058	-91.480503	-4.173443	81.885536
4.850000	-0.695522	-137.679152	-16.506595	-103.533385	-16.506595	-103.533385	-2.597756	52.780464
4.900000	-0.525515	-142.284652	-23.122820	-103.062064	-23.122820	-103.062064	-1.784748	32.657675
4.950000	-0.453435	-146.395609	-30.367831	-63.732475	-30.367831	-63.732475	-1.352567	17.753984
5.000000	-0.422866	-150.091206	-28.123543	-11.689837	-28.123543	-11.689837	-1.105334	5.991645
5.050000	-0.409791	-153.477816	-24.860513	-1.218921	-24.860513	-1.218921	-0.955402	-3.720709
5.100000	-0.403520	-156.649176	-23.143925	-0.656393	-23.143925	-0.656393	-0.857755	-12.088987
5.150000	-0.399825	-159.665894	-22.260614	-2.645103	-22.260614	-2.645103	-0.790761	-19.519324
5.200000	-0.397000	-162.569419	-21.863349	-5.445438	-21.863349	-5.445438	-0.742838	-26.272190
5.250000	-0.394430	-165.388772	-21.788173	-8.493470	-21.788173	-8.493470	-0.707502	-32.521648
5.300000	-0.391984	-168.143012	-21.962373	-11.554143	-21.962373	-11.554143	-0.681272	-38.375721
5.350000	-0.389711	-170.854297	-22.323866	-14.516190	-22.323866	-14.516190	-0.661100	-43.959119
5.400000	-0.387810	-173.529123	-22.891927	-17.262268	-22.891927	-17.262268	-0.646641	-49.294847
5.450000	-0.386409	-176.183793	-23.650425	-19.727040	-23.650425	-19.727040	-0.636294	-54.470778
5.500000	-0.385891	-178.825835	-24.666770	-21.647924	-24.666770	-21.647924	-0.630585	-59.501485
5.550000	-0.386400	178.532877	-25.988565	-22.793412	-25.988565	-22.793412	-0.628795	-64.446449
5.600000	-0.388424	175.881365	-27.766486	-22.330905	-27.766486	-22.330905	-0.631664	-69.333812
5.650000	-0.392492	173.206909	-30.243240	-18.201532	-30.243240	-18.201532	-0.639893	-74.203408
5.700000	-0.399354	170.494833	-33.683836	-3.547229	-33.683836	-3.547229	-0.654694	-79.098383
5.750000	-0.410151	167.727038	-36.053961	37.483543	-36.053961	37.483543	-0.678088	-84.069271
5.800000	-0.426550	164.881805	-32.458915	79.263681	-32.458915	79.263681	-0.713119	-89.177442
5.850000	-0.452085	161.920177	-27.563852	92.991259	-27.563852	92.991259	-0.766465	-94.527072
5.900000	-0.489857	158.820405	-23.698313	96.521067	-23.698313	96.521067	-0.843862	-100.195442
5.950000	-0.549471	155.510843	-20.410177	95.400593	-20.410177	95.400593	-0.963659	-106.395065
6.000000	-0.646225	151.916081	-17.448700	91.749460	-17.448700	91.749460	-1.155461	-113.398283
6.050000	-0.809212	147.944378	-14.654268	86.004981	-14.654268	86.004981	-1.477442	-121.630166
6.100000	-1.102041	143.508419	-11.912181	77.784966	-11.912181	77.784966	-2.065175	-131.856685
6.150000	-1.650599	138.770757	-9.218933	66.186593	-9.218933	66.186593	-3.236436	-145.259352
6.200000	-2.678505	135.060792	-6.721478	49.740175	-6.721478	49.740175	-5.901983	-163.722975
6.250000	-4.165296	137.063454	-4.891451	27.835943	-4.891451	27.835943	-13.567640	169.610846
6.300000	-4.698568	147.478210	-4.299581	3.542204	-4.299581	3.542204	-16.356323	-21.063879
6.350000	-3.708472	153.829958	-4.831543	-17.571079	-4.831543	-17.571079	-7.117746	-48.675093
6.400000	-2.694392	153.157936	-5.849009	-33.406373	-5.849009	-33.406373	-4.156304	-65.984908
6.450000	-2.060483	149.912929	-6.908604	-45.040090	-6.908604	-45.040090	-2.829231	-78.352486
6.500000	-1.690604	146.065114	-7.849202	-53.972663	-7.849202	-53.972663	-2.140424	-87.673508
6.550000	-1.471912	142.123499	-8.644213	-61.293302	-8.644213	-61.293302	-1.740505	-95.134828
6.600000	-1.349909	138.164248	-9.287307	-67.587988	-9.287307	-67.587988	-1.498342	-101.327263
6.650000	-1.291644	134.146100	-9.794809	-73.301246	-9.794809	-73.301246	-1.344488	-106.682894
6.700000	-1.282012	129.993019	-10.180785	-78.723480	-10.180785	-78.723480	-1.245313	-111.460691
6.750000	-1.321533	125.574800	-10.441408	-84.078425	-10.441408	-84.078425	-1.186689	-115.785878
6.800000	-1.408728	120.801932	-10.595804	-89.558225	-10.595804	-89.558225	-1.155601	-119.809547
6.850000	-1.562605	115.463646	-10.633437	-95.384900	-10.633437	-95.384900	-1.150815	-123.570808
6.900000	-1.815506	109.282309	-10.550806	-101.835503	-10.550806	-101.835503	-1.172501	-127.107052
6.950000	-2.226579	101.870181	-10.350218	-109.261140	-10.350218	-109.261140	-1.223277	-130.428637
7.000000	-2.919495	92.583605	-10.042120	-118.181067	-10.042120	-118.181067	-1.308770	-133.487141
7.050000	-4.161986	80.357153	-9.672037	-129.322446	-9.672037	-129.322446	-1.431811	-136.141847
7.100000	-6.600419	63.182841	-9.367968	-143.564455	-9.367968	-143.564455	-1.573747	-138.122329
7.150000	-12.135582	34.222478	-9.399278	-161.399206	-9.399278	-161.399206	-1.656019	-139.210522
7.200000	-18.945668	-84.748923	-10.124202	178.222136	-10.124202	178.222136	-1.561032	-139.886846
7.250000	-9.174504	-147.898313	-11.693837	158.213623	-11.693837	158.213623	-1.307176	-141.294368
7.300000	-5.208573	-170.743750	-13.877437	141.106013	-13.877437	141.106013	-1.049033	-143.745561
7.350000	-3.334846	174.087426	-16.330867	127.389161	-16.330867	127.389161	-0.867039	-146.715914
7.400000	-2.343911	163.048466	-18.830403	116.345333	-18.830403	116.345333	-0.755190	-149.774313
7.450000	-1.766912	154.549459	-21.307819	107.017776	-21.307819	107.017776	-0.687652	-152.756403
7.500000	-1.412428	147.779478	-23.715923	98.707855	-23.715923	98.707855	-0.647273	-155.621914
7.550000	-1.179591	142.154090	-26.073213	90.810432	-26.073213	90.810432	-0.622457	-158.378671
7.600000	-1.020954	137.352434	-28.365303	82.829581	-28.365303	82.829581	-0.607238	-161.039315
7.650000	-0.906783	133.116622	-30.623104	74.326066	-30.623104	74.326066	-0.597696	-163.623564
7.700000	-0.822462	129.307763	-32.821833	64.892230	-32.821833	64.892230	-0.591894	-166.143342
7.750000	-0.759461	125.839745	-34.869878	54.063244	-34.869878	54.063244	-0.588692	-168.605978
7.800000	-0.710954	122.627928	-36.676337	41.651859	-36.676337	41.651859	-0.587201	-171.021222
7.850000	-0.672617	119.611586	-38.133234	27.994451	-38.133234	27.994451	-0.586872	-173.397133
7.900000	-0.642866	116.774897	-39.042574	14.039034	-39.042574	14.039034	-0.587495	-175.733636
7.950000	-0.617968	114.046881	-39.582474	0.925981	-39.582474	0.925981	-0.588636	-178.044337
8.000000	-0.597577	111.425102	-39.757673	-10.583779	-39.757673	-10.583779	-0.590249	179.671600
8.050000	-0.580741	108.892008	-39.698912	-20.080362	-39.698912	-20.080362	-0.592224	177.411285
8.100000	-0.566841	106.436145	-39.521304	-27.529943	-39.521304	-27.529943	-0.594487	175.173049
8.150000	-0.555444	104.049638	-39.305904	-33.132643	-39.305904	-33.132643	-0.596988	172.956064
8.200000	-0.545803	101.713816	-39.093720	-37.462394	-39.093720	-37.462394	-0.599647	170.755588
8.250000	-0.537637	99.421794	-38.895949	-40.755887	-38.895949	-40.755887	-0.602434	168.570072
8.300000	-0.530716	97.167714	-38.715522	-43.203080	-38.715522	-43.203080	-0.605322	166.398116
8.350000	-0.524857	94.946573	-38.550567	-44.954220	-38.550567	-44.954220	-0.608291	164.238451
8.400000	-0.519908	92.754080	-38.396665	-46.127841	-38.396665	-46.127841	-0.611322	162.089919
8.450000	-0.515745	90.586539	-38.248233	-46.818740	-38.248233	-46.818740	-0.614402	159.951460
8.500000	-0.512362	88.443721	-38.097461	-47.053015	-38.097461	-47.053015	-0.617520	157.823397
8.550000	-0.509567	86.319310	-37.937860	-46.966114	-37.937860	-46.966114	-0.620661	155.703368
8.600000	-0.507287	84.210629	-37.764646	-46.622275	-37.764646	-46.622275	-0.623813	153.590391
8.650000	-0.505471	82.115709	-37.573749	-46.073525	-37.573749	-46.073525	-0.626971	151.483732
8.700000	-0.504076	80.032791	-37.361993	-45.368809	-37.361993	-45.368809	-0.630128	149.382702
8.750000	-0.503068	77.960301	-37.127144	-44.554196	-37.127144	-44.554196	-0.633280	147.286657
8.800000	-0.502433	75.897098	-36.866334	-43.673625	-36.866334	-43.673625	-0.636421	145.195122
8.850000	-0.502334	73.845670	-36.558269	-42.778411	-36.558269	-42.778411	-0.639539	143.109389
8.900000	-0.502236	71.794242	-36.260758	-41.883198	-36.260758	-41.883198	-0.642658	141.023657
8.950000	-0.502676	69.751900	-35.911690	-41.081567	-35.911690	-41.081567	-0.645749	138.942397
9.000000	-0.503286	67.712439	-35.557463	-40.309609	-35.557463	-40.309609	-0.648832	136.862556
9.050000	-0.504195	65.676088	-35.181941	-39.642820	-35.181941	-39.642820	-0.651903	134.784144
9.100000	-0.505479	63.643622	-34.779986	-39.107492	-34.779986	-39.107492	-0.654958	132.707520
9.150000	-0.506850	61.611529	-34.386128	-38.609660	-34.386128	-38.609660	-0.658014	130.630996
9.200000	-0.508811	59.581935	-33.947347	-38.363590	-33.947347	-38.363590	-0.661066	128.555149
9.250000	-0.510773	57.552340	-33.529670	-38.117521	-33.529670	-38.117521	-0.664118	126.479302
9.300000	-0.513319	55.522217	-33.076975	-38.114775	-33.076975	-38.114775	-0.667196	124.402217
9.350000	-0.515998	53.491972	-32.635034	-38.167329	-32.635034	-38.167329	-0.670281	122.324851
9.400000	-0.519072	51.459855	-32.183214	-38.361431	-32.183214	-38.361431	-0.673405	120.245607
9.450000	-0.522540	49.425865	-31.724071	-38.697079	-31.724071	-38.697079	-0.676567	118.164484
9.500000	-0.526173	47.390662	-31.276896	-39.080227	-31.276896	-39.080227	-0.679754	116.082249
9.550000	-0.530531	45.350127	-30.805313	-39.672378	-30.805313	-39.672378	-0.683041	113.995118
9.600000	-0.534891	43.309593	-30.358020	-40.264529	-30.358020	-40.264529	-0.686330	111.907986
9.650000	-0.540139	41.261104	-29.884374	-41.054539	-29.884374	-41.054539	-0.689761	109.813595
9.700000	-0.545523	39.211431	-29.428422	-41.874017	-29.428422	-41.874017	-0.693215	107.718123
9.750000	-0.551423	37.156746	-28.971123	-42.783857	-28.971123	-42.783857	-0.696751	105.618004
9.800000	-0.557866	35.096749	-28.512851	-43.784492	-28.512851	-43.784492	-0.700372	103.512936
9.850000	-0.564960	33.030236	-28.051154	-44.877651	-28.051154	-44.877651	-0.704084	101.401705
9.900000	-0.572718	30.956986	-27.587722	-46.051011	-27.587722	-46.051011	-0.707873	99.283980
9.950000	-0.581033	28.878117	-27.128215	-47.284678	-27.128215	-47.284678	-0.711714	97.160771
10.000000	-0.589925	26.793444	-26.672760	-48.577102	-26.672760	-48.577102	-0.715600	95.031860
