! freq	dB(S11)	phase(S11)	dB(S12)	phase(S12)	
!     	dB(S21)	phase(S21)	dB(S22)	phase(S22)	
!S-par simulation data
#  GHz  S  DB  R 50
0.000000	-0.000000	0.000000	-340.860584	180.000000	-340.860584	180.000000	-0.000000	0.000000
0.050000	-0.000139	-0.954408	-105.642531	95.335605	-105.642531	95.335605	-0.000119	-0.955131
0.100000	-0.000539	-1.909036	-99.064892	93.278969	-99.064892	93.278969	-0.000466	-1.910327
0.150000	-0.001154	-2.863965	-95.375729	91.128069	-95.375729	91.128069	-0.001016	-2.865593
0.200000	-0.001933	-3.819103	-92.836174	89.404121	-92.836174	89.404121	-0.001735	-3.820856
0.250000	-0.002843	-4.774243	-90.912958	87.980758	-90.912958	87.980758	-0.002602	-4.775965
0.300000	-0.003844	-5.729143	-89.372661	86.728946	-89.372661	86.728946	-0.003577	-5.730758
0.350000	-0.004923	-6.683579	-88.098298	85.605677	-88.098298	85.605677	-0.004646	-6.685055
0.400000	-0.006068	-7.637359	-87.020389	84.580403	-87.020389	84.580403	-0.005795	-7.638696
0.450000	-0.007271	-8.590332	-86.094797	83.637128	-86.094797	83.637128	-0.007010	-8.591541
0.500000	-0.008524	-9.542378	-85.291750	82.768212	-85.291750	82.768212	-0.008280	-9.543477
0.550000	-0.009819	-10.493408	-84.590228	81.971164	-84.590228	81.971164	-0.009596	-10.494414
0.600000	-0.011151	-11.443357	-83.974850	81.246948	-83.974850	81.246948	-0.010949	-11.444284
0.650000	-0.012512	-12.392175	-83.434033	80.599074	-83.434033	80.599074	-0.012332	-12.393034
0.700000	-0.013895	-13.339825	-82.958831	80.033115	-82.958831	80.033115	-0.013736	-13.340625
0.750000	-0.015295	-14.286282	-82.542184	79.556476	-82.542184	79.556476	-0.015156	-14.287029
0.800000	-0.016705	-15.231526	-82.178391	79.178310	-82.178391	79.178310	-0.016585	-15.232226
0.850000	-0.018121	-16.175543	-81.862740	78.909542	-81.862740	78.909542	-0.018017	-16.176200
0.900000	-0.019538	-17.118325	-81.591226	78.762948	-81.591226	78.762948	-0.019449	-17.118941
0.950000	-0.020951	-18.059862	-81.360315	78.753276	-81.360315	78.753276	-0.020877	-18.060441
1.000000	-0.022359	-19.000149	-81.166757	78.897381	-81.166757	78.897381	-0.022296	-19.000693
1.050000	-0.023758	-19.939179	-81.007389	79.214347	-81.007389	79.214347	-0.023706	-19.939691
1.100000	-0.025146	-20.876947	-80.878957	79.725544	-80.878957	79.725544	-0.025103	-20.877429
1.150000	-0.026522	-21.813446	-80.777914	80.454567	-80.777914	80.454567	-0.026487	-21.813900
1.200000	-0.027884	-22.748668	-80.700200	81.426971	-80.700200	81.426971	-0.027857	-22.749097
1.250000	-0.029233	-23.682604	-80.641003	82.669654	-80.641003	82.669654	-0.029211	-23.683011
1.300000	-0.030567	-24.615189	-80.594703	84.223871	-80.594703	84.223871	-0.030550	-24.615576
1.350000	-0.031886	-25.546466	-80.553212	86.102855	-80.553212	86.102855	-0.031873	-25.546835
1.400000	-0.033191	-26.476422	-80.507734	88.326515	-80.507734	88.326515	-0.033182	-26.476777
1.450000	-0.034483	-27.405045	-80.447920	90.905638	-80.447920	90.905638	-0.034476	-27.405387
1.500000	-0.035762	-28.332318	-80.362062	93.837033	-80.362062	93.837033	-0.035757	-28.332651
1.550000	-0.037028	-29.258226	-80.237637	97.098546	-80.237637	97.098546	-0.037025	-29.258551
1.600000	-0.038283	-30.182752	-80.062261	100.645202	-80.062261	100.645202	-0.038282	-30.183072
1.650000	-0.039527	-31.105878	-79.825014	104.408110	-79.825014	104.408110	-0.039527	-31.106194
1.700000	-0.040761	-32.027586	-79.517884	108.297507	-79.517884	108.297507	-0.040762	-32.027900
1.750000	-0.041986	-32.947856	-79.136977	112.210263	-79.136977	112.210263	-0.041988	-32.948169
1.800000	-0.043204	-33.866668	-78.683100	116.040582	-78.683100	116.040582	-0.043206	-33.866983
1.850000	-0.044415	-34.784003	-78.161519	119.691310	-78.161519	119.691310	-0.044417	-34.784322
1.900000	-0.045619	-35.699841	-77.580978	123.083050	-77.580978	123.083050	-0.045621	-35.700164
1.950000	-0.046819	-36.614162	-76.952310	126.159229	-76.952310	126.159229	-0.046821	-36.614490
2.000000	-0.048014	-37.526944	-76.287018	128.886792	-76.287018	128.886792	-0.048016	-37.527279
2.050000	-0.049206	-38.438168	-75.596138	131.253535	-75.596138	131.253535	-0.049209	-38.438510
2.100000	-0.050396	-39.347813	-74.889496	133.263576	-74.889496	133.263576	-0.050398	-39.348164
2.150000	-0.051585	-40.255860	-74.175361	134.932431	-74.175361	134.932431	-0.051587	-40.256220
2.200000	-0.052772	-41.162288	-73.460377	136.282584	-73.460377	136.282584	-0.052774	-41.162658
2.250000	-0.053960	-42.067079	-72.749679	137.340013	-72.749679	137.340013	-0.053962	-42.067459
2.300000	-0.055149	-42.970213	-72.047103	138.131704	-72.047103	138.131704	-0.055150	-42.970605
2.350000	-0.056339	-43.871672	-71.355409	138.684035	-71.355409	138.684035	-0.056340	-43.872075
2.400000	-0.057532	-44.771438	-70.676508	139.021816	-70.676508	139.021816	-0.057533	-44.771852
2.450000	-0.058727	-45.669493	-70.011647	139.167805	-70.011647	139.167805	-0.058728	-45.669919
2.500000	-0.059927	-46.565821	-69.361572	139.142520	-69.361572	139.142520	-0.059928	-46.566259
2.550000	-0.061131	-47.460327	-68.725347	138.958359	-68.725347	138.958359	-0.061131	-47.460778
2.600000	-0.062340	-48.353073	-68.104554	138.638662	-68.104554	138.638662	-0.062340	-48.353536
2.650000	-0.063554	-49.244043	-67.499061	138.197418	-67.499061	138.197418	-0.063555	-49.244518
2.700000	-0.064775	-50.133223	-66.908599	137.646902	-66.908599	137.646902	-0.064775	-50.133711
2.750000	-0.066002	-51.020599	-66.332807	136.997864	-66.332807	136.997864	-0.066003	-51.021100
2.800000	-0.067237	-51.906159	-65.771262	136.259708	-65.771262	136.259708	-0.067237	-51.906672
2.850000	-0.068480	-52.789891	-65.223501	135.440652	-65.223501	135.440652	-0.068480	-52.790417
2.900000	-0.069730	-53.671784	-64.689040	134.547873	-64.689040	134.547873	-0.069731	-53.672322
2.950000	-0.070990	-54.551827	-64.167384	133.587632	-64.167384	133.587632	-0.070991	-54.552377
3.000000	-0.072259	-55.430011	-63.658039	132.565386	-63.658039	132.565386	-0.072260	-55.430574
3.050000	-0.073538	-56.306328	-63.160513	131.485881	-63.160513	131.485881	-0.073539	-56.306903
3.100000	-0.074827	-57.180770	-62.674325	130.353233	-62.674325	130.353233	-0.074828	-57.181357
3.150000	-0.076127	-58.053331	-62.199004	129.170997	-62.199004	129.170997	-0.076128	-58.053929
3.200000	-0.077439	-58.924003	-61.734092	127.942223	-61.734092	127.942223	-0.077439	-58.924613
3.250000	-0.078762	-59.792783	-61.279143	126.669505	-61.279143	126.669505	-0.078763	-59.793405
3.300000	-0.080097	-60.659668	-60.833727	125.355020	-60.833727	125.355020	-0.080098	-60.660301
3.350000	-0.081445	-61.524653	-60.397423	124.000557	-60.397423	124.000557	-0.081446	-61.525297
3.400000	-0.082806	-62.387738	-59.969823	122.607544	-59.969823	122.607544	-0.082807	-62.388393
3.450000	-0.084181	-63.248922	-59.550529	121.177062	-59.550529	121.177062	-0.084182	-63.249588
3.500000	-0.085569	-64.108205	-59.139152	119.709858	-59.139152	119.709858	-0.085570	-64.108883
3.550000	-0.086972	-64.965591	-58.735308	118.206345	-58.735308	118.206345	-0.086974	-64.966280
3.600000	-0.088390	-65.821082	-58.338617	116.666602	-58.338617	116.666602	-0.088392	-65.821782
3.650000	-0.089824	-66.674684	-57.948701	115.090366	-57.948701	115.090366	-0.089825	-66.675394
3.700000	-0.091273	-67.526402	-57.565180	113.477008	-57.565180	113.477008	-0.091275	-67.527122
3.750000	-0.092739	-68.376245	-57.187667	111.825512	-57.187667	111.825512	-0.092741	-68.376976
3.800000	-0.094223	-69.224144	-56.815308	110.132620	-56.815308	110.132620	-0.094224	-69.224885
3.850000	-0.095723	-70.070192	-56.448144	108.398000	-56.448144	108.398000	-0.095725	-70.070944
3.900000	-0.097242	-70.914406	-56.085731	106.619104	-56.085731	106.619104	-0.097244	-70.915168
3.950000	-0.098780	-71.756803	-55.727589	104.792743	-55.727589	104.792743	-0.098781	-71.757575
4.000000	-0.100336	-72.597407	-55.373196	102.914973	-55.373196	102.914973	-0.100338	-72.598189
4.050000	-0.101912	-73.436243	-55.021969	100.980946	-55.021969	100.980946	-0.101914	-73.437036
4.100000	-0.103509	-74.273344	-54.673248	98.984727	-54.673248	98.984727	-0.103511	-74.274148
4.150000	-0.105127	-75.108748	-54.326268	96.919048	-54.326268	96.919048	-0.105129	-75.109562
4.200000	-0.106768	-75.942501	-53.980128	94.774988	-53.980128	94.774988	-0.106770	-75.943325
4.250000	-0.108432	-76.774659	-53.633743	92.541554	-53.633743	92.541554	-0.108434	-76.775494
4.300000	-0.110120	-77.605292	-53.285781	90.205117	-53.285781	90.205117	-0.110123	-77.606137
4.350000	-0.111836	-78.434486	-52.934573	87.748652	-52.934573	87.748652	-0.111838	-78.435343
4.400000	-0.113580	-79.262351	-52.577982	85.150700	-52.577982	85.150700	-0.113583	-79.263219
4.450000	-0.115357	-80.089029	-52.213213	82.383921	-52.213213	82.383921	-0.115359	-80.089909
4.500000	-0.117171	-80.914706	-51.836533	79.413045	-51.836533	79.413045	-0.117173	-80.915598
4.550000	-0.119028	-81.739633	-51.442830	76.191922	-51.442830	76.191922	-0.119031	-81.740538
4.600000	-0.120941	-82.564156	-51.024925	72.659180	-51.024925	72.659180	-0.120943	-82.565075
4.650000	-0.122925	-83.388770	-50.572466	68.731661	-50.572466	68.731661	-0.122928	-83.389704
4.700000	-0.125011	-84.214206	-50.070055	64.294238	-50.070055	64.294238	-0.125015	-84.215157
4.750000	-0.127254	-85.041594	-49.494021	59.183404	-49.494021	59.183404	-0.127258	-85.042565
4.800000	-0.129731	-85.872412	-48.819112	53.221971	-48.819112	53.221971	-0.129736	-85.873406
4.850000	-0.132702	-86.710417	-47.961465	45.927713	-47.961465	45.927713	-0.132708	-86.711440
4.900000	-0.136653	-87.561060	-46.830203	36.792743	-46.830203	36.792743	-0.136661	-87.562121
4.950000	-0.143121	-88.437069	-45.213462	24.682051	-45.213462	24.682051	-0.143134	-88.438185
5.000000	-0.157705	-89.365442	-42.724254	7.169314	-42.724254	7.169314	-0.157729	-89.366645
5.050000	-0.208919	-90.359941	-38.719214	-23.703244	-38.719214	-23.703244	-0.208982	-90.361249
5.100000	-0.320034	-90.498334	-35.518520	-92.600772	-35.518520	-92.600772	-0.320160	-90.499082
5.150000	-0.213143	-90.791617	-39.837911	-155.019271	-39.837911	-155.019271	-0.213182	-90.792126
5.200000	-0.173018	-91.733367	-43.591408	174.796905	-43.591408	174.796905	-0.173031	-91.734022
5.250000	-0.162169	-92.627341	-45.680397	155.275225	-45.680397	155.275225	-0.162175	-92.628085
5.300000	-0.158817	-93.480413	-46.821149	140.785511	-46.821149	140.785511	-0.158820	-93.481211
5.350000	-0.158268	-94.309540	-47.396310	129.711586	-47.396310	129.711586	-0.158270	-94.310376
5.400000	-0.158867	-95.125410	-47.678864	120.846105	-47.678864	120.846105	-0.158869	-95.126274
5.450000	-0.160148	-95.931366	-47.768627	113.769393	-47.768627	113.769393	-0.160149	-95.932252
5.500000	-0.161737	-96.731843	-47.770737	107.695833	-47.770737	107.695833	-0.161738	-96.732748
5.550000	-0.163570	-97.527402	-47.706254	102.501061	-47.706254	102.501061	-0.163571	-97.528324
5.600000	-0.165574	-98.319020	-47.599973	97.972192	-47.599973	97.972192	-0.165574	-98.319956
5.650000	-0.167702	-99.107347	-47.467117	93.954956	-47.467117	93.954956	-0.167703	-99.108296
5.700000	-0.169941	-99.892492	-47.315433	90.378563	-47.315433	90.378563	-0.169941	-99.893453
5.750000	-0.172260	-100.675103	-47.153490	87.108913	-47.153490	87.108913	-0.172260	-100.676075
5.800000	-0.174646	-101.455507	-46.985320	84.076859	-46.985320	84.076859	-0.174647	-101.456490
5.850000	-0.177093	-102.233866	-46.813232	81.240972	-46.813232	81.240972	-0.177093	-102.234860
5.900000	-0.179595	-103.010314	-46.638876	78.568293	-46.638876	78.568293	-0.179595	-103.011318
5.950000	-0.182149	-103.784961	-46.463429	76.032480	-46.463429	76.032480	-0.182149	-103.785973
6.000000	-0.184752	-104.557897	-46.287734	73.612342	-46.287734	73.612342	-0.184752	-104.558919
6.050000	-0.187405	-105.329084	-46.112200	71.296952	-46.112200	71.296952	-0.187405	-105.330115
6.100000	-0.190109	-106.098556	-45.937280	69.071610	-45.937280	69.071610	-0.190109	-106.099596
6.150000	-0.192860	-106.866417	-45.763397	66.921220	-45.763397	66.921220	-0.192860	-106.867465
6.200000	-0.195649	-107.633074	-45.591263	64.821730	-45.591263	64.821730	-0.195649	-107.634131
6.250000	-0.198476	-108.398512	-45.420868	62.771376	-45.420868	62.771376	-0.198476	-108.399577
6.300000	-0.201363	-109.162047	-45.251461	60.788140	-45.251461	60.788140	-0.201363	-109.163120
6.350000	-0.204287	-109.924472	-45.084056	58.839529	-45.084056	58.839529	-0.204287	-109.925553
6.400000	-0.207249	-110.685804	-44.918638	56.923691	-44.918638	56.923691	-0.207249	-110.686893
6.450000	-0.210258	-111.445784	-44.754923	55.045438	-44.754923	55.045438	-0.210258	-111.446881
6.500000	-0.213317	-112.204378	-44.592889	53.201859	-44.592889	53.201859	-0.213316	-112.205484
6.550000	-0.216413	-112.961989	-44.432904	51.381280	-44.432904	51.381280	-0.216413	-112.963102
6.600000	-0.219546	-113.718632	-44.274934	49.582542	-44.274934	49.582542	-0.219546	-113.719753
6.650000	-0.222737	-114.473840	-44.118537	47.813707	-44.118537	47.813707	-0.222737	-114.474968
6.700000	-0.225979	-115.227847	-43.963909	46.067730	-43.963909	46.067730	-0.225979	-115.228983
6.750000	-0.229247	-115.981255	-43.811495	44.333182	-43.811495	44.333182	-0.229247	-115.982399
6.800000	-0.232570	-116.733482	-43.660790	42.619255	-43.660790	42.619255	-0.232570	-116.734633
6.850000	-0.235931	-117.484866	-43.512010	40.920056	-43.512010	40.920056	-0.235931	-117.486024
6.900000	-0.239340	-118.235312	-43.365056	39.235963	-43.365056	39.235963	-0.239340	-118.236479
6.950000	-0.242795	-118.984823	-43.219879	37.566976	-43.219879	37.566976	-0.242795	-118.985997
7.000000	-0.246291	-119.733615	-43.076607	35.908914	-43.076607	35.908914	-0.246291	-119.734797
7.050000	-0.249843	-120.481403	-42.934997	34.266149	-42.934997	34.266149	-0.249843	-120.482592
7.100000	-0.253427	-121.228668	-42.795339	32.631086	-42.795339	32.631086	-0.253427	-121.229864
7.150000	-0.257075	-121.974886	-42.657261	31.011426	-42.657261	31.011426	-0.257075	-121.976090
7.200000	-0.260749	-122.720750	-42.521152	29.396933	-42.521152	29.396933	-0.260749	-122.721961
7.250000	-0.264496	-123.465551	-42.386575	27.797939	-42.386575	27.797939	-0.264496	-123.466769
7.300000	-0.268260	-124.210142	-42.253955	26.202073	-42.253955	26.202073	-0.268260	-124.211368
7.350000	-0.272107	-124.953683	-42.122856	24.621842	-42.122856	24.621842	-0.272107	-124.954916
7.400000	-0.275963	-125.697132	-41.993674	23.043054	-41.993674	23.043054	-0.275963	-125.698372
7.450000	-0.279911	-126.439571	-41.866040	21.480123	-41.866040	21.480123	-0.279911	-126.440819
7.500000	-0.283861	-127.182010	-41.740254	19.917192	-41.740254	19.917192	-0.283861	-127.183265
7.550000	-0.287912	-127.923509	-41.616084	18.370465	-41.616084	18.370465	-0.287911	-127.924771
7.600000	-0.291964	-128.665008	-41.493665	16.823738	-41.493665	16.823738	-0.291964	-128.666278
7.650000	-0.296111	-129.405798	-41.372975	15.291157	-41.372975	15.291157	-0.296111	-129.407075
7.700000	-0.300269	-130.146523	-41.253941	13.759862	-41.253941	13.759862	-0.300268	-130.147807
7.750000	-0.304513	-130.886745	-41.136728	12.241029	-41.136728	12.241029	-0.304513	-130.888036
7.800000	-0.308777	-131.626867	-41.021118	10.724689	-41.021118	10.724689	-0.308776	-131.628165
7.850000	-0.313120	-132.366667	-40.907402	9.219423	-40.907402	9.219423	-0.313120	-132.367972
7.900000	-0.317492	-133.106360	-40.795278	7.717847	-40.795278	7.717847	-0.317492	-133.107673
7.950000	-0.321937	-133.845889	-40.685099	6.226186	-40.685099	6.226186	-0.321936	-133.847208
8.000000	-0.326419	-134.585335	-40.576554	4.739482	-40.576554	4.739482	-0.326418	-134.586661
8.050000	-0.330966	-135.324746	-40.469981	3.261706	-40.469981	3.261706	-0.330965	-135.326080
8.100000	-0.335560	-136.064133	-40.365145	1.790307	-40.365145	1.790307	-0.335559	-136.065474
8.150000	-0.340212	-136.803589	-40.262282	0.326971	-40.262282	0.326971	-0.340211	-136.804937
8.200000	-0.344921	-137.543113	-40.161336	-1.128302	-40.161336	-1.128302	-0.344920	-137.544468
8.250000	-0.349679	-138.282781	-40.062330	-2.576314	-40.062330	-2.576314	-0.349679	-138.284143
8.300000	-0.354506	-139.022649	-39.965518	-4.014161	-39.965518	-4.014161	-0.354505	-139.024019
8.350000	-0.359368	-139.762668	-39.870417	-5.446704	-39.870417	-5.446704	-0.359367	-139.764045
8.400000	-0.364296	-140.502985	-39.777619	-6.868643	-39.777619	-6.868643	-0.364295	-140.504370
8.450000	-0.369301	-141.243756	-39.687547	-8.277315	-39.687547	-8.277315	-0.369300	-141.245149
8.500000	-0.374358	-141.984880	-39.599709	-9.676576	-39.599709	-9.676576	-0.374357	-141.986282
8.550000	-0.379469	-142.726385	-39.514132	-11.066024	-39.514132	-11.066024	-0.379467	-142.727795
8.600000	-0.384651	-143.468479	-39.431499	-12.440935	-39.431499	-12.440935	-0.384649	-143.469897
8.650000	-0.389903	-144.211222	-39.351968	-13.800366	-39.351968	-13.800366	-0.389901	-144.212650
8.700000	-0.395212	-144.954530	-39.275191	-15.146388	-39.275191	-15.146388	-0.395211	-144.955967
8.750000	-0.400580	-145.698432	-39.201229	-16.478292	-39.201229	-16.478292	-0.400578	-145.699880
8.800000	-0.406044	-146.443465	-39.132065	-17.782877	-39.132065	-17.782877	-0.406042	-146.444924
8.850000	-0.411574	-147.189295	-39.066505	-19.067324	-39.066505	-19.067324	-0.411572	-147.190768
8.900000	-0.417170	-147.935970	-39.004711	-20.329930	-39.004711	-20.329930	-0.417168	-147.937456
8.950000	-0.422854	-148.683820	-38.948023	-21.560940	-38.948023	-21.560940	-0.422852	-148.685322
9.000000	-0.428641	-149.433136	-38.897808	-22.749202	-38.897808	-22.749202	-0.428639	-149.434656
9.050000	-0.434513	-150.183661	-38.853111	-23.899338	-38.853111	-23.899338	-0.434511	-150.185202
9.100000	-0.440472	-150.935468	-38.814265	-25.007559	-38.814265	-25.007559	-0.440470	-150.937032
9.150000	-0.446586	-151.689589	-38.786191	-26.031725	-38.786191	-26.031725	-0.446584	-151.691181
9.200000	-0.452797	-152.445141	-38.764999	-26.997973	-38.764999	-26.997973	-0.452797	-152.446765
9.250000	-0.459201	-153.203514	-38.757478	-27.840001	-38.757478	-27.840001	-0.459202	-153.205178
9.300000	-0.465789	-153.964465	-38.762608	-28.553839	-38.762608	-28.553839	-0.465791	-153.966175
9.350000	-0.472638	-154.728898	-38.784717	-29.072217	-38.784717	-29.072217	-0.472642	-154.730667
9.400000	-0.479812	-155.497358	-38.825810	-29.334546	-38.825810	-29.334546	-0.479820	-155.499200
9.450000	-0.487429	-156.270814	-38.888517	-29.233933	-38.888517	-29.233933	-0.487443	-156.272745
9.500000	-0.495738	-157.051164	-38.975610	-28.555811	-38.975610	-28.555811	-0.495760	-157.053212
9.550000	-0.505105	-157.840501	-39.080502	-26.997516	-39.080502	-26.997516	-0.505140	-157.842698
9.600000	-0.516268	-158.642303	-39.173956	-24.011413	-39.173956	-24.011413	-0.516325	-158.644695
9.650000	-0.530750	-159.461556	-39.153314	-18.710887	-39.153314	-18.710887	-0.530843	-159.464198
9.700000	-0.552419	-160.304700	-38.677961	-9.926309	-38.677961	-9.926309	-0.552578	-160.307642
9.750000	-0.591296	-161.162223	-36.938779	1.086124	-36.938779	1.086124	-0.591574	-161.165402
9.800000	-0.669375	-161.876376	-33.256599	3.966089	-33.256599	3.966089	-0.669823	-161.879392
9.850000	-0.731026	-161.862439	-29.807691	-16.075127	-29.807691	-16.075127	-0.731777	-161.864914
9.900000	-0.642030	-162.107133	-29.969238	-40.993949	-29.969238	-40.993949	-0.642815	-162.105657
9.950000	-0.585606	-162.989914	-31.306991	-52.739671	-31.306991	-52.739671	-0.586013	-162.987340
10.000000	-0.568339	-163.906231	-32.334419	-57.855002	-32.334419	-57.855002	-0.568537	-163.903964
