! freq	dB(S11)	phase(S11)	dB(S12)	phase(S12)	
!     	dB(S21)	phase(S21)	dB(S22)	phase(S22)	
!S-par simulation data
#  GHz  S  DB  R 50
0.000000	0.000000	0.000000	-321.284260	180.000000	-321.284260	180.000000	0.000000	0.000000
0.050000	-0.001537	-2.408448	-76.675079	87.162810	-76.675079	87.162810	-0.002518	-3.333006
0.100000	-0.005234	-4.805394	-70.670983	84.328925	-70.670983	84.328925	-0.007840	-6.643044
0.150000	-0.009544	-7.188997	-67.176567	81.501617	-67.176567	81.501617	-0.013266	-9.931383
0.200000	-0.013588	-9.562742	-64.717830	78.684857	-64.717830	78.684857	-0.018094	-13.204210
0.250000	-0.017231	-11.931029	-62.828050	75.880302	-62.828050	75.880302	-0.022523	-16.465759
0.300000	-0.020509	-14.295318	-61.302873	73.091457	-61.302873	73.091457	-0.026711	-19.715348
0.350000	-0.023531	-16.656283	-60.032311	70.321266	-60.032311	70.321266	-0.030774	-22.951867
0.400000	-0.026389	-19.013854	-58.951014	67.572929	-58.951014	67.572929	-0.034768	-26.173665
0.450000	-0.029148	-21.367260	-58.019169	64.851878	-58.019169	64.851878	-0.038706	-29.377569
0.500000	-0.031864	-23.716323	-57.204533	62.158568	-57.204533	62.158568	-0.042594	-32.563656
0.550000	-0.034562	-26.060484	-56.486312	59.495654	-56.486312	59.495654	-0.046425	-35.730508
0.600000	-0.037258	-28.399194	-55.849071	56.865609	-55.849071	56.865609	-0.050193	-38.876768
0.650000	-0.039961	-30.731930	-55.280995	54.270592	-55.280995	54.270592	-0.053887	-42.001141
0.700000	-0.042676	-33.058201	-54.772833	51.712259	-54.772833	51.712259	-0.057502	-45.102398
0.750000	-0.045405	-35.377102	-54.318781	49.193997	-54.318781	49.193997	-0.061024	-48.177824
0.800000	-0.048146	-37.688199	-53.912730	46.716274	-53.912730	46.716274	-0.064449	-51.226337
0.850000	-0.050896	-39.991746	-53.547927	44.276823	-53.547927	44.276823	-0.067778	-54.249128
0.900000	-0.053653	-42.287331	-53.220963	41.878179	-53.220963	41.878179	-0.071008	-57.245065
0.950000	-0.056410	-44.573631	-52.931484	39.529552	-52.931484	39.529552	-0.074124	-60.209983
1.000000	-0.059163	-46.851088	-52.674421	37.231504	-52.674421	37.231504	-0.077134	-63.145626
1.050000	-0.061907	-49.119907	-52.446031	34.985268	-52.446031	34.985268	-0.080044	-66.052890
1.100000	-0.064637	-51.379524	-52.244893	32.796211	-52.244893	32.796211	-0.082849	-68.930146
1.150000	-0.067345	-53.629038	-52.070395	30.671962	-52.070395	30.671962	-0.085546	-71.774732
1.200000	-0.070025	-55.868550	-51.919899	28.613821	-51.919899	28.613821	-0.088139	-74.587244
1.250000	-0.072671	-58.098325	-51.790839	26.621938	-51.790839	26.621938	-0.090636	-77.368796
1.300000	-0.075274	-60.318241	-51.681696	24.699157	-51.681696	24.699157	-0.093042	-80.119279
1.350000	-0.077826	-62.528196	-51.591068	22.848446	-51.591068	22.848446	-0.095359	-82.838662
1.400000	-0.080313	-64.728091	-51.517634	21.072910	-51.517634	21.072910	-0.097593	-85.526991
1.450000	-0.082723	-66.917762	-51.460217	19.376282	-51.460217	19.376282	-0.099748	-88.184193
1.500000	-0.085029	-69.095993	-51.418959	17.770833	-51.418959	17.770833	-0.101819	-90.807271
1.550000	-0.087228	-71.263735	-51.390942	16.251252	-51.390942	16.251252	-0.103821	-93.399895
1.600000	-0.089321	-73.420772	-51.374928	14.820981	-51.374928	14.820981	-0.105757	-95.962377
1.650000	-0.091323	-75.566884	-51.369650	13.483423	-51.369650	13.483423	-0.107631	-98.495075
1.700000	-0.093270	-77.701269	-51.374278	12.247720	-51.374278	12.247720	-0.109443	-100.996689
1.750000	-0.095218	-79.824766	-51.386715	11.110107	-51.386715	11.110107	-0.111202	-103.469806
1.800000	-0.097208	-81.937272	-51.405756	10.076283	-51.405756	10.076283	-0.112908	-105.914057
1.850000	-0.099262	-84.039131	-51.429829	9.148690	-51.429829	9.148690	-0.114566	-108.329974
1.900000	-0.101382	-86.130704	-51.457276	8.329162	-51.457276	8.329162	-0.116179	-110.718118
1.950000	-0.103551	-88.212286	-51.486357	7.618759	-51.486357	7.618759	-0.117748	-113.079072
2.000000	-0.105748	-90.284093	-51.515252	7.017584	-51.515252	7.017584	-0.119278	-115.413439
2.050000	-0.107955	-92.346285	-51.542078	6.524596	-51.542078	6.524596	-0.120770	-117.721837
2.100000	-0.110160	-94.398991	-51.564903	6.137431	-51.564903	6.137431	-0.122229	-120.004901
2.150000	-0.112353	-96.442337	-51.581780	5.852227	-51.581780	5.852227	-0.123655	-122.263271
2.200000	-0.114530	-98.476456	-51.590780	5.663499	-51.590780	5.663499	-0.125053	-124.497599
2.250000	-0.116690	-100.501498	-51.590038	5.564044	-51.590038	5.564044	-0.126425	-126.708538
2.300000	-0.118833	-102.517630	-51.577800	5.544926	-51.577800	5.544926	-0.127774	-128.896746
2.350000	-0.120961	-104.525036	-51.552480	5.595529	-51.552480	5.595529	-0.129102	-131.062882
2.400000	-0.123075	-106.523915	-51.512711	5.703710	-51.512711	5.703710	-0.130413	-133.207604
2.450000	-0.125179	-108.514481	-51.457392	5.856032	-51.457392	5.856032	-0.131710	-135.331565
2.500000	-0.127273	-110.496964	-51.385732	6.038089	-51.385732	6.038089	-0.132996	-137.435416
2.550000	-0.129362	-112.471276	-51.296490	6.234821	-51.296490	6.234821	-0.134274	-139.518988
2.600000	-0.131448	-114.438020	-51.190326	6.429831	-51.190326	6.429831	-0.135548	-141.583792
2.650000	-0.133533	-116.397461	-51.067511	6.608399	-51.067511	6.608399	-0.136822	-143.630458
2.700000	-0.135621	-118.349875	-50.928634	6.756590	-50.928634	6.756590	-0.138098	-145.659607
2.750000	-0.137713	-120.295543	-50.774564	6.861611	-50.774564	6.861611	-0.139381	-147.671851
2.800000	-0.139812	-122.234758	-50.606404	6.912081	-50.606404	6.912081	-0.140674	-149.667793
2.850000	-0.141920	-124.167822	-50.425439	6.898209	-50.425439	6.898209	-0.141980	-151.648024
2.900000	-0.144040	-126.095042	-50.233077	6.811892	-50.233077	6.811892	-0.143302	-153.613125
2.950000	-0.146173	-128.016734	-50.030801	6.646718	-50.030801	6.646718	-0.144644	-155.563664
3.000000	-0.148322	-129.933223	-49.820118	6.397906	-49.820118	6.397906	-0.146009	-157.500201
3.050000	-0.150489	-131.844839	-49.602516	6.062187	-49.602516	6.062187	-0.147398	-159.423281
3.100000	-0.152675	-133.751918	-49.379436	5.637650	-49.379436	5.637650	-0.148815	-161.333441
3.150000	-0.154882	-135.654806	-49.152242	5.123567	-49.152242	5.123567	-0.150260	-163.231204
3.200000	-0.157112	-137.553851	-48.922205	4.520206	-48.922205	4.520206	-0.151736	-165.117084
3.250000	-0.159367	-139.449411	-48.690494	3.828649	-48.690494	3.828649	-0.153244	-166.991584
3.300000	-0.161648	-141.341848	-48.458167	3.050624	-48.458167	3.050624	-0.154783	-168.855196
3.350000	-0.163957	-143.231530	-48.226172	2.188346	-48.226172	2.188346	-0.156355	-170.708405
3.400000	-0.166294	-145.118830	-47.995351	1.244383	-47.995351	1.244383	-0.157957	-172.551686
3.450000	-0.168663	-147.004129	-47.766444	0.221536	-47.766444	0.221536	-0.159590	-174.385505
3.500000	-0.171063	-148.887812	-47.540096	-0.877255	-47.540096	-0.877255	-0.161251	-176.210323
3.550000	-0.173497	-150.770269	-47.316866	-2.048997	-47.316866	-2.048997	-0.162940	-178.026592
3.600000	-0.175965	-152.651895	-47.097232	-3.290705	-47.097232	-3.290705	-0.164653	-179.834758
3.650000	-0.178468	-154.533092	-46.881602	-4.599454	-46.881602	-4.599454	-0.166388	178.364737
3.700000	-0.181009	-156.414267	-46.670322	-5.972415	-46.670322	-5.972415	-0.168143	176.571460
3.750000	-0.183587	-158.295832	-46.463683	-7.406889	-46.463683	-7.406889	-0.169916	174.784980
3.800000	-0.186206	-160.178257	-46.261950	-8.902773	-46.261950	-8.902773	-0.171704	173.005131
3.850000	-0.188865	-162.061949	-46.065337	-10.455024	-46.065337	-10.455024	-0.173504	171.231199
3.900000	-0.191565	-163.947337	-45.874004	-12.061445	-45.874004	-12.061445	-0.175315	169.462771
3.950000	-0.194307	-165.834853	-45.688081	-13.720015	-45.688081	-13.720015	-0.177134	167.699442
4.000000	-0.197092	-167.724936	-45.507671	-15.428889	-45.507671	-15.428889	-0.178961	165.940811
4.050000	-0.199921	-169.618030	-45.332857	-17.186398	-45.332857	-17.186398	-0.180794	164.186485
4.100000	-0.202794	-171.514584	-45.163704	-18.991045	-45.163704	-18.991045	-0.182632	162.436075
4.150000	-0.205713	-173.415052	-45.000259	-20.841504	-45.000259	-20.841504	-0.184476	160.689204
4.200000	-0.208679	-175.319895	-44.842558	-22.736617	-44.842558	-22.736617	-0.186326	158.945497
4.250000	-0.211691	-177.229578	-44.690627	-24.675388	-44.690627	-24.675388	-0.188181	157.204592
4.300000	-0.214752	-179.144571	-44.544480	-26.656980	-44.544480	-26.656980	-0.190043	155.466129
4.350000	-0.217861	178.934649	-44.404127	-28.680711	-44.404127	-28.680711	-0.191913	153.729761
4.400000	-0.221020	177.007600	-44.269570	-30.746052	-44.269570	-30.746052	-0.193791	151.995145
4.450000	-0.224229	175.073796	-44.140808	-32.852623	-44.140808	-32.852623	-0.195680	150.261948
4.500000	-0.227489	173.132741	-44.017832	-35.000190	-44.017832	-35.000190	-0.197580	148.529842
4.550000	-0.230801	171.183939	-43.900633	-37.188665	-43.900633	-37.188665	-0.199494	146.798509
4.600000	-0.234165	169.226884	-43.789198	-39.418105	-43.789198	-39.418105	-0.201423	145.067637
4.650000	-0.237583	167.261066	-43.683509	-41.688708	-43.683509	-41.688708	-0.203369	143.336919
4.700000	-0.241055	165.285968	-43.583547	-44.000819	-43.583547	-44.000819	-0.205333	141.606057
4.750000	-0.244583	163.301069	-43.489289	-46.354925	-43.489289	-46.354925	-0.207317	139.874757
4.800000	-0.248166	161.305841	-43.400708	-48.751663	-43.400708	-48.751663	-0.209322	138.142733
4.850000	-0.251805	159.299751	-43.317776	-51.191817	-43.317776	-51.191817	-0.211352	136.409701
4.900000	-0.255503	157.282259	-43.240455	-53.676322	-43.240455	-53.676322	-0.213406	134.675385
4.950000	-0.259259	155.252820	-43.168707	-56.206270	-43.168707	-56.206270	-0.215486	132.939511
5.000000	-0.263075	153.210884	-43.102484	-58.782915	-43.102484	-58.782915	-0.217595	131.201809
5.050000	-0.266953	151.155300	-43.041950	-61.409838	-43.041950	-61.409838	-0.219734	129.461912
5.100000	-0.270894	149.086050	-42.986819	-64.086622	-42.986819	-64.086622	-0.221904	127.719635
5.150000	-0.274897	147.002566	-42.937013	-66.815053	-42.937013	-66.815053	-0.224106	125.974719
5.200000	-0.278965	144.904276	-42.892438	-69.597100	-42.892438	-69.597100	-0.226343	124.226904
5.250000	-0.283097	142.790601	-42.852982	-72.434919	-42.852982	-72.434919	-0.228614	122.475933
5.300000	-0.287297	140.660961	-42.818515	-75.330859	-42.818515	-75.330859	-0.230921	120.721549
5.350000	-0.291565	138.514769	-42.788882	-78.287464	-42.788882	-78.287464	-0.233267	118.963495
5.400000	-0.295902	136.351434	-42.763898	-81.307476	-42.763898	-81.307476	-0.235652	117.201512
5.450000	-0.300312	134.170363	-42.743347	-84.393837	-42.743347	-84.393837	-0.238078	115.435339
5.500000	-0.304794	131.970960	-42.726975	-87.549685	-42.726975	-87.549685	-0.240548	113.664713
5.550000	-0.309352	129.752623	-42.714482	-90.778349	-42.714482	-90.778349	-0.243062	111.889368
5.600000	-0.313986	127.514752	-42.705517	-94.083340	-42.705517	-94.083340	-0.245623	110.109032
5.650000	-0.318701	125.256744	-42.699673	-97.468327	-42.699673	-97.468327	-0.248233	108.323425
5.700000	-0.323497	122.977994	-42.696471	-100.937120	-42.696471	-100.937120	-0.250895	106.532263
5.750000	-0.328377	120.677898	-42.695362	-104.493630	-42.695362	-104.493630	-0.253612	104.735250
5.800000	-0.333345	118.355853	-42.695708	-108.141826	-42.695708	-108.141826	-0.256387	102.932081
5.850000	-0.338403	116.011256	-42.696779	-111.885667	-42.696779	-111.885667	-0.259224	101.122436
5.900000	-0.343554	113.643508	-42.697744	-115.729033	-42.697744	-115.729033	-0.262127	99.305983
5.950000	-0.348801	111.252014	-42.697659	-119.675625	-42.697659	-119.675625	-0.265101	97.482371
6.000000	-0.354149	108.836181	-42.695461	-123.728851	-42.695461	-123.728851	-0.268152	95.651226
6.050000	-0.359601	106.395425	-42.689968	-127.891684	-42.689968	-127.891684	-0.271284	93.812155
6.100000	-0.365160	103.929167	-42.679871	-132.166511	-42.679871	-132.166511	-0.274506	91.964734
6.150000	-0.370833	101.436837	-42.663741	-136.554952	-42.663741	-136.554952	-0.277825	90.108509
6.200000	-0.376623	98.917875	-42.640039	-141.057666	-42.640039	-141.057666	-0.281250	88.242989
6.250000	-0.382535	96.371734	-42.607128	-145.674157	-42.607128	-145.674157	-0.284792	86.367641
6.300000	-0.388580	93.796648	-42.562728	-150.407272	-42.562728	-150.407272	-0.288469	84.481400
6.350000	-0.394759	91.193281	-42.505485	-155.248445	-42.505485	-155.248445	-0.292289	82.584048
6.400000	-0.401078	88.561132	-42.433650	-160.192364	-42.433650	-160.192364	-0.296269	80.674870
6.450000	-0.407543	85.899720	-42.345532	-165.231954	-42.345532	-165.231954	-0.300425	78.753074
6.500000	-0.414161	83.208582	-42.239554	-170.358387	-42.239554	-170.358387	-0.304781	76.817778
6.550000	-0.420939	80.487281	-42.114316	-175.561183	-42.114316	-175.561183	-0.309360	74.867996
6.600000	-0.427884	77.735404	-41.968644	179.171575	-41.968644	179.171575	-0.314190	72.902617
6.650000	-0.435005	74.952565	-41.801649	173.852942	-41.801649	173.852942	-0.319305	70.920385
6.700000	-0.442290	72.141767	-41.615590	168.499342	-41.615590	168.499342	-0.324706	68.921972
6.750000	-0.449792	69.294994	-41.403810	163.117853	-41.403810	163.117853	-0.330522	66.901068
6.800000	-0.457489	66.417359	-41.170955	157.727173	-41.170955	157.727173	-0.336748	64.859145
6.850000	-0.465387	63.508784	-40.917645	152.339547	-40.917645	152.339547	-0.343439	62.794332
6.900000	-0.473525	60.564896	-40.640981	146.968671	-40.640981	146.968671	-0.350745	60.700814
6.950000	-0.481876	57.590853	-40.346748	141.621776	-40.346748	141.621776	-0.358660	58.580208
7.000000	-0.490476	54.582826	-40.032873	136.310224	-40.032873	136.310224	-0.367374	56.425715
7.050000	-0.499329	51.541572	-39.701553	131.039300	-39.701553	131.039300	-0.377009	54.234107
7.100000	-0.508425	48.469908	-39.356743	125.808791	-39.356743	125.808791	-0.387637	52.004378
7.150000	-0.517822	45.361577	-38.994515	120.628109	-38.994515	120.628109	-0.399706	49.722136
7.200000	-0.527485	42.222553	-38.621505	115.487565	-38.621505	115.487565	-0.413244	47.389282
7.250000	-0.537440	39.051058	-38.237460	110.385215	-38.237460	110.385215	-0.428667	44.994787
7.300000	-0.547715	35.845081	-37.841923	105.315571	-37.841923	105.315571	-0.446571	42.523634
7.350000	-0.558283	32.609149	-37.439684	100.264689	-37.439684	100.264689	-0.467177	39.973909
7.400000	-0.569199	29.338860	-37.027888	95.219874	-37.027888	95.219874	-0.491730	37.316248
7.450000	-0.580443	26.037342	-36.609848	90.161986	-36.609848	90.161986	-0.520938	34.539619
7.500000	-0.592013	22.706032	-36.187232	85.069650	-36.187232	85.069650	-0.555924	31.624993
7.550000	-0.603971	19.340391	-35.756650	79.901678	-35.756650	79.901678	-0.599904	28.511004
7.600000	-0.616262	15.946421	-35.323559	74.631940	-35.323559	74.631940	-0.654165	25.187788
7.650000	-0.628923	12.521604	-34.886398	69.195446	-34.886398	69.195446	-0.724059	21.572135
7.700000	-0.641939	9.068002	-34.447970	63.534465	-34.447970	63.534465	-0.814695	17.602792
7.750000	-0.655325	5.584411	-34.009664	57.530785	-34.009664	57.530785	-0.937762	13.134934
7.800000	-0.669064	2.071989	-33.577590	51.041623	-33.577590	51.041623	-1.110019	7.997111
7.850000	-0.683123	-1.467928	-33.162880	43.876849	-33.162880	43.876849	-1.358295	1.952765
7.900000	-0.697467	-5.035543	-32.788034	35.710578	-32.788034	35.710578	-1.736351	-5.426848
7.950000	-0.712030	-8.630189	-32.499542	26.101061	-32.499542	26.101061	-2.341176	-14.770994
8.000000	-0.726737	-12.252455	-32.400559	14.359262	-32.400559	14.359262	-3.379519	-27.223251
8.050000	-0.741578	-15.903541	-32.710762	-0.374229	-32.710762	-0.374229	-5.296741	-44.912088
8.100000	-0.756873	-19.585683	-33.882628	-18.850511	-33.882628	-18.850511	-9.106600	-73.725060
8.150000	-0.773492	-23.298830	-36.780510	-41.025517	-36.780510	-41.025517	-14.944455	-144.941405
8.200000	-0.792092	-27.036271	-43.404605	-67.926051	-43.404605	-67.926051	-10.238659	130.378960
8.250000	-0.812115	-30.791103	-54.719395	153.310644	-54.719395	153.310644	-5.920368	97.737403
8.300000	-0.832710	-34.563425	-41.906607	100.584597	-41.906607	100.584597	-3.769425	78.778207
8.350000	-0.853623	-38.356409	-37.463709	85.314252	-37.463709	85.314252	-2.624385	65.651271
8.400000	-0.874991	-42.172356	-34.951396	74.732339	-34.951396	74.732339	-1.966307	55.837516
8.450000	-0.897092	-46.013236	-33.205945	66.421352	-33.205945	66.421352	-1.566041	48.118808
8.500000	-0.920305	-49.881306	-31.817654	59.497545	-31.817654	59.497545	-1.312607	41.783081
8.550000	-0.945209	-53.779822	-30.588565	53.463627	-30.588565	53.463627	-1.148993	36.378598
8.600000	-0.972675	-57.712573	-29.402713	47.955651	-29.402713	47.955651	-1.044466	31.589694
8.650000	-1.004346	-61.686600	-28.170622	42.661302	-28.170622	42.661302	-0.986156	27.210140
8.700000	-1.044172	-65.715938	-26.779055	37.133816	-26.779055	37.133816	-0.976136	23.078516
8.750000	-1.100981	-69.814197	-25.101647	30.503363	-25.101647	30.503363	-1.034623	19.023350
8.800000	-1.199986	-73.963058	-22.954564	20.562275	-22.954564	20.562275	-1.242298	14.964494
8.850000	-1.399113	-77.764550	-20.383209	1.271683	-20.383209	1.271683	-1.829815	12.010770
8.900000	-1.543067	-79.664738	-19.471900	-35.631478	-19.471900	-35.631478	-2.335122	16.378678
8.950000	-1.306041	-82.521786	-22.846716	-66.608095	-22.846716	-66.608095	-1.404651	17.681517
9.000000	-1.185199	-86.878530	-26.936673	-75.429469	-26.936673	-75.429469	-0.917884	13.816376
9.050000	-1.156454	-91.236850	-29.983580	-72.339559	-29.983580	-72.339559	-0.744926	10.147258
9.100000	-1.157824	-95.483121	-31.787530	-64.367412	-31.787530	-64.367412	-0.672847	6.973375
9.150000	-1.169718	-99.663169	-32.582890	-56.006174	-32.582890	-56.006174	-0.637530	4.119410
9.200000	-1.186130	-103.807547	-32.706858	-49.505984	-32.706858	-49.505984	-0.619471	1.480112
9.250000	-1.204570	-107.935672	-32.495450	-45.274544	-32.495450	-45.274544	-0.610444	-1.013824
9.300000	-1.223937	-112.059044	-32.149094	-42.839346	-32.149094	-42.839346	-0.606662	-3.407531
9.350000	-1.243760	-116.184046	-31.754882	-41.746061	-31.754882	-41.746061	-0.606505	-5.725142
9.400000	-1.263756	-120.316425	-31.354831	-41.681057	-31.354831	-41.681057	-0.609251	-7.979332
9.450000	-1.283753	-124.458933	-30.968240	-42.257210	-30.968240	-42.257210	-0.614063	-10.189759
9.500000	-1.303646	-128.615582	-30.600484	-43.339948	-30.600484	-43.339948	-0.620833	-12.362367
9.550000	-1.323392	-132.787296	-30.251830	-44.749334	-30.251830	-44.749334	-0.629192	-14.508813
9.600000	-1.342920	-136.979739	-29.921083	-46.447018	-29.921083	-46.447018	-0.639358	-16.631776
9.650000	-1.362262	-141.191635	-29.604529	-48.329588	-29.604529	-48.329588	-0.651016	-18.740917
9.700000	-1.381388	-145.429655	-29.299611	-50.404429	-29.299611	-50.404429	-0.664518	-20.839541
9.750000	-1.400363	-149.693328	-29.005775	-52.643444	-29.005775	-52.643444	-0.679747	-22.933942
9.800000	-1.419235	-153.988144	-28.726944	-55.056313	-28.726944	-55.056313	-0.697028	-25.029112
9.850000	-1.438108	-158.317230	-28.468329	-57.610500	-28.468329	-57.610500	-0.716567	-27.130285
9.900000	-1.457125	-162.683472	-28.231457	-60.249767	-28.231457	-60.249767	-0.738596	-29.242637
9.950000	-1.476514	-167.095919	-28.015128	-62.935409	-28.015128	-62.935409	-0.763808	-31.373606
10.000000	-1.496482	-171.553156	-27.813462	-65.640187	-27.813462	-65.640187	-0.792239	-33.526357
