! freq	dB(S11)	phase(S11)	dB(S12)	phase(S12)	
!     	dB(S21)	phase(S21)	dB(S22)	phase(S22)	
!S-par simulation data
#  GHz  S  DB  R 50
0.000000	-0.000000	0.000000	-347.189183	0.000000	-347.189183	0.000000	-0.000000	0.000000
0.050000	-0.000647	-1.053277	-99.356911	88.350184	-99.356911	88.350184	-0.001369	-2.101931
0.100000	-0.002226	-2.101980	-93.366438	86.948389	-93.366438	86.948389	-0.004616	-4.193267
0.150000	-0.004100	-3.145336	-89.889680	85.489359	-89.889680	85.489359	-0.008328	-6.272627
0.200000	-0.005899	-4.185036	-87.453883	84.016674	-87.453883	84.016674	-0.011792	-8.343839
0.250000	-0.007517	-5.222694	-85.599687	82.547541	-85.599687	82.547541	-0.014865	-10.410035
0.300000	-0.008968	-6.259380	-84.122682	81.095833	-84.122682	81.095833	-0.017631	-12.472986
0.350000	-0.010305	-7.295614	-82.911614	79.672651	-82.911614	79.672651	-0.020215	-14.533400
0.400000	-0.011567	-8.331550	-81.901815	78.288913	-81.901815	78.288913	-0.022700	-16.591256
0.450000	-0.012783	-9.367172	-81.054283	76.957987	-81.054283	76.957987	-0.025140	-18.646128
0.500000	-0.013976	-10.402417	-80.337665	75.688638	-80.337665	75.688638	-0.027569	-20.697747
0.550000	-0.015159	-11.437179	-79.732137	74.492658	-79.732137	74.492658	-0.030001	-22.745672
0.600000	-0.016340	-12.471314	-79.226284	73.388029	-79.226284	73.388029	-0.032445	-24.789234
0.650000	-0.017526	-13.504726	-78.807308	72.387761	-78.807308	72.387761	-0.034901	-26.828116
0.700000	-0.018720	-14.537321	-78.466696	71.508889	-78.466696	71.508889	-0.037365	-28.861937
0.750000	-0.019923	-15.568971	-78.200425	70.777798	-78.200425	70.777798	-0.039834	-30.890111
0.800000	-0.021138	-16.599588	-78.003767	70.221735	-78.003767	70.221735	-0.042303	-32.912245
0.850000	-0.022364	-17.629101	-77.872379	69.871590	-77.872379	69.871590	-0.044767	-34.928035
0.900000	-0.023601	-18.657440	-77.803124	69.766597	-77.803124	69.766597	-0.047222	-36.937153
0.950000	-0.024849	-19.684533	-77.793434	69.956401	-77.793434	69.956401	-0.049664	-38.939251
1.000000	-0.026107	-20.710318	-77.840136	70.500920	-77.840136	70.500920	-0.052089	-40.934027
1.050000	-0.027374	-21.734741	-77.938964	71.473113	-77.938964	71.473113	-0.054494	-42.921203
1.100000	-0.028648	-22.757747	-78.083521	72.960508	-78.083521	72.960508	-0.056876	-44.900525
1.150000	-0.029929	-23.779291	-78.263785	75.064998	-78.263785	75.064998	-0.059234	-46.871756
1.200000	-0.031215	-24.799326	-78.464084	77.898543	-78.464084	77.898543	-0.061566	-48.834682
1.250000	-0.032506	-25.817811	-78.660658	81.570829	-78.660658	81.570829	-0.063871	-50.789106
1.300000	-0.033800	-26.834672	-78.817598	86.183939	-78.817598	86.183939	-0.066147	-52.734657
1.350000	-0.035096	-27.849906	-78.890046	91.723235	-78.890046	91.723235	-0.068394	-54.671360
1.400000	-0.036393	-28.863479	-78.827671	98.065090	-78.827671	98.065090	-0.070614	-56.599071
1.450000	-0.037691	-29.875358	-78.586406	104.928746	-78.586406	104.928746	-0.072805	-58.517660
1.500000	-0.038989	-30.885510	-78.143240	111.907032	-78.143240	111.907032	-0.074969	-60.427016
1.550000	-0.040286	-31.893908	-77.505336	118.564083	-77.505336	118.564083	-0.077105	-62.327038
1.600000	-0.041582	-32.900521	-76.706549	124.549466	-76.706549	124.549466	-0.079216	-64.217640
1.650000	-0.042877	-33.905323	-75.794131	129.663012	-75.794131	129.663012	-0.081302	-66.098751
1.700000	-0.044170	-34.908287	-74.814843	133.850377	-74.814843	133.850377	-0.083364	-67.970309
1.750000	-0.045461	-35.909388	-73.806762	137.157827	-73.806762	137.157827	-0.085403	-69.832267
1.800000	-0.046749	-36.908601	-72.797125	139.682602	-72.797125	139.682602	-0.087421	-71.684588
1.850000	-0.048036	-37.905901	-71.803625	141.537305	-71.803625	141.537305	-0.089420	-73.527248
1.900000	-0.049321	-38.901246	-70.836025	142.825175	-70.836025	142.825175	-0.091399	-75.360126
1.950000	-0.050605	-39.894612	-69.900292	143.644359	-69.900292	143.644359	-0.093362	-77.183219
2.000000	-0.051887	-40.885998	-68.999697	144.080423	-68.999697	144.080423	-0.095309	-78.996640
2.050000	-0.053168	-41.875384	-68.134693	144.198852	-68.134693	144.198852	-0.097242	-80.800403
2.100000	-0.054448	-42.862749	-67.304609	144.053071	-67.304609	144.053071	-0.099163	-82.594537
2.150000	-0.055727	-43.848074	-66.508149	143.686505	-66.508149	143.686505	-0.101072	-84.379074
2.200000	-0.057007	-44.831341	-65.743696	143.134473	-65.743696	143.134473	-0.102972	-86.154059
2.250000	-0.058287	-45.812530	-65.009505	142.425777	-65.009505	142.425777	-0.104863	-87.919542
2.300000	-0.059568	-46.791626	-64.303813	141.584009	-64.303813	141.584009	-0.106748	-89.675585
2.350000	-0.060851	-47.768611	-63.624906	140.628592	-63.624906	140.628592	-0.108627	-91.422252
2.400000	-0.062135	-48.743468	-62.971152	139.575606	-62.971152	139.575606	-0.110502	-93.159620
2.450000	-0.063423	-49.716184	-62.341020	138.438441	-62.341020	138.438441	-0.112374	-94.887768
2.500000	-0.064713	-50.686742	-61.733083	137.228312	-61.733083	137.228312	-0.114244	-96.606786
2.550000	-0.066007	-51.655082	-61.145617	135.953471	-61.145617	135.953471	-0.116113	-98.316574
2.600000	-0.067306	-52.621238	-60.577871	134.623420	-60.577871	134.623420	-0.117983	-100.017430
2.650000	-0.068610	-53.585196	-60.028715	133.244906	-60.028715	133.244906	-0.119854	-101.709461
2.700000	-0.069919	-54.546946	-59.497110	131.823712	-59.497110	131.823712	-0.121728	-103.392779
2.750000	-0.071235	-55.506355	-58.981344	130.362940	-58.981344	130.362940	-0.123606	-105.067038
2.800000	-0.072557	-56.463631	-58.481963	128.870553	-58.481963	128.870553	-0.125489	-106.733202
2.850000	-0.073887	-57.418667	-57.997503	127.348577	-57.997503	127.348577	-0.127377	-108.391022
2.900000	-0.075224	-58.371455	-57.527216	125.800276	-57.527216	125.800276	-0.129272	-110.040628
2.950000	-0.076571	-59.321988	-57.070409	124.228513	-57.070409	124.228513	-0.131174	-111.682155
3.000000	-0.077926	-60.270257	-56.626443	122.635811	-56.626443	122.635811	-0.133084	-113.315743
3.050000	-0.079291	-61.216258	-56.194726	121.024401	-56.194726	121.024401	-0.135004	-114.941532
3.100000	-0.080667	-62.159984	-55.774708	119.396265	-55.774708	119.396265	-0.136933	-116.559670
3.150000	-0.082054	-63.101432	-55.365877	117.753168	-55.365877	117.753168	-0.138873	-118.170305
3.200000	-0.083452	-64.040596	-54.967759	116.096688	-54.967759	116.096688	-0.140824	-119.773587
3.250000	-0.084863	-64.977475	-54.579910	114.428241	-54.579910	114.428241	-0.142787	-121.369672
3.300000	-0.086286	-65.912065	-54.201916	112.749103	-54.201916	112.749103	-0.144762	-122.958715
3.350000	-0.087722	-66.844366	-53.833389	111.060425	-53.833389	111.060425	-0.146751	-124.540876
3.400000	-0.089172	-67.774376	-53.473966	109.363250	-53.473966	109.363250	-0.148753	-126.116314
3.450000	-0.090637	-68.702097	-53.123307	107.658524	-53.123307	107.658524	-0.150770	-127.685194
3.500000	-0.092116	-69.627528	-52.781091	105.947109	-52.781091	105.947109	-0.152802	-129.247679
3.550000	-0.093611	-70.550672	-52.447016	104.229794	-52.447016	104.229794	-0.154850	-130.803934
3.600000	-0.095122	-71.471532	-52.120799	102.507296	-52.120799	102.507296	-0.156913	-132.354128
3.650000	-0.096649	-72.390110	-51.802169	100.780277	-51.802169	100.780277	-0.158993	-133.898427
3.700000	-0.098194	-73.306411	-51.490874	99.049342	-51.490874	99.049342	-0.161090	-135.437001
3.750000	-0.099756	-74.220440	-51.186673	97.315050	-51.186673	97.315050	-0.163204	-136.970021
3.800000	-0.101337	-75.132104	-50.889193	95.577810	-50.889193	95.577810	-0.165337	-138.497431
3.850000	-0.102936	-76.041509	-50.598383	93.838238	-50.598383	93.838238	-0.167488	-140.019643
3.900000	-0.104555	-76.948662	-50.314034	92.096766	-50.314034	92.096766	-0.169657	-141.536830
3.950000	-0.106193	-77.853572	-50.035948	90.353792	-50.035948	90.353792	-0.171845	-143.049164
4.000000	-0.107852	-78.756246	-49.763936	88.609684	-49.763936	88.609684	-0.174053	-144.556817
4.050000	-0.109531	-79.656696	-49.497820	86.864784	-49.497820	86.864784	-0.176279	-146.059961
4.100000	-0.111232	-80.554931	-49.237426	85.119406	-49.237426	85.119406	-0.178526	-147.558768
4.150000	-0.112954	-81.450963	-48.982590	83.373838	-48.982590	83.373838	-0.180792	-149.053411
4.200000	-0.114699	-82.344803	-48.733157	81.628349	-48.733157	81.628349	-0.183078	-150.544062
4.250000	-0.116466	-83.236464	-48.488974	79.883183	-48.488974	79.883183	-0.185385	-152.030891
4.300000	-0.118256	-84.125959	-48.249899	78.138567	-48.249899	78.138567	-0.187712	-153.514071
4.350000	-0.120069	-85.013304	-48.015793	76.394707	-48.015793	76.394707	-0.190059	-154.993771
4.400000	-0.121907	-85.898511	-47.786523	74.651791	-47.786523	74.651791	-0.192427	-156.470162
4.450000	-0.123770	-86.781598	-47.561963	72.909992	-47.561963	72.909992	-0.194815	-157.943413
4.500000	-0.125657	-87.662579	-47.341990	71.169465	-47.341990	71.169465	-0.197224	-159.413692
4.550000	-0.127570	-88.541472	-47.126487	69.430350	-47.126487	69.430350	-0.199653	-160.881167
4.600000	-0.129509	-89.418295	-46.915343	67.692775	-46.915343	67.692775	-0.202103	-162.346004
4.650000	-0.131475	-90.293066	-46.708449	65.956851	-46.708449	65.956851	-0.204574	-163.808370
4.700000	-0.133467	-91.165803	-46.505701	64.222679	-46.505701	64.222679	-0.207064	-165.268430
4.750000	-0.135487	-92.036527	-46.307000	62.490344	-46.307000	62.490344	-0.209575	-166.726346
4.800000	-0.137535	-92.905257	-46.112250	60.759925	-46.112250	60.759925	-0.212106	-168.182281
4.850000	-0.139610	-93.772014	-45.921360	59.031484	-45.921360	59.031484	-0.214657	-169.636396
4.900000	-0.141715	-94.636821	-45.734242	57.305077	-45.734242	57.305077	-0.217227	-171.088851
4.950000	-0.143849	-95.499699	-45.550812	55.580749	-45.550812	55.580749	-0.219817	-172.539805
5.000000	-0.146013	-96.360670	-45.370989	53.858536	-45.370989	53.858536	-0.222425	-173.989414
5.050000	-0.148208	-97.219679	-45.194694	52.138560	-45.194694	52.138560	-0.225053	-175.437789
5.100000	-0.150433	-98.076831	-45.021862	50.420748	-45.021862	50.420748	-0.227698	-176.885143
5.150000	-0.152690	-98.932152	-44.852420	48.705113	-44.852420	48.705113	-0.230362	-178.331628
5.200000	-0.154978	-99.785667	-44.686302	46.991661	-44.686302	46.991661	-0.233043	-179.777394
5.250000	-0.157298	-100.637402	-44.523444	45.280392	-44.523444	45.280392	-0.235741	178.777410
5.300000	-0.159650	-101.487384	-44.363785	43.571302	-44.363785	43.571302	-0.238454	177.332638
5.350000	-0.162035	-102.335639	-44.207266	41.864383	-44.207266	41.864383	-0.241184	175.888144
5.400000	-0.164454	-103.182197	-44.053831	40.159624	-44.053831	40.159624	-0.243928	174.443786
5.450000	-0.166905	-104.027085	-43.903430	38.457009	-43.903430	38.457009	-0.246687	172.999422
5.500000	-0.169391	-104.870332	-43.756013	36.756523	-43.756013	36.756523	-0.249460	171.554914
5.550000	-0.171912	-105.711968	-43.611532	35.058147	-43.611532	35.058147	-0.252246	170.110125
5.600000	-0.174467	-106.552023	-43.469945	33.361864	-43.469945	33.361864	-0.255044	168.664920
5.650000	-0.177058	-107.390529	-43.331211	31.667656	-43.331211	31.667656	-0.257853	167.219166
5.700000	-0.179684	-108.227516	-43.195289	29.975505	-43.195289	29.975505	-0.260674	165.772735
5.750000	-0.182347	-109.063016	-43.062146	28.285396	-43.062146	28.285396	-0.263504	164.325498
5.800000	-0.185046	-109.897063	-42.931747	26.597316	-42.931747	26.597316	-0.266343	162.877330
5.850000	-0.187782	-110.729689	-42.804060	24.911255	-42.804060	24.911255	-0.269190	161.428108
5.900000	-0.190555	-111.560928	-42.679058	23.227208	-42.679058	23.227208	-0.272044	159.977713
5.950000	-0.193366	-112.390814	-42.556713	21.545173	-42.556713	21.545173	-0.274904	158.526026
6.000000	-0.196215	-113.219384	-42.437001	19.865155	-42.437001	19.865155	-0.277770	157.072934
6.050000	-0.199103	-114.046671	-42.319899	18.187164	-42.319899	18.187164	-0.280640	155.618325
6.100000	-0.202030	-114.872713	-42.205388	16.511217	-42.205388	16.511217	-0.283512	154.162089
6.150000	-0.204996	-115.697545	-42.093447	14.837340	-42.093447	14.837340	-0.286387	152.704122
6.200000	-0.208001	-116.521206	-41.984061	13.165566	-41.984061	13.165566	-0.289263	151.244320
6.250000	-0.211047	-117.343734	-41.877214	11.495938	-41.877214	11.495938	-0.292139	149.782584
6.300000	-0.214135	-118.165121	-41.772948	9.828606	-41.772948	9.828606	-0.295013	148.318724
6.350000	-0.217263	-118.985456	-41.671200	8.163542	-41.671200	8.163542	-0.297885	146.852733
6.400000	-0.220433	-119.804778	-41.571958	6.500820	-41.571958	6.500820	-0.300753	145.384521
6.450000	-0.223644	-120.623129	-41.475212	4.840528	-41.475212	4.840528	-0.303616	143.914003
6.500000	-0.226898	-121.440550	-41.380955	3.182765	-41.380955	3.182765	-0.306473	142.441097
6.550000	-0.230194	-122.257082	-41.289176	1.527645	-41.289176	1.527645	-0.309323	140.965724
6.600000	-0.233532	-123.072768	-41.199871	-0.124706	-41.199871	-0.124706	-0.312164	139.487811
6.650000	-0.236914	-123.887651	-41.113031	-1.774150	-41.113031	-1.774150	-0.314996	138.007286
6.700000	-0.240339	-124.701774	-41.028652	-3.420530	-41.028652	-3.420530	-0.317817	136.524084
6.750000	-0.243807	-125.515183	-40.946727	-5.063677	-40.946727	-5.063677	-0.320626	135.038143
6.800000	-0.247320	-126.327922	-40.867253	-6.703406	-40.867253	-6.703406	-0.323423	133.549403
6.850000	-0.250878	-127.140037	-40.790223	-8.339516	-40.790223	-8.339516	-0.326204	132.057811
6.900000	-0.254480	-127.951575	-40.715632	-9.971790	-40.715632	-9.971790	-0.328971	130.563317
6.950000	-0.258128	-128.762583	-40.643477	-11.599995	-40.643477	-11.599995	-0.331721	129.065877
7.000000	-0.261821	-129.573108	-40.573751	-13.223880	-40.573751	-13.223880	-0.334453	127.565450
7.050000	-0.265561	-130.383200	-40.506450	-14.843178	-40.506450	-14.843178	-0.337167	126.062001
7.100000	-0.269347	-131.192908	-40.441567	-16.457604	-40.441567	-16.457604	-0.339861	124.555497
7.150000	-0.273179	-132.002282	-40.379096	-18.066856	-40.379096	-18.066856	-0.342534	123.045913
7.200000	-0.277059	-132.811373	-40.319031	-19.670615	-40.319031	-19.670615	-0.345186	121.533229
7.250000	-0.280986	-133.620232	-40.261365	-21.268543	-40.261365	-21.268543	-0.347815	120.017426
7.300000	-0.284961	-134.428913	-40.206090	-22.860284	-40.206090	-22.860284	-0.350420	118.498495
7.350000	-0.288985	-135.237467	-40.153198	-24.445466	-40.153198	-24.445466	-0.353001	116.976430
7.400000	-0.293057	-136.045951	-40.102680	-26.023697	-40.102680	-26.023697	-0.355558	115.451229
7.450000	-0.297178	-136.854418	-40.054526	-27.594568	-40.054526	-27.594568	-0.358088	113.922898
7.500000	-0.301349	-137.662924	-40.008728	-29.157650	-40.008728	-29.157650	-0.360592	112.391445
7.550000	-0.305572	-138.471533	-39.965367	-30.712119	-39.965367	-30.712119	-0.363068	110.856754
7.600000	-0.309845	-139.280301	-39.924343	-32.257848	-39.924343	-32.257848	-0.365516	109.318981
7.650000	-0.314169	-140.089287	-39.885646	-33.794352	-39.885646	-33.794352	-0.367936	107.778155
7.700000	-0.318545	-140.898549	-39.849265	-35.321133	-39.849265	-35.321133	-0.370328	106.234307
7.750000	-0.322972	-141.708149	-39.815192	-36.837671	-39.815192	-36.837671	-0.372692	104.687477
7.800000	-0.327452	-142.518149	-39.783420	-38.343434	-39.783420	-38.343434	-0.375027	103.137709
7.850000	-0.331984	-143.328609	-39.753941	-39.837873	-39.753941	-39.837873	-0.377333	101.585054
7.900000	-0.336569	-144.139595	-39.726751	-41.320425	-39.726751	-41.320425	-0.379611	100.029567
7.950000	-0.341208	-144.951170	-39.701850	-42.790514	-39.701850	-42.790514	-0.381860	98.471311
8.000000	-0.345902	-145.763401	-39.679237	-44.247554	-39.679237	-44.247554	-0.384080	96.910353
8.050000	-0.350650	-146.576353	-39.658920	-45.690950	-39.658920	-45.690950	-0.386273	95.346767
8.100000	-0.355454	-147.390094	-39.640906	-47.120103	-39.640906	-47.120103	-0.388439	93.780631
8.150000	-0.360314	-148.204694	-39.625213	-48.534411	-39.625213	-48.534411	-0.390577	92.212032
8.200000	-0.365230	-149.020223	-39.611862	-49.933277	-39.611862	-49.933277	-0.392690	90.641059
8.250000	-0.370204	-149.836751	-39.600882	-51.316115	-39.600882	-51.316115	-0.394777	89.067809
8.300000	-0.375235	-150.654352	-39.592309	-52.682351	-39.592309	-52.682351	-0.396840	87.492384
8.350000	-0.380325	-151.473098	-39.586190	-54.031442	-39.586190	-54.031442	-0.398879	85.914893
8.400000	-0.385474	-152.293066	-39.582580	-55.362878	-39.582580	-55.362878	-0.400896	84.335448
8.450000	-0.390684	-153.114331	-39.581545	-56.676198	-39.581545	-56.676198	-0.402893	82.754167
8.500000	-0.395954	-153.936970	-39.583161	-57.971002	-39.583161	-57.971002	-0.404870	81.171176
8.550000	-0.401286	-154.761063	-39.587517	-59.246968	-39.587517	-59.246968	-0.406829	79.586604
8.600000	-0.406680	-155.586691	-39.594709	-60.503869	-39.594709	-60.503869	-0.408772	78.000585
8.650000	-0.412138	-156.413934	-39.604847	-61.741592	-39.604847	-61.741592	-0.410701	76.413259
8.700000	-0.417660	-157.242877	-39.618048	-62.960155	-39.618048	-62.960155	-0.412618	74.824770
8.750000	-0.423247	-158.073604	-39.634435	-64.159734	-39.634435	-64.159734	-0.414524	73.235268
8.800000	-0.428903	-158.906286	-39.654285	-65.339890	-39.654285	-65.339890	-0.416422	71.644876
8.850000	-0.434626	-159.740935	-39.677588	-66.502016	-39.677588	-66.502016	-0.418314	70.053799
8.900000	-0.440418	-160.577640	-39.704468	-67.646886	-39.704468	-67.646886	-0.420204	68.462200
8.950000	-0.446280	-161.416492	-39.735040	-68.775490	-39.735040	-68.775490	-0.422093	66.870245
9.000000	-0.452212	-162.257585	-39.769400	-69.889033	-39.769400	-69.889033	-0.423984	65.278106
9.050000	-0.458217	-163.101013	-39.807624	-70.988931	-39.807624	-70.988931	-0.425880	63.685958
9.100000	-0.464295	-163.946873	-39.849758	-72.076788	-39.849758	-72.076788	-0.427784	62.093981
9.150000	-0.470448	-164.795263	-39.895815	-73.154373	-39.895815	-73.154373	-0.429698	60.502354
9.200000	-0.476677	-165.646284	-39.945766	-74.223574	-39.945766	-74.223574	-0.431627	58.911265
9.250000	-0.482984	-166.500037	-39.999535	-75.286356	-39.999535	-75.286356	-0.433573	57.320899
9.300000	-0.489370	-167.356627	-40.057003	-76.344696	-40.057003	-76.344696	-0.435539	55.731447
9.350000	-0.495838	-168.216159	-40.117998	-77.400526	-40.117998	-77.400526	-0.437528	54.143103
9.400000	-0.502388	-169.078742	-40.182305	-78.455668	-40.182305	-78.455668	-0.439545	52.556061
9.450000	-0.509023	-169.944486	-40.249662	-79.511770	-40.249662	-79.511770	-0.441593	50.970516
9.500000	-0.515745	-170.813504	-40.319774	-80.570251	-40.319774	-80.570251	-0.443674	49.386668
9.550000	-0.522555	-171.685909	-40.392314	-81.632261	-40.392314	-81.632261	-0.445793	47.804716
9.600000	-0.529456	-172.561818	-40.466935	-82.698643	-40.466935	-82.698643	-0.447953	46.224860
9.650000	-0.536450	-173.441351	-40.543280	-83.769919	-40.543280	-83.769919	-0.450158	44.647302
9.700000	-0.543540	-174.324629	-40.620990	-84.846290	-40.620990	-84.846290	-0.452412	43.072243
9.750000	-0.550727	-175.211775	-40.699717	-85.927647	-40.699717	-85.927647	-0.454718	41.499887
9.800000	-0.558015	-176.102916	-40.779128	-87.013595	-40.779128	-87.013595	-0.457080	39.930433
9.850000	-0.565405	-176.998179	-40.858915	-88.103493	-40.858915	-88.103493	-0.459502	38.364086
9.900000	-0.572902	-177.897697	-40.938799	-89.196494	-40.938799	-89.196494	-0.461987	36.801046
9.950000	-0.580507	-178.801603	-41.018534	-90.291593	-41.018534	-90.291593	-0.464539	35.241513
10.000000	-0.588224	-179.710033	-41.097911	-91.387669	-41.097911	-91.387669	-0.467162	33.685687
