! freq	dB(S11)	phase(S11)	dB(S12)	phase(S12)	
!     	dB(S21)	phase(S21)	dB(S22)	phase(S22)	
!S-par simulation data
#  GHz  S  DB  R 50
0.000000	0.000000	0.000000	-345.596373	0.000000	-345.596373	0.000000	-0.000000	0.000000
0.050000	-0.004203	-3.108518	-100.447342	88.229913	-100.447342	88.229913	-0.001008	-0.768009
0.100000	-0.009616	-6.179044	-94.489504	86.321902	-94.489504	86.321902	-0.002503	-1.528336
0.150000	-0.013555	-9.237858	-91.049514	84.390700	-91.049514	84.390700	-0.003561	-2.285399
0.200000	-0.016978	-12.293210	-88.656578	82.494198	-88.656578	82.494198	-0.004327	-3.041818
0.250000	-0.020426	-15.345075	-86.849508	80.651125	-86.849508	80.651125	-0.004985	-3.798149
0.300000	-0.024066	-18.392051	-85.424927	78.874300	-85.424927	78.874300	-0.005622	-4.554377
0.350000	-0.027916	-21.432708	-84.274701	77.176492	-84.274701	77.176492	-0.006281	-5.310389
0.400000	-0.031932	-24.466176	-83.330634	75.566706	-83.330634	75.566706	-0.006977	-6.066084
0.450000	-0.036061	-27.491549	-82.550930	74.057471	-82.550930	74.057471	-0.007718	-6.821377
0.500000	-0.040252	-30.507611	-81.910777	72.668556	-81.910777	72.668556	-0.008505	-7.576170
0.550000	-0.044451	-33.513948	-81.387510	71.412761	-81.387510	71.412761	-0.009336	-8.330418
0.600000	-0.048621	-36.510088	-80.965791	70.306846	-80.965791	70.306846	-0.010207	-9.084079
0.650000	-0.052730	-39.495188	-80.637175	69.377843	-80.637175	69.377843	-0.011113	-9.837097
0.700000	-0.056753	-42.468758	-80.393652	68.653595	-80.393652	68.653595	-0.012051	-10.589437
0.750000	-0.060680	-45.430711	-80.227086	68.160850	-80.227086	68.160850	-0.013016	-11.341092
0.800000	-0.064500	-48.380541	-80.133669	67.942677	-80.133669	67.942677	-0.014002	-12.092033
0.850000	-0.068206	-51.317504	-80.111629	68.062258	-80.111629	68.062258	-0.015007	-12.842217
0.900000	-0.071804	-54.241888	-80.153887	68.569380	-80.153887	68.569380	-0.016025	-13.591665
0.950000	-0.075296	-57.153469	-80.255863	69.541757	-80.255863	69.541757	-0.017054	-14.340365
1.000000	-0.078681	-60.051360	-80.413256	71.110889	-80.413256	71.110889	-0.018091	-15.088267
1.050000	-0.081970	-62.936054	-80.612270	73.371767	-80.612270	73.371767	-0.019132	-15.835400
1.100000	-0.085171	-65.807517	-80.835323	76.454165	-80.835323	76.454165	-0.020175	-16.581760
1.150000	-0.088287	-68.665211	-81.053583	80.531063	-81.053583	80.531063	-0.021219	-17.327313
1.200000	-0.091327	-71.509336	-81.223372	85.693222	-81.223372	85.693222	-0.022261	-18.072065
1.250000	-0.094301	-74.340219	-81.289817	91.921280	-81.289817	91.921280	-0.023300	-18.816026
1.300000	-0.097213	-77.157689	-81.186922	99.064083	-81.186922	99.064083	-0.024336	-19.559174
1.350000	-0.100071	-79.961649	-80.856141	106.730146	-80.856141	106.730146	-0.025367	-20.301488
1.400000	-0.102882	-82.752783	-80.286287	114.356463	-80.286287	114.356463	-0.026393	-21.042992
1.450000	-0.105652	-85.531279	-79.498913	121.420349	-79.498913	121.420349	-0.027413	-21.783676
1.500000	-0.108387	-88.296778	-78.534523	127.493477	-78.534523	127.493477	-0.028428	-22.523490
1.550000	-0.111093	-91.050288	-77.470009	132.470857	-77.470009	132.470857	-0.029437	-23.262470
1.600000	-0.113776	-93.792168	-76.358320	136.368758	-76.358320	136.368758	-0.030440	-24.000607
1.650000	-0.116441	-96.522333	-75.232354	139.253516	-75.232354	139.253516	-0.031437	-24.737855
1.700000	-0.119092	-99.241557	-74.122623	141.297298	-74.122623	141.297298	-0.032430	-25.474225
1.750000	-0.121735	-101.950507	-73.045610	142.649962	-73.045610	142.649962	-0.033417	-26.209721
1.800000	-0.124374	-104.649570	-72.007486	143.422789	-72.007486	143.422789	-0.034400	-26.944321
1.850000	-0.127013	-107.339327	-71.011826	143.718909	-71.011826	143.718909	-0.035379	-27.678012
1.900000	-0.129658	-110.020315	-70.058951	143.618831	-70.058951	143.618831	-0.036354	-28.410772
1.950000	-0.132311	-112.693218	-69.148546	143.192157	-69.148546	143.192157	-0.037326	-29.142588
2.000000	-0.134978	-115.358831	-68.279883	142.497042	-68.279883	142.497042	-0.038296	-29.873459
2.050000	-0.137661	-118.017891	-67.451144	141.577241	-67.451144	141.577241	-0.039264	-30.603372
2.100000	-0.140366	-120.671170	-66.660367	140.468556	-66.660367	140.468556	-0.040230	-31.332313
2.150000	-0.143095	-123.319474	-65.905567	139.200561	-65.905567	139.200561	-0.041195	-32.060270
2.200000	-0.145853	-125.963643	-65.184806	137.797923	-65.184806	137.797923	-0.042160	-32.787229
2.250000	-0.148643	-128.604553	-64.496222	136.281417	-64.496222	136.281417	-0.043125	-33.513178
2.300000	-0.151469	-131.243107	-63.838042	134.668693	-63.838042	134.668693	-0.044091	-34.238102
2.350000	-0.154334	-133.880245	-63.208584	132.974853	-63.208584	132.974853	-0.045058	-34.961989
2.400000	-0.157243	-136.516937	-62.606249	131.212893	-62.606249	131.212893	-0.046027	-35.684826
2.450000	-0.160198	-139.154182	-62.029520	129.394037	-62.029520	129.394037	-0.046999	-36.406600
2.500000	-0.163204	-141.793013	-61.476953	127.527988	-61.476953	127.527988	-0.047973	-37.127297
2.550000	-0.166266	-144.434574	-60.946967	125.622457	-60.946967	125.622457	-0.048950	-37.846880
2.600000	-0.169386	-147.079926	-60.438511	123.685617	-60.438511	123.685617	-0.049931	-38.565360
2.650000	-0.172567	-149.730192	-59.950323	121.723584	-59.950323	121.723584	-0.050917	-39.282725
2.700000	-0.175813	-152.386527	-59.481206	119.741547	-59.481206	119.741547	-0.051907	-39.998962
2.750000	-0.179129	-155.050113	-59.030024	117.743859	-59.030024	117.743859	-0.052902	-40.714059
2.800000	-0.182517	-157.722163	-58.595702	115.734105	-58.595702	115.734105	-0.053903	-41.428003
2.850000	-0.185981	-160.403919	-58.177226	113.715182	-58.177226	113.715182	-0.054910	-42.140784
2.900000	-0.189525	-163.096649	-57.773648	111.689355	-57.773648	111.689355	-0.055923	-42.852389
2.950000	-0.193152	-165.801653	-57.384080	109.658322	-57.384080	109.658322	-0.056944	-43.562808
3.000000	-0.196867	-168.520256	-57.007702	107.623270	-57.007702	107.623270	-0.057971	-44.272028
3.050000	-0.200672	-171.253812	-56.643758	105.584930	-56.643758	105.584930	-0.059006	-44.980040
3.100000	-0.204572	-174.003702	-56.291559	103.543631	-56.291559	103.543631	-0.060049	-45.686833
3.150000	-0.208570	-176.771540	-55.950456	101.499311	-55.950456	101.499311	-0.061101	-46.392384
3.200000	-0.212671	-179.558807	-55.619905	99.451624	-55.619905	99.451624	-0.062161	-47.096682
3.250000	-0.216876	177.633233	-55.299447	97.400000	-55.299447	97.400000	-0.063231	-47.799731
3.300000	-0.221189	174.803103	-54.988665	95.343635	-54.988665	95.343635	-0.064310	-48.501522
3.350000	-0.225614	171.949304	-54.687206	93.281560	-54.687206	93.281560	-0.065399	-49.202046
3.400000	-0.230153	169.070320	-54.394787	91.212684	-54.394787	91.212684	-0.066498	-49.901294
3.450000	-0.234810	166.164622	-54.111188	89.135839	-54.111188	89.135839	-0.067607	-50.599259
3.500000	-0.239586	163.230666	-53.836259	87.049817	-53.836259	87.049817	-0.068728	-51.295932
3.550000	-0.244485	160.266901	-53.569910	84.953413	-53.569910	84.953413	-0.069860	-51.991306
3.600000	-0.249508	157.271773	-53.312116	82.845463	-53.312116	82.845463	-0.071003	-52.685374
3.650000	-0.254658	154.243727	-53.062915	80.724885	-53.062915	80.724885	-0.072158	-53.378128
3.700000	-0.259937	151.181218	-52.822401	78.590719	-52.822401	78.590719	-0.073326	-54.069562
3.750000	-0.265344	148.082710	-52.590732	76.442167	-52.590732	76.442167	-0.074506	-54.759671
3.800000	-0.270885	144.945840	-52.368200	74.278300	-52.368200	74.278300	-0.075700	-55.448418
3.850000	-0.276556	141.769908	-52.155020	72.099103	-52.155020	72.099103	-0.076906	-56.135827
3.900000	-0.282358	138.553469	-51.951508	69.904535	-51.951508	69.904535	-0.078127	-56.821893
3.950000	-0.288288	135.295129	-51.758025	67.694891	-51.758025	67.694891	-0.079361	-57.506611
4.000000	-0.294346	131.993553	-51.574972	65.470837	-51.574972	65.470837	-0.080610	-58.189976
4.050000	-0.300528	128.647480	-51.402784	63.233453	-51.402784	63.233453	-0.081874	-58.871985
4.100000	-0.306832	125.255734	-51.241929	60.984268	-51.241929	60.984268	-0.083152	-59.552633
4.150000	-0.313252	121.817241	-51.092893	58.725301	-51.092893	58.725301	-0.084447	-60.231917
4.200000	-0.319784	118.331043	-50.956181	56.459088	-50.956181	56.459088	-0.085756	-60.909833
4.250000	-0.326421	114.796314	-50.832302	54.188713	-50.832302	54.188713	-0.087082	-61.586379
4.300000	-0.333154	111.212787	-50.721660	51.917795	-50.721660	51.917795	-0.088425	-62.261563
4.350000	-0.339977	107.578874	-50.625029	49.650668	-50.625029	49.650668	-0.089784	-62.935354
4.400000	-0.346878	103.894655	-50.542799	47.392268	-50.542799	47.392268	-0.091161	-63.607759
4.450000	-0.353846	100.160025	-50.475427	45.148175	-50.475427	45.148175	-0.092556	-64.278779
4.500000	-0.360866	96.375379	-50.423240	42.924451	-50.423240	42.924451	-0.093969	-64.948418
4.550000	-0.367926	92.541084	-50.386590	40.727821	-50.386590	40.727821	-0.095400	-65.616676
4.600000	-0.375008	88.657770	-50.365765	38.565621	-50.365765	38.565621	-0.096850	-66.283553
4.650000	-0.382097	84.726343	-50.360985	36.445789	-50.360985	36.445789	-0.098319	-66.949047
4.700000	-0.389175	80.747875	-50.372430	34.377031	-50.372430	34.377031	-0.099808	-67.613156
4.750000	-0.396221	76.723645	-50.400234	32.368951	-50.400234	32.368951	-0.101318	-68.275872
4.800000	-0.403217	72.655856	-50.444203	30.430896	-50.444203	30.430896	-0.102847	-68.937207
4.850000	-0.410141	68.546648	-50.504158	28.573232	-50.504158	28.573232	-0.104398	-69.597162
4.900000	-0.416974	64.398473	-50.579792	26.806940	-50.579792	26.806940	-0.105970	-70.255739
4.950000	-0.423694	60.214102	-50.670644	25.143629	-50.670644	25.143629	-0.107564	-70.912940
5.000000	-0.430281	55.996607	-50.776082	23.595541	-50.776082	23.595541	-0.109180	-71.568767
5.050000	-0.436713	51.749075	-50.895386	22.177103	-50.895386	22.177103	-0.110819	-72.223207
5.100000	-0.442971	47.475517	-51.027323	20.900577	-51.027323	20.900577	-0.112481	-72.876279
5.150000	-0.449038	43.179832	-51.170521	19.780014	-51.170521	19.780014	-0.114166	-73.527985
5.200000	-0.454896	38.866140	-51.323268	18.829873	-51.323268	18.829873	-0.115874	-74.178330
5.250000	-0.460532	34.538749	-51.483448	18.064791	-51.483448	18.064791	-0.117607	-74.827317
5.300000	-0.465933	30.202118	-51.648471	17.499213	-51.648471	17.499213	-0.119363	-75.474949
5.350000	-0.471086	25.860816	-51.815162	17.148688	-51.815162	17.148688	-0.121145	-76.121220
5.400000	-0.475985	21.519572	-51.979723	17.024358	-51.979723	17.024358	-0.122950	-76.766139
5.450000	-0.480625	17.183057	-52.137745	17.135118	-52.137745	17.135118	-0.124780	-77.409714
5.500000	-0.485004	12.855909	-52.284157	17.486473	-52.284157	17.486473	-0.126635	-78.051948
5.550000	-0.489123	8.542694	-52.413289	18.078387	-52.413289	18.078387	-0.128516	-78.692843
5.600000	-0.492984	4.247871	-52.519015	18.903612	-52.519015	18.903612	-0.130422	-79.332403
5.650000	-0.496592	-0.024105	-52.594818	19.947162	-52.594818	19.947162	-0.132354	-79.970623
5.700000	-0.499956	-4.269048	-52.634458	21.182502	-52.634458	21.182502	-0.134313	-80.607508
5.750000	-0.503087	-8.483189	-52.632608	22.572020	-52.632608	22.572020	-0.136299	-81.243069
5.800000	-0.505997	-12.662887	-52.584922	24.070060	-52.584922	24.070060	-0.138313	-81.877312
5.850000	-0.508701	-16.804772	-52.488655	25.623966	-52.488655	25.623966	-0.140355	-82.510241
5.900000	-0.511214	-20.905766	-52.342976	27.177419	-52.342976	27.177419	-0.142427	-83.141863
5.950000	-0.513551	-24.962970	-52.148933	28.674129	-52.148933	28.674129	-0.144528	-83.772181
6.000000	-0.515731	-28.973641	-51.909355	30.061172	-51.909355	30.061172	-0.146659	-84.401195
6.050000	-0.517771	-32.935999	-51.629314	31.295176	-51.629314	31.295176	-0.148821	-85.028922
6.100000	-0.519689	-36.848224	-51.314525	32.342015	-51.314525	32.342015	-0.151014	-85.655370
6.150000	-0.521504	-40.708802	-50.971256	33.177993	-50.971256	33.177993	-0.153238	-86.280546
6.200000	-0.523233	-44.516520	-50.605867	33.789441	-50.605867	33.789441	-0.155495	-86.904459
6.250000	-0.524892	-48.270455	-50.224448	34.171518	-50.224448	34.171518	-0.157784	-87.527115
6.300000	-0.526499	-51.969359	-49.832318	34.324218	-49.832318	34.324218	-0.160106	-88.148509
6.350000	-0.528069	-55.613433	-49.434728	34.258053	-49.434728	34.258053	-0.162461	-88.768664
6.400000	-0.529617	-59.202534	-49.035863	33.984847	-49.035863	33.984847	-0.164850	-89.387587
6.450000	-0.531157	-62.736740	-48.639203	33.518874	-48.639203	33.518874	-0.167273	-90.005287
6.500000	-0.532702	-66.216331	-48.247568	32.875780	-48.247568	32.875780	-0.169731	-90.621772
6.550000	-0.534263	-69.641774	-47.863188	32.071762	-47.863188	32.071762	-0.172223	-91.237053
6.600000	-0.535852	-73.013269	-47.487736	31.121934	-47.487736	31.121934	-0.174751	-91.851126
6.650000	-0.537478	-76.331902	-47.122550	30.043001	-47.122550	30.043001	-0.177315	-92.464010
6.700000	-0.539151	-79.597766	-46.768506	28.848456	-46.768506	28.848456	-0.179915	-93.075693
6.750000	-0.540876	-82.814108	-46.426290	27.556827	-46.426290	27.556827	-0.182551	-93.686236
6.800000	-0.542662	-85.980783	-46.096143	26.178484	-46.096143	26.178484	-0.185223	-94.295620
6.850000	-0.544515	-89.098998	-45.778181	24.725540	-45.778181	24.725540	-0.187933	-94.903855
6.900000	-0.546440	-92.169528	-45.472363	23.208517	-45.472363	23.208517	-0.190681	-95.510938
6.950000	-0.548443	-95.193755	-45.178504	21.637817	-45.178504	21.637817	-0.193466	-96.116880
7.000000	-0.550526	-98.173571	-44.896268	20.023183	-44.896268	20.023183	-0.196290	-96.721703
7.050000	-0.552693	-101.110393	-44.625239	18.372740	-44.625239	18.372740	-0.199153	-97.325419
7.100000	-0.554946	-104.005662	-44.364934	16.693729	-44.364934	16.693729	-0.202055	-97.928036
7.150000	-0.557287	-106.860839	-44.114813	14.992553	-44.114813	14.992553	-0.204995	-98.529568
7.200000	-0.559719	-109.677392	-43.874300	13.274829	-43.874300	13.274829	-0.207975	-99.130023
7.250000	-0.562242	-112.456797	-43.642792	11.545434	-43.642792	11.545434	-0.210995	-99.729413
7.300000	-0.564858	-115.200525	-43.419669	9.808560	-43.419669	9.808560	-0.214055	-100.327751
7.350000	-0.567568	-117.910043	-43.204302	8.067758	-43.204302	8.067758	-0.217156	-100.925046
7.400000	-0.570371	-120.586806	-42.996063	6.325987	-42.996063	6.325987	-0.220297	-101.521310
7.450000	-0.573269	-123.232255	-42.794329	4.585660	-42.794329	4.585660	-0.223480	-102.116556
7.500000	-0.576261	-125.847816	-42.598489	2.848688	-42.598489	2.848688	-0.226703	-102.710795
7.550000	-0.579350	-128.434304	-42.407957	1.116649	-42.407957	1.116649	-0.229969	-103.304018
7.600000	-0.582533	-130.993752	-42.222125	-0.609529	-42.222125	-0.609529	-0.233277	-103.896258
7.650000	-0.585811	-133.527516	-42.040433	-2.329228	-42.040433	-2.329228	-0.236626	-104.487529
7.700000	-0.589182	-136.036929	-41.862342	-4.042178	-41.862342	-4.042178	-0.240018	-105.077843
7.750000	-0.592648	-138.523295	-41.687341	-5.748427	-41.687341	-5.748427	-0.243452	-105.667213
7.800000	-0.596208	-140.987892	-41.514942	-7.448316	-41.514942	-7.448316	-0.246929	-106.255651
7.850000	-0.599862	-143.431972	-41.344680	-9.142451	-41.344680	-9.142451	-0.250449	-106.843171
7.900000	-0.603609	-145.856757	-41.176120	-10.831683	-41.176120	-10.831683	-0.254011	-107.429785
7.950000	-0.607450	-148.263439	-41.008850	-12.517093	-41.008850	-12.517093	-0.257617	-108.015508
8.000000	-0.611386	-150.653185	-40.842485	-14.199967	-40.842485	-14.199967	-0.261266	-108.600352
8.050000	-0.615415	-153.027129	-40.676665	-15.881795	-40.676665	-15.881795	-0.264959	-109.184332
8.100000	-0.619539	-155.386381	-40.511057	-17.564247	-40.511057	-17.564247	-0.268694	-109.767461
8.150000	-0.623759	-157.731881	-40.345316	-19.249225	-40.345316	-19.249225	-0.272474	-110.349744
8.200000	-0.628075	-160.064716	-40.179149	-20.938825	-40.179149	-20.938825	-0.276298	-110.931196
8.250000	-0.632488	-162.386053	-40.012339	-22.635222	-40.012339	-22.635222	-0.280166	-111.511841
8.300000	-0.636998	-164.696883	-39.844658	-24.340778	-39.844658	-24.340778	-0.284078	-112.091694
8.350000	-0.641606	-166.998170	-39.675908	-26.058021	-39.675908	-26.058021	-0.288033	-112.670768
8.400000	-0.646313	-169.290850	-39.505918	-27.789638	-39.505918	-27.789638	-0.292032	-113.249079
8.450000	-0.651122	-171.575831	-39.334550	-29.538482	-39.334550	-29.538482	-0.296075	-113.826642
8.500000	-0.656033	-173.853994	-39.161696	-31.307570	-39.161696	-31.307570	-0.300162	-114.403472
8.550000	-0.661049	-176.126193	-38.987283	-33.100084	-38.987283	-33.100084	-0.304292	-114.979585
8.600000	-0.666171	-178.393253	-38.811277	-34.919375	-38.811277	-34.919375	-0.308466	-115.554997
8.650000	-0.671401	179.344025	-38.633684	-36.768959	-38.633684	-36.768959	-0.312683	-116.129723
8.700000	-0.676742	177.084869	-38.454555	-38.652522	-38.454555	-38.652522	-0.316944	-116.703780
8.750000	-0.682197	174.828535	-38.273992	-40.573909	-38.273992	-40.573909	-0.321248	-117.277183
8.800000	-0.687770	172.574333	-38.092045	-42.538128	-38.092045	-42.538128	-0.325597	-117.849936
8.850000	-0.693463	170.321513	-37.909051	-44.548510	-37.909051	-44.548510	-0.329988	-118.422070
8.900000	-0.699279	168.069414	-37.725302	-46.609329	-37.725302	-46.609329	-0.334421	-118.993601
8.950000	-0.705221	165.817400	-37.541171	-48.724953	-37.541171	-48.724953	-0.338898	-119.564547
9.000000	-0.711292	163.564867	-37.357114	-50.899802	-37.357114	-50.899802	-0.343416	-120.134925
9.050000	-0.717497	161.311234	-37.173681	-53.138303	-37.173681	-53.138303	-0.347976	-120.704752
9.100000	-0.723840	159.055954	-36.991527	-55.444820	-36.991527	-55.444820	-0.352578	-121.274046
9.150000	-0.730324	156.798503	-36.811419	-57.823571	-36.811419	-57.823571	-0.357222	-121.842826
9.200000	-0.736954	154.538391	-36.634241	-60.278528	-36.634241	-60.278528	-0.361906	-122.411110
9.250000	-0.743735	152.275155	-36.461004	-62.813289	-36.461004	-62.813289	-0.366630	-122.978915
9.300000	-0.750671	150.008363	-36.292849	-65.430935	-36.292849	-65.430935	-0.371395	-123.546261
9.350000	-0.757768	147.737613	-36.131046	-68.133861	-36.131046	-68.133861	-0.376199	-124.113166
9.400000	-0.765031	145.462485	-35.977061	-70.924537	-35.977061	-70.924537	-0.381043	-124.679646
9.450000	-0.772467	143.182630	-35.832471	-73.803375	-35.832471	-73.803375	-0.385925	-125.245720
9.500000	-0.780079	140.897791	-35.698836	-76.768490	-35.698836	-76.768490	-0.390846	-125.811413
9.550000	-0.787871	138.607699	-35.577834	-79.817438	-35.577834	-79.817438	-0.395804	-126.376745
9.600000	-0.795850	136.312116	-35.471173	-82.946099	-35.471173	-82.946099	-0.400799	-126.941735
9.650000	-0.804020	134.010840	-35.380545	-86.148542	-35.380545	-86.148542	-0.405830	-127.506406
9.700000	-0.812387	131.703704	-35.307572	-89.416960	-35.307572	-89.416960	-0.410896	-128.070777
9.750000	-0.820957	129.390575	-35.253751	-92.741683	-35.253751	-92.741683	-0.415997	-128.634869
9.800000	-0.829735	127.071359	-35.220391	-96.111282	-35.220391	-96.111282	-0.421132	-129.198704
9.850000	-0.838725	124.745995	-35.208558	-99.512788	-35.208558	-99.512788	-0.426300	-129.762303
9.900000	-0.847934	122.414462	-35.219020	-102.931998	-35.219020	-102.931998	-0.431500	-130.325690
9.950000	-0.857365	120.076774	-35.252215	-106.353879	-35.252215	-106.353879	-0.436731	-130.888885
10.000000	-0.867025	117.732984	-35.308223	-109.763024	-35.308223	-109.763024	-0.441993	-131.451911
