! freq	dB(S11)	phase(S11)	dB(S12)	phase(S12)	
!     	dB(S21)	phase(S21)	dB(S22)	phase(S22)	
!S-par simulation data
#  GHz  S  DB  R 50
0.000000	-82.008006	0.000000	-0.000689	0.000000	-0.000689	0.000000	-82.008006	0.000000
0.050000	-39.879522	-91.795869	-0.003796	-2.998375	-0.003796	-2.998375	-39.886002	-93.352907
0.100000	-33.869781	-94.268366	-0.010722	-5.973932	-0.010722	-5.973932	-33.879573	-97.390982
0.150000	-30.365907	-96.588655	-0.018456	-8.929925	-0.018456	-8.929925	-30.379575	-101.282961
0.200000	-27.891921	-98.868732	-0.026179	-11.876665	-0.026179	-11.876665	-27.909464	-105.137595
0.250000	-25.986229	-101.128413	-0.034069	-14.819770	-0.034069	-14.819770	-26.007434	-108.974292
0.300000	-24.443341	-103.372146	-0.042432	-17.761505	-0.042432	-17.761505	-24.467653	-112.799569
0.350000	-23.152798	-105.599427	-0.051439	-20.702480	-0.051439	-20.702480	-23.179305	-116.616608
0.400000	-22.049176	-107.806487	-0.061181	-23.642650	-0.061181	-23.642650	-22.076748	-120.426970
0.450000	-21.090909	-109.986996	-0.071713	-26.581719	-0.071713	-26.581719	-21.118357	-124.231774
0.500000	-20.247343	-112.137185	-0.082975	-29.519447	-0.082975	-29.519447	-20.273839	-128.032704
0.550000	-19.497009	-114.253641	-0.094919	-32.455553	-0.094919	-32.455553	-19.522310	-131.831356
0.600000	-18.824520	-116.333822	-0.107511	-35.389681	-0.107511	-35.389681	-18.849142	-135.629762
0.650000	-18.216636	-118.381080	-0.120657	-38.321669	-0.120657	-38.321669	-18.241755	-139.430453
0.700000	-17.663596	-120.399794	-0.134280	-41.251364	-0.134280	-41.251364	-17.690727	-143.236238
0.750000	-17.158536	-122.393974	-0.148317	-44.178571	-0.148317	-44.178571	-17.189253	-147.050662
0.800000	-16.695797	-124.367893	-0.162691	-47.103242	-0.162691	-47.103242	-16.731364	-150.877474
0.850000	-16.270500	-126.324751	-0.177323	-50.025486	-0.177323	-50.025486	-16.311672	-154.719955
0.900000	-15.879841	-128.264678	-0.192155	-52.945297	-0.192155	-52.945297	-15.926953	-158.582716
0.950000	-15.521339	-130.186613	-0.207117	-55.862820	-0.207117	-55.862820	-15.574317	-162.470369
1.000000	-15.191603	-132.089961	-0.222142	-58.778453	-0.222142	-58.778453	-15.250101	-166.384944
1.050000	-14.889024	-133.971771	-0.237172	-61.692459	-0.237172	-61.692459	-14.952581	-170.330576
1.100000	-14.611765	-135.829189	-0.252150	-64.605245	-0.252150	-64.605245	-14.679902	-174.310401
1.150000	-14.358174	-137.659133	-0.267020	-67.517279	-0.267020	-67.517279	-14.430469	-178.327290
1.200000	-14.126753	-139.458407	-0.281732	-70.429096	-0.281732	-70.429096	-14.202885	177.616080
1.250000	-13.916130	-141.223764	-0.296238	-73.341284	-0.296238	-73.341284	-13.995898	173.517135
1.300000	-13.725356	-142.951041	-0.310488	-76.254522	-0.310488	-76.254522	-13.808679	169.372255
1.350000	-13.552922	-144.637671	-0.324449	-79.169491	-0.324449	-79.169491	-13.639830	165.179653
1.400000	-13.397722	-146.280325	-0.338090	-82.086923	-0.338090	-82.086923	-13.488335	160.936411
1.450000	-13.258709	-147.875631	-0.351385	-85.007587	-0.351385	-85.007587	-13.353228	156.639332
1.500000	-13.134881	-149.420170	-0.364316	-87.932283	-0.364316	-87.932283	-13.233574	152.284890
1.550000	-13.025267	-150.910464	-0.376871	-90.861843	-0.376871	-90.861843	-13.128465	147.869205
1.600000	-12.928915	-152.342968	-0.389047	-93.797123	-0.389047	-93.797123	-13.037009	143.388035
1.650000	-12.844879	-153.714073	-0.400850	-96.739002	-0.400850	-96.739002	-12.958321	138.836779
1.700000	-12.772208	-155.020101	-0.412293	-99.688376	-0.412293	-99.688376	-12.891516	134.210497
1.750000	-12.709930	-156.257327	-0.423400	-102.646156	-0.423400	-102.646156	-12.835694	129.503942
1.800000	-12.657042	-157.421988	-0.434203	-105.613266	-0.434203	-105.613266	-12.789931	124.711599
1.850000	-12.612493	-158.510322	-0.444745	-108.590635	-0.444745	-108.590635	-12.753264	119.827741
1.900000	-12.575239	-159.517703	-0.455076	-111.579330	-0.455076	-111.579330	-12.724751	114.845366
1.950000	-12.544058	-160.440407	-0.465262	-114.580318	-0.465262	-114.580318	-12.703269	109.758335
2.000000	-12.517597	-161.275913	-0.475379	-117.594405	-0.475379	-117.594405	-12.687558	104.561813
2.050000	-12.494483	-162.021148	-0.485511	-120.622516	-0.485511	-120.622516	-12.676346	99.250086
2.100000	-12.473236	-162.673495	-0.495754	-123.665559	-0.495754	-123.665559	-12.668249	93.817767
2.150000	-12.452260	-163.230962	-0.506214	-126.724431	-0.506214	-126.724431	-12.661762	88.259983
2.200000	-12.429842	-163.692381	-0.517008	-129.800004	-0.517008	-129.800004	-12.655252	82.572582
2.250000	-12.404158	-164.057629	-0.528263	-132.893132	-0.528263	-132.893132	-12.646961	76.752374
2.300000	-12.373283	-164.327868	-0.540120	-136.004635	-0.540120	-136.004635	-12.635006	70.797391
2.350000	-12.335215	-164.505791	-0.552726	-139.135304	-0.552726	-139.135304	-12.617403	64.707166
2.400000	-12.287908	-164.595860	-0.566243	-142.285895	-0.566243	-142.285895	-12.592092	58.482998
2.450000	-12.229319	-164.604510	-0.580842	-145.457120	-0.580842	-145.457120	-12.556975	52.128209
2.500000	-12.157463	-164.540291	-0.596705	-148.649648	-0.596705	-148.649648	-12.509975	45.648342
2.550000	-12.070089	-164.412877	-0.614058	-151.864591	-0.614058	-151.864591	-12.448736	39.048983
2.600000	-11.965846	-164.236851	-0.633078	-155.102049	-0.633078	-155.102049	-12.371688	32.343289
2.650000	-11.843364	-164.027116	-0.653978	-158.362530	-0.653978	-158.362530	-12.277234	25.543936
2.700000	-11.701618	-163.800146	-0.676978	-161.646485	-0.676978	-161.646485	-12.164093	18.665582
2.750000	-11.539986	-163.573531	-0.702310	-164.954298	-0.702310	-164.954298	-12.031359	11.724457
2.800000	-11.358281	-163.365411	-0.730213	-168.286290	-0.730213	-168.286290	-11.878553	4.737849
2.850000	-11.156768	-163.193871	-0.760935	-171.642716	-0.760935	-171.642716	-11.705650	-2.276507
2.900000	-10.936146	-163.076321	-0.794733	-175.023759	-0.794733	-175.023759	-11.513076	-9.301061
2.950000	-10.697966	-163.027281	-0.831804	-178.429062	-0.831804	-178.429062	-11.302125	-16.319516
3.000000	-10.442631	-163.064787	-0.872566	178.140254	-0.872566	178.140254	-11.073014	-23.315613
3.050000	-10.172454	-163.199426	-0.917219	174.684826	-0.917219	174.684826	-10.827873	-30.275940
3.100000	-9.889346	-163.441238	-0.966047	171.204753	-0.966047	171.204753	-10.568496	-37.188971
3.150000	-9.595231	-163.798555	-1.019367	167.700075	-1.019367	167.700075	-10.296726	-44.045057
3.200000	-9.292200	-164.276792	-1.077482	164.171035	-1.077482	164.171035	-10.014616	-50.837064
3.250000	-8.982408	-164.878448	-1.140673	160.618072	-1.140673	160.618072	-9.724318	-57.560469
3.300000	-8.667818	-165.604715	-1.209254	157.041555	-1.209254	157.041555	-9.427820	-64.212409
3.350000	-8.350336	-166.454564	-1.283521	153.442014	-1.283521	153.442014	-9.127073	-70.792078
3.400000	-8.031436	-167.428331	-1.363901	149.819524	-1.363901	149.819524	-8.823612	-77.298512
3.450000	-7.712853	-168.521321	-1.450665	146.174936	-1.450665	146.174936	-8.519247	-83.734280
3.500000	-7.395958	-169.729689	-1.544163	142.508831	-1.544163	142.508831	-8.215425	-90.101910
3.550000	-7.081952	-171.048986	-1.644758	138.821836	-1.644758	138.821836	-7.913429	-96.404644
3.600000	-6.771876	-172.474363	-1.752831	135.114614	-1.752831	135.114614	-7.614381	-102.646240
3.650000	-6.466617	-174.000741	-1.868780	131.387867	-1.868780	131.387867	-7.319245	-108.830803
3.700000	-6.166926	-175.622960	-1.993025	127.642328	-1.993025	127.642328	-7.028844	-114.962642
3.750000	-5.873423	-177.335889	-2.126013	123.878765	-2.126013	123.878765	-6.743869	-121.046161
3.800000	-5.586590	-179.135683	-2.268328	120.097739	-2.268328	120.097739	-6.464860	-127.085201
3.850000	-5.306892	178.983789	-2.420385	116.300349	-2.420385	116.300349	-6.192341	-133.084814
3.900000	-5.034652	177.027100	-2.582743	112.487472	-2.582743	112.487472	-5.926686	-139.049246
3.950000	-4.770123	174.998550	-2.756014	108.660032	-2.756014	108.660032	-5.668189	-144.982606
4.000000	-4.513495	172.902145	-2.940872	104.819016	-2.940872	104.819016	-5.417080	-150.888852
4.050000	-4.264908	170.741577	-3.138062	100.965487	-3.138062	100.965487	-5.173530	-156.771779
4.100000	-4.024463	168.520226	-3.348418	97.100612	-3.348418	97.100612	-4.937670	-162.635025
4.150000	-3.792228	166.241154	-3.572877	93.225687	-3.572877	93.225687	-4.709592	-168.482072
4.200000	-3.568273	163.906599	-3.812586	89.342121	-3.812586	89.342121	-4.489387	-174.316172
4.250000	-3.352622	161.519304	-4.068714	85.451700	-4.068714	85.451700	-4.277103	179.859338
4.300000	-3.145279	159.081646	-4.342598	81.556494	-4.342598	81.556494	-4.072766	174.041289
4.350000	-2.946254	156.595440	-4.635830	77.658938	-4.635830	77.658938	-3.876412	168.226656
4.400000	-2.755558	154.062201	-4.950256	73.762015	-4.950256	73.762015	-3.688080	162.412468
4.450000	-2.573208	151.483154	-5.288032	69.869432	-5.288032	69.869432	-3.507823	156.595774
4.500000	-2.399234	148.859230	-5.651696	65.985875	-5.651696	65.985875	-3.335711	150.773614
4.550000	-2.233682	146.191067	-6.044256	62.117354	-6.044256	62.117354	-3.171842	144.942974
4.600000	-2.076650	143.478798	-6.469378	58.271848	-6.469378	58.271848	-3.016379	139.100674
4.650000	-1.928277	140.722247	-6.931495	54.460131	-6.931495	54.460131	-2.869539	133.243323
4.700000	-1.788648	137.921559	-7.435777	50.696076	-7.435777	50.696076	-2.731503	127.367570
4.750000	-1.657951	135.076135	-7.988752	46.998977	-7.988752	46.998977	-2.602576	121.469692
4.800000	-1.536431	132.185049	-8.598558	43.395767	-8.598558	43.395767	-2.483142	115.545632
4.850000	-1.424406	129.247034	-9.275464	39.924879	-9.275464	39.924879	-2.373688	109.590924
4.900000	-1.322280	126.260476	-10.032602	36.642541	-10.032602	36.642541	-2.274821	103.600613
4.950000	-1.230568	123.223406	-10.886973	33.633463	-10.886973	33.633463	-2.187296	97.569155
5.000000	-1.149913	120.133507	-11.860799	31.029685	-11.860799	31.029685	-2.112053	91.490324
5.050000	-1.081306	116.987275	-12.983388	29.059800	-12.983388	29.059800	-2.050466	85.356196
5.100000	-1.025616	113.782518	-14.290976	28.093277	-14.290976	28.093277	-2.003820	79.159498
5.150000	-0.984110	110.516071	-15.823956	28.806098	-15.823956	28.806098	-1.973916	72.891268
5.200000	-0.958364	107.184694	-17.600968	32.460873	-17.600968	32.460873	-1.962989	66.541451
5.250000	-0.950331	103.785303	-19.508209	41.302983	-19.508209	41.302983	-1.973817	60.098838
5.300000	-0.962427	100.315313	-20.976611	57.853339	-20.976611	57.853339	-2.009862	53.551058
5.350000	-0.997637	96.773185	-20.903447	79.500581	-20.903447	79.500581	-2.075451	46.884661
5.400000	-1.059634	93.159238	-19.185076	96.663548	-19.185076	96.663548	-2.176003	40.085337
5.450000	-1.153250	89.476264	-16.919409	105.538496	-16.919409	105.538496	-2.318780	33.136774
5.500000	-1.283903	85.733149	-14.766156	108.601930	-14.766156	108.601930	-2.512339	26.025019
5.550000	-1.458010	81.946260	-12.869222	108.232453	-12.869222	108.232453	-2.767380	18.738051
5.600000	-1.683285	78.142839	-11.218814	105.754809	-11.218814	105.754809	-3.097695	11.266686
5.650000	-1.968537	74.366370	-9.779999	101.879195	-9.779999	101.879195	-3.520826	3.608115
5.700000	-2.323369	70.683292	-8.521858	97.002022	-8.521858	97.002022	-4.059239	-4.230026
5.750000	-2.757451	67.191570	-7.422056	91.361793	-7.422056	91.361793	-4.742076	-12.223791
5.800000	-3.279038	64.030829	-6.465842	85.117821	-6.465842	85.117821	-5.607968	-20.324256
5.850000	-3.892391	61.395581	-5.644264	78.390269	-5.644264	78.390269	-6.710510	-28.442974
5.900000	-4.592482	59.543537	-4.952138	71.285389	-4.952138	71.285389	-8.127545	-36.421605
5.950000	-5.357550	58.773009	-4.384997	63.908633	-4.384997	63.908633	-9.980754	-43.970221
6.000000	-6.138901	59.410934	-3.939903	56.361221	-3.939903	56.361221	-12.491307	-50.438828
6.050000	-6.860257	61.602734	-3.608144	48.746803	-3.608144	48.746803	-16.126738	-54.152874
6.100000	-7.407603	65.323056	-3.386645	41.159472	-3.386645	41.159472	-22.088973	-46.526683
6.150000	-7.683866	70.005402	-3.264520	33.685501	-3.264520	33.685501	-27.037832	23.202773
6.200000	-7.649598	74.769357	-3.231432	26.395709	-3.231432	26.395709	-19.707726	61.039918
6.250000	-7.352064	78.788844	-3.275100	19.339920	-3.275100	19.339920	-15.153714	62.883498
6.300000	-6.881355	81.577979	-3.385346	12.558753	-3.385346	12.558753	-12.290600	58.950669
6.350000	-6.334546	83.095316	-3.550006	6.067162	-3.550006	6.067162	-10.283588	53.520301
6.400000	-5.777335	83.511862	-3.759051	-0.129443	-3.759051	-0.129443	-8.786178	47.627170
6.450000	-5.247119	83.065434	-4.003696	-6.035397	-4.003696	-6.035397	-7.624728	41.645836
6.500000	-4.761250	81.978767	-4.276461	-11.661764	-4.276461	-11.661764	-6.699663	35.734980
6.550000	-4.325234	80.432197	-4.571122	-17.023794	-4.571122	-17.023794	-5.948422	29.965814
6.600000	-3.938361	78.562181	-4.882599	-22.138958	-4.882599	-22.138958	-5.329108	24.369013
6.650000	-3.597033	76.468579	-5.206797	-27.025528	-5.206797	-27.025528	-4.812337	18.954885
6.700000	-3.296828	74.222324	-5.540397	-31.699759	-5.540397	-31.699759	-4.377231	13.724799
6.750000	-3.032719	71.876098	-5.880803	-36.180333	-5.880803	-36.180333	-4.007504	8.671770
6.800000	-2.800005	69.466614	-6.226048	-40.484438	-6.226048	-40.484438	-3.690856	3.786149
6.850000	-2.594590	67.019450	-6.574597	-44.626961	-6.574597	-44.626961	-3.417974	-0.942004
6.900000	-2.412881	64.552738	-6.925269	-48.621460	-6.925269	-48.621460	-3.181545	-5.522945
6.950000	-2.251770	62.079273	-7.277162	-52.480192	-7.277162	-52.480192	-2.975755	-9.966761
7.000000	-2.108588	59.608020	-7.629602	-56.214181	-7.629602	-56.214181	-2.795932	-14.283106
7.050000	-1.981050	57.145184	-7.982088	-59.833310	-7.982088	-59.833310	-2.638285	-18.481069
7.100000	-1.867872	54.695947	-8.333335	-63.340270	-8.333335	-63.340270	-2.500620	-22.562735
7.150000	-1.765660	52.260642	-8.685454	-66.758738	-8.685454	-66.758738	-2.378023	-26.552381
7.200000	-1.674813	49.843813	-9.035653	-70.078757	-9.035653	-70.078757	-2.270844	-30.439607
7.250000	-1.592877	47.444039	-9.385849	-73.318574	-9.385849	-73.318574	-2.175637	-34.243568
7.300000	-1.519447	45.063073	-9.734893	-76.477358	-9.734893	-76.477358	-2.091760	-37.963809
7.350000	-1.453488	42.700504	-10.083074	-79.561543	-10.083074	-79.561543	-2.017756	-41.607567
7.400000	-1.393989	40.355271	-10.431052	-82.578272	-10.431052	-82.578272	-1.952219	-45.182925
7.450000	-1.340863	38.028471	-10.777502	-85.524882	-10.777502	-85.524882	-1.894972	-48.688200
7.500000	-1.292726	35.716726	-11.124791	-88.414643	-11.124791	-88.414643	-1.844147	-52.137679
7.550000	-1.250141	33.422495	-11.470057	-91.237624	-11.470057	-91.237624	-1.800400	-55.523130
7.600000	-1.211726	31.141489	-11.816465	-94.008858	-11.816465	-94.008858	-1.761879	-58.860361
7.650000	-1.177810	28.874745	-12.162092	-96.721779	-12.162092	-96.721779	-1.728904	-62.145037
7.700000	-1.147733	26.619767	-12.508461	-99.383383	-12.508461	-99.383383	-1.700548	-65.385271
7.750000	-1.121426	24.375661	-12.855320	-101.993010	-12.855320	-101.993010	-1.676591	-68.582593
7.800000	-1.098796	22.141167	-13.202661	-104.550654	-13.202661	-104.550654	-1.656765	-71.739301
7.850000	-1.079466	19.914075	-13.551791	-107.060788	-13.551791	-107.060788	-1.640468	-74.861247
7.900000	-1.063846	17.693603	-13.901284	-109.516752	-13.901284	-109.516752	-1.627905	-77.946476
7.950000	-1.051347	15.477011	-14.253658	-111.926934	-14.253658	-111.926934	-1.618257	-81.003304
8.000000	-1.042713	13.262864	-14.606885	-114.280533	-14.606885	-114.280533	-1.611904	-84.028508
8.050000	-1.037471	11.048688	-14.963443	-116.585008	-14.963443	-116.585008	-1.608146	-87.029359
8.100000	-1.036294	8.831892	-15.322346	-118.831726	-15.322346	-118.831726	-1.607128	-90.005245
8.150000	-1.039291	6.609935	-15.684657	-121.020680	-15.684657	-121.020680	-1.608546	-92.959747
8.200000	-1.046940	4.379759	-16.050796	-123.147428	-16.050796	-123.147428	-1.612262	-95.895033
8.250000	-1.060192	2.137338	-16.420450	-125.202202	-16.420450	-125.202202	-1.618281	-98.812149
8.300000	-1.079237	-0.119472	-16.795308	-127.185906	-16.795308	-127.185906	-1.626241	-101.715016
8.350000	-1.106482	-2.397987	-17.173548	-129.074000	-17.173548	-129.074000	-1.636391	-104.603186
8.400000	-1.141965	-4.698427	-17.557505	-130.871433	-17.557505	-130.871433	-1.648263	-107.481036
8.450000	-1.189612	-7.029703	-17.944674	-132.542613	-17.944674	-132.542613	-1.662092	-110.348671
8.500000	-1.250733	-9.391514	-18.335927	-134.083280	-18.335927	-134.083280	-1.677564	-113.209167
8.550000	-1.330596	-11.788212	-18.728166	-135.455373	-18.728166	-135.455373	-1.694744	-116.063878
8.600000	-1.434412	-14.216753	-19.118093	-136.630331	-19.118093	-136.630331	-1.713547	-118.914787
8.650000	-1.568764	-16.664827	-19.500391	-137.580780	-19.500391	-137.580780	-1.733875	-121.763902
8.700000	-1.747493	-19.102793	-19.861539	-138.248287	-19.861539	-138.248287	-1.755872	-124.613113
8.750000	-1.976775	-21.475967	-20.192393	-138.656505	-20.192393	-138.656505	-1.779347	-127.464202
8.800000	-2.280818	-23.641411	-20.461560	-138.785752	-20.461560	-138.785752	-1.804730	-130.319449
8.850000	-2.669217	-25.360876	-20.644469	-138.776913	-20.644469	-138.776913	-1.832367	-133.179463
8.900000	-3.137323	-26.215833	-20.717160	-138.902130	-20.717160	-138.902130	-1.863004	-136.039464
8.950000	-3.630954	-25.729171	-20.685209	-139.550803	-20.685209	-139.550803	-1.895735	-138.884012
9.000000	-4.023230	-23.607058	-20.591292	-141.108280	-20.591292	-141.108280	-1.925814	-141.714519
9.050000	-4.134675	-20.308666	-20.516509	-143.771154	-20.516509	-143.771154	-1.952553	-144.570761
9.100000	-3.900941	-17.283052	-20.545490	-147.310443	-20.545490	-147.310443	-1.980373	-147.459486
9.150000	-3.447433	-15.713861	-20.718592	-151.247626	-20.718592	-151.247626	-2.010277	-150.368692
9.200000	-2.948491	-15.764135	-21.029203	-155.129094	-21.029203	-155.129094	-2.041861	-153.294033
9.250000	-2.505968	-16.948230	-21.442423	-158.690320	-21.442423	-158.690320	-2.074693	-156.234869
9.300000	-2.149542	-18.786564	-21.924962	-161.829560	-21.924962	-161.829560	-2.108525	-159.192264
9.350000	-1.874238	-20.939213	-22.450659	-164.545332	-22.450659	-164.545332	-2.143176	-162.167453
9.400000	-1.664702	-23.211113	-23.002744	-166.875743	-23.002744	-166.875743	-2.178508	-165.161704
9.450000	-1.505491	-25.500759	-23.571619	-168.865370	-23.571619	-168.865370	-2.214407	-168.176238
9.500000	-1.385163	-27.757352	-24.151145	-170.540191	-24.151145	-170.540191	-2.250772	-171.213072
9.550000	-1.291493	-29.963729	-24.741574	-171.950811	-24.741574	-171.950811	-2.287475	-174.271379
9.600000	-1.219260	-32.111096	-25.340801	-173.096352	-25.340801	-173.096352	-2.324425	-177.353149
9.650000	-1.163341	-34.198939	-25.948616	-173.980151	-25.948616	-173.980151	-2.361514	179.540724
9.700000	-1.120002	-36.229995	-26.564945	-174.596123	-26.564945	-174.596123	-2.398629	176.409449
9.750000	-1.086607	-38.207558	-27.188884	-174.925271	-27.188884	-174.925271	-2.435647	173.251942
9.800000	-1.061083	-40.135930	-27.819185	-174.942896	-27.819185	-174.942896	-2.472436	170.067489
9.850000	-1.041713	-42.020588	-28.454944	-174.628488	-28.454944	-174.628488	-2.508881	166.856378
9.900000	-1.027564	-43.863556	-29.090658	-173.929671	-29.090658	-173.929671	-2.544814	163.617054
9.950000	-1.017375	-45.671519	-29.725434	-172.843400	-29.725434	-172.843400	-2.580162	160.351760
10.000000	-1.010545	-47.447064	-30.352756	-171.335784	-30.352756	-171.335784	-2.614802	157.060474
