! freq	dB(S11)	phase(S11)	dB(S12)	phase(S12)	
!     	dB(S21)	phase(S21)	dB(S22)	phase(S22)	
!S-par simulation data
#  GHz  S  DB  R 50
0.000000	-0.000000	0.000000	-331.209466	0.000000	-331.209466	0.000000	-0.000000	0.000000
0.050000	-0.001496	-2.326076	-104.387832	88.583801	-104.387832	88.583801	-0.000502	-0.775506
0.100000	-0.005095	-4.640502	-98.416586	87.058891	-98.416586	87.058891	-0.001668	-1.547099
0.150000	-0.009286	-6.941060	-94.966188	85.553481	-94.966188	85.553481	-0.002966	-2.314533
0.200000	-0.013245	-9.231355	-92.563194	84.079570	-92.563194	84.079570	-0.004155	-3.079428
0.250000	-0.016766	-11.514463	-90.749095	82.644387	-90.749095	82.644387	-0.005200	-3.843048
0.300000	-0.019917	-13.792104	-89.319937	81.257232	-89.319937	81.257232	-0.006147	-4.606121
0.350000	-0.022825	-16.064907	-88.164193	79.926952	-88.164193	79.926952	-0.007045	-5.368969
0.400000	-0.025581	-18.332588	-87.218126	78.666176	-87.218126	78.666176	-0.007928	-6.131691
0.450000	-0.028246	-20.594270	-86.444786	77.494054	-86.444786	77.494054	-0.008815	-6.894299
0.500000	-0.030862	-22.849494	-85.812765	76.424368	-85.812765	76.424368	-0.009717	-7.656775
0.550000	-0.033451	-25.097486	-85.303544	75.478169	-85.303544	75.478169	-0.010637	-8.419077
0.600000	-0.036022	-27.337055	-84.908395	74.689638	-84.908395	74.689638	-0.011575	-9.181143
0.650000	-0.038581	-29.567696	-84.615256	74.087526	-84.615256	74.087526	-0.012526	-9.942919
0.700000	-0.041128	-31.788776	-84.417107	73.711141	-84.417107	73.711141	-0.013487	-10.704341
0.750000	-0.043662	-33.999278	-84.312528	73.622811	-84.312528	73.622811	-0.014452	-11.465330
0.800000	-0.046181	-36.198545	-84.298296	73.894450	-84.298296	73.894450	-0.015417	-12.225811
0.850000	-0.048682	-38.386088	-84.370611	74.615058	-84.370611	74.615058	-0.016381	-12.985723
0.900000	-0.051161	-40.561365	-84.525546	75.903908	-84.525546	75.903908	-0.017341	-13.745003
0.950000	-0.053616	-42.723800	-84.756587	77.919292	-84.756587	77.919292	-0.018298	-14.503595
1.000000	-0.056043	-44.872902	-85.050081	80.859486	-85.050081	80.859486	-0.019250	-15.261450
1.050000	-0.058439	-47.008222	-85.379754	84.960080	-85.379754	84.960080	-0.020200	-16.018531
1.100000	-0.060803	-49.129353	-85.698524	90.462844	-85.698524	90.462844	-0.021148	-16.774806
1.150000	-0.063132	-51.235925	-85.930658	97.529776	-85.930658	97.529776	-0.022095	-17.530251
1.200000	-0.065424	-53.327605	-85.973637	106.085553	-85.973637	106.085553	-0.023042	-18.284847
1.250000	-0.067677	-55.404096	-85.724363	115.650903	-85.724363	115.650903	-0.023990	-19.038581
1.300000	-0.069889	-57.464794	-85.120565	125.337585	-85.120565	125.337585	-0.024939	-19.791420
1.350000	-0.072060	-59.509800	-84.202337	134.200436	-84.202337	134.200436	-0.025889	-20.543375
1.400000	-0.074190	-61.538916	-83.064316	141.656907	-83.064316	141.656907	-0.026842	-21.294439
1.450000	-0.076277	-63.551975	-81.810534	147.548985	-81.810534	147.548985	-0.027796	-22.044602
1.500000	-0.078323	-65.548837	-80.521188	151.999139	-80.521188	151.999139	-0.028752	-22.793859
1.550000	-0.080328	-67.529388	-79.246447	155.240431	-79.246447	155.240431	-0.029710	-23.542201
1.600000	-0.082290	-69.493540	-78.013267	157.513796	-78.013267	157.513796	-0.030669	-24.289623
1.650000	-0.084213	-71.441230	-76.833922	159.026759	-76.833922	159.026759	-0.031629	-25.036116
1.700000	-0.086096	-73.372416	-75.712353	159.944930	-75.712353	159.944930	-0.032591	-25.781671
1.750000	-0.087940	-75.287081	-74.648107	160.396251	-74.648107	160.396251	-0.033553	-26.526281
1.800000	-0.089748	-77.185225	-73.638593	160.478472	-73.638593	160.478472	-0.034517	-27.269937
1.850000	-0.091519	-79.066869	-72.680309	160.266253	-72.680309	160.266253	-0.035481	-28.012628
1.900000	-0.093256	-80.931875	-71.768980	159.814854	-71.768980	159.814854	-0.036446	-28.754336
1.950000	-0.094960	-82.780301	-70.901067	159.169820	-70.901067	159.169820	-0.037412	-29.495048
2.000000	-0.096634	-84.612400	-70.073612	158.367883	-70.073612	158.367883	-0.038379	-30.234766
2.050000	-0.098278	-86.428261	-69.283377	157.436069	-69.283377	157.436069	-0.039347	-30.973479
2.100000	-0.099895	-88.227988	-68.527428	156.395965	-68.527428	156.395965	-0.040317	-31.711175
2.150000	-0.101487	-90.011696	-67.803119	155.264974	-67.803119	155.264974	-0.041287	-32.447844
2.200000	-0.103056	-91.779515	-67.108074	154.057246	-67.108074	154.057246	-0.042259	-33.183474
2.250000	-0.104603	-93.531584	-66.440160	152.784382	-66.440160	152.784382	-0.043233	-33.918054
2.300000	-0.106131	-95.268055	-65.797456	151.455971	-65.797456	151.455971	-0.044210	-34.651572
2.350000	-0.107641	-96.989088	-65.178237	150.079990	-65.178237	150.079990	-0.045188	-35.384016
2.400000	-0.109135	-98.694853	-64.580945	148.663126	-64.580945	148.663126	-0.046169	-36.115376
2.450000	-0.110615	-100.385528	-64.004171	147.211015	-64.004171	147.211015	-0.047153	-36.845638
2.500000	-0.112084	-102.061299	-63.446638	145.728440	-63.446638	145.728440	-0.048140	-37.574793
2.550000	-0.113541	-103.721884	-62.906684	144.218719	-62.906684	144.218719	-0.049131	-38.302790
2.600000	-0.114991	-105.367971	-62.383822	142.686311	-62.383822	142.686311	-0.050126	-39.029655
2.650000	-0.116433	-106.999765	-61.877078	141.134180	-61.877078	141.134180	-0.051126	-39.755377
2.700000	-0.117871	-108.617475	-61.385561	139.564894	-61.385561	139.564894	-0.052130	-40.479943
2.750000	-0.119304	-110.221317	-60.908454	137.980684	-60.908454	137.980684	-0.053139	-41.203344
2.800000	-0.120736	-111.811509	-60.445006	136.383497	-60.445006	136.383497	-0.054153	-41.925568
2.850000	-0.122167	-113.388274	-59.994524	134.775038	-59.994524	134.775038	-0.055173	-42.646604
2.900000	-0.123600	-114.951837	-59.556368	133.156804	-59.556368	133.156804	-0.056200	-43.366441
2.950000	-0.125034	-116.502425	-59.129947	131.530114	-59.129947	131.530114	-0.057233	-44.085070
3.000000	-0.126472	-118.040269	-58.714711	129.896132	-58.714711	129.896132	-0.058273	-44.802480
3.050000	-0.127915	-119.565600	-58.310150	128.255889	-58.310150	128.255889	-0.059320	-45.518661
3.100000	-0.129363	-121.078650	-57.915791	126.610302	-57.915791	126.610302	-0.060375	-46.233604
3.150000	-0.130819	-122.579655	-57.531189	124.960185	-57.531189	124.960185	-0.061438	-46.947298
3.200000	-0.132283	-124.068849	-57.155933	123.306264	-57.155933	123.306264	-0.062509	-47.659736
3.250000	-0.133757	-125.546468	-56.789635	121.649188	-56.789635	121.649188	-0.063590	-48.370907
3.300000	-0.135240	-127.012746	-56.431932	119.989538	-56.431932	119.989538	-0.064679	-49.080804
3.350000	-0.136735	-128.467919	-56.082486	118.327836	-56.082486	118.327836	-0.065778	-49.789418
3.400000	-0.138242	-129.912222	-55.740976	116.664549	-55.740976	116.664549	-0.066887	-50.496741
3.450000	-0.139762	-131.345889	-55.407103	115.000099	-55.407103	115.000099	-0.068006	-51.202765
3.500000	-0.141295	-132.769155	-55.080583	113.334865	-55.080583	113.334865	-0.069136	-51.907483
3.550000	-0.142842	-134.182251	-54.761149	111.669191	-54.761149	111.669191	-0.070277	-52.610888
3.600000	-0.144405	-135.585410	-54.448550	110.003385	-54.448550	110.003385	-0.071430	-53.312972
3.650000	-0.145984	-136.978861	-54.142548	108.337728	-54.142548	108.337728	-0.072594	-54.013730
3.700000	-0.147578	-138.362833	-53.842916	106.672474	-53.842916	106.672474	-0.073771	-54.713155
3.750000	-0.149190	-139.737554	-53.549442	105.007855	-53.549442	105.007855	-0.074960	-55.411242
3.800000	-0.150819	-141.102867	-53.261769	103.344123	-53.261769	103.344123	-0.076162	-56.107926
3.850000	-0.152467	-142.459398	-52.979875	101.681442	-52.979875	101.681442	-0.077378	-56.803260
3.900000	-0.154133	-143.807369	-52.703577	100.019980	-52.703577	100.019980	-0.078607	-57.497239
3.950000	-0.155817	-145.146999	-52.432699	98.359896	-52.432699	98.359896	-0.079851	-58.189859
4.000000	-0.157521	-146.478506	-52.167077	96.701331	-52.167077	96.701331	-0.081109	-58.881116
4.050000	-0.159244	-147.802104	-51.906552	95.044416	-51.906552	95.044416	-0.082381	-59.571006
4.100000	-0.160986	-149.118008	-51.650972	93.389270	-51.650972	93.389270	-0.083669	-60.259525
4.150000	-0.162749	-150.426428	-51.400195	91.736003	-51.400195	91.736003	-0.084973	-60.946670
4.200000	-0.164532	-151.727573	-51.154083	90.084715	-51.154083	90.084715	-0.086292	-61.632439
4.250000	-0.166335	-153.021649	-50.912504	88.435498	-50.912504	88.435498	-0.087627	-62.316828
4.300000	-0.168158	-154.308860	-50.675335	86.788436	-50.675335	86.788436	-0.088980	-62.999836
4.350000	-0.170002	-155.589408	-50.442455	85.143607	-50.442455	85.143607	-0.090349	-63.681460
4.400000	-0.171867	-156.863492	-50.213749	83.501082	-50.213749	83.501082	-0.091736	-64.361700
4.450000	-0.173753	-158.131309	-49.989108	81.860929	-49.989108	81.860929	-0.093140	-65.040553
4.500000	-0.175660	-159.393052	-49.768427	80.223206	-49.768427	80.223206	-0.094562	-65.718019
4.550000	-0.177587	-160.648915	-49.551605	78.587972	-49.551605	78.587972	-0.096003	-66.394098
4.600000	-0.179536	-161.899086	-49.338545	76.955277	-49.338545	76.955277	-0.097463	-67.068788
4.650000	-0.181505	-163.143752	-49.129156	75.325171	-49.129156	75.325171	-0.098943	-67.742091
4.700000	-0.183495	-164.383099	-48.923348	73.697698	-48.923348	73.697698	-0.100441	-68.414006
4.750000	-0.185506	-165.617308	-48.721036	72.072899	-48.721036	72.072899	-0.101960	-69.084534
4.800000	-0.187538	-166.846560	-48.522137	70.450815	-48.522137	70.450815	-0.103500	-69.753676
4.850000	-0.189590	-168.071031	-48.326573	68.831482	-48.326573	68.831482	-0.105060	-70.421434
4.900000	-0.191663	-169.290897	-48.134269	67.214933	-48.134269	67.214933	-0.106641	-71.087808
4.950000	-0.193756	-170.506330	-47.945151	65.601202	-47.945151	65.601202	-0.108244	-71.752802
5.000000	-0.195869	-171.717501	-47.759149	63.990320	-47.759149	63.990320	-0.109869	-72.416416
5.050000	-0.198003	-172.924407	-47.576162	62.382440	-47.576162	62.382440	-0.111517	-73.078594
5.100000	-0.200156	-174.127400	-47.396164	60.777469	-47.396164	60.777469	-0.113188	-73.739399
5.150000	-0.202329	-175.326642	-47.219092	59.175431	-47.219092	59.175431	-0.114882	-74.398833
5.200000	-0.204522	-176.522294	-47.044887	57.576354	-47.044887	57.576354	-0.116600	-75.056900
5.250000	-0.206733	-177.714515	-46.873489	55.980262	-46.873489	55.980262	-0.118341	-75.713605
5.300000	-0.208963	-178.903461	-46.704844	54.387180	-46.704844	54.387180	-0.120107	-76.368949
5.350000	-0.211211	179.910714	-46.538896	52.797131	-46.538896	52.797131	-0.121898	-77.022939
5.400000	-0.213477	178.727858	-46.375595	51.210142	-46.375595	51.210142	-0.123714	-77.675579
5.450000	-0.215762	177.547822	-46.214889	49.626235	-46.214889	49.626235	-0.125555	-78.326873
5.500000	-0.218063	176.370456	-46.056731	48.045435	-46.056731	48.045435	-0.127422	-78.976826
5.550000	-0.220382	175.195616	-45.901073	46.467767	-45.901073	46.467767	-0.129315	-79.625444
5.600000	-0.222717	174.023158	-45.747871	44.893257	-45.747871	44.893257	-0.131236	-80.272733
5.650000	-0.225069	172.852941	-45.597082	43.321930	-45.597082	43.321930	-0.133183	-80.918698
5.700000	-0.227436	171.684826	-45.448664	41.753814	-45.448664	41.753814	-0.135158	-81.563346
5.750000	-0.229819	170.518674	-45.302576	40.188937	-45.302576	40.188937	-0.137160	-82.206682
5.800000	-0.232218	169.354350	-45.158779	38.627328	-45.158779	38.627328	-0.139191	-82.848714
5.850000	-0.234631	168.191722	-45.017237	37.069019	-45.017237	37.069019	-0.141250	-83.489449
5.900000	-0.237058	167.030656	-44.877912	35.514041	-44.877912	35.514041	-0.143339	-84.128894
5.950000	-0.239499	165.871024	-44.740769	33.962429	-44.740769	33.962429	-0.145457	-84.767056
6.000000	-0.241954	164.712698	-44.605776	32.414219	-44.605776	32.414219	-0.147605	-85.403943
6.050000	-0.244421	163.555552	-44.472898	30.869450	-44.472898	30.869450	-0.149783	-86.039563
6.100000	-0.246901	162.399462	-44.342106	29.328163	-44.342106	29.328163	-0.151992	-86.673924
6.150000	-0.249393	161.244305	-44.213367	27.790400	-44.213367	27.790400	-0.154232	-87.307035
6.200000	-0.251897	160.089961	-44.086652	26.256210	-44.086652	26.256210	-0.156503	-87.938904
6.250000	-0.254412	158.936312	-43.961933	24.725640	-43.961933	24.725640	-0.158806	-88.569541
6.300000	-0.256938	157.783261	-43.839193	23.198906	-43.839193	23.198906	-0.161142	-89.198901
6.350000	-0.259475	156.630662	-43.718396	21.675907	-43.718396	21.675907	-0.163511	-89.827048
6.400000	-0.262021	155.478402	-43.599516	20.156705	-43.599516	20.156705	-0.165913	-90.453992
6.450000	-0.264576	154.326369	-43.482527	18.641363	-43.482527	18.641363	-0.168349	-91.079742
6.500000	-0.267141	153.174455	-43.367406	17.129952	-43.367406	17.129952	-0.170818	-91.704308
6.550000	-0.269714	152.022551	-43.254127	15.622544	-43.254127	15.622544	-0.173321	-92.327702
6.600000	-0.272295	150.870550	-43.142666	14.119219	-43.142666	14.119219	-0.175859	-92.949933
6.650000	-0.274883	149.718348	-43.033001	12.620061	-43.033001	12.620061	-0.178432	-93.571013
6.700000	-0.277480	148.565792	-42.925159	11.125666	-42.925159	11.125666	-0.181044	-94.190821
6.750000	-0.280082	147.412911	-42.818978	9.634726	-42.818978	9.634726	-0.183684	-94.809736
6.800000	-0.282691	146.259549	-42.714521	8.148232	-42.714521	8.148232	-0.186360	-95.427524
6.850000	-0.285307	145.105427	-42.611884	6.667397	-42.611884	6.667397	-0.189081	-96.043946
6.900000	-0.287928	143.950687	-42.510862	5.190570	-42.510862	5.190570	-0.191834	-96.659441
6.950000	-0.290555	142.795290	-42.411423	3.717804	-42.411423	3.717804	-0.194618	-97.274013
7.000000	-0.293187	141.638802	-42.313746	2.251129	-42.313746	2.251129	-0.197448	-97.887262
7.050000	-0.295825	140.481299	-42.217694	0.789604	-42.217694	0.789604	-0.200316	-98.499453
7.100000	-0.298467	139.322877	-42.123157	-0.667462	-42.123157	-0.667462	-0.203217	-99.110757
7.150000	-0.301114	138.163400	-42.030150	-2.119572	-42.030150	-2.119572	-0.206153	-99.721101
7.200000	-0.303767	137.002265	-41.938874	-3.564343	-41.938874	-3.564343	-0.209140	-100.330110
7.250000	-0.306424	135.839963	-41.849042	-5.004162	-41.849042	-5.004162	-0.212161	-100.938270
7.300000	-0.309085	134.676458	-41.760624	-6.438941	-41.760624	-6.438941	-0.215215	-101.545586
7.350000	-0.311752	133.511210	-41.673778	-7.866602	-41.673778	-7.866602	-0.218315	-102.151768
7.400000	-0.314425	132.344208	-41.588435	-9.287273	-41.588435	-9.287273	-0.221458	-102.756914
7.450000	-0.317102	131.175765	-41.504427	-10.702261	-41.504427	-10.702261	-0.224636	-103.361256
7.500000	-0.319785	130.005845	-41.421726	-12.111456	-41.421726	-12.111456	-0.227849	-103.964801
7.550000	-0.322476	128.833349	-41.340622	-13.510629	-41.340622	-13.510629	-0.231119	-104.567070
7.600000	-0.325173	127.659181	-41.260761	-14.903310	-41.260761	-14.903310	-0.234424	-105.168576
7.650000	-0.327878	126.483306	-41.182111	-16.289349	-41.182111	-16.289349	-0.237764	-105.769328
7.700000	-0.330591	125.305180	-41.104772	-17.666603	-41.104772	-17.666603	-0.241150	-106.369132
7.750000	-0.333317	124.124510	-41.028734	-19.033823	-41.028734	-19.033823	-0.244585	-106.967948
7.800000	-0.336053	122.941904	-40.953789	-20.393313	-40.953789	-20.393313	-0.248057	-107.566052
7.850000	-0.338800	121.757325	-40.879905	-21.744880	-40.879905	-21.744880	-0.251565	-108.163452
7.900000	-0.341566	120.569557	-40.807239	-23.083398	-40.807239	-23.083398	-0.255129	-108.759790
7.950000	-0.344350	119.379426	-40.735543	-24.411998	-40.735543	-24.411998	-0.258734	-109.355399
8.000000	-0.347151	118.187081	-40.664741	-25.731172	-40.664741	-25.731172	-0.262377	-109.950350
8.050000	-0.349975	116.992051	-40.594832	-27.038733	-40.594832	-27.038733	-0.266064	-110.544534
8.100000	-0.352832	115.793551	-40.525763	-28.330784	-40.525763	-28.330784	-0.269805	-111.137805
8.150000	-0.355718	114.592568	-40.457350	-29.611388	-40.457350	-29.611388	-0.273585	-111.730465
8.200000	-0.358633	113.389057	-40.389542	-30.880168	-40.389542	-30.880168	-0.277404	-112.322520
8.250000	-0.361600	112.181711	-40.322216	-32.130435	-40.322216	-32.130435	-0.281278	-112.913721
8.300000	-0.364618	110.971079	-40.255187	-33.364145	-40.255187	-33.364145	-0.285198	-113.504251
8.350000	-0.367680	109.757889	-40.188431	-34.584707	-40.188431	-34.584707	-0.289154	-114.094281
8.400000	-0.370818	108.540655	-40.121622	-35.783830	-40.121622	-35.783830	-0.293163	-114.683568
8.450000	-0.374032	107.319807	-40.054612	-36.963067	-40.054612	-36.963067	-0.297218	-115.272246
8.500000	-0.377338	106.095172	-39.987161	-38.120794	-39.987161	-38.120794	-0.301320	-115.860328
8.550000	-0.380748	104.866559	-39.918994	-39.255184	-39.918994	-39.255184	-0.305468	-116.447832
8.600000	-0.384299	103.633255	-39.849560	-40.361103	-39.849560	-40.361103	-0.309669	-117.034713
8.650000	-0.388003	102.395413	-39.778578	-41.438562	-39.778578	-41.438562	-0.313918	-117.621044
8.700000	-0.391888	101.152756	-39.705565	-42.484948	-39.705565	-42.484948	-0.318215	-118.206845
8.750000	-0.395990	99.904924	-39.629922	-43.497095	-39.629922	-43.497095	-0.322561	-118.792127
8.800000	-0.400352	98.651494	-39.550918	-44.471378	-39.550918	-44.471378	-0.326956	-119.376903
8.850000	-0.405029	97.391961	-39.467654	-45.403639	-39.467654	-45.403639	-0.331401	-119.961183
8.900000	-0.410111	96.125392	-39.378680	-46.286846	-39.378680	-46.286846	-0.335899	-120.544953
8.950000	-0.415720	94.850682	-39.282076	-47.113019	-39.282076	-47.113019	-0.340453	-121.128203
9.000000	-0.421953	93.567360	-39.176398	-47.879187	-39.176398	-47.879187	-0.345058	-121.710969
9.050000	-0.428976	92.274211	-39.059168	-48.578041	-39.059168	-48.578041	-0.349718	-122.293241
9.100000	-0.437019	90.969702	-38.927150	-49.201497	-38.927150	-49.201497	-0.354432	-122.875005
9.150000	-0.446396	89.651878	-38.776060	-49.740941	-38.776060	-49.740941	-0.359201	-123.456231
9.200000	-0.457555	88.318224	-38.600162	-50.187854	-38.600162	-50.187854	-0.364026	-124.036875
9.250000	-0.471454	86.963324	-38.387095	-50.525791	-38.387095	-50.525791	-0.368912	-124.616797
9.300000	-0.489113	85.583486	-38.126206	-50.760461	-38.126206	-50.760461	-0.373853	-125.195910
9.350000	-0.512209	84.173301	-37.801470	-50.908060	-37.801470	-50.908060	-0.378842	-125.774049
9.400000	-0.542618	82.729226	-37.400297	-51.009456	-37.400297	-51.009456	-0.383864	-126.351066
9.450000	-0.587273	81.235476	-36.864544	-51.170935	-36.864544	-51.170935	-0.388892	-126.926249
9.500000	-0.653986	79.694308	-36.161677	-51.639031	-36.161677	-51.639031	-0.393853	-127.499108
9.550000	-0.761650	78.129811	-35.220458	-52.997592	-35.220458	-52.997592	-0.398567	-128.068529
9.600000	-0.943080	76.694432	-33.997844	-56.475796	-33.997844	-56.475796	-0.402615	-128.633385
9.650000	-1.231623	75.992192	-32.601307	-64.374892	-32.601307	-64.374892	-0.405039	-129.194216
9.700000	-1.489189	77.289952	-31.636201	-78.866780	-31.636201	-78.866780	-0.404380	-129.760909
9.750000	-1.304733	79.356924	-32.054555	-96.100935	-32.054555	-96.100935	-0.401699	-130.360369
9.800000	-0.914089	78.983282	-33.591741	-107.651289	-33.591741	-107.651289	-0.403416	-130.992775
9.850000	-0.669174	77.241597	-35.216869	-112.305604	-35.216869	-112.305604	-0.410533	-131.615439
9.900000	-0.546056	75.336464	-36.494521	-113.108530	-36.494521	-113.108530	-0.418942	-132.217249
9.950000	-0.483610	73.540314	-37.406097	-112.326090	-37.406097	-112.326090	-0.426884	-132.807310
10.000000	-0.450093	71.864742	-38.041016	-111.092376	-38.041016	-111.092376	-0.434196	-133.392389
