! freq	dB(S11)	phase(S11)	dB(S12)	phase(S12)	
!     	dB(S21)	phase(S21)	dB(S22)	phase(S22)	
!S-par simulation data
#  GHz  S  DB  R 50
0.000000	-0.000000	0.000000	-297.932153	0.000000	-297.932153	0.000000	-0.000000	0.000000
0.050000	-0.000098	-0.919756	-95.436721	12.030679	-95.436721	12.030679	-0.000098	-0.919718
0.100000	-0.000391	-1.839300	-95.236511	15.812632	-95.236511	15.812632	-0.000389	-1.839226
0.150000	-0.000868	-2.758431	-94.968007	20.941605	-94.968007	20.941605	-0.000864	-2.758324
0.200000	-0.001518	-3.676973	-94.638935	25.981145	-94.638935	25.981145	-0.001511	-3.676837
0.250000	-0.002332	-4.594715	-94.271999	30.592760	-94.271999	30.592760	-0.002323	-4.594556
0.300000	-0.003280	-5.511594	-93.896576	34.741507	-93.896576	34.741507	-0.003267	-5.511418
0.350000	-0.004347	-6.427473	-93.530868	38.421734	-93.530868	38.421734	-0.004331	-6.427284
0.400000	-0.005515	-7.342268	-93.191069	41.683316	-93.191069	41.683316	-0.005496	-7.342072
0.450000	-0.006764	-8.255923	-92.889510	44.594359	-92.889510	44.594359	-0.006743	-8.255723
0.500000	-0.008077	-9.168400	-92.635542	47.230439	-92.635542	47.230439	-0.008053	-9.168201
0.550000	-0.009435	-10.079683	-92.436429	49.670146	-92.436429	49.670146	-0.009410	-10.079485
0.600000	-0.010826	-10.989766	-92.298084	51.994405	-92.298084	51.994405	-0.010799	-10.989572
0.650000	-0.012235	-11.898656	-92.225616	54.288303	-92.225616	54.288303	-0.012209	-11.898465
0.700000	-0.013653	-12.806367	-92.223652	56.644858	-92.223652	56.644858	-0.013627	-12.806179
0.750000	-0.015072	-13.712915	-92.296404	59.170699	-92.296404	59.170699	-0.015046	-13.712729
0.800000	-0.016483	-14.618320	-92.447341	61.993946	-92.447341	61.993946	-0.016459	-14.618133
0.850000	-0.017883	-15.522599	-92.678212	65.274622	-92.678212	65.274622	-0.017860	-15.522411
0.900000	-0.019267	-16.425771	-92.986881	69.217381	-92.986881	69.217381	-0.019246	-16.425578
0.950000	-0.020634	-17.327849	-93.363025	74.083776	-93.363025	74.083776	-0.020615	-17.327650
1.000000	-0.021980	-18.228844	-93.780280	80.194160	-93.780280	80.194160	-0.021963	-18.228635
1.050000	-0.023307	-19.128763	-94.183872	87.893505	-94.183872	87.893505	-0.023292	-19.128544
1.100000	-0.024614	-20.027610	-94.476934	97.433586	-94.476934	97.433586	-0.024601	-20.027378
1.150000	-0.025900	-20.925387	-94.520988	108.731351	-94.520988	108.731351	-0.025889	-20.925139
1.200000	-0.027168	-21.822088	-94.178614	121.094805	-94.178614	121.094805	-0.027159	-21.821824
1.250000	-0.028417	-22.717709	-93.396730	133.272703	-93.396730	133.272703	-0.028410	-22.717427
1.300000	-0.029650	-23.612191	-92.232087	143.966258	-92.232087	143.966258	-0.029644	-23.611891
1.350000	-0.030867	-24.505571	-90.854906	152.672059	-90.854906	152.672059	-0.030862	-24.505251
1.400000	-0.032070	-25.397834	-89.395667	159.442819	-89.395667	159.442819	-0.032066	-25.397493
1.450000	-0.033260	-26.288964	-87.937535	164.580318	-87.937535	164.580318	-0.033258	-26.288603
1.500000	-0.034440	-27.178944	-86.523965	168.425126	-86.523965	168.425126	-0.034438	-27.178561
1.550000	-0.035609	-28.067755	-85.173751	171.271762	-85.173751	171.271762	-0.035608	-28.067351
1.600000	-0.036771	-28.955377	-83.892428	173.350727	-83.892428	173.350727	-0.036770	-28.954952
1.650000	-0.037925	-29.841790	-82.679046	174.835436	-82.679046	174.835436	-0.037925	-29.841345
1.700000	-0.039073	-30.726972	-81.529781	175.854815	-81.529781	175.854815	-0.039073	-30.726506
1.750000	-0.040217	-31.610903	-80.439770	176.504881	-80.439770	176.504881	-0.040217	-31.610417
1.800000	-0.041357	-32.493558	-79.403991	176.857741	-79.403991	176.857741	-0.041357	-32.493053
1.850000	-0.042494	-33.374918	-78.417662	176.968175	-78.417662	176.968175	-0.042494	-33.374394
1.900000	-0.043629	-34.254959	-77.476406	176.878331	-77.476406	176.878331	-0.043629	-34.254416
1.950000	-0.044763	-35.133660	-76.576287	176.621058	-76.576287	176.621058	-0.044763	-35.133099
2.000000	-0.045897	-36.010998	-75.713808	176.222291	-75.713808	176.222291	-0.045897	-36.010420
2.050000	-0.047032	-36.886952	-74.885866	175.702748	-74.885866	175.702748	-0.047031	-36.886358
2.100000	-0.048168	-37.761500	-74.089716	175.079179	-74.089716	175.079179	-0.048167	-37.760890
2.150000	-0.049306	-38.634622	-73.322927	174.365265	-73.322927	174.365265	-0.049304	-38.633996
2.200000	-0.050446	-39.506296	-72.583340	173.572303	-72.583340	173.572303	-0.050444	-39.505656
2.250000	-0.051590	-40.376503	-71.869035	172.709704	-71.869035	172.709704	-0.051587	-40.375849
2.300000	-0.052737	-41.245223	-71.178295	171.785380	-71.178295	171.785380	-0.052734	-41.244555
2.350000	-0.053888	-42.112436	-70.509585	170.806040	-70.509585	170.806040	-0.053885	-42.111755
2.400000	-0.055044	-42.978125	-69.861525	169.777418	-69.861525	169.777418	-0.055041	-42.977431
2.450000	-0.056205	-43.842271	-69.232871	168.704450	-69.232871	168.704450	-0.056201	-43.841565
2.500000	-0.057371	-44.704857	-68.622498	167.591414	-68.622498	167.591414	-0.057368	-44.704139
2.550000	-0.058543	-45.565796	-68.028382	166.440622	-68.028382	166.440622	-0.058540	-45.565066
2.600000	-0.059722	-46.425142	-67.450706	165.257037	-67.450706	165.257037	-0.059719	-46.424400
2.650000	-0.060908	-47.282877	-66.888610	164.043514	-66.888610	164.043514	-0.060904	-47.282124
2.700000	-0.062100	-48.138987	-66.341306	162.802593	-66.341306	162.802593	-0.062096	-48.138224
2.750000	-0.063300	-48.993459	-65.808073	161.536545	-65.808073	161.536545	-0.063296	-48.992685
2.800000	-0.064508	-49.846279	-65.288245	160.247412	-65.288245	160.247412	-0.064504	-49.845493
2.850000	-0.065723	-50.697433	-64.781209	158.937038	-64.781209	158.937038	-0.065720	-50.696637
2.900000	-0.066948	-51.546911	-64.286396	157.607095	-64.286396	157.607095	-0.066944	-51.546104
2.950000	-0.068181	-52.394700	-63.803280	156.259108	-63.803280	156.259108	-0.068178	-52.393882
3.000000	-0.069423	-53.240790	-63.331370	154.894466	-63.331370	154.894466	-0.069420	-53.239961
3.050000	-0.070675	-54.085170	-62.870209	153.514449	-62.870209	153.514449	-0.070672	-54.084330
3.100000	-0.071936	-54.927831	-62.419370	152.120230	-62.419370	152.120230	-0.071934	-54.926981
3.150000	-0.073208	-55.768765	-61.978452	150.712894	-61.978452	150.712894	-0.073206	-55.767903
3.200000	-0.074491	-56.607963	-61.547080	149.293447	-61.547080	149.293447	-0.074489	-56.607089
3.250000	-0.075784	-57.445417	-61.124901	147.862818	-61.124901	147.862818	-0.075783	-57.444532
3.300000	-0.077089	-58.281121	-60.711580	146.421876	-60.711580	146.421876	-0.077088	-58.280225
3.350000	-0.078405	-59.115069	-60.306805	144.971427	-60.306805	144.971427	-0.078405	-59.114160
3.400000	-0.079734	-59.947254	-59.910276	143.512226	-59.910276	143.512226	-0.079734	-59.946334
3.450000	-0.081075	-60.777673	-59.521712	142.044976	-59.521712	142.044976	-0.081075	-60.776741
3.500000	-0.082428	-61.606321	-59.140845	140.570337	-59.140845	140.570337	-0.082429	-61.605375
3.550000	-0.083795	-62.433193	-58.767419	139.088927	-58.767419	139.088927	-0.083797	-62.432235
3.600000	-0.085176	-63.258287	-58.401193	137.601325	-58.401193	137.601325	-0.085178	-63.257317
3.650000	-0.086571	-64.081601	-58.041934	136.108075	-58.041934	136.108075	-0.086573	-64.080618
3.700000	-0.087980	-64.903132	-57.689421	134.609685	-57.689421	134.609685	-0.087982	-64.902136
3.750000	-0.089404	-65.722880	-57.343443	133.106635	-57.343443	133.106635	-0.089407	-65.721871
3.800000	-0.090844	-66.540766	-57.003497	131.599211	-57.003497	131.599211	-0.090847	-66.539743
3.850000	-0.092301	-67.356868	-56.669713	130.088031	-56.669713	130.088031	-0.092303	-67.355831
3.900000	-0.093773	-68.171185	-56.341902	128.573488	-56.341902	128.573488	-0.093776	-68.170135
3.950000	-0.095262	-68.983720	-56.019884	127.055947	-56.019884	127.055947	-0.095265	-68.982657
4.000000	-0.096768	-69.794474	-55.703486	125.535751	-55.703486	125.535751	-0.096771	-69.793397
4.050000	-0.098292	-70.603449	-55.392538	124.013222	-55.392538	124.013222	-0.098295	-70.602359
4.100000	-0.099834	-71.410649	-55.086882	122.488658	-55.086882	122.488658	-0.099837	-71.409545
4.150000	-0.101394	-72.216076	-54.786361	120.962337	-54.786361	120.962337	-0.101397	-72.214958
4.200000	-0.102973	-73.019734	-54.490826	119.434520	-54.490826	119.434520	-0.102977	-73.018602
4.250000	-0.104572	-73.821628	-54.200134	117.905447	-54.200134	117.905447	-0.104576	-73.820483
4.300000	-0.106191	-74.621763	-53.914146	116.375341	-53.914146	116.375341	-0.106195	-74.620604
4.350000	-0.107831	-75.420145	-53.632726	114.844407	-53.632726	114.844407	-0.107834	-75.418972
4.400000	-0.109491	-76.216778	-53.355748	113.312837	-53.355748	113.312837	-0.109494	-76.215592
4.450000	-0.111173	-77.011671	-53.083084	111.780803	-53.083084	111.780803	-0.111176	-77.010471
4.500000	-0.112877	-77.804829	-52.814616	110.248466	-52.814616	110.248466	-0.112880	-77.803616
4.550000	-0.114603	-78.596260	-52.550226	108.715970	-52.550226	108.715970	-0.114606	-78.595034
4.600000	-0.116357	-79.385677	-52.289138	107.183478	-52.289138	107.183478	-0.116359	-79.384438
4.650000	-0.118134	-80.173310	-52.031785	105.651085	-52.031785	105.651085	-0.118136	-80.172057
4.700000	-0.119925	-80.960058	-51.779960	104.118835	-51.779960	104.118835	-0.119926	-80.958793
4.750000	-0.121754	-81.744156	-51.529753	102.587011	-51.529753	102.587011	-0.121755	-81.742878
4.800000	-0.123591	-82.527672	-51.285374	101.055341	-51.285374	101.055341	-0.123592	-82.526382
4.850000	-0.125473	-83.308279	-51.041956	99.524440	-51.041956	99.524440	-0.125473	-83.306976
4.900000	-0.127359	-84.088599	-50.804619	97.993638	-50.804619	97.993638	-0.127359	-84.087284
4.950000	-0.129296	-84.865763	-50.567657	96.463927	-50.567657	96.463927	-0.129295	-84.864437
5.000000	-0.131233	-85.642927	-50.336987	94.934215	-50.336987	94.934215	-0.131232	-85.641589
5.050000	-0.133227	-86.416701	-50.106168	93.405883	-50.106168	93.405883	-0.133225	-86.415352
5.100000	-0.135221	-87.190476	-49.881325	91.877551	-49.881325	91.877551	-0.135219	-87.189114
5.150000	-0.137269	-87.961194	-49.656855	90.350596	-49.656855	90.350596	-0.137267	-87.959821
5.200000	-0.139323	-88.731634	-49.437570	88.823767	-49.437570	88.823767	-0.139320	-88.730250
5.250000	-0.141428	-89.499347	-49.219128	87.298249	-49.219128	87.298249	-0.141425	-89.497952
5.300000	-0.143543	-90.266514	-49.005155	85.772993	-49.005155	85.772993	-0.143540	-90.265108
5.350000	-0.145706	-91.031274	-48.792444	84.248936	-48.792444	84.248936	-0.145702	-91.029857
5.400000	-0.147886	-91.795232	-48.583554	82.725278	-48.583554	82.725278	-0.147881	-91.793804
5.450000	-0.150108	-92.557096	-48.376302	81.202682	-48.376302	81.202682	-0.150104	-92.555657
5.500000	-0.152353	-93.317913	-48.172284	79.680616	-48.172284	79.680616	-0.152348	-93.316463
5.550000	-0.154638	-94.076939	-47.970242	78.159461	-47.970242	78.159461	-0.154632	-94.075479
5.600000	-0.156950	-94.834687	-47.770904	76.638957	-47.770904	76.638957	-0.156945	-94.833216
5.650000	-0.159298	-95.590938	-47.573843	75.119212	-47.573843	75.119212	-0.159292	-95.589456
5.700000	-0.161681	-96.345692	-47.379008	73.600225	-47.379008	73.600225	-0.161675	-96.344199
5.750000	-0.164093	-97.099231	-47.186720	72.081850	-47.186720	72.081850	-0.164087	-97.097727
5.800000	-0.166548	-97.851070	-46.996229	70.564332	-46.996229	70.564332	-0.166542	-97.849555
5.850000	-0.169027	-98.601965	-46.808521	69.047290	-46.808521	69.047290	-0.169021	-98.600439
5.900000	-0.171555	-99.350972	-46.622230	67.531198	-46.622230	67.531198	-0.171549	-99.349435
5.950000	-0.174103	-100.099292	-46.438928	66.015455	-46.438928	66.015455	-0.174096	-100.097744
6.000000	-0.176706	-100.845553	-46.256707	64.500758	-46.256707	64.500758	-0.176700	-100.843993
6.050000	-0.179324	-101.591371	-46.077652	62.986292	-46.077652	62.986292	-0.179317	-101.589799
6.100000	-0.182005	-102.334976	-45.899385	61.472979	-45.899385	61.472979	-0.181999	-102.333391
6.150000	-0.184693	-103.078366	-45.724432	59.959783	-45.724432	59.959783	-0.184687	-103.076770
6.200000	-0.187454	-103.819407	-45.550014	58.447872	-45.550014	58.447872	-0.187448	-103.817798
6.250000	-0.190215	-104.560448	-45.379030	56.935961	-45.379030	56.935961	-0.190209	-104.558826
6.300000	-0.193056	-105.299021	-45.208370	55.425501	-45.208370	55.425501	-0.193051	-105.297386
6.350000	-0.195898	-106.037595	-45.040998	53.915041	-45.040998	53.915041	-0.195893	-106.035946
6.400000	-0.198815	-106.773998	-44.874248	52.405994	-44.874248	52.405994	-0.198810	-106.772336
6.450000	-0.201740	-107.510205	-44.710413	50.897076	-44.710413	50.897076	-0.201735	-107.508528
6.500000	-0.204734	-108.244524	-44.547466	49.389554	-44.547466	49.389554	-0.204730	-108.242832
6.550000	-0.207743	-108.978465	-44.387098	47.882311	-44.387098	47.882311	-0.207739	-108.976759
6.600000	-0.210815	-109.710788	-44.227854	46.376461	-44.227854	46.376461	-0.210812	-109.709067
6.650000	-0.213910	-110.442572	-44.070892	44.871075	-44.070892	44.871075	-0.213907	-110.440835
6.700000	-0.217062	-111.172989	-43.915258	43.367082	-43.915258	43.367082	-0.217059	-111.171237
6.750000	-0.220243	-111.902725	-43.761648	41.863787	-43.761648	41.863787	-0.220241	-111.900957
6.800000	-0.223476	-112.631331	-43.609538	40.361877	-43.609538	40.361877	-0.223474	-112.629546
6.850000	-0.226746	-113.359130	-43.459225	38.860957	-43.459225	38.860957	-0.226745	-113.357329
6.900000	-0.230061	-114.086020	-43.310558	37.361395	-43.310558	37.361395	-0.230060	-114.084202
6.950000	-0.233421	-114.812000	-43.163494	35.863191	-43.163494	35.863191	-0.233420	-114.810166
7.000000	-0.236819	-115.537273	-43.018191	34.366283	-43.018191	34.366283	-0.236818	-115.535421
7.050000	-0.240269	-116.261553	-42.874328	32.871189	-42.874328	32.871189	-0.240269	-116.259684
7.100000	-0.243751	-116.985309	-42.732313	31.377281	-42.732313	31.377281	-0.243751	-116.983422
7.150000	-0.247294	-117.708013	-42.591603	29.885745	-42.591603	29.885745	-0.247294	-117.706109
7.200000	-0.250861	-118.430354	-42.452801	28.395223	-42.452801	28.395223	-0.250861	-118.428433
7.250000	-0.254497	-119.151608	-42.315193	26.907743	-42.315193	26.907743	-0.254497	-119.149670
7.300000	-0.258150	-119.872642	-42.179532	25.421031	-42.179532	25.421031	-0.258150	-119.870686
7.350000	-0.261880	-120.592575	-42.044972	23.938155	-42.044972	23.938155	-0.261880	-120.590603
7.400000	-0.265620	-121.312409	-41.912377	22.455712	-41.912377	22.455712	-0.265620	-121.310420
7.450000	-0.269445	-122.031155	-41.780808	20.978030	-41.780808	20.978030	-0.269445	-122.029150
7.500000	-0.273272	-122.749900	-41.651202	19.500349	-41.651202	19.500349	-0.273272	-122.747880
7.550000	-0.277193	-123.467595	-41.522560	18.028493	-41.522560	18.028493	-0.277193	-123.465560
7.600000	-0.281116	-124.185290	-41.395796	16.556637	-41.395796	16.556637	-0.281116	-124.183241
7.650000	-0.285127	-124.902150	-41.270082	15.090729	-41.270082	15.090729	-0.285126	-124.900088
7.700000	-0.289146	-125.618934	-41.146092	13.625363	-41.146092	13.625363	-0.289146	-125.616859
7.750000	-0.293246	-126.335079	-41.023214	12.165981	-41.023214	12.165981	-0.293245	-126.332994
7.800000	-0.297364	-127.051096	-40.901924	10.707796	-40.901924	10.707796	-0.297362	-127.049000
7.850000	-0.301553	-127.766648	-40.781784	9.255531	-40.781784	9.255531	-0.301551	-127.764545
7.900000	-0.305769	-128.482045	-40.663112	7.805239	-40.663112	7.805239	-0.305766	-128.479935
7.950000	-0.310049	-129.197130	-40.545610	6.360694	-40.545610	6.360694	-0.310046	-129.195016
8.000000	-0.314363	-129.912059	-40.429463	4.919022	-40.429463	4.919022	-0.314359	-129.909942
8.050000	-0.318734	-130.626805	-40.314491	3.482804	-40.314491	3.482804	-0.318729	-130.624687
8.100000	-0.323147	-131.341420	-40.200768	2.050483	-40.200768	2.050483	-0.323142	-131.339304
8.150000	-0.327609	-132.055957	-40.088214	0.623201	-40.088214	0.623201	-0.327603	-132.053846
8.200000	-0.332121	-132.770417	-39.976803	-0.799040	-39.976803	-0.799040	-0.332114	-132.768313
8.250000	-0.336675	-133.484881	-39.866550	-2.216782	-39.866550	-2.216782	-0.336668	-133.482787
8.300000	-0.341286	-134.199349	-39.757329	-3.628224	-39.757329	-3.628224	-0.341278	-134.197269
8.350000	-0.345931	-134.913875	-39.649253	-5.035831	-39.649253	-5.035831	-0.345923	-134.911812
8.400000	-0.350642	-135.628518	-39.542088	-6.435770	-39.542088	-6.435770	-0.350634	-135.626476
8.450000	-0.355379	-136.343247	-39.436061	-7.832663	-39.436061	-7.832663	-0.355370	-136.341229
8.500000	-0.360189	-137.058235	-39.330810	-9.220419	-39.330810	-9.220419	-0.360180	-137.056248
8.550000	-0.365018	-137.773310	-39.226697	-10.606037	-39.226697	-10.606037	-0.365009	-137.771356
8.600000	-0.369928	-138.488820	-39.123207	-11.980961	-39.123207	-11.980961	-0.369918	-138.486907
8.650000	-0.374848	-139.204387	-39.020868	-13.354765	-39.020868	-13.354765	-0.374839	-139.202517
8.700000	-0.379857	-139.920598	-38.918976	-14.716245	-38.918976	-14.716245	-0.379848	-139.918780
8.750000	-0.384868	-140.636808	-38.818266	-16.077725	-38.818266	-16.077725	-0.384860	-140.635043
8.800000	-0.389976	-141.353904	-38.717800	-17.425189	-38.717800	-17.425189	-0.389969	-141.352205
8.850000	-0.395086	-142.070999	-38.618483	-18.772653	-38.618483	-18.772653	-0.395080	-142.069367
8.900000	-0.400284	-142.789079	-38.519347	-20.106786	-38.519347	-20.106786	-0.400280	-142.787527
8.950000	-0.405493	-143.507249	-38.421245	-21.439707	-38.421245	-21.439707	-0.405491	-143.505778
9.000000	-0.410781	-144.226476	-38.323273	-22.760114	-38.323273	-22.760114	-0.410782	-144.225099
9.050000	-0.416088	-144.945914	-38.226201	-24.078017	-38.226201	-24.078017	-0.416091	-144.944635
9.100000	-0.421466	-145.666453	-38.129220	-25.384338	-38.129220	-25.384338	-0.421473	-145.665285
9.150000	-0.426869	-146.387358	-38.032985	-26.686798	-38.032985	-26.686798	-0.426880	-146.386306
9.200000	-0.432336	-147.109378	-37.936819	-27.978718	-37.936819	-27.978718	-0.432352	-147.108455
9.250000	-0.437836	-147.831954	-37.841219	-29.265366	-37.841219	-29.265366	-0.437857	-147.831168
9.300000	-0.443390	-148.555628	-37.745691	-30.542609	-37.745691	-30.542609	-0.443417	-148.554992
9.350000	-0.448985	-149.280086	-37.650518	-31.813133	-37.650518	-31.813133	-0.449019	-149.279608
9.400000	-0.454626	-150.005591	-37.555446	-33.075465	-37.555446	-33.075465	-0.454669	-150.005284
9.450000	-0.460315	-150.732145	-37.460484	-34.329608	-37.460484	-34.329608	-0.460367	-150.732021
9.500000	-0.466042	-151.459663	-37.365684	-35.576841	-37.365684	-35.576841	-0.466104	-151.459734
9.550000	-0.471823	-152.188533	-37.270710	-36.814402	-37.270710	-36.814402	-0.471897	-152.188814
9.600000	-0.477635	-152.918251	-37.175995	-38.046388	-37.175995	-38.046388	-0.477721	-152.918751
9.650000	-0.483507	-153.649664	-37.080781	-39.267225	-37.080781	-39.267225	-0.483607	-153.650404
9.700000	-0.489403	-154.381771	-36.985961	-40.483860	-36.985961	-40.483860	-0.489518	-154.382758
9.750000	-0.495363	-155.115961	-36.890271	-41.687885	-36.890271	-41.687885	-0.495497	-155.117218
9.800000	-0.501341	-155.850652	-36.795155	-42.889104	-36.795155	-42.889104	-0.501493	-155.852186
9.850000	-0.507389	-156.587857	-36.698748	-44.076286	-36.698748	-44.076286	-0.507562	-156.589696
9.900000	-0.513447	-157.325333	-36.603141	-45.262065	-36.603141	-45.262065	-0.513642	-157.327480
9.950000	-0.519579	-158.065798	-36.505768	-46.432424	-36.505768	-46.432424	-0.519800	-158.068287
10.000000	-0.525716	-158.806263	-36.409474	-47.602782	-36.409474	-47.602782	-0.525962	-158.809094
