! freq	dB(S11)	phase(S11)	dB(S12)	phase(S12)	
!     	dB(S21)	phase(S21)	dB(S22)	phase(S22)	
!S-par simulation data
#  GHz  S  DB  R 50
0.000000	-82.366003	0.000000	-0.000662	0.000000	-0.000662	0.000000	-82.366003	0.000000
0.050000	-37.776595	-91.519598	-0.006915	-3.199994	-0.006915	-3.199994	-37.794919	-92.943929
0.100000	-31.838020	-94.449875	-0.015490	-6.351537	-0.015490	-6.351537	-31.855731	-97.156079
0.150000	-28.363964	-97.219620	-0.023540	-9.491373	-0.023540	-9.491373	-28.384722	-101.263308
0.200000	-25.910827	-99.872796	-0.032430	-12.627975	-0.032430	-12.627975	-25.933973	-105.275247
0.250000	-24.021256	-102.456426	-0.042581	-15.760965	-0.042581	-15.760965	-24.046282	-109.231521
0.300000	-22.491905	-104.988667	-0.054011	-18.889153	-0.054011	-18.889153	-22.518503	-113.152759
0.350000	-21.213122	-107.481605	-0.066515	-22.012329	-0.066515	-22.012329	-21.241055	-117.054893
0.400000	-20.119260	-109.941603	-0.079896	-25.130966	-0.079896	-25.130966	-20.148347	-120.948531
0.450000	-19.169199	-112.370327	-0.094049	-28.245628	-0.094049	-28.245628	-19.199316	-124.841617
0.500000	-18.333031	-114.770307	-0.108855	-31.357201	-0.108855	-31.357201	-18.364100	-128.740256
0.550000	-17.591237	-117.140008	-0.124287	-34.466101	-0.124287	-34.466101	-17.623238	-132.649901
0.600000	-16.927844	-119.479498	-0.140271	-37.572809	-0.140271	-37.572809	-16.960802	-136.574641
0.650000	-16.332208	-121.785880	-0.156764	-40.677545	-0.156764	-40.677545	-16.366194	-140.519447
0.700000	-15.794547	-124.058373	-0.173673	-43.780681	-0.173673	-43.780681	-15.829659	-144.487738
0.750000	-15.308497	-126.293339	-0.190916	-46.882535	-0.190916	-46.882535	-15.344871	-148.484776
0.800000	-14.867522	-128.489567	-0.208383	-49.983618	-0.208383	-49.983618	-14.905308	-152.513979
0.850000	-14.467425	-130.643155	-0.225969	-53.084520	-0.225969	-53.084520	-14.506805	-156.581060
0.900000	-14.103786	-132.752028	-0.243563	-56.185984	-0.243563	-56.185984	-14.144958	-160.690285
0.950000	-13.773474	-134.812379	-0.261056	-59.288914	-0.261056	-59.288914	-13.816659	-164.847716
1.000000	-13.473439	-136.821080	-0.278346	-62.394339	-0.278346	-62.394339	-13.518884	-169.058967
1.050000	-13.201094	-138.774531	-0.295337	-65.503436	-0.295337	-65.503436	-13.249069	-173.330334
1.100000	-12.954306	-140.668260	-0.311941	-68.617573	-0.311941	-68.617573	-13.005122	-177.669301
1.150000	-12.731353	-142.496404	-0.328073	-71.738429	-0.328073	-71.738429	-12.785367	177.914680
1.200000	-12.529194	-144.258923	-0.343711	-74.867093	-0.343711	-74.867093	-12.586772	173.419017
1.250000	-12.346359	-145.950334	-0.358809	-78.005254	-0.358809	-78.005254	-12.407915	168.834645
1.300000	-12.182402	-147.558103	-0.373290	-81.155888	-0.373290	-81.155888	-12.248465	164.142902
1.350000	-12.034254	-149.083645	-0.387209	-84.319977	-0.387209	-84.319977	-12.105352	159.342809
1.400000	-11.900094	-150.523055	-0.400594	-87.499191	-0.400594	-87.499191	-11.976798	154.426786
1.450000	-11.778914	-151.863999	-0.413457	-90.696894	-0.413457	-90.696894	-11.861912	149.375350
1.500000	-11.668490	-153.102183	-0.425886	-93.915143	-0.425886	-93.915143	-11.758516	144.179531
1.550000	-11.566668	-154.232442	-0.437995	-97.156226	-0.437995	-97.156226	-11.664507	138.828932
1.600000	-11.471196	-155.248920	-0.449925	-100.422745	-0.449925	-100.422745	-11.577685	133.311696
1.650000	-11.379599	-156.145858	-0.461854	-103.717544	-0.461854	-103.717544	-11.495617	127.615410
1.700000	-11.289124	-156.920939	-0.474001	-107.042983	-0.474001	-107.042983	-11.415548	121.731982
1.750000	-11.196720	-157.569272	-0.486636	-110.402586	-0.486636	-110.402586	-11.334431	115.648116
1.800000	-11.099259	-158.094300	-0.500053	-113.798258	-0.500053	-113.798258	-11.249048	109.362248
1.850000	-10.992934	-158.494532	-0.514651	-117.234327	-0.514651	-117.234327	-11.155518	102.862535
1.900000	-10.874507	-158.780892	-0.530801	-120.712273	-0.530801	-120.712273	-11.050392	96.155852
1.950000	-10.739757	-158.960676	-0.549042	-124.236499	-0.549042	-124.236499	-10.929240	89.239113
2.000000	-10.585566	-159.052124	-0.569860	-127.808755	-0.569860	-127.808755	-10.788625	82.126392
2.050000	-10.408146	-159.074420	-0.593924	-131.432879	-0.593924	-131.432879	-10.624412	74.828460
2.100000	-10.204947	-159.053875	-0.621885	-135.111089	-0.621885	-135.111089	-10.433662	67.367405
2.150000	-9.973686	-159.020211	-0.654527	-138.846270	-0.654527	-138.846270	-10.213700	59.767877
2.200000	-9.712959	-159.006652	-0.692720	-142.641094	-0.692720	-142.641094	-9.962762	52.059157
2.250000	-9.422902	-159.047562	-0.737333	-146.497119	-0.737333	-146.497119	-9.680703	44.274611
2.300000	-9.103618	-159.179220	-0.789515	-150.417371	-0.789515	-150.417371	-9.367402	36.446811
2.350000	-8.757951	-159.431898	-0.850176	-154.401706	-0.850176	-154.401706	-9.025662	28.609071
2.400000	-8.387391	-159.839925	-0.920806	-158.453303	-0.920806	-158.453303	-8.656946	20.791925
2.450000	-7.996818	-160.422546	-1.002342	-162.570290	-1.002342	-162.570290	-8.266327	13.020651
2.500000	-7.589085	-161.205551	-1.096516	-166.754743	-1.096516	-166.754743	-7.856809	5.318847
2.550000	-7.169546	-162.196892	-1.204424	-171.003920	-1.204424	-171.003920	-7.434057	-2.298861
2.600000	-6.742022	-163.409145	-1.327853	-175.317612	-1.327853	-175.317612	-7.002141	-9.818614
2.650000	-6.311305	-164.841923	-1.468172	-179.692527	-1.468172	-179.692527	-6.566157	-17.234086
2.700000	-5.881416	-166.494677	-1.627096	175.874167	-1.627096	175.874167	-6.130381	-24.540366
2.750000	-5.456220	-168.361508	-1.806293	171.386524	-1.806293	171.386524	-5.698918	-31.735859
2.800000	-5.039295	-170.431482	-2.007303	166.849852	-2.007303	166.849852	-5.275552	-38.821836
2.850000	-4.633544	-172.695793	-2.232114	162.269132	-2.232114	162.269132	-4.863342	-45.798222
2.900000	-4.241704	-175.136565	-2.482027	157.651634	-2.482027	157.651634	-4.465171	-52.669724
2.950000	-3.865869	-177.743903	-2.759371	153.003329	-2.759371	153.003329	-4.083223	-59.435720
3.000000	-3.507751	179.503278	-3.065289	148.332539	-3.065289	148.332539	-3.719298	-66.102250
3.050000	-3.168802	176.616201	-3.402304	143.646333	-3.402304	143.646333	-3.374898	-72.668235
3.100000	-2.849778	173.614860	-3.771800	138.952976	-3.771800	138.952976	-3.050822	-79.138998
3.150000	-2.551474	170.512219	-4.176345	134.260242	-4.176345	134.260242	-2.747893	-85.514338
3.200000	-2.274004	167.324853	-4.618035	129.575837	-4.618035	129.575837	-2.466239	-91.797896
3.250000	-2.017492	164.066080	-5.099757	124.907389	-5.099757	124.907389	-2.205995	-97.990959
3.300000	-1.781690	160.749118	-5.624717	120.262138	-5.624717	120.262138	-1.966922	-104.096063
3.350000	-1.566134	157.386050	-6.196786	115.646982	-6.196786	115.646982	-1.748553	-110.116223
3.400000	-1.370282	153.987367	-6.820871	111.068793	-6.820871	111.068793	-1.550351	-116.054345
3.450000	-1.193980	150.561819	-7.503395	106.536289	-7.503395	106.536289	-1.372177	-121.911440
3.500000	-1.035484	147.118976	-8.251766	102.053907	-8.251766	102.053907	-1.212262	-127.696703
3.550000	-0.894441	143.664934	-9.076712	97.631653	-9.076712	97.631653	-1.070269	-133.412544
3.600000	-0.770031	140.205440	-9.992254	93.280680	-9.992254	93.280680	-0.945381	-139.064335
3.650000	-0.661442	136.745181	-11.017652	89.016673	-11.017652	89.016673	-0.836799	-144.658055
3.700000	-0.567896	133.287891	-12.180178	84.863659	-12.180178	84.863659	-0.743751	-150.200281
3.750000	-0.488657	129.836452	-13.519962	80.861406	-13.519962	80.861406	-0.665520	-155.698157
3.800000	-0.423330	126.393222	-15.099001	77.089186	-15.099001	77.089186	-0.601743	-161.158766
3.850000	-0.371027	122.959568	-17.020559	73.694022	-17.020559	73.694022	-0.551545	-166.591312
3.900000	-0.331237	119.536497	-19.474129	71.028111	-19.474129	71.028111	-0.514447	-172.004516
3.950000	-0.303542	116.124644	-22.864606	70.142957	-22.864606	70.142957	-0.490067	-177.407551
4.000000	-0.287615	112.724394	-28.284268	76.115884	-28.284268	76.115884	-0.478124	177.189968
4.050000	-0.283233	109.335988	-35.861552	136.153829	-35.861552	136.153829	-0.478446	171.778008
4.100000	-0.290269	105.959652	-28.968591	-157.395604	-28.968591	-157.395604	-0.490970	166.346121
4.150000	-0.308699	102.595705	-23.291493	-149.936589	-23.291493	-149.936589	-0.515746	160.883454
4.200000	-0.338599	99.244690	-19.811665	-150.573307	-19.811665	-150.573307	-0.552935	155.378743
4.250000	-0.380145	95.907501	-17.324548	-153.186552	-17.324548	-153.186552	-0.602811	149.820315
4.300000	-0.433604	92.585519	-15.392790	-156.595873	-15.392790	-156.595873	-0.665758	144.196078
4.350000	-0.499334	89.280762	-13.815098	-160.418601	-13.815098	-160.418601	-0.742268	138.493514
4.400000	-0.577904	85.996308	-12.483042	-164.497149	-12.483042	-164.497149	-0.833078	132.698521
4.450000	-0.669824	82.736112	-11.331843	-168.753222	-11.331843	-168.753222	-0.938881	126.797221
4.500000	-0.775333	79.504526	-10.319812	-173.143010	-10.319812	-173.143010	-1.060083	120.778494
4.550000	-0.895269	76.308534	-9.418972	-177.646519	-9.418972	-177.646519	-1.197787	114.625426
4.600000	-1.030078	73.155828	-8.609603	177.751340	-8.609603	177.751340	-1.352688	108.324151
4.650000	-1.180248	70.056062	-7.877524	173.059671	-7.877524	173.059671	-1.525564	101.859392
4.700000	-1.346182	67.020998	-7.212353	168.284827	-7.212353	168.284827	-1.717144	95.214898
4.750000	-1.528117	64.064834	-6.606426	163.431857	-6.606426	163.431857	-1.928019	88.373252
4.800000	-1.725839	61.202702	-6.053815	158.506546	-6.053815	158.506546	-2.158311	81.319455
4.850000	-1.938856	58.452186	-5.550089	153.514301	-5.550089	153.514301	-2.407875	74.036882
4.900000	-2.166243	55.834201	-5.092086	148.460619	-5.092086	148.460619	-2.676116	66.506114
4.950000	-2.406212	53.365018	-4.676599	143.353939	-4.676599	143.353939	-2.961416	58.718211
5.000000	-2.656558	51.067489	-4.301856	138.201233	-4.301856	138.201233	-3.261689	50.654251
5.050000	-2.914004	48.964921	-3.966579	133.011061	-3.966579	133.011061	-3.573513	42.296644
5.100000	-3.174350	47.071780	-3.668909	127.794138	-3.668909	127.794138	-3.892164	33.641116
5.150000	-3.432541	45.400948	-3.407487	122.561221	-3.407487	122.561221	-4.211639	24.684704
5.200000	-3.682708	43.958759	-3.180997	117.323628	-3.180997	117.323628	-4.524577	15.432862
5.250000	-3.918407	42.742888	-2.988098	112.092963	-2.988098	112.092963	-4.822441	5.902390
5.300000	-4.132981	41.740619	-2.827387	106.880823	-2.827387	106.880823	-5.095935	-3.875735
5.350000	-4.318665	40.933796	-2.698414	101.700047	-2.698414	101.700047	-5.333845	-13.859457
5.400000	-4.472399	40.274613	-2.597591	96.558854	-2.597591	96.558854	-5.530800	-23.971976
5.450000	-4.589046	39.725300	-2.524144	91.468004	-2.524144	91.468004	-5.678728	-34.141869
5.500000	-4.666330	39.236159	-2.476304	86.436218	-2.476304	86.436218	-5.773552	-44.281938
5.550000	-4.704283	38.756313	-2.452071	81.470404	-2.452071	81.470404	-5.814747	-54.304612
5.600000	-4.703739	38.236183	-2.450067	76.578379	-2.450067	76.578379	-5.803385	-64.121447
5.650000	-4.668386	37.632982	-2.468224	71.764544	-2.468224	71.764544	-5.744886	-73.661158
5.700000	-4.602766	36.912974	-2.504689	67.032531	-2.504689	67.032531	-5.646115	-82.868608
5.750000	-4.511875	36.051321	-2.557792	62.385412	-2.557792	62.385412	-5.514622	-91.704436
5.800000	-4.401516	35.037449	-2.625495	57.822579	-2.625495	57.822579	-5.358892	-100.158428
5.850000	-4.276470	33.864838	-2.706347	53.344948	-2.706347	53.344948	-5.185829	-108.223855
5.900000	-4.141253	32.534623	-2.798869	48.951909	-2.798869	48.951909	-5.001721	-115.908020
5.950000	-3.999762	31.052740	-2.901691	44.642142	-2.901691	44.642142	-4.811796	-123.226003
6.000000	-3.855237	29.428316	-3.013561	40.413742	-3.013561	40.413742	-4.620223	-130.197801
6.050000	-3.710283	27.672339	-3.133341	36.264347	-3.133341	36.264347	-4.430196	-136.846072
6.100000	-3.566929	25.796623	-3.260006	32.191245	-3.260006	32.191245	-4.244075	-143.194477
6.150000	-3.426702	23.813060	-3.392637	28.191469	-3.392637	28.191469	-4.063523	-149.266540
6.200000	-3.290713	21.733115	-3.530419	24.261882	-3.530419	24.261882	-3.889656	-155.084916
6.250000	-3.159734	19.567514	-3.672632	20.399245	-3.672632	20.399245	-3.723157	-160.670964
6.300000	-3.034356	17.324625	-3.818657	16.601584	-3.818657	16.601584	-3.564499	-166.040329
6.350000	-2.914796	15.015068	-3.967901	12.864167	-3.967901	12.864167	-3.413698	-171.216204
6.400000	-2.801176	12.646610	-4.119892	9.183760	-4.119892	9.183760	-3.270689	-176.215141
6.450000	-2.693505	10.226068	-4.274224	5.557202	-4.274224	5.557202	-3.135288	178.947813
6.500000	-2.591704	7.759376	-4.430549	1.981419	-4.430549	1.981419	-3.007229	174.259025
6.550000	-2.495634	5.251652	-4.588574	-1.546552	-4.588574	-1.546552	-2.886197	169.706163
6.600000	-2.405118	2.707281	-4.748052	-5.029565	-4.748052	-5.029565	-2.771846	165.278086
6.650000	-2.319948	0.129987	-4.908781	-8.470347	-4.908781	-8.470347	-2.663812	160.964733
6.700000	-2.239905	-2.477093	-5.070598	-11.871507	-5.070598	-11.871507	-2.561734	156.757023
6.750000	-2.164762	-5.111344	-5.233372	-15.235524	-5.233372	-15.235524	-2.465250	152.646753
6.800000	-2.094289	-7.770618	-5.397007	-18.564758	-5.397007	-18.564758	-2.374012	148.626516
6.850000	-2.028263	-10.453172	-5.561432	-21.861447	-5.561432	-21.861447	-2.287685	144.689618
6.900000	-1.966974	-13.160574	-5.726260	-25.123712	-5.726260	-25.123712	-2.206451	140.840120
6.950000	-1.909212	-15.886003	-5.892125	-28.361561	-5.892125	-28.361561	-2.129011	137.052324
7.000000	-1.855270	-18.631560	-6.058718	-31.572928	-6.058718	-31.572928	-2.055575	133.331363
7.050000	-1.804960	-21.396751	-6.226058	-34.759614	-6.226058	-34.759614	-1.985876	129.672762
7.100000	-1.757842	-24.179637	-6.394393	-37.925152	-6.394393	-37.925152	-1.919429	126.067782
7.150000	-1.714323	-26.983728	-6.563330	-41.067152	-6.563330	-41.067152	-1.856524	122.522965
7.200000	-1.673942	-29.807293	-6.733180	-44.189362	-6.733180	-44.189362	-1.796659	119.029357
7.250000	-1.636556	-32.650674	-6.904031	-47.293231	-6.904031	-47.293231	-1.739635	115.583954
7.300000	-1.602035	-35.514381	-7.075986	-50.380131	-7.075986	-50.380131	-1.685268	112.184031
7.350000	-1.570259	-38.399084	-7.249165	-53.451368	-7.249165	-53.451368	-1.633387	108.827117
7.400000	-1.541118	-41.305605	-7.423702	-56.508180	-7.423702	-56.508180	-1.583834	105.510967
7.450000	-1.514510	-44.234910	-7.599748	-59.551746	-7.599748	-59.551746	-1.536463	102.233547
7.500000	-1.490342	-47.188108	-7.777469	-62.583186	-7.777469	-62.583186	-1.491137	98.993008
7.550000	-1.468602	-50.167305	-7.956993	-65.603235	-7.956993	-65.603235	-1.447784	95.788776
7.600000	-1.449137	-53.173128	-8.138587	-68.613302	-8.138587	-68.613302	-1.406231	92.618127
7.650000	-1.431876	-56.207108	-8.322475	-71.614347	-8.322475	-71.614347	-1.366369	89.479686
7.700000	-1.416756	-59.270912	-8.508900	-74.607278	-8.508900	-74.607278	-1.328102	86.372202
7.750000	-1.403719	-62.366341	-8.698130	-77.592957	-8.698130	-77.592957	-1.291340	83.294535
7.800000	-1.392712	-65.495333	-8.890458	-80.572196	-8.890458	-80.572196	-1.255998	80.245640
7.850000	-1.383687	-68.659963	-9.086204	-83.545755	-9.086204	-83.545755	-1.222001	77.224563
7.900000	-1.376601	-71.862445	-9.285721	-86.514340	-9.285721	-86.514340	-1.189277	74.230426
7.950000	-1.371412	-75.105132	-9.489395	-89.478597	-9.489395	-89.478597	-1.157764	71.262422
8.000000	-1.368083	-78.390521	-9.697653	-92.439107	-9.697653	-92.439107	-1.127402	68.319803
8.050000	-1.366579	-81.721250	-9.910966	-95.396370	-9.910966	-95.396370	-1.098137	65.401875
8.100000	-1.366864	-85.100103	-10.129852	-98.350801	-10.129852	-98.350801	-1.069922	62.507989
8.150000	-1.368680	-88.522941	-10.354784	-101.303006	-10.354784	-101.303006	-1.042599	59.634557
8.200000	-1.372467	-92.007149	-10.586575	-104.252531	-10.586575	-104.252531	-1.016372	56.787280
8.250000	-1.377939	-95.548742	-10.825868	-107.199750	-10.825868	-107.199750	-0.991079	53.962299
8.300000	-1.385061	-99.151070	-11.073459	-110.144491	-11.073459	-110.144491	-0.966690	51.159090
8.350000	-1.393790	-102.817612	-11.330235	-113.086343	-11.330235	-113.086343	-0.943182	48.377151
8.400000	-1.404081	-106.551967	-11.597190	-116.024606	-11.597190	-116.024606	-0.920535	45.615991
8.450000	-1.415882	-110.357841	-11.875444	-118.958212	-11.875444	-118.958212	-0.898735	42.875132
8.500000	-1.429134	-114.239031	-12.166256	-121.885639	-12.166256	-121.885639	-0.877770	40.154102
8.550000	-1.443768	-118.199402	-12.471052	-124.804798	-12.471052	-124.804798	-0.857637	37.452437
8.600000	-1.459704	-122.242861	-12.791447	-127.712882	-12.791447	-127.712882	-0.838333	34.769676
8.650000	-1.476849	-126.373324	-13.129279	-130.606180	-13.129279	-130.606180	-0.819864	32.105359
8.700000	-1.495096	-130.594678	-13.486645	-133.479832	-13.486645	-133.479832	-0.802238	29.459028
8.750000	-1.514320	-134.910727	-13.865950	-136.327507	-13.865950	-136.327507	-0.785471	26.830227
8.800000	-1.534391	-139.327358	-14.270128	-139.139991	-14.270128	-139.139991	-0.769600	24.218857
8.850000	-1.555123	-143.845961	-14.702237	-141.906941	-14.702237	-141.906941	-0.754633	21.624082
8.900000	-1.576329	-148.469694	-15.165982	-144.614119	-15.165982	-144.614119	-0.740601	19.045446
8.950000	-1.597798	-153.201337	-15.665677	-147.242836	-15.665677	-147.242836	-0.727541	16.482498
9.000000	-1.619295	-158.043196	-16.206368	-149.768364	-16.206368	-149.768364	-0.715493	13.934793
9.050000	-1.640562	-162.996998	-16.793968	-152.157671	-16.793968	-152.157671	-0.704506	11.401891
9.100000	-1.661321	-168.063772	-17.435422	-154.366080	-17.435422	-154.366080	-0.694633	8.883364
9.150000	-1.681271	-173.243740	-18.138851	-156.332268	-18.138851	-156.332268	-0.685931	6.378797
9.200000	-1.700132	-178.533652	-18.913529	-157.981229	-18.913529	-157.981229	-0.678435	3.887493
9.250000	-1.717500	176.061929	-19.770368	-159.167628	-19.770368	-159.167628	-0.672287	1.409824
9.300000	-1.733086	170.549752	-20.719937	-159.724374	-20.719937	-159.724374	-0.667519	-1.055016
9.350000	-1.746571	164.934003	-21.771162	-159.388436	-21.771162	-159.388436	-0.664208	-3.507346
9.400000	-1.757653	159.220170	-22.924938	-157.769538	-22.924938	-157.769538	-0.662438	-5.947448
9.450000	-1.766061	153.415075	-24.159278	-154.302976	-24.159278	-154.302976	-0.662294	-8.375567
9.500000	-1.771563	147.526866	-25.397124	-148.254552	-25.397124	-148.254552	-0.663864	-10.791899
9.550000	-1.773984	141.564965	-26.454922	-138.971334	-26.454922	-138.971334	-0.667238	-13.196593
9.600000	-1.773198	135.539725	-27.023728	-126.676192	-27.023728	-126.676192	-0.672517	-15.589683
9.650000	-1.769155	129.462783	-26.840435	-113.428007	-26.840435	-113.428007	-0.679804	-17.971149
9.700000	-1.761940	123.347253	-25.974669	-102.057394	-25.974669	-102.057394	-0.689170	-20.341067
9.750000	-1.751692	117.206234	-24.732580	-93.963828	-24.732580	-93.963828	-0.700701	-22.699338
9.800000	-1.738642	111.053153	-23.386267	-88.974807	-23.386267	-88.974807	-0.714482	-25.045793
9.850000	-1.723102	104.901493	-22.079417	-86.354900	-22.079417	-86.354900	-0.730591	-27.380190
9.900000	-1.705463	98.764505	-20.866678	-85.412584	-20.866678	-85.412584	-0.749099	-29.702218
9.950000	-1.686184	92.654932	-19.760438	-85.640678	-19.760438	-85.640678	-0.770069	-32.011491
10.000000	-1.665780	86.584755	-18.756372	-86.692328	-18.756372	-86.692328	-0.793556	-34.307554
