! freq	dB(S11)	phase(S11)	dB(S12)	phase(S12)	
!     	dB(S21)	phase(S21)	dB(S22)	phase(S22)	
!S-par simulation data
#  GHz  S  DB  R 50
0.000000	-82.003764	0.000000	-0.000690	0.000000	-0.000690	0.000000	-82.003764	0.000000
0.050000	-50.281080	-75.979127	-0.013722	-2.660101	-0.013722	-2.660101	-50.207013	-76.040642
0.100000	-44.988986	-86.278032	-0.020685	-5.224799	-0.020685	-5.224799	-44.947348	-85.613985
0.150000	-41.658378	-92.115373	-0.023413	-7.792862	-0.023413	-7.792862	-41.627272	-91.016223
0.200000	-39.267745	-96.580461	-0.025231	-10.366110	-0.025231	-10.366110	-39.241065	-95.078176
0.250000	-37.423695	-100.419550	-0.026880	-12.942263	-0.026880	-12.942263	-37.399427	-98.518261
0.300000	-35.940415	-103.925582	-0.028604	-15.519863	-0.028604	-15.519863	-35.917794	-101.621460
0.350000	-34.709310	-107.266331	-0.030466	-18.097971	-0.030466	-18.097971	-34.688016	-104.552726
0.400000	-33.669741	-110.495121	-0.032492	-20.676193	-0.032492	-20.676193	-33.649658	-107.362844
0.450000	-32.781051	-113.650723	-0.034683	-23.254251	-0.034683	-23.254251	-32.762166	-110.088478
0.500000	-32.018536	-116.754758	-0.037040	-25.831943	-0.037040	-25.831943	-32.000912	-112.748064
0.550000	-31.360270	-119.826499	-0.039539	-28.409177	-0.039539	-28.409177	-31.344002	-115.359048
0.600000	-30.791100	-122.877353	-0.042158	-30.985913	-0.042158	-30.985913	-30.776308	-117.930547
0.650000	-30.301714	-125.915118	-0.044881	-33.562125	-0.044881	-33.562125	-30.288554	-120.466799
0.700000	-29.884098	-128.946655	-0.047686	-36.137837	-0.047686	-36.137837	-29.872756	-122.971153
0.750000	-29.530850	-131.977740	-0.050550	-38.713113	-0.050550	-38.713113	-29.521532	-125.446247
0.800000	-29.238024	-135.013470	-0.053453	-41.288020	-0.053453	-41.288020	-29.230977	-127.892333
0.850000	-29.003961	-138.059325	-0.056378	-43.862648	-0.056378	-43.862648	-28.999488	-130.308097
0.900000	-28.824153	-141.120068	-0.059306	-46.437127	-0.059306	-46.437127	-28.822589	-132.693665
0.950000	-28.697181	-144.201098	-0.062221	-49.011583	-0.062221	-49.011583	-28.698924	-135.047038
1.000000	-28.625220	-147.310219	-0.065108	-51.586174	-0.065108	-51.586174	-28.630779	-137.363264
1.050000	-28.605995	-150.453599	-0.067958	-54.161056	-0.067958	-54.161056	-28.615960	-139.639848
1.100000	-28.640240	-153.639601	-0.070762	-56.736395	-0.070762	-56.736395	-28.655333	-141.871615
1.150000	-28.731837	-156.880955	-0.073511	-59.312393	-0.073511	-59.312393	-28.752993	-144.049378
1.200000	-28.882823	-160.190834	-0.076203	-61.889234	-0.076203	-61.889234	-28.911222	-146.163981
1.250000	-29.095898	-163.584935	-0.078839	-64.467085	-0.078839	-64.467085	-29.133041	-148.204093
1.300000	-29.377511	-167.087823	-0.081420	-67.046161	-0.081420	-67.046161	-29.425411	-150.150831
1.350000	-29.735863	-170.733700	-0.083951	-69.626684	-0.083951	-69.626684	-29.797295	-151.977420
1.400000	-30.177680	-174.559677	-0.086442	-72.208791	-0.086442	-72.208791	-30.256418	-153.654622
1.450000	-30.715000	-178.624572	-0.088904	-74.792666	-0.088904	-74.792666	-30.816449	-155.134798
1.500000	-31.367192	176.964597	-0.091350	-77.378591	-0.091350	-77.378591	-31.499675	-156.329493
1.550000	-32.150988	172.088945	-0.093798	-79.966632	-0.093798	-79.966632	-32.327126	-157.137581
1.600000	-33.093239	166.540927	-0.096268	-82.556942	-0.096268	-82.556942	-33.333553	-157.377653
1.650000	-34.230855	159.912273	-0.098782	-85.149777	-0.098782	-85.149777	-34.571760	-156.678387
1.700000	-35.598391	151.565050	-0.101366	-87.745212	-0.101366	-87.745212	-36.106845	-154.409614
1.750000	-37.213131	140.369959	-0.104043	-90.343319	-0.104043	-90.343319	-38.018054	-149.314769
1.800000	-38.979643	124.249165	-0.106844	-92.944239	-0.106844	-92.944239	-40.318225	-138.569179
1.850000	-40.408501	100.722224	-0.109798	-95.548056	-0.109798	-95.548056	-42.488414	-117.120397
1.900000	-40.437704	71.433017	-0.112940	-98.154868	-0.112940	-98.154868	-42.598764	-85.412898
1.950000	-38.809817	45.561954	-0.116304	-100.764720	-0.116304	-100.764720	-40.195970	-60.794360
2.000000	-36.559276	27.375267	-0.119921	-103.377602	-0.119921	-103.377602	-37.332342	-47.975551
2.050000	-34.369512	14.922571	-0.123825	-105.993513	-0.123825	-105.993513	-34.813908	-41.852532
2.100000	-32.416715	5.868225	-0.128053	-108.612430	-0.128053	-108.612430	-32.687090	-39.073691
2.150000	-30.701234	-1.198401	-0.132638	-111.234305	-0.132638	-111.234305	-30.873511	-38.076788
2.200000	-29.187001	-7.050084	-0.137614	-113.859070	-0.137614	-113.859070	-29.300139	-38.114412
2.250000	-27.837622	-12.119610	-0.143016	-116.486629	-0.143016	-116.486629	-27.912988	-38.798457
2.300000	-26.623300	-16.661335	-0.148876	-119.116867	-0.148876	-119.116867	-26.673363	-39.910915
2.350000	-25.520813	-20.832347	-0.155225	-121.749644	-0.155225	-121.749644	-25.553248	-41.320949
2.400000	-24.512195	-24.734080	-0.162094	-124.384798	-0.162094	-124.384798	-24.531942	-42.945637
2.450000	-23.583451	-28.434609	-0.169510	-127.022145	-0.169510	-127.022145	-23.593809	-44.730002
2.500000	-22.723555	-31.981153	-0.177498	-129.661481	-0.177498	-129.661481	-22.726795	-46.636188
2.550000	-21.923361	-35.405357	-0.186096	-132.302616	-0.186096	-132.302616	-21.921095	-48.638886
2.600000	-21.176216	-38.734694	-0.195309	-134.945261	-0.195309	-134.945261	-21.169600	-50.716163
2.650000	-20.476265	-41.987236	-0.205157	-137.589159	-0.205157	-137.589159	-20.466152	-52.853514
2.700000	-19.818665	-45.176753	-0.215650	-140.234036	-0.215650	-140.234036	-19.805691	-55.039797
2.750000	-19.199548	-48.315097	-0.226783	-142.879593	-0.226783	-142.879593	-19.184195	-57.265387
2.800000	-18.615102	-51.408218	-0.238592	-145.525562	-0.238592	-145.525562	-18.597741	-59.525173
2.850000	-18.062569	-54.463633	-0.251071	-148.171622	-0.251071	-148.171622	-18.043486	-61.812832
2.900000	-17.539487	-57.486895	-0.264214	-150.817453	-0.264214	-150.817453	-17.518905	-64.123552
2.950000	-17.043694	-60.482351	-0.278013	-153.462740	-0.278013	-153.462740	-17.021786	-66.453446
3.000000	-16.573289	-63.453459	-0.292458	-156.107164	-0.292458	-156.107164	-16.550193	-68.799301
3.050000	-16.126604	-66.403053	-0.307533	-158.750409	-0.307533	-158.750409	-16.102429	-71.158379
3.100000	-15.702165	-69.333475	-0.323219	-161.392160	-0.323219	-161.392160	-15.676997	-73.528323
3.150000	-15.298671	-72.246584	-0.339495	-164.032100	-0.339495	-164.032100	-15.272578	-75.907125
3.200000	-14.914961	-75.144034	-0.356334	-166.669924	-0.356334	-166.669924	-14.887996	-78.292966
3.250000	-14.549971	-78.027281	-0.373700	-169.305354	-0.373700	-169.305354	-14.522178	-80.684226
3.300000	-14.202749	-80.897488	-0.391557	-171.938115	-0.391557	-171.938115	-14.174161	-83.079510
3.350000	-13.872430	-83.755651	-0.409866	-174.567950	-0.409866	-174.567950	-13.843071	-85.477577
3.400000	-13.558225	-86.602636	-0.428582	-177.194617	-0.428582	-177.194617	-13.528116	-87.877318
3.450000	-13.259427	-89.439175	-0.447662	-179.817885	-0.447662	-179.817885	-13.228582	-90.277740
3.500000	-12.975408	-92.265900	-0.467054	177.562468	-0.467054	177.562468	-12.943837	-92.677941
3.550000	-12.705642	-95.083322	-0.486708	174.946677	-0.486708	174.946677	-12.673350	-95.077084
3.600000	-12.449296	-97.892426	-0.506559	172.334701	-0.506559	172.334701	-12.416286	-97.474538
3.650000	-12.205993	-100.693490	-0.526556	169.726769	-0.526556	169.726769	-12.172265	-99.869641
3.700000	-11.975249	-103.487017	-0.546641	167.122979	-0.546641	167.122979	-11.940802	-102.261831
3.750000	-11.756617	-106.273488	-0.566751	164.523402	-0.566751	164.523402	-11.721445	-104.650612
3.800000	-11.549821	-109.053247	-0.586823	161.928170	-0.586823	161.928170	-11.513917	-107.035459
3.850000	-11.354335	-111.826920	-0.606793	159.337204	-0.606793	159.337204	-11.317689	-109.416073
3.900000	-11.169794	-114.594984	-0.626598	156.750482	-0.626598	156.750482	-11.132395	-111.792137
3.950000	-10.995855	-117.357922	-0.646175	154.167955	-0.646175	154.167955	-10.957692	-114.163381
4.000000	-10.832202	-120.116227	-0.665462	151.589543	-0.665462	151.589543	-10.793259	-116.529586
4.050000	-10.678536	-122.870410	-0.684394	149.015137	-0.684394	149.015137	-10.638800	-118.890574
4.100000	-10.534582	-125.620996	-0.702911	146.444598	-0.702911	146.444598	-10.494034	-121.246209
4.150000	-10.400080	-128.368525	-0.720953	143.877759	-0.720953	143.877759	-10.358702	-123.596395
4.200000	-10.274789	-131.113563	-0.738460	141.314424	-0.738460	141.314424	-10.232563	-125.941069
4.250000	-10.158487	-133.856689	-0.755376	138.754372	-0.755376	138.754372	-10.115391	-128.280200
4.300000	-10.050965	-136.598509	-0.771647	136.197354	-0.771647	136.197354	-10.006978	-130.613788
4.350000	-9.952031	-139.339646	-0.787219	133.643096	-0.787219	133.643096	-9.907131	-132.941859
4.400000	-9.861588	-142.080754	-0.802035	131.091325	-0.802035	131.091325	-9.815752	-135.264402
4.450000	-9.779475	-144.822524	-0.816046	128.541709	-0.816046	128.541709	-9.732677	-137.581489
4.500000	-9.705460	-147.565645	-0.829218	125.993880	-0.829218	125.993880	-9.657678	-139.893267
4.550000	-9.639409	-150.310828	-0.841512	123.447476	-0.841512	123.447476	-9.590618	-142.199837
4.600000	-9.581199	-153.058802	-0.852892	120.902118	-0.852892	120.902118	-9.531373	-144.501312
4.650000	-9.530718	-155.810319	-0.863324	118.357412	-0.863324	118.357412	-9.479834	-146.797811
4.700000	-9.487870	-158.566147	-0.872782	115.812948	-0.872782	115.812948	-9.435902	-149.089458
4.750000	-9.452568	-161.327071	-0.881240	113.268305	-0.881240	113.268305	-9.399491	-151.376379
4.800000	-9.424737	-164.093897	-0.888680	110.723051	-0.888680	110.723051	-9.370527	-153.658698
4.850000	-9.404314	-166.867445	-0.895086	108.176744	-0.895086	108.176744	-9.348947	-155.936533
4.900000	-9.391246	-169.648551	-0.900446	105.628938	-0.900446	105.628938	-9.334698	-158.209996
4.950000	-9.385492	-172.438067	-0.904754	103.079181	-0.904754	103.079181	-9.327739	-160.479188
5.000000	-9.387019	-175.236858	-0.908008	100.527017	-0.908008	100.527017	-9.328039	-162.744192
5.050000	-9.395963	-178.046046	-0.910188	97.971919	-0.910188	97.971919	-9.335732	-165.004990
5.100000	-9.412152	179.133677	-0.911324	95.413484	-0.911324	95.413484	-9.350649	-167.261716
5.150000	-9.435582	176.301406	-0.911429	92.851263	-0.911429	92.851263	-9.372786	-169.514394
5.200000	-9.466260	173.456225	-0.910518	90.284811	-0.910518	90.284811	-9.402150	-171.763015
5.250000	-9.504197	170.597205	-0.908612	87.713692	-0.908612	87.713692	-9.438753	-174.007545
5.300000	-9.549415	167.723409	-0.905738	85.137478	-0.905738	85.137478	-9.482619	-176.247911
5.350000	-9.601943	164.833890	-0.901924	82.555756	-0.901924	82.555756	-9.533775	-178.484007
5.400000	-9.661816	161.927692	-0.897204	79.968124	-0.897204	79.968124	-9.592258	179.284316
5.450000	-9.729074	159.003848	-0.891616	77.374196	-0.891616	77.374196	-9.658110	177.057249
5.500000	-9.803767	156.061387	-0.885202	74.773606	-0.885202	74.773606	-9.731378	174.835030
5.550000	-9.885945	153.099328	-0.878006	72.166006	-0.878006	72.166006	-9.812116	172.617945
5.600000	-9.975666	150.116683	-0.870077	69.551069	-0.870077	69.551069	-9.900381	170.406335
5.650000	-10.073061	147.112214	-0.861460	66.928406	-0.861460	66.928406	-9.996305	168.200663
5.700000	-10.178188	144.084888	-0.852211	64.297729	-0.852211	64.297729	-10.099946	166.001401
5.750000	-10.291039	141.033935	-0.842395	61.658871	-0.842395	61.658871	-10.211298	163.809003
5.800000	-10.411679	137.958348	-0.832072	59.011608	-0.832072	59.011608	-10.330426	161.624053
5.850000	-10.540172	134.857118	-0.821303	56.355745	-0.821303	56.355745	-10.457394	159.447199
5.900000	-10.676580	131.729237	-0.810151	53.691117	-0.810151	53.691117	-10.592266	157.279156
5.950000	-10.820962	128.573694	-0.798680	51.017588	-0.798680	51.017588	-10.735102	155.120711
6.000000	-10.973374	125.389486	-0.786955	48.335055	-0.786955	48.335055	-10.885958	152.972717
6.050000	-11.133864	122.175617	-0.775041	45.643444	-0.775041	45.643444	-11.044883	150.836102
6.100000	-11.302473	118.931099	-0.763004	42.942714	-0.763004	42.942714	-11.211919	148.711861
6.150000	-11.479233	115.654962	-0.750908	40.232852	-0.750908	40.232852	-11.387098	146.601059
6.200000	-11.664162	112.346259	-0.738819	37.513880	-0.738819	37.513880	-11.570440	144.504826
6.250000	-11.857268	109.004070	-0.726798	34.785848	-0.726798	34.785848	-11.761949	142.424356
6.300000	-12.058609	105.626749	-0.714910	32.048641	-0.714910	32.048641	-11.961685	140.361297
6.350000	-12.268065	102.214198	-0.703214	29.302565	-0.703214	29.302565	-12.169524	138.316611
6.400000	-12.485584	98.765655	-0.691766	26.547757	-0.691766	26.547757	-12.385407	136.291633
6.450000	-12.711087	95.280441	-0.680620	23.784375	-0.680620	23.784375	-12.609249	134.287728
6.500000	-12.944470	91.757978	-0.669826	21.012604	-0.669826	21.012604	-12.840934	132.306263
6.550000	-13.185600	88.197814	-0.659432	18.232646	-0.659432	18.232646	-13.080313	130.348591
6.600000	-13.434308	84.599651	-0.649481	15.444722	-0.649481	15.444722	-13.327197	128.416025
6.650000	-13.690392	80.963377	-0.640011	12.649071	-0.640011	12.649071	-13.581356	126.509803
6.700000	-13.953612	77.289103	-0.631060	9.845941	-0.631060	9.845941	-13.842513	124.631054
6.750000	-14.223687	73.577211	-0.622657	7.035592	-0.622657	7.035592	-14.110341	122.780749
6.800000	-14.500292	69.828398	-0.614829	4.218293	-0.614829	4.218293	-14.384458	120.959650
6.850000	-14.783061	66.043736	-0.607598	1.394313	-0.607598	1.394313	-14.664426	119.168250
6.900000	-15.071533	62.224382	-0.600989	-1.436141	-0.600989	-1.436141	-14.949694	117.407023
6.950000	-15.365223	58.372436	-0.595016	-4.272789	-0.595016	-4.272789	-15.239670	115.675678
7.000000	-15.663670	54.490906	-0.589679	-7.115298	-0.589679	-7.115298	-15.533771	113.973077
7.050000	-15.966334	50.583090	-0.584983	-9.963411	-0.584983	-9.963411	-15.831313	112.297801
7.100000	-16.272637	46.653029	-0.580929	-12.816880	-0.580929	-12.816880	-16.131554	110.647722
7.150000	-16.581970	42.705594	-0.577513	-15.675474	-0.577513	-15.675474	-16.433702	109.019899
7.200000	-16.893698	38.746558	-0.574727	-18.538975	-0.574727	-18.538975	-16.736919	107.410481
7.250000	-17.207167	34.782684	-0.572561	-21.407186	-0.572561	-21.407186	-17.040334	105.814598
7.300000	-17.521713	30.821786	-0.571002	-24.279925	-0.571002	-24.279925	-17.343056	104.226283
7.350000	-17.836670	26.872791	-0.570034	-27.157037	-0.570034	-27.157037	-17.644187	102.638391
7.400000	-18.151374	22.945788	-0.569638	-30.038387	-0.569638	-30.038387	-17.942840	101.042550
7.450000	-18.465174	19.052050	-0.569795	-32.923864	-0.569795	-32.923864	-18.238153	99.429129
7.500000	-18.777434	15.204050	-0.570482	-35.813383	-0.570482	-35.813383	-18.529310	97.787247
7.550000	-19.087229	11.417079	-0.571688	-38.706970	-0.571688	-38.706970	-18.815229	96.103619
7.600000	-19.394227	7.705030	-0.573379	-41.604505	-0.573379	-41.604505	-19.095534	94.365545
7.650000	-19.697804	4.083859	-0.575531	-44.505980	-0.575531	-44.505980	-19.369618	92.558696
7.700000	-19.997310	0.570493	-0.578120	-47.411415	-0.578120	-47.411415	-19.636943	90.667880
7.750000	-20.292032	-2.817300	-0.581126	-50.320851	-0.581126	-50.320851	-19.897036	88.677213
7.800000	-20.581150	-6.061094	-0.584526	-53.234355	-0.584526	-53.234355	-20.149461	86.570327
7.850000	-20.863685	-9.142038	-0.588301	-56.152014	-0.588301	-56.152014	-20.393797	84.330599
7.900000	-21.138435	-12.041170	-0.592433	-59.073937	-0.592433	-59.073937	-20.629594	81.941400
7.950000	-21.403900	-14.739827	-0.596905	-62.000251	-0.596905	-62.000251	-20.856325	79.386368
8.000000	-21.658211	-17.220183	-0.601703	-64.931101	-0.601703	-64.931101	-21.073336	76.649716
8.050000	-21.899049	-19.465947	-0.606817	-67.866644	-0.606817	-67.866644	-21.279781	73.716574
8.100000	-22.123588	-21.463254	-0.612237	-70.807052	-0.612237	-70.807052	-21.474571	70.573397
8.150000	-22.328156	-23.198868	-0.617960	-73.752563	-0.617960	-73.752563	-21.656116	67.205912
8.200000	-22.508742	-24.667252	-0.623984	-76.703373	-0.623984	-76.703373	-21.822638	63.604496
8.250000	-22.661240	-25.872348	-0.630305	-79.659619	-0.630305	-79.659619	-21.972208	59.765392
8.300000	-22.780990	-26.822922	-0.636926	-82.621497	-0.636926	-82.621497	-22.102364	55.686189
8.350000	-22.863307	-27.536448	-0.643854	-85.589203	-0.643854	-85.589203	-22.210347	51.368971
8.400000	-22.903824	-28.039615	-0.651098	-88.562927	-0.651098	-88.562927	-22.293197	46.821003
8.450000	-22.898889	-28.368017	-0.658668	-91.542855	-0.658668	-91.542855	-22.347901	42.055263
8.500000	-22.845962	-28.564847	-0.666578	-94.529164	-0.666578	-94.529164	-22.371585	37.090702
8.550000	-22.743937	-28.678602	-0.674846	-97.522019	-0.674846	-97.522019	-22.361737	31.952099
8.600000	-22.593342	-28.760044	-0.683489	-100.521575	-0.683489	-100.521575	-22.316436	26.669437
8.650000	-22.396344	-28.858841	-0.692527	-103.527969	-0.692527	-103.527969	-22.234562	21.276757
8.700000	-22.156585	-29.020433	-0.701981	-106.541323	-0.701981	-106.541323	-22.115949	15.810578
8.750000	-21.878869	-29.283580	-0.711874	-109.561739	-0.711874	-109.561739	-21.961454	10.308027
8.800000	-21.567933	-29.682255	-0.722237	-112.589459	-0.722237	-112.589459	-21.772155	4.805658
8.850000	-21.230727	-30.235620	-0.733083	-115.624389	-0.733083	-115.624389	-21.551678	-0.663272
8.900000	-20.873185	-30.956903	-0.744435	-118.666570	-0.744435	-118.666570	-21.303519	-6.070826
8.950000	-20.500945	-31.852252	-0.756313	-121.716022	-0.756313	-121.716022	-21.031649	-11.394357
9.000000	-20.119161	-32.922063	-0.768735	-124.772742	-0.768735	-124.772742	-20.740284	-16.616774
9.050000	-19.732409	-34.162361	-0.781718	-127.836708	-0.781718	-127.836708	-20.433676	-21.726351
9.100000	-19.344651	-35.566072	-0.795275	-130.907881	-0.795275	-130.907881	-20.115943	-26.716214
9.150000	-18.959247	-37.124106	-0.809417	-133.986200	-0.809417	-133.986200	-19.790946	-31.583620
9.200000	-18.579156	-38.823856	-0.824139	-137.071468	-0.824139	-137.071468	-19.462435	-36.331306
9.250000	-18.206016	-40.666128	-0.839494	-140.164225	-0.839494	-140.164225	-19.132507	-40.951898
9.300000	-17.842751	-42.621860	-0.855398	-143.263373	-0.855398	-143.263373	-18.805555	-45.467155
9.350000	-17.490249	-44.694339	-0.871905	-146.369603	-0.871905	-146.369603	-18.482873	-49.870431
9.400000	-17.149903	-46.867347	-0.888970	-149.482421	-0.888970	-149.482421	-18.166885	-54.174707
9.450000	-16.822668	-49.131572	-0.906571	-152.601726	-0.906571	-152.601726	-17.859292	-58.387180
9.500000	-16.509381	-51.483393	-0.924709	-155.727804	-0.924709	-155.727804	-17.561438	-62.509932
9.550000	-16.210291	-53.905617	-0.943298	-158.859825	-0.943298	-158.859825	-17.274479	-66.559452
9.600000	-15.926662	-56.403235	-0.962366	-161.998837	-0.962366	-161.998837	-16.999798	-70.529424
9.650000	-15.657751	-58.956775	-0.981794	-165.143576	-0.981794	-165.143576	-16.737529	-74.439524
9.700000	-15.405068	-61.570235	-1.001579	-168.295133	-1.001579	-168.295133	-16.489251	-78.284428
9.750000	-15.167705	-64.230717	-1.021625	-171.452684	-1.021625	-171.452684	-16.254629	-82.077167
9.800000	-14.946537	-66.936681	-1.041876	-174.616795	-1.041876	-174.616795	-16.034717	-85.818189
9.850000	-14.741462	-69.682489	-1.062253	-177.787465	-1.062253	-177.787465	-15.829691	-89.512483
9.900000	-14.552124	-72.462278	-1.082674	179.035382	-1.082674	179.035382	-15.639449	-93.165275
9.950000	-14.379723	-75.275116	-1.103046	175.850837	-1.103046	175.850837	-15.465285	-96.775599
10.000000	-14.222308	-78.112769	-1.123298	172.659692	-1.123298	172.659692	-15.305514	-100.351942
