! freq	dB(S11)	phase(S11)	dB(S12)	phase(S12)	
!     	dB(S21)	phase(S21)	dB(S22)	phase(S22)	
!S-par simulation data
#  GHz  S  DB  R 50
0.000000	-81.618130	0.000000	-0.000721	0.000000	-0.000721	0.000000	-81.618130	0.000000
0.050000	-44.100438	-90.446362	-0.005190	-2.922301	-0.005190	-2.922301	-44.099296	-90.288698
0.100000	-38.278879	-94.125767	-0.012033	-5.805102	-0.012033	-5.805102	-38.279330	-93.932951
0.150000	-34.863447	-97.613644	-0.017581	-8.672127	-0.017581	-8.672127	-34.862456	-97.342051
0.200000	-32.451457	-100.922346	-0.022501	-11.536031	-0.022501	-11.536031	-32.449952	-100.560981
0.250000	-30.607018	-104.112022	-0.027348	-14.399029	-0.027348	-14.399029	-30.605632	-103.658141
0.300000	-29.131492	-107.230763	-0.032355	-17.261221	-0.032355	-17.261221	-29.130521	-106.683760
0.350000	-27.916312	-110.303094	-0.037541	-20.122488	-0.037541	-20.122488	-27.915861	-109.662680
0.400000	-26.897708	-113.341535	-0.042859	-22.982832	-0.042859	-22.982832	-26.897788	-112.607359
0.450000	-26.039479	-116.352628	-0.048240	-25.842385	-0.048240	-25.842385	-26.040050	-115.524122
0.500000	-25.309864	-119.344251	-0.053600	-28.701562	-0.053600	-28.701562	-25.310853	-118.420694
0.550000	-24.688950	-122.320468	-0.058871	-31.560789	-0.058871	-31.560789	-24.690283	-121.300976
0.600000	-24.164073	-125.284168	-0.063991	-34.420573	-0.063991	-34.420573	-24.165679	-124.167658
0.650000	-23.728224	-128.237760	-0.068892	-37.281589	-0.068892	-37.281589	-23.730044	-127.022873
0.700000	-23.370102	-131.184228	-0.073546	-40.144391	-0.073546	-40.144391	-23.372098	-129.869462
0.750000	-23.084640	-134.125450	-0.077916	-43.009603	-0.077916	-43.009603	-23.086793	-132.709037
0.800000	-22.871921	-137.063048	-0.081958	-45.878094	-0.081958	-45.878094	-22.874233	-135.542763
0.850000	-22.729231	-139.998865	-0.085653	-48.750606	-0.085653	-48.750606	-22.731726	-138.372052
0.900000	-22.655617	-142.934457	-0.088990	-51.627889	-0.088990	-51.627889	-22.658341	-141.197926
0.950000	-22.652918	-145.871262	-0.091958	-54.510827	-0.091958	-54.510827	-22.655938	-144.021062
1.000000	-22.724221	-148.810622	-0.094559	-57.400328	-0.094559	-57.400328	-22.727626	-146.841838
1.050000	-22.874508	-151.753770	-0.096802	-60.297351	-0.096802	-60.297351	-22.878412	-149.660206
1.100000	-23.111098	-154.701803	-0.098707	-63.202899	-0.098707	-63.202899	-23.115643	-152.475526
1.150000	-23.444368	-157.655636	-0.100307	-66.118024	-0.100307	-66.118024	-23.449732	-155.286287
1.200000	-23.888899	-160.615913	-0.101649	-69.043816	-0.101649	-69.043816	-23.895307	-158.089639
1.250000	-24.465358	-163.582849	-0.102793	-71.981402	-0.102793	-71.981402	-24.473102	-160.880561
1.300000	-25.206435	-166.556028	-0.103818	-74.932242	-0.103818	-74.932242	-25.215910	-163.649487
1.350000	-26.155277	-169.533323	-0.104824	-77.897256	-0.104824	-77.897256	-26.167030	-166.380276
1.400000	-27.383994	-172.509878	-0.105928	-80.877623	-0.105928	-80.877623	-27.398828	-169.041459
1.450000	-29.016734	-175.474124	-0.107267	-83.874517	-0.107267	-83.874517	-29.035888	-171.566198
1.500000	-31.294691	-178.395397	-0.109000	-86.889091	-0.109000	-86.889091	-31.320108	-173.786609
1.550000	-34.791694	178.833152	-0.111309	-89.922462	-0.111309	-89.922462	-34.825344	-175.130519
1.600000	-41.602324	177.031481	-0.114399	-92.975695	-0.114399	-92.975695	-41.597729	-171.291970
1.650000	-51.903318	-33.981648	-0.118499	-96.049776	-0.118499	-96.049776	-49.431695	-56.278334
1.700000	-36.996659	-12.616810	-0.123831	-99.145170	-0.123831	-99.145170	-36.848079	-15.064224
1.750000	-31.471313	-15.228337	-0.130737	-102.263629	-0.130737	-102.263629	-31.399764	-15.286337
1.800000	-27.926538	-18.212651	-0.139483	-105.405253	-0.139483	-105.405253	-27.878981	-17.308653
1.850000	-25.274516	-21.319898	-0.150392	-108.570512	-0.150392	-108.570512	-25.238451	-19.866250
1.900000	-23.135858	-24.493252	-0.163818	-111.759816	-0.163818	-111.759816	-23.106506	-22.665639
1.950000	-21.333772	-27.712246	-0.180125	-114.973230	-0.180125	-114.973230	-21.308815	-25.601041
2.000000	-19.771546	-30.967411	-0.199671	-118.210445	-0.199671	-118.210445	-19.749686	-28.624987
2.050000	-18.389925	-34.253644	-0.222838	-121.471026	-0.222838	-121.471026	-18.370361	-31.713153
2.100000	-17.149097	-37.568156	-0.250117	-124.754793	-0.250117	-124.754793	-17.131299	-34.852194
2.150000	-16.024630	-40.907098	-0.281721	-128.059756	-0.281721	-128.059756	-16.008226	-38.030767
2.200000	-14.997310	-44.267928	-0.317944	-131.384427	-0.317944	-131.384427	-14.982027	-41.242189
2.250000	-14.050663	-47.649754	-0.359501	-134.728566	-0.359501	-134.728566	-14.036299	-44.483300
2.300000	-13.175271	-51.049239	-0.406567	-138.089467	-0.406567	-138.089467	-13.161669	-47.748330
2.350000	-12.362699	-54.463749	-0.459471	-141.464901	-0.459471	-141.464901	-12.349732	-51.033195
2.400000	-11.606238	-57.890469	-0.518510	-144.852355	-0.518510	-144.852355	-11.593806	-54.334002
2.450000	-10.900456	-61.326394	-0.583946	-148.249054	-0.583946	-148.249054	-10.888478	-57.646931
2.500000	-10.240877	-64.768341	-0.655994	-151.651991	-0.655994	-151.651991	-10.229286	-60.968167
2.550000	-9.623738	-68.212967	-0.734890	-155.057954	-0.734890	-155.057954	-9.612479	-64.293881
2.600000	-9.045922	-71.656745	-0.820681	-158.463510	-0.820681	-158.463510	-9.034949	-67.620126
2.650000	-8.504666	-75.096139	-0.913425	-161.865186	-0.913425	-161.865186	-8.493942	-70.943039
2.700000	-7.997548	-78.527578	-1.013117	-165.259454	-1.013117	-165.259454	-7.987042	-74.258780
2.750000	-7.522411	-81.947504	-1.119699	-168.642779	-1.119699	-168.642779	-7.512098	-77.563565
2.800000	-7.077313	-85.352422	-1.233047	-172.011674	-1.233047	-172.011674	-7.067171	-80.853705
2.850000	-6.660542	-88.738767	-1.353022	-175.362577	-1.353022	-175.362577	-6.650554	-84.125469
2.900000	-6.270432	-92.103363	-1.479354	-178.692298	-1.479354	-178.692298	-6.260584	-87.375534
2.950000	-5.905610	-95.442696	-1.611812	178.002682	-1.611812	178.002682	-5.895891	-90.600255
3.000000	-5.564233	-98.755141	-1.749899	174.724032	-1.749899	174.724032	-5.554632	-93.797901
3.050000	-5.245160	-102.037538	-1.893344	171.474915	-1.893344	171.474915	-5.235669	-96.965212
3.100000	-4.947102	-105.287620	-2.041736	168.257617	-2.041736	168.257617	-4.937714	-100.099830
3.150000	-4.668948	-108.503026	-2.194652	165.074511	-2.194652	165.074511	-4.659656	-103.199306
3.200000	-4.409529	-111.682046	-2.351609	161.927318	-2.351609	161.927318	-4.400328	-106.261855
3.250000	-4.167614	-114.823721	-2.512108	158.817012	-2.512108	158.817012	-4.158498	-109.286458
3.300000	-3.942139	-117.927027	-2.675659	155.744623	-2.675659	155.744623	-3.933102	-112.272028
3.350000	-3.732087	-120.991239	-2.841764	152.710878	-2.841764	152.710878	-3.723124	-115.217786
3.400000	-3.536496	-124.015919	-3.009926	149.716210	-3.009926	149.716210	-3.527601	-118.123241
3.450000	-3.354450	-127.000905	-3.179649	146.760777	-3.179649	146.760777	-3.345618	-120.988183
3.500000	-3.185086	-129.946291	-3.350440	143.844475	-3.350440	143.844475	-3.176310	-123.812661
3.550000	-3.027584	-132.852409	-3.521816	140.966960	-3.521816	140.966960	-3.018860	-126.596966
3.600000	-2.881177	-135.719813	-3.693303	138.127663	-3.693303	138.127663	-2.872497	-129.341610
3.650000	-2.745141	-138.549258	-3.864436	135.325812	-3.864436	135.325812	-2.736500	-132.047310
3.700000	-2.618798	-141.341679	-4.034764	132.560452	-4.034764	132.560452	-2.610189	-134.714965
3.750000	-2.501515	-144.098181	-4.203843	129.830457	-4.203843	129.830457	-2.492933	-137.345644
3.800000	-2.392922	-146.818925	-4.371071	127.135621	-4.371071	127.135621	-2.384360	-139.939435
3.850000	-2.292229	-149.506492	-4.536176	124.473354	-4.536176	124.473354	-2.283682	-142.498919
3.900000	-2.198933	-152.162404	-4.698744	121.842105	-4.698744	121.842105	-2.190394	-145.025583
3.950000	-2.112568	-154.788296	-4.858369	119.240202	-4.858369	119.240202	-2.104031	-147.521027
4.000000	-2.032708	-157.385905	-5.014646	116.665869	-5.014646	116.665869	-2.024167	-149.986952
4.050000	-1.958962	-159.957070	-5.167169	114.117220	-5.167169	114.117220	-1.950413	-152.425161
4.100000	-1.890979	-162.503727	-5.315528	111.592263	-5.315528	111.592263	-1.882416	-154.837551
4.150000	-1.828441	-165.027910	-5.459304	109.088896	-5.459304	109.088896	-1.819859	-157.226116
4.200000	-1.771066	-167.531756	-5.598065	106.604899	-5.598065	106.604899	-1.762460	-159.592953
4.250000	-1.718606	-170.017515	-5.731361	104.137924	-5.731361	104.137924	-1.709973	-161.940267
4.300000	-1.670851	-172.487561	-5.858717	101.685473	-5.858717	101.685473	-1.662184	-164.270381
4.350000	-1.627623	-174.944407	-5.979624	99.244879	-5.979624	99.244879	-1.618920	-166.585760
4.400000	-1.588785	-177.390732	-6.093536	96.813275	-6.093536	96.813275	-1.580041	-168.889024
4.450000	-1.554240	-179.829408	-6.199854	94.387552	-6.199854	94.387552	-1.545449	-171.182982
4.500000	-1.523931	177.736459	-6.297921	91.964308	-6.297921	91.964308	-1.515089	-173.470670
4.550000	-1.497853	175.303483	-6.387002	89.539788	-6.387002	89.539788	-1.488955	-175.755393
4.600000	-1.476056	172.867934	-6.466275	87.109792	-6.466275	87.109792	-1.467096	-178.040791
4.650000	-1.458654	170.425659	-6.534806	84.669577	-6.534806	84.669577	-1.449625	179.669089
4.700000	-1.445841	167.971977	-6.591531	82.213712	-6.591531	82.213712	-1.436735	177.369693
4.750000	-1.437907	165.501555	-6.635223	79.735904	-6.635223	79.735904	-1.428712	175.055832
4.800000	-1.435262	163.008232	-6.664465	77.228756	-6.664465	77.228756	-1.425967	172.721525
4.850000	-1.438476	160.484797	-6.677600	74.683458	-6.677600	74.683458	-1.429062	170.359779
4.900000	-1.448324	157.922698	-6.672687	72.089364	-6.672687	72.089364	-1.438769	167.962311
4.950000	-1.465858	155.311651	-6.647436	69.433419	-6.647436	69.433419	-1.456133	165.519175
5.000000	-1.492515	152.639108	-6.599127	66.699375	-6.599127	66.699375	-1.482578	163.018259
5.050000	-1.531306	149.882173	-6.522184	63.857084	-6.522184	63.857084	-1.521097	160.437611
5.100000	-1.584220	147.027046	-6.414853	60.887183	-6.414853	60.887183	-1.573658	157.763863
5.150000	-1.655274	144.048754	-6.272490	57.754618	-6.272490	57.754618	-1.644242	154.973096
5.200000	-1.748031	140.929572	-6.093394	54.432548	-6.093394	54.432548	-1.736377	152.048348
5.250000	-1.876046	137.595478	-5.862299	50.813742	-5.862299	50.813742	-1.863492	148.919287
5.300000	-2.050416	134.007193	-5.576067	46.830869	-5.576067	46.830869	-2.036552	145.549065
5.350000	-2.294349	130.085056	-5.224537	42.345823	-5.224537	42.345823	-2.278473	141.863511
5.400000	-2.647168	125.729753	-4.797779	37.157874	-4.797779	37.157874	-2.628005	137.772474
5.450000	-3.179536	120.835983	-4.289322	30.969943	-4.289322	30.969943	-3.154533	133.187204
5.500000	-4.023590	115.370903	-3.704757	23.356365	-3.704757	23.356365	-3.987003	128.106568
5.550000	-5.462938	109.697128	-3.077126	13.658459	-3.077126	13.658459	-5.398721	122.965895
5.600000	-8.115675	106.347089	-2.512995	1.068290	-2.512995	1.068290	-7.962997	120.453572
5.650000	-12.822781	120.905474	-2.249389	-14.990683	-2.249389	-14.990683	-12.271542	135.528199
5.700000	-11.885646	173.041785	-2.636789	-33.795762	-2.636789	-33.795762	-11.368853	-176.931722
5.750000	-6.570602	-178.614595	-3.883431	-52.664274	-3.883431	-52.664274	-6.413007	-168.008056
5.800000	-3.718999	173.476629	-5.820459	-68.782828	-5.820459	-68.782828	-3.646313	-175.140435
5.850000	-2.282290	164.324532	-8.107135	-81.250868	-8.107135	-81.250868	-2.238427	176.220003
5.900000	-1.530247	156.392025	-10.503825	-90.552426	-10.503825	-90.552426	-1.499336	168.668287
5.950000	-1.113617	149.787122	-12.910939	-97.476289	-12.910939	-97.476289	-1.089648	162.375953
6.000000	-0.871128	144.233774	-15.296877	-102.608165	-15.296877	-102.608165	-0.851322	157.095883
6.050000	-0.722418	139.442962	-17.676701	-106.335310	-17.676701	-106.335310	-0.705337	152.554366
6.100000	-0.627590	135.205922	-20.073073	-108.832835	-20.073073	-108.832835	-0.612406	148.550896
6.150000	-0.565360	131.377520	-22.506342	-110.095690	-22.506342	-110.095690	-0.551560	144.945186
6.200000	-0.523080	127.845151	-25.018150	-110.004162	-25.018150	-110.004162	-0.510335	141.627932
6.250000	-0.494015	124.540110	-27.614007	-108.189281	-27.614007	-108.189281	-0.482097	138.532302
6.300000	-0.473905	121.410909	-30.260466	-103.991315	-30.260466	-103.991315	-0.462650	135.608102
6.350000	-0.459790	118.413265	-32.876797	-96.645034	-32.876797	-96.645034	-0.449080	132.812088
6.400000	-0.449930	115.517417	-35.226253	-85.639767	-35.226253	-85.639767	-0.439675	130.115132
6.450000	-0.443171	112.700413	-36.961463	-71.972217	-36.961463	-71.972217	-0.433302	127.494724
6.500000	-0.438846	109.946955	-37.872219	-58.804140	-37.872219	-58.804140	-0.429302	124.935764
6.550000	-0.436211	107.236832	-38.304857	-48.886723	-38.304857	-48.886723	-0.426949	122.418427
6.600000	-0.435023	104.561205	-38.587782	-43.095196	-38.587782	-43.095196	-0.426002	119.933895
6.650000	-0.435043	101.910318	-39.004837	-41.260190	-39.004837	-41.260190	-0.426227	117.472465
6.700000	-0.436004	99.274726	-39.682106	-42.771190	-39.682106	-42.771190	-0.427365	115.024889
6.750000	-0.438081	96.650566	-40.792882	-49.287752	-40.792882	-49.287752	-0.429584	112.586811
6.800000	-0.441012	94.029099	-42.231668	-61.913035	-42.231668	-61.913035	-0.432631	110.149780
6.850000	-0.444892	91.405062	-43.455610	-84.807365	-43.455610	-84.807365	-0.436598	107.708231
6.900000	-0.449696	88.773308	-43.024865	-115.368479	-43.024865	-115.368479	-0.441463	105.256985
6.950000	-0.455494	86.129196	-40.601048	-141.988203	-40.601048	-141.988203	-0.447295	102.791203
7.000000	-0.462412	83.467438	-37.586212	-158.907884	-37.586212	-158.907884	-0.454220	100.305317
7.050000	-0.470476	80.785345	-34.826306	-169.811836	-34.826306	-169.811836	-0.462264	97.796609
7.100000	-0.479998	78.075481	-32.380665	-177.245741	-32.380665	-177.245741	-0.471737	95.257038
7.150000	-0.490940	75.337881	-30.258055	176.912216	-30.258055	176.912216	-0.482604	92.686819
7.200000	-0.503810	72.562563	-28.351573	172.130169	-28.351573	172.130169	-0.495367	90.075078
7.250000	-0.518595	69.750549	-26.644771	167.869514	-26.644771	167.869514	-0.510019	87.423036
7.300000	-0.535847	66.892792	-25.078974	163.971425	-25.078974	163.971425	-0.527106	84.720830
7.350000	-0.555813	63.987043	-23.635655	160.273240	-23.635655	160.273240	-0.546878	81.966036
7.400000	-0.578984	61.027426	-22.290167	156.697266	-22.290167	156.697266	-0.569826	79.152235
7.450000	-0.606042	58.006499	-21.022627	153.183071	-21.022627	153.183071	-0.596631	76.271269
7.500000	-0.637319	54.923214	-19.827868	149.688242	-19.827868	149.688242	-0.627628	73.321971
7.550000	-0.674208	51.762729	-18.683350	146.179669	-18.683350	146.179669	-0.664210	70.288014
7.600000	-0.716796	48.529805	-17.595451	142.636531	-17.595451	142.636531	-0.706470	67.174546
7.650000	-0.767368	45.202868	-16.541760	139.029079	-16.541760	139.029079	-0.756696	63.957749
7.700000	-0.826131	41.788093	-15.530887	135.348701	-15.530887	135.348701	-0.815100	60.644235
7.750000	-0.895696	38.266579	-14.549075	131.569577	-14.549075	131.569577	-0.884304	57.212940
7.800000	-0.977440	34.636355	-13.598347	127.681520	-13.598347	127.681520	-0.965697	53.661325
7.850000	-1.073912	30.886597	-12.674558	123.667382	-12.674558	123.667382	-1.061843	49.976937
7.900000	-1.188533	27.004822	-11.774266	119.507709	-11.774266	119.507709	-1.176189	46.145153
7.950000	-1.323356	22.992177	-10.901201	115.198899	-10.901201	115.198899	-1.310814	42.166359
8.000000	-1.483878	18.831497	-10.050624	110.715860	-10.050624	110.715860	-1.471263	38.019859
8.050000	-1.675105	14.516939	-9.223665	106.045471	-9.223665	106.045471	-1.662605	33.696948
8.100000	-1.902892	10.045679	-8.422220	101.176768	-8.422220	101.176768	-1.890781	29.191376
8.150000	-2.174153	5.418416	-7.648667	96.100906	-7.648667	96.100906	-2.162823	24.499584
8.200000	-2.497196	0.640384	-6.905790	90.811227	-6.905790	90.811227	-2.487219	19.621297
8.250000	-2.882391	-4.277197	-6.196818	85.302760	-6.196818	85.302760	-2.874606	14.560029
8.300000	-3.339488	-9.307616	-5.526373	79.585401	-5.526373	79.585401	-3.335094	9.334683
8.350000	-3.882107	-14.416904	-4.898370	73.666338	-4.898370	73.666338	-3.882895	3.966431
8.400000	-4.524978	-19.551599	-4.317224	67.564232	-4.317224	67.564232	-4.533648	-1.507683
8.450000	-5.284986	-24.635822	-3.787060	61.306213	-3.787060	61.306213	-5.305698	-7.034549
8.500000	-6.182050	-29.561601	-3.311580	54.926928	-3.311580	54.926928	-6.221451	-12.539970
8.550000	-7.239045	-34.175575	-2.893393	48.469323	-2.893393	48.469323	-7.308131	-17.920197
8.600000	-8.483027	-38.262820	-2.533147	41.981200	-2.533147	41.981200	-8.600758	-23.032509
8.650000	-9.948101	-41.494398	-2.230178	35.510584	-2.230178	35.510584	-10.149316	-27.662410
8.700000	-11.675409	-43.332129	-1.982270	29.103705	-1.982270	29.103705	-12.029231	-31.450125
8.750000	-13.705208	-42.822302	-1.785840	22.802118	-1.785840	22.802118	-14.362328	-33.691338
8.800000	-16.028689	-38.192834	-1.636247	16.640536	-1.636247	16.640536	-17.351762	-32.709807
8.850000	-18.386902	-26.524485	-1.528164	10.645603	-1.528164	10.645603	-21.255384	-23.531642
8.900000	-19.843234	-6.292650	-1.455964	4.835626	-1.455964	4.835626	-25.133416	7.426347
8.950000	-19.389755	15.420727	-1.414047	-0.778918	-1.414047	-0.778918	-24.014147	50.526625
9.000000	-17.711134	29.524079	-1.397463	-6.190809	-1.397463	-6.190809	-20.347041	69.292992
9.050000	-15.919636	36.440828	-1.400633	-11.407995	-1.400633	-11.407995	-17.484690	74.520324
9.100000	-14.363990	39.051617	-1.419331	-16.438255	-1.419331	-16.438255	-15.389013	74.905853
9.150000	-13.081256	39.212781	-1.450591	-21.279524	-1.450591	-21.279524	-13.811552	73.275393
9.200000	-12.029856	38.090866	-1.490755	-25.948155	-1.490755	-25.948155	-12.581780	70.770893
9.250000	-11.159810	36.238426	-1.537079	-30.460916	-1.537079	-30.460916	-11.594888	67.830794
9.300000	-10.433406	33.939765	-1.587596	-34.828967	-1.587596	-34.828967	-10.787539	64.658355
9.350000	-9.826961	31.353821	-1.640732	-39.052623	-1.640732	-39.052623	-10.123073	61.362389
9.400000	-9.312427	28.612196	-1.694904	-43.155495	-1.694904	-43.155495	-9.564708	58.017773
9.450000	-8.873383	25.775393	-1.749122	-47.147451	-1.749122	-47.147451	-9.091613	54.657958
9.500000	-8.499023	22.882704	-1.802508	-51.033258	-1.802508	-51.033258	-8.690322	51.304493
9.550000	-8.174680	19.965530	-1.854600	-54.832856	-1.854600	-54.832856	-8.343931	47.968102
9.600000	-7.898371	17.039320	-1.904576	-58.539879	-1.904576	-58.539879	-8.049645	44.659436
9.650000	-7.657217	14.116732	-1.952540	-62.178013	-1.952540	-62.178013	-7.793272	41.376758
9.700000	-7.450895	11.206694	-1.997799	-65.742029	-1.997799	-65.742029	-7.574173	38.126233
9.750000	-7.271549	8.312339	-2.040570	-69.247571	-2.040570	-69.247571	-7.383833	34.903680
9.800000	-7.117397	5.438014	-2.080538	-72.696145	-2.080538	-72.696145	-7.220232	31.710324
9.850000	-6.985046	2.585029	-2.117715	-76.094355	-2.117715	-76.094355	-7.079704	28.544111
9.900000	-6.871318	-0.246657	-2.152213	-79.449085	-2.152213	-79.449085	-6.958844	25.402251
9.950000	-6.775711	-3.054748	-2.183780	-82.760872	-2.183780	-82.760872	-6.857082	22.285138
10.000000	-6.694143	-5.842899	-2.212905	-86.039781	-2.212905	-86.039781	-6.770114	19.187396
