! freq	dB(S11)	phase(S11)	dB(S12)	phase(S12)	
!     	dB(S21)	phase(S21)	dB(S22)	phase(S22)	
!S-par simulation data
#  GHz  S  DB  R 50
0.000000	-0.000000	0.000000	-360.116040	0.000000	-360.116040	0.000000	-0.000000	0.000000
0.050000	-0.000117	-0.944742	-111.749239	89.082992	-111.749239	89.082992	-0.000117	-0.944720
0.100000	-0.000465	-1.889200	-105.773309	88.175201	-105.773309	88.175201	-0.000465	-1.889157
0.150000	-0.001030	-2.833113	-102.325981	87.286024	-102.325981	87.286024	-0.001030	-2.833048
0.200000	-0.001790	-3.776260	-99.931052	86.424988	-99.931052	86.424988	-0.001790	-3.776173
0.250000	-0.002730	-4.718391	-98.132031	85.605479	-98.132031	85.605479	-0.002731	-4.718282
0.300000	-0.003808	-5.659457	-96.716217	84.835979	-96.716217	84.835979	-0.003809	-5.659324
0.350000	-0.005004	-6.599321	-95.578477	84.131854	-95.578477	84.131854	-0.005005	-6.599165
0.400000	-0.006291	-7.537924	-94.654946	83.509459	-94.654946	83.509459	-0.006292	-7.537745
0.450000	-0.007644	-8.475242	-93.905392	82.988406	-93.905392	82.988406	-0.007646	-8.475039
0.500000	-0.009043	-9.411276	-93.303384	82.592664	-93.303384	82.592664	-0.009045	-9.411049
0.550000	-0.010470	-10.346044	-92.831184	82.352041	-92.831184	82.352041	-0.010472	-10.345793
0.600000	-0.011909	-11.279577	-92.476859	82.304237	-92.476859	82.304237	-0.011911	-11.279301
0.650000	-0.013350	-12.211910	-92.232516	82.497686	-92.232516	82.497686	-0.013352	-12.211609
0.700000	-0.014784	-13.143079	-92.093085	82.995536	-92.093085	82.995536	-0.014786	-13.142754
0.750000	-0.016206	-14.073120	-92.055292	83.881192	-92.055292	83.881192	-0.016208	-14.072771
0.800000	-0.017610	-15.002062	-92.116497	85.265923	-92.116497	85.265923	-0.017612	-15.001689
0.850000	-0.018996	-15.929931	-92.272959	87.298785	-92.272959	87.298785	-0.018998	-15.929534
0.900000	-0.020362	-16.856745	-92.516860	90.178018	-92.516860	90.178018	-0.020364	-16.856324
0.950000	-0.021707	-17.782517	-92.831021	94.159550	-92.831021	94.159550	-0.021709	-17.782072
1.000000	-0.023033	-18.707254	-93.180033	99.549326	-93.180033	99.549326	-0.023034	-18.706785
1.050000	-0.024339	-19.630957	-93.497723	106.649306	-93.497723	106.649306	-0.024341	-19.630466
1.100000	-0.025628	-20.553625	-93.676822	115.611600	-93.676822	115.611600	-0.025629	-20.553110
1.150000	-0.026901	-21.475249	-93.579383	126.189245	-93.579383	126.189245	-0.026902	-21.474712
1.200000	-0.028158	-22.395820	-93.090445	137.537896	-93.090445	137.537896	-0.028159	-22.395260
1.250000	-0.029403	-23.315323	-92.192794	148.414720	-92.192794	148.414720	-0.029403	-23.314741
1.300000	-0.030635	-24.233695	-90.964951	157.710213	-90.964951	157.710213	-0.030635	-24.233091
1.350000	-0.031857	-25.150964	-89.569045	165.111763	-89.569045	165.111763	-0.031857	-25.150338
1.400000	-0.033069	-26.067111	-88.118444	170.743434	-88.118444	170.743434	-0.033069	-26.066463
1.450000	-0.034274	-26.982115	-86.682469	174.906355	-86.682469	174.906355	-0.034274	-26.981445
1.500000	-0.035472	-27.895953	-85.296434	177.914392	-85.296434	177.914392	-0.035472	-27.895263
1.550000	-0.036664	-28.808605	-83.975082	-179.967141	-83.975082	-179.967141	-0.036664	-28.807894
1.600000	-0.037852	-29.720048	-82.722176	-178.531782	-82.722176	-178.531782	-0.037851	-29.719316
1.650000	-0.039036	-30.630258	-81.536108	-177.624095	-81.536108	-177.624095	-0.039035	-30.629506
1.700000	-0.040216	-31.539214	-80.412910	-177.128180	-80.412910	-177.128180	-0.040215	-31.538441
1.750000	-0.041395	-32.446893	-79.347783	-176.957439	-79.347783	-176.957439	-0.041393	-32.446099
1.800000	-0.042571	-33.353272	-78.335837	-177.046655	-78.335837	-177.046655	-0.042570	-33.352458
1.850000	-0.043747	-34.258328	-77.372439	-177.346189	-77.372439	-177.346189	-0.043745	-34.257495
1.900000	-0.044922	-35.162041	-76.453342	-177.817818	-76.453342	-177.817818	-0.044920	-35.161188
1.950000	-0.046097	-36.064389	-75.574722	-178.431752	-75.574722	-178.431752	-0.046095	-36.063517
2.000000	-0.047273	-36.965350	-74.733168	-179.164508	-74.733168	-179.164508	-0.047271	-36.964459
2.050000	-0.048449	-37.864905	-73.925647	-179.997365	-73.925647	-179.997365	-0.048447	-37.863994
2.100000	-0.049627	-38.763033	-73.149464	179.084757	-73.149464	179.084757	-0.049625	-38.762103
2.150000	-0.050807	-39.659715	-72.402224	178.094126	-72.402224	178.094126	-0.050805	-39.658766
2.200000	-0.051990	-40.554932	-71.681792	177.040813	-71.681792	177.040813	-0.051988	-40.553964
2.250000	-0.053175	-41.448665	-70.986265	175.933158	-70.986265	175.933158	-0.053173	-41.447679
2.300000	-0.054364	-42.340898	-70.313935	174.778121	-70.313935	174.778121	-0.054362	-42.339893
2.350000	-0.055556	-43.231612	-69.663271	173.581557	-69.663271	173.581557	-0.055554	-43.230589
2.400000	-0.056752	-44.120792	-69.032890	172.348419	-69.032890	172.348419	-0.056750	-44.119750
2.450000	-0.057953	-45.008421	-68.421546	171.082932	-68.421546	171.082932	-0.057950	-45.007361
2.500000	-0.059158	-45.894484	-67.828107	169.788718	-67.828107	169.788718	-0.059156	-45.893406
2.550000	-0.060369	-46.778897	-67.250618	168.467910	-67.250618	168.467910	-0.060367	-46.777802
2.600000	-0.061586	-47.661715	-66.689165	167.124414	-66.689165	167.124414	-0.061584	-47.660601
2.650000	-0.062809	-48.542923	-66.142880	165.760546	-66.142880	165.760546	-0.062807	-48.541793
2.700000	-0.064038	-49.422511	-65.610966	164.378338	-65.610966	164.378338	-0.064036	-49.421362
2.750000	-0.065275	-50.300464	-65.092691	162.979577	-65.092691	162.979577	-0.065273	-50.299299
2.800000	-0.066519	-51.176773	-64.587383	161.565845	-64.587383	161.565845	-0.066516	-51.175590
2.850000	-0.067770	-52.051426	-64.094418	160.138546	-64.094418	160.138546	-0.067768	-52.050226
2.900000	-0.069030	-52.924414	-63.613223	158.698927	-63.613223	158.698927	-0.069028	-52.923196
2.950000	-0.070299	-53.795726	-63.143262	157.248106	-63.143262	157.248106	-0.070297	-53.794492
3.000000	-0.071577	-54.665354	-62.684041	155.787083	-62.684041	155.787083	-0.071575	-54.664103
3.050000	-0.072865	-55.533290	-62.235099	154.316759	-62.235099	154.316759	-0.072863	-55.532023
3.100000	-0.074162	-56.399527	-61.796003	152.837945	-61.796003	152.837945	-0.074160	-56.398243
3.150000	-0.075471	-57.264058	-61.366354	151.351375	-61.366354	151.351375	-0.075469	-57.262757
3.200000	-0.076790	-58.126875	-60.945773	149.857714	-60.945773	149.857714	-0.076788	-58.125559
3.250000	-0.078121	-58.987975	-60.533909	148.357568	-60.533909	148.357568	-0.078119	-58.986642
3.300000	-0.079463	-59.847351	-60.130429	146.851489	-60.130429	146.851489	-0.079462	-59.846002
3.350000	-0.080819	-60.705000	-59.735023	145.339980	-59.735023	145.339980	-0.080817	-60.703635
3.400000	-0.082187	-61.560917	-59.347398	143.823502	-59.347398	143.823502	-0.082185	-61.559537
3.450000	-0.083568	-62.415101	-58.967275	142.302479	-58.967275	142.302479	-0.083566	-62.413705
3.500000	-0.084964	-63.267548	-58.594395	140.777300	-58.594395	140.777300	-0.084962	-63.266137
3.550000	-0.086373	-64.118256	-58.228510	139.248323	-58.228510	139.248323	-0.086372	-64.116830
3.600000	-0.087798	-64.967225	-57.869387	137.715878	-57.869387	137.715878	-0.087796	-64.965784
3.650000	-0.089238	-65.814454	-57.516805	136.180272	-57.516805	136.180272	-0.089236	-65.812998
3.700000	-0.090694	-66.659944	-57.170552	134.641788	-57.170552	134.641788	-0.090692	-66.658473
3.750000	-0.092166	-67.503694	-56.830431	133.100689	-56.830431	133.100689	-0.092164	-67.502209
3.800000	-0.093656	-68.345631	-56.495952	131.557125	-56.495952	131.557125	-0.093654	-68.344131
3.850000	-0.095163	-69.185833	-56.167256	130.011437	-56.167256	130.011437	-0.095161	-69.184319
3.900000	-0.096687	-70.024302	-55.844169	128.463833	-55.844169	128.463833	-0.096685	-70.022774
3.950000	-0.098231	-70.861041	-55.526528	126.914509	-55.526528	126.914509	-0.098229	-70.859499
4.000000	-0.099793	-71.696055	-55.214173	125.363650	-55.214173	125.363650	-0.099791	-71.694499
4.050000	-0.101374	-72.529348	-54.906955	123.811425	-54.906955	123.811425	-0.101372	-72.527779
4.100000	-0.102975	-73.360925	-54.604729	122.257997	-54.604729	122.257997	-0.102973	-73.359342
4.150000	-0.104597	-74.190791	-54.307359	120.703515	-54.307359	120.703515	-0.104594	-74.189196
4.200000	-0.106239	-75.018954	-54.014713	119.148123	-54.014713	119.148123	-0.106237	-75.017345
4.250000	-0.107902	-75.845420	-53.726664	117.591952	-53.726664	117.591952	-0.107900	-75.843798
4.300000	-0.109588	-76.670196	-53.443093	116.035129	-53.443093	116.035129	-0.109585	-76.668562
4.350000	-0.111295	-77.493291	-53.163882	114.477772	-53.163882	114.477772	-0.111293	-77.491644
4.400000	-0.113025	-78.314714	-52.888921	112.919994	-52.888921	112.919994	-0.113023	-78.313054
4.450000	-0.114779	-79.134472	-52.618104	111.361899	-52.618104	111.361899	-0.114777	-79.132801
4.500000	-0.116556	-79.952577	-52.351326	109.803587	-52.351326	109.803587	-0.116554	-79.950894
4.550000	-0.118358	-80.769039	-52.088491	108.245152	-52.088491	108.245152	-0.118355	-80.767343
4.600000	-0.120184	-81.583868	-51.829503	106.686686	-51.829503	106.686686	-0.120181	-81.582161
4.650000	-0.122035	-82.397076	-51.574270	105.128270	-51.574270	105.128270	-0.122033	-82.395357
4.700000	-0.123912	-83.208675	-51.322705	103.569988	-51.322705	103.569988	-0.123910	-83.206945
4.750000	-0.125816	-84.018678	-51.074723	102.011913	-51.074723	102.011913	-0.125813	-84.016937
4.800000	-0.127745	-84.827098	-50.830241	100.454120	-50.830241	100.454120	-0.127743	-84.825345
4.850000	-0.129702	-85.633948	-50.589182	98.896677	-50.589182	98.896677	-0.129699	-85.632184
4.900000	-0.131687	-86.439242	-50.351468	97.339648	-50.351468	97.339648	-0.131684	-86.437468
4.950000	-0.133699	-87.242996	-50.117026	95.783098	-50.117026	95.783098	-0.133696	-87.241212
5.000000	-0.135740	-88.045224	-49.885786	94.227083	-49.885786	94.227083	-0.135737	-88.043429
5.050000	-0.137827	-88.845099	-49.656072	92.672031	-49.656072	92.672031	-0.137824	-88.843295
5.100000	-0.139914	-89.644975	-49.432276	91.116978	-49.432276	91.116978	-0.139910	-89.643160
5.150000	-0.142058	-90.442030	-49.208978	89.563271	-49.208978	89.563271	-0.142054	-90.440205
5.200000	-0.144207	-91.238829	-48.990822	88.009688	-48.990822	88.009688	-0.144204	-91.236994
5.250000	-0.146410	-92.033127	-48.773651	86.457499	-48.773651	86.457499	-0.146407	-92.031283
5.300000	-0.148624	-92.826927	-48.560928	84.905590	-48.560928	84.905590	-0.148621	-92.825073
5.350000	-0.150888	-93.618537	-48.349617	83.355076	-48.349617	83.355076	-0.150884	-93.616674
5.400000	-0.153169	-94.409418	-48.142130	81.805028	-48.142130	81.805028	-0.153165	-94.407546
5.450000	-0.155495	-95.198410	-47.936428	80.256332	-47.936428	80.256332	-0.155491	-95.196529
5.500000	-0.157845	-95.986459	-47.733993	78.708313	-47.733993	78.708313	-0.157841	-95.984569
5.550000	-0.160235	-96.772908	-47.533666	77.161565	-47.533666	77.161565	-0.160231	-96.771009
5.600000	-0.162655	-97.558214	-47.336108	75.615727	-47.336108	75.615727	-0.162651	-97.556306
5.650000	-0.165111	-98.342196	-47.140935	74.071048	-47.140935	74.071048	-0.165107	-98.340280
5.700000	-0.167604	-99.124855	-46.948087	72.527527	-46.948087	72.527527	-0.167600	-99.122931
5.750000	-0.170128	-99.906452	-46.757862	70.985025	-46.757862	70.985025	-0.170123	-99.904519
5.800000	-0.172695	-100.686561	-46.569568	69.443946	-46.569568	69.443946	-0.172691	-100.684620
5.850000	-0.175288	-101.465855	-46.384097	67.903718	-46.384097	67.903718	-0.175283	-101.463906
5.900000	-0.177931	-102.243519	-46.200208	66.365192	-46.200208	66.365192	-0.177927	-102.241562
5.950000	-0.180595	-103.020597	-46.019308	64.827329	-46.019308	64.827329	-0.180590	-103.018632
6.000000	-0.183317	-103.795921	-45.839682	63.291455	-45.839682	63.291455	-0.183312	-103.793949
6.050000	-0.186053	-104.570874	-45.663182	61.756037	-45.663182	61.756037	-0.186048	-104.568893
6.100000	-0.188855	-105.343969	-45.487683	60.222901	-45.487683	60.222901	-0.188850	-105.341981
6.150000	-0.191665	-106.116888	-45.315420	58.690001	-45.315420	58.690001	-0.191660	-106.114893
6.200000	-0.194549	-106.887869	-45.143922	57.159683	-45.143922	57.159683	-0.194544	-106.885866
6.250000	-0.197434	-107.658850	-44.975744	55.629364	-44.975744	55.629364	-0.197430	-107.656840
6.300000	-0.200403	-108.427836	-44.808123	54.101931	-44.808123	54.101931	-0.200398	-108.425819
6.350000	-0.203372	-109.196822	-44.643677	52.574497	-44.643677	52.574497	-0.203368	-109.194798
6.400000	-0.206420	-109.964091	-44.480028	51.049762	-44.480028	51.049762	-0.206415	-109.962060
6.450000	-0.209475	-110.731204	-44.319204	49.525271	-44.319204	49.525271	-0.209470	-110.729165
6.500000	-0.212603	-111.496861	-44.159389	48.003275	-44.159389	48.003275	-0.212598	-111.494816
6.550000	-0.215746	-112.262228	-44.002085	46.481777	-44.002085	46.481777	-0.215741	-112.260175
6.600000	-0.218955	-113.026381	-43.845972	44.962555	-43.845972	44.962555	-0.218950	-113.024322
6.650000	-0.222188	-113.790131	-43.692090	43.444092	-43.692090	43.444092	-0.222183	-113.788064
6.700000	-0.225481	-114.552891	-43.539557	41.927674	-43.539557	41.927674	-0.225476	-114.550818
6.750000	-0.228805	-115.315158	-43.389003	40.412278	-43.389003	40.412278	-0.228800	-115.313078
6.800000	-0.232183	-116.076639	-43.239933	38.898687	-43.239933	38.898687	-0.232178	-116.074552
6.850000	-0.235600	-116.837560	-43.092619	37.386385	-43.092619	37.386385	-0.235595	-116.835466
6.900000	-0.239064	-117.597878	-42.946902	35.875639	-42.946902	35.875639	-0.239059	-117.595777
6.950000	-0.242576	-118.357594	-42.802743	34.366449	-42.802743	34.366449	-0.242571	-118.355487
7.000000	-0.246128	-119.116869	-42.660274	32.858562	-42.660274	32.858562	-0.246123	-119.114754
7.050000	-0.249736	-119.875525	-42.519191	31.352497	-42.519191	31.352497	-0.249731	-119.873404
7.100000	-0.253378	-120.633877	-42.379872	29.847476	-42.379872	29.847476	-0.253373	-120.631749
7.150000	-0.257084	-121.391622	-42.241788	28.344542	-42.241788	28.344542	-0.257079	-121.389487
7.200000	-0.260816	-122.149177	-42.105526	26.842391	-42.105526	26.842391	-0.260811	-122.147035
7.250000	-0.264622	-122.906162	-41.970370	25.342588	-41.970370	25.342588	-0.264617	-122.904013
7.300000	-0.268446	-123.663047	-41.837077	23.843306	-41.837077	23.843306	-0.268441	-123.660891
7.350000	-0.272354	-124.419429	-41.704781	22.346629	-41.704781	22.346629	-0.272349	-124.417266
7.400000	-0.276271	-125.175774	-41.574374	20.850212	-41.574374	20.850212	-0.276266	-125.173604
7.450000	-0.280282	-125.931712	-41.444873	19.356651	-41.444873	19.356651	-0.280276	-125.929535
7.500000	-0.284294	-126.687650	-41.317275	17.863090	-41.317275	17.863090	-0.284289	-126.685465
7.550000	-0.288409	-127.443307	-41.190509	16.372630	-41.190509	16.372630	-0.288403	-127.441115
7.600000	-0.292525	-128.198965	-41.065567	14.882170	-41.065567	14.882170	-0.292520	-128.196765
7.650000	-0.296738	-128.954518	-40.941558	13.394537	-40.941558	13.394537	-0.296732	-128.952310
7.700000	-0.300960	-129.710061	-40.819219	11.907160	-40.819219	11.907160	-0.300954	-129.707846
7.750000	-0.305271	-130.465652	-40.697898	10.422335	-40.697898	10.422335	-0.305265	-130.463430
7.800000	-0.309601	-131.221253	-40.578112	8.938019	-40.578112	8.938019	-0.309595	-131.219022
7.850000	-0.314011	-131.977027	-40.459413	7.455982	-40.459413	7.455982	-0.314005	-131.974789
7.900000	-0.318450	-132.732860	-40.342135	5.974704	-40.342135	5.974704	-0.318444	-132.730613
7.950000	-0.322961	-133.488966	-40.225997	4.495433	-40.225997	4.495433	-0.322955	-133.486710
8.000000	-0.327510	-134.245208	-40.111183	3.017166	-40.111183	3.017166	-0.327504	-134.242944
8.050000	-0.332124	-135.001797	-39.997550	1.540638	-39.997550	1.540638	-0.332117	-134.999524
8.100000	-0.336784	-135.758632	-39.885160	0.065354	-39.885160	0.065354	-0.336777	-135.756350
8.150000	-0.341500	-136.515857	-39.773979	-1.408454	-39.773979	-1.408454	-0.341493	-136.513566
8.200000	-0.346273	-137.273472	-39.663977	-2.880784	-39.663977	-2.880784	-0.346266	-137.271172
8.250000	-0.351093	-138.031490	-39.555197	-4.351895	-39.555197	-4.351895	-0.351086	-138.029181
8.300000	-0.355979	-138.790075	-39.447550	-5.821299	-39.447550	-5.821299	-0.355972	-138.787755
8.350000	-0.360904	-139.549047	-39.341127	-7.289738	-39.341127	-7.289738	-0.360897	-139.546718
8.400000	-0.365905	-140.308796	-39.235805	-8.756244	-39.235805	-8.756244	-0.365897	-140.306456
8.450000	-0.370936	-141.068886	-39.131695	-10.222033	-39.131695	-10.222033	-0.370928	-141.066536
8.500000	-0.376052	-141.829998	-39.028670	-11.685667	-39.028670	-11.685667	-0.376044	-141.827637
8.550000	-0.381190	-142.591371	-38.926835	-13.148827	-38.926835	-13.148827	-0.381182	-142.588999
8.600000	-0.386423	-143.354050	-38.826084	-14.609614	-38.826084	-14.609614	-0.386414	-143.351666
8.650000	-0.391668	-144.116876	-38.726486	-16.070165	-38.726486	-16.070165	-0.391659	-144.114481
8.700000	-0.397017	-144.881329	-38.627989	-17.528124	-38.627989	-17.528124	-0.397008	-144.878922
8.750000	-0.402370	-145.645782	-38.530596	-18.986083	-38.530596	-18.986083	-0.402361	-145.643362
8.800000	-0.407838	-146.412221	-38.434334	-20.441230	-38.434334	-20.441230	-0.407828	-146.409788
8.850000	-0.413309	-147.178659	-38.339126	-21.896378	-38.339126	-21.896378	-0.413298	-147.176214
8.900000	-0.418885	-147.947117	-38.245073	-23.348958	-38.245073	-23.348958	-0.418874	-147.944658
8.950000	-0.424474	-148.715758	-38.152038	-24.801306	-38.152038	-24.801306	-0.424463	-148.713285
9.000000	-0.430160	-149.486419	-38.060167	-26.251324	-38.060167	-26.251324	-0.430148	-149.483932
9.050000	-0.435868	-150.257484	-37.969293	-27.700876	-37.969293	-27.700876	-0.435855	-150.254982
9.100000	-0.441663	-151.030536	-37.879582	-29.148331	-37.879582	-29.148331	-0.441650	-151.028019
9.150000	-0.447490	-151.804250	-37.790860	-30.595087	-37.790860	-30.595087	-0.447476	-151.801718
9.200000	-0.453395	-152.579885	-37.703287	-32.039971	-37.703287	-32.039971	-0.453380	-152.577336
9.250000	-0.459341	-153.356479	-37.616713	-33.483920	-37.616713	-33.483920	-0.459325	-153.353914
9.300000	-0.465355	-154.134891	-37.531260	-34.926222	-37.531260	-34.926222	-0.465339	-154.132309
9.350000	-0.471420	-154.914601	-37.446828	-36.367346	-37.446828	-36.367346	-0.471403	-154.912002
9.400000	-0.477544	-155.695990	-37.363479	-37.807043	-37.363479	-37.807043	-0.477526	-155.693372
9.450000	-0.483728	-156.479056	-37.281189	-39.245314	-37.281189	-39.245314	-0.483709	-156.476420
9.500000	-0.489961	-157.263624	-37.199930	-40.682380	-37.199930	-40.682380	-0.489941	-157.260968
9.550000	-0.496263	-158.050292	-37.119782	-42.117759	-37.119782	-42.117759	-0.496242	-158.047617
9.600000	-0.502605	-158.838245	-37.040601	-43.552158	-37.040601	-43.552158	-0.502583	-158.835550
9.650000	-0.509024	-159.628766	-36.962598	-44.984595	-36.962598	-44.984595	-0.509001	-159.626050
9.700000	-0.515474	-160.420314	-36.885485	-46.416280	-36.885485	-46.416280	-0.515450	-160.417577
9.750000	-0.522010	-161.214944	-36.809631	-47.845712	-36.809631	-47.845712	-0.521984	-161.212184
9.800000	-0.528568	-162.010302	-36.734577	-49.274630	-36.734577	-49.274630	-0.528541	-162.007519
9.850000	-0.535219	-162.809302	-36.660877	-50.700982	-36.660877	-50.700982	-0.535190	-162.806496
9.900000	-0.541883	-163.608688	-36.587877	-52.127069	-36.587877	-52.127069	-0.541853	-163.605858
9.950000	-0.548648	-164.412325	-36.516339	-53.550250	-36.516339	-53.550250	-0.548616	-164.409469
10.000000	-0.555418	-165.215962	-36.445386	-54.973431	-36.445386	-54.973431	-0.555385	-165.213080
