! freq	dB(S11)	phase(S11)	dB(S12)	phase(S12)	
!     	dB(S21)	phase(S21)	dB(S22)	phase(S22)	
!S-par simulation data
#  GHz  S  DB  R 50
0.000000	-0.000000	0.000000	-331.667569	0.000000	-331.667569	0.000000	-0.000000	0.000000
0.050000	-0.000071	-0.771519	-92.341310	132.983528	-92.341310	132.983528	-0.000071	-0.771561
0.100000	-0.000284	-1.542904	-87.683469	112.460645	-87.683469	112.460645	-0.000284	-1.542989
0.150000	-0.000637	-2.314018	-84.476022	103.967788	-84.476022	103.967788	-0.000637	-2.314143
0.200000	-0.001113	-3.084767	-82.099571	99.011934	-82.099571	99.011934	-0.001114	-3.084934
0.250000	-0.001709	-3.855038	-80.224259	95.659876	-80.224259	95.659876	-0.001710	-3.855245
0.300000	-0.002424	-4.624677	-78.680612	93.188590	-78.680612	93.188590	-0.002426	-4.624924
0.350000	-0.003229	-5.393707	-77.371662	91.140754	-77.371662	91.140754	-0.003231	-5.393993
0.400000	-0.004125	-6.161967	-76.237296	89.419007	-76.237296	89.419007	-0.004128	-6.162291
0.450000	-0.005092	-6.929471	-75.237502	87.896112	-75.237502	87.896112	-0.005096	-6.929832
0.500000	-0.006122	-7.696150	-74.344843	86.524748	-74.344843	86.524748	-0.006126	-7.696547
0.550000	-0.007202	-8.461982	-73.539382	85.266254	-73.539382	85.266254	-0.007207	-8.462416
0.600000	-0.008322	-9.226953	-72.806280	84.096400	-72.806280	84.096400	-0.008326	-9.227422
0.650000	-0.009470	-9.991056	-72.134171	82.998703	-72.134171	82.998703	-0.009475	-9.991560
0.700000	-0.010639	-10.754290	-71.514150	81.961649	-71.514150	81.961649	-0.010644	-10.754829
0.750000	-0.011821	-11.516662	-70.939099	80.977030	-70.939099	80.977030	-0.011826	-11.517235
0.800000	-0.013009	-12.278179	-70.403231	80.038897	-70.403231	80.038897	-0.013014	-12.278787
0.850000	-0.014196	-13.038712	-69.902308	79.149315	-69.902308	79.149315	-0.014201	-13.039354
0.900000	-0.015378	-13.798380	-69.431859	78.300222	-69.431859	78.300222	-0.015383	-13.799056
0.950000	-0.016556	-14.557626	-68.986972	77.469438	-68.986972	77.469438	-0.016561	-14.558336
1.000000	-0.017719	-15.315607	-68.567722	76.693583	-68.567722	76.693583	-0.017724	-15.316351
1.050000	-0.018878	-16.073315	-68.168479	75.928988	-68.168479	75.928988	-0.018882	-16.074093
1.100000	-0.020013	-16.829655	-67.790131	75.220698	-67.790131	75.220698	-0.020017	-16.830468
1.150000	-0.021145	-17.585861	-67.427802	74.517760	-67.427802	74.517760	-0.021149	-17.586708
1.200000	-0.022250	-18.340589	-67.082357	73.873693	-67.082357	73.873693	-0.022253	-18.341471
1.250000	-0.023354	-19.095317	-66.750127	73.229626	-66.750127	73.229626	-0.023357	-19.096233
1.300000	-0.024436	-19.848844	-66.431097	72.632298	-66.431097	72.632298	-0.024438	-19.849795
1.350000	-0.025503	-20.601605	-66.123462	72.064237	-66.123462	72.064237	-0.025505	-20.602590
1.400000	-0.026557	-21.353596	-65.826039	71.525039	-65.826039	71.525039	-0.026559	-21.354616
1.450000	-0.027599	-22.104814	-65.537739	71.014290	-65.537739	71.014290	-0.027600	-22.105869
1.500000	-0.028628	-22.855253	-65.257548	70.531544	-65.257548	70.531544	-0.028630	-22.856343
1.550000	-0.029648	-23.604907	-64.984524	70.076310	-64.984524	70.076310	-0.029649	-23.606031
1.600000	-0.030657	-24.353767	-64.717782	69.648040	-64.717782	69.648040	-0.030658	-24.354926
1.650000	-0.031658	-25.101825	-64.456494	69.246110	-64.456494	69.246110	-0.031659	-25.103018
1.700000	-0.032649	-25.848783	-64.198572	68.878354	-64.198572	68.878354	-0.032649	-25.850010
1.750000	-0.033636	-26.595313	-63.946396	68.523703	-63.946396	68.523703	-0.033636	-26.596575
1.800000	-0.034617	-27.340822	-63.696267	68.197715	-63.696267	68.197715	-0.034617	-27.342118
1.850000	-0.035593	-28.085601	-63.449621	67.892199	-63.449621	67.892199	-0.035593	-28.086931
1.900000	-0.036566	-28.829477	-63.204354	67.608861	-63.204354	67.608861	-0.036566	-28.830841
1.950000	-0.037535	-29.572451	-62.960540	67.347700	-62.960540	67.347700	-0.037535	-29.573848
2.000000	-0.038503	-30.314650	-62.717941	67.102614	-62.717941	67.102614	-0.038502	-30.316081
2.050000	-0.039469	-31.055763	-62.474521	66.880031	-62.474521	66.880031	-0.039468	-31.057227
2.100000	-0.040434	-31.796237	-62.232648	66.668056	-62.232648	66.668056	-0.040433	-31.797734
2.150000	-0.041400	-32.535433	-61.987432	66.477296	-61.987432	66.477296	-0.041399	-32.536963
2.200000	-0.042366	-33.274135	-61.744590	66.292582	-61.744590	66.292582	-0.042365	-33.275698
2.250000	-0.043334	-34.011357	-61.495638	66.126000	-61.495638	66.126000	-0.043333	-34.012952
2.300000	-0.044304	-34.748241	-61.250363	65.962049	-61.250363	65.962049	-0.044302	-34.749868
2.350000	-0.045277	-35.483435	-60.995987	65.811252	-60.995987	65.811252	-0.045276	-35.485093
2.400000	-0.046252	-36.218455	-60.747049	65.661027	-60.747049	65.661027	-0.046250	-36.220145
2.450000	-0.047233	-36.951568	-60.485817	65.517085	-60.485817	65.517085	-0.047232	-36.953289
2.500000	-0.048215	-37.684681	-60.232213	65.373143	-60.232213	65.373143	-0.048214	-37.686433
2.550000	-0.049206	-38.415664	-59.962945	65.226828	-59.962945	65.226828	-0.049205	-38.417448
2.600000	-0.050197	-39.146648	-59.701775	65.080513	-59.701775	65.080513	-0.050196	-39.148462
2.650000	-0.051199	-39.875638	-59.425651	64.923539	-59.425651	64.923539	-0.051198	-39.877483
2.700000	-0.052203	-40.604448	-59.156049	64.765596	-59.156049	64.765596	-0.052202	-40.606322
2.750000	-0.053217	-41.331412	-58.872649	64.590449	-58.872649	64.590449	-0.053216	-41.333317
2.800000	-0.054234	-42.058007	-58.593964	64.411861	-58.593964	64.411861	-0.054233	-42.059942
2.850000	-0.055261	-42.782917	-58.303040	64.211387	-58.303040	64.211387	-0.055261	-42.784880
2.900000	-0.056293	-43.507264	-58.014811	64.003618	-58.014811	64.003618	-0.056293	-43.509257
2.950000	-0.057336	-44.230094	-57.716262	63.771161	-57.716262	63.771161	-0.057336	-44.232116
3.000000	-0.058384	-44.952165	-57.418181	63.526359	-57.418181	63.526359	-0.058384	-44.954216
3.050000	-0.059443	-45.672896	-57.112016	63.255862	-57.112016	63.255862	-0.059443	-45.674975
3.100000	-0.060509	-46.392670	-56.803889	62.967011	-56.803889	62.967011	-0.060509	-46.394777
3.150000	-0.061585	-47.111288	-56.490195	62.653086	-56.490195	62.653086	-0.061586	-47.113424
3.200000	-0.062671	-47.828752	-56.171893	62.314090	-56.171893	62.314090	-0.062672	-47.830916
3.250000	-0.063766	-48.545252	-55.850801	61.952056	-55.850801	61.952056	-0.063766	-48.547443
3.300000	-0.064872	-49.260402	-55.522219	61.557772	-55.522219	61.557772	-0.064873	-49.262621
3.350000	-0.065987	-49.974782	-55.193869	61.143654	-55.193869	61.143654	-0.065987	-49.977029
3.400000	-0.067116	-50.687625	-54.854873	60.689869	-54.854873	60.689869	-0.067117	-50.689898
3.450000	-0.068251	-51.399895	-54.519387	60.220372	-54.519387	60.220372	-0.068252	-51.402196
3.500000	-0.069404	-52.110450	-54.169768	59.703739	-54.169768	59.703739	-0.069405	-52.112776
3.550000	-0.070561	-52.820628	-53.827219	59.176200	-53.827219	59.176200	-0.070562	-52.822981
3.600000	-0.071739	-53.528927	-53.466643	58.594134	-53.466643	58.594134	-0.071741	-53.531306
3.650000	-0.072920	-54.237042	-53.117035	58.006454	-53.117035	58.006454	-0.072921	-54.239448
3.700000	-0.074126	-54.943136	-52.744994	57.357014	-52.744994	57.357014	-0.074127	-54.945568
3.750000	-0.075331	-55.649231	-52.388237	56.707574	-52.388237	56.707574	-0.075333	-55.651687
3.800000	-0.076566	-56.353192	-52.003995	55.989324	-52.003995	55.989324	-0.076568	-56.355674
3.850000	-0.077802	-57.057153	-51.636034	55.271074	-51.636034	55.271074	-0.077803	-57.059660
3.900000	-0.079066	-57.759249	-51.242420	54.488762	-51.242420	54.488762	-0.079067	-57.761780
3.950000	-0.080332	-58.461175	-50.862346	53.700626	-50.862346	53.700626	-0.080334	-58.463731
4.000000	-0.081628	-59.161514	-50.458554	52.853527	-50.458554	52.853527	-0.081630	-59.164094
4.050000	-0.082929	-59.861536	-50.065136	51.994635	-50.065136	51.994635	-0.082931	-59.864139
4.100000	-0.084258	-60.560262	-49.650088	51.082056	-49.650088	51.082056	-0.084260	-60.562888
4.150000	-0.085597	-61.258555	-49.241690	50.151581	-49.241690	50.151581	-0.085599	-61.261203
4.200000	-0.086963	-61.955850	-48.813992	49.172739	-48.813992	49.172739	-0.086965	-61.958521
4.250000	-0.088344	-62.652647	-48.388467	48.169713	-48.388467	48.169713	-0.088346	-62.655339
4.300000	-0.089752	-63.348753	-47.946335	47.123595	-47.946335	47.123595	-0.089754	-63.351466
4.350000	-0.091181	-64.044365	-47.500883	46.046695	-47.500883	46.046695	-0.091182	-64.047099
4.400000	-0.092636	-64.739598	-47.042069	44.931881	-47.042069	44.931881	-0.092638	-64.742350
4.450000	-0.094119	-65.434449	-46.573030	43.779151	-46.573030	43.779151	-0.094121	-65.437220
4.500000	-0.095630	-66.129228	-46.094703	42.593583	-46.094703	42.593583	-0.095631	-66.132015
4.550000	-0.097180	-66.823903	-45.597262	41.362041	-45.597262	41.362041	-0.097180	-66.826706
4.600000	-0.098749	-67.518698	-45.104691	40.109897	-45.104691	40.109897	-0.098749	-67.521516
4.650000	-0.100371	-68.213903	-44.582291	38.803946	-44.582291	38.803946	-0.100371	-68.216733
4.700000	-0.102040	-68.909747	-44.042589	37.456109	-44.042589	37.456109	-0.102040	-68.912588
4.750000	-0.103763	-69.606544	-43.483637	36.064474	-43.483637	36.064474	-0.103762	-69.609393
4.800000	-0.105545	-70.304591	-42.906153	34.628852	-42.906153	34.628852	-0.105545	-70.307446
4.850000	-0.107407	-71.004533	-42.301040	33.141460	-42.301040	33.141460	-0.107406	-71.007390
4.900000	-0.109361	-71.706878	-41.668507	31.601044	-41.668507	31.601044	-0.109359	-71.709733
4.950000	-0.111428	-72.412367	-41.004804	30.002728	-41.004804	30.002728	-0.111425	-72.415216
5.000000	-0.113640	-73.121948	-40.305430	28.340197	-40.305430	28.340197	-0.113636	-73.124784
5.050000	-0.116057	-73.837352	-39.556578	26.599150	-39.556578	26.599150	-0.116052	-73.840168
5.100000	-0.118704	-74.559157	-38.769745	24.781531	-38.769745	24.781531	-0.118698	-74.561945
5.150000	-0.121704	-75.290348	-37.923116	22.862606	-37.923116	22.862606	-0.121696	-75.293096
5.200000	-0.125202	-76.034012	-37.006398	20.821172	-37.006398	20.821172	-0.125192	-76.036705
5.250000	-0.129428	-76.794424	-36.007057	18.627521	-36.007057	18.627521	-0.129414	-76.797042
5.300000	-0.134768	-77.577979	-34.906556	16.235848	-34.906556	16.235848	-0.134750	-77.580496
5.350000	-0.141899	-78.394343	-33.679983	13.575588	-33.679983	13.575588	-0.141875	-78.396722
5.400000	-0.152175	-79.260087	-32.284137	10.521890	-32.284137	10.521890	-0.152141	-79.262270
5.450000	-0.168296	-80.201639	-30.666305	6.867378	-30.666305	6.867378	-0.168246	-80.203539
5.500000	-0.196554	-81.266723	-28.740335	2.207176	-28.740335	2.207176	-0.196474	-81.268199
5.550000	-0.253748	-82.542634	-26.370235	-4.330791	-26.370235	-4.330791	-0.253607	-82.543438
5.600000	-0.395045	-84.165347	-23.337352	-14.982246	-23.337352	-14.982246	-0.394748	-84.165045
5.650000	-0.825662	-85.777828	-19.521260	-36.404137	-19.521260	-36.404137	-0.824854	-85.776297
5.700000	-1.507326	-81.789473	-17.040107	-81.355600	-17.040107	-81.355600	-1.505672	-81.794112
5.750000	-0.850677	-78.043776	-19.744936	-124.106411	-19.744936	-124.106411	-0.849949	-78.053245
5.800000	-0.449316	-79.430994	-23.355275	-144.031879	-23.355275	-144.031879	-0.449029	-79.439205
5.850000	-0.308140	-80.906975	-26.165627	-154.237819	-26.165627	-154.237819	-0.307994	-80.914183
5.900000	-0.248434	-82.106407	-28.336416	-160.699597	-28.336416	-160.699597	-0.248346	-82.113003
5.950000	-0.218857	-83.124113	-30.075603	-165.443404	-30.075603	-165.443404	-0.218799	-83.130319
6.000000	-0.202650	-84.030939	-31.515303	-169.279652	-31.515303	-169.279652	-0.202608	-84.036886
6.050000	-0.193241	-84.867266	-32.737558	-172.586256	-32.737558	-172.586256	-0.193210	-84.873033
6.100000	-0.187620	-85.656997	-33.799691	-175.564908	-33.799691	-175.564908	-0.187596	-85.662635
6.150000	-0.184346	-86.413498	-34.732768	-178.323344	-34.732768	-178.323344	-0.184327	-86.419045
6.200000	-0.182571	-87.146053	-35.564529	179.067433	-35.564529	179.067433	-0.182556	-87.151535
6.250000	-0.181843	-87.860049	-36.308668	176.566319	-36.308668	176.566319	-0.181832	-87.865485
6.300000	-0.181808	-88.560610	-36.988572	174.138026	-36.988572	174.138026	-0.181799	-88.566015
6.350000	-0.182299	-89.250197	-37.611471	171.765068	-37.611471	171.765068	-0.182292	-89.255581
6.400000	-0.183215	-89.930272	-38.179256	169.436109	-38.179256	169.436109	-0.183210	-89.935646
6.450000	-0.184461	-90.602434	-38.698545	167.140301	-38.698545	167.140301	-0.184458	-90.607806
6.500000	-0.185921	-91.269267	-39.189723	164.865185	-39.189723	164.865185	-0.185919	-91.274642
6.550000	-0.187591	-91.930610	-39.645736	162.609888	-39.645736	162.609888	-0.187591	-91.935994
6.600000	-0.189457	-92.586658	-40.064128	160.372192	-40.064128	160.372192	-0.189458	-92.592056
6.650000	-0.191464	-93.238784	-40.456890	158.146876	-40.456890	158.146876	-0.191466	-93.244200
6.700000	-0.193589	-93.887522	-40.827406	155.932151	-40.827406	155.932151	-0.193593	-93.892959
6.750000	-0.195830	-94.532942	-41.174226	153.728004	-41.174226	153.728004	-0.195835	-94.538404
6.800000	-0.198172	-95.175433	-41.500051	151.533782	-41.500051	151.533782	-0.198179	-95.180923
6.850000	-0.200605	-95.815258	-41.806480	149.349519	-41.806480	149.349519	-0.200613	-95.820780
6.900000	-0.203123	-96.452643	-42.094907	147.175628	-42.094907	147.175628	-0.203132	-96.458198
6.950000	-0.205719	-97.087779	-42.366561	145.012845	-42.366561	145.012845	-0.205729	-97.093369
7.000000	-0.208388	-97.720829	-42.622529	142.862185	-42.622529	142.862185	-0.208400	-97.726458
7.050000	-0.211127	-98.351940	-42.863783	140.724902	-42.863783	140.724902	-0.211139	-98.357609
7.100000	-0.213942	-98.980952	-43.088183	138.605563	-43.088183	138.605563	-0.213956	-98.986665
7.150000	-0.216824	-99.608192	-43.298617	136.503504	-43.298617	136.503504	-0.216839	-99.613950
7.200000	-0.219737	-100.234630	-43.505674	134.411822	-43.505674	134.411822	-0.219753	-100.240435
7.250000	-0.222744	-100.858668	-43.691400	132.351268	-43.691400	132.351268	-0.222761	-100.864523
7.300000	-0.225771	-101.482229	-43.876260	130.299216	-43.876260	130.299216	-0.225789	-101.488135
7.350000	-0.228897	-102.103411	-44.040019	128.289677	-44.040019	128.289677	-0.228916	-102.109371
7.400000	-0.232033	-102.724379	-44.204800	126.285283	-44.204800	126.285283	-0.232053	-102.730395
7.450000	-0.235275	-103.342999	-44.348964	124.337491	-44.348964	124.337491	-0.235295	-103.349073
7.500000	-0.238517	-103.961618	-44.495561	122.389699	-44.495561	122.389699	-0.238539	-103.967752
7.550000	-0.241872	-104.577930	-44.622220	120.515570	-44.622220	120.515570	-0.241894	-104.584128
7.600000	-0.245228	-105.194242	-44.750752	118.641442	-44.750752	118.641442	-0.245251	-105.200503
7.650000	-0.248686	-105.808650	-44.863361	116.846908	-44.863361	116.846908	-0.248710	-105.814981
7.700000	-0.252155	-106.422886	-44.975806	115.059611	-44.975806	115.059611	-0.252179	-106.429286
7.750000	-0.255717	-107.035574	-45.075587	113.356830	-45.075587	113.356830	-0.255741	-107.042046
7.800000	-0.259299	-107.647951	-45.173671	111.670952	-45.173671	111.670952	-0.259323	-107.654497
7.850000	-0.262966	-108.259093	-45.261703	110.073357	-45.261703	110.073357	-0.262990	-108.265718
7.900000	-0.266662	-108.869824	-45.346878	108.505190	-45.346878	108.505190	-0.266686	-108.876528
7.950000	-0.270436	-109.479598	-45.424035	107.027740	-45.424035	107.027740	-0.270459	-109.486385
8.000000	-0.274248	-110.088894	-45.497415	105.595649	-45.497415	105.595649	-0.274271	-110.095767
8.050000	-0.278131	-110.697483	-45.564280	104.255120	-45.564280	104.255120	-0.278153	-110.704444
8.100000	-0.282063	-111.305565	-45.626528	102.979992	-45.626528	102.979992	-0.282084	-111.312618
8.150000	-0.286058	-111.913159	-45.683280	101.795265	-45.683280	101.795265	-0.286078	-111.920307
8.200000	-0.290115	-112.520264	-45.734424	100.700940	-45.734424	100.700940	-0.290133	-112.527510
8.250000	-0.294226	-113.127068	-45.780668	99.693228	-45.780668	99.693228	-0.294243	-113.134416
8.300000	-0.298412	-113.733453	-45.819843	98.806777	-45.819843	98.806777	-0.298428	-113.740907
8.350000	-0.302641	-114.339699	-45.854852	97.992513	-45.854852	97.992513	-0.302655	-114.347262
8.400000	-0.306952	-114.945672	-45.881284	97.322622	-45.881284	97.322622	-0.306964	-114.953348
8.450000	-0.311335	-115.551563	-45.899203	96.784495	-45.899203	96.784495	-0.311345	-115.559358
8.500000	-0.315767	-116.157399	-45.911357	96.335231	-45.911357	96.335231	-0.315775	-116.165316
8.550000	-0.320306	-116.763338	-45.907894	96.095171	-45.907894	96.095171	-0.320312	-116.771384
8.600000	-0.324882	-117.369344	-45.898961	95.921738	-45.898961	95.921738	-0.324886	-117.377522
8.650000	-0.329575	-117.975709	-45.869420	95.978500	-45.869420	95.978500	-0.329577	-117.984027
8.700000	-0.334325	-118.582362	-45.827884	96.143198	-45.827884	96.143198	-0.334325	-118.590826
8.750000	-0.339165	-119.189471	-45.767667	96.477512	-45.767667	96.477512	-0.339162	-119.198086
8.800000	-0.344107	-119.797319	-45.681235	96.995580	-45.681235	96.995580	-0.344103	-119.806094
8.850000	-0.349106	-120.405560	-45.581663	97.611388	-45.581663	97.611388	-0.349100	-120.414500
8.900000	-0.354263	-121.015260	-45.434951	98.473839	-45.434951	98.473839	-0.354256	-121.024378
8.950000	-0.359472	-121.625477	-45.274170	99.401102	-45.274170	99.401102	-0.359463	-121.634777
9.000000	-0.364839	-122.237441	-45.062126	100.520756	-45.062126	100.520756	-0.364829	-122.246936
9.050000	-0.370279	-122.850291	-44.828670	101.703136	-44.828670	101.703136	-0.370268	-122.859988
9.100000	-0.375876	-123.465154	-44.543218	103.003938	-44.543218	103.003938	-0.375865	-123.475066
9.150000	-0.381613	-124.081939	-44.213852	104.367988	-44.213852	104.367988	-0.381602	-124.092077
9.200000	-0.387501	-124.700920	-43.838955	105.766442	-43.838955	105.766442	-0.387491	-124.711297
9.250000	-0.393571	-125.322668	-43.411317	107.166254	-43.411317	107.166254	-0.393563	-125.333297
9.300000	-0.399831	-125.947404	-42.934920	108.532931	-42.934920	108.532931	-0.399826	-125.958301
9.350000	-0.406298	-126.575466	-42.412276	109.837436	-42.412276	109.837436	-0.406296	-126.586644
9.400000	-0.412995	-127.207304	-41.844950	111.053514	-41.844950	111.053514	-0.412998	-127.218777
9.450000	-0.419952	-127.843426	-41.234987	112.158628	-41.234987	112.158628	-0.419961	-127.855210
9.500000	-0.427202	-128.484409	-40.584715	113.134562	-40.584715	113.134562	-0.427218	-128.496520
9.550000	-0.434798	-129.131068	-39.894230	113.963913	-39.894230	113.963913	-0.434822	-129.143520
9.600000	-0.442822	-129.784692	-39.159100	114.626635	-39.159100	114.626635	-0.442856	-129.797499
9.650000	-0.451309	-130.445658	-38.389672	115.132204	-38.389672	115.132204	-0.451354	-130.458834
9.700000	-0.460340	-131.115004	-37.587372	115.480281	-37.587372	115.480281	-0.460396	-131.128556
9.750000	-0.469977	-131.793393	-36.758639	115.680884	-36.758639	115.680884	-0.470045	-131.807326
9.800000	-0.480440	-132.483625	-35.888572	115.719773	-35.888572	115.719773	-0.480521	-132.497938
9.850000	-0.491858	-133.186820	-34.983097	115.613450	-34.983097	115.613450	-0.491950	-133.201500
9.900000	-0.504378	-133.904189	-34.046825	115.378211	-34.046825	115.378211	-0.504479	-133.919216
9.950000	-0.518379	-134.639436	-33.064724	115.012913	-33.064724	115.012913	-0.518483	-134.654769
10.000000	-0.534180	-135.394833	-32.036856	114.534600	-32.036856	114.534600	-0.534278	-135.410407
