! freq	dB(S11)	phase(S11)	dB(S12)	phase(S12)	
!     	dB(S21)	phase(S21)	dB(S22)	phase(S22)	
!S-par simulation data
#  GHz  S  DB  R 50
0.000000	-0.000000	-0.000000	-368.898181	180.000000	-368.898181	180.000000	-0.000000	-0.000000
0.050000	-0.000063	-0.761986	-115.785124	120.731862	-115.785124	120.731862	-0.000063	-0.761997
0.100000	-0.000252	-1.523877	-110.552206	105.112442	-110.552206	105.112442	-0.000252	-1.523898
0.150000	-0.000567	-2.285571	-107.268090	99.037401	-107.268090	99.037401	-0.000566	-2.285601
0.200000	-0.000994	-3.047001	-104.939880	95.537290	-104.939880	95.537290	-0.000992	-3.047037
0.250000	-0.001530	-3.808079	-103.176381	93.197834	-103.176381	93.197834	-0.001528	-3.808120
0.300000	-0.002178	-4.568684	-101.799800	91.525347	-101.799800	91.525347	-0.002175	-4.568728
0.350000	-0.002912	-5.328827	-100.692198	90.209128	-100.692198	90.209128	-0.002908	-5.328871
0.400000	-0.003737	-6.088374	-99.806588	89.212208	-99.806588	89.212208	-0.003732	-6.088414
0.450000	-0.004635	-6.847323	-99.095645	88.463996	-99.095645	88.463996	-0.004630	-6.847358
0.500000	-0.005600	-7.605606	-98.538598	87.967286	-98.538598	87.967286	-0.005593	-7.605632
0.550000	-0.006621	-8.363188	-98.118223	87.734599	-98.118223	87.734599	-0.006614	-8.363203
0.600000	-0.007689	-9.120041	-97.823871	87.801212	-97.823871	87.801212	-0.007682	-9.120043
0.650000	-0.008796	-9.876140	-97.648897	88.224524	-97.648897	88.224524	-0.008788	-9.876128
0.700000	-0.009933	-10.631468	-97.589295	89.089018	-97.589295	89.089018	-0.009925	-10.631440
0.750000	-0.011092	-11.386012	-97.642254	90.514824	-97.642254	90.514824	-0.011084	-11.385967
0.800000	-0.012267	-12.139763	-97.804048	92.670175	-97.804048	92.670175	-0.012259	-12.139700
0.850000	-0.013453	-12.892575	-98.073230	96.053616	-98.073230	96.053616	-0.013445	-12.892493
0.900000	-0.014643	-13.644549	-98.425230	100.772749	-98.425230	100.772749	-0.014636	-13.644448
0.950000	-0.015832	-14.396104	-98.767542	106.485454	-98.767542	106.485454	-0.015825	-14.395983
1.000000	-0.017017	-15.146398	-99.047588	115.178870	-99.047588	115.178870	-0.017011	-15.146259
1.050000	-0.018200	-15.896412	-99.219593	124.433029	-99.219593	124.433029	-0.018194	-15.896254
1.100000	-0.019368	-16.645025	-98.819749	136.490900	-98.819749	136.490900	-0.019362	-16.644849
1.150000	-0.020534	-17.393498	-98.346974	148.401537	-98.346974	148.401537	-0.020529	-17.393304
1.200000	-0.021677	-18.140426	-97.005346	158.692586	-97.005346	158.692586	-0.021673	-18.140216
1.250000	-0.022821	-18.887355	-95.843488	168.983636	-95.843488	168.983636	-0.022817	-18.887127
1.300000	-0.023944	-19.633015	-94.296709	175.981062	-94.296709	175.981062	-0.023941	-19.632772
1.350000	-0.025053	-20.377860	-92.741310	-178.858601	-92.741310	-178.858601	-0.025050	-20.377602
1.400000	-0.026148	-21.121886	-91.234005	-175.134757	-91.234005	-175.134757	-0.026146	-21.121614
1.450000	-0.027230	-21.865086	-89.798707	-172.499213	-89.798707	-172.499213	-0.027229	-21.864801
1.500000	-0.028299	-22.607455	-88.442122	-170.682699	-88.442122	-170.682699	-0.028298	-22.607157
1.550000	-0.029355	-23.348984	-87.162834	-169.486020	-87.162834	-169.486020	-0.029355	-23.348674
1.600000	-0.030399	-24.089665	-85.956003	-168.763738	-85.956003	-168.763738	-0.030399	-24.089344
1.650000	-0.031432	-24.829489	-84.815656	-168.409471	-84.815656	-168.409471	-0.031433	-24.829157
1.700000	-0.032451	-25.568138	-83.710389	-168.418319	-83.710389	-168.418319	-0.032453	-25.567798
1.750000	-0.033466	-26.306332	-82.696479	-168.556780	-82.696479	-168.556780	-0.033467	-26.305982
1.800000	-0.034470	-27.043436	-81.716790	-168.905436	-81.716790	-168.905436	-0.034472	-27.043079
1.850000	-0.035466	-27.779764	-80.790421	-169.404232	-80.790421	-169.404232	-0.035469	-27.779399
1.900000	-0.036456	-28.515130	-79.901753	-170.023508	-79.901753	-170.023508	-0.036459	-28.514758
1.950000	-0.037439	-29.249537	-79.048825	-170.763262	-79.048825	-170.763262	-0.037442	-29.249159
2.000000	-0.038418	-29.983119	-78.235447	-171.573032	-78.235447	-171.573032	-0.038421	-29.982735
2.050000	-0.039391	-30.715548	-77.444735	-172.480823	-77.444735	-172.480823	-0.039395	-30.715159
2.100000	-0.040362	-31.447297	-76.694550	-173.429047	-76.694550	-173.429047	-0.040366	-31.446903
2.150000	-0.041329	-32.177688	-75.957156	-174.458136	-75.957156	-174.458136	-0.041333	-32.177290
2.200000	-0.042295	-32.907554	-75.260743	-175.509749	-75.260743	-175.509749	-0.042299	-32.907152
2.250000	-0.043259	-33.635846	-74.569559	-176.628938	-74.569559	-176.628938	-0.043263	-33.635442
2.300000	-0.044223	-34.363778	-73.919470	-177.759551	-73.919470	-177.759551	-0.044227	-34.363371
2.350000	-0.045188	-35.089910	-73.268753	-178.947288	-73.268753	-178.947288	-0.045192	-35.089501
2.400000	-0.046152	-35.815858	-72.659006	179.860540	-72.659006	179.860540	-0.046157	-35.815447
2.450000	-0.047120	-36.539770	-72.044057	178.619580	-72.044057	178.619580	-0.047124	-36.539357
2.500000	-0.048088	-37.263681	-71.469782	177.378621	-71.469782	177.378621	-0.048092	-37.263268
2.550000	-0.049061	-37.985313	-70.886709	176.095610	-70.886709	176.095610	-0.049065	-37.984899
2.600000	-0.050035	-38.706945	-70.340327	174.812598	-70.340327	174.812598	-0.050039	-38.706530
2.650000	-0.051017	-39.426432	-69.789433	173.498662	-69.789433	173.498662	-0.051021	-39.426018
2.700000	-0.051999	-40.145726	-69.268255	172.181915	-69.268255	172.181915	-0.052003	-40.145312
2.750000	-0.052990	-40.863023	-68.746118	170.842310	-68.746118	170.842310	-0.052994	-40.862610
2.800000	-0.053983	-41.579921	-68.247850	169.498132	-68.247850	169.498132	-0.053987	-41.579509
2.850000	-0.054986	-42.294983	-67.751581	168.137027	-67.751581	168.137027	-0.054990	-42.294573
2.900000	-0.055992	-43.009433	-67.274248	166.770278	-67.274248	166.770278	-0.055996	-43.009024
2.950000	-0.057009	-43.722216	-66.801387	165.391013	-66.801387	165.391013	-0.057012	-43.721809
3.000000	-0.058030	-44.434166	-66.343277	164.005491	-66.343277	164.005491	-0.058033	-44.433761
3.050000	-0.059061	-45.144629	-65.891711	162.610770	-65.891711	162.610770	-0.059064	-45.144227
3.100000	-0.060099	-45.854031	-65.451328	161.209480	-65.451328	161.209480	-0.060102	-45.853631
3.150000	-0.061147	-46.562135	-65.019229	159.801510	-65.019229	159.801510	-0.061150	-46.561738
3.200000	-0.062204	-47.268942	-64.595259	158.386862	-64.595259	158.386862	-0.062207	-47.268548
3.250000	-0.063269	-47.974650	-64.181034	156.967460	-64.181034	156.967460	-0.063272	-47.974259
3.300000	-0.064346	-48.678820	-63.772319	155.541406	-63.772319	155.541406	-0.064349	-48.678433
3.350000	-0.065431	-49.382097	-63.374570	154.112084	-63.374570	154.112084	-0.065434	-49.381714
3.400000	-0.066530	-50.083591	-62.980082	152.676225	-62.980082	152.676225	-0.066533	-50.083212
3.450000	-0.067635	-50.784406	-62.597578	151.238247	-62.597578	151.238247	-0.067638	-50.784031
3.500000	-0.068758	-51.483186	-62.216399	149.793912	-62.216399	149.793912	-0.068761	-51.482816
3.550000	-0.069885	-52.181509	-61.848051	148.348349	-61.848051	148.348349	-0.069888	-52.181143
3.600000	-0.071033	-52.877544	-61.479361	146.896653	-61.479361	146.896653	-0.071036	-52.877183
3.650000	-0.072183	-53.573347	-61.124196	145.444421	-61.124196	145.444421	-0.072186	-53.572990
3.700000	-0.073358	-54.266605	-60.767257	143.986311	-60.767257	143.986311	-0.073360	-54.266254
3.750000	-0.074532	-54.959864	-60.424410	142.528201	-60.424410	142.528201	-0.074534	-54.959518
3.800000	-0.075734	-55.650320	-60.078558	141.064494	-60.078558	141.064494	-0.075737	-55.649979
3.850000	-0.076937	-56.340776	-59.745951	139.600788	-59.745951	139.600788	-0.076939	-56.340441
3.900000	-0.078166	-57.028641	-59.411882	138.132606	-59.411882	138.132606	-0.078168	-57.028312
3.950000	-0.079398	-57.716271	-59.088984	136.664019	-59.088984	136.664019	-0.079400	-57.715948
4.000000	-0.080655	-58.401529	-58.765982	135.191892	-58.765982	135.191892	-0.080658	-58.401212
4.050000	-0.081918	-59.086313	-58.452309	133.719057	-58.452309	133.719057	-0.081920	-59.086002
4.100000	-0.083205	-59.768949	-58.139727	132.243467	-58.139727	132.243467	-0.083207	-59.768644
4.150000	-0.084500	-60.450870	-57.834837	130.766959	-57.834837	130.766959	-0.084502	-60.450571
4.200000	-0.085817	-61.130873	-57.532087	129.288350	-57.532087	129.288350	-0.085820	-61.130581
4.250000	-0.087146	-61.809916	-57.235574	127.808692	-57.235574	127.808692	-0.087148	-61.809631
4.300000	-0.088495	-62.487276	-56.942122	126.327479	-56.942122	126.327479	-0.088498	-62.486997
4.350000	-0.089859	-63.163432	-56.653614	124.845158	-56.653614	124.845158	-0.089861	-63.163160
4.400000	-0.091241	-63.838140	-56.368972	123.361734	-56.368972	123.361734	-0.091244	-63.837875
4.450000	-0.092641	-64.511401	-56.088124	121.877207	-56.088124	121.877207	-0.092644	-64.511143
4.500000	-0.094057	-65.183454	-55.811843	120.391944	-55.811843	120.391944	-0.094061	-65.183203
4.550000	-0.095496	-65.853814	-55.538338	118.905649	-55.538338	118.905649	-0.095499	-65.853571
4.600000	-0.096948	-66.523208	-55.270005	117.418904	-55.270005	117.418904	-0.096951	-66.522972
4.650000	-0.098426	-67.190667	-55.003548	115.931260	-55.003548	115.931260	-0.098430	-67.190439
4.700000	-0.099915	-67.857401	-54.742783	114.443380	-54.742783	114.443380	-0.099919	-67.857180
4.750000	-0.101434	-68.521960	-54.483098	112.954794	-54.483098	112.954794	-0.101438	-68.521747
4.800000	-0.102961	-69.186036	-54.229548	111.466116	-54.229548	111.466116	-0.102965	-69.185831
4.850000	-0.104523	-69.847699	-53.976376	109.976981	-53.976376	109.976981	-0.104527	-69.847501
4.900000	-0.106089	-70.509120	-53.729714	108.487833	-53.729714	108.487833	-0.106094	-70.508930
4.950000	-0.107696	-71.167893	-53.482811	106.998537	-53.482811	106.998537	-0.107700	-71.167711
5.000000	-0.109303	-71.826666	-53.242733	105.509240	-53.242733	105.509240	-0.109307	-71.826492
5.050000	-0.110955	-72.482558	-53.001870	104.020158	-53.001870	104.020158	-0.110960	-72.482392
5.100000	-0.112608	-73.138450	-52.767506	102.531077	-52.767506	102.531077	-0.112613	-73.138293
5.150000	-0.114304	-73.791713	-52.533048	101.042529	-52.533048	101.042529	-0.114309	-73.791564
5.200000	-0.116005	-74.444737	-52.304200	99.554029	-52.304200	99.554029	-0.116010	-74.444597
5.250000	-0.117746	-75.095383	-52.075870	98.066313	-52.075870	98.066313	-0.117751	-75.095251
5.300000	-0.119496	-75.745553	-51.852346	96.578754	-51.852346	96.578754	-0.119501	-75.745430
5.350000	-0.121284	-76.393596	-51.629886	95.092159	-51.629886	95.092159	-0.121289	-76.393481
5.400000	-0.123085	-77.040929	-51.411503	93.605886	-51.411503	93.605886	-0.123090	-77.040824
5.450000	-0.124920	-77.686384	-51.194665	92.120693	-51.194665	92.120693	-0.124926	-77.686287
5.500000	-0.126774	-78.330900	-50.981249	90.636039	-50.981249	90.636039	-0.126780	-78.330812
5.550000	-0.128659	-78.973785	-50.769799	89.152516	-50.769799	89.152516	-0.128665	-78.973706
5.600000	-0.130568	-79.615504	-50.561178	87.669801	-50.561178	87.669801	-0.130574	-79.615435
5.650000	-0.132504	-80.255838	-50.354897	86.188205	-50.354897	86.188205	-0.132510	-80.255778
5.700000	-0.134468	-80.894786	-50.150906	84.707729	-50.150906	84.707729	-0.134475	-80.894735
5.750000	-0.136457	-81.532589	-49.949581	83.228304	-49.949581	83.228304	-0.136463	-81.532548
5.800000	-0.138480	-82.168791	-49.750059	81.750349	-49.750059	81.750349	-0.138486	-82.168759
5.850000	-0.140522	-82.804086	-49.553489	80.273321	-49.553489	80.273321	-0.140529	-82.804064
5.900000	-0.142605	-83.437569	-49.358281	78.798147	-49.358281	78.798147	-0.142611	-83.437557
5.950000	-0.144703	-84.070381	-49.166274	77.323726	-49.166274	77.323726	-0.144709	-84.070378
6.000000	-0.146847	-84.701176	-48.975224	75.851567	-48.975224	75.851567	-0.146853	-84.701183
6.050000	-0.149002	-85.331528	-48.787597	74.379945	-48.787597	74.379945	-0.149008	-85.331545
6.100000	-0.151210	-85.959667	-48.600557	72.911009	-48.600557	72.911009	-0.151216	-85.959694
6.150000	-0.153423	-86.587587	-48.417131	71.442356	-48.417131	71.442356	-0.153430	-86.587625
6.200000	-0.155696	-87.213103	-48.233955	69.976822	-48.233955	69.976822	-0.155703	-87.213152
6.250000	-0.157970	-87.838620	-48.054563	68.511287	-48.054563	68.511287	-0.157976	-87.838678
6.300000	-0.160310	-88.461549	-47.875107	67.049301	-47.875107	67.049301	-0.160316	-88.461618
6.350000	-0.162651	-89.084479	-47.699285	65.587314	-47.699285	65.587314	-0.162657	-89.084558
6.400000	-0.165054	-89.705071	-47.523710	64.128684	-47.523710	64.128684	-0.165061	-89.705161
6.450000	-0.167464	-90.325451	-47.351326	62.670359	-47.351326	62.670359	-0.167470	-90.325552
6.500000	-0.169933	-90.943738	-47.179472	61.215149	-47.179472	61.215149	-0.169939	-90.943850
6.550000	-0.172414	-91.561607	-47.010399	59.760562	-47.010399	59.760562	-0.172419	-91.561730
6.600000	-0.174948	-92.177623	-46.842110	58.308810	-46.842110	58.308810	-0.174954	-92.177757
6.650000	-0.177502	-92.793022	-46.676222	56.858003	-46.676222	56.858003	-0.177507	-92.793167
6.700000	-0.180105	-93.406801	-46.511352	55.409716	-46.511352	55.409716	-0.180110	-93.406958
6.750000	-0.182732	-94.019772	-46.348528	53.962690	-46.348528	53.962690	-0.182737	-94.019939
6.800000	-0.185405	-94.631351	-46.186935	52.517848	-46.186935	52.517848	-0.185409	-94.631530
6.850000	-0.188109	-95.241936	-46.027057	51.074566	-46.027057	51.074566	-0.188113	-95.242126
6.900000	-0.190852	-95.851352	-45.868607	49.633118	-45.868607	49.633118	-0.190856	-95.851553
6.950000	-0.193634	-96.459597	-45.711561	48.193504	-45.711561	48.193504	-0.193637	-96.459810
7.000000	-0.196449	-97.066887	-45.556126	46.755369	-45.556126	46.755369	-0.196452	-97.067112
7.050000	-0.199310	-97.672839	-45.401804	45.319304	-45.401804	45.319304	-0.199313	-97.673075
7.100000	-0.202199	-98.278042	-45.249263	43.884371	-45.249263	43.884371	-0.202202	-98.278290
7.150000	-0.205142	-98.881748	-45.097560	42.451699	-45.097560	42.451699	-0.205144	-98.882007
7.200000	-0.208106	-99.484904	-44.947798	41.019826	-44.947798	41.019826	-0.208108	-99.485175
7.250000	-0.211132	-100.086412	-44.798616	39.590349	-44.798616	39.590349	-0.211133	-100.086694
7.300000	-0.214172	-100.687563	-44.651524	38.161365	-44.651524	38.161365	-0.214173	-100.687856
7.350000	-0.217282	-101.286924	-44.504772	36.734846	-44.504772	36.734846	-0.217282	-101.287229
7.400000	-0.220400	-101.886111	-44.360249	35.308550	-44.360249	35.308550	-0.220400	-101.886426
7.450000	-0.223596	-102.483376	-44.215839	33.884714	-44.215839	33.884714	-0.223595	-102.483702
7.500000	-0.226793	-103.080641	-44.073791	32.460877	-44.073791	32.460877	-0.226792	-103.080979
7.550000	-0.230076	-103.675862	-43.931645	31.039411	-43.931645	31.039411	-0.230074	-103.676211
7.600000	-0.233360	-104.271083	-43.791788	29.617945	-43.791788	29.617945	-0.233358	-104.271443
7.650000	-0.236725	-104.864480	-43.652030	28.198333	-43.652030	28.198333	-0.236722	-104.864850
7.700000	-0.240098	-105.457712	-43.514297	26.778890	-43.514297	26.778890	-0.240094	-105.458092
7.750000	-0.243544	-106.049330	-43.376852	25.360815	-43.376852	25.360815	-0.243540	-106.049719
7.800000	-0.247007	-106.640625	-43.241181	23.943013	-43.241181	23.943013	-0.247002	-106.641025
7.850000	-0.250537	-107.230511	-43.105980	22.526135	-43.105980	22.526135	-0.250531	-107.230919
7.900000	-0.254091	-107.819926	-42.972321	21.109564	-42.972321	21.109564	-0.254084	-107.820344
7.950000	-0.257705	-108.408126	-42.839305	19.693520	-42.839305	19.693520	-0.257698	-108.408552
8.000000	-0.261350	-108.995718	-42.707615	18.277739	-42.707615	18.277739	-0.261343	-108.996152
8.050000	-0.265050	-109.582279	-42.576733	16.862149	-42.576733	16.862149	-0.265041	-109.582722
8.100000	-0.268788	-110.168106	-42.446978	15.446695	-42.446978	15.446695	-0.268779	-110.168555
8.150000	-0.272573	-110.753078	-42.318186	14.031162	-42.318186	14.031162	-0.272563	-110.753534
8.200000	-0.276405	-111.337197	-42.190344	12.615550	-42.190344	12.615550	-0.276394	-111.337659
8.250000	-0.280276	-111.920629	-42.063609	11.199662	-42.063609	11.199662	-0.280265	-111.921096
8.300000	-0.284202	-112.503100	-41.937666	9.783389	-41.937666	9.783389	-0.284190	-112.503572
8.350000	-0.288161	-113.085042	-41.812962	8.366724	-41.812962	8.366724	-0.288148	-113.085518
8.400000	-0.292181	-113.665926	-41.688918	6.949277	-41.688918	6.949277	-0.292168	-113.666405
8.450000	-0.296227	-114.246429	-41.566229	5.531406	-41.566229	5.531406	-0.296212	-114.246909
8.500000	-0.300343	-114.825787	-41.444092	4.112263	-41.444092	4.112263	-0.300327	-114.826269
8.550000	-0.304476	-115.404902	-41.323411	2.692751	-41.323411	2.692751	-0.304460	-115.405383
8.600000	-0.308687	-115.982797	-41.203205	1.271391	-41.203205	1.271391	-0.308670	-115.983277
8.650000	-0.312907	-116.560575	-41.084532	-0.150196	-41.084532	-0.150196	-0.312890	-116.561053
8.700000	-0.317213	-117.137070	-40.966291	-1.574289	-40.966291	-1.574289	-0.317195	-117.137544
8.750000	-0.321522	-117.713566	-40.849639	-2.998383	-40.849639	-2.998383	-0.321502	-117.714035
8.800000	-0.325923	-118.288725	-40.733410	-4.425714	-40.733410	-4.425714	-0.325902	-118.289187
8.850000	-0.330326	-118.863884	-40.618717	-5.853045	-40.618717	-5.853045	-0.330305	-118.864339
8.900000	-0.334814	-119.437879	-40.504642	-7.283788	-40.504642	-7.283788	-0.334792	-119.438324
8.950000	-0.339312	-120.011768	-40.391968	-8.714841	-40.391968	-8.714841	-0.339289	-120.012202
9.000000	-0.343886	-120.584653	-40.280091	-10.149376	-40.280091	-10.149376	-0.343862	-120.585073
9.050000	-0.348478	-121.157338	-40.169508	-11.584608	-40.169508	-11.584608	-0.348453	-121.157743
9.100000	-0.353138	-121.729170	-40.059880	-13.023288	-40.059880	-13.023288	-0.353113	-121.729557
9.150000	-0.357823	-122.300717	-39.951476	-14.463117	-39.951476	-14.463117	-0.357796	-122.301085
9.200000	-0.362568	-122.871551	-39.844160	-15.906261	-39.844160	-15.906261	-0.362541	-122.871898
9.250000	-0.367344	-123.442029	-39.738031	-17.351062	-39.738031	-17.351062	-0.367316	-123.442352
9.300000	-0.372173	-124.011924	-39.633098	-18.798948	-39.633098	-18.798948	-0.372144	-124.012219
9.350000	-0.377040	-124.581402	-39.529357	-20.249037	-39.529357	-20.249037	-0.377010	-124.581667
9.400000	-0.381951	-125.150414	-39.426887	-21.701896	-39.426887	-21.701896	-0.381920	-125.150647
9.450000	-0.386907	-125.718962	-39.325657	-23.157526	-39.325657	-23.157526	-0.386875	-125.719159
9.500000	-0.391899	-126.287151	-39.225737	-24.615536	-39.225737	-24.615536	-0.391866	-126.287310
9.550000	-0.396942	-126.854839	-39.127153	-26.076879	-39.127153	-26.076879	-0.396908	-126.854956
9.600000	-0.402013	-127.422265	-39.029879	-27.540157	-39.029879	-27.540157	-0.401978	-127.422336
9.650000	-0.407140	-127.989166	-38.934086	-29.007303	-38.934086	-29.007303	-0.407104	-127.989187
9.700000	-0.412289	-128.555888	-38.839560	-30.475896	-38.839560	-30.475896	-0.412252	-128.555857
9.750000	-0.417497	-129.122074	-38.746712	-31.948834	-38.746712	-31.948834	-0.417459	-129.121985
9.800000	-0.422721	-129.688153	-38.655043	-33.422718	-38.655043	-33.422718	-0.422682	-129.688004
9.850000	-0.428008	-130.253699	-38.565303	-34.901332	-38.565303	-34.901332	-0.427968	-130.253482
9.900000	-0.433304	-130.819197	-38.476603	-36.380399	-38.476603	-36.380399	-0.433262	-130.818912
9.950000	-0.438666	-131.384178	-38.390139	-37.864455	-38.390139	-37.864455	-0.438624	-131.383814
10.000000	-0.444032	-131.949158	-38.304527	-39.348512	-38.304527	-39.348512	-0.443988	-131.948716
