! freq	dB(S11)	phase(S11)	dB(S12)	phase(S12)	
!     	dB(S21)	phase(S21)	dB(S22)	phase(S22)	
!S-par simulation data
#  GHz  S  DB  R 50
0.000000	-0.000000	0.000000	-331.904703	0.000000	-331.904703	0.000000	-0.000000	0.000000
0.050000	-0.000134	-0.833596	-89.011702	74.312238	-89.011702	74.312238	-0.000101	-0.831665
0.100000	-0.000527	-1.666819	-83.399041	80.575108	-83.399041	80.575108	-0.000401	-1.663097
0.150000	-0.001164	-2.499305	-79.953864	82.308681	-79.953864	82.308681	-0.000893	-2.494060
0.200000	-0.001998	-3.330853	-77.478333	82.838907	-77.478333	82.838907	-0.001549	-3.324411
0.250000	-0.002999	-4.161244	-75.545978	82.843806	-75.545978	82.843806	-0.002354	-4.153979
0.300000	-0.004139	-4.990230	-73.959655	82.567442	-73.959655	82.567442	-0.003299	-4.982551
0.350000	-0.005361	-5.817982	-72.613822	82.159282	-72.613822	82.159282	-0.004338	-5.810202
0.400000	-0.006644	-6.644313	-71.443301	81.652475	-71.443301	81.652475	-0.005465	-6.636739
0.450000	-0.007954	-7.468967	-70.404785	81.076052	-70.404785	81.076052	-0.006662	-7.461861
0.500000	-0.009273	-8.292954	-69.474608	80.475005	-69.474608	80.475005	-0.007885	-8.286411
0.550000	-0.010574	-9.115577	-68.627607	79.843593	-68.627607	79.843593	-0.009133	-9.109685
0.600000	-0.011863	-9.937226	-67.851425	79.190491	-67.851425	79.190491	-0.010398	-9.932048
0.650000	-0.013120	-10.757878	-67.132690	78.524999	-67.132690	78.524999	-0.011661	-10.753395
0.700000	-0.014346	-11.577532	-66.463114	77.847120	-66.463114	77.847120	-0.012921	-11.573724
0.750000	-0.015543	-12.396464	-65.835886	77.164843	-65.835886	77.164843	-0.014168	-12.393275
0.800000	-0.016699	-13.214384	-65.243599	76.476410	-65.243599	76.476410	-0.015396	-13.211736
0.850000	-0.017834	-14.031781	-64.684303	75.787221	-64.684303	75.787221	-0.016610	-14.029619
0.900000	-0.018928	-14.848132	-64.149764	75.096521	-64.149764	75.096521	-0.017795	-14.846348
0.950000	-0.020009	-15.664112	-63.642291	74.406548	-63.642291	74.406548	-0.018970	-15.662667
1.000000	-0.021053	-16.478976	-63.151687	73.718754	-63.151687	73.718754	-0.020112	-16.477757
1.050000	-0.022091	-17.293596	-62.684464	73.031998	-62.684464	73.031998	-0.021248	-17.292582
1.100000	-0.023099	-18.106995	-62.227543	72.350430	-62.227543	72.350430	-0.022351	-18.106083
1.150000	-0.024105	-18.920271	-61.791901	71.669552	-61.791901	71.669552	-0.023451	-18.919452
1.200000	-0.025089	-19.732188	-61.360719	70.996272	-61.360719	70.996272	-0.024522	-19.731378
1.250000	-0.026073	-20.544105	-60.949932	70.322991	-60.949932	70.322991	-0.025593	-20.543303
1.300000	-0.027043	-21.354498	-60.538089	69.659104	-60.538089	69.659104	-0.026639	-21.353642
1.350000	-0.028014	-22.164891	-60.144892	68.995216	-60.144892	68.995216	-0.027684	-22.163980
1.400000	-0.028979	-22.973838	-59.748928	68.340204	-59.748928	68.340204	-0.028713	-22.972837
1.450000	-0.029943	-23.782653	-59.368510	67.685998	-59.368510	67.685998	-0.029741	-23.781559
1.500000	-0.030908	-24.590106	-58.984200	67.039477	-58.984200	67.039477	-0.030759	-24.588902
1.550000	-0.031872	-25.397286	-58.612374	66.394493	-58.612374	66.394493	-0.031775	-25.395969
1.600000	-0.032841	-26.203198	-58.236069	65.755538	-58.236069	65.755538	-0.032786	-26.201763
1.650000	-0.033811	-27.008688	-57.869088	65.118591	-57.869088	65.118591	-0.033796	-27.007133
1.700000	-0.034786	-27.813018	-57.497568	64.485736	-57.497568	64.485736	-0.034804	-27.811346
1.750000	-0.035764	-28.616768	-57.131986	63.854926	-57.131986	63.854926	-0.035812	-28.614980
1.800000	-0.036748	-29.419481	-56.762346	63.226171	-56.762346	63.226171	-0.036820	-29.417582
1.850000	-0.037737	-30.221453	-56.394912	62.598884	-56.394912	62.598884	-0.037830	-30.219447
1.900000	-0.038733	-31.022523	-56.024487	61.971701	-56.024487	61.971701	-0.038842	-31.020416
1.950000	-0.039734	-31.822692	-55.652062	61.344622	-55.652062	61.344622	-0.039857	-31.820491
2.000000	-0.040742	-32.622107	-55.278361	60.715965	-55.278361	60.715965	-0.040876	-32.619818
2.050000	-0.041758	-33.420467	-54.897839	60.085098	-54.897839	60.085098	-0.041899	-33.418098
2.100000	-0.042779	-34.218228	-54.518497	59.451422	-54.518497	59.451422	-0.042925	-34.215785
2.150000	-0.043810	-35.014795	-54.126727	58.812127	-54.126727	58.812127	-0.043959	-35.012286
2.200000	-0.044845	-35.810924	-53.739462	58.169416	-53.739462	58.169416	-0.044996	-35.808353
2.250000	-0.045894	-36.605742	-53.333162	57.516456	-53.333162	57.516456	-0.046042	-36.603121
2.300000	-0.046945	-37.400284	-52.935735	56.860256	-52.935735	56.860256	-0.047092	-37.397612
2.350000	-0.048012	-38.193438	-52.511386	56.187855	-52.511386	56.187855	-0.048154	-38.190728
2.400000	-0.049080	-38.986465	-52.101563	55.513311	-52.101563	55.513311	-0.049218	-38.983716
2.450000	-0.050167	-39.778089	-51.655262	54.815203	-51.655262	54.815203	-0.050299	-39.775312
2.500000	-0.051255	-40.569714	-51.230778	54.117094	-51.230778	54.117094	-0.051380	-40.566907
2.550000	-0.052366	-41.360011	-50.758049	53.386553	-50.758049	53.386553	-0.052483	-41.357184
2.600000	-0.053477	-42.150309	-50.309726	52.656012	-50.309726	52.656012	-0.053586	-42.147461
2.650000	-0.054613	-42.939667	-49.812078	51.889134	-49.812078	51.889134	-0.054714	-42.936802
2.700000	-0.055752	-43.728939	-49.335288	51.118954	-49.335288	51.118954	-0.055844	-43.726059
2.750000	-0.056919	-44.517725	-48.808316	50.309234	-48.808316	50.309234	-0.057003	-44.514832
2.800000	-0.058093	-45.306414	-48.297401	49.491607	-48.297401	49.491607	-0.058168	-45.303508
2.850000	-0.059299	-46.095160	-47.735728	48.631870	-47.735728	48.631870	-0.059366	-46.092242
2.900000	-0.060517	-46.883925	-47.183501	47.758097	-47.183501	47.758097	-0.060575	-46.880994
2.950000	-0.061764	-47.673120	-46.604822	46.852115	-46.604822	46.852115	-0.061813	-47.670174
3.000000	-0.063048	-48.463068	-45.991566	45.907487	-45.991566	45.907487	-0.063089	-48.460106
3.050000	-0.064372	-49.254092	-45.350385	44.926304	-45.350385	44.926304	-0.064405	-49.251111
3.100000	-0.065744	-50.046652	-44.677937	43.905108	-44.677937	43.905108	-0.065770	-50.043648
3.150000	-0.067178	-50.841332	-43.970234	42.839786	-43.970234	42.839786	-0.067196	-50.838299
3.200000	-0.068689	-51.638888	-43.222469	41.725313	-43.222469	41.725313	-0.068700	-51.635820
3.250000	-0.070303	-52.440312	-42.428760	40.555375	-42.428760	40.555375	-0.070307	-52.437201
3.300000	-0.072053	-53.246931	-41.581814	39.321800	-41.581814	39.321800	-0.072050	-53.243767
3.350000	-0.073975	-54.059970	-40.683328	38.019074	-40.683328	38.019074	-0.073965	-54.056741
3.400000	-0.076160	-54.882456	-39.709303	36.626521	-39.709303	36.626521	-0.076144	-54.879145
3.450000	-0.078772	-55.719246	-38.627633	35.113645	-38.627633	35.113645	-0.078750	-55.715829
3.500000	-0.081941	-56.573142	-37.456234	33.469403	-37.456234	33.469403	-0.081912	-56.569591
3.550000	-0.086127	-57.455100	-36.133221	31.625368	-36.133221	31.625368	-0.086089	-57.451372
3.600000	-0.092041	-58.378524	-34.627187	29.503549	-34.627187	29.503549	-0.091993	-58.374556
3.650000	-0.101200	-59.367822	-32.878388	26.957316	-32.878388	26.957316	-0.101137	-59.363516
3.700000	-0.117480	-60.473754	-30.766523	23.672093	-30.766523	23.672093	-0.117395	-60.468939
3.750000	-0.151936	-61.803045	-28.104765	18.946666	-28.104765	18.946666	-0.151804	-61.797395
3.800000	-0.248742	-63.627093	-24.493556	10.693136	-24.493556	10.693136	-0.248484	-63.619858
3.850000	-0.681810	-66.364785	-19.182138	-9.822421	-19.182138	-9.822421	-0.680972	-66.354106
3.900000	-1.657920	-59.057940	-15.472926	-75.304786	-15.472926	-75.304786	-1.655198	-59.060379
3.950000	-0.478528	-57.850903	-20.943033	-121.900603	-20.943033	-121.900603	-0.477986	-57.856125
4.000000	-0.228384	-60.205894	-25.267115	-136.100160	-25.267115	-136.100160	-0.228199	-60.208177
4.050000	-0.160132	-61.780445	-28.186500	-142.832608	-28.186500	-142.832608	-0.160033	-61.781356
4.100000	-0.133555	-62.993554	-30.327194	-147.115008	-30.327194	-147.115008	-0.133488	-62.993707
4.150000	-0.120920	-64.033472	-32.004344	-150.340600	-32.004344	-150.340600	-0.120869	-64.033144
4.200000	-0.114416	-64.975593	-33.356201	-153.007137	-33.356201	-153.007137	-0.114373	-64.974936
4.250000	-0.110765	-65.862646	-34.507433	-155.376699	-34.507433	-155.376699	-0.110728	-65.861740
4.300000	-0.108884	-66.709696	-35.478533	-157.544036	-35.478533	-157.544036	-0.108851	-66.708600
4.350000	-0.108062	-67.528914	-36.307395	-159.582448	-36.307395	-159.582448	-0.108032	-67.527666
4.400000	-0.107822	-68.330767	-37.049756	-161.548504	-37.049756	-161.548504	-0.107795	-68.329391
4.450000	-0.108018	-69.118417	-37.711852	-163.461026	-37.711852	-163.461026	-0.107993	-69.116931
4.500000	-0.108529	-69.894823	-38.305773	-165.336525	-38.305773	-165.336525	-0.108507	-69.893241
4.550000	-0.109295	-70.661160	-38.831417	-167.184979	-38.831417	-167.184979	-0.109275	-70.659494
4.600000	-0.110285	-71.417969	-39.283887	-169.012898	-39.283887	-169.012898	-0.110266	-71.416229
4.650000	-0.111274	-72.174778	-39.761229	-170.840816	-39.761229	-170.840816	-0.111258	-72.172965
4.700000	-0.112512	-72.919663	-40.130859	-172.654309	-40.130859	-172.654309	-0.112498	-72.917789
4.750000	-0.113765	-73.663847	-40.508658	-174.466953	-40.508658	-174.466953	-0.113752	-73.661912
4.800000	-0.115129	-74.402126	-40.839610	-176.278128	-40.839610	-176.278128	-0.115118	-74.400136
4.850000	-0.116558	-75.136931	-41.144720	-178.088440	-41.144720	-178.088440	-0.116549	-75.134890
4.900000	-0.118029	-75.869387	-41.437178	-179.899532	-41.437178	-179.899532	-0.118022	-75.867296
4.950000	-0.119592	-76.596732	-41.686514	178.287677	-41.686514	178.287677	-0.119585	-76.594595
5.000000	-0.121154	-77.324076	-41.943221	176.474887	-41.943221	176.474887	-0.121149	-77.321894
5.050000	-0.122821	-78.045460	-42.150565	174.659356	-42.150565	174.659356	-0.122818	-78.043238
5.100000	-0.124489	-78.766844	-42.362980	172.843826	-42.362980	172.843826	-0.124486	-78.764581
5.150000	-0.126237	-79.483698	-42.540954	171.027597	-42.540954	171.027597	-0.126235	-79.481397
5.200000	-0.127992	-80.200140	-42.718969	169.211305	-42.718969	169.211305	-0.127992	-80.197803
5.250000	-0.129816	-80.912874	-42.870869	167.396970	-42.870869	167.396970	-0.129817	-80.910503
5.300000	-0.131653	-81.624866	-43.019410	165.583027	-43.019410	165.583027	-0.131655	-81.622462
5.350000	-0.133549	-82.333803	-43.147994	163.773859	-43.147994	163.773859	-0.133552	-82.331367
5.400000	-0.135465	-83.041721	-43.270896	161.966283	-43.270896	161.966283	-0.135469	-83.039255
5.450000	-0.137432	-83.747121	-43.378495	160.166071	-43.378495	160.166071	-0.137436	-83.744626
5.500000	-0.139425	-84.451262	-43.478813	158.369540	-43.478813	158.369540	-0.139429	-84.448740
5.550000	-0.141462	-85.153343	-43.567411	156.582473	-43.567411	156.582473	-0.141467	-85.150795
5.600000	-0.143531	-85.853951	-43.647627	154.802166	-43.647627	154.802166	-0.143536	-85.851379
5.650000	-0.145638	-86.552898	-43.718932	153.032757	-43.718932	153.032757	-0.145644	-86.550302
5.700000	-0.147783	-87.250184	-43.781097	151.274245	-43.781097	151.274245	-0.147789	-87.247565
5.750000	-0.149961	-87.946162	-43.836591	149.527272	-43.836591	149.527272	-0.149967	-87.943521
5.800000	-0.152184	-88.640308	-43.882420	147.796454	-43.882420	147.796454	-0.152190	-88.637648
5.850000	-0.154433	-89.333465	-43.923399	146.076931	-43.923399	146.076931	-0.154439	-89.330785
5.900000	-0.156734	-90.024642	-43.954343	144.380000	-43.954343	144.380000	-0.156740	-90.021943
5.950000	-0.159056	-90.715116	-43.981941	142.693161	-43.981941	142.693161	-0.159062	-90.712399
6.000000	-0.161437	-91.403482	-43.999227	141.036597	-43.999227	141.036597	-0.161443	-91.400749
6.050000	-0.163833	-92.091406	-44.014434	139.387892	-44.014434	139.387892	-0.163839	-92.088655
6.100000	-0.166297	-92.777116	-44.019093	137.778481	-44.019093	137.778481	-0.166302	-92.774350
6.150000	-0.168768	-93.462618	-44.022772	136.173595	-44.022772	136.173595	-0.168773	-93.459836
6.200000	-0.171317	-94.145826	-44.015651	134.618471	-44.015651	134.618471	-0.171321	-94.143029
6.250000	-0.173866	-94.829034	-44.008536	133.063347	-44.008536	133.063347	-0.173870	-94.826222
6.300000	-0.176501	-95.509897	-43.990299	131.570053	-43.990299	131.570053	-0.176504	-95.507070
6.350000	-0.179137	-96.190759	-43.972100	130.076760	-43.972100	130.076760	-0.179140	-96.187918
6.400000	-0.181855	-96.869621	-43.944113	128.647507	-43.944113	128.647507	-0.181858	-96.866765
6.450000	-0.184581	-97.548301	-43.915326	127.224076	-43.915326	127.224076	-0.184583	-97.545430
6.500000	-0.187385	-98.225305	-43.877819	125.866044	-43.877819	125.866044	-0.187386	-98.222420
6.550000	-0.190205	-98.901975	-43.838717	124.521093	-43.838717	124.521093	-0.190205	-98.899074
6.600000	-0.193097	-99.577275	-43.791738	123.241977	-43.791738	123.241977	-0.193097	-99.574359
6.650000	-0.196014	-100.252120	-43.742343	121.984806	-43.742343	121.984806	-0.196013	-100.249187
6.700000	-0.198999	-100.925883	-43.685727	120.792873	-43.685727	120.792873	-0.198997	-100.922933
6.750000	-0.202018	-101.599105	-43.625753	119.633559	-43.625753	119.633559	-0.202016	-101.596138
6.800000	-0.205099	-102.271512	-43.559074	118.537696	-43.559074	118.537696	-0.205096	-102.268527
6.850000	-0.208225	-102.943338	-43.487863	117.487156	-43.487863	117.487156	-0.208222	-102.940333
6.900000	-0.211408	-103.614592	-43.410386	116.496883	-43.410386	116.496883	-0.211404	-103.611566
6.950000	-0.214648	-104.285274	-43.326814	115.566879	-43.326814	115.566879	-0.214643	-104.282227
7.000000	-0.217938	-104.955602	-43.237423	114.692309	-43.237423	114.692309	-0.217933	-104.952532
7.050000	-0.221299	-105.625433	-43.139784	113.895347	-43.139784	113.895347	-0.221294	-105.622339
7.100000	-0.224704	-106.295094	-43.036911	113.147056	-43.036911	113.147056	-0.224698	-106.291974
7.150000	-0.228196	-106.964412	-42.922765	112.496105	-42.922765	112.496105	-0.228190	-106.961264
7.200000	-0.231725	-107.633703	-42.804302	111.884875	-42.804302	111.884875	-0.231718	-107.630527
7.250000	-0.235360	-108.302911	-42.670293	111.392810	-42.670293	111.392810	-0.235352	-108.299703
7.300000	-0.239022	-108.972182	-42.533500	110.929197	-42.533500	110.929197	-0.239014	-108.968942
7.350000	-0.242816	-109.641764	-42.375138	110.607844	-42.375138	110.607844	-0.242808	-109.638488
7.400000	-0.246627	-110.311427	-42.216565	110.301492	-42.216565	110.301492	-0.246618	-110.308116
7.450000	-0.250601	-110.981981	-42.027985	110.160143	-42.027985	110.160143	-0.250592	-110.978629
7.500000	-0.254577	-111.652534	-41.843411	110.018794	-41.843411	110.018794	-0.254567	-111.649143
7.550000	-0.258759	-112.324810	-41.617117	110.062078	-41.617117	110.062078	-0.258749	-112.321375
7.600000	-0.262943	-112.997087	-41.396569	110.105362	-41.396569	110.105362	-0.262933	-112.993606
7.650000	-0.267353	-113.671831	-41.128186	110.315318	-41.128186	110.315318	-0.267342	-113.668301
7.700000	-0.271785	-114.346799	-40.863161	110.540426	-40.863161	110.540426	-0.271774	-114.343219
7.750000	-0.276469	-115.025081	-40.544106	110.905821	-40.544106	110.905821	-0.276459	-115.021446
7.800000	-0.281207	-115.704024	-40.224462	111.299273	-40.224462	111.299273	-0.281196	-115.700334
7.850000	-0.286234	-116.387264	-39.845136	111.798456	-39.845136	111.798456	-0.286223	-116.383513
7.900000	-0.291361	-117.071935	-39.459102	112.332883	-39.459102	112.332883	-0.291350	-117.068123
7.950000	-0.296734	-117.760450	-39.032758	112.920461	-39.032758	112.920461	-0.296723	-117.756572
8.000000	-0.302420	-118.453933	-38.557283	113.556415	-38.557283	113.556415	-0.302408	-118.449986
8.050000	-0.308431	-119.152662	-38.038213	114.216150	-38.038213	114.216150	-0.308420	-119.148642
8.100000	-0.314833	-119.857672	-37.472090	114.883268	-37.472090	114.883268	-0.314821	-119.853572
8.150000	-0.321708	-120.570236	-36.855215	115.539340	-36.855215	115.539340	-0.321696	-120.566054
8.200000	-0.329168	-121.291954	-36.183551	116.163801	-36.183551	116.163801	-0.329156	-121.287681
8.250000	-0.337363	-122.024849	-35.452578	116.733709	-35.452578	116.733709	-0.337351	-122.020479
8.300000	-0.346501	-122.771530	-34.657076	117.223247	-34.657076	117.223247	-0.346489	-122.767054
8.350000	-0.356774	-123.534084	-33.801406	117.611710	-33.801406	117.611710	-0.356762	-123.529493
8.400000	-0.368690	-124.318353	-32.865576	117.855457	-32.865576	117.855457	-0.368678	-124.313631
8.450000	-0.383090	-125.132882	-31.824640	117.894993	-31.824640	117.894993	-0.383077	-125.128007
8.500000	-0.400490	-125.980929	-30.701998	117.709884	-30.701998	117.709884	-0.400476	-125.975877
8.550000	-0.422894	-126.879355	-29.451099	117.191579	-29.451099	117.191579	-0.422878	-126.874087
8.600000	-0.452875	-127.844427	-28.059420	116.236174	-28.059420	116.236174	-0.452855	-127.838886
8.650000	-0.495198	-128.901689	-26.499110	114.669408	-26.499110	114.669408	-0.495169	-128.895785
8.700000	-0.559797	-130.092543	-24.716079	112.169040	-24.716079	112.169040	-0.559750	-130.086130
8.750000	-0.667134	-131.468860	-22.652678	108.173891	-22.652678	108.173891	-0.667043	-131.461684
8.800000	-0.866684	-133.064025	-20.225418	101.515700	-20.225418	101.515700	-0.866478	-133.055644
8.850000	-1.278709	-134.594510	-17.406950	89.709269	-17.406950	89.709269	-1.278146	-134.584433
8.900000	-2.071114	-133.728909	-14.585167	67.887976	-14.585167	67.887976	-2.069562	-133.719802
8.950000	-2.378241	-126.180258	-13.483303	34.695968	-13.483303	34.695968	-2.376616	-126.182105
9.000000	-1.493109	-122.675294	-15.047889	5.780002	-15.047889	5.780002	-1.492685	-122.677768
9.050000	-0.914926	-124.143212	-17.359035	-10.950230	-17.359035	-10.950230	-0.914789	-124.143299
9.100000	-0.664929	-126.062253	-19.382935	-20.324957	-19.382935	-20.324957	-0.664847	-126.061205
9.150000	-0.549869	-127.684499	-21.022357	-26.101962	-21.022357	-26.101962	-0.549806	-127.682892
9.200000	-0.492171	-129.034636	-22.343786	-29.994345	-22.343786	-29.994345	-0.492119	-129.032723
9.250000	-0.461291	-130.196599	-23.422681	-32.828685	-23.422681	-32.828685	-0.461249	-130.194512
9.300000	-0.444149	-131.232745	-24.319509	-35.034041	-24.319509	-35.034041	-0.444114	-131.230566
9.350000	-0.434793	-132.181467	-25.073251	-36.838446	-25.073251	-36.838446	-0.434766	-132.179255
9.400000	-0.430121	-133.067969	-25.713016	-38.378676	-25.713016	-38.378676	-0.430101	-133.065769
9.450000	-0.428453	-133.908367	-26.258432	-39.737875	-26.258432	-39.737875	-0.428441	-133.906218
9.500000	-0.428754	-134.714645	-26.727279	-40.973732	-26.727279	-40.973732	-0.428749	-134.712583
9.550000	-0.430318	-135.496710	-27.138607	-42.129356	-27.138607	-42.129356	-0.430322	-135.494764
9.600000	-0.432952	-136.256414	-27.488828	-43.218089	-27.488828	-43.218089	-0.432964	-136.254620
9.650000	-0.436228	-137.001628	-27.798493	-44.268433	-27.798493	-44.268433	-0.436250	-137.000013
9.700000	-0.440085	-137.733009	-28.064406	-45.286862	-28.064406	-45.286862	-0.440117	-137.731608
9.750000	-0.444397	-138.453052	-28.291195	-46.283925	-28.291195	-46.283925	-0.444440	-138.451901
9.800000	-0.448938	-139.167285	-28.498615	-47.271890	-28.498615	-47.271890	-0.448993	-139.166408
9.850000	-0.453801	-139.873259	-28.673281	-48.249523	-28.673281	-48.249523	-0.453869	-139.872695
9.900000	-0.458897	-140.573367	-28.822717	-49.223214	-28.822717	-49.223214	-0.458980	-140.573155
9.950000	-0.464154	-141.269562	-28.954448	-50.195708	-28.954448	-50.195708	-0.464252	-141.269734
10.000000	-0.469558	-141.962243	-29.069154	-51.168088	-29.069154	-51.168088	-0.469674	-141.962832
