! freq	dB(S11)	phase(S11)	dB(S12)	phase(S12)	
!     	dB(S21)	phase(S21)	dB(S22)	phase(S22)	
!S-par simulation data
#  GHz  S  DB  R 50
0.000000	-6153.053111	0.000000	-0.000000	0.000000	-0.000000	0.000000	-6153.053111	0.000000
0.050000	-36.392253	-92.856917	-0.004664	-2.988097	-0.004664	-2.988097	-36.390443	-93.093986
0.100000	-30.392690	-95.718808	-0.013800	-5.941758	-0.013800	-5.941758	-30.394290	-96.206031
0.150000	-26.902632	-98.587141	-0.023710	-8.876159	-0.023710	-8.876159	-26.907021	-99.335839
0.200000	-24.443320	-101.458809	-0.034486	-11.803369	-0.034486	-11.803369	-24.449004	-102.471399
0.250000	-22.549795	-104.327476	-0.046624	-14.726366	-0.046624	-14.726366	-22.555706	-105.601243
0.300000	-21.016067	-107.185026	-0.060474	-17.644695	-0.060474	-17.644695	-21.021844	-108.718070
0.350000	-19.728644	-110.028166	-0.075835	-20.558341	-0.075835	-20.558341	-19.734374	-111.822198
0.400000	-18.624538	-112.851782	-0.092850	-23.465905	-0.092850	-23.465905	-18.630452	-114.912655
0.450000	-17.661090	-115.655117	-0.111379	-26.366916	-0.111379	-26.366916	-17.667381	-117.991520
0.500000	-16.808350	-118.439757	-0.131197	-29.261480	-0.131197	-29.261480	-16.815121	-121.061467
0.550000	-16.049265	-121.202266	-0.152419	-32.147815	-0.152419	-32.147815	-16.056577	-124.122733
0.600000	-15.365694	-123.946732	-0.174705	-35.027001	-0.174705	-35.027001	-15.373544	-127.178317
0.650000	-14.747281	-126.672319	-0.197996	-37.898388	-0.197996	-37.898388	-14.755656	-130.229239
0.700000	-14.186087	-129.378008	-0.222218	-40.761357	-0.222218	-40.761357	-14.194978	-133.276630
0.750000	-13.672807	-132.066391	-0.247138	-43.616972	-0.247138	-43.616972	-13.682205	-136.322111
0.800000	-13.203822	-134.734749	-0.272718	-46.464184	-0.272718	-46.464184	-13.213741	-139.366646
0.850000	-12.774099	-137.383060	-0.298797	-49.303255	-0.298797	-49.303255	-12.784567	-142.411672
0.900000	-12.377924	-140.013230	-0.325217	-52.135256	-0.325217	-52.135256	-12.388973	-145.458253
0.950000	-12.014385	-142.621573	-0.351878	-54.959237	-0.351878	-54.959237	-12.026075	-148.508161
1.000000	-11.678639	-145.210345	-0.378638	-57.776520	-0.378638	-57.776520	-11.691028	-151.562354
1.050000	-11.369373	-147.777402	-0.405366	-60.586982	-0.405366	-60.586982	-11.382538	-154.622782
1.100000	-11.084183	-150.322600	-0.431941	-63.391232	-0.431941	-63.391232	-11.098203	-157.690987
1.150000	-10.820711	-152.846215	-0.458255	-66.190051	-0.458255	-66.190051	-10.835672	-160.768425
1.200000	-10.578610	-155.345451	-0.484150	-68.983559	-0.484150	-68.983559	-10.594616	-163.858074
1.250000	-10.354448	-157.823286	-0.509598	-71.773148	-0.509598	-71.773148	-10.371588	-166.960033
1.300000	-10.149640	-160.273951	-0.534358	-74.558773	-0.534358	-74.558773	-10.168043	-170.079762
1.350000	-9.960401	-162.701945	-0.558484	-77.341948	-0.558484	-77.341948	-9.980169	-173.216129
1.400000	-9.787588	-165.102611	-0.581763	-80.123191	-0.581763	-80.123191	-9.808856	-176.374701
1.450000	-9.629130	-167.477651	-0.604198	-82.903585	-0.604198	-82.903585	-9.652029	-179.556121
1.500000	-9.484640	-169.825138	-0.625683	-85.684116	-0.625683	-85.684116	-9.509317	177.235690
1.550000	-9.353558	-172.143559	-0.646134	-88.465860	-0.646134	-88.465860	-9.380176	173.997014
1.600000	-9.234350	-174.434089	-0.665586	-91.249789	-0.665586	-91.249789	-9.263071	170.726946
1.650000	-9.127768	-176.691461	-0.683843	-94.037490	-0.683843	-94.037490	-9.158803	167.417101
1.700000	-9.032554	-178.915962	-0.700940	-96.830154	-0.700940	-96.830154	-9.066121	164.065262
1.750000	-8.947331	178.891147	-0.716957	-99.628591	-0.716957	-99.628591	-8.983648	160.670953
1.800000	-8.872121	176.733300	-0.731818	-102.434385	-0.731818	-102.434385	-8.911444	157.227558
1.850000	-8.806381	174.612263	-0.745529	-105.248913	-0.745529	-105.248913	-8.848992	153.730499
1.900000	-8.749573	172.529972	-0.758107	-108.073594	-0.758107	-108.073594	-8.795783	150.174930
1.950000	-8.701158	170.488543	-0.769580	-110.909888	-0.769580	-110.909888	-8.751309	146.555732
2.000000	-8.660587	168.490274	-0.779991	-113.759290	-0.779991	-113.759290	-8.715052	142.867513
2.050000	-8.627290	166.537643	-0.789397	-116.623327	-0.789397	-116.623327	-8.686476	139.104606
2.100000	-8.600664	164.633299	-0.797869	-119.503557	-0.797869	-119.503557	-8.665012	135.261079
2.150000	-8.580065	162.780043	-0.805491	-122.401560	-0.805491	-122.401560	-8.650052	131.330752
2.200000	-8.564796	160.980804	-0.812367	-125.318939	-0.812367	-125.318939	-8.640930	127.307224
2.250000	-8.554092	159.238593	-0.818616	-128.257311	-0.818616	-128.257311	-8.636913	123.183917
2.300000	-8.547108	157.556449	-0.824376	-131.218310	-0.824376	-131.218310	-8.637184	118.954132
2.350000	-8.542908	155.937359	-0.829803	-134.203574	-0.829803	-134.203574	-8.640830	114.611132
2.400000	-8.540450	154.384156	-0.835073	-137.214746	-0.835073	-137.214746	-8.646824	110.148250
2.450000	-8.538576	152.899394	-0.840387	-140.253465	-0.840387	-140.253465	-8.654010	105.559026
2.500000	-8.536005	151.485192	-0.845962	-143.321360	-0.845962	-143.321360	-8.661096	100.837380
2.550000	-8.531187	150.145411	-0.852073	-146.421112	-0.852073	-146.421112	-8.666523	95.973142
2.600000	-8.522595	148.878275	-0.858979	-149.553342	-0.858979	-149.553342	-8.668692	90.966137
2.650000	-8.508547	147.683196	-0.866978	-152.719593	-0.866978	-152.719593	-8.665843	85.813019
2.700000	-8.487258	146.558197	-0.876393	-155.921359	-0.876393	-155.921359	-8.656082	80.511938
2.750000	-8.456864	145.499651	-0.887577	-159.160073	-0.887577	-159.160073	-8.637408	75.062882
2.800000	-8.415466	144.502039	-0.900908	-162.437088	-0.900908	-162.437088	-8.607749	69.468005
2.850000	-8.361183	143.557746	-0.916797	-165.753667	-0.916797	-165.753667	-8.565025	63.731913
2.900000	-8.292219	142.656948	-0.935681	-169.110964	-0.935681	-169.110964	-8.507213	57.861892
2.950000	-8.206936	141.787584	-0.958031	-172.510004	-0.958031	-172.510004	-8.432433	51.868015
3.000000	-8.103934	140.935471	-0.984344	-175.951664	-0.984344	-175.951664	-8.339041	45.763119
3.050000	-7.982131	140.084557	-1.015150	-179.436653	-1.015150	-179.436653	-8.225718	39.562601
3.100000	-7.840830	139.217325	-1.051006	177.034509	-1.051006	177.034509	-8.091557	33.284054
3.150000	-7.679524	138.314731	-1.092563	173.461033	-1.092563	173.461033	-7.935868	26.946317
3.200000	-7.498426	137.357389	-1.140454	169.842850	-1.140454	169.842850	-7.758741	20.570333
3.250000	-7.298500	136.327356	-1.195257	166.180636	-1.195257	166.180636	-7.561100	14.177214
3.300000	-7.080917	135.207399	-1.257630	162.474863	-1.257630	162.474863	-7.344130	7.786886
3.350000	-6.847257	133.981965	-1.328251	158.726291	-1.328251	158.726291	-7.109473	1.418063
3.400000	-6.599428	132.637647	-1.407814	154.935986	-1.407814	154.935986	-6.859160	-4.912282
3.450000	-6.339595	131.163510	-1.497025	151.105327	-1.497025	151.105327	-6.595509	-11.189295
3.500000	-6.070084	129.551271	-1.596596	147.236010	-1.596596	147.236010	-6.321030	-17.400447
3.550000	-5.793302	127.795324	-1.707246	143.330050	-1.707246	143.330050	-6.038322	-23.535574
3.600000	-5.511657	125.892648	-1.829693	139.389772	-1.829693	139.389772	-5.749987	-29.586785
3.650000	-5.227488	123.842618	-1.964654	135.417798	-1.964654	135.417798	-5.458550	-35.548271
3.700000	-4.943018	121.646743	-2.112840	131.417027	-2.112840	131.417027	-5.166402	-41.416046
3.750000	-4.660303	119.308372	-2.274954	127.390609	-2.274954	127.390609	-4.875749	-47.187665
3.800000	-4.381141	116.829525	-2.451940	123.341510	-2.451940	123.341510	-4.588503	-52.859811
3.850000	-4.107350	114.219456	-2.644241	119.273848	-2.644241	119.273848	-4.306604	-58.434425
3.900000	-3.840369	111.485210	-2.852535	115.191313	-2.852535	115.191313	-4.031574	-63.912086
3.950000	-3.581422	108.634453	-3.077506	111.097685	-3.077506	111.097685	-3.764700	-69.293913
4.000000	-3.331525	105.675241	-3.319843	106.996784	-3.319843	106.996784	-3.507045	-74.581411
4.050000	-3.091495	102.615806	-3.580257	102.892426	-3.580257	102.892426	-3.259459	-79.776365
4.100000	-2.861966	99.464388	-3.859496	98.788380	-3.859496	98.788380	-3.022596	-84.880752
4.150000	-2.643404	96.229081	-4.158355	94.688332	-4.158355	94.688332	-2.796934	-89.896693
4.200000	-2.436124	92.917719	-4.477708	90.595850	-4.477708	90.595850	-2.582790	-94.826420
4.250000	-2.240307	89.537774	-4.818525	86.514366	-4.818525	86.514366	-2.380343	-99.672260
4.300000	-2.056018	86.096286	-5.181916	82.447164	-5.181916	82.447164	-2.189649	-104.436632
4.350000	-1.883222	82.599804	-5.569159	78.397380	-5.569159	78.397380	-2.010662	-109.122051
4.400000	-1.721890	79.053880	-5.981827	74.368282	-5.981827	74.368282	-1.843340	-113.730334
4.450000	-1.571842	75.464148	-6.421682	70.362890	-6.421682	70.362890	-1.687486	-118.264307
4.500000	-1.432742	71.836002	-6.890799	66.383883	-6.890799	66.383883	-1.542748	-122.727658
4.550000	-1.304305	68.173737	-7.391784	62.434250	-7.391784	62.434250	-1.408823	-127.123376
4.600000	-1.186963	64.478771	-7.928115	58.520419	-7.928115	58.520419	-1.286122	-131.449307
4.650000	-1.078798	60.759410	-8.503071	54.639593	-8.503071	54.639593	-1.172712	-135.720197
4.700000	-0.980321	57.015401	-9.121951	50.799426	-9.121951	50.799426	-1.069082	-139.933175
4.750000	-0.891200	53.248896	-9.790940	47.005542	-9.790940	47.005542	-0.974882	-144.091787
4.800000	-0.811117	49.461551	-10.517936	43.265461	-10.517936	43.265461	-0.889771	-148.199723
4.850000	-0.739765	45.654544	-11.313180	39.589669	-11.313180	39.589669	-0.813424	-152.260819
4.900000	-0.676866	41.828595	-12.190209	35.993378	-12.190209	35.993378	-0.745541	-156.279059
4.950000	-0.622170	37.983983	-13.167336	32.499488	-13.167336	32.499488	-0.685850	-160.258576
5.000000	-0.575460	34.120561	-14.270074	29.143859	-14.270074	29.143859	-0.634113	-164.203656
5.050000	-0.537182	30.236082	-15.535445	26.011910	-15.535445	26.011910	-0.590742	-168.116725
5.100000	-0.505897	26.333039	-17.019002	23.167207	-17.019002	23.167207	-0.554293	-172.007043
5.150000	-0.482701	22.406782	-18.810833	20.897151	-18.810833	20.897151	-0.525818	-175.875805
5.200000	-0.466852	18.457694	-21.068185	19.616975	-21.068185	19.616975	-0.504563	-179.729768
5.250000	-0.458702	14.482625	-24.095200	20.774657	-24.095200	20.774657	-0.490842	176.426385
5.300000	-0.458531	10.478425	-28.523210	29.751593	-28.523210	29.751593	-0.484903	172.587362
5.350000	-0.465941	6.444407	-34.282778	68.919759	-34.282778	68.919759	-0.486332	168.747412
5.400000	-0.482358	2.372528	-30.716946	129.673301	-30.716946	129.673301	-0.496484	164.899965
5.450000	-0.506724	-1.734701	-25.486285	147.976148	-25.486285	147.976148	-0.514310	161.040573
5.500000	-0.541339	-5.889763	-21.887173	150.578731	-21.887173	150.578731	-0.542009	157.159383
5.550000	-0.585266	-10.089732	-19.273049	149.886189	-19.273049	149.886189	-0.578654	153.253383
5.600000	-0.640190	-14.343972	-17.217792	147.688687	-17.217792	147.688687	-0.625846	149.313302
5.650000	-0.707316	-18.659153	-15.519440	144.729136	-15.519440	144.729136	-0.684727	145.330926
5.700000	-0.788219	-23.043133	-14.066287	141.305920	-14.066287	141.305920	-0.756796	141.297134
5.750000	-0.884152	-27.501044	-12.792293	137.572786	-12.792293	137.572786	-0.843240	137.204998
5.800000	-0.997126	-32.040662	-11.653890	133.597378	-11.653890	133.597378	-0.945976	133.045808
5.850000	-1.129586	-36.670308	-10.621533	129.415727	-10.621533	129.415727	-1.067337	128.810579
5.900000	-1.284510	-41.398780	-9.674451	125.046127	-9.674451	125.046127	-1.210165	124.490183
5.950000	-1.462839	-46.223105	-8.800092	120.514689	-8.800092	120.514689	-1.375313	120.086202
6.000000	-1.674515	-51.178069	-7.982170	115.782459	-7.982170	115.782459	-1.572345	115.567541
6.050000	-1.922222	-56.259689	-7.215857	110.867111	-7.215857	110.867111	-1.803751	110.937849
6.100000	-2.212655	-61.476347	-6.495569	105.761876	-6.495569	105.761876	-2.075860	106.190991
6.150000	-2.554080	-66.834958	-5.817584	100.458306	-5.817584	100.458306	-2.396441	101.323593
6.200000	-2.956770	-72.339885	-5.179744	94.947291	-5.179744	94.947291	-2.775069	96.336655
6.250000	-3.433592	-77.991373	-4.581253	89.220087	-4.581253	89.220087	-3.223611	91.237937
6.300000	-4.003151	-83.787618	-4.022782	83.261559	-4.022782	83.261559	-3.759089	86.043349
6.350000	-4.684691	-89.706459	-3.506011	77.074935	-3.506011	77.074935	-4.398467	80.792482
6.400000	-5.505877	-95.714980	-3.033364	70.660090	-3.033364	70.660090	-5.165629	75.546901
6.450000	-6.504275	-101.755055	-2.607941	64.022295	-2.607941	64.022295	-6.091659	70.409840
6.500000	-7.733253	-107.725696	-2.233248	57.173272	-2.233248	57.173272	-7.218050	65.555408
6.550000	-9.273526	-113.445269	-1.912878	50.131821	-1.912878	50.131821	-8.601798	61.287422
6.600000	-11.260023	-118.522539	-1.651531	42.920247	-1.651531	42.920247	-10.323334	58.226472
6.650000	-13.934465	-122.044875	-1.451173	35.574790	-1.451173	35.574790	-12.483347	57.610182
6.700000	-17.806416	-121.093833	-1.312859	28.133013	-1.312859	28.133013	-15.152748	62.229895
6.750000	-23.720302	-100.891885	-1.236832	20.631928	-1.236832	20.631928	-17.938941	77.870407
6.800000	-24.647574	-34.721231	-1.222069	13.105904	-1.222069	13.105904	-18.798789	106.146109
6.850000	-18.711222	-8.636983	-1.266443	5.582922	-1.266443	5.582922	-16.712550	128.422797
6.900000	-14.752836	-6.459902	-1.367953	-1.918599	-1.367953	-1.918599	-14.030529	136.595920
6.950000	-12.092597	-9.309811	-1.523272	-9.394681	-1.523272	-9.394681	-11.804179	137.059364
7.000000	-10.149398	-13.746451	-1.728897	-16.859685	-1.728897	-16.859685	-10.057823	133.850190
7.050000	-8.650692	-18.803005	-1.983905	-24.348553	-1.983905	-24.348553	-8.683986	128.536223
7.100000	-7.449096	-24.090809	-2.290557	-31.922458	-2.290557	-31.922458	-7.596807	121.721492
7.150000	-6.452988	-29.429350	-2.656615	-39.674704	-2.656615	-39.674704	-6.739815	113.546705
7.200000	-5.599066	-34.735004	-3.102930	-47.754223	-3.102930	-47.754223	-6.087586	103.777040
7.250000	-4.833694	-39.997492	-3.672651	-56.364823	-3.672651	-56.364823	-5.640212	91.852705
7.300000	-4.108785	-45.307171	-4.457208	-65.739391	-4.457208	-65.739391	-5.437295	76.717563
7.350000	-3.383640	-50.937087	-5.659691	-75.970694	-5.659691	-75.970694	-5.589685	56.394824
7.400000	-2.654512	-57.462161	-7.727441	-85.976902	-7.727441	-85.976902	-6.302210	27.234144
7.450000	-2.031453	-65.474513	-11.337776	-88.715785	-11.337776	-88.715785	-7.587414	-16.147018
7.500000	-1.717512	-74.464733	-14.435414	-63.976136	-14.435414	-63.976136	-8.149082	-73.801343
7.550000	-1.729548	-82.697549	-12.054230	-43.356265	-12.054230	-43.356265	-6.892576	-125.441361
7.600000	-1.861575	-89.422480	-9.823221	-45.164396	-9.823221	-45.164396	-5.379626	-160.065327
7.650000	-1.970197	-95.106351	-8.762455	-52.208286	-8.762455	-52.208286	-4.303612	177.073727
7.700000	-2.025483	-100.340365	-8.337684	-59.670256	-8.337684	-59.670256	-3.579240	160.833249
7.750000	-2.039141	-105.446052	-8.247965	-66.683838	-8.247965	-66.683838	-3.072522	148.515279
7.800000	-2.027835	-110.567925	-8.344138	-73.184803	-8.344138	-73.184803	-2.697591	138.616587
7.850000	-2.003368	-115.765052	-8.553872	-79.255647	-8.553872	-79.255647	-2.406739	130.308499
7.900000	-1.973088	-121.062709	-8.839783	-84.987560	-8.839783	-84.987560	-2.172651	123.101105
7.950000	-1.941420	-126.479599	-9.183116	-90.444952	-9.183116	-90.444952	-1.980215	116.717532
8.000000	-1.910830	-132.010022	-9.568914	-95.711205	-9.568914	-95.711205	-1.815746	110.881524
8.050000	-1.882650	-137.667716	-9.993886	-100.813304	-9.993886	-100.813304	-1.674479	105.502988
8.100000	-1.857591	-143.458535	-10.454984	-105.785431	-10.454984	-105.785431	-1.551451	100.478050
8.150000	-1.835602	-149.375631	-10.951198	-110.658742	-10.951198	-110.658742	-1.442347	95.715317
8.200000	-1.816972	-155.436662	-11.484528	-115.439159	-11.484528	-115.439159	-1.346034	91.188351
8.250000	-1.801257	-161.635476	-12.057018	-120.141913	-12.057018	-120.141913	-1.260042	86.842391
8.300000	-1.787997	-167.971712	-12.672345	-124.770589	-12.672345	-124.770589	-1.183071	82.646891
8.350000	-1.776509	-174.443372	-13.335309	-129.322778	-13.335309	-129.322778	-1.114137	78.577980
8.400000	-1.765954	178.952773	-14.051913	-133.789468	-14.051913	-133.789468	-1.052490	74.616881
8.450000	-1.755471	172.220158	-14.829490	-138.152755	-14.829490	-138.152755	-0.997590	70.749475
8.500000	-1.744272	165.363543	-15.676834	-142.382258	-15.676834	-142.382258	-0.949047	66.965080
8.550000	-1.731742	158.395833	-16.605048	-146.439522	-16.605048	-146.439522	-0.906289	63.252256
8.600000	-1.717354	151.329841	-17.627800	-150.264243	-17.627800	-150.264243	-0.868941	59.603804
8.650000	-1.700647	144.181459	-18.762267	-153.767403	-18.762267	-153.767403	-0.836640	56.013961
8.700000	-1.681235	136.969311	-20.030311	-156.814644	-20.030311	-156.814644	-0.809023	52.478047
8.750000	-1.658824	129.714301	-21.459911	-159.196045	-21.459911	-159.196045	-0.785724	48.992169
8.800000	-1.633119	122.439193	-23.082510	-160.515397	-23.082510	-160.515397	-0.766493	45.554503
8.850000	-1.604187	115.169279	-24.937427	-160.173028	-24.937427	-160.173028	-0.750815	42.160410
8.900000	-1.572156	107.928151	-27.050672	-157.104333	-27.050672	-157.104333	-0.738293	38.806717
8.950000	-1.537152	100.741246	-29.334650	-149.217506	-29.334650	-149.217506	-0.728662	35.492048
9.000000	-1.499544	93.631493	-31.344305	-134.034412	-31.344305	-134.034412	-0.721555	32.213498
9.050000	-1.459668	86.625771	-31.990656	-112.813330	-31.990656	-112.813330	-0.716755	28.970154
9.100000	-1.418249	79.729867	-31.121712	-93.846878	-31.121712	-93.846878	-0.713746	25.755955
9.150000	-1.375540	72.980972	-29.439557	-82.712721	-29.439557	-82.712721	-0.712581	22.573732
9.200000	-1.332261	66.368772	-27.805804	-76.969790	-27.805804	-76.969790	-0.712766	19.416556
9.250000	-1.288817	59.935297	-26.396583	-75.097370	-26.396583	-75.097370	-0.714384	16.287716
9.300000	-1.245714	53.660703	-25.226081	-75.064625	-25.226081	-75.064625	-0.717058	13.181148
9.350000	-1.203413	47.571237	-24.265514	-76.262157	-24.265514	-76.262157	-0.720778	10.098020
9.400000	-1.162243	41.660266	-23.473035	-78.173431	-23.473035	-78.173431	-0.725375	7.035660
9.450000	-1.122490	35.926948	-22.817177	-80.529001	-22.817177	-80.529001	-0.730742	3.992577
9.500000	-1.084489	30.382629	-22.278537	-83.190402	-22.278537	-83.190402	-0.736848	0.968909
9.550000	-1.048375	25.017758	-21.835232	-86.036402	-21.835232	-86.036402	-0.743591	-2.037111
9.600000	-1.014282	19.828922	-21.472774	-88.998830	-21.472774	-88.998830	-0.750917	-5.026301
9.650000	-0.982491	14.827367	-21.184812	-92.033710	-21.184812	-92.033710	-0.758825	-7.997873
9.700000	-0.952699	9.978567	-20.952979	-95.099247	-20.952979	-95.099247	-0.767188	-10.955106
9.750000	-0.925077	5.289848	-20.774652	-98.175501	-20.774652	-98.175501	-0.776016	-13.897188
9.800000	-0.899611	0.754845	-20.644260	-101.243203	-20.644260	-101.243203	-0.785284	-16.824432
9.850000	-0.876272	-3.633082	-20.557377	-104.286462	-20.557377	-104.286462	-0.794971	-19.737042
9.900000	-0.855010	-7.880725	-20.510488	-107.291190	-20.510488	-107.291190	-0.805062	-22.635118
9.950000	-0.835768	-11.994920	-20.500785	-110.243873	-20.500785	-110.243873	-0.815545	-25.518661
10.000000	-0.818479	-15.982471	-20.525993	-113.130580	-20.525993	-113.130580	-0.826415	-28.387579
