! freq	dB(S11)	phase(S11)	dB(S12)	phase(S12)	
!     	dB(S21)	phase(S21)	dB(S22)	phase(S22)	
!S-par simulation data
#  GHz  S  DB  R 50
0.000000	-0.000000	-0.000000	-326.673865	180.000000	-326.673865	180.000000	-0.000000	-0.000000
0.050000	-0.000089	-0.814182	-88.971940	3.139790	-88.971940	3.139790	-0.000089	-0.814147
0.100000	-0.000353	-1.628174	-89.235464	0.867809	-89.235464	0.867809	-0.000352	-1.628103
0.150000	-0.000783	-2.441793	-89.691187	0.447405	-89.691187	0.447405	-0.000782	-2.441689
0.200000	-0.001368	-3.254886	-90.317817	1.282258	-90.317817	1.282258	-0.001365	-3.254750
0.250000	-0.002099	-4.067268	-91.095561	3.730081	-91.095561	3.730081	-0.002095	-4.067102
0.300000	-0.002947	-4.878889	-91.960541	8.125386	-91.960541	8.125386	-0.002942	-4.878695
0.350000	-0.003899	-5.689634	-92.808273	15.013221	-92.808273	15.013221	-0.003893	-5.689413
0.400000	-0.004938	-6.499439	-93.455411	24.531592	-93.455411	24.531592	-0.004931	-6.499194
0.450000	-0.006045	-7.308264	-93.687270	35.947866	-93.687270	35.947866	-0.006038	-7.307996
0.500000	-0.007206	-8.116088	-93.391106	47.637117	-93.391106	47.637117	-0.007197	-8.115798
0.550000	-0.008403	-8.922906	-92.647927	57.945451	-92.647927	57.945451	-0.008394	-8.922595
0.600000	-0.009627	-9.728724	-91.653999	66.036915	-91.653999	66.036915	-0.009617	-9.728392
0.650000	-0.010864	-10.533557	-90.587104	71.935778	-90.587104	71.935778	-0.010855	-10.533204
0.700000	-0.012107	-11.337425	-89.553688	76.076175	-89.553688	76.076175	-0.012098	-11.337050
0.750000	-0.013349	-12.140348	-88.602054	78.939159	-88.602054	78.939159	-0.013340	-12.139952
0.800000	-0.014584	-12.942350	-87.747798	80.916830	-87.747798	80.916830	-0.014575	-12.941932
0.850000	-0.015809	-13.743451	-86.991132	82.298169	-86.991132	82.298169	-0.015801	-13.743011
0.900000	-0.017021	-14.543669	-86.325922	83.290401	-86.325922	83.290401	-0.017013	-14.543206
0.950000	-0.018217	-15.343019	-85.743894	84.042887	-85.743894	84.042887	-0.018210	-15.342532
1.000000	-0.019398	-16.141514	-85.236447	84.665621	-85.236447	84.665621	-0.019391	-16.141003
1.050000	-0.020563	-16.939161	-84.795324	85.242136	-84.795324	85.242136	-0.020557	-16.938625
1.100000	-0.021712	-17.735965	-84.412778	85.838171	-84.412778	85.838171	-0.021706	-17.735403
1.150000	-0.022845	-18.531927	-84.081505	86.507409	-84.081505	86.507409	-0.022840	-18.531340
1.200000	-0.023964	-19.327047	-83.794473	87.295181	-83.794473	87.295181	-0.023959	-19.326433
1.250000	-0.025069	-20.121319	-83.544702	88.240730	-83.544702	88.240730	-0.025064	-20.120680
1.300000	-0.026160	-20.914700	-83.325777	89.388082	-83.325777	89.388082	-0.026156	-20.914034
1.350000	-0.027240	-21.707218	-83.128747	90.759182	-83.128747	90.759182	-0.027237	-21.706525
1.400000	-0.028310	-22.498861	-82.945331	92.377198	-82.945331	92.377198	-0.028307	-22.498141
1.450000	-0.029370	-23.289617	-82.766565	94.258048	-82.766565	94.258048	-0.029367	-23.288871
1.500000	-0.030421	-24.079474	-82.582813	96.408168	-82.582813	96.408168	-0.030419	-24.078700
1.550000	-0.031466	-24.868415	-82.383973	98.821966	-82.383973	98.821966	-0.031464	-24.867615
1.600000	-0.032504	-25.656427	-82.159874	101.479468	-82.159874	101.479468	-0.032502	-25.655600
1.650000	-0.033537	-26.443492	-81.900905	104.344876	-81.900905	104.344876	-0.033535	-26.442638
1.700000	-0.034564	-27.229251	-81.575966	107.390153	-81.575966	107.390153	-0.034562	-27.228371
1.750000	-0.035589	-28.014503	-81.233678	110.495372	-81.233678	110.495372	-0.035587	-28.013597
1.800000	-0.036611	-28.798533	-80.819618	113.586462	-80.819618	113.586462	-0.036609	-28.797600
1.850000	-0.037630	-29.581689	-80.367029	116.667459	-80.367029	116.667459	-0.037628	-29.580731
1.900000	-0.038649	-30.363761	-79.858226	119.584804	-79.858226	119.584804	-0.038647	-30.362777
1.950000	-0.039666	-31.144748	-79.303834	122.338497	-79.303834	122.338497	-0.039664	-31.143738
2.000000	-0.040683	-31.924800	-78.719810	124.872465	-78.719810	124.872465	-0.040681	-31.923764
2.050000	-0.041700	-32.703542	-78.090589	127.098818	-78.090589	127.098818	-0.041698	-32.702482
2.100000	-0.042718	-33.481512	-77.459035	129.125886	-77.459035	129.125886	-0.042716	-33.480426
2.150000	-0.043737	-34.257937	-76.787093	130.754385	-76.787093	130.754385	-0.043735	-34.256826
2.200000	-0.044758	-35.033764	-76.134515	132.239323	-76.134515	132.239323	-0.044756	-35.032629
2.250000	-0.045782	-35.807802	-75.447203	133.293582	-75.447203	133.293582	-0.045780	-35.806642
2.300000	-0.046807	-36.581430	-74.793929	134.263572	-74.793929	134.263572	-0.046805	-36.580245
2.350000	-0.047837	-37.353013	-74.110399	134.812219	-74.110399	134.812219	-0.047835	-37.351803
2.400000	-0.048868	-38.124386	-73.469762	135.325312	-73.469762	135.325312	-0.048866	-38.123152
2.450000	-0.049906	-38.893452	-72.801647	135.447317	-72.801647	135.447317	-0.049904	-38.892193
2.500000	-0.050945	-39.662518	-72.181272	135.569321	-72.181272	135.569321	-0.050942	-39.661235
2.550000	-0.051992	-40.429009	-71.534693	135.336699	-71.534693	135.336699	-0.051990	-40.427701
2.600000	-0.053040	-41.195499	-70.932929	135.104077	-70.932929	135.104077	-0.053038	-41.194167
2.650000	-0.054098	-41.959581	-70.315699	134.600410	-70.315699	134.600410	-0.054096	-41.958225
2.700000	-0.055157	-42.723445	-69.734816	134.072102	-69.734816	134.072102	-0.055155	-42.722063
2.750000	-0.056227	-43.485079	-69.146064	133.334955	-69.146064	133.334955	-0.056224	-43.483672
2.800000	-0.057299	-44.246267	-68.586409	132.556041	-68.586409	132.556041	-0.057296	-44.244835
2.850000	-0.058382	-45.005420	-68.024320	131.613443	-68.024320	131.613443	-0.058379	-45.003963
2.900000	-0.059468	-45.763895	-67.485044	130.616284	-67.485044	130.616284	-0.059465	-45.762411
2.950000	-0.060565	-46.520539	-66.947279	129.487682	-66.947279	129.487682	-0.060561	-46.519029
3.000000	-0.061667	-47.276269	-66.426752	128.293359	-66.426752	128.293359	-0.061663	-47.274732
3.050000	-0.062779	-48.030385	-65.910648	126.990330	-65.910648	126.990330	-0.062776	-48.028821
3.100000	-0.063899	-48.783349	-65.406646	125.609654	-65.406646	125.609654	-0.063895	-48.781757
3.150000	-0.065028	-49.534927	-64.909277	124.136213	-64.909277	124.136213	-0.065025	-49.533307
3.200000	-0.066168	-50.285118	-64.418992	122.570007	-64.418992	122.570007	-0.066164	-50.283469
3.250000	-0.067316	-51.034160	-63.937111	120.922379	-63.937111	120.922379	-0.067312	-51.032480
3.300000	-0.068476	-51.781591	-63.456980	119.160761	-63.456980	119.160761	-0.068472	-51.779880
3.350000	-0.069644	-52.528115	-62.986851	117.326464	-62.986851	117.326464	-0.069640	-52.526372
3.400000	-0.070828	-53.272825	-62.512151	115.346810	-62.512151	115.346810	-0.070824	-53.271047
3.450000	-0.072019	-54.016874	-62.049238	113.302810	-62.049238	113.302810	-0.072015	-54.015061
3.500000	-0.073230	-54.758941	-61.573300	111.065772	-61.573300	111.065772	-0.073225	-54.757090
3.550000	-0.074446	-55.500593	-61.111740	108.775316	-61.111740	108.775316	-0.074441	-55.498702
3.600000	-0.075687	-56.240166	-60.624430	106.217774	-60.624430	106.217774	-0.075682	-56.238231
3.650000	-0.076931	-56.979553	-60.156186	103.625268	-60.156186	103.625268	-0.076926	-56.977573
3.700000	-0.078209	-57.716897	-59.640862	100.648169	-59.640862	100.648169	-0.078203	-57.714864
3.750000	-0.079487	-58.454242	-59.154408	97.671069	-59.154408	97.671069	-0.079481	-58.452155
3.800000	-0.080800	-59.190197	-58.617667	94.287966	-58.617667	94.287966	-0.080793	-59.188048
3.850000	-0.082140	-59.925498	-58.046779	90.579939	-58.046779	90.579939	-0.082133	-59.923277
3.900000	-0.083516	-60.660407	-57.428381	86.484007	-57.428381	86.484007	-0.083508	-60.658103
3.950000	-0.084940	-61.395308	-56.743639	81.920492	-56.743639	81.920492	-0.084930	-61.392905
4.000000	-0.086427	-62.130727	-55.975281	76.822935	-55.975281	76.822935	-0.086415	-62.128205
4.050000	-0.088019	-62.867622	-55.070593	71.007264	-55.070593	71.007264	-0.088004	-62.864950
4.100000	-0.089787	-63.607522	-53.976799	64.324236	-53.976799	64.324236	-0.089768	-63.604653
4.150000	-0.091893	-64.353226	-52.602594	56.531206	-52.602594	56.531206	-0.091865	-64.350084
4.200000	-0.094709	-65.109905	-50.821419	47.279446	-50.821419	47.279446	-0.094665	-65.106362
4.250000	-0.099509	-65.890618	-48.343537	35.719962	-48.343537	35.719962	-0.099428	-65.886410
4.300000	-0.111808	-66.728953	-44.632353	19.468301	-44.632353	19.468301	-0.111611	-66.723471
4.350000	-0.170724	-67.655454	-38.659761	-13.190189	-38.659761	-13.190189	-0.169923	-67.647791
4.400000	-0.224342	-67.345498	-36.522231	-99.909578	-36.522231	-99.909578	-0.223024	-67.348669
4.450000	-0.129438	-68.102736	-42.575807	-144.853559	-42.575807	-144.853559	-0.129130	-68.105213
4.500000	-0.112608	-68.951458	-46.266016	-163.829333	-46.266016	-163.829333	-0.112485	-68.952441
4.550000	-0.108529	-69.731443	-48.483575	-176.728364	-48.483575	-176.728364	-0.108462	-69.731659
4.600000	-0.107736	-70.479192	-49.844791	173.114757	-49.844791	173.114757	-0.107691	-70.478966
4.650000	-0.108000	-71.212347	-50.768731	164.450789	-50.768731	164.450789	-0.107968	-71.211818
4.700000	-0.108856	-71.934938	-51.332209	157.107726	-51.332209	157.107726	-0.108830	-71.934201
4.750000	-0.110015	-72.650505	-51.660477	150.810302	-51.660477	150.810302	-0.109993	-72.649615
4.800000	-0.111295	-73.362760	-51.886186	145.042590	-51.886186	145.042590	-0.111277	-73.361741
4.850000	-0.112720	-74.070503	-51.979483	140.022271	-51.979483	140.022271	-0.112704	-74.069385
4.900000	-0.114229	-74.775003	-51.996590	135.529056	-51.996590	135.529056	-0.114214	-74.773801
4.950000	-0.115793	-75.477225	-51.967146	131.387975	-51.967146	131.387975	-0.115780	-75.475951
5.000000	-0.117405	-76.177326	-51.899399	127.563589	-51.899399	127.563589	-0.117393	-76.175988
5.050000	-0.119094	-76.873677	-51.782111	124.222000	-51.782111	124.222000	-0.119083	-76.872289
5.100000	-0.120784	-77.570028	-51.666386	120.880411	-51.666386	120.880411	-0.120773	-77.568589
5.150000	-0.122543	-78.262699	-51.517246	117.926306	-51.517246	117.926306	-0.122533	-78.261218
5.200000	-0.124310	-78.955036	-51.367507	115.007426	-51.367507	115.007426	-0.124300	-78.953514
5.250000	-0.126134	-79.644307	-51.199807	112.341179	-51.199807	112.341179	-0.126124	-79.642749
5.300000	-0.127970	-80.332964	-51.031267	109.725458	-51.031267	109.725458	-0.127960	-80.331373
5.350000	-0.129855	-81.019024	-50.853113	107.277276	-50.853113	107.277276	-0.129845	-81.017402
5.400000	-0.131756	-81.704217	-50.674355	104.884939	-50.674355	104.884939	-0.131747	-81.702566
5.450000	-0.133701	-82.387202	-50.490781	102.605114	-50.490781	102.605114	-0.133692	-82.385524
5.500000	-0.135667	-83.069083	-50.306885	100.381544	-50.306885	100.381544	-0.135658	-83.067378
5.550000	-0.137670	-83.749098	-50.121085	98.234082	-50.121085	98.234082	-0.137662	-83.747369
5.600000	-0.139701	-84.427780	-49.935179	96.140982	-49.935179	96.140982	-0.139692	-84.426028
5.650000	-0.141764	-85.104909	-49.749219	94.099400	-49.749219	94.099400	-0.141755	-85.103135
5.700000	-0.143859	-85.780486	-49.563290	92.109337	-49.563290	92.109337	-0.143851	-85.778691
5.750000	-0.145982	-86.454803	-49.378529	90.153867	-49.378529	90.153867	-0.145974	-86.452987
5.800000	-0.148144	-87.127356	-49.193875	88.246826	-49.193875	88.246826	-0.148135	-87.125520
5.850000	-0.150328	-87.798924	-49.011219	86.362520	-49.011219	86.362520	-0.150319	-87.797070
5.900000	-0.152557	-88.468526	-48.828707	84.523681	-48.828707	84.523681	-0.152548	-88.466653
5.950000	-0.154803	-89.137407	-48.648765	82.699119	-48.648765	82.699119	-0.154795	-89.135517
6.000000	-0.157101	-89.804126	-48.468988	80.917384	-48.468988	80.917384	-0.157092	-89.802219
6.050000	-0.159411	-90.470377	-48.292174	79.143773	-48.292174	79.143773	-0.159402	-90.468453
6.100000	-0.161779	-91.134283	-48.115545	77.410780	-48.115545	77.410780	-0.161770	-91.132342
6.150000	-0.164154	-91.797959	-47.942143	75.681324	-47.942143	75.681324	-0.164145	-91.796002
6.200000	-0.166594	-92.459118	-47.768964	73.990778	-47.768964	73.990778	-0.166585	-92.457145
6.250000	-0.169035	-93.120277	-47.599171	72.300232	-47.599171	72.300232	-0.169025	-93.118288
6.300000	-0.171549	-93.778757	-47.429670	70.647447	-47.429670	70.647447	-0.171539	-93.776753
6.350000	-0.174064	-94.437237	-47.263415	68.994663	-47.263415	68.994663	-0.174054	-94.435218
6.400000	-0.176648	-95.093326	-47.097993	67.373393	-47.097993	67.373393	-0.176638	-95.091292
6.450000	-0.179239	-95.749198	-46.935460	65.754988	-46.935460	65.754988	-0.179228	-95.747149
6.500000	-0.181894	-96.402957	-46.774212	64.163344	-46.774212	64.163344	-0.181884	-96.400893
6.550000	-0.184563	-97.056294	-46.615570	62.577052	-46.615570	62.577052	-0.184552	-97.054215
6.600000	-0.187291	-97.707788	-46.458592	61.013907	-46.458592	61.013907	-0.187281	-97.705694
6.650000	-0.190041	-98.358668	-46.304014	59.458479	-46.304014	59.458479	-0.190029	-98.356558
6.700000	-0.192835	-99.008223	-46.151506	57.920033	-46.151506	57.920033	-0.192824	-99.006098
6.750000	-0.195669	-99.656687	-46.001183	56.395821	-46.001183	56.395821	-0.195657	-99.654547
6.800000	-0.198543	-100.304036	-45.853067	54.886537	-45.853067	54.886537	-0.198531	-100.301881
6.850000	-0.201468	-100.950051	-45.707227	53.396200	-45.707227	53.396200	-0.201455	-100.947880
6.900000	-0.204429	-101.595172	-45.563793	51.919421	-45.563793	51.919421	-0.204416	-101.592984
6.950000	-0.207427	-102.239408	-45.422751	50.456491	-45.422751	50.456491	-0.207414	-102.237203
7.000000	-0.210478	-102.882393	-45.284280	49.014840	-45.284280	49.014840	-0.210465	-102.880171
7.050000	-0.213575	-103.524403	-45.148495	47.592053	-45.148495	47.592053	-0.213561	-103.522163
7.100000	-0.216711	-104.165606	-45.015372	46.186220	-45.015372	46.186220	-0.216696	-104.163347
7.150000	-0.219890	-104.805948	-44.884999	44.799784	-44.884999	44.799784	-0.219875	-104.803670
7.200000	-0.223133	-105.445137	-44.758058	43.444624	-44.758058	43.444624	-0.223117	-105.442838
7.250000	-0.226419	-106.083623	-44.634239	42.112722	-44.634239	42.112722	-0.226402	-106.081302
7.300000	-0.229750	-106.721428	-44.513590	40.805615	-44.513590	40.805615	-0.229732	-106.719084
7.350000	-0.233142	-107.358362	-44.396950	39.536808	-44.396950	39.536808	-0.233124	-107.355993
7.400000	-0.236598	-107.994573	-44.284709	38.311696	-44.284709	38.311696	-0.236578	-107.992177
7.450000	-0.240106	-108.630274	-44.176534	37.126502	-44.176534	37.126502	-0.240085	-108.627847
7.500000	-0.243669	-109.265496	-44.072530	35.984419	-44.072530	35.984419	-0.243646	-109.263038
7.550000	-0.247330	-109.900126	-43.975663	34.933556	-43.975663	34.933556	-0.247306	-109.897631
7.600000	-0.251063	-110.534550	-43.884415	33.957165	-43.884415	33.957165	-0.251036	-110.532014
7.650000	-0.254872	-111.168850	-43.799038	33.065710	-43.799038	33.065710	-0.254843	-111.166268
7.700000	-0.258791	-111.803169	-43.721619	32.305661	-43.721619	32.305661	-0.258759	-111.800535
7.750000	-0.262863	-112.437953	-43.654065	31.749377	-43.654065	31.749377	-0.262827	-112.435255
7.800000	-0.267041	-113.073199	-43.592665	31.340318	-43.592665	31.340318	-0.267000	-113.070431
7.850000	-0.271463	-113.709856	-43.542074	31.288686	-43.542074	31.288686	-0.271417	-113.706999
7.900000	-0.276173	-114.348491	-43.498148	31.665521	-43.498148	31.665521	-0.276118	-114.345526
7.950000	-0.281307	-114.990239	-43.454169	32.672033	-43.454169	32.672033	-0.281241	-114.987136
8.000000	-0.287188	-115.637332	-43.386075	34.719860	-43.386075	34.719860	-0.287105	-115.634047
8.050000	-0.294252	-116.292077	-43.239246	38.219050	-43.239246	38.219050	-0.294142	-116.288549
8.100000	-0.303894	-116.960310	-42.834023	44.109844	-42.834023	44.109844	-0.303737	-116.956437
8.150000	-0.319461	-117.648664	-41.729615	52.750959	-41.729615	52.750959	-0.319210	-117.644303
8.200000	-0.352059	-118.347895	-39.015834	60.634441	-39.015834	60.634441	-0.351582	-118.343009
8.250000	-0.423668	-118.809824	-34.514280	51.943329	-34.514280	51.943329	-0.422678	-118.806363
8.300000	-0.408711	-118.709239	-32.997266	18.067562	-32.997266	18.067562	-0.407924	-118.711324
8.350000	-0.343257	-119.322682	-34.989206	-0.371605	-34.989206	-0.371605	-0.343013	-119.324551
8.400000	-0.324707	-120.069011	-36.549803	-5.912078	-36.549803	-5.912078	-0.324629	-120.069799
8.450000	-0.321106	-120.771385	-37.490330	-7.910915	-37.490330	-7.910915	-0.321082	-120.771484
8.500000	-0.322166	-121.442243	-38.059502	-8.952756	-38.059502	-8.952756	-0.322162	-121.441909
8.550000	-0.325014	-122.094331	-38.407914	-9.767318	-38.407914	-9.767318	-0.325020	-122.093712
8.600000	-0.328591	-122.736296	-38.637855	-10.567528	-38.637855	-10.567528	-0.328601	-122.735468
8.650000	-0.332599	-123.370900	-38.781663	-11.414235	-38.781663	-11.414235	-0.332612	-123.369918
8.700000	-0.336858	-124.000464	-38.867834	-12.324525	-38.867834	-12.324525	-0.336872	-123.999365
8.750000	-0.341280	-124.626398	-38.913884	-13.297408	-38.913884	-13.297408	-0.341295	-124.625206
8.800000	-0.345870	-125.248431	-38.919311	-14.353406	-38.919311	-14.353406	-0.345885	-125.247172
8.850000	-0.350462	-125.870463	-38.924742	-15.409404	-38.924742	-15.409404	-0.350477	-125.869138
8.900000	-0.355199	-126.489280	-38.899577	-16.543325	-38.899577	-16.543325	-0.355214	-126.487908
8.950000	-0.359952	-127.107804	-38.871716	-17.684330	-38.871716	-17.684330	-0.359967	-127.106388
9.000000	-0.364811	-127.724372	-38.827426	-18.875753	-38.827426	-18.875753	-0.364825	-127.722922
9.050000	-0.369693	-128.340549	-38.780078	-20.077261	-38.780078	-20.077261	-0.369707	-128.339067
9.100000	-0.374661	-128.955473	-38.723470	-21.311283	-38.723470	-21.311283	-0.374675	-128.953966
9.150000	-0.379660	-129.569979	-38.664079	-22.556144	-38.664079	-22.556144	-0.379673	-129.568449
9.200000	-0.384731	-130.183668	-38.599360	-23.822008	-38.599360	-23.822008	-0.384745	-130.182119
9.250000	-0.389841	-130.796947	-38.532277	-25.098373	-38.532277	-25.098373	-0.389854	-130.795382
9.300000	-0.395015	-131.409697	-38.462157	-26.388272	-38.462157	-26.388272	-0.395028	-131.408119
9.350000	-0.400234	-132.022070	-38.390083	-27.687838	-38.390083	-27.687838	-0.400247	-132.020480
9.400000	-0.405507	-132.634115	-38.316372	-28.996031	-38.316372	-28.996031	-0.405520	-132.632515
9.450000	-0.410835	-133.245832	-38.241071	-30.312851	-38.241071	-30.312851	-0.410848	-133.244224
9.500000	-0.416208	-133.857363	-38.165017	-31.635046	-38.165017	-31.635046	-0.416221	-133.855748
9.550000	-0.421644	-134.468634	-38.087682	-32.964764	-38.087682	-32.964764	-0.421656	-134.467015
9.600000	-0.427117	-135.079819	-38.010169	-34.297694	-38.010169	-34.297694	-0.427129	-135.078195
9.650000	-0.432660	-135.690831	-37.931635	-35.637047	-37.931635	-35.637047	-0.432672	-135.689205
9.700000	-0.438233	-136.301821	-37.853301	-36.978185	-37.853301	-36.978185	-0.438244	-136.300192
9.750000	-0.443884	-136.912743	-37.774167	-38.324674	-37.774167	-38.324674	-0.443896	-136.911114
9.800000	-0.449556	-137.523678	-37.695482	-39.672028	-37.695482	-39.672028	-0.449567	-137.522049
9.850000	-0.455315	-138.134674	-37.616185	-41.023703	-37.616185	-41.023703	-0.455326	-138.133046
9.900000	-0.461086	-138.745689	-37.537500	-42.375681	-37.537500	-42.375681	-0.461097	-138.744062
9.950000	-0.466952	-139.356913	-37.458365	-43.730989	-37.458365	-43.730989	-0.466963	-139.355289
10.000000	-0.472823	-139.968138	-37.379945	-45.086298	-37.379945	-45.086298	-0.472834	-139.966516
