! freq	dB(S11)	phase(S11)	dB(S12)	phase(S12)	
!     	dB(S21)	phase(S21)	dB(S22)	phase(S22)	
!S-par simulation data
#  GHz  S  DB  R 50
0.000000	-81.294674	0.000000	-0.000748	0.000000	-0.000748	0.000000	-81.294674	0.000000
0.050000	-42.572315	-91.636175	-0.005590	-2.884953	-0.005590	-2.884953	-42.612007	-90.455879
0.100000	-36.425295	-94.049113	-0.012609	-5.728198	-0.012609	-5.728198	-36.364456	-93.994008
0.150000	-32.819802	-97.716661	-0.018460	-8.557033	-0.018460	-8.557033	-32.821330	-97.703950
0.200000	-30.356843	-101.008084	-0.023998	-11.382380	-0.023998	-11.382380	-30.356513	-100.961445
0.250000	-28.461845	-104.025349	-0.029755	-14.205568	-0.029755	-14.205568	-28.460105	-104.004811
0.300000	-26.922946	-106.958407	-0.035900	-17.026441	-0.035900	-17.026441	-26.921496	-106.961602
0.350000	-25.631837	-109.859075	-0.042431	-19.844981	-0.042431	-19.844981	-25.630983	-109.879815
0.400000	-24.524414	-112.742870	-0.049317	-22.661233	-0.049317	-22.661233	-24.524076	-112.776817
0.450000	-23.559942	-115.615976	-0.056531	-25.475256	-0.056531	-25.475256	-23.559961	-115.660257
0.500000	-22.708956	-118.481940	-0.064018	-28.287337	-0.064018	-28.287337	-22.709186	-118.534772
0.550000	-21.951097	-121.342193	-0.071744	-31.097631	-0.071744	-31.097631	-21.951423	-121.402317
0.600000	-21.272190	-124.197280	-0.079684	-33.906195	-0.079684	-33.906195	-21.272531	-124.263726
0.650000	-20.660097	-127.047778	-0.087797	-36.713200	-0.087797	-36.713200	-20.660404	-127.119833
0.700000	-20.105735	-129.893896	-0.096046	-39.518751	-0.096046	-39.518751	-20.105989	-129.971018
0.750000	-19.602647	-132.735536	-0.104400	-42.322886	-0.104400	-42.322886	-19.602852	-132.817319
0.800000	-19.145122	-135.572672	-0.112819	-45.125694	-0.112819	-45.125694	-19.145302	-135.658870
0.850000	-18.727882	-138.405400	-0.121264	-47.927314	-0.121264	-47.927314	-18.728075	-138.495933
0.900000	-18.347931	-141.233474	-0.129695	-50.727804	-0.129695	-50.727804	-18.348182	-141.328426
0.950000	-18.001929	-144.056934	-0.138071	-53.527312	-0.138071	-53.527312	-18.002281	-144.156555
1.000000	-17.687397	-146.875824	-0.146350	-56.325992	-0.146350	-56.325992	-17.687885	-146.980514
1.050000	-17.402440	-149.690279	-0.154488	-59.124032	-0.154488	-59.124032	-17.403083	-149.800552
1.100000	-17.144327	-152.500816	-0.162455	-61.921677	-0.162455	-61.921677	-17.145124	-152.617216
1.150000	-16.912052	-155.307762	-0.170206	-64.719159	-0.170206	-64.719159	-16.912983	-155.430850
1.200000	-16.704333	-158.111679	-0.177705	-67.516766	-0.177705	-67.516766	-16.705363	-158.241974
1.250000	-16.520091	-160.913222	-0.184914	-70.314816	-0.184914	-70.314816	-16.521172	-161.051165
1.300000	-16.358835	-163.713083	-0.191792	-73.113686	-0.191792	-73.113686	-16.359914	-163.859031
1.350000	-16.219395	-166.512047	-0.198311	-75.913752	-0.198311	-75.913752	-16.220421	-166.666258
1.400000	-16.101156	-169.310834	-0.204444	-78.715430	-0.204444	-78.715430	-16.102084	-169.473501
1.450000	-16.003629	-172.110137	-0.210161	-81.519162	-0.210161	-81.519162	-16.004425	-172.281410
1.500000	-15.926452	-174.910605	-0.215440	-84.325420	-0.215440	-84.325420	-15.927094	-175.090625
1.550000	-15.869387	-177.712843	-0.220258	-87.134699	-0.220258	-87.134699	-15.869861	-177.901766
1.600000	-15.832315	179.482585	-0.224599	-89.947518	-0.224599	-89.947518	-15.832620	179.284563
1.650000	-15.815242	176.675153	-0.228449	-92.764419	-0.228449	-92.764419	-15.815383	176.467782
1.700000	-15.818303	173.864369	-0.231798	-95.585959	-0.231798	-95.585959	-15.818291	173.647328
1.750000	-15.841761	171.049768	-0.234639	-98.412717	-0.234639	-98.412717	-15.841613	170.822658
1.800000	-15.886021	168.230908	-0.236973	-101.245285	-0.236973	-101.245285	-15.885755	167.993248
1.850000	-15.951640	165.407374	-0.238802	-104.084268	-0.238802	-104.084268	-15.951275	165.158591
1.900000	-16.039576	162.578718	-0.240129	-106.930369	-0.240129	-106.930369	-16.039132	162.318135
1.950000	-16.150749	159.744570	-0.240968	-109.784236	-0.240968	-109.784236	-16.150245	159.471404
2.000000	-16.286043	156.904671	-0.241343	-112.646428	-0.241343	-112.646428	-16.285499	156.618028
2.050000	-16.446814	154.058755	-0.241276	-115.517585	-0.241276	-115.517585	-16.446245	153.757612
2.100000	-16.634100	151.206781	-0.240806	-118.398104	-0.240806	-118.398104	-16.633523	150.889994
2.150000	-16.850898	148.348363	-0.239950	-121.289055	-0.239950	-121.289055	-16.850328	148.014555
2.200000	-17.099191	145.483604	-0.238755	-124.190934	-0.238755	-124.190934	-17.098642	145.131199
2.250000	-17.381980	142.612628	-0.237263	-127.104459	-0.237263	-127.104459	-17.381465	142.239768
2.300000	-17.702508	139.735851	-0.235530	-130.030183	-0.235530	-130.030183	-17.702040	139.340353
2.350000	-18.064980	136.853914	-0.233610	-132.968743	-0.233610	-132.968743	-18.064572	136.433163
2.400000	-18.474569	133.967842	-0.231567	-135.920767	-0.231567	-135.920767	-18.474235	133.518663
2.450000	-18.937712	131.079194	-0.229467	-138.886878	-0.229467	-138.886878	-18.937467	130.597671
2.500000	-19.462530	128.190298	-0.227384	-141.867686	-0.227384	-141.867686	-19.462396	127.671513
2.550000	-20.059869	125.304711	-0.225399	-144.863962	-0.225399	-144.863962	-20.059872	124.742267
2.600000	-20.743035	122.427713	-0.223596	-147.876131	-0.223596	-147.876131	-20.743215	121.813259
2.650000	-21.530398	119.567395	-0.222064	-150.904763	-0.222064	-150.904763	-21.530819	118.889615
2.700000	-22.447423	116.736567	-0.220901	-153.950411	-0.220901	-153.950411	-22.448188	115.979563
2.750000	-23.530816	113.956429	-0.220206	-157.013608	-0.220206	-157.013608	-23.532112	113.096854
2.800000	-24.836254	111.264318	-0.220086	-160.094868	-0.220086	-160.094868	-24.838441	110.265859
2.850000	-26.454782	108.734412	-0.220661	-163.194840	-0.220661	-163.194840	-26.458641	107.535150
2.900000	-28.547857	106.528388	-0.222045	-166.313898	-0.222045	-166.313898	-28.555349	105.011095
2.950000	-31.449637	105.084591	-0.224360	-169.452436	-0.224360	-169.452436	-31.467085	102.983181
3.000000	-36.049062	106.151230	-0.227734	-172.610871	-0.227734	-172.610871	-36.109588	102.618025
3.050000	-46.184942	130.107394	-0.232301	-175.789594	-0.232301	-175.789594	-47.054650	119.977898
3.100000	-41.422670	-109.371690	-0.238200	-178.988963	-0.238200	-178.988963	-41.725880	-103.256132
3.150000	-33.701460	-101.215083	-0.245583	177.790577	-0.245583	177.790577	-33.760664	-98.715425
3.200000	-29.510382	-101.508450	-0.254602	174.548726	-0.254602	174.548726	-29.537218	-100.007621
3.250000	-26.607513	-103.420423	-0.265405	171.285342	-0.265405	171.285342	-26.623896	-102.384180
3.300000	-24.372144	-105.931014	-0.278149	168.000202	-0.278149	168.000202	-24.383784	-105.163863
3.350000	-22.546411	-108.735009	-0.292990	164.693225	-0.292990	164.693225	-22.555466	-108.144437
3.400000	-20.997520	-111.712810	-0.310138	161.363872	-0.310138	161.363872	-21.004992	-111.247077
3.450000	-19.649691	-114.803216	-0.329739	158.012346	-0.329739	158.012346	-19.656110	-114.431360
3.500000	-18.454552	-117.975099	-0.351971	154.638601	-0.351971	154.638601	-18.460226	-117.676797
3.550000	-17.379614	-121.210091	-0.377016	151.242638	-0.377016	151.242638	-17.384734	-120.971298
3.600000	-16.402010	-124.496627	-0.405063	147.824512	-0.405063	147.824512	-16.406699	-124.307238
3.650000	-15.505043	-127.827023	-0.436302	144.384332	-0.436302	144.384332	-15.509385	-127.679526
3.700000	-14.676153	-131.195926	-0.470926	140.922263	-0.470926	140.922263	-14.680205	-131.084589
3.750000	-13.905661	-134.599442	-0.509136	137.438532	-0.509136	137.438532	-13.909466	-134.519792
3.800000	-13.185796	-138.035036	-0.551185	133.933126	-0.551185	133.933126	-13.189382	-137.983477
3.850000	-12.510746	-141.499692	-0.597199	130.406865	-0.597199	130.406865	-12.514137	-141.473383
3.900000	-11.875440	-144.991813	-0.647424	126.859949	-0.647424	126.859949	-11.878651	-144.988396
3.950000	-11.275848	-148.509642	-0.702054	123.292951	-0.702054	123.292951	-11.278893	-148.527168
4.000000	-10.708551	-152.051846	-0.761322	119.706329	-0.761322	119.706329	-10.711439	-152.088668
4.050000	-10.170748	-155.616937	-0.825417	116.100831	-0.825417	116.100831	-10.173487	-155.671668
4.100000	-9.660035	-159.203592	-0.894541	112.477208	-0.894541	112.477208	-9.662633	-159.275044
4.150000	-9.174353	-162.810551	-0.968900	108.836265	-0.968900	108.836265	-9.176817	-162.897696
4.200000	-8.711921	-166.436644	-1.048722	105.178812	-1.048722	105.178812	-8.714257	-166.538581
4.250000	-8.271218	-170.080546	-1.134195	101.505865	-1.134195	101.505865	-8.273430	-170.196485
4.300000	-7.850907	-173.740921	-1.225507	97.818511	-1.225507	97.818511	-7.853003	-173.870161
4.350000	-7.449813	-177.416442	-1.322847	94.117875	-1.322847	94.117875	-7.451798	-177.558357
4.400000	-7.066900	178.894211	-1.426421	90.405122	-1.426421	90.405122	-7.068779	178.740191
4.450000	-6.701267	175.192363	-1.536458	86.681456	-1.536458	86.681456	-6.703048	175.026760
4.500000	-6.352048	171.479781	-1.652993	82.948497	-1.652993	82.948497	-6.353736	171.303064
4.550000	-6.018514	167.757809	-1.776257	79.207522	-1.776257	79.207522	-6.020117	167.570417
4.600000	-5.700007	164.027971	-1.906427	75.459994	-1.906427	75.459994	-5.701530	163.830317
4.650000	-5.395935	160.291869	-2.043669	71.707463	-2.043669	71.707463	-5.397386	160.084345
4.700000	-5.105705	156.551220	-2.188066	67.951591	-2.188066	67.951591	-5.107090	156.334192
4.750000	-4.828791	152.807703	-2.339738	64.194024	-2.339738	64.194024	-4.830116	152.581520
4.800000	-4.564705	149.063023	-2.498792	60.436446	-2.498792	60.436446	-4.565976	148.828021
4.850000	-4.312986	145.318913	-2.665324	56.680570	-2.665324	56.680570	-4.314210	145.075415
4.900000	-4.073200	141.577120	-2.839417	52.928135	-2.839417	52.928135	-4.074382	141.325440
4.950000	-3.844933	137.839401	-3.021141	49.180893	-3.021141	49.180893	-3.846078	137.579842
5.000000	-3.627788	134.107513	-3.210554	45.440603	-3.210554	45.440603	-3.628901	133.840370
5.050000	-3.421466	130.383342	-3.407745	41.709174	-3.407745	41.709174	-3.422552	130.108908
5.100000	-3.225518	126.668538	-3.612691	37.988249	-3.612691	37.988249	-3.226579	126.387093
5.150000	-3.039580	122.964807	-3.825413	34.279553	-3.825413	34.279553	-3.040620	122.676625
5.200000	-2.863299	119.273823	-4.045919	30.584780	-4.045919	30.584780	-2.864321	118.979171
5.250000	-2.696328	115.597218	-4.274208	26.905590	-4.274208	26.905590	-2.697333	115.296357
5.300000	-2.538327	111.936575	-4.510271	23.243598	-4.510271	23.243598	-2.539317	111.629759
5.350000	-2.388960	108.293419	-4.754089	19.600370	-4.754089	19.600370	-2.389937	107.980895
5.400000	-2.247898	104.669214	-5.005636	15.977414	-5.005636	15.977414	-2.248861	104.351223
5.450000	-2.114869	101.065563	-5.264881	12.376403	-5.264881	12.376403	-2.115820	100.742341
5.500000	-1.989525	97.483713	-5.531776	8.798639	-5.531776	8.798639	-1.990462	97.155488
5.550000	-1.871519	93.924803	-5.806284	5.245325	-5.806284	5.245325	-1.872443	93.591794
5.600000	-1.760539	90.389988	-6.088367	1.717696	-6.088367	1.717696	-1.761450	90.052408
5.650000	-1.656281	86.880337	-6.377987	-1.783089	-6.377987	-1.783089	-1.657178	86.538393
5.700000	-1.558443	83.396835	-6.675112	-5.255946	-6.675112	-5.255946	-1.559325	83.050725
5.750000	-1.466731	79.940376	-6.979711	-8.699869	-6.979711	-8.699869	-1.467598	79.590293
5.800000	-1.380856	76.511767	-7.291763	-12.113927	-7.291763	-12.113927	-1.381708	76.157895
5.850000	-1.300561	73.111866	-7.611232	-15.497114	-7.611232	-15.497114	-1.301397	72.754386
5.900000	-1.225591	69.741456	-7.938081	-18.848482	-7.938081	-18.848482	-1.226410	69.380542
5.950000	-1.155632	66.400801	-8.272359	-22.167621	-8.272359	-22.167621	-1.156436	66.036619
6.000000	-1.090527	63.091094	-8.613944	-25.453087	-8.613944	-25.453087	-1.091315	62.723808
6.050000	-1.029841	59.811395	-8.963128	-28.705732	-8.963128	-28.705732	-1.030614	59.441154
6.100000	-0.973438	56.562721	-9.319840	-31.924257	-9.319840	-31.924257	-0.974197	56.189675
6.150000	-0.920943	53.344093	-9.684451	-35.109522	-9.684451	-35.109522	-0.921688	52.968378
6.200000	-0.872479	50.158669	-10.056326	-38.257765	-10.056326	-38.257765	-0.873212	49.780430
6.250000	-0.827305	47.001688	-10.436879	-41.374032	-10.436879	-41.374032	-0.828028	46.621045
6.300000	-0.785905	43.879817	-10.824424	-44.450457	-10.824424	-44.450457	-0.786619	43.496909
6.350000	-0.747420	40.786347	-11.221097	-47.494307	-11.221097	-47.494307	-0.748128	40.401281
6.400000	-0.712122	37.725987	-11.625670	-50.499732	-11.625670	-50.499732	-0.712825	37.338884
6.450000	-0.679564	34.695565	-12.039402	-53.469955	-12.039402	-53.469955	-0.680266	34.306526
6.500000	-0.649682	31.696050	-12.462243	-56.403282	-12.462243	-56.403282	-0.650385	31.305176
6.550000	-0.622365	28.727758	-12.894350	-59.298706	-12.894350	-59.298706	-0.623071	28.335146
6.600000	-0.597284	25.788031	-13.337116	-62.158784	-13.337116	-62.158784	-0.597997	25.393760
6.650000	-0.574595	22.880552	-13.789386	-64.978078	-13.789386	-64.978078	-0.575318	22.484708
6.700000	-0.553803	19.999772	-14.253998	-67.762766	-14.253998	-67.762766	-0.554539	19.602417
6.750000	-0.535164	17.150875	-14.729069	-70.504937	-14.729069	-70.504937	-0.535916	16.752076
6.800000	-0.518234	14.328376	-15.217775	-73.210757	-15.217775	-73.210757	-0.519006	13.928180
6.850000	-0.503112	11.535037	-15.719385	-75.874936	-15.719385	-75.874936	-0.503907	11.133485
6.900000	-0.489600	8.768702	-16.235772	-78.498946	-16.235772	-78.498946	-0.490422	8.365821
6.950000	-0.477607	6.028835	-16.768137	-81.081667	-16.768137	-81.081667	-0.478461	5.624639
7.000000	-0.467136	3.316413	-17.316819	-83.619229	-17.316819	-83.619229	-0.468026	2.910901
7.050000	-0.457938	0.627639	-17.885486	-86.115473	-17.885486	-86.115473	-0.458868	0.220797
7.100000	-0.450149	-2.034200	-18.473160	-88.561227	-18.473160	-88.561227	-0.451125	-2.442412
7.150000	-0.443556	-4.672664	-19.083958	-90.959526	-19.083958	-90.959526	-0.444583	-5.082299
7.200000	-0.438094	-7.288644	-19.720574	-93.308117	-19.720574	-93.308117	-0.439179	-7.699779
7.250000	-0.433861	-9.879928	-20.383054	-95.596232	-20.383054	-95.596232	-0.435012	-10.292679
7.300000	-0.430628	-12.451057	-21.078205	-97.829009	-21.078205	-97.829009	-0.431853	-12.865551
7.350000	-0.428479	-15.000497	-21.807436	-99.994336	-21.807436	-99.994336	-0.429788	-15.416914
7.400000	-0.427360	-17.529679	-22.575707	-102.087077	-22.575707	-102.087077	-0.428767	-17.948238
7.450000	-0.427165	-20.041279	-23.390963	-104.106625	-23.390963	-104.106625	-0.428683	-20.462223
7.500000	-0.428071	-22.532969	-24.254156	-106.027138	-24.254156	-106.027138	-0.429722	-22.956662
7.550000	-0.429909	-25.009076	-25.178379	-107.853539	-25.178379	-107.853539	-0.431716	-25.435893
7.600000	-0.432754	-27.469992	-26.171619	-109.568236	-26.171619	-109.568236	-0.434746	-27.900415
7.650000	-0.436727	-29.916290	-27.242253	-111.148883	-27.242253	-111.148883	-0.438945	-30.350957
7.700000	-0.441753	-32.351472	-28.410889	-112.601563	-28.410889	-112.601563	-0.444245	-32.791068
7.750000	-0.448130	-34.776107	-29.687269	-113.903582	-29.687269	-113.903582	-0.450969	-35.221626
7.800000	-0.455942	-37.193608	-31.098076	-115.088733	-31.098076	-115.088733	-0.459220	-37.646208
7.850000	-0.465406	-39.607191	-32.676319	-116.238857	-32.676319	-116.238857	-0.469246	-40.068284
7.900000	-0.477354	-42.020985	-34.436952	-117.644445	-34.436952	-117.644445	-0.481968	-42.492746
7.950000	-0.492137	-44.440267	-36.446893	-119.916227	-36.446893	-119.916227	-0.497792	-44.925124
8.000000	-0.511441	-46.873280	-38.715119	-125.075091	-38.715119	-125.075091	-0.518603	-47.374841
8.050000	-0.537913	-49.330884	-41.020927	-138.127657	-41.020927	-138.127657	-0.547368	-49.854160
8.100000	-0.575135	-51.822405	-42.118979	-164.712517	-42.118979	-164.712517	-0.588117	-52.373517
8.150000	-0.634687	-54.363622	-39.123154	163.112211	-39.123154	163.112211	-0.653865	-54.951412
8.200000	-0.738168	-56.927974	-33.741642	142.513827	-33.741642	142.513827	-0.769012	-57.559118
8.250000	-0.929283	-59.275116	-28.042139	125.626669	-28.042139	125.626669	-0.983350	-59.927985
8.300000	-1.205942	-60.354580	-22.933356	101.882835	-22.933356	101.882835	-1.296155	-60.865861
8.350000	-1.208602	-59.771841	-20.086617	70.670728	-20.086617	70.670728	-1.298373	-59.908395
8.400000	-0.921756	-60.898445	-19.705267	45.878575	-19.705267	45.878575	-0.972093	-60.897949
8.450000	-0.739926	-63.380101	-20.028111	31.424883	-20.028111	31.424883	-0.765836	-63.418398
8.500000	-0.658667	-66.018460	-20.278384	22.857677	-20.278384	22.857677	-0.673072	-66.112502
8.550000	-0.624672	-68.573035	-20.357134	17.212641	-20.357134	17.212641	-0.633382	-68.711561
8.600000	-0.612332	-71.037723	-20.300401	13.043530	-20.300401	13.043530	-0.617928	-71.209594
8.650000	-0.611420	-73.432333	-20.146415	9.707013	-20.146415	9.707013	-0.615219	-73.629097
8.700000	-0.616679	-75.779246	-19.930571	6.827220	-19.930571	6.827220	-0.619357	-75.995207
8.750000	-0.625663	-78.093690	-19.675947	4.211827	-19.675947	4.211827	-0.627599	-78.324949
8.800000	-0.637214	-80.385057	-19.396270	1.761328	-19.396270	1.761328	-0.638641	-80.628771
8.850000	-0.650673	-82.660165	-19.100796	-0.584804	-19.100796	-0.584804	-0.651744	-82.914215
8.900000	-0.665656	-84.924125	-18.795777	-2.864644	-18.795777	-2.864644	-0.666472	-85.186903
8.950000	-0.681940	-87.180893	-18.485353	-5.102735	-18.485353	-5.102735	-0.682572	-87.451147
9.000000	-0.699494	-89.433591	-18.171163	-7.314268	-18.171163	-7.314268	-0.699996	-89.710257
9.050000	-0.718115	-91.685506	-17.856678	-9.513587	-17.856678	-9.513587	-0.718520	-91.967837
9.100000	-0.737768	-93.938898	-17.543047	-11.708019	-17.543047	-11.708019	-0.738100	-94.226286
9.150000	-0.758442	-96.195798	-17.231008	-13.902960	-17.231008	-13.902960	-0.758717	-96.487751
9.200000	-0.780084	-98.457672	-16.921522	-16.102056	-16.921522	-16.102056	-0.780314	-98.753808
9.250000	-0.802917	-100.727813	-16.613041	-18.310218	-16.613041	-18.310218	-0.803111	-101.027763
9.300000	-0.826766	-103.006444	-16.307467	-20.528431	-16.307467	-20.528431	-0.826929	-103.309975
9.350000	-0.851792	-105.296412	-16.003804	-22.760293	-16.003804	-22.760293	-0.851925	-105.603328
9.400000	-0.877979	-107.598734	-15.702482	-25.006975	-15.702482	-25.006975	-0.878083	-107.908912
9.450000	-0.905383	-109.915079	-15.403375	-27.270265	-15.403375	-27.270265	-0.905457	-110.228460
9.500000	-0.934134	-112.248007	-15.105874	-29.552875	-15.105874	-29.552875	-0.934174	-112.564599
9.550000	-0.964157	-114.597240	-14.810774	-31.854154	-14.810774	-31.854154	-0.964161	-114.917122
9.600000	-0.995753	-116.967738	-14.516466	-34.179368	-14.516466	-34.179368	-0.995719	-117.291100
9.650000	-1.028744	-119.357365	-14.224405	-36.525766	-14.224405	-36.525766	-1.028670	-119.684455
9.700000	-1.063470	-121.771698	-13.932959	-38.899130	-13.932959	-38.899130	-1.063356	-122.102939
9.750000	-1.099822	-124.209356	-13.643138	-41.297618	-13.643138	-41.297618	-1.099671	-124.545249
9.800000	-1.138029	-126.674133	-13.354131	-43.724978	-13.354131	-43.724978	-1.137850	-127.015386
9.850000	-1.178171	-129.167381	-13.065997	-46.182342	-13.065997	-46.182342	-1.177977	-129.514879
9.900000	-1.220297	-131.689870	-12.778956	-48.670243	-12.778956	-48.670243	-1.220108	-132.044685
9.950000	-1.264722	-134.246593	-12.492087	-51.193613	-12.492087	-51.193613	-1.264569	-134.610184
10.000000	-1.311268	-136.834366	-12.206673	-53.748933	-12.206673	-53.748933	-1.311190	-137.208258
