! freq	dB(S11)	phase(S11)	dB(S12)	phase(S12)	
!     	dB(S21)	phase(S21)	dB(S22)	phase(S22)	
!S-par simulation data
#  GHz  S  DB  R 50
0.000000	-0.000000	0.000000	-314.500865	0.000000	-314.500865	0.000000	-0.000000	0.000000
0.050000	-0.000133	-1.092392	-113.233764	87.693809	-113.233764	87.693809	-0.000099	-0.768135
0.100000	-0.000526	-2.184452	-107.403619	85.886527	-107.403619	85.886527	-0.000393	-1.536027
0.150000	-0.001166	-3.275869	-104.117424	84.643653	-104.117424	84.643653	-0.000869	-2.303453
0.200000	-0.002027	-4.366380	-101.864224	83.784994	-101.864224	83.784994	-0.001506	-3.070232
0.250000	-0.003097	-5.455678	-100.184144	83.158202	-100.184144	83.158202	-0.002291	-3.836161
0.300000	-0.004327	-6.543690	-98.867118	82.653778	-98.867118	82.653778	-0.003185	-4.601211
0.350000	-0.005694	-7.630236	-97.816666	82.248174	-97.816666	82.248174	-0.004172	-5.365284
0.400000	-0.007171	-8.715222	-96.974981	81.939899	-96.974981	81.939899	-0.005227	-6.128351
0.450000	-0.008728	-9.798596	-96.306698	81.747159	-96.306698	81.747159	-0.006330	-6.890409
0.500000	-0.010341	-10.880331	-95.789344	81.701997	-95.789344	81.701997	-0.007465	-7.651476
0.550000	-0.011991	-11.960425	-95.408575	81.849336	-95.408575	81.849336	-0.008616	-8.411584
0.600000	-0.013658	-13.038890	-95.155544	82.249286	-95.155544	82.249286	-0.009772	-9.170771
0.650000	-0.015331	-14.115745	-95.025245	82.982284	-95.025245	82.982284	-0.010927	-9.929079
0.700000	-0.016998	-15.191012	-95.015172	84.157420	-95.015172	84.157420	-0.012073	-10.686545
0.750000	-0.018651	-16.264712	-95.123749	85.924840	-95.123749	85.924840	-0.013206	-11.443206
0.800000	-0.020286	-17.336865	-95.347728	88.493007	-95.347728	88.493007	-0.014326	-12.199091
0.850000	-0.021899	-18.407483	-95.677195	92.149501	-95.677195	92.149501	-0.015430	-12.954224
0.900000	-0.023488	-19.476574	-96.085844	97.275559	-96.085844	97.275559	-0.016518	-13.708625
0.950000	-0.025053	-20.544139	-96.513727	104.320863	-96.513727	104.320863	-0.017590	-14.462305
1.000000	-0.026592	-21.610173	-96.844339	113.662388	-96.844339	113.662388	-0.018648	-15.215272
1.050000	-0.028109	-22.674666	-96.897405	125.263859	-96.897405	125.263859	-0.019693	-15.967531
1.100000	-0.029602	-23.737602	-96.486194	138.250162	-96.486194	138.250162	-0.020725	-16.719080
1.150000	-0.031075	-24.798961	-95.545345	150.955046	-95.545345	150.955046	-0.021745	-17.469915
1.200000	-0.032528	-25.858721	-94.191492	161.832901	-94.191492	161.832901	-0.022756	-18.220030
1.250000	-0.033963	-26.916853	-92.622489	170.274909	-92.622489	170.274909	-0.023758	-18.969417
1.300000	-0.035381	-27.973255	-90.986033	176.388415	-90.986033	176.388415	-0.024752	-19.718030
1.350000	-0.036785	-29.027967	-89.388184	-179.245187	-89.388184	-179.245187	-0.025739	-20.465889
1.400000	-0.038176	-30.080954	-87.865919	-176.189072	-87.865919	-176.189072	-0.026721	-21.212982
1.450000	-0.039555	-31.132183	-86.430562	-174.104196	-86.430562	-174.104196	-0.027697	-21.959293
1.500000	-0.040924	-32.181620	-85.081576	-172.742687	-85.081576	-172.742687	-0.028670	-22.704807
1.550000	-0.042285	-33.229228	-83.813557	-171.926573	-83.813557	-171.926573	-0.029639	-23.449509
1.600000	-0.043637	-34.274972	-82.619519	-171.527935	-82.619519	-171.527935	-0.030606	-24.193383
1.650000	-0.044983	-35.318816	-81.492354	-171.453926	-81.492354	-171.453926	-0.031570	-24.936412
1.700000	-0.046323	-36.360727	-80.425427	-171.636227	-80.425427	-171.636227	-0.032532	-25.678581
1.750000	-0.047659	-37.400669	-79.412782	-172.023799	-79.412782	-172.023799	-0.033494	-26.419873
1.800000	-0.048990	-38.438608	-78.449161	-172.577937	-78.449161	-172.577937	-0.034455	-27.160272
1.850000	-0.050319	-39.474510	-77.529960	-173.268857	-77.529960	-173.268857	-0.035415	-27.899761
1.900000	-0.051645	-40.508344	-76.651160	-174.073321	-76.651160	-174.073321	-0.036375	-28.638325
1.950000	-0.052969	-41.540077	-75.809243	-174.972967	-75.809243	-174.972967	-0.037336	-29.375947
2.000000	-0.054292	-42.569678	-75.001129	-175.953111	-75.001129	-175.953111	-0.038297	-30.112612
2.050000	-0.055615	-43.597118	-74.224110	-177.001883	-74.224110	-177.001883	-0.039260	-30.848305
2.100000	-0.056938	-44.622368	-73.475795	-178.109585	-73.475795	-178.109585	-0.040224	-31.583009
2.150000	-0.058261	-45.645399	-72.754067	-179.268227	-72.754067	-179.268227	-0.041189	-32.316710
2.200000	-0.059586	-46.666186	-72.057040	179.528840	-72.057040	179.528840	-0.042156	-33.049393
2.250000	-0.060912	-47.684702	-71.383032	178.287185	-71.383032	178.287185	-0.043126	-33.781043
2.300000	-0.062241	-48.700923	-70.730534	177.011513	-70.730534	177.011513	-0.044098	-34.511646
2.350000	-0.063573	-49.714825	-70.098187	175.705824	-70.098187	175.705824	-0.045074	-35.241187
2.400000	-0.064907	-50.726386	-69.484763	174.373541	-69.484763	174.373541	-0.046052	-35.969653
2.450000	-0.066246	-51.735585	-68.889151	173.017609	-68.889151	173.017609	-0.047033	-36.697030
2.500000	-0.067589	-52.742402	-68.310339	171.640581	-68.310339	171.640581	-0.048019	-37.423304
2.550000	-0.068937	-53.746712	-67.746513	170.243945	-67.746513	170.243945	-0.049009	-38.148413
2.600000	-0.070290	-54.748602	-67.197813	168.830526	-67.197813	168.830526	-0.050003	-38.872393
2.650000	-0.071649	-55.748055	-66.663453	167.401999	-66.663453	167.401999	-0.051001	-39.595230
2.700000	-0.073015	-56.745055	-66.142712	165.959846	-66.142712	165.959846	-0.052005	-40.316914
2.750000	-0.074387	-57.739589	-65.634926	164.505381	-65.634926	164.505381	-0.053014	-41.037430
2.800000	-0.075767	-58.731643	-65.139480	163.039775	-65.139480	163.039775	-0.054029	-41.756769
2.850000	-0.077154	-59.721206	-64.655805	161.564073	-64.655805	161.564073	-0.055050	-42.474917
2.900000	-0.078550	-60.708266	-64.183372	160.079211	-64.183372	160.079211	-0.056077	-43.191866
2.950000	-0.079955	-61.692813	-63.721692	158.586030	-63.721692	158.586030	-0.057111	-43.907602
3.000000	-0.081369	-62.674839	-63.270307	157.085291	-63.270307	157.085291	-0.058151	-44.622117
3.050000	-0.082793	-63.654337	-62.828788	155.577679	-62.828788	155.577679	-0.059199	-45.335399
3.100000	-0.084228	-64.631300	-62.396737	154.063816	-62.396737	154.063816	-0.060255	-46.047438
3.150000	-0.085674	-65.605722	-61.973780	152.544268	-61.973780	152.544268	-0.061319	-46.758226
3.200000	-0.087131	-66.577599	-61.559564	151.019550	-61.559564	151.019550	-0.062391	-47.467752
3.250000	-0.088600	-67.546928	-61.153760	149.490131	-61.153760	149.490131	-0.063472	-48.176008
3.300000	-0.090083	-68.513707	-60.756058	147.956441	-60.756058	147.956441	-0.064562	-48.882984
3.350000	-0.091578	-69.477934	-60.366164	146.418875	-60.366164	146.418875	-0.065661	-49.588673
3.400000	-0.093087	-70.439609	-59.983801	144.877795	-59.983801	144.877795	-0.066771	-50.293066
3.450000	-0.094610	-71.398733	-59.608710	143.333533	-59.608710	143.333533	-0.067890	-50.996155
3.500000	-0.096148	-72.355308	-59.240643	141.786396	-59.240643	141.786396	-0.069020	-51.697933
3.550000	-0.097702	-73.309337	-58.879365	140.236668	-58.879365	140.236668	-0.070161	-52.398393
3.600000	-0.099272	-74.260823	-58.524655	138.684611	-58.524655	138.684611	-0.071313	-53.097527
3.650000	-0.100858	-75.209771	-58.176303	137.130466	-58.176303	137.130466	-0.072477	-53.795329
3.700000	-0.102461	-76.156188	-57.834107	135.574460	-57.834107	135.574460	-0.073652	-54.491794
3.750000	-0.104081	-77.100079	-57.497878	134.016800	-57.497878	134.016800	-0.074840	-55.186914
3.800000	-0.105721	-78.041344	-57.167140	132.457626	-57.167140	132.457626	-0.076042	-55.880625
3.850000	-0.107379	-78.980100	-56.842037	130.897189	-56.842037	130.897189	-0.077256	-56.572981
3.900000	-0.109057	-79.916358	-56.522401	129.335654	-56.522401	129.335654	-0.078484	-57.263976
3.950000	-0.110754	-80.850129	-56.208075	127.773179	-56.208075	127.773179	-0.079726	-57.953606
4.000000	-0.112471	-81.781422	-55.898905	126.209907	-55.898905	126.209907	-0.080982	-58.641866
4.050000	-0.114210	-82.710252	-55.594748	124.645975	-55.594748	124.645975	-0.082253	-59.328753
4.100000	-0.115970	-83.636630	-55.295466	123.081511	-55.295466	123.081511	-0.083539	-60.014263
4.150000	-0.117751	-84.560571	-55.000924	121.516632	-55.000924	121.516632	-0.084840	-60.698391
4.200000	-0.119556	-85.482090	-54.710996	119.951452	-54.710996	119.951452	-0.086158	-61.381136
4.250000	-0.121383	-86.401202	-54.425560	118.386075	-54.425560	118.386075	-0.087491	-62.062495
4.300000	-0.123233	-87.317923	-54.144499	116.820598	-54.144499	116.820598	-0.088841	-62.742464
4.350000	-0.125108	-88.232272	-53.867702	115.255115	-53.867702	115.255115	-0.090208	-63.421043
4.400000	-0.127007	-89.144267	-53.595059	113.689714	-53.595059	113.689714	-0.091592	-64.098228
4.450000	-0.128931	-90.053925	-53.326468	112.124474	-53.326468	112.124474	-0.092993	-64.774019
4.500000	-0.130880	-90.961266	-53.061829	110.559475	-53.061829	110.559475	-0.094413	-65.448414
4.550000	-0.132856	-91.866312	-52.801046	108.994788	-52.801046	108.994788	-0.095852	-66.121412
4.600000	-0.134858	-92.769082	-52.544027	107.430482	-52.544027	107.430482	-0.097309	-66.793013
4.650000	-0.136887	-93.669599	-52.290683	105.866622	-52.290683	105.866622	-0.098785	-67.463216
4.700000	-0.138943	-94.567885	-52.040928	104.303268	-52.040928	104.303268	-0.100281	-68.132021
4.750000	-0.141028	-95.463964	-51.794680	102.740480	-51.794680	102.740480	-0.101798	-68.799429
4.800000	-0.143140	-96.357859	-51.551858	101.178311	-51.551858	101.178311	-0.103334	-69.465440
4.850000	-0.145282	-97.249595	-51.312387	99.616813	-51.312387	99.616813	-0.104891	-70.130055
4.900000	-0.147453	-98.139196	-51.076192	98.056035	-51.076192	98.056035	-0.106470	-70.793275
4.950000	-0.149654	-99.026690	-50.843201	96.496024	-50.843201	96.496024	-0.108070	-71.455102
5.000000	-0.151885	-99.912102	-50.613345	94.936823	-50.613345	94.936823	-0.109692	-72.115536
5.050000	-0.154148	-100.795372	-50.386434	93.378513	-50.386434	93.378513	-0.111337	-72.774521
5.100000	-0.156442	-101.676617	-50.162535	91.821099	-50.162535	91.821099	-0.113006	-73.432118
5.150000	-0.158768	-102.555867	-49.941583	90.264617	-49.941583	90.264617	-0.114697	-74.088330
5.200000	-0.161126	-103.433149	-49.723519	88.709104	-49.723519	88.709104	-0.116412	-74.743161
5.250000	-0.163517	-104.308495	-49.508283	87.154592	-49.508283	87.154592	-0.118151	-75.396612
5.300000	-0.165940	-105.181934	-49.295818	85.601115	-49.295818	85.601115	-0.119914	-76.048688
5.350000	-0.168397	-106.053496	-49.086069	84.048703	-49.086069	84.048703	-0.121702	-76.699393
5.400000	-0.170887	-106.923213	-48.878982	82.497384	-48.878982	82.497384	-0.123515	-77.348729
5.450000	-0.173424	-107.790502	-48.673744	80.947591	-48.673744	80.947591	-0.125362	-77.996230
5.500000	-0.175979	-108.656856	-48.472122	79.398392	-48.472122	79.398392	-0.127223	-78.643020
5.550000	-0.178577	-109.521098	-48.272555	77.850634	-48.272555	77.850634	-0.129117	-79.288164
5.600000	-0.181205	-110.383832	-48.075712	76.303906	-48.075712	76.303906	-0.131033	-79.932132
5.650000	-0.183871	-111.244831	-47.881206	74.758463	-47.881206	74.758463	-0.132978	-80.574700
5.700000	-0.186574	-112.104093	-47.688980	73.214306	-47.688980	73.214306	-0.134951	-81.215867
5.750000	-0.189310	-112.961972	-47.499334	71.671260	-47.499334	71.671260	-0.136949	-81.855878
5.800000	-0.192090	-113.817914	-47.311572	70.129767	-47.311572	70.129767	-0.138981	-82.494270
5.850000	-0.194897	-114.672802	-47.126596	68.589189	-47.126596	68.589189	-0.141033	-83.131746
5.900000	-0.197755	-115.525580	-46.943153	67.050444	-46.943153	67.050444	-0.143125	-83.767389
5.950000	-0.200634	-116.377608	-46.762669	65.512404	-46.762669	65.512404	-0.145233	-84.402353
6.000000	-0.203573	-117.227383	-46.583407	63.976482	-46.583407	63.976482	-0.147387	-85.035276
6.050000	-0.206525	-118.076686	-46.407249	62.441042	-46.407249	62.441042	-0.149552	-85.667752
6.100000	-0.209545	-118.923623	-46.232036	60.908013	-46.232036	60.908013	-0.151770	-86.297987
6.150000	-0.212573	-119.770337	-46.060044	59.375230	-46.060044	59.375230	-0.153994	-86.928001
6.200000	-0.215676	-120.614603	-45.888756	57.845157	-45.888756	57.845157	-0.156278	-87.555581
6.250000	-0.218780	-121.458870	-45.720781	56.315083	-45.720781	56.315083	-0.158562	-88.183160
6.300000	-0.221967	-122.300638	-45.553299	54.788022	-45.553299	54.788022	-0.160912	-88.808120
6.350000	-0.225156	-123.142406	-45.388985	53.260961	-45.388985	53.260961	-0.163264	-89.433079
6.400000	-0.228422	-123.982045	-45.225409	51.736709	-45.225409	51.736709	-0.165677	-90.055670
6.450000	-0.231697	-124.821491	-45.064651	50.212711	-45.064651	50.212711	-0.168097	-90.678046
6.500000	-0.235043	-125.659150	-44.904845	48.691305	-44.904845	48.691305	-0.170576	-91.298301
6.550000	-0.238405	-126.496453	-44.747540	47.170417	-44.747540	47.170417	-0.173066	-91.918132
6.600000	-0.241832	-127.332284	-44.591375	45.651890	-44.591375	45.651890	-0.175610	-92.536085
6.650000	-0.245282	-128.167626	-44.437426	44.134151	-44.437426	44.134151	-0.178173	-93.153412
6.700000	-0.248792	-129.001785	-44.284780	42.618534	-44.284780	42.618534	-0.180785	-93.769097
6.750000	-0.252332	-129.835351	-44.134094	41.103979	-44.134094	41.103979	-0.183421	-94.383962
6.800000	-0.255925	-130.667994	-43.984852	39.591297	-43.984852	39.591297	-0.186102	-94.997417
6.850000	-0.259556	-131.499975	-43.837339	38.079955	-43.837339	38.079955	-0.188814	-95.609864
6.900000	-0.263233	-132.331260	-43.691389	36.570231	-43.691389	36.570231	-0.191564	-96.221125
6.950000	-0.266956	-133.161849	-43.546965	35.062125	-43.546965	35.062125	-0.194354	-96.831200
7.000000	-0.270718	-133.991938	-43.404203	33.555376	-43.404203	33.555376	-0.197176	-97.440306
7.050000	-0.274534	-134.821329	-43.262786	32.050525	-43.262786	32.050525	-0.200043	-98.048057
7.100000	-0.278383	-135.650387	-43.123112	30.546764	-43.123112	30.546764	-0.202938	-98.655049
7.150000	-0.282293	-136.478780	-42.984622	29.045181	-42.984622	29.045181	-0.205886	-99.260523
7.200000	-0.286229	-137.306973	-42.847942	27.544417	-42.847942	27.544417	-0.208855	-99.865441
7.250000	-0.290234	-138.134568	-42.712305	26.046109	-42.712305	26.046109	-0.211885	-100.468690
7.300000	-0.294257	-138.962065	-42.578528	24.548347	-42.578528	24.548347	-0.214929	-101.071577
7.350000	-0.298359	-139.789067	-42.445671	23.053315	-42.445671	23.053315	-0.218042	-101.672653
7.400000	-0.302471	-140.616038	-42.314711	21.558556	-42.314711	21.558556	-0.221164	-102.273552
7.450000	-0.306670	-141.442656	-42.184565	20.066794	-42.184565	20.066794	-0.224362	-102.872508
7.500000	-0.310870	-142.269274	-42.056340	18.575033	-42.056340	18.575033	-0.227561	-103.471464
7.550000	-0.315167	-143.095717	-41.928839	17.086531	-41.928839	17.086531	-0.230845	-104.068355
7.600000	-0.319465	-143.922161	-41.803182	15.598030	-41.803182	15.598030	-0.234131	-104.665246
7.650000	-0.323852	-144.748640	-41.678351	14.112500	-41.678351	14.112500	-0.237496	-105.260296
7.700000	-0.328249	-145.575123	-41.555202	12.627240	-41.555202	12.627240	-0.240869	-105.855179
7.750000	-0.332727	-146.401818	-41.432967	11.144662	-41.432967	11.144662	-0.244316	-106.448436
7.800000	-0.337223	-147.228556	-41.312269	9.662621	-41.312269	9.662621	-0.247779	-107.041368
7.850000	-0.341793	-148.055649	-41.192559	8.182970	-41.192559	8.182970	-0.251309	-107.632882
7.900000	-0.346388	-148.882861	-41.074256	6.704117	-41.074256	6.704117	-0.254862	-108.223922
7.950000	-0.351049	-149.710537	-40.957003	5.227363	-40.957003	5.227363	-0.258476	-108.813743
8.000000	-0.355745	-150.538445	-40.841044	3.751661	-40.841044	3.751661	-0.262121	-109.402952
8.050000	-0.360498	-151.366890	-40.726183	2.277770	-40.726183	2.277770	-0.265820	-109.991131
8.100000	-0.365294	-152.195719	-40.612518	0.805175	-40.612518	0.805175	-0.269559	-110.578572
8.150000	-0.370140	-153.025122	-40.499990	-0.665892	-40.499990	-0.665892	-0.273345	-111.165160
8.200000	-0.375036	-153.855099	-40.388572	-2.135431	-40.388572	-2.135431	-0.277177	-111.750896
8.250000	-0.379974	-154.685650	-40.278317	-3.603719	-40.278317	-3.603719	-0.281051	-112.335948
8.300000	-0.384971	-155.517005	-40.169102	-5.070256	-40.169102	-5.070256	-0.284979	-112.920043
8.350000	-0.390002	-156.348897	-40.061068	-6.535814	-40.061068	-6.535814	-0.288941	-113.503613
8.400000	-0.395099	-157.181864	-39.954014	-7.999413	-39.954014	-7.999413	-0.292966	-114.086134
8.450000	-0.400223	-158.015292	-39.848149	-9.462295	-39.848149	-9.462295	-0.297017	-114.668277
8.500000	-0.405420	-158.850105	-39.743217	-10.923024	-39.743217	-10.923024	-0.301141	-115.249290
8.550000	-0.410636	-159.685265	-39.639472	-12.383288	-39.639472	-12.383288	-0.305282	-115.830064
8.600000	-0.415933	-160.522163	-39.536627	-13.841222	-39.536627	-13.841222	-0.309504	-116.409639
8.650000	-0.421242	-161.359255	-39.434957	-15.298929	-39.434957	-15.298929	-0.313737	-116.989100
8.700000	-0.426639	-162.198479	-39.334165	-16.754148	-39.334165	-16.754148	-0.318059	-117.567306
8.750000	-0.432039	-163.037702	-39.234528	-18.209366	-39.234528	-18.209366	-0.322384	-118.145513
8.800000	-0.437512	-163.878822	-39.135817	-19.662599	-39.135817	-19.662599	-0.326783	-118.722738
8.850000	-0.443032	-164.721232	-39.038103	-21.114593	-39.038103	-21.114593	-0.331231	-119.299358
8.900000	-0.448599	-165.564988	-38.941380	-22.565367	-38.941380	-22.565367	-0.335728	-119.875392
8.950000	-0.454214	-166.410147	-38.845639	-24.014943	-38.845639	-24.014943	-0.340273	-120.450855
9.000000	-0.459875	-167.256766	-38.750873	-25.463341	-38.750873	-25.463341	-0.344868	-121.025766
9.050000	-0.465583	-168.104903	-38.657077	-26.910584	-38.657077	-26.910584	-0.349513	-121.600140
9.100000	-0.471337	-168.954614	-38.564242	-28.356693	-38.564242	-28.356693	-0.354207	-122.173995
9.150000	-0.477137	-169.805959	-38.472365	-29.801691	-38.472365	-29.801691	-0.358950	-122.747350
9.200000	-0.482982	-170.658994	-38.381438	-31.245600	-38.381438	-31.245600	-0.363744	-123.320221
9.250000	-0.488873	-171.513778	-38.291457	-32.688442	-38.291457	-32.688442	-0.368587	-123.892627
9.300000	-0.494809	-172.370370	-38.202418	-34.130240	-38.202418	-34.130240	-0.373481	-124.464586
9.350000	-0.500789	-173.228829	-38.114315	-35.571017	-38.114315	-35.571017	-0.378425	-125.036115
9.400000	-0.506814	-174.089213	-38.027144	-37.010795	-38.027144	-37.010795	-0.383419	-125.607234
9.450000	-0.512882	-174.951582	-37.940903	-38.449596	-37.940903	-38.449596	-0.388464	-126.177960
9.500000	-0.518993	-175.815995	-37.855587	-39.887444	-37.855587	-39.887444	-0.393559	-126.748313
9.550000	-0.525147	-176.682512	-37.771194	-41.324361	-37.771194	-41.324361	-0.398705	-127.318311
9.600000	-0.531343	-177.551193	-37.687721	-42.760367	-37.687721	-42.760367	-0.403901	-127.887973
9.650000	-0.537581	-178.422097	-37.605167	-44.195486	-37.605167	-44.195486	-0.409149	-128.457319
9.700000	-0.543859	-179.295285	-37.523529	-45.629738	-37.523529	-45.629738	-0.414447	-129.026368
9.750000	-0.550178	179.829182	-37.442806	-47.063143	-37.442806	-47.063143	-0.419796	-129.595140
9.800000	-0.556537	178.951245	-37.362998	-48.495723	-37.362998	-48.495723	-0.425195	-130.163654
9.850000	-0.562934	178.070842	-37.284103	-49.927497	-37.284103	-49.927497	-0.430646	-130.731930
9.900000	-0.569370	177.187914	-37.206121	-51.358483	-37.206121	-51.358483	-0.436147	-131.299988
9.950000	-0.575843	176.302398	-37.129054	-52.788700	-37.129054	-52.788700	-0.441699	-131.867849
10.000000	-0.582353	175.414233	-37.052900	-54.218165	-37.052900	-54.218165	-0.447302	-132.435533
