! freq	dB(S11)	phase(S11)	dB(S12)	phase(S12)	
!     	dB(S21)	phase(S21)	dB(S22)	phase(S22)	
!S-par simulation data
#  GHz  S  DB  R 50
0.000000	-0.000000	0.000000	-335.873273	0.000000	-335.873273	0.000000	-0.000000	0.000000
0.050000	-0.000122	-0.881215	-97.960428	162.604663	-97.960428	162.604663	-0.000115	-0.881047
0.100000	-0.000480	-1.762113	-97.371791	151.629927	-97.371791	151.629927	-0.000454	-1.761810
0.150000	-0.001060	-2.642409	-96.571493	141.374946	-96.571493	141.374946	-0.001003	-2.642026
0.200000	-0.001833	-3.521869	-95.686290	132.723356	-95.686290	132.723356	-0.001739	-3.521480
0.250000	-0.002780	-4.400241	-94.800337	125.685630	-94.800337	125.685630	-0.002646	-4.399929
0.300000	-0.003854	-5.277495	-93.970419	119.850595	-93.970419	119.850595	-0.003681	-5.277333
0.350000	-0.005030	-6.153515	-93.215418	115.029835	-93.215418	115.029835	-0.004824	-6.153570
0.400000	-0.006280	-7.028272	-92.544465	111.015085	-92.544465	111.015085	-0.006047	-7.028595
0.450000	-0.007579	-7.901772	-91.959547	107.650781	-91.959547	107.650781	-0.007326	-7.902397
0.500000	-0.008905	-8.774045	-91.459460	104.826188	-91.459460	104.826188	-0.008640	-8.774990
0.550000	-0.010242	-9.645137	-91.041851	102.466108	-91.041851	102.466108	-0.009974	-9.646405
0.600000	-0.011578	-10.515098	-90.704233	100.523422	-90.704233	100.523422	-0.011313	-10.516680
0.650000	-0.012903	-11.383980	-90.444437	98.973991	-90.444437	98.973991	-0.012648	-11.385858
0.700000	-0.014212	-12.251831	-90.260758	97.813749	-90.260758	97.813749	-0.013971	-12.253982
0.750000	-0.015501	-13.118692	-90.151906	97.057667	-90.151906	97.057667	-0.015277	-13.121089
0.800000	-0.016769	-13.984597	-90.116769	96.740391	-90.116769	96.740391	-0.016564	-13.987212
0.850000	-0.018015	-14.849570	-90.153956	96.918410	-90.153956	96.918410	-0.017831	-14.852377
0.900000	-0.019239	-15.713629	-90.260964	97.673537	-90.260964	97.673537	-0.019077	-15.716602
0.950000	-0.020443	-16.576785	-90.432759	99.117094	-90.432759	99.117094	-0.020302	-16.579901
1.000000	-0.021629	-17.439040	-90.659398	101.393039	-90.659398	101.393039	-0.021508	-17.442280
1.050000	-0.022798	-18.300394	-90.922269	104.675714	-90.922269	104.675714	-0.022696	-18.303740
1.100000	-0.023952	-19.160840	-91.188761	109.153168	-91.188761	109.153168	-0.023868	-19.164278
1.150000	-0.025093	-20.020367	-91.406391	114.980900	-91.406391	114.980900	-0.025025	-20.023886
1.200000	-0.026223	-20.878962	-91.500564	122.190398	-91.500564	122.190398	-0.026168	-20.882553
1.250000	-0.027343	-21.736608	-91.384406	130.562096	-91.384406	130.562096	-0.027301	-21.740265
1.300000	-0.028454	-22.593243	-90.972705	139.535032	-90.972705	139.535032	-0.028423	-22.596963
1.350000	-0.029558	-23.448889	-90.262229	148.280845	-90.262229	148.280845	-0.029536	-23.452669
1.400000	-0.030657	-24.303526	-89.302594	156.131896	-89.302594	156.131896	-0.030643	-24.307365
1.450000	-0.031751	-25.157130	-88.176478	162.727121	-88.176478	162.727121	-0.031743	-25.161029
1.500000	-0.032842	-26.009679	-86.964595	168.001534	-86.964595	168.001534	-0.032839	-26.013640
1.550000	-0.033930	-26.861151	-85.727529	172.069854	-85.727529	172.069854	-0.033931	-26.865176
1.600000	-0.035015	-27.711522	-84.503805	175.116845	-84.503805	175.116845	-0.035020	-27.715615
1.650000	-0.036100	-28.560770	-83.314986	177.332052	-83.314986	177.332052	-0.036106	-28.564934
1.700000	-0.037183	-29.408872	-82.171564	178.881778	-82.171564	178.881778	-0.037191	-29.413111
1.750000	-0.038266	-30.255806	-81.077437	179.901961	-81.077437	179.901961	-0.038275	-30.260123
1.800000	-0.039350	-31.101548	-80.032826	-179.499878	-80.032826	-179.499878	-0.039359	-31.105949
1.850000	-0.040434	-31.946078	-79.036031	-179.239844	-79.036031	-179.239844	-0.040443	-31.950566
1.900000	-0.041518	-32.789373	-78.084439	-179.252682	-78.084439	-179.252682	-0.041527	-32.793952
1.950000	-0.042604	-33.631413	-77.175086	-179.487497	-77.175086	-179.487497	-0.042613	-33.636087
2.000000	-0.043692	-34.472177	-76.304963	-179.904372	-76.304963	-179.904372	-0.043699	-34.476950
2.050000	-0.044781	-35.311644	-75.471174	179.528235	-75.471174	179.528235	-0.044788	-35.316519
2.100000	-0.045872	-36.149795	-74.671005	178.835449	-74.671005	178.835449	-0.045878	-36.154776
2.150000	-0.046966	-36.986611	-73.901961	178.037445	-73.901961	178.037445	-0.046971	-36.991701
2.200000	-0.048063	-37.822073	-73.161761	177.150561	-73.161761	177.150561	-0.048067	-37.827275
2.250000	-0.049162	-38.656164	-72.448334	176.188128	-72.448334	176.188128	-0.049165	-38.661479
2.300000	-0.050265	-39.488864	-71.759805	175.161107	-71.759805	175.161107	-0.050267	-39.494296
2.350000	-0.051371	-40.320158	-71.094473	174.078574	-71.094473	174.078574	-0.051373	-40.325708
2.400000	-0.052481	-41.150028	-70.450801	172.948093	-70.450801	172.948093	-0.052482	-41.155698
2.450000	-0.053595	-41.978458	-69.827391	171.776010	-69.827391	171.776010	-0.053596	-41.984250
2.500000	-0.054713	-42.805433	-69.222974	170.567676	-69.222974	170.567676	-0.054714	-42.811347
2.550000	-0.055837	-43.630874	-68.635454	169.326432	-68.635454	169.326432	-0.055838	-43.636911
2.600000	-0.056965	-44.454828	-68.064822	168.057642	-68.064822	168.057642	-0.056966	-44.460989
2.650000	-0.058099	-45.277282	-67.510104	166.764553	-67.510104	166.764553	-0.058100	-45.283568
2.700000	-0.059238	-46.098222	-66.970408	165.449965	-66.970408	165.449965	-0.059240	-46.104633
2.750000	-0.060384	-46.917636	-66.444919	164.116300	-66.444919	164.116300	-0.060386	-46.924171
2.800000	-0.061535	-47.735511	-65.932883	162.765660	-65.932883	162.765660	-0.061538	-47.742170
2.850000	-0.062694	-48.551835	-65.433611	161.399875	-65.433611	161.399875	-0.062697	-48.558618
2.900000	-0.063860	-49.366596	-64.946464	160.020545	-64.946464	160.020545	-0.063864	-49.373503
2.950000	-0.065033	-50.179784	-64.470851	158.629069	-64.470851	158.629069	-0.065038	-50.186814
3.000000	-0.066214	-50.991387	-64.006228	157.226680	-64.006228	157.226680	-0.066220	-50.998540
3.050000	-0.067404	-51.801397	-63.552087	155.814461	-63.552087	155.814461	-0.067411	-51.808671
3.100000	-0.068602	-52.609803	-63.107957	154.393368	-63.107957	154.393368	-0.068611	-52.617198
3.150000	-0.069809	-53.416596	-62.673401	152.964249	-62.673401	152.964249	-0.069819	-53.424112
3.200000	-0.071026	-54.221768	-62.248009	151.527853	-62.248009	151.527853	-0.071037	-54.229403
3.250000	-0.072253	-55.025311	-61.831401	150.084849	-61.831401	150.084849	-0.072265	-55.033064
3.300000	-0.073491	-55.827218	-61.423220	148.635830	-61.423220	148.635830	-0.073504	-55.835087
3.350000	-0.074741	-56.627192	-61.021335	147.180509	-61.021335	147.180509	-0.074756	-56.635178
3.400000	-0.076003	-57.425445	-60.626961	145.719973	-60.626961	145.719973	-0.076019	-57.433545
3.450000	-0.077272	-58.222831	-60.244758	144.257194	-60.244758	144.257194	-0.077289	-58.231045
3.500000	-0.078559	-59.017617	-59.864418	142.787690	-59.864418	142.787690	-0.078577	-59.025944
3.550000	-0.079852	-59.811822	-59.496970	141.316932	-59.496970	141.316932	-0.079870	-59.820261
3.600000	-0.081166	-60.603121	-59.129730	139.839909	-59.129730	139.839909	-0.081186	-60.611670
3.650000	-0.082483	-61.394128	-58.775966	138.362356	-58.775966	138.362356	-0.082504	-61.402787
3.700000	-0.083827	-62.181921	-58.420995	136.878983	-58.420995	136.878983	-0.083849	-62.190688
3.750000	-0.085172	-62.969715	-58.079964	135.395611	-58.079964	135.395611	-0.085194	-62.978590
3.800000	-0.086547	-63.753990	-57.736522	133.906844	-57.736522	133.906844	-0.086570	-63.762972
3.850000	-0.087922	-64.538266	-57.406144	132.418078	-57.406144	132.418078	-0.087946	-64.547354
3.900000	-0.089328	-65.319309	-57.074799	130.925092	-57.074799	130.925092	-0.089352	-65.328501
3.950000	-0.090736	-66.100058	-56.754487	129.431723	-56.754487	129.431723	-0.090761	-66.109354
4.000000	-0.092174	-66.877864	-56.434475	127.935072	-56.434475	127.935072	-0.092199	-66.887264
4.050000	-0.093618	-67.655082	-56.123697	126.437764	-56.123697	126.437764	-0.093644	-67.664584
4.100000	-0.095090	-68.429652	-55.814333	124.937928	-55.814333	124.937928	-0.095116	-68.439255
4.150000	-0.096571	-69.203339	-55.512610	123.437250	-55.512610	123.437250	-0.096597	-69.213043
4.200000	-0.098078	-69.974674	-55.213277	121.934655	-55.213277	121.934655	-0.098104	-69.984479
4.250000	-0.099598	-70.744834	-54.920175	120.431102	-54.920175	120.431102	-0.099625	-70.754739
4.300000	-0.101143	-71.512941	-54.630314	118.926130	-54.630314	118.926130	-0.101169	-71.522946
4.350000	-0.102704	-72.279582	-54.345440	117.420144	-54.345440	117.420144	-0.102730	-72.289686
4.400000	-0.104287	-73.044470	-54.064544	115.913144	-54.064544	115.913144	-0.104313	-73.054673
4.450000	-0.105892	-73.807605	-53.787538	114.405128	-53.787538	114.405128	-0.105918	-73.817906
4.500000	-0.107515	-74.569286	-53.515146	112.896423	-53.515146	112.896423	-0.107541	-74.579685
4.550000	-0.109164	-75.328931	-53.245680	111.386753	-53.245680	111.386753	-0.109190	-75.339428
4.600000	-0.110830	-76.087420	-52.981372	109.876650	-52.981372	109.876650	-0.110855	-76.098015
4.650000	-0.112526	-76.843596	-52.719144	108.365682	-52.719144	108.365682	-0.112551	-76.854288
4.700000	-0.114235	-77.598911	-52.462534	106.854476	-52.462534	106.854476	-0.114260	-77.609700
4.750000	-0.115980	-78.351642	-52.207266	105.342555	-52.207266	105.342555	-0.116005	-78.362529
4.800000	-0.117734	-79.103804	-51.957999	103.830531	-51.957999	103.830531	-0.117758	-79.114788
4.850000	-0.119530	-79.853119	-51.709433	102.317995	-51.709433	102.317995	-0.119554	-79.864201
4.900000	-0.121330	-80.602152	-51.467182	100.805434	-51.467182	100.805434	-0.121354	-80.613331
4.950000	-0.123178	-81.348083	-51.225078	99.292616	-51.225078	99.292616	-0.123202	-81.359360
5.000000	-0.125027	-82.094014	-50.989540	97.779797	-50.989540	97.779797	-0.125050	-82.105388
5.050000	-0.126929	-82.836597	-50.753673	96.267028	-50.753673	96.267028	-0.126952	-82.848069
5.100000	-0.128832	-83.579179	-50.524043	94.754259	-50.524043	94.754259	-0.128854	-83.590750
5.150000	-0.130785	-84.318730	-50.294726	93.241838	-50.294726	93.241838	-0.130808	-84.330399
5.200000	-0.132744	-85.058004	-50.070812	91.729449	-50.070812	91.729449	-0.132766	-85.069773
5.250000	-0.134750	-85.794558	-49.847773	90.217651	-49.847773	90.217651	-0.134772	-85.806426
5.300000	-0.136766	-86.530568	-49.629391	88.705971	-49.629391	88.705971	-0.136788	-86.542535
5.350000	-0.138827	-87.264164	-49.412376	87.195069	-49.412376	87.195069	-0.138849	-87.276231
5.400000	-0.140903	-87.996955	-49.199354	85.684426	-49.199354	85.684426	-0.140924	-88.009123
5.450000	-0.143019	-88.727635	-48.988122	84.174691	-48.988122	84.174691	-0.143040	-88.739904
5.500000	-0.145155	-89.457259	-48.780291	82.665409	-48.780291	82.665409	-0.145177	-89.469629
5.550000	-0.147328	-90.185066	-48.574617	81.157106	-48.574617	81.157106	-0.147350	-90.197538
5.600000	-0.149528	-90.911576	-48.371815	79.649503	-48.371815	79.649503	-0.149550	-90.924151
5.650000	-0.151759	-91.636558	-48.171481	78.142894	-48.171481	78.142894	-0.151781	-91.649236
5.700000	-0.154023	-92.360011	-47.973552	76.637280	-47.973552	76.637280	-0.154045	-92.372793
5.750000	-0.156314	-93.082216	-47.778353	75.132619	-47.778353	75.132619	-0.156337	-93.095103
5.800000	-0.158644	-93.802673	-47.585143	73.629293	-47.585143	73.629293	-0.158667	-93.815665
5.850000	-0.160996	-94.522153	-47.394882	72.126824	-47.394882	72.126824	-0.161020	-94.535251
5.900000	-0.163393	-95.239677	-47.206241	70.626070	-47.206241	70.626070	-0.163417	-95.252882
5.950000	-0.165808	-95.956486	-47.020729	69.126026	-47.020729	69.126026	-0.165832	-95.969798
6.000000	-0.168274	-96.671145	-46.836509	67.628111	-46.836509	67.628111	-0.168299	-96.684565
6.050000	-0.170752	-97.385338	-46.655566	66.130711	-46.655566	66.130711	-0.170779	-97.398867
6.100000	-0.173289	-98.097202	-46.475621	64.635883	-46.475621	64.635883	-0.173316	-98.110841
6.150000	-0.175833	-98.808838	-46.299071	63.141330	-46.299071	63.141330	-0.175861	-98.822587
6.200000	-0.178442	-99.517979	-46.123257	61.649811	-46.123257	61.649811	-0.178471	-99.531840
6.250000	-0.181052	-100.227120	-45.950932	60.158291	-45.950932	60.158291	-0.181082	-100.241093
6.300000	-0.183735	-100.933615	-45.779106	58.670274	-45.779106	58.670274	-0.183766	-100.947701
6.350000	-0.186419	-101.640109	-45.610614	57.182258	-45.610614	57.182258	-0.186450	-101.654309
6.400000	-0.189171	-102.344250	-45.442865	55.697604	-45.442865	55.697604	-0.189204	-102.358565
6.450000	-0.191930	-103.048177	-45.278073	54.213255	-45.278073	54.213255	-0.191964	-103.062608
6.500000	-0.194753	-103.750032	-45.114234	52.732073	-45.114234	52.732073	-0.194788	-103.764580
6.550000	-0.197590	-104.451474	-44.953013	51.251524	-44.953013	51.251524	-0.197625	-104.466139
6.600000	-0.200484	-105.151114	-44.792924	49.773896	-44.792924	49.773896	-0.200521	-105.165898
6.650000	-0.203399	-105.850154	-44.635142	48.297242	-44.635142	48.297242	-0.203437	-105.865057
6.700000	-0.206367	-106.547651	-44.478650	46.823222	-44.478650	46.823222	-0.206406	-106.562676
6.750000	-0.209362	-107.244378	-44.324179	45.350520	-44.324179	45.350520	-0.209403	-107.259523
6.800000	-0.212405	-107.939807	-44.171134	43.880132	-44.171134	43.880132	-0.212446	-107.955075
6.850000	-0.215481	-108.634310	-44.019847	42.411398	-44.019847	42.411398	-0.215524	-108.649701
6.900000	-0.218600	-109.327747	-43.870106	40.944636	-43.870106	40.944636	-0.218643	-109.343264
6.950000	-0.221760	-110.020120	-43.721877	39.479846	-43.721877	39.479846	-0.221805	-110.035761
7.000000	-0.224955	-110.711644	-43.575301	38.016670	-43.575301	38.016670	-0.225001	-110.727412
7.050000	-0.228200	-111.401981	-43.430008	36.555754	-43.430008	36.555754	-0.228247	-111.417877
7.100000	-0.231474	-112.091673	-43.286463	35.096092	-43.286463	35.096092	-0.231522	-112.107697
7.150000	-0.234805	-112.780074	-43.143988	33.638938	-43.143988	33.638938	-0.234854	-112.796228
7.200000	-0.238159	-113.468015	-43.003346	32.182685	-43.003346	32.182685	-0.238209	-113.484300
7.250000	-0.241579	-114.154580	-42.863572	30.729135	-42.863572	30.729135	-0.241630	-114.170997
7.300000	-0.245014	-114.840856	-42.725711	29.276151	-42.725711	29.276151	-0.245066	-114.857405
7.350000	-0.248523	-115.525688	-42.588525	27.826001	-42.588525	27.826001	-0.248576	-115.542372
7.400000	-0.252041	-116.210385	-42.453327	26.376113	-42.453327	26.376113	-0.252095	-116.227203
7.450000	-0.255642	-116.893591	-42.318623	24.929115	-42.318623	24.929115	-0.255696	-116.910545
7.500000	-0.259244	-117.576797	-42.185976	23.482117	-42.185976	23.482117	-0.259299	-117.593888
7.550000	-0.262938	-118.258485	-42.053651	22.037976	-42.053651	22.037976	-0.262993	-118.275715
7.600000	-0.266633	-118.940173	-41.923312	20.593836	-41.923312	20.593836	-0.266689	-118.957542
7.650000	-0.270414	-119.620572	-41.793408	19.152006	-41.793408	19.152006	-0.270471	-119.638081
7.700000	-0.274205	-120.300854	-41.665284	17.710386	-41.665284	17.710386	-0.274261	-120.318504
7.750000	-0.278074	-120.980059	-41.537702	16.270550	-41.537702	16.270550	-0.278131	-120.997851
7.800000	-0.281961	-121.659048	-41.411708	14.831070	-41.411708	14.831070	-0.282019	-121.676983
7.850000	-0.285921	-122.337155	-41.286358	13.392879	-41.286358	13.392879	-0.285979	-122.355235
7.900000	-0.289907	-123.014967	-41.162413	11.955117	-41.162413	11.955117	-0.289965	-123.033193
7.950000	-0.293958	-123.692075	-41.039212	10.518193	-41.039212	10.518193	-0.294017	-123.710447
8.000000	-0.298044	-124.368830	-40.917243	9.081688	-40.917243	9.081688	-0.298103	-124.387350
8.050000	-0.302189	-125.045039	-40.796117	7.645624	-40.796117	7.645624	-0.302248	-125.063708
8.100000	-0.306377	-125.720859	-40.676060	6.209875	-40.676060	6.209875	-0.306436	-125.739676
8.150000	-0.310617	-126.396272	-40.556940	4.774238	-40.556940	4.774238	-0.310676	-126.415240
8.200000	-0.314910	-127.071279	-40.438739	3.338713	-40.438739	3.338713	-0.314969	-127.090400
8.250000	-0.319246	-127.746001	-40.321565	1.903044	-40.321565	1.903044	-0.319306	-127.765274
8.300000	-0.323644	-128.420323	-40.205175	0.467176	-40.205175	0.467176	-0.323704	-128.439750
8.350000	-0.328079	-129.094460	-40.089895	-0.969006	-40.089895	-0.969006	-0.328140	-129.114042
8.400000	-0.332586	-129.768226	-39.975278	-2.405813	-39.975278	-2.405813	-0.332647	-129.787964
8.450000	-0.337121	-130.441887	-39.861849	-3.843009	-39.861849	-3.843009	-0.337183	-130.461781
8.500000	-0.341737	-131.115229	-39.748980	-5.281374	-39.748980	-5.281374	-0.341800	-131.135281
8.550000	-0.346374	-131.788523	-39.637369	-6.720105	-39.637369	-6.720105	-0.346438	-131.808734
8.600000	-0.351103	-132.461576	-39.526233	-8.160668	-39.526233	-8.160668	-0.351168	-132.481948
8.650000	-0.355844	-133.134617	-39.416413	-9.601468	-39.416413	-9.601468	-0.355910	-133.155149
8.700000	-0.360687	-133.807518	-39.307008	-11.044884	-39.307008	-11.044884	-0.360756	-133.828212
8.750000	-0.365533	-134.480420	-39.198963	-12.488300	-39.198963	-12.488300	-0.365604	-134.501276
8.800000	-0.370493	-135.153309	-39.091299	-13.935236	-39.091299	-13.935236	-0.370567	-135.174330
8.850000	-0.375456	-135.826199	-38.984953	-15.382171	-38.984953	-15.382171	-0.375533	-135.847384
8.900000	-0.380525	-136.499210	-38.879123	-16.832947	-38.879123	-16.832947	-0.380606	-136.520561
8.950000	-0.385607	-137.172231	-38.774498	-18.284071	-38.774498	-18.284071	-0.385692	-137.193749
9.000000	-0.390789	-137.845483	-38.670520	-19.739242	-38.670520	-19.739242	-0.390878	-137.867169
9.050000	-0.395992	-138.518782	-38.567653	-21.195222	-38.567653	-21.195222	-0.396087	-138.540636
9.100000	-0.401287	-139.192400	-38.465554	-22.655336	-38.465554	-22.655336	-0.401389	-139.214424
9.150000	-0.406615	-139.866125	-38.364497	-24.116829	-38.364497	-24.116829	-0.406723	-139.888319
9.200000	-0.412026	-140.540235	-38.264314	-25.582421	-38.264314	-25.582421	-0.412142	-140.562600
9.250000	-0.417480	-141.214538	-38.165132	-27.050064	-38.165132	-27.050064	-0.417605	-141.237075
9.300000	-0.423009	-141.889268	-38.066915	-28.521650	-38.066915	-28.521650	-0.423143	-141.911978
9.350000	-0.428592	-142.564303	-37.969687	-29.996052	-37.969687	-29.996052	-0.428738	-142.587188
9.400000	-0.434241	-143.239783	-37.873496	-31.474120	-37.873496	-31.474120	-0.434399	-143.262843
9.450000	-0.439956	-143.915709	-37.778319	-32.955853	-37.778319	-32.955853	-0.440127	-143.938945
9.500000	-0.445728	-144.592073	-37.684224	-34.440860	-37.684224	-34.440860	-0.445914	-144.615485
9.550000	-0.451577	-145.269051	-37.591207	-35.930448	-37.591207	-35.930448	-0.451780	-145.292640
9.600000	-0.457474	-145.946433	-37.499290	-37.422809	-37.499290	-37.422809	-0.457695	-145.970201
9.650000	-0.463461	-146.624627	-37.408559	-38.920714	-37.408559	-38.920714	-0.463702	-146.648574
9.700000	-0.469485	-147.303166	-37.318911	-40.420796	-37.318911	-40.420796	-0.469747	-147.327293
9.750000	-0.475613	-147.982743	-37.230607	-41.927409	-37.230607	-41.927409	-0.475899	-148.007051
9.800000	-0.481767	-148.662579	-37.143330	-43.435524	-37.143330	-43.435524	-0.482078	-148.687069
9.850000	-0.488037	-149.343710	-37.057606	-44.951149	-37.057606	-44.951149	-0.488377	-149.368383
9.900000	-0.494324	-150.024985	-36.972811	-46.467543	-36.972811	-46.467543	-0.494693	-150.049841
9.950000	-0.500741	-150.707845	-36.889834	-47.992386	-36.889834	-47.992386	-0.501145	-150.732886
10.000000	-0.507163	-151.390705	-36.807643	-49.517230	-36.807643	-49.517230	-0.507601	-151.415931
