! freq	dB(S11)	phase(S11)	dB(S12)	phase(S12)	
!     	dB(S21)	phase(S21)	dB(S22)	phase(S22)	
!S-par simulation data
#  GHz  S  DB  R 50
0.000000	-163.628297	0.000000	-0.000000	0.000000	0.000000	0.000000	-6153.053111	0.000000
0.050000	-36.930803	-92.653028	-0.007806	-3.216925	-0.007806	-3.216925	-36.927267	-92.286182
0.100000	-30.975718	-96.485094	-0.015420	-6.389971	-0.015420	-6.389971	-30.971461	-95.749539
0.150000	-27.492706	-100.093045	-0.024262	-9.556434	-0.024262	-9.556434	-27.486759	-98.993014
0.200000	-25.031957	-103.598797	-0.034664	-12.715661	-0.034664	-12.715661	-25.024559	-102.127929
0.250000	-23.133800	-107.050514	-0.046375	-15.868979	-0.046375	-15.868979	-23.125557	-105.195505
0.300000	-21.592339	-110.474289	-0.059279	-19.018585	-0.059279	-19.018585	-21.583881	-108.216516
0.350000	-20.297620	-113.886150	-0.073399	-22.166235	-0.073399	-22.166235	-20.289529	-111.203576
0.400000	-19.184273	-117.296264	-0.088821	-25.313005	-0.088821	-25.313005	-19.177119	-114.164620
0.450000	-18.209775	-120.710848	-0.105571	-28.459492	-0.105571	-28.459492	-18.204110	-117.105519
0.500000	-17.345398	-124.133707	-0.123671	-31.606025	-0.123671	-31.606025	-17.341731	-120.029721
0.550000	-16.570700	-127.567425	-0.143107	-34.752857	-0.143107	-34.752857	-16.569409	-122.939520
0.600000	-15.870638	-131.014163	-0.163837	-37.900274	-0.163837	-37.900274	-15.871834	-125.836380
0.650000	-15.234011	-134.476454	-0.185823	-41.048667	-0.185823	-41.048667	-15.237380	-128.720699
0.700000	-14.651926	-137.956959	-0.208988	-44.198543	-0.208988	-44.198543	-14.656567	-131.591669
0.750000	-14.117096	-141.458300	-0.233232	-47.350499	-0.233232	-47.350499	-14.121537	-134.446555
0.800000	-13.623745	-144.983658	-0.258475	-50.505275	-0.258475	-50.505275	-13.626176	-137.280135
0.850000	-13.167070	-148.536437	-0.284633	-53.663741	-0.284633	-53.663741	-13.165831	-140.086292
0.900000	-12.743013	-152.120227	-0.311628	-56.826895	-0.311628	-56.826895	-12.737053	-142.860556
0.950000	-12.348175	-155.739110	-0.339391	-59.995921	-0.339391	-59.995921	-12.337192	-145.601358
1.000000	-11.979668	-159.397824	-0.367865	-63.172244	-0.367865	-63.172244	-11.963907	-148.309420
1.050000	-11.634573	-163.099549	-0.396977	-66.357096	-0.396977	-66.357096	-11.614493	-150.987482
1.100000	-11.310515	-166.848551	-0.426684	-69.551984	-0.426684	-69.551984	-11.286550	-153.636840
1.150000	-11.005353	-170.649284	-0.456958	-72.758543	-0.456958	-72.758543	-10.977815	-156.257945
1.200000	-10.717131	-174.506399	-0.487789	-75.978536	-0.487789	-75.978536	-10.686198	-158.850594
1.250000	-10.444044	-178.424745	-0.519186	-79.213864	-0.519186	-79.213864	-10.409773	-161.414207
1.300000	-10.184555	177.588177	-0.551200	-82.467242	-0.551200	-82.467242	-10.146898	-163.947008
1.350000	-9.936851	173.529255	-0.583876	-85.740344	-0.583876	-85.740344	-9.895699	-166.449304
1.400000	-9.699393	169.393096	-0.617304	-89.035542	-0.617304	-89.035542	-9.654584	-168.920545
1.450000	-9.470690	165.174181	-0.651604	-92.355381	-0.651604	-92.355381	-9.422025	-171.360415
1.500000	-9.249282	160.866911	-0.686932	-95.702589	-0.686932	-95.702589	-9.196534	-173.768906
1.550000	-9.033729	156.465662	-0.723484	-99.080081	-0.723484	-99.080081	-8.976650	-176.146405
1.600000	-8.822547	151.962137	-0.761536	-102.491919	-0.761536	-102.491919	-8.760861	-178.493027
1.650000	-8.614267	147.352390	-0.801367	-105.940980	-0.801367	-105.940980	-8.547700	179.189187
1.700000	-8.407464	142.632069	-0.843307	-109.430507	-0.843307	-109.430507	-8.335744	176.897813
1.750000	-8.200705	137.796308	-0.887763	-112.964232	-0.887763	-112.964232	-8.123569	174.629897
1.800000	-7.992567	132.840703	-0.935207	-116.546081	-0.935207	-116.546081	-7.909768	172.381588
1.850000	-7.781646	127.761448	-0.986191	-120.180166	-0.986191	-120.180166	-7.692966	170.148026
1.900000	-7.566391	122.553249	-1.041434	-123.871818	-1.041434	-123.871818	-7.471639	167.923274
1.950000	-7.345427	117.213854	-1.101714	-127.625690	-1.101714	-127.625690	-7.244467	165.699769
2.000000	-7.117713	111.744361	-1.167828	-131.445357	-1.167828	-131.445357	-7.010480	163.468846
2.050000	-6.882176	106.144819	-1.240770	-135.335445	-1.240770	-135.335445	-6.768685	161.220730
2.100000	-6.637918	100.416508	-1.321678	-139.300593	-1.321678	-139.300593	-6.518272	158.944426
2.150000	-6.384263	94.562003	-1.411852	-143.345370	-1.411852	-143.345370	-6.258661	156.627829
2.200000	-6.120636	88.584205	-1.512869	-147.474950	-1.512869	-147.474950	-5.989385	154.257316
2.250000	-5.846605	82.486597	-1.626662	-151.695131	-1.626662	-151.695131	-5.710123	151.817428
2.300000	-5.562898	76.278986	-1.754884	-156.007381	-1.754884	-156.007381	-5.421711	149.295473
2.350000	-5.270172	69.969259	-1.899674	-160.414725	-1.899674	-160.414725	-5.124901	146.677440
2.400000	-4.969479	63.566462	-2.063419	-164.919359	-2.063419	-164.919359	-4.820831	143.949863
2.450000	-4.662404	57.081366	-2.248593	-169.521570	-2.248593	-169.521570	-4.511149	141.101457
2.500000	-4.350364	50.523236	-2.458619	-174.223732	-2.458619	-174.223732	-4.197335	138.117952
2.550000	-4.035638	43.904875	-2.696780	-179.023981	-2.696780	-179.023981	-3.881700	134.990125
2.600000	-3.720983	37.240676	-2.966173	176.083064	-2.966173	176.083064	-3.566987	131.714174
2.650000	-3.409090	30.544760	-3.270504	171.103151	-3.270504	171.103151	-3.255869	128.286904
2.700000	-3.102736	23.832171	-3.614153	166.043215	-3.614153	166.043215	-2.951092	124.706065
2.750000	-2.804878	17.119402	-4.000989	160.914855	-4.000989	160.914855	-2.655544	120.977078
2.800000	-2.518271	10.423386	-4.435465	155.730926	-4.435465	155.730926	-2.371907	117.106724
2.850000	-2.245578	3.762444	-4.922657	150.506322	-4.922657	150.506322	-2.102772	113.103415
2.900000	-1.989076	-2.845218	-5.467423	145.258982	-5.467423	145.258982	-1.850326	108.981026
2.950000	-1.750556	-9.381888	-6.075050	140.008307	-6.075050	140.008307	-1.616265	104.755628
3.000000	-1.531406	-15.829873	-6.751757	134.774871	-6.751757	134.774871	-1.401897	100.443749
3.050000	-1.332545	-22.172244	-7.504799	129.580550	-7.504799	129.580550	-1.208066	96.062826
3.100000	-1.154418	-28.393279	-8.342971	124.448470	-8.342971	124.448470	-1.035150	91.630528
3.150000	-0.997325	-34.476325	-9.277363	119.405278	-9.277363	119.405278	-0.883395	87.163801
3.200000	-0.860845	-40.408745	-10.322167	114.479655	-10.322167	114.479655	-0.752328	82.679648
3.250000	-0.743873	-46.183141	-11.497176	109.702457	-11.497176	109.702457	-0.640801	78.193343
3.300000	-0.645343	-51.792092	-12.830768	105.115577	-12.830768	105.115577	-0.547717	73.717840
3.350000	-0.564136	-57.228826	-14.364815	100.783338	-14.364815	100.783338	-0.471933	69.264473
3.400000	-0.498730	-62.491668	-16.166016	96.808963	-16.166016	96.808963	-0.411910	64.842263
3.450000	-0.447674	-67.579733	-18.347195	93.397242	-18.347195	93.397242	-0.366183	60.458388
3.500000	-0.409492	-72.494151	-21.120710	91.032113	-21.120710	91.032113	-0.333269	56.118217
3.550000	-0.382746	-77.237645	-24.953708	91.230614	-24.953708	91.230614	-0.311725	51.825500
3.600000	-0.366068	-81.814250	-31.096627	102.204422	-31.096627	102.204422	-0.300179	47.582580
3.650000	-0.358179	-86.229047	-37.216210	175.259816	-37.216210	175.259816	-0.297352	43.390611
3.700000	-0.357909	-90.487901	-29.377951	-136.104651	-29.377951	-136.104651	-0.302075	39.249771
3.750000	-0.364197	-94.597245	-24.591838	-130.794450	-24.591838	-130.794450	-0.313290	35.159459
3.800000	-0.376200	-98.560933	-21.603298	-131.273067	-21.603298	-131.273067	-0.330157	31.119505
3.850000	-0.392949	-102.389226	-19.477257	-133.331403	-19.477257	-133.331403	-0.351713	27.127119
3.900000	-0.413720	-106.089185	-17.850630	-136.025611	-17.850630	-136.025611	-0.377240	23.180295
3.950000	-0.437887	-109.667822	-16.548150	-139.013214	-16.548150	-139.013214	-0.406122	19.276803
4.000000	-0.464916	-113.132023	-15.472176	-142.143124	-15.472176	-142.143124	-0.437831	15.414271
4.050000	-0.494348	-116.488487	-14.562781	-145.339916	-14.562781	-145.339916	-0.471919	11.590242
4.100000	-0.525801	-119.743680	-13.780542	-148.562813	-13.780542	-148.562813	-0.508014	7.802220
4.150000	-0.558953	-122.903814	-13.098138	-151.788660	-13.098138	-151.788660	-0.545807	4.047704
4.200000	-0.593543	-125.974821	-12.495851	-155.003990	-12.495851	-155.003990	-0.585048	0.324204
4.250000	-0.629356	-128.962351	-11.958985	-158.200976	-11.958985	-158.200976	-0.625537	-3.370739
4.300000	-0.666224	-131.871767	-11.476289	-161.375234	-11.476289	-161.375234	-0.667119	-7.039553
4.350000	-0.704015	-134.708149	-11.038964	-164.524551	-11.038964	-164.524551	-0.709679	-10.684629
4.400000	-0.742639	-137.475609	-10.640169	-167.647847	-10.640169	-167.647847	-0.753146	-14.308124
4.450000	-0.782029	-140.178828	-10.274155	-170.745278	-10.274155	-170.745278	-0.797468	-17.912451
4.500000	-0.822139	-142.822811	-9.936083	-173.817918	-9.936083	-173.817918	-0.842619	-21.500163
4.550000	-0.862954	-145.411578	-9.622096	-176.866974	-9.622096	-176.866974	-0.888605	-25.073572
4.600000	-0.904527	-147.944814	-9.329708	-179.892203	-9.329708	-179.892203	-0.935511	-28.634203
4.650000	-0.946787	-150.435080	-9.054483	177.100832	-9.054483	177.100832	-0.983268	-32.186292
4.700000	-0.989826	-152.880776	-8.795057	174.112423	-8.795057	174.112423	-1.032003	-35.731081
4.750000	-1.033703	-155.285086	-8.549407	171.140605	-8.549407	171.140605	-1.081802	-39.271010
4.800000	-1.078455	-157.652515	-8.315598	168.182821	-8.315598	168.182821	-1.132721	-42.808534
4.850000	-1.124246	-159.982437	-8.092543	165.238145	-8.092543	165.238145	-1.184976	-46.346286
4.900000	-1.171137	-162.279554	-7.878631	162.303620	-7.878631	162.303620	-1.238653	-49.887070
4.950000	-1.219245	-164.546390	-7.672691	159.376971	-7.672691	159.376971	-1.293906	-53.433752
5.000000	-1.268697	-166.785327	-7.473694	156.455846	-7.473694	156.455846	-1.350905	-56.989367
5.050000	-1.319662	-168.998108	-7.280753	153.537814	-7.280753	153.537814	-1.409876	-60.557504
5.100000	-1.372270	-171.187459	-7.093024	150.620211	-7.093024	150.620211	-1.470998	-64.141483
5.150000	-1.426687	-173.355385	-6.909810	147.700369	-6.909810	147.700369	-1.534498	-67.745119
5.200000	-1.483088	-175.503782	-6.730506	144.775475	-6.730506	144.775475	-1.600628	-71.372600
5.250000	-1.541657	-177.634451	-6.554595	141.842535	-6.554595	141.842535	-1.669660	-75.028573
5.300000	-1.602584	-179.749104	-6.381652	138.898327	-6.381652	138.898327	-1.741892	-78.718260
5.350000	-1.666061	178.150609	-6.211349	135.939340	-6.211349	135.939340	-1.817650	-82.447625
5.400000	-1.732273	176.063075	-6.043469	132.961687	-6.043469	132.961687	-1.897289	-86.223604
5.450000	-1.801384	173.986659	-5.877935	129.960982	-5.877935	129.960982	-1.981203	-90.054460
5.500000	-1.873516	171.919610	-5.714856	126.932157	-5.714856	126.932157	-2.069825	-93.950332
5.550000	-1.948709	169.859871	-5.554614	123.869181	-5.554614	123.869181	-2.163648	-97.924137
5.600000	-2.026852	167.804710	-5.398016	120.764628	-5.398016	120.764628	-2.263256	-101.993124
5.650000	-2.107573	165.749874	-5.246663	117.608288	-5.246663	117.608288	-2.369476	-106.183446
5.700000	-2.189913	163.687503	-5.103670	114.386898	-5.103670	114.386898	-2.483533	-110.534533
5.750000	-2.271871	161.601604	-4.975174	111.083423	-4.975174	111.083423	-2.607782	-115.110837
5.800000	-2.349440	159.453786	-4.874895	107.676640	-4.874895	107.676640	-2.748680	-120.038597
5.850000	-2.415854	157.146865	-4.834008	104.168435	-4.834008	104.168435	-2.926326	-125.561116
5.900000	-2.465922	154.298995	-4.959536	100.827244	-4.959536	100.827244	-3.248848	-132.365860
5.950000	-2.661767	149.743656	-5.397310	100.841447	-5.397310	100.841447	-4.359752	-140.238162
6.000000	-3.531550	147.983998	-4.371458	104.179516	-4.371458	104.179516	-5.529056	-133.243218
6.050000	-3.703852	149.128516	-3.611690	97.722278	-3.611690	97.722278	-4.628267	-134.643269
6.100000	-3.763423	148.171964	-3.377635	92.402221	-3.377635	92.402221	-4.433010	-140.531927
6.150000	-3.886500	146.687245	-3.212701	87.937261	-3.212701	87.937261	-4.508430	-146.469597
6.200000	-4.054566	145.107885	-3.056610	83.782468	-3.056610	83.782468	-4.690216	-152.373807
6.250000	-4.256236	143.553419	-2.901199	79.734156	-2.901199	79.734156	-4.933832	-158.360671
6.300000	-4.486315	142.079944	-2.746174	75.699856	-2.746174	75.699856	-5.224372	-164.528606
6.350000	-4.741958	140.725169	-2.592853	71.632688	-2.592853	71.632688	-5.556227	-170.952407
6.400000	-5.021778	139.526093	-2.442821	67.506176	-2.442821	67.506176	-5.928302	-177.702871
6.450000	-5.324430	138.523455	-2.297764	63.303417	-2.297764	63.303417	-6.340876	175.146211
6.500000	-5.647876	137.763790	-2.159447	59.013009	-2.159447	59.013009	-6.794277	167.512238
6.550000	-5.988652	137.299945	-2.029731	54.627189	-2.029731	54.627189	-7.287680	159.299247
6.600000	-6.341060	137.189958	-1.910574	50.140988	-1.910574	50.140988	-7.817623	150.394661
6.650000	-6.696262	137.493519	-1.804036	45.551875	-1.804036	45.551875	-8.375898	140.668738
6.700000	-7.040992	138.269801	-1.712417	40.858687	-1.712417	40.858687	-8.946128	129.969501
6.750000	-7.357487	139.553458	-1.637893	36.064204	-1.637893	36.064204	-9.500491	118.165434
6.800000	-7.623979	141.343179	-1.582595	31.173634	-1.582595	31.173634	-9.997261	105.177835
6.850000	-7.816239	143.586915	-1.548659	26.194130	-1.548659	26.194130	-10.381281	91.039782
6.900000	-7.911531	146.167420	-1.538098	21.135244	-1.538098	21.135244	-10.593382	75.972146
6.950000	-7.893765	148.905724	-1.552727	16.008778	-1.552727	16.008778	-10.589186	60.405051
7.000000	-7.758087	151.585800	-1.594097	10.828507	-1.594097	10.828507	-10.358757	44.895133
7.050000	-7.512608	153.994714	-1.663432	5.609776	-1.663432	5.609776	-9.932044	29.961735
7.100000	-7.175866	155.959440	-1.761717	0.368975	-1.761717	0.368975	-9.364598	15.953905
7.150000	-6.772803	157.371863	-1.889520	-4.876697	-1.889520	-4.876697	-8.717811	3.011510
7.200000	-6.330056	158.201211	-2.046596	-10.110320	-2.046596	-10.110320	-8.044061	-8.899367
7.250000	-5.870187	158.464458	-2.232597	-15.315974	-2.232597	-15.315974	-7.379025	-19.881618
7.300000	-5.410971	158.211655	-2.446851	-20.479054	-2.446851	-20.479054	-6.744840	-30.062816
7.350000	-4.965197	157.509161	-2.688431	-25.586684	-2.688431	-25.586684	-6.153608	-39.566601
7.400000	-4.541292	156.427643	-2.956227	-30.628001	-2.956227	-30.628001	-5.610724	-48.501214
7.450000	-4.144235	155.034756	-3.249033	-35.594298	-3.249033	-35.594298	-5.117391	-56.957142
7.500000	-3.776457	153.391369	-3.565627	-40.479035	-3.565627	-40.479035	-4.672333	-65.008678
7.550000	-3.438858	151.547913	-3.904955	-45.276444	-3.904955	-45.276444	-4.273271	-72.712486
7.600000	-3.130662	149.551898	-4.265802	-49.985177	-4.265802	-49.985177	-3.916478	-80.124257
7.650000	-2.850546	147.439470	-4.647335	-54.604297	-4.647335	-54.604297	-3.598321	-87.285678
7.700000	-2.596768	145.239961	-5.048961	-59.134162	-5.048961	-59.134162	-3.315177	-94.232145
7.750000	-2.367384	142.976873	-5.470364	-63.576115	-5.470364	-63.576115	-3.063570	-100.994143
7.800000	-2.160392	140.668829	-5.911541	-67.932165	-5.911541	-67.932165	-2.840252	-107.598278
7.850000	-1.973823	138.330422	-6.372831	-72.204676	-6.372831	-72.204676	-2.642240	-114.068028
7.900000	-1.805806	135.972963	-6.854946	-76.396056	-6.854946	-76.396056	-2.466819	-120.424284
7.950000	-1.654720	133.605086	-7.358934	-80.507709	-7.358934	-80.507709	-2.311697	-126.685007
8.000000	-1.518878	131.233480	-7.886370	-84.541595	-7.886370	-84.541595	-2.174574	-132.867750
8.050000	-1.396768	128.863009	-8.439346	-88.498695	-8.439346	-88.498695	-2.053418	-138.988002
8.100000	-1.287093	126.497196	-9.020485	-92.378279	-9.020485	-92.378279	-1.946495	-145.059252
8.150000	-1.188699	124.138560	-9.633052	-96.177812	-9.633052	-96.177812	-1.852262	-151.093547
8.200000	-1.100565	121.788850	-10.281080	-99.892351	-10.281080	-99.892351	-1.769350	-157.101556
8.250000	-1.021789	119.449241	-10.969524	-103.513718	-10.969524	-103.513718	-1.696538	-163.092621
8.300000	-0.951582	117.120477	-11.704482	-107.029346	-11.704482	-107.029346	-1.632740	-169.074779
8.350000	-0.889283	114.803059	-12.493435	-110.419855	-12.493435	-110.419855	-1.577019	-175.054797
8.400000	-0.834312	112.497286	-13.345712	-113.656403	-13.345712	-113.656403	-1.528527	178.961761
8.450000	-0.786069	110.203155	-14.273323	-116.699348	-14.273323	-116.699348	-1.486411	172.970751
8.500000	-0.744089	107.920709	-15.291502	-119.487871	-15.291502	-119.487871	-1.449973	166.969331
8.550000	-0.707963	105.649971	-16.420077	-121.929211	-16.420077	-121.929211	-1.418579	160.955934
8.600000	-0.677325	103.390970	-17.685243	-123.876998	-17.685243	-123.876998	-1.391656	154.930249
8.650000	-0.651848	101.143769	-19.121894	-125.089825	-19.121894	-125.089825	-1.368684	148.893203
8.700000	-0.631230	98.908468	-20.775840	-125.147307	-20.775840	-125.147307	-1.349188	142.846912
8.750000	-0.615194	96.685214	-22.701631	-123.271281	-22.701631	-123.271281	-1.332741	136.794630
8.800000	-0.603533	94.474370	-24.928434	-117.850162	-24.928434	-117.850162	-1.318984	130.740719
8.850000	-0.595929	92.275973	-27.310485	-105.962345	-27.310485	-105.962345	-1.307525	124.690577
8.900000	-0.592132	90.090244	-29.031679	-84.561503	-29.031679	-84.561503	-1.298050	118.650342
8.950000	-0.591898	87.917394	-28.737705	-59.088556	-28.737705	-59.088556	-1.290281	112.626845
9.000000	-0.594981	85.757605	-26.839429	-41.096103	-26.839429	-41.096103	-1.283974	106.627455
9.050000	-0.601137	83.611004	-24.683729	-31.841408	-24.683729	-31.841408	-1.278920	100.659917
9.100000	-0.610121	81.477651	-22.777281	-27.799015	-22.777281	-27.799015	-1.274940	94.732183
9.150000	-0.621690	79.357515	-21.170114	-26.568378	-21.170114	-26.568378	-1.271888	88.852237
9.200000	-0.635624	77.250589	-19.815987	-26.928924	-19.815987	-26.928924	-1.269657	83.028549
9.250000	-0.651673	75.156562	-18.663272	-28.232130	-18.663272	-28.232130	-1.268154	77.268559
9.300000	-0.669599	73.075015	-17.670207	-30.127420	-17.670207	-30.127420	-1.267315	71.579114
9.350000	-0.689189	71.005484	-16.805345	-32.411811	-16.805345	-32.411811	-1.267106	65.966777
9.400000	-0.710241	68.947405	-16.045031	-34.958503	-16.045031	-34.958503	-1.267514	60.437463
9.450000	-0.732588	66.900319	-15.371729	-37.686681	-15.371729	-37.686681	-1.268556	54.998171
9.500000	-0.756048	64.863383	-14.771113	-40.537613	-14.771113	-40.537613	-1.270250	49.652533
9.550000	-0.780402	62.835077	-14.230247	-43.466143	-14.230247	-43.466143	-1.272574	44.396150
9.600000	-0.805659	60.816118	-13.744199	-46.455336	-13.744199	-46.455336	-1.275701	39.248861
9.650000	-0.831568	58.804108	-13.301559	-49.475216	-13.301559	-49.475216	-1.279543	34.193396
9.700000	-0.858139	56.799487	-12.899755	-52.515074	-12.899755	-52.515074	-1.284306	29.248649
9.750000	-0.885224	54.800575	-12.531269	-55.561355	-12.531269	-55.561355	-1.289942	24.401274
9.800000	-0.912795	52.807055	-12.193142	-58.605624	-12.193142	-58.605624	-1.296601	19.659040
9.850000	-0.940795	50.818123	-11.881409	-61.641366	-11.881409	-61.641366	-1.304341	15.019192
9.900000	-0.969173	48.832972	-11.592428	-64.664079	-11.592428	-64.664079	-1.313202	10.476497
9.950000	-0.997930	46.851371	-11.324620	-67.668616	-11.324620	-67.668616	-1.323385	6.038733
10.000000	-1.027005	44.872356	-11.073941	-70.655216	-11.073941	-70.655216	-1.334778	1.688623
