! freq	dB(S11)	phase(S11)	dB(S12)	phase(S12)	
!     	dB(S21)	phase(S21)	dB(S22)	phase(S22)	
!S-par simulation data
#  GHz  S  DB  R 50
0.000000	-0.000000	-0.000000	-373.883486	180.000000	-373.883486	180.000000	-0.000000	0.000000
0.050000	-0.000500	-0.776248	-112.050624	89.092651	-112.050624	89.092651	-0.000739	-1.167223
0.100000	-0.001663	-1.548676	-106.077916	88.188473	-106.077916	88.188473	-0.002495	-2.329019
0.150000	-0.002973	-2.316967	-102.635619	87.292612	-102.635619	87.292612	-0.004531	-3.484665
0.200000	-0.004167	-3.082589	-100.252958	86.415276	-100.252958	86.415276	-0.006430	-4.636099
0.250000	-0.005234	-3.847043	-98.455513	85.565781	-98.455513	85.565781	-0.008140	-5.785577
0.300000	-0.006202	-4.610927	-97.042900	84.760175	-97.042900	84.760175	-0.009686	-6.934030
0.350000	-0.007115	-5.374565	-95.906482	84.016237	-95.906482	84.016237	-0.011124	-8.081981
0.400000	-0.008006	-6.138080	-94.983640	83.355189	-94.983640	83.355189	-0.012503	-9.229618
0.450000	-0.008897	-6.901484	-94.243075	82.811772	-94.243075	82.811772	-0.013854	-10.376921
0.500000	-0.009798	-7.664760	-93.649323	82.403208	-93.649323	82.403208	-0.015198	-11.523840
0.550000	-0.010714	-8.427863	-93.185228	82.160699	-93.185228	82.160699	-0.016545	-12.670268
0.600000	-0.011643	-9.190735	-92.839397	82.122866	-92.839397	82.122866	-0.017899	-13.816084
0.650000	-0.012584	-9.953314	-92.604443	82.338872	-92.604443	82.338872	-0.019263	-14.961164
0.700000	-0.013532	-10.715532	-92.475814	82.872583	-92.475814	82.872583	-0.020636	-16.105389
0.750000	-0.014484	-11.477290	-92.457041	83.840045	-92.457041	83.840045	-0.022019	-17.248579
0.800000	-0.015439	-12.238513	-92.544900	85.374237	-92.544900	85.374237	-0.023409	-18.390616
0.850000	-0.016392	-12.999143	-92.731855	87.644863	-92.731855	87.644863	-0.024806	-19.531420
0.900000	-0.017344	-13.759169	-93.002203	90.806968	-93.002203	90.806968	-0.026209	-20.670995
0.950000	-0.018295	-14.518505	-93.340411	95.188330	-93.340411	95.188330	-0.027616	-21.809188
1.000000	-0.019244	-15.277105	-93.702642	101.124159	-93.702642	101.124159	-0.029027	-22.945922
1.050000	-0.020191	-16.034932	-94.007904	108.918692	-94.007904	108.918692	-0.030441	-24.081131
1.100000	-0.021139	-16.791957	-94.129690	118.650314	-94.129690	118.650314	-0.031859	-25.214753
1.150000	-0.022087	-17.548156	-93.919016	129.881008	-93.919016	129.881008	-0.033278	-26.346736
1.200000	-0.023036	-18.303510	-93.277595	141.524449	-93.277595	141.524449	-0.034700	-27.477031
1.250000	-0.023987	-19.058003	-92.230280	152.246904	-92.230280	152.246904	-0.036123	-28.605594
1.300000	-0.024939	-19.811585	-90.890515	161.075506	-90.890515	161.075506	-0.037547	-29.732308
1.350000	-0.025893	-20.564282	-89.426507	167.920403	-89.426507	167.920403	-0.038972	-30.857214
1.400000	-0.026850	-21.316086	-87.941030	173.026562	-87.941030	173.026562	-0.040398	-31.980280
1.450000	-0.027808	-22.066988	-86.491112	176.739573	-86.491112	176.739573	-0.041823	-33.101476
1.500000	-0.028767	-22.816979	-85.103060	179.377807	-85.103060	179.377807	-0.043249	-34.220776
1.550000	-0.029729	-23.566052	-83.786031	-178.803797	-83.786031	-178.803797	-0.044673	-35.338153
1.600000	-0.030691	-24.314199	-82.540574	-177.612222	-82.540574	-177.612222	-0.046098	-36.453585
1.650000	-0.031655	-25.061411	-81.363305	-176.904216	-81.363305	-176.904216	-0.047521	-37.567048
1.700000	-0.032620	-25.807679	-80.249294	-176.573727	-80.249294	-176.573727	-0.048943	-38.678522
1.750000	-0.033585	-26.552995	-79.193240	-176.541764	-79.193240	-176.541764	-0.050365	-39.787987
1.800000	-0.034551	-27.297349	-78.190009	-176.748887	-78.190009	-176.748887	-0.051786	-40.895423
1.850000	-0.035518	-28.040732	-77.234856	-177.149829	-77.234856	-177.149829	-0.053206	-42.000813
1.900000	-0.036486	-28.783133	-76.323500	-177.709684	-76.323500	-177.709684	-0.054626	-43.104137
1.950000	-0.037454	-29.524543	-75.452125	-178.401204	-75.452125	-178.401204	-0.056045	-44.205381
2.000000	-0.038423	-30.264950	-74.617346	-179.202864	-74.617346	-179.202864	-0.057464	-45.304526
2.050000	-0.039393	-31.004345	-73.816162	179.902531	-73.816162	179.902531	-0.058883	-46.401559
2.100000	-0.040364	-31.742715	-73.045919	178.928859	-73.045919	178.928859	-0.060302	-47.496464
2.150000	-0.041336	-32.480051	-72.304258	177.887436	-72.304258	177.887436	-0.061723	-48.589228
2.200000	-0.042310	-33.216339	-71.589080	176.787566	-71.589080	176.787566	-0.063145	-49.679837
2.250000	-0.043285	-33.951570	-70.898514	175.636972	-70.898514	175.636972	-0.064568	-50.768279
2.300000	-0.044262	-34.685732	-70.230882	174.442109	-70.230882	174.442109	-0.065994	-51.854541
2.350000	-0.045241	-35.418812	-69.584678	173.208414	-69.584678	173.208414	-0.067423	-52.938614
2.400000	-0.046223	-36.150799	-68.958546	171.940498	-68.958546	171.940498	-0.068855	-54.020486
2.450000	-0.047207	-36.881682	-68.351258	170.642296	-68.351258	170.642296	-0.070292	-55.100150
2.500000	-0.048195	-37.611449	-67.761702	169.317188	-67.761702	169.317188	-0.071733	-56.177595
2.550000	-0.049186	-38.340039	-67.187954	167.967164	-67.187954	167.967164	-0.073179	-57.252719
2.600000	-0.050182	-39.067488	-66.630100	166.595880	-66.630100	166.595880	-0.074632	-58.325610
2.650000	-0.051181	-39.793786	-66.087284	165.205504	-66.087284	165.205504	-0.076091	-59.396263
2.700000	-0.052185	-40.518921	-65.558722	163.797941	-65.558722	163.797941	-0.077557	-60.464674
2.750000	-0.053194	-41.242882	-65.043693	162.374870	-65.043693	162.374870	-0.079032	-61.530840
2.800000	-0.054209	-41.965658	-64.541533	160.937775	-64.541533	160.937775	-0.080515	-62.594756
2.850000	-0.055229	-42.687238	-64.051628	159.487976	-64.051628	159.487976	-0.082007	-63.656424
2.900000	-0.056255	-43.407611	-63.573411	158.026648	-63.573411	158.026648	-0.083510	-64.715840
2.950000	-0.057288	-44.126768	-63.106356	156.554843	-63.106356	156.554843	-0.085023	-65.773008
3.000000	-0.058328	-44.844697	-62.649973	155.073504	-62.649973	155.073504	-0.086548	-66.827927
3.050000	-0.059376	-45.561389	-62.203806	153.583479	-62.203806	153.583479	-0.088085	-67.880601
3.100000	-0.060431	-46.276835	-61.767431	152.085535	-61.767431	152.085535	-0.089635	-68.931034
3.150000	-0.061494	-46.991024	-61.340449	150.580366	-61.340449	150.580366	-0.091198	-69.979231
3.200000	-0.062565	-47.703947	-60.922488	149.068601	-60.922488	149.068601	-0.092776	-71.025198
3.250000	-0.063646	-48.415595	-60.513200	147.550813	-60.513200	147.550813	-0.094368	-72.068942
3.300000	-0.064736	-49.125961	-60.112256	146.027524	-60.112256	146.027524	-0.095976	-73.110471
3.350000	-0.065835	-49.835034	-59.719349	144.499212	-59.719349	144.499212	-0.097601	-74.149796
3.400000	-0.066945	-50.542807	-59.334188	142.966314	-59.334188	142.966314	-0.099242	-75.186926
3.450000	-0.068065	-51.249273	-58.956500	141.429232	-58.956500	141.429232	-0.100901	-76.221873
3.500000	-0.069195	-51.954423	-58.586025	139.888336	-58.586025	139.888336	-0.102578	-77.254651
3.550000	-0.070337	-52.658251	-58.222519	138.343967	-58.222519	138.343967	-0.104274	-78.285274
3.600000	-0.071491	-53.360749	-57.865750	136.796439	-57.865750	136.796439	-0.105989	-79.313755
3.650000	-0.072656	-54.061911	-57.515500	135.246043	-57.515500	135.246043	-0.107725	-80.340113
3.700000	-0.073834	-54.761731	-57.171559	133.693051	-57.171559	133.693051	-0.109481	-81.364365
3.750000	-0.075024	-55.460202	-56.833729	132.137712	-56.833729	132.137712	-0.111259	-82.386528
3.800000	-0.076228	-56.157260	-56.501532	130.580177	-56.501532	130.580177	-0.113060	-83.406533
3.850000	-0.077446	-56.852958	-56.175102	129.020764	-56.175102	129.020764	-0.114884	-84.424494
3.900000	-0.078678	-57.547291	-55.854266	127.459673	-55.854266	127.459673	-0.116731	-85.440430
3.950000	-0.079923	-58.240254	-55.538861	125.897092	-55.538861	125.897092	-0.118602	-86.454367
4.000000	-0.081183	-58.931844	-55.228731	124.333196	-55.228731	124.333196	-0.120498	-87.466327
4.050000	-0.082459	-59.622056	-54.923726	122.768149	-54.923726	122.768149	-0.122418	-88.476336
4.100000	-0.083749	-60.310887	-54.623702	121.202106	-54.623702	121.202106	-0.124365	-89.484421
4.150000	-0.085055	-60.998332	-54.328525	119.635210	-54.328525	119.635210	-0.126337	-90.490609
4.200000	-0.086378	-61.684390	-54.038062	118.067598	-54.038062	118.067598	-0.128336	-91.494928
4.250000	-0.087716	-62.369058	-53.752188	116.499398	-53.752188	116.499398	-0.130363	-92.497409
4.300000	-0.089072	-63.052332	-53.470784	114.930729	-53.470784	114.930729	-0.132418	-93.498081
4.350000	-0.090445	-63.734212	-53.193735	113.361706	-53.193735	113.361706	-0.134501	-94.496977
4.400000	-0.091835	-64.414695	-52.920928	111.792436	-52.920928	111.792436	-0.136613	-95.494130
4.450000	-0.093243	-65.093780	-52.652260	110.223019	-52.652260	110.223019	-0.138755	-96.489572
4.500000	-0.094669	-65.771466	-52.387627	108.653551	-52.387627	108.653551	-0.140926	-97.483338
4.550000	-0.096114	-66.447752	-52.126931	107.084123	-52.126931	107.084123	-0.143129	-98.475465
4.600000	-0.097579	-67.122637	-51.870078	105.514819	-51.870078	105.514819	-0.145362	-99.465989
4.650000	-0.099062	-67.796123	-51.616977	103.945721	-51.616977	103.945721	-0.147627	-100.454948
4.700000	-0.100566	-68.468208	-51.367540	102.376905	-51.367540	102.376905	-0.149925	-101.442380
4.750000	-0.102089	-69.138894	-51.121683	100.808444	-51.121683	100.808444	-0.152255	-102.428325
4.800000	-0.103633	-69.808181	-50.879325	99.240407	-50.879325	99.240407	-0.154618	-103.412823
4.850000	-0.105198	-70.476070	-50.640387	97.672858	-50.640387	97.672858	-0.157014	-104.395917
4.900000	-0.106784	-71.142563	-50.404793	96.105861	-50.404793	96.105861	-0.159445	-105.377648
4.950000	-0.108392	-71.807661	-50.172470	94.539473	-50.172470	94.539473	-0.161911	-106.358059
5.000000	-0.110022	-72.471367	-49.943348	92.973751	-49.943348	92.973751	-0.164411	-107.337196
5.050000	-0.111675	-73.133622	-49.717239	91.408781	-49.717239	91.408781	-0.166949	-108.315052
5.100000	-0.113351	-73.794490	-49.494204	89.844584	-49.494204	89.844584	-0.169523	-109.291728
5.150000	-0.115051	-74.453973	-49.274180	88.281208	-49.274180	88.281208	-0.172133	-110.267272
5.200000	-0.116774	-75.112076	-49.057103	86.718698	-49.057103	86.718698	-0.174780	-111.241732
5.250000	-0.118521	-75.768800	-48.842914	85.157097	-48.842914	85.157097	-0.177465	-112.215157
5.300000	-0.120292	-76.424151	-48.631554	83.596447	-48.631554	83.596447	-0.180188	-113.187596
5.350000	-0.122088	-77.078133	-48.422967	82.036785	-48.422967	82.036785	-0.182948	-114.159100
5.400000	-0.123910	-77.730748	-48.217099	80.478148	-48.217099	80.478148	-0.185748	-115.129721
5.450000	-0.125757	-78.382004	-48.013897	78.920573	-48.013897	78.920573	-0.188587	-116.099511
5.500000	-0.127629	-79.031903	-47.813309	77.364091	-47.813309	77.364091	-0.191466	-117.068523
5.550000	-0.129529	-79.680451	-47.615286	75.808736	-47.615286	75.808736	-0.194384	-118.036811
5.600000	-0.131454	-80.327655	-47.419779	74.254537	-47.419779	74.254537	-0.197344	-119.004430
5.650000	-0.133407	-80.973519	-47.226743	72.701522	-47.226743	72.701522	-0.200344	-119.971436
5.700000	-0.135388	-81.618049	-47.036130	71.149720	-47.036130	71.149720	-0.203385	-120.937886
5.750000	-0.137396	-82.261252	-46.847899	69.599155	-46.847899	69.599155	-0.206468	-121.903836
5.800000	-0.139433	-82.903134	-46.662006	68.049853	-46.662006	68.049853	-0.209593	-122.869345
5.850000	-0.141498	-83.543701	-46.478409	66.501837	-46.478409	66.501837	-0.212761	-123.834472
5.900000	-0.143593	-84.182962	-46.297070	64.955130	-46.297070	64.955130	-0.215971	-124.799277
5.950000	-0.145717	-84.820922	-46.117947	63.409751	-46.117947	63.409751	-0.219225	-125.763820
6.000000	-0.147871	-85.457590	-45.941005	61.865722	-45.941005	61.865722	-0.222523	-126.728163
6.050000	-0.150055	-86.092973	-45.766205	60.323060	-45.766205	60.323060	-0.225864	-127.692369
6.100000	-0.152270	-86.727079	-45.593513	58.781785	-45.593513	58.781785	-0.229250	-128.656499
6.150000	-0.154516	-87.359916	-45.422893	57.241914	-45.422893	57.241914	-0.232681	-129.620619
6.200000	-0.156793	-87.991493	-45.254313	55.703461	-45.254313	55.703461	-0.236156	-130.584793
6.250000	-0.159103	-88.621818	-45.087739	54.166444	-45.087739	54.166444	-0.239678	-131.549086
6.300000	-0.161446	-89.250846	-44.923090	52.630940	-44.923090	52.630940	-0.243246	-132.513575
6.350000	-0.163822	-89.878642	-44.760389	51.096900	-44.760389	51.096900	-0.246861	-133.478324
6.400000	-0.166230	-90.505213	-44.599605	49.564338	-44.599605	49.564338	-0.250523	-134.443400
6.450000	-0.168673	-91.130571	-44.440710	48.033267	-44.440710	48.033267	-0.254231	-135.408871
6.500000	-0.171149	-91.754724	-44.283674	46.503697	-44.283674	46.503697	-0.257986	-136.374807
6.550000	-0.173660	-92.377683	-44.128471	44.975640	-44.128471	44.975640	-0.261789	-137.341279
6.600000	-0.176205	-92.999457	-43.975073	43.449106	-43.975073	43.449106	-0.265639	-138.308358
6.650000	-0.178785	-93.620057	-43.823455	41.924107	-43.823455	41.924107	-0.269538	-139.276115
6.700000	-0.181401	-94.239495	-43.673590	40.400651	-43.673590	40.400651	-0.273484	-140.244624
6.750000	-0.184053	-94.857780	-43.525456	38.878748	-43.525456	38.878748	-0.277479	-141.213958
6.800000	-0.186741	-95.474923	-43.379028	37.358406	-43.379028	37.358406	-0.281523	-142.184191
6.850000	-0.189466	-96.090937	-43.234282	35.839635	-43.234282	35.839635	-0.285615	-143.155399
6.900000	-0.192227	-96.705831	-43.091197	34.322442	-43.091197	34.322442	-0.289757	-144.127657
6.950000	-0.195027	-97.319619	-42.949751	32.806835	-42.949751	32.806835	-0.293948	-145.101042
7.000000	-0.197864	-97.932311	-42.809922	31.292822	-42.809922	31.292822	-0.298189	-146.075632
7.050000	-0.200739	-98.543920	-42.671690	29.780410	-42.671690	29.780410	-0.302480	-147.051505
7.100000	-0.203653	-99.154459	-42.535035	28.269606	-42.535035	28.269606	-0.306821	-148.028740
7.150000	-0.206606	-99.763938	-42.399938	26.760418	-42.399938	26.760418	-0.311212	-149.007417
7.200000	-0.209598	-100.372372	-42.266380	25.252852	-42.266380	25.252852	-0.315653	-149.987616
7.250000	-0.212630	-100.979772	-42.134343	23.746915	-42.134343	23.746915	-0.320145	-150.969420
7.300000	-0.215702	-101.586153	-42.003810	22.242614	-42.003810	22.242614	-0.324687	-151.952910
7.350000	-0.218814	-102.191526	-41.874763	20.739956	-41.874763	20.739956	-0.329281	-152.938170
7.400000	-0.221968	-102.795906	-41.747185	19.238947	-41.747185	19.238947	-0.333925	-153.925282
7.450000	-0.225162	-103.399306	-41.621062	17.739594	-41.621062	17.739594	-0.338619	-154.914333
7.500000	-0.228398	-104.001740	-41.496377	16.241904	-41.496377	16.241904	-0.343365	-155.905406
7.550000	-0.231678	-104.603181	-41.373101	14.745956	-41.373101	14.745956	-0.348164	-156.898685
7.600000	-0.235000	-105.203685	-41.251237	13.251686	-41.251237	13.251686	-0.353014	-157.894168
7.650000	-0.238365	-105.803266	-41.130769	11.759102	-41.130769	11.759102	-0.357916	-158.891943
7.700000	-0.241773	-106.401940	-41.011685	10.268209	-41.011685	10.268209	-0.362868	-159.892099
7.750000	-0.245225	-106.999721	-40.893971	8.779016	-40.893971	8.779016	-0.367871	-160.894725
7.800000	-0.248720	-107.596623	-40.777614	7.291532	-40.777614	7.291532	-0.372925	-161.899910
7.850000	-0.252259	-108.192663	-40.662603	5.805764	-40.662603	5.805764	-0.378030	-162.907747
7.900000	-0.255842	-108.787855	-40.548925	4.321721	-40.548925	4.321721	-0.383186	-163.918325
7.950000	-0.259470	-109.382214	-40.436568	2.839411	-40.436568	2.839411	-0.388392	-164.931739
8.000000	-0.263144	-109.975757	-40.325522	1.358846	-40.325522	1.358846	-0.393649	-165.948079
8.050000	-0.266862	-110.568500	-40.215776	-0.119967	-40.215776	-0.119967	-0.398956	-166.967441
8.100000	-0.270626	-111.160458	-40.107320	-1.597017	-40.107320	-1.597017	-0.404313	-167.989918
8.150000	-0.274437	-111.751647	-40.000143	-3.072292	-40.000143	-3.072292	-0.409720	-169.015605
8.200000	-0.278293	-112.342085	-39.894236	-4.545782	-39.894236	-4.545782	-0.415177	-170.044599
8.250000	-0.282197	-112.931788	-39.789589	-6.017475	-39.789589	-6.017475	-0.420682	-171.076995
8.300000	-0.286147	-113.520772	-39.686195	-7.487359	-39.686195	-7.487359	-0.426237	-172.112890
8.350000	-0.290144	-114.109055	-39.584043	-8.955420	-39.584043	-8.955420	-0.431840	-173.152382
8.400000	-0.294189	-114.696654	-39.483127	-10.421645	-39.483127	-10.421645	-0.437492	-174.195569
8.450000	-0.298282	-115.283586	-39.383437	-11.886020	-39.383437	-11.886020	-0.443191	-175.242549
8.500000	-0.302422	-115.869870	-39.284966	-13.348530	-39.284966	-13.348530	-0.448937	-176.293422
8.550000	-0.306611	-116.455523	-39.187708	-14.809159	-39.187708	-14.809159	-0.454730	-177.348287
8.600000	-0.310849	-117.040562	-39.091653	-16.267891	-39.091653	-16.267891	-0.460568	-178.407244
8.650000	-0.315135	-117.625007	-38.996797	-17.724710	-38.996797	-17.724710	-0.466453	-179.470394
8.700000	-0.319470	-118.208876	-38.903131	-19.179596	-38.903131	-19.179596	-0.472382	179.462162
8.750000	-0.323855	-118.792187	-38.810650	-20.632533	-38.810650	-20.632533	-0.478356	178.390323
8.800000	-0.328291	-119.374937	-38.719358	-22.083412	-38.719358	-22.083412	-0.484374	177.313787
8.850000	-0.332778	-119.957169	-38.629240	-23.532300	-38.629240	-23.532300	-0.490435	176.232642
8.900000	-0.337314	-120.538903	-38.540291	-24.979175	-38.540291	-24.979175	-0.496538	175.146788
8.950000	-0.341900	-121.120159	-38.452505	-26.424015	-38.452505	-26.424015	-0.502681	174.056121
9.000000	-0.346537	-121.700955	-38.365878	-27.866797	-38.365878	-27.866797	-0.508864	172.960539
9.050000	-0.351224	-122.281313	-38.280402	-29.307497	-38.280402	-29.307497	-0.515086	171.859940
9.100000	-0.355962	-122.861252	-38.196075	-30.746090	-38.196075	-30.746090	-0.521346	170.754220
9.150000	-0.360752	-123.440793	-38.112891	-32.182551	-38.112891	-32.182551	-0.527642	169.643278
9.200000	-0.365592	-124.019957	-38.030845	-33.616854	-38.030845	-33.616854	-0.533974	168.527010
9.250000	-0.370483	-124.598764	-37.949933	-35.048970	-37.949933	-35.048970	-0.540339	167.405315
9.300000	-0.375427	-125.177237	-37.870150	-36.478872	-37.870150	-36.478872	-0.546738	166.278091
9.350000	-0.380421	-125.755396	-37.791493	-37.906529	-37.791493	-37.906529	-0.553168	165.145236
9.400000	-0.385468	-126.333263	-37.713958	-39.331912	-37.713958	-39.331912	-0.559627	164.006649
9.450000	-0.390566	-126.910861	-37.637539	-40.754990	-37.637539	-40.754990	-0.566116	162.862229
9.500000	-0.395716	-127.488212	-37.562234	-42.175730	-37.562234	-42.175730	-0.572631	161.711876
9.550000	-0.400918	-128.065337	-37.488039	-43.594099	-37.488039	-43.594099	-0.579171	160.555490
9.600000	-0.406172	-128.642261	-37.414949	-45.010063	-37.414949	-45.010063	-0.585734	159.392974
9.650000	-0.411479	-129.219005	-37.342962	-46.423588	-37.342962	-46.423588	-0.592319	158.224228
9.700000	-0.416838	-129.795594	-37.272073	-47.834636	-37.272073	-47.834636	-0.598924	157.049156
9.750000	-0.422249	-130.372052	-37.202280	-49.243172	-37.202280	-49.243172	-0.605546	155.867663
9.800000	-0.427713	-130.948401	-37.133578	-50.649157	-37.133578	-50.649157	-0.612184	154.679655
9.850000	-0.433229	-131.524667	-37.065964	-52.052553	-37.065964	-52.052553	-0.618835	153.485037
9.900000	-0.438797	-132.100874	-36.999434	-53.453321	-36.999434	-53.453321	-0.625498	152.283718
9.950000	-0.444418	-132.677046	-36.933986	-54.851420	-36.933986	-54.851420	-0.632169	151.075609
10.000000	-0.450091	-133.253210	-36.869615	-56.246808	-36.869615	-56.246808	-0.638846	149.860621
