! freq	dB(S11)	phase(S11)	dB(S12)	phase(S12)	
!     	dB(S21)	phase(S21)	dB(S22)	phase(S22)	
!S-par simulation data
#  GHz  S  DB  R 50
0.000000	-0.000000	0.000000	-309.624257	0.000000	-309.624257	0.000000	-0.000000	0.000000
0.050000	-0.000127	-1.269856	-85.231469	175.869736	-85.231469	175.869736	-0.000154	-1.104185
0.100000	-0.000505	-2.539431	-84.841912	161.412461	-84.841912	161.412461	-0.000609	-2.207956
0.150000	-0.001124	-3.808456	-84.333024	150.296932	-84.333024	150.296932	-0.001341	-3.310935
0.200000	-0.001968	-5.076694	-83.732854	140.875533	-83.732854	140.875533	-0.002316	-4.412823
0.250000	-0.003032	-6.343851	-83.087057	132.854453	-83.087057	132.854453	-0.003506	-5.513295
0.300000	-0.004277	-7.609826	-82.442754	125.883625	-82.442754	125.883625	-0.004852	-6.612319
0.350000	-0.005687	-8.874411	-81.821762	119.835300	-81.821762	119.835300	-0.006323	-7.709754
0.400000	-0.007239	-10.137469	-81.239771	114.551322	-81.239771	114.551322	-0.007881	-8.805565
0.450000	-0.008911	-11.398889	-80.705469	109.901886	-80.705469	109.901886	-0.009497	-9.899765
0.500000	-0.010678	-12.658588	-80.223143	105.783793	-80.223143	105.783793	-0.011144	-10.992394
0.550000	-0.012520	-13.916507	-79.794474	102.117063	-79.794474	102.117063	-0.012803	-12.083505
0.600000	-0.014417	-15.172607	-79.419686	98.841130	-79.419686	98.841130	-0.014460	-13.173160
0.650000	-0.016351	-16.426862	-79.098265	95.911397	-79.098265	95.911397	-0.016104	-14.261415
0.700000	-0.018308	-17.679262	-78.829376	93.296438	-78.829376	93.296438	-0.017730	-15.348323
0.750000	-0.020273	-18.929804	-78.612113	90.975920	-78.612113	90.975920	-0.019333	-16.433925
0.800000	-0.022238	-20.178488	-78.445621	88.939173	-78.445621	88.939173	-0.020913	-17.518255
0.850000	-0.024192	-21.425320	-78.329150	87.184342	-78.329150	87.184342	-0.022468	-18.601334
0.900000	-0.026131	-22.670306	-78.262042	85.718058	-78.262042	85.718058	-0.023999	-19.683174
0.950000	-0.028047	-23.913452	-78.243661	84.555580	-78.243661	84.555580	-0.025509	-20.763781
1.000000	-0.029939	-25.154761	-78.273258	83.721357	-78.273258	83.721357	-0.026998	-21.843151
1.050000	-0.031804	-26.394234	-78.349744	83.249988	-78.349744	83.249988	-0.028468	-22.921275
1.100000	-0.033640	-27.631871	-78.471325	83.187470	-78.471325	83.187470	-0.029922	-23.998140
1.150000	-0.035447	-28.867667	-78.634943	83.592523	-78.634943	83.592523	-0.031361	-25.073728
1.200000	-0.037225	-30.101613	-78.835442	84.537523	-78.835442	84.537523	-0.032788	-26.148019
1.250000	-0.038975	-31.333700	-79.064345	86.108095	-79.064345	86.108095	-0.034202	-27.220989
1.300000	-0.040697	-32.563832	-79.307558	88.435315	-79.307558	88.435315	-0.035607	-28.292553
1.350000	-0.042393	-33.792075	-79.542610	91.584784	-79.542610	91.584784	-0.037003	-29.362745
1.400000	-0.044067	-35.018409	-79.739053	95.622639	-79.739053	95.622639	-0.038391	-30.431536
1.450000	-0.045718	-36.242816	-79.857515	100.551610	-79.857515	100.551610	-0.039773	-31.498901
1.500000	-0.047349	-37.465275	-79.853651	106.268218	-79.853651	106.268218	-0.041150	-32.564813
1.550000	-0.048962	-38.685765	-79.687300	112.536637	-79.687300	112.536637	-0.042522	-33.629245
1.600000	-0.050559	-39.904262	-79.334631	119.008786	-79.334631	119.008786	-0.043890	-34.692170
1.650000	-0.052142	-41.120744	-78.796741	125.297756	-78.796741	125.297756	-0.045255	-35.753564
1.700000	-0.053712	-42.335190	-78.098808	131.070456	-78.098808	131.070456	-0.046617	-36.813401
1.750000	-0.055272	-43.547575	-77.280559	136.110229	-77.280559	136.110229	-0.047978	-37.871657
1.800000	-0.056822	-44.757878	-76.384476	140.327433	-76.384476	140.327433	-0.049337	-38.928308
1.850000	-0.058366	-45.966079	-75.447482	143.731480	-75.447482	143.731480	-0.050695	-39.983332
1.900000	-0.059904	-47.172157	-74.497598	146.390754	-74.497598	146.390754	-0.052053	-41.036707
1.950000	-0.061437	-48.376092	-73.554096	148.398836	-73.554096	148.398836	-0.053411	-42.088411
2.000000	-0.062968	-49.577867	-72.629209	149.852902	-72.629209	149.852902	-0.054769	-43.138425
2.050000	-0.064498	-50.777466	-71.730075	150.842623	-71.730075	150.842623	-0.056129	-44.186731
2.100000	-0.066027	-51.974873	-70.860392	151.445867	-70.860392	151.445867	-0.057491	-45.233309
2.150000	-0.067557	-53.170076	-70.021636	151.728066	-70.021636	151.728066	-0.058854	-46.278142
2.200000	-0.069090	-54.363062	-69.213904	151.743247	-69.213904	151.743247	-0.060220	-47.321216
2.250000	-0.070626	-55.553823	-68.436474	151.535648	-68.436474	151.535648	-0.061589	-48.362514
2.300000	-0.072166	-56.742351	-67.688157	151.141385	-67.688157	151.141385	-0.062962	-49.402023
2.350000	-0.073712	-57.928640	-66.967533	150.589955	-66.967533	150.589955	-0.064339	-50.439730
2.400000	-0.075264	-59.112687	-66.273086	149.905508	-66.273086	149.905508	-0.065721	-51.475622
2.450000	-0.076823	-60.294492	-65.603290	149.107889	-65.603290	149.107889	-0.067108	-52.509690
2.500000	-0.078390	-61.474055	-64.956663	148.213476	-64.956663	148.213476	-0.068500	-53.541922
2.550000	-0.079967	-62.651283	-64.330787	147.232759	-64.330787	147.232759	-0.069899	-54.572230
2.600000	-0.081553	-63.826280	-63.725467	146.180984	-63.725467	146.180984	-0.071305	-55.600686
2.650000	-0.083150	-64.999055	-63.139438	145.067414	-63.139438	145.067414	-0.072719	-56.627283
2.700000	-0.084758	-66.169620	-62.571533	143.899857	-62.571533	143.899857	-0.074141	-57.652015
2.750000	-0.086378	-67.337990	-62.020670	142.684924	-62.020670	142.684924	-0.075571	-58.674880
2.800000	-0.088011	-68.504180	-61.485854	141.428232	-61.485854	141.428232	-0.077011	-59.695872
2.850000	-0.089657	-69.668211	-60.966169	140.134573	-60.966169	140.134573	-0.078460	-60.714990
2.900000	-0.091318	-70.830107	-60.460768	138.808052	-60.460768	138.808052	-0.079920	-61.732233
2.950000	-0.092993	-71.989892	-59.968873	137.452194	-59.968873	137.452194	-0.081391	-62.747600
3.000000	-0.094684	-73.147597	-59.489765	136.070037	-59.489765	136.070037	-0.082874	-63.761092
3.050000	-0.096391	-74.303252	-59.022784	134.664207	-59.022784	134.664207	-0.084369	-64.772712
3.100000	-0.098115	-75.456894	-58.567315	133.236979	-58.567315	133.236979	-0.085877	-65.782462
3.150000	-0.099857	-76.608562	-58.122794	131.790330	-58.122794	131.790330	-0.087398	-66.790347
3.200000	-0.101618	-77.758298	-57.688696	130.325980	-57.688696	130.325980	-0.088934	-67.796372
3.250000	-0.103397	-78.906150	-57.264535	128.845431	-57.264535	128.845431	-0.090484	-68.800543
3.300000	-0.105197	-80.052166	-56.849860	127.349993	-56.849860	127.349993	-0.092050	-69.802868
3.350000	-0.107017	-81.196403	-56.444252	125.840814	-56.444252	125.840814	-0.093632	-70.803355
3.400000	-0.108859	-82.338919	-56.047321	124.318896	-56.047321	124.318896	-0.095230	-71.802014
3.450000	-0.110723	-83.479778	-55.658702	122.785121	-55.658702	122.785121	-0.096845	-72.798856
3.500000	-0.112611	-84.619050	-55.278056	121.240256	-55.278056	121.240256	-0.098479	-73.793892
3.550000	-0.114522	-85.756807	-54.905065	119.684977	-54.905065	119.684977	-0.100131	-74.787134
3.600000	-0.116459	-86.893131	-54.539432	118.119871	-54.539432	118.119871	-0.101802	-75.778598
3.650000	-0.118423	-88.028107	-54.180877	116.545451	-54.180877	116.545451	-0.103493	-76.768297
3.700000	-0.120413	-89.161829	-53.829139	114.962160	-53.829139	114.962160	-0.105204	-77.756249
3.750000	-0.122432	-90.294397	-53.483970	113.370381	-53.483970	113.370381	-0.106936	-78.742469
3.800000	-0.124482	-91.425880	-53.144838	111.770095	-53.144838	111.770095	-0.108690	-79.726903
3.850000	-0.126564	-92.556447	-52.811844	110.161938	-52.811844	110.161938	-0.110467	-80.709644
3.900000	-0.128678	-93.686227	-52.484776	108.546126	-52.484776	108.546126	-0.112266	-81.690715
3.950000	-0.130826	-94.815359	-52.163435	106.922827	-52.163435	106.922827	-0.114089	-82.670134
4.000000	-0.133011	-95.943997	-51.847629	105.292167	-51.847629	105.292167	-0.115936	-83.647927
4.050000	-0.135233	-97.072307	-51.537175	103.654222	-51.537175	103.654222	-0.117808	-84.624114
4.100000	-0.137496	-98.200473	-51.231898	102.009024	-51.231898	102.009024	-0.119704	-85.598722
4.150000	-0.139801	-99.328694	-50.931629	100.356557	-50.931629	100.356557	-0.121627	-86.571776
4.200000	-0.142151	-100.457194	-50.636204	98.696753	-50.636204	98.696753	-0.123576	-87.543302
4.250000	-0.144550	-101.586218	-50.345463	97.029488	-50.345463	97.029488	-0.125552	-88.513328
4.300000	-0.147001	-102.716040	-50.059250	95.354580	-50.059250	95.354580	-0.127555	-89.481882
4.350000	-0.149508	-103.846966	-49.777409	93.671778	-49.777409	93.671778	-0.129587	-90.448995
4.400000	-0.152076	-104.979340	-49.499788	91.980753	-49.499788	91.980753	-0.131647	-91.414696
4.450000	-0.154710	-106.113551	-49.226233	90.281088	-49.226233	90.281088	-0.133737	-92.379017
4.500000	-0.157417	-107.250041	-48.956588	88.572262	-48.956588	88.572262	-0.135857	-93.341990
4.550000	-0.160205	-108.389317	-48.690695	86.853631	-48.690695	86.853631	-0.138007	-94.303650
4.600000	-0.163084	-109.531962	-48.428389	85.124404	-48.428389	85.124404	-0.140188	-95.264031
4.650000	-0.166064	-110.678651	-48.169499	83.383614	-48.169499	83.383614	-0.142400	-96.223168
4.700000	-0.169161	-111.830176	-47.913842	81.630076	-47.913842	81.630076	-0.144645	-97.181098
4.750000	-0.172393	-112.987471	-47.661224	79.862339	-47.661224	79.862339	-0.146922	-98.137859
4.800000	-0.175780	-114.151644	-47.411430	78.078620	-47.411430	78.078620	-0.149233	-99.093488
4.850000	-0.179353	-115.324030	-47.164226	76.276713	-47.164226	76.276713	-0.151577	-100.048026
4.900000	-0.183148	-116.506249	-46.919344	74.453878	-46.919344	74.453878	-0.153955	-101.001513
4.950000	-0.187212	-117.700289	-46.676480	72.606680	-46.676480	72.606680	-0.156368	-101.953990
5.000000	-0.191611	-118.908625	-46.435281	70.730775	-46.435281	70.730775	-0.158817	-102.905501
5.050000	-0.196473	-120.136004	-46.194891	68.817463	-46.194891	68.817463	-0.161304	-103.856026
5.100000	-0.201888	-121.385129	-45.955254	66.862099	-45.955254	66.862099	-0.163826	-104.805691
5.150000	-0.208032	-122.661262	-45.715738	64.855065	-45.715738	64.855065	-0.166385	-105.754541
5.200000	-0.215059	-123.968218	-45.476172	62.789479	-45.476172	62.789479	-0.168978	-106.702675
5.250000	-0.223548	-125.322495	-45.234146	60.634443	-45.234146	60.634443	-0.171611	-107.650008
5.300000	-0.233978	-126.733892	-44.989105	58.371688	-44.989105	58.371688	-0.174281	-108.596667
5.350000	-0.247378	-128.224033	-44.738961	55.960380	-44.738961	55.960380	-0.176990	-109.542689
5.400000	-0.265509	-129.825233	-44.480991	53.338931	-44.480991	53.338931	-0.179738	-110.488126
5.450000	-0.291085	-131.578774	-44.212565	50.427555	-44.212565	50.427555	-0.182523	-111.433061
5.500000	-0.330388	-133.571474	-43.928136	47.056459	-43.928136	47.056459	-0.185346	-112.377540
5.550000	-0.396735	-135.949413	-43.621687	42.931563	-43.621687	42.931563	-0.188206	-113.321652
5.600000	-0.522642	-138.985811	-43.289413	37.474699	-43.289413	37.474699	-0.191103	-114.265523
5.650000	-0.810357	-143.273981	-42.949544	29.285339	-42.949544	29.285339	-0.194041	-115.209371
5.700000	-1.674172	-149.876085	-42.802726	14.503143	-42.802726	14.503143	-0.197065	-116.153700
5.750000	-5.111792	-152.310985	-44.675245	-17.899287	-44.675245	-17.899287	-0.200515	-117.098690
5.800000	-4.535263	-113.641996	-67.826390	-63.421538	-67.826390	-63.421538	-0.204192	-118.037505
5.850000	-1.598837	-117.970003	-49.816509	81.996693	-49.816509	81.996693	-0.207062	-118.977389
5.900000	-0.841236	-124.056561	-46.546930	68.663743	-46.546930	68.663743	-0.210061	-119.919407
5.950000	-0.575655	-128.078754	-45.260115	61.012713	-45.260115	61.012713	-0.213194	-120.861803
6.000000	-0.457448	-130.982500	-44.537546	55.813282	-44.537546	55.813282	-0.216415	-121.804332
6.050000	-0.395823	-133.288989	-44.044754	51.834098	-44.044754	51.834098	-0.219703	-122.747004
6.100000	-0.360607	-135.244887	-43.668092	48.550019	-43.668092	48.550019	-0.223049	-123.689872
6.150000	-0.339371	-136.978876	-43.358495	45.699624	-43.358495	45.699624	-0.226449	-124.633004
6.200000	-0.326016	-138.568679	-43.090458	43.129376	-43.090458	43.129376	-0.229901	-125.576457
6.250000	-0.317639	-140.056110	-42.851027	40.757978	-42.851027	40.757978	-0.233405	-126.520302
6.300000	-0.312552	-141.468753	-42.632256	38.532487	-42.632256	38.532487	-0.236961	-127.464621
6.350000	-0.309648	-142.827483	-42.428664	36.413105	-42.428664	36.413105	-0.240567	-128.409472
6.400000	-0.308297	-144.145282	-42.236905	34.375326	-42.236905	34.375326	-0.244225	-129.354926
6.450000	-0.308086	-145.431460	-42.054665	32.401700	-42.054665	32.401700	-0.247934	-130.301054
6.500000	-0.308775	-146.691728	-41.880480	30.481892	-41.880480	30.481892	-0.251697	-131.247969
6.550000	-0.310087	-147.933586	-41.712747	28.601499	-41.712747	28.601499	-0.255510	-132.195673
6.600000	-0.311926	-149.159818	-41.550754	26.755688	-41.550754	26.755688	-0.259375	-133.144269
6.650000	-0.314188	-150.373517	-41.393804	24.938845	-41.393804	24.938845	-0.263292	-134.093832
6.700000	-0.316799	-151.577149	-41.241351	23.146545	-41.241351	23.146545	-0.267262	-135.044438
6.750000	-0.319702	-152.772704	-41.092961	21.375253	-41.092961	21.375253	-0.271285	-135.996162
6.800000	-0.322852	-153.961815	-40.948286	19.622115	-40.948286	19.622115	-0.275362	-136.949082
6.850000	-0.326214	-155.145838	-40.807041	17.884797	-40.807041	17.884797	-0.279492	-137.903277
6.900000	-0.329763	-156.325910	-40.668990	16.161374	-40.668990	16.161374	-0.283677	-138.858826
6.950000	-0.333475	-157.503001	-40.533937	14.450245	-40.533937	14.450245	-0.287917	-139.815810
7.000000	-0.337335	-158.677943	-40.401717	12.750067	-40.401717	12.750067	-0.292211	-140.774311
7.050000	-0.341326	-159.851458	-40.272191	11.059706	-40.272191	11.059706	-0.296561	-141.734412
7.100000	-0.345438	-161.024180	-40.145238	9.378200	-40.145238	9.378200	-0.300967	-142.696195
7.150000	-0.349661	-162.196671	-40.020757	7.704727	-40.020757	7.704727	-0.305429	-143.659748
7.200000	-0.353987	-163.369431	-39.898660	6.038584	-39.898660	6.038584	-0.309947	-144.625155
7.250000	-0.358409	-164.542913	-39.778869	4.379165	-39.778869	4.379165	-0.314522	-145.592505
7.300000	-0.362920	-165.717526	-39.661320	2.725950	-39.661320	2.725950	-0.319154	-146.561885
7.350000	-0.367516	-166.893648	-39.545953	1.078490	-39.545953	1.078490	-0.323843	-147.533385
7.400000	-0.372193	-168.071625	-39.432719	-0.563599	-39.432719	-0.563599	-0.328590	-148.507097
7.450000	-0.376947	-169.251780	-39.321574	-2.200651	-39.321574	-2.200651	-0.333395	-149.483112
7.500000	-0.381774	-170.434415	-39.212479	-3.832947	-39.212479	-3.832947	-0.338258	-150.461524
7.550000	-0.386675	-171.619945	-39.105433	-5.460541	-39.105433	-5.460541	-0.343182	-151.442540
7.600000	-0.391643	-172.808532	-39.000379	-7.083835	-39.000379	-7.083835	-0.348165	-152.426151
7.650000	-0.396677	-174.000427	-38.897292	-8.702990	-38.897292	-8.702990	-0.353207	-153.412455
7.700000	-0.401775	-175.195877	-38.796151	-10.318136	-38.796151	-10.318136	-0.358308	-154.401550
7.750000	-0.406935	-176.395114	-38.696940	-11.929372	-38.696940	-11.929372	-0.363469	-155.393536
7.800000	-0.412154	-177.598366	-38.599642	-13.536770	-38.599642	-13.536770	-0.368689	-156.388514
7.850000	-0.417433	-178.805851	-38.504246	-15.140377	-38.504246	-15.140377	-0.373969	-157.386585
7.900000	-0.422769	179.982216	-38.410742	-16.740212	-38.410742	-16.740212	-0.379309	-158.387853
7.950000	-0.428161	178.765626	-38.319122	-18.336275	-38.319122	-18.336275	-0.384709	-159.392422
8.000000	-0.433609	177.544176	-38.229380	-19.928540	-38.229380	-19.928540	-0.390170	-160.400399
8.050000	-0.439111	176.317665	-38.141512	-21.516959	-38.141512	-21.516959	-0.395691	-161.411891
8.100000	-0.444667	175.085895	-38.055515	-23.101466	-38.055515	-23.101466	-0.401272	-162.427006
8.150000	-0.450275	173.848672	-37.971388	-24.681972	-37.971388	-24.681972	-0.406914	-163.445855
8.200000	-0.455935	172.605804	-37.889131	-26.258368	-37.889131	-26.258368	-0.412616	-164.468547
8.250000	-0.461647	171.357099	-37.808745	-27.830527	-37.808745	-27.830527	-0.418379	-165.495196
8.300000	-0.467410	170.102368	-37.730230	-29.398304	-37.730230	-29.398304	-0.424203	-166.525914
8.350000	-0.473224	168.841425	-37.653592	-30.961533	-37.653592	-30.961533	-0.430087	-167.560818
8.400000	-0.479089	167.574081	-37.578832	-32.520034	-37.578832	-32.520034	-0.436031	-168.600023
8.450000	-0.485003	166.300152	-37.505955	-34.073605	-37.505955	-34.073605	-0.442036	-169.643646
8.500000	-0.490968	165.019451	-37.434966	-35.622033	-37.434966	-35.622033	-0.448101	-170.691807
8.550000	-0.496983	163.731793	-37.365869	-37.165084	-37.365869	-37.165084	-0.454226	-171.744625
8.600000	-0.503048	162.436994	-37.298670	-38.702512	-37.298670	-38.702512	-0.460411	-172.802221
8.650000	-0.509164	161.134867	-37.233375	-40.234055	-37.233375	-40.234055	-0.466656	-173.864719
8.700000	-0.515329	159.825229	-37.169989	-41.759436	-37.169989	-41.759436	-0.472960	-174.932240
8.750000	-0.521546	158.507892	-37.108519	-43.278366	-37.108519	-43.278366	-0.479324	-176.004911
8.800000	-0.527815	157.182321	-37.049037	-44.790235	-37.049037	-44.790235	-0.485748	-177.083092
8.850000	-0.534136	155.848662	-36.991485	-46.295009	-36.991485	-46.295009	-0.492231	-178.166687
8.900000	-0.540508	154.506728	-36.935869	-47.792361	-36.935869	-47.792361	-0.498772	-179.255824
8.950000	-0.546932	153.156331	-36.882194	-49.281958	-36.882194	-49.281958	-0.505370	179.649367
9.000000	-0.553408	151.797282	-36.830467	-50.763456	-36.830467	-50.763456	-0.512026	178.548757
9.050000	-0.559937	150.429391	-36.780693	-52.236504	-36.780693	-52.236504	-0.518738	177.442214
9.100000	-0.566518	149.052467	-36.732877	-53.700747	-36.732877	-53.700747	-0.525505	176.329605
9.150000	-0.573153	147.666318	-36.687024	-55.155822	-36.687024	-55.155822	-0.532328	175.210797
9.200000	-0.579840	146.270750	-36.643139	-56.601365	-36.643139	-56.601365	-0.539205	174.085657
9.250000	-0.586579	144.865569	-36.601227	-58.037008	-36.601227	-58.037008	-0.546136	172.954050
9.300000	-0.593371	143.450581	-36.561292	-59.462385	-36.561292	-59.462385	-0.553120	171.815840
9.350000	-0.600215	142.025588	-36.523340	-60.877128	-36.523340	-60.877128	-0.560156	170.670892
9.400000	-0.607108	140.590394	-36.487373	-62.280873	-36.487373	-62.280873	-0.567242	169.519068
9.450000	-0.614051	139.144800	-36.453397	-63.673257	-36.453397	-63.673257	-0.574379	168.360232
9.500000	-0.621040	137.688608	-36.421415	-65.053926	-36.421415	-65.053926	-0.581565	167.194247
9.550000	-0.628074	136.221620	-36.391431	-66.422530	-36.391431	-66.422530	-0.588798	166.020974
9.600000	-0.635148	134.743637	-36.363449	-67.778729	-36.363449	-67.778729	-0.596078	164.840275
9.650000	-0.642260	133.254461	-36.337472	-69.122191	-36.337472	-69.122191	-0.603403	163.652014
9.700000	-0.649404	131.753894	-36.313504	-70.452597	-36.313504	-70.452597	-0.610771	162.456052
9.750000	-0.656575	130.241742	-36.291549	-71.769641	-36.291549	-71.769641	-0.618183	161.252251
9.800000	-0.663765	128.717810	-36.271609	-73.073032	-36.271609	-73.073032	-0.625634	160.040475
9.850000	-0.670966	127.181910	-36.253689	-74.362492	-36.253689	-74.362492	-0.633125	158.820585
9.900000	-0.678170	125.633856	-36.237790	-75.637766	-36.237790	-75.637766	-0.640654	157.592447
9.950000	-0.685365	124.073466	-36.223917	-76.898611	-36.223917	-76.898611	-0.648218	156.355924
10.000000	-0.692539	122.500568	-36.212073	-78.144811	-36.212073	-78.144811	-0.655816	155.110882
