! freq	dB(S11)	phase(S11)	dB(S12)	phase(S12)	
!     	dB(S21)	phase(S21)	dB(S22)	phase(S22)	
!S-par simulation data
#  GHz  S  DB  R 50
0.000000	-0.000000	0.000000	-348.962115	180.000000	-348.962115	180.000000	-0.000000	0.000000
0.050000	-0.000107	-0.846688	-115.290752	87.437956	-115.290752	87.437956	-0.000107	-0.846344
0.100000	-0.000422	-1.693118	-109.522524	85.884820	-109.522524	85.884820	-0.000422	-1.692431
0.150000	-0.000933	-2.539052	-106.253570	85.078203	-106.253570	85.078203	-0.000933	-2.538021
0.200000	-0.001620	-3.384293	-103.989868	84.575504	-103.989868	84.575504	-0.001620	-3.382917
0.250000	-0.002470	-4.228616	-102.292353	84.185555	-102.292353	84.185555	-0.002469	-4.226897
0.300000	-0.003441	-5.071982	-100.961787	83.847047	-100.961787	83.847047	-0.003440	-5.069920
0.350000	-0.004516	-5.914275	-99.904041	83.566811	-99.904041	83.566811	-0.004515	-5.911869
0.400000	-0.005671	-6.755447	-99.061849	83.368293	-99.061849	83.368293	-0.005669	-6.752699
0.450000	-0.006883	-7.595485	-98.399679	83.286151	-98.399679	83.286151	-0.006880	-7.592394
0.500000	-0.008133	-8.434395	-97.894867	83.364428	-97.894867	83.364428	-0.008129	-8.430963
0.550000	-0.009405	-9.272202	-97.533058	83.658807	-97.533058	83.658807	-0.009401	-9.268430
0.600000	-0.010687	-10.108937	-97.305591	84.241473	-97.305591	84.241473	-0.010682	-10.104826
0.650000	-0.011969	-10.944639	-97.207764	85.208719	-97.207764	85.208719	-0.011962	-10.940189
0.700000	-0.013243	-11.779343	-97.237271	86.692271	-97.237271	86.692271	-0.013236	-11.774556
0.750000	-0.014505	-12.613084	-97.392121	88.875646	-97.392121	88.875646	-0.014496	-12.607961
0.800000	-0.015752	-13.445891	-97.666883	92.016195	-97.666883	92.016195	-0.015742	-13.440432
0.850000	-0.016981	-14.277789	-98.045204	96.468799	-98.045204	96.468799	-0.016970	-14.271995
0.900000	-0.018192	-15.108795	-98.485294	102.690722	-98.485294	102.690722	-0.018180	-15.102668
0.950000	-0.019385	-15.938922	-98.896097	111.166277	-98.896097	111.166277	-0.019372	-15.932463
1.000000	-0.020561	-16.768177	-99.114329	122.141769	-99.114329	122.141769	-0.020547	-16.761386
1.050000	-0.021721	-17.596564	-98.926014	135.145972	-98.926014	135.145972	-0.021706	-17.589442
1.100000	-0.022865	-18.424079	-98.182882	148.692362	-98.182882	148.692362	-0.022850	-18.416627
1.150000	-0.023996	-19.250716	-96.931344	160.896411	-96.931344	160.896411	-0.023980	-19.242935
1.200000	-0.025114	-20.076468	-95.370452	170.643459	-95.370452	170.643459	-0.025097	-20.068358
1.250000	-0.026221	-20.901322	-93.698616	177.870585	-93.698616	177.870585	-0.026203	-20.892885
1.300000	-0.027317	-21.725225	-92.028414	-177.035342	-92.028414	-177.035342	-0.027299	-21.716460
1.350000	-0.028406	-22.548199	-90.431456	-173.456259	-90.431456	-173.456259	-0.028387	-22.539108
1.400000	-0.029487	-23.370227	-88.925743	-170.990104	-88.925743	-170.990104	-0.029467	-23.360811
1.450000	-0.030561	-24.191292	-87.512777	-169.343486	-87.512777	-169.343486	-0.030541	-24.181550
1.500000	-0.031630	-25.011374	-86.187275	-168.307624	-86.187275	-168.307624	-0.031609	-25.001309
1.550000	-0.032695	-25.830454	-84.941673	-167.734172	-84.941673	-167.734172	-0.032673	-25.820065
1.600000	-0.033756	-26.648512	-83.768105	-167.516727	-83.768105	-167.516727	-0.033734	-26.637801
1.650000	-0.034814	-27.465528	-82.659196	-167.577882	-82.659196	-167.577882	-0.034791	-27.454496
1.700000	-0.035869	-28.281103	-81.584378	-167.917583	-81.584378	-167.917583	-0.035845	-28.269751
1.750000	-0.036923	-29.096117	-80.596342	-168.357112	-80.596342	-168.357112	-0.036899	-29.084445
1.800000	-0.037976	-29.909779	-79.640819	-168.961472	-79.640819	-168.961472	-0.037951	-29.897787
1.850000	-0.039028	-30.722476	-78.736054	-169.683571	-78.736054	-169.683571	-0.039002	-30.710165
1.900000	-0.040080	-31.533970	-77.867051	-170.502200	-77.867051	-170.502200	-0.040054	-31.521342
1.950000	-0.041132	-32.344262	-77.032045	-171.417361	-77.032045	-171.417361	-0.041105	-32.331318
2.000000	-0.042184	-33.153517	-76.234766	-172.389735	-76.234766	-172.389735	-0.042157	-33.140258
2.050000	-0.043238	-33.961321	-75.459011	-173.442208	-75.459011	-173.442208	-0.043211	-33.947748
2.100000	-0.044293	-34.768487	-74.728444	-174.521075	-74.728444	-174.521075	-0.044265	-34.754599
2.150000	-0.045350	-35.573994	-74.010411	-175.665392	-74.010411	-175.665392	-0.045321	-35.559793
2.200000	-0.046409	-36.378246	-73.316338	-176.849913	-73.316338	-176.849913	-0.046380	-36.363734
2.250000	-0.047471	-37.181226	-72.644615	-178.069715	-72.644615	-178.069715	-0.047441	-37.166404
2.300000	-0.048535	-37.982917	-71.993798	-179.320630	-71.993798	-179.320630	-0.048504	-37.967785
2.350000	-0.049603	-38.783302	-71.362587	179.400900	-71.362587	179.400900	-0.049571	-38.767862
2.400000	-0.050674	-39.582365	-70.749803	178.097926	-70.749803	178.097926	-0.050642	-39.566618
2.450000	-0.051749	-40.380090	-70.154378	176.773083	-70.154378	176.773083	-0.051716	-40.364036
2.500000	-0.052828	-41.176462	-69.575340	175.428657	-69.575340	175.428657	-0.052795	-41.160103
2.550000	-0.053912	-41.971405	-69.010888	174.065960	-69.010888	174.065960	-0.053878	-41.954741
2.600000	-0.055001	-42.764963	-68.461213	172.687559	-68.461213	172.687559	-0.054966	-42.747997
2.650000	-0.056095	-43.557123	-67.925555	171.294968	-67.925555	171.294968	-0.056059	-43.539855
2.700000	-0.057194	-44.347871	-67.403218	169.889528	-67.403218	169.889528	-0.057158	-44.330302
2.750000	-0.058300	-45.137194	-66.893560	168.472429	-66.893560	168.472429	-0.058263	-45.119325
2.800000	-0.059412	-45.925078	-66.395986	167.044733	-66.395986	167.044733	-0.059374	-45.906910
2.850000	-0.060530	-46.711512	-65.909944	165.607391	-65.909944	165.607391	-0.060492	-46.693046
2.900000	-0.061656	-47.496483	-65.434923	164.161255	-65.434923	164.161255	-0.061617	-47.477721
2.950000	-0.062789	-48.279981	-64.970445	162.707093	-64.970445	162.707093	-0.062750	-48.260923
3.000000	-0.063930	-49.061993	-64.516068	161.245600	-64.516068	161.245600	-0.063890	-49.042641
3.050000	-0.065079	-49.842510	-64.071375	159.777403	-64.071375	159.777403	-0.065038	-49.822864
3.100000	-0.066237	-50.621521	-63.635979	158.303072	-63.635979	158.303072	-0.066195	-50.601583
3.150000	-0.067404	-51.399016	-63.209514	156.823127	-63.209514	156.823127	-0.067361	-51.378787
3.200000	-0.068580	-52.174986	-62.791639	155.338039	-62.791639	155.338039	-0.068537	-52.154468
3.250000	-0.069765	-52.949423	-62.382034	153.848244	-62.382034	153.848244	-0.069722	-52.928615
3.300000	-0.070961	-53.722317	-61.980394	152.354135	-61.980394	152.354135	-0.070917	-53.701222
3.350000	-0.072170	-54.493390	-61.584668	150.855490	-61.584668	150.855490	-0.072125	-54.472008
3.400000	-0.073390	-55.262837	-61.196085	149.353084	-61.196085	149.353084	-0.073344	-55.241169
3.450000	-0.074616	-56.031465	-60.819268	147.849067	-60.819268	147.849067	-0.074570	-56.009512
3.500000	-0.075860	-56.797635	-60.444106	146.340218	-60.444106	146.340218	-0.075813	-56.775399
3.550000	-0.077109	-57.563256	-60.081467	144.830482	-60.081467	144.830482	-0.077061	-57.540737
3.600000	-0.078380	-58.326124	-59.718914	143.316312	-59.718914	143.316312	-0.078331	-58.303324
3.650000	-0.079653	-59.088715	-59.369493	141.801779	-59.369493	141.801779	-0.079604	-59.065634
3.700000	-0.080952	-59.848259	-59.018814	140.283248	-59.018814	140.283248	-0.080902	-59.824898
3.750000	-0.082250	-60.607802	-58.681746	138.764716	-58.681746	138.764716	-0.082200	-60.584162
3.800000	-0.083579	-61.364002	-58.342272	137.242646	-58.342272	137.242646	-0.083527	-61.340085
3.850000	-0.084908	-62.120202	-58.015569	135.720576	-58.015569	135.720576	-0.084855	-62.096008
3.900000	-0.086265	-62.873325	-57.687898	134.195914	-57.687898	134.195914	-0.086212	-62.848855
3.950000	-0.087626	-63.626167	-57.371019	132.671017	-57.371019	132.671017	-0.087572	-63.601422
4.000000	-0.089014	-64.376203	-57.054429	131.144279	-57.054429	131.144279	-0.088960	-64.351185
4.050000	-0.090408	-65.125678	-56.746876	129.617174	-56.746876	129.617174	-0.090353	-65.100386
4.100000	-0.091829	-65.872622	-56.440708	128.088816	-56.440708	128.088816	-0.091773	-65.847058
4.150000	-0.093258	-66.618722	-56.142025	126.560042	-56.142025	126.560042	-0.093201	-66.592887
4.200000	-0.094713	-67.362571	-55.845679	125.030471	-55.845679	125.030471	-0.094655	-67.336466
4.250000	-0.096180	-68.105295	-55.555441	123.500501	-55.555441	123.500501	-0.096121	-68.078919
4.300000	-0.097669	-68.846050	-55.268371	121.970078	-55.268371	121.970078	-0.097610	-68.819405
4.350000	-0.099175	-69.585398	-54.986187	120.439330	-54.986187	120.439330	-0.099115	-69.558485
4.400000	-0.100702	-70.323061	-54.707889	118.908378	-54.707889	118.908378	-0.100641	-70.295881
4.450000	-0.102249	-71.059038	-54.433394	117.377221	-54.433394	117.377221	-0.102187	-71.031592
4.500000	-0.103814	-71.793615	-54.163408	115.846030	-54.163408	115.846030	-0.103751	-71.765903
4.550000	-0.105404	-72.526232	-53.896265	114.314791	-53.896265	114.314791	-0.105340	-72.498255
4.600000	-0.107009	-73.257732	-53.634164	112.783623	-53.634164	112.783623	-0.106944	-73.229490
4.650000	-0.108643	-73.986999	-53.374056	111.252594	-53.374056	111.252594	-0.108578	-73.958494
4.700000	-0.110290	-74.715433	-53.119449	109.721684	-53.119449	109.721684	-0.110224	-74.686665
4.750000	-0.111971	-75.441368	-52.866082	108.191127	-52.866082	108.191127	-0.111904	-75.412338
4.800000	-0.113661	-76.166751	-52.618605	106.660688	-52.618605	106.660688	-0.113593	-76.137458
4.850000	-0.115390	-76.889372	-52.371704	105.130837	-52.371704	105.130837	-0.115322	-76.859819
4.900000	-0.117125	-77.611720	-52.131020	103.601062	-52.131020	103.601062	-0.117055	-77.581906
4.950000	-0.118905	-78.331052	-51.890325	102.072129	-51.890325	102.072129	-0.118834	-78.300978
5.000000	-0.120685	-79.050384	-51.656121	100.543195	-51.656121	100.543195	-0.120614	-79.020051
5.050000	-0.122517	-79.766454	-51.421391	99.015370	-51.421391	99.015370	-0.122445	-79.735861
5.100000	-0.124350	-80.482523	-51.192838	97.487544	-51.192838	97.487544	-0.124277	-80.451672
5.150000	-0.126232	-81.195629	-50.964382	95.960894	-50.964382	95.960894	-0.126157	-81.164520
5.200000	-0.128118	-81.908465	-50.741271	94.434350	-50.741271	94.434350	-0.128043	-81.877098
5.250000	-0.130051	-82.618635	-50.518812	92.909006	-50.518812	92.909006	-0.129975	-82.587011
5.300000	-0.131994	-83.328271	-50.300947	91.383903	-50.300947	91.383903	-0.131916	-83.296390
5.350000	-0.133979	-84.035535	-50.084225	89.859987	-50.084225	89.859987	-0.133901	-84.003398
5.400000	-0.135979	-84.742009	-49.871419	88.336467	-49.871419	88.336467	-0.135900	-84.709615
5.450000	-0.138019	-85.446400	-49.660193	86.814091	-49.660193	86.814091	-0.137938	-85.413750
5.500000	-0.140078	-86.149749	-49.452270	85.292288	-49.452270	85.292288	-0.139997	-86.116844
5.550000	-0.142174	-86.851302	-49.246313	83.771557	-49.246313	83.771557	-0.142091	-86.818142
5.600000	-0.144294	-87.551571	-49.043106	82.251591	-49.043106	82.251591	-0.144211	-87.518155
5.650000	-0.146447	-88.250322	-48.842204	80.732601	-48.842204	80.732601	-0.146362	-88.216651
5.700000	-0.148631	-88.947555	-48.643556	79.214586	-48.643556	79.214586	-0.148545	-88.913630
5.750000	-0.150842	-89.643544	-48.447510	77.697426	-48.447510	77.697426	-0.150755	-89.609364
5.800000	-0.153090	-90.337790	-48.253271	76.181464	-48.253271	76.181464	-0.153002	-90.303355
5.850000	-0.155362	-91.031058	-48.061891	74.666219	-48.061891	74.666219	-0.155272	-90.996369
5.900000	-0.157677	-91.722369	-47.871917	73.152407	-47.871917	73.152407	-0.157586	-91.687425
5.950000	-0.160010	-92.412959	-47.685027	71.639154	-47.685027	71.639154	-0.159918	-92.377761
6.000000	-0.162394	-93.101388	-47.499184	70.127579	-47.499184	70.127579	-0.162301	-93.065935
6.050000	-0.164789	-93.789347	-47.316615	68.616392	-47.316615	68.616392	-0.164695	-93.753639
6.100000	-0.167243	-94.474951	-47.134773	67.107137	-47.134773	67.107137	-0.167148	-94.438988
6.150000	-0.169704	-95.160325	-46.956368	65.598082	-46.956368	65.598082	-0.169607	-95.124107
6.200000	-0.172230	-95.843163	-46.778403	64.091224	-46.778403	64.091224	-0.172132	-95.806691
6.250000	-0.174756	-96.526002	-46.604012	62.584365	-46.604012	62.584365	-0.174657	-96.489274
6.300000	-0.177356	-97.206137	-46.429806	61.079971	-46.429806	61.079971	-0.177256	-97.169154
6.350000	-0.179956	-97.886272	-46.259026	59.575578	-46.259026	59.575578	-0.179855	-97.849033
6.400000	-0.182625	-98.563987	-46.088728	58.073503	-46.088728	58.073503	-0.182522	-98.526492
6.450000	-0.185300	-99.241482	-45.921453	56.571638	-45.921453	56.571638	-0.185196	-99.203731
6.500000	-0.188040	-99.916834	-45.754925	55.071930	-45.754925	55.071930	-0.187934	-99.878826
6.550000	-0.190792	-100.591757	-45.591055	53.572653	-45.591055	53.572653	-0.190686	-100.553492
6.600000	-0.193604	-101.264802	-45.428166	52.075356	-45.428166	52.075356	-0.193496	-101.226279
6.650000	-0.196435	-101.937221	-45.267604	50.578718	-45.267604	50.578718	-0.196326	-101.898440
6.700000	-0.199320	-102.608019	-45.108231	49.083872	-45.108231	49.083872	-0.199209	-102.568980
6.750000	-0.202232	-103.278006	-44.950882	47.589920	-44.950882	47.589920	-0.202120	-103.238708
6.800000	-0.205192	-103.946618	-44.794907	46.097560	-44.794907	46.097560	-0.205078	-103.907059
6.850000	-0.208186	-104.614246	-44.640683	44.606336	-44.640683	44.606336	-0.208071	-104.574427
6.900000	-0.211222	-105.280734	-44.487994	43.116492	-44.487994	43.116492	-0.211105	-105.240653
6.950000	-0.214299	-105.946080	-44.336808	41.628029	-44.336808	41.628029	-0.214182	-105.905737
7.000000	-0.217413	-106.610507	-44.187298	40.140728	-44.187298	40.140728	-0.217294	-106.569902
7.050000	-0.220576	-107.273649	-44.039066	38.655054	-44.039066	38.655054	-0.220455	-107.232780
7.100000	-0.223769	-107.936082	-43.892633	37.170317	-43.892633	37.170317	-0.223646	-107.894949
7.150000	-0.227019	-108.597099	-43.747274	35.687454	-43.747274	35.687454	-0.226895	-108.555701
7.200000	-0.230291	-109.257606	-43.603821	34.205297	-43.603821	34.205297	-0.230166	-109.215942
7.250000	-0.233630	-109.916581	-43.461259	32.725259	-43.461259	32.725259	-0.233503	-109.874649
7.300000	-0.236984	-110.575229	-43.320692	31.245693	-43.320692	31.245693	-0.236856	-110.533030
7.350000	-0.240413	-111.232246	-43.180851	29.768486	-43.180851	29.768486	-0.240283	-111.189777
7.400000	-0.243850	-111.889107	-43.043082	28.291516	-43.043082	28.291516	-0.243719	-111.846368
7.450000	-0.247370	-112.544253	-42.905891	26.817141	-42.905891	26.817141	-0.247237	-112.501242
7.500000	-0.250891	-113.199399	-42.770834	25.342766	-42.770834	25.342766	-0.250757	-113.156116
7.550000	-0.254504	-113.852761	-42.636223	23.871214	-42.636223	23.871214	-0.254368	-113.809203
7.600000	-0.258119	-114.506124	-42.503667	22.399662	-42.503667	22.399662	-0.257981	-114.462291
7.650000	-0.261819	-115.157934	-42.371699	20.930681	-42.371699	20.930681	-0.261679	-115.113825
7.700000	-0.265527	-115.809604	-42.241581	19.461934	-42.241581	19.461934	-0.265386	-115.765217
7.750000	-0.269315	-116.459940	-42.112177	17.995504	-42.112177	17.995504	-0.269172	-116.415273
7.800000	-0.273120	-117.110009	-41.984435	16.529538	-41.984435	16.529538	-0.272976	-117.065061
7.850000	-0.276997	-117.758949	-41.857520	15.065630	-41.857520	15.065630	-0.276851	-117.713718
7.900000	-0.280899	-118.407512	-41.732095	13.602408	-41.732095	13.602408	-0.280751	-118.361997
7.950000	-0.284866	-119.055135	-41.607596	12.140987	-41.607596	12.140987	-0.284717	-119.009334
8.000000	-0.288867	-119.702288	-41.484433	10.680466	-41.484433	10.680466	-0.288715	-119.656200
8.050000	-0.292925	-120.348676	-41.362281	9.221490	-41.362281	9.221490	-0.292772	-120.302298
8.100000	-0.297026	-120.994517	-41.241324	7.763617	-41.241324	7.763617	-0.296871	-120.947848
8.150000	-0.301177	-121.639752	-41.121455	6.307035	-41.121455	6.307035	-0.301020	-121.592791
8.200000	-0.305379	-122.284382	-41.002653	4.851746	-41.002653	4.851746	-0.305220	-122.237125
8.250000	-0.309623	-122.928549	-40.885004	3.397503	-40.885004	3.397503	-0.309463	-122.880996
8.300000	-0.313927	-123.572070	-40.768307	1.944724	-40.768307	1.944724	-0.313764	-123.524217
8.350000	-0.318266	-124.215254	-40.652819	0.492754	-40.652819	0.492754	-0.318102	-124.167101
8.400000	-0.322673	-124.857769	-40.538179	-0.957598	-40.538179	-0.957598	-0.322507	-124.809312
8.450000	-0.327108	-125.500059	-40.424796	-2.407366	-40.424796	-2.407366	-0.326939	-125.451298
8.500000	-0.331619	-126.141674	-40.312170	-3.855384	-40.312170	-3.855384	-0.331449	-126.092605
8.550000	-0.336150	-126.783158	-40.200838	-5.303030	-40.200838	-5.303030	-0.335978	-126.733779
8.600000	-0.340767	-127.423982	-40.090184	-6.748817	-40.090184	-6.748817	-0.340593	-127.374290
8.650000	-0.345395	-128.064749	-39.980853	-8.194429	-39.980853	-8.194429	-0.345219	-128.014744
8.700000	-0.350119	-128.704892	-39.872131	-9.638099	-39.872131	-9.638099	-0.349940	-128.654568
8.750000	-0.354845	-129.345035	-39.764753	-11.081770	-39.764753	-11.081770	-0.354664	-129.294393
8.800000	-0.359675	-129.984609	-39.657928	-12.523447	-39.657928	-12.523447	-0.359493	-129.933643
8.850000	-0.364509	-130.624183	-39.552401	-13.965124	-39.552401	-13.965124	-0.364324	-130.572893
8.900000	-0.369439	-131.263340	-39.447498	-15.405094	-39.447498	-15.405094	-0.369252	-131.211721
8.950000	-0.374381	-131.902459	-39.343789	-16.844909	-39.343789	-16.844909	-0.374191	-131.850510
9.000000	-0.379411	-132.541296	-39.240769	-18.283291	-39.240769	-18.283291	-0.379219	-132.489013
9.050000	-0.384461	-133.180077	-39.138850	-19.721386	-39.138850	-19.721386	-0.384267	-133.127458
9.100000	-0.389592	-133.818693	-39.037676	-21.158303	-39.037676	-21.158303	-0.389396	-133.765734
9.150000	-0.394752	-134.457254	-38.937522	-22.594827	-38.937522	-22.594827	-0.394554	-134.403953
9.200000	-0.399985	-135.095749	-38.838159	-24.030409	-38.838159	-24.030409	-0.399783	-135.042101
9.250000	-0.405255	-135.734211	-38.739748	-25.465520	-38.739748	-25.465520	-0.405051	-135.680215
9.300000	-0.410588	-136.372687	-38.642168	-26.899903	-38.642168	-26.899903	-0.410382	-136.318339
9.350000	-0.415969	-137.011173	-38.545480	-28.333765	-38.545480	-28.333765	-0.415760	-136.956469
9.400000	-0.421405	-137.649734	-38.449655	-29.767089	-38.449655	-29.767089	-0.421193	-137.594671
9.450000	-0.426896	-138.288370	-38.354676	-31.199873	-38.354676	-31.199873	-0.426682	-138.232944
9.500000	-0.432434	-138.927121	-38.260583	-32.632281	-38.260583	-32.632281	-0.432217	-138.871330
9.550000	-0.438036	-139.566034	-38.167302	-34.064162	-38.167302	-34.064162	-0.437817	-139.509873
9.600000	-0.443677	-140.205083	-38.074920	-35.495802	-38.074920	-35.495802	-0.443454	-140.148549
9.650000	-0.449390	-140.844403	-37.983328	-36.926959	-37.983328	-36.926959	-0.449165	-140.787491
9.700000	-0.455133	-141.483859	-37.892641	-38.357981	-37.892641	-38.357981	-0.454905	-141.426566
9.750000	-0.460958	-142.123719	-37.802737	-39.788597	-37.802737	-39.788597	-0.460726	-142.066040
9.800000	-0.466803	-142.763693	-37.713731	-41.219152	-37.713731	-41.219152	-0.466569	-142.705626
9.850000	-0.472739	-143.404229	-37.625514	-42.649408	-37.625514	-42.649408	-0.472501	-143.345767
9.900000	-0.478687	-144.044832	-37.538179	-44.079650	-37.538179	-44.079650	-0.478446	-143.985975
9.950000	-0.484733	-144.686182	-37.451655	-45.509728	-37.451655	-45.509728	-0.484489	-144.626921
10.000000	-0.490783	-145.327531	-37.365984	-46.939807	-37.365984	-46.939807	-0.490536	-145.267867
