! freq	dB(S11)	phase(S11)	dB(S12)	phase(S12)	
!     	dB(S21)	phase(S21)	dB(S22)	phase(S22)	
!S-par simulation data
#  GHz  S  DB  R 50
0.000000	-0.000000	0.000000	-355.145957	0.000000	-355.145957	0.000000	-0.000000	0.000000
0.050000	-0.000111	-0.947134	-110.351828	79.055214	-110.351828	79.055214	-0.000106	-0.804321
0.100000	-0.000441	-1.894012	-105.420942	78.711784	-105.420942	78.711784	-0.000421	-1.608375
0.150000	-0.000977	-2.840394	-102.413762	79.818000	-102.413762	79.818000	-0.000929	-2.411920
0.200000	-0.001701	-3.786074	-100.211310	80.563748	-100.211310	80.563748	-0.001610	-3.214759
0.250000	-0.002604	-4.730816	-98.499399	80.910796	-98.499399	80.910796	-0.002445	-4.016675
0.300000	-0.003644	-5.674560	-97.122002	81.031119	-97.122002	81.031119	-0.003396	-4.817639
0.350000	-0.004805	-6.617167	-95.994153	81.012231	-95.994153	81.012231	-0.004442	-5.617551
0.400000	-0.006063	-7.558565	-95.061826	80.929218	-95.061826	80.929218	-0.005558	-6.416382
0.450000	-0.007394	-8.498715	-94.289428	80.837505	-94.289428	80.837505	-0.006722	-7.214134
0.500000	-0.008779	-9.437601	-93.652658	80.782016	-93.652658	80.782016	-0.007917	-8.010828
0.550000	-0.010199	-10.375227	-93.134544	80.803321	-93.134544	80.803321	-0.009126	-8.806502
0.600000	-0.011640	-11.311610	-92.723093	80.941976	-92.723093	80.941976	-0.010341	-9.601198
0.650000	-0.013088	-12.246776	-92.409799	81.242054	-92.409799	81.242054	-0.011551	-10.394959
0.700000	-0.014535	-13.180753	-92.188612	81.754514	-92.188612	81.754514	-0.012751	-11.187827
0.750000	-0.015974	-14.113572	-92.055118	82.540889	-92.055118	82.540889	-0.013938	-11.979836
0.800000	-0.017398	-15.045260	-92.005744	83.677633	-92.005744	83.677633	-0.015110	-12.771018
0.850000	-0.018805	-15.975841	-92.036768	85.261315	-92.036768	85.261315	-0.016265	-13.561395
0.900000	-0.020192	-16.905336	-92.142887	87.414475	-92.142887	87.414475	-0.017404	-14.350986
0.950000	-0.021558	-17.833759	-92.314931	90.290938	-92.314931	90.290938	-0.018527	-15.139800
1.000000	-0.022904	-18.761119	-92.536239	94.077110	-92.536239	94.077110	-0.019635	-15.927845
1.050000	-0.024230	-19.687423	-92.777282	98.981148	-92.777282	98.981148	-0.020729	-16.715121
1.100000	-0.025536	-20.612670	-92.989037	105.194971	-92.989037	105.194971	-0.021811	-17.501625
1.150000	-0.026824	-21.536856	-93.098470	112.810053	-93.098470	112.810053	-0.022882	-18.287352
1.200000	-0.028095	-22.459974	-93.014415	121.685176	-93.014415	121.685176	-0.023943	-19.072292
1.250000	-0.029350	-23.382014	-92.653485	131.331213	-92.653485	131.331213	-0.024995	-19.856435
1.300000	-0.030591	-24.302914	-91.964582	140.925901	-91.964582	140.925901	-0.026039	-20.639732
1.350000	-0.031820	-25.222704	-91.000285	149.669219	-91.000285	149.669219	-0.027076	-21.422202
1.400000	-0.033038	-26.141367	-89.845596	157.107733	-89.845596	157.107733	-0.028107	-22.203831
1.450000	-0.034246	-27.058884	-88.589399	163.129522	-88.589399	163.129522	-0.029134	-22.984601
1.500000	-0.035446	-27.975235	-87.300230	167.840972	-87.300230	167.840972	-0.030157	-23.764497
1.550000	-0.036639	-28.890398	-86.022043	171.437729	-86.022043	171.437729	-0.031176	-24.543501
1.600000	-0.037826	-29.804351	-84.779447	174.125738	-84.779447	174.125738	-0.032192	-25.321595
1.650000	-0.039008	-30.717073	-83.584386	176.086820	-83.584386	176.086820	-0.033206	-26.098762
1.700000	-0.040187	-31.628541	-82.441307	177.469551	-82.441307	177.469551	-0.034218	-26.874984
1.750000	-0.041362	-32.538732	-81.350523	178.391120	-81.350523	178.391120	-0.035229	-27.650244
1.800000	-0.042535	-33.447625	-80.310210	178.942646	-80.310210	178.942646	-0.036238	-28.424523
1.850000	-0.043707	-34.355196	-79.317549	179.194767	-79.317549	179.194767	-0.037248	-29.197805
1.900000	-0.044879	-35.261423	-78.369350	179.202414	-78.369350	179.202414	-0.038257	-29.970072
1.950000	-0.046050	-36.166286	-77.462389	179.008578	-77.462389	179.008578	-0.039266	-30.741307
2.000000	-0.047222	-37.069762	-76.593572	178.647182	-76.593572	178.647182	-0.040276	-31.511493
2.050000	-0.048395	-37.971831	-75.760018	178.145228	-75.760018	178.145228	-0.041287	-32.280614
2.100000	-0.049569	-38.872472	-74.959079	177.524407	-74.959079	177.524407	-0.042299	-33.048653
2.150000	-0.050746	-39.771665	-74.188351	176.802299	-74.188351	176.802299	-0.043312	-33.815594
2.200000	-0.051926	-40.669392	-73.445655	175.993275	-73.445655	175.993275	-0.044328	-34.581422
2.250000	-0.053108	-41.565633	-72.729023	175.109182	-72.729023	175.109182	-0.045345	-35.346120
2.300000	-0.054295	-42.460371	-72.036678	174.159864	-72.036678	174.159864	-0.046365	-36.109674
2.350000	-0.055485	-43.353588	-71.367012	173.153559	-71.367012	173.153559	-0.047388	-36.872068
2.400000	-0.056680	-44.245267	-70.718571	172.097211	-70.718571	172.097211	-0.048414	-37.633288
2.450000	-0.057879	-45.135392	-70.090037	170.996713	-70.090037	170.996713	-0.049444	-38.393320
2.500000	-0.059084	-46.023947	-69.480212	169.857095	-69.480212	169.857095	-0.050477	-39.152149
2.550000	-0.060294	-46.910849	-68.887020	168.681340	-68.887020	168.681340	-0.051515	-39.909709
2.600000	-0.061511	-47.796151	-68.310556	167.474806	-68.310556	167.474806	-0.052557	-40.666038
2.650000	-0.062734	-48.679840	-67.749897	166.240675	-67.749897	166.240675	-0.053604	-41.421122
2.700000	-0.063964	-49.561904	-67.204197	164.981726	-67.204197	164.981726	-0.054656	-42.174951
2.750000	-0.065201	-50.442330	-66.672679	163.700400	-66.672679	163.700400	-0.055714	-42.927510
2.800000	-0.066446	-51.321108	-66.154629	162.398847	-66.154629	162.398847	-0.056777	-43.678788
2.850000	-0.067699	-52.198226	-65.649385	161.078971	-65.649385	161.078971	-0.057847	-44.428774
2.900000	-0.068961	-53.073674	-65.156338	159.742462	-65.156338	159.742462	-0.058924	-45.177455
2.950000	-0.070231	-53.947445	-64.674923	158.390828	-64.674923	158.390828	-0.060008	-45.924821
3.000000	-0.071511	-54.819528	-64.204615	157.025417	-64.204615	157.025417	-0.061099	-46.670861
3.050000	-0.072800	-55.689916	-63.744926	155.647440	-63.744926	155.647440	-0.062198	-47.415565
3.100000	-0.074099	-56.558602	-63.295400	154.257985	-63.295400	154.257985	-0.063305	-48.158923
3.150000	-0.075410	-57.425579	-62.855613	152.858038	-62.855613	152.858038	-0.064420	-48.900924
3.200000	-0.076731	-58.290842	-62.425168	151.448489	-62.425168	151.448489	-0.065544	-49.641561
3.250000	-0.078063	-59.154385	-62.003692	150.030146	-62.003692	150.030146	-0.066678	-50.380823
3.300000	-0.079408	-60.016205	-61.590836	148.603747	-61.590836	148.603747	-0.067821	-51.118703
3.350000	-0.080765	-60.876296	-61.186272	147.169964	-61.186272	147.169964	-0.068975	-51.855191
3.400000	-0.082135	-61.734657	-60.789691	145.729412	-60.789691	145.729412	-0.070138	-52.590280
3.450000	-0.083518	-62.591285	-60.400802	144.282655	-60.400802	144.282655	-0.071313	-53.323964
3.500000	-0.084915	-63.446178	-60.019331	142.830211	-60.019331	142.830211	-0.072499	-54.056233
3.550000	-0.086326	-64.299335	-59.645018	141.372557	-59.645018	141.372557	-0.073696	-54.787082
3.600000	-0.087752	-65.150755	-59.277617	139.910135	-59.277617	139.910135	-0.074906	-55.516505
3.650000	-0.089193	-66.000439	-58.916897	138.443352	-58.916897	138.443352	-0.076128	-56.244495
3.700000	-0.090650	-66.848388	-58.562636	136.972585	-58.562636	136.972585	-0.077362	-56.971046
3.750000	-0.092123	-67.694603	-58.214626	135.498186	-58.214626	135.498186	-0.078610	-57.696153
3.800000	-0.093613	-68.539012	-57.872346	134.020351	-57.872346	134.020351	-0.079872	-58.419749
3.850000	-0.095120	-69.381693	-57.535952	132.539539	-57.535952	132.539539	-0.081148	-59.141891
3.900000	-0.096646	-70.222650	-57.205262	131.056033	-57.205262	131.056033	-0.082439	-59.862575
3.950000	-0.098189	-71.061886	-56.880101	129.570095	-56.880101	129.570095	-0.083744	-60.581798
4.000000	-0.099751	-71.899408	-56.560307	128.081974	-56.560307	128.081974	-0.085065	-61.299556
4.050000	-0.101332	-72.735220	-56.245719	126.591900	-56.245719	126.591900	-0.086401	-62.015845
4.100000	-0.102933	-73.569329	-55.936188	125.100095	-55.936188	125.100095	-0.087753	-62.730664
4.150000	-0.104554	-74.401742	-55.631570	123.606764	-55.631570	123.606764	-0.089122	-63.444010
4.200000	-0.106195	-75.232467	-55.331726	122.112103	-55.331726	122.112103	-0.090507	-64.155882
4.250000	-0.107858	-76.061512	-55.036525	120.616297	-55.036525	120.616297	-0.091909	-64.866276
4.300000	-0.109542	-76.888887	-54.745840	119.119522	-54.745840	119.119522	-0.093330	-65.575193
4.350000	-0.111248	-77.714600	-54.459549	117.621948	-54.459549	117.621948	-0.094768	-66.282631
4.400000	-0.112977	-78.538662	-54.177536	116.123734	-54.177536	116.123734	-0.096225	-66.988590
4.450000	-0.114729	-79.361084	-53.899688	114.625034	-53.899688	114.625034	-0.097700	-67.693070
4.500000	-0.116505	-80.181879	-53.625899	113.125996	-53.625899	113.125996	-0.099195	-68.396071
4.550000	-0.118305	-81.001058	-53.356063	111.626763	-53.356063	111.626763	-0.100709	-69.097593
4.600000	-0.120129	-81.818634	-53.090081	110.127474	-53.090081	110.127474	-0.102243	-69.797638
4.650000	-0.121978	-82.634622	-52.827856	108.628262	-52.827856	108.628262	-0.103798	-70.496206
4.700000	-0.123853	-83.449036	-52.569297	107.129260	-52.569297	107.129260	-0.105374	-71.193299
4.750000	-0.125754	-84.261892	-52.314313	105.630596	-52.314313	105.630596	-0.106971	-71.888919
4.800000	-0.127681	-85.073204	-52.062817	104.132397	-52.062817	104.132397	-0.108589	-72.583069
4.850000	-0.129635	-85.882992	-51.814727	102.634789	-51.814727	102.634789	-0.110230	-73.275751
4.900000	-0.131617	-86.691271	-51.569960	101.137897	-51.569960	101.137897	-0.111893	-73.966967
4.950000	-0.133626	-87.498060	-51.328438	99.641848	-51.328438	99.641848	-0.113579	-74.656722
5.000000	-0.135664	-88.303379	-51.090085	98.146767	-51.090085	98.146767	-0.115288	-75.345018
5.050000	-0.137747	-89.106442	-50.852981	96.653485	-50.852981	96.653485	-0.117034	-76.031040
5.100000	-0.139831	-89.909504	-50.622178	95.160203	-50.622178	95.160203	-0.118781	-76.717062
5.150000	-0.141971	-90.709882	-50.391430	93.669567	-50.391430	93.669567	-0.120575	-77.400320
5.200000	-0.144117	-91.510015	-50.166130	92.179173	-50.166130	92.179173	-0.122373	-78.083327
5.250000	-0.146316	-92.307795	-49.941426	90.691709	-49.941426	90.691709	-0.124215	-78.763839
5.300000	-0.148526	-93.105104	-49.721394	89.204832	-49.721394	89.204832	-0.126066	-79.443853
5.350000	-0.150786	-93.900381	-49.502438	87.721116	-49.502438	87.721116	-0.127958	-80.121639
5.400000	-0.153062	-94.694980	-49.287448	86.238455	-49.287448	86.238455	-0.129864	-80.798684
5.450000	-0.155384	-95.487858	-49.073956	84.759137	-49.073956	84.759137	-0.131808	-81.473767
5.500000	-0.157729	-96.279876	-48.863784	83.281490	-48.863784	83.281490	-0.133771	-82.147871
5.550000	-0.160114	-97.070471	-48.655485	81.807320	-48.655485	81.807320	-0.135768	-82.820276
5.600000	-0.162530	-97.860050	-48.449907	80.335632	-48.449907	80.335632	-0.137789	-83.491468
5.650000	-0.164981	-98.648490	-48.246532	78.867496	-48.246532	78.867496	-0.139841	-84.161221
5.700000	-0.167469	-99.435792	-48.045319	77.402912	-48.045319	77.402912	-0.141922	-84.829535
5.750000	-0.169989	-100.222224	-47.846602	75.941882	-47.846602	75.941882	-0.144030	-85.496664
5.800000	-0.172552	-101.007436	-47.649511	74.485829	-47.649511	74.485829	-0.146175	-86.162134
5.850000	-0.175141	-101.792026	-47.455180	73.033232	-47.455180	73.033232	-0.148341	-86.826670
5.900000	-0.177781	-102.575370	-47.261945	71.587546	-47.261945	71.587546	-0.150550	-87.489334
5.950000	-0.180443	-103.358313	-47.071713	70.145058	-47.071713	70.145058	-0.152775	-88.151307
6.000000	-0.183164	-104.140054	-46.882028	68.712164	-46.882028	68.712164	-0.155050	-88.811206
6.050000	-0.185901	-104.921584	-46.695582	67.281952	-46.695582	67.281952	-0.157338	-89.470650
6.100000	-0.188708	-105.702058	-46.509067	65.865153	-46.509067	65.865153	-0.159681	-90.127824
6.150000	-0.191524	-106.482463	-46.326047	64.450083	-46.326047	64.450083	-0.162032	-90.784774
6.200000	-0.194423	-107.262107	-46.142205	63.054028	-46.142205	63.054028	-0.164447	-91.439267
6.250000	-0.197323	-108.041750	-45.962173	61.657973	-45.962173	61.657973	-0.166862	-92.093760
6.300000	-0.200325	-108.821165	-45.780291	60.289450	-45.780291	60.289450	-0.169351	-92.745616
6.350000	-0.203328	-109.600579	-45.602139	58.920926	-45.602139	58.920926	-0.171840	-93.397473
6.400000	-0.206441	-110.380587	-45.421657	57.587112	-45.421657	57.587112	-0.174400	-94.046954
6.450000	-0.209566	-111.160649	-45.244323	56.256453	-45.244323	56.256453	-0.176966	-94.696220
6.500000	-0.212824	-111.942398	-45.063649	54.971122	-45.063649	54.971122	-0.179600	-95.343363
6.550000	-0.216109	-112.724484	-44.885308	53.694857	-44.885308	53.694857	-0.182247	-95.990081
6.600000	-0.219578	-113.509853	-44.701600	52.480414	-44.701600	52.480414	-0.184960	-96.634918
6.650000	-0.223109	-114.296317	-44.518775	51.286578	-44.518775	51.286578	-0.187695	-97.279128
6.700000	-0.226841	-115.086644	-44.330850	50.153250	-44.330850	50.153250	-0.190477	-97.922094
6.750000	-0.230880	-115.882730	-44.134203	49.103370	-44.134203	49.103370	-0.193315	-98.563660
6.800000	-0.235351	-116.686313	-43.925636	48.151374	-43.925636	48.151374	-0.196207	-99.204027
6.850000	-0.240532	-117.500833	-43.697689	47.329167	-43.697689	47.329167	-0.199159	-99.843169
6.900000	-0.246692	-118.328591	-43.445219	46.650408	-43.445219	46.650408	-0.202169	-100.481210
6.950000	-0.255343	-119.183581	-43.131991	46.222685	-43.131991	46.222685	-0.205273	-101.117678
7.000000	-0.269051	-120.078849	-42.713369	46.062016	-42.713369	46.062016	-0.208482	-101.752462
7.050000	-0.295423	-121.037674	-42.080428	46.029969	-42.080428	46.029969	-0.211815	-102.384811
7.100000	-0.355687	-122.058938	-41.041568	45.089798	-41.041568	45.089798	-0.215185	-103.012914
7.150000	-0.504763	-122.757115	-39.495829	38.068434	-39.495829	38.068434	-0.217628	-103.633460
7.200000	-0.576407	-122.086333	-39.300789	21.255201	-39.300789	21.255201	-0.217679	-104.264284
7.250000	-0.437216	-122.229546	-40.847194	13.703752	-40.847194	13.703752	-0.220050	-104.909729
7.300000	-0.360796	-123.105281	-41.770307	14.052931	-41.770307	14.052931	-0.223751	-105.546445
7.350000	-0.328542	-124.022758	-42.135831	15.174179	-42.135831	15.174179	-0.227444	-106.178163
7.400000	-0.314791	-124.901665	-42.236250	15.764457	-42.236250	15.764457	-0.231042	-106.807385
7.450000	-0.308923	-125.747088	-42.222480	15.813981	-42.222480	15.813981	-0.234588	-107.435065
7.500000	-0.306904	-126.569607	-42.155741	15.474956	-42.155741	15.474956	-0.238117	-108.061549
7.550000	-0.307031	-127.376257	-42.061999	14.861844	-42.061999	14.861844	-0.241652	-108.686953
7.600000	-0.308385	-128.172363	-41.954693	14.065634	-41.954693	14.065634	-0.245204	-109.311390
7.650000	-0.310539	-128.960889	-41.839871	13.137701	-41.839871	13.137701	-0.248782	-109.934905
7.700000	-0.313244	-129.743835	-41.720886	12.112745	-41.720886	12.112745	-0.252391	-110.557530
7.750000	-0.316347	-130.522590	-41.599680	11.014742	-41.599680	11.014742	-0.256034	-111.179291
7.800000	-0.319750	-131.298151	-41.477425	9.860659	-41.477425	9.860659	-0.259715	-111.800210
7.850000	-0.323389	-132.071249	-41.354851	8.662772	-41.354851	8.662772	-0.263435	-112.420308
7.900000	-0.327219	-132.842438	-41.232422	7.430149	-41.232422	7.430149	-0.267195	-113.039605
7.950000	-0.331254	-133.611790	-41.110099	6.162334	-41.110099	6.162334	-0.271012	-113.657856
8.000000	-0.335364	-134.380492	-40.988903	4.881860	-40.988903	4.881860	-0.274852	-114.275706
8.050000	-0.339615	-135.148251	-40.868347	3.580307	-40.868347	3.580307	-0.278744	-114.892659
8.100000	-0.343966	-135.915336	-40.748715	2.263697	-40.748715	2.263697	-0.282676	-115.508970
8.150000	-0.348417	-136.682036	-40.630018	0.934754	-40.630018	0.934754	-0.286654	-116.124553
8.200000	-0.352967	-137.448353	-40.512239	-0.406523	-40.512239	-0.406523	-0.290679	-116.739408
8.250000	-0.357589	-138.214608	-40.395554	-1.755005	-40.395554	-1.755005	-0.294745	-117.353690
8.300000	-0.362312	-138.980777	-40.279750	-3.113573	-40.279750	-3.113573	-0.298867	-117.967170
8.350000	-0.367088	-139.747060	-40.165134	-4.476258	-40.165134	-4.476258	-0.303022	-118.580220
8.400000	-0.371969	-140.513569	-40.051347	-5.847176	-40.051347	-5.847176	-0.307242	-119.192409
8.450000	-0.376887	-141.280266	-39.938806	-7.220326	-39.938806	-7.220326	-0.311488	-119.804297
8.500000	-0.381916	-142.047522	-39.827037	-8.600174	-39.827037	-8.600174	-0.315807	-120.415281
8.550000	-0.386970	-142.814961	-39.716552	-9.981105	-39.716552	-9.981105	-0.320145	-121.026078
8.600000	-0.392140	-143.583318	-39.606783	-11.367452	-39.606783	-11.367452	-0.324566	-121.635942
8.650000	-0.397325	-144.351793	-39.498321	-12.754194	-39.498321	-12.754194	-0.328997	-122.245720
8.700000	-0.402632	-145.121571	-39.390521	-14.145280	-39.390521	-14.145280	-0.333519	-122.854554
8.750000	-0.407943	-145.891350	-39.284042	-15.536367	-39.284042	-15.536367	-0.338044	-123.463387
8.800000	-0.413385	-146.662849	-39.178176	-16.930896	-39.178176	-16.930896	-0.342670	-124.071279
8.850000	-0.418831	-147.434348	-39.073584	-18.325425	-39.073584	-18.325425	-0.347298	-124.679171
8.900000	-0.424395	-148.207687	-38.969667	-19.722229	-38.969667	-19.722229	-0.352020	-125.286283
8.950000	-0.429973	-148.981193	-38.866927	-21.119240	-38.866927	-21.119240	-0.356752	-125.893325
9.000000	-0.435658	-149.756601	-38.764913	-22.517720	-38.764913	-22.517720	-0.361570	-126.499737
9.050000	-0.441368	-150.532391	-38.663990	-23.916495	-38.663990	-23.916495	-0.366408	-127.106022
9.100000	-0.447173	-151.310096	-38.563835	-25.316192	-38.563835	-25.316192	-0.371323	-127.711811
9.150000	-0.453013	-152.088441	-38.464693	-26.716197	-38.464693	-26.716197	-0.376266	-128.317435
9.200000	-0.458938	-152.868669	-38.366355	-28.116761	-38.366355	-28.116761	-0.381279	-128.922682
9.250000	-0.464907	-153.649839	-38.268963	-29.517604	-38.268963	-29.517604	-0.386328	-129.527740
9.300000	-0.470951	-154.432814	-38.172402	-30.918771	-38.172402	-30.918771	-0.391439	-130.132526
9.350000	-0.477050	-155.217078	-38.076728	-32.320169	-38.076728	-32.320169	-0.396595	-130.737118
9.400000	-0.483212	-156.003024	-37.981908	-33.721747	-37.981908	-33.721747	-0.401804	-131.341527
9.450000	-0.489439	-156.790652	-37.887925	-35.123505	-37.887925	-35.123505	-0.407067	-131.945753
9.500000	-0.495720	-157.579795	-37.794811	-36.525361	-37.794811	-36.525361	-0.412376	-132.549868
9.550000	-0.502075	-158.371059	-37.702495	-37.927354	-37.702495	-37.927354	-0.417746	-133.153830
9.600000	-0.508474	-159.163626	-37.611055	-39.329402	-37.611055	-39.329402	-0.423153	-133.757738
9.650000	-0.514956	-159.958801	-37.520384	-40.731561	-37.520384	-40.731561	-0.428631	-134.361540
9.700000	-0.521472	-160.755022	-37.430591	-42.133756	-37.430591	-42.133756	-0.434137	-134.965329
9.750000	-0.528080	-161.554386	-37.341547	-43.536060	-37.341547	-43.536060	-0.439722	-135.569077
9.800000	-0.534713	-162.354494	-37.253376	-44.938391	-37.253376	-44.938391	-0.445328	-136.172835
9.850000	-0.541447	-163.158328	-37.165945	-46.340856	-37.165945	-46.340856	-0.451020	-136.776638
9.900000	-0.548196	-163.962559	-37.079374	-47.743339	-37.079374	-47.743339	-0.456724	-137.380455
9.950000	-0.555055	-164.771150	-36.993546	-49.146015	-36.993546	-49.146015	-0.462524	-137.984424
10.000000	-0.561920	-165.579741	-36.908557	-50.548691	-36.908557	-50.548691	-0.468327	-138.588392
