! freq	dB(S11)	phase(S11)	dB(S12)	phase(S12)	
!     	dB(S21)	phase(S21)	dB(S22)	phase(S22)	
!S-par simulation data
#  GHz  S  DB  R 50
0.000000	-80.488281	0.000000	-0.000821	0.000000	-0.000821	0.000000	-80.488281	0.000000
0.050000	-42.761752	-90.762093	-0.006485	-3.139029	-0.006485	-3.139029	-42.750758	-88.933436
0.100000	-36.887652	-96.084718	-0.014138	-6.229943	-0.014138	-6.229943	-36.852252	-92.882865
0.150000	-33.420250	-100.609530	-0.020139	-9.307710	-0.020139	-9.307710	-33.377450	-95.843894
0.200000	-30.966870	-104.858139	-0.025605	-12.384241	-0.025605	-12.384241	-30.921342	-98.503023
0.250000	-29.078161	-108.986863	-0.031217	-15.460311	-0.031217	-15.460311	-29.031429	-101.030902
0.300000	-27.551827	-113.053111	-0.037202	-18.534801	-0.037202	-18.534801	-27.504488	-103.485254
0.350000	-26.279134	-117.083436	-0.043593	-21.606653	-0.043593	-21.606653	-26.231440	-105.890478
0.400000	-25.194943	-121.092148	-0.050345	-24.675137	-0.050345	-24.675137	-25.146996	-108.257882
0.450000	-24.257469	-125.087984	-0.057381	-27.739799	-0.057381	-27.739799	-24.209311	-110.592486
0.500000	-23.437802	-129.077359	-0.064606	-30.800500	-0.064606	-30.800500	-23.389455	-112.896890
0.550000	-22.715257	-133.065279	-0.071924	-33.857319	-0.071924	-33.857319	-22.666745	-115.172074
0.600000	-22.074651	-137.056043	-0.079243	-36.910484	-0.079243	-36.910484	-22.026017	-117.417965
0.650000	-21.504456	-141.053620	-0.086483	-39.960356	-0.086483	-39.960356	-21.455758	-119.633915
0.700000	-20.995714	-145.061829	-0.093575	-43.007397	-0.093575	-43.007397	-20.947034	-121.818880
0.750000	-20.541339	-149.084450	-0.100465	-46.052142	-0.100465	-46.052142	-20.492773	-123.971510
0.800000	-20.135638	-153.125290	-0.107119	-49.095162	-0.107119	-49.095162	-20.087295	-126.090201
0.850000	-19.774883	-157.189120	-0.113510	-52.137016	-0.113510	-52.137016	-19.726881	-128.171826
0.900000	-19.453730	-161.278675	-0.119655	-55.178311	-0.119655	-55.178311	-19.406183	-130.216326
0.950000	-19.169632	-165.398636	-0.125566	-58.219497	-0.125566	-58.219497	-19.122654	-132.220520
1.000000	-18.919936	-169.553384	-0.131271	-61.260949	-0.131271	-61.260949	-18.873635	-134.181752
1.050000	-18.702405	-173.747536	-0.136804	-64.302923	-0.136804	-64.302923	-18.656883	-136.097040
1.100000	-18.515137	-177.985987	-0.142197	-67.345549	-0.142197	-67.345549	-18.470486	-137.963036
1.150000	-18.356499	177.726052	-0.147470	-70.388851	-0.147470	-70.388851	-18.312806	-139.775973
1.200000	-18.225081	173.383004	-0.152625	-73.432790	-0.152625	-73.432790	-18.182425	-141.531621
1.250000	-18.119645	168.978872	-0.157648	-76.477326	-0.157648	-76.477326	-18.078102	-143.225221
1.300000	-18.039599	164.505562	-0.162501	-79.522494	-0.162501	-79.522494	-17.999245	-144.849822
1.350000	-17.983406	159.957361	-0.167141	-82.568413	-0.167141	-82.568413	-17.944316	-146.400721
1.400000	-17.950128	155.326637	-0.171521	-85.615346	-0.171521	-85.615346	-17.912379	-147.871143
1.450000	-17.938855	150.605102	-0.175602	-88.663676	-0.175602	-88.663676	-17.902530	-149.253524
1.500000	-17.948678	145.783756	-0.179353	-91.713878	-0.179353	-91.713878	-17.913858	-150.539445
1.550000	-17.978643	140.852834	-0.182763	-94.766487	-0.182763	-94.766487	-17.945413	-151.719585
1.600000	-18.027713	135.801780	-0.185835	-97.822054	-0.185835	-97.822054	-17.996153	-152.783685
1.650000	-18.094724	130.619232	-0.188591	-100.881116	-0.188591	-100.881116	-18.064903	-153.720549
1.700000	-18.178328	125.293062	-0.191065	-103.944174	-0.191065	-103.944174	-18.150292	-154.518078
1.750000	-18.276933	119.810462	-0.193301	-107.011670	-0.193301	-107.011670	-18.250691	-155.163382
1.800000	-18.388643	114.158127	-0.195355	-110.083987	-0.195355	-110.083987	-18.364148	-155.642978
1.850000	-18.511177	108.322544	-0.197284	-113.161437	-0.197284	-113.161437	-18.488303	-155.943110
1.900000	-18.641834	102.288161	-0.199154	-116.244329	-0.199154	-116.244329	-18.620344	-156.048006
1.950000	-18.777224	96.042221	-0.201033	-119.332848	-0.201033	-119.332848	-18.756740	-155.944688
2.000000	-18.913410	89.576395	-0.202987	-122.427050	-0.202987	-122.427050	-18.893388	-155.624704
2.050000	-19.045921	82.883195	-0.205084	-125.526991	-0.205084	-125.526991	-19.025623	-155.080698
2.100000	-19.169705	75.959465	-0.207388	-128.632670	-0.207388	-128.632670	-19.148180	-154.309958
2.150000	-19.279221	68.807884	-0.209961	-131.744034	-0.209961	-131.744034	-19.255305	-153.315998
2.200000	-19.368623	61.438447	-0.212865	-134.860982	-0.212865	-134.860982	-19.340962	-152.110090
2.250000	-19.432039	53.869678	-0.216155	-137.983366	-0.216155	-137.983366	-19.399140	-150.712459
2.300000	-19.463944	46.129284	-0.219884	-141.110993	-0.219884	-141.110993	-19.424260	-149.152832
2.350000	-19.459592	38.253932	-0.224098	-144.243634	-0.224098	-144.243634	-19.411626	-147.470019
2.400000	-19.415445	30.287953	-0.228842	-147.381024	-0.228842	-147.381024	-19.357870	-145.710335
2.450000	-19.329535	22.280953	-0.234151	-150.522863	-0.234151	-150.522863	-19.261302	-143.924914
2.500000	-19.201671	14.284600	-0.240055	-153.668828	-0.240055	-153.668828	-19.122087	-142.166227
2.550000	-19.032553	6.351420	-0.246592	-156.818642	-0.246592	-156.818642	-18.941309	-140.487067
2.600000	-18.826407	-1.473975	-0.253766	-159.971848	-0.253766	-159.971848	-18.723588	-138.930709
2.650000	-18.588318	-9.157141	-0.261575	-163.128022	-0.261575	-163.128022	-18.474323	-137.529712
2.700000	-18.322549	-16.665620	-0.270038	-166.286857	-0.270038	-166.286857	-18.198000	-136.314727
2.750000	-18.035188	-23.981725	-0.279143	-169.447928	-0.279143	-169.447928	-17.900845	-135.300891
2.800000	-17.731885	-31.094904	-0.288876	-172.610848	-0.288876	-172.610848	-17.588554	-134.496353
2.850000	-17.417840	-38.000417	-0.299221	-175.775247	-0.299221	-175.775247	-17.266305	-133.903633
2.900000	-17.098066	-44.702436	-0.310146	-178.940748	-0.310146	-178.940748	-16.939034	-133.516550
2.950000	-16.776674	-51.205552	-0.321623	177.892991	-0.321623	177.892991	-16.610742	-133.328846
3.000000	-16.457709	-57.528525	-0.333589	174.726308	-0.333589	174.726308	-16.285351	-133.320475
3.050000	-16.143840	-63.679080	-0.346007	171.559477	-0.346007	171.559477	-15.965408	-133.482705
3.100000	-15.837496	-69.670787	-0.358823	168.392749	-0.358823	168.392749	-15.653222	-133.801221
3.150000	-15.540621	-75.516207	-0.371981	165.226348	-0.371981	165.226348	-15.350624	-134.262923
3.200000	-15.254783	-81.229717	-0.385414	162.060448	-0.385414	162.060448	-15.059086	-134.853131
3.250000	-14.981116	-86.826400	-0.399051	158.895168	-0.399051	158.895168	-14.779665	-135.556690
3.300000	-14.720448	-92.319201	-0.412819	155.730582	-0.412819	155.730582	-14.513123	-136.360708
3.350000	-14.473366	-97.720407	-0.426647	152.566709	-0.426647	152.566709	-14.259994	-137.253085
3.400000	-14.240262	-103.041624	-0.440460	149.403519	-0.440460	149.403519	-14.020626	-138.222537
3.450000	-14.021372	-108.293785	-0.454182	146.240922	-0.454182	146.240922	-13.795224	-139.258569
3.500000	-13.816807	-113.487187	-0.467739	143.078778	-0.467739	143.078778	-13.583872	-140.351434
3.550000	-13.626582	-118.631544	-0.481058	139.916889	-0.481058	139.916889	-13.386564	-141.492077
3.600000	-13.450631	-123.736049	-0.494067	136.755004	-0.494067	136.755004	-13.203218	-142.672070
3.650000	-13.288828	-128.809435	-0.506700	133.592819	-0.506700	133.592819	-13.033694	-143.883543
3.700000	-13.141000	-133.860042	-0.518893	130.429980	-0.518893	130.429980	-12.877806	-145.119123
3.750000	-13.006931	-138.895875	-0.530585	127.266084	-0.530585	127.266084	-12.735327	-146.371865
3.800000	-12.886631	-143.924682	-0.541712	124.100639	-0.541712	124.100639	-12.606239	-147.635280
3.850000	-12.779567	-148.954277	-0.552237	120.933175	-0.552237	120.933175	-12.490010	-148.902756
3.900000	-12.685432	-153.991976	-0.562121	117.763164	-0.562121	117.763164	-12.386320	-150.168316
3.950000	-12.603893	-159.044959	-0.571333	114.590042	-0.571333	114.590042	-12.294819	-151.426201
4.000000	-12.534589	-164.120307	-0.579849	111.413222	-0.579849	111.413222	-12.215128	-152.670831
4.050000	-12.477130	-169.225025	-0.587654	108.232091	-0.587654	108.232091	-12.146840	-153.896773
4.100000	-12.431089	-174.366064	-0.594744	105.046022	-0.594744	105.046022	-12.089514	-155.098717
4.150000	-12.396002	-179.550330	-0.601122	101.854378	-0.601122	101.854378	-12.042668	-156.271457
4.200000	-12.371358	175.215317	-0.606803	98.656517	-0.606803	98.656517	-12.005778	-157.409880
4.250000	-12.356590	169.924069	-0.611810	95.451802	-0.611810	95.451802	-11.978270	-158.508972
4.300000	-12.351069	164.569200	-0.616177	92.239603	-0.616177	92.239603	-11.959512	-159.563823
4.350000	-12.354091	159.144098	-0.619948	89.019309	-0.619948	89.019309	-11.948808	-160.569655
4.400000	-12.364946	153.641420	-0.623171	85.790233	-0.623171	85.790233	-11.945459	-161.521224
4.450000	-12.382717	148.054779	-0.625911	82.551801	-0.625911	82.551801	-11.948584	-162.414005
4.500000	-12.406329	142.379196	-0.628247	79.303591	-0.628247	79.303591	-11.957161	-163.244517
4.550000	-12.434678	136.609341	-0.630258	76.045136	-0.630258	76.045136	-11.970155	-164.009092
4.600000	-12.466541	130.740517	-0.632035	72.776019	-0.632035	72.776019	-11.986434	-164.704572
4.650000	-12.500575	124.768833	-0.633672	69.495883	-0.633672	69.495883	-12.004771	-165.328442
4.700000	-12.535319	118.691404	-0.635271	66.204435	-0.635271	66.204435	-12.023845	-165.878977
4.750000	-12.569200	112.506564	-0.636937	62.901452	-0.636937	62.901452	-12.042249	-166.355402
4.800000	-12.600553	106.214088	-0.638782	59.586788	-0.638782	59.586788	-12.058509	-166.758062
4.850000	-12.627648	99.815411	-0.640917	56.260372	-0.640917	56.260372	-12.071102	-167.088576
4.900000	-12.648720	93.313823	-0.643456	52.922219	-0.643456	52.922219	-12.078485	-167.349986
4.950000	-12.662019	86.714621	-0.646512	49.572424	-0.646512	49.572424	-12.079135	-167.546866
5.000000	-12.665862	80.025203	-0.650196	46.211168	-0.650196	46.211168	-12.071588	-167.685385
5.050000	-12.658426	73.253574	-0.654633	42.838479	-0.654633	42.838479	-12.054256	-167.772423
5.100000	-12.638570	66.413326	-0.659912	39.454960	-0.659912	39.454960	-12.026132	-167.818633
5.150000	-12.605210	59.517829	-0.666127	36.061039	-0.666127	36.061039	-11.986249	-167.834726
5.200000	-12.557573	52.581857	-0.673364	32.657222	-0.673364	32.657222	-11.933892	-167.832486
5.250000	-12.495246	45.621142	-0.681698	29.244079	-0.681698	29.244079	-11.868641	-167.824442
5.300000	-12.418191	38.651869	-0.691195	25.822241	-0.691195	25.822241	-11.790385	-167.823479
5.350000	-12.326753	31.690128	-0.701906	22.392390	-0.701906	22.392390	-11.699334	-167.842424
5.400000	-12.221642	24.751384	-0.713867	18.955249	-0.713867	18.955249	-11.596006	-167.893636
5.450000	-12.103898	17.849997	-0.727102	15.511570	-0.727102	15.511570	-11.481207	-167.988617
5.500000	-11.974838	10.998818	-0.741616	12.062124	-0.741616	12.062124	-11.355990	-168.137689
5.550000	-11.835996	4.208902	-0.757401	8.607685	-0.757401	8.607685	-11.221614	-168.349741
5.600000	-11.689056	-2.510680	-0.774430	5.149023	-0.774430	5.149023	-11.079487	-168.632059
5.650000	-11.535731	-9.152230	-0.792670	1.686862	-0.792670	1.686862	-10.931061	-168.990910
5.700000	-11.377859	-15.710680	-0.812059	-1.778070	-0.812059	-1.778070	-10.777930	-169.430280
5.750000	-11.217226	-22.182505	-0.832526	-5.245106	-0.832526	-5.245106	-10.621662	-169.952922
5.800000	-11.055654	-28.568357	-0.853958	-8.713599	-0.853958	-8.713599	-10.463910	-170.557802
5.850000	-10.894693	-34.867878	-0.876257	-12.183045	-0.876257	-12.183045	-10.306077	-171.245037
5.900000	-10.735814	-41.082744	-0.899307	-15.653002	-0.899307	-15.653002	-10.149527	-172.012954
5.950000	-10.580355	-47.215763	-0.922978	-19.123124	-0.922978	-19.123124	-9.995515	-172.858940
6.000000	-10.429513	-53.270688	-0.947132	-22.593168	-0.947132	-22.593168	-9.845180	-173.779624
6.050000	-10.284346	-59.252038	-0.971619	-26.063002	-0.971619	-26.063002	-9.699547	-174.771045
6.100000	-10.145776	-65.164951	-0.996288	-29.532610	-0.996288	-29.532610	-9.559521	-175.828800
6.150000	-10.014599	-71.015058	-1.020979	-33.002098	-1.020979	-33.002098	-9.425898	-176.948176
6.200000	-9.891496	-76.808381	-1.045530	-36.471697	-1.045530	-36.471697	-9.299367	-178.124258
6.250000	-9.777043	-82.551251	-1.069778	-39.941764	-1.069778	-39.941764	-9.180523	-179.352019
6.300000	-9.671905	-88.249449	-1.093548	-43.412821	-1.093548	-43.412821	-9.070037	179.372722
6.350000	-9.576324	-93.910873	-1.116689	-46.885480	-1.116689	-46.885480	-8.968205	178.056158
6.400000	-9.490624	-99.542491	-1.139047	-50.360489	-1.139047	-50.360489	-8.875390	176.703317
6.450000	-9.415068	-105.151425	-1.160474	-53.838716	-1.160474	-53.838716	-8.791897	175.319167
6.500000	-9.349866	-110.744950	-1.180833	-57.321153	-1.180833	-57.321153	-8.717983	173.908612
6.550000	-9.295184	-116.330488	-1.199993	-60.808901	-1.199993	-60.808901	-8.653864	172.476497
6.600000	-9.251151	-121.915623	-1.217839	-64.303172	-1.217839	-64.303172	-8.599724	171.027620
6.650000	-9.217860	-127.508109	-1.234264	-67.805279	-1.234264	-67.805279	-8.555718	169.566756
6.700000	-9.195129	-133.115331	-1.249216	-71.316383	-1.249216	-71.316383	-8.521743	168.098729
6.750000	-9.183609	-138.746714	-1.262530	-74.838576	-1.262530	-74.838576	-8.498494	166.628187
6.800000	-9.182947	-144.410128	-1.274199	-78.373123	-1.274199	-78.373123	-8.485724	165.160275
6.850000	-9.193126	-150.114233	-1.284185	-81.921674	-1.284185	-81.921674	-8.483509	163.700026
6.900000	-9.214099	-155.867972	-1.292468	-85.485937	-1.292468	-85.485937	-8.491908	162.252656
6.950000	-9.245783	-161.680603	-1.299046	-89.067674	-1.299046	-89.067674	-8.510960	160.823612
7.000000	-9.288057	-167.561718	-1.303940	-92.668684	-1.303940	-92.668684	-8.540678	159.418632
7.050000	-9.340749	-173.521263	-1.307193	-96.290796	-1.307193	-96.290796	-8.581044	158.043802
7.100000	-9.403672	-179.570037	-1.308860	-99.935977	-1.308860	-99.935977	-8.632046	156.705829
7.150000	-9.476553	174.280563	-1.309024	-103.606235	-1.309024	-103.606235	-8.693613	155.412036
7.200000	-9.558895	168.020319	-1.307812	-107.303190	-1.307812	-107.303190	-8.765458	154.169576
7.250000	-9.650179	161.637818	-1.305356	-111.028661	-1.305356	-111.028661	-8.847302	152.986520
7.300000	-9.749753	155.121366	-1.301816	-114.784428	-1.301816	-114.784428	-8.938754	151.871537
7.350000	-9.856801	148.459068	-1.297373	-118.572220	-1.297373	-118.572220	-9.039275	150.833897
7.400000	-9.970311	141.638967	-1.292230	-122.393699	-1.292230	-122.393699	-9.148152	149.883448
7.450000	-10.089050	134.649226	-1.286615	-126.250441	-1.286615	-126.250441	-9.264451	149.030540
7.500000	-10.211526	127.478380	-1.280775	-130.143924	-1.280775	-130.143924	-9.386974	148.285894
7.550000	-10.335935	120.112745	-1.274985	-134.076081	-1.274985	-134.076081	-9.514223	147.662270
7.600000	-10.460149	112.545391	-1.269539	-138.047604	-1.269539	-138.047604	-9.644244	147.168768
7.650000	-10.581749	104.768449	-1.264742	-142.059564	-1.264742	-142.059564	-9.774739	146.815379
7.700000	-10.698004	96.776350	-1.260917	-146.112873	-1.260917	-146.112873	-9.902963	146.610799
7.750000	-10.805896	88.566487	-1.258400	-150.208262	-1.258400	-150.208262	-10.025709	146.561642
7.800000	-10.902182	80.139913	-1.257536	-154.346271	-1.257536	-154.346271	-10.139314	146.671510
7.850000	-10.983495	71.501977	-1.258680	-158.527239	-1.258680	-158.527239	-10.239725	146.939962
7.900000	-11.046470	62.662827	-1.262189	-162.751295	-1.262189	-162.751295	-10.322603	147.361455
7.950000	-11.087682	53.636079	-1.268452	-167.018759	-1.268452	-167.018759	-10.383241	147.925603
8.000000	-11.104365	44.443363	-1.277819	-171.329102	-1.277819	-171.329102	-10.417363	148.612934
8.050000	-11.094375	35.110451	-1.290625	-175.681569	-1.290625	-175.681569	-10.421206	149.397421
8.100000	-11.056192	25.665724	-1.307209	179.924603	-1.307209	179.924603	-10.391641	150.247523
8.150000	-10.989140	16.139768	-1.327893	175.490396	-1.327893	175.490396	-10.326566	151.126802
8.200000	-10.893442	6.563854	-1.352983	171.016996	-1.352983	171.016996	-10.225112	151.995884
8.250000	-10.770195	-3.031630	-1.382762	166.505785	-1.382762	166.505785	-10.087742	152.814847
8.300000	-10.621270	-12.618596	-1.417487	161.958326	-1.417487	161.958326	-9.916217	153.545692
8.350000	-10.449042	-22.172110	-1.457414	157.376189	-1.457414	157.376189	-9.713273	154.153830
8.400000	-10.256368	-31.671039	-1.502766	152.761130	-1.502766	152.761130	-9.482589	154.610046
8.450000	-10.046669	-41.099770	-1.553657	148.115489	-1.553657	148.115489	-9.228879	154.894522
8.500000	-9.823159	-50.446658	-1.610212	143.441374	-1.610212	143.441374	-8.956769	154.993202
8.550000	-9.588949	-59.703934	-1.672520	138.740977	-1.672520	138.740977	-8.670872	154.898542
8.600000	-9.346935	-68.867114	-1.740626	134.016547	-1.740626	134.016547	-8.375576	154.608691
8.650000	-9.099722	-77.934328	-1.814536	129.270374	-1.814536	129.270374	-8.074899	154.126458
8.700000	-8.849593	-86.905641	-1.894214	124.504759	-1.894214	124.504759	-7.772404	153.458226
8.750000	-8.598493	-95.782427	-1.979576	119.721997	-1.979576	119.721997	-7.471171	152.612933
8.800000	-8.347972	-104.565529	-2.070557	114.924170	-2.070557	114.924170	-7.173741	151.598948
8.850000	-8.099475	-113.258799	-2.166906	110.113726	-2.166906	110.113726	-6.882382	150.430405
8.900000	-7.854072	-121.864705	-2.268394	105.292780	-2.268394	105.292780	-6.598822	149.119202
8.950000	-7.612622	-130.385479	-2.374738	100.463328	-2.374738	100.463328	-6.324433	147.677149
9.000000	-7.375821	-138.822987	-2.485598	95.627211	-2.485598	95.627211	-6.060289	146.115685
9.050000	-7.144240	-147.178672	-2.600579	90.786079	-2.600579	90.786079	-5.807214	144.445670
9.100000	-6.918368	-155.453577	-2.719221	85.941337	-2.719221	85.941337	-5.565830	142.677269
9.150000	-6.698647	-163.648408	-2.840997	81.094091	-2.840997	81.094091	-5.336601	140.819886
9.200000	-6.485529	-171.762889	-2.965312	76.245068	-2.965312	76.245068	-5.119947	138.881439
9.250000	-6.279476	-179.797846	-3.091476	71.394566	-3.091476	71.394566	-4.916111	136.870289
9.300000	-6.080984	172.245778	-3.218731	66.542321	-3.218731	66.542321	-4.725264	134.793866
9.350000	-5.890634	164.367086	-3.346240	61.687408	-3.346240	61.687408	-4.547587	132.658502
9.400000	-5.709113	156.564632	-3.473077	56.828113	-3.473077	56.828113	-4.383268	130.469864
9.450000	-5.537203	148.835735	-3.598251	51.961853	-3.598251	51.961853	-4.232453	128.233301
9.500000	-5.376009	141.178180	-3.720583	47.084722	-3.720583	47.084722	-4.095587	125.952730
9.550000	-5.227025	133.588541	-3.838692	42.191044	-3.838692	42.191044	-3.973325	123.631678
9.600000	-5.091292	126.057609	-3.951563	37.275006	-3.951563	37.275006	-3.865545	121.275875
9.650000	-4.970833	118.579078	-4.057697	32.327907	-4.057697	32.327907	-3.773127	118.888272
9.700000	-4.868521	111.144920	-4.155292	27.337719	-4.155292	27.337719	-3.697454	116.471859
9.750000	-4.787559	103.743506	-4.242679	22.290363	-4.242679	22.290363	-3.639824	114.031214
9.800000	-4.731842	96.361877	-4.318211	17.169165	-4.318211	17.169165	-3.601845	111.572064
9.850000	-4.706811	88.986701	-4.379996	11.952527	-4.379996	11.952527	-3.586005	109.101948
9.900000	-4.720165	81.604650	-4.425900	6.611956	-4.425900	6.611956	-3.595965	106.632665
9.950000	-4.780851	74.205360	-4.454275	1.116130	-4.454275	1.116130	-3.635773	104.183260
10.000000	-4.901323	66.785503	-4.463423	-4.575300	-4.463423	-4.575300	-3.711146	101.785255
