! freq	dB(S11)	phase(S11)	dB(S12)	phase(S12)	
!     	dB(S21)	phase(S21)	dB(S22)	phase(S22)	
!S-par simulation data
#  GHz  S  DB  R 50
0.000000	-0.000000	0.000000	-346.513568	0.000000	-346.513568	0.000000	-0.000000	0.000000
0.050000	-0.012996	-1.206546	-88.926834	90.002765	-88.926834	90.002765	-0.013011	-1.206702
0.100000	-0.013760	-2.444750	-82.920939	88.158454	-82.920939	88.158454	-0.013763	-2.444777
0.150000	-0.014130	-3.676160	-79.409068	86.724438	-79.409068	86.724438	-0.014131	-3.676106
0.200000	-0.014519	-4.905390	-76.922153	85.396773	-76.922153	85.396773	-0.014519	-4.905272
0.250000	-0.014985	-6.133319	-74.999079	84.117440	-74.999079	84.117440	-0.014984	-6.133147
0.300000	-0.015532	-7.360308	-73.433198	82.863085	-73.433198	82.863085	-0.015531	-7.360083
0.350000	-0.016164	-8.586348	-72.115012	81.628060	-72.115012	81.628060	-0.016163	-8.586074
0.400000	-0.016881	-9.811409	-70.978918	80.409042	-70.978918	80.409042	-0.016880	-9.811088
0.450000	-0.017680	-11.035427	-69.982571	79.204751	-69.982571	79.204751	-0.017678	-11.035059
0.500000	-0.018557	-12.258321	-69.097031	78.014924	-69.097031	78.014924	-0.018556	-12.257908
0.550000	-0.019510	-13.480005	-68.301634	76.839854	-68.301634	76.839854	-0.019508	-13.479548
0.600000	-0.020532	-14.700391	-67.581094	75.680159	-67.581094	75.680159	-0.020530	-14.699890
0.650000	-0.021621	-15.919389	-66.923775	74.536658	-66.923775	74.536658	-0.021619	-15.918846
0.700000	-0.022771	-17.136914	-66.320606	73.410304	-66.320606	73.410304	-0.022769	-17.136328
0.750000	-0.023977	-18.352880	-65.764365	72.302136	-65.764365	72.302136	-0.023975	-18.352253
0.800000	-0.025236	-19.567206	-65.249201	71.213258	-65.249201	71.213258	-0.025234	-19.566539
0.850000	-0.026542	-20.779814	-64.770295	70.144815	-64.770295	70.144815	-0.026539	-20.779107
0.900000	-0.027890	-21.990628	-64.323622	69.097981	-64.323622	69.097981	-0.027888	-21.989882
0.950000	-0.029277	-23.199576	-63.905776	68.073954	-63.905776	68.073954	-0.029274	-23.198793
1.000000	-0.030697	-24.406591	-63.513839	67.073939	-63.513839	67.073939	-0.030694	-24.405770
1.050000	-0.032147	-25.611607	-63.145281	66.099145	-63.145281	66.099145	-0.032144	-25.610750
1.100000	-0.033622	-26.814563	-62.797885	65.150777	-62.797885	65.150777	-0.033619	-26.813670
1.150000	-0.035119	-28.015398	-62.469689	64.230026	-62.469689	64.230026	-0.035116	-28.014471
1.200000	-0.036634	-29.214059	-62.158938	63.338063	-62.158938	63.338063	-0.036630	-29.213098
1.250000	-0.038163	-30.410492	-61.864044	62.476027	-61.864044	62.476027	-0.038160	-30.409499
1.300000	-0.039705	-31.604545	-61.583753	61.646415	-61.583753	61.646415	-0.039701	-31.603520
1.350000	-0.041254	-32.796269	-61.316496	60.848964	-61.316496	60.848964	-0.041251	-32.795214
1.400000	-0.042810	-33.985618	-61.061030	60.084641	-61.061030	60.084641	-0.042806	-33.984533
1.450000	-0.044369	-35.172550	-60.816191	59.354335	-60.816191	59.354335	-0.044365	-35.171437
1.500000	-0.045930	-36.357025	-60.580876	58.658832	-60.580876	58.658832	-0.045926	-36.355885
1.550000	-0.047491	-37.539005	-60.354037	57.998805	-60.354037	57.998805	-0.047487	-37.537839
1.600000	-0.049050	-38.718453	-60.134668	57.374792	-60.134668	57.374792	-0.049046	-38.717262
1.650000	-0.050606	-39.895336	-59.921800	56.787176	-59.921800	56.787176	-0.050602	-39.894120
1.700000	-0.052158	-41.069619	-59.714492	56.236168	-59.714492	56.236168	-0.052153	-41.068381
1.750000	-0.053705	-42.241274	-59.511831	55.721779	-59.511831	55.721779	-0.053700	-42.240014
1.800000	-0.055246	-43.410270	-59.312926	55.243806	-59.312926	55.243806	-0.055241	-43.408990
1.850000	-0.056781	-44.576580	-59.116905	54.801805	-59.116905	54.801805	-0.056776	-44.575281
1.900000	-0.058309	-45.740178	-58.922919	54.395074	-58.922919	54.395074	-0.058304	-45.738860
1.950000	-0.059830	-46.901039	-58.730138	54.022634	-58.730138	54.022634	-0.059826	-46.899705
2.000000	-0.061345	-48.059141	-58.537754	53.683209	-58.537754	53.683209	-0.061341	-48.057791
2.050000	-0.062854	-49.214461	-58.344983	53.375220	-58.344983	53.375220	-0.062849	-49.213098
2.100000	-0.064356	-50.366981	-58.151068	53.096771	-58.151068	53.096771	-0.064351	-50.365604
2.150000	-0.065852	-51.516681	-57.955284	52.845645	-57.955284	52.845645	-0.065847	-51.515292
2.200000	-0.067342	-52.663544	-57.756942	52.619306	-57.756942	52.619306	-0.067337	-52.662145
2.250000	-0.068828	-53.807554	-57.555391	52.414911	-57.555391	52.414911	-0.068823	-53.806146
2.300000	-0.070309	-54.948698	-57.350027	52.229318	-57.350027	52.229318	-0.070304	-54.947282
2.350000	-0.071787	-56.086962	-57.140294	52.059112	-57.140294	52.059112	-0.071782	-56.085540
2.400000	-0.073262	-57.222336	-56.925691	51.900630	-56.925691	51.900630	-0.073257	-57.220909
2.450000	-0.074735	-58.354809	-56.705775	51.750000	-56.705775	51.750000	-0.074730	-58.353378
2.500000	-0.076207	-59.484373	-56.480164	51.603176	-56.480164	51.603176	-0.076202	-59.482941
2.550000	-0.077679	-60.610896	-56.247987	51.455772	-56.247987	51.455772	-0.077674	-60.609462
2.600000	-0.079152	-61.734497	-56.009492	51.303369	-56.009492	51.303369	-0.079147	-61.733065
2.650000	-0.080627	-62.855176	-55.764496	51.141699	-55.764496	51.141699	-0.080622	-62.853745
2.700000	-0.082105	-63.972928	-55.512878	50.966527	-55.512878	50.966527	-0.082100	-63.971502
2.750000	-0.083587	-65.087756	-55.254580	50.773704	-55.254580	50.773704	-0.083582	-65.086335
2.800000	-0.085074	-66.199661	-54.989598	50.559210	-54.989598	50.559210	-0.085069	-66.198246
2.850000	-0.086567	-67.308646	-54.717983	50.319196	-54.717983	50.319196	-0.086563	-67.307240
2.900000	-0.088068	-68.414718	-54.439828	50.050021	-54.439828	50.050021	-0.088063	-68.413322
2.950000	-0.089577	-69.517883	-54.155270	49.748282	-54.155270	49.748282	-0.089572	-69.516498
3.000000	-0.091095	-70.618150	-53.864476	49.410835	-53.864476	49.410835	-0.091090	-70.616780
3.050000	-0.092624	-71.715532	-53.567640	49.034812	-53.567640	49.034812	-0.092619	-71.714177
3.100000	-0.094164	-72.810042	-53.264972	48.617630	-53.264972	48.617630	-0.094159	-72.808704
3.150000	-0.095717	-73.901695	-52.956695	48.156992	-52.956695	48.156992	-0.095712	-73.900375
3.200000	-0.097283	-74.990509	-52.643037	47.650885	-52.643037	47.650885	-0.097278	-74.989210
3.250000	-0.098865	-76.076504	-52.324221	47.097570	-52.324221	47.097570	-0.098860	-76.075227
3.300000	-0.100462	-77.159702	-52.000464	46.495572	-52.000464	46.495572	-0.100456	-77.158450
3.350000	-0.102075	-78.240130	-51.671968	45.843657	-51.671968	45.843657	-0.102070	-78.238904
3.400000	-0.103707	-79.317813	-51.338914	45.140818	-51.338914	45.140818	-0.103701	-79.316616
3.450000	-0.105357	-80.392784	-51.001461	44.386250	-51.001461	44.386250	-0.105352	-80.391618
3.500000	-0.107028	-81.465075	-50.659740	43.579331	-50.659740	43.579331	-0.107022	-81.463942
3.550000	-0.108718	-82.534723	-50.313850	42.719591	-50.313850	42.719591	-0.108712	-82.533625
3.600000	-0.110431	-83.601769	-49.963854	41.806699	-49.963854	41.806699	-0.110425	-83.600708
3.650000	-0.112167	-84.666256	-49.609779	40.840428	-49.609779	40.840428	-0.112160	-84.665235
3.700000	-0.113926	-85.728232	-49.251608	39.820642	-49.251608	39.820642	-0.113920	-85.727253
3.750000	-0.115711	-86.787750	-48.889283	38.747268	-48.889283	38.747268	-0.115704	-86.786816
3.800000	-0.117522	-87.844764	-48.521819	37.617947	-48.521819	37.617947	-0.117516	-87.843877
3.850000	-0.119361	-88.899446	-48.149881	36.435005	-48.149881	36.435005	-0.119354	-88.898609
3.900000	-0.121228	-89.951863	-47.773249	35.198442	-47.773249	35.198442	-0.121221	-89.951079
3.950000	-0.123125	-91.002092	-47.391646	33.908241	-47.391646	33.908241	-0.123118	-91.001365
4.000000	-0.125052	-92.050216	-47.004732	32.564350	-47.004732	32.564350	-0.125045	-92.049548
4.050000	-0.127012	-93.096327	-46.612100	31.166671	-46.612100	31.166671	-0.127005	-93.095721
4.100000	-0.129006	-94.140526	-46.213273	29.715037	-46.213273	29.715037	-0.128999	-94.139985
4.150000	-0.131035	-95.182926	-45.807691	28.209202	-45.807691	28.209202	-0.131028	-95.182455
4.200000	-0.133101	-96.223653	-45.394710	26.648816	-45.394710	26.648816	-0.133094	-96.223255
4.250000	-0.135208	-97.262849	-44.973589	25.033418	-44.973589	25.033418	-0.135201	-97.262528
4.300000	-0.137356	-98.300672	-44.543479	23.362405	-44.543479	23.362405	-0.137349	-98.300432
4.350000	-0.139549	-99.337302	-44.103410	21.635016	-44.103410	21.635016	-0.139543	-99.337148
4.400000	-0.141791	-100.372947	-43.652275	19.850305	-43.652275	19.850305	-0.141785	-100.372884
4.450000	-0.144086	-101.407842	-43.188806	18.007108	-43.188806	18.007108	-0.144081	-101.407875
4.500000	-0.146440	-102.442264	-42.711557	16.104002	-42.711557	16.104002	-0.146435	-102.442398
4.550000	-0.148858	-103.476532	-42.218866	14.139261	-42.218866	14.139261	-0.148854	-103.476775
4.600000	-0.151349	-104.511025	-41.708824	12.110786	-41.708824	12.110786	-0.151346	-104.511384
4.650000	-0.153924	-105.546196	-41.179222	10.016025	-41.179222	10.016025	-0.153922	-105.546678
4.700000	-0.156596	-106.582589	-40.627499	7.851860	-40.627499	7.851860	-0.156595	-106.583202
4.750000	-0.159383	-107.620865	-40.050661	5.614456	-40.050661	5.614456	-0.159384	-107.621621
4.800000	-0.162301	-108.661665	-39.448793	3.302807	-39.448793	3.302807	-0.162304	-108.662574
4.850000	-0.165399	-109.706370	-38.810006	0.902754	-38.810006	0.902754	-0.165405	-109.707447
4.900000	-0.168715	-110.756131	-38.133207	-1.589056	-38.133207	-1.589056	-0.168723	-110.757392
4.950000	-0.172313	-111.812649	-37.412265	-4.182605	-37.412265	-4.182605	-0.172325	-111.814113
5.000000	-0.176288	-112.878170	-36.639650	-6.891129	-36.639650	-6.891129	-0.176304	-112.879861
5.050000	-0.180792	-113.956033	-35.802982	-9.735512	-35.802982	-9.735512	-0.180814	-113.957982
5.100000	-0.186044	-115.050372	-34.892036	-12.739320	-34.892036	-12.739320	-0.186073	-115.052617
5.150000	-0.192405	-116.167343	-33.890725	-15.939724	-33.890725	-15.939724	-0.192444	-116.169934
5.200000	-0.200489	-117.316075	-32.777536	-19.392742	-32.777536	-19.392742	-0.200542	-117.319081
5.250000	-0.211343	-118.509830	-31.527595	-23.180996	-31.527595	-23.180996	-0.211415	-118.513345
5.300000	-0.227199	-119.772921	-30.088982	-27.463750	-30.088982	-27.463750	-0.227300	-119.777086
5.350000	-0.252498	-121.143013	-28.405277	-32.499974	-28.405277	-32.499974	-0.252648	-121.148048
5.400000	-0.298202	-122.690384	-26.374675	-38.827222	-26.374675	-38.827222	-0.298439	-122.696652
5.450000	-0.395054	-124.537694	-23.843025	-47.647502	-23.843025	-47.647502	-0.395476	-124.545830
5.500000	-0.648264	-126.792576	-20.601640	-62.156812	-20.601640	-62.156812	-0.649175	-126.803613
5.550000	-1.384411	-127.787286	-16.903017	-91.409241	-16.903017	-91.409241	-1.386933	-127.799517
5.600000	-1.679360	-120.611544	-16.210649	-140.762184	-16.210649	-140.762184	-1.682679	-120.603973
5.650000	-0.846205	-119.576826	-19.547876	-175.319388	-19.547876	-175.319388	-0.847405	-119.565797
5.700000	-0.506655	-121.651632	-22.802576	167.819863	-22.802576	167.819863	-0.507140	-121.643937
5.750000	-0.379863	-123.506086	-25.312390	157.895253	-25.312390	157.895253	-0.380109	-123.500670
5.800000	-0.323063	-125.064508	-27.273207	150.848025	-27.273207	150.848025	-0.323209	-125.060563
5.850000	-0.294012	-126.437035	-28.856339	145.201860	-28.856339	145.201860	-0.294107	-126.434109
5.900000	-0.277952	-127.694215	-30.168575	140.330455	-30.168575	140.330455	-0.278020	-127.692044
5.950000	-0.268781	-128.876230	-31.275824	135.930471	-31.275824	135.930471	-0.268833	-128.874649
6.000000	-0.263490	-130.008595	-32.231949	131.828381	-32.231949	131.828381	-0.263532	-130.007498
6.050000	-0.260689	-131.104675	-33.060289	127.938169	-33.060289	127.938169	-0.260724	-131.103987
6.100000	-0.259516	-132.174204	-33.783652	124.201504	-33.783652	124.201504	-0.259548	-132.173871
6.150000	-0.259392	-133.225044	-34.428914	120.574065	-34.428914	120.574065	-0.259421	-133.225030
6.200000	-0.260082	-134.260246	-34.998678	117.041029	-34.998678	117.041029	-0.260110	-134.260520
6.250000	-0.261369	-135.283221	-35.503879	113.586591	-35.503879	113.586591	-0.261396	-135.283762
6.300000	-0.263090	-136.296837	-35.956488	110.197689	-35.956488	110.197689	-0.263118	-136.297629
6.350000	-0.265157	-137.302756	-36.362003	106.868539	-36.362003	106.868539	-0.265185	-137.303785
6.400000	-0.267520	-138.301911	-36.721519	103.599319	-36.721519	103.599319	-0.267549	-138.303167
6.450000	-0.270127	-139.295424	-37.039417	100.389166	-37.039417	100.389166	-0.270157	-139.296898
6.500000	-0.272898	-140.285161	-37.329674	97.224331	-37.329674	97.224331	-0.272930	-140.286847
6.550000	-0.275839	-141.271057	-37.587993	94.112515	-37.587993	94.112515	-0.275872	-141.272951
6.600000	-0.278943	-142.253359	-37.813216	91.061007	-37.813216	91.061007	-0.278978	-142.255457
6.650000	-0.282171	-143.233113	-38.013932	88.061508	-38.013932	88.061508	-0.282207	-143.235412
6.700000	-0.285506	-144.210763	-38.192997	85.112247	-38.192997	85.112247	-0.285545	-144.213262
6.750000	-0.288948	-145.186472	-38.350092	82.217905	-38.350092	82.217905	-0.288989	-145.189168
6.800000	-0.292488	-146.160599	-38.487644	79.377792	-38.487644	79.377792	-0.292530	-146.163491
6.850000	-0.296117	-147.133421	-38.607347	76.592187	-38.607347	76.592187	-0.296162	-147.136510
6.900000	-0.299832	-148.105185	-38.710746	73.861288	-38.710746	73.861288	-0.299879	-148.108470
6.950000	-0.303628	-149.076113	-38.799252	71.185196	-38.799252	71.185196	-0.303677	-149.079596
7.000000	-0.307502	-150.046409	-38.874160	68.563917	-38.874160	68.563917	-0.307553	-150.050089
7.050000	-0.311451	-151.016257	-38.936654	65.997361	-38.936654	65.997361	-0.311503	-151.020136
7.100000	-0.315472	-151.985829	-38.987824	63.485354	-38.987824	63.485354	-0.315527	-151.989910
7.150000	-0.319565	-152.955287	-39.028668	61.027648	-39.028668	61.027648	-0.319622	-152.959570
7.200000	-0.323729	-153.924781	-39.060101	58.623934	-39.060101	58.623934	-0.323788	-153.929268
7.250000	-0.327961	-154.894453	-39.082964	56.273856	-39.082964	56.273856	-0.328022	-154.899147
7.300000	-0.332262	-155.864441	-39.098027	53.977028	-39.098027	53.977028	-0.332325	-155.869343
7.350000	-0.336631	-156.834874	-39.105994	51.733048	-39.105994	51.733048	-0.336696	-156.839988
7.400000	-0.341068	-157.805878	-39.107508	49.541512	-39.107508	49.541512	-0.341134	-157.811206
7.450000	-0.345573	-158.777575	-39.103156	47.402027	-39.103156	47.402027	-0.345641	-158.783120
7.500000	-0.350146	-159.750083	-39.093472	45.314226	-39.093472	45.314226	-0.350215	-159.755848
7.550000	-0.354789	-160.723563	-39.078749	43.280000	-39.078749	43.280000	-0.354861	-160.729552
7.600000	-0.359502	-161.698094	-39.059648	41.296827	-39.059648	41.296827	-0.359575	-161.704311
7.650000	-0.364284	-162.673786	-39.036559	39.364496	-39.036559	39.364496	-0.364358	-162.680235
7.700000	-0.369135	-163.650751	-39.009826	37.482864	-39.009826	37.482864	-0.369211	-163.657434
7.750000	-0.374057	-164.629097	-38.979756	35.651869	-38.979756	35.651869	-0.374134	-164.636020
7.800000	-0.379050	-165.608933	-38.946619	33.871532	-38.946619	33.871532	-0.379129	-165.616099
7.850000	-0.384115	-166.590367	-38.910644	32.141970	-38.910644	32.141970	-0.384195	-166.597781
7.900000	-0.389253	-167.573508	-38.872030	30.463398	-38.872030	30.463398	-0.389334	-167.581175
7.950000	-0.394464	-168.558465	-38.830937	28.836137	-38.830937	28.836137	-0.394546	-168.566389
8.000000	-0.399751	-169.545346	-38.787489	27.260615	-38.787489	27.260615	-0.399834	-169.553533
8.050000	-0.405113	-170.534262	-38.741778	25.737377	-38.741778	25.737377	-0.405198	-170.542716
8.100000	-0.410553	-171.525325	-38.693858	24.267081	-38.693858	24.267081	-0.410638	-171.534051
8.150000	-0.416071	-172.518646	-38.643747	22.850505	-38.643747	22.850505	-0.416157	-172.527650
8.200000	-0.421668	-173.514341	-38.591424	21.488548	-38.591424	21.488548	-0.421755	-173.523628
8.250000	-0.427346	-174.512526	-38.536832	20.182224	-38.536832	20.182224	-0.427434	-174.522102
8.300000	-0.433106	-175.513320	-38.479867	18.932669	-38.479867	18.932669	-0.433196	-175.523190
8.350000	-0.438948	-176.516761	-38.420480	17.739393	-38.420480	17.739393	-0.439038	-176.526932
8.400000	-0.444878	-177.523177	-38.358258	16.607968	-38.358258	16.607968	-0.444970	-177.533654
8.450000	-0.450894	-178.532533	-38.293138	15.536423	-38.293138	15.536423	-0.450987	-178.543322
8.500000	-0.456997	-179.544957	-38.224839	14.526229	-38.224839	14.526229	-0.457092	-179.556064
8.550000	-0.463189	179.439420	-38.153027	13.578924	-38.153027	13.578924	-0.463286	179.427989
8.600000	-0.469482	178.420076	-38.076752	12.703389	-38.076752	12.703389	-0.469581	178.408315
8.650000	-0.475869	177.397202	-37.995971	11.894665	-37.995971	11.894665	-0.475970	177.385105
8.700000	-0.482353	176.370667	-37.910173	11.153949	-37.910173	11.153949	-0.482456	176.358227
8.750000	-0.488935	175.340312	-37.818749	10.482783	-37.818749	10.482783	-0.489042	175.327524
8.800000	-0.495619	174.305971	-37.721014	9.882614	-37.721014	9.882614	-0.495729	174.292829
8.850000	-0.502409	173.267469	-37.616206	9.354748	-37.616206	9.354748	-0.502523	173.253967
8.900000	-0.509313	172.224422	-37.503029	8.903481	-37.503029	8.903481	-0.509431	172.210555
8.950000	-0.516340	171.176463	-37.380054	8.531997	-37.380054	8.531997	-0.516462	171.162225
9.000000	-0.523487	170.123698	-37.246929	8.235264	-37.246929	8.235264	-0.523615	170.109083
9.050000	-0.530763	169.065897	-37.102518	8.013220	-37.102518	8.013220	-0.530896	169.050901
9.100000	-0.538174	168.002811	-36.945603	7.865267	-36.945603	7.865267	-0.538313	167.987428
9.150000	-0.545729	166.934173	-36.774884	7.790180	-36.774884	7.790180	-0.545876	166.918399
9.200000	-0.553442	165.859693	-36.588991	7.786018	-36.588991	7.786018	-0.553596	165.843522
9.250000	-0.561340	164.778459	-36.384344	7.855966	-36.384344	7.855966	-0.561503	164.761885
9.300000	-0.569434	163.690497	-36.160579	7.991178	-36.160579	7.991178	-0.569605	163.673516
9.350000	-0.577739	162.595578	-35.916652	8.185110	-35.916652	8.185110	-0.577920	162.578185
9.400000	-0.586282	161.493286	-35.650974	8.431858	-35.650974	8.431858	-0.586473	161.475472
9.450000	-0.595095	160.383163	-35.361951	8.724466	-35.361951	8.724466	-0.595297	160.364922
9.500000	-0.604216	159.264709	-35.048005	9.054932	-35.048005	9.054932	-0.604429	159.246031
9.550000	-0.613703	158.137144	-34.706526	9.414667	-34.706526	9.414667	-0.613928	158.118017
9.600000	-0.623652	156.999144	-34.332626	9.793494	-34.332626	9.793494	-0.623889	156.979550
9.650000	-0.634106	155.850868	-33.928425	10.177774	-33.928425	10.177774	-0.634356	155.830786
9.700000	-0.645160	154.691593	-33.492411	10.555568	-33.492411	10.555568	-0.645425	154.670994
9.750000	-0.656890	153.521159	-33.026126	10.915810	-33.026126	10.915810	-0.657171	153.500009
9.800000	-0.669549	152.337119	-32.520028	11.241075	-32.520028	11.241075	-0.669848	152.315366
9.850000	-0.683281	151.139282	-31.975897	11.518206	-31.975897	11.518206	-0.683601	151.116862
9.900000	-0.698250	149.927510	-31.395673	11.735296	-31.395673	11.735296	-0.698598	149.904344
9.950000	-0.714860	148.699627	-30.770490	11.870434	-30.770490	11.870434	-0.715246	148.675608
10.000000	-0.733422	147.455395	-30.100595	11.908451	-30.100595	11.908451	-0.733861	147.430391
