! freq	dB(S11)	phase(S11)	dB(S12)	phase(S12)	
!     	dB(S21)	phase(S21)	dB(S22)	phase(S22)	
!S-par simulation data
#  GHz  S  DB  R 50
0.000000	-0.000000	0.000000	-325.380685	0.000000	-325.380685	0.000000	-0.000000	0.000000
0.050000	-0.000947	-1.508278	-79.811918	87.774010	-79.811918	87.774010	-0.002228	-2.601680
0.100000	-0.003241	-3.009616	-73.798182	85.844863	-73.798182	85.844863	-0.006354	-5.182694
0.150000	-0.005941	-4.502854	-70.289714	83.853806	-70.289714	83.853806	-0.010082	-7.749335
0.200000	-0.008491	-5.990225	-67.810718	81.851455	-67.810718	81.851455	-0.013284	-10.308294
0.250000	-0.010795	-7.474614	-65.896480	79.849415	-65.896480	79.849415	-0.016290	-12.862039
0.300000	-0.012872	-8.957185	-64.341775	77.852236	-64.341775	77.852236	-0.019264	-15.410007
0.350000	-0.014791	-10.438601	-63.036642	75.862907	-63.036642	75.862907	-0.022290	-17.951373
0.400000	-0.016610	-11.919053	-61.915584	73.883831	-61.915584	73.883831	-0.025392	-20.485128
0.450000	-0.018369	-13.398388	-60.937516	71.918233	-60.937516	71.918233	-0.028568	-23.009560
0.500000	-0.020101	-14.876525	-60.071855	69.966697	-60.071855	69.966697	-0.031791	-25.524723
0.550000	-0.021821	-16.353241	-59.297889	68.030802	-59.297889	68.030802	-0.035039	-28.029939
0.600000	-0.023536	-17.828299	-58.600281	66.112050	-58.600281	66.112050	-0.038291	-30.524584
0.650000	-0.025252	-19.301459	-57.967345	64.211880	-57.967345	64.211880	-0.041531	-33.008078
0.700000	-0.026972	-20.772488	-57.389955	62.331683	-57.389955	62.331683	-0.044745	-35.479874
0.750000	-0.028696	-22.241006	-56.861618	60.474191	-56.861618	60.474191	-0.047917	-37.938667
0.800000	-0.030427	-23.706788	-56.376280	58.640763	-56.376280	58.640763	-0.051039	-40.383961
0.850000	-0.032163	-25.169952	-55.927647	56.829955	-55.927647	56.829955	-0.054109	-42.816776
0.900000	-0.033904	-26.629984	-55.513058	55.045849	-55.513058	55.045849	-0.057114	-45.235087
0.950000	-0.035652	-28.086829	-55.128543	53.288674	-55.128543	53.288674	-0.060053	-47.638984
1.000000	-0.037405	-29.540329	-54.771128	51.559607	-54.771128	51.559607	-0.062921	-50.028031
1.050000	-0.039162	-30.990340	-54.438234	49.859787	-54.438234	49.859787	-0.065713	-52.401817
1.100000	-0.040924	-32.436727	-54.127598	48.190310	-54.127598	48.190310	-0.068426	-54.759951
1.150000	-0.042688	-33.879368	-53.837222	46.552231	-53.837222	46.552231	-0.071057	-57.102065
1.200000	-0.044455	-35.318149	-53.565316	44.946561	-53.565316	44.946561	-0.073602	-59.427814
1.250000	-0.046222	-36.752965	-53.310270	43.374265	-53.310270	43.374265	-0.076058	-61.736878
1.300000	-0.047990	-38.183627	-53.070789	41.837026	-53.070789	41.837026	-0.078421	-64.028586
1.350000	-0.049756	-39.610132	-52.845337	40.334977	-52.845337	40.334977	-0.080692	-66.303033
1.400000	-0.051519	-41.032394	-52.632670	38.868917	-52.632670	38.868917	-0.082870	-68.559979
1.450000	-0.053279	-42.450335	-52.431630	37.439579	-52.431630	37.439579	-0.084958	-70.799211
1.500000	-0.055033	-43.863641	-52.241441	36.049675	-52.241441	36.049675	-0.086952	-73.019568
1.550000	-0.056782	-45.272674	-52.060476	34.696117	-52.060476	34.696117	-0.088865	-75.222651
1.600000	-0.058524	-46.677180	-51.888029	33.380991	-51.888029	33.380991	-0.090700	-77.407570
1.650000	-0.060259	-48.077099	-51.723160	32.104662	-51.723160	32.104662	-0.092462	-79.574241
1.700000	-0.061986	-49.472378	-51.564963	30.867367	-51.564963	30.867367	-0.094160	-81.722616
1.750000	-0.063705	-50.862965	-51.412561	29.669205	-51.412561	29.669205	-0.095802	-83.852686
1.800000	-0.065414	-52.248812	-51.265098	28.510118	-51.265098	28.510118	-0.097399	-85.964473
1.850000	-0.067115	-53.629877	-51.121741	27.389871	-51.121741	27.389871	-0.098958	-88.058036
1.900000	-0.068806	-55.006120	-50.981674	26.308037	-50.981674	26.308037	-0.100490	-90.133468
1.950000	-0.070489	-56.377505	-50.844095	25.263978	-50.844095	25.263978	-0.102004	-92.190890
2.000000	-0.072162	-57.743999	-50.708221	24.256822	-50.708221	24.256822	-0.103507	-94.230456
2.050000	-0.073826	-59.105573	-50.573282	23.285453	-50.573282	23.285453	-0.105006	-96.252342
2.100000	-0.075482	-60.462201	-50.438528	22.348493	-50.438528	22.348493	-0.106509	-98.256749
2.150000	-0.077130	-61.813861	-50.303226	21.444286	-50.303226	21.444286	-0.108019	-100.243898
2.200000	-0.078771	-63.160534	-50.166666	20.570895	-50.166666	20.570895	-0.109541	-102.214028
2.250000	-0.080406	-64.502205	-50.028165	19.726090	-50.028165	19.726090	-0.111077	-104.167390
2.300000	-0.082034	-65.838861	-49.887065	18.907353	-49.887065	18.907353	-0.112631	-106.104251
2.350000	-0.083657	-67.170493	-49.742745	18.111880	-49.742745	18.111880	-0.114202	-108.024885
2.400000	-0.085276	-68.497097	-49.594621	17.336595	-49.594621	17.336595	-0.115791	-109.929577
2.450000	-0.086892	-69.818669	-49.442148	16.578165	-49.442148	16.578165	-0.117398	-111.818617
2.500000	-0.088505	-71.135212	-49.284831	15.833022	-49.284831	15.833022	-0.119023	-113.692304
2.550000	-0.090118	-72.446511	-49.121834	15.097626	-49.121834	15.097626	-0.120665	-115.550300
2.600000	-0.091730	-73.752793	-48.953099	14.367443	-48.953099	14.367443	-0.122323	-117.393579
2.650000	-0.093342	-75.054071	-48.778289	13.638399	-48.778289	13.638399	-0.123994	-119.222452
2.700000	-0.094957	-76.350359	-48.597125	12.906347	-48.597125	12.906347	-0.125679	-121.037231
2.750000	-0.096576	-77.641677	-48.409385	12.167109	-48.409385	12.167109	-0.127376	-122.838235
2.800000	-0.098198	-78.928045	-48.214899	11.416530	-48.214899	11.416530	-0.129083	-124.625780
2.850000	-0.099826	-80.209489	-48.013549	10.650516	-48.013549	10.650516	-0.130800	-126.400187
2.900000	-0.101461	-81.486040	-47.805267	9.865084	-47.805267	9.865084	-0.132525	-128.161779
2.950000	-0.103103	-82.757728	-47.590028	9.056395	-47.590028	9.056395	-0.134258	-129.910879
3.000000	-0.104755	-84.024591	-47.367844	8.220796	-47.367844	8.220796	-0.135999	-131.647813
3.050000	-0.106417	-85.286669	-47.138760	7.354840	-47.138760	7.354840	-0.137746	-133.372907
3.100000	-0.108090	-86.544005	-46.902844	6.455317	-46.902844	6.455317	-0.139499	-135.086490
3.150000	-0.109776	-87.796648	-46.660183	5.519266	-46.660183	5.519266	-0.141259	-136.788890
3.200000	-0.111475	-89.044648	-46.410872	4.543984	-46.410872	4.543984	-0.143025	-138.480439
3.250000	-0.113190	-90.288063	-46.155010	3.527032	-46.155010	3.527032	-0.144798	-140.161467
3.300000	-0.114921	-91.526954	-45.892689	2.466227	-45.892689	2.466227	-0.146577	-141.832308
3.350000	-0.116670	-92.761384	-45.623990	1.359643	-45.623990	1.359643	-0.148364	-143.493297
3.400000	-0.118437	-93.991425	-45.348974	0.205590	-45.348974	0.205590	-0.150158	-145.144769
3.450000	-0.120224	-95.217151	-45.067676	-0.997397	-45.067676	-0.997397	-0.151961	-146.787063
3.500000	-0.122033	-96.438645	-44.780097	-2.250579	-44.780097	-2.250579	-0.153773	-148.420519
3.550000	-0.123864	-97.655992	-44.486202	-3.555033	-44.486202	-3.555033	-0.155596	-150.045481
3.600000	-0.125720	-98.869287	-44.185911	-4.911675	-44.185911	-4.911675	-0.157430	-151.662296
3.650000	-0.127601	-100.078630	-43.879094	-6.321283	-43.879094	-6.321283	-0.159278	-153.271314
3.700000	-0.129509	-101.284130	-43.565566	-7.784520	-43.565566	-7.784520	-0.161140	-154.872891
3.750000	-0.131447	-102.485904	-43.245084	-9.301959	-43.245084	-9.301959	-0.163018	-156.467389
3.800000	-0.133416	-103.683930	-42.916444	-10.876507	-42.916444	-10.876507	-0.164915	-158.054903
3.850000	-0.135418	-104.878511	-42.580054	-12.506262	-42.580054	-12.506262	-0.166833	-159.636121
3.900000	-0.137454	-106.069798	-42.235431	-14.191661	-42.235431	-14.191661	-0.168773	-161.211434
3.950000	-0.139528	-107.257961	-41.882006	-15.933143	-41.882006	-15.933143	-0.170739	-162.781247
4.000000	-0.141642	-108.443183	-41.519111	-17.731169	-41.519111	-17.731169	-0.172735	-164.345980
4.050000	-0.143800	-109.625673	-41.145973	-19.586245	-41.145973	-19.586245	-0.174763	-165.906076
4.100000	-0.146004	-110.805657	-40.761697	-21.498942	-40.761697	-21.498942	-0.176829	-167.462002
4.150000	-0.148259	-111.983395	-40.365258	-23.469919	-40.365258	-23.469919	-0.178937	-169.014256
4.200000	-0.150571	-113.159179	-39.955477	-25.499953	-39.955477	-25.499953	-0.181094	-170.563375
4.250000	-0.152946	-114.333341	-39.531009	-27.589965	-39.531009	-27.589965	-0.183307	-172.109942
4.300000	-0.155390	-115.506265	-39.090309	-29.741061	-39.090309	-29.741061	-0.185586	-173.654601
4.350000	-0.157914	-116.678396	-38.631608	-31.954575	-38.631608	-31.954575	-0.187941	-175.198068
4.400000	-0.160529	-117.850260	-38.152869	-34.232134	-38.152869	-34.232134	-0.190389	-176.741155
4.450000	-0.163250	-119.022477	-37.651743	-36.575736	-37.651743	-36.575736	-0.192946	-178.284793
4.500000	-0.166097	-120.195794	-37.125501	-38.987857	-37.125501	-38.987857	-0.195637	-179.830070
4.550000	-0.169095	-121.371122	-36.570959	-41.471606	-36.570959	-41.471606	-0.198493	178.621727
4.600000	-0.172257	-122.549166	-35.991436	-44.023838	-35.991436	-44.023838	-0.201531	177.069628
4.650000	-0.175668	-123.732071	-35.368421	-46.664160	-35.368421	-46.664160	-0.204852	175.510669
4.700000	-0.179372	-124.921315	-34.703517	-49.391805	-34.703517	-49.391805	-0.208513	173.942902
4.750000	-0.183461	-126.119235	-33.990220	-52.215686	-33.990220	-52.215686	-0.212625	172.363234
4.800000	-0.188064	-127.328931	-33.220514	-55.147949	-33.220514	-55.147949	-0.217349	170.767600
4.850000	-0.193379	-128.554618	-32.384364	-58.205533	-32.384364	-58.205533	-0.222926	169.150515
4.900000	-0.199692	-129.801830	-31.471286	-61.410603	-31.471286	-61.410603	-0.229710	167.504819
4.950000	-0.207534	-131.079820	-30.459066	-64.803869	-30.459066	-64.803869	-0.238353	165.818546
5.000000	-0.217724	-132.400912	-29.327938	-68.438084	-29.327938	-68.438084	-0.249866	164.075821
5.050000	-0.231858	-133.786059	-28.041486	-72.407931	-28.041486	-72.407931	-0.266214	162.249620
5.100000	-0.252831	-135.266563	-26.561141	-76.858912	-26.561141	-76.858912	-0.290975	160.299505
5.150000	-0.287236	-136.901189	-24.811442	-82.081887	-24.811442	-82.081887	-0.332312	158.149143
5.200000	-0.351314	-138.797048	-22.680595	-88.663375	-22.680595	-88.663375	-0.410408	155.657804
5.250000	-0.492861	-141.151135	-19.992567	-97.970264	-19.992567	-97.970264	-0.585197	152.558694
5.300000	-0.890745	-144.143288	-16.499948	-113.883012	-16.499948	-113.883012	-1.086175	148.546726
5.350000	-2.107028	-144.187167	-12.673906	-147.761131	-12.673906	-147.761131	-2.706113	148.098476
5.400000	-1.958168	-132.641611	-12.968738	160.056391	-12.968738	160.056391	-2.493558	163.767420
5.450000	-0.865708	-133.468663	-16.709762	129.375243	-16.709762	129.375243	-1.048113	162.279344
5.500000	-0.513943	-136.298049	-19.907551	114.646188	-19.907551	114.646188	-0.604080	158.480770
5.550000	-0.384836	-138.536263	-22.332188	105.713937	-22.332188	105.713937	-0.442501	155.519270
5.600000	-0.326911	-140.358665	-24.220409	99.235664	-24.220409	99.235664	-0.369633	153.106266
5.650000	-0.297262	-141.939156	-25.740148	93.987456	-25.740148	93.987456	-0.331748	151.005783
5.700000	-0.280582	-143.376677	-27.009356	89.421561	-27.009356	89.421561	-0.309838	149.087757
5.750000	-0.270939	-144.720267	-28.084985	85.291483	-28.084985	85.291483	-0.296566	147.288356
5.800000	-0.265362	-146.000223	-29.011007	81.454582	-29.011007	81.454582	-0.288265	145.568417
5.850000	-0.262403	-147.233098	-29.807834	77.837366	-29.807834	77.837366	-0.283147	143.906461
5.900000	-0.260922	-148.436279	-30.523929	74.362752	-30.523929	74.362752	-0.279815	142.280529
5.950000	-0.260664	-149.612443	-31.148795	71.024088	-31.148795	71.024088	-0.277948	140.686780
6.000000	-0.261164	-150.770311	-31.711394	67.783612	-31.711394	67.783612	-0.276978	139.114347
6.050000	-0.262269	-151.912513	-32.213762	64.634239	-32.213762	64.634239	-0.276714	137.559699
6.100000	-0.263824	-153.042303	-32.665159	61.564082	-32.665159	61.564082	-0.276965	136.018728
6.150000	-0.265774	-154.160569	-33.062697	58.577204	-33.062697	58.577204	-0.277656	134.489937
6.200000	-0.267928	-155.272659	-33.435782	55.640941	-33.435782	55.640941	-0.278567	132.967386
6.250000	-0.270289	-156.378401	-33.779206	52.759096	-33.779206	52.759096	-0.279699	131.451134
6.300000	-0.272909	-157.475984	-34.075394	49.960613	-34.075394	49.960613	-0.281094	129.942388
6.350000	-0.275656	-158.569606	-34.351332	47.210747	-34.351332	47.210747	-0.282607	128.436959
6.400000	-0.278520	-159.659555	-34.606927	44.508905	-34.606927	44.508905	-0.284229	126.934492
6.450000	-0.281515	-160.745470	-34.836930	41.866864	-34.836930	41.866864	-0.285965	125.435011
6.500000	-0.284629	-161.827924	-35.043292	39.287248	-35.043292	39.287248	-0.287796	123.937699
6.550000	-0.287821	-162.908213	-35.235098	36.752713	-35.235098	36.752713	-0.289685	122.441542
6.600000	-0.291087	-163.986514	-35.412613	34.262925	-35.412613	34.262925	-0.291626	120.946335
6.650000	-0.294456	-165.062345	-35.568969	31.841152	-35.568969	31.841152	-0.293632	119.451918
6.700000	-0.297883	-166.136969	-35.714852	29.460746	-35.714852	29.460746	-0.295670	117.957643
6.750000	-0.301381	-167.210227	-35.846952	27.133824	-35.846952	27.133824	-0.297745	116.463338
6.800000	-0.304942	-168.282469	-35.967313	24.856835	-35.967313	24.856835	-0.299849	114.968727
6.850000	-0.308564	-169.353927	-36.076852	22.629218	-36.076852	22.629218	-0.301978	113.473587
6.900000	-0.312243	-170.424816	-36.176390	20.450422	-36.176390	20.450422	-0.304127	111.977723
6.950000	-0.315978	-171.495332	-36.266660	18.319897	-36.266660	18.319897	-0.306293	110.480964
7.000000	-0.319767	-172.565663	-36.348316	16.237098	-36.348316	16.237098	-0.308474	108.983158
7.050000	-0.323608	-173.635983	-36.421942	14.201482	-36.421942	14.201482	-0.310667	107.484175
7.100000	-0.327500	-174.706458	-36.488054	12.212511	-36.488054	12.212511	-0.312870	105.983897
7.150000	-0.331441	-175.777247	-36.547111	10.269649	-36.547111	10.269649	-0.315080	104.482225
7.200000	-0.335433	-176.848500	-36.599516	8.372366	-36.599516	8.372366	-0.317298	102.979072
7.250000	-0.339472	-177.920363	-36.645619	6.520139	-36.645619	6.520139	-0.319522	101.474361
7.300000	-0.343560	-178.992977	-36.685727	4.712450	-36.685727	4.712450	-0.321750	99.968029
7.350000	-0.347696	179.933521	-36.720102	2.948791	-36.720102	2.948791	-0.323982	98.460022
7.400000	-0.351879	178.859000	-36.748963	1.228659	-36.748963	1.228659	-0.326218	96.950295
7.450000	-0.356110	177.783329	-36.772495	-0.448435	-36.772495	-0.448435	-0.328458	95.438814
7.500000	-0.360389	176.706381	-36.790844	-2.082975	-36.790844	-2.082975	-0.330700	93.925550
7.550000	-0.364718	175.627963	-36.803906	-3.673625	-36.803906	-3.673625	-0.332947	92.410406
7.600000	-0.369095	174.548009	-36.811984	-5.222695	-36.811984	-5.222695	-0.335197	90.893447
7.650000	-0.373521	173.466397	-36.815124	-6.730637	-36.815124	-6.730637	-0.337452	89.374669
7.700000	-0.377996	172.383005	-36.813341	-8.197891	-36.813341	-8.197891	-0.339713	87.854075
7.750000	-0.382522	171.297713	-36.806622	-9.624888	-36.806622	-9.624888	-0.341979	86.331670
7.800000	-0.387098	170.210401	-36.794925	-11.012051	-36.794925	-11.012051	-0.344253	84.807469
7.850000	-0.391727	169.120948	-36.778180	-12.359794	-36.778180	-12.359794	-0.346535	83.281490
7.900000	-0.396408	168.029234	-36.756291	-13.668524	-36.756291	-13.668524	-0.348828	81.753755
7.950000	-0.401145	166.935137	-36.729131	-14.938639	-36.729131	-14.938639	-0.351133	80.224293
8.000000	-0.405937	165.838535	-36.696547	-16.170536	-36.696547	-16.170536	-0.353452	78.693134
8.050000	-0.410787	164.739302	-36.658354	-17.364607	-36.658354	-17.364607	-0.355787	77.160313
8.100000	-0.415698	163.637313	-36.614338	-18.521242	-36.614338	-18.521242	-0.358140	75.625869
8.150000	-0.420671	162.532437	-36.564253	-19.640833	-36.564253	-19.640833	-0.360516	74.089840
8.200000	-0.425709	161.424543	-36.507820	-20.723776	-36.507820	-20.723776	-0.362915	72.552269
8.250000	-0.430816	160.313493	-36.444721	-21.770474	-36.444721	-21.770474	-0.365343	71.013200
8.300000	-0.435994	159.199146	-36.374603	-22.781344	-36.374603	-22.781344	-0.367801	69.472674
8.350000	-0.441247	158.081460	-36.297325	-23.757826	-36.297325	-23.757826	-0.370294	67.930776
8.400000	-0.446583	156.960027	-36.211836	-24.697885	-36.211836	-24.697885	-0.372829	66.387449
8.450000	-0.452004	155.834889	-36.118137	-25.604039	-36.118137	-25.604039	-0.375407	64.842811
8.500000	-0.457516	154.705882	-36.015709	-26.476797	-36.015709	-26.476797	-0.378035	63.296896
8.550000	-0.463127	153.572831	-35.903981	-27.316713	-35.903981	-27.316713	-0.380717	61.749733
8.600000	-0.468856	152.435057	-35.780939	-28.120923	-35.780939	-28.120923	-0.383468	60.201209
8.650000	-0.474703	151.292774	-35.646964	-28.893570	-35.646964	-28.893570	-0.386288	58.651462
8.700000	-0.480706	150.144907	-35.498553	-29.630674	-35.498553	-29.630674	-0.389203	57.100285
8.750000	-0.486824	148.993046	-35.340654	-30.343719	-35.340654	-30.343719	-0.392187	55.548111
8.800000	-0.493134	147.835006	-35.165752	-31.024484	-35.165752	-31.024484	-0.395289	53.994444
8.850000	-0.499548	146.673679	-34.983982	-31.688079	-34.983982	-31.688079	-0.398454	52.439984
8.900000	-0.506296	145.502674	-34.772881	-32.310749	-34.772881	-32.310749	-0.401824	50.883180
8.950000	-0.513162	144.328630	-34.555843	-32.922851	-34.555843	-32.922851	-0.405264	49.325613
9.000000	-0.520411	143.144789	-34.308673	-33.503877	-34.308673	-33.503877	-0.408937	47.765547
9.050000	-0.527858	141.956471	-34.051138	-34.074810	-34.051138	-34.074810	-0.412726	46.204247
9.100000	-0.535755	140.758261	-33.762989	-34.626738	-33.762989	-34.626738	-0.416783	44.640126
9.150000	-0.544101	139.551134	-33.448396	-35.168871	-33.448396	-35.168871	-0.421101	43.073223
9.200000	-0.552987	138.334126	-33.104365	-35.706892	-33.104365	-35.706892	-0.425731	41.502977
9.250000	-0.562607	137.104902	-32.722317	-36.249165	-32.722317	-36.249165	-0.430779	39.928197
9.300000	-0.573101	135.862510	-32.300322	-36.806341	-32.300322	-36.806341	-0.436321	38.348039
9.350000	-0.584684	134.605258	-31.834243	-37.391374	-31.834243	-37.391374	-0.442473	36.761250
9.400000	-0.597526	133.332279	-31.325023	-38.016252	-31.325023	-38.016252	-0.449328	35.166889
9.450000	-0.612387	132.036602	-30.748162	-38.715654	-30.748162	-38.715654	-0.457311	33.560654
9.500000	-0.629773	130.715765	-30.102442	-39.517469	-30.102442	-39.517469	-0.466709	31.940139
9.550000	-0.650733	129.363405	-29.373392	-40.470941	-29.373392	-40.470941	-0.478123	30.300420
9.600000	-0.677116	127.969514	-28.537157	-41.657553	-28.537157	-41.657553	-0.492634	28.633607
9.650000	-0.711253	126.525108	-27.582419	-43.171626	-27.582419	-43.171626	-0.511637	26.931674
9.700000	-0.758301	125.011654	-26.468148	-45.208242	-26.468148	-45.208242	-0.538260	25.178549
9.750000	-0.827410	123.408782	-25.152052	-48.077838	-25.152052	-48.077838	-0.578202	23.353647
9.800000	-0.937144	121.700795	-23.578243	-52.346424	-23.578243	-52.346424	-0.643340	21.432148
9.850000	-1.127905	119.931686	-21.683199	-59.130464	-21.683199	-59.130464	-0.760498	19.409996
9.900000	-1.482594	118.499221	-19.464372	-70.709693	-19.464372	-70.709693	-0.989465	17.466457
9.950000	-2.043105	119.327935	-17.302559	-91.189475	-17.302559	-91.189475	-1.399190	16.730615
10.000000	-2.113547	124.271578	-16.644503	-121.457551	-16.644503	-121.457551	-1.623557	19.178405
