! freq	dB(S11)	phase(S11)	dB(S12)	phase(S12)	
!     	dB(S21)	phase(S21)	dB(S22)	phase(S22)	
!S-par simulation data
#  GHz  S  DB  R 50
0.000000	-82.134037	0.000000	-0.000679	0.000000	-0.000679	0.000000	-82.134037	0.000000
0.050000	-41.243302	-91.406986	-0.006147	-2.964252	-0.006147	-2.964252	-41.235466	-90.910543
0.100000	-35.339354	-95.353409	-0.012840	-5.884736	-0.012840	-5.884736	-35.331084	-94.405763
0.150000	-31.872841	-98.942561	-0.018665	-8.794787	-0.018665	-8.794787	-31.863501	-97.530535
0.200000	-29.423321	-102.356088	-0.024637	-11.700335	-0.024637	-11.700335	-29.413058	-100.477359
0.250000	-27.537563	-105.681717	-0.031014	-14.601692	-0.031014	-14.601692	-27.526596	-103.335165
0.300000	-26.012521	-108.953833	-0.037808	-17.498916	-0.037808	-17.498916	-26.001095	-106.137866
0.350000	-24.738513	-112.192136	-0.044982	-20.392430	-0.044982	-20.392430	-24.726866	-108.904566
0.400000	-23.649804	-115.407551	-0.052505	-23.282631	-0.052505	-23.282631	-23.638127	-111.645707
0.450000	-22.705703	-118.605661	-0.060374	-26.169607	-0.060374	-26.169607	-22.694130	-114.366181
0.500000	-21.876191	-121.791471	-0.068545	-29.053698	-0.068545	-29.053698	-21.864778	-117.070601
0.550000	-21.140726	-124.967487	-0.076984	-31.935026	-0.076984	-31.935026	-21.129472	-119.760877
0.600000	-20.484880	-128.135283	-0.085657	-34.813594	-0.085657	-34.813594	-20.473743	-122.437736
0.650000	-19.898558	-131.296047	-0.094513	-37.689321	-0.094513	-37.689321	-19.887477	-125.101185
0.700000	-19.371373	-134.451511	-0.103481	-40.562437	-0.103481	-40.562437	-19.360299	-127.752549
0.750000	-18.896449	-137.602790	-0.112499	-43.432980	-0.112499	-43.432980	-18.885353	-130.392219
0.800000	-18.469492	-140.750901	-0.121497	-46.300864	-0.121497	-46.300864	-18.458375	-133.020065
0.850000	-18.085542	-143.897160	-0.130404	-49.166204	-0.130404	-49.166204	-18.074429	-135.636837
0.900000	-17.740574	-147.042750	-0.139156	-52.029116	-0.139156	-52.029116	-17.729509	-138.243140
0.950000	-17.431653	-150.188815	-0.147690	-54.889697	-0.147690	-54.889697	-17.420689	-140.839309
1.000000	-17.156204	-153.336493	-0.155952	-57.748101	-0.155952	-57.748101	-17.145399	-143.425645
1.050000	-16.912062	-156.486908	-0.163892	-60.604530	-0.163892	-60.604530	-16.901472	-146.002342
1.100000	-16.697401	-159.641189	-0.171466	-63.459240	-0.171466	-63.459240	-16.687083	-148.569486
1.150000	-16.510685	-162.800479	-0.178636	-66.312541	-0.178636	-66.312541	-16.500692	-151.127058
1.200000	-16.350623	-165.965950	-0.185366	-69.164794	-0.185366	-69.164794	-16.341005	-153.674945
1.250000	-16.216139	-169.138815	-0.191629	-72.016406	-0.191629	-72.016406	-16.206947	-156.212941
1.300000	-16.106843	-172.320567	-0.197385	-74.867832	-0.197385	-74.867832	-16.098127	-158.740518
1.350000	-16.021512	-175.512393	-0.202624	-77.719566	-0.202624	-77.719566	-16.013325	-161.257499
1.400000	-15.959581	-178.715724	-0.207330	-80.572116	-0.207330	-80.572116	-15.951976	-163.763392
1.450000	-15.920621	178.067910	-0.211490	-83.426003	-0.211490	-83.426003	-15.913658	-166.257595
1.500000	-15.904337	174.836864	-0.215096	-86.281763	-0.215096	-86.281763	-15.898077	-168.739385
1.550000	-15.910557	171.589364	-0.218148	-89.139937	-0.218148	-89.139937	-15.905068	-171.207894
1.600000	-15.939227	168.323488	-0.220649	-92.001065	-0.220649	-92.001065	-15.934583	-173.662090
1.650000	-15.990412	165.037138	-0.222608	-94.865683	-0.222608	-94.865683	-15.986693	-176.100747
1.700000	-16.064293	161.728019	-0.224042	-97.734319	-0.224042	-97.734319	-16.061586	-178.522409
1.750000	-16.161171	158.393598	-0.224973	-100.607486	-0.224973	-100.607486	-16.159568	179.074649
1.800000	-16.281465	155.031069	-0.225428	-103.485677	-0.225428	-103.485677	-16.281066	176.692469
1.850000	-16.425726	151.637295	-0.225439	-106.369366	-0.225439	-106.369366	-16.426637	174.333471
1.900000	-16.594871	148.208325	-0.225043	-109.259067	-0.225043	-109.259067	-16.597207	172.000849
1.950000	-16.789723	144.740002	-0.224283	-112.155208	-0.224283	-112.155208	-16.793604	169.698150
2.000000	-17.011028	141.228076	-0.223213	-115.058104	-0.223213	-115.058104	-17.016584	167.429203
2.050000	-17.259943	137.667202	-0.221885	-117.968096	-0.221885	-117.968096	-17.267310	165.198920
2.100000	-17.537821	134.051140	-0.220353	-120.885488	-0.220353	-120.885488	-17.547145	163.013195
2.150000	-17.846230	130.372539	-0.218677	-123.810540	-0.218677	-123.810540	-17.857667	160.879127
2.200000	-18.186984	126.622645	-0.216914	-126.743469	-0.216914	-126.743469	-18.200706	158.805322
2.250000	-18.562183	122.790921	-0.215127	-129.684448	-0.215127	-129.684448	-18.578377	156.802282
2.300000	-18.974248	118.864546	-0.213375	-132.633606	-0.213375	-132.633606	-18.993129	154.882927
2.350000	-19.425975	114.827733	-0.211719	-135.591025	-0.211719	-135.591025	-19.447790	153.063294
2.400000	-19.920592	110.660810	-0.210217	-138.556745	-0.210217	-138.556745	-19.945633	151.363501
2.450000	-20.461817	106.338948	-0.208926	-141.530763	-0.208926	-141.530763	-20.490443	149.809073
2.500000	-21.053929	101.830393	-0.207899	-144.513036	-0.207899	-144.513036	-21.086577	148.432811
2.550000	-21.701989	97.087758	-0.207193	-147.503659	-0.207193	-147.503659	-21.739198	147.283530
2.600000	-22.411125	92.059699	-0.206846	-150.502336	-0.206846	-150.502336	-22.453550	146.415061
2.650000	-23.187261	86.671997	-0.206897	-153.508921	-0.206897	-153.508921	-23.235665	145.904980
2.700000	-24.036460	80.823725	-0.207378	-156.523245	-0.207378	-156.523245	-24.091664	145.859103
2.750000	-24.964070	74.375954	-0.208315	-159.545121	-0.208315	-159.545121	-25.026793	146.423434
2.800000	-25.972776	67.136218	-0.209726	-162.574347	-0.209726	-162.574347	-26.043258	147.800460
2.850000	-27.058450	58.839586	-0.211623	-165.610717	-0.211623	-165.610717	-27.135623	150.268497
2.900000	-28.201808	49.133892	-0.214009	-168.654025	-0.214009	-168.654025	-28.281626	154.194900
2.950000	-29.353303	37.596091	-0.216880	-171.704073	-0.216880	-171.704073	-29.425869	160.011637
3.000000	-30.411974	23.846820	-0.220222	-174.760677	-0.220222	-174.760677	-30.458232	168.078715
3.050000	-31.215087	7.855192	-0.224017	-177.823677	-0.224017	-177.823677	-31.207720	178.346992
3.100000	-31.582956	-9.637818	-0.228235	179.107057	-0.228235	179.107057	-31.498923	-170.056508
3.150000	-31.430447	-27.082275	-0.232847	176.031550	-0.232847	176.031550	-31.269077	-158.757276
3.200000	-30.853801	-42.935827	-0.237809	172.949850	-0.237809	172.949850	-30.636338	-149.220559
3.250000	-30.043493	-56.552745	-0.243068	169.862013	-0.243068	169.862013	-29.794785	-141.962423
3.300000	-29.158507	-68.026001	-0.248573	166.767970	-0.248573	166.767970	-28.895947	-136.814883
3.350000	-28.295486	-77.766503	-0.254263	163.667647	-0.254263	163.667647	-28.028270	-133.346239
3.400000	-27.501076	-86.178720	-0.260082	160.560797	-0.260082	160.560797	-27.233054	-131.155042
3.450000	-26.795204	-93.604619	-0.265967	157.447080	-0.265967	157.447080	-26.527172	-129.909000
3.500000	-26.184690	-100.300477	-0.271852	154.325992	-0.271852	154.325992	-25.915779	-129.360730
3.550000	-25.667985	-106.477580	-0.277674	151.197249	-0.277674	151.197249	-25.396453	-129.306428
3.600000	-25.242429	-112.274128	-0.283372	148.060303	-0.283372	148.060303	-24.965969	-129.611897
3.650000	-24.905345	-117.794591	-0.288891	144.914513	-0.288891	144.914513	-24.621159	-130.174592
3.700000	-24.654906	-123.120654	-0.294177	141.759141	-0.294177	141.759141	-24.359650	-130.912966
3.750000	-24.490585	-128.319237	-0.299188	138.593352	-0.299188	138.593352	-24.180208	-131.758572
3.800000	-24.416550	-133.448058	-0.303876	135.415791	-0.303876	135.415791	-24.085801	-132.649465
3.850000	-24.432999	-138.566027	-0.308226	132.225782	-0.308226	132.225782	-24.075371	-133.522052
3.900000	-24.545227	-143.729908	-0.312227	129.022195	-0.312227	129.022195	-24.152142	-134.311837
3.950000	-24.761336	-149.004321	-0.315884	125.803807	-0.315884	125.803807	-24.321123	-134.943624
4.000000	-25.092993	-154.469797	-0.319216	122.569309	-0.319216	122.569309	-24.589252	-135.323071
4.050000	-25.556539	-160.235313	-0.322265	119.317310	-0.322265	119.317310	-24.965420	-135.324354
4.100000	-26.177838	-166.477618	-0.325089	116.045815	-0.325089	116.045815	-25.462509	-134.750523
4.150000	-26.985733	-173.455222	-0.327781	112.753559	-0.327781	112.753559	-26.088727	-133.337600
4.200000	-28.018944	178.395731	-0.330459	109.439120	-0.330459	109.439120	-26.847379	-130.690979
4.250000	-29.321674	168.280099	-0.333266	106.100875	-0.333266	106.100875	-27.722850	-126.215323
4.300000	-30.909580	154.698465	-0.336378	102.737180	-0.336378	102.737180	-28.646359	-119.088798
4.350000	-32.622186	134.993922	-0.340001	99.346389	-0.340001	99.346389	-29.433929	-108.466293
4.400000	-33.676192	106.488939	-0.344397	95.926355	-0.344397	95.926355	-29.729963	-94.313152
4.450000	-32.879851	74.276760	-0.349845	92.475840	-0.349845	92.475840	-29.210417	-78.845825
4.500000	-30.585230	48.846971	-0.356671	88.993325	-0.356671	88.993325	-27.920839	-65.427430
4.550000	-28.008558	31.626236	-0.365248	85.477332	-0.365248	85.477332	-26.222900	-55.774887
4.600000	-25.648693	19.495121	-0.375996	81.926452	-0.375996	81.926452	-24.433774	-49.627577
4.650000	-23.576414	10.154761	-0.389342	78.340003	-0.389342	78.340003	-22.713066	-46.051664
4.700000	-21.754156	2.426835	-0.405786	74.717013	-0.405786	74.717013	-21.111416	-44.274706
4.750000	-20.135035	-4.317176	-0.425892	71.056627	-0.425892	71.056627	-19.635800	-43.754641
4.800000	-18.682304	-10.441635	-0.450178	67.359115	-0.450178	67.359115	-18.280096	-44.113788
4.850000	-17.364295	-16.144005	-0.479377	63.623631	-0.479377	63.623631	-17.029915	-45.129894
4.900000	-16.162239	-21.568864	-0.513872	59.852518	-0.513872	59.852518	-15.876829	-46.617211
4.950000	-15.057492	-26.791716	-0.554383	56.046111	-0.554383	56.046111	-14.808324	-48.477892
5.000000	-14.036984	-31.868482	-0.601545	52.205947	-0.601545	52.205947	-13.815245	-50.633470
5.050000	-13.089510	-36.834779	-0.656250	48.333074	-0.656250	48.333074	-12.888911	-53.033000
5.100000	-12.208896	-41.722382	-0.718754	44.431729	-0.718754	44.431729	-12.024897	-55.621281
5.150000	-11.387904	-46.547542	-0.789845	40.504338	-0.789845	40.504338	-11.217122	-58.369597
5.200000	-10.621327	-51.322862	-0.870142	36.554562	-0.870142	36.554562	-10.461204	-61.251017
5.250000	-9.905135	-56.057425	-0.960041	32.586968	-0.960041	32.586968	-9.753711	-64.241200
5.300000	-9.235709	-60.756476	-1.059957	28.606271	-1.059957	28.606271	-9.091460	-67.320982
5.350000	-8.609920	-65.422378	-1.170363	24.617495	-1.170363	24.617495	-8.471642	-70.474673
5.400000	-8.025161	-70.056354	-1.291449	20.626209	-1.291449	20.626209	-7.891897	-73.686775
5.450000	-7.479043	-74.658069	-1.423345	16.638070	-1.423345	16.638070	-7.350021	-76.943853
5.500000	-6.969463	-79.225642	-1.566214	12.658993	-1.566214	12.658993	-6.844054	-80.234184
5.550000	-6.494446	-83.756928	-1.719975	8.694852	-1.719975	8.694852	-6.372135	-83.546441
5.600000	-6.052196	-88.248943	-1.884516	4.751591	-1.884516	4.751591	-5.932558	-86.870409
5.650000	-5.640819	-92.699207	-2.059489	0.834474	-2.059489	0.834474	-5.523500	-90.196692
5.700000	-5.258674	-97.104343	-2.244607	-3.051068	-2.244607	-3.051068	-5.143379	-93.516912
5.750000	-4.904123	-101.461276	-2.439452	-6.900095	-2.439452	-6.900095	-4.790602	-96.823422
5.800000	-4.575574	-105.767110	-2.643530	-10.708102	-2.643530	-10.708102	-4.463617	-100.109378
5.850000	-4.271542	-110.018948	-2.856299	-14.470833	-2.856299	-14.470833	-4.160974	-103.368572
5.900000	-3.990587	-114.214200	-3.077147	-18.184499	-3.077147	-18.184499	-3.881256	-106.595493
5.950000	-3.731112	-118.351516	-3.305400	-21.846608	-3.305400	-21.846608	-3.622895	-109.785926
6.000000	-3.491696	-122.429444	-3.540396	-25.454780	-3.540396	-25.454780	-3.384488	-112.936133
6.050000	-3.270971	-126.446963	-3.781467	-29.007176	-3.781467	-29.007176	-3.164686	-116.043069
6.100000	-3.067621	-130.403473	-4.027941	-32.502469	-4.027941	-32.502469	-2.962189	-119.104343
6.150000	-2.880552	-134.297892	-4.279111	-35.938974	-4.279111	-35.938974	-2.775918	-122.117458
6.200000	-2.708652	-138.129834	-4.534270	-39.315736	-4.534270	-39.315736	-2.604775	-125.080676
6.250000	-2.549575	-141.906825	-4.793307	-42.639533	-4.793307	-42.639533	-2.446423	-127.999009
6.300000	-2.404431	-145.616967	-5.054653	-45.898410	-5.054653	-45.898410	-2.301986	-130.861622
6.350000	-2.270120	-149.273957	-5.318850	-49.105319	-5.318850	-49.105319	-2.168373	-133.679158
6.400000	-2.147141	-152.870159	-5.584495	-52.252440	-5.584495	-52.252440	-2.046091	-136.444405
6.450000	-2.033780	-156.412558	-5.851735	-55.346352	-5.851735	-55.346352	-1.933434	-139.162794
6.500000	-1.929544	-159.900698	-6.119881	-58.386321	-6.119881	-58.386321	-1.829916	-141.833407
6.550000	-1.833819	-163.335346	-6.388387	-61.372851	-6.388387	-61.372851	-1.734932	-144.456478
6.600000	-1.745385	-166.722322	-6.657527	-64.311531	-6.657527	-64.311531	-1.647262	-147.036821
6.650000	-1.664461	-170.056917	-6.925859	-67.197387	-6.925859	-67.197387	-1.567136	-149.569872
6.700000	-1.589523	-173.348545	-7.194440	-70.039712	-7.194440	-70.039712	-1.493024	-152.063872
6.750000	-1.520630	-176.594382	-7.462138	-72.835438	-7.462138	-72.835438	-1.424991	-154.516029
6.800000	-1.457127	-179.797767	-7.729000	-75.587752	-7.729000	-75.587752	-1.362377	-156.929190
6.850000	-1.398572	177.039305	-7.994848	-78.298469	-7.994848	-78.298469	-1.304733	-159.305005
6.900000	-1.345112	173.919954	-8.258218	-80.964023	-8.258218	-80.964023	-1.252191	-161.640338
6.950000	-1.295296	170.831880	-8.521516	-83.596770	-8.521516	-83.596770	-1.203276	-163.946338
7.000000	-1.249340	167.777770	-8.783434	-86.193246	-8.783434	-86.193246	-1.158192	-166.220000
7.050000	-1.206871	164.754965	-9.043897	-88.755134	-9.043897	-88.755134	-1.116626	-168.462957
7.100000	-1.167369	161.761126	-9.302845	-91.284066	-9.302845	-91.284066	-1.078289	-170.676815
7.150000	-1.130254	158.795943	-9.560239	-93.781620	-9.560239	-93.781620	-1.042921	-172.863156
7.200000	-1.095328	155.861006	-9.816050	-96.249324	-9.816050	-96.249324	-1.010282	-175.023530
7.250000	-1.062842	152.955741	-10.070261	-98.688650	-10.070261	-98.688650	-0.980156	-177.159458
7.300000	-1.032843	150.076841	-10.322862	-101.101028	-10.322862	-101.101028	-0.952345	-179.272434
7.350000	-1.005105	147.221503	-10.573842	-103.487855	-10.573842	-103.487855	-0.926669	178.636072
7.400000	-0.979384	144.387870	-10.823182	-105.850516	-10.823182	-105.850516	-0.902966	176.564605
7.450000	-0.955488	141.574453	-11.070846	-108.190430	-11.070846	-108.190430	-0.881090	174.511710
7.500000	-0.933272	138.779821	-11.316760	-110.509124	-11.316760	-110.509124	-0.860914	172.475908
7.550000	-0.912697	136.003131	-11.560392	-112.807659	-11.560392	-112.807659	-0.842393	170.456254
7.600000	-0.893646	133.241802	-11.801833	-115.089489	-11.801833	-115.089489	-0.825379	168.450293
7.650000	-0.876163	130.493613	-12.040550	-117.358764	-12.040550	-117.358764	-0.809850	166.456002
7.700000	-0.860493	127.755481	-12.275556	-119.623718	-12.275556	-119.623718	-0.795898	164.470737
7.750000	-0.847238	125.022768	-12.505827	-121.902220	-12.505827	-121.902220	-0.783805	162.490588
7.800000	-0.838984	122.290970	-12.728174	-124.249114	-12.728174	-124.249114	-0.775138	160.511254
7.850000	-0.843078	119.576488	-12.951632	-126.828126	-12.951632	-126.828126	-0.774571	158.538687
7.900000	-0.861057	117.049649	-13.260799	-129.688485	-13.260799	-129.688485	-0.784922	156.676328
7.950000	-0.836173	114.690730	-13.655352	-131.596955	-13.655352	-131.596955	-0.771057	154.940131
8.000000	-0.798718	112.074240	-13.912952	-133.148079	-13.912952	-133.148079	-0.746520	153.051409
8.050000	-0.775650	109.414932	-14.141862	-134.987356	-14.141862	-134.987356	-0.730584	151.127893
8.100000	-0.759873	106.771338	-14.373639	-136.962214	-14.373639	-136.962214	-0.719563	149.209283
8.150000	-0.747300	104.147345	-14.611285	-138.980664	-14.611285	-138.980664	-0.710943	147.299613
8.200000	-0.736441	101.539973	-14.853845	-141.009077	-14.853845	-141.009077	-0.703746	145.397234
8.250000	-0.726740	98.947464	-15.100307	-143.033267	-15.100307	-143.033267	-0.697604	143.500563
8.300000	-0.717889	96.367857	-15.350238	-145.046393	-15.350238	-145.046393	-0.692290	141.607898
8.350000	-0.709685	93.799033	-15.603846	-147.046096	-15.603846	-147.046096	-0.687633	139.717746
8.400000	-0.702058	91.240376	-15.861182	-149.030115	-15.861182	-149.030115	-0.683575	137.829174
8.450000	-0.695016	88.692413	-16.121989	-150.994424	-16.121989	-150.994424	-0.680136	135.941287
8.500000	-0.688451	86.153365	-16.387079	-152.939825	-16.387079	-152.939825	-0.677205	134.053169
8.550000	-0.682376	83.623577	-16.656516	-154.862918	-16.656516	-154.862918	-0.674798	132.163949
8.600000	-0.676764	81.102570	-16.930783	-156.762178	-16.930783	-156.762178	-0.672887	130.272860
8.650000	-0.671587	78.589756	-17.210493	-158.636375	-17.210493	-158.636375	-0.671439	128.379224
8.700000	-0.666880	76.085721	-17.495841	-160.480329	-17.495841	-160.480329	-0.670490	126.481988
8.750000	-0.662570	73.589014	-17.787911	-162.295829	-17.787911	-162.295829	-0.669962	124.581004
8.800000	-0.658750	71.101154	-18.086702	-164.072305	-18.086702	-164.072305	-0.669951	122.674546
8.850000	-0.655330	68.620316	-18.393539	-165.813473	-18.393539	-165.813473	-0.670359	120.762964
8.900000	-0.652419	66.148113	-18.708614	-167.504349	-18.708614	-167.504349	-0.671298	118.844024
8.950000	-0.649900	63.682391	-19.033402	-169.152865	-19.033402	-169.152865	-0.672648	116.918922
9.000000	-0.647922	61.225112	-19.368255	-170.735472	-19.368255	-170.735472	-0.674560	114.984520
9.050000	-0.646351	58.773902	-19.714825	-172.262584	-19.714825	-172.262584	-0.676897	113.042625
9.100000	-0.645195	56.328697	-20.074133	-173.730361	-20.074133	-173.730361	-0.679666	111.092895
9.150000	-0.644709	53.892519	-20.446656	-175.088629	-20.446656	-175.088629	-0.683135	109.129707
9.200000	-0.644725	51.462492	-20.834389	-176.351612	-20.834389	-176.351612	-0.687132	107.155922
9.250000	-0.645216	49.038000	-21.238831	-177.517395	-21.238831	-177.517395	-0.691631	105.171941
9.300000	-0.646286	46.619901	-21.661300	-178.554330	-21.661300	-178.554330	-0.696748	103.175227
9.350000	-0.648126	44.209287	-22.102789	-179.390737	-22.102789	-179.390737	-0.702691	101.161203
9.400000	-0.650531	41.803566	-22.565484	179.942437	-22.565484	179.942437	-0.709251	99.134289
9.450000	-0.653512	39.402574	-23.051295	179.459059	-23.051295	179.459059	-0.716443	97.094181
9.500000	-0.657348	37.007753	-23.559931	179.287170	-23.559931	179.287170	-0.724586	95.034339
9.550000	-0.662049	34.618168	-24.091033	179.486368	-24.091033	179.486368	-0.733708	92.954511
9.600000	-0.667563	32.232756	-24.644179	-179.914575	-24.644179	-179.914575	-0.743768	90.855953
9.650000	-0.673944	29.851153	-25.216475	-178.839724	-25.216475	-178.839724	-0.754842	88.737534
9.700000	-0.681191	27.472815	-25.804979	-177.245740	-25.804979	-177.245740	-0.766945	86.599384
9.750000	-0.689613	25.097885	-26.389202	-174.860118	-26.389202	-174.860118	-0.780466	84.434776
9.800000	-0.699257	22.725455	-26.945405	-171.571880	-26.945405	-171.571880	-0.795497	82.242991
9.850000	-0.710101	20.354635	-27.447897	-167.375250	-27.447897	-167.375250	-0.812039	80.024992
9.900000	-0.722404	17.984747	-27.837255	-162.141715	-27.837255	-162.141715	-0.830453	77.775669
9.950000	-0.736267	15.614565	-28.063013	-156.028426	-28.063013	-156.028426	-0.850879	75.493889
10.000000	-0.751048	13.334368	-28.041248	-151.248198	-28.041248	-151.248198	-0.871990	73.266363
