! freq	dB(S11)	phase(S11)	dB(S12)	phase(S12)	
!     	dB(S21)	phase(S21)	dB(S22)	phase(S22)	
!S-par simulation data
#  GHz  S  DB  R 50
0.000000	-0.000000	0.000000	-340.638269	180.000000	-340.638269	180.000000	-0.000000	0.000000
0.050000	-0.000094	-0.807538	-70.465871	-49.165410	-70.465871	-49.165410	-0.000253	-2.517457
0.100000	-0.000373	-1.614867	-68.049900	-29.933445	-68.049900	-29.933445	-0.001004	-5.033791
0.150000	-0.000828	-2.421783	-67.456192	-20.891505	-67.456192	-20.891505	-0.002241	-7.547867
0.200000	-0.001443	-3.228120	-67.280376	-15.782500	-67.280376	-15.782500	-0.003924	-10.058694
0.250000	-0.002202	-4.033727	-67.263315	-12.549160	-67.263315	-12.549160	-0.006023	-12.565249
0.300000	-0.003085	-4.838485	-67.326766	-10.313332	-67.326766	-10.313332	-0.008494	-15.066598
0.350000	-0.004072	-5.642309	-67.442711	-8.664069	-67.442711	-8.664069	-0.011291	-17.561874
0.400000	-0.005141	-6.445143	-67.599630	-7.385027	-67.599630	-7.385027	-0.014365	-20.050286
0.450000	-0.006273	-7.246956	-67.792558	-6.351099	-67.792558	-6.351099	-0.017664	-22.531118
0.500000	-0.007451	-8.047740	-68.019581	-5.483906	-68.019581	-5.483906	-0.021140	-25.003723
0.550000	-0.008660	-8.847502	-68.280438	-4.730526	-68.280438	-4.730526	-0.024748	-27.467525
0.600000	-0.009886	-9.646262	-68.575932	-4.052363	-68.575932	-4.052363	-0.028444	-29.922006
0.650000	-0.011120	-10.444035	-68.907942	-3.418987	-68.907942	-3.418987	-0.032190	-32.366593
0.700000	-0.012352	-11.240852	-69.278807	-2.802915	-69.278807	-2.802915	-0.035952	-34.800859
0.750000	-0.013577	-12.036752	-69.691371	-2.178135	-69.691371	-2.178135	-0.039702	-37.224541
0.800000	-0.014790	-12.831764	-70.149594	-1.517685	-70.149594	-1.517685	-0.043417	-39.637303
0.850000	-0.015989	-13.625912	-70.658429	-0.790757	-70.658429	-0.790757	-0.047077	-42.038842
0.900000	-0.017171	-14.419217	-71.224047	0.040216	-71.224047	0.040216	-0.050667	-44.428881
0.950000	-0.018336	-15.211695	-71.854122	1.023539	-71.854122	1.023539	-0.054177	-46.807170
1.000000	-0.019484	-16.003357	-72.558198	2.224118	-72.558198	2.224118	-0.057598	-49.173478
1.050000	-0.020615	-16.794212	-73.348113	3.732654	-73.348113	3.732654	-0.060925	-51.527596
1.100000	-0.021730	-17.584264	-74.238396	5.680617	-74.238396	5.680617	-0.064156	-53.869336
1.150000	-0.022830	-18.373511	-75.246308	8.265510	-75.246308	8.265510	-0.067289	-56.198528
1.200000	-0.023916	-19.161951	-76.390559	11.794300	-76.390559	11.794300	-0.070326	-58.515022
1.250000	-0.024990	-19.949577	-77.685780	16.757438	-77.685780	16.757438	-0.073267	-60.818688
1.300000	-0.026051	-20.736364	-79.120103	24.020026	-79.120103	24.020026	-0.076114	-63.109130
1.350000	-0.027103	-21.522318	-80.603332	34.767168	-80.603332	34.767168	-0.078872	-65.386536
1.400000	-0.028145	-22.307427	-81.847707	50.233024	-81.847707	50.233024	-0.081546	-67.650836
1.450000	-0.029180	-23.091676	-82.318955	69.834760	-82.318955	69.834760	-0.084140	-69.901980
1.500000	-0.030208	-23.875051	-81.670487	89.529451	-81.670487	89.529451	-0.086658	-72.139935
1.550000	-0.031231	-24.657536	-80.219222	105.192254	-80.219222	105.192254	-0.089106	-74.364693
1.600000	-0.032248	-25.439114	-78.501558	116.067945	-78.501558	116.067945	-0.091489	-76.576263
1.650000	-0.033262	-26.219768	-76.819411	123.315306	-76.819411	123.315306	-0.093810	-78.774674
1.700000	-0.034273	-26.999481	-75.271683	128.156999	-75.271683	128.156999	-0.096077	-80.959976
1.750000	-0.035282	-27.778235	-73.871804	131.427949	-73.871804	131.427949	-0.098292	-83.132239
1.800000	-0.036289	-28.556012	-72.606560	133.647524	-72.606560	133.647524	-0.100461	-85.291551
1.850000	-0.037296	-29.332793	-71.457198	135.138085	-71.457198	135.138085	-0.102588	-87.438021
1.900000	-0.038302	-30.108550	-70.405599	136.100685	-70.405599	136.100685	-0.104677	-89.571639
1.950000	-0.039308	-30.883265	-69.436771	136.673238	-69.436771	136.673238	-0.106732	-91.692555
2.000000	-0.040315	-31.656930	-68.538583	136.950931	-68.538583	136.950931	-0.108758	-93.801071
2.050000	-0.041323	-32.429528	-67.700799	136.996713	-67.700799	136.996713	-0.110759	-95.897368
2.100000	-0.042333	-33.201042	-66.915076	136.855977	-66.915076	136.855977	-0.112738	-97.981643
2.150000	-0.043344	-33.971455	-66.174569	136.562211	-66.174569	136.562211	-0.114698	-100.054110
2.200000	-0.044359	-34.740750	-65.473627	136.140633	-65.473627	136.140633	-0.116644	-102.114997
2.250000	-0.045375	-35.508911	-64.807545	135.610581	-64.807545	135.610581	-0.118577	-104.164548
2.300000	-0.046395	-36.275921	-64.172379	134.987129	-64.172379	134.987129	-0.120502	-106.203021
2.350000	-0.047419	-37.041765	-63.564795	134.282201	-63.564795	134.282201	-0.122420	-108.230686
2.400000	-0.048446	-37.806428	-62.981960	133.505359	-62.981960	133.505359	-0.124335	-110.247828
2.450000	-0.049477	-38.569894	-62.421446	132.664357	-62.421446	132.664357	-0.126249	-112.254744
2.500000	-0.050512	-39.332149	-61.881166	131.765559	-61.881166	131.765559	-0.128165	-114.251743
2.550000	-0.051553	-40.093151	-61.359021	130.813196	-61.359021	130.813196	-0.130086	-116.238944
2.600000	-0.052598	-40.852913	-60.853755	129.812880	-60.853755	129.812880	-0.132013	-118.216895
2.650000	-0.053649	-41.611422	-60.363997	128.768291	-60.363997	128.768291	-0.133948	-120.185937
2.700000	-0.054705	-42.368664	-59.888545	127.682561	-59.888545	127.682561	-0.135895	-122.146422
2.750000	-0.055767	-43.124627	-59.426345	126.558376	-59.426345	126.558376	-0.137854	-124.098713
2.800000	-0.056835	-43.879298	-58.976466	125.398059	-58.976466	125.398059	-0.139828	-126.043180
2.850000	-0.057910	-44.632665	-58.538090	124.203629	-58.538090	124.203629	-0.141818	-127.980202
2.900000	-0.058992	-45.384718	-58.110490	122.976859	-58.110490	122.976859	-0.143827	-129.910166
2.950000	-0.060081	-46.135444	-57.693025	121.719314	-57.693025	121.719314	-0.145856	-131.833469
3.000000	-0.061177	-46.884833	-57.285126	120.432387	-57.285126	120.432387	-0.147906	-133.750513
3.050000	-0.062281	-47.632874	-56.886288	119.117327	-56.886288	119.117327	-0.149980	-135.661710
3.100000	-0.063394	-48.379558	-56.496063	117.775268	-56.496063	117.775268	-0.152079	-137.567477
3.150000	-0.064515	-49.124859	-56.113963	116.406971	-56.113963	116.406971	-0.154205	-139.468190
3.200000	-0.065644	-49.868769	-55.739646	115.013420	-55.739646	115.013420	-0.156359	-141.364296
3.250000	-0.066784	-50.611294	-55.372899	113.595782	-55.372899	113.595782	-0.158543	-143.256287
3.300000	-0.067932	-51.352424	-55.013448	112.154890	-55.013448	112.154890	-0.160758	-145.144610
3.350000	-0.069091	-52.092153	-54.661049	110.691538	-54.661049	110.691538	-0.163005	-147.029716
3.400000	-0.070260	-52.830471	-54.315489	109.206491	-54.315489	109.206491	-0.165286	-148.912063
3.450000	-0.071439	-53.567373	-53.976581	107.700492	-53.976581	107.700492	-0.167602	-150.792115
3.500000	-0.072630	-54.302851	-53.644160	106.174270	-53.644160	106.174270	-0.169954	-152.670342
3.550000	-0.073832	-55.036898	-53.318084	104.628548	-53.318084	104.628548	-0.172345	-154.547222
3.600000	-0.075046	-55.769509	-52.998228	103.064049	-52.998228	103.064049	-0.174774	-156.423238
3.650000	-0.076272	-56.500677	-52.684484	101.481499	-52.684484	101.481499	-0.177243	-158.298876
3.700000	-0.077511	-57.230398	-52.376757	99.881634	-52.376757	99.881634	-0.179755	-160.174634
3.750000	-0.078762	-57.958666	-52.074967	98.265203	-52.074967	98.265203	-0.182309	-162.051012
3.800000	-0.080028	-58.685445	-51.778955	96.632644	-51.778955	96.632644	-0.184908	-163.928554
3.850000	-0.081307	-59.410761	-51.488763	94.985103	-51.488763	94.985103	-0.187553	-165.807762
3.900000	-0.082600	-60.134613	-51.204340	93.323384	-51.204340	93.323384	-0.190244	-167.689156
3.950000	-0.083908	-60.856995	-50.925637	91.648316	-50.925637	91.648316	-0.192984	-169.573264
4.000000	-0.085231	-61.577904	-50.652614	89.960749	-50.652614	89.960749	-0.195772	-171.460620
4.050000	-0.086569	-62.297339	-50.385232	88.261556	-50.385232	88.261556	-0.198612	-173.351764
4.100000	-0.087923	-63.015296	-50.123457	86.551633	-50.123457	86.551633	-0.201503	-175.247245
4.150000	-0.089293	-63.731773	-49.867254	84.831899	-49.867254	84.831899	-0.204447	-177.147618
4.200000	-0.090681	-64.446769	-49.616589	83.103292	-49.616589	83.103292	-0.207446	-179.053443
4.250000	-0.092085	-65.160283	-49.371430	81.366769	-49.371430	81.366769	-0.210500	179.034708
4.300000	-0.093506	-65.872313	-49.131741	79.623305	-49.131741	79.623305	-0.213611	177.116261
4.350000	-0.094946	-66.582859	-48.897484	77.873886	-48.897484	77.873886	-0.216781	175.190630
4.400000	-0.096404	-67.291904	-48.668613	76.119470	-48.668613	76.119470	-0.220011	173.257132
4.450000	-0.097881	-67.999449	-48.445093	74.361095	-48.445093	74.361095	-0.223303	171.315148
4.500000	-0.099378	-68.705510	-48.226883	72.599824	-48.226883	72.599824	-0.226657	169.364154
4.550000	-0.100894	-69.410089	-48.013929	70.836666	-48.013929	70.836666	-0.230076	167.403534
4.600000	-0.102430	-70.113185	-47.806174	69.072623	-47.806174	69.072623	-0.233559	165.432664
4.650000	-0.103986	-70.814801	-47.603555	67.308690	-47.603555	67.308690	-0.237110	163.450913
4.700000	-0.105564	-71.514938	-47.406003	65.545848	-47.406003	65.545848	-0.240729	161.457641
4.750000	-0.107163	-72.213599	-47.213446	63.785061	-47.213446	63.785061	-0.244417	159.452200
4.800000	-0.108784	-72.910786	-47.025805	62.027270	-47.025805	62.027270	-0.248177	157.433934
4.850000	-0.110426	-73.606502	-46.842996	60.273394	-46.842996	60.273394	-0.252010	155.402181
4.900000	-0.112092	-74.300750	-46.664932	58.524320	-46.664932	58.524320	-0.255918	153.356270
4.950000	-0.113780	-74.993534	-46.491519	56.780905	-46.491519	56.780905	-0.259901	151.295521
5.000000	-0.115492	-75.684857	-46.322661	55.043969	-46.322661	55.043969	-0.263963	149.219250
5.050000	-0.117229	-76.374693	-46.158286	53.314469	-46.158286	53.314469	-0.268106	147.126395
5.100000	-0.118990	-77.063076	-45.998264	51.593006	-45.998264	51.593006	-0.272331	145.016593
5.150000	-0.120775	-77.750013	-45.842487	49.880275	-45.842487	49.880275	-0.276638	142.889141
5.200000	-0.122586	-78.435508	-45.690846	48.176931	-45.690846	48.176931	-0.281031	140.743326
5.250000	-0.124422	-79.119566	-45.543231	46.483583	-45.543231	46.483583	-0.285511	138.578435
5.300000	-0.126285	-79.802194	-45.399528	44.800793	-45.399528	44.800793	-0.290079	136.393747
5.350000	-0.128173	-80.483398	-45.259626	43.129082	-45.259626	43.129082	-0.294738	134.188540
5.400000	-0.130089	-81.163183	-45.123413	41.468924	-45.123413	41.468924	-0.299490	131.962090
5.450000	-0.132032	-81.841556	-44.990778	39.820750	-44.990778	39.820750	-0.304337	129.713672
5.500000	-0.134003	-82.518525	-44.861611	38.184951	-44.861611	38.184951	-0.309281	127.442560
5.550000	-0.136001	-83.194096	-44.735805	36.561876	-44.735805	36.561876	-0.314323	125.148033
5.600000	-0.138029	-83.868277	-44.613255	34.951838	-44.613255	34.951838	-0.319466	122.829371
5.650000	-0.140085	-84.541061	-44.493876	33.355264	-44.493876	33.355264	-0.324714	120.485580
5.700000	-0.142171	-85.212457	-44.377570	31.772411	-44.377570	31.772411	-0.330068	118.115931
5.750000	-0.144287	-85.882487	-44.264226	30.203356	-44.264226	30.203356	-0.335529	115.719996
5.800000	-0.146433	-86.551160	-44.153757	28.648298	-44.153757	28.648298	-0.341100	113.297090
5.850000	-0.148610	-87.218486	-44.046079	27.107422	-44.046079	27.107422	-0.346782	110.846542
5.900000	-0.150818	-87.884473	-43.941114	25.580905	-43.941114	25.580905	-0.352578	108.367700
5.950000	-0.153057	-88.549132	-43.838789	24.068917	-43.838789	24.068917	-0.358491	105.859930
6.000000	-0.155327	-89.212471	-43.739039	22.571636	-43.739039	22.571636	-0.364521	103.322623
6.050000	-0.157630	-89.874500	-43.641801	21.089250	-43.641801	21.089250	-0.370671	100.755196
6.100000	-0.159966	-90.535231	-43.547023	19.621968	-43.547023	19.621968	-0.376943	98.157099
6.150000	-0.162334	-91.194673	-43.454653	18.170032	-43.454653	18.170032	-0.383338	95.527815
6.200000	-0.164736	-91.852838	-43.364648	16.733720	-43.364648	16.733720	-0.389859	92.866865
6.250000	-0.167172	-92.509736	-43.276967	15.313364	-43.276967	15.313364	-0.396508	90.173816
6.300000	-0.169642	-93.165352	-43.191605	13.909725	-43.191605	13.909725	-0.403288	87.447567
6.350000	-0.172147	-93.819725	-43.108496	12.522930	-43.108496	12.522930	-0.410197	84.688486
6.400000	-0.174687	-94.472866	-43.027605	11.153543	-43.027605	11.153543	-0.417238	81.896301
6.450000	-0.177262	-95.124788	-42.948895	9.802223	-42.948895	9.802223	-0.424412	79.070802
6.500000	-0.179873	-95.775502	-42.872323	8.469744	-42.872323	8.469744	-0.431718	76.211848
6.550000	-0.182520	-96.425023	-42.797838	7.156998	-42.797838	7.156998	-0.439157	73.319372
6.600000	-0.185204	-97.073361	-42.725376	5.865003	-42.725376	5.865003	-0.446730	70.393384
6.650000	-0.187924	-97.720531	-42.654854	4.594909	-42.654854	4.594909	-0.454437	67.433976
6.700000	-0.190681	-98.366545	-42.586168	3.347991	-42.586168	3.347991	-0.462276	64.441330
6.750000	-0.193476	-99.011417	-42.519181	2.125645	-42.519181	2.125645	-0.470248	61.415719
6.800000	-0.196309	-99.655161	-42.453721	0.929364	-42.453721	0.929364	-0.478350	58.357513
6.850000	-0.199180	-100.297791	-42.389572	-0.239291	-42.389572	-0.239291	-0.486582	55.267183
6.900000	-0.202090	-100.939308	-42.326469	-1.378398	-42.326469	-1.378398	-0.494943	52.144967
6.950000	-0.205040	-101.579728	-42.264073	-2.486361	-42.264073	-2.486361	-0.503430	48.991575
7.000000	-0.208029	-102.219077	-42.201986	-3.562074	-42.201986	-3.562074	-0.512038	45.808147
7.050000	-0.211057	-102.857371	-42.139746	-4.604337	-42.139746	-4.604337	-0.520765	42.595592
7.100000	-0.214126	-103.494623	-42.076828	-5.612274	-42.076828	-5.612274	-0.529606	39.354931
7.150000	-0.217235	-104.130850	-42.012647	-6.585460	-42.012647	-6.585460	-0.538558	36.087293
7.200000	-0.220385	-104.766067	-41.946564	-7.524040	-41.946564	-7.524040	-0.547615	32.793920
7.250000	-0.223576	-105.400289	-41.877908	-8.428839	-41.877908	-8.428839	-0.556773	29.476157
7.300000	-0.226808	-106.033532	-41.805992	-9.301459	-41.805992	-9.301459	-0.566025	26.135457
7.350000	-0.230083	-106.665813	-41.730141	-10.144333	-41.730141	-10.144333	-0.575365	22.773370
7.400000	-0.233399	-107.297148	-41.649725	-10.960737	-41.649725	-10.960737	-0.584788	19.391540
7.450000	-0.236758	-107.927553	-41.564185	-11.754745	-41.564185	-11.754745	-0.594286	15.991699
7.500000	-0.240159	-108.557045	-41.473062	-12.531126	-41.473062	-12.531126	-0.603853	12.575660
7.550000	-0.243605	-109.185627	-41.375910	-13.295090	-41.375910	-13.295090	-0.613481	9.145109
7.600000	-0.247093	-109.813329	-41.272656	-14.052562	-41.272656	-14.052562	-0.623162	5.702256
7.650000	-0.250626	-110.440171	-41.163276	-14.809268	-41.163276	-14.809268	-0.632889	2.249099
7.700000	-0.254202	-111.066169	-41.047895	-15.570783	-41.047895	-15.570783	-0.642654	-1.212321
7.750000	-0.257823	-111.691342	-40.926774	-16.342313	-40.926774	-16.342313	-0.652450	-4.679939
7.800000	-0.261488	-112.315706	-40.800292	-17.128520	-40.800292	-17.128520	-0.662268	-8.151669
7.850000	-0.265199	-112.939274	-40.668864	-17.933572	-40.668864	-17.933572	-0.672101	-11.625423
7.900000	-0.268955	-113.562068	-40.533064	-18.760640	-40.533064	-18.760640	-0.681941	-15.099078
7.950000	-0.272758	-114.184096	-40.393369	-19.612626	-40.393369	-19.612626	-0.691781	-18.570486
8.000000	-0.276605	-114.805408	-40.250593	-20.490119	-40.250593	-20.490119	-0.701615	-22.037783
8.050000	-0.280498	-115.426005	-40.105142	-21.394793	-40.105142	-21.394793	-0.711435	-25.498927
8.100000	-0.284438	-116.045906	-39.957536	-22.327144	-39.957536	-22.327144	-0.721236	-28.951986
8.150000	-0.288425	-116.665123	-39.808209	-23.287493	-39.808209	-23.287493	-0.731010	-32.394965
8.200000	-0.292459	-117.283676	-39.657597	-24.275479	-39.657597	-24.275479	-0.740752	-35.826011
8.250000	-0.296541	-117.901592	-39.506111	-25.290184	-39.506111	-25.290184	-0.750457	-39.243527
8.300000	-0.300670	-118.518891	-39.354062	-26.330825	-39.354062	-26.330825	-0.760120	-42.645896
8.350000	-0.304846	-119.135593	-39.201711	-27.396532	-39.201711	-27.396532	-0.769737	-46.031600
8.400000	-0.309071	-119.751719	-39.049273	-28.486410	-39.049273	-28.486410	-0.779304	-49.399219
8.450000	-0.313343	-120.367289	-38.896920	-29.599586	-38.896920	-29.599586	-0.788816	-52.747441
8.500000	-0.317665	-120.982323	-38.744788	-30.735248	-38.744788	-30.735248	-0.798272	-56.075061
8.550000	-0.322034	-121.596843	-38.592985	-31.892672	-38.592985	-31.892672	-0.807667	-59.380985
8.600000	-0.326453	-122.210870	-38.441596	-33.071238	-38.441596	-33.071238	-0.817000	-62.664232
8.650000	-0.330921	-122.824425	-38.290686	-34.270438	-38.290686	-34.270438	-0.826267	-65.923930
8.700000	-0.335438	-123.437529	-38.140305	-35.489885	-38.140305	-35.489885	-0.835466	-69.159321
8.750000	-0.340005	-124.050204	-37.990497	-36.729308	-37.990497	-36.729308	-0.844597	-72.369752
8.800000	-0.344622	-124.662464	-37.841255	-37.988981	-37.841255	-37.988981	-0.853654	-75.554116
8.850000	-0.349289	-125.274340	-37.692659	-39.268431	-37.692659	-39.268431	-0.862639	-78.712522
8.900000	-0.354007	-125.885854	-37.544741	-40.567720	-37.544741	-40.567720	-0.871549	-81.844638
8.950000	-0.358774	-126.497029	-37.397541	-41.887003	-37.397541	-41.887003	-0.880384	-84.950226
9.000000	-0.363592	-127.107888	-37.251100	-43.226518	-37.251100	-43.226518	-0.889141	-88.029141
9.050000	-0.368460	-127.718454	-37.105468	-44.586576	-37.105468	-44.586576	-0.897819	-91.081323
9.100000	-0.373380	-128.328750	-36.960703	-45.967556	-36.960703	-45.967556	-0.906417	-94.106793
9.150000	-0.378350	-128.938798	-36.816871	-47.369888	-36.816871	-47.369888	-0.914933	-97.105652
9.200000	-0.383371	-129.548623	-36.674052	-48.794048	-36.674052	-48.794048	-0.923365	-100.078069
9.250000	-0.388443	-130.158249	-36.532336	-50.240547	-36.532336	-50.240547	-0.931711	-103.024278
9.300000	-0.393566	-130.767700	-36.391825	-51.709920	-36.391825	-51.709920	-0.939970	-105.944578
9.350000	-0.398741	-131.376999	-36.252636	-53.202716	-36.252636	-53.202716	-0.948138	-108.839319
9.400000	-0.403968	-131.986171	-36.114892	-54.719753	-36.114892	-54.719753	-0.956213	-111.708636
9.450000	-0.409246	-132.595240	-35.978746	-56.261596	-35.978746	-56.261596	-0.964192	-114.552993
9.500000	-0.414576	-133.204233	-35.844366	-57.828505	-35.844366	-57.828505	-0.972072	-117.373154
9.550000	-0.419958	-133.813175	-35.711930	-59.420973	-35.711930	-59.420973	-0.979850	-120.169648
9.600000	-0.425392	-134.422092	-35.581629	-61.039445	-35.581629	-61.039445	-0.987523	-122.943031
9.650000	-0.430877	-135.031010	-35.453668	-62.684312	-35.453668	-62.684312	-0.995087	-125.693890
9.700000	-0.436414	-135.639953	-35.328271	-64.355893	-35.328271	-64.355893	-1.002538	-128.422833
9.750000	-0.442002	-136.248949	-35.205672	-66.054424	-35.205672	-66.054424	-1.009872	-131.130488
9.800000	-0.447643	-136.858023	-35.086121	-67.780044	-35.086121	-67.780044	-1.017083	-133.817498
9.850000	-0.453335	-137.467202	-34.969882	-69.532779	-34.969882	-69.532779	-1.024168	-136.484521
9.900000	-0.459078	-138.076514	-34.857229	-71.312533	-34.857229	-71.312533	-1.031120	-139.132222
9.950000	-0.464874	-138.685985	-34.748445	-73.119070	-34.748445	-73.119070	-1.037934	-141.761275
10.000000	-0.470720	-139.295642	-34.643825	-74.952003	-34.643825	-74.952003	-1.044604	-144.372355
