! freq	dB(S11)	phase(S11)	dB(S12)	phase(S12)	
!     	dB(S21)	phase(S21)	dB(S22)	phase(S22)	
!S-par simulation data
#  GHz  S  DB  R 50
0.000000	-0.000000	0.000000	-308.464022	0.000000	-308.464022	0.000000	-0.000000	0.000000
0.050000	-0.002439	-3.895065	-67.860832	86.087923	-67.860832	86.087923	-0.002442	-3.894719
0.100000	-0.008455	-7.769761	-61.871452	82.224557	-61.871452	82.224557	-0.008459	-7.768991
0.150000	-0.015733	-11.616149	-58.395506	78.397416	-58.395506	78.397416	-0.015726	-11.614905
0.200000	-0.022766	-15.437289	-55.954789	74.592526	-55.954789	74.592526	-0.022741	-15.435570
0.250000	-0.029045	-19.235010	-54.089133	70.809913	-54.089133	70.809913	-0.029001	-19.232835
0.300000	-0.034559	-23.009681	-52.593253	67.053731	-52.593253	67.053731	-0.034499	-23.007064
0.350000	-0.039478	-26.760744	-51.355668	63.327860	-51.355668	63.327860	-0.039407	-26.757688
0.400000	-0.043941	-30.485693	-50.310820	59.637114	-50.310820	59.637114	-0.043865	-30.482195
0.450000	-0.048055	-34.180589	-49.417493	55.987400	-49.417493	55.987400	-0.047978	-34.176642
0.500000	-0.051908	-37.842473	-48.645983	52.382812	-48.645983	52.382812	-0.051834	-37.838066
0.550000	-0.055568	-41.470053	-47.973387	48.824960	-47.973387	48.824960	-0.055499	-41.465173
0.600000	-0.059061	-45.058320	-47.386484	45.320463	-47.386484	45.320463	-0.058998	-45.052952
0.650000	-0.062419	-48.606180	-46.871773	41.870642	-46.871773	41.870642	-0.062364	-48.600307
0.700000	-0.065661	-52.111979	-46.419418	38.477655	-46.419418	38.477655	-0.065613	-52.105583
0.750000	-0.068794	-55.572537	-46.022844	35.145819	-46.022844	35.145819	-0.068753	-55.565598
0.800000	-0.071824	-58.986364	-45.675627	31.877283	-45.675627	31.877283	-0.071789	-58.978863
0.850000	-0.074760	-62.353923	-45.371383	28.671666	-45.371383	28.671666	-0.074730	-62.345839
0.900000	-0.077597	-65.672235	-45.106987	25.533402	-45.106987	25.533402	-0.077571	-65.663548
0.950000	-0.080338	-68.941094	-44.878274	22.463305	-44.878274	22.463305	-0.080315	-68.931783
1.000000	-0.082982	-72.159665	-44.682114	19.463203	-44.682114	19.463203	-0.082960	-72.149710
1.050000	-0.085526	-75.326920	-44.515962	16.535392	-44.515962	16.535392	-0.085505	-75.316300
1.100000	-0.087974	-78.445183	-44.376109	13.677534	-44.376109	13.677534	-0.087952	-78.433881
1.150000	-0.090324	-81.513128	-44.261029	10.892626	-44.261029	10.892626	-0.090300	-81.501126
1.200000	-0.092575	-84.530955	-44.168732	8.181661	-44.168732	8.181661	-0.092549	-84.518235
1.250000	-0.094729	-87.499015	-44.097420	5.545570	-44.097420	5.545570	-0.094699	-87.485561
1.300000	-0.096783	-90.416731	-44.045842	2.986907	-44.045842	2.986907	-0.096749	-90.402527
1.350000	-0.098742	-93.285791	-44.012062	0.504894	-44.012062	0.504894	-0.098703	-93.270821
1.400000	-0.100608	-96.106901	-43.994698	-1.899646	-43.994698	-1.899646	-0.100564	-96.091152
1.450000	-0.102385	-98.880857	-43.992467	-4.225909	-43.992467	-4.225909	-0.102334	-98.864314
1.500000	-0.104074	-101.608527	-44.004162	-6.473107	-44.004162	-6.473107	-0.104017	-101.591178
1.550000	-0.105680	-104.290846	-44.028645	-8.640473	-44.028645	-8.640473	-0.105617	-104.272679
1.600000	-0.107207	-106.928800	-44.064827	-10.727259	-44.064827	-10.727259	-0.107138	-106.909802
1.650000	-0.108660	-109.523418	-44.111666	-12.732752	-44.111666	-12.732752	-0.108583	-109.503578
1.700000	-0.110042	-112.075765	-44.168148	-14.656280	-44.168148	-14.656280	-0.109959	-112.055072
1.750000	-0.111358	-114.586931	-44.233287	-16.497230	-44.233287	-16.497230	-0.111269	-114.565374
1.800000	-0.112614	-117.058025	-44.306112	-18.255069	-44.306112	-18.255069	-0.112519	-117.035593
1.850000	-0.113814	-119.490170	-44.385659	-19.929365	-44.385659	-19.929365	-0.113713	-119.466853
1.900000	-0.114963	-121.884096	-44.471016	-21.518909	-44.471016	-21.518909	-0.114856	-121.859884
1.950000	-0.116065	-124.240972	-44.561188	-23.023569	-44.561188	-23.023569	-0.115953	-124.215855
2.000000	-0.117127	-126.562338	-44.655162	-24.444342	-44.655162	-24.444342	-0.117009	-126.536305
2.050000	-0.118152	-128.849315	-44.751974	-25.781555	-44.751974	-25.781555	-0.118030	-128.822357
2.100000	-0.119146	-131.103013	-44.850651	-27.035829	-44.850651	-27.035829	-0.119019	-131.075120
2.150000	-0.120113	-133.324531	-44.950218	-28.208113	-44.950218	-28.208113	-0.119982	-133.295694
2.200000	-0.121057	-135.514952	-45.049694	-29.299736	-45.049694	-29.299736	-0.120922	-135.485162
2.250000	-0.121982	-137.675342	-45.148102	-30.312449	-45.148102	-30.312449	-0.121844	-137.644589
2.300000	-0.122893	-139.806749	-45.244470	-31.248464	-45.244470	-31.248464	-0.122752	-139.775023
2.350000	-0.123793	-141.910199	-45.337838	-32.110492	-45.337838	-32.110492	-0.123649	-141.877491
2.400000	-0.124686	-143.986698	-45.427272	-32.901766	-45.427272	-32.901766	-0.124540	-143.952998
2.450000	-0.125575	-146.037229	-45.511869	-33.626065	-45.511869	-33.626065	-0.125426	-146.002529
2.500000	-0.126463	-148.062755	-45.590772	-34.287711	-45.590772	-34.287711	-0.126313	-148.027045
2.550000	-0.127353	-150.063711	-45.663008	-34.890434	-45.663008	-34.890434	-0.127201	-150.026982
2.600000	-0.128249	-152.041554	-45.727992	-35.441007	-45.727992	-35.441007	-0.128095	-152.003796
2.650000	-0.129152	-153.997173	-45.785079	-35.945300	-45.785079	-35.945300	-0.128997	-153.958379
2.700000	-0.130065	-155.931436	-45.833717	-36.409584	-45.833717	-36.409584	-0.129909	-155.891595
2.750000	-0.130990	-157.845184	-45.873457	-36.840459	-45.873457	-36.840459	-0.130833	-157.804288
2.800000	-0.131929	-159.739237	-45.903960	-37.244755	-45.903960	-37.244755	-0.131772	-159.697277
2.850000	-0.132884	-161.614392	-45.925002	-37.629442	-45.925002	-37.629442	-0.132727	-161.571359
2.900000	-0.133857	-163.471423	-45.936478	-38.001519	-45.936478	-38.001519	-0.133699	-163.427309
2.950000	-0.134850	-165.311082	-45.938396	-38.367905	-45.938396	-38.367905	-0.134691	-165.265877
3.000000	-0.135862	-167.134098	-45.930879	-38.735342	-45.930879	-38.735342	-0.135703	-167.087796
3.050000	-0.136897	-168.941182	-45.914155	-39.110291	-45.914155	-39.110291	-0.136737	-168.893773
3.100000	-0.137954	-170.733021	-45.888547	-39.498849	-45.888547	-39.498849	-0.137794	-170.684496
3.150000	-0.139035	-172.510130	-45.854378	-39.906946	-45.854378	-39.906946	-0.138875	-172.460482
3.200000	-0.140142	-174.273181	-45.812144	-40.339907	-45.812144	-40.339907	-0.139981	-174.222401
3.250000	-0.141273	-176.022957	-45.762482	-40.802119	-45.762482	-40.802119	-0.141112	-175.971037
3.300000	-0.142431	-177.760068	-45.705982	-41.297627	-45.705982	-41.297627	-0.142270	-177.707000
3.350000	-0.143615	-179.485102	-45.643263	-41.829912	-45.643263	-41.829912	-0.143453	-179.430880
3.400000	-0.144826	178.801366	-45.574963	-42.401909	-45.574963	-42.401909	-0.144664	178.856752
3.450000	-0.146065	177.098783	-45.501729	-43.016021	-45.501729	-43.016021	-0.145902	177.155339
3.500000	-0.147331	175.406609	-45.424205	-43.674156	-45.424205	-43.674156	-0.147167	175.464344
3.550000	-0.148626	173.724723	-45.342863	-44.379792	-45.342863	-44.379792	-0.148461	173.783644
3.600000	-0.149947	172.051702	-45.258694	-45.129394	-45.258694	-45.129394	-0.149781	172.111816
3.650000	-0.151296	170.387582	-45.172058	-45.926124	-45.172058	-45.926124	-0.151130	170.448897
3.700000	-0.152673	168.731887	-45.083519	-46.770319	-45.083519	-46.770319	-0.152505	168.794409
3.750000	-0.154078	167.084155	-44.993609	-47.662032	-44.993609	-47.662032	-0.153909	167.147891
3.800000	-0.155511	165.444242	-44.902770	-48.603116	-44.902770	-48.603116	-0.155341	165.509199
3.850000	-0.156972	163.811369	-44.811564	-49.591095	-44.811564	-49.591095	-0.156801	163.877555
3.900000	-0.158461	162.185117	-44.720420	-50.625405	-44.720420	-50.625405	-0.158288	162.252538
3.950000	-0.159976	160.565078	-44.629732	-51.705366	-44.629732	-51.705366	-0.159802	160.633741
4.000000	-0.161519	158.950857	-44.539863	-52.830206	-44.539863	-52.830206	-0.161343	159.020768
4.050000	-0.163087	157.342071	-44.451147	-53.999091	-44.451147	-53.999091	-0.162910	157.413236
4.100000	-0.164682	155.738349	-44.363886	-55.211150	-44.363886	-55.211150	-0.164503	155.810775
4.150000	-0.166303	154.139330	-44.278357	-56.465492	-44.278357	-56.465492	-0.166122	154.213023
4.200000	-0.167949	152.544665	-44.194810	-57.761225	-44.194810	-57.761225	-0.167766	152.619631
4.250000	-0.169620	150.954016	-44.113473	-59.097472	-44.113473	-59.097472	-0.169436	151.030260
4.300000	-0.171316	149.367055	-44.034552	-60.473379	-44.034552	-60.473379	-0.171130	149.444584
4.350000	-0.173036	147.783463	-43.958235	-61.888129	-43.958235	-61.888129	-0.172848	147.862282
4.400000	-0.174780	146.202934	-43.884688	-63.340952	-43.884688	-63.340952	-0.174589	146.283048
4.450000	-0.176547	144.625168	-43.814067	-64.831126	-43.814067	-64.831126	-0.176354	144.706583
4.500000	-0.178337	143.049876	-43.746509	-66.357987	-43.746509	-66.357987	-0.178143	143.132598
4.550000	-0.180149	141.476780	-43.682139	-67.920934	-43.682139	-67.920934	-0.179953	141.560813
4.600000	-0.181984	139.905608	-43.621073	-69.519427	-43.621073	-69.519427	-0.181786	139.990957
4.650000	-0.183840	138.336099	-43.563413	-71.152999	-43.563413	-71.152999	-0.183640	138.422769
4.700000	-0.185717	136.768000	-43.509253	-72.821249	-43.509253	-72.821249	-0.185515	136.855995
4.750000	-0.187615	135.201066	-43.458680	-74.523850	-43.458680	-74.523850	-0.187412	135.290391
4.800000	-0.189534	133.635061	-43.411772	-76.260549	-43.411772	-76.260549	-0.189328	133.725720
4.850000	-0.191472	132.069757	-43.368600	-78.031167	-43.368600	-78.031167	-0.191265	132.161755
4.900000	-0.193430	130.504936	-43.329230	-79.835601	-43.329230	-79.835601	-0.193222	130.598275
4.950000	-0.195408	128.940383	-43.293722	-81.673827	-43.293722	-81.673827	-0.195198	129.035068
5.000000	-0.197404	127.375897	-43.262131	-83.545896	-43.262131	-83.545896	-0.197193	127.471931
5.050000	-0.199420	125.811265	-43.234676	-85.453430	-43.234676	-85.453430	-0.199207	125.908652
5.100000	-0.201454	124.246299	-43.211237	-87.395182	-43.211237	-87.395182	-0.201240	124.345040
5.150000	-0.203506	122.680816	-43.191852	-89.371460	-43.191852	-89.371460	-0.203291	122.780915
5.200000	-0.205577	121.114647	-43.176554	-91.382657	-43.176554	-91.382657	-0.205360	121.216105
5.250000	-0.207664	119.547625	-43.165372	-93.429251	-43.165372	-93.429251	-0.207447	119.650445
5.300000	-0.209770	117.979592	-43.158329	-95.511807	-43.158329	-95.511807	-0.209552	118.083776
5.350000	-0.211893	116.410399	-43.155441	-97.630981	-43.155441	-97.630981	-0.211674	116.515948
5.400000	-0.214033	114.839902	-43.156719	-99.787523	-43.156719	-99.787523	-0.213813	114.946817
5.450000	-0.216190	113.267965	-43.162165	-101.982276	-43.162165	-101.982276	-0.215970	113.376247
5.500000	-0.218365	111.694459	-43.171774	-104.216180	-43.171774	-104.216180	-0.218144	111.804108
5.550000	-0.220557	110.119263	-43.185531	-106.490276	-43.185531	-106.490276	-0.220336	110.230279
5.600000	-0.222766	108.542262	-43.203410	-108.805708	-43.203410	-108.805708	-0.222546	108.654645
5.650000	-0.224993	106.963347	-43.225375	-111.163723	-43.225375	-111.163723	-0.224773	107.077096
5.700000	-0.227238	105.382419	-43.251374	-113.565676	-43.251374	-113.565676	-0.227018	105.497533
5.750000	-0.229501	103.799384	-43.281340	-116.013030	-43.281340	-116.013030	-0.229281	103.915860
5.800000	-0.231782	102.214154	-43.315189	-118.507360	-43.315189	-118.507360	-0.231563	102.331991
5.850000	-0.234083	100.626650	-43.352814	-121.050348	-43.352814	-121.050348	-0.233864	100.745845
5.900000	-0.236402	99.036798	-43.394088	-123.643785	-43.394088	-123.643785	-0.236184	99.157348
5.950000	-0.238741	97.444532	-43.438855	-126.289571	-43.438855	-126.289571	-0.238524	97.566433
6.000000	-0.241100	95.849793	-43.486933	-128.989704	-43.486933	-128.989704	-0.240884	95.973041
6.050000	-0.243480	94.252528	-43.538102	-131.746280	-43.538102	-131.746280	-0.243265	94.377118
6.100000	-0.245881	92.652690	-43.592109	-134.561476	-43.592109	-134.561476	-0.245668	92.778617
6.150000	-0.248305	91.050241	-43.648655	-137.437542	-43.648655	-137.437542	-0.248093	91.177499
6.200000	-0.250752	89.445147	-43.707398	-140.376779	-43.707398	-140.376779	-0.250541	89.573730
6.250000	-0.253223	87.837384	-43.767943	-143.381518	-43.767943	-143.381518	-0.253014	87.967284
6.300000	-0.255720	86.226813	-43.829855	-146.457141	-43.829855	-146.457141	-0.255512	86.358023
6.350000	-0.258243	84.613540	-43.892553	-149.603078	-43.892553	-149.603078	-0.258037	84.746050
6.400000	-0.260793	82.997558	-43.955452	-152.821509	-43.955452	-152.821509	-0.260589	83.131360
6.450000	-0.263373	81.378868	-44.017894	-156.114460	-44.017894	-156.114460	-0.263170	81.513952
6.500000	-0.265981	79.757478	-44.079150	-159.483738	-44.079150	-159.483738	-0.265781	79.893834
6.550000	-0.268622	78.133402	-44.138414	-162.930849	-44.138414	-162.930849	-0.268423	78.271019
6.600000	-0.271294	76.506660	-44.194807	-166.456915	-44.194807	-166.456915	-0.271098	76.645525
6.650000	-0.274001	74.877276	-44.247372	-170.062576	-44.247372	-170.062576	-0.273807	75.017377
6.700000	-0.276744	73.245285	-44.295086	-173.747888	-44.295086	-173.747888	-0.276552	73.386609
6.750000	-0.279525	71.610723	-44.336863	-177.512216	-44.336863	-177.512216	-0.279334	71.753256
6.800000	-0.282345	69.973635	-44.371569	178.645872	-44.371569	178.645872	-0.282156	70.117362
6.850000	-0.285206	68.334070	-44.398032	174.728704	-44.398032	174.728704	-0.285019	68.478976
6.900000	-0.288111	66.692085	-44.415069	170.739589	-44.415069	170.739589	-0.287925	66.838153
6.950000	-0.291060	65.047740	-44.421504	166.682890	-44.421504	166.682890	-0.290877	65.194954
7.000000	-0.294058	63.401102	-44.416199	162.564053	-44.416199	162.564053	-0.293876	63.549444
7.050000	-0.297105	61.752242	-44.398080	158.389617	-44.398080	158.389617	-0.296925	61.901693
7.100000	-0.300203	60.101238	-44.366175	154.167170	-44.366175	154.167170	-0.300025	60.251780
7.150000	-0.303357	58.448171	-44.319635	149.905266	-44.319635	149.905266	-0.303180	58.599783
7.200000	-0.306567	56.793129	-44.257772	145.613293	-44.257772	145.613293	-0.306391	56.945791
7.250000	-0.309836	55.136203	-44.180079	141.301295	-44.180079	141.301295	-0.309662	55.289893
7.300000	-0.313168	53.477489	-44.086250	136.979762	-44.086250	136.979762	-0.312994	53.632186
7.350000	-0.316564	51.817087	-43.976192	132.659387	-43.976192	132.659387	-0.316392	51.972768
7.400000	-0.320027	50.155103	-43.850025	128.350818	-43.850025	128.350818	-0.319856	50.311744
7.450000	-0.323561	48.491644	-43.708079	124.064402	-43.708079	124.064402	-0.323391	48.649222
7.500000	-0.327168	46.826824	-43.550881	119.809956	-43.550881	119.809956	-0.326998	46.985314
7.550000	-0.330855	45.160709	-43.378375	115.598723	-43.378375	115.598723	-0.330686	45.320084
7.600000	-0.334621	43.493478	-43.192201	111.437341	-43.192201	111.437341	-0.334452	43.653714
7.650000	-0.338470	41.825255	-42.993339	107.332796	-42.993339	107.332796	-0.338301	41.986324
7.700000	-0.342405	40.156165	-42.782853	103.290974	-42.782853	103.290974	-0.342236	40.318039
7.750000	-0.346429	38.486335	-42.561858	99.316640	-42.561858	99.316640	-0.346260	38.648989
7.800000	-0.350546	36.815898	-42.331494	95.413462	-42.331494	95.413462	-0.350376	36.979303
7.850000	-0.354758	35.144985	-42.092897	91.584068	-42.092897	91.584068	-0.354588	35.309112
7.900000	-0.359070	33.473732	-41.847180	87.830122	-41.847180	87.830122	-0.358899	33.638553
7.950000	-0.363484	31.802274	-41.595414	84.152420	-41.595414	84.152420	-0.363313	31.967760
8.000000	-0.368005	30.130749	-41.338617	80.550992	-41.338617	80.550992	-0.367833	30.296871
8.050000	-0.372635	28.459297	-41.077740	77.025212	-41.077740	77.025212	-0.372462	28.626025
8.100000	-0.377379	26.788058	-40.813664	73.573902	-40.813664	73.573902	-0.377205	26.955361
8.150000	-0.382240	25.117171	-40.547196	70.195430	-40.547196	70.195430	-0.382064	25.285020
8.200000	-0.387222	23.446777	-40.279070	66.887804	-40.279070	66.887804	-0.387045	23.615143
8.250000	-0.392328	21.777018	-40.009946	63.648754	-40.009946	63.648754	-0.392149	21.945870
8.300000	-0.397562	20.108035	-39.740412	60.475804	-39.740412	60.475804	-0.397382	20.277342
8.350000	-0.402917	18.439872	-39.471663	57.361097	-39.471663	57.361097	-0.402735	18.609608
8.400000	-0.408420	16.772861	-39.202699	54.313272	-39.202699	54.313272	-0.408237	16.942992
8.450000	-0.414063	15.107048	-38.934724	51.323399	-38.934724	51.323399	-0.413878	15.277544
8.500000	-0.419850	13.442570	-38.668088	48.388710	-38.668088	48.388710	-0.419662	13.613402
8.550000	-0.425784	11.779565	-38.403094	45.506458	-38.403094	45.506458	-0.425594	11.950703
8.600000	-0.431869	10.118167	-38.140000	42.673936	-38.140000	42.673936	-0.431678	10.289582
8.650000	-0.438110	8.458509	-37.879030	39.888499	-37.879030	39.888499	-0.437916	8.630173
8.700000	-0.444510	6.800722	-37.620372	37.147572	-37.620372	37.147572	-0.444314	6.972607
8.750000	-0.451073	5.144935	-37.364184	34.448664	-37.364184	34.448664	-0.450875	5.317013
8.800000	-0.457807	3.491323	-37.110499	31.790176	-37.110499	31.790176	-0.457607	3.663566
8.850000	-0.464712	1.839966	-36.859541	29.168886	-36.859541	29.168886	-0.464510	2.012349
8.900000	-0.471792	0.190984	-36.611398	26.582579	-36.611398	26.582579	-0.471588	0.363481
8.950000	-0.479051	-1.455505	-36.366146	24.029133	-36.366146	24.029133	-0.478845	-1.282920
9.000000	-0.486504	-3.099242	-36.123643	21.508124	-36.123643	21.508124	-0.486295	-2.926592
9.050000	-0.494136	-4.740371	-35.884315	19.014598	-35.884315	19.014598	-0.493926	-4.567680
9.100000	-0.501960	-6.378675	-35.648029	16.548083	-35.648029	16.548083	-0.501747	-6.205963
9.150000	-0.509979	-8.014049	-35.414817	14.106818	-35.414817	14.106818	-0.509764	-7.841337
9.200000	-0.518198	-9.646396	-35.184703	11.689125	-35.184703	11.689125	-0.517981	-9.473704
9.250000	-0.526621	-11.275621	-34.957706	9.293409	-34.957706	9.293409	-0.526401	-11.102967
9.300000	-0.535251	-12.901633	-34.733842	6.918150	-34.733842	6.918150	-0.535029	-12.729034
9.350000	-0.544093	-14.524345	-34.513125	4.561903	-34.513125	4.561903	-0.543869	-14.351816
9.400000	-0.553151	-16.143676	-34.295566	2.223296	-34.295566	2.223296	-0.552925	-15.971232
9.450000	-0.562429	-17.759549	-34.081176	-0.098975	-34.081176	-0.098975	-0.562201	-17.587202
9.500000	-0.571932	-19.371891	-33.869964	-2.406146	-33.869964	-2.406146	-0.571701	-19.199652
9.550000	-0.581664	-20.980635	-33.661941	-4.699389	-33.661941	-4.699389	-0.581430	-20.808513
9.600000	-0.591628	-22.585716	-33.457119	-6.979812	-33.457119	-6.979812	-0.591391	-22.413719
9.650000	-0.601829	-24.187077	-33.255511	-9.248465	-33.255511	-9.248465	-0.601589	-24.015211
9.700000	-0.612272	-25.784665	-33.057132	-11.506336	-33.057132	-11.506336	-0.612029	-25.612934
9.750000	-0.622961	-27.378432	-32.861997	-13.754356	-32.861997	-13.754356	-0.622713	-27.206837
9.800000	-0.633900	-28.968334	-32.670127	-15.993399	-32.670127	-15.993399	-0.633648	-28.796875
9.850000	-0.645093	-30.554333	-32.481543	-18.224282	-32.481543	-18.224282	-0.644837	-30.383008
9.900000	-0.656546	-32.136395	-32.296269	-20.447768	-32.296269	-20.447768	-0.656284	-31.965200
9.950000	-0.668263	-33.714494	-32.114331	-22.664565	-32.114331	-22.664565	-0.667995	-33.543422
10.000000	-0.680248	-35.288605	-31.935760	-24.875326	-31.935760	-24.875326	-0.679973	-35.117647
