! freq	dB(S11)	phase(S11)	dB(S12)	phase(S12)	
!     	dB(S21)	phase(S21)	dB(S22)	phase(S22)	
!S-par simulation data
#  GHz  S  DB  R 50
0.000000	-86.468723	0.000000	-0.000412	0.000000	-0.000412	0.000000	-86.468723	0.000000
0.050000	-33.166438	-93.104447	-0.004897	-2.976800	-0.004897	-2.976800	-33.164723	-92.819874
0.100000	-27.164600	-96.381041	-0.016819	-5.945437	-0.016819	-5.945437	-27.162627	-95.812733
0.150000	-23.671783	-99.590886	-0.033616	-8.899011	-0.033616	-8.899011	-23.669512	-98.740091
0.200000	-21.211791	-102.757751	-0.053966	-11.834916	-0.053966	-11.834916	-21.209278	-101.625603
0.250000	-19.320137	-105.887344	-0.077270	-14.754685	-0.077270	-14.754685	-19.317488	-104.474498
0.300000	-17.789907	-108.982967	-0.103460	-17.659539	-0.103460	-17.659539	-17.787224	-107.289623
0.350000	-16.509846	-112.048953	-0.132488	-20.550272	-0.132488	-20.550272	-16.507191	-110.075032
0.400000	-15.414129	-115.088120	-0.164382	-23.426423	-0.164382	-23.426423	-15.411522	-112.833458
0.450000	-14.461147	-118.101741	-0.199222	-26.286420	-0.199222	-26.286420	-14.458570	-115.566222
0.500000	-13.620770	-121.092682	-0.236767	-29.129998	-0.236767	-29.129998	-13.618188	-118.276312
0.550000	-12.872346	-124.061848	-0.276878	-31.956103	-0.276878	-31.956103	-12.869717	-120.964759
0.600000	-12.201471	-127.008695	-0.319474	-34.762813	-0.319474	-34.762813	-12.198751	-123.631142
0.650000	-11.595791	-129.934157	-0.364260	-37.549868	-0.364260	-37.549868	-11.592948	-126.276470
0.700000	-11.046047	-132.838416	-0.410995	-40.316711	-0.410995	-40.316711	-11.043061	-128.900972
0.750000	-10.545521	-135.720685	-0.459483	-43.062073	-0.459483	-43.062073	-10.542384	-131.503897
0.800000	-10.088250	-138.580867	-0.509461	-45.785519	-0.509461	-45.785519	-10.084965	-134.085154
0.850000	-9.669163	-141.419109	-0.560656	-48.486989	-0.560656	-48.486989	-9.665743	-136.644878
0.900000	-9.284161	-144.235399	-0.612812	-51.166364	-0.612812	-51.166364	-9.280628	-139.183048
0.950000	-8.929870	-147.029656	-0.665681	-53.823516	-0.665681	-53.823516	-8.926251	-141.699575
1.000000	-8.603353	-149.801969	-0.719014	-56.458533	-0.719014	-56.458533	-8.599677	-144.194543
1.050000	-8.302074	-152.552518	-0.772570	-59.071628	-0.772570	-59.071628	-8.298375	-146.668136
1.100000	-8.023832	-155.281570	-0.826114	-61.663124	-0.826114	-61.663124	-8.020140	-149.120635
1.150000	-7.766695	-157.989479	-0.879421	-64.233448	-0.879421	-64.233448	-7.763042	-151.552420
1.200000	-7.528966	-160.676679	-0.932275	-66.783121	-0.932275	-66.783121	-7.525381	-153.963963
1.250000	-7.309141	-163.343679	-0.984473	-69.312746	-0.984473	-69.312746	-7.305650	-156.355823
1.300000	-7.106120	-165.990643	-1.035790	-71.822599	-1.035790	-71.822599	-7.102747	-158.728244
1.350000	-6.918455	-168.618651	-1.086067	-74.313863	-1.086067	-74.313863	-6.915220	-161.082372
1.400000	-6.745077	-171.228397	-1.135134	-76.787344	-1.135134	-76.787344	-6.741997	-163.418991
1.450000	-6.585030	-173.820621	-1.182831	-79.243894	-1.182831	-79.243894	-6.582118	-165.738944
1.500000	-6.437965	-176.395219	-1.228913	-81.683571	-1.228913	-81.683571	-6.435234	-168.042302
1.550000	-6.302160	-178.954643	-1.273417	-84.108879	-1.273417	-84.108879	-6.299617	-170.331549
1.600000	-6.177342	178.501009	-1.316144	-86.520064	-1.316144	-86.520064	-6.174994	-172.606962
1.650000	-6.062880	175.970880	-1.356982	-88.918111	-1.356982	-88.918111	-6.060733	-174.869552
1.700000	-5.958204	173.454095	-1.395829	-91.304021	-1.395829	-91.304021	-5.956262	-177.120357
1.750000	-5.862800	170.949770	-1.432592	-93.678809	-1.432592	-93.678809	-5.861067	-179.360437
1.800000	-5.776202	168.457014	-1.467190	-96.043502	-1.467190	-96.043502	-5.774682	178.409127
1.850000	-5.697993	165.974933	-1.499551	-98.399132	-1.499551	-98.399132	-5.696689	176.187240
1.900000	-5.627795	163.502636	-1.529611	-100.746735	-1.529611	-100.746735	-5.626714	173.972795
1.950000	-5.565271	161.039236	-1.557317	-103.087346	-1.557317	-103.087346	-5.564418	171.764672
2.000000	-5.510118	158.583853	-1.582623	-105.422002	-1.582623	-105.422002	-5.509502	169.561748
2.050000	-5.462065	156.135619	-1.605492	-107.751733	-1.605492	-107.751733	-5.461696	167.362890
2.100000	-5.420875	153.693679	-1.625895	-110.077564	-1.625895	-110.077564	-5.420765	165.166964
2.150000	-5.386336	151.257195	-1.643811	-112.400513	-1.643811	-112.400513	-5.386501	162.972830
2.200000	-5.358266	148.825347	-1.659224	-114.721590	-1.659224	-114.721590	-5.358724	160.779349
2.250000	-5.336506	146.397336	-1.672129	-117.041793	-1.672129	-117.041793	-5.337278	158.585379
2.300000	-5.320922	143.972387	-1.682526	-119.362111	-1.682526	-119.362111	-5.322032	156.389776
2.350000	-5.311403	141.549750	-1.690419	-121.683520	-1.690419	-121.683520	-5.312879	154.191397
2.400000	-5.307858	139.128705	-1.695823	-124.006981	-1.695823	-124.006981	-5.309732	151.989096
2.450000	-5.310220	136.708560	-1.698757	-126.333444	-1.698757	-126.333444	-5.312527	149.781729
2.500000	-5.318439	134.288658	-1.699244	-128.663843	-1.699244	-128.663843	-5.321219	147.568149
2.550000	-5.332738	131.868335	-1.697214	-130.999349	-1.697214	-130.999349	-5.336036	145.346832
2.600000	-5.352852	129.447001	-1.692810	-133.340691	-1.692810	-133.340691	-5.356718	143.116897
2.650000	-5.378792	127.024123	-1.686075	-135.688749	-1.686075	-135.688749	-5.383277	140.877189
2.700000	-5.410586	124.599211	-1.677056	-138.044389	-1.677056	-138.044389	-5.415748	138.626548
2.750000	-5.448278	122.171826	-1.665809	-140.408456	-1.665809	-140.408456	-5.454178	136.363809
2.800000	-5.491931	119.741581	-1.652391	-142.781773	-1.652391	-142.781773	-5.498638	134.087801
2.850000	-5.541627	117.308148	-1.636868	-145.165144	-1.636868	-145.165144	-5.549212	131.797341
2.900000	-5.597463	114.871261	-1.619307	-147.559353	-1.619307	-147.559353	-5.606005	129.491240
2.950000	-5.659556	112.430719	-1.599785	-149.965158	-1.599785	-149.965158	-5.669138	127.168292
3.000000	-5.728038	109.986399	-1.578379	-152.383295	-1.578379	-152.383295	-5.738751	124.827280
3.050000	-5.803061	107.538254	-1.555175	-154.814473	-1.555175	-154.814473	-5.815004	122.466965
3.100000	-5.884796	105.086327	-1.530260	-157.259376	-1.530260	-157.259376	-5.898074	120.086092
3.150000	-5.973430	102.630753	-1.503728	-159.718660	-1.503728	-159.718660	-5.988159	117.683377
3.200000	-6.069171	100.171773	-1.475678	-162.192950	-1.475678	-162.192950	-6.085474	115.257508
3.250000	-6.172246	97.709740	-1.446211	-164.682841	-1.446211	-164.682841	-6.190259	112.807139
3.300000	-6.282902	95.245133	-1.415435	-167.188897	-1.415435	-167.188897	-6.302772	110.330885
3.350000	-6.401405	92.778566	-1.383459	-169.711648	-1.383459	-169.711648	-6.423296	107.827313
3.400000	-6.528045	90.310804	-1.350398	-172.251585	-1.350398	-172.251585	-6.552135	105.294932
3.450000	-6.663133	87.842778	-1.316370	-174.809167	-1.316370	-174.809167	-6.689620	102.732191
3.500000	-6.807002	85.375604	-1.281498	-177.384809	-1.281498	-177.384809	-6.836107	100.137457
3.550000	-6.960010	82.910598	-1.245904	-179.978891	-1.245904	-179.978891	-6.991978	97.509011
3.600000	-7.122538	80.449306	-1.209718	177.408252	-1.209718	177.408252	-7.157646	94.845026
3.650000	-7.294994	77.993523	-1.173069	174.776328	-1.173069	174.776328	-7.333553	92.143549
3.700000	-7.477813	75.545328	-1.136089	172.125089	-1.136089	172.125089	-7.520177	89.402480
3.750000	-7.671456	73.107113	-1.098912	169.454331	-1.098912	169.454331	-7.718028	86.619545
3.800000	-7.876706	70.682331	-1.061670	166.763038	-1.061670	166.763038	-7.927958	83.790201
3.850000	-8.093785	68.273764	-1.024514	164.051957	-1.024514	164.051957	-8.150252	80.913497
3.900000	-8.323238	65.885091	-0.987581	161.321030	-0.987581	161.321030	-8.385538	77.986361
3.950000	-8.565640	63.520525	-0.951007	158.570250	-0.951007	158.570250	-8.634491	75.005354
4.000000	-8.821595	61.184892	-0.914926	155.799654	-0.914926	155.799654	-8.897836	71.966603
4.050000	-9.091734	58.883714	-0.879473	153.009325	-0.879473	153.009325	-9.176348	68.865713
4.100000	-9.376713	56.623327	-0.844778	150.199388	-0.844778	150.199388	-9.470859	65.697661
4.150000	-9.677209	54.411001	-0.810969	147.370011	-0.810969	147.370011	-9.782262	62.456665
4.200000	-9.993914	52.255097	-0.778173	144.521396	-0.778173	144.521396	-10.111507	59.136025
4.250000	-10.327523	50.165246	-0.746509	141.653783	-0.746509	141.653783	-10.459609	55.727927
4.300000	-10.678717	48.152558	-0.716095	138.767435	-0.716095	138.767435	-10.827642	52.223201
4.350000	-11.048142	46.229873	-0.687040	135.862641	-0.687040	135.862641	-11.216736	48.611022
4.400000	-11.436376	44.412050	-0.659452	132.939700	-0.659452	132.939700	-11.628066	44.878536
4.450000	-11.843874	42.716287	-0.633427	129.998921	-0.633427	129.998921	-12.062830	41.010406
4.500000	-12.270905	41.162485	-0.609060	127.040601	-0.609060	127.040601	-12.522214	36.988242
4.550000	-12.717448	39.773613	-0.586434	124.065020	-0.586434	124.065020	-13.007335	32.789913
4.600000	-13.183060	38.576054	-0.565628	121.072421	-0.565628	121.072421	-13.519145	28.388707
4.650000	-13.666680	37.599853	-0.546712	118.062992	-0.546712	118.062992	-14.058288	23.752361
4.700000	-14.166380	36.878729	-0.529749	115.036837	-0.529749	115.036837	-14.624874	18.841957
4.750000	-14.679028	36.449646	-0.514797	111.993950	-0.514797	111.993950	-15.218129	13.610809
4.800000	-15.199866	36.351613	-0.501904	108.934175	-0.501904	108.934175	-15.835890	8.003560
4.850000	-15.722027	36.623215	-0.491116	105.857153	-0.491116	105.857153	-16.473853	1.955953
4.900000	-16.236031	37.298277	-0.482476	102.762258	-0.482476	102.762258	-17.124533	-4.603809
4.950000	-16.729404	38.398994	-0.476024	99.648508	-0.476024	99.648508	-17.775917	-11.750622
5.000000	-17.186659	39.926145	-0.471807	96.514442	-0.471807	96.514442	-18.409937	-19.552634
5.050000	-17.584988	41.863449	-0.470014	93.356502	-0.470014	93.356502	-18.994850	-28.091117
5.100000	-17.912082	44.093508	-0.470549	90.173273	-0.470549	90.173273	-19.504369	-37.290561
5.150000	-18.153076	46.486536	-0.473531	86.960605	-0.473531	86.960605	-19.903494	-47.047755
5.200000	-18.295253	48.859700	-0.479233	83.711418	-0.479233	83.711418	-20.153711	-57.164254
5.250000	-18.335002	50.953180	-0.488122	80.414368	-0.488122	80.414368	-20.224988	-67.287145
5.300000	-18.288889	52.518186	-0.500627	77.058381	-0.500627	77.058381	-20.122661	-77.019559
5.350000	-18.176207	53.283411	-0.517784	73.623914	-0.517784	73.623914	-19.856920	-85.990275
5.400000	-18.024620	52.837180	-0.542082	70.071513	-0.542082	70.071513	-19.435190	-93.768216
5.450000	-17.879441	50.680014	-0.578136	66.344134	-0.578136	66.344134	-18.865498	-100.027323
5.500000	-17.793197	46.114319	-0.634539	62.361796	-0.634539	62.361796	-18.125630	-104.548947
5.550000	-17.858209	37.154286	-0.737831	57.928265	-0.737831	57.928265	-17.072008	-106.937035
5.600000	-18.203988	18.967163	-0.966381	52.711056	-0.966381	52.711056	-15.375637	-107.642378
5.650000	-18.555636	-22.687437	-1.605689	46.475091	-1.605689	46.475091	-12.507062	-110.530020
5.700000	-15.591289	-104.027905	-3.448158	44.806971	-3.448158	44.806971	-8.813352	-127.525278
5.750000	-11.867390	-178.732913	-3.475712	59.646153	-3.475712	59.646153	-7.818326	-158.721147
5.800000	-11.241002	141.899921	-1.947244	58.645831	-1.947244	58.645831	-9.119401	-177.152276
5.850000	-11.199685	122.586546	-1.365885	53.571142	-1.365885	53.571142	-10.119340	174.466389
5.900000	-11.125631	111.448193	-1.141388	48.923427	-1.141388	48.923427	-10.619329	169.312053
5.950000	-10.982375	104.062407	-1.046072	44.776502	-1.046072	44.776502	-10.806106	165.135349
6.000000	-10.795276	98.503151	-1.003477	40.934444	-1.003477	40.934444	-10.824526	161.235841
6.050000	-10.581051	94.039644	-0.989038	37.295338	-0.989038	37.295338	-10.740664	157.416304
6.100000	-10.352130	90.244503	-0.990515	33.789195	-0.990515	33.789195	-10.597063	153.603920
6.150000	-10.116323	86.880683	-1.001894	30.373461	-1.001894	30.373461	-10.418401	149.775788
6.200000	-9.878516	83.808039	-1.019936	27.021196	-1.019936	27.021196	-10.219473	145.925816
6.250000	-9.641767	80.939514	-1.042768	23.714608	-1.042768	23.714608	-10.009403	142.053332
6.300000	-9.407926	78.221209	-1.069303	20.441995	-1.069303	20.441995	-9.793781	138.158624
6.350000	-9.178220	75.612138	-1.098732	17.193849	-1.098732	17.193849	-9.576510	134.242977
6.400000	-8.953275	73.087097	-1.130587	13.963876	-1.130587	13.963876	-9.359863	130.306856
6.450000	-8.733393	70.628310	-1.164558	10.747297	-1.164558	10.747297	-9.145277	126.350379
6.500000	-8.518661	68.222977	-1.200437	7.540390	-1.200437	7.540390	-8.933627	122.373387
6.550000	-8.309014	65.861680	-1.238092	4.340191	-1.238092	4.340191	-8.725410	118.375549
6.600000	-8.104291	63.537341	-1.277443	1.144297	-1.277443	1.144297	-8.520868	114.356446
6.650000	-7.904265	61.244514	-1.318453	-2.049276	-1.318453	-2.049276	-8.320069	110.315648
6.700000	-7.708663	58.979875	-1.361172	-5.242200	-1.361172	-5.242200	-8.122928	106.251893
6.750000	-7.517212	56.737130	-1.405457	-8.435831	-1.405457	-8.435831	-7.929412	102.167433
6.800000	-7.329594	54.516025	-1.451514	-11.631427	-1.451514	-11.631427	-7.739249	98.059626
6.850000	-7.145519	52.313218	-1.499351	-14.829945	-1.499351	-14.829945	-7.552268	93.929307
6.900000	-6.964697	50.126310	-1.549041	-18.032237	-1.549041	-18.032237	-7.368253	89.776796
6.950000	-6.786859	47.953205	-1.600672	-21.238984	-1.600672	-21.238984	-7.186993	85.602571
7.000000	-6.611715	45.792360	-1.654412	-24.450948	-1.654412	-24.450948	-7.008233	81.406508
7.050000	-6.439074	43.641361	-1.710300	-27.668338	-1.710300	-27.668338	-6.831838	77.190447
7.100000	-6.268736	41.498487	-1.768458	-30.891462	-1.768458	-30.891462	-6.657638	72.955412
7.150000	-6.100462	39.362314	-1.829127	-34.120838	-1.829127	-34.120838	-6.485412	68.701770
7.200000	-5.934158	37.230818	-1.892361	-37.356279	-1.892361	-37.356279	-6.315102	64.431854
7.250000	-5.769716	35.102360	-1.958291	-40.597717	-1.958291	-40.597717	-6.146626	60.147404
7.300000	-5.607007	32.975383	-2.027153	-43.845207	-2.027153	-43.845207	-5.979871	55.849852
7.350000	-5.445993	30.848254	-2.099078	-47.098400	-2.099078	-47.098400	-5.814824	51.541486
7.400000	-5.286680	28.719502	-2.174164	-50.356784	-2.174164	-50.356784	-5.651514	47.224747
7.450000	-5.129052	26.587679	-2.252614	-53.619946	-2.252614	-53.619946	-5.489943	42.901853
7.500000	-4.973123	24.451324	-2.334642	-56.887329	-2.334642	-56.887329	-5.330144	38.575305
7.550000	-4.818998	22.309387	-2.420289	-60.158028	-2.420289	-60.158028	-5.172241	34.247857
7.600000	-4.666756	20.160791	-2.509700	-63.431221	-2.509700	-63.431221	-5.016330	29.922114
7.650000	-4.516470	18.004121	-2.603171	-66.706013	-2.603171	-66.706013	-4.862498	25.601131
7.700000	-4.368304	15.838963	-2.700660	-69.981237	-2.700660	-69.981237	-4.710924	21.287498
7.750000	-4.222391	13.664651	-2.802280	-73.255772	-2.802280	-73.255772	-4.561750	16.983938
7.800000	-4.078884	11.480228	-2.908257	-76.528282	-2.908257	-76.528282	-4.415139	12.693839
7.850000	-3.937949	9.285566	-3.018592	-79.797463	-3.018592	-79.797463	-4.271263	8.419722
7.900000	-3.799743	7.080592	-3.133308	-83.062003	-3.133308	-83.062003	-4.130281	4.164045
7.950000	-3.664449	4.864955	-3.252530	-86.320321	-3.252530	-86.320321	-3.992377	-0.069977
8.000000	-3.532249	2.638657	-3.376302	-89.570838	-3.376302	-89.570838	-3.857730	-4.279493
8.050000	-3.403269	0.402225	-3.504549	-92.812302	-3.504549	-92.812302	-3.726458	-8.462773
8.100000	-3.277736	-1.844475	-3.637379	-96.042693	-3.637379	-96.042693	-3.598781	-12.616056
8.150000	-3.155690	-4.100401	-3.774611	-99.261205	-3.774611	-99.261205	-3.474726	-16.738936
8.200000	-3.037265	-6.365172	-3.916239	-102.466337	-3.916239	-102.466337	-3.354410	-20.829118
8.250000	-2.922776	-8.638878	-4.062360	-105.655284	-4.062360	-105.655284	-3.238138	-24.881517
8.300000	-2.812133	-10.920086	-4.212707	-108.827955	-4.212707	-108.827955	-3.125796	-28.897424
8.350000	-2.705406	-13.208136	-4.367196	-111.983120	-4.367196	-111.983120	-3.017435	-32.875342
8.400000	-2.602744	-15.502522	-4.525763	-115.118955	-4.525763	-115.118955	-2.913184	-36.812573
8.450000	-2.504287	-17.802596	-4.688281	-118.233668	-4.688281	-118.233668	-2.813159	-40.706649
8.500000	-2.409890	-20.107311	-4.854553	-121.327410	-4.854553	-121.327410	-2.717194	-44.558968
8.550000	-2.319560	-22.416018	-5.024447	-124.399297	-5.024447	-124.399297	-2.625274	-48.368705
8.600000	-2.233494	-24.728278	-5.197806	-127.447056	-5.197806	-127.447056	-2.537568	-52.132421
8.650000	-2.151573	-27.043351	-5.374439	-130.470668	-5.374439	-130.470668	-2.453937	-55.850991
8.700000	-2.073665	-29.360668	-5.554194	-133.470276	-5.554194	-133.470276	-2.374229	-59.525420
8.750000	-1.999720	-31.679835	-5.736918	-136.445442	-5.736918	-136.445442	-2.298374	-63.155553
8.800000	-1.929991	-34.000663	-5.922322	-139.393491	-5.922322	-139.393491	-2.226586	-66.737256
8.850000	-1.864099	-36.322801	-6.110330	-142.316520	-6.110330	-142.316520	-2.158480	-70.274847
8.900000	-1.801968	-38.646180	-6.300798	-145.214447	-6.300798	-145.214447	-2.093959	-73.768637
8.950000	-1.743614	-40.970885	-6.493517	-148.086536	-6.493517	-148.086536	-2.033011	-77.217769
9.000000	-1.689050	-43.297168	-6.688250	-150.932116	-6.688250	-150.932116	-1.975617	-80.621499
9.050000	-1.637981	-45.625282	-6.884996	-153.753019	-6.884996	-153.753019	-1.921472	-83.983286
9.100000	-1.590315	-47.955688	-7.083646	-156.549577	-7.083646	-156.549577	-1.870462	-87.303954
9.150000	-1.546143	-50.289212	-7.283924	-159.320798	-7.283924	-159.320798	-1.822630	-90.582080
9.200000	-1.505284	-52.626660	-7.485804	-162.067929	-7.485804	-162.067929	-1.777771	-93.819977
9.250000	-1.467549	-54.968880	-7.689321	-164.792356	-7.689321	-164.792356	-1.735677	-97.020131
9.300000	-1.432857	-57.316963	-7.894434	-167.494747	-7.894434	-167.494747	-1.696234	-100.183793
9.350000	-1.401385	-59.672980	-8.100820	-170.174009	-8.100820	-170.174009	-1.659531	-103.309292
9.400000	-1.372809	-62.037931	-8.308775	-172.832940	-8.308775	-172.832940	-1.625239	-106.401330
9.450000	-1.347117	-64.413722	-8.518282	-175.472178	-8.518282	-175.472178	-1.593286	-109.460976
9.500000	-1.324329	-66.802696	-8.729321	-178.092395	-8.729321	-178.092395	-1.563618	-112.489245
9.550000	-1.304338	-69.206829	-8.942083	179.304582	-8.942083	179.304582	-1.536076	-115.488847
9.600000	-1.287124	-71.628607	-9.156694	176.717174	-9.156694	176.717174	-1.510568	-118.461779
9.650000	-1.272683	-74.070775	-9.373285	174.143439	-9.373285	174.143439	-1.487012	-121.410151
9.700000	-1.261032	-76.536361	-9.591959	171.580982	-9.591959	171.580982	-1.465339	-124.336199
9.750000	-1.252211	-79.028694	-9.812723	169.026970	-9.812723	169.026970	-1.445492	-127.242285
9.800000	-1.246285	-81.551429	-10.035386	166.478490	-10.035386	166.478490	-1.427437	-130.130912
9.850000	-1.243350	-84.108579	-10.259473	163.933604	-10.259473	163.933604	-1.411158	-133.004720
9.900000	-1.243534	-86.704540	-10.484269	161.393189	-10.484269	161.393189	-1.396671	-135.866503
9.950000	-1.247004	-89.344132	-10.709140	158.862589	-10.709140	158.862589	-1.384024	-138.719199
10.000000	-1.253973	-92.032638	-10.934077	156.350920	-10.934077	156.350920	-1.373306	-141.565896
