! freq	dB(S11)	phase(S11)	dB(S12)	phase(S12)	
!     	dB(S21)	phase(S21)	dB(S22)	phase(S22)	
!S-par simulation data
#  GHz  S  DB  R 50
0.000000	-0.000000	-0.000000	-374.958130	180.000000	-374.958130	180.000000	-0.000000	-0.000000
0.050000	-0.000100	-0.764356	-119.013200	91.005316	-119.013200	91.005316	-0.000100	-0.764319
0.100000	-0.000396	-1.528464	-112.859789	90.907030	-112.859789	90.907030	-0.000397	-1.528389
0.150000	-0.000880	-2.292079	-109.301515	90.199817	-109.301515	90.199817	-0.000882	-2.291965
0.200000	-0.001520	-3.055055	-106.854707	89.374946	-106.854707	89.374946	-0.001523	-3.054900
0.250000	-0.002300	-3.817231	-105.039730	88.598232	-105.039730	88.598232	-0.002303	-3.817033
0.300000	-0.003204	-4.578409	-103.649886	87.939259	-103.649886	87.939259	-0.003208	-4.578166
0.350000	-0.004189	-5.338687	-102.550271	87.403483	-102.550271	87.403483	-0.004194	-5.338397
0.400000	-0.005246	-6.097898	-101.691208	87.032767	-101.691208	87.032767	-0.005252	-6.097560
0.450000	-0.006348	-6.856135	-101.021022	86.842384	-101.021022	86.842384	-0.006354	-6.855749
0.500000	-0.007479	-7.613377	-100.519153	86.879662	-100.519153	86.879662	-0.007485	-7.612942
0.550000	-0.008625	-8.369667	-100.168620	87.199464	-100.168620	87.199464	-0.008631	-8.369183
0.600000	-0.009776	-9.125045	-99.959807	87.880003	-99.959807	87.880003	-0.009782	-9.124514
0.650000	-0.010923	-9.879553	-99.887301	89.030719	-99.887301	89.030719	-0.010929	-9.878975
0.700000	-0.012062	-10.633232	-99.947793	90.806042	-99.947793	90.806042	-0.012066	-10.632608
0.750000	-0.013187	-11.386118	-100.137045	93.425006	-100.137045	93.425006	-0.013192	-11.385448
0.800000	-0.014299	-12.138239	-100.444287	97.195737	-100.444287	97.195737	-0.014302	-12.137525
0.850000	-0.015391	-12.889498	-100.828560	102.957293	-100.828560	102.957293	-0.015394	-12.888739
0.900000	-0.016468	-13.640003	-101.231914	110.888527	-101.231914	110.888527	-0.016470	-13.639203
0.950000	-0.017537	-14.390142	-101.511036	120.031406	-101.511036	120.031406	-0.017538	-14.389299
1.000000	-0.018583	-15.139179	-101.367798	132.809224	-101.367798	132.809224	-0.018584	-15.138295
1.050000	-0.019625	-15.887973	-101.015251	145.503828	-101.015251	145.503828	-0.019626	-15.887047
1.100000	-0.020646	-16.635549	-99.725124	157.782363	-99.725124	157.782363	-0.020646	-16.634583
1.150000	-0.021665	-17.383001	-98.518735	169.642422	-98.518735	169.642422	-0.021665	-17.381995
1.200000	-0.022666	-18.129092	-96.687417	176.899248	-96.687417	176.899248	-0.022665	-18.128047
1.250000	-0.023667	-18.875183	-95.175785	-175.843926	-95.175785	-175.843926	-0.023666	-18.874099
1.300000	-0.024656	-19.620135	-93.521485	-171.631750	-93.521485	-171.631750	-0.024654	-19.619012
1.350000	-0.025638	-20.364342	-91.955609	-168.698065	-91.955609	-168.698065	-0.025636	-20.363180
1.400000	-0.026615	-21.107790	-90.484884	-166.701210	-90.484884	-166.701210	-0.026613	-21.106590
1.450000	-0.027588	-21.850465	-89.105875	-165.397243	-89.105875	-165.397243	-0.027585	-21.849227
1.500000	-0.028556	-22.592352	-87.811394	-164.613426	-87.811394	-164.613426	-0.028554	-22.591076
1.550000	-0.029522	-23.333436	-86.593347	-164.226671	-86.593347	-164.226671	-0.029519	-23.332121
1.600000	-0.030485	-24.073700	-85.443924	-164.148128	-85.443924	-164.148128	-0.030482	-24.072347
1.650000	-0.031446	-24.813129	-84.356035	-164.312660	-84.356035	-164.312660	-0.031443	-24.811738
1.700000	-0.032405	-25.551402	-83.299985	-164.722414	-83.299985	-164.722414	-0.032402	-25.549974
1.750000	-0.033363	-26.289226	-82.327514	-165.220280	-82.327514	-165.220280	-0.033360	-26.287761
1.800000	-0.034321	-27.025966	-81.385690	-165.865057	-81.385690	-165.865057	-0.034318	-27.024464
1.850000	-0.035278	-27.761933	-80.492726	-166.614772	-80.492726	-166.614772	-0.035275	-27.760393
1.900000	-0.036236	-28.496935	-79.633940	-167.451397	-79.633940	-167.451397	-0.036232	-28.495359
1.950000	-0.037193	-29.230975	-78.807819	-168.374931	-78.807819	-168.374931	-0.037190	-29.229362
2.000000	-0.038152	-29.964184	-78.018146	-169.350400	-78.018146	-169.350400	-0.038148	-29.962534
2.050000	-0.039111	-30.696229	-77.249002	-170.398578	-77.249002	-170.398578	-0.039108	-30.694543
2.100000	-0.040072	-31.427588	-76.517764	-171.477493	-76.517764	-171.477493	-0.040069	-31.425865
2.150000	-0.041035	-32.157573	-75.797816	-172.617879	-75.797816	-172.617879	-0.041031	-32.155814
2.200000	-0.041999	-32.887027	-75.116673	-173.775759	-75.116673	-173.775759	-0.041995	-32.885233
2.250000	-0.042966	-33.614888	-74.439696	-174.986120	-74.439696	-174.986120	-0.042962	-33.613058
2.300000	-0.043934	-34.342385	-73.802018	-176.205521	-73.802018	-176.205521	-0.043930	-34.340520
2.350000	-0.044907	-35.068061	-73.162954	-177.470119	-73.162954	-177.470119	-0.044903	-35.066161
2.400000	-0.045880	-35.793549	-72.563381	-178.738282	-72.563381	-178.738282	-0.045876	-35.791614
2.450000	-0.046860	-36.516980	-71.958069	179.954340	-71.958069	179.954340	-0.046856	-36.515011
2.500000	-0.047840	-37.240410	-71.392206	178.646962	-71.392206	178.646962	-0.047836	-37.238407
2.550000	-0.048828	-37.961539	-70.817173	177.305342	-70.817173	177.305342	-0.048824	-37.959502
2.600000	-0.049816	-38.682667	-70.277857	175.963723	-70.277857	175.963723	-0.049812	-38.680597
2.650000	-0.050813	-39.401636	-69.733691	174.596672	-69.733691	174.596672	-0.050809	-39.399532
2.700000	-0.051811	-40.120407	-69.218504	173.227309	-69.218504	173.227309	-0.051807	-40.118270
2.750000	-0.052818	-40.837172	-68.702061	171.839024	-68.702061	171.839024	-0.052814	-40.835002
2.800000	-0.053827	-41.553535	-68.208927	170.446953	-68.208927	170.446953	-0.053822	-41.551333
2.850000	-0.054845	-42.268054	-67.717535	169.040826	-67.717535	169.040826	-0.054841	-42.265820
2.900000	-0.055867	-42.981958	-67.244653	167.630013	-67.244653	167.630013	-0.055862	-42.979692
2.950000	-0.056898	-43.694192	-66.776023	166.208816	-66.776023	166.208816	-0.056893	-43.691894
3.000000	-0.057933	-44.405590	-66.321822	164.782426	-66.321822	164.782426	-0.057928	-44.403261
3.050000	-0.058978	-45.115501	-65.873973	163.348444	-65.873973	163.348444	-0.058972	-45.113141
3.100000	-0.060028	-45.824349	-65.437071	161.909039	-65.437071	161.909039	-0.060023	-45.821959
3.150000	-0.061088	-46.531900	-65.008279	160.464173	-65.008279	160.464173	-0.061083	-46.529480
3.200000	-0.062156	-47.238156	-64.587453	159.013847	-64.587453	159.013847	-0.062150	-47.235706
3.250000	-0.063231	-47.943314	-64.176209	157.559691	-64.176209	157.559691	-0.063226	-47.940835
3.300000	-0.064318	-48.646938	-63.770370	156.100173	-63.770370	156.100173	-0.064312	-48.644429
3.350000	-0.065411	-49.349672	-63.375339	154.638072	-63.375339	154.638072	-0.065405	-49.347134
3.400000	-0.066518	-50.050628	-62.983514	153.170805	-62.983514	153.170805	-0.066512	-50.048061
3.450000	-0.067630	-50.750907	-62.603516	151.701904	-62.603516	151.701904	-0.067624	-50.748312
3.500000	-0.068758	-51.449160	-62.224829	150.228102	-62.224829	150.228102	-0.068752	-51.446537
3.550000	-0.069890	-52.146958	-61.858812	148.753381	-61.858812	148.753381	-0.069884	-52.144307
3.600000	-0.071042	-52.842477	-61.492473	147.274069	-61.492473	147.274069	-0.071036	-52.839799
3.650000	-0.072196	-53.537767	-61.139493	145.794371	-61.139493	145.794371	-0.072189	-53.535061
3.700000	-0.073372	-54.230525	-60.784786	144.310426	-60.784786	144.310426	-0.073366	-54.227793
3.750000	-0.074549	-54.923283	-60.443997	142.826481	-60.443997	142.826481	-0.074542	-54.920524
3.800000	-0.075752	-55.613254	-60.100269	141.338655	-60.100269	141.338655	-0.075745	-55.610469
3.850000	-0.076955	-56.303225	-59.769628	139.850828	-59.769628	139.850828	-0.076949	-56.300414
3.900000	-0.078184	-56.990621	-59.437564	138.360039	-59.437564	138.360039	-0.078177	-56.987784
3.950000	-0.079416	-57.677782	-59.116543	136.868981	-59.116543	136.868981	-0.079409	-57.674920
4.000000	-0.080672	-58.362585	-58.795433	135.375699	-58.795433	135.375699	-0.080665	-58.359698
4.050000	-0.081933	-59.046917	-58.483548	133.881972	-58.483548	133.881972	-0.081926	-59.044005
4.100000	-0.083218	-59.729114	-58.172746	132.386612	-58.172746	132.386612	-0.083211	-59.726177
4.150000	-0.084510	-60.410599	-57.869552	130.890709	-57.869552	130.890709	-0.084503	-60.407638
4.200000	-0.085825	-61.090177	-57.568469	129.393641	-57.568469	129.393641	-0.085818	-61.087192
4.250000	-0.087151	-61.768802	-57.273553	127.895992	-57.273553	127.895992	-0.087143	-61.765793
4.300000	-0.088497	-62.445751	-56.981652	126.397546	-56.981652	126.397546	-0.088489	-62.442719
4.350000	-0.089858	-63.121503	-56.694634	124.898532	-56.694634	124.898532	-0.089850	-63.118448
4.400000	-0.091236	-63.795815	-56.411421	123.399003	-56.411421	123.399003	-0.091229	-63.792737
4.450000	-0.092633	-64.468687	-56.131946	121.898961	-56.131946	121.898961	-0.092625	-64.465586
4.500000	-0.094046	-65.140356	-55.856967	120.398614	-55.856967	120.398614	-0.094038	-65.137233
4.550000	-0.095481	-65.810341	-55.584707	118.897842	-55.584707	118.897842	-0.095473	-65.807196
4.600000	-0.096929	-66.479363	-55.317545	117.396917	-55.317545	117.396917	-0.096921	-66.476196
4.650000	-0.098404	-67.146458	-55.052193	115.895684	-55.052193	115.895684	-0.098396	-67.143270
4.700000	-0.099889	-67.812831	-54.792463	114.394397	-54.792463	114.394397	-0.099881	-67.809621
4.750000	-0.101406	-68.477037	-54.533734	112.892944	-54.533734	112.892944	-0.101397	-68.473805
4.800000	-0.102929	-69.140761	-54.281077	111.391491	-54.281077	111.391491	-0.102921	-69.137508
4.850000	-0.104488	-69.802078	-54.028703	109.890035	-54.028703	109.890035	-0.104480	-69.798805
4.900000	-0.106052	-70.463155	-53.782789	108.388595	-53.782789	108.388595	-0.106043	-70.459862
4.950000	-0.107656	-71.121590	-53.536521	106.887333	-53.536521	106.887333	-0.107647	-71.118276
5.000000	-0.109260	-71.780024	-53.297042	105.386071	-53.297042	105.386071	-0.109251	-71.776690
5.050000	-0.110910	-72.435583	-53.056643	103.885182	-53.056643	103.885182	-0.110901	-72.432229
5.100000	-0.112561	-73.091141	-52.822719	102.384293	-52.822719	102.384293	-0.112552	-73.087768
5.150000	-0.114256	-73.744073	-52.588564	100.883896	-52.588564	100.883896	-0.114247	-73.740681
5.200000	-0.115954	-74.396766	-52.359993	99.383545	-52.359993	99.383545	-0.115945	-74.393354
5.250000	-0.117695	-75.047081	-52.131809	97.883767	-52.131809	97.883767	-0.117685	-75.043650
5.300000	-0.119443	-75.696920	-51.908399	96.384103	-51.908399	96.384103	-0.119434	-75.693471
5.350000	-0.121230	-76.344631	-51.685931	94.885061	-51.685931	94.885061	-0.121221	-76.341163
5.400000	-0.123030	-76.991632	-51.467504	93.386225	-51.467504	93.386225	-0.123021	-76.988145
5.450000	-0.124866	-77.636752	-51.250514	91.888027	-51.250514	91.888027	-0.124856	-77.633247
5.500000	-0.126719	-78.280931	-51.036899	90.390148	-51.036899	90.390148	-0.126709	-78.277409
5.550000	-0.128604	-78.923476	-50.825162	88.892896	-50.825162	88.892896	-0.128594	-78.919936
5.600000	-0.130513	-79.564853	-50.616198	87.396094	-50.616198	87.396094	-0.130503	-79.561296
5.650000	-0.132449	-80.204840	-50.409505	85.899886	-50.409505	85.899886	-0.132439	-80.201265
5.700000	-0.134414	-80.843438	-50.205039	84.404272	-50.205039	84.404272	-0.134404	-80.839845
5.750000	-0.136403	-81.480886	-50.003192	82.909197	-50.003192	82.909197	-0.136392	-81.477277
5.800000	-0.138426	-82.116727	-49.803079	81.414876	-49.803079	81.414876	-0.138415	-82.113101
5.850000	-0.140469	-82.751658	-49.605893	79.921018	-49.605893	79.921018	-0.140458	-82.748015
5.900000	-0.142552	-83.384768	-49.409994	78.428088	-49.409994	78.428088	-0.142541	-83.381109
5.950000	-0.144650	-84.017203	-49.217293	76.935529	-49.217293	76.935529	-0.144640	-84.013527
6.000000	-0.146795	-84.647612	-49.025477	75.444081	-49.025477	75.444081	-0.146784	-84.643920
6.050000	-0.148950	-85.277575	-48.837095	73.952894	-48.837095	73.952894	-0.148939	-85.273867
6.100000	-0.151158	-85.905312	-48.649236	72.463013	-48.649236	72.463013	-0.151147	-85.901588
6.150000	-0.153372	-86.532829	-48.465017	70.973270	-48.465017	70.973270	-0.153361	-86.529088
6.200000	-0.155645	-87.157926	-48.280994	69.485036	-48.280994	69.485036	-0.155634	-87.154170
6.250000	-0.157918	-87.783023	-48.100789	67.996803	-48.100789	67.996803	-0.157907	-87.779251
6.300000	-0.160258	-88.405515	-47.920487	66.510290	-47.920487	66.510290	-0.160246	-88.401728
6.350000	-0.162598	-89.028006	-47.743852	65.023777	-47.743852	65.023777	-0.162587	-89.024204
6.400000	-0.165001	-89.648143	-47.567464	63.538903	-47.567464	63.538903	-0.164989	-89.644325
6.450000	-0.167409	-90.268065	-47.394295	62.054179	-47.394295	62.054179	-0.167397	-90.264232
6.500000	-0.169876	-90.885877	-47.221684	60.570996	-47.221684	60.570996	-0.169864	-90.882030
6.550000	-0.172354	-91.503268	-47.051883	59.088122	-47.051883	59.088122	-0.172342	-91.499406
6.600000	-0.174887	-92.118790	-46.882919	57.606677	-46.882919	57.606677	-0.174874	-92.114913
6.650000	-0.177437	-92.733689	-46.716389	56.125708	-46.716389	56.125708	-0.177425	-92.729797
6.700000	-0.180036	-93.346954	-46.550948	54.646043	-46.550948	54.646043	-0.180024	-93.343047
6.750000	-0.182660	-93.959402	-46.387597	53.167029	-46.387597	53.167029	-0.182647	-93.955481
6.800000	-0.185327	-94.570446	-46.225561	51.689181	-46.225561	51.689181	-0.185315	-94.566510
6.850000	-0.188026	-95.180486	-46.065300	50.212165	-46.065300	50.212165	-0.188014	-95.176537
6.900000	-0.190764	-95.789346	-45.906556	48.736165	-45.906556	48.736165	-0.190751	-95.785382
6.950000	-0.193539	-96.397024	-45.749300	47.261181	-45.749300	47.261181	-0.193526	-96.393046
7.000000	-0.196348	-97.003736	-45.593740	45.787056	-45.593740	45.787056	-0.196335	-96.999745
7.050000	-0.199202	-97.609098	-45.439404	44.314132	-45.439404	44.314132	-0.199188	-97.605092
7.100000	-0.202083	-98.213703	-45.286924	42.841901	-45.286924	42.841901	-0.202069	-98.209684
7.150000	-0.205017	-98.816797	-45.135428	41.371055	-45.135428	41.371055	-0.205003	-98.812763
7.200000	-0.207971	-99.419335	-44.985931	39.900733	-44.985931	39.900733	-0.207958	-99.415288
7.250000	-0.210987	-100.020209	-44.837197	38.431977	-44.837197	38.431977	-0.210973	-100.016148
7.300000	-0.214017	-100.620722	-44.690587	36.963569	-44.690587	36.963569	-0.214003	-100.616647
7.350000	-0.217115	-101.219427	-44.544539	35.496903	-44.544539	35.496903	-0.217102	-101.215339
7.400000	-0.220222	-101.817957	-44.400725	34.030411	-44.400725	34.030411	-0.220208	-101.813856
7.450000	-0.223405	-102.414547	-44.257290	32.565827	-44.257290	32.565827	-0.223391	-102.410432
7.500000	-0.226590	-103.011137	-44.116186	31.101243	-44.116186	31.101243	-0.226576	-103.007009
7.550000	-0.229859	-103.605665	-43.975293	29.638722	-43.975293	29.638722	-0.229845	-103.601524
7.600000	-0.233130	-104.200193	-43.836649	28.176200	-43.836649	28.176200	-0.233116	-104.196039
7.650000	-0.236480	-104.792882	-43.698394	26.715541	-43.698394	26.715541	-0.236466	-104.788714
7.700000	-0.239839	-105.385403	-43.562146	25.255052	-43.562146	25.255052	-0.239824	-105.381223
7.750000	-0.243271	-105.976300	-43.426448	23.796221	-43.426448	23.796221	-0.243256	-105.972106
7.800000	-0.246719	-106.566871	-43.292531	22.337722	-43.292531	22.337722	-0.246704	-106.562664
7.850000	-0.250234	-107.156023	-43.159313	20.880676	-43.159313	20.880676	-0.250219	-107.151803
7.900000	-0.253773	-107.744702	-43.027668	19.424114	-43.027668	19.424114	-0.253758	-107.740470
7.950000	-0.257373	-108.332160	-42.896853	17.968799	-42.896853	17.968799	-0.257357	-108.327914
8.000000	-0.261004	-108.919006	-42.767420	16.514108	-42.767420	16.514108	-0.260988	-108.914747
8.050000	-0.264689	-109.504818	-42.638939	15.060461	-42.638939	15.060461	-0.264673	-109.500547
8.100000	-0.268414	-110.089892	-42.511662	13.607561	-42.511662	13.607561	-0.268398	-110.085608
8.150000	-0.272186	-110.674111	-42.385445	12.155511	-42.385445	12.155511	-0.272170	-110.669815
8.200000	-0.276005	-111.257475	-42.260270	10.704310	-42.260270	10.704310	-0.275989	-111.253166
8.250000	-0.279865	-111.840152	-42.136253	9.253772	-42.136253	9.253772	-0.279849	-111.835831
8.300000	-0.283781	-112.421868	-42.013127	7.804164	-42.013127	7.804164	-0.283765	-112.417535
8.350000	-0.287731	-113.003057	-41.891248	6.355046	-41.891248	6.355046	-0.287714	-112.998711
8.400000	-0.291744	-113.583191	-41.770122	4.906910	-41.770122	4.906910	-0.291728	-113.578833
8.450000	-0.295784	-114.162946	-41.650323	3.459108	-41.650323	3.459108	-0.295767	-114.158576
8.500000	-0.299896	-114.741563	-41.531150	2.012310	-41.531150	2.012310	-0.299879	-114.737180
8.550000	-0.304027	-115.319938	-41.413374	0.565711	-41.413374	0.565711	-0.304010	-115.315544
8.600000	-0.308240	-115.897105	-41.296111	-0.879897	-41.296111	-0.879897	-0.308222	-115.892699
8.650000	-0.312463	-116.474157	-41.180307	-2.325420	-41.180307	-2.325420	-0.312445	-116.469740
8.700000	-0.316777	-117.049943	-41.064912	-3.770001	-41.064912	-3.770001	-0.316759	-117.045514
8.750000	-0.321093	-117.625729	-40.951029	-5.214582	-40.951029	-5.214582	-0.321075	-117.621288
8.800000	-0.325510	-118.200203	-40.837465	-6.658313	-40.837465	-6.658313	-0.325491	-118.195750
8.850000	-0.329929	-118.774676	-40.725366	-8.102044	-40.725366	-8.102044	-0.329910	-118.770213
8.900000	-0.334441	-119.348013	-40.613691	-9.545170	-40.613691	-9.545170	-0.334422	-119.343538
8.950000	-0.338963	-119.921246	-40.503343	-10.988241	-40.503343	-10.988241	-0.338944	-119.916760
9.000000	-0.343571	-120.493504	-40.393515	-12.430932	-40.393515	-12.430932	-0.343551	-120.489008
9.050000	-0.348198	-121.065568	-40.284888	-13.873547	-40.284888	-13.873547	-0.348178	-121.061062
9.100000	-0.352903	-121.636811	-40.176872	-15.315983	-40.176872	-15.315983	-0.352883	-121.632294
9.150000	-0.357636	-122.207780	-40.069941	-16.758359	-40.069941	-16.758359	-0.357615	-122.203253
9.200000	-0.362439	-122.778068	-39.963701	-18.200727	-39.963701	-18.200727	-0.362418	-122.773531
9.250000	-0.367278	-123.348016	-39.858444	-19.643093	-39.858444	-19.643093	-0.367257	-123.343470
9.300000	-0.372180	-123.917413	-39.753952	-21.085592	-39.753952	-21.085592	-0.372157	-123.912858
9.350000	-0.377126	-124.486417	-39.650352	-22.528187	-39.650352	-22.528187	-0.377104	-124.481852
9.400000	-0.382127	-125.054988	-39.547581	-23.971022	-39.547581	-23.971022	-0.382104	-125.050414
9.450000	-0.387182	-125.623125	-39.445625	-25.414097	-39.445625	-25.414097	-0.387158	-125.618542
9.500000	-0.392282	-126.190933	-39.344554	-26.857481	-39.344554	-26.857481	-0.392258	-126.186343
9.550000	-0.397446	-126.758283	-39.244234	-28.301295	-39.244234	-28.301295	-0.397421	-126.753684
9.600000	-0.402646	-127.325396	-39.144845	-29.745445	-39.144845	-29.745445	-0.402621	-127.320790
9.650000	-0.407919	-127.892037	-39.046156	-31.190265	-39.046156	-31.190265	-0.407893	-127.887424
9.700000	-0.413221	-128.458522	-38.948435	-32.635406	-38.948435	-32.635406	-0.413194	-128.453902
9.750000	-0.418604	-129.024538	-38.851382	-34.081505	-38.851382	-34.081505	-0.418576	-129.019912
9.800000	-0.424007	-129.590463	-38.755319	-35.527863	-38.755319	-35.527863	-0.423979	-129.585831
9.850000	-0.429500	-130.155935	-38.659907	-36.975516	-38.659907	-36.975516	-0.429471	-130.151299
9.900000	-0.435006	-130.721370	-38.565498	-38.423323	-38.565498	-38.423323	-0.434975	-130.716728
9.950000	-0.440609	-131.286385	-38.471741	-39.872809	-38.471741	-39.872809	-0.440578	-131.281739
10.000000	-0.446217	-131.851400	-38.378985	-41.322295	-38.378985	-41.322295	-0.446185	-131.846750
