! freq	dB(S11)	phase(S11)	dB(S12)	phase(S12)	
!     	dB(S21)	phase(S21)	dB(S22)	phase(S22)	
!S-par simulation data
#  GHz  S  DB  R 50
0.000000	-0.000000	0.000000	-371.599850	0.000000	-371.599850	0.000000	-0.000000	0.000000
0.050000	-0.000137	-1.042503	-109.582022	88.755796	-109.582022	88.755796	-0.000147	-1.042987
0.100000	-0.000540	-2.084648	-103.616912	87.535333	-103.616912	87.535333	-0.000579	-2.085570
0.150000	-0.001193	-3.126105	-100.186139	86.359673	-100.186139	86.359673	-0.001274	-3.127380
0.200000	-0.002066	-4.166606	-97.811643	85.245185	-97.811643	85.245185	-0.002199	-4.168127
0.250000	-0.003140	-5.205850	-96.035860	84.210104	-96.035860	84.210104	-0.003326	-5.207497
0.300000	-0.004363	-6.243788	-94.643388	83.258119	-94.643388	83.258119	-0.004599	-6.245460
0.350000	-0.005708	-7.280270	-93.528383	82.402220	-93.528383	82.402220	-0.005988	-7.281879
0.400000	-0.007145	-8.315238	-92.626085	81.653476	-92.626085	81.653476	-0.007458	-8.316721
0.450000	-0.008646	-9.348675	-91.895689	81.025722	-91.895689	81.025722	-0.008980	-9.349996
0.500000	-0.010187	-10.380593	-91.310445	80.537236	-91.310445	80.537236	-0.010530	-10.381737
0.550000	-0.011750	-11.411016	-90.852480	80.212511	-90.852480	80.212511	-0.012092	-11.411991
0.600000	-0.013319	-12.439982	-90.509852	80.084332	-90.509852	80.084332	-0.013651	-12.440809
0.650000	-0.014884	-13.467527	-90.274743	80.196496	-90.274743	80.196496	-0.015199	-13.468239
0.700000	-0.016437	-14.493686	-90.142221	80.607529	-90.142221	80.607529	-0.016730	-14.494320
0.750000	-0.017975	-15.518487	-90.109225	81.395891	-90.109225	81.395891	-0.018241	-15.519084
0.800000	-0.019492	-16.541954	-90.173450	82.667158	-90.173450	82.667158	-0.019731	-16.542553
0.850000	-0.020989	-17.564099	-90.331729	84.563522	-90.331729	84.563522	-0.021200	-17.564737
0.900000	-0.022465	-18.584930	-90.577288	87.275011	-90.577288	87.275011	-0.022647	-18.585640
0.950000	-0.023920	-19.604446	-90.894859	91.048776	-90.894859	91.048776	-0.024076	-19.605257
1.000000	-0.025355	-20.622639	-91.252385	96.184856	-91.252385	96.184856	-0.025486	-20.623576
1.050000	-0.026772	-21.639498	-91.588876	102.991080	-91.588876	102.991080	-0.026880	-21.640580
1.100000	-0.028171	-22.655006	-91.803047	111.652460	-91.803047	111.652460	-0.028259	-22.656250
1.150000	-0.029555	-23.669143	-91.759335	121.992523	-91.759335	121.992523	-0.029626	-23.670558
1.200000	-0.030925	-24.681883	-91.335258	133.249214	-91.335258	133.249214	-0.030980	-24.683480
1.250000	-0.032281	-25.693202	-90.497435	144.203000	-90.497435	144.203000	-0.032324	-25.694985
1.300000	-0.033626	-26.703006	-89.311537	153.681426	-89.311537	153.681426	-0.033658	-26.704978
1.350000	-0.034960	-27.711329	-87.938924	161.281037	-87.938924	161.281037	-0.034983	-27.713489
1.400000	-0.036285	-28.718140	-86.498437	167.079886	-86.498437	167.079886	-0.036302	-28.720487
1.450000	-0.037601	-29.723408	-85.065028	171.365998	-85.065028	171.365998	-0.037614	-29.725939
1.500000	-0.038911	-30.727102	-83.677859	174.456007	-83.677859	174.456007	-0.038920	-30.729812
1.550000	-0.040213	-31.729191	-82.353889	176.622824	-82.353889	176.622824	-0.040221	-31.732075
1.600000	-0.041510	-32.729643	-81.098040	178.080593	-81.098040	178.080593	-0.041517	-32.732696
1.650000	-0.042802	-33.728428	-79.909276	178.991066	-79.909276	178.991066	-0.042809	-33.731644
1.700000	-0.044090	-34.725516	-78.783881	179.474961	-78.783881	179.474961	-0.044098	-34.728888
1.750000	-0.045374	-35.720875	-77.717150	179.622446	-77.717150	179.622446	-0.045384	-35.724397
1.800000	-0.046654	-36.714478	-76.704211	179.501369	-76.704211	179.501369	-0.046667	-36.718143
1.850000	-0.047932	-37.706295	-75.740406	179.163313	-75.740406	179.163313	-0.047947	-37.710097
1.900000	-0.049209	-38.696298	-74.821451	178.647955	-74.821451	178.647955	-0.049226	-38.700231
1.950000	-0.050483	-39.684460	-73.943482	177.986180	-73.943482	177.986180	-0.050504	-39.688517
2.000000	-0.051757	-40.670753	-73.103044	177.202311	-73.103044	177.202311	-0.051781	-40.674930
2.050000	-0.053030	-41.655152	-72.297066	176.315723	-72.297066	176.315723	-0.053057	-41.659443
2.100000	-0.054303	-42.637632	-71.522818	175.342008	-71.522818	175.342008	-0.054333	-42.642032
2.150000	-0.055577	-43.618168	-70.777872	174.293844	-70.777872	174.293844	-0.055610	-43.622672
2.200000	-0.056852	-44.596737	-70.060066	173.181632	-70.060066	173.181632	-0.056887	-44.601342
2.250000	-0.058129	-45.573316	-69.367472	172.013982	-69.367472	172.013982	-0.058166	-45.578017
2.300000	-0.059407	-46.547884	-68.698361	170.798078	-68.698361	170.798078	-0.059447	-46.552678
2.350000	-0.060688	-47.520419	-68.051180	169.539957	-68.051180	169.539957	-0.060729	-47.525303
2.400000	-0.061972	-48.490901	-67.424532	168.244733	-67.424532	168.244733	-0.062015	-48.495872
2.450000	-0.063260	-49.459311	-66.817152	166.916761	-66.817152	166.916761	-0.063304	-49.464368
2.500000	-0.064552	-50.425631	-66.227896	165.559776	-66.227896	165.559776	-0.064596	-50.430771
2.550000	-0.065849	-51.389750	-65.654831	164.176006	-65.654831	164.176006	-0.065893	-51.394972
2.600000	-0.067151	-52.351744	-65.097997	162.769452	-65.097997	162.769452	-0.067195	-52.357046
2.650000	-0.068458	-53.311596	-64.556515	161.342501	-64.556515	161.342501	-0.068503	-53.316978
2.700000	-0.069772	-54.269293	-64.029579	159.897249	-64.029579	159.897249	-0.069816	-54.274753
2.750000	-0.071093	-55.224820	-63.516448	158.435541	-63.516448	158.435541	-0.071136	-55.230359
2.800000	-0.072421	-56.178164	-63.016442	156.959005	-63.016442	156.959005	-0.072462	-56.183782
2.850000	-0.073757	-57.129313	-62.528929	155.469089	-62.528929	155.469089	-0.073797	-57.135011
2.900000	-0.075101	-58.078258	-62.053329	153.967080	-62.053329	153.967080	-0.075139	-58.084034
2.950000	-0.076454	-59.024987	-61.589101	152.454129	-61.589101	152.454129	-0.076490	-59.030843
3.000000	-0.077817	-59.969491	-61.135743	150.931267	-61.135743	150.931267	-0.077850	-59.975429
3.050000	-0.079189	-60.911762	-60.692788	149.399421	-60.692788	149.399421	-0.079220	-60.917782
3.100000	-0.080572	-61.851793	-60.259800	147.859426	-60.259800	147.859426	-0.080601	-61.857897
3.150000	-0.081966	-62.789577	-59.836373	146.312039	-59.836373	146.312039	-0.081992	-62.795766
3.200000	-0.083372	-63.725110	-59.422125	144.757943	-59.422125	144.757943	-0.083395	-63.731385
3.250000	-0.084790	-64.658385	-59.016698	143.197761	-59.016698	143.197761	-0.084810	-64.664749
3.300000	-0.086221	-65.589400	-58.619757	141.632058	-58.619757	141.632058	-0.086238	-65.595854
3.350000	-0.087665	-66.518021	-58.230456	140.061103	-58.230456	140.061103	-0.087679	-66.524567
3.400000	-0.089121	-67.444804	-57.850726	138.486398	-57.850726	138.486398	-0.089132	-67.451443
3.450000	-0.090595	-68.368609	-57.475853	136.906351	-57.475853	136.906351	-0.090604	-68.375344
3.500000	-0.092082	-69.290488	-57.109645	135.323265	-57.109645	135.323265	-0.092088	-69.297321
3.550000	-0.093582	-70.210441	-56.751690	133.737295	-56.751690	133.737295	-0.093586	-70.217374
3.600000	-0.095101	-71.127770	-56.399321	132.147797	-56.399321	132.147797	-0.095102	-71.134804
3.650000	-0.096637	-72.042654	-56.053014	130.555472	-56.053014	130.555472	-0.096636	-72.049791
3.700000	-0.098187	-72.955619	-55.714201	128.961135	-55.714201	128.961135	-0.098185	-72.962861
3.750000	-0.099752	-73.866667	-55.382546	127.364906	-55.382546	127.364906	-0.099749	-73.874016
3.800000	-0.101342	-74.774589	-55.054361	125.766061	-55.054361	125.766061	-0.101338	-74.782047
3.850000	-0.102948	-75.680609	-54.733013	124.165885	-54.733013	124.165885	-0.102944	-75.688175
3.900000	-0.104570	-76.584728	-54.418208	122.564464	-54.418208	122.564464	-0.104566	-76.592404
3.950000	-0.106213	-77.486437	-54.108391	120.961654	-54.108391	120.961654	-0.106209	-77.494222
4.000000	-0.107878	-78.385578	-53.803055	119.357651	-53.803055	119.357651	-0.107876	-78.393472
4.050000	-0.109562	-79.282845	-53.503726	117.752916	-53.503726	117.752916	-0.109561	-79.290846
4.100000	-0.111263	-80.178240	-53.210162	116.147521	-53.210162	116.147521	-0.111265	-80.186348
4.150000	-0.112992	-81.070764	-52.919951	114.541355	-52.919951	114.541355	-0.112996	-81.078976
4.200000	-0.114742	-81.961277	-52.634895	112.934823	-52.634895	112.934823	-0.114749	-81.969589
4.250000	-0.116510	-82.849953	-52.355159	111.328024	-52.355159	111.328024	-0.116521	-82.858363
4.300000	-0.118302	-83.736469	-52.079892	109.721005	-52.079892	109.721005	-0.118316	-83.744974
4.350000	-0.120122	-84.620352	-51.808050	108.113912	-51.808050	108.113912	-0.120139	-84.628947
4.400000	-0.121963	-85.502440	-51.541133	106.506869	-51.541133	106.506869	-0.121983	-85.511122
4.450000	-0.123825	-86.382740	-51.278960	104.899921	-51.278960	104.899921	-0.123847	-86.391507
4.500000	-0.125717	-87.260464	-51.019974	103.293245	-51.019974	103.293245	-0.125741	-87.269313
4.550000	-0.127634	-88.136119	-50.764982	101.686913	-50.764982	101.686913	-0.127660	-88.145052
4.600000	-0.129574	-89.010036	-50.514401	100.080924	-50.514401	100.080924	-0.129600	-89.019055
4.650000	-0.131537	-89.882069	-50.267829	98.475357	-50.267829	98.475357	-0.131563	-89.891176
4.700000	-0.133536	-90.751469	-50.023965	96.870523	-50.023965	96.870523	-0.133561	-90.760671
4.750000	-0.135557	-91.619189	-49.784212	95.266236	-49.784212	95.266236	-0.135582	-91.628493
4.800000	-0.137602	-92.485238	-49.548435	93.662523	-49.548435	93.662523	-0.137626	-92.494650
4.850000	-0.139679	-93.349034	-49.315650	92.059668	-49.315650	92.059668	-0.139702	-93.358566
4.900000	-0.141786	-94.210763	-49.086044	90.457698	-49.086044	90.457698	-0.141809	-94.220427
4.950000	-0.143917	-95.070885	-48.860157	88.856464	-48.860157	88.856464	-0.143941	-95.080692
5.000000	-0.146071	-95.929411	-48.637870	87.255989	-48.637870	87.255989	-0.146098	-95.939372
5.050000	-0.148259	-96.785689	-48.418210	85.656675	-48.418210	85.656675	-0.148293	-96.795824
5.100000	-0.150473	-97.640150	-48.201664	84.058367	-48.201664	84.058367	-0.150518	-97.650477
5.150000	-0.152709	-98.492823	-47.988170	82.461108	-47.988170	82.461108	-0.152775	-98.503361
5.200000	-0.154959	-99.343754	-47.777665	80.864936	-47.777665	80.864936	-0.155064	-99.354504
5.250000	-0.157206	-100.193097	-47.570091	79.269890	-47.570091	79.269890	-0.157386	-100.203937
5.300000	-0.159463	-101.041381	-47.365391	77.676005	-47.365391	77.676005	-0.159741	-101.051692
5.350000	-0.161904	-101.888477	-47.163510	76.083313	-47.163510	76.083313	-0.162129	-101.897802
5.400000	-0.164461	-102.733141	-46.964396	74.491847	-46.964396	74.491847	-0.164552	-102.742301
5.450000	-0.167004	-103.575167	-46.767407	72.902085	-46.767407	72.902085	-0.167021	-103.584695
5.500000	-0.169528	-104.416309	-46.573908	71.312988	-46.573908	71.312988	-0.169509	-104.426281
5.550000	-0.172077	-105.255735	-46.382689	69.725498	-46.382689	69.725498	-0.172041	-105.266062
5.600000	-0.174643	-106.093936	-46.194237	68.139156	-46.194237	68.139156	-0.174604	-106.104554
5.650000	-0.177246	-106.930714	-46.008273	66.554245	-46.008273	66.554245	-0.177206	-106.941593
5.700000	-0.179884	-107.766070	-45.824725	64.970765	-45.824725	64.970765	-0.179847	-107.777178
5.750000	-0.182555	-108.600310	-45.643833	63.388520	-45.643833	63.388520	-0.182521	-108.611637
5.800000	-0.185273	-109.432988	-45.465064	61.808002	-45.465064	61.808002	-0.185241	-109.444520
5.850000	-0.188017	-110.264845	-45.289081	60.228505	-45.289081	60.228505	-0.187990	-110.276579
5.900000	-0.190817	-111.095061	-45.114985	58.651048	-45.114985	58.651048	-0.190794	-111.106991
5.950000	-0.193639	-111.924725	-44.943768	57.074380	-44.943768	57.074380	-0.193620	-111.936852
6.000000	-0.196525	-112.752736	-44.774262	55.500079	-44.774262	55.500079	-0.196510	-112.765057
6.050000	-0.199427	-113.580429	-44.607689	53.926322	-44.607689	53.926322	-0.199417	-113.592946
6.100000	-0.202404	-114.406537	-44.442720	52.355278	-44.442720	52.355278	-0.202399	-114.419253
6.150000	-0.205390	-115.232518	-44.280696	50.784513	-44.280696	50.784513	-0.205391	-115.245434
6.200000	-0.208464	-116.057090	-44.120246	49.216822	-44.120246	49.216822	-0.208470	-116.070214
6.250000	-0.211539	-116.881662	-43.962706	47.649130	-43.962706	47.649130	-0.211551	-116.894994
6.300000	-0.214720	-117.705153	-43.806810	46.084855	-43.806810	46.084855	-0.214738	-117.718708
6.350000	-0.217901	-118.528644	-43.653662	44.520581	-43.653662	44.520581	-0.217925	-118.542422
6.400000	-0.221190	-119.351683	-43.502490	42.959393	-43.502490	42.959393	-0.221221	-119.365705
6.450000	-0.224490	-120.174680	-43.353844	41.398486	-43.353844	41.398486	-0.224527	-120.188949
6.500000	-0.227906	-120.997932	-43.207522	39.840031	-43.207522	39.840031	-0.227950	-121.012479
6.550000	-0.231345	-121.821235	-43.063589	38.282065	-43.063589	38.282065	-0.231397	-121.836065
6.600000	-0.234915	-122.645628	-42.922368	36.725131	-42.922368	36.725131	-0.234975	-122.660786
6.650000	-0.238529	-123.470385	-42.783526	35.168540	-42.783526	35.168540	-0.238599	-123.485886
6.700000	-0.242273	-124.296825	-42.647628	33.610436	-42.647628	33.610436	-0.242354	-124.312722
6.750000	-0.246132	-125.124875	-42.514576	32.049730	-42.514576	32.049730	-0.246225	-125.141215
6.800000	-0.250165	-125.955651	-42.384849	30.482481	-42.384849	30.482481	-0.250274	-125.972514
6.850000	-0.254447	-126.790619	-42.259152	28.897757	-42.259152	28.897757	-0.254577	-126.808124
6.900000	-0.258970	-127.629587	-42.137377	27.289099	-42.137377	27.289099	-0.259127	-127.647852
6.950000	-0.263839	-128.474272	-42.020370	25.641628	-42.020370	25.641628	-0.264033	-128.493467
7.000000	-0.269337	-129.328557	-41.910982	23.894411	-41.910982	23.894411	-0.269589	-129.348990
7.050000	-0.275814	-130.196277	-41.813659	21.951087	-41.813659	21.951087	-0.276162	-130.218407
7.100000	-0.283766	-131.081425	-41.737090	19.646410	-41.737090	19.646410	-0.284273	-131.105900
7.150000	-0.294959	-131.997481	-41.719924	16.386952	-41.719924	16.386952	-0.295789	-132.025555
7.200000	-0.312908	-132.959777	-41.883322	10.790912	-41.883322	10.790912	-0.314458	-132.993480
7.250000	-0.349939	-133.991526	-42.868725	-2.604471	-42.868725	-2.604471	-0.353503	-134.033601
7.300000	-0.444514	-134.946382	-49.355218	-68.271336	-49.355218	-68.271336	-0.454270	-134.983328
7.350000	-0.512493	-135.114125	-37.020769	127.243884	-37.020769	127.243884	-0.522075	-135.069916
7.400000	-0.540379	-135.776164	-31.306800	74.689073	-31.306800	74.689073	-0.540148	-135.733390
7.450000	-0.573015	-135.682526	-29.513870	31.280487	-29.513870	31.280487	-0.570897	-135.672981
7.500000	-0.460563	-136.108202	-30.824784	1.665493	-30.824784	1.665493	-0.460056	-136.107117
7.550000	-0.400489	-137.147431	-32.127353	-13.774884	-32.127353	-13.774884	-0.400410	-137.143310
7.600000	-0.391115	-138.267902	-32.605951	-26.474726	-32.605951	-26.474726	-0.390659	-138.258646
7.650000	-0.433260	-139.391498	-32.420357	-45.706654	-32.420357	-45.706654	-0.431227	-139.375425
7.700000	-0.558391	-139.908965	-33.325551	-87.710239	-33.325551	-87.710239	-0.552156	-139.902571
7.750000	-0.497771	-139.690740	-42.457898	-148.952672	-42.457898	-148.952672	-0.492926	-139.719677
7.800000	-0.407927	-140.560528	-52.407614	70.136474	-52.407614	70.136474	-0.405889	-140.590872
7.850000	-0.377268	-141.549812	-45.171795	27.871573	-45.171795	27.871573	-0.376279	-141.576498
7.900000	-0.366419	-142.487565	-42.786025	16.349654	-42.786025	16.349654	-0.365872	-142.511610
7.950000	-0.362959	-143.384930	-41.632667	9.965852	-41.632667	9.965852	-0.362629	-143.407266
8.000000	-0.362745	-144.256994	-40.941200	5.526890	-40.941200	5.526890	-0.362537	-144.278202
8.050000	-0.364254	-145.112360	-40.473063	2.085162	-40.473063	2.085162	-0.364118	-145.132809
8.100000	-0.366766	-145.956460	-40.126483	-0.783639	-40.126483	-0.783639	-0.366677	-145.976390
8.150000	-0.369879	-146.793178	-39.848921	-3.315492	-39.848921	-3.315492	-0.369821	-146.812741
8.200000	-0.373475	-147.623613	-39.622184	-5.582564	-39.622184	-5.582564	-0.373437	-147.642935
8.250000	-0.377379	-148.449984	-39.426079	-7.687692	-39.426079	-7.687692	-0.377355	-148.469144
8.300000	-0.381521	-149.273262	-39.252007	-9.673119	-39.252007	-9.673119	-0.381506	-149.292322
8.350000	-0.385907	-150.093600	-39.097523	-11.544603	-39.097523	-11.544603	-0.385898	-150.112619
8.400000	-0.390441	-150.912309	-38.954591	-13.351554	-38.954591	-13.351554	-0.390434	-150.931323
8.450000	-0.395040	-151.730469	-38.817222	-15.133734	-38.817222	-15.133734	-0.395035	-151.749490
8.500000	-0.399831	-152.546979	-38.691595	-16.841604	-38.691595	-16.841604	-0.399825	-152.566048
8.550000	-0.404657	-153.363336	-38.569084	-18.538722	-38.569084	-18.538722	-0.404650	-153.382461
8.600000	-0.409649	-154.178931	-38.454811	-20.182076	-38.454811	-20.182076	-0.409640	-154.198143
8.650000	-0.414658	-154.994526	-38.342457	-21.821712	-38.342457	-21.821712	-0.414647	-155.013826
8.700000	-0.419821	-155.810109	-38.236266	-23.420443	-38.236266	-23.420443	-0.419806	-155.829524
8.750000	-0.424987	-156.625693	-38.131358	-25.019174	-38.131358	-25.019174	-0.424968	-156.645223
8.800000	-0.430300	-157.441946	-38.031325	-26.585468	-38.031325	-26.585468	-0.430277	-157.461613
8.850000	-0.435617	-158.258200	-37.932431	-28.151762	-37.932431	-28.151762	-0.435590	-158.278004
8.900000	-0.441057	-159.075567	-37.837127	-29.695513	-37.837127	-29.695513	-0.441026	-159.095526
8.950000	-0.446511	-159.893037	-37.743081	-31.237215	-37.743081	-31.237215	-0.446476	-159.913152
9.000000	-0.452071	-160.711903	-37.651823	-32.762802	-37.651823	-32.762802	-0.452032	-160.732188
9.050000	-0.457654	-161.531048	-37.561865	-34.285166	-37.561865	-34.285166	-0.457611	-161.551506
9.100000	-0.463328	-162.351754	-37.474165	-35.795753	-37.474165	-35.795753	-0.463281	-162.372395
9.150000	-0.469033	-163.172980	-37.387782	-37.302414	-37.387782	-37.302414	-0.468984	-163.193808
9.200000	-0.474816	-163.995836	-37.303286	-38.800329	-37.303286	-38.800329	-0.474764	-164.016861
9.250000	-0.480639	-164.819507	-37.220118	-40.293871	-37.220118	-40.293871	-0.480585	-164.840734
9.300000	-0.486527	-165.644803	-37.138566	-41.780856	-37.138566	-41.780856	-0.486472	-165.666239
9.350000	-0.492463	-166.471260	-37.058357	-43.263156	-37.058357	-43.263156	-0.492407	-166.492911
9.400000	-0.498453	-167.299270	-36.979548	-44.740527	-36.979548	-44.740527	-0.498398	-167.321142
9.450000	-0.504498	-168.128833	-36.902109	-46.212971	-36.902109	-46.212971	-0.504445	-168.150933
9.500000	-0.510588	-168.959820	-36.825892	-47.681741	-36.825892	-47.681741	-0.510537	-168.982152
9.550000	-0.516738	-169.792798	-36.751083	-49.145366	-36.751083	-49.145366	-0.516692	-169.815370
9.600000	-0.522917	-170.626694	-36.677230	-50.606956	-36.677230	-50.606956	-0.522875	-170.649508
9.650000	-0.529160	-171.462985	-36.604814	-52.063349	-36.604814	-52.063349	-0.529125	-171.486050
9.700000	-0.535452	-172.301147	-36.533601	-53.516084	-36.533601	-53.516084	-0.535425	-172.324467
9.750000	-0.541792	-173.141244	-36.463574	-54.965281	-36.463574	-54.965281	-0.541774	-173.164826
9.800000	-0.548178	-173.983345	-36.394716	-56.411050	-36.394716	-56.411050	-0.548172	-174.007192
9.850000	-0.554609	-174.827514	-36.327012	-57.853481	-36.327012	-57.853481	-0.554618	-174.851632
9.900000	-0.561087	-175.673818	-36.260449	-59.292658	-36.260449	-59.292658	-0.561111	-175.698212
9.950000	-0.567608	-176.522322	-36.195016	-60.728650	-36.195016	-60.728650	-0.567650	-176.546997
10.000000	-0.574173	-177.373093	-36.130702	-62.161517	-36.130702	-62.161517	-0.574236	-177.398053
