! freq	dB(S11)	phase(S11)	dB(S12)	phase(S12)	
!     	dB(S21)	phase(S21)	dB(S22)	phase(S22)	
!S-par simulation data
#  GHz  S  DB  R 50
0.000000	-0.000000	0.000000	-306.554347	0.000000	-306.554347	0.000000	0.000000	0.000000
0.050000	-0.000560	-0.964278	-95.436571	88.324881	-95.436571	88.324881	-0.001496	-2.510507
0.100000	-0.001980	-1.925134	-89.439829	86.651652	-89.439829	86.651652	-0.005305	-5.011846
0.150000	-0.003756	-2.881666	-85.957659	84.982577	-85.957659	84.982577	-0.010102	-7.501311
0.200000	-0.005529	-3.834943	-83.512936	83.320306	-83.512936	83.320306	-0.014920	-9.981433
0.250000	-0.007148	-4.786212	-81.644405	81.668692	-81.644405	81.668692	-0.019327	-12.455272
0.300000	-0.008585	-5.736429	-80.146499	80.032564	-80.146499	80.032564	-0.023235	-14.925193
0.350000	-0.009874	-6.686115	-78.907833	78.416652	-78.907833	78.416652	-0.026724	-17.392487
0.400000	-0.011051	-7.635459	-77.863288	76.826856	-77.863288	76.826856	-0.029887	-19.857504
0.450000	-0.012149	-8.584484	-76.972852	75.271222	-76.972852	75.271222	-0.032807	-22.320084
0.500000	-0.013198	-9.533168	-76.205728	73.754994	-76.205728	73.754994	-0.035572	-24.780086
0.550000	-0.014218	-10.481444	-75.541819	72.285216	-75.541819	72.285216	-0.038237	-27.237183
0.600000	-0.015226	-11.429208	-74.968590	70.872358	-74.968590	70.872358	-0.040843	-29.690859
0.650000	-0.016231	-12.376399	-74.473462	69.523145	-74.473462	69.523145	-0.043424	-32.140873
0.700000	-0.017243	-13.322948	-74.047643	68.246117	-74.047643	68.246117	-0.046001	-34.586942
0.750000	-0.018267	-14.268764	-73.686086	67.054384	-73.686086	67.054384	-0.048590	-37.028628
0.800000	-0.019307	-15.213781	-73.383599	65.960335	-73.383599	65.960335	-0.051201	-39.465652
0.850000	-0.020363	-16.157948	-73.135599	64.977121	-73.135599	64.977121	-0.053841	-41.897809
0.900000	-0.021439	-17.101212	-72.938717	64.120939	-72.938717	64.120939	-0.056512	-44.324879
0.950000	-0.022533	-18.043517	-72.790428	63.411594	-72.790428	63.411594	-0.059217	-46.746633
1.000000	-0.023645	-18.984815	-72.688378	62.871913	-72.688378	62.871913	-0.061953	-49.162882
1.050000	-0.024776	-19.925060	-72.630361	62.528788	-72.630361	62.528788	-0.064720	-51.573461
1.100000	-0.025922	-20.864211	-72.614100	62.413871	-72.614100	62.413871	-0.067514	-53.978226
1.150000	-0.027085	-21.802228	-72.636968	62.564278	-72.636968	62.564278	-0.070332	-56.377052
1.200000	-0.028261	-22.739073	-72.695643	63.023163	-72.695643	63.023163	-0.073170	-58.769838
1.250000	-0.029449	-23.674713	-72.785639	63.839950	-72.785639	63.839950	-0.076025	-61.156502
1.300000	-0.030648	-24.609087	-72.901018	65.080157	-72.901018	65.080157	-0.078892	-63.536845
1.350000	-0.031856	-25.542190	-73.032149	66.795059	-73.032149	66.795059	-0.081766	-65.910960
1.400000	-0.033072	-26.473996	-73.166650	69.042401	-73.166650	69.042401	-0.084644	-68.278824
1.450000	-0.034294	-27.404475	-73.287941	71.870097	-73.287941	71.870097	-0.087521	-70.640432
1.500000	-0.035520	-28.333604	-73.374907	75.302988	-73.374907	75.302988	-0.090393	-72.995800
1.550000	-0.036750	-29.261357	-73.402587	79.325638	-73.402587	79.325638	-0.093258	-75.344958
1.600000	-0.037982	-30.187714	-73.344509	83.865088	-73.344509	83.865088	-0.096112	-77.687955
1.650000	-0.039215	-31.112651	-73.176881	88.781479	-73.176881	88.781479	-0.098952	-80.024857
1.700000	-0.040448	-32.036149	-72.883770	93.875624	-72.883770	93.875624	-0.101776	-82.355745
1.750000	-0.041680	-32.958189	-72.461246	98.917116	-72.461246	98.917116	-0.104581	-84.680716
1.800000	-0.042910	-33.878753	-71.918386	103.685118	-71.918386	103.685118	-0.107366	-86.999881
1.850000	-0.044139	-34.797822	-71.274558	108.005400	-71.274558	108.005400	-0.110129	-89.313367
1.900000	-0.045365	-35.715364	-70.553193	111.763061	-70.553193	111.763061	-0.112869	-91.621254
1.950000	-0.046588	-36.631362	-69.779869	114.914790	-69.779869	114.914790	-0.115586	-93.923703
2.000000	-0.047807	-37.545817	-68.978055	117.475519	-68.978055	117.475519	-0.118278	-96.220938
2.050000	-0.049024	-38.458714	-68.165287	119.484394	-68.165287	119.484394	-0.120946	-98.513140
2.100000	-0.050237	-39.370040	-67.354555	120.995668	-67.354555	120.995668	-0.123590	-100.800498
2.150000	-0.051448	-40.279780	-66.554926	122.068194	-66.554926	122.068194	-0.126212	-103.083211
2.200000	-0.052656	-41.187920	-65.772390	122.759159	-65.772390	122.759159	-0.128811	-105.361492
2.250000	-0.053861	-42.094449	-65.010658	123.120891	-65.010658	123.120891	-0.131388	-107.635561
2.300000	-0.055064	-42.999353	-64.271813	123.199620	-64.271813	123.199620	-0.133946	-109.905646
2.350000	-0.056265	-43.902620	-63.556821	123.035337	-63.556821	123.035337	-0.136485	-112.171986
2.400000	-0.057466	-44.804239	-62.865893	122.662213	-62.865893	122.662213	-0.139008	-114.434827
2.450000	-0.058666	-45.704197	-62.198748	122.109251	-62.198748	122.109251	-0.141516	-116.694422
2.500000	-0.059866	-46.602483	-61.554796	121.400989	-61.554796	121.400989	-0.144011	-118.951029
2.550000	-0.061067	-47.499051	-60.932797	120.555657	-60.932797	120.555657	-0.146495	-121.204864
2.600000	-0.062269	-48.393924	-60.332425	119.593998	-60.332425	119.593998	-0.148971	-123.456262
2.650000	-0.063474	-49.287094	-59.752743	118.530749	-59.752743	118.530749	-0.151441	-125.705502
2.700000	-0.064682	-50.178549	-59.192810	117.378456	-59.192810	117.378456	-0.153908	-127.952863
2.750000	-0.065895	-51.068281	-58.651704	116.147832	-58.651704	116.147832	-0.156373	-130.198634
2.800000	-0.067112	-51.956280	-58.128536	114.848055	-58.128536	114.848055	-0.158839	-132.443101
2.850000	-0.068334	-52.842537	-57.622459	113.487022	-57.622459	113.487022	-0.161309	-134.686558
2.900000	-0.069564	-53.727044	-57.132672	112.071544	-57.132672	112.071544	-0.163785	-136.929299
2.950000	-0.070800	-54.609793	-56.658421	110.607526	-56.658421	110.607526	-0.166268	-139.171621
3.000000	-0.072045	-55.490775	-56.199001	109.100100	-56.199001	109.100100	-0.168762	-141.413820
3.050000	-0.073298	-56.369984	-55.753752	107.553747	-55.753752	107.553747	-0.171268	-143.656197
3.100000	-0.074562	-57.247412	-55.322060	105.972394	-55.322060	105.972394	-0.173788	-145.899048
3.150000	-0.075836	-58.123034	-54.903276	104.359186	-54.903276	104.359186	-0.176325	-148.142686
3.200000	-0.077122	-58.996843	-54.496888	102.717264	-54.496888	102.717264	-0.178880	-150.387418
3.250000	-0.078420	-59.868855	-54.102485	101.049653	-54.102485	101.049653	-0.181455	-152.633531
3.300000	-0.079730	-60.739063	-53.719605	99.358741	-53.719605	99.358741	-0.184051	-154.881320
3.350000	-0.081055	-61.607464	-53.347820	97.646667	-53.347820	97.646667	-0.186669	-157.131077
3.400000	-0.082394	-62.474053	-52.986730	95.915351	-52.986730	95.915351	-0.189311	-159.383091
3.450000	-0.083748	-63.338828	-52.635968	94.166527	-52.635968	94.166527	-0.191977	-161.637646
3.500000	-0.085117	-64.201787	-52.295190	92.401767	-52.295190	92.401767	-0.194668	-163.895023
3.550000	-0.086503	-65.062926	-51.964076	90.622505	-51.964076	90.622505	-0.197384	-166.155498
3.600000	-0.087906	-65.922246	-51.642332	88.830054	-51.642332	88.830054	-0.200127	-168.419340
3.650000	-0.089327	-66.779744	-51.329682	87.025625	-51.329682	87.025625	-0.202896	-170.686815
3.700000	-0.090765	-67.635422	-51.025870	85.210338	-51.025870	85.210338	-0.205690	-172.958180
3.750000	-0.092222	-68.489279	-50.730659	83.385241	-50.730659	83.385241	-0.208511	-175.233683
3.800000	-0.093699	-69.341278	-50.443804	81.551142	-50.443804	81.551142	-0.211357	-177.513667
3.850000	-0.095196	-70.191459	-50.165137	79.709178	-50.165137	79.709178	-0.214228	-179.798274
3.900000	-0.096713	-71.039826	-49.894463	77.860224	-49.894463	77.860224	-0.217122	177.912274
3.950000	-0.098251	-71.886382	-49.631603	76.005117	-49.631603	76.005117	-0.220039	175.617764
4.000000	-0.099809	-72.731130	-49.376389	74.144663	-49.376389	74.144663	-0.222976	173.317997
4.050000	-0.101390	-73.574075	-49.128662	72.279639	-49.128662	72.279639	-0.225934	171.012782
4.100000	-0.102992	-74.415224	-48.888276	70.410801	-48.888276	70.410801	-0.228909	168.701943
4.150000	-0.104617	-75.254580	-48.655091	68.538888	-48.655091	68.538888	-0.231900	166.385317
4.200000	-0.106265	-76.092152	-48.428977	66.664626	-48.428977	66.664626	-0.234905	164.062755
4.250000	-0.107936	-76.927946	-48.209811	64.788728	-48.209811	64.788728	-0.237922	161.734122
4.300000	-0.109631	-77.761971	-47.997477	62.911903	-47.997477	62.911903	-0.240948	159.399300
4.350000	-0.111350	-78.594235	-47.791865	61.034851	-47.791865	61.034851	-0.243981	157.058185
4.400000	-0.113093	-79.424729	-47.592894	59.158285	-47.592894	59.158285	-0.247017	154.710623
4.450000	-0.114862	-80.253462	-47.400470	57.282926	-47.400470	57.282926	-0.250055	152.356542
4.500000	-0.116655	-81.080465	-47.214477	55.409467	-47.214477	55.409467	-0.253091	149.995965
4.550000	-0.118475	-81.905750	-47.034823	53.538608	-47.034823	53.538608	-0.256122	147.628862
4.600000	-0.120320	-82.729327	-46.861419	51.671050	-46.861419	51.671050	-0.259145	145.255223
4.650000	-0.122191	-83.551209	-46.694178	49.807499	-46.694178	49.807499	-0.262157	142.875061
4.700000	-0.124089	-84.371411	-46.533019	47.948667	-46.533019	47.948667	-0.265155	140.488407
4.750000	-0.126013	-85.189945	-46.377859	46.095268	-46.377859	46.095268	-0.268135	138.095314
4.800000	-0.127965	-86.006826	-46.228619	44.248024	-46.228619	44.248024	-0.271094	135.695858
4.850000	-0.129944	-86.822069	-46.085222	42.407662	-46.085222	42.407662	-0.274030	133.290138
4.900000	-0.131952	-87.635690	-45.947590	40.574917	-45.947590	40.574917	-0.276938	130.878274
4.950000	-0.133988	-88.447706	-45.815649	38.750528	-45.815649	38.750528	-0.279815	128.460411
5.000000	-0.136052	-89.258132	-45.689323	36.935247	-45.689323	36.935247	-0.282660	126.036716
5.050000	-0.138146	-90.066953	-45.568621	35.130062	-45.568621	35.130062	-0.285467	123.607262
5.100000	-0.140269	-90.874221	-45.453389	33.335542	-45.453389	33.335542	-0.288234	121.172395
5.150000	-0.142422	-91.679954	-45.343551	31.552464	-45.343551	31.552464	-0.290960	118.732353
5.200000	-0.144606	-92.484173	-45.239032	29.781616	-45.239032	29.781616	-0.293640	116.287402
5.250000	-0.146820	-93.286896	-45.139758	28.023796	-45.139758	28.023796	-0.296274	113.837829
5.300000	-0.149064	-94.088144	-45.045650	26.279815	-45.045650	26.279815	-0.298858	111.383946
5.350000	-0.151340	-94.887937	-44.956633	24.550497	-44.956633	24.550497	-0.301392	108.926086
5.400000	-0.153648	-95.686296	-44.872627	22.836681	-44.872627	22.836681	-0.303872	106.464607
5.450000	-0.155988	-96.483244	-44.793554	21.139222	-44.793554	21.139222	-0.306298	103.999886
5.500000	-0.158360	-97.278802	-44.719331	19.458993	-44.719331	19.458993	-0.308668	101.532325
5.550000	-0.160765	-98.072994	-44.649875	17.796885	-44.649875	17.796885	-0.310981	99.062344
5.600000	-0.163204	-98.865842	-44.585100	16.153812	-44.585100	16.153812	-0.313238	96.590382
5.650000	-0.165676	-99.657355	-44.524962	14.530936	-44.524962	14.530936	-0.315436	94.116889
5.700000	-0.168184	-100.447560	-44.469366	12.929249	-44.469366	12.929249	-0.317576	91.642357
5.750000	-0.170726	-101.236494	-44.418170	11.349520	-44.418170	11.349520	-0.319659	89.167299
5.800000	-0.173302	-102.024183	-44.371273	9.792764	-44.371273	9.792764	-0.321685	86.692223
5.850000	-0.175915	-102.810653	-44.328566	8.260022	-44.328566	8.260022	-0.323656	84.217653
5.900000	-0.178563	-103.595929	-44.289936	6.752367	-44.289936	6.752367	-0.325573	81.744126
5.950000	-0.181248	-104.380038	-44.255262	5.270901	-44.255262	5.270901	-0.327437	79.272189
6.000000	-0.183970	-105.163007	-44.224412	3.816757	-44.224412	3.816757	-0.329251	76.802399
6.050000	-0.186729	-105.944862	-44.197250	2.391098	-44.197250	2.391098	-0.331017	74.335320
6.100000	-0.189527	-106.725633	-44.173623	0.995117	-44.173623	0.995117	-0.332738	71.871523
6.150000	-0.192362	-107.505346	-44.153370	-0.369966	-44.153370	-0.369966	-0.334416	69.411585
6.200000	-0.195236	-108.284030	-44.136316	-1.702909	-44.136316	-1.702909	-0.336055	66.956084
6.250000	-0.198150	-109.061715	-44.122268	-3.002448	-44.122268	-3.002448	-0.337658	64.505599
6.300000	-0.201104	-109.838409	-44.111074	-4.266524	-44.111074	-4.266524	-0.339229	62.060845
6.350000	-0.204098	-110.614163	-44.102441	-5.494580	-44.102441	-5.494580	-0.340773	59.622291
6.400000	-0.207134	-111.389009	-44.096120	-6.685339	-44.096120	-6.685339	-0.342293	57.190509
6.450000	-0.210210	-112.162977	-44.091840	-7.837544	-44.091840	-7.837544	-0.343796	54.766066
6.500000	-0.213328	-112.936097	-44.089305	-8.949969	-44.089305	-8.949969	-0.345284	52.349522
6.550000	-0.216489	-113.708402	-44.088195	-10.021437	-44.088195	-10.021437	-0.346764	49.941429
6.600000	-0.219692	-114.479922	-44.088163	-11.050844	-44.088163	-11.050844	-0.348240	47.542326
6.650000	-0.222939	-115.250692	-44.088833	-12.037180	-44.088833	-12.037180	-0.349718	45.152742
6.700000	-0.226229	-116.020742	-44.089801	-12.979554	-44.089801	-12.979554	-0.351202	42.773192
6.750000	-0.229563	-116.790106	-44.090637	-13.877227	-44.090637	-13.877227	-0.352699	40.404178
6.800000	-0.232943	-117.558818	-44.090878	-14.729639	-44.090878	-14.729639	-0.354214	38.046183
6.850000	-0.236367	-118.326912	-44.090038	-15.536448	-44.090038	-15.536448	-0.355752	35.699675
6.900000	-0.239838	-119.094415	-44.087581	-16.297067	-44.087581	-16.297067	-0.357320	33.365239
6.950000	-0.243355	-119.861365	-44.082955	-17.011707	-44.082955	-17.011707	-0.358923	31.043318
7.000000	-0.246919	-120.627802	-44.075624	-17.681406	-44.075624	-17.681406	-0.360566	28.734193
7.050000	-0.250530	-121.393762	-44.065024	-18.307060	-44.065024	-18.307060	-0.362254	26.438250
7.100000	-0.254189	-122.159281	-44.050586	-18.889950	-44.050586	-18.889950	-0.363994	24.155858
7.150000	-0.257896	-122.924396	-44.031744	-19.431765	-44.031744	-19.431765	-0.365791	21.887359
7.200000	-0.261651	-123.689144	-44.007942	-19.934618	-44.007942	-19.934618	-0.367649	19.633078
7.250000	-0.265456	-124.453561	-43.978644	-20.401047	-43.978644	-20.401047	-0.369574	17.393312
7.300000	-0.269309	-125.217687	-43.943349	-20.834014	-43.943349	-20.834014	-0.371572	15.168339
7.350000	-0.273213	-125.981558	-43.901592	-21.236888	-43.901592	-21.236888	-0.373647	12.958410
7.400000	-0.277167	-126.745214	-43.852961	-21.613409	-43.852961	-21.613409	-0.375803	10.763755
7.450000	-0.281172	-127.508694	-43.797106	-21.967651	-43.797106	-21.967651	-0.378046	8.584580
7.500000	-0.285228	-128.272038	-43.733744	-22.303961	-43.733744	-22.303961	-0.380380	6.421067
7.550000	-0.289337	-129.035285	-43.662482	-22.626716	-43.662482	-22.626716	-0.382812	4.273723
7.600000	-0.293497	-129.798477	-43.583371	-22.941005	-43.583371	-22.941005	-0.385344	2.142341
7.650000	-0.297710	-130.561658	-43.496371	-23.251568	-43.496371	-23.251568	-0.387980	0.027033
7.700000	-0.301976	-131.324867	-43.401528	-23.563106	-43.401528	-23.563106	-0.390724	-2.072112
7.750000	-0.306295	-132.088148	-43.298968	-23.880199	-43.298968	-23.880199	-0.393580	-4.155028
7.800000	-0.310667	-132.851543	-43.188893	-24.207227	-43.188893	-24.207227	-0.396551	-6.221668
7.850000	-0.315094	-133.615095	-43.071578	-24.548297	-43.071578	-24.548297	-0.399642	-8.272010
7.900000	-0.319574	-134.378848	-42.947356	-24.907188	-42.947356	-24.907188	-0.402856	-10.306050
7.950000	-0.324109	-135.142847	-42.816616	-25.287300	-42.816616	-25.287300	-0.406196	-12.323806
8.000000	-0.328698	-135.907136	-42.679786	-25.691617	-42.679786	-25.691617	-0.409665	-14.325313
8.050000	-0.333343	-136.671761	-42.537328	-26.122690	-42.537328	-26.122690	-0.413267	-16.310628
8.100000	-0.338043	-137.436768	-42.389722	-26.582625	-42.389722	-26.582625	-0.417004	-18.279826
8.150000	-0.342799	-138.202208	-42.237386	-27.073434	-42.237386	-27.073434	-0.420882	-20.232827
8.200000	-0.347611	-138.968132	-42.080822	-27.596384	-42.080822	-27.596384	-0.424903	-22.169744
8.250000	-0.352480	-139.734581	-41.920593	-28.151950	-41.920593	-28.151950	-0.429069	-24.090880
8.300000	-0.357405	-140.501605	-41.757167	-28.740573	-41.757167	-28.740573	-0.433382	-25.996379
8.350000	-0.362389	-141.269293	-41.590670	-29.364269	-41.590670	-29.364269	-0.437855	-27.885514
8.400000	-0.367428	-142.037619	-41.422164	-30.019083	-41.422164	-30.019083	-0.442473	-29.760207
8.450000	-0.372522	-142.806657	-41.251793	-30.705911	-41.251793	-30.705911	-0.447245	-31.620022
8.500000	-0.377672	-143.576458	-41.079900	-31.424127	-41.079900	-31.424127	-0.452175	-33.465154
8.550000	-0.382878	-144.347069	-40.906795	-32.172941	-40.906795	-32.172941	-0.457264	-35.295809
8.600000	-0.388147	-145.118644	-40.732291	-32.954596	-40.732291	-32.954596	-0.462534	-37.110658
8.650000	-0.393472	-145.891148	-40.557110	-33.764858	-40.557110	-33.764858	-0.467973	-38.911443
8.700000	-0.398854	-146.664627	-40.381482	-34.602441	-40.381482	-34.602441	-0.473581	-40.698494
8.750000	-0.404293	-147.439135	-40.205579	-35.466197	-40.205579	-35.466197	-0.479363	-42.472068
8.800000	-0.409787	-148.214726	-40.029543	-36.354966	-40.029543	-36.354966	-0.485322	-44.232429
8.850000	-0.415339	-148.991452	-39.853488	-37.267590	-39.853488	-37.267590	-0.491461	-45.979854
8.900000	-0.420949	-149.769424	-39.677354	-38.203858	-39.677354	-38.203858	-0.497794	-47.714096
8.950000	-0.426619	-150.548743	-39.501107	-39.163177	-39.501107	-39.163177	-0.504330	-49.435116
9.000000	-0.432346	-151.329377	-39.325037	-40.142850	-39.325037	-40.142850	-0.511061	-51.144147
9.050000	-0.438129	-152.111385	-39.149160	-41.141898	-39.149160	-41.141898	-0.517991	-52.841505
9.100000	-0.443969	-152.894825	-38.973471	-42.159409	-38.973471	-42.159409	-0.525125	-54.527514
9.150000	-0.449864	-153.679756	-38.797951	-43.194547	-38.797951	-43.194547	-0.532469	-56.202506
9.200000	-0.455815	-154.466239	-38.622562	-44.246554	-38.622562	-44.246554	-0.540029	-57.866821
9.250000	-0.461827	-155.254489	-38.446934	-45.316192	-38.446934	-45.316192	-0.547831	-59.519892
9.300000	-0.467895	-156.044466	-38.271230	-46.401729	-38.271230	-46.401729	-0.555869	-61.162817
9.350000	-0.474018	-156.836194	-38.095463	-47.502294	-38.095463	-47.502294	-0.564144	-62.796216
9.400000	-0.480196	-157.629738	-37.919549	-48.617508	-37.919549	-48.617508	-0.572664	-64.420467
9.450000	-0.486428	-158.425162	-37.743397	-49.747079	-37.743397	-49.747079	-0.581438	-66.035952
9.500000	-0.492715	-159.222533	-37.566911	-50.890812	-37.566911	-50.890812	-0.590474	-67.643067
9.550000	-0.499057	-160.021969	-37.389884	-52.048949	-37.389884	-52.048949	-0.599788	-69.242026
9.600000	-0.505456	-160.823689	-37.211912	-53.222444	-37.211912	-53.222444	-0.609411	-70.832786
9.650000	-0.511909	-161.627575	-37.033255	-54.410122	-37.033255	-54.410122	-0.619329	-72.416495
9.700000	-0.518413	-162.433698	-36.853797	-55.612196	-36.853797	-55.612196	-0.629555	-73.993582
9.750000	-0.524968	-163.242014	-36.673655	-56.828240	-36.673655	-56.828240	-0.640085	-75.564771
9.800000	-0.531577	-164.052901	-36.492087	-58.060612	-36.492087	-58.060612	-0.650974	-77.129770
9.850000	-0.538239	-164.866301	-36.309246	-59.308984	-36.309246	-59.308984	-0.662220	-78.689413
9.900000	-0.544949	-165.682192	-36.125198	-60.573384	-36.125198	-60.573384	-0.673825	-80.244387
9.950000	-0.551713	-166.500910	-35.939297	-61.856245	-35.939297	-61.856245	-0.685843	-81.794758
10.000000	-0.558522	-167.322117	-35.752274	-63.155689	-35.752274	-63.155689	-0.698233	-83.341660
