! freq	dB(S11)	phase(S11)	dB(S12)	phase(S12)	
!     	dB(S21)	phase(S21)	dB(S22)	phase(S22)	
!S-par simulation data
#  GHz  S  DB  R 50
0.000000	-0.000000	0.000000	-380.308509	180.000000	-380.308509	180.000000	-0.000000	0.000000
0.050000	-0.000711	-1.216883	-111.269100	89.040081	-111.269100	89.040081	-0.000500	-0.816789
0.100000	-0.002521	-2.429675	-105.292662	88.084046	-105.292662	88.084046	-0.001697	-1.634165
0.150000	-0.004823	-3.637112	-101.845782	87.140081	-101.845782	87.140081	-0.003190	-2.450631
0.200000	-0.007136	-4.840110	-99.459101	86.222168	-99.459101	86.222168	-0.004763	-3.264769
0.250000	-0.009269	-6.040616	-97.659287	85.339430	-97.659287	85.339430	-0.006300	-4.076633
0.300000	-0.011172	-7.239541	-96.246424	84.506678	-96.246424	84.506678	-0.007736	-4.886360
0.350000	-0.012866	-8.437515	-95.112111	83.738639	-95.112111	83.738639	-0.009036	-5.694397
0.400000	-0.014394	-9.634808	-94.193745	83.053307	-94.193745	83.053307	-0.010190	-6.501182
0.450000	-0.015795	-10.831428	-93.460119	82.482644	-93.460119	82.482644	-0.011200	-7.307044
0.500000	-0.017121	-12.027385	-92.875180	82.043103	-92.875180	82.043103	-0.012100	-8.112356
0.550000	-0.018401	-13.222586	-92.421589	81.766219	-92.421589	81.766219	-0.012915	-8.917288
0.600000	-0.019655	-14.416920	-92.087881	81.691957	-92.087881	81.691957	-0.013669	-9.721940
0.650000	-0.020901	-15.610275	-91.866729	81.871764	-91.866729	81.871764	-0.014386	-10.526360
0.700000	-0.022149	-16.802539	-91.753765	82.372802	-91.753765	82.372802	-0.015086	-11.330553
0.750000	-0.023410	-17.993526	-91.752961	83.316688	-91.752961	83.316688	-0.015787	-12.134475
0.800000	-0.024690	-19.183126	-91.861418	84.844494	-91.861418	84.844494	-0.016505	-12.938070
0.850000	-0.025993	-20.371266	-92.071728	87.137721	-92.071728	87.137721	-0.017253	-13.741268
0.900000	-0.027319	-21.557964	-92.367846	90.364601	-92.367846	90.364601	-0.018035	-14.544026
0.950000	-0.028670	-22.743047	-92.732922	94.877001	-92.732922	94.877001	-0.018857	-15.346238
1.000000	-0.030046	-23.926428	-93.119038	101.036185	-93.119038	101.036185	-0.019723	-16.147819
1.050000	-0.031448	-25.108028	-93.436698	109.162006	-93.436698	109.162006	-0.020632	-16.948688
1.100000	-0.032874	-26.287770	-93.546712	119.305692	-93.546712	119.305692	-0.021583	-17.748771
1.150000	-0.034323	-27.465579	-93.290584	130.925391	-93.290584	130.925391	-0.022570	-18.548002
1.200000	-0.035793	-28.641387	-92.576691	142.786930	-92.576691	142.786930	-0.023591	-19.346323
1.250000	-0.037282	-29.815129	-91.452543	153.488246	-91.452543	153.488246	-0.024639	-20.143689
1.300000	-0.038788	-30.986647	-90.051232	162.116003	-90.051232	162.116003	-0.025710	-20.940018
1.350000	-0.040309	-32.155973	-88.546184	168.692838	-88.546184	168.692838	-0.026797	-21.735324
1.400000	-0.041841	-33.323052	-87.036194	173.527867	-87.036194	173.527867	-0.027895	-22.529587
1.450000	-0.043384	-34.487833	-85.572910	176.994096	-85.572910	176.994096	-0.028999	-23.322792
1.500000	-0.044933	-35.650268	-84.178446	179.417016	-84.178446	179.417016	-0.030105	-24.114931
1.550000	-0.046488	-36.810311	-82.859207	-178.949886	-82.859207	-178.949886	-0.031211	-24.905995
1.600000	-0.048045	-37.967921	-81.614054	-177.917753	-81.614054	-177.917753	-0.032314	-25.695981
1.650000	-0.049604	-39.123058	-80.438596	-177.347788	-80.438596	-177.347788	-0.033411	-26.484886
1.700000	-0.051162	-40.275686	-79.327311	-177.137866	-79.327311	-177.137866	-0.034502	-27.272706
1.750000	-0.052717	-41.425772	-78.274550	-177.212224	-78.274550	-177.212224	-0.035585	-28.059439
1.800000	-0.054268	-42.573283	-77.274972	-177.514004	-77.274972	-177.514004	-0.036660	-28.845081
1.850000	-0.055814	-43.718191	-76.323713	-177.999990	-76.323713	-177.999990	-0.037728	-29.629627
1.900000	-0.057353	-44.860470	-75.416426	-178.636907	-75.416426	-178.636907	-0.038787	-30.413073
1.950000	-0.058884	-46.000095	-74.549253	-179.398813	-74.549253	-179.398813	-0.039838	-31.195410
2.000000	-0.060408	-47.137044	-73.718786	179.734763	-73.718786	179.734763	-0.040883	-31.976632
2.050000	-0.061923	-48.271296	-72.922015	178.780157	-72.922015	178.780157	-0.041922	-32.756731
2.100000	-0.063428	-49.402832	-72.156274	177.750543	-72.156274	177.750543	-0.042955	-33.535695
2.150000	-0.064925	-50.531636	-71.419199	176.656651	-71.419199	176.656651	-0.043983	-34.313515
2.200000	-0.066412	-51.657691	-70.708688	175.507303	-70.708688	175.507303	-0.045008	-35.090180
2.250000	-0.067891	-52.780983	-70.022862	174.309814	-70.022862	174.309814	-0.046031	-35.865677
2.300000	-0.069362	-53.901499	-69.360040	173.070300	-69.360040	173.070300	-0.047051	-36.639995
2.350000	-0.070825	-55.019228	-68.718709	171.793913	-68.718709	171.793913	-0.048071	-37.413119
2.400000	-0.072281	-56.134157	-68.097506	170.485026	-68.097506	170.485026	-0.049091	-38.185038
2.450000	-0.073732	-57.246277	-67.495196	169.147373	-67.495196	169.147373	-0.050112	-38.955737
2.500000	-0.075177	-58.355579	-66.910659	167.784165	-66.910659	167.784165	-0.051135	-39.725203
2.550000	-0.076619	-59.461932	-66.341995	166.397302	-66.341995	166.397302	-0.052160	-40.493367
2.600000	-0.078059	-60.565451	-65.789250	164.990265	-65.789250	164.990265	-0.053188	-41.260271
2.650000	-0.079497	-61.666130	-65.251561	163.565129	-65.251561	163.565129	-0.054221	-42.025899
2.700000	-0.080936	-62.763961	-64.728136	162.123719	-64.728136	162.123719	-0.055259	-42.790239
2.750000	-0.082377	-63.858942	-64.218250	160.667648	-64.218250	160.667648	-0.056302	-43.553277
2.800000	-0.083822	-64.951067	-63.721231	159.198348	-63.721231	159.198348	-0.057351	-44.315001
2.850000	-0.085271	-66.040334	-63.236462	157.717092	-63.236462	157.717092	-0.058407	-45.075398
2.900000	-0.086726	-67.126738	-62.763369	156.225018	-62.763369	156.225018	-0.059470	-45.834456
2.950000	-0.088189	-68.210280	-62.301422	154.723146	-62.301422	154.723146	-0.060541	-46.592162
3.000000	-0.089661	-69.290957	-61.850128	153.212394	-61.850128	153.212394	-0.061621	-47.348505
3.050000	-0.091144	-70.368770	-61.409027	151.693588	-61.409027	151.693588	-0.062709	-48.103473
3.100000	-0.092639	-71.443719	-60.977692	150.167477	-60.977692	150.167477	-0.063806	-48.857055
3.150000	-0.094147	-72.515806	-60.555723	148.634736	-60.555723	148.634736	-0.064914	-49.609241
3.200000	-0.095669	-73.585035	-60.142745	147.095983	-60.142745	147.095983	-0.066031	-50.360021
3.250000	-0.097207	-74.651409	-59.738410	145.551776	-59.738410	145.551776	-0.067159	-51.109385
3.300000	-0.098762	-75.714933	-59.342387	144.002628	-59.342387	144.002628	-0.068298	-51.857324
3.350000	-0.100335	-76.775613	-58.954368	142.449005	-58.954368	142.449005	-0.069449	-52.603828
3.400000	-0.101926	-77.833457	-58.574061	140.891335	-58.574061	140.891335	-0.070612	-53.348890
3.450000	-0.103538	-78.888473	-58.201194	139.330013	-58.201194	139.330013	-0.071786	-54.092500
3.500000	-0.105170	-79.940671	-57.835507	137.765398	-57.835507	137.765398	-0.072973	-54.834653
3.550000	-0.106823	-80.990062	-57.476756	136.197825	-57.476756	136.197825	-0.074174	-55.575340
3.600000	-0.108499	-82.036658	-57.124710	134.627600	-57.124710	134.627600	-0.075387	-56.314554
3.650000	-0.110197	-83.080473	-56.779150	133.055007	-56.779150	133.055007	-0.076615	-57.052291
3.700000	-0.111920	-84.121523	-56.439870	131.480310	-56.439870	131.480310	-0.077856	-57.788543
3.750000	-0.113666	-85.159822	-56.106671	129.903752	-56.106671	129.903752	-0.079112	-58.523305
3.800000	-0.115438	-86.195272	-55.779090	128.325499	-55.779090	128.325499	-0.080383	-59.256508
3.850000	-0.117235	-87.228011	-55.457248	126.745841	-55.457248	126.745841	-0.081669	-59.988211
3.900000	-0.119058	-88.258059	-55.140975	125.164973	-55.140975	125.164973	-0.082970	-60.718411
3.950000	-0.120907	-89.285439	-54.830107	123.583076	-54.830107	123.583076	-0.084288	-61.447103
4.000000	-0.122782	-90.310173	-54.524490	122.000321	-54.524490	122.000321	-0.085621	-62.174286
4.050000	-0.124684	-91.332287	-54.223977	120.416867	-54.223977	120.416867	-0.086971	-62.899956
4.100000	-0.126614	-92.351806	-53.928425	118.832864	-53.928425	118.832864	-0.088338	-63.624111
4.150000	-0.128570	-93.368756	-53.637700	117.248451	-53.637700	117.248451	-0.089722	-64.346749
4.200000	-0.130555	-94.383168	-53.351672	115.663762	-53.351672	115.663762	-0.091123	-65.067868
4.250000	-0.132567	-95.395070	-53.070218	114.078921	-53.070218	114.078921	-0.092543	-65.787468
4.300000	-0.134607	-96.404493	-52.793220	112.494044	-52.793220	112.494044	-0.093980	-66.505547
4.350000	-0.136676	-97.411469	-52.520563	110.909244	-52.520563	110.909244	-0.095437	-67.222107
4.400000	-0.138774	-98.416032	-52.252138	109.324624	-52.252138	109.324624	-0.096912	-67.937145
4.450000	-0.140901	-99.418215	-51.987842	107.740285	-51.987842	107.740285	-0.098406	-68.650665
4.500000	-0.143057	-100.418055	-51.727572	106.156319	-51.727572	106.156319	-0.099920	-69.362665
4.550000	-0.145243	-101.415587	-51.471233	104.572816	-51.471233	104.572816	-0.101454	-70.073147
4.600000	-0.147458	-102.410850	-51.218731	102.989862	-51.218731	102.989862	-0.103009	-70.782114
4.650000	-0.149703	-103.403882	-50.969976	101.407535	-50.969976	101.407535	-0.104584	-71.489566
4.700000	-0.151979	-104.394723	-50.724883	99.825913	-50.724883	99.825913	-0.106180	-72.195508
4.750000	-0.154285	-105.383413	-50.483367	98.245068	-50.483367	98.245068	-0.107798	-72.899940
4.800000	-0.156622	-106.369994	-50.245348	96.665070	-50.245348	96.665070	-0.109438	-73.602866
4.850000	-0.158990	-107.354507	-50.010749	95.085984	-50.010749	95.085984	-0.111100	-74.304291
4.900000	-0.161390	-108.336998	-49.779495	93.507875	-49.779495	93.507875	-0.112785	-75.004216
4.950000	-0.163822	-109.317508	-49.551513	91.930800	-49.551513	91.930800	-0.114493	-75.702648
5.000000	-0.166285	-110.296085	-49.326733	90.354819	-49.326733	90.354819	-0.116224	-76.399589
5.050000	-0.168783	-111.272692	-49.104979	88.780038	-49.104979	88.780038	-0.117981	-77.094982
5.100000	-0.171313	-112.247462	-48.886302	87.206461	-48.886302	87.206461	-0.119761	-77.788894
5.150000	-0.173876	-113.220441	-48.670638	85.634138	-48.670638	85.634138	-0.121566	-78.481333
5.200000	-0.176473	-114.191678	-48.457925	84.063115	-48.457925	84.063115	-0.123397	-79.172303
5.250000	-0.179104	-115.161221	-48.248103	82.493439	-48.248103	82.493439	-0.125253	-79.861811
5.300000	-0.181770	-116.129120	-48.041115	80.925151	-48.041115	80.925151	-0.127134	-80.549863
5.350000	-0.184470	-117.095424	-47.836903	79.358294	-47.836903	79.358294	-0.129043	-81.236467
5.400000	-0.187205	-118.060185	-47.635413	77.792906	-47.635413	77.792906	-0.130977	-81.921628
5.450000	-0.189975	-119.023454	-47.436593	76.229024	-47.436593	76.229024	-0.132939	-82.605354
5.500000	-0.192782	-119.985283	-47.240391	74.666685	-47.240391	74.666685	-0.134929	-83.287653
5.550000	-0.195624	-120.945725	-47.046756	73.105922	-47.046756	73.105922	-0.136947	-83.968533
5.600000	-0.198504	-121.904832	-46.855640	71.546768	-46.855640	71.546768	-0.138993	-84.648001
5.650000	-0.201421	-122.862658	-46.666997	69.989253	-46.666997	69.989253	-0.141068	-85.326067
5.700000	-0.204375	-123.819258	-46.480780	68.433407	-46.480780	68.433407	-0.143172	-86.002738
5.750000	-0.207367	-124.774686	-46.296945	66.879257	-46.296945	66.879257	-0.145305	-86.678024
5.800000	-0.210398	-125.728997	-46.115449	65.326831	-46.115449	65.326831	-0.147469	-87.351933
5.850000	-0.213475	-126.682081	-45.936009	63.776465	-45.936009	63.776465	-0.149669	-88.024241
5.900000	-0.216592	-127.634118	-45.758776	62.227950	-45.758776	62.227950	-0.151901	-88.695133
5.950000	-0.219731	-128.585684	-45.584409	60.680380	-45.584409	60.680380	-0.154150	-89.365327
6.000000	-0.222931	-129.535836	-45.411481	59.135646	-45.411481	59.135646	-0.156448	-90.033424
6.050000	-0.226147	-130.485716	-45.241510	57.591558	-45.241510	57.591558	-0.158758	-90.701064
6.100000	-0.229433	-131.434237	-45.072751	56.050697	-45.072751	56.050697	-0.161124	-91.366412
6.150000	-0.232727	-132.382643	-44.907015	54.510164	-44.907015	54.510164	-0.163496	-92.031535
6.200000	-0.236100	-133.329788	-44.742297	52.973255	-44.742297	52.973255	-0.165932	-92.694182
6.250000	-0.239474	-134.276934	-44.580644	51.436345	-44.580644	51.436345	-0.168369	-93.356829
6.300000	-0.242914	-135.223212	-44.420357	49.902446	-44.420357	49.902446	-0.170858	-94.017482
6.350000	-0.246396	-136.169020	-44.262009	48.370492	-44.262009	48.370492	-0.173383	-94.676876
6.400000	-0.249922	-137.114420	-44.105567	46.840500	-44.105567	46.840500	-0.175942	-95.335024
6.450000	-0.253491	-138.059473	-43.951001	45.312483	-43.951001	45.312483	-0.178537	-95.991939
6.500000	-0.257104	-139.004240	-43.798283	43.786456	-43.798283	43.786456	-0.181169	-96.647633
6.550000	-0.260761	-139.948786	-43.647382	42.262433	-43.647382	42.262433	-0.183836	-97.302119
6.600000	-0.264463	-140.893173	-43.498272	40.740428	-43.498272	40.740428	-0.186541	-97.955409
6.650000	-0.268209	-141.837466	-43.350925	39.220455	-43.350925	39.220455	-0.189282	-98.607516
6.700000	-0.272000	-142.781727	-43.205315	37.702527	-43.205315	37.702527	-0.192062	-99.258455
6.750000	-0.275836	-143.726022	-43.061416	36.186659	-43.061416	36.186659	-0.194879	-99.908239
6.800000	-0.279718	-144.670416	-42.919204	34.672865	-42.919204	34.672865	-0.197735	-100.556880
6.850000	-0.283646	-145.614975	-42.778654	33.161158	-42.778654	33.161158	-0.200630	-101.204394
6.900000	-0.287619	-146.559765	-42.639743	31.651555	-42.639743	31.651555	-0.203564	-101.850795
6.950000	-0.291639	-147.504853	-42.502448	30.144070	-42.502448	30.144070	-0.206537	-102.496097
7.000000	-0.295704	-148.450307	-42.366747	28.638720	-42.366747	28.638720	-0.209550	-103.140314
7.050000	-0.299816	-149.396195	-42.232618	27.135521	-42.232618	27.135521	-0.212604	-103.783462
7.100000	-0.303974	-150.342585	-42.100041	25.634492	-42.100041	25.634492	-0.215699	-104.425555
7.150000	-0.308179	-151.289547	-41.968995	24.135653	-41.968995	24.135653	-0.218835	-105.066609
7.200000	-0.312431	-152.237150	-41.839462	22.639024	-41.839462	22.639024	-0.222012	-105.706638
7.250000	-0.316729	-153.185466	-41.711421	21.144626	-41.711421	21.144626	-0.225231	-106.345659
7.300000	-0.321074	-154.134565	-41.584854	19.652486	-41.584854	19.652486	-0.228492	-106.983688
7.350000	-0.325465	-155.084519	-41.459744	18.162627	-41.459744	18.162627	-0.231796	-107.620740
7.400000	-0.329904	-156.035402	-41.336074	16.675080	-41.336074	16.675080	-0.235143	-108.256831
7.450000	-0.334389	-156.987287	-41.213825	15.189874	-41.213825	15.189874	-0.238533	-108.891979
7.500000	-0.338921	-157.940248	-41.092983	13.707044	-41.092983	13.707044	-0.241966	-109.526199
7.550000	-0.343502	-158.894414	-40.973520	12.226733	-40.973520	12.226733	-0.245446	-110.159470
7.600000	-0.348129	-159.849815	-40.855435	10.748879	-40.855435	10.748879	-0.248970	-110.791849
7.650000	-0.352803	-160.806527	-40.738712	9.273526	-40.738712	9.273526	-0.252538	-111.423354
7.700000	-0.357523	-161.764629	-40.623337	7.800724	-40.623337	7.800724	-0.256152	-112.054001
7.750000	-0.362290	-162.724201	-40.509297	6.330527	-40.509297	6.330527	-0.259810	-112.683808
7.800000	-0.367102	-163.685322	-40.396577	4.862996	-40.396577	4.862996	-0.263515	-113.312795
7.850000	-0.371962	-164.648074	-40.285166	3.398196	-40.285166	3.398196	-0.267265	-113.940977
7.900000	-0.376867	-165.612540	-40.175050	1.936201	-40.175050	1.936201	-0.271062	-114.568374
7.950000	-0.381818	-166.578805	-40.066217	0.477090	-40.066217	0.477090	-0.274906	-115.195005
8.000000	-0.386814	-167.546953	-39.958655	-0.979045	-39.958655	-0.979045	-0.278796	-115.820888
8.050000	-0.391857	-168.517074	-39.852354	-2.432105	-39.852354	-2.432105	-0.282733	-116.446042
8.100000	-0.396945	-169.489257	-39.747302	-3.881979	-39.747302	-3.881979	-0.286718	-117.070486
8.150000	-0.402078	-170.463592	-39.643489	-5.328543	-39.643489	-5.328543	-0.290751	-117.694240
8.200000	-0.407256	-171.440174	-39.540903	-6.771657	-39.540903	-6.771657	-0.294832	-118.317322
8.250000	-0.412480	-172.419099	-39.439536	-8.211165	-39.439536	-8.211165	-0.298962	-118.939755
8.300000	-0.417749	-173.400467	-39.339377	-9.646892	-39.339377	-9.646892	-0.303140	-119.561556
8.350000	-0.423065	-174.384536	-39.240422	-11.078386	-39.240422	-11.078386	-0.307370	-120.182713
8.400000	-0.428419	-175.370738	-39.142638	-12.506508	-39.142638	-12.506508	-0.311641	-120.803387
8.450000	-0.433831	-176.360581	-39.046066	-13.928736	-39.046066	-13.928736	-0.315976	-121.423316
8.500000	-0.439283	-177.352905	-38.950652	-15.346820	-38.950652	-15.346820	-0.320355	-122.042785
8.550000	-0.444774	-178.347764	-38.856378	-16.760605	-38.856378	-16.760605	-0.324776	-122.661803
8.600000	-0.450319	-179.346228	-38.763274	-18.168087	-38.763274	-18.168087	-0.329256	-123.280231
8.650000	-0.455914	179.651735	-38.671328	-19.568983	-38.671328	-19.568983	-0.333791	-123.898142
8.700000	-0.461552	178.646776	-38.580487	-20.964266	-38.580487	-20.964266	-0.338370	-124.515662
8.750000	-0.467232	177.638830	-38.490732	-22.353685	-38.490732	-22.353685	-0.342993	-125.132801
8.800000	-0.472982	176.625659	-38.402152	-23.732069	-38.402152	-23.732069	-0.347689	-125.749360
8.850000	-0.478781	175.609060	-38.314627	-25.102573	-38.314627	-25.102573	-0.352430	-126.365591
8.900000	-0.484630	174.588931	-38.228132	-26.464652	-38.228132	-26.464652	-0.357216	-126.981503
8.950000	-0.490547	173.564080	-38.142685	-27.814794	-38.142685	-27.814794	-0.362061	-127.597032
9.000000	-0.496546	172.533702	-38.058246	-29.149396	-38.058246	-29.149396	-0.366969	-128.212185
9.050000	-0.502616	171.498953	-37.974710	-30.470574	-37.974710	-30.470574	-0.371924	-128.827083
9.100000	-0.508764	170.459660	-37.892032	-31.777210	-37.892032	-31.777210	-0.376928	-129.441733
9.150000	-0.515059	169.412535	-37.810076	-33.055812	-37.810076	-33.055812	-0.382007	-130.056037
9.200000	-0.521500	168.359008	-37.728608	-34.308295	-37.728608	-34.308295	-0.387142	-130.670122
9.250000	-0.528106	167.299085	-37.647445	-35.532814	-37.647445	-35.532814	-0.392329	-131.284013
9.300000	-0.534947	166.230851	-37.566224	-36.718582	-37.566224	-36.718582	-0.397579	-131.897689
9.350000	-0.542261	165.149783	-37.483461	-37.836176	-37.483461	-37.836176	-0.402913	-132.511113
9.400000	-0.550118	164.057492	-37.398284	-38.887628	-37.398284	-38.887628	-0.408310	-133.124355
9.450000	-0.558598	162.953445	-37.310098	-39.867541	-37.310098	-39.867541	-0.413770	-133.737416
9.500000	-0.568774	161.825314	-37.211020	-40.688052	-37.211020	-40.688052	-0.419334	-134.350132
9.550000	-0.581415	160.671408	-37.094634	-41.327936	-37.094634	-41.327936	-0.424993	-134.962447
9.600000	-0.599385	159.477234	-36.938174	-41.678755	-36.938174	-41.678755	-0.430772	-135.574004
9.650000	-0.629260	158.228467	-36.689696	-41.649584	-36.689696	-41.649584	-0.436667	-136.184060
9.700000	-0.688285	156.935858	-36.223658	-41.411068	-36.223658	-41.411068	-0.442553	-136.790963
9.750000	-0.810761	155.832059	-35.349465	-42.733909	-35.349465	-42.733909	-0.447729	-137.392887
9.800000	-0.932218	155.777828	-34.525874	-50.328437	-34.525874	-50.328437	-0.450809	-137.999546
9.850000	-0.838914	155.732907	-34.885893	-58.632521	-34.885893	-58.632521	-0.454515	-138.625198
9.900000	-0.737670	154.703292	-35.477490	-61.631292	-35.477490	-61.631292	-0.460354	-139.250350
9.950000	-0.691270	153.453901	-35.809480	-62.675481	-35.809480	-62.675481	-0.466697	-139.870048
10.000000	-0.671188	152.208979	-35.971398	-63.408662	-35.971398	-63.408662	-0.473044	-140.487195
