! freq	dB(S11)	phase(S11)	dB(S12)	phase(S12)	
!     	dB(S21)	phase(S21)	dB(S22)	phase(S22)	
!S-par simulation data
#  GHz  S  DB  R 50
0.000000	-0.000000	0.000000	-303.959926	180.000000	-303.959926	180.000000	-0.000000	0.000000
0.050000	-0.001490	-1.125156	-102.414739	88.721589	-102.414739	88.721589	-0.002414	-1.808304
0.100000	-0.003683	-2.238276	-96.454532	87.351660	-96.454532	87.351660	-0.005967	-3.596671
0.150000	-0.005229	-3.346902	-93.018391	85.913608	-93.018391	85.913608	-0.008475	-5.377558
0.200000	-0.006378	-4.454858	-90.622881	84.462458	-90.622881	84.462458	-0.010340	-7.157139
0.250000	-0.007361	-5.562695	-88.808113	83.029914	-88.808113	83.029914	-0.011928	-8.936167
0.300000	-0.008314	-6.670252	-87.381324	81.642954	-87.381324	81.642954	-0.013459	-10.714155
0.350000	-0.009296	-7.777387	-86.217939	80.305495	-86.217939	80.305495	-0.015031	-12.490866
0.400000	-0.010330	-8.883893	-85.260425	79.032922	-85.260425	79.032922	-0.016682	-14.265816
0.450000	-0.011427	-9.989618	-84.468172	77.838087	-84.468172	77.838087	-0.018431	-16.038653
0.500000	-0.012595	-11.094341	-83.821299	76.745916	-83.821299	76.745916	-0.020289	-17.808821
0.550000	-0.013826	-12.198006	-83.295842	75.770445	-83.295842	75.770445	-0.022245	-19.576187
0.600000	-0.015113	-13.300551	-82.876809	74.931808	-82.876809	74.931808	-0.024287	-21.340580
0.650000	-0.016449	-14.401902	-82.554991	74.257596	-82.554991	74.257596	-0.026406	-23.101791
0.700000	-0.017829	-15.501996	-82.323936	73.782054	-82.323936	73.782054	-0.028590	-24.859630
0.750000	-0.019245	-16.600779	-82.179184	73.548101	-82.179184	73.548101	-0.030829	-26.613927
0.800000	-0.020692	-17.698170	-82.119623	73.619086	-82.119623	73.619086	-0.033112	-28.364432
0.850000	-0.022164	-18.794028	-82.148002	74.100445	-82.148002	74.100445	-0.035430	-30.110727
0.900000	-0.023654	-19.888446	-82.253808	75.058979	-82.253808	75.058979	-0.037769	-31.853030
0.950000	-0.025156	-20.981392	-82.432358	76.616217	-82.432358	76.616217	-0.040122	-33.591225
1.000000	-0.026666	-22.072839	-82.675054	78.925253	-82.675054	78.925253	-0.042480	-35.325206
1.050000	-0.028181	-23.162759	-82.965839	82.172046	-82.965839	82.172046	-0.044837	-37.054875
1.100000	-0.029696	-24.251131	-83.275922	86.565458	-83.275922	86.565458	-0.047186	-38.780144
1.150000	-0.031209	-25.337813	-83.549071	92.408773	-83.549071	92.408773	-0.049523	-40.500593
1.200000	-0.032717	-26.422829	-83.701491	99.741527	-83.701491	99.741527	-0.051842	-42.216273
1.250000	-0.034219	-27.506226	-83.642709	108.297289	-83.642709	108.297289	-0.054140	-43.927308
1.300000	-0.035714	-28.587983	-83.295414	117.530494	-83.295414	117.530494	-0.056417	-45.633635
1.350000	-0.037199	-29.668079	-82.635288	126.660835	-82.635288	126.660835	-0.058669	-47.335194
1.400000	-0.038675	-30.746492	-81.704704	134.946377	-81.704704	134.946377	-0.060895	-49.031931
1.450000	-0.040141	-31.823192	-80.586449	141.918562	-80.586449	141.918562	-0.063094	-50.723768
1.500000	-0.041596	-32.897975	-79.347900	147.313260	-79.347900	147.313260	-0.065264	-52.410141
1.550000	-0.043041	-33.971009	-78.088166	151.419913	-78.088166	151.419913	-0.067407	-54.091550
1.600000	-0.044476	-35.042270	-76.847357	154.442734	-76.847357	154.442734	-0.069524	-55.767962
1.650000	-0.045901	-36.111739	-75.647089	156.586162	-75.647089	156.586162	-0.071616	-57.439346
1.700000	-0.047317	-37.179285	-74.491901	157.995046	-74.491901	157.995046	-0.073681	-59.105378
1.750000	-0.048724	-38.245016	-73.392890	158.865361	-73.392890	158.865361	-0.075724	-60.766402
1.800000	-0.050124	-39.308857	-72.346613	159.290997	-72.346613	159.290997	-0.077745	-62.422255
1.850000	-0.051516	-40.370786	-71.350901	159.361493	-71.350901	159.361493	-0.079746	-64.072925
1.900000	-0.052902	-41.430779	-70.402712	159.145942	-70.402712	159.145942	-0.081728	-65.718406
1.950000	-0.054283	-42.488815	-69.498717	158.697866	-69.498717	158.697866	-0.083692	-67.358697
2.000000	-0.055659	-43.544872	-68.635602	158.059012	-68.635602	158.059012	-0.085642	-68.993804
2.050000	-0.057031	-44.598929	-67.810220	157.262206	-67.810220	157.262206	-0.087578	-70.623737
2.100000	-0.058400	-45.650965	-67.019659	156.333495	-67.019659	156.333495	-0.089502	-72.248511
2.150000	-0.059767	-46.700959	-66.261259	155.293724	-66.261259	155.293724	-0.091417	-73.868147
2.200000	-0.061133	-47.748892	-65.532613	154.159726	-65.532613	154.159726	-0.093324	-75.482673
2.250000	-0.062498	-48.794745	-64.831546	152.945205	-64.831546	152.945205	-0.095225	-77.092119
2.300000	-0.063864	-49.838499	-64.156101	151.661406	-64.156101	151.661406	-0.097122	-78.696524
2.350000	-0.065232	-50.880138	-63.504516	150.317628	-63.504516	150.317628	-0.099016	-80.295931
2.400000	-0.066602	-51.919644	-62.875203	148.921611	-62.875203	148.921611	-0.100910	-81.890389
2.450000	-0.067975	-52.957003	-62.266730	147.479846	-62.266730	147.479846	-0.102805	-83.479952
2.500000	-0.069351	-53.992198	-61.677802	145.997805	-61.677802	145.997805	-0.104703	-85.064680
2.550000	-0.070733	-55.025122	-61.106420	144.478769	-61.106420	144.478769	-0.106605	-86.644435
2.600000	-0.072120	-56.055855	-60.552451	142.928370	-60.552451	142.928370	-0.108514	-88.219497
2.650000	-0.073513	-57.084385	-60.014917	141.349945	-60.014917	141.349945	-0.110431	-89.789943
2.700000	-0.074914	-58.110703	-59.492928	139.746377	-59.492928	139.746377	-0.112357	-91.355857
2.750000	-0.076322	-59.134797	-58.985674	138.120174	-58.985674	138.120174	-0.114293	-92.917326
2.800000	-0.077738	-60.156661	-58.492411	136.473525	-58.492411	136.473525	-0.116242	-94.474441
2.850000	-0.079164	-61.176286	-58.012461	134.808348	-58.012461	134.808348	-0.118204	-96.027302
2.900000	-0.080599	-62.193667	-57.545202	133.126338	-57.545202	133.126338	-0.120180	-97.576012
2.950000	-0.082045	-63.208797	-57.090061	131.428996	-57.090061	131.428996	-0.122173	-99.120678
3.000000	-0.083502	-64.221674	-56.646510	129.717658	-56.646510	129.717658	-0.124183	-100.661413
3.050000	-0.084971	-65.232293	-56.214063	127.993522	-56.214063	127.993522	-0.126211	-102.198336
3.100000	-0.086452	-66.240654	-55.792270	126.257664	-55.792270	126.257664	-0.128258	-103.731570
3.150000	-0.087946	-67.246755	-55.380714	124.511059	-55.380714	124.511059	-0.130327	-105.261243
3.200000	-0.089454	-68.250597	-54.979010	122.754593	-54.979010	122.754593	-0.132416	-106.787486
3.250000	-0.090976	-69.252181	-54.586798	120.989077	-54.586798	120.989077	-0.134529	-108.310438
3.300000	-0.092513	-70.251511	-54.203744	119.215254	-54.203744	119.215254	-0.136665	-109.830240
3.350000	-0.094065	-71.248591	-53.829537	117.433814	-53.829537	117.433814	-0.138826	-111.347039
3.400000	-0.095633	-72.243424	-53.463886	115.645394	-53.463886	115.645394	-0.141012	-112.860985
3.450000	-0.097217	-73.236018	-53.106517	113.850589	-53.106517	113.850589	-0.143224	-114.372234
3.500000	-0.098819	-74.226380	-52.757177	112.049958	-52.757177	112.049958	-0.145464	-115.880946
3.550000	-0.100438	-75.214517	-52.415624	110.244024	-52.415624	110.244024	-0.147732	-117.387285
3.600000	-0.102075	-76.200440	-52.081634	108.433282	-52.081634	108.433282	-0.150029	-118.891420
3.650000	-0.103731	-77.184159	-51.754993	106.618200	-51.754993	106.618200	-0.152355	-120.393524
3.700000	-0.105407	-78.165686	-51.435501	104.799224	-51.435501	104.799224	-0.154712	-121.893773
3.750000	-0.107102	-79.145033	-51.122967	102.976774	-51.122967	102.976774	-0.157100	-123.392349
3.800000	-0.108819	-80.122121	-50.817041	101.151139	-50.817041	101.151139	-0.159521	-124.889382
3.850000	-0.110556	-81.097059	-50.517748	99.322849	-50.517748	99.322849	-0.161975	-126.385134
3.900000	-0.112315	-82.069863	-50.224924	97.492267	-50.224924	97.492267	-0.164463	-127.879801
3.950000	-0.114096	-83.040551	-49.938411	95.659736	-49.938411	95.659736	-0.166984	-129.373581
4.000000	-0.115900	-84.009140	-49.658060	93.825583	-49.658060	93.825583	-0.169541	-130.866676
4.050000	-0.117726	-84.975650	-49.383729	91.990117	-49.383729	91.990117	-0.172132	-132.359293
4.100000	-0.119577	-85.940101	-49.115280	90.153628	-49.115280	90.153628	-0.174760	-133.851643
4.150000	-0.121451	-86.902513	-48.852583	88.316388	-48.852583	88.316388	-0.177424	-135.343941
4.200000	-0.123350	-87.862908	-48.595512	86.478651	-48.595512	86.478651	-0.180126	-136.836405
4.250000	-0.125274	-88.821310	-48.343946	84.640647	-48.343946	84.640647	-0.182865	-138.329259
4.300000	-0.127224	-89.777743	-48.097770	82.802586	-48.097770	82.802586	-0.185643	-139.822730
4.350000	-0.129201	-90.732231	-47.856870	80.964655	-47.856870	80.964655	-0.188460	-141.317049
4.400000	-0.131204	-91.684800	-47.621141	79.127017	-47.621141	79.127017	-0.191316	-142.812451
4.450000	-0.133234	-92.635476	-47.390478	77.289807	-47.390478	77.289807	-0.194213	-144.309177
4.500000	-0.135292	-93.584288	-47.164780	75.453131	-47.164780	75.453131	-0.197151	-145.807468
4.550000	-0.137379	-94.531263	-46.943952	73.617066	-46.943952	73.617066	-0.200130	-147.307574
4.600000	-0.139495	-95.476432	-46.727897	71.781656	-46.727897	71.781656	-0.203151	-148.809747
4.650000	-0.141639	-96.419823	-46.516526	69.946907	-46.516526	69.946907	-0.206214	-150.314242
4.700000	-0.143814	-97.361468	-46.309749	68.112790	-46.309749	68.112790	-0.209321	-151.821320
4.750000	-0.146019	-98.301399	-46.107477	66.279234	-46.107477	66.279234	-0.212471	-153.331246
4.800000	-0.148255	-99.239649	-45.909626	64.446126	-45.909626	64.446126	-0.215665	-154.844290
4.850000	-0.150523	-100.176251	-45.716107	62.613308	-45.716107	62.613308	-0.218904	-156.360724
4.900000	-0.152823	-101.111239	-45.526835	60.780575	-45.526835	60.780575	-0.222189	-157.880827
4.950000	-0.155155	-102.044648	-45.341721	58.947676	-45.341721	58.947676	-0.225519	-159.404882
5.000000	-0.157520	-102.976515	-45.160673	57.114315	-45.160673	57.114315	-0.228895	-160.933174
5.050000	-0.159920	-103.906812	-44.983612	55.280097	-44.983612	55.280097	-0.232320	-162.466207
5.100000	-0.162354	-104.835644	-44.810425	53.444657	-44.810425	53.444657	-0.235793	-164.004092
5.150000	-0.164823	-105.763048	-44.641000	51.607583	-44.641000	51.607583	-0.239314	-165.547132
5.200000	-0.167326	-106.689065	-44.475218	49.768445	-44.475218	49.768445	-0.242883	-167.095631
5.250000	-0.169866	-107.613733	-44.312947	47.926814	-44.312947	47.926814	-0.246501	-168.649901
5.300000	-0.172441	-108.537093	-44.154044	46.082286	-44.154044	46.082286	-0.250168	-170.210257
5.350000	-0.175053	-109.459187	-43.998356	44.234504	-43.998356	44.234504	-0.253886	-171.777019
5.400000	-0.177702	-110.380056	-43.845717	42.383192	-43.845717	42.383192	-0.257653	-173.350511
5.450000	-0.180389	-111.299743	-43.695953	40.528184	-43.695953	40.528184	-0.261472	-174.931062
5.500000	-0.183113	-112.218291	-43.548884	38.669456	-43.548884	38.669456	-0.265342	-176.519008
5.550000	-0.185876	-113.135744	-43.404333	36.807151	-43.404333	36.807151	-0.269264	-178.114688
5.600000	-0.188678	-114.052147	-43.262127	34.941596	-43.262127	34.941596	-0.273237	-179.718443
5.650000	-0.191520	-114.967545	-43.122111	33.073306	-43.122111	33.073306	-0.277264	178.669375
5.700000	-0.194401	-115.881984	-42.984151	31.202972	-42.984151	31.202972	-0.281343	177.048415
5.750000	-0.197323	-116.795512	-42.848148	29.331429	-42.848148	29.331429	-0.285475	175.418319
5.800000	-0.200286	-117.708174	-42.714037	27.459611	-42.714037	27.459611	-0.289661	173.778724
5.850000	-0.203286	-118.620085	-42.581804	25.588335	-42.581804	25.588335	-0.293897	172.130160
5.900000	-0.206332	-119.531150	-42.451442	23.718829	-42.451442	23.718829	-0.298192	170.470380
5.950000	-0.209421	-120.441498	-42.323031	21.851878	-42.323031	21.851878	-0.302541	168.799978
6.000000	-0.212552	-121.351178	-42.196669	19.988207	-42.196669	19.988207	-0.306945	167.118575
6.050000	-0.215726	-122.260240	-42.072480	18.128362	-42.072480	18.128362	-0.311403	165.425786
6.100000	-0.218943	-123.168737	-41.950607	16.272688	-41.950607	16.272688	-0.315917	163.721223
6.150000	-0.222205	-124.076720	-41.831206	14.421325	-41.831206	14.421325	-0.320486	162.004494
6.200000	-0.225510	-124.984242	-41.714435	12.574227	-41.714435	12.574227	-0.325110	160.275204
6.250000	-0.228861	-125.891355	-41.600448	10.731181	-41.600448	10.731181	-0.329789	158.532955
6.300000	-0.232257	-126.798108	-41.489430	8.891916	-41.489430	8.891916	-0.334524	156.777044
6.350000	-0.235699	-127.704564	-41.381491	7.055901	-41.381491	7.055901	-0.339314	155.007349
6.400000	-0.239187	-128.610777	-41.276755	5.222637	-41.276755	5.222637	-0.344159	153.223464
6.450000	-0.242721	-129.516804	-41.175336	3.391598	-41.175336	3.391598	-0.349059	151.424981
6.500000	-0.246301	-130.422701	-41.077339	1.562258	-41.077339	1.562258	-0.354013	149.611489
6.550000	-0.249929	-131.328525	-40.982858	-0.265884	-40.982858	-0.265884	-0.359021	147.782579
6.600000	-0.253604	-132.234333	-40.891980	-2.093293	-40.891980	-2.093293	-0.364083	145.937839
6.650000	-0.257326	-133.140185	-40.804790	-3.920380	-40.804790	-3.920380	-0.369197	144.076859
6.700000	-0.261097	-134.046139	-40.721367	-5.747500	-40.721367	-5.747500	-0.374364	142.199231
6.750000	-0.264916	-134.952254	-40.641790	-7.574938	-40.641790	-7.574938	-0.379583	140.304545
6.800000	-0.268783	-135.858591	-40.566135	-9.402912	-40.566135	-9.402912	-0.384853	138.392398
6.850000	-0.272699	-136.765210	-40.494482	-11.231567	-40.494482	-11.231567	-0.390174	136.462386
6.900000	-0.276665	-137.672179	-40.426952	-13.060984	-40.426952	-13.060984	-0.395544	134.513910
6.950000	-0.280680	-138.579559	-40.363633	-14.891160	-40.363633	-14.891160	-0.400963	132.546563
7.000000	-0.284746	-139.487412	-40.304572	-16.722007	-40.304572	-16.722007	-0.406430	130.560160
7.050000	-0.288861	-140.395800	-40.249858	-18.553372	-40.249858	-18.553372	-0.411943	128.554322
7.100000	-0.293027	-141.304788	-40.199584	-20.385028	-40.199584	-20.385028	-0.417500	126.528679
7.150000	-0.297242	-142.214440	-40.153847	-22.216675	-40.153847	-22.216675	-0.423102	124.482874
7.200000	-0.301509	-143.124822	-40.112744	-24.047938	-40.112744	-24.047938	-0.428745	122.416558
7.250000	-0.305826	-144.036000	-40.076378	-25.878367	-40.076378	-25.878367	-0.434430	120.329397
7.300000	-0.310194	-144.948040	-40.044855	-27.707440	-40.044855	-27.707440	-0.440153	118.221071
7.350000	-0.314614	-145.861011	-40.018281	-29.534553	-40.018281	-29.534553	-0.445914	116.091277
7.400000	-0.319084	-146.774980	-39.996768	-31.359031	-39.996768	-31.359031	-0.451712	113.939728
7.450000	-0.323606	-147.690016	-39.980426	-33.180115	-39.980426	-33.180115	-0.457543	111.766159
7.500000	-0.328180	-148.606188	-39.969370	-34.996970	-39.969370	-34.996970	-0.463407	109.570325
7.550000	-0.332806	-149.523595	-39.963834	-36.808541	-39.963834	-36.808541	-0.469303	107.351512
7.600000	-0.337484	-150.442283	-39.963818	-38.613913	-39.963818	-38.613913	-0.475227	105.110010
7.650000	-0.342214	-151.362323	-39.969439	-40.411988	-39.969439	-40.411988	-0.481178	102.845654
7.700000	-0.346996	-152.283788	-39.980812	-42.201585	-39.980812	-42.201585	-0.487155	100.558308
7.750000	-0.351830	-153.206751	-39.998052	-43.981426	-39.998052	-43.981426	-0.493155	98.247867
7.800000	-0.356716	-154.131286	-40.021274	-45.750138	-40.021274	-45.750138	-0.499178	95.914264
7.850000	-0.361654	-155.057467	-40.050591	-47.506248	-40.050591	-47.506248	-0.505220	93.557463
7.900000	-0.366645	-155.985369	-40.086116	-49.248177	-40.086116	-49.248177	-0.511282	91.177472
7.950000	-0.371687	-156.915068	-40.127958	-50.974234	-40.127958	-50.974234	-0.517361	88.774336
8.000000	-0.376781	-157.846642	-40.176227	-52.682608	-40.176227	-52.682608	-0.523457	86.348144
8.050000	-0.381927	-158.780166	-40.231029	-54.371362	-40.231029	-54.371362	-0.529568	83.899030
8.100000	-0.387126	-159.715721	-40.292467	-56.038419	-40.292467	-56.038419	-0.535694	81.427175
8.150000	-0.392376	-160.653407	-40.360706	-57.681267	-40.360706	-57.681267	-0.541835	78.932567
8.200000	-0.397679	-161.593309	-40.435842	-59.297429	-40.435842	-59.297429	-0.547990	76.415498
8.250000	-0.403034	-162.535484	-40.517894	-60.884581	-40.517894	-60.884581	-0.554160	73.876548
8.300000	-0.408441	-163.480012	-40.606943	-62.439941	-40.606943	-62.439941	-0.560345	71.316107
8.350000	-0.413898	-164.426976	-40.703060	-63.960504	-40.703060	-63.960504	-0.566546	68.734618
8.400000	-0.419408	-165.376460	-40.806308	-65.443017	-40.806308	-65.443017	-0.572764	66.132582
8.450000	-0.424968	-166.328547	-40.916732	-66.883955	-40.916732	-66.883955	-0.579003	63.510554
8.500000	-0.430579	-167.283322	-41.034361	-68.279484	-41.034361	-68.279484	-0.585263	60.869147
8.550000	-0.436242	-168.240869	-41.159203	-69.625429	-41.159203	-69.625429	-0.591548	58.209031
8.600000	-0.441954	-169.201277	-41.291232	-70.917237	-41.291232	-70.917237	-0.597863	55.530931
8.650000	-0.447718	-170.164631	-41.430391	-72.149933	-41.430391	-72.149933	-0.604210	52.835628
8.700000	-0.453531	-171.131021	-41.576569	-73.318079	-41.576569	-73.318079	-0.610596	50.123959
8.750000	-0.459394	-172.100536	-41.729599	-74.415733	-41.729599	-74.415733	-0.617025	47.396815
8.800000	-0.465308	-173.073336	-41.889307	-75.434567	-41.889307	-75.434567	-0.623505	44.654842
8.850000	-0.471271	-174.049447	-42.055250	-76.368996	-42.055250	-76.368996	-0.630042	41.899374
8.900000	-0.477284	-175.028959	-42.226958	-77.211301	-42.226958	-77.211301	-0.636644	39.131452
8.950000	-0.483345	-176.011967	-42.403809	-77.953156	-42.403809	-77.953156	-0.643318	36.352159
9.000000	-0.489455	-176.998564	-42.584992	-78.585660	-42.584992	-78.585660	-0.650075	33.562624
9.050000	-0.495612	-177.988846	-42.769469	-79.099409	-42.769469	-79.099409	-0.656923	30.764007
9.100000	-0.501818	-178.982909	-42.955922	-79.484646	-42.955922	-79.484646	-0.663874	27.957506
9.150000	-0.508071	-179.980852	-43.142706	-79.731484	-43.142706	-79.731484	-0.670937	25.144344
9.200000	-0.514371	179.017227	-43.327789	-79.830257	-43.327789	-79.830257	-0.678125	22.325771
9.250000	-0.520717	178.011227	-43.508703	-79.772017	-43.508703	-79.772017	-0.685449	19.503055
9.300000	-0.527110	177.001047	-43.682498	-79.549198	-43.682498	-79.549198	-0.692922	16.677478
9.350000	-0.533549	175.986582	-43.845714	-79.156484	-43.845714	-79.156484	-0.700557	13.850334
9.400000	-0.540033	174.967680	-43.994160	-78.590015	-43.994160	-78.590015	-0.708370	11.022932
9.450000	-0.546562	173.944229	-44.123291	-77.852574	-44.123291	-77.852574	-0.716374	8.196612
9.500000	-0.553135	172.916169	-44.228556	-76.954777	-44.228556	-76.954777	-0.724582	5.372668
9.550000	-0.559752	171.883389	-44.305110	-75.912381	-44.305110	-75.912381	-0.733008	2.552378
9.600000	-0.566411	170.845777	-44.348285	-74.748938	-44.348285	-74.748938	-0.741666	-0.262995
9.650000	-0.573112	169.803218	-44.353943	-73.495955	-44.353943	-73.495955	-0.750571	-3.072209
9.700000	-0.579853	168.755594	-44.318853	-72.192245	-44.318853	-72.192245	-0.759738	-5.874048
9.750000	-0.586634	167.702786	-44.241042	-70.882350	-44.241042	-70.882350	-0.769181	-8.667325
9.800000	-0.593453	166.644671	-44.120056	-69.614139	-44.120056	-69.614139	-0.778914	-11.450889
9.850000	-0.600309	165.581122	-43.957081	-68.435845	-43.957081	-68.435845	-0.788952	-14.223624
9.900000	-0.607200	164.512012	-43.754895	-67.392983	-43.754895	-67.392983	-0.799308	-16.984457
9.950000	-0.614124	163.437207	-43.517663	-66.525606	-43.517663	-66.525606	-0.809996	-19.732359
10.000000	-0.621077	162.356571	-43.250616	-65.866264	-43.250616	-65.866264	-0.821031	-22.466347
