! freq	dB(S11)	phase(S11)	dB(S12)	phase(S12)	
!     	dB(S21)	phase(S21)	dB(S22)	phase(S22)	
!S-par simulation data
#  GHz  S  DB  R 50
0.000000	-86.467368	0.000000	-0.000413	0.000000	-0.000413	0.000000	-86.467368	0.000000
0.050000	-31.377745	-93.306526	-0.007434	-3.280228	-0.007434	-3.280228	-31.377798	-93.305943
0.100000	-25.382856	-96.736337	-0.023103	-6.521398	-0.023103	-6.521398	-25.382870	-96.735325
0.150000	-21.900137	-100.085885	-0.043598	-9.737937	-0.043598	-9.737937	-21.900113	-100.084623
0.200000	-19.451178	-103.376060	-0.069127	-12.939415	-0.069127	-12.939415	-19.451133	-103.374644
0.250000	-17.570856	-106.616841	-0.100042	-16.126049	-0.100042	-16.126049	-17.570808	-106.615264
0.300000	-16.052195	-109.816183	-0.136427	-19.295147	-0.136427	-19.295147	-16.052156	-109.814376
0.350000	-14.784052	-112.981284	-0.177966	-22.444469	-0.177966	-22.444469	-14.784026	-112.979162
0.400000	-13.700902	-116.115756	-0.224406	-25.571510	-0.224406	-25.571510	-13.700890	-116.113238
0.450000	-12.761510	-119.220315	-0.275585	-28.673042	-0.275585	-28.673042	-12.761507	-119.217335
0.500000	-11.935642	-122.297114	-0.330900	-31.748589	-0.330900	-31.748589	-11.935645	-122.293624
0.550000	-11.202664	-125.346032	-0.389971	-34.796787	-0.389971	-34.796787	-11.202666	-125.342002
0.600000	-10.548279	-128.365205	-0.452533	-37.815136	-0.452533	-37.815136	-10.548278	-128.360614
0.650000	-9.959908	-131.355009	-0.518060	-40.803782	-0.518060	-40.803782	-9.959900	-131.349846
0.700000	-9.428150	-134.315139	-0.586131	-43.762409	-0.586131	-43.762409	-9.428132	-134.309398
0.750000	-8.946245	-137.244150	-0.656394	-46.689661	-0.656394	-46.689661	-8.946216	-137.237832
0.800000	-8.508083	-140.141765	-0.728429	-49.585405	-0.728429	-49.585405	-8.508043	-140.134870
0.850000	-8.108435	-143.008207	-0.801822	-52.450018	-0.801822	-52.450018	-8.108384	-143.000740
0.900000	-7.743080	-145.843591	-0.876187	-55.283753	-0.876187	-55.283753	-7.743017	-145.835557
0.950000	-7.408544	-148.648015	-0.951155	-58.086827	-0.951155	-58.086827	-7.408471	-148.639417
1.000000	-7.101793	-151.421878	-1.026366	-60.859738	-1.026366	-60.859738	-7.101711	-151.412720
1.050000	-6.820207	-154.165750	-1.101471	-63.603129	-1.101471	-63.603129	-6.820118	-154.156036
1.100000	-6.561508	-156.880354	-1.176140	-66.317776	-1.176140	-66.317776	-6.561414	-156.870084
1.150000	-6.323706	-159.566547	-1.250056	-69.004576	-1.250056	-69.004576	-6.323607	-159.555722
1.200000	-6.105051	-162.225313	-1.322919	-71.664531	-1.322919	-71.664531	-6.104950	-162.213930
1.250000	-5.904000	-164.857738	-1.394445	-74.298739	-1.394445	-74.298739	-5.903897	-164.845793
1.300000	-5.719435	-167.464488	-1.464313	-76.907879	-1.464313	-76.907879	-5.719332	-167.451974
1.350000	-5.549875	-170.047403	-1.532317	-79.493774	-1.532317	-79.493774	-5.549773	-170.034309
1.400000	-5.394246	-172.607817	-1.598219	-82.057754	-1.598219	-82.057754	-5.394146	-172.594131
1.450000	-5.251593	-175.147126	-1.661801	-84.601205	-1.661801	-84.601205	-5.251495	-175.132832
1.500000	-5.121594	-177.665758	-1.722687	-87.124586	-1.722687	-87.124586	-5.121499	-177.650837
1.550000	-5.002525	179.832871	-1.780977	-89.631254	-1.780977	-89.631254	-5.002432	179.848441
1.600000	-4.894156	177.348114	-1.836363	-92.121888	-1.836363	-92.121888	-4.894067	177.364358
1.650000	-4.795899	174.878414	-1.888678	-94.598058	-1.888678	-94.598058	-4.795813	174.895361
1.700000	-4.707235	172.422183	-1.937761	-97.061373	-1.937761	-97.061373	-4.707152	172.439864
1.750000	-4.627712	169.977807	-1.983465	-99.513476	-1.983465	-99.513476	-4.627630	169.996258
1.800000	-4.556938	167.543645	-2.025650	-101.956047	-2.025650	-101.956047	-4.556857	167.562904
1.850000	-4.494578	165.118032	-2.064185	-104.390805	-2.064185	-104.390805	-4.494498	165.138140
1.900000	-4.440354	162.699272	-2.098944	-106.819503	-2.098944	-106.819503	-4.440273	162.720276
1.950000	-4.394037	160.285643	-2.129810	-109.243937	-2.129810	-109.243937	-4.393955	160.307591
2.000000	-4.355451	157.875391	-2.156671	-111.665945	-2.156671	-111.665945	-4.355366	157.898336
2.050000	-4.324469	155.466727	-2.179420	-114.087415	-2.179420	-114.087415	-4.324381	155.490724
2.100000	-4.301016	153.057821	-2.197955	-116.510285	-2.197955	-116.510285	-4.300924	153.082932
2.150000	-4.285066	150.646800	-2.212179	-118.936553	-2.212179	-118.936553	-4.284967	150.673089
2.200000	-4.276644	148.231740	-2.221998	-121.368282	-2.221998	-121.368282	-4.276538	148.259278
2.250000	-4.275831	145.810661	-2.227321	-123.807608	-2.227321	-123.807608	-4.275716	145.839523
2.300000	-4.282763	143.381517	-2.228065	-126.256750	-2.228065	-126.256750	-4.282639	143.411784
2.350000	-4.297639	140.942189	-2.224145	-128.718020	-2.224145	-128.718020	-4.297504	140.973949
2.400000	-4.320723	138.490476	-2.215484	-131.193836	-2.215484	-131.193836	-4.320575	138.523825
2.450000	-4.352351	136.024086	-2.202009	-133.686730	-2.202009	-133.686730	-4.352190	136.059128
2.500000	-4.392941	133.540624	-2.183651	-136.199371	-2.183651	-136.199371	-4.392765	133.577474
2.550000	-4.443426	131.036605	-2.160126	-138.735696	-2.160126	-138.735696	-4.443234	131.075394
2.600000	-4.504045	128.510118	-2.131593	-141.297855	-2.131593	-141.297855	-4.503836	128.550988
2.650000	-4.575542	125.958372	-2.098005	-143.889048	-2.098005	-143.889048	-4.575314	126.001480
2.700000	-4.658798	123.378425	-2.059328	-146.512687	-2.059328	-146.512687	-4.658550	123.423948
2.750000	-4.754178	120.768989	-2.015831	-149.170324	-2.015831	-149.170324	-4.753908	120.817116
2.800000	-4.864071	118.123752	-1.966990	-151.869374	-1.966990	-151.869374	-4.863777	118.174718
2.850000	-4.989431	115.440582	-1.913053	-154.612527	-1.913053	-154.612527	-4.989111	115.494646
2.900000	-5.131986	112.715859	-1.854061	-157.404304	-1.854061	-157.404304	-5.131638	112.773323
2.950000	-5.293794	109.945798	-1.790090	-160.249581	-1.790090	-160.249581	-5.293415	110.007010
3.000000	-5.477314	107.126467	-1.721254	-163.153625	-1.721254	-163.153625	-5.476900	107.191835
3.050000	-5.685501	104.253822	-1.647719	-166.122126	-1.647719	-166.122126	-5.685046	104.323831
3.100000	-5.921925	101.323781	-1.569708	-169.161232	-1.569708	-169.161232	-5.921424	101.399008
3.150000	-6.191247	98.331621	-1.487470	-172.278500	-1.487470	-172.278500	-6.190690	98.412774
3.200000	-6.498939	95.273474	-1.401410	-175.481342	-1.401410	-175.481342	-6.498315	95.361422
3.250000	-6.851415	92.146854	-1.312089	-178.776639	-1.312089	-178.776639	-6.850707	92.242664
3.300000	-7.257086	88.949665	-1.220151	177.827360	-1.220151	177.827360	-7.256272	89.054687
3.350000	-7.728097	85.679686	-1.126354	174.318439	-1.126354	174.318439	-7.727141	85.795718
3.400000	-8.273330	82.346658	-1.031862	170.699794	-1.031862	170.699794	-8.272187	82.475796
3.450000	-8.919640	78.949259	-0.937760	166.942331	-0.937760	166.942331	-8.918231	79.094841
3.500000	-9.682730	75.512540	-0.845493	163.057644	-0.845493	163.057644	-9.680943	75.678498
3.550000	-10.606565	72.066047	-0.757028	159.019060	-0.757028	159.019060	-10.604200	72.258801
3.600000	-11.741706	68.678238	-0.674492	154.823223	-0.674492	154.823223	-11.738410	68.907334
3.650000	-13.172360	65.483587	-0.600449	150.461519	-0.600449	150.461519	-13.167434	65.764710
3.700000	-15.043045	62.778460	-0.537882	145.926687	-0.537882	145.926687	-15.034902	63.139950
3.750000	-17.633810	61.326906	-0.490206	141.213509	-0.490206	141.213509	-17.617977	61.827304
3.800000	-21.592976	63.944524	-0.461592	136.317020	-0.461592	136.317020	-21.550818	64.734428
3.850000	-28.384746	88.596532	-0.456047	131.241403	-0.456047	131.241403	-28.171450	89.800422
3.900000	-27.397204	170.361764	-0.478053	125.992972	-0.478053	125.992972	-27.216206	169.161908
3.950000	-20.470088	-168.964283	-0.532207	120.583555	-0.532207	120.583555	-20.431524	-169.732980
4.000000	-16.238141	-167.528773	-0.623018	115.031062	-0.623018	115.031062	-16.223046	-168.026193
4.050000	-13.307960	-170.075247	-0.754667	109.359647	-0.754667	109.359647	-13.300019	-170.439506
4.100000	-11.091715	-174.072180	-0.930736	103.599342	-0.930736	103.599342	-11.086813	-174.359069
4.150000	-9.331634	-178.756446	-1.153948	97.785057	-1.153948	97.785057	-9.328287	-178.993072
4.200000	-7.894543	176.194503	-1.426473	91.955267	-1.426473	91.955267	-7.892090	175.992932
4.250000	-6.701162	170.960554	-1.747929	86.149505	-1.747929	86.149505	-6.699272	170.784914
4.300000	-5.700566	165.648766	-2.117696	80.405049	-2.117696	80.405049	-5.699057	165.493023
4.350000	-4.857004	160.334636	-2.533953	74.755240	-2.533953	74.755240	-4.855771	160.194633
4.400000	-4.144112	155.073499	-2.994233	69.228604	-2.994233	69.228604	-4.143094	154.946253
4.450000	-3.540913	149.905852	-3.495481	63.846950	-3.495481	63.846950	-3.540071	149.789186
4.500000	-3.030023	144.859534	-4.034558	58.625003	-4.034558	58.625003	-3.029334	144.751832
4.550000	-2.597284	139.953386	-4.608575	53.572813	-4.608575	53.572813	-2.596732	139.853430
4.600000	-2.231836	135.202540	-5.214590	48.700099	-5.214590	48.700099	-2.231407	135.109385
4.650000	-1.921561	130.605466	-5.850848	44.000567	-5.850848	44.000567	-1.921242	130.518423
4.700000	-1.658817	126.165614	-6.515577	39.475770	-6.515577	39.475770	-1.658591	126.084141
4.750000	-1.436346	121.880110	-7.207758	35.121506	-7.207758	35.121506	-1.436194	121.803786
4.800000	-1.248001	117.743628	-7.927070	30.931892	-7.927070	30.931892	-1.247896	117.672119
4.850000	-1.088588	113.749209	-8.673949	26.900041	-8.673949	26.900041	-1.088497	113.682232
4.900000	-0.953722	109.888903	-9.449669	23.018659	-9.449669	23.018659	-0.953606	109.826202
4.950000	-0.839709	106.154266	-10.256430	19.280576	-10.256430	19.280576	-0.839522	106.095580
5.000000	-0.743440	102.536723	-11.097491	15.679215	-11.097491	15.679215	-0.743130	102.481758
5.050000	-0.662560	99.029993	-11.976295	12.211803	-11.976295	12.211803	-0.662071	98.978388
5.100000	-0.594521	95.623398	-12.899832	8.871514	-12.899832	8.871514	-0.593800	95.574718
5.150000	-0.537475	92.309211	-13.876063	5.656727	-13.876063	5.656727	-0.536477	92.262925
5.200000	-0.489856	89.080157	-14.915512	2.568978	-14.915512	2.568978	-0.488545	89.035637
5.250000	-0.450330	85.929413	-16.032230	-0.385585	-16.032230	-0.385585	-0.448692	85.885952
5.300000	-0.417758	82.850592	-17.245343	-3.193694	-17.245343	-3.193694	-0.415807	82.807441
5.350000	-0.391167	79.837701	-18.581613	-5.830387	-18.581613	-5.830387	-0.388946	79.794125
5.400000	-0.369724	76.885100	-20.079910	-8.250003	-20.079910	-8.250003	-0.367308	76.840452
5.450000	-0.353099	73.992409	-21.791184	-10.324872	-21.791184	-10.324872	-0.350602	73.946179
5.500000	-0.339922	71.144701	-23.826457	-11.923935	-23.826457	-11.923935	-0.337455	71.096695
5.550000	-0.330090	68.342091	-26.351467	-12.575193	-26.351467	-12.575193	-0.327778	68.292331
5.600000	-0.323200	65.580118	-29.715494	-10.898162	-29.715494	-10.898162	-0.321159	65.528889
5.650000	-0.318931	62.854623	-34.692408	0.276143	-34.692408	0.276143	-0.317255	62.802429
5.700000	-0.317032	60.161750	-39.660564	50.176549	-39.660564	50.176549	-0.315781	60.109246
5.750000	-0.317310	57.497946	-36.805719	111.108227	-36.805719	111.108227	-0.316509	57.445851
5.800000	-0.319621	54.859944	-31.425168	128.623791	-31.425168	128.623791	-0.319262	54.808961
5.850000	-0.323859	52.244739	-27.989753	131.563129	-27.989753	131.563129	-0.323903	52.195482
5.900000	-0.329950	49.649547	-25.556789	131.495671	-25.556789	131.495671	-0.330336	49.602497
5.950000	-0.337845	47.071770	-23.686559	130.338485	-23.686559	130.338485	-0.338501	47.027254
6.000000	-0.347518	44.508952	-22.171566	128.667066	-22.171566	128.667066	-0.348366	44.467141
6.050000	-0.358961	41.958746	-20.899323	126.713540	-20.899323	126.713540	-0.359926	41.919671
6.100000	-0.372187	39.418876	-19.802314	124.588912	-19.802314	124.588912	-0.373202	39.382452
6.150000	-0.387227	36.887107	-18.836907	122.352369	-18.836907	122.352369	-0.388236	36.853166
6.200000	-0.404134	34.361218	-17.973277	120.037831	-17.973277	120.037831	-0.405091	34.329534
6.250000	-0.422980	31.838976	-17.190132	117.665664	-17.190132	117.665664	-0.423853	31.809291
6.300000	-0.443954	29.318060	-16.471613	115.246790	-16.471613	115.246790	-0.444721	29.290096
6.350000	-0.467100	26.795972	-15.805660	112.790919	-15.805660	112.790919	-0.467749	26.769468
6.400000	-0.492573	24.270279	-15.182946	110.302342	-15.182946	110.302342	-0.493102	24.244993
6.450000	-0.520562	21.738437	-14.596028	107.783319	-14.596028	107.783319	-0.520973	21.714149
6.500000	-0.551294	19.197756	-14.038862	105.234620	-14.038862	105.234620	-0.551596	19.174276
6.550000	-0.585039	16.645377	-13.506450	102.655872	-13.506450	102.655872	-0.585244	16.622542
6.600000	-0.622120	14.078234	-12.994604	100.045760	-12.994604	100.045760	-0.622242	14.055910
6.650000	-0.662918	11.493020	-12.499759	97.402163	-12.499759	97.402163	-0.662973	11.471098
6.700000	-0.707886	8.886149	-12.018847	94.722211	-12.018847	94.722211	-0.707890	8.864545
6.750000	-0.757562	6.253708	-11.549196	92.002320	-11.549196	92.002320	-0.757530	6.232359
6.800000	-0.812584	3.591411	-11.088459	89.238173	-11.088459	89.238173	-0.812534	3.570272
6.850000	-0.873714	0.894546	-10.634552	86.424692	-10.634552	86.424692	-0.873661	0.873584
6.900000	-0.940886	-1.836150	-10.188193	83.564060	-10.188193	83.564060	-0.940842	-1.856953
6.950000	-1.017088	-4.617998	-9.742514	80.633594	-9.742514	80.633594	-1.017069	-4.638656
7.000000	-1.102726	-7.451783	-9.298629	77.633208	-9.298629	77.633208	-1.102745	-7.472305
7.050000	-1.199408	-10.344559	-8.855214	74.553911	-8.855214	74.553911	-1.199474	-10.364953
7.100000	-1.309092	-13.304111	-8.411114	71.385416	-8.411114	71.385416	-1.309216	-13.324390
7.150000	-1.434187	-16.338996	-7.965346	68.115969	-7.965346	68.115969	-1.434376	-16.359182
7.200000	-1.577667	-19.458545	-7.517128	64.732161	-7.517128	64.732161	-1.577929	-19.478676
7.250000	-1.743232	-22.672800	-7.065910	61.218724	-7.065910	61.218724	-1.743574	-22.692934
7.300000	-1.935519	-25.992332	-6.611430	57.558334	-6.611430	57.558334	-1.935947	-26.012563
7.350000	-2.160384	-29.427882	-6.153791	53.731432	-6.153791	53.731432	-2.160905	-29.448347
7.400000	-2.425281	-32.989670	-5.693556	49.716108	-5.693556	49.716108	-2.425903	-33.010569
7.450000	-2.739781	-36.686185	-5.231880	45.488096	-5.231880	45.488096	-2.740516	-36.707806
7.500000	-3.116294	-40.522096	-4.770676	41.020976	-4.770676	41.020976	-3.117160	-40.544847
7.550000	-3.572373	-44.496824	-4.312518	36.281277	-4.312518	36.281277	-3.573401	-44.521302
7.600000	-4.128821	-48.590317	-3.861993	31.244738	-3.861993	31.244738	-4.130064	-48.617364
7.650000	-4.814769	-52.759414	-3.424684	25.884078	-3.424684	25.884078	-4.816318	-52.790246
7.700000	-5.670055	-56.914406	-3.007796	20.176085	-3.007796	20.176085	-5.672077	-56.950801
7.750000	-6.750421	-60.878308	-2.620227	14.105402	-2.620227	14.105402	-6.753228	-60.922909
7.800000	-8.136078	-64.300001	-2.272419	7.669216	-2.272419	7.669216	-8.140287	-64.356791
7.850000	-9.945314	-66.445410	-1.975880	0.882280	-1.975880	0.882280	-9.952259	-66.520276
7.900000	-12.347026	-65.621730	-1.742283	-6.218924	-1.742283	-6.218924	-12.359934	-65.721554
7.950000	-15.463028	-57.269250	-1.582957	-13.576245	-1.582957	-13.576245	-15.490329	-57.383804
8.000000	-18.286267	-31.574249	-1.505555	-21.106156	-1.505555	-21.106156	-18.336874	-31.558792
8.050000	-17.317632	3.060880	-1.513359	-28.714888	-1.513359	-28.714888	-17.352918	3.305219
8.100000	-14.129738	19.861375	-1.605252	-36.312169	-1.605252	-36.312169	-14.141812	20.115435
8.150000	-11.406958	24.076105	-1.775722	-43.827046	-1.775722	-43.827046	-11.409256	24.296545
8.200000	-9.390665	23.264157	-2.016423	-51.227239	-2.016423	-51.227239	-9.388210	23.464008
8.250000	-7.923605	20.420987	-2.319541	-58.543009	-2.319541	-58.543009	-7.917591	20.614116
8.300000	-6.886250	16.854843	-2.685686	-65.902562	-2.685686	-65.902562	-6.875910	17.052594
8.350000	-6.220343	13.514419	-3.148602	-73.579339	-3.148602	-73.579339	-6.202449	13.723321
8.400000	-5.845589	11.954770	-3.852783	-81.816166	-3.852783	-81.816166	-5.812826	12.151421
8.450000	-5.231777	13.883728	-5.134633	-88.804080	-5.134633	-88.804080	-5.183444	13.940467
8.500000	-3.838277	13.129164	-6.500987	-88.768836	-6.500987	-88.768836	-3.803791	13.022667
8.550000	-2.806420	7.261207	-6.843140	-87.236880	-6.843140	-87.236880	-2.789392	7.144216
8.600000	-2.283479	1.325599	-6.918180	-89.090698	-6.918180	-89.090698	-2.274606	1.235908
8.650000	-1.973785	-3.663493	-7.101071	-92.365116	-7.101071	-92.365116	-1.968600	-3.729628
8.700000	-1.755139	-7.941244	-7.380356	-95.929945	-7.380356	-95.929945	-1.751809	-7.990421
8.750000	-1.583038	-11.768959	-7.712813	-99.448425	-7.712813	-99.448425	-1.580780	-11.805660
8.800000	-1.442532	-15.267868	-8.075608	-102.830932	-8.075608	-102.830932	-1.440933	-15.295204
8.850000	-1.325210	-18.521650	-8.454335	-106.057436	-8.454335	-106.057436	-1.324041	-18.541714
8.900000	-1.226064	-21.583236	-8.840714	-109.131573	-8.840714	-109.131573	-1.225189	-21.597478
8.950000	-1.141693	-24.488404	-9.229870	-112.064052	-9.229870	-112.064052	-1.141024	-24.497860
9.000000	-1.069747	-27.260991	-9.618564	-114.865106	-9.618564	-114.865106	-1.069225	-27.266436
9.050000	-1.008152	-29.921777	-10.005179	-117.547773	-10.005179	-117.547773	-1.007737	-29.923789
9.100000	-0.955282	-32.486816	-10.388910	-120.123701	-10.388910	-120.123701	-0.954943	-32.485842
9.150000	-0.909897	-34.968185	-10.769252	-122.602151	-10.769252	-122.602151	-0.909611	-34.964584
9.200000	-0.870979	-37.375887	-11.146005	-124.991181	-11.146005	-124.991181	-0.870728	-37.369950
9.250000	-0.837687	-39.718356	-11.519180	-127.297741	-11.519180	-127.297741	-0.837459	-39.710329
9.300000	-0.809321	-42.002817	-11.888939	-129.527778	-11.888939	-129.527778	-0.809104	-41.992904
9.350000	-0.785296	-44.235530	-12.255549	-131.686344	-12.255549	-131.686344	-0.785080	-44.223909
9.400000	-0.765119	-46.421983	-12.619358	-133.777677	-12.619358	-133.777677	-0.764899	-46.408810
9.450000	-0.748377	-48.567032	-12.980775	-135.805276	-12.980775	-135.805276	-0.748148	-48.552442
9.500000	-0.734721	-50.675010	-13.340257	-137.771956	-13.340257	-137.771956	-0.734480	-50.659125
9.550000	-0.723859	-52.749818	-13.698301	-139.679889	-13.698301	-139.679889	-0.723603	-52.732744
9.600000	-0.715541	-54.794991	-14.055438	-141.530634	-14.055438	-141.530634	-0.715268	-54.776824
9.650000	-0.709559	-56.813761	-14.412232	-143.325145	-14.412232	-143.325145	-0.709270	-56.794586
9.700000	-0.705739	-58.809102	-14.769274	-145.063775	-14.769274	-145.063775	-0.705434	-58.788994
9.750000	-0.704154	-60.781707	-15.125648	-146.739497	-15.125648	-146.739497	-0.703835	-60.760736
9.800000	-0.704005	-62.740581	-15.486768	-148.372080	-15.486768	-148.372080	-0.703674	-62.718790
9.850000	-0.705954	-64.680858	-15.847914	-149.937043	-15.847914	-149.937043	-0.705616	-64.658300
9.900000	-0.709746	-66.607229	-16.211130	-151.435272	-16.211130	-151.435272	-0.709404	-66.583939
9.950000	-0.714945	-68.524295	-16.579791	-152.878341	-16.579791	-152.878341	-0.714605	-68.500291
10.000000	-0.721532	-70.432983	-16.954370	-154.264694	-16.954370	-154.264694	-0.721197	-70.408278
