! freq	dB(S11)	phase(S11)	dB(S12)	phase(S12)	
!     	dB(S21)	phase(S21)	dB(S22)	phase(S22)	
!S-par simulation data
#  GHz  S  DB  R 50
0.000000	0.000000	-0.000000	-306.781039	180.000000	-306.781039	180.000000	-0.000000	-0.000000
0.050000	-0.000588	-0.923397	-106.406689	88.954476	-106.406689	88.954476	-0.000805	-1.304449
0.100000	-0.001977	-1.842423	-100.417234	87.913699	-100.417234	87.913699	-0.002773	-2.603360
0.150000	-0.003571	-2.756568	-96.947661	86.882726	-96.947661	86.882726	-0.005143	-3.895615
0.200000	-0.005049	-3.667439	-94.526273	85.868429	-94.526273	85.868429	-0.007421	-5.182937
0.250000	-0.006376	-4.576829	-92.682992	84.874735	-92.682992	84.874735	-0.009493	-6.467769
0.300000	-0.007577	-5.485472	-91.215907	83.909535	-91.215907	83.909535	-0.011355	-7.751157
0.350000	-0.008700	-6.393779	-90.015997	82.981033	-90.015997	82.981033	-0.013058	-9.033721
0.400000	-0.009783	-7.301900	-89.019450	82.099465	-89.019450	82.099465	-0.014650	-10.315668
0.450000	-0.010850	-8.209839	-88.191082	81.282745	-88.191082	81.282745	-0.016167	-11.596923
0.500000	-0.011919	-9.117562	-87.496457	80.539282	-87.496457	80.539282	-0.017645	-12.877423
0.550000	-0.012993	-10.024994	-86.916363	79.884802	-86.916363	79.884802	-0.019101	-14.157007
0.600000	-0.014077	-10.932052	-86.437082	79.337848	-86.437082	79.337848	-0.020550	-15.435505
0.650000	-0.015171	-11.838648	-86.048667	78.920453	-86.048667	78.920453	-0.021998	-16.712753
0.700000	-0.016272	-12.744693	-85.743836	78.659032	-85.743836	78.659032	-0.023452	-17.988592
0.750000	-0.017380	-13.650059	-85.521516	78.599576	-85.521516	78.599576	-0.024917	-19.262769
0.800000	-0.018494	-14.554660	-85.377128	78.787345	-85.377128	78.787345	-0.026395	-20.535138
0.850000	-0.019612	-15.458433	-85.305367	79.273529	-85.305367	79.273529	-0.027887	-21.805604
0.900000	-0.020732	-16.361374	-85.298033	80.097174	-85.298033	80.097174	-0.029392	-23.074191
0.950000	-0.021855	-17.263375	-85.355264	81.356112	-85.355264	81.356112	-0.030911	-24.340679
1.000000	-0.022981	-18.164381	-85.471249	83.150533	-85.471249	83.150533	-0.032443	-25.604965
1.050000	-0.024108	-19.064344	-85.636556	85.601658	-85.636556	85.601658	-0.033987	-26.866952
1.100000	-0.025237	-19.963224	-85.835545	88.849781	-85.835545	88.849781	-0.035541	-28.126548
1.150000	-0.026367	-20.860984	-86.042893	93.043224	-86.042893	93.043224	-0.037104	-29.383671
1.200000	-0.027500	-21.757592	-86.219796	98.309869	-86.219796	98.309869	-0.038675	-30.638240
1.250000	-0.028634	-22.653021	-86.311996	104.702109	-86.311996	104.702109	-0.040251	-31.890182
1.300000	-0.029769	-23.547193	-86.244384	112.144349	-86.244384	112.144349	-0.041831	-33.139307
1.350000	-0.030906	-24.440138	-85.960733	120.229212	-85.960733	120.229212	-0.043414	-34.385662
1.400000	-0.032045	-25.331836	-85.431208	128.413641	-85.431208	128.413641	-0.044999	-35.629187
1.450000	-0.033184	-26.222268	-84.669992	136.130852	-84.669992	136.130852	-0.046582	-36.869824
1.500000	-0.034325	-27.111419	-83.727167	142.962535	-83.727167	142.962535	-0.048165	-38.107517
1.550000	-0.035466	-27.999270	-82.666448	148.710009	-82.666448	148.710009	-0.049745	-39.342214
1.600000	-0.036607	-28.885808	-81.545704	153.360071	-81.545704	153.360071	-0.051321	-40.573867
1.650000	-0.037749	-29.771016	-80.408208	157.009431	-80.408208	157.009431	-0.052894	-41.802428
1.700000	-0.038892	-30.654880	-79.282324	159.798750	-79.282324	159.798750	-0.054461	-43.027854
1.750000	-0.040034	-31.537384	-78.184782	161.872355	-78.184782	161.872355	-0.056024	-44.250103
1.800000	-0.041177	-32.418515	-77.124384	163.359589	-77.124384	163.359589	-0.057581	-45.469135
1.850000	-0.042319	-33.298257	-76.104938	164.369055	-76.104938	164.369055	-0.059132	-46.684914
1.900000	-0.043462	-34.176596	-75.127287	164.989037	-75.127287	164.989037	-0.060677	-47.897404
1.950000	-0.044606	-35.053516	-74.190595	165.290226	-74.190595	165.290226	-0.062217	-49.106572
2.000000	-0.045749	-35.929005	-73.293140	165.328934	-73.293140	165.328934	-0.063751	-50.312388
2.050000	-0.046893	-36.803046	-72.432783	165.150032	-72.432783	165.150032	-0.065280	-51.514821
2.100000	-0.048038	-37.675625	-71.607239	164.789410	-71.607239	164.789410	-0.066804	-52.713846
2.150000	-0.049184	-38.546728	-70.814235	164.275928	-70.814235	164.275928	-0.068323	-53.909437
2.200000	-0.050331	-39.416341	-70.051591	163.632947	-70.051591	163.632947	-0.069839	-55.101569
2.250000	-0.051480	-40.284448	-69.317260	162.879505	-69.317260	162.879505	-0.071350	-56.290223
2.300000	-0.052630	-41.151036	-68.609343	162.031230	-68.609343	162.031230	-0.072860	-57.475376
2.350000	-0.053783	-42.016090	-67.926097	161.101040	-67.926097	161.101040	-0.074367	-58.657013
2.400000	-0.054939	-42.879598	-67.265923	160.099686	-67.265923	160.099686	-0.075872	-59.835115
2.450000	-0.056098	-43.741543	-66.627363	159.036176	-66.627363	159.036176	-0.077377	-61.009668
2.500000	-0.057260	-44.601915	-66.009085	157.918108	-66.009085	157.918108	-0.078883	-62.180660
2.550000	-0.058427	-45.460628	-65.408912	156.750093	-65.408912	156.750093	-0.080389	-63.347923
2.600000	-0.059598	-46.317740	-64.826813	155.539891	-64.826813	155.539891	-0.081898	-64.511603
2.650000	-0.060774	-47.173237	-64.261758	154.292136	-64.261758	154.292136	-0.083410	-65.671692
2.700000	-0.061956	-48.027107	-63.712810	153.010838	-63.712810	153.010838	-0.084925	-66.828184
2.750000	-0.063143	-48.879337	-63.179108	151.699485	-63.179108	151.699485	-0.086445	-67.981075
2.800000	-0.064337	-49.729918	-62.659862	150.361125	-62.659862	150.361125	-0.087971	-69.130362
2.850000	-0.065538	-50.578836	-62.154347	148.998434	-62.154347	148.998434	-0.089503	-70.276045
2.900000	-0.066746	-51.426082	-61.661894	147.613774	-61.661894	147.613774	-0.091043	-71.418123
2.950000	-0.067962	-52.271646	-61.181886	146.209241	-61.181886	146.209241	-0.092591	-72.556599
3.000000	-0.069186	-53.115516	-60.713752	144.786699	-60.713752	144.786699	-0.094148	-73.691477
3.050000	-0.070419	-53.957685	-60.256964	143.347816	-60.256964	143.347816	-0.095716	-74.822762
3.100000	-0.071662	-54.798142	-59.811030	141.894092	-59.811030	141.894092	-0.097294	-75.950462
3.150000	-0.072915	-55.636880	-59.375492	140.426879	-59.375492	140.426879	-0.098884	-77.074585
3.200000	-0.074178	-56.473890	-58.949926	138.947400	-58.949926	138.947400	-0.100487	-78.195141
3.250000	-0.075452	-57.309165	-58.533932	137.456770	-58.533932	137.456770	-0.102103	-79.312143
3.300000	-0.076737	-58.142698	-58.127138	135.956005	-58.127138	135.956005	-0.103734	-80.425602
3.350000	-0.078034	-58.974482	-57.729194	134.446034	-57.729194	134.446034	-0.105380	-81.535535
3.400000	-0.079344	-59.804512	-57.339771	132.927712	-57.339771	132.927712	-0.107042	-82.641958
3.450000	-0.080666	-60.632782	-56.958559	131.401827	-56.958559	131.401827	-0.108720	-83.744889
3.500000	-0.082002	-61.459288	-56.585267	129.869104	-56.585267	129.869104	-0.110416	-84.844346
3.550000	-0.083352	-62.284025	-56.219618	128.330219	-56.219618	128.330219	-0.112130	-85.940352
3.600000	-0.084715	-63.106989	-55.861350	126.785796	-55.861350	126.785796	-0.113863	-87.032928
3.650000	-0.086094	-63.928177	-55.510216	125.236417	-55.510216	125.236417	-0.115615	-88.122097
3.700000	-0.087488	-64.747587	-55.165980	123.682624	-55.165980	123.682624	-0.117388	-89.207886
3.750000	-0.088898	-65.565217	-54.828418	122.124921	-54.828418	122.124921	-0.119181	-90.290321
3.800000	-0.090324	-66.380987	-54.497048	120.563653	-54.497048	120.563653	-0.120997	-91.369287
3.850000	-0.091767	-67.194973	-54.171957	118.999428	-54.171957	118.999428	-0.122835	-92.444958
3.900000	-0.093228	-68.007177	-53.852947	117.432653	-53.852947	117.432653	-0.124696	-93.517367
3.950000	-0.094705	-68.817597	-53.539829	115.863714	-53.539829	115.863714	-0.126580	-94.586545
4.000000	-0.096201	-69.626235	-53.232423	114.292967	-53.232423	114.292967	-0.128488	-95.652527
4.050000	-0.097716	-70.433092	-52.930554	112.720751	-52.930554	112.720751	-0.130421	-96.715346
4.100000	-0.099249	-71.238170	-52.634056	111.147378	-52.634056	111.147378	-0.132378	-97.775041
4.150000	-0.100802	-72.041471	-52.342769	109.573144	-52.342769	109.573144	-0.134361	-98.831647
4.200000	-0.102375	-72.842999	-52.056537	107.998323	-52.056537	107.998323	-0.136370	-99.885204
4.250000	-0.103968	-73.642757	-51.775213	106.423174	-51.775213	106.423174	-0.138406	-100.935753
4.300000	-0.105581	-74.440748	-51.498653	104.847938	-51.498653	104.847938	-0.140469	-101.983335
4.350000	-0.107216	-75.236979	-51.226717	103.272838	-51.226717	103.272838	-0.142559	-103.027992
4.400000	-0.108873	-76.031453	-50.959274	101.698086	-50.959274	101.698086	-0.144677	-104.069770
4.450000	-0.110551	-76.824176	-50.696193	100.123877	-50.696193	100.123877	-0.146824	-105.108712
4.500000	-0.112252	-77.615156	-50.437350	98.550395	-50.437350	98.550395	-0.149000	-106.144867
4.550000	-0.113976	-78.404398	-50.182625	96.977810	-50.182625	96.977810	-0.151205	-107.178281
4.600000	-0.115724	-79.191910	-49.931900	95.406284	-49.931900	95.406284	-0.153440	-108.209005
4.650000	-0.117495	-79.977699	-49.685062	93.835964	-49.685062	93.835964	-0.155705	-109.237088
4.700000	-0.119290	-80.761774	-49.442003	92.266994	-49.442003	92.266994	-0.158002	-110.262583
4.750000	-0.121110	-81.544144	-49.202617	90.699504	-49.202617	90.699504	-0.160329	-111.285543
4.800000	-0.122955	-82.324818	-48.966800	89.133622	-48.966800	89.133622	-0.162688	-112.306022
4.850000	-0.124826	-83.103805	-48.734454	87.569466	-48.734454	87.569466	-0.165079	-113.324077
4.900000	-0.126723	-83.881117	-48.505482	86.007150	-48.505482	86.007150	-0.167502	-114.339765
4.950000	-0.128646	-84.656763	-48.279791	84.446787	-48.279791	84.446787	-0.169958	-115.353145
5.000000	-0.130596	-85.430755	-48.057289	82.888485	-48.057289	82.888485	-0.172448	-116.364278
5.050000	-0.132575	-86.203035	-47.837782	81.332449	-47.837782	81.332449	-0.174973	-117.373133
5.100000	-0.134581	-86.973685	-47.621296	79.778697	-47.621296	79.778697	-0.177533	-118.379873
5.150000	-0.136616	-87.742719	-47.407747	78.227338	-47.407747	78.227338	-0.180128	-119.384563
5.200000	-0.138679	-88.510150	-47.197053	76.678485	-47.197053	76.678485	-0.182758	-120.387272
5.250000	-0.140771	-89.275991	-46.989133	75.132254	-46.989133	75.132254	-0.185424	-121.388068
5.300000	-0.142893	-90.040257	-46.783909	73.588768	-46.783909	73.588768	-0.188127	-122.387025
5.350000	-0.145045	-90.802962	-46.581304	72.048159	-46.581304	72.048159	-0.190867	-123.384216
5.400000	-0.147227	-91.564120	-46.381242	70.510568	-46.381242	70.510568	-0.193645	-124.379719
5.450000	-0.149441	-92.323748	-46.183647	68.976150	-46.183647	68.976150	-0.196461	-125.373612
5.500000	-0.151685	-93.081861	-45.988446	67.445072	-45.988446	67.445072	-0.199317	-126.365980
5.550000	-0.153962	-93.838474	-45.795563	65.917520	-45.795563	65.917520	-0.202213	-127.356907
5.600000	-0.156270	-94.593606	-45.604926	64.393701	-45.604926	64.393701	-0.205151	-128.346484
5.650000	-0.158612	-95.347271	-45.416457	62.873841	-45.416457	62.873841	-0.208130	-129.334806
5.700000	-0.160986	-96.099489	-45.230082	61.358198	-45.230082	61.358198	-0.211153	-130.321971
5.750000	-0.163394	-96.850276	-45.045721	59.847057	-45.045721	59.847057	-0.214220	-131.308083
5.800000	-0.165837	-97.599651	-44.863294	58.340739	-44.863294	58.340739	-0.217334	-132.293253
5.850000	-0.168314	-98.347631	-44.682716	56.839606	-44.682716	56.839606	-0.220495	-133.277599
5.900000	-0.170826	-99.094236	-44.503899	55.344069	-44.503899	55.344069	-0.223706	-134.261245
5.950000	-0.173373	-99.839486	-44.326747	53.854590	-44.326747	53.854590	-0.226968	-135.244329
6.000000	-0.175957	-100.583398	-44.151159	52.371696	-44.151159	52.371696	-0.230285	-136.226994
6.050000	-0.178577	-101.325994	-43.977021	50.895986	-43.977021	50.895986	-0.233660	-137.209402
6.100000	-0.181235	-102.067293	-43.804212	49.428145	-43.804212	49.428145	-0.237096	-138.191727
6.150000	-0.183930	-102.807315	-43.632592	47.968960	-43.632592	47.968960	-0.240597	-139.174162
6.200000	-0.186663	-103.546082	-43.462006	46.519334	-43.462006	46.519334	-0.244169	-140.156922
6.250000	-0.189436	-104.283614	-43.292274	45.080311	-43.292274	45.080311	-0.247819	-141.140250
6.300000	-0.192249	-105.019880	-43.123061	43.653685	-43.123061	43.653685	-0.251557	-142.124474
6.350000	-0.195102	-105.754955	-42.954220	42.240443	-42.954220	42.240443	-0.255393	-143.109891
6.400000	-0.197997	-106.488860	-42.785447	40.842285	-42.785447	40.842285	-0.259338	-144.096877
6.450000	-0.200932	-107.221618	-42.616374	39.461222	-42.616374	39.461222	-0.263409	-145.085877
6.500000	-0.203911	-107.953249	-42.446544	38.099643	-42.446544	38.099643	-0.267629	-146.077418
6.550000	-0.206932	-108.683775	-42.275386	36.760410	-42.275386	36.760410	-0.272025	-147.072142
6.600000	-0.209997	-109.413215	-42.102176	35.446966	-42.102176	35.446966	-0.276638	-148.070837
6.650000	-0.213108	-110.141590	-41.925975	34.163483	-41.925975	34.163483	-0.281520	-149.074484
6.700000	-0.216263	-110.868979	-41.746100	32.912681	-41.746100	32.912681	-0.286720	-150.083888
6.750000	-0.219467	-111.595323	-41.560468	31.702888	-41.560468	31.702888	-0.292359	-151.100996
6.800000	-0.222722	-112.320612	-41.366397	30.543312	-41.366397	30.543312	-0.298613	-152.128273
6.850000	-0.226033	-113.044851	-41.160266	29.444384	-41.160266	29.444384	-0.305738	-153.168933
6.900000	-0.229399	-113.768103	-40.938318	28.413674	-40.938318	28.413674	-0.314059	-154.226239
6.950000	-0.232824	-114.490355	-40.693939	27.462862	-40.693939	27.462862	-0.324149	-155.305606
7.000000	-0.236313	-115.211576	-40.417132	26.603011	-40.417132	26.603011	-0.336976	-156.414795
7.050000	-0.239871	-115.931734	-40.094797	25.836206	-40.094797	25.836206	-0.354041	-157.563456
7.100000	-0.243512	-116.650574	-39.694882	25.155010	-39.694882	25.155010	-0.379128	-158.773166
7.150000	-0.247241	-117.367754	-39.166927	24.456045	-39.166927	24.456045	-0.420090	-160.071759
7.200000	-0.251037	-118.082701	-38.446654	23.418672	-38.446654	23.418672	-0.492124	-161.480733
7.250000	-0.254761	-118.793845	-37.413601	20.957913	-37.413601	20.957913	-0.638083	-162.968453
7.300000	-0.257718	-119.499625	-36.080738	14.055023	-36.080738	14.055023	-0.941080	-163.977868
7.350000	-0.258523	-120.209524	-35.342826	-1.109090	-35.342826	-1.109090	-1.280016	-162.426529
7.400000	-0.259952	-120.940200	-36.542684	-15.643092	-36.542684	-15.643092	-1.056791	-160.166710
7.450000	-0.263985	-121.669076	-38.226001	-19.426917	-38.226001	-19.426917	-0.728719	-160.739762
7.500000	-0.268529	-122.389808	-39.243641	-18.080849	-39.243641	-18.080849	-0.562587	-162.144885
7.550000	-0.272969	-123.106500	-39.714723	-16.103645	-39.714723	-16.103645	-0.484480	-163.549627
7.600000	-0.277296	-123.821309	-39.901550	-14.685993	-39.901550	-14.685993	-0.444666	-164.854634
7.650000	-0.281559	-124.535011	-39.944385	-13.929173	-39.944385	-13.929173	-0.423496	-166.074512
7.700000	-0.285797	-125.248011	-39.919459	-13.658927	-39.919459	-13.658927	-0.411432	-167.238152
7.750000	-0.290033	-125.960433	-39.856783	-13.771259	-39.856783	-13.771259	-0.404892	-168.359823
7.800000	-0.294287	-126.672303	-39.771839	-14.199928	-39.771839	-14.199928	-0.402086	-169.447917
7.850000	-0.298557	-127.383897	-39.679702	-14.767791	-39.679702	-14.767791	-0.400743	-170.521498
7.900000	-0.302865	-128.095008	-39.579310	-15.542989	-39.579310	-15.542989	-0.401348	-171.573913
7.950000	-0.307209	-128.805831	-39.476901	-16.419048	-39.476901	-16.419048	-0.402794	-172.616389
8.000000	-0.311585	-129.516410	-39.373479	-17.375426	-39.373479	-17.375426	-0.404890	-173.651100
8.050000	-0.316002	-130.226726	-39.269621	-18.409522	-39.269621	-18.409522	-0.407581	-174.678540
8.100000	-0.320473	-130.936781	-39.166042	-19.513620	-39.166042	-19.513620	-0.410776	-175.699936
8.150000	-0.324983	-131.646688	-39.063354	-20.656029	-39.063354	-20.656029	-0.414239	-176.718319
8.200000	-0.329532	-132.356462	-38.961649	-21.833044	-38.961649	-21.833044	-0.417941	-177.734130
8.250000	-0.334138	-133.066090	-38.861056	-23.050426	-38.861056	-23.050426	-0.421913	-178.747409
8.300000	-0.338793	-133.775647	-38.761697	-24.293541	-38.761697	-24.293541	-0.426057	-179.759532
8.350000	-0.343487	-134.485165	-38.663557	-25.555011	-38.663557	-25.555011	-0.430322	179.228997
8.400000	-0.348234	-135.194663	-38.566694	-26.838737	-38.566694	-26.838737	-0.434733	178.217946
8.450000	-0.353031	-135.904183	-38.471095	-28.139395	-38.471095	-28.139395	-0.439257	177.206834
8.500000	-0.357878	-136.613758	-38.376749	-29.454857	-38.376749	-29.454857	-0.443877	176.195327
8.550000	-0.362774	-137.323424	-38.283643	-30.783399	-38.283643	-30.783399	-0.448583	175.183134
8.600000	-0.367721	-138.033215	-38.191757	-32.123618	-38.191757	-32.123618	-0.453365	174.170001
8.650000	-0.372718	-138.743166	-38.101074	-33.474380	-38.101074	-33.474380	-0.458214	173.155699
8.700000	-0.377765	-139.453313	-38.011576	-34.834762	-38.011576	-34.834762	-0.463125	172.140025
8.750000	-0.382862	-140.163692	-37.923244	-36.204026	-37.923244	-36.204026	-0.468090	171.122794
8.800000	-0.388012	-140.874352	-37.836075	-37.581916	-37.836075	-37.581916	-0.473106	170.103754
8.850000	-0.393212	-141.585320	-37.750045	-38.967597	-37.750045	-38.967597	-0.478166	169.082819
8.900000	-0.398462	-142.296631	-37.665144	-40.360718	-37.665144	-40.360718	-0.483265	168.059846
8.950000	-0.403763	-143.008323	-37.581364	-41.761019	-37.581364	-41.761019	-0.488400	167.034703
9.000000	-0.409113	-143.720433	-37.498700	-43.168309	-37.498700	-43.168309	-0.493567	166.007263
9.050000	-0.414513	-144.432998	-37.417152	-44.582464	-37.417152	-44.582464	-0.498760	164.977408
9.100000	-0.419962	-145.146057	-37.336722	-46.003413	-37.336722	-46.003413	-0.503979	163.945027
9.150000	-0.425461	-145.859646	-37.257416	-47.431130	-37.257416	-47.431130	-0.509217	162.910012
9.200000	-0.431008	-146.573805	-37.179242	-48.865628	-37.179242	-48.865628	-0.514473	161.872263
9.250000	-0.436604	-147.288572	-37.102215	-50.306955	-37.102215	-50.306955	-0.519742	160.831681
9.300000	-0.442248	-148.003985	-37.026352	-51.755183	-37.026352	-51.755183	-0.525022	159.788172
9.350000	-0.447939	-148.720084	-36.951673	-53.210412	-36.951673	-53.210412	-0.530308	158.741648
9.400000	-0.453678	-149.436909	-36.878203	-54.672755	-36.878203	-54.672755	-0.535597	157.692021
9.450000	-0.459463	-150.154498	-36.805972	-56.142343	-36.805972	-56.142343	-0.540886	156.639206
9.500000	-0.465294	-150.872893	-36.735014	-57.619316	-36.735014	-57.619316	-0.546171	155.583124
9.550000	-0.471170	-151.592132	-36.665365	-59.103821	-36.665365	-59.103821	-0.551448	154.523695
9.600000	-0.477090	-152.312257	-36.597067	-60.596009	-36.597067	-60.596009	-0.556713	153.460842
9.650000	-0.483054	-153.033309	-36.530167	-62.096029	-36.530167	-62.096029	-0.561962	152.394493
9.700000	-0.489062	-153.755328	-36.464714	-63.604030	-36.464714	-63.604030	-0.567192	151.324575
9.750000	-0.495111	-154.478356	-36.400764	-65.120151	-36.400764	-65.120151	-0.572398	150.251020
9.800000	-0.501201	-155.202435	-36.338375	-66.644525	-36.338375	-66.644525	-0.577575	149.173759
9.850000	-0.507332	-155.927607	-36.277610	-68.177270	-36.277610	-68.177270	-0.582720	148.092727
9.900000	-0.513501	-156.653914	-36.218536	-69.718489	-36.218536	-69.718489	-0.587827	147.007861
9.950000	-0.519708	-157.381398	-36.161224	-71.268268	-36.161224	-71.268268	-0.592892	145.919099
10.000000	-0.525952	-158.110102	-36.105749	-72.826668	-36.105749	-72.826668	-0.597910	144.826383
