! freq	dB(S11)	phase(S11)	dB(S12)	phase(S12)	
!     	dB(S21)	phase(S21)	dB(S22)	phase(S22)	
!S-par simulation data
#  GHz  S  DB  R 50
0.000000	0.000000	0.000000	-346.777218	0.000000	-346.777218	0.000000	-0.000000	0.000000
0.050000	-0.000094	-0.864138	-109.533484	62.215937	-109.533484	62.215937	-0.000093	-0.807292
0.100000	-0.000372	-1.728075	-106.319193	61.734252	-106.319193	61.734252	-0.000370	-1.614377
0.150000	-0.000827	-2.591620	-104.174908	65.408322	-104.174908	65.408322	-0.000821	-2.421059
0.200000	-0.001445	-3.454609	-102.431881	68.576192	-102.431881	68.576192	-0.001431	-3.227173
0.250000	-0.002219	-4.316844	-100.992708	70.825068	-100.992708	70.825068	-0.002191	-4.032524
0.300000	-0.003118	-5.178268	-99.801210	72.453921	-99.801210	72.453921	-0.003070	-4.837065
0.350000	-0.004129	-6.038755	-98.815764	73.640616	-98.815764	73.640616	-0.004052	-5.640682
0.400000	-0.005235	-6.898232	-98.005439	74.553312	-98.005439	74.553312	-0.005118	-6.443314
0.450000	-0.006415	-7.756651	-97.347638	75.317714	-97.347638	75.317714	-0.006249	-7.244930
0.500000	-0.007653	-8.613982	-96.826227	76.033194	-96.826227	76.033194	-0.007427	-8.045517
0.550000	-0.008932	-9.470215	-96.430032	76.786057	-96.430032	76.786057	-0.008637	-8.845080
0.600000	-0.010240	-10.325352	-96.151704	77.659956	-96.151704	77.659956	-0.009867	-9.643635
0.650000	-0.011564	-11.179405	-95.986810	78.745050	-95.986810	78.745050	-0.011106	-10.441204
0.700000	-0.012894	-12.032391	-95.932991	80.147489	-95.932991	80.147489	-0.012345	-11.237814
0.750000	-0.014222	-12.884331	-95.988909	82.000663	-95.988909	82.000663	-0.013578	-12.033494
0.800000	-0.015543	-13.735248	-96.152520	84.479396	-96.152520	84.479396	-0.014800	-12.828270
0.850000	-0.016852	-14.585162	-96.417856	87.817133	-96.417856	87.817133	-0.016008	-13.622166
0.900000	-0.018146	-15.434093	-96.768823	92.322043	-96.768823	92.322043	-0.017200	-14.415203
0.950000	-0.019422	-16.282057	-97.167882	98.375814	-97.167882	98.375814	-0.018375	-15.207397
1.000000	-0.020679	-17.129068	-97.538581	106.372333	-97.538581	106.372333	-0.019533	-15.998761
1.050000	-0.021918	-17.975134	-97.749311	116.524166	-97.749311	116.524166	-0.020673	-16.789303
1.100000	-0.023137	-18.820262	-97.626607	128.513204	-97.626607	128.513204	-0.021797	-17.579028
1.150000	-0.024338	-19.664452	-97.033783	141.225702	-97.033783	141.225702	-0.022905	-18.367935
1.200000	-0.025521	-20.507706	-95.974040	153.098126	-95.974040	153.098126	-0.023998	-19.156023
1.250000	-0.026688	-21.350017	-94.589162	162.998873	-94.589162	162.998873	-0.025078	-19.943286
1.300000	-0.027839	-22.191337	-93.038825	170.559652	-93.038825	170.559652	-0.026146	-20.729678
1.350000	-0.028977	-23.031699	-91.467164	176.170426	-91.467164	176.170426	-0.027203	-21.515226
1.400000	-0.030102	-23.871089	-89.938988	-179.752412	-89.938988	-179.752412	-0.028250	-22.299918
1.450000	-0.031215	-24.709494	-88.482210	-176.838005	-88.482210	-176.838005	-0.029289	-23.083739
1.500000	-0.032320	-25.546900	-87.105217	-174.797724	-87.105217	-174.797724	-0.030321	-23.866674
1.550000	-0.033415	-26.383290	-85.807147	-173.418051	-85.807147	-173.418051	-0.031347	-24.648709
1.600000	-0.034504	-27.218646	-84.583233	-172.543466	-84.583233	-172.543466	-0.032368	-25.429826
1.650000	-0.035586	-28.052951	-83.427378	-172.060560	-83.427378	-172.060560	-0.033385	-26.210007
1.700000	-0.036663	-28.885805	-82.307275	-171.964405	-82.307275	-171.964405	-0.034397	-26.988897
1.750000	-0.037737	-29.718093	-81.280816	-172.006344	-81.280816	-172.006344	-0.035409	-27.767283
1.800000	-0.038808	-30.549022	-80.289179	-172.272947	-80.289179	-172.272947	-0.036418	-28.544456
1.850000	-0.039877	-31.378980	-79.352016	-172.700025	-79.352016	-172.700025	-0.037426	-29.320764
1.900000	-0.040945	-32.207728	-78.453250	-173.256681	-78.453250	-173.256681	-0.038434	-30.095992
1.950000	-0.042013	-33.035268	-77.590898	-173.942915	-77.590898	-173.942915	-0.039442	-30.870141
2.000000	-0.043081	-33.861765	-76.768843	-174.705077	-76.768843	-174.705077	-0.040450	-31.643359
2.050000	-0.044150	-34.686802	-75.969816	-175.573541	-75.969816	-175.573541	-0.041460	-32.415272
2.100000	-0.045220	-35.511196	-75.218707	-176.476785	-75.218707	-176.476785	-0.042470	-33.186610
2.150000	-0.046293	-36.333919	-74.480988	-177.466205	-74.480988	-177.466205	-0.043483	-33.956454
2.200000	-0.047369	-37.155379	-73.768650	-178.508360	-73.768650	-178.508360	-0.044499	-34.725168
2.250000	-0.048447	-37.975555	-73.079934	-179.596705	-73.079934	-179.596705	-0.045517	-35.492734
2.300000	-0.049530	-38.794431	-72.413267	179.274277	-72.413267	179.274277	-0.046538	-36.259136
2.350000	-0.050617	-39.611990	-71.767233	178.109266	-71.767233	178.109266	-0.047563	-37.024358
2.400000	-0.051708	-40.428213	-71.140557	176.912264	-71.140557	176.912264	-0.048591	-37.788384
2.450000	-0.052804	-41.243085	-70.532082	175.686711	-70.532082	175.686711	-0.049624	-38.551199
2.500000	-0.053906	-42.056589	-69.940761	174.435584	-69.940761	174.435584	-0.050661	-39.312788
2.550000	-0.055013	-42.868649	-69.364692	173.160579	-69.364692	173.160579	-0.051703	-40.073081
2.600000	-0.056127	-43.679311	-68.804045	171.865030	-68.804045	171.865030	-0.052750	-40.832118
2.650000	-0.057247	-44.488559	-68.258009	170.550894	-68.258009	170.550894	-0.053803	-41.589885
2.700000	-0.058373	-45.296379	-67.725841	169.219902	-67.725841	169.219902	-0.054861	-42.346369
2.750000	-0.059507	-46.102759	-67.206856	167.873590	-67.206856	167.873590	-0.055926	-43.101556
2.800000	-0.060648	-46.907685	-66.700422	166.513328	-66.700422	166.513328	-0.056996	-43.855434
2.850000	-0.061797	-47.711146	-66.205956	165.140340	-66.205956	165.140340	-0.058073	-44.607992
2.900000	-0.062954	-48.513130	-65.722914	163.755728	-65.722914	163.755728	-0.059158	-45.359217
2.950000	-0.064119	-49.313625	-65.250794	162.360484	-65.250794	162.360484	-0.060249	-46.109097
3.000000	-0.065292	-50.112622	-64.789128	160.955503	-64.789128	160.955503	-0.061348	-46.857623
3.050000	-0.066475	-50.910111	-64.337478	159.541599	-64.337478	159.541599	-0.062454	-47.604783
3.100000	-0.067666	-51.706081	-63.895435	158.119511	-63.895435	158.119511	-0.063569	-48.350567
3.150000	-0.068868	-52.500525	-63.462618	156.689915	-63.462618	156.689915	-0.064693	-49.094965
3.200000	-0.070079	-53.293434	-63.038668	155.253428	-63.038668	155.253428	-0.065825	-49.837969
3.250000	-0.071300	-54.084800	-62.623249	153.810614	-62.623249	153.810614	-0.066966	-50.579569
3.300000	-0.072532	-54.874617	-62.216042	152.361994	-62.216042	152.361994	-0.068117	-51.319756
3.350000	-0.073776	-55.662604	-61.814942	150.907251	-61.814942	150.907251	-0.069280	-52.058273
3.400000	-0.075033	-56.448961	-61.421202	149.447425	-61.421202	149.447425	-0.070453	-52.795300
3.450000	-0.076296	-57.234498	-61.039551	147.985417	-61.039551	147.985417	-0.071632	-53.531575
3.500000	-0.077577	-58.017575	-60.659633	146.516860	-60.659633	146.516860	-0.072828	-54.265594
3.550000	-0.078862	-58.800102	-60.292561	145.047099	-60.292561	145.047099	-0.074029	-54.999107
3.600000	-0.080170	-59.579880	-59.925617	143.571318	-59.925617	143.571318	-0.075249	-55.730090
3.650000	-0.081480	-60.359382	-59.572123	142.095043	-59.572123	142.095043	-0.076471	-56.460818
3.700000	-0.082816	-61.135848	-59.217387	140.613339	-59.217387	140.613339	-0.077718	-57.188741
3.750000	-0.084151	-61.912314	-58.876572	139.131635	-58.876572	139.131635	-0.078964	-57.916663
3.800000	-0.085517	-62.685458	-58.533345	137.645140	-58.533345	137.645140	-0.080238	-58.641504
3.850000	-0.086883	-63.458602	-58.203167	136.158645	-58.203167	136.158645	-0.081512	-59.366344
3.900000	-0.088277	-64.228697	-57.872043	134.668667	-57.872043	134.668667	-0.082812	-60.088343
3.950000	-0.089674	-64.998516	-57.551938	133.178373	-57.551938	133.178373	-0.084116	-60.810084
4.000000	-0.091100	-65.765563	-57.232162	131.685642	-57.232162	131.685642	-0.085445	-61.529230
4.050000	-0.092531	-66.532057	-56.921612	130.192423	-56.921612	130.192423	-0.086779	-62.247857
4.100000	-0.093988	-67.296060	-56.612500	128.697594	-56.612500	128.697594	-0.088138	-62.964139
4.150000	-0.095454	-68.059234	-56.311024	127.202227	-56.311024	127.202227	-0.089505	-63.679641
4.200000	-0.096946	-68.820200	-56.011951	125.705891	-56.011951	125.705891	-0.090896	-64.393054
4.250000	-0.098450	-69.580064	-55.719107	124.209070	-55.719107	124.209070	-0.092298	-65.105423
4.300000	-0.099977	-70.338005	-55.429501	122.711766	-55.429501	122.711766	-0.093721	-65.815961
4.350000	-0.101520	-71.094572	-55.144877	121.214115	-55.144877	121.214115	-0.095159	-66.525193
4.400000	-0.103084	-71.849502	-54.864216	119.716332	-54.864216	119.716332	-0.096616	-67.232855
4.450000	-0.104669	-72.602793	-54.587430	118.218417	-54.587430	118.218417	-0.098093	-67.938949
4.500000	-0.106272	-73.354729	-54.315230	116.720607	-54.315230	116.720607	-0.099586	-68.643735
4.550000	-0.107901	-74.104768	-54.045925	115.222944	-54.045925	115.222944	-0.101103	-69.346693
4.600000	-0.109545	-74.853732	-53.781743	113.725524	-53.781743	113.725524	-0.102634	-70.048606
4.650000	-0.111219	-75.600547	-53.519586	112.228589	-53.519586	112.228589	-0.104193	-70.748433
4.700000	-0.112906	-76.346565	-53.263012	110.731948	-53.263012	110.731948	-0.105762	-71.447479
4.750000	-0.114628	-77.090189	-53.007690	109.236185	-53.007690	109.236185	-0.107365	-72.144183
4.800000	-0.116359	-77.833289	-52.758345	107.740688	-52.758345	107.740688	-0.108975	-72.840369
4.850000	-0.118131	-78.573761	-52.509566	106.246518	-52.509566	106.246518	-0.110623	-73.533962
4.900000	-0.119908	-79.313975	-52.267096	104.752513	-52.267096	104.752513	-0.112275	-74.227297
4.950000	-0.121733	-80.051340	-52.024587	103.260336	-52.024587	103.260336	-0.113971	-74.917794
5.000000	-0.123557	-80.788705	-51.788665	101.768159	-51.788665	101.768159	-0.115667	-75.608292
5.050000	-0.125436	-81.523010	-51.552166	100.278368	-51.552166	100.278368	-0.117412	-76.295710
5.100000	-0.127315	-82.257316	-51.321937	98.788577	-51.321937	98.788577	-0.119157	-76.983129
5.150000	-0.129246	-82.988868	-51.091756	97.301329	-51.091756	97.301329	-0.120949	-77.667744
5.200000	-0.131182	-83.720170	-50.866996	95.814313	-50.866996	95.814313	-0.122745	-78.352104
5.250000	-0.133166	-84.449020	-50.642842	94.329941	-50.642842	94.329941	-0.124586	-79.033936
5.300000	-0.135160	-85.177379	-50.423340	92.846096	-50.423340	92.846096	-0.126435	-79.715261
5.350000	-0.137200	-85.903582	-50.204940	91.364940	-50.204940	91.364940	-0.128326	-80.394331
5.400000	-0.139255	-86.629066	-49.990497	89.884679	-49.990497	89.884679	-0.130230	-81.072648
5.450000	-0.141352	-87.352685	-49.777596	88.407099	-49.777596	88.407099	-0.132172	-81.748979
5.500000	-0.143470	-88.075370	-49.568021	86.930861	-49.568021	86.930861	-0.134133	-82.424316
5.550000	-0.145626	-88.796472	-49.360379	85.457247	-49.360379	85.457247	-0.136128	-83.097935
5.600000	-0.147810	-89.516443	-49.155491	83.985509	-49.155491	83.985509	-0.138147	-83.770325
5.650000	-0.150027	-90.235103	-48.952882	82.516288	-48.952882	82.516288	-0.140197	-84.441258
5.700000	-0.152277	-90.952452	-48.752506	81.049584	-48.752506	81.049584	-0.142276	-85.110735
5.750000	-0.154557	-91.668754	-48.554717	79.585231	-48.554717	79.585231	-0.144382	-85.779014
5.800000	-0.156878	-92.383589	-48.358687	78.124170	-48.358687	78.124170	-0.146523	-86.445614
5.850000	-0.159222	-93.097625	-48.165513	76.665228	-48.165513	76.665228	-0.148687	-87.111270
5.900000	-0.161615	-93.810064	-47.973665	75.210522	-47.973665	75.210522	-0.150892	-87.775035
5.950000	-0.164026	-94.521938	-47.784912	73.757615	-47.784912	73.757615	-0.153114	-88.438101
6.000000	-0.166493	-95.232119	-47.597086	72.310109	-47.597086	72.310109	-0.155385	-89.099072
6.050000	-0.168974	-95.941949	-47.412565	70.863973	-47.412565	70.863973	-0.157668	-89.759585
6.100000	-0.171518	-96.650030	-47.228601	69.424693	-47.228601	69.424693	-0.160006	-90.417807
6.150000	-0.174069	-97.357952	-47.048130	67.986203	-47.048130	67.986203	-0.162351	-91.075804
6.200000	-0.176694	-98.064119	-46.867861	66.556417	-46.867861	66.556417	-0.164758	-91.731325
6.250000	-0.179319	-98.770287	-46.691258	65.126630	-46.691258	65.126630	-0.167166	-92.386846
6.300000	-0.182027	-99.474766	-46.514511	63.707938	-46.514511	63.707938	-0.169645	-93.039716
6.350000	-0.184736	-100.179244	-46.341290	62.289245	-46.341290	62.289245	-0.172124	-93.692586
6.400000	-0.187526	-100.882426	-46.168175	60.882606	-46.168175	60.882606	-0.174668	-94.343074
6.450000	-0.190323	-101.585490	-45.998151	59.477064	-45.998151	59.477064	-0.177220	-94.993345
6.500000	-0.193198	-102.287663	-45.828439	58.084730	-45.828439	58.084730	-0.179832	-95.641497
6.550000	-0.196090	-102.989658	-45.661399	56.695039	-45.661399	56.695039	-0.182458	-96.289224
6.600000	-0.199058	-103.691187	-45.494822	55.319961	-45.494822	55.319961	-0.185140	-96.935088
6.650000	-0.202051	-104.392561	-45.330500	53.949754	-45.330500	53.949754	-0.187842	-97.580329
6.700000	-0.205107	-105.093877	-45.167175	52.592772	-45.167175	52.592772	-0.190587	-98.224220
6.750000	-0.208217	-105.795257	-45.005123	51.247742	-45.005123	51.247742	-0.193368	-98.866993
6.800000	-0.211388	-106.496872	-44.844168	49.916594	-44.844168	49.916594	-0.196187	-99.508617
6.850000	-0.214641	-107.199173	-44.683639	48.605897	-44.683639	48.605897	-0.199054	-100.148854
6.900000	-0.217960	-107.902233	-44.524135	47.311730	-44.524135	47.311730	-0.201954	-100.788151
6.950000	-0.221348	-108.606201	-44.365549	46.035373	-44.365549	46.035373	-0.204888	-101.426514
7.000000	-0.224854	-109.312051	-44.206592	44.789700	-44.206592	44.789700	-0.207872	-102.063540
7.050000	-0.228479	-110.020192	-44.047308	43.575407	-44.047308	43.575407	-0.210896	-102.699502
7.100000	-0.232226	-110.730768	-43.887804	42.391811	-43.887804	42.391811	-0.213956	-103.334571
7.150000	-0.236122	-111.444455	-43.727470	41.245470	-43.727470	41.245470	-0.217055	-103.968677
7.200000	-0.240319	-112.164623	-43.562893	40.168717	-43.562893	40.168717	-0.220211	-104.601443
7.250000	-0.244805	-112.890858	-43.394846	39.151584	-43.394846	39.151584	-0.223405	-105.233354
7.300000	-0.249646	-113.624255	-43.222311	38.202208	-43.222311	38.202208	-0.226638	-105.864414
7.350000	-0.255170	-114.370726	-43.039039	37.369508	-43.039039	37.369508	-0.229927	-106.494322
7.400000	-0.261868	-115.136709	-42.837075	36.694660	-42.837075	36.694660	-0.233271	-107.123149
7.450000	-0.270131	-115.924827	-42.612092	36.182598	-42.612092	36.182598	-0.236663	-107.751102
7.500000	-0.280328	-116.738966	-42.360193	35.855472	-42.360193	35.855472	-0.240105	-108.378170
7.550000	-0.296532	-117.616152	-42.024920	35.901415	-42.024920	35.901415	-0.243625	-109.003839
7.600000	-0.324442	-118.582907	-41.550301	36.327647	-41.550301	36.327647	-0.247217	-109.628060
7.650000	-0.381130	-119.690639	-40.797862	36.961007	-40.797862	36.961007	-0.250869	-110.250217
7.700000	-0.523641	-120.938362	-39.475158	36.290872	-39.475158	36.290872	-0.254434	-110.868727
7.750000	-0.880458	-121.238193	-37.541422	27.293837	-37.541422	27.293837	-0.256991	-111.482239
7.800000	-0.939933	-118.347068	-37.544965	6.676846	-37.544965	6.676846	-0.257604	-112.108289
7.850000	-0.599588	-118.198411	-39.451542	-1.290493	-39.451542	-1.290493	-0.260916	-112.746857
7.900000	-0.447785	-119.292491	-40.599398	-0.651351	-40.599398	-0.651351	-0.265385	-113.375243
7.950000	-0.388209	-120.344858	-41.095586	0.961991	-41.095586	0.961991	-0.269669	-113.998922
8.000000	-0.361678	-121.282902	-41.296222	2.080022	-41.296222	2.080022	-0.273788	-114.621152
8.050000	-0.349041	-122.142468	-41.363403	2.688382	-41.363403	2.688382	-0.277832	-115.242990
8.100000	-0.343334	-122.950171	-41.365711	2.946939	-41.365711	2.946939	-0.281857	-115.865011
8.150000	-0.341264	-123.725479	-41.337436	3.028402	-41.337436	3.028402	-0.285906	-116.487712
8.200000	-0.341531	-124.477874	-41.292742	3.071039	-41.292742	3.071039	-0.290027	-117.111823
8.250000	-0.343574	-125.212801	-41.236365	3.241278	-41.236365	3.241278	-0.294317	-117.738644
8.300000	-0.346969	-125.935933	-41.164169	3.736388	-41.164169	3.736388	-0.298949	-118.369719
8.350000	-0.352079	-126.646951	-41.035891	4.995399	-41.035891	4.995399	-0.304565	-119.009317
8.400000	-0.359414	-127.342251	-40.709715	7.507509	-40.709715	7.507509	-0.312961	-119.661739
8.450000	-0.368900	-127.996158	-39.727196	10.500507	-39.727196	10.500507	-0.330004	-120.316053
8.500000	-0.367695	-128.584597	-38.034027	5.422323	-38.034027	5.422323	-0.356748	-120.843879
8.550000	-0.355334	-129.278949	-37.849295	-6.020222	-37.849295	-6.020222	-0.355306	-121.289192
8.600000	-0.354698	-130.014810	-38.392134	-11.280227	-38.392134	-11.280227	-0.346297	-121.866504
8.650000	-0.358530	-130.728423	-38.745247	-13.412276	-38.745247	-13.412276	-0.343602	-122.483875
8.700000	-0.363252	-131.428093	-38.930718	-14.741063	-38.930718	-14.741063	-0.344223	-123.104737
8.750000	-0.368191	-132.119627	-39.012982	-15.852329	-39.012982	-15.852329	-0.346528	-123.723707
8.800000	-0.373189	-132.805825	-39.030664	-16.933849	-39.030664	-16.933849	-0.349784	-124.340001
8.850000	-0.378214	-133.489093	-39.016337	-18.037455	-39.016337	-18.037455	-0.353494	-124.954415
8.900000	-0.383271	-134.170203	-38.980476	-19.170004	-38.980476	-19.170004	-0.357514	-125.567317
8.950000	-0.388364	-134.849691	-38.929942	-20.331846	-38.929942	-20.331846	-0.361757	-126.178999
9.000000	-0.393509	-135.527767	-38.867908	-21.524916	-38.867908	-21.524916	-0.366192	-126.789529
9.050000	-0.398705	-136.204788	-38.797957	-22.743855	-38.797957	-22.743855	-0.370773	-127.399149
9.100000	-0.403910	-136.881734	-38.727980	-23.965037	-38.727980	-23.965037	-0.375368	-128.008693
9.150000	-0.409227	-137.557417	-38.648698	-25.224340	-38.648698	-25.224340	-0.380174	-128.616931
9.200000	-0.414547	-138.233101	-38.570133	-26.483643	-38.570133	-26.483643	-0.384983	-129.225169
9.250000	-0.419960	-138.908342	-38.487765	-27.763579	-38.487765	-27.763579	-0.389921	-129.832700
9.300000	-0.425408	-139.583428	-38.404608	-29.050736	-38.404608	-29.050736	-0.394907	-130.439984
9.350000	-0.430914	-140.258491	-38.320581	-30.346242	-38.320581	-30.346242	-0.399959	-131.046987
9.400000	-0.436495	-140.933523	-38.235143	-31.652998	-38.235143	-31.652998	-0.405099	-131.653612
9.450000	-0.442091	-141.608584	-38.150290	-32.961056	-38.150290	-32.961056	-0.410255	-132.260197
9.500000	-0.447781	-142.283880	-38.064298	-34.279528	-38.064298	-34.279528	-0.415511	-132.866460
9.550000	-0.453531	-142.959443	-37.978214	-35.603017	-37.978214	-35.603017	-0.420827	-133.472592
9.600000	-0.459331	-143.635274	-37.892257	-36.930361	-37.892257	-36.930361	-0.426194	-134.078637
9.650000	-0.465187	-144.311437	-37.806429	-38.261557	-37.806429	-38.261557	-0.431615	-134.684607
9.700000	-0.471121	-144.988185	-37.720585	-39.597316	-37.720585	-39.597316	-0.437111	-135.290533
9.750000	-0.477106	-145.665377	-37.635102	-40.935599	-37.635102	-40.935599	-0.442656	-135.896467
9.800000	-0.483143	-146.343036	-37.550001	-42.276255	-37.550001	-42.276255	-0.448249	-136.502422
9.850000	-0.489249	-147.021401	-37.465176	-43.619763	-37.465176	-43.619763	-0.453906	-137.108442
9.900000	-0.495421	-147.700510	-37.380727	-44.965526	-37.380727	-44.965526	-0.459624	-137.714572
9.950000	-0.501645	-148.380244	-37.296773	-46.312890	-37.296773	-46.312890	-0.465388	-138.320811
10.000000	-0.507922	-149.060626	-37.213321	-47.661760	-37.213321	-47.661760	-0.471201	-138.927174
