! freq	dB(S11)	phase(S11)	dB(S12)	phase(S12)	
!     	dB(S21)	phase(S21)	dB(S22)	phase(S22)	
!S-par simulation data
#  GHz  S  DB  R 50
0.000000	-83.089000	0.000000	-0.000609	0.000000	-0.000609	0.000000	-83.089000	0.000000
0.050000	-38.924746	-92.445215	-0.005518	-3.007930	-0.005518	-3.007930	-38.916913	-92.095235
0.100000	-32.973886	-95.790291	-0.013397	-5.975583	-0.013397	-5.975583	-32.969188	-95.143593
0.150000	-29.511565	-99.123405	-0.020816	-8.927036	-0.020816	-8.927036	-29.506652	-98.172250
0.200000	-27.070623	-102.412158	-0.028438	-11.872770	-0.028438	-11.872770	-27.065158	-101.147721
0.250000	-25.194461	-105.654103	-0.036750	-14.814083	-0.036750	-14.814083	-25.188618	-104.072567
0.300000	-23.680590	-108.856832	-0.045886	-17.750375	-0.045886	-17.750375	-23.674520	-106.956250
0.350000	-22.418152	-112.030894	-0.055755	-20.681545	-0.055755	-20.681545	-22.411943	-109.809809
0.400000	-21.342646	-115.181856	-0.066285	-23.607257	-0.066285	-23.607257	-21.336348	-112.638626
0.450000	-20.414780	-118.313223	-0.077421	-26.526855	-0.077421	-26.526855	-20.408419	-115.445601
0.500000	-19.602548	-121.430589	-0.088996	-29.440900	-0.088996	-29.440900	-19.596141	-118.236073
0.550000	-18.888530	-124.535222	-0.100945	-32.348772	-0.100945	-32.348772	-18.882090	-121.010488
0.600000	-18.256242	-127.629790	-0.113138	-35.250755	-0.113138	-35.250755	-18.249779	-123.771103
0.650000	-17.695144	-130.715597	-0.125469	-38.146729	-0.125469	-38.146729	-17.688671	-126.518540
0.700000	-17.196032	-133.794036	-0.137822	-41.036875	-0.137822	-41.036875	-17.189562	-129.253670
0.750000	-16.752360	-136.866125	-0.150082	-43.921285	-0.150082	-43.921285	-16.745908	-131.976835
0.800000	-16.358632	-139.932880	-0.162131	-46.800193	-0.162131	-46.800193	-16.352211	-134.688392
0.850000	-16.010237	-142.995318	-0.173857	-49.673948	-0.173857	-49.673948	-16.003862	-137.388694
0.900000	-15.704252	-146.054374	-0.185138	-52.542837	-0.185138	-52.542837	-15.697936	-140.077722
0.950000	-15.437420	-149.111169	-0.195869	-55.407410	-0.195869	-55.407410	-15.431172	-142.755811
1.000000	-15.207594	-152.166850	-0.205941	-58.268207	-0.205941	-58.268207	-15.201420	-145.423062
1.050000	-15.012786	-155.222668	-0.215260	-61.125886	-0.215260	-61.125886	-15.006689	-148.079659
1.100000	-14.851156	-158.279949	-0.223749	-63.981185	-0.223749	-63.981185	-14.845135	-150.725844
1.150000	-14.722747	-161.340288	-0.231292	-66.834820	-0.231292	-66.834820	-14.716800	-153.361274
1.200000	-14.626391	-164.405334	-0.237831	-69.687689	-0.237831	-69.687689	-14.620509	-155.986081
1.250000	-14.561030	-167.476765	-0.243329	-72.540694	-0.243329	-72.540694	-14.555203	-158.600363
1.300000	-14.527156	-170.556699	-0.247717	-75.394793	-0.247717	-75.394793	-14.521370	-161.203654
1.350000	-14.525537	-173.647594	-0.250941	-78.251050	-0.250941	-78.251050	-14.519774	-163.795296
1.400000	-14.555478	-176.751476	-0.253027	-81.110417	-0.253027	-81.110417	-14.549716	-166.375044
1.450000	-14.617879	-179.871014	-0.253970	-83.973931	-0.253970	-83.973931	-14.612088	-168.941901
1.500000	-14.715639	176.989715	-0.253727	-86.842963	-0.253727	-86.842963	-14.709780	-171.493695
1.550000	-14.848539	173.828234	-0.252394	-89.718338	-0.252394	-89.718338	-14.842562	-174.029240
1.600000	-15.018588	170.640694	-0.250022	-92.601122	-0.250022	-92.601122	-15.012425	-176.545969
1.650000	-15.229957	167.421041	-0.246638	-95.492811	-0.246638	-95.492811	-15.223512	-179.039265
1.700000	-15.484993	164.164326	-0.242361	-98.394326	-0.242361	-98.394326	-15.478132	178.495332
1.750000	-15.787121	160.864495	-0.237311	-101.306579	-0.237311	-101.306579	-15.779660	176.063843
1.800000	-16.141967	157.512564	-0.231600	-104.230790	-0.231600	-104.230790	-16.133644	173.675608
1.850000	-16.555932	154.097755	-0.225367	-107.167996	-0.225367	-107.167996	-16.546367	171.342827
1.900000	-17.037527	150.605143	-0.218768	-110.119297	-0.218768	-110.119297	-17.026158	169.083172
1.950000	-17.597286	147.014928	-0.211980	-113.085620	-0.211980	-113.085620	-17.583268	166.921264
2.000000	-18.248580	143.300430	-0.205192	-116.067655	-0.205192	-116.067655	-18.230617	164.891435
2.050000	-19.009795	139.421691	-0.198604	-119.066099	-0.198604	-119.066099	-18.985816	163.045651
2.100000	-19.906222	135.317509	-0.192431	-122.081521	-0.192431	-122.081521	-19.872784	161.464155
2.150000	-20.973843	130.888847	-0.186900	-125.114354	-0.186900	-125.114354	-20.924900	160.276790
2.200000	-22.266207	125.962075	-0.182252	-128.164927	-0.182252	-128.164927	-22.190339	159.709200
2.250000	-23.866883	120.199890	-0.178744	-131.233455	-0.178744	-131.233455	-23.740328	160.191064
2.300000	-25.912098	112.894067	-0.176623	-134.319738	-0.176623	-134.319738	-25.679261	162.588432
2.350000	-28.633352	102.238044	-0.176150	-137.423535	-0.176150	-137.423535	-28.141572	168.924515
2.400000	-32.321557	82.593509	-0.177587	-140.544424	-0.177587	-140.544424	-31.098152	-175.744914
2.450000	-35.670281	38.376259	-0.181196	-143.681789	-0.181196	-143.681789	-33.089976	-143.687090
2.500000	-33.178911	-13.566316	-0.187232	-146.834819	-0.187232	-146.834819	-31.339371	-108.870830
2.550000	-28.929465	-37.605750	-0.195993	-150.002733	-0.195993	-150.002733	-28.036213	-91.274663
2.600000	-25.665026	-49.870270	-0.207676	-153.184068	-0.207676	-153.184068	-25.160290	-83.944181
2.650000	-23.159376	-57.927532	-0.222504	-156.377433	-0.222504	-156.377433	-22.829931	-81.136643
2.700000	-21.149240	-64.146826	-0.240679	-159.581264	-0.240679	-159.581264	-20.911648	-80.508181
2.750000	-19.477441	-69.421431	-0.262384	-162.793832	-0.262384	-162.793832	-19.293856	-81.059509
2.800000	-18.049699	-74.151352	-0.287773	-166.013262	-0.287773	-166.013262	-17.900663	-82.312511
2.850000	-16.806336	-78.539721	-0.316973	-169.237551	-0.316973	-169.237551	-16.680832	-84.013399
2.900000	-15.707544	-82.699548	-0.350082	-172.464590	-0.350082	-172.464590	-15.598858	-86.015626
2.950000	-14.725558	-86.698061	-0.387163	-175.692189	-0.387163	-175.692189	-14.629351	-88.228597
3.000000	-13.840277	-90.577306	-0.428246	-178.918101	-0.428246	-178.918101	-13.753611	-90.593071
3.050000	-13.036682	-94.364574	-0.473325	177.859950	-0.473325	177.859950	-12.957492	-93.068439
3.100000	-12.303246	-98.078069	-0.522360	174.644237	-0.522360	174.644237	-12.230034	-95.625718
3.150000	-11.630981	-101.729605	-0.575312	171.437127	-0.575312	171.437127	-11.562627	-98.243969
3.200000	-11.012671	-105.327918	-0.632062	168.240884	-0.632062	168.240884	-10.948326	-100.906472
3.250000	-10.442325	-108.879476	-0.692426	165.057522	-0.692426	165.057522	-10.381330	-103.600046
3.300000	-9.915008	-112.388353	-0.756229	161.889041	-0.756229	161.889041	-9.856842	-106.314679
3.350000	-9.426565	-115.857413	-0.823265	158.737313	-0.823265	158.737313	-9.370813	-109.042243
3.400000	-8.973450	-119.288677	-0.893304	155.604066	-0.893304	155.604066	-8.919775	-111.776055
3.450000	-8.552603	-122.683587	-0.966095	152.490866	-0.966095	152.490866	-8.500729	-114.510574
3.500000	-8.161351	-126.043189	-1.041365	149.399111	-1.041365	149.399111	-8.111050	-117.241183
3.550000	-7.797340	-129.368271	-1.118827	146.330015	-1.118827	146.330015	-7.748424	-119.964026
3.600000	-7.458479	-132.659463	-1.198183	143.284609	-1.198183	143.284609	-7.410789	-122.675892
3.650000	-7.142896	-135.917310	-1.279123	140.263737	-1.279123	140.263737	-7.096299	-125.374119
3.700000	-6.848906	-139.142326	-1.361332	137.268056	-1.361332	137.268056	-6.803289	-128.056525
3.750000	-6.574982	-142.335032	-1.444494	134.298039	-1.444494	134.298039	-6.530251	-130.721349
3.800000	-6.319964	-145.495306	-1.528278	131.354550	-1.528278	131.354550	-6.276036	-133.366764
3.850000	-6.082347	-148.624465	-1.612365	128.437144	-1.612365	128.437144	-6.039154	-135.992113
3.900000	-5.860971	-151.723184	-1.696447	125.545773	-1.696447	125.545773	-5.818453	-138.596652
3.950000	-5.654769	-154.792212	-1.780219	122.680238	-1.780219	122.680238	-5.612878	-141.179897
4.000000	-5.462763	-157.832369	-1.863385	119.840197	-1.863385	119.840197	-5.421457	-143.741597
4.050000	-5.284052	-160.844548	-1.945659	117.025181	-1.945659	117.025181	-5.243296	-146.281711
4.100000	-5.117807	-163.829710	-2.026766	114.234599	-2.026766	114.234599	-5.077572	-148.800387
4.150000	-4.963263	-166.788884	-2.106442	111.467752	-2.106442	111.467752	-4.923525	-151.297935
4.200000	-4.820515	-169.720815	-2.184181	108.726015	-2.184181	108.726015	-4.781256	-153.772845
4.250000	-4.687375	-172.631202	-2.260200	106.004294	-2.260200	106.004294	-4.648579	-156.229515
4.300000	-4.563981	-175.519051	-2.334068	103.303635	-2.334068	103.303635	-4.525638	-158.666850
4.350000	-4.449785	-178.385597	-2.405569	100.623003	-2.405569	100.623003	-4.411888	-161.085663
4.400000	-4.344283	178.767891	-2.474503	97.961305	-2.474503	97.961305	-4.306829	-163.486857
4.450000	-4.247014	175.940113	-2.540682	95.317395	-2.540682	95.317395	-4.210000	-165.871417
4.500000	-4.157554	173.129742	-2.603929	92.690078	-2.603929	92.690078	-4.120984	-168.240393
4.550000	-4.075517	170.335430	-2.664081	90.078119	-2.664081	90.078119	-4.039396	-170.594901
4.600000	-4.000552	167.555816	-2.720985	87.480249	-2.720985	87.480249	-3.964887	-172.936109
4.650000	-3.932341	164.789522	-2.774499	84.895167	-2.774499	84.895167	-3.897143	-175.265231
4.700000	-3.870596	162.035165	-2.824495	82.321544	-2.824495	82.321544	-3.835879	-177.583527
4.750000	-3.815058	159.291354	-2.870852	79.758029	-2.870852	79.758029	-3.780838	-179.892291
4.800000	-3.765500	156.556695	-2.913460	77.203246	-2.913460	77.203246	-3.731794	177.807147
4.850000	-3.721716	153.829794	-2.952222	74.655805	-2.952222	74.655805	-3.688547	175.513428
4.900000	-3.683532	151.109258	-2.987046	72.114292	-2.987046	72.114292	-3.650921	173.225164
4.950000	-3.650794	148.393697	-3.017852	69.577282	-3.017852	69.577282	-3.618770	170.940939
5.000000	-3.623377	145.681726	-3.044568	67.043330	-3.044568	67.043330	-3.591966	168.659314
5.050000	-3.601396	142.971995	-3.066946	64.510977	-3.066946	64.510977	-3.570633	166.378805
5.100000	-3.584548	140.262979	-3.085114	61.978613	-3.085114	61.978613	-3.554467	164.097807
5.150000	-3.572779	137.553312	-3.099027	59.444746	-3.099027	59.444746	-3.543416	161.814806
5.200000	-3.566055	134.841642	-3.108646	56.907867	-3.108646	56.907867	-3.537451	159.528262
5.250000	-3.564368	132.126625	-3.113943	54.366452	-3.113943	54.366452	-3.536566	157.236613
5.300000	-3.567733	129.406929	-3.114897	51.818956	-3.114897	51.818956	-3.540780	154.938268
5.350000	-3.576189	126.681237	-3.111496	49.263821	-3.111496	49.263821	-3.550133	152.631613
5.400000	-3.589797	123.948243	-3.103735	46.699464	-3.103735	46.699464	-3.564692	150.315002
5.450000	-3.608645	121.206663	-3.091621	44.124289	-3.091621	44.124289	-3.584547	147.986763
5.500000	-3.632846	118.455228	-3.075166	41.536673	-3.075166	41.536673	-3.609816	145.645192
5.550000	-3.662541	115.692693	-3.054396	38.934976	-3.054396	38.934976	-3.640644	143.288554
5.600000	-3.697898	112.917839	-3.029342	36.317537	-3.029342	36.317537	-3.677203	140.915078
5.650000	-3.739115	110.129479	-3.000050	33.682670	-3.000050	33.682670	-3.719698	138.522961
5.700000	-3.786423	107.326460	-2.966573	31.028670	-2.966573	31.028670	-3.768364	136.110362
5.750000	-3.840086	104.507673	-2.928980	28.353811	-2.928980	28.353811	-3.823471	133.675404
5.800000	-3.900404	101.672061	-2.887349	25.656346	-2.887349	25.656346	-3.885326	131.216171
5.850000	-3.967121	98.820275	-2.842128	22.936815	-2.842128	22.936815	-3.953676	128.733199
5.900000	-4.041858	95.947955	-2.792661	20.188681	-2.792661	20.188681	-4.030164	126.219365
5.950000	-4.124400	93.056029	-2.739477	17.412560	-2.739477	17.412560	-4.114580	123.675231
6.000000	-4.215223	90.143767	-2.682713	14.606645	-2.682713	14.606645	-4.207413	121.098725
6.050000	-4.314857	87.210565	-2.622525	11.769130	-2.622525	11.769130	-4.309206	118.487734
6.100000	-4.423889	84.255972	-2.559086	8.898205	-2.559086	8.898205	-4.420565	115.840109
6.150000	-4.542970	81.279713	-2.492588	5.992072	-2.492588	5.992072	-4.542162	113.153667
6.200000	-4.672819	78.281730	-2.423244	3.048951	-2.423244	3.048951	-4.674744	110.426188
6.250000	-4.814233	75.262222	-2.351287	0.067090	-2.351287	0.067090	-4.819137	107.655424
6.300000	-4.968319	72.221253	-2.276916	-2.956140	-2.276916	-2.956140	-4.976492	104.838050
6.350000	-5.135844	69.160193	-2.200482	-6.021548	-2.200482	-6.021548	-5.147620	101.972694
6.400000	-5.317881	66.080385	-2.122290	-9.130713	-2.122290	-9.130713	-5.333654	99.057020
6.450000	-5.515614	62.983704	-2.042670	-12.285124	-2.042670	-12.285124	-5.535851	96.088658
6.500000	-5.730349	59.872666	-1.961978	-15.486155	-1.961978	-15.486155	-5.755612	93.065208
6.550000	-5.963531	56.750554	-1.880592	-18.735050	-1.880592	-18.735050	-5.994496	89.984226
6.600000	-6.216750	53.621575	-1.798917	-22.032894	-1.798917	-22.032894	-6.254246	86.843211
6.650000	-6.491768	50.491058	-1.717376	-25.380590	-1.717376	-25.380590	-6.536815	83.639580
6.700000	-6.790520	47.365663	-1.636417	-28.778785	-1.636417	-28.778785	-6.844383	80.370699
6.750000	-7.115263	44.253889	-1.556509	-32.228288	-1.556509	-32.228288	-7.179542	77.033201
6.800000	-7.468245	41.166020	-1.478128	-35.728803	-1.478128	-35.728803	-7.544959	73.624599
6.850000	-7.852112	38.114902	-1.401761	-39.280239	-1.401761	-39.280239	-7.943847	70.141391
6.900000	-8.270069	35.117766	-1.327940	-42.883061	-1.327940	-42.883061	-8.380215	66.578069
6.950000	-8.725364	32.195773	-1.257184	-46.536502	-1.257184	-46.536502	-8.858391	62.929455
7.000000	-9.221325	29.373605	-1.189945	-50.238606	-1.189945	-50.238606	-9.383139	59.190681
7.050000	-9.761908	26.683668	-1.126697	-53.987942	-1.126697	-53.987942	-9.960483	55.353685
7.100000	-10.351426	24.167304	-1.067891	-57.782731	-1.067891	-57.782731	-10.597700	51.407702
7.150000	-10.994488	21.877750	-1.013947	-61.620853	-1.013947	-61.620853	-11.303732	47.337934
7.200000	-11.695838	19.887560	-0.965297	-65.500191	-0.965297	-65.500191	-12.089904	43.121958
7.250000	-12.459642	18.299048	-0.922385	-69.418538	-0.922385	-69.418538	-12.970724	38.724532
7.300000	-13.288794	17.227773	-0.885364	-73.371808	-0.885364	-73.371808	-13.964530	34.101803
7.350000	-14.183384	16.837138	-0.854452	-77.356754	-0.854452	-77.356754	-15.096650	29.179007
7.400000	-15.137245	17.340854	-0.829802	-81.369966	-0.829802	-81.369966	-16.402442	23.833256
7.450000	-16.132916	18.994973	-0.811438	-85.407733	-0.811438	-85.407733	-17.933270	17.858351
7.500000	-17.123505	22.179981	-0.799668	-89.467473	-0.799668	-89.467473	-19.764551	10.789451
7.550000	-18.042332	27.059874	-0.794007	-93.544337	-0.794007	-93.544337	-22.015873	1.851232
7.600000	-18.759168	33.767609	-0.794677	-97.635853	-0.794677	-97.635853	-24.839458	-11.283439
7.650000	-19.157818	41.763110	-0.801147	-101.738109	-0.801147	-101.738109	-28.256382	-33.966401
7.700000	-19.149994	50.068437	-0.813257	-105.848389	-0.813257	-105.848389	-30.567127	-75.295668
7.750000	-18.764360	57.517943	-0.830616	-109.964001	-0.830616	-109.964001	-28.724279	-117.893317
7.800000	-18.121393	63.383425	-0.852678	-114.082609	-0.852678	-114.082609	-25.539098	-142.017085
7.850000	-17.340835	67.391915	-0.879144	-118.202474	-0.879144	-118.202474	-22.886048	-155.455510
7.900000	-16.529311	69.816471	-0.909236	-122.322235	-0.909236	-122.322235	-20.827088	-164.741721
7.950000	-15.739672	70.836465	-0.942645	-126.441042	-0.942645	-126.441042	-19.201124	-171.909031
8.000000	-15.004850	70.850303	-0.978508	-130.558779	-0.978508	-130.558779	-17.884348	-178.037020
8.050000	-14.335448	70.096742	-1.016195	-134.675840	-1.016195	-134.675840	-16.797042	176.456212
8.100000	-13.733911	68.747511	-1.055107	-138.793130	-1.055107	-138.793130	-15.887547	171.353879
8.150000	-13.200138	66.922811	-1.094636	-142.912213	-1.094636	-142.912213	-15.122672	166.532829
8.200000	-12.734966	64.702888	-1.134067	-147.035831	-1.134067	-147.035831	-14.482801	161.919438
8.250000	-12.331085	62.208605	-1.172776	-151.166488	-1.172776	-151.166488	-13.942987	157.435587
8.300000	-11.985299	59.492843	-1.210192	-155.307512	-1.210192	-155.307512	-13.490566	153.046418
8.350000	-11.694998	56.596386	-1.245766	-159.462818	-1.245766	-159.462818	-13.116358	148.725707
8.400000	-11.461736	53.541787	-1.278762	-163.638685	-1.278762	-163.638685	-12.818145	144.455166
8.450000	-11.283209	50.360724	-1.308724	-167.840436	-1.308724	-167.840436	-12.589841	140.214837
8.500000	-11.159297	47.075307	-1.335187	-172.074821	-1.335187	-172.074821	-12.428960	135.988784
8.550000	-11.087502	43.706433	-1.358024	-176.346288	-1.358024	-176.346288	-12.330892	131.764611
8.600000	-11.077743	40.257850	-1.376358	179.330646	-1.376358	179.330646	-12.306090	127.529417
8.650000	-11.126185	36.752149	-1.390537	174.953087	-1.390537	174.953087	-12.349134	123.273940
8.700000	-11.240030	33.199334	-1.400324	170.509744	-1.400324	170.509744	-12.467918	118.988758
8.750000	-11.430749	29.614451	-1.405570	165.984966	-1.405570	165.984966	-12.675580	114.663432
8.800000	-11.701110	26.020193	-1.406959	161.375386	-1.406959	161.375386	-12.975724	110.296444
8.850000	-12.073195	22.446951	-1.404599	156.658871	-1.404599	156.658871	-13.395150	105.881287
8.900000	-12.560535	18.941512	-1.399532	151.828625	-1.399532	151.828625	-13.952232	101.425809
8.950000	-13.193699	15.583118	-1.392769	146.866340	-1.392769	146.866340	-14.688094	96.945417
9.000000	-14.010639	12.504395	-1.385867	141.758465	-1.385867	141.758465	-15.658634	92.482045
9.050000	-15.069290	9.947512	-1.380817	136.489746	-1.380817	136.489746	-16.957568	88.129765
9.100000	-16.462378	8.436269	-1.380352	131.040321	-1.380352	131.040321	-18.759978	84.135292
9.150000	-18.321474	9.090685	-1.387716	125.398846	-1.387716	125.398846	-21.413176	81.207403
9.200000	-20.808253	14.727509	-1.406765	119.555199	-1.406765	119.555199	-25.827270	82.369260
9.250000	-23.709924	32.633554	-1.442094	113.501161	-1.442094	113.501161	-34.438871	120.788990
9.300000	-24.458073	68.204033	-1.498957	107.233457	-1.498957	107.233457	-28.898838	-151.540339
9.350000	-21.327067	95.826391	-1.583166	100.755424	-1.583166	100.755424	-21.854293	-142.884613
9.400000	-17.732540	105.459512	-1.701531	94.075579	-1.701531	94.075579	-17.677762	-145.537966
9.450000	-14.819291	106.882557	-1.859934	87.218490	-1.859934	87.218490	-14.718359	-150.501249
9.500000	-12.492851	104.777364	-2.064224	80.216975	-2.064224	80.216975	-12.436002	-156.399272
9.550000	-10.599840	100.917454	-2.319384	73.114359	-2.319384	73.114359	-10.597851	-162.783178
9.600000	-9.035576	96.096081	-2.628950	65.963725	-2.628950	65.963725	-9.083140	-169.435062
9.650000	-7.730673	90.738203	-2.993693	58.824253	-2.993693	58.824253	-7.819888	-176.216238
9.700000	-6.637027	85.091571	-3.412658	51.755229	-3.412658	51.755229	-6.760667	176.972446
9.750000	-5.719651	79.323334	-3.882607	44.812164	-3.882607	44.812164	-5.871686	170.210683
9.800000	-4.949789	73.551831	-4.398090	38.037520	-4.398090	38.037520	-5.125321	163.559822
9.850000	-4.304545	67.859217	-4.953221	31.463929	-4.953221	31.463929	-4.499632	157.066747
9.900000	-3.765255	62.305124	-5.541551	25.115970	-5.541551	25.115970	-3.976699	150.767301
9.950000	-3.314255	56.925475	-6.156878	19.002383	-6.156878	19.002383	-3.539462	144.679446
10.000000	-2.937312	51.742690	-6.793403	13.127246	-6.793403	13.127246	-3.174149	138.813393
