! freq	dB(S11)	phase(S11)	dB(S12)	phase(S12)	
!     	dB(S21)	phase(S21)	dB(S22)	phase(S22)	
!S-par simulation data
#  GHz  S  DB  R 50
0.000000	-0.000000	-0.000000	-310.135429	180.000000	-310.135429	180.000000	0.000000	0.000000
0.050000	-0.010636	-1.305211	-97.912904	85.334462	-97.912904	85.334462	-0.013571	-1.445717
0.100000	-0.013511	-2.668598	-92.226449	84.535774	-92.226449	84.535774	-0.015560	-2.946239
0.150000	-0.014458	-4.023918	-88.853905	83.841095	-88.853905	83.841095	-0.016261	-4.436723
0.200000	-0.015112	-5.375383	-86.457042	82.947524	-86.457042	82.947524	-0.016842	-5.923626
0.250000	-0.015744	-6.724600	-84.616252	81.922829	-84.616252	81.922829	-0.017470	-7.408491
0.300000	-0.016430	-8.072424	-83.135047	80.839043	-83.135047	80.839043	-0.018182	-8.892043
0.350000	-0.017192	-9.419019	-81.910409	79.727669	-81.910409	79.727669	-0.018991	-10.374383
0.400000	-0.018039	-10.764474	-80.879389	78.613478	-80.879389	78.613478	-0.019901	-11.855552
0.450000	-0.018971	-12.108797	-80.001251	77.514357	-80.001251	77.514357	-0.020909	-13.335524
0.500000	-0.019988	-13.451960	-79.248235	76.444751	-79.248235	76.444751	-0.022011	-14.814245
0.550000	-0.021084	-14.793912	-78.600677	75.417581	-78.600677	75.417581	-0.023202	-16.291646
0.600000	-0.022256	-16.134596	-78.044234	74.445410	-78.044234	74.445410	-0.024478	-17.767651
0.650000	-0.023499	-17.473949	-77.568205	73.541240	-77.568205	73.541240	-0.025832	-19.242183
0.700000	-0.024807	-18.811909	-77.164473	72.719149	-77.164473	72.719149	-0.027259	-20.715169
0.750000	-0.026175	-20.148414	-76.826792	71.994865	-76.826792	71.994865	-0.028751	-22.186534
0.800000	-0.027596	-21.483405	-76.550293	71.386357	-76.550293	71.386357	-0.030303	-23.656212
0.850000	-0.029066	-22.816825	-76.331116	70.914473	-76.331116	70.914473	-0.031910	-25.124137
0.900000	-0.030580	-24.148622	-76.166112	70.603676	-76.166112	70.603676	-0.033564	-26.590249
0.950000	-0.032132	-25.478746	-76.052579	70.482883	-76.052579	70.482883	-0.035261	-28.054494
1.000000	-0.033717	-26.807151	-75.987983	70.586423	-75.987983	70.586423	-0.036995	-29.516820
1.050000	-0.035331	-28.133794	-75.969647	70.955073	-75.969647	70.955073	-0.038761	-30.977182
1.100000	-0.036969	-29.458637	-75.994348	71.637098	-75.994348	71.637098	-0.040553	-32.435538
1.150000	-0.038627	-30.781644	-76.057787	72.689067	-76.057787	72.689067	-0.042368	-33.891851
1.200000	-0.040301	-32.102781	-76.153869	74.176028	-76.153869	74.176028	-0.044202	-35.346086
1.250000	-0.041989	-33.422020	-76.273756	76.170279	-76.273756	76.170279	-0.046051	-36.798215
1.300000	-0.043688	-34.739247	-76.404216	78.776049	-76.404216	78.776049	-0.047911	-38.248119
1.350000	-0.045393	-36.054522	-76.525553	82.039191	-76.525553	82.039191	-0.049779	-39.695867
1.400000	-0.047103	-37.367823	-76.612844	86.002767	-76.612844	86.002767	-0.051652	-41.141441
1.450000	-0.048816	-38.679130	-76.635433	90.660630	-76.635433	90.660630	-0.053529	-42.584827
1.500000	-0.050531	-39.988425	-76.559842	95.931214	-76.559842	95.931214	-0.055407	-44.026011
1.550000	-0.052244	-41.295694	-76.355652	101.642307	-76.355652	101.642307	-0.057285	-45.464986
1.600000	-0.053957	-42.600923	-76.003075	107.542356	-76.003075	107.542356	-0.059161	-46.901745
1.650000	-0.055666	-43.904101	-75.498834	113.343087	-75.498834	113.343087	-0.061035	-48.336285
1.700000	-0.057373	-45.205217	-74.856949	118.777932	-74.856949	118.777932	-0.062905	-49.768605
1.750000	-0.059076	-46.504264	-74.103991	123.649544	-74.103991	123.649544	-0.064771	-51.198708
1.800000	-0.060775	-47.801236	-73.271685	127.848764	-73.271685	127.848764	-0.066632	-52.626598
1.850000	-0.062470	-49.096127	-72.390422	131.346133	-72.390422	131.346133	-0.068490	-54.052283
1.900000	-0.064161	-50.388936	-71.485515	134.168870	-71.485515	134.168870	-0.070343	-55.475773
1.950000	-0.065848	-51.679661	-70.576063	136.376301	-70.576063	136.376301	-0.072192	-56.897080
2.000000	-0.067532	-52.968302	-69.675428	138.040810	-69.675428	138.040810	-0.074037	-58.316220
2.050000	-0.069213	-54.254862	-68.792359	139.235791	-68.792359	139.235791	-0.075880	-59.733210
2.100000	-0.070892	-55.539345	-67.932199	140.029282	-67.932199	140.029282	-0.077720	-61.148070
2.150000	-0.072569	-56.821756	-67.097899	140.481329	-67.097899	140.481329	-0.079559	-62.560824
2.200000	-0.074245	-58.102102	-66.290800	140.643453	-66.290800	140.643453	-0.081397	-63.971497
2.250000	-0.075921	-59.380392	-65.511189	140.559176	-65.511189	140.559176	-0.083235	-65.380117
2.300000	-0.077598	-60.656638	-64.758689	140.264959	-64.758689	140.264959	-0.085075	-66.786715
2.350000	-0.079277	-61.930851	-64.032519	139.791245	-64.032519	139.791245	-0.086917	-68.191325
2.400000	-0.080958	-63.203047	-63.331667	139.163446	-63.331667	139.163446	-0.088763	-69.593983
2.450000	-0.082643	-64.473241	-62.655004	138.402805	-62.655004	138.402805	-0.090614	-70.994729
2.500000	-0.084333	-65.741453	-62.001360	137.527135	-62.001360	137.527135	-0.092471	-72.393603
2.550000	-0.086029	-67.007617	-61.368533	136.547667	-61.368533	136.547667	-0.094336	-73.790575
2.600000	-0.087733	-68.271842	-60.756570	135.481781	-60.756570	135.481781	-0.096210	-75.185772
2.650000	-0.089444	-69.534153	-60.164356	134.340007	-60.164356	134.340007	-0.098094	-76.579247
2.700000	-0.091165	-70.794576	-59.590839	133.131339	-59.590839	133.131339	-0.099989	-77.971053
2.750000	-0.092896	-72.053139	-59.035029	131.863492	-59.035029	131.863492	-0.101897	-79.361247
2.800000	-0.094639	-73.309873	-58.496000	130.543113	-58.496000	130.543113	-0.103819	-80.749889
2.850000	-0.096394	-74.564809	-57.972888	129.175950	-57.972888	129.175950	-0.105757	-82.137041
2.900000	-0.098163	-75.817984	-57.464888	127.766994	-57.464888	127.766994	-0.107711	-83.522769
2.950000	-0.099947	-77.069432	-56.971249	126.320594	-56.971249	126.320594	-0.109683	-84.907143
3.000000	-0.101747	-78.319193	-56.491273	124.840554	-56.491273	124.840554	-0.111675	-86.290234
3.050000	-0.103564	-79.567309	-56.024311	123.330212	-56.024311	123.330212	-0.113687	-87.672117
3.100000	-0.105399	-80.813821	-55.569757	121.792509	-55.569757	121.792509	-0.115720	-89.052870
3.150000	-0.107253	-82.058774	-55.127046	120.230038	-55.127046	120.230038	-0.117777	-90.432575
3.200000	-0.109127	-83.302218	-54.695652	118.645100	-54.695652	118.645100	-0.119858	-91.811316
3.250000	-0.111023	-84.544200	-54.275082	117.039735	-54.275082	117.039735	-0.121964	-93.189181
3.300000	-0.112940	-85.784772	-53.864878	115.415759	-53.864878	115.415759	-0.124097	-94.566260
3.350000	-0.114881	-87.023989	-53.464610	113.774795	-53.464610	113.774795	-0.126258	-95.942646
3.400000	-0.116845	-88.261906	-53.073875	112.118293	-53.073875	112.118293	-0.128447	-97.318438
3.450000	-0.118835	-89.498582	-52.692295	110.447550	-52.692295	110.447550	-0.130667	-98.693735
3.500000	-0.120851	-90.734078	-52.319517	108.763734	-52.319517	108.763734	-0.132917	-100.068642
3.550000	-0.122893	-91.968455	-51.955208	107.067892	-51.955208	107.067892	-0.135199	-101.443263
3.600000	-0.124963	-93.201779	-51.599055	105.360971	-51.599055	105.360971	-0.137515	-102.817711
3.650000	-0.127062	-94.434118	-51.250764	103.643820	-51.250764	103.643820	-0.139865	-104.192097
3.700000	-0.129190	-95.665540	-50.910058	101.917210	-50.910058	101.917210	-0.142249	-105.566538
3.750000	-0.131349	-96.896117	-50.576676	100.181835	-50.576676	100.181835	-0.144670	-106.941154
3.800000	-0.133540	-98.125893	-50.250147	98.437999	-50.250147	98.437999	-0.147129	-108.316087
3.850000	-0.135763	-99.354982	-49.930487	96.686645	-49.930487	96.686645	-0.149627	-109.691456
3.900000	-0.138019	-100.583462	-49.617474	94.928282	-49.617474	94.928282	-0.152163	-111.067391
3.950000	-0.140308	-101.811413	-49.310898	93.163374	-49.310898	93.163374	-0.154739	-112.444026
4.000000	-0.142632	-103.038920	-49.010562	91.392340	-49.010562	91.392340	-0.157355	-113.821497
4.050000	-0.144990	-104.266068	-48.716278	89.615561	-48.716278	89.615561	-0.160013	-115.199945
4.100000	-0.147385	-105.492944	-48.427868	87.833385	-48.427868	87.833385	-0.162713	-116.579512
4.150000	-0.149815	-106.719639	-48.145164	86.046126	-48.145164	86.046126	-0.165456	-117.960346
4.200000	-0.152283	-107.946244	-47.868007	84.254070	-47.868007	84.254070	-0.168242	-119.342597
4.250000	-0.154789	-109.172854	-47.596245	82.457474	-47.596245	82.457474	-0.171073	-120.726418
4.300000	-0.157333	-110.399566	-47.329735	80.656576	-47.329735	80.656576	-0.173950	-122.111966
4.350000	-0.159917	-111.626480	-47.068340	78.851587	-47.068340	78.851587	-0.176872	-123.499403
4.400000	-0.162540	-112.853695	-46.811932	77.042699	-46.811932	77.042699	-0.179840	-124.888891
4.450000	-0.165204	-114.081317	-46.560387	75.230088	-46.560387	75.230088	-0.182856	-126.280599
4.500000	-0.167908	-115.309452	-46.313589	73.413910	-46.313589	73.413910	-0.185919	-127.674696
4.550000	-0.170655	-116.538206	-46.071428	71.594305	-46.071428	71.594305	-0.189031	-129.071358
4.600000	-0.173443	-117.767692	-45.833798	69.771401	-45.833798	69.771401	-0.192192	-130.470763
4.650000	-0.176275	-118.998021	-45.600599	67.945310	-45.600599	67.945310	-0.195403	-131.873090
4.700000	-0.179149	-120.229310	-45.371736	66.116133	-45.371736	66.116133	-0.198663	-133.278527
4.750000	-0.182068	-121.461676	-45.147119	64.283959	-45.147119	64.283959	-0.201975	-134.687260
4.800000	-0.185031	-122.695239	-44.926663	62.448865	-44.926663	62.448865	-0.205337	-136.099482
4.850000	-0.188040	-123.930122	-44.710285	60.610919	-44.710285	60.610919	-0.208752	-137.515389
4.900000	-0.191093	-125.166448	-44.497909	58.770178	-44.497909	58.770178	-0.212218	-138.935180
4.950000	-0.194193	-126.404346	-44.289461	56.926692	-44.289461	56.926692	-0.215737	-140.359058
5.000000	-0.197340	-127.643944	-44.084872	55.080500	-44.084872	55.080500	-0.219309	-141.787229
5.050000	-0.200535	-128.885461	-43.884041	53.231518	-43.884041	53.231518	-0.222937	-143.220110
5.100000	-0.203779	-130.128958	-43.686949	51.379887	-43.686949	51.379887	-0.226619	-144.657728
5.150000	-0.207070	-131.374572	-43.493539	49.525621	-43.493539	49.525621	-0.230356	-146.100302
5.200000	-0.210410	-132.622442	-43.303753	47.668728	-43.303753	47.668728	-0.234146	-147.548052
5.250000	-0.213799	-133.872710	-43.117538	45.809207	-43.117538	45.809207	-0.237992	-149.001204
5.300000	-0.217238	-135.125522	-42.934845	43.947052	-42.934845	43.947052	-0.241893	-150.459988
5.350000	-0.220727	-136.381023	-42.755627	42.082246	-42.755627	42.082246	-0.245850	-151.924636
5.400000	-0.224265	-137.639365	-42.579838	40.214768	-42.579838	40.214768	-0.249863	-153.395384
5.450000	-0.227855	-138.900698	-42.407438	38.344589	-42.407438	38.344589	-0.253932	-154.872473
5.500000	-0.231496	-140.165178	-42.238388	36.471671	-42.238388	36.471671	-0.258057	-156.356147
5.550000	-0.235188	-141.432961	-42.072652	34.595969	-42.072652	34.595969	-0.262238	-157.846652
5.600000	-0.238932	-142.704207	-41.910195	32.717432	-41.910195	32.717432	-0.266476	-159.344240
5.650000	-0.242729	-143.979079	-41.750989	30.835997	-41.750989	30.835997	-0.270771	-160.849166
5.700000	-0.246578	-145.257741	-41.595003	28.951596	-41.595003	28.951596	-0.275123	-162.361688
5.750000	-0.250480	-146.540361	-41.442212	27.064150	-41.442212	27.064150	-0.279532	-163.882067
5.800000	-0.254436	-147.827108	-41.292593	25.173571	-41.292593	25.173571	-0.283998	-165.410570
5.850000	-0.258445	-149.118155	-41.146124	23.279761	-41.146124	23.279761	-0.288522	-166.947465
5.900000	-0.262507	-150.413678	-41.002788	21.382611	-41.002788	21.382611	-0.293102	-168.493025
5.950000	-0.266624	-151.713853	-40.862567	19.482000	-40.862567	19.482000	-0.297739	-170.047525
6.000000	-0.270795	-153.018861	-40.725449	17.577796	-40.725449	17.577796	-0.302434	-171.611245
6.050000	-0.275021	-154.328884	-40.591423	15.669852	-40.591423	15.669852	-0.307186	-173.184468
6.100000	-0.279302	-155.644109	-40.460479	13.758008	-40.460479	13.758008	-0.311995	-174.767479
6.150000	-0.283637	-156.964722	-40.332613	11.842088	-40.332613	11.842088	-0.316861	-176.360567
6.200000	-0.288027	-158.290915	-40.207820	9.921897	-40.207820	9.921897	-0.321783	-177.964026
6.250000	-0.292473	-159.622879	-40.086101	7.997223	-40.086101	7.997223	-0.326763	-179.578150
6.300000	-0.296976	-160.961080	-39.967522	6.067615	-39.967522	6.067615	-0.331801	178.796271
6.350000	-0.301535	-162.305463	-39.852032	4.133008	-39.852032	4.133008	-0.336897	177.159398
6.400000	-0.306148	-163.656230	-39.739637	2.193115	-39.739637	2.193115	-0.342048	175.510926
6.450000	-0.310817	-165.013584	-39.630350	0.247621	-39.630350	0.247621	-0.347257	173.850547
6.500000	-0.315539	-166.377353	-39.524084	-1.703487	-39.524084	-1.703487	-0.352519	172.178625
6.550000	-0.320318	-167.748407	-39.421029	-3.661173	-39.421029	-3.661173	-0.357840	170.493650
6.600000	-0.325153	-169.126664	-39.321131	-5.625608	-39.321131	-5.625608	-0.363218	168.795832
6.650000	-0.330042	-170.512337	-39.224412	-7.597266	-39.224412	-7.597266	-0.368653	167.084849
6.700000	-0.334986	-171.905637	-39.130902	-9.576674	-39.130902	-9.576674	-0.374145	165.360377
6.750000	-0.339985	-173.306782	-39.040631	-11.564417	-39.040631	-11.564417	-0.379695	163.622087
6.800000	-0.345038	-174.715988	-38.953635	-13.561154	-38.953635	-13.561154	-0.385305	161.869647
6.850000	-0.350145	-176.133473	-38.869952	-15.567623	-38.869952	-15.567623	-0.390973	160.102719
6.900000	-0.355307	-177.559555	-38.789658	-17.584781	-38.789658	-17.584781	-0.396704	158.320797
6.950000	-0.360523	-178.994462	-38.712805	-19.613604	-38.712805	-19.613604	-0.402498	156.523519
7.000000	-0.365791	179.561674	-38.639419	-21.655056	-38.639419	-21.655056	-0.408358	154.710691
7.050000	-0.371112	178.108628	-38.569561	-23.710363	-38.569561	-23.710363	-0.414285	152.881947
7.100000	-0.376485	176.646175	-38.503298	-25.780931	-38.503298	-25.780931	-0.420283	151.036913
7.150000	-0.381910	175.174087	-38.440701	-27.868372	-38.440701	-27.868372	-0.426358	149.175201
7.200000	-0.387385	173.692137	-38.381853	-29.974550	-38.381853	-29.974550	-0.432514	147.296408
7.250000	-0.392911	172.200097	-38.326841	-32.101626	-38.326841	-32.101626	-0.438758	145.400112
7.300000	-0.398487	170.697739	-38.275765	-34.252113	-38.275765	-34.252113	-0.445099	143.485870
7.350000	-0.404112	169.184834	-38.228731	-36.428960	-38.228731	-36.428960	-0.451548	141.553207
7.400000	-0.409786	167.661152	-38.185861	-38.635632	-38.185861	-38.635632	-0.458118	139.601614
7.450000	-0.415508	166.126467	-38.147286	-40.876235	-38.147286	-40.876235	-0.464825	137.630537
7.500000	-0.421277	164.580548	-38.113155	-43.155657	-38.113155	-43.155657	-0.471690	135.639367
7.550000	-0.427095	163.022915	-38.083735	-45.480889	-38.083735	-45.480889	-0.478743	133.626952
7.600000	-0.432959	161.453584	-38.059119	-47.858265	-38.059119	-47.858265	-0.486016	131.592950
7.650000	-0.438870	159.872328	-38.039514	-50.296517	-38.039514	-50.296517	-0.493550	129.536463
7.700000	-0.444829	158.278922	-38.025151	-52.806375	-38.025151	-52.806375	-0.501399	127.456442
7.750000	-0.450834	156.673140	-38.016290	-55.401139	-38.016290	-55.401139	-0.509634	125.351639
7.800000	-0.456889	155.054755	-38.013218	-58.097458	-38.013218	-58.097458	-0.518347	123.220551
7.850000	-0.462994	153.423543	-38.016248	-60.916413	-38.016248	-60.916413	-0.527660	121.061331
7.900000	-0.469153	151.779274	-38.025713	-63.885026	-38.025713	-63.885026	-0.537735	118.871679
7.950000	-0.475370	150.121719	-38.041949	-67.038414	-38.041949	-67.038414	-0.548795	116.648677
8.000000	-0.481653	148.450640	-38.065252	-70.422916	-38.065252	-70.422916	-0.561149	114.388566
8.050000	-0.488010	146.765795	-38.095796	-74.100756	-38.095796	-74.100756	-0.575233	112.086412
8.100000	-0.494459	145.066926	-38.133460	-78.157096	-38.133460	-78.157096	-0.591686	109.735615
8.150000	-0.501023	143.353598	-38.177519	-82.718364	-38.177519	-82.718364	-0.611512	107.326408
8.200000	-0.507740	141.625496	-38.225640	-87.963891	-38.225640	-87.963891	-0.636271	104.845629
8.250000	-0.514665	139.882639	-38.272385	-94.131072	-38.272385	-94.131072	-0.668278	102.276974
8.300000	-0.521899	138.124314	-38.305457	-101.630534	-38.305457	-101.630534	-0.711908	99.591837
8.350000	-0.529608	136.350305	-38.297754	-111.050342	-38.297754	-111.050342	-0.774644	96.752279
8.400000	-0.538113	134.560012	-38.185037	-123.406152	-38.185037	-123.406152	-0.872271	93.696088
8.450000	-0.547994	132.754173	-37.832690	-140.105941	-37.832690	-140.105941	-1.036465	90.352837
8.500000	-0.560425	130.936096	-36.967599	-163.235351	-36.967599	-163.235351	-1.344235	86.690393
8.550000	-0.577289	129.122315	-35.228248	164.932168	-35.228248	164.932168	-1.981438	83.223413
8.600000	-0.597099	127.366754	-32.778628	122.697989	-32.778628	122.697989	-3.161466	83.738147
8.650000	-0.600715	125.683452	-31.288404	73.717844	-31.288404	73.717844	-3.456034	93.686140
8.700000	-0.586415	123.882666	-31.734214	33.185408	-31.734214	33.185408	-2.157110	96.692012
8.750000	-0.578945	121.973462	-32.784286	6.813988	-32.784286	6.813988	-1.350098	93.117264
8.800000	-0.578885	120.039922	-33.683065	-10.270032	-33.683065	-10.270032	-0.992661	88.987303
8.850000	-0.582117	118.100112	-34.353902	-22.126737	-34.353902	-22.126737	-0.822967	85.263238
8.900000	-0.586732	116.153540	-34.849535	-30.869799	-34.849535	-30.869799	-0.734514	81.912000
8.950000	-0.591935	114.198235	-35.227371	-37.692888	-35.227371	-37.692888	-0.683863	78.813523
9.000000	-0.597410	112.232212	-35.520270	-43.181050	-35.520270	-43.181050	-0.653732	75.892594
9.050000	-0.602997	110.254851	-35.755812	-47.765298	-35.755812	-47.765298	-0.634729	73.089461
9.100000	-0.608621	108.264867	-35.947234	-51.651743	-35.947234	-51.651743	-0.622745	70.374246
9.150000	-0.614239	106.262791	-36.108364	-55.047217	-36.108364	-55.047217	-0.614855	67.718537
9.200000	-0.619829	104.248410	-36.245575	-58.050938	-36.245575	-58.050938	-0.609742	65.108650
9.250000	-0.625375	102.221389	-36.363357	-60.733302	-36.363357	-60.733302	-0.606558	62.535075
9.300000	-0.630868	100.181950	-36.465627	-63.156967	-36.465627	-63.156967	-0.604693	59.989924
9.350000	-0.636300	98.130265	-36.555013	-65.365998	-36.555013	-65.365998	-0.603765	57.467950
9.400000	-0.641667	96.066440	-36.633315	-67.392478	-36.633315	-67.392478	-0.603520	54.965615
9.450000	-0.646964	93.990767	-36.701969	-69.263477	-36.701969	-69.263477	-0.603775	52.480227
9.500000	-0.652189	91.903706	-36.762108	-71.001666	-36.762108	-71.001666	-0.604401	50.009770
9.550000	-0.657341	89.805626	-36.814473	-72.623883	-36.814473	-72.623883	-0.605310	47.553006
9.600000	-0.662417	87.696933	-36.859609	-74.144046	-36.859609	-74.144046	-0.606441	45.109120
9.650000	-0.667416	85.578065	-36.897920	-75.573856	-36.897920	-75.573856	-0.607747	42.677619
9.700000	-0.672339	83.449495	-36.929698	-76.923299	-36.929698	-76.923299	-0.609198	40.258251
9.750000	-0.677183	81.311725	-36.955157	-78.201032	-36.955157	-78.201032	-0.610770	37.850956
9.800000	-0.681951	79.165288	-36.974453	-79.414665	-36.974453	-79.414665	-0.612448	35.455814
9.850000	-0.686641	77.010744	-36.987702	-80.570974	-36.987702	-80.570974	-0.614221	33.073017
9.900000	-0.691255	74.848679	-36.994989	-81.676069	-36.994989	-81.676069	-0.616084	30.702840
9.950000	-0.695794	72.679704	-36.996383	-82.735514	-36.996383	-82.735514	-0.618032	28.345621
10.000000	-0.700261	70.504456	-36.991944	-83.754423	-36.991944	-83.754423	-0.620064	26.001745
