! freq	dB(S11)	phase(S11)	dB(S12)	phase(S12)	
!     	dB(S21)	phase(S21)	dB(S22)	phase(S22)	
!S-par simulation data
#  GHz  S  DB  R 50
0.000000	0.000000	0.000000	-320.973979	0.000000	-320.973979	0.000000	-0.000000	0.000000
0.050000	-0.002658	-2.638603	-78.632282	86.949785	-78.632282	86.949785	-0.000818	-2.008916
0.100000	-0.007315	-5.252695	-72.619084	85.058103	-72.619084	85.058103	-0.003014	-4.013297
0.150000	-0.011253	-7.852308	-69.113146	82.911209	-69.113146	82.911209	-0.006018	-6.011045
0.200000	-0.014472	-10.446660	-66.636897	80.701919	-66.636897	80.701919	-0.009317	-8.002411
0.250000	-0.017387	-13.038467	-64.727515	78.470664	-64.727515	78.470664	-0.012596	-9.988808
0.300000	-0.020254	-15.627957	-63.178642	76.231942	-63.178642	76.231942	-0.015725	-11.971726
0.350000	-0.023189	-18.214578	-61.881052	73.993054	-61.881052	73.993054	-0.018670	-13.952130
0.400000	-0.026229	-20.797965	-60.768150	71.758524	-60.768150	71.758524	-0.021462	-15.930742
0.450000	-0.029377	-23.377688	-59.797565	69.531551	-59.797565	69.531551	-0.024130	-17.907815
0.500000	-0.032623	-25.953191	-58.941136	67.315334	-58.941136	67.315334	-0.026702	-19.883321
0.550000	-0.035943	-28.524297	-58.177588	65.111938	-58.177588	65.111938	-0.029207	-21.857218
0.600000	-0.039317	-31.090812	-57.491442	62.923289	-57.491442	62.923289	-0.031664	-23.829359
0.650000	-0.042724	-33.652382	-56.871569	60.751839	-56.871569	60.751839	-0.034087	-25.799486
0.700000	-0.046145	-36.208808	-56.308893	58.599548	-56.308893	58.599548	-0.036486	-27.767370
0.750000	-0.049565	-38.760068	-55.795741	56.467671	-55.795741	56.467671	-0.038869	-29.732858
0.800000	-0.052969	-41.305942	-55.326487	54.358207	-55.326487	54.358207	-0.041242	-31.695711
0.850000	-0.056347	-43.846096	-54.896852	52.273748	-54.896852	52.273748	-0.043608	-33.655633
0.900000	-0.059691	-46.380644	-54.502116	50.214927	-54.502116	50.214927	-0.045970	-35.612567
0.950000	-0.062993	-48.909458	-54.138912	48.183401	-54.138912	48.183401	-0.048331	-37.566352
1.000000	-0.066246	-51.432101	-53.805131	46.182463	-53.805131	46.182463	-0.050691	-39.516657
1.050000	-0.069448	-53.948746	-53.497540	44.212441	-53.497540	44.212441	-0.053052	-41.463507
1.100000	-0.072596	-56.459319	-53.213901	42.274867	-53.213901	42.274867	-0.055413	-43.406802
1.150000	-0.075688	-58.963503	-52.952775	40.372730	-52.952775	40.372730	-0.057775	-45.346303
1.200000	-0.078723	-61.461311	-52.712210	38.507303	-52.712210	38.507303	-0.060136	-47.281973
1.250000	-0.081702	-63.952814	-52.490373	36.679532	-52.490373	36.679532	-0.062497	-49.213816
1.300000	-0.084625	-66.437839	-52.286090	34.891921	-52.286090	34.891921	-0.064857	-51.141694
1.350000	-0.087493	-68.916236	-52.098243	33.147020	-52.098243	33.147020	-0.067215	-53.065478
1.400000	-0.090311	-71.388240	-51.925166	31.444976	-51.925166	31.444976	-0.069570	-54.985282
1.450000	-0.093080	-73.853838	-51.765758	29.787570	-51.765758	29.787570	-0.071921	-56.901065
1.500000	-0.095802	-76.312728	-51.619427	28.178900	-51.619427	28.178900	-0.074268	-58.812598
1.550000	-0.098483	-78.765314	-51.484567	26.618040	-51.484567	26.618040	-0.076610	-60.720095
1.600000	-0.101128	-81.211664	-51.360183	25.106464	-51.360183	25.106464	-0.078946	-62.623558
1.650000	-0.103738	-83.651602	-51.245620	23.647859	-51.245620	23.647859	-0.081276	-64.522818
1.700000	-0.106320	-86.085412	-51.139655	22.242217	-51.139655	22.242217	-0.083599	-66.418003
1.750000	-0.108879	-88.513332	-51.041207	20.889785	-51.041207	20.889785	-0.085915	-68.309207
1.800000	-0.111419	-90.935437	-50.949397	19.592280	-50.949397	19.592280	-0.088224	-70.196408
1.850000	-0.113945	-93.351910	-50.863237	18.350413	-50.863237	18.350413	-0.090526	-72.079648
1.900000	-0.116461	-95.762902	-50.781766	17.165222	-50.781766	17.165222	-0.092821	-73.958940
1.950000	-0.118972	-98.168648	-50.703953	16.036799	-50.703953	16.036799	-0.095109	-75.834344
2.000000	-0.121483	-100.569456	-50.628747	14.964228	-50.628747	14.964228	-0.097391	-77.705969
2.050000	-0.123996	-102.965593	-50.555136	13.946773	-50.555136	13.946773	-0.099668	-79.573891
2.100000	-0.126517	-105.357345	-50.482108	12.983219	-50.482108	12.983219	-0.101940	-81.438189
2.150000	-0.129048	-107.745017	-50.408656	12.071829	-50.408656	12.071829	-0.104208	-83.298950
2.200000	-0.131592	-110.128930	-50.333791	11.210304	-50.333791	11.210304	-0.106473	-85.156269
2.250000	-0.134152	-112.509420	-50.256543	10.395757	-50.256543	10.395757	-0.108736	-87.010246
2.300000	-0.136732	-114.886838	-50.175981	9.624690	-50.175981	9.624690	-0.110998	-88.860987
2.350000	-0.139331	-117.261551	-50.091220	8.892994	-50.091220	8.892994	-0.113261	-90.708603
2.400000	-0.141954	-119.633938	-50.001438	8.195958	-50.001438	8.195958	-0.115525	-92.553212
2.450000	-0.144601	-122.004390	-49.905886	7.528305	-49.905886	7.528305	-0.117792	-94.394939
2.500000	-0.147273	-124.373311	-49.803905	6.884232	-49.803905	6.884232	-0.120064	-96.233912
2.550000	-0.149972	-126.741100	-49.694739	6.257710	-49.694739	6.257710	-0.122341	-98.070211
2.600000	-0.152699	-129.108217	-49.578111	5.641578	-49.578111	5.641578	-0.124626	-99.904038
2.650000	-0.155454	-131.475097	-49.453699	5.028937	-49.453699	5.028937	-0.126920	-101.735538
2.700000	-0.158238	-133.842181	-49.321304	4.412742	-49.321304	4.412742	-0.129225	-103.564860
2.750000	-0.161050	-136.209923	-49.180855	3.785919	-49.180855	3.785919	-0.131541	-105.392160
2.800000	-0.163893	-138.578780	-49.032406	3.141488	-49.032406	3.141488	-0.133871	-107.217599
2.850000	-0.166764	-140.949218	-48.876129	2.472670	-48.876129	2.472670	-0.136216	-109.041342
2.900000	-0.169665	-143.321709	-48.712309	1.772999	-48.712309	1.772999	-0.138577	-110.863557
2.950000	-0.172596	-145.696730	-48.541330	1.036408	-48.541330	1.036408	-0.140957	-112.684420
3.000000	-0.175556	-148.074763	-48.363665	0.257307	-48.363665	0.257307	-0.143355	-114.504107
3.050000	-0.178546	-150.456293	-48.179858	-0.569361	-48.179858	-0.569361	-0.145775	-116.322803
3.100000	-0.181565	-152.841810	-47.990516	-1.448081	-47.990516	-1.448081	-0.148216	-118.140694
3.150000	-0.184613	-155.231862	-47.796191	-2.383394	-47.796191	-2.383394	-0.150682	-119.957966
3.200000	-0.187690	-157.626958	-47.597578	-3.378695	-47.597578	-3.378695	-0.153172	-121.774821
3.250000	-0.190797	-160.027548	-47.395472	-4.436060	-47.395472	-4.436060	-0.155688	-123.591464
3.300000	-0.193931	-162.434127	-47.190570	-5.557626	-47.190570	-5.557626	-0.158231	-125.408097
3.350000	-0.197094	-164.847192	-46.983563	-6.745016	-46.983563	-6.745016	-0.160802	-127.224927
3.400000	-0.200285	-167.267239	-46.775123	-7.999387	-46.775123	-7.999387	-0.163402	-129.042162
3.450000	-0.203503	-169.694762	-46.565900	-9.321475	-46.565900	-9.321475	-0.166032	-130.860014
3.500000	-0.206749	-172.130252	-46.356515	-10.711648	-46.356515	-10.711648	-0.168694	-132.678699
3.550000	-0.210022	-174.574198	-46.147553	-12.169954	-46.147553	-12.169954	-0.171386	-134.498436
3.600000	-0.213321	-177.027083	-45.939565	-13.696174	-45.939565	-13.696174	-0.174112	-136.319445
3.650000	-0.216647	-179.489384	-45.733065	-15.289863	-45.733065	-15.289863	-0.176870	-138.141949
3.700000	-0.219998	178.038426	-45.528528	-16.950400	-45.528528	-16.950400	-0.179662	-139.966175
3.750000	-0.223375	175.555884	-45.326390	-18.677026	-45.326390	-18.677026	-0.182488	-141.792351
3.800000	-0.226777	173.062289	-45.127024	-20.470273	-45.127024	-20.470273	-0.185349	-143.620760
3.850000	-0.230202	170.557422	-44.930843	-22.327766	-44.930843	-22.327766	-0.188245	-145.451591
3.900000	-0.233652	168.040849	-44.738175	-24.248530	-44.738175	-24.248530	-0.191176	-147.285078
3.950000	-0.237124	165.512151	-44.549317	-26.231568	-44.549317	-26.231568	-0.194143	-149.121456
4.000000	-0.240617	162.970919	-44.364534	-28.275893	-44.364534	-28.275893	-0.197144	-150.960961
4.050000	-0.244131	160.416765	-44.184063	-30.380534	-44.184063	-30.380534	-0.200181	-152.803831
4.100000	-0.247665	157.849313	-44.008113	-32.544558	-44.008113	-32.544558	-0.203254	-154.650304
4.150000	-0.251218	155.268209	-43.836872	-34.767080	-43.836872	-34.767080	-0.206361	-156.500616
4.200000	-0.254787	152.673116	-43.670500	-37.047268	-43.670500	-37.047268	-0.209502	-158.355008
4.250000	-0.258373	150.063721	-43.509141	-39.384358	-43.509141	-39.384358	-0.212679	-160.213716
4.300000	-0.261973	147.439734	-43.352916	-41.777655	-43.352916	-41.777655	-0.215889	-162.076979
4.350000	-0.265586	144.800889	-43.201927	-44.226538	-43.201927	-44.226538	-0.219132	-163.945034
4.400000	-0.269210	142.146781	-43.056296	-46.731057	-43.056296	-46.731057	-0.222409	-165.818175
4.450000	-0.272843	139.477193	-42.916098	-49.290737	-42.916098	-49.290737	-0.225718	-167.696644
4.500000	-0.276484	136.792112	-42.781357	-51.904602	-42.781357	-51.904602	-0.229058	-169.580618
4.550000	-0.280129	134.091392	-42.652111	-54.572358	-42.652111	-54.572358	-0.232428	-171.470330
4.600000	-0.283778	131.374922	-42.528383	-57.293789	-42.528383	-57.293789	-0.235828	-173.366006
4.650000	-0.287428	128.642623	-42.410183	-60.068760	-42.410183	-60.068760	-0.239256	-175.267874
4.700000	-0.291077	125.894457	-42.297506	-62.897209	-42.297506	-62.897209	-0.242711	-177.176153
4.750000	-0.294722	123.130423	-42.190333	-65.779154	-42.190333	-65.779154	-0.246191	-179.091064
4.800000	-0.298361	120.350559	-42.088630	-68.714677	-42.088630	-68.714677	-0.249697	178.987181
4.850000	-0.301992	117.554947	-41.992347	-71.703933	-41.992347	-71.703933	-0.253225	177.058371
4.900000	-0.305612	114.743710	-41.901421	-74.747133	-41.901421	-74.747133	-0.256775	175.122302
4.950000	-0.309219	111.917014	-41.815771	-77.844548	-41.815771	-77.844548	-0.260344	173.178776
5.000000	-0.312810	109.075072	-41.735296	-80.996496	-41.735296	-80.996496	-0.263932	171.227598
5.050000	-0.316383	106.217823	-41.659974	-84.204539	-41.659974	-84.204539	-0.267537	169.268409
5.100000	-0.319937	103.345906	-41.589569	-87.467885	-41.589569	-87.467885	-0.271156	167.301197
5.150000	-0.323468	100.459674	-41.523920	-90.786949	-41.523920	-90.786949	-0.274787	165.325791
5.200000	-0.326974	97.559530	-41.462845	-94.162154	-41.462845	-94.162154	-0.278429	163.342027
5.250000	-0.330455	94.645920	-41.406133	-97.593920	-41.406133	-97.593920	-0.282079	161.349754
5.300000	-0.333909	91.719339	-41.353551	-101.082646	-41.353551	-101.082646	-0.285736	159.348826
5.350000	-0.337334	88.780327	-41.304838	-104.628691	-41.304838	-104.628691	-0.289396	157.339111
5.400000	-0.340729	85.829470	-41.259701	-108.232360	-41.259701	-108.232360	-0.293058	155.320484
5.450000	-0.344093	82.867396	-41.217821	-111.893878	-41.217821	-111.893878	-0.296720	153.292834
5.500000	-0.347426	79.894777	-41.178844	-115.613364	-41.178844	-115.613364	-0.300378	151.256061
5.550000	-0.350727	76.912324	-41.142385	-119.390811	-41.142385	-119.390811	-0.304030	149.210077
5.600000	-0.353998	73.920789	-41.108028	-123.226051	-41.108028	-123.226051	-0.307674	147.154809
5.650000	-0.357238	70.920875	-41.075332	-127.119344	-41.075332	-127.119344	-0.311306	145.090095
5.700000	-0.360448	67.913433	-41.043800	-131.070084	-41.043800	-131.070084	-0.314926	143.015886
5.750000	-0.363629	64.899404	-41.012898	-135.076790	-41.012898	-135.076790	-0.318528	140.932255
5.800000	-0.366785	61.879667	-40.982086	-139.138316	-40.982086	-139.138316	-0.322112	138.839189
5.850000	-0.369917	58.855126	-40.950795	-143.253188	-40.950795	-143.253188	-0.325674	136.736689
5.900000	-0.373028	55.826702	-40.918437	-147.419574	-40.918437	-147.419574	-0.329212	134.624775
5.950000	-0.376121	52.795334	-40.884411	-151.635254	-40.884411	-151.635254	-0.332723	132.503482
6.000000	-0.379200	49.761971	-40.848104	-155.897598	-40.848104	-155.897598	-0.336205	130.372867
6.050000	-0.382270	46.727573	-40.808906	-160.203544	-40.808906	-160.203544	-0.339654	128.233001
6.100000	-0.385334	43.693101	-40.766212	-164.549590	-40.766212	-164.549590	-0.343068	126.083976
6.150000	-0.388397	40.659515	-40.719433	-168.931793	-40.719433	-168.931793	-0.346446	123.925904
6.200000	-0.391466	37.627772	-40.668008	-173.345772	-40.668008	-173.345772	-0.349783	121.758916
6.250000	-0.394545	34.598817	-40.611411	-177.786735	-40.611411	-177.786735	-0.353079	119.583161
6.300000	-0.397642	31.573687	-40.549018	177.750144	-40.549018	177.750144	-0.356329	117.398629
6.350000	-0.400762	28.553235	-40.480528	173.270987	-40.480528	173.270987	-0.359532	115.205703
6.400000	-0.403913	25.538353	-40.405583	168.781600	-40.405583	168.781600	-0.362688	113.004596
6.450000	-0.407101	22.529907	-40.323897	164.287994	-40.323897	164.287994	-0.365793	110.795543
6.500000	-0.410334	19.528732	-40.235259	159.796314	-40.235259	159.796314	-0.368846	108.578799
6.550000	-0.413620	16.535631	-40.139537	155.312753	-40.139537	155.312753	-0.371845	106.354639
6.600000	-0.416965	13.551371	-40.036681	150.843471	-40.036681	150.843471	-0.374790	104.123358
6.650000	-0.420378	10.576679	-39.926718	146.394509	-39.926718	146.394509	-0.377679	101.885274
6.700000	-0.423865	7.612241	-39.809754	141.971714	-39.809754	141.971714	-0.380511	99.640723
6.750000	-0.427437	4.658695	-39.685963	137.580658	-39.685963	137.580658	-0.383286	97.390059
6.800000	-0.431099	1.716636	-39.555585	133.226579	-39.555585	133.226579	-0.386003	95.133659
6.850000	-0.434859	-1.213392	-39.418916	128.914325	-39.418916	128.914325	-0.388663	92.871916
6.900000	-0.438728	-4.130753	-39.276213	124.648856	-39.276213	124.648856	-0.391263	90.605192
6.950000	-0.442712	-7.034991	-39.127865	120.434238	-39.127865	120.434238	-0.393806	88.333931
7.000000	-0.446819	-9.925858	-38.974373	116.273399	-38.974373	116.273399	-0.396293	86.058634
7.050000	-0.451055	-12.803019	-38.816167	112.169280	-38.816167	112.169280	-0.398724	83.779761
7.100000	-0.455427	-15.666198	-38.653687	108.124340	-38.653687	108.124340	-0.401100	81.497788
7.150000	-0.459943	-18.515170	-38.487373	104.140565	-38.487373	104.140565	-0.403425	79.213206
7.200000	-0.464610	-21.349766	-38.317659	100.219494	-38.317659	100.219494	-0.405699	76.926515
7.250000	-0.469434	-24.169871	-38.144969	96.362243	-38.144969	96.362243	-0.407925	74.638228
7.300000	-0.474422	-26.975426	-37.969706	92.569537	-37.969706	92.569537	-0.410105	72.348869
7.350000	-0.479579	-29.766422	-37.792256	88.841743	-37.792256	88.841743	-0.412243	70.058967
7.400000	-0.484911	-32.542905	-37.612976	85.178905	-37.612976	85.178905	-0.414341	67.769062
7.450000	-0.490424	-35.304974	-37.432199	81.580781	-37.432199	81.580781	-0.416404	65.479698
7.500000	-0.496124	-38.052777	-37.250227	78.046874	-37.250227	78.046874	-0.418436	63.191422
7.550000	-0.502019	-40.786216	-37.067239	74.577829	-37.067239	74.577829	-0.420440	60.904836
7.600000	-0.508111	-43.505852	-36.883586	71.171331	-36.883586	71.171331	-0.422421	58.620468
7.650000	-0.514404	-46.211986	-36.699483	67.826307	-36.699483	67.826307	-0.424384	56.338872
7.700000	-0.520901	-48.904966	-36.515119	64.541551	-36.515119	64.541551	-0.426335	54.060598
7.750000	-0.527608	-51.585186	-36.330654	61.315751	-36.330654	61.315751	-0.428279	51.786195
7.800000	-0.534527	-54.253084	-36.146223	58.147506	-36.146223	58.147506	-0.430221	49.516207
7.850000	-0.541663	-56.909143	-35.961938	55.035350	-35.961938	55.035350	-0.432168	47.251171
7.900000	-0.549018	-59.553888	-35.777888	51.977763	-35.777888	51.977763	-0.434126	44.991617
7.950000	-0.556595	-62.187884	-35.594140	48.973187	-35.594140	48.973187	-0.436101	42.738068
8.000000	-0.564398	-64.811740	-35.410743	46.020039	-35.410743	46.020039	-0.438100	40.491035
8.050000	-0.572428	-67.426100	-35.227729	43.116720	-35.227729	43.116720	-0.440129	38.251018
8.100000	-0.580688	-70.031651	-35.045111	40.261622	-35.045111	40.261622	-0.442195	36.018507
8.150000	-0.589183	-72.629035	-34.862853	37.453627	-34.862853	37.453627	-0.444306	33.794067
8.200000	-0.597914	-75.219040	-34.680942	34.691080	-34.680942	34.691080	-0.446471	31.578174
8.250000	-0.606880	-77.802553	-34.499387	31.971882	-34.499387	31.971882	-0.448694	29.371185
8.300000	-0.616084	-80.380406	-34.318152	29.294456	-34.318152	29.294456	-0.450984	27.173526
8.350000	-0.625519	-82.953585	-34.137292	26.656117	-34.137292	26.656117	-0.453347	24.985315
8.400000	-0.635201	-85.522724	-33.956534	24.057749	-33.956534	24.057749	-0.455794	22.807557
8.450000	-0.645123	-88.088921	-33.775930	21.496512	-33.775930	21.496512	-0.458331	20.640307
8.500000	-0.655286	-90.653149	-33.595407	18.970899	-33.595407	18.970899	-0.460966	18.483919
8.550000	-0.665690	-93.216411	-33.414889	16.479425	-33.414889	16.479425	-0.463706	16.338728
8.600000	-0.676335	-95.779747	-33.234291	14.020622	-33.234291	14.020622	-0.466559	14.205048
8.650000	-0.687222	-98.344228	-33.053527	11.593041	-33.053527	11.593041	-0.469534	12.083171
8.700000	-0.698349	-100.910958	-32.872501	9.195249	-32.872501	9.195249	-0.472637	9.973372
8.750000	-0.709717	-103.481074	-32.691118	6.825829	-32.691118	6.825829	-0.475877	7.875902
8.800000	-0.721328	-106.055830	-32.509211	4.483743	-32.509211	4.483743	-0.479264	5.791178
8.850000	-0.733177	-108.636381	-32.326736	2.167188	-32.326736	2.167188	-0.482804	3.719232
8.900000	-0.745271	-111.224289	-32.143402	-0.124350	-32.143402	-0.124350	-0.486511	1.660760
8.950000	-0.757590	-113.820113	-31.959503	-2.394241	-31.959503	-2.394241	-0.490379	-0.385210
9.000000	-0.770143	-116.425590	-31.774675	-4.642650	-31.774675	-4.642650	-0.494424	-2.417832
9.050000	-0.782931	-119.042254	-31.588708	-6.870558	-31.588708	-6.870558	-0.498657	-4.436722
9.100000	-0.795935	-121.670558	-31.401871	-9.080829	-31.401871	-9.080829	-0.503072	-6.442811
9.150000	-0.809179	-124.313679	-31.213333	-11.272452	-31.213333	-11.272452	-0.507704	-8.434177
9.200000	-0.822625	-126.970531	-31.023910	-13.449700	-31.023910	-13.449700	-0.512524	-10.413122
9.250000	-0.836305	-129.645657	-30.832387	-15.611098	-30.832387	-15.611098	-0.517582	-12.376948
9.300000	-0.850180	-132.337560	-30.639641	-17.760499	-30.639641	-17.760499	-0.522848	-14.328012
9.350000	-0.864266	-135.049912	-30.444840	-19.897932	-30.444840	-19.897932	-0.528355	-16.264705
9.400000	-0.878546	-137.783073	-30.248216	-22.025527	-30.248216	-22.025527	-0.534098	-18.187829
9.450000	-0.893011	-140.538591	-30.049625	-24.144812	-30.049625	-24.144812	-0.540085	-20.097402
9.500000	-0.907662	-143.319408	-29.848547	-26.256934	-29.848547	-26.256934	-0.546339	-21.992667
9.550000	-0.922472	-146.124188	-29.645641	-28.364200	-29.645641	-28.364200	-0.552837	-23.875261
9.600000	-0.937447	-148.957521	-29.439952	-30.467686	-29.439952	-30.467686	-0.559619	-25.743665
9.650000	-0.952570	-151.820354	-29.231524	-32.569391	-29.231524	-32.569391	-0.566684	-27.598363
9.700000	-0.967824	-154.713898	-29.020318	-34.671203	-29.020318	-34.671203	-0.574039	-29.439646
9.750000	-0.983196	-157.639762	-28.806184	-36.775045	-28.806184	-36.775045	-0.581691	-31.267624
9.800000	-0.998668	-160.599546	-28.588975	-38.882940	-28.588975	-38.882940	-0.589649	-33.082418
9.850000	-1.014222	-163.594830	-28.368541	-40.997023	-28.368541	-40.997023	-0.597922	-34.884163
9.900000	-1.029839	-166.627166	-28.144735	-43.119551	-28.144735	-43.119551	-0.606518	-36.673003
9.950000	-1.045496	-169.698071	-27.917408	-45.252919	-27.917408	-45.252919	-0.615448	-38.449094
10.000000	-1.061169	-172.809012	-27.686417	-47.399681	-27.686417	-47.399681	-0.624719	-40.212605
