! freq	dB(S11)	phase(S11)	dB(S12)	phase(S12)	
!     	dB(S21)	phase(S21)	dB(S22)	phase(S22)	
!S-par simulation data
#  GHz  S  DB  R 50
0.000000	-142.044672	0.000000	0.000000	0.000000	0.000001	0.000000	-151.587098	0.000000
0.050000	-34.777818	-93.159672	-0.007380	-3.228011	-0.007380	-3.228011	-34.777510	-93.134774
0.100000	-28.831856	-96.525047	-0.016600	-6.414907	-0.016600	-6.414907	-28.831283	-96.475837
0.150000	-25.366602	-99.851468	-0.028018	-9.592071	-0.028018	-9.592071	-25.365906	-99.779451
0.200000	-22.914143	-103.117992	-0.041965	-12.759678	-0.041965	-12.759678	-22.913358	-103.024350
0.250000	-21.018597	-106.347969	-0.058311	-15.918534	-0.058311	-15.918534	-21.017724	-106.234113
0.300000	-19.477543	-109.554551	-0.076988	-19.069407	-0.076988	-19.069407	-19.476583	-109.422269
0.350000	-18.183220	-112.742766	-0.098022	-22.212297	-0.098022	-22.212297	-18.182183	-112.594259
0.400000	-17.070652	-115.915064	-0.121341	-25.347054	-0.121341	-25.347054	-17.069556	-115.752843
0.450000	-16.098685	-119.071523	-0.146989	-28.472735	-0.146989	-28.472735	-16.097552	-118.898590
0.500000	-15.237918	-122.213132	-0.174768	-31.589148	-0.174768	-31.589148	-15.236768	-122.032706
0.550000	-14.467755	-125.339975	-0.204563	-34.695789	-0.204563	-34.695789	-14.466610	-125.155591
0.600000	-13.773341	-128.451571	-0.236297	-37.791884	-0.236297	-37.791884	-13.772221	-128.267204
0.650000	-13.143401	-131.547362	-0.269864	-40.876676	-0.269864	-40.876676	-13.142323	-131.367473
0.700000	-12.568651	-134.627350	-0.305089	-43.949918	-0.305089	-43.949918	-12.567632	-134.456718
0.750000	-12.041963	-137.691179	-0.341829	-47.011188	-0.341829	-47.011188	-12.041018	-137.535015
0.800000	-11.557482	-140.738600	-0.379933	-50.060213	-0.379933	-50.060213	-11.556627	-140.602525
0.850000	-11.110661	-143.769006	-0.419269	-53.096514	-0.419269	-53.096514	-11.109914	-143.659206
0.900000	-10.696991	-146.782861	-0.459649	-56.120461	-0.459649	-56.120461	-10.696368	-146.705711
0.950000	-10.313323	-149.779671	-0.500950	-59.131747	-0.500950	-59.131747	-10.312842	-149.742109
1.000000	-9.956773	-152.759285	-0.543030	-62.130362	-0.543030	-62.130362	-9.956452	-152.768722
1.050000	-9.624856	-155.721599	-0.585751	-65.116364	-0.585751	-65.116364	-9.624716	-155.785928
1.100000	-9.315411	-158.666551	-0.628979	-68.089870	-0.628979	-68.089870	-9.315473	-158.794166
1.150000	-9.026547	-161.594123	-0.672584	-71.051060	-0.672584	-71.051060	-9.026834	-161.793929
1.200000	-8.756594	-164.504336	-0.716442	-74.000168	-0.716442	-74.000168	-8.757131	-164.785772
1.250000	-8.504074	-167.397249	-0.760431	-76.937484	-0.760431	-76.937484	-8.504886	-167.770302
1.300000	-8.267857	-170.272586	-0.804428	-79.863104	-0.804428	-79.863104	-8.268974	-170.748050
1.350000	-8.046553	-173.130851	-0.848325	-82.777675	-0.848325	-82.777675	-8.048005	-173.719890
1.400000	-7.839097	-175.972199	-0.892017	-85.681626	-0.892017	-85.681626	-7.840913	-176.686582
1.450000	-7.644523	-178.796810	-0.935404	-88.575427	-0.935404	-88.575427	-7.646737	-179.648930
1.500000	-7.461959	178.395117	-0.978393	-91.459581	-0.978393	-91.459581	-7.464605	177.392222
1.550000	-7.290608	175.603366	-1.020896	-94.334625	-1.020896	-94.334625	-7.293723	174.435992
1.600000	-7.129744	172.827711	-1.062829	-97.201124	-1.062829	-97.201124	-7.133367	171.481463
1.650000	-6.978701	170.067913	-1.104118	-100.059666	-1.104118	-100.059666	-6.982872	168.527687
1.700000	-6.836753	167.323455	-1.144709	-102.910981	-1.144709	-102.910981	-6.841513	165.573714
1.750000	-6.703911	164.595473	-1.184447	-105.755122	-1.184447	-105.755122	-6.709312	162.618380
1.800000	-6.578743	161.881518	-1.223421	-108.593646	-1.223421	-108.593646	-6.584827	159.660931
1.850000	-6.461483	159.183095	-1.261457	-111.426535	-1.261457	-111.426535	-6.468303	156.700008
1.900000	-6.351343	156.499116	-1.298571	-114.254752	-1.298571	-114.254752	-6.358953	153.734762
1.950000	-6.247919	153.829357	-1.334724	-117.078968	-1.334724	-117.078968	-6.256373	150.764111
2.000000	-6.151135	151.174439	-1.369813	-119.899644	-1.369813	-119.899644	-6.160498	147.786599
2.050000	-6.060046	148.532528	-1.403945	-122.717802	-1.403945	-122.717802	-6.070374	144.801956
2.100000	-5.975173	145.905862	-1.436889	-125.533721	-1.436889	-125.533721	-5.986542	141.807591
2.150000	-5.895289	143.291616	-1.468857	-128.348412	-1.468857	-128.348412	-5.907763	138.804165
2.200000	-5.820898	140.692011	-1.499624	-131.162365	-1.499624	-131.162365	-5.834558	135.788697
2.250000	-5.751137	138.105099	-1.529346	-133.976297	-1.529346	-133.976297	-5.766058	132.761598
2.300000	-5.686078	135.531811	-1.557921	-136.790878	-1.557921	-136.790878	-5.702346	129.720722
2.350000	-5.625404	132.971810	-1.585373	-139.606734	-1.585373	-139.606734	-5.643110	126.665169
2.400000	-5.568748	130.424529	-1.611751	-142.424433	-1.611751	-142.424433	-5.587982	123.594357
2.450000	-5.516250	127.891206	-1.636943	-145.244815	-1.636943	-145.244815	-5.537119	120.505515
2.500000	-5.467173	125.369801	-1.661142	-148.068038	-1.661142	-148.068038	-5.489770	117.400198
2.550000	-5.422040	122.863123	-1.684113	-150.895452	-1.684113	-150.895452	-5.446493	114.273188
2.600000	-5.379983	120.368418	-1.706113	-153.726806	-1.706113	-153.726806	-5.406399	111.127492
2.650000	-5.341314	117.887796	-1.726985	-156.563374	-1.726985	-156.563374	-5.369827	107.958666
2.700000	-5.305586	115.420064	-1.746856	-159.405224	-1.746856	-159.405224	-5.336325	104.767656
2.750000	-5.272759	112.965858	-1.765703	-162.253125	-1.765703	-162.253125	-5.305865	101.552350
2.800000	-5.242737	110.525583	-1.783529	-165.107744	-1.783529	-165.107744	-5.278365	98.311052
2.850000	-5.215185	108.098348	-1.800438	-167.969080	-1.800438	-167.969080	-5.253485	95.044562
2.900000	-5.190301	105.686223	-1.816320	-170.838662	-1.816320	-170.838662	-5.231456	91.747950
2.950000	-5.167549	103.286977	-1.831370	-173.715637	-1.831370	-173.715637	-5.211722	88.424932
3.000000	-5.147236	100.903620	-1.845437	-176.602147	-1.845437	-176.602147	-5.194638	85.068503
3.050000	-5.128874	98.533890	-1.858707	-179.497163	-1.858707	-179.497163	-5.179692	81.682758
3.100000	-5.112581	96.179792	-1.871109	177.597728	-1.871109	177.597728	-5.167043	78.262710
3.150000	-5.098137	93.840759	-1.882723	174.682599	-1.882723	174.682599	-5.156470	74.809010
3.200000	-5.085435	91.517123	-1.893582	171.756950	-1.893582	171.756950	-5.147880	71.320360
3.250000	-5.074466	89.210156	-1.903675	168.819648	-1.903675	168.819648	-5.141300	67.793337
3.300000	-5.064946	86.918352	-1.913120	165.871523	-1.913120	165.871523	-5.136428	64.230955
3.350000	-5.057031	84.644996	-1.921833	162.909986	-1.921833	162.909986	-5.133493	60.625053
3.400000	-5.050351	82.387235	-1.929978	159.936924	-1.929978	159.936924	-5.132084	56.981974
3.450000	-5.045034	80.148528	-1.937487	156.949573	-1.937487	156.949573	-5.132412	53.293030
3.500000	-5.040819	77.926926	-1.944475	153.949227	-1.944475	153.949227	-5.134191	49.562546
3.550000	-5.037695	75.724318	-1.950943	150.934282	-1.950943	150.934282	-5.137468	45.785551
3.600000	-5.035547	73.540836	-1.956941	147.904480	-1.956941	147.904480	-5.142147	41.961347
3.650000	-5.034241	71.376246	-1.962529	144.859857	-1.962529	144.859857	-5.148110	38.090143
3.700000	-5.033759	69.233003	-1.967715	141.798335	-1.967715	141.798335	-5.155416	34.165424
3.750000	-5.033890	67.108498	-1.972598	138.721852	-1.972598	138.721852	-5.163814	30.193365
3.800000	-5.034661	65.007770	-1.977164	135.626221	-1.977164	135.626221	-5.173483	26.160734
3.850000	-5.035853	62.926857	-1.981520	132.514501	-1.981520	132.514501	-5.184125	22.077193
3.900000	-5.037423	60.869772	-1.985685	129.383275	-1.985685	129.383275	-5.195834	17.931885
3.950000	-5.039228	58.834948	-1.989733	126.233676	-1.989733	126.233676	-5.208450	13.728325
4.000000	-5.041155	56.823925	-1.993717	123.064261	-1.993717	123.064261	-5.221937	9.461839
4.050000	-5.043080	54.837823	-1.997702	119.873910	-1.997702	119.873910	-5.236234	5.128744
4.100000	-5.044876	52.875396	-2.001751	116.663477	-2.001751	116.663477	-5.251203	0.731608
4.150000	-5.046369	50.940760	-2.005953	113.429221	-2.005953	113.429221	-5.266840	-3.741686
4.200000	-5.047468	49.030069	-2.010354	110.174203	-2.010354	110.174203	-5.282952	-8.281530
4.250000	-5.047903	47.149180	-2.015092	106.893011	-2.015092	106.893011	-5.299506	-12.905505
4.300000	-5.047611	45.294021	-2.020203	103.588901	-2.020203	103.588901	-5.316317	-17.603355
4.350000	-5.046293	43.468497	-2.025840	100.257976	-2.025840	100.257976	-5.333260	-22.387874
4.400000	-5.043799	41.671582	-2.032085	96.900713	-2.032085	96.900713	-5.350163	-27.257735
4.450000	-5.039892	39.903867	-2.039062	93.516027	-2.039062	93.516027	-5.366831	-32.216656
4.500000	-5.034224	38.167621	-2.046959	90.101121	-2.046959	90.101121	-5.383014	-37.273892
4.550000	-5.026730	36.459773	-2.055818	86.658247	-2.055818	86.658247	-5.398528	-42.422232
4.600000	-5.016721	34.786033	-2.066010	83.180775	-2.066010	83.180775	-5.412902	-47.683325
4.650000	-5.004331	33.140613	-2.077483	79.673591	-2.077483	79.673591	-5.426023	-53.041211
4.700000	-4.988702	31.528965	-2.090713	76.129563	-2.090713	76.129563	-5.437209	-58.518919
4.750000	-4.969957	29.945950	-2.105662	72.552891	-2.105662	72.552891	-5.446338	-64.102485
4.800000	-4.947247	28.394857	-2.122829	68.937889	-2.122829	68.937889	-5.452611	-69.809772
4.850000	-4.920269	26.873560	-2.142434	65.284724	-2.142434	65.284724	-5.455552	-75.639394
4.900000	-4.888546	25.380899	-2.164809	61.592031	-2.164809	61.592031	-5.454521	-81.594566
4.950000	-4.851583	23.915272	-2.190325	57.858483	-2.190325	57.858483	-5.448816	-87.677953
5.000000	-4.808873	22.474572	-2.219390	54.082818	-2.219390	54.082818	-5.437677	-93.891499
5.050000	-4.759807	21.056401	-2.252516	50.263224	-2.252516	50.263224	-5.420195	-100.238148
5.100000	-4.703977	19.657078	-2.290145	46.399284	-2.290145	46.399284	-5.395603	-106.715901
5.150000	-4.640922	18.272629	-2.332816	42.490145	-2.332816	42.490145	-5.363042	-113.323340
5.200000	-4.570230	16.898404	-2.381106	38.535178	-2.381106	38.535178	-5.321662	-120.057554
5.250000	-4.491559	15.529093	-2.435641	34.534025	-2.435641	34.534025	-5.270655	-126.913970
5.300000	-4.404663	14.158759	-2.497082	30.486659	-2.497082	30.486659	-5.209286	-133.886221
5.350000	-4.309414	12.780921	-2.566133	26.393433	-2.566133	26.393433	-5.136937	-140.966062
5.400000	-4.205822	11.388674	-2.643525	22.255143	-2.643525	22.255143	-5.053144	-148.143356
5.450000	-4.093963	9.974566	-2.730103	18.072676	-2.730103	18.072676	-4.957509	-155.406813
5.500000	-3.974227	8.531318	-2.826613	13.848134	-2.826613	13.848134	-4.850052	-162.742022
5.550000	-3.847183	7.051963	-2.933791	9.584189	-2.933791	9.584189	-4.731056	-170.133343
5.600000	-3.713526	5.529835	-3.052406	5.283923	-3.052406	5.283923	-4.601014	-177.564367
5.650000	-3.574117	3.958907	-3.183201	0.951065	-3.183201	0.951065	-4.460686	174.982152
5.700000	-3.429956	2.334011	-3.326883	-3.410017	-3.326883	-3.410017	-4.311089	167.523924
5.750000	-3.282159	0.651012	-3.484101	-7.794327	-3.484101	-7.794327	-4.153466	160.078741
5.800000	-3.131920	-1.093058	-3.655432	-12.196291	-3.655432	-12.196291	-3.989244	152.664102
5.850000	-2.980466	-2.900237	-3.841419	-16.609836	-3.841419	-16.609836	-3.819955	145.297194
5.900000	-2.829049	-4.771301	-4.042492	-21.028321	-4.042492	-21.028321	-3.647236	137.994589
5.950000	-2.678914	-6.704887	-4.258810	-25.444767	-4.258810	-25.444767	-3.472831	130.770593
6.000000	-2.531198	-8.699163	-4.490518	-29.852109	-4.490518	-29.852109	-3.298366	123.638649
6.050000	-2.386946	-10.751377	-4.737632	-34.243216	-4.737632	-34.243216	-3.125380	116.610767
6.100000	-2.247091	-12.858033	-5.000040	-38.611027	-5.000040	-38.611027	-2.955287	109.697472
6.150000	-2.112442	-15.015083	-5.277507	-42.948683	-5.277507	-42.948683	-2.789342	102.907781
6.200000	-1.983679	-17.218115	-5.569680	-47.249657	-5.569680	-47.249657	-2.628627	96.249223
6.250000	-1.861360	-19.462528	-5.876101	-51.507860	-5.876101	-51.507860	-2.474035	89.727890
6.300000	-1.746010	-21.744147	-6.196225	-55.716968	-6.196225	-55.716968	-2.326347	83.350610
6.350000	-1.637895	-24.057827	-6.529362	-59.872687	-6.529362	-59.872687	-2.186035	77.118762
6.400000	-1.537258	-26.399209	-6.874817	-63.970773	-6.874817	-63.970773	-2.053448	71.034530
6.450000	-1.444266	-28.764184	-7.231853	-68.007671	-7.231853	-68.007671	-1.928787	65.099008
6.500000	-1.359031	-31.148923	-7.599705	-71.980525	-7.599705	-71.980525	-1.812118	59.312313
6.550000	-1.281618	-33.549888	-7.977598	-75.887165	-7.977598	-75.887165	-1.703396	53.673694
6.600000	-1.212059	-35.963828	-8.364756	-79.726079	-8.364756	-79.726079	-1.602482	48.181636
6.650000	-1.150364	-38.387752	-8.760420	-83.496377	-8.760420	-83.496377	-1.509163	42.833972
6.700000	-1.094344	-40.816209	-9.162768	-87.197497	-9.162768	-87.197497	-1.422891	37.625458
6.750000	-1.043907	-43.248772	-9.570818	-90.829291	-9.570818	-90.829291	-1.343297	32.553177
6.800000	-0.999620	-45.686671	-9.984097	-94.393165	-9.984097	-94.393165	-1.270140	27.614026
6.850000	-0.961176	-48.130413	-10.401721	-97.891029	-10.401721	-97.891029	-1.203064	22.803568
6.900000	-0.928296	-50.581050	-10.822787	-101.325245	-10.822787	-101.325245	-1.141705	18.117215
6.950000	-0.900830	-53.040425	-11.245986	-104.697534	-11.245986	-104.697534	-1.085790	13.552467
7.000000	-0.878515	-55.510741	-11.670467	-108.011876	-11.670467	-108.011876	-1.034907	9.103297
7.050000	-0.860787	-57.993659	-12.096903	-111.276406	-12.096903	-111.276406	-0.988361	4.756015
7.100000	-0.848366	-60.495515	-12.520460	-114.486745	-12.520460	-114.486745	-0.946551	0.524348
7.150000	-0.840263	-63.016940	-12.944111	-117.657110	-12.944111	-117.657110	-0.908393	-3.616423
7.200000	-0.837303	-65.567363	-13.362394	-120.786372	-13.362394	-120.786372	-0.874238	-7.654091
7.250000	-0.838911	-68.149042	-13.776920	-123.886307	-13.776920	-123.886307	-0.843343	-11.606059
7.300000	-0.845624	-70.772187	-14.183843	-126.963078	-14.183843	-126.963078	-0.815709	-15.470183
7.350000	-0.857610	-73.444791	-14.581397	-130.026919	-14.581397	-130.026919	-0.791049	-19.252754
7.400000	-0.875052	-76.175254	-14.968113	-133.089878	-14.968113	-133.089878	-0.769054	-22.961409
7.450000	-0.899090	-78.982857	-15.337836	-136.167121	-15.337836	-136.167121	-0.749798	-26.593596
7.500000	-0.929465	-81.870153	-15.691975	-139.272249	-15.691975	-139.272249	-0.732753	-30.164528
7.550000	-0.968853	-84.877546	-16.018457	-142.436710	-16.018457	-142.436710	-0.718293	-33.665062
7.600000	-1.016908	-88.003853	-16.319981	-145.674000	-16.319981	-145.674000	-0.705852	-37.112766
7.650000	-1.077149	-91.300424	-16.583780	-149.031870	-16.583780	-149.031870	-0.695729	-40.503472
7.700000	-1.151090	-94.787315	-16.806783	-152.539038	-16.806783	-152.539038	-0.687723	-43.846830
7.750000	-1.243047	-98.520570	-16.978219	-156.253816	-16.978219	-156.253816	-0.682000	-47.145764
7.800000	-1.357478	-102.551482	-17.089811	-160.230326	-17.089811	-160.230326	-0.678663	-50.405873
7.850000	-1.503065	-106.978601	-17.126843	-164.562923	-17.126843	-164.562923	-0.678131	-53.630682
7.900000	-1.690222	-111.905255	-17.078144	-169.343388	-17.078144	-169.343388	-0.680841	-56.826165
7.950000	-1.936082	-117.493330	-16.929192	-174.701206	-16.929192	-174.701206	-0.687619	-59.996988
8.000000	-2.266337	-123.964043	-16.667254	179.210324	-16.667254	179.210324	-0.699670	-63.147370
8.050000	-2.721341	-131.639025	-16.282848	172.203740	-16.282848	172.203740	-0.718770	-66.279118
8.100000	-3.363944	-140.982993	-15.775360	164.065528	-15.775360	164.065528	-0.747290	-69.388975
8.150000	-4.306884	-152.851513	-15.152486	154.490846	-15.152486	154.490846	-0.788710	-72.461468
8.200000	-5.723158	-168.700865	-14.453416	143.207293	-14.453416	143.207293	-0.845905	-75.461112
8.250000	-7.835894	168.412838	-13.754229	130.035061	-13.754229	130.035061	-0.918495	-78.325516
8.300000	-10.481995	131.248109	-13.169947	115.055288	-13.169947	115.055288	-0.997741	-80.977375
8.350000	-11.152060	75.939786	-12.823989	98.885295	-12.823989	98.885295	-1.063723	-83.391499
8.400000	-8.559798	29.721780	-12.781946	82.623615	-12.781946	82.623615	-1.096102	-85.660544
8.450000	-5.960392	1.004969	-13.007119	67.406783	-13.007119	67.406783	-1.091535	-87.950984
8.500000	-4.201479	-18.469587	-13.393856	53.924984	-13.393856	53.924984	-1.063652	-90.377076
8.550000	-3.074650	-32.894843	-13.832519	42.311595	-13.832519	42.311595	-1.028657	-92.956577
8.600000	-2.350805	-44.094631	-14.247666	32.400575	-14.247666	32.400575	-0.996385	-95.659304
8.650000	-1.876056	-53.098874	-14.599752	23.899513	-14.599752	23.899513	-0.970719	-98.447798
8.700000	-1.556146	-60.561921	-14.875390	16.512782	-14.875390	16.512782	-0.952201	-101.294856
8.750000	-1.337683	-66.879494	-15.072010	10.023372	-15.072010	10.023372	-0.940373	-104.186387
8.800000	-1.185037	-72.362684	-15.196844	4.226392	-15.196844	4.226392	-0.934222	-107.114715
8.850000	-1.079107	-77.184655	-15.254770	-0.998522	-15.254770	-0.998522	-0.933175	-110.080412
8.900000	-1.003227	-81.541053	-15.259789	-5.809573	-15.259789	-5.809573	-0.936171	-113.082030
8.950000	-0.951661	-85.487181	-15.213674	-10.250533	-15.213674	-10.250533	-0.943243	-116.129175
9.000000	-0.916474	-89.137116	-15.127723	-14.424069	-15.127723	-14.424069	-0.953778	-119.224839
9.050000	-0.893946	-92.546253	-15.007576	-18.383224	-15.007576	-18.383224	-0.967662	-122.376517
9.100000	-0.881677	-95.752909	-14.857151	-22.167981	-14.857151	-22.167981	-0.985023	-125.595751
9.150000	-0.877701	-98.792799	-14.680427	-25.818184	-14.680427	-25.818184	-1.006095	-128.896369
9.200000	-0.880184	-101.703413	-14.482618	-29.374619	-14.482618	-29.374619	-1.030980	-132.287145
9.250000	-0.888188	-104.506304	-14.266679	-32.864952	-14.266679	-32.864952	-1.060112	-135.782557
9.300000	-0.901296	-107.214650	-14.033905	-36.313726	-14.033905	-36.313726	-1.094474	-139.409178
9.350000	-0.918778	-109.848361	-13.787609	-39.749452	-13.787609	-39.749452	-1.134888	-143.186045
9.400000	-0.940179	-112.421605	-13.530508	-43.196077	-13.530508	-43.196077	-1.182458	-147.135123
9.450000	-0.965274	-114.944201	-13.264677	-46.676897	-13.264677	-46.676897	-1.238870	-151.287472
9.500000	-0.994180	-117.421694	-12.991324	-50.224494	-12.991324	-50.224494	-1.307667	-155.706974
9.550000	-1.026364	-119.865972	-12.714961	-53.859703	-12.714961	-53.859703	-1.391052	-160.415662
9.600000	-1.061908	-122.280483	-12.438433	-57.620018	-12.438433	-57.620018	-1.495026	-165.498371
9.650000	-1.100551	-124.670462	-12.166983	-61.539828	-12.166983	-61.539828	-1.626728	-171.033940
9.700000	-1.141996	-127.039095	-11.908152	-65.664823	-11.908152	-65.664823	-1.798215	-177.146463
9.750000	-1.185563	-129.389833	-11.672249	-70.030777	-11.672249	-70.030777	-2.024638	176.043642
9.800000	-1.230288	-131.724677	-11.476770	-74.693024	-11.476770	-74.693024	-2.335132	168.307227
9.850000	-1.274430	-134.048530	-11.347331	-79.677524	-11.347331	-79.677524	-2.771912	159.388457
9.900000	-1.315454	-136.371796	-11.323094	-84.963067	-11.323094	-84.963067	-3.404538	148.930388
9.950000	-1.350221	-138.717609	-11.460757	-90.397298	-11.460757	-90.397298	-4.347234	136.445803
10.000000	-1.377433	-141.056212	-11.786178	-95.488191	-11.786178	-95.488191	-5.714493	121.757148
