! freq	dB(S11)	phase(S11)	dB(S12)	phase(S12)	
!     	dB(S21)	phase(S21)	dB(S22)	phase(S22)	
!S-par simulation data
#  GHz  S  DB  R 50
0.000000	-85.752914	0.000000	-0.000448	0.000000	-0.000448	0.000000	-85.752914	0.000000
0.050000	-34.447237	-92.753222	-0.005292	-2.811864	-0.005292	-2.811864	-34.446148	-92.664642
0.100000	-28.435864	-95.753241	-0.016691	-5.601988	-0.016691	-5.601988	-28.435653	-95.571344
0.150000	-24.931011	-98.718062	-0.030729	-8.371402	-0.030729	-8.371402	-24.931366	-98.434966
0.200000	-22.461179	-101.685818	-0.046284	-11.127528	-0.046284	-11.127528	-22.460333	-101.295980
0.250000	-20.566579	-104.638985	-0.063496	-13.875085	-0.063496	-13.875085	-20.562062	-104.151350
0.300000	-19.041287	-107.530823	-0.082769	-16.614847	-0.082769	-16.614847	-19.033007	-106.971032
0.350000	-17.767560	-110.334868	-0.104296	-19.346444	-0.104296	-19.346444	-17.759410	-109.716147
0.400000	-16.672918	-113.071210	-0.128190	-22.068732	-0.128190	-22.068732	-16.668224	-112.377374
0.450000	-15.713358	-115.777667	-0.154437	-24.780564	-0.154437	-24.780564	-15.711806	-114.987488
0.500000	-14.861741	-118.476649	-0.182962	-27.480839	-0.182962	-27.480839	-14.861481	-117.582187
0.550000	-14.099704	-121.174572	-0.213677	-30.168361	-0.213677	-30.168361	-14.099346	-120.177472
0.600000	-13.413292	-123.870502	-0.246427	-32.842259	-0.246427	-32.842259	-13.412249	-122.774929
0.650000	-12.791552	-126.561491	-0.281044	-35.501798	-0.281044	-35.501798	-12.789725	-125.370901
0.700000	-12.225836	-129.244554	-0.317364	-38.146237	-0.317364	-38.146237	-12.223340	-127.961099
0.750000	-11.709085	-131.917236	-0.355205	-40.775000	-0.355205	-40.775000	-11.706106	-130.541945
0.800000	-11.235502	-134.577656	-0.394381	-43.387628	-0.394381	-43.387628	-11.232226	-133.110761
0.850000	-10.800340	-137.224352	-0.434703	-45.983696	-0.434703	-45.983696	-10.796931	-135.665559
0.900000	-10.399619	-139.856237	-0.475980	-48.562887	-0.475980	-48.562887	-10.396213	-138.204911
0.950000	-10.029774	-142.472759	-0.518010	-51.125235	-0.518010	-51.125235	-10.026473	-140.728064
1.000000	-9.687878	-145.073480	-0.560603	-53.670715	-0.560603	-53.670715	-9.684759	-143.234452
1.050000	-9.371406	-147.658156	-0.603571	-56.199396	-0.603571	-56.199396	-9.368525	-145.723755
1.100000	-9.078169	-150.226707	-0.646731	-58.711436	-0.646731	-58.711436	-9.075561	-148.195846
1.150000	-8.806421	-152.778961	-0.689900	-61.206843	-0.689900	-61.206843	-8.804106	-150.650513
1.200000	-8.554571	-155.314951	-0.732894	-63.685793	-0.732894	-63.685793	-8.552558	-153.087763
1.250000	-8.319833	-157.836757	-0.775615	-66.150482	-0.775615	-66.150482	-8.318119	-155.509805
1.300000	-8.103241	-160.341480	-0.817767	-68.598091	-0.817767	-68.598091	-8.101815	-157.913497
1.350000	-7.901309	-162.832773	-0.859357	-71.032332	-0.859357	-71.032332	-7.900157	-160.302732
1.400000	-7.714611	-165.308889	-0.900105	-73.451524	-0.900105	-73.451524	-7.713711	-162.675592
1.450000	-7.541218	-167.771757	-0.939972	-75.857621	-0.939972	-75.857621	-7.540546	-165.034114
1.500000	-7.380666	-170.221478	-0.978788	-78.250761	-0.978788	-78.250761	-7.380197	-167.378354
1.550000	-7.232367	-172.658476	-1.016407	-80.631392	-1.016407	-80.631392	-7.232072	-169.708711
1.600000	-7.094934	-175.084384	-1.052826	-83.001143	-1.052826	-83.001143	-7.094786	-172.026899
1.650000	-6.968933	-177.498420	-1.087739	-85.359273	-1.087739	-85.359273	-6.968903	-174.331972
1.700000	-6.853267	-179.902095	-1.121127	-87.707281	-1.121127	-87.707281	-6.853326	-176.625492
1.750000	-6.746755	177.703013	-1.153042	-90.046726	-1.153042	-90.046726	-6.746880	-178.909119
1.800000	-6.649433	175.316691	-1.183310	-92.377829	-1.183310	-92.377829	-6.649600	178.817024
1.850000	-6.560892	172.938107	-1.211859	-94.701415	-1.211859	-94.701415	-6.561077	176.552126
1.900000	-6.480761	170.566415	-1.238624	-97.018319	-1.238624	-97.018319	-6.480946	174.295370
1.950000	-6.408710	168.200758	-1.263544	-99.329387	-1.263544	-99.329387	-6.408876	172.045929
2.000000	-6.344445	165.840270	-1.286569	-101.635470	-1.286569	-101.635470	-6.344577	169.802972
2.050000	-6.287703	163.484078	-1.307653	-103.937425	-1.307653	-103.937425	-6.287788	167.565665
2.100000	-6.238255	161.131305	-1.326758	-106.236112	-1.326758	-106.236112	-6.238282	165.333174
2.150000	-6.195897	158.781073	-1.343849	-108.532394	-1.343849	-108.532394	-6.195860	163.104664
2.200000	-6.160457	156.432501	-1.358902	-110.827134	-1.358902	-110.827134	-6.160349	160.879305
2.250000	-6.131787	154.084710	-1.371895	-113.121194	-1.371895	-113.121194	-6.131605	158.656271
2.300000	-6.109764	151.736821	-1.382813	-115.415434	-1.382813	-115.415434	-6.109508	156.434741
2.350000	-6.094291	149.387962	-1.391647	-117.710712	-1.391647	-117.710712	-6.093960	154.213900
2.400000	-6.085291	147.037262	-1.398393	-120.007885	-1.398393	-120.007885	-6.084890	151.992941
2.450000	-6.082714	144.683857	-1.403051	-122.307804	-1.403051	-122.307804	-6.082246	149.771067
2.500000	-6.086528	142.326889	-1.405630	-124.611314	-1.405630	-124.611314	-6.086000	147.547491
2.550000	-6.097003	139.965278	-1.406051	-126.919489	-1.406051	-126.919489	-6.096422	145.321292
2.600000	-6.113878	137.598337	-1.404421	-129.233010	-1.404421	-129.233010	-6.113250	143.091780
2.650000	-6.137188	135.225237	-1.400764	-131.552703	-1.400764	-131.552703	-6.136523	140.858207
2.700000	-6.166993	132.845159	-1.395107	-133.879391	-1.395107	-133.879391	-6.166299	138.619837
2.750000	-6.203373	130.457295	-1.387481	-136.213889	-1.387481	-136.213889	-6.202658	136.375950
2.800000	-6.246433	128.060851	-1.377923	-138.557002	-1.377923	-138.557002	-6.245705	134.125844
2.850000	-6.296298	125.655047	-1.366476	-140.909528	-1.366476	-140.909528	-6.295565	131.868835
2.900000	-6.353119	123.239118	-1.353186	-143.272255	-1.353186	-143.272255	-6.352387	129.604257
2.950000	-6.417071	120.812317	-1.338104	-145.645963	-1.338104	-145.645963	-6.416344	127.331469
3.000000	-6.488353	118.373913	-1.321287	-148.031418	-1.321287	-148.031418	-6.487636	125.049850
3.050000	-6.567194	115.923198	-1.302797	-150.429376	-1.302797	-150.429376	-6.566487	122.758809
3.100000	-6.653851	113.459484	-1.282699	-152.840581	-1.282699	-152.840581	-6.653153	120.457780
3.150000	-6.748608	110.982107	-1.261065	-155.265760	-1.261065	-155.265760	-6.747917	118.146232
3.200000	-6.851786	108.490429	-1.237972	-157.705629	-1.237972	-157.705629	-6.851095	115.823666
3.250000	-6.963738	105.983841	-1.213499	-160.160885	-1.213499	-160.160885	-6.963038	113.489623
3.300000	-7.084856	103.461765	-1.187734	-162.632206	-1.187734	-162.632206	-7.084135	111.143689
3.350000	-7.215572	100.923656	-1.160768	-165.120254	-1.160768	-165.120254	-7.214814	108.785496
3.400000	-7.356365	98.369008	-1.132696	-167.625667	-1.132696	-167.625667	-7.355549	106.414731
3.450000	-7.507761	95.797357	-1.103620	-170.149060	-1.103620	-170.149060	-7.506863	104.031142
3.500000	-7.670341	93.208282	-1.073647	-172.691025	-1.073647	-172.691025	-7.669331	101.634547
3.550000	-7.844748	90.601414	-1.042885	-175.252124	-1.042885	-175.252124	-7.843590	99.224840
3.600000	-8.031690	87.976442	-1.011453	-177.832891	-1.011453	-177.832891	-8.030345	96.802006
3.650000	-8.231955	85.333115	-0.979468	179.566171	-0.979468	179.566171	-8.230374	94.366132
3.700000	-8.446414	82.671252	-0.947057	176.944596	-0.947057	176.944596	-8.444542	91.917419
3.750000	-8.676038	79.990751	-0.914347	174.301951	-0.914347	174.301951	-8.673810	89.456207
3.800000	-8.922345	77.290794	-0.881466	171.636895	-0.881466	171.636895	-8.919685	86.982502
3.850000	-9.186136	74.572295	-0.848569	168.950001	-0.848569	168.950001	-9.182956	84.497560
3.900000	-9.468777	71.835477	-0.815796	166.240967	-0.815796	166.240967	-9.464974	82.002317
3.950000	-9.771811	69.080702	-0.783289	163.509543	-0.783289	163.509543	-9.767265	79.497983
4.000000	-10.096387	66.309421	-0.751175	160.756758	-0.751175	160.756758	-10.090958	76.986440
4.050000	-10.445577	63.520630	-0.719626	157.980246	-0.719626	157.980246	-10.439090	74.468850
4.100000	-10.821215	60.716040	-0.688782	155.180888	-0.688782	155.180888	-10.813461	71.947984
4.150000	-11.225976	57.896879	-0.658791	152.358635	-0.658791	152.358635	-11.216698	69.426869
4.200000	-11.662985	55.064729	-0.629802	149.513497	-0.629802	149.513497	-11.651862	66.909324
4.250000	-12.135932	52.221624	-0.601962	146.645541	-0.601962	146.645541	-12.122562	64.400189
4.300000	-12.649222	49.370187	-0.575417	143.754888	-0.575417	143.754888	-12.633087	61.905650
4.350000	-13.208177	46.513820	-0.550311	140.841719	-0.550311	140.841719	-13.188599	59.433710
4.400000	-13.819452	43.657060	-0.526800	137.906028	-0.526800	137.906028	-13.795528	56.995390
4.450000	-14.491162	40.806156	-0.505025	134.948116	-0.505025	134.948116	-14.461655	54.605379
4.500000	-15.233444	37.969479	-0.485097	131.968569	-0.485097	131.968569	-15.196633	52.282986
4.550000	-16.059607	35.158814	-0.467138	128.967779	-0.467138	128.967779	-16.013012	50.055919
4.600000	-16.988442	32.397785	-0.451452	125.944420	-0.451452	125.944420	-16.928176	47.982567
4.650000	-18.041780	29.702479	-0.437749	122.902749	-0.437749	122.902749	-17.962185	46.093952
4.700000	-19.255371	27.119904	-0.426326	119.841241	-0.426326	119.841241	-19.146899	44.502054
4.750000	-20.680688	24.723422	-0.417267	116.760426	-0.417267	116.760426	-20.526477	43.372958
4.800000	-22.399352	22.619230	-0.410536	113.661634	-0.410536	113.661634	-22.167924	42.938823
4.850000	-24.553852	21.142930	-0.406437	110.543643	-0.406437	110.543643	-24.173407	43.909449
4.900000	-27.420741	21.014718	-0.404882	107.408017	-0.404882	107.408017	-26.703933	47.616294
4.950000	-31.648272	24.824786	-0.405902	104.255297	-0.405902	104.255297	-29.952164	57.723394
5.000000	-38.958366	48.434082	-0.409510	101.085996	-0.409510	101.085996	-33.453579	83.927410
5.050000	-38.376104	137.203669	-0.415763	97.900246	-0.415763	97.900246	-33.300173	127.020645
5.100000	-31.419934	159.737003	-0.424584	94.698821	-0.424584	94.698821	-29.830217	152.271935
5.150000	-27.320335	163.232729	-0.435937	91.482057	-0.435937	91.482057	-26.651066	161.992198
5.200000	-24.529575	162.923074	-0.449765	88.250198	-0.449765	88.250198	-24.179218	165.470372
5.250000	-22.432630	161.283603	-0.465996	85.003374	-0.465996	85.003374	-22.224508	166.258250
5.300000	-20.763329	159.023902	-0.484536	81.741575	-0.484536	81.741575	-20.630049	165.693187
5.350000	-19.384705	156.422002	-0.505273	78.464631	-0.505273	78.464631	-19.295494	164.359772
5.400000	-18.217467	153.608832	-0.528074	75.172178	-0.528074	75.172178	-18.156386	162.548855
5.450000	-17.211799	150.653969	-0.552786	71.863628	-0.552786	71.863628	-17.169794	160.420141
5.500000	-16.334500	147.597640	-0.579234	68.538127	-0.579234	68.538127	-16.306045	158.068144
5.550000	-15.562462	144.464525	-0.607222	65.194517	-0.607222	65.194517	-15.543987	155.552113
5.600000	-14.879089	141.270384	-0.636532	61.831273	-0.636532	61.831273	-14.868173	152.910876
5.650000	-14.272530	138.025027	-0.666930	58.446189	-0.666930	58.446189	-14.267451	150.169892
5.700000	-13.733798	134.735307	-0.698142	55.036714	-0.698142	55.036714	-13.733287	147.347882
5.750000	-13.255912	131.405899	-0.729868	51.599993	-0.729868	51.599993	-13.258996	144.458571
5.800000	-12.834040	128.039180	-0.761794	48.132216	-0.761794	48.132216	-12.839934	141.511024
5.850000	-12.464876	124.636198	-0.793584	44.628705	-0.793584	44.628705	-12.472912	138.511753
5.900000	-12.146465	121.196945	-0.824878	41.083730	-0.824878	41.083730	-12.156043	135.465468
5.950000	-11.878147	117.720593	-0.855302	37.490273	-0.855302	37.490273	-11.888687	132.375664
6.000000	-11.660600	114.205717	-0.884465	33.839728	-0.884465	33.839728	-11.671499	129.245172
6.050000	-11.496004	110.650596	-0.911979	30.121516	-0.911979	30.121516	-11.506585	126.076792
6.100000	-11.388348	107.053698	-0.937471	26.322580	-0.937471	26.322580	-11.397792	122.874162
6.150000	-11.343942	103.414523	-0.960618	22.426724	-0.960618	22.426724	-11.351192	119.643131
6.200000	-11.372240	99.735169	-0.981195	18.413754	-0.981195	18.413754	-11.375836	116.394097
6.250000	-11.487166	96.023315	-0.999164	14.258329	-0.999164	14.258329	-11.484968	113.146212
6.300000	-11.712088	92.298783	-1.014773	9.923714	-1.014773	9.923714	-11.700666	109.937684
6.350000	-12.076641	88.607989	-1.028968	5.371581	-1.028968	5.371581	-12.050325	106.840761
6.400000	-12.626259	85.047030	-1.043564	0.554279	-1.043564	0.554279	-12.575001	103.991989
6.450000	-13.443627	81.842219	-1.062021	-4.602995	-1.062021	-4.602995	-13.347089	101.694182
6.500000	-14.659500	79.530081	-1.090501	-10.183626	-1.090501	-10.183626	-14.471972	100.611166
6.550000	-16.507103	79.569922	-1.139669	-16.296202	-1.139669	-16.296202	-16.107037	102.394434
6.600000	-19.339569	86.878376	-1.228168	-23.079938	-1.228168	-23.079938	-18.343016	111.683663
6.650000	-22.294937	117.232463	-1.386107	-30.679463	-1.386107	-30.679463	-20.018903	137.785774
6.700000	-19.352799	159.839843	-1.663196	-39.244058	-1.663196	-39.244058	-17.709322	169.746241
6.750000	-14.173900	171.754276	-2.134177	-48.844527	-2.134177	-48.844527	-13.470288	-178.151628
6.800000	-10.173798	168.930183	-2.903956	-59.370965	-2.903956	-59.370965	-9.826917	-179.269130
6.850000	-7.223426	160.561416	-4.099369	-70.365921	-4.099369	-70.365921	-7.027193	173.648143
6.900000	-5.092691	149.846873	-5.842675	-80.900746	-5.842675	-80.900746	-4.972100	163.861183
6.950000	-3.616968	138.470873	-8.234020	-89.544552	-8.234020	-89.544552	-3.539451	153.183817
7.000000	-2.645475	127.489523	-11.349498	-94.110371	-11.349498	-94.110371	-2.594687	142.752576
7.050000	-2.032404	117.452510	-15.179783	-90.454437	-15.179783	-90.454437	-1.999277	133.165185
7.100000	-1.657561	108.528645	-18.853372	-70.598837	-18.853372	-70.598837	-1.636669	124.619267
7.150000	-1.431927	100.655643	-19.403194	-39.071320	-19.403194	-39.071320	-1.419864	117.071536
7.200000	-1.297940	93.696012	-17.369489	-20.671706	-17.369489	-20.671706	-1.292444	110.396607
7.250000	-1.219039	87.496808	-15.399318	-14.563540	-15.399318	-14.563540	-1.218542	104.449870
7.300000	-1.172062	81.905705	-13.944313	-13.573188	-13.944313	-13.573188	-1.175460	99.085457
7.350000	-1.143877	76.817076	-12.897106	-14.759019	-12.897106	-14.759019	-1.150334	94.201575
7.400000	-1.125749	72.116284	-12.125945	-16.881199	-12.125945	-16.881199	-1.134660	89.687764
7.450000	-1.113188	67.739464	-11.551768	-19.465222	-11.551768	-19.465222	-1.124065	85.482195
7.500000	-1.103322	63.629183	-11.119431	-22.269156	-11.119431	-22.269156	-1.115774	81.529329
7.550000	-1.094475	59.746735	-10.794368	-25.172446	-10.794368	-25.172446	-1.108173	77.791559
7.600000	-1.085665	56.048193	-10.547804	-28.107829	-10.547804	-28.107829	-1.100342	74.226599
7.650000	-1.076411	52.505711	-10.362058	-31.042498	-10.362058	-31.042498	-1.091838	70.807546
7.700000	-1.066492	49.096909	-10.224305	-33.958644	-10.224305	-33.958644	-1.082471	67.512800
7.750000	-1.055841	45.803657	-10.125037	-36.846838	-10.125037	-36.846838	-1.072196	64.324880
7.800000	-1.044417	42.620222	-10.059665	-39.698850	-10.059665	-39.698850	-1.060974	61.237806
7.850000	-1.032431	39.516598	-10.017441	-42.519343	-10.017441	-42.519343	-1.049059	58.223541
7.900000	-1.019922	36.491220	-9.996635	-45.305175	-9.996635	-45.305175	-1.036490	55.280221
7.950000	-1.007006	33.535615	-9.993848	-48.056975	-9.993848	-48.056975	-1.023390	52.399725
8.000000	-0.993797	30.642625	-10.006355	-50.775882	-10.006355	-50.775882	-1.009883	49.575203
8.050000	-0.980407	27.806148	-10.031949	-53.463304	-10.031949	-53.463304	-0.996086	46.800829
8.100000	-0.966942	25.020944	-10.068827	-56.120773	-10.068827	-56.120773	-0.982112	44.071609
8.150000	-0.953503	22.283945	-10.115783	-58.748939	-10.115783	-58.748939	-0.968064	41.384505
8.200000	-0.940184	19.590855	-10.171471	-61.349503	-10.171471	-61.349503	-0.954041	38.735443
8.250000	-0.927064	16.936662	-10.234560	-63.924946	-10.234560	-63.924946	-0.940131	36.119805
8.300000	-0.914212	14.318329	-10.304203	-66.476718	-10.304203	-66.476718	-0.926406	33.534725
8.350000	-0.901690	11.733129	-10.379681	-69.006208	-10.379681	-69.006208	-0.912933	30.977642
8.400000	-0.889553	9.178592	-10.460382	-71.514747	-10.460382	-71.514747	-0.899771	28.446242
8.450000	-0.877848	6.652464	-10.545783	-74.003607	-10.545783	-74.003607	-0.886972	25.938417
8.500000	-0.866619	4.152663	-10.635436	-76.474015	-10.635436	-76.474015	-0.874582	23.452226
8.550000	-0.855902	1.677251	-10.728958	-78.927148	-10.728958	-78.927148	-0.862645	20.985868
8.600000	-0.845730	-0.775593	-10.826021	-81.364151	-10.826021	-81.364151	-0.851196	18.537651
8.650000	-0.836133	-3.207599	-10.926342	-83.786135	-10.926342	-83.786135	-0.840271	16.105972
8.700000	-0.827136	-5.620427	-11.029682	-86.194192	-11.029682	-86.194192	-0.829899	13.689293
8.750000	-0.818762	-8.015682	-11.135837	-88.589396	-11.135837	-88.589396	-0.820108	11.286127
8.800000	-0.811078	-10.393942	-11.244713	-90.972076	-11.244713	-90.972076	-0.810969	8.895753
8.850000	-0.804061	-12.757953	-11.356069	-93.344178	-11.356069	-93.344178	-0.802466	6.515813
8.900000	-0.797728	-15.109263	-11.469797	-95.706780	-11.469797	-95.706780	-0.794622	4.144872
8.950000	-0.792098	-17.449431	-11.585812	-98.060977	-11.585812	-98.060977	-0.787462	1.781479
9.000000	-0.787189	-19.780043	-11.704053	-100.407889	-11.704053	-100.407889	-0.781008	-0.575842
9.050000	-0.783018	-22.102719	-11.824481	-102.748672	-11.824481	-102.748672	-0.775285	-2.928607
9.100000	-0.779607	-24.419132	-11.947081	-105.084524	-11.947081	-105.084524	-0.770319	-5.278385
9.150000	-0.776976	-26.731021	-12.071860	-107.416697	-12.071860	-107.416697	-0.766136	-7.626809
9.200000	-0.775149	-29.040202	-12.198847	-109.746504	-12.198847	-109.746504	-0.762768	-9.975596
9.250000	-0.774153	-31.348587	-12.328096	-112.075337	-12.328096	-112.075337	-0.760245	-12.326554
9.300000	-0.774133	-33.658608	-12.459738	-114.404924	-12.459738	-114.404924	-0.758723	-14.682366
9.350000	-0.774949	-35.972214	-12.593808	-116.736781	-12.593808	-116.736781	-0.758062	-17.044292
9.400000	-0.776662	-38.291327	-12.730445	-119.072316	-12.730445	-119.072316	-0.758327	-19.414254
9.450000	-0.779310	-40.617961	-12.869803	-121.413022	-12.869803	-121.413022	-0.759562	-21.794184
9.500000	-0.783112	-42.956430	-13.012189	-123.762044	-13.012189	-123.762044	-0.761995	-24.188672
9.550000	-0.788145	-45.310524	-13.157902	-126.122233	-13.157902	-126.122233	-0.765707	-26.601328
9.600000	-0.794338	-47.681484	-13.307134	-128.494602	-13.307134	-128.494602	-0.770624	-29.032968
9.650000	-0.801775	-50.072216	-13.460216	-130.881354	-13.460216	-130.881354	-0.776828	-31.486407
9.700000	-0.810547	-52.485824	-13.617524	-133.284846	-13.617524	-133.284846	-0.784414	-33.964657
9.750000	-0.820893	-54.928197	-13.779668	-135.709511	-13.779668	-135.709511	-0.793619	-36.473650
9.800000	-0.833255	-57.409909	-13.947690	-138.163325	-13.947690	-138.163325	-0.804884	-39.024046
9.850000	-0.847482	-59.929437	-14.121872	-140.645308	-14.121872	-140.645308	-0.818040	-41.613801
9.900000	-0.863774	-62.491649	-14.303000	-143.159192	-14.303000	-143.159192	-0.833276	-44.247664
9.950000	-0.882363	-65.101812	-14.491984	-145.709010	-14.491984	-145.709010	-0.850804	-46.930778
10.000000	-0.903506	-67.765607	-14.689880	-148.299108	-14.689880	-148.299108	-0.870865	-49.668693
