! freq	dB(S11)	phase(S11)	dB(S12)	phase(S12)	
!     	dB(S21)	phase(S21)	dB(S22)	phase(S22)	
!S-par simulation data
#  GHz  S  DB  R 50
0.000000	0.000000	0.000000	-341.478178	0.000000	-341.478178	0.000000	-0.000000	0.000000
0.050000	-0.000189	-1.294290	-76.931544	-176.694321	-76.931544	-176.694321	-0.000191	-1.294230
0.100000	-0.000747	-2.588045	-76.818780	172.323562	-76.818780	172.323562	-0.000753	-2.587918
0.150000	-0.001645	-3.880776	-76.769128	164.581926	-76.769128	164.581926	-0.001658	-3.880570
0.200000	-0.002839	-5.172094	-76.722397	157.770755	-76.722397	157.770755	-0.002860	-5.171793
0.250000	-0.004296	-6.461570	-76.674554	151.474008	-76.674554	151.474008	-0.004327	-6.461156
0.300000	-0.005940	-7.749156	-76.628473	145.517312	-76.628473	145.517312	-0.005979	-7.748613
0.350000	-0.007731	-9.034655	-76.588325	139.875808	-76.588325	139.875808	-0.007780	-9.033967
0.400000	-0.009624	-10.318013	-76.558936	134.532523	-76.558936	134.532523	-0.009680	-10.317168
0.450000	-0.011580	-11.599231	-76.545283	129.482288	-76.545283	129.482288	-0.011643	-11.598219
0.500000	-0.013567	-12.878347	-76.552308	124.724991	-76.552308	124.724991	-0.013634	-12.877160
0.550000	-0.015561	-14.155417	-76.584850	120.263371	-76.584850	120.263371	-0.015631	-14.154053
0.600000	-0.017542	-15.430507	-76.647643	116.102731	-76.647643	116.102731	-0.017614	-15.428963
0.650000	-0.019500	-16.703679	-76.745356	112.251576	-76.745356	112.251576	-0.019571	-16.701956
0.700000	-0.021426	-17.974987	-76.882660	108.722843	-76.882660	108.722843	-0.021496	-17.973087
0.750000	-0.023316	-19.244475	-77.064303	105.535635	-77.064303	105.535635	-0.023384	-19.242400
0.800000	-0.025168	-20.512172	-77.295182	102.717572	-77.295182	102.717572	-0.025233	-20.509927
0.850000	-0.026984	-21.778096	-77.580374	100.307998	-77.580374	100.307998	-0.027045	-21.775684
0.900000	-0.028764	-23.042254	-77.925070	98.362408	-77.925070	98.362408	-0.028821	-23.039678
0.950000	-0.030511	-24.304638	-78.334322	96.958644	-78.334322	96.958644	-0.030564	-24.301903
1.000000	-0.032228	-25.565236	-78.812395	96.205485	-78.812395	96.205485	-0.032275	-25.562346
1.050000	-0.033917	-26.824025	-79.361337	96.254142	-79.361337	96.254142	-0.033960	-26.820983
1.100000	-0.035582	-28.080978	-79.978031	97.312131	-79.978031	97.312131	-0.035620	-28.077787
1.150000	-0.037226	-29.336060	-80.648458	99.655373	-80.648458	99.655373	-0.037259	-29.332725
1.200000	-0.038852	-30.589236	-81.337408	103.624407	-81.337408	103.624407	-0.038880	-30.585759
1.250000	-0.040461	-31.840467	-81.972972	109.568396	-81.972972	109.568396	-0.040484	-31.836850
1.300000	-0.042056	-33.089624	-82.416945	117.743059	-82.416945	117.743059	-0.042075	-33.085869
1.350000	-0.043640	-34.336748	-82.515182	127.641178	-82.515182	127.641178	-0.043654	-34.332858
1.400000	-0.045213	-35.581798	-82.157077	138.127781	-82.157077	138.127781	-0.045223	-35.577774
1.450000	-0.046779	-36.824732	-81.362071	147.822479	-81.362071	147.822479	-0.046785	-36.820575
1.500000	-0.048338	-38.065508	-80.261170	155.811148	-80.261170	155.811148	-0.048340	-38.061220
1.550000	-0.049891	-39.304085	-79.006202	161.855252	-79.006202	161.855252	-0.049890	-39.299666
1.600000	-0.051440	-40.540424	-77.709302	166.148651	-77.709302	166.148651	-0.051436	-40.535876
1.650000	-0.052986	-41.774486	-76.434835	169.032603	-76.434835	169.032603	-0.052979	-41.769809
1.700000	-0.054529	-43.006235	-75.213401	170.838198	-75.213401	170.838198	-0.054519	-43.001430
1.750000	-0.056070	-44.235637	-74.056365	171.834029	-74.056365	171.834029	-0.056058	-44.230703
1.800000	-0.057611	-45.462656	-72.965360	172.223096	-72.965360	172.223096	-0.057596	-45.457594
1.850000	-0.059150	-46.687263	-71.937540	172.154861	-71.937540	172.154861	-0.059134	-46.682073
1.900000	-0.060690	-47.909427	-70.968268	171.738785	-70.968268	171.738785	-0.060673	-47.904109
1.950000	-0.062231	-49.129121	-70.052424	171.055402	-70.052424	171.055402	-0.062212	-49.123674
2.000000	-0.063773	-50.346319	-69.185011	170.164503	-69.185011	170.164503	-0.063753	-50.340744
2.050000	-0.065317	-51.560997	-68.361404	169.110964	-68.361404	169.110964	-0.065295	-51.555293
2.100000	-0.066863	-52.773134	-67.577438	167.928849	-67.577438	167.928849	-0.066841	-52.767301
2.150000	-0.068411	-53.982710	-66.829409	166.644299	-66.829409	166.644299	-0.068389	-53.976747
2.200000	-0.069963	-55.189707	-66.114045	165.277585	-66.114045	165.277585	-0.069940	-55.183614
2.250000	-0.071519	-56.394111	-65.428461	163.844570	-65.428461	163.844570	-0.071496	-56.387887
2.300000	-0.073079	-57.595906	-64.770113	162.357781	-64.770113	162.357781	-0.073056	-57.589551
2.350000	-0.074644	-58.795082	-64.136756	160.827179	-64.136756	160.827179	-0.074621	-58.788596
2.400000	-0.076214	-59.991629	-63.526400	159.260746	-63.526400	159.260746	-0.076191	-59.985011
2.450000	-0.077790	-61.185539	-62.937284	157.664913	-62.937284	157.664913	-0.077767	-61.178789
2.500000	-0.079372	-62.376808	-62.367837	156.044887	-62.367837	156.044887	-0.079349	-62.369925
2.550000	-0.080962	-63.565315	-61.815923	154.404200	-61.815923	154.404200	-0.080939	-63.558299
2.600000	-0.082559	-64.751175	-61.281100	152.747270	-61.281100	152.747270	-0.082536	-64.744025
2.650000	-0.084164	-65.934388	-60.762231	151.076864	-60.762231	151.076864	-0.084142	-65.927104
2.700000	-0.085778	-67.114957	-60.258293	149.395257	-60.258293	149.395257	-0.085756	-67.107538
2.750000	-0.087401	-68.292885	-59.768365	147.704327	-59.768365	147.704327	-0.087380	-68.285332
2.800000	-0.089034	-69.468180	-59.291610	146.005623	-59.291610	146.005623	-0.089014	-69.460492
2.850000	-0.090678	-70.640849	-58.827273	144.300426	-58.827273	144.300426	-0.090658	-70.633025
2.900000	-0.092333	-71.810902	-58.374663	142.589791	-58.374663	142.589791	-0.092313	-71.802943
2.950000	-0.093999	-72.978351	-57.933154	140.874591	-57.933154	140.874591	-0.093980	-72.970257
3.000000	-0.095679	-74.143210	-57.502172	139.155546	-57.502172	139.155546	-0.095660	-74.134980
3.050000	-0.097371	-75.305494	-57.081194	137.433248	-57.081194	137.433248	-0.097353	-75.297129
3.100000	-0.099077	-76.465221	-56.669739	135.708184	-56.669739	135.708184	-0.099060	-76.456719
3.150000	-0.100798	-77.622409	-56.267366	133.980752	-56.267366	133.980752	-0.100781	-77.613771
3.200000	-0.102535	-78.777079	-55.873668	132.251278	-55.873668	132.251278	-0.102518	-78.768306
3.250000	-0.104287	-79.929254	-55.488272	130.520028	-55.488272	130.520028	-0.104270	-79.920345
3.300000	-0.106055	-81.078959	-55.110833	128.787217	-55.110833	128.787217	-0.106040	-81.069913
3.350000	-0.107841	-82.226218	-54.741033	127.053020	-54.741033	127.053020	-0.107826	-82.217036
3.400000	-0.109645	-83.371060	-54.378576	125.317577	-54.378576	125.317577	-0.109630	-83.361742
3.450000	-0.111468	-84.513513	-54.023189	123.581001	-54.023189	123.581001	-0.111453	-84.504059
3.500000	-0.113311	-85.653610	-53.674619	121.843385	-53.674619	121.843385	-0.113296	-85.644020
3.550000	-0.115173	-86.791382	-53.332630	120.104802	-53.332630	120.104802	-0.115158	-86.781656
3.600000	-0.117056	-87.926864	-52.997005	118.365314	-52.997005	118.365314	-0.117041	-87.917001
3.650000	-0.118961	-89.060091	-52.667538	116.624970	-52.667538	116.624970	-0.118946	-89.050093
3.700000	-0.120888	-90.191102	-52.344040	114.883814	-52.344040	114.883814	-0.120873	-90.180967
3.750000	-0.122837	-91.319934	-52.026334	113.141884	-52.026334	113.141884	-0.122822	-91.309663
3.800000	-0.124812	-92.446538	-51.714013	111.399184	-51.714013	111.399184	-0.124797	-92.436131
3.850000	-0.126810	-93.571051	-51.407184	109.655783	-51.407184	109.655783	-0.126795	-93.560507
3.900000	-0.128834	-94.693516	-51.105700	107.911713	-51.105700	107.911713	-0.128819	-94.682836
3.950000	-0.130884	-95.813979	-50.809424	106.167011	-50.809424	106.167011	-0.130868	-95.803162
4.000000	-0.132959	-96.932487	-50.518227	104.421715	-50.518227	104.421715	-0.132943	-96.921533
4.050000	-0.135062	-98.049087	-50.231987	102.675865	-50.231987	102.675865	-0.135045	-98.037997
4.100000	-0.137192	-99.163831	-49.950589	100.929507	-49.950589	100.929507	-0.137175	-99.152603
4.150000	-0.139351	-100.276768	-49.673926	99.182688	-49.673926	99.182688	-0.139334	-100.265403
4.200000	-0.141538	-101.387952	-49.401895	97.435461	-49.401895	97.435461	-0.141521	-101.376450
4.250000	-0.143755	-102.497437	-49.134397	95.687885	-49.134397	95.687885	-0.143737	-102.485796
4.300000	-0.146003	-103.605278	-48.871341	93.940021	-48.871341	93.940021	-0.145984	-103.593499
4.350000	-0.148281	-104.711533	-48.612639	92.191936	-48.612639	92.191936	-0.148261	-104.699614
4.400000	-0.150590	-105.816259	-48.358206	90.443701	-48.358206	90.443701	-0.150570	-105.804200
4.450000	-0.152931	-106.919516	-48.107961	88.695392	-48.107961	88.695392	-0.152911	-106.907317
4.500000	-0.155305	-108.021365	-47.861829	86.947089	-47.861829	86.947089	-0.155284	-108.009026
4.550000	-0.157713	-109.121869	-47.619733	85.198874	-47.619733	85.198874	-0.157691	-109.109388
4.600000	-0.160153	-110.221091	-47.381602	83.450835	-47.381602	83.450835	-0.160131	-110.208468
4.650000	-0.162629	-111.319096	-47.147368	81.703062	-47.147368	81.703062	-0.162606	-111.306330
4.700000	-0.165139	-112.415951	-46.916963	79.955648	-46.916963	79.955648	-0.165115	-112.403041
4.750000	-0.167684	-113.511723	-46.690323	78.208687	-46.690323	78.208687	-0.167660	-113.498669
4.800000	-0.170266	-114.606482	-46.467383	76.462276	-46.467383	76.462276	-0.170241	-114.593282
4.850000	-0.172884	-115.700298	-46.248083	74.716514	-46.248083	74.716514	-0.172858	-115.686950
4.900000	-0.175538	-116.793242	-46.032362	72.971499	-46.032362	72.971499	-0.175512	-116.779746
4.950000	-0.178231	-117.885387	-45.820161	71.227329	-45.820161	71.227329	-0.178204	-117.871742
5.000000	-0.180961	-118.976808	-45.611423	69.484103	-45.611423	69.484103	-0.180934	-118.963013
5.050000	-0.183732	-120.067554	-45.406029	67.741970	-45.406029	67.741970	-0.183703	-120.053608
5.100000	-0.186541	-121.157736	-45.203994	66.000983	-45.203994	66.000983	-0.186512	-121.143636
5.150000	-0.189390	-122.247430	-45.005262	64.261237	-45.005262	64.261237	-0.189360	-122.233175
5.200000	-0.192279	-123.336716	-44.809780	62.522824	-44.809780	62.522824	-0.192249	-123.322306
5.250000	-0.195209	-124.425675	-44.617493	60.785832	-44.617493	60.785832	-0.195177	-124.411107
5.300000	-0.198179	-125.514389	-44.428348	59.050347	-44.428348	59.050347	-0.198147	-125.499662
5.350000	-0.201190	-126.602941	-44.242292	57.316449	-44.242292	57.316449	-0.201157	-126.588053
5.400000	-0.204243	-127.691415	-44.059275	55.584217	-44.059275	55.584217	-0.204210	-127.676364
5.450000	-0.207338	-128.779897	-43.879245	53.853723	-43.879245	53.853723	-0.207304	-128.764682
5.500000	-0.210476	-129.868475	-43.702151	52.125034	-43.702151	52.125034	-0.210441	-129.853093
5.550000	-0.213656	-130.957235	-43.527944	50.398212	-43.527944	50.398212	-0.213621	-130.941685
5.600000	-0.216880	-132.046268	-43.356574	48.673315	-43.356574	48.673315	-0.216844	-132.030548
5.650000	-0.220147	-133.135663	-43.187994	46.950394	-43.187994	46.950394	-0.220110	-133.119772
5.700000	-0.223458	-134.225514	-43.022155	45.229493	-43.022155	45.229493	-0.223421	-134.209448
5.750000	-0.226813	-135.315913	-42.859011	43.510652	-42.859011	43.510652	-0.226775	-135.299671
5.800000	-0.230213	-136.406955	-42.698515	41.793905	-42.698515	41.793905	-0.230174	-136.390534
5.850000	-0.233657	-137.498735	-42.540621	40.079276	-42.540621	40.079276	-0.233618	-137.482133
5.900000	-0.237147	-138.591350	-42.385286	38.366788	-42.385286	38.366788	-0.237107	-138.574565
5.950000	-0.240682	-139.684898	-42.232465	36.656455	-42.232465	36.656455	-0.240642	-139.667928
6.000000	-0.244263	-140.779478	-42.082115	34.948284	-42.082115	34.948284	-0.244222	-140.762321
6.050000	-0.247890	-141.875192	-41.934195	33.242279	-41.934195	33.242279	-0.247849	-141.857845
6.100000	-0.251563	-142.972141	-41.788664	31.538435	-41.788664	31.538435	-0.251521	-142.954601
6.150000	-0.255283	-144.070428	-41.645482	29.836745	-41.645482	29.836745	-0.255240	-144.052693
6.200000	-0.259049	-145.170157	-41.504611	28.137192	-41.504611	28.137192	-0.259006	-145.152225
6.250000	-0.262862	-146.271435	-41.366012	26.439759	-41.366012	26.439759	-0.262818	-146.253303
6.300000	-0.266724	-147.374445	-41.229653	24.744511	-41.229653	24.744511	-0.266680	-147.356110
6.350000	-0.270633	-148.479228	-41.095499	23.051327	-41.095499	23.051327	-0.270588	-148.460688
6.400000	-0.274590	-149.585895	-40.963516	21.360174	-40.963516	21.360174	-0.274544	-149.567146
6.450000	-0.278594	-150.694555	-40.833670	19.671017	-40.833670	19.671017	-0.278548	-150.675595
6.500000	-0.282646	-151.805320	-40.705931	17.983817	-40.705931	17.983817	-0.282599	-151.786147
6.550000	-0.286745	-152.918306	-40.580269	16.298531	-40.580269	16.298531	-0.286698	-152.898915
6.600000	-0.290892	-154.033625	-40.456656	14.615119	-40.456656	14.615119	-0.290844	-154.014015
6.650000	-0.295087	-155.151393	-40.335065	12.933535	-40.335065	12.933535	-0.295038	-155.131562
6.700000	-0.299330	-156.271729	-40.215470	11.253736	-40.215470	11.253736	-0.299281	-156.251673
6.750000	-0.303621	-157.394750	-40.097847	9.575676	-40.097847	9.575676	-0.303571	-157.374466
6.800000	-0.307959	-158.520577	-39.982176	7.899312	-39.982176	7.899312	-0.307909	-158.500061
6.850000	-0.312346	-159.649329	-39.868434	6.224602	-39.868434	6.224602	-0.312295	-159.628579
6.900000	-0.316780	-160.781129	-39.756603	4.551506	-39.756603	4.551506	-0.316728	-160.760142
6.950000	-0.321262	-161.916100	-39.646666	2.879985	-39.646666	2.879985	-0.321210	-161.894873
7.000000	-0.325792	-163.054367	-39.538606	1.210006	-39.538606	1.210006	-0.325739	-163.032897
7.050000	-0.330370	-164.196055	-39.432410	-0.458460	-39.432410	-0.458460	-0.330316	-164.174340
7.100000	-0.334995	-165.341292	-39.328064	-2.125439	-39.328064	-2.125439	-0.334940	-165.319327
7.150000	-0.339667	-166.490206	-39.225558	-3.790950	-39.225558	-3.790950	-0.339611	-166.467988
7.200000	-0.344386	-167.642925	-39.124881	-5.455004	-39.124881	-5.455004	-0.344330	-167.620452
7.250000	-0.349152	-168.799580	-39.026027	-7.117609	-39.026027	-7.117609	-0.349095	-168.776848
7.300000	-0.353965	-169.960302	-38.928988	-8.778761	-38.928988	-8.778761	-0.353907	-169.937309
7.350000	-0.358824	-171.125225	-38.833760	-10.438450	-38.833760	-10.438450	-0.358766	-171.101966
7.400000	-0.363730	-172.294481	-38.740338	-12.096655	-38.740338	-12.096655	-0.363670	-172.270953
7.450000	-0.368681	-173.468205	-38.648722	-13.753348	-38.648722	-13.753348	-0.368621	-173.444406
7.500000	-0.373678	-174.646533	-38.558909	-15.408487	-38.558909	-15.408487	-0.373616	-174.622458
7.550000	-0.378721	-175.829813	-38.470942	-17.061949	-38.470942	-17.061949	-0.378659	-175.805460
7.600000	-0.383810	-177.017984	-38.384786	-18.713736	-38.384786	-18.713736	-0.383746	-176.993349
7.650000	-0.388942	-178.211183	-38.300442	-20.363771	-38.300442	-20.363771	-0.388878	-178.186263
7.700000	-0.394118	-179.409550	-38.217917	-22.011965	-38.217917	-22.011965	-0.394053	-179.384342
7.750000	-0.399337	179.386775	-38.137215	-23.658214	-38.137215	-23.658214	-0.399271	179.412276
7.800000	-0.404599	178.177652	-38.058342	-25.302402	-38.058342	-25.302402	-0.404532	178.203448
7.850000	-0.409903	176.962939	-37.981307	-26.944399	-37.981307	-26.944399	-0.409835	176.989035
7.900000	-0.415248	175.742495	-37.906116	-28.584061	-37.906116	-28.584061	-0.415180	175.768893
7.950000	-0.420634	174.516177	-37.832781	-30.221229	-37.832781	-30.221229	-0.420565	174.542882
8.000000	-0.426060	173.283843	-37.761309	-31.855729	-37.761309	-31.855729	-0.425990	173.310858
8.050000	-0.431526	172.045349	-37.691713	-33.487376	-37.691713	-33.487376	-0.431454	172.072678
8.100000	-0.437030	170.800553	-37.624002	-35.115967	-37.624002	-35.115967	-0.436957	170.828199
8.150000	-0.442571	169.549310	-37.558188	-36.741286	-37.558188	-36.741286	-0.442497	169.577277
8.200000	-0.448149	168.291479	-37.494283	-38.363105	-37.494283	-38.363105	-0.448075	168.319771
8.250000	-0.453763	167.026914	-37.432299	-39.981180	-37.432299	-39.981180	-0.453688	167.055535
8.300000	-0.459412	165.755474	-37.372248	-41.595254	-37.372248	-41.595254	-0.459336	165.784427
8.350000	-0.465095	164.477015	-37.314142	-43.205059	-37.314142	-43.205059	-0.465018	164.506305
8.400000	-0.470811	163.191395	-37.257994	-44.810313	-37.257994	-44.810313	-0.470732	163.221026
8.450000	-0.476559	161.898473	-37.203816	-46.410723	-37.203816	-46.410723	-0.476479	161.928448
8.500000	-0.482337	160.598108	-37.151620	-48.005986	-37.151620	-48.005986	-0.482256	160.628432
8.550000	-0.488144	159.290159	-37.101417	-49.595790	-37.101417	-49.595790	-0.488063	159.320836
8.600000	-0.493979	157.974488	-37.053219	-51.179810	-37.053219	-51.179810	-0.493897	158.005522
8.650000	-0.499842	156.650957	-37.007036	-52.757719	-37.007036	-52.757719	-0.499759	156.682352
8.700000	-0.505729	155.319431	-36.962878	-54.329177	-36.962878	-54.329177	-0.505646	155.351191
8.750000	-0.511641	153.979773	-36.920756	-55.893842	-36.920756	-55.893842	-0.511557	154.011904
8.800000	-0.517576	152.631488	-36.880759	-57.451040	-36.880759	-57.451040	-0.517491	152.663993
8.850000	-0.523532	151.274797	-36.842816	-59.000715	-36.842816	-59.000715	-0.523446	151.307681
8.900000	-0.529508	149.909572	-36.806934	-60.542513	-36.806934	-60.542513	-0.529421	149.942841
8.950000	-0.535501	148.535690	-36.773118	-62.076081	-36.773118	-62.076081	-0.535414	148.569348
9.000000	-0.541510	147.153027	-36.741373	-63.601067	-36.741373	-63.601067	-0.541422	147.187078
9.050000	-0.547534	145.761464	-36.711702	-65.117119	-36.711702	-65.117119	-0.547445	145.795914
9.100000	-0.553570	144.360885	-36.684108	-66.623891	-36.684108	-66.623891	-0.553481	144.395738
9.150000	-0.559617	142.951178	-36.658592	-68.121040	-36.658592	-68.121040	-0.559528	142.986440
9.200000	-0.565673	141.532235	-36.635153	-69.608230	-36.635153	-69.608230	-0.565583	141.567911
9.250000	-0.571736	140.103951	-36.613790	-71.085132	-36.613790	-71.085132	-0.571646	140.140046
9.300000	-0.577804	138.666228	-36.594499	-72.551427	-36.594499	-72.551427	-0.577713	138.702748
9.350000	-0.583874	137.218971	-36.577276	-74.006803	-36.577276	-74.006803	-0.583784	137.255921
9.400000	-0.589946	135.762091	-36.562114	-75.450961	-36.562114	-75.450961	-0.589856	135.799477
9.450000	-0.596017	134.295505	-36.549007	-76.883615	-36.549007	-76.883615	-0.595926	134.333332
9.500000	-0.602084	132.819134	-36.537945	-78.304488	-36.537945	-78.304488	-0.601994	132.857409
9.550000	-0.608146	131.332907	-36.528917	-79.713321	-36.528917	-79.713321	-0.608056	131.371636
9.600000	-0.614201	129.836761	-36.521911	-81.109867	-36.521911	-81.109867	-0.614111	129.875949
9.650000	-0.620245	128.330637	-36.516912	-82.493896	-36.516912	-82.493896	-0.620156	128.370291
9.700000	-0.626278	126.814485	-36.513907	-83.865192	-36.513907	-83.865192	-0.626188	126.854612
9.750000	-0.632296	125.288264	-36.512877	-85.223557	-36.512877	-85.223557	-0.632207	125.328869
9.800000	-0.638297	123.751939	-36.513804	-86.568809	-36.513804	-86.568809	-0.638209	123.793030
9.850000	-0.644280	122.205485	-36.516667	-87.900784	-36.516667	-87.900784	-0.644192	122.247068
9.900000	-0.650241	120.648887	-36.521446	-89.219333	-36.521446	-89.219333	-0.650154	120.690969
9.950000	-0.656179	119.082136	-36.528117	-90.524329	-36.528117	-90.524329	-0.656093	119.124725
10.000000	-0.662091	117.505237	-36.536655	-91.815657	-36.536655	-91.815657	-0.662006	117.548339
