! freq	dB(S11)	phase(S11)	dB(S12)	phase(S12)	
!     	dB(S21)	phase(S21)	dB(S22)	phase(S22)	
!S-par simulation data
#  GHz  S  DB  R 50
0.000000	-79.612147	0.000000	-0.000908	0.000000	-0.000908	0.000000	-79.612147	0.000000
0.050000	-50.112332	41.175550	-0.022529	-2.947590	-0.022529	-2.947590	-50.111825	41.170734
0.100000	-46.126691	54.453457	-0.028314	-5.884320	-0.028314	-5.884320	-46.126345	54.441134
0.150000	-43.187183	60.467537	-0.032729	-8.822718	-0.032729	-8.822718	-43.186943	60.448047
0.200000	-40.875947	62.866563	-0.036996	-11.754629	-0.036996	-11.754629	-40.875777	62.840288
0.250000	-38.973972	63.402171	-0.041128	-14.680210	-0.041128	-14.680210	-38.973860	63.369425
0.300000	-37.351597	62.904294	-0.045017	-17.601117	-0.045017	-17.601117	-37.351542	62.865385
0.350000	-35.930929	61.798412	-0.048628	-20.519207	-0.048628	-20.519207	-35.930929	61.753652
0.400000	-34.659562	60.284495	-0.051975	-23.435835	-0.051975	-23.435835	-34.659618	60.234213
0.450000	-33.500315	58.472689	-0.055101	-26.352055	-0.055101	-26.352055	-33.500426	58.417250
0.500000	-32.431914	56.453002	-0.058084	-29.268640	-0.058084	-29.268640	-32.432078	56.392761
0.550000	-31.436966	54.272408	-0.060989	-32.186090	-0.060989	-32.186090	-31.437182	54.207728
0.600000	-30.500655	51.958792	-0.063879	-35.104825	-0.063879	-35.104825	-30.500919	51.890056
0.650000	-29.615334	49.541660	-0.066813	-38.025053	-0.066813	-38.025053	-29.615642	49.469233
0.700000	-28.774218	47.039849	-0.069844	-40.946923	-0.069844	-40.946923	-28.774565	46.964088
0.750000	-27.970543	44.465260	-0.073021	-43.870604	-0.073021	-43.870604	-27.970926	44.386522
0.800000	-27.200204	41.829877	-0.076389	-46.796172	-0.076389	-46.796172	-27.200616	41.748506
0.850000	-26.460261	39.143895	-0.079988	-49.723651	-0.079988	-49.723651	-26.460700	39.060217
0.900000	-25.748035	36.415174	-0.083854	-52.653057	-0.083854	-52.653057	-25.748494	36.329497
0.950000	-25.061146	33.650080	-0.088024	-55.584399	-0.088024	-55.584399	-25.061621	33.562698
1.000000	-24.397748	30.854238	-0.092533	-58.517660	-0.092533	-58.517660	-24.398236	30.765427
1.050000	-23.756306	28.032478	-0.097413	-61.452804	-0.097413	-61.452804	-23.756802	27.942497
1.100000	-23.135524	25.188962	-0.102696	-64.389776	-0.102696	-64.389776	-23.136025	25.098053
1.150000	-22.534299	22.327278	-0.108412	-67.328504	-0.108412	-67.328504	-22.534802	22.235666
1.200000	-21.951685	19.450522	-0.114592	-70.268897	-0.114592	-70.268897	-21.952187	19.358415
1.250000	-21.386860	16.561354	-0.121264	-73.210848	-0.121264	-73.210848	-21.387358	16.468945
1.300000	-20.838735	13.661886	-0.128467	-76.154255	-0.128467	-76.154255	-20.839227	13.569355
1.350000	-20.307109	10.754320	-0.136215	-79.098936	-0.136215	-79.098936	-20.307593	10.661830
1.400000	-19.791417	7.840304	-0.144532	-82.044726	-0.144532	-82.044726	-19.791892	7.748003
1.450000	-19.291154	4.921236	-0.153440	-84.991437	-0.153440	-84.991437	-19.291619	4.829260
1.500000	-18.806189	1.998381	-0.162944	-87.938852	-0.162944	-87.938852	-18.806642	1.906851
1.550000	-18.335500	-0.927433	-0.173088	-90.886780	-0.173088	-90.886780	-18.335940	-1.018402
1.600000	-17.878928	-3.855287	-0.183882	-93.834967	-0.183882	-93.834967	-17.879354	-3.945591
1.650000	-17.436213	-6.784450	-0.195333	-96.783150	-0.195333	-96.783150	-17.436625	-6.873996
1.700000	-17.006947	-9.714325	-0.207462	-99.731044	-0.207462	-99.731044	-17.007344	-9.803026
1.750000	-16.591181	-12.644392	-0.220244	-102.678383	-0.220244	-102.678383	-16.591562	-12.732175
1.800000	-16.188463	-15.574233	-0.233698	-105.624861	-0.233698	-105.624861	-16.188829	-15.661027
1.850000	-15.798567	-18.503471	-0.247821	-108.570166	-0.247821	-108.570166	-15.798917	-18.589213
1.900000	-15.421250	-21.431756	-0.262614	-111.513958	-0.262614	-111.513958	-15.421583	-21.516390
1.950000	-15.056349	-24.358779	-0.278066	-114.455899	-0.278066	-114.455899	-15.056667	-24.442251
2.000000	-14.703737	-27.284270	-0.294153	-117.395671	-0.294153	-117.395671	-14.704039	-27.366532
2.050000	-14.363250	-30.207962	-0.310856	-120.332940	-0.310856	-120.332940	-14.363537	-30.288972
2.100000	-14.034741	-33.129595	-0.328149	-123.267371	-0.328149	-123.267371	-14.035011	-33.209314
2.150000	-13.718069	-36.048910	-0.346002	-126.198632	-0.346002	-126.198632	-13.718324	-36.127301
2.200000	-13.413107	-38.965646	-0.364380	-129.126399	-0.364380	-129.126399	-13.413347	-39.042675
2.250000	-13.119734	-41.879537	-0.383243	-132.050355	-0.383243	-132.050355	-13.119959	-41.955172
2.300000	-12.837837	-44.790310	-0.402546	-134.970194	-0.402546	-134.970194	-12.838048	-44.864523
2.350000	-12.567312	-47.697688	-0.422238	-137.885629	-0.422238	-137.885629	-12.567509	-47.770449
2.400000	-12.308058	-50.601386	-0.442265	-140.796386	-0.442265	-140.796386	-12.308241	-50.672669
2.450000	-12.059980	-53.501119	-0.462567	-143.702216	-0.462567	-143.702216	-12.060149	-53.570897
2.500000	-11.822987	-56.396597	-0.483081	-146.602891	-0.483081	-146.602891	-11.823142	-56.464845
2.550000	-11.597110	-59.287431	-0.503738	-149.498092	-0.503738	-149.498092	-11.597253	-59.354123
2.600000	-11.382172	-62.173434	-0.524463	-152.387762	-0.524463	-152.387762	-11.382302	-62.238544
2.650000	-11.178092	-65.054338	-0.545180	-155.271767	-0.545180	-155.271767	-11.178209	-65.117841
2.700000	-10.984795	-67.929890	-0.565809	-158.150005	-0.565809	-158.150005	-10.984900	-67.991758
2.750000	-10.802209	-70.799856	-0.586269	-161.022414	-0.586269	-161.022414	-10.802301	-70.860063
2.800000	-10.630267	-73.664027	-0.606476	-163.888968	-0.606476	-163.888968	-10.630347	-73.722544
2.850000	-10.468906	-76.522223	-0.626341	-166.749686	-0.626341	-166.749686	-10.468974	-76.579021
2.900000	-10.318072	-79.374299	-0.645779	-169.604628	-0.645779	-169.604628	-10.318128	-79.429346
2.950000	-10.177715	-82.220145	-0.664699	-172.453897	-0.664699	-172.453897	-10.177759	-82.273407
3.000000	-10.047794	-85.059695	-0.683013	-175.297645	-0.683013	-175.297645	-10.047826	-85.111138
3.050000	-9.928277	-87.892928	-0.700630	-178.136069	-0.700630	-178.136069	-9.928297	-87.942515
3.100000	-9.819142	-90.719874	-0.717461	179.030588	-0.717461	179.030588	-9.819150	-90.767564
3.150000	-9.720481	-93.540545	-0.733409	176.202081	-0.733409	176.202081	-9.720477	-93.586295
3.200000	-9.632307	-96.355084	-0.748383	173.378057	-0.748383	173.378057	-9.632290	-96.398845
3.250000	-9.554537	-99.163750	-0.762311	170.558072	-0.762311	170.558072	-9.554506	-99.205473
3.300000	-9.487207	-101.966794	-0.775110	167.741685	-0.775110	167.741685	-9.487163	-102.006424
3.350000	-9.430373	-104.764523	-0.786705	164.928410	-0.786705	164.928410	-9.430315	-104.802002
3.400000	-9.384111	-107.557304	-0.797021	162.117711	-0.797021	162.117711	-9.384038	-107.592566
3.450000	-9.348524	-110.345555	-0.805991	159.309010	-0.805991	159.309010	-9.348435	-110.378531
3.500000	-9.323739	-113.129753	-0.813549	156.501682	-0.813549	156.501682	-9.323634	-113.160367
3.550000	-9.309917	-115.910425	-0.819640	153.695061	-0.819640	153.695061	-9.309794	-115.938594
3.600000	-9.307248	-118.688148	-0.824212	150.888438	-0.824212	150.888438	-9.307108	-118.713781
3.650000	-9.315964	-121.463547	-0.827221	148.081067	-0.827221	148.081067	-9.315804	-121.486543
3.700000	-9.336334	-124.237285	-0.828631	145.272164	-0.828631	145.272164	-9.336153	-124.257536
3.750000	-9.368676	-127.010065	-0.828414	142.460913	-0.828414	142.460913	-9.368473	-127.027449
3.800000	-9.413628	-129.782630	-0.826514	139.646375	-0.826514	139.646375	-9.413401	-129.797012
3.850000	-9.471356	-132.555760	-0.822959	136.827725	-0.822959	136.827725	-9.471103	-132.566991
3.900000	-9.542350	-135.330225	-0.817749	134.004063	-0.817749	134.004063	-9.542069	-135.338142
3.950000	-9.627168	-138.106804	-0.810895	131.174470	-0.810895	131.174470	-9.626857	-138.111223
4.000000	-9.726448	-140.886267	-0.802421	128.338015	-0.802421	128.338015	-9.726105	-140.886985
4.050000	-9.840919	-143.669371	-0.792361	125.493757	-0.792361	125.493757	-9.840540	-143.666158
4.100000	-9.971407	-146.456836	-0.780761	122.640750	-0.780761	122.640750	-9.970990	-146.449437
4.150000	-10.118857	-149.249338	-0.767681	119.778054	-0.767681	119.778054	-10.118397	-149.237464
4.200000	-10.284342	-152.047484	-0.753192	116.904739	-0.753192	116.904739	-10.283836	-152.030806
4.250000	-10.469087	-154.851790	-0.737380	114.019890	-0.737380	114.019890	-10.468530	-154.829937
4.300000	-10.674493	-157.662654	-0.720344	111.122618	-0.720344	111.122618	-10.673878	-157.635200
4.350000	-10.902163	-160.480325	-0.702196	108.212069	-0.702196	108.212069	-10.901483	-160.446782
4.400000	-11.154139	-163.304931	-0.683051	105.287267	-0.683051	105.287267	-11.153386	-163.264728
4.450000	-11.432576	-166.136271	-0.663056	102.347427	-0.663056	102.347427	-11.431739	-166.088742
4.500000	-11.739759	-168.973753	-0.642374	99.392009	-0.642374	99.392009	-11.738827	-168.918125
4.550000	-12.078584	-171.816464	-0.621172	96.420392	-0.621172	96.420392	-12.077539	-171.751824
4.600000	-12.452455	-174.662981	-0.599629	93.432037	-0.599629	93.432037	-12.451280	-174.588241
4.650000	-12.865421	-177.511219	-0.577936	90.426502	-0.577936	90.426502	-12.864090	-177.425072
4.700000	-13.322339	179.641780	-0.556292	87.403447	-0.556292	87.403447	-13.320820	179.740924
4.750000	-13.829106	176.800149	-0.534908	84.362651	-0.534908	84.362651	-13.827358	176.914249
4.800000	-14.392991	173.969640	-0.514002	81.304014	-0.514002	81.304014	-14.390958	174.101144
4.850000	-15.023095	171.158302	-0.493796	78.227573	-0.493796	78.227573	-15.020700	171.310325
4.900000	-15.731039	168.377551	-0.474519	75.133509	-0.474519	75.133509	-15.728173	168.554130
4.950000	-16.532004	165.643918	-0.456400	72.022148	-0.456400	72.022148	-16.528510	165.850413
5.000000	-17.446383	162.982071	-0.439666	68.893977	-0.439666	68.893977	-17.442022	163.225803
5.050000	-18.503183	160.434144	-0.424584	65.749306	-0.424584	65.749306	-18.497568	160.725795
5.100000	-19.742787	158.064115	-0.411342	62.589316	-0.411342	62.589316	-19.735265	158.419342
5.150000	-21.227806	155.989091	-0.400150	59.414982	-0.400150	59.414982	-21.217165	156.432586
5.200000	-23.060686	154.441283	-0.391204	56.227435	-0.391204	56.227435	-23.044410	155.015177
5.250000	-25.425519	153.955721	-0.384687	53.027955	-0.384687	53.027955	-25.397426	154.740020
5.300000	-28.697776	156.094653	-0.380761	49.817961	-0.380761	49.817961	-28.638036	157.263814
5.350000	-33.721153	167.792691	-0.379569	46.599002	-0.379569	46.599002	-33.530872	169.685227
5.400000	-39.057297	-137.415801	-0.381230	43.372738	-0.381230	43.372738	-38.462776	-137.413558
5.450000	-33.683252	-80.611622	-0.385837	40.140924	-0.385837	40.140924	-33.499638	-82.749421
5.500000	-28.568132	-69.217097	-0.393454	36.905393	-0.393454	36.905393	-28.512575	-70.590236
5.550000	-25.223100	-67.145527	-0.404093	33.668027	-0.404093	33.668027	-25.197898	-68.130121
5.600000	-22.788195	-67.704281	-0.417824	30.430746	-0.417824	30.430746	-22.774086	-68.479000
5.650000	-20.887222	-69.320753	-0.434596	27.195518	-0.434596	27.195518	-20.878316	-69.965632
5.700000	-19.335834	-71.468511	-0.454350	23.964279	-0.454350	23.964279	-19.329762	-72.025655
5.750000	-18.031529	-73.917073	-0.476978	20.738880	-0.476978	20.738880	-18.027163	-74.411120
5.800000	-16.911777	-76.550875	-0.502363	17.521115	-0.502363	17.521115	-16.908514	-76.997537
5.850000	-15.935683	-79.304266	-0.530355	14.312688	-0.530355	14.312688	-15.933172	-79.714160
5.900000	-15.075040	-82.136980	-0.560782	11.115194	-0.560782	11.115194	-15.073063	-82.517619
5.950000	-14.310254	-85.024017	-0.593509	7.930584	-0.593509	7.930584	-14.308668	-85.381059
6.000000	-13.624964	-87.944696	-0.628184	4.759332	-0.628184	4.759332	-13.623676	-88.282151
6.050000	-13.008197	-90.887913	-0.664630	1.602967	-0.664630	1.602967	-13.007138	-91.209022
6.100000	-12.450910	-93.844413	-0.702593	-1.537519	-0.702593	-1.537519	-12.450031	-94.151749
6.150000	-11.945878	-96.807304	-0.741801	-4.661312	-0.741801	-4.661312	-11.945145	-97.102952
6.200000	-11.487235	-99.771389	-0.781978	-7.767781	-0.781978	-7.767781	-11.486621	-100.057065
6.250000	-11.070143	-102.732727	-0.822837	-10.856478	-0.822837	-10.856478	-11.069627	-103.009869
6.300000	-10.690979	-105.688163	-0.864085	-13.926748	-0.864085	-13.926748	-10.690545	-105.958014
6.350000	-10.345916	-108.635582	-0.905420	-16.978912	-0.905420	-16.978912	-10.345551	-108.899191
6.400000	-10.032057	-111.573413	-0.946552	-20.013085	-0.946552	-20.013085	-10.031753	-111.831696
6.450000	-9.746926	-114.500584	-0.987196	-23.029554	-0.987196	-23.029554	-9.746674	-114.754351
6.500000	-9.488390	-117.416437	-1.027072	-26.028777	-1.027072	-26.028777	-9.488184	-117.666417
6.550000	-9.254609	-120.320675	-1.065907	-29.011369	-1.065907	-29.011369	-9.254444	-120.567529
6.600000	-9.043990	-123.213306	-1.103440	-31.978100	-1.103440	-31.978100	-9.043863	-123.457642
6.650000	-8.855157	-126.094603	-1.139420	-34.929881	-1.139420	-34.929881	-8.855065	-126.336988
6.700000	-8.686922	-128.965071	-1.173608	-37.867760	-1.173608	-37.867760	-8.686863	-129.206038
6.750000	-8.538266	-131.825419	-1.205780	-40.792911	-1.205780	-40.792911	-8.538237	-132.065479
6.800000	-8.408320	-134.676533	-1.235728	-43.706623	-1.235728	-43.706623	-8.408321	-134.916176
6.850000	-8.296355	-137.519453	-1.263257	-46.610298	-1.263257	-46.610298	-8.296386	-137.759162
6.900000	-8.201945	-140.355296	-1.288161	-49.505359	-1.288161	-49.505359	-8.202005	-140.595551
6.950000	-8.124609	-143.185405	-1.310274	-52.393460	-1.310274	-52.393460	-8.124698	-143.426689
7.000000	-8.063810	-146.011263	-1.329486	-55.276376	-1.329486	-55.276376	-8.063929	-146.254058
7.050000	-8.019299	-148.834362	-1.345675	-58.155870	-1.345675	-58.155870	-8.019449	-149.079164
7.100000	-7.990937	-151.656268	-1.358738	-61.033775	-1.358738	-61.033775	-7.991119	-151.903589
7.150000	-7.978696	-154.478609	-1.368593	-63.911990	-1.368593	-63.911990	-7.978912	-154.728984
7.200000	-7.982660	-157.303060	-1.375177	-66.792469	-1.375177	-66.792469	-7.982911	-157.557054
7.250000	-8.003025	-160.131333	-1.378448	-69.677221	-1.378448	-69.677221	-8.003314	-160.389547
7.300000	-8.040109	-162.965161	-1.378387	-72.568299	-1.378387	-72.568299	-8.040439	-163.228243
7.350000	-8.094357	-165.806289	-1.374996	-75.467794	-1.374996	-75.467794	-8.094731	-166.074937
7.400000	-8.166349	-168.656453	-1.368302	-78.377832	-1.368302	-78.377832	-8.166771	-168.931433
7.450000	-8.256814	-171.517369	-1.358353	-81.300561	-1.358353	-81.300561	-8.257289	-171.799522
7.500000	-8.366645	-174.390711	-1.345227	-84.238148	-1.345227	-84.238148	-8.367178	-174.680969
7.550000	-8.497339	-177.278429	-1.328959	-87.193185	-1.328959	-87.193185	-8.497937	-177.577860
7.600000	-8.649789	179.818235	-1.309748	-90.167520	-1.309748	-90.167520	-8.650460	179.508451
7.650000	-8.825519	176.897893	-1.287754	-93.163308	-1.287754	-93.163308	-8.826272	176.576417
7.700000	-9.026328	173.959328	-1.263165	-96.182671	-1.263165	-96.182671	-9.027176	173.624627
7.750000	-9.254338	171.001536	-1.236199	-99.227690	-1.236199	-99.227690	-9.255295	170.651841
7.800000	-9.512054	168.023795	-1.207107	-102.300382	-1.207107	-102.300382	-9.513139	167.657049
7.850000	-9.802444	165.025748	-1.176169	-105.402683	-1.176169	-105.402683	-9.803679	164.639533
7.900000	-10.129039	162.007509	-1.143703	-108.536426	-1.143703	-108.536426	-10.130454	161.598956
7.950000	-10.496072	158.969810	-1.110054	-111.703313	-1.110054	-111.703313	-10.497704	158.535477
8.000000	-10.908660	155.914205	-1.075605	-114.904895	-1.075605	-114.904895	-10.910560	155.449909
8.050000	-11.372800	152.843431	-1.040770	-118.142230	-1.040770	-118.142230	-11.375033	152.344076
8.100000	-11.896915	149.761421	-1.005992	-121.417278	-1.005992	-121.417278	-11.899574	149.220477
8.150000	-12.490547	146.674763	-0.971758	-124.730653	-0.971758	-124.730653	-12.493758	146.083937
8.200000	-13.166248	143.593221	-0.938580	-128.082973	-0.938580	-128.082973	-13.170194	142.941668
8.250000	-13.940285	140.531391	-0.906982	-131.474312	-0.906982	-131.474312	-13.945239	139.804653
8.300000	-14.834908	137.511724	-0.877509	-134.904602	-0.877509	-134.904602	-14.841292	136.689824
8.350000	-15.881085	134.569425	-0.850707	-138.373220	-0.850707	-138.373220	-15.889586	133.623879
8.400000	-17.125390	131.767786	-0.827201	-141.879978	-0.827201	-141.879978	-17.137223	130.654637
8.450000	-18.638257	129.217468	-0.807521	-145.423044	-0.807521	-145.423044	-18.655747	127.866280
8.500000	-20.538971	127.146242	-0.792221	-149.000660	-0.792221	-149.000660	-20.567192	125.432277
8.550000	-23.050979	126.101715	-0.781838	-152.610610	-0.781838	-152.610610	-23.103372	123.772562
8.600000	-26.665462	127.806841	-0.776877	-156.250229	-0.776877	-156.250229	-26.791500	124.234445
8.650000	-32.678726	141.316106	-0.777805	-159.916412	-0.777805	-159.916412	-33.231795	134.591328
8.700000	-37.282676	-139.850438	-0.785040	-163.605643	-0.785040	-163.605643	-39.160189	-133.433916
8.750000	-29.350251	-99.230700	-0.798942	-167.314032	-0.798942	-167.314032	-29.603999	-94.225735
8.800000	-24.530189	-93.902941	-0.819902	-171.037516	-0.819902	-171.037516	-24.613862	-90.894346
8.850000	-21.371202	-93.966356	-0.848038	-174.771329	-0.848038	-174.771329	-21.411944	-91.828009
8.900000	-19.040960	-95.736497	-0.883476	-178.510803	-0.883476	-178.510803	-19.064945	-94.072254
8.950000	-17.203922	-98.250503	-0.926260	177.748842	-0.926260	177.748842	-17.219699	-96.881992
9.000000	-15.695030	-101.150374	-0.976347	174.012413	-0.976347	174.012413	-15.706190	-99.982954
9.050000	-14.421376	-104.271671	-1.033604	170.284658	-1.033604	170.284658	-14.429688	-103.249292
9.100000	-13.325542	-107.527243	-1.097816	166.570192	-1.097816	166.570192	-13.331976	-106.614022
9.150000	-12.369527	-110.865785	-1.168684	162.873418	-1.168684	162.873418	-12.374663	-110.037372
9.200000	-11.527026	-114.254809	-1.245888	159.198707	-1.245888	159.198707	-11.531231	-113.493801
9.250000	-10.778664	-117.671528	-1.328951	155.549803	-1.328951	155.549803	-10.782180	-116.965225
9.300000	-10.109800	-121.099999	-1.417349	151.929983	-1.417349	151.929983	-10.112796	-120.438818
9.350000	-9.509165	-124.528550	-1.510540	148.342204	-1.510540	148.342204	-9.511761	-123.905038
9.400000	-8.967807	-127.948292	-1.607943	144.788981	-1.607943	144.788981	-8.970090	-127.356531
9.450000	-8.478466	-131.352343	-1.708952	141.272376	-1.708952	141.272376	-8.480501	-130.787551
9.500000	-8.035142	-134.735339	-1.812943	137.793996	-1.812943	137.793996	-8.036979	-134.193591
9.550000	-7.632804	-138.093101	-1.919283	134.355004	-1.919283	134.355004	-7.634479	-137.571131
9.600000	-7.267265	-141.422254	-2.027337	130.956328	-2.027337	130.956328	-7.268808	-140.917300
9.650000	-6.934922	-144.720172	-2.136465	127.598495	-2.136465	127.598495	-6.936355	-144.229876
9.700000	-6.632388	-147.985369	-2.246049	124.281052	-2.246049	124.281052	-6.633728	-147.507725
9.750000	-6.356866	-151.216628	-2.355494	121.003591	-2.355494	121.003591	-6.358124	-150.749892
9.800000	-6.105889	-154.413188	-2.464227	117.765388	-2.464227	117.765388	-6.107073	-153.955837
9.850000	-5.877269	-157.574682	-2.571700	114.565441	-2.571700	114.565441	-5.878386	-157.125373
9.900000	-5.669060	-160.701067	-2.677388	111.402497	-2.677388	111.402497	-5.670113	-160.258608
9.950000	-5.479517	-163.792576	-2.780799	108.275082	-2.780799	108.275082	-5.480507	-163.355903
10.000000	-5.307075	-166.849669	-2.881466	105.181528	-2.881466	105.181528	-5.308001	-166.417828
