! freq	dB(S11)	phase(S11)	dB(S12)	phase(S12)	
!     	dB(S21)	phase(S21)	dB(S22)	phase(S22)	
!S-par simulation data
#  GHz  S  DB  R 50
0.000000	-0.000000	0.000000	-354.286436	0.000000	-354.286436	0.000000	-0.000000	0.000000
0.050000	-0.000093	-0.772122	-115.518368	87.692893	-115.518368	87.692893	-0.000093	-0.772108
0.100000	-0.000369	-1.544029	-109.668179	85.697639	-109.668179	85.697639	-0.000368	-1.544003
0.150000	-0.000822	-2.315505	-106.391326	84.170696	-106.391326	84.170696	-0.000820	-2.315467
0.200000	-0.001425	-3.086418	-104.163609	83.056134	-104.163609	83.056134	-0.001422	-3.086370
0.250000	-0.002166	-3.856612	-102.514400	82.278369	-102.514400	82.278369	-0.002162	-3.856558
0.300000	-0.003033	-4.625894	-101.243085	81.765848	-101.243085	81.765848	-0.003028	-4.625836
0.350000	-0.003988	-5.394336	-100.222483	81.417648	-100.222483	81.417648	-0.003982	-5.394275
0.400000	-0.005023	-6.161762	-99.407790	81.229765	-99.407790	81.229765	-0.005016	-6.161701
0.450000	-0.006112	-6.928240	-98.753662	81.181086	-98.753662	81.181086	-0.006105	-6.928179
0.500000	-0.007241	-7.693731	-98.241819	81.290467	-98.241819	81.290467	-0.007233	-7.693671
0.550000	-0.008394	-8.458258	-97.857330	81.586572	-97.857330	81.586572	-0.008386	-8.458200
0.600000	-0.009561	-9.221848	-97.591441	82.116006	-97.591441	82.116006	-0.009553	-9.221791
0.650000	-0.010730	-9.984533	-97.439053	82.944795	-97.439053	82.944795	-0.010723	-9.984477
0.700000	-0.011896	-10.746345	-97.397434	84.163901	-97.397434	84.163901	-0.011889	-10.746289
0.750000	-0.013053	-11.507317	-97.464882	85.898128	-97.464882	85.898128	-0.013046	-11.507259
0.800000	-0.014197	-12.267477	-97.638747	88.318875	-97.638747	88.318875	-0.014191	-12.267417
0.850000	-0.015323	-13.026720	-97.918936	91.920688	-97.918936	91.920688	-0.015318	-13.026657
0.900000	-0.016433	-13.785165	-98.282385	96.818304	-98.282385	96.818304	-0.016428	-13.785098
0.950000	-0.017534	-14.543223	-98.638795	102.699278	-98.638795	102.699278	-0.017531	-14.543152
1.000000	-0.018610	-15.300122	-98.939101	111.530324	-98.939101	111.530324	-0.018607	-15.300045
1.050000	-0.019681	-16.056766	-99.134067	120.937024	-99.134067	120.937024	-0.019679	-16.056684
1.100000	-0.020727	-16.812143	-98.762674	133.221988	-98.762674	133.221988	-0.020725	-16.812054
1.150000	-0.021770	-17.567393	-98.314879	145.365855	-98.314879	145.365855	-0.021769	-17.567297
1.200000	-0.022790	-18.321240	-96.983262	155.957643	-96.983262	155.957643	-0.022789	-18.321138
1.250000	-0.023810	-19.075088	-95.828916	166.549431	-95.828916	166.549431	-0.023809	-19.074979
1.300000	-0.024814	-19.827771	-94.277574	173.799942	-94.277574	173.799942	-0.024813	-19.827654
1.350000	-0.025809	-20.579695	-92.714422	179.171762	-92.714422	179.171762	-0.025809	-20.579571
1.400000	-0.026797	-21.330849	-91.198381	-176.926804	-91.198381	-176.926804	-0.026797	-21.330718
1.450000	-0.027779	-22.081219	-89.754360	-174.139445	-89.754360	-174.139445	-0.027779	-22.081082
1.500000	-0.028755	-22.830791	-88.389430	-172.190537	-88.389430	-172.190537	-0.028755	-22.830647
1.550000	-0.029727	-23.579551	-87.102262	-170.876367	-87.102262	-170.876367	-0.029727	-23.579400
1.600000	-0.030695	-24.327481	-85.887995	-170.048366	-85.887995	-170.048366	-0.030695	-24.327325
1.650000	-0.031660	-25.074568	-84.740601	-169.597978	-84.740601	-169.597978	-0.031660	-25.074406
1.700000	-0.032622	-25.820486	-83.628144	-169.521050	-83.628144	-169.521050	-0.032622	-25.820319
1.750000	-0.033584	-26.565950	-82.608013	-169.577527	-82.608013	-169.577527	-0.033584	-26.565778
1.800000	-0.034544	-27.310318	-81.622015	-169.851302	-81.622015	-169.851302	-0.034544	-27.310141
1.850000	-0.035504	-28.053902	-80.689736	-170.280290	-80.689736	-170.280290	-0.035504	-28.053721
1.900000	-0.036464	-28.796511	-79.795244	-170.834683	-79.795244	-170.834683	-0.036464	-28.796326
1.950000	-0.037424	-29.538145	-78.936649	-171.514481	-78.936649	-171.514481	-0.037424	-29.537955
2.000000	-0.038386	-30.278936	-78.117839	-172.267750	-78.117839	-172.267750	-0.038385	-30.278743
2.050000	-0.039348	-31.018548	-77.321675	-173.123877	-77.321675	-173.123877	-0.039348	-31.018351
2.100000	-0.040312	-31.757462	-76.566396	-174.022819	-76.566396	-174.022819	-0.040311	-31.757262
2.150000	-0.041279	-32.494983	-75.823764	-175.007387	-75.823764	-175.007387	-0.041278	-32.494780
2.200000	-0.042247	-33.231964	-75.122566	-176.016037	-75.122566	-176.016037	-0.042246	-33.231758
2.250000	-0.043218	-33.967326	-74.426373	-177.096931	-74.426373	-177.096931	-0.043217	-33.967118
2.300000	-0.044191	-34.702318	-73.771794	-178.190160	-73.771794	-178.190160	-0.044190	-34.702107
2.350000	-0.045170	-35.435458	-73.116317	-179.345060	-73.116317	-179.345060	-0.045169	-35.435245
2.400000	-0.046149	-36.168407	-72.502369	179.495206	-72.502369	179.495206	-0.046148	-36.168192
2.450000	-0.047136	-36.899262	-71.882933	178.282298	-71.882933	178.282298	-0.047134	-36.899045
2.500000	-0.048122	-37.630118	-71.304746	177.069389	-71.304746	177.069389	-0.048121	-37.629898
2.550000	-0.049118	-38.358629	-70.717481	175.810241	-70.717481	175.810241	-0.049116	-38.358408
2.600000	-0.050113	-39.087141	-70.167420	174.551093	-70.167420	174.551093	-0.050112	-39.086918
2.650000	-0.051119	-39.813453	-69.612708	173.257684	-69.612708	173.257684	-0.051118	-39.813229
2.700000	-0.052125	-40.539565	-69.088109	171.961160	-69.088109	171.961160	-0.052124	-40.539339
2.750000	-0.053141	-41.263632	-68.562521	170.639161	-68.562521	170.639161	-0.053140	-41.263405
2.800000	-0.054158	-41.987290	-68.061110	169.312069	-68.061110	169.312069	-0.054158	-41.987062
2.850000	-0.055186	-42.709071	-67.561752	167.966043	-67.561752	167.966043	-0.055185	-42.708841
2.900000	-0.056217	-43.430225	-67.081571	166.613706	-67.081571	166.613706	-0.056217	-43.429995
2.950000	-0.057258	-44.149679	-66.605976	165.247360	-66.605976	165.247360	-0.057257	-44.149447
3.000000	-0.058303	-44.868282	-66.145325	163.874009	-66.145325	163.874009	-0.058303	-44.868049
3.050000	-0.059358	-45.585371	-65.691369	162.490389	-65.691369	162.490389	-0.059357	-45.585137
3.100000	-0.060419	-46.301378	-65.248762	161.099434	-65.248762	161.099434	-0.060419	-46.301143
3.150000	-0.061489	-47.016066	-64.814606	159.701067	-64.814606	159.701067	-0.061489	-47.015830
3.200000	-0.062567	-47.729435	-64.388732	158.295290	-64.388732	158.295290	-0.062567	-47.729198
3.250000	-0.063653	-48.441689	-63.972769	156.884293	-63.972769	156.884293	-0.063653	-48.441452
3.300000	-0.064750	-49.152381	-63.562468	155.465991	-63.562468	155.465991	-0.064751	-49.152143
3.350000	-0.065854	-49.862169	-63.163287	154.044152	-63.163287	154.044152	-0.065855	-49.861931
3.400000	-0.066972	-50.570149	-62.767524	152.615240	-62.767524	152.615240	-0.066972	-50.569910
3.450000	-0.068094	-51.277443	-62.383878	151.184080	-62.383878	151.184080	-0.068095	-51.277203
3.500000	-0.069233	-51.982677	-62.001725	149.746175	-62.001725	149.746175	-0.069234	-51.982437
3.550000	-0.070376	-52.687449	-61.632507	148.306999	-61.632507	148.306999	-0.070377	-52.687209
3.600000	-0.071539	-53.389908	-61.263130	146.861470	-61.263130	146.861470	-0.071540	-53.389668
3.650000	-0.072703	-54.092134	-60.907349	145.415404	-60.907349	145.415404	-0.072704	-54.091893
3.700000	-0.073890	-54.791790	-60.549993	143.963426	-60.549993	143.963426	-0.073892	-54.791550
3.750000	-0.075078	-55.491447	-60.206761	142.511448	-60.206761	142.511448	-0.075079	-55.491207
3.800000	-0.076292	-56.188277	-59.860742	141.054033	-59.860742	141.054033	-0.076293	-56.188037
3.850000	-0.077506	-56.885107	-59.527981	139.596619	-59.527981	139.596619	-0.077507	-56.884868
3.900000	-0.078745	-57.579328	-59.193953	138.135027	-59.193953	138.135027	-0.078747	-57.579088
3.950000	-0.079987	-58.273310	-58.871110	136.673055	-58.871110	136.673055	-0.079989	-58.273071
4.000000	-0.081254	-58.964905	-58.548330	135.207925	-58.548330	135.207925	-0.081256	-58.964666
4.050000	-0.082526	-59.656022	-58.234899	133.742163	-58.234899	133.742163	-0.082527	-59.655784
4.100000	-0.083821	-60.344978	-57.922695	132.274064	-57.922695	132.274064	-0.083823	-60.344741
4.150000	-0.085125	-61.033214	-57.618208	130.805187	-57.618208	130.805187	-0.085126	-61.032978
4.200000	-0.086450	-61.719522	-57.315968	129.334628	-57.315968	129.334628	-0.086452	-61.719287
4.250000	-0.087787	-62.404864	-57.019995	127.863230	-57.019995	127.863230	-0.087789	-62.404631
4.300000	-0.089144	-63.088514	-56.727157	126.390668	-56.727157	126.390668	-0.089145	-63.088282
4.350000	-0.090515	-63.770954	-56.439299	124.917276	-56.439299	124.917276	-0.090517	-63.770723
4.400000	-0.091905	-64.451940	-56.155352	123.443123	-56.155352	123.443123	-0.091907	-64.451710
4.450000	-0.093313	-65.131470	-55.875239	121.968207	-55.875239	121.968207	-0.093315	-65.131243
4.500000	-0.094737	-65.809787	-55.599711	120.492832	-55.599711	120.492832	-0.094739	-65.809562
4.550000	-0.096184	-66.486405	-55.327000	119.016813	-55.327000	119.016813	-0.096185	-66.486181
4.600000	-0.097644	-67.162052	-55.059457	117.540552	-55.059457	117.540552	-0.097645	-67.161830
4.650000	-0.099130	-67.835755	-54.793828	116.063806	-54.793828	116.063806	-0.099132	-67.835536
4.700000	-0.100627	-68.508731	-54.533870	114.586964	-54.533870	114.586964	-0.100629	-68.508514
4.750000	-0.102155	-69.179523	-54.275024	113.109831	-54.275024	113.109831	-0.102157	-69.179308
4.800000	-0.103691	-69.849830	-54.022281	111.632685	-54.022281	111.632685	-0.103693	-69.849618
4.850000	-0.105263	-70.517714	-53.769938	110.155472	-53.769938	110.155472	-0.105265	-70.517505
4.900000	-0.106839	-71.185357	-53.524066	108.678276	-53.524066	108.678276	-0.106840	-71.185150
4.950000	-0.108456	-71.850341	-53.277965	107.201260	-53.277965	107.201260	-0.108457	-71.850137
5.000000	-0.110073	-72.515325	-53.038646	105.724245	-53.038646	105.724245	-0.110075	-72.515124
5.050000	-0.111737	-73.177419	-52.798542	104.247680	-52.798542	104.247680	-0.111738	-73.177221
5.100000	-0.113401	-73.839513	-52.564897	102.771115	-52.564897	102.771115	-0.113403	-73.839319
5.150000	-0.115109	-74.498969	-52.331141	101.295174	-52.331141	101.295174	-0.115111	-74.498778
5.200000	-0.116822	-75.158185	-52.102960	99.819290	-52.102960	99.819290	-0.116824	-75.157998
5.250000	-0.118577	-75.815016	-51.875270	98.344149	-51.875270	98.344149	-0.118579	-75.814832
5.300000	-0.120340	-76.471370	-51.652354	96.869157	-51.652354	96.869157	-0.120342	-76.471190
5.350000	-0.122143	-77.125591	-51.430467	95.394978	-51.430467	95.394978	-0.122145	-77.125414
5.400000	-0.123958	-77.779100	-51.212629	93.921071	-51.212629	93.921071	-0.123960	-77.778928
5.450000	-0.125809	-78.430727	-50.996299	92.448006	-50.996299	92.448006	-0.125811	-78.430558
5.500000	-0.127679	-79.081412	-50.783362	90.975361	-50.783362	90.975361	-0.127681	-79.081247
5.550000	-0.129580	-79.730463	-50.572358	89.503550	-50.572358	89.503550	-0.129582	-79.730303
5.600000	-0.131505	-80.378346	-50.364155	88.032332	-50.364155	88.032332	-0.131507	-80.378190
5.650000	-0.133458	-81.024842	-50.158264	86.561905	-50.158264	86.561905	-0.133461	-81.024690
5.700000	-0.135440	-81.669949	-49.954636	85.092267	-49.954636	85.092267	-0.135443	-81.669802
5.750000	-0.137447	-82.313911	-49.753654	83.623347	-49.753654	83.623347	-0.137449	-82.313768
5.800000	-0.139488	-82.956270	-49.554453	82.155430	-49.554453	82.155430	-0.139491	-82.956131
5.850000	-0.141549	-83.597722	-49.358190	80.688130	-49.358190	80.688130	-0.141552	-83.597588
5.900000	-0.143651	-84.237362	-49.163274	79.222065	-49.163274	79.222065	-0.143654	-84.237233
5.950000	-0.145768	-84.876330	-48.971551	77.756495	-48.971551	77.756495	-0.145771	-84.876205
6.000000	-0.147932	-85.513283	-48.780786	76.292405	-48.780786	76.292405	-0.147935	-85.513163
6.050000	-0.150107	-86.149794	-48.593436	74.828665	-48.593436	74.828665	-0.150110	-86.149679
6.100000	-0.152335	-86.784095	-48.406694	73.366667	-48.406694	73.366667	-0.152338	-86.783985
6.150000	-0.154569	-87.418178	-48.223559	71.904852	-48.223559	71.904852	-0.154572	-87.418073
6.200000	-0.156862	-88.049864	-48.040719	70.445055	-48.040719	70.445055	-0.156865	-88.049764
6.250000	-0.159156	-88.681549	-47.861649	68.985257	-47.861649	68.985257	-0.159159	-88.681454
6.300000	-0.161516	-89.310658	-47.682597	67.527762	-47.682597	67.527762	-0.161520	-89.310568
6.350000	-0.163878	-89.939767	-47.507162	66.070268	-47.507162	66.070268	-0.163882	-89.939682
6.400000	-0.166301	-90.566552	-47.332078	64.614974	-47.332078	64.614974	-0.166305	-90.566473
6.450000	-0.168731	-91.193125	-47.160175	63.159881	-47.160175	63.159881	-0.168736	-91.193051
6.500000	-0.171220	-91.817621	-46.988924	61.706866	-46.988924	61.706866	-0.171224	-91.817553
6.550000	-0.173720	-92.441702	-46.820458	60.254266	-46.820458	60.254266	-0.173725	-92.441639
6.600000	-0.176274	-93.063948	-46.652912	58.803604	-46.652912	58.803604	-0.176279	-93.063890
6.650000	-0.178847	-93.685582	-46.487789	57.353588	-46.487789	57.353588	-0.178852	-93.685530
6.700000	-0.181468	-94.305615	-46.323828	55.905351	-46.323828	55.905351	-0.181474	-94.305569
6.750000	-0.184115	-94.924849	-46.161962	54.458003	-46.161962	54.458003	-0.184120	-94.924808
6.800000	-0.186805	-95.542711	-46.001470	53.012260	-46.001470	53.012260	-0.186810	-95.542677
6.850000	-0.189526	-96.159594	-45.842776	51.567662	-45.842776	51.567662	-0.189532	-96.159565
6.900000	-0.192286	-96.775328	-45.685645	50.124480	-45.685645	50.124480	-0.192291	-96.775305
6.950000	-0.195084	-97.389911	-45.530044	48.682712	-45.530044	48.682712	-0.195090	-97.389894
7.000000	-0.197915	-98.003559	-45.376171	47.242155	-45.376171	47.242155	-0.197921	-98.003548
7.050000	-0.200791	-98.615897	-45.223587	45.803293	-45.223587	45.803293	-0.200797	-98.615892
7.100000	-0.203694	-99.227504	-45.072875	44.365424	-45.072875	44.365424	-0.203701	-99.227505
7.150000	-0.206650	-99.837650	-44.923234	42.929543	-44.923234	42.929543	-0.206657	-99.837658
7.200000	-0.209627	-100.447263	-44.775589	41.494424	-44.775589	41.494424	-0.209634	-100.447278
7.250000	-0.212664	-101.055276	-44.628823	40.061594	-44.628823	40.061594	-0.212671	-101.055297
7.300000	-0.215716	-101.662943	-44.484157	38.629284	-44.484157	38.629284	-0.215723	-101.662971
7.350000	-0.218836	-102.268881	-44.340199	37.199576	-44.340199	37.199576	-0.218843	-102.268916
7.400000	-0.221963	-102.874651	-44.198428	35.770134	-44.198428	35.770134	-0.221971	-102.874693
7.450000	-0.225167	-103.478575	-44.057214	34.343615	-44.057214	34.343615	-0.225176	-103.478625
7.500000	-0.228372	-104.082499	-43.918259	32.917096	-43.918259	32.917096	-0.228381	-104.082556
7.550000	-0.231662	-104.684472	-43.779729	31.493833	-43.779729	31.493833	-0.231670	-104.684538
7.600000	-0.234952	-105.286445	-43.643373	30.070570	-43.643373	30.070570	-0.234961	-105.286519
7.650000	-0.238322	-105.886689	-43.507608	28.650350	-43.507608	28.650350	-0.238331	-105.886771
7.700000	-0.241699	-106.486776	-43.373796	27.230407	-43.373796	27.230407	-0.241708	-106.486867
7.750000	-0.245149	-107.085347	-43.240722	25.813282	-43.240722	25.813282	-0.245159	-107.085446
7.800000	-0.248615	-107.683615	-43.109402	24.396721	-43.109402	24.396721	-0.248625	-107.683723
7.850000	-0.252147	-108.280569	-42.978951	22.982742	-42.978951	22.982742	-0.252157	-108.280687
7.900000	-0.255702	-108.877086	-42.850072	21.569623	-42.850072	21.569623	-0.255712	-108.877213
7.950000	-0.259317	-109.472483	-42.722175	20.158839	-42.722175	20.158839	-0.259328	-109.472620
8.000000	-0.262963	-110.067319	-42.595689	18.749222	-42.595689	18.749222	-0.262974	-110.067467
8.050000	-0.266663	-110.661218	-42.470283	17.341681	-42.470283	17.341681	-0.266674	-110.661376
8.100000	-0.270401	-111.254446	-42.346143	15.935623	-42.346143	15.935623	-0.270412	-111.254616
8.150000	-0.274186	-111.846908	-42.223166	14.531371	-42.223166	14.531371	-0.274197	-111.847089
8.200000	-0.278017	-112.438604	-42.101329	13.128926	-42.101329	13.128926	-0.278029	-112.438796
8.250000	-0.281888	-113.029692	-41.980723	11.728009	-41.980723	11.728009	-0.281900	-113.029897
8.300000	-0.285814	-113.619930	-41.861145	10.329231	-41.861145	10.329231	-0.285826	-113.620148
8.350000	-0.289772	-114.209708	-41.742855	8.931692	-41.742855	8.931692	-0.289784	-114.209940
8.400000	-0.293793	-114.798568	-41.625494	7.536631	-41.625494	7.536631	-0.293806	-114.798813
8.450000	-0.297840	-115.387103	-41.509466	6.142512	-41.509466	6.142512	-0.297853	-115.387363
8.500000	-0.301958	-115.974664	-41.394283	4.751218	-41.394283	4.751218	-0.301971	-115.974939
8.550000	-0.306093	-116.562022	-41.280466	3.360559	-41.280466	3.360559	-0.306107	-116.562313
8.600000	-0.310309	-117.148367	-41.167423	1.973078	-41.167423	1.973078	-0.310323	-117.148675
8.650000	-0.314535	-117.734618	-41.055768	0.585919	-41.055768	0.585919	-0.314549	-117.734943
8.700000	-0.318849	-118.319832	-40.944829	-0.797705	-40.944829	-0.797705	-0.318864	-118.320175
8.750000	-0.323166	-118.905046	-40.835290	-2.181329	-40.835290	-2.181329	-0.323181	-118.905407
8.800000	-0.327580	-119.489215	-40.726419	-3.561054	-40.726419	-3.561054	-0.327596	-119.489597
8.850000	-0.331996	-120.073385	-40.618897	-4.940778	-40.618897	-4.940778	-0.332013	-120.073786
8.900000	-0.336503	-120.656678	-40.512114	-6.316892	-40.512114	-6.316892	-0.336520	-120.657101
8.950000	-0.341020	-121.239892	-40.406577	-7.692678	-40.406577	-7.692678	-0.341038	-121.240336
9.000000	-0.345620	-121.822385	-40.301839	-9.065151	-40.301839	-9.065151	-0.345638	-121.822853
9.050000	-0.350239	-122.404734	-40.198256	-10.436961	-40.198256	-10.436961	-0.350258	-122.405226
9.100000	-0.354933	-122.986504	-40.095521	-11.805764	-40.095521	-11.805764	-0.354952	-122.987022
9.150000	-0.359654	-123.568082	-39.993864	-13.173565	-39.993864	-13.173565	-0.359674	-123.568626
9.200000	-0.364443	-124.149210	-39.893092	-14.538671	-39.893092	-14.538671	-0.364464	-124.149781
9.250000	-0.369267	-124.730113	-39.793332	-15.902429	-39.793332	-15.902429	-0.369289	-124.730712
9.300000	-0.374152	-125.310679	-39.694486	-17.263814	-39.694486	-17.263814	-0.374174	-125.311308
9.350000	-0.379080	-125.891004	-39.596596	-18.623502	-39.596596	-18.623502	-0.379103	-125.891665
9.400000	-0.384060	-126.471092	-39.499638	-19.981141	-39.499638	-19.981141	-0.384084	-126.471785
9.450000	-0.389093	-127.050941	-39.403593	-21.336732	-39.403593	-21.336732	-0.389118	-127.051668
9.500000	-0.394169	-127.630635	-39.308490	-22.690606	-39.308490	-22.690606	-0.394196	-127.631398
9.550000	-0.399307	-128.210112	-39.214265	-24.042075	-39.214265	-24.042075	-0.399335	-128.210911
9.600000	-0.404481	-128.789499	-39.120982	-25.392164	-39.120982	-25.392164	-0.404510	-128.790337
9.650000	-0.409724	-129.368709	-39.028554	-26.739492	-39.028554	-26.739492	-0.409754	-129.369587
9.700000	-0.414995	-129.947880	-38.937060	-28.085779	-38.937060	-28.085779	-0.415027	-129.948799
9.750000	-0.420345	-130.526932	-38.846407	-29.428945	-38.846407	-29.428945	-0.420378	-130.527895
9.800000	-0.425714	-131.105976	-38.756673	-30.771414	-38.756673	-30.771414	-0.425748	-131.106984
9.850000	-0.431169	-131.684982	-38.667772	-32.110402	-38.667772	-32.110402	-0.431206	-131.686038
9.900000	-0.436637	-132.263994	-38.579769	-33.449041	-38.579769	-33.449041	-0.436675	-132.265098
9.950000	-0.442199	-132.843069	-38.492602	-34.783837	-38.492602	-34.783837	-0.442239	-132.844226
10.000000	-0.447764	-133.422144	-38.406302	-36.118633	-38.406302	-36.118633	-0.447807	-133.423353
