! freq	dB(S11)	phase(S11)	dB(S12)	phase(S12)	
!     	dB(S21)	phase(S21)	dB(S22)	phase(S22)	
!S-par simulation data
#  GHz  S  DB  R 50
0.000000	-0.000000	0.000000	-392.603707	0.000000	-392.603707	0.000000	-0.000000	0.000000
0.050000	-0.000113	-0.903663	-113.386846	86.561508	-113.386846	86.561508	-0.000113	-0.903684
0.100000	-0.000449	-1.807048	-107.700228	84.442507	-107.700228	84.442507	-0.000447	-1.807093
0.150000	-0.000992	-2.709901	-104.512790	83.406526	-104.512790	83.406526	-0.000989	-2.709972
0.200000	-0.001723	-3.612008	-102.310095	82.862019	-102.310095	82.862019	-0.001717	-3.612111
0.250000	-0.002627	-4.513128	-100.653158	82.504588	-100.653158	82.504588	-0.002618	-4.513268
0.300000	-0.003661	-5.413214	-99.347701	82.210339	-99.347701	82.210339	-0.003650	-5.413396
0.350000	-0.004807	-6.312137	-98.304095	81.966207	-98.304095	81.966207	-0.004794	-6.312365
0.400000	-0.006038	-7.209844	-97.467986	81.786348	-97.467986	81.786348	-0.006023	-7.210121
0.450000	-0.007331	-8.106314	-96.805636	81.701627	-96.805636	81.701627	-0.007315	-8.106643
0.500000	-0.008666	-9.001550	-96.295408	81.753595	-96.295408	81.753595	-0.008649	-9.001931
0.550000	-0.010025	-9.895572	-95.923465	81.994746	-95.923465	81.994746	-0.010008	-9.896005
0.600000	-0.011395	-10.788410	-95.681341	82.492091	-95.681341	82.492091	-0.011379	-10.788895
0.650000	-0.012766	-11.680100	-95.564365	83.333502	-95.564365	83.333502	-0.012751	-11.680634
0.700000	-0.014129	-12.570676	-95.570305	84.637357	-95.570305	84.637357	-0.014115	-12.571258
0.750000	-0.015480	-13.460171	-95.697667	86.566563	-95.697667	86.566563	-0.015467	-13.460799
0.800000	-0.016814	-14.348612	-95.942753	89.347835	-95.942753	89.347835	-0.016804	-14.349284
0.850000	-0.018131	-15.236023	-96.293873	93.294251	-96.293873	93.294251	-0.018122	-15.236736
0.900000	-0.019428	-16.122418	-96.719991	98.818243	-96.719991	98.818243	-0.019421	-16.123171
0.950000	-0.020707	-17.007810	-97.150932	106.392531	-97.150932	106.392531	-0.020700	-17.008599
1.000000	-0.021966	-17.892201	-97.453116	116.368442	-97.453116	116.368442	-0.021962	-17.893027
1.050000	-0.023209	-18.775593	-97.429752	128.575850	-97.429752	128.575850	-0.023205	-18.776453
1.100000	-0.024435	-19.657979	-96.899728	141.906940	-96.899728	141.906940	-0.024432	-19.658873
1.150000	-0.025646	-20.539352	-95.835496	154.552235	-95.835496	154.552235	-0.025644	-20.540279
1.200000	-0.026843	-21.419699	-94.390960	165.076162	-94.390960	165.076162	-0.026843	-21.420658
1.250000	-0.028028	-22.299006	-92.771377	173.081287	-92.771377	173.081287	-0.028028	-22.299997
1.300000	-0.029202	-23.177209	-91.113565	178.805779	-91.113565	178.805779	-0.029203	-23.178231
1.350000	-0.030367	-24.054333	-89.510217	-177.137211	-89.510217	-177.137211	-0.030368	-24.055387
1.400000	-0.031523	-24.930359	-87.990254	-174.317302	-87.990254	-174.317302	-0.031524	-24.931445
1.450000	-0.032671	-25.805265	-86.560605	-172.410349	-86.560605	-172.410349	-0.032673	-25.806384
1.500000	-0.033814	-26.679030	-85.218498	-171.182673	-85.218498	-171.182673	-0.033815	-26.680180
1.550000	-0.034951	-27.551629	-83.957441	-170.467548	-83.957441	-170.467548	-0.034952	-27.552813
1.600000	-0.036084	-28.423042	-82.769949	-170.145422	-82.769949	-170.145422	-0.036085	-28.424258
1.650000	-0.037213	-29.293243	-81.648708	-170.129540	-81.648708	-170.129540	-0.037214	-29.294492
1.700000	-0.038339	-30.162211	-80.587025	-170.356002	-80.587025	-170.356002	-0.038340	-30.163494
1.750000	-0.039463	-31.029921	-79.578953	-170.777003	-79.578953	-170.777003	-0.039463	-31.031238
1.800000	-0.040585	-31.896352	-78.619277	-171.356223	-78.619277	-171.356223	-0.040585	-31.897702
1.850000	-0.041705	-32.761479	-77.703446	-172.065657	-77.703446	-172.065657	-0.041706	-32.762865
1.900000	-0.042825	-33.625282	-76.827497	-172.883417	-76.827497	-172.883417	-0.042826	-33.626702
1.950000	-0.043945	-34.487737	-75.987965	-173.792172	-75.987965	-173.792172	-0.043945	-34.489192
2.000000	-0.045065	-35.348823	-75.181821	-174.778037	-75.181821	-174.778037	-0.045065	-35.350313
2.050000	-0.046186	-36.208519	-74.406398	-175.829768	-74.406398	-175.829768	-0.046186	-36.210044
2.100000	-0.047308	-37.066804	-73.659347	-176.938166	-73.659347	-176.938166	-0.047307	-37.068364
2.150000	-0.048431	-37.923657	-72.938584	-178.095634	-72.938584	-178.095634	-0.048431	-37.925253
2.200000	-0.049557	-38.779059	-72.242255	-179.295848	-72.242255	-179.295848	-0.049556	-38.780690
2.250000	-0.050684	-39.632990	-71.568703	179.466503	-71.568703	179.466503	-0.050684	-39.634656
2.300000	-0.051814	-40.485431	-70.916442	178.195908	-70.916442	178.195908	-0.051814	-40.487133
2.350000	-0.052948	-41.336365	-70.284135	176.896190	-70.284135	176.896190	-0.052947	-41.338101
2.400000	-0.054085	-42.185772	-69.670573	175.570625	-69.670573	175.570625	-0.054084	-42.187544
2.450000	-0.055225	-43.033636	-69.074659	174.222035	-69.074659	174.222035	-0.055225	-43.035443
2.500000	-0.056370	-43.879941	-68.495397	172.852867	-68.495397	172.852867	-0.056370	-43.881783
2.550000	-0.057520	-44.724599	-67.930975	171.464538	-67.930975	171.464538	-0.057519	-44.726476
2.600000	-0.058675	-45.567665	-67.381555	170.059775	-67.381555	170.059775	-0.058674	-45.569576
2.650000	-0.059835	-46.409122	-66.846360	168.640192	-66.846360	168.640192	-0.059834	-46.411068
2.700000	-0.061001	-47.248956	-66.324679	167.207216	-66.324679	167.207216	-0.061001	-47.250936
2.750000	-0.062173	-48.087154	-65.815855	165.762116	-65.815855	165.762116	-0.062173	-48.089168
2.800000	-0.063352	-48.923702	-65.319281	164.306019	-65.319281	164.306019	-0.063352	-48.925749
2.850000	-0.064537	-49.758586	-64.834396	162.839937	-64.834396	162.839937	-0.064538	-49.760667
2.900000	-0.065731	-50.591795	-64.360677	161.364776	-64.360677	161.364776	-0.065731	-50.593910
2.950000	-0.066932	-51.423317	-63.897639	159.881350	-63.897639	159.881350	-0.066932	-51.425465
3.000000	-0.068141	-52.253141	-63.444828	158.390396	-63.444828	158.390396	-0.068142	-52.255321
3.050000	-0.069359	-53.081256	-63.001824	156.892580	-63.001824	156.892580	-0.069360	-53.083469
3.100000	-0.070586	-53.907652	-62.568229	155.388506	-62.568229	155.388506	-0.070588	-53.909897
3.150000	-0.071823	-54.732319	-62.143675	153.878723	-62.143675	153.878723	-0.071825	-54.734597
3.200000	-0.073070	-55.555249	-61.727812	152.363734	-61.727812	152.363734	-0.073072	-55.557559
3.250000	-0.074327	-56.376434	-61.320315	150.843996	-61.320315	150.843996	-0.074329	-56.378775
3.300000	-0.075595	-57.195865	-60.920875	149.319929	-60.920875	149.319929	-0.075597	-57.198237
3.350000	-0.076874	-58.013534	-60.529203	147.791917	-60.529203	147.791917	-0.076877	-58.015938
3.400000	-0.078165	-58.829437	-60.145024	146.260315	-60.145024	146.260315	-0.078168	-58.831871
3.450000	-0.079469	-59.643565	-59.768081	144.725449	-59.768081	144.725449	-0.079471	-59.646031
3.500000	-0.080785	-60.455915	-59.398128	143.187620	-59.398128	143.187620	-0.080787	-60.458411
3.550000	-0.082114	-61.266479	-59.034933	141.647106	-59.034933	141.647106	-0.082117	-61.269006
3.600000	-0.083456	-62.075255	-58.678277	140.104164	-58.678277	140.104164	-0.083459	-62.077812
3.650000	-0.084813	-62.882238	-58.327949	138.559033	-58.327949	138.559033	-0.084816	-62.884825
3.700000	-0.086184	-63.687425	-57.983753	137.011934	-57.983753	137.011934	-0.086187	-63.690041
3.750000	-0.087570	-64.490813	-57.645498	135.463074	-57.645498	135.463074	-0.087573	-64.493458
3.800000	-0.088972	-65.292320	-57.312704	133.912585	-57.312704	133.912585	-0.088975	-65.294996
3.850000	-0.090389	-66.092025	-56.985523	132.360720	-56.985523	132.360720	-0.090393	-66.094729
3.900000	-0.091823	-66.889924	-56.663788	130.807645	-56.663788	130.807645	-0.091827	-66.892658
3.950000	-0.093274	-67.686019	-56.347344	129.253513	-56.347344	129.253513	-0.093278	-67.688782
4.000000	-0.094742	-68.480309	-56.036039	127.698470	-56.036039	127.698470	-0.094746	-68.483100
4.050000	-0.096228	-69.272793	-55.729729	126.142651	-55.729729	126.142651	-0.096232	-69.275614
4.100000	-0.097732	-70.063474	-55.428277	124.586182	-55.428277	124.586182	-0.097735	-70.066323
4.150000	-0.099254	-70.852353	-55.131551	123.029183	-55.131551	123.029183	-0.099258	-70.855230
4.200000	-0.100802	-71.638806	-54.837619	121.471670	-54.837619	121.471670	-0.100806	-71.641711
4.250000	-0.102360	-72.424320	-54.550685	119.913975	-54.550685	119.913975	-0.102364	-72.427254
4.300000	-0.103943	-73.207652	-54.267017	118.356065	-54.267017	118.356065	-0.103947	-73.210613
4.350000	-0.105543	-73.989424	-53.988232	116.798001	-53.988232	116.798001	-0.105547	-73.992413
4.400000	-0.107165	-74.769333	-53.713385	115.239945	-53.713385	115.239945	-0.107169	-74.772350
4.450000	-0.108809	-75.547379	-53.442380	113.681897	-53.442380	113.681897	-0.108813	-75.550423
4.500000	-0.110472	-76.323882	-53.175886	112.123997	-53.175886	112.123997	-0.110476	-76.326954
4.550000	-0.112162	-77.098225	-52.912316	110.566304	-52.912316	110.566304	-0.112166	-77.101324
4.600000	-0.113868	-77.871342	-52.653746	109.008830	-52.653746	109.008830	-0.113872	-77.874469
4.650000	-0.115606	-78.642007	-52.397289	107.451794	-52.397289	107.451794	-0.115610	-78.645161
4.700000	-0.117356	-79.411761	-52.146248	105.894989	-52.146248	105.894989	-0.117360	-79.414942
4.750000	-0.119143	-80.178780	-51.896603	104.338879	-51.896603	104.338879	-0.119147	-80.181988
4.800000	-0.120939	-80.945197	-51.652722	102.782962	-51.652722	102.782962	-0.120943	-80.948432
4.850000	-0.122778	-81.708605	-51.409610	101.228017	-51.409610	101.228017	-0.122782	-81.711865
4.900000	-0.124622	-82.471714	-51.172550	99.673187	-51.172550	99.673187	-0.124626	-82.475001
4.950000	-0.126514	-83.231548	-50.935707	98.119622	-50.935707	98.119622	-0.126518	-83.234862
5.000000	-0.128407	-83.991383	-50.705151	96.566057	-50.705151	96.566057	-0.128411	-83.994722
5.050000	-0.130355	-84.747687	-50.474330	95.014066	-50.474330	95.014066	-0.130359	-84.751053
5.100000	-0.132303	-85.503992	-50.249484	93.462074	-50.249484	93.462074	-0.132307	-85.507384
5.150000	-0.134303	-86.257104	-50.024954	91.911685	-50.024954	91.911685	-0.134307	-86.260521
5.200000	-0.136309	-87.009925	-49.805606	90.361441	-49.805606	90.361441	-0.136313	-87.013368
5.250000	-0.138363	-87.759887	-49.587085	88.812784	-49.587085	88.812784	-0.138367	-87.763355
5.300000	-0.140428	-88.509276	-49.373035	87.264444	-49.373035	87.264444	-0.140432	-88.512770
5.350000	-0.142538	-89.256132	-49.160263	85.717640	-49.160263	85.717640	-0.142542	-89.259651
5.400000	-0.144664	-90.002144	-48.951320	84.171348	-48.951320	84.171348	-0.144668	-90.005688
5.450000	-0.146832	-90.745942	-48.744053	82.626508	-48.744053	82.626508	-0.146836	-90.749511
5.500000	-0.149020	-91.488634	-48.540039	81.082393	-48.540039	81.082393	-0.149024	-91.492227
5.550000	-0.151247	-92.229425	-48.338048	79.539616	-48.338048	79.539616	-0.151251	-92.233043
5.600000	-0.153500	-92.968858	-48.138792	77.997796	-48.138792	77.997796	-0.153504	-92.972501
5.650000	-0.155787	-93.706695	-47.941863	76.457177	-47.941863	76.457177	-0.155791	-93.710362
5.700000	-0.158106	-94.442935	-47.747206	74.917760	-47.747206	74.917760	-0.158111	-94.446626
5.750000	-0.160455	-95.177873	-47.555137	73.379385	-47.555137	73.379385	-0.160459	-95.181588
5.800000	-0.162843	-95.910988	-47.364925	71.842470	-47.364925	71.842470	-0.162848	-95.914726
5.850000	-0.165255	-96.643085	-47.177527	70.306418	-47.177527	70.306418	-0.165260	-96.646847
5.900000	-0.167713	-97.373146	-46.991616	68.772094	-46.991616	68.772094	-0.167718	-97.376932
5.950000	-0.170190	-98.102463	-46.808711	67.238439	-46.808711	67.238439	-0.170195	-98.106271
6.000000	-0.172720	-98.829545	-46.626963	65.706791	-46.626963	65.706791	-0.172725	-98.833377
6.050000	-0.175264	-99.556143	-46.448382	64.175600	-46.448382	64.175600	-0.175268	-99.559998
6.100000	-0.177868	-100.280324	-46.270666	62.646702	-46.270666	62.646702	-0.177873	-100.284202
6.150000	-0.180478	-101.004270	-46.096251	61.118039	-46.096251	61.118039	-0.180484	-101.008170
6.200000	-0.183158	-101.725629	-45.922441	59.591962	-45.922441	59.591962	-0.183163	-101.729552
6.250000	-0.185838	-102.446989	-45.752042	58.065884	-45.752042	58.065884	-0.185843	-102.450934
6.300000	-0.188595	-103.165612	-45.582020	56.542690	-45.582020	56.542690	-0.188600	-103.169579
6.350000	-0.191352	-103.884234	-45.415262	55.019496	-45.415262	55.019496	-0.191357	-103.888223
6.400000	-0.194181	-104.600426	-45.249145	53.498999	-45.249145	53.498999	-0.194187	-104.604437
6.450000	-0.197017	-105.316397	-45.085922	51.978746	-45.085922	51.978746	-0.197023	-105.320430
6.500000	-0.199920	-106.030233	-44.923573	50.460988	-44.923573	50.460988	-0.199926	-106.034287
6.550000	-0.202836	-106.743642	-44.763784	48.943728	-44.763784	48.943728	-0.202843	-106.747717
6.600000	-0.205814	-107.455198	-44.605073	47.428748	-44.605073	47.428748	-0.205821	-107.459295
6.650000	-0.208813	-108.166137	-44.448619	45.914527	-44.448619	45.914527	-0.208820	-108.170254
6.700000	-0.211868	-108.875491	-44.293423	44.402360	-44.293423	44.402360	-0.211874	-108.879629
6.750000	-0.214951	-109.584053	-44.140211	42.891220	-44.140211	42.891220	-0.214957	-109.588212
6.800000	-0.218083	-110.291285	-43.988413	41.381896	-43.988413	41.381896	-0.218090	-110.295465
6.850000	-0.221251	-110.997567	-43.838351	39.873870	-43.838351	39.873870	-0.221258	-111.001768
6.900000	-0.224463	-111.702759	-43.689840	38.367417	-43.689840	38.367417	-0.224470	-111.706980
6.950000	-0.227719	-112.406861	-43.542843	36.862535	-43.542843	36.862535	-0.227726	-112.411103
7.000000	-0.231011	-113.110097	-43.397512	35.358973	-43.397512	35.358973	-0.231018	-113.114359
7.050000	-0.234355	-113.812121	-43.253497	33.857258	-43.253497	33.857258	-0.234362	-113.816402
7.100000	-0.237729	-114.513486	-43.111245	32.356605	-43.111245	32.356605	-0.237737	-114.517788
7.150000	-0.241163	-115.213534	-42.970131	30.858074	-42.970131	30.858074	-0.241171	-115.217856
7.200000	-0.244621	-115.913116	-42.830862	29.360342	-42.830862	29.360342	-0.244628	-115.917458
7.250000	-0.248146	-116.611296	-42.692573	27.865007	-42.692573	27.865007	-0.248154	-116.615658
7.300000	-0.251688	-117.309183	-42.556195	26.370204	-42.556195	26.370204	-0.251696	-117.313565
7.350000	-0.255307	-118.005604	-42.420657	24.878067	-42.420657	24.878067	-0.255315	-118.010006
7.400000	-0.258934	-118.701888	-42.287082	23.386197	-42.287082	23.386197	-0.258942	-118.706310
7.450000	-0.262647	-119.396660	-42.154224	21.897256	-42.154224	21.897256	-0.262656	-119.401102
7.500000	-0.266362	-120.091433	-42.023368	20.408315	-42.023368	20.408315	-0.266370	-120.095895
7.550000	-0.270171	-120.784670	-41.893121	18.922561	-41.893121	18.922561	-0.270179	-120.789152
7.600000	-0.273981	-121.477907	-41.764799	17.436807	-41.764799	17.436807	-0.273990	-121.482409
7.650000	-0.277879	-122.169843	-41.637204	15.953957	-41.637204	15.953957	-0.277888	-122.174365
7.700000	-0.281787	-122.861660	-41.511354	14.471371	-41.511354	14.471371	-0.281795	-122.866203
7.750000	-0.285775	-123.552392	-41.386333	12.991406	-41.386333	12.991406	-0.285784	-123.556956
7.800000	-0.289781	-124.242908	-41.262895	11.511964	-41.262895	11.511964	-0.289790	-124.247492
7.850000	-0.293861	-124.932537	-41.140375	10.034856	-41.140375	10.034856	-0.293870	-124.937141
7.900000	-0.297967	-125.621870	-41.019292	8.558526	-41.019292	8.558526	-0.297976	-125.626496
7.950000	-0.302139	-126.310497	-40.899202	7.084242	-40.899202	7.084242	-0.302149	-126.315144
8.000000	-0.306346	-126.998771	-40.780420	5.610982	-40.780420	5.610982	-0.306355	-127.003439
8.050000	-0.310612	-127.686499	-40.662694	4.139485	-40.662694	4.139485	-0.310621	-127.691188
8.100000	-0.314921	-128.373837	-40.546159	2.669247	-40.546159	2.669247	-0.314930	-128.378548
8.150000	-0.319281	-129.060770	-40.430734	1.200491	-40.430734	1.200491	-0.319290	-129.065504
8.200000	-0.323692	-129.747300	-40.316397	-0.266783	-40.316397	-0.266783	-0.323702	-129.752056
8.250000	-0.328148	-130.433546	-40.203213	-1.732849	-40.203213	-1.732849	-0.328158	-130.438325
8.300000	-0.332664	-131.119395	-40.091026	-3.197224	-40.091026	-3.197224	-0.332673	-131.124198
8.350000	-0.337215	-131.805062	-39.980025	-4.660657	-39.980025	-4.660657	-0.337225	-131.809888
8.400000	-0.341836	-132.490362	-39.869944	-6.122207	-39.869944	-6.122207	-0.341846	-132.495212
8.450000	-0.346484	-133.175559	-39.761074	-7.583071	-39.761074	-7.583071	-0.346494	-133.180434
8.500000	-0.351210	-133.860444	-39.653056	-9.041877	-39.653056	-9.041877	-0.351221	-133.865344
8.550000	-0.355956	-134.545283	-39.546265	-10.500241	-39.546265	-10.500241	-0.355967	-134.550208
8.600000	-0.360789	-135.229888	-39.440271	-11.956394	-39.440271	-11.956394	-0.360800	-135.234839
8.650000	-0.365633	-135.914481	-39.335511	-13.412333	-39.335511	-13.412333	-0.365644	-135.919459
8.700000	-0.370573	-136.598945	-39.231505	-14.865930	-39.231505	-14.865930	-0.370584	-136.603950
8.750000	-0.375516	-137.283408	-39.128731	-16.319527	-39.128731	-16.319527	-0.375527	-137.288441
8.800000	-0.380564	-137.967871	-39.026679	-17.770673	-39.026679	-17.770673	-0.380575	-137.972932
8.850000	-0.385614	-138.652333	-38.925813	-19.221819	-38.925813	-19.221819	-0.385626	-138.657423
8.900000	-0.390762	-139.336924	-38.825721	-20.670821	-38.825721	-20.670821	-0.390774	-139.342045
8.950000	-0.395921	-140.021528	-38.726734	-22.119629	-38.726734	-22.119629	-0.395934	-140.026679
9.000000	-0.401168	-140.706370	-38.628563	-23.566586	-38.628563	-23.566586	-0.401182	-140.711554
9.050000	-0.406436	-141.391260	-38.531430	-25.013173	-38.531430	-25.013173	-0.406450	-141.396476
9.100000	-0.411783	-142.076475	-38.435146	-26.458188	-38.435146	-26.458188	-0.411798	-142.081725
9.150000	-0.417160	-142.761799	-38.339843	-27.902679	-38.339843	-27.902679	-0.417175	-142.767083
9.200000	-0.422608	-143.447513	-38.245415	-29.345860	-38.245415	-29.345860	-0.422624	-143.452832
9.250000	-0.428093	-144.133421	-38.151923	-30.788385	-38.151923	-30.788385	-0.428110	-144.138777
9.300000	-0.433641	-144.819759	-38.059322	-32.229840	-38.059322	-32.229840	-0.433659	-144.825153
9.350000	-0.439236	-145.506404	-37.967624	-33.670532	-37.967624	-33.670532	-0.439254	-145.511837
9.400000	-0.444885	-146.193496	-37.876825	-35.110377	-37.876825	-35.110377	-0.444904	-146.198969
9.450000	-0.450588	-146.881034	-37.786908	-36.549373	-37.786908	-36.549373	-0.450608	-146.886548
9.500000	-0.456337	-147.569009	-37.697891	-37.987720	-37.697891	-37.987720	-0.456359	-147.574566
9.550000	-0.462148	-148.257598	-37.609745	-39.425159	-37.609745	-39.425159	-0.462172	-148.263198
9.600000	-0.467997	-148.946590	-37.522490	-40.862126	-37.522490	-40.862126	-0.468022	-148.952235
9.650000	-0.473917	-149.636390	-37.436110	-42.298148	-37.436110	-42.298148	-0.473943	-149.642081
9.700000	-0.479866	-150.326533	-37.350601	-43.733850	-37.350601	-43.733850	-0.479893	-150.332273
9.750000	-0.485893	-151.017708	-37.265984	-45.168594	-37.265984	-45.168594	-0.485922	-151.023497
9.800000	-0.491940	-151.709140	-37.182209	-46.603149	-37.182209	-46.603149	-0.491971	-151.714980
9.850000	-0.498074	-152.401856	-37.099358	-48.036753	-37.099358	-48.036753	-0.498107	-152.407750
9.900000	-0.504219	-153.094716	-37.017308	-49.470273	-37.017308	-49.470273	-0.504255	-153.100662
9.950000	-0.510458	-153.789143	-36.936227	-50.902870	-36.936227	-50.902870	-0.510496	-153.795147
10.000000	-0.516702	-154.483571	-36.855895	-52.335468	-36.855895	-52.335468	-0.516742	-154.489631
