! freq	dB(S11)	phase(S11)	dB(S12)	phase(S12)	
!     	dB(S21)	phase(S21)	dB(S22)	phase(S22)	
!S-par simulation data
#  GHz  S  DB  R 50
0.000000	-0.000000	-0.000000	-310.668191	180.000000	-310.668191	180.000000	-0.000000	-0.000000
0.050000	-0.000102	-0.762938	-116.431363	88.312218	-116.431363	88.312218	-0.000111	-0.856458
0.100000	-0.000405	-1.525619	-110.567058	87.093985	-110.567058	87.093985	-0.000438	-1.712641
0.150000	-0.000893	-2.287808	-107.227832	86.289031	-107.227832	86.289031	-0.000968	-2.568296
0.200000	-0.001545	-3.049316	-104.921724	85.698692	-104.921724	85.698692	-0.001679	-3.423217
0.250000	-0.002345	-3.809938	-103.198761	85.221016	-103.198761	85.221016	-0.002554	-4.277173
0.300000	-0.003253	-4.569652	-101.851876	84.814096	-101.851876	84.814096	-0.003552	-5.130128
0.350000	-0.004249	-5.328366	-100.782851	84.485740	-100.782851	84.485740	-0.004653	-5.981966
0.400000	-0.005311	-6.086058	-99.932169	84.256198	-99.932169	84.256198	-0.005831	-6.832650
0.450000	-0.006417	-6.842736	-99.263021	84.156607	-99.263021	84.156607	-0.007064	-7.682171
0.500000	-0.007549	-7.598427	-98.751951	84.228094	-98.751951	84.228094	-0.008331	-8.530544
0.550000	-0.008694	-8.353170	-98.384055	84.524031	-98.384055	84.524031	-0.009618	-9.377799
0.600000	-0.009842	-9.107009	-98.150235	85.114672	-98.150235	85.114672	-0.010911	-10.223975
0.650000	-0.010986	-9.859988	-98.045371	86.094463	-98.045371	86.094463	-0.012202	-11.069112
0.700000	-0.012119	-10.612149	-98.066711	87.592932	-98.066711	87.592932	-0.013483	-11.913249
0.750000	-0.013239	-11.363527	-98.211749	89.790372	-98.211749	89.790372	-0.014752	-12.756421
0.800000	-0.014344	-12.114152	-98.474479	92.938737	-98.474479	92.938737	-0.016004	-13.598656
0.850000	-0.015434	-12.864047	-98.838061	97.383500	-98.838061	97.383500	-0.017239	-14.439978
0.900000	-0.016509	-13.613229	-99.260822	103.566402	-99.260822	103.566402	-0.018456	-15.280404
0.950000	-0.017569	-14.361710	-99.653673	111.950891	-99.653673	111.950891	-0.019656	-16.119944
1.000000	-0.018616	-15.109495	-99.858860	122.768895	-99.858860	122.768895	-0.020839	-16.958603
1.050000	-0.019650	-15.856586	-99.670698	135.568897	-99.670698	135.568897	-0.022007	-17.796382
1.100000	-0.020673	-16.602981	-98.944642	148.933440	-98.944642	148.933440	-0.023160	-18.633275
1.150000	-0.021686	-17.348675	-97.719876	161.045794	-97.719876	161.045794	-0.024301	-19.469275
1.200000	-0.022690	-18.093659	-96.184629	170.793841	-96.184629	170.793841	-0.025431	-20.304372
1.250000	-0.023687	-18.837925	-94.532148	178.075432	-94.532148	178.075432	-0.026550	-21.138551
1.300000	-0.024676	-19.581428	-92.874956	-176.756438	-92.874956	-176.756438	-0.027659	-21.971758
1.350000	-0.025659	-20.324186	-91.286307	-173.101694	-91.286307	-173.101694	-0.028761	-22.804014
1.400000	-0.026638	-21.066186	-89.785754	-170.564288	-89.785754	-170.564288	-0.029856	-23.635301
1.450000	-0.027612	-21.807414	-88.375889	-168.852451	-88.375889	-168.852451	-0.030946	-24.465600
1.500000	-0.028582	-22.547853	-87.052137	-167.757282	-87.052137	-167.757282	-0.032030	-25.294892
1.550000	-0.029550	-23.287488	-85.807387	-167.129732	-85.807387	-167.129732	-0.033110	-26.123157
1.600000	-0.030515	-24.026305	-84.634060	-166.862592	-84.634060	-166.862592	-0.034186	-26.950374
1.650000	-0.031478	-24.764286	-83.524969	-166.877712	-83.524969	-166.877712	-0.035260	-27.776522
1.700000	-0.032440	-25.501113	-82.449541	-167.175218	-82.449541	-167.175218	-0.036331	-28.601194
1.750000	-0.033400	-26.237491	-81.460859	-167.573945	-81.460859	-167.573945	-0.037401	-29.425291
1.800000	-0.034360	-26.972787	-80.504439	-168.139885	-80.504439	-168.139885	-0.038469	-30.248003
1.850000	-0.035320	-27.707309	-79.598708	-168.825263	-79.598708	-168.825263	-0.039536	-31.069725
1.900000	-0.036279	-28.440869	-78.728612	-169.608608	-78.728612	-169.608608	-0.040604	-31.890217
1.950000	-0.037239	-29.173468	-77.892435	-170.489919	-77.892435	-170.489919	-0.041671	-32.709479
2.000000	-0.038199	-29.905238	-77.093944	-171.429317	-77.093944	-171.429317	-0.042738	-33.527680
2.050000	-0.039160	-30.635846	-76.316873	-172.450035	-76.316873	-172.450035	-0.043807	-34.344396
2.100000	-0.040122	-31.365944	-75.585064	-173.497561	-75.585064	-173.497561	-0.044876	-35.160460
2.150000	-0.041086	-32.094715	-74.865654	-174.611565	-74.865654	-174.611565	-0.045947	-35.974828
2.200000	-0.042051	-32.822481	-74.170166	-175.766421	-74.170166	-175.766421	-0.047020	-36.787914
2.250000	-0.043019	-33.549230	-73.496993	-176.957140	-73.496993	-176.957140	-0.048095	-37.599701
2.300000	-0.043989	-34.274946	-72.844695	-178.179495	-72.844695	-178.179495	-0.049173	-38.410170
2.350000	-0.044961	-34.999616	-72.211972	-179.429885	-72.211972	-179.429885	-0.050253	-39.219307
2.400000	-0.045937	-35.723226	-71.597647	179.294784	-71.597647	179.294784	-0.051337	-40.027094
2.450000	-0.046915	-36.445763	-71.000654	177.997177	-71.000654	177.997177	-0.052425	-40.833515
2.500000	-0.047898	-37.167214	-70.420020	176.679612	-70.420020	176.679612	-0.053516	-41.638555
2.550000	-0.048884	-37.887517	-69.853938	175.343408	-69.853938	175.343408	-0.054612	-42.442137
2.600000	-0.049875	-38.606708	-69.302606	173.991170	-69.302606	173.991170	-0.055713	-43.244307
2.650000	-0.050870	-39.324773	-68.765267	172.624429	-68.765267	172.624429	-0.056819	-44.045051
2.700000	-0.051870	-40.041701	-68.241226	171.244539	-68.241226	171.244539	-0.057931	-44.844355
2.750000	-0.052875	-40.757479	-67.729840	169.852705	-67.729840	169.852705	-0.059048	-45.642205
2.800000	-0.053886	-41.472097	-67.230514	168.450000	-67.230514	168.450000	-0.060172	-46.438589
2.850000	-0.054903	-42.185543	-66.742699	167.037382	-66.742699	167.037382	-0.061303	-47.233495
2.900000	-0.055926	-42.897805	-66.265881	165.615713	-66.265881	165.615713	-0.062440	-48.026909
2.950000	-0.056955	-43.608874	-65.799586	164.185768	-65.799586	164.185768	-0.063585	-48.818822
3.000000	-0.057991	-44.318738	-65.343369	162.748247	-65.343369	162.748247	-0.064738	-49.609220
3.050000	-0.059035	-45.027388	-64.896816	161.303783	-64.896816	161.303783	-0.065899	-50.398095
3.100000	-0.060086	-45.734814	-64.459538	159.852950	-64.459538	159.852950	-0.067069	-51.185435
3.150000	-0.061146	-46.441005	-64.031172	158.396272	-64.031172	158.396272	-0.068248	-51.971232
3.200000	-0.062213	-47.145952	-63.611375	156.934226	-63.611375	156.934226	-0.069437	-52.755474
3.250000	-0.063290	-47.849648	-63.199828	155.467246	-63.199828	155.467246	-0.070635	-53.538154
3.300000	-0.064375	-48.552081	-62.796227	153.995732	-62.796227	153.995732	-0.071844	-54.319264
3.350000	-0.065471	-49.253022	-62.398486	152.519423	-62.398486	152.519423	-0.073066	-55.098517
3.400000	-0.066578	-49.952629	-62.007865	151.039127	-62.007865	151.039127	-0.074299	-55.876115
3.450000	-0.067690	-50.651562	-61.629082	149.557108	-61.629082	149.557108	-0.075538	-56.652879
3.500000	-0.068819	-51.348473	-61.251829	148.069920	-61.251829	148.069920	-0.076796	-57.427141
3.550000	-0.069951	-52.044930	-60.887205	146.581772	-60.887205	146.581772	-0.078059	-58.200843
3.600000	-0.071103	-52.739114	-60.522512	145.088822	-60.522512	145.088822	-0.079344	-58.971742
3.650000	-0.072256	-53.433069	-60.171087	143.595471	-60.171087	143.595471	-0.080631	-59.742360
3.700000	-0.073433	-54.124497	-59.818221	142.097719	-59.818221	142.097719	-0.081945	-60.509875
3.750000	-0.074610	-54.815926	-59.479132	140.599968	-59.479132	140.599968	-0.083259	-61.277390
3.800000	-0.075813	-55.504574	-59.137426	139.098243	-59.137426	139.098243	-0.084603	-62.041502
3.850000	-0.077016	-56.193221	-58.808655	137.596519	-58.808655	137.596519	-0.085947	-62.805615
3.900000	-0.078245	-56.879298	-58.478741	136.091807	-58.478741	136.091807	-0.087320	-63.566595
3.950000	-0.079477	-57.565142	-58.159750	134.586823	-58.159750	134.586823	-0.088697	-64.327292
4.000000	-0.080733	-58.248632	-57.840905	133.079642	-57.840905	133.079642	-0.090102	-65.085132
4.050000	-0.081994	-58.931651	-57.531199	131.572021	-57.531199	131.572021	-0.091512	-65.842402
4.100000	-0.083279	-59.612539	-57.222766	130.062830	-57.222766	130.062830	-0.092950	-66.597098
4.150000	-0.084571	-60.292717	-56.921889	128.553114	-56.921889	128.553114	-0.094397	-67.350936
4.200000	-0.085886	-60.970991	-56.623271	127.042319	-56.623271	127.042319	-0.095869	-68.102485
4.250000	-0.087211	-61.648313	-56.330802	125.530985	-56.330802	125.530985	-0.097353	-68.852890
4.300000	-0.088557	-62.323963	-56.041452	124.018952	-56.041452	124.018952	-0.098861	-69.601292
4.350000	-0.089917	-62.998418	-55.757002	122.506420	-55.757002	122.506420	-0.100386	-70.348266
4.400000	-0.091296	-63.671434	-55.476419	120.993474	-55.476419	120.993474	-0.101931	-71.093526
4.450000	-0.092693	-64.343013	-55.199625	119.480116	-55.199625	119.480116	-0.103497	-71.837074
4.500000	-0.094105	-65.013390	-54.927348	117.966551	-54.927348	117.966551	-0.105081	-72.579200
4.550000	-0.095539	-65.682087	-54.657875	116.452697	-54.657875	116.452697	-0.106691	-73.319333
4.600000	-0.096987	-66.349821	-54.393480	114.938776	-54.393480	114.938776	-0.108316	-74.058332
4.650000	-0.098461	-67.015632	-54.131014	113.424722	-54.131014	113.424722	-0.109970	-74.795064
4.700000	-0.099946	-67.680721	-53.874110	111.910685	-53.874110	111.910685	-0.111637	-75.530950
4.750000	-0.101461	-68.343645	-53.618358	110.396696	-53.618358	110.396696	-0.113339	-76.264298
4.800000	-0.102984	-69.006089	-53.368582	108.882758	-53.368582	108.882758	-0.115050	-76.997086
4.850000	-0.104542	-69.666128	-53.119272	107.369074	-53.119272	107.369074	-0.116801	-77.727072
4.900000	-0.106105	-70.325928	-52.876288	105.855433	-52.876288	105.855433	-0.118557	-78.456780
4.950000	-0.107707	-70.983089	-52.633163	104.342268	-52.633163	104.342268	-0.120358	-79.183428
5.000000	-0.109311	-71.640249	-52.396659	102.829103	-52.396659	102.829103	-0.122161	-79.910077
5.050000	-0.110960	-72.294536	-52.159478	101.316654	-52.159478	101.316654	-0.124015	-80.633416
5.100000	-0.112609	-72.948823	-51.928603	99.804205	-51.928603	99.804205	-0.125870	-81.356755
5.150000	-0.114302	-73.600486	-51.697702	98.292575	-51.697702	98.292575	-0.127775	-82.077089
5.200000	-0.115999	-74.251911	-51.472248	96.781020	-51.472248	96.781020	-0.129684	-82.797151
5.250000	-0.117738	-74.900959	-51.247349	95.270345	-51.247349	95.270345	-0.131640	-83.514510
5.300000	-0.119485	-75.549532	-51.027123	93.759847	-51.027123	93.759847	-0.133606	-84.231329
5.350000	-0.121270	-76.195978	-50.807968	92.250253	-50.807968	92.250253	-0.135615	-84.945744
5.400000	-0.123068	-76.841715	-50.592784	90.740961	-50.592784	90.740961	-0.137639	-85.659359
5.450000	-0.124902	-77.485571	-50.379131	89.232566	-50.379131	89.232566	-0.139703	-86.370865
5.500000	-0.126753	-78.128488	-50.168816	87.724618	-50.168816	87.724618	-0.141787	-87.081316
5.550000	-0.128636	-78.769772	-49.960439	86.217529	-49.960439	86.217529	-0.143907	-87.789949
5.600000	-0.130542	-79.409888	-49.754827	84.711052	-49.754827	84.711052	-0.146052	-88.497282
5.650000	-0.132476	-80.048614	-49.551514	83.205371	-49.551514	83.205371	-0.148229	-89.203080
5.700000	-0.134439	-80.685951	-49.350449	81.700484	-49.350449	81.700484	-0.150438	-89.907342
5.750000	-0.136425	-81.322140	-49.151999	80.196304	-49.151999	80.196304	-0.152675	-90.610346
5.800000	-0.138446	-81.956721	-48.955333	78.693115	-48.955333	78.693115	-0.154949	-91.311588
5.850000	-0.140486	-82.590392	-48.761559	77.190526	-48.761559	77.190526	-0.157246	-92.011840
5.900000	-0.142566	-83.222242	-48.569151	75.689137	-48.569151	75.689137	-0.159588	-92.710115
5.950000	-0.144662	-83.853417	-48.379875	74.188222	-48.379875	74.188222	-0.161946	-93.407661
6.000000	-0.146804	-84.482566	-48.191590	72.688726	-48.191590	72.688726	-0.164357	-94.103024
6.050000	-0.148956	-85.111268	-48.006645	71.189562	-48.006645	71.189562	-0.166779	-94.797912
6.100000	-0.151161	-85.737744	-47.822355	69.692048	-47.822355	69.692048	-0.169260	-95.490423
6.150000	-0.153371	-86.363999	-47.641584	68.194706	-47.641584	68.194706	-0.171747	-96.182701
6.200000	-0.155641	-86.987833	-47.461167	66.699256	-47.461167	66.699256	-0.174300	-96.872420
6.250000	-0.157911	-87.611668	-47.284420	65.203806	-47.284420	65.203806	-0.176854	-97.562139
6.300000	-0.160247	-88.232894	-47.107759	63.710494	-47.107759	63.710494	-0.179481	-98.249131
6.350000	-0.162584	-88.854121	-46.934618	62.217182	-46.934618	62.217182	-0.182109	-98.936122
6.400000	-0.164982	-89.472990	-46.761877	60.725893	-46.761877	60.725893	-0.184806	-99.620675
6.450000	-0.167387	-90.091645	-46.592239	59.234789	-46.592239	59.234789	-0.187510	-100.305005
6.500000	-0.169850	-90.708187	-46.423282	57.745578	-46.423282	57.745578	-0.190277	-100.987175
6.550000	-0.172325	-91.324306	-46.257044	56.256746	-46.257044	56.256746	-0.193058	-101.668913
6.600000	-0.174853	-91.938554	-46.091741	54.769660	-46.091741	54.769660	-0.195899	-102.348759
6.650000	-0.177399	-92.552177	-45.928809	53.283158	-45.928809	53.283158	-0.198759	-103.027976
6.700000	-0.179994	-93.164164	-45.767037	51.798243	-45.767037	51.798243	-0.201673	-103.705560
6.750000	-0.182613	-93.775332	-45.607318	50.314121	-45.607318	50.314121	-0.204614	-104.382328
6.800000	-0.185276	-94.385093	-45.448958	48.831416	-45.448958	48.831416	-0.207603	-105.057711
6.850000	-0.187970	-94.993848	-45.292363	47.349723	-45.292363	47.349723	-0.210627	-105.732106
6.900000	-0.190703	-95.601419	-45.137304	45.869264	-45.137304	45.869264	-0.213692	-106.405354
6.950000	-0.193473	-96.207806	-44.983748	44.390038	-44.983748	44.390038	-0.216800	-107.077454
7.000000	-0.196277	-96.813224	-44.831882	42.911855	-44.831882	42.911855	-0.219944	-107.748631
7.050000	-0.199125	-97.417287	-44.681282	41.435130	-44.681282	41.435130	-0.223137	-108.418515
7.100000	-0.202001	-98.020591	-44.532509	39.959248	-44.532509	39.959248	-0.226360	-109.087688
7.150000	-0.204929	-98.622378	-44.384786	38.485052	-44.384786	38.485052	-0.229641	-109.755439
7.200000	-0.207878	-99.223607	-44.239007	37.011493	-44.239007	37.011493	-0.232944	-110.422678
7.250000	-0.210888	-99.823166	-44.094084	35.539844	-44.094084	35.539844	-0.236314	-111.088379
7.300000	-0.213912	-100.422362	-43.951207	34.068623	-43.951207	34.068623	-0.239699	-111.753753
7.350000	-0.217004	-101.019743	-43.809009	32.599535	-43.809009	32.599535	-0.243159	-112.417491
7.400000	-0.220104	-101.616947	-43.668945	31.130661	-43.668945	31.130661	-0.246628	-113.081072
7.450000	-0.223280	-102.212202	-43.529403	29.664138	-43.529403	29.664138	-0.250179	-113.742934
7.500000	-0.226457	-102.807457	-43.392067	28.197616	-43.392067	28.197616	-0.253732	-114.404795
7.550000	-0.229719	-103.400639	-43.255110	26.733656	-43.255110	26.733656	-0.257377	-115.064871
7.600000	-0.232983	-103.993820	-43.120280	25.269696	-43.120280	25.269696	-0.261023	-115.724946
7.650000	-0.236325	-104.585151	-42.985984	23.808075	-42.985984	23.808075	-0.264755	-116.383468
7.700000	-0.239675	-105.176314	-42.853596	22.346666	-42.853596	22.346666	-0.268496	-117.041849
7.750000	-0.243098	-105.765840	-42.721882	20.887367	-42.721882	20.887367	-0.272317	-117.698896
7.800000	-0.246537	-106.355039	-42.591877	19.428490	-42.591877	19.428490	-0.276154	-118.355677
7.850000	-0.250043	-106.942808	-42.462669	17.971490	-42.462669	17.971490	-0.280063	-119.011328
7.900000	-0.253571	-107.530101	-42.334988	16.515115	-42.334988	16.515115	-0.283998	-119.666602
7.950000	-0.257161	-108.116162	-42.208215	15.060383	-42.208215	15.060383	-0.287998	-120.320939
8.000000	-0.260781	-108.701606	-42.082801	13.606473	-42.082801	13.606473	-0.292031	-120.974805
8.050000	-0.264455	-109.286008	-41.958394	12.153973	-41.958394	12.153973	-0.296123	-121.627908
8.100000	-0.268167	-109.869664	-41.835195	10.702480	-41.835195	10.702480	-0.300256	-122.280466
8.150000	-0.271927	-110.452456	-41.713088	9.252167	-41.713088	9.252167	-0.304440	-122.932420
8.200000	-0.275733	-111.034384	-41.592052	7.803034	-41.592052	7.803034	-0.308674	-123.583770
8.250000	-0.279580	-111.615619	-41.472183	6.354856	-41.472183	6.354856	-0.312952	-124.234660
8.300000	-0.283481	-112.195882	-41.353261	4.908016	-41.353261	4.908016	-0.317289	-124.884905
8.350000	-0.287415	-112.775611	-41.235571	3.461916	-41.235571	3.461916	-0.321661	-125.534817
8.400000	-0.291413	-113.354272	-41.118716	2.017292	-41.118716	2.017292	-0.326101	-126.184062
8.450000	-0.295436	-113.932549	-41.003148	0.573202	-41.003148	0.573202	-0.330568	-126.833083
8.500000	-0.299530	-114.509673	-40.888317	-0.869291	-40.888317	-0.869291	-0.335112	-127.481435
8.550000	-0.303643	-115.086551	-40.774818	-2.311446	-40.774818	-2.311446	-0.339676	-128.129655
8.600000	-0.307836	-115.662204	-40.661968	-3.751906	-40.661968	-3.751906	-0.344325	-128.777222
8.650000	-0.312039	-116.237740	-40.550488	-5.192205	-40.550488	-5.192205	-0.348986	-129.424732
8.700000	-0.316331	-116.811989	-40.439581	-6.630737	-40.439581	-6.630737	-0.353742	-130.071624
8.750000	-0.320626	-117.386237	-40.330072	-8.069270	-40.330072	-8.069270	-0.358500	-130.718516
8.800000	-0.325018	-117.959151	-40.221072	-9.505991	-40.221072	-9.505991	-0.363362	-131.364846
8.850000	-0.329413	-118.532064	-40.113423	-10.942712	-40.113423	-10.942712	-0.368228	-132.011176
8.900000	-0.333898	-119.103818	-40.006364	-12.377888	-40.006364	-12.377888	-0.373189	-132.657095
8.950000	-0.338394	-119.675466	-39.900543	-13.812923	-39.900543	-13.812923	-0.378162	-133.302977
9.000000	-0.342973	-120.246119	-39.795384	-15.246664	-39.795384	-15.246664	-0.383223	-133.948583
9.050000	-0.347570	-120.816573	-39.691363	-16.680146	-39.691363	-16.680146	-0.388304	-134.594133
9.100000	-0.352243	-121.386185	-39.588068	-18.112571	-39.588068	-18.112571	-0.393465	-135.239524
9.150000	-0.356943	-121.955517	-39.485821	-19.544643	-39.485821	-19.544643	-0.398655	-135.884861
9.200000	-0.361711	-122.524151	-39.384357	-20.975875	-39.384357	-20.975875	-0.403917	-136.530136
9.250000	-0.366513	-123.092435	-39.283862	-22.406687	-39.283862	-22.406687	-0.409216	-137.175381
9.300000	-0.371376	-123.660152	-39.184196	-23.836856	-39.184196	-23.836856	-0.414578	-137.820643
9.350000	-0.376283	-124.227464	-39.085435	-25.266564	-39.085435	-25.266564	-0.419986	-138.465917
9.400000	-0.381241	-124.794327	-38.987541	-26.695803	-38.987541	-26.695803	-0.425449	-139.111268
9.450000	-0.386252	-125.360743	-38.890497	-28.124572	-38.890497	-28.124572	-0.430967	-139.756696
9.500000	-0.391306	-125.926818	-38.794351	-29.553019	-38.794351	-29.553019	-0.436531	-140.402242
9.550000	-0.396420	-126.492415	-38.699014	-30.981016	-38.699014	-30.981016	-0.442159	-141.047951
9.600000	-0.401571	-127.057767	-38.604594	-32.408813	-38.604594	-32.408813	-0.447824	-141.693798
9.650000	-0.406790	-127.622626	-38.510956	-33.836210	-38.510956	-33.836210	-0.453561	-142.339917
9.700000	-0.412037	-128.187320	-38.418245	-35.263500	-38.418245	-35.263500	-0.459327	-142.986173
9.750000	-0.417360	-128.751522	-38.326301	-36.690472	-38.326301	-36.690472	-0.465174	-143.632834
9.800000	-0.422704	-129.315628	-38.235285	-38.117403	-38.235285	-38.117403	-0.471041	-144.279608
9.850000	-0.428132	-129.879254	-38.145037	-39.544127	-38.145037	-39.544127	-0.476996	-144.926945
9.900000	-0.433571	-130.442839	-38.055705	-40.970844	-38.055705	-40.970844	-0.482963	-145.574349
9.950000	-0.439104	-131.005975	-37.967156	-42.397494	-37.967156	-42.397494	-0.489026	-146.222497
10.000000	-0.444640	-131.569110	-37.879500	-43.824145	-37.879500	-43.824145	-0.495094	-146.870645
