! freq	dB(S11)	phase(S11)	dB(S12)	phase(S12)	
!     	dB(S21)	phase(S21)	dB(S22)	phase(S22)	
!S-par simulation data
#  GHz  S  DB  R 50
0.000000	-87.823475	0.000000	-0.000353	0.000000	-0.000353	0.000000	-87.823475	0.000000
0.050000	-32.716454	-92.685821	-0.005693	-2.935781	-0.005693	-2.935781	-32.723466	-93.274827
0.100000	-26.722824	-95.483075	-0.018156	-5.841967	-0.018156	-5.841967	-26.728161	-96.665209
0.150000	-23.239488	-98.189646	-0.034399	-8.725907	-0.034399	-8.725907	-23.243321	-99.967504
0.200000	-20.786268	-100.836645	-0.054101	-11.597197	-0.054101	-11.597197	-20.789374	-103.208863
0.250000	-18.898211	-103.442369	-0.077591	-14.458150	-0.077591	-14.458150	-18.901435	-106.405405
0.300000	-17.368594	-106.019166	-0.105046	-17.307730	-0.105046	-17.307730	-17.372621	-109.570057
0.350000	-16.087526	-108.573837	-0.136443	-20.144054	-0.136443	-20.144054	-16.092819	-112.711773
0.400000	-14.989364	-111.109445	-0.171583	-22.965437	-0.171583	-22.965437	-14.996135	-115.835951
0.450000	-14.032697	-113.625880	-0.210364	-25.769631	-0.210364	-25.769631	-14.040897	-118.944280
0.500000	-13.188191	-116.123145	-0.252430	-28.555717	-0.252430	-28.555717	-13.197503	-122.037270
0.550000	-12.436032	-118.599438	-0.297618	-31.321760	-0.297618	-31.321760	-12.445953	-125.112772
0.600000	-11.760464	-121.054235	-0.345572	-34.067353	-0.345572	-34.067353	-11.770460	-128.169088
0.650000	-11.150338	-123.485895	-0.396077	-36.791158	-0.396077	-36.791158	-11.159966	-131.203637
0.700000	-10.596282	-125.893850	-0.448827	-39.492893	-0.448827	-39.492893	-10.605281	-134.215411
0.750000	-10.091200	-128.277092	-0.503576	-42.171857	-0.503576	-42.171857	-10.099482	-137.203619
0.800000	-9.629139	-130.635060	-0.560062	-44.827738	-0.560062	-44.827738	-9.636744	-140.168293
0.850000	-9.205148	-132.967410	-0.618030	-47.460391	-0.618030	-47.460391	-9.212183	-143.109789
0.900000	-8.815157	-135.273803	-0.677237	-50.069638	-0.677237	-50.069638	-8.821754	-146.028419
0.950000	-8.455715	-137.554036	-0.737445	-52.655395	-0.737445	-52.655395	-8.462008	-148.924511
1.000000	-8.123910	-139.807954	-0.798421	-55.217597	-0.798421	-55.217597	-8.130019	-151.798330
1.050000	-7.817047	-142.035879	-0.859931	-57.756589	-0.859931	-57.756589	-7.823073	-154.650460
1.100000	-7.532882	-144.238026	-0.921755	-60.272614	-0.921755	-60.272614	-7.538911	-157.481336
1.150000	-7.269447	-146.414710	-0.983677	-62.765998	-0.983677	-62.765998	-7.275548	-160.291446
1.200000	-7.025005	-148.566332	-1.045492	-65.237151	-1.045492	-65.237151	-7.031237	-163.081334
1.250000	-6.798017	-150.693369	-1.106998	-67.686557	-1.106998	-67.686557	-6.804429	-165.851611
1.300000	-6.587277	-152.795987	-1.167988	-70.114439	-1.167988	-70.114439	-6.593911	-168.602645
1.350000	-6.391379	-154.875193	-1.228294	-72.521777	-1.228294	-72.521777	-6.398269	-171.335488
1.400000	-6.209224	-156.931647	-1.287743	-74.909257	-1.287743	-74.909257	-6.216400	-174.050919
1.450000	-6.039823	-158.966049	-1.346176	-77.277614	-1.346176	-77.277614	-6.047311	-176.749764
1.500000	-5.882285	-160.979132	-1.403443	-79.627629	-1.403443	-79.627629	-5.890107	-179.432887
1.550000	-5.735803	-162.971662	-1.459405	-81.960119	-1.459405	-81.960119	-5.743978	177.898815
1.600000	-5.599646	-164.944424	-1.513931	-84.275934	-1.513931	-84.275934	-5.608189	175.244418
1.650000	-5.473151	-166.898221	-1.566905	-86.575948	-1.566905	-86.575948	-5.482077	172.602976
1.700000	-5.355715	-168.833867	-1.618218	-88.861054	-1.618218	-88.861054	-5.365034	169.973529
1.750000	-5.246791	-170.752187	-1.667771	-91.132159	-1.667771	-91.132159	-5.256510	167.355105
1.800000	-5.145878	-172.654005	-1.715477	-93.390180	-1.715477	-93.390180	-5.156003	164.746725
1.850000	-5.052522	-174.540151	-1.761255	-95.636039	-1.761255	-95.636039	-5.063055	162.147408
1.900000	-4.966372	-176.411296	-1.805011	-97.870547	-1.805011	-97.870547	-4.977313	159.556249
1.950000	-4.887041	-178.268289	-1.846682	-100.094655	-1.846682	-100.094655	-4.898389	156.972240
2.000000	-4.814118	179.887897	-1.886239	-102.309402	-1.886239	-102.309402	-4.825868	154.394322
2.050000	-4.747288	178.056458	-1.923637	-104.515695	-1.923637	-104.515695	-4.759434	151.821536
2.100000	-4.686264	176.236601	-1.958836	-106.714434	-1.958836	-106.714434	-4.698797	149.252932
2.150000	-4.630785	174.427543	-1.991806	-108.906505	-1.991806	-108.906505	-4.643694	146.687576
2.200000	-4.580612	172.628516	-2.022522	-111.092782	-2.022522	-111.092782	-4.593885	144.124547
2.250000	-4.535529	170.838762	-2.050966	-113.274125	-2.050966	-113.274125	-4.549152	141.562942
2.300000	-4.495338	169.057541	-2.077123	-115.451379	-2.077123	-115.451379	-4.509297	139.001874
2.350000	-4.459861	167.284122	-2.100987	-117.625372	-2.100987	-117.625372	-4.474139	136.440477
2.400000	-4.428935	165.517792	-2.122555	-119.796915	-2.122555	-119.796915	-4.443515	133.877904
2.450000	-4.402415	163.757849	-2.141831	-121.966804	-2.141831	-121.966804	-4.417280	131.313328
2.500000	-4.380167	162.003609	-2.158820	-124.135814	-2.158820	-124.135814	-4.395300	128.745947
2.550000	-4.362163	160.254492	-2.173484	-126.304719	-2.173484	-126.304719	-4.377546	126.174882
2.600000	-4.348205	158.509718	-2.185891	-128.474276	-2.185891	-128.474276	-4.363820	123.599440
2.650000	-4.338200	156.768642	-2.196059	-130.645205	-2.196059	-130.645205	-4.354031	121.018887
2.700000	-4.332067	155.030633	-2.204011	-132.818207	-2.204011	-132.818207	-4.348098	118.432517
2.750000	-4.329735	153.295073	-2.209774	-134.993964	-2.209774	-134.993964	-4.345951	115.839649
2.800000	-4.331142	151.561355	-2.213377	-137.173140	-2.213377	-137.173140	-4.347529	113.239628
2.850000	-4.336237	149.828884	-2.214854	-139.356379	-2.214854	-139.356379	-4.352784	110.631825
2.900000	-4.344977	148.097076	-2.214239	-141.544306	-2.214239	-141.544306	-4.361673	108.015640
2.950000	-4.357327	146.365357	-2.211571	-143.737528	-2.211571	-143.737528	-4.374166	105.390501
3.000000	-4.373262	144.633163	-2.206890	-145.936631	-2.206890	-145.936631	-4.390237	102.755864
3.050000	-4.392764	142.899940	-2.200241	-148.142184	-2.200241	-148.142184	-4.409872	100.111217
3.100000	-4.415823	141.165140	-2.191668	-150.354737	-2.191668	-150.354737	-4.433064	97.456075
3.150000	-4.442474	139.428195	-2.181199	-152.574908	-2.181199	-152.574908	-4.459849	94.789864
3.200000	-4.472720	137.688555	-2.168885	-154.803226	-2.168885	-154.803226	-4.490235	92.112150
3.250000	-4.506537	135.945719	-2.154799	-157.040101	-2.154799	-157.040101	-4.524199	89.422667
3.300000	-4.543943	134.199167	-2.138995	-159.286005	-2.138995	-159.286005	-4.561764	86.721064
3.350000	-4.584964	132.448382	-2.121526	-161.541393	-2.121526	-161.541393	-4.602958	84.007024
3.400000	-4.629634	130.692855	-2.102451	-163.806702	-2.102451	-163.806702	-4.647818	81.280267
3.450000	-4.677993	128.932079	-2.081828	-166.082347	-2.081828	-166.082347	-4.696387	78.540547
3.500000	-4.730087	127.165546	-2.059715	-168.368729	-2.059715	-168.368729	-4.748716	75.787657
3.550000	-4.785972	125.392755	-2.036175	-170.666226	-2.036175	-170.666226	-4.804861	73.021428
3.600000	-4.845709	123.613204	-2.011269	-172.975202	-2.011269	-172.975202	-4.864887	70.241729
3.650000	-4.909367	121.826388	-1.985061	-175.295999	-1.985061	-175.295999	-4.928866	67.448472
3.700000	-4.977022	120.031807	-1.957614	-177.628942	-1.957614	-177.628942	-4.996877	64.641610
3.750000	-5.048759	118.228955	-1.928995	-179.974339	-1.928995	-179.974339	-5.069008	61.821137
3.800000	-5.124748	116.417123	-1.899244	177.667238	-1.899244	177.667238	-5.145432	58.986800
3.850000	-5.205013	114.595981	-1.868455	175.295791	-1.868455	175.295791	-5.226176	56.138983
3.900000	-5.289666	112.765012	-1.836697	172.911066	-1.836697	172.911066	-5.311352	53.277823
3.950000	-5.378825	110.923699	-1.804036	170.512830	-1.804036	170.512830	-5.401081	50.403502
4.000000	-5.472618	109.071514	-1.770542	168.100867	-1.770542	168.100867	-5.495495	47.516257
4.050000	-5.571187	107.207923	-1.736284	165.674977	-1.736284	165.674977	-5.594735	44.616375
4.100000	-5.674680	105.332384	-1.701330	163.234978	-1.701330	163.234978	-5.698953	41.704198
4.150000	-5.783259	103.444345	-1.665750	160.780705	-1.665750	160.780705	-5.808314	38.780123
4.200000	-5.897099	101.543242	-1.629614	158.312010	-1.629614	158.312010	-5.922993	35.844611
4.250000	-6.016387	99.628500	-1.592991	155.828761	-1.592991	155.828761	-6.043179	32.898180
4.300000	-6.141325	97.699526	-1.555952	153.330843	-1.555952	153.330843	-6.169077	29.941417
4.350000	-6.272129	95.755715	-1.518567	150.818157	-1.518567	150.818157	-6.300905	26.974978
4.400000	-6.409077	93.796265	-1.480900	148.290458	-1.480900	148.290458	-6.438942	23.999504
4.450000	-6.552423	91.820509	-1.443024	145.747677	-1.443024	145.747677	-6.583445	21.015833
4.500000	-6.702392	89.827945	-1.405014	143.189926	-1.405014	143.189926	-6.734641	18.024959
4.550000	-6.859277	87.817876	-1.366938	140.617170	-1.366938	140.617170	-6.892824	15.027872
4.600000	-7.023392	85.789576	-1.328865	138.029388	-1.328865	138.029388	-7.058309	12.025661
4.650000	-7.195076	83.742287	-1.290865	135.426577	-1.290865	135.426577	-7.231438	9.019519
4.700000	-7.374697	81.675212	-1.253006	132.808748	-1.253006	132.808748	-7.412580	6.010763
4.750000	-7.562653	79.587510	-1.215355	130.175925	-1.215355	130.175925	-7.602132	3.000834
4.800000	-7.759373	77.478294	-1.177980	127.528150	-1.177980	127.528150	-7.800524	-0.008677
4.850000	-7.965328	75.346618	-1.140949	124.865478	-1.140949	124.865478	-8.008224	-3.016021
4.900000	-8.181025	73.191472	-1.104329	122.187979	-1.104329	122.187979	-8.225737	-6.019265
4.950000	-8.407020	71.011773	-1.068184	119.495741	-1.068184	119.495741	-8.453615	-9.016270
5.000000	-8.643921	68.806347	-1.032581	116.788862	-1.032581	116.788862	-8.692454	-12.004664
5.050000	-8.892499	66.573302	-0.997596	114.067148	-0.997596	114.067148	-8.943010	-14.981492
5.100000	-9.153380	64.311795	-0.963285	111.331049	-0.963285	111.331049	-9.205894	-17.943962
5.150000	-9.427369	62.020276	-0.929711	108.580713	-0.929711	108.580713	-9.481885	-20.888729
5.200000	-9.715357	59.697029	-0.896937	105.816307	-0.896937	105.816307	-9.771835	-23.812016
5.250000	-10.018330	57.340127	-0.865023	103.038010	-0.865023	103.038010	-10.076683	-26.709540
5.300000	-10.337388	54.947396	-0.834030	100.246021	-0.834030	100.246021	-10.397462	-29.576411
5.350000	-10.673758	52.516360	-0.804017	97.440554	-0.804017	97.440554	-10.735312	-32.407012
5.400000	-11.028821	50.044171	-0.775042	94.621840	-0.775042	94.621840	-11.091496	-35.194853
5.450000	-11.404135	47.527523	-0.747161	91.790128	-0.747161	91.790128	-11.467410	-37.932374
5.500000	-11.801466	44.962536	-0.720427	88.945684	-0.720427	88.945684	-11.864610	-40.610707
5.550000	-12.222833	42.344610	-0.694894	86.088792	-0.694894	86.088792	-12.284825	-43.219365
5.600000	-12.670552	39.668232	-0.670611	83.219752	-0.670611	83.219752	-12.729985	-45.745835
5.650000	-13.147348	36.925907	-0.647639	80.338758	-0.647639	80.338758	-13.202261	-48.173793
5.700000	-13.656335	34.109054	-0.626026	77.446156	-0.626026	77.446156	-13.704020	-50.484159
5.750000	-14.201128	31.207940	-0.605799	74.542427	-0.605799	74.542427	-14.237868	-52.655146
5.800000	-14.786070	28.209317	-0.586997	71.627939	-0.586997	71.627939	-14.806710	-54.658355
5.850000	-15.416360	25.096094	-0.569654	68.703075	-0.569654	68.703075	-15.413694	-56.458097
5.900000	-16.098287	21.845808	-0.553800	65.768229	-0.553800	65.768229	-16.062144	-58.009035
5.950000	-16.839547	18.428327	-0.539463	62.823810	-0.539463	62.823810	-16.755401	-59.252989
6.000000	-17.649663	14.802288	-0.526663	59.870235	-0.526663	59.870235	-17.496485	-60.114642
6.050000	-18.540567	10.909405	-0.515417	56.907930	-0.515417	56.907930	-18.287442	-60.495923
6.100000	-19.527369	6.665078	-0.505736	53.937327	-0.505736	53.937327	-19.128118	-60.269120
6.150000	-20.629334	1.942256	-0.497626	50.958861	-0.497626	50.958861	-20.013917	-59.269679
6.200000	-21.870948	-3.457349	-0.491086	47.972966	-0.491086	47.972966	-20.931922	-57.292082
6.250000	-23.282378	-9.856661	-0.486110	44.980074	-0.486110	44.980074	-21.854670	-54.097755
6.300000	-24.893913	-17.861028	-0.482718	41.980476	-0.482718	41.980476	-22.727295	-49.419395
6.350000	-26.720598	-28.462630	-0.480856	38.974737	-0.480856	38.974737	-23.470788	-43.171521
6.400000	-28.685757	-43.401205	-0.480496	35.963254	-0.480496	35.963254	-23.982067	-35.531937
6.450000	-30.410696	-64.823579	-0.481604	32.946404	-0.481604	32.946404	-24.169927	-27.095956
6.500000	-31.050510	-91.982093	-0.484140	29.924538	-0.484140	29.924538	-24.004038	-18.764395
6.550000	-30.153576	-118.087242	-0.488055	26.897977	-0.488055	26.897977	-23.534534	-11.381905
6.600000	-28.417670	-137.764012	-0.493293	23.867006	-0.493293	23.867006	-22.860204	-5.428913
6.650000	-26.585414	-151.535506	-0.499792	20.831870	-0.499792	20.831870	-22.080406	-0.992449
6.700000	-24.928237	-161.557382	-0.507484	17.792769	-0.507484	17.792769	-21.268665	2.080933
6.750000	-23.487042	-169.347407	-0.516298	14.749821	-0.516298	14.749821	-20.469857	4.022181
6.800000	-22.240200	-175.796292	-0.526144	11.703149	-0.526144	11.703149	-19.708535	5.075638
6.850000	-21.155908	178.606913	-0.536935	8.652771	-0.536935	8.652771	-18.995485	5.436949
6.900000	-20.206358	173.578557	-0.548591	5.598570	-0.548591	5.598570	-18.334385	5.254701
6.950000	-19.369025	168.932732	-0.561013	2.540409	-0.561013	2.540409	-17.725271	4.654250
7.000000	-18.625783	164.546716	-0.574084	-0.521863	-0.574084	-0.521863	-17.165951	3.735781
7.050000	-17.962724	160.343060	-0.587701	-3.588552	-0.587701	-3.588552	-16.653496	2.569934
7.100000	-17.368921	156.266832	-0.601758	-6.660059	-0.601758	-6.660059	-16.184800	1.211969
7.150000	-16.835710	152.277626	-0.616147	-9.736886	-0.616147	-9.736886	-15.756845	-0.294336
7.200000	-16.356357	148.344913	-0.630761	-12.819700	-0.630761	-12.819700	-15.366992	-1.914497
7.250000	-15.925667	144.444086	-0.645488	-15.909373	-0.645488	-15.909373	-15.013052	-3.620194
7.300000	-15.538445	140.554092	-0.660218	-19.006605	-0.660218	-19.006605	-14.692246	-5.384923
7.350000	-15.190950	136.658098	-0.674848	-22.112378	-0.674848	-22.112378	-14.402544	-7.188477
7.400000	-14.880103	132.741145	-0.689280	-25.227807	-0.689280	-25.227807	-14.142151	-9.013195
7.450000	-14.603363	128.789428	-0.703421	-28.354147	-0.703421	-28.354147	-13.909478	-10.843245
7.500000	-14.358630	124.789749	-0.717188	-31.492796	-0.717188	-31.492796	-13.703113	-12.664055
7.550000	-14.144999	120.726529	-0.730487	-34.645844	-0.730487	-34.645844	-13.522495	-14.460594
7.600000	-13.960200	116.588169	-0.743272	-37.814584	-0.743272	-37.814584	-13.365739	-16.219842
7.650000	-13.803040	112.360775	-0.755496	-41.000907	-0.755496	-41.000907	-13.231747	-17.928411
7.700000	-13.672525	108.029532	-0.767131	-44.206872	-0.767131	-44.206872	-13.119452	-19.572607
7.750000	-13.567812	103.578379	-0.778166	-47.434715	-0.778166	-47.434715	-13.027767	-21.138158
7.800000	-13.488156	98.989681	-0.788618	-50.686847	-0.788618	-50.686847	-12.955530	-22.609972
7.850000	-13.433463	94.239260	-0.798516	-53.966633	-0.798516	-53.966633	-12.901856	-23.968656
7.900000	-13.402573	89.306965	-0.807950	-57.276509	-0.807950	-57.276509	-12.864829	-25.198080
7.950000	-13.394424	84.169371	-0.817038	-60.619222	-0.817038	-60.619222	-12.842386	-26.280611
8.000000	-13.407927	78.798629	-0.825936	-63.997937	-0.825936	-63.997937	-12.832146	-27.196580
8.050000	-13.441618	73.163523	-0.834849	-67.415988	-0.834849	-67.415988	-12.831115	-27.925595
8.100000	-13.493457	67.229312	-0.844035	-70.876878	-0.844035	-70.876878	-12.835524	-28.447221
8.150000	-13.560766	60.951313	-0.853832	-74.385119	-0.853832	-74.385119	-12.840572	-28.737923
8.200000	-13.639278	54.286454	-0.864650	-77.944672	-0.864650	-77.944672	-12.840119	-28.780636
8.250000	-13.723076	47.198118	-0.876953	-81.558601	-0.876953	-81.558601	-12.827060	-28.568727
8.300000	-13.804556	39.645267	-0.891301	-85.230822	-0.891301	-85.230822	-12.793156	-28.100375
8.350000	-13.873818	31.592656	-0.908348	-88.965243	-0.908348	-88.965243	-12.729269	-27.386102
8.400000	-13.918505	23.017163	-0.928855	-92.765688	-0.928855	-92.765688	-12.625862	-26.452259
8.450000	-13.923557	13.911596	-0.953736	-96.636448	-0.953736	-96.636448	-12.473268	-25.342536
8.500000	-13.871411	4.296049	-0.984116	-100.582298	-0.984116	-100.582298	-12.262387	-24.121576
8.550000	-13.749269	-5.743605	-1.020860	-104.602850	-1.020860	-104.602850	-11.990969	-22.873029
8.600000	-13.541842	-16.117259	-1.065434	-108.703012	-1.065434	-108.703012	-11.655056	-21.686832
8.650000	-13.241071	-26.685903	-1.119283	-112.884717	-1.119283	-112.884717	-11.256599	-20.657920
8.700000	-12.848213	-37.294781	-1.183792	-117.147545	-1.183792	-117.147545	-10.802696	-19.868352
8.750000	-12.370616	-47.799662	-1.260570	-121.491181	-1.260570	-121.491181	-10.302204	-19.386065
8.800000	-11.820093	-58.074621	-1.351566	-125.915350	-1.351566	-125.915350	-9.764772	-19.266258
8.850000	-11.215751	-68.037041	-1.458335	-130.415547	-1.458335	-130.415547	-9.203110	-19.530829
8.900000	-10.575858	-77.638155	-1.582667	-134.987048	-1.582667	-134.987048	-8.628406	-20.188455
8.950000	-9.916866	-86.854012	-1.726609	-139.624276	-1.726609	-139.624276	-8.050444	-21.237950
9.000000	-9.254900	-95.693827	-1.891660	-144.317995	-1.891660	-144.317995	-7.478891	-22.655218
9.050000	-8.602361	-104.176075	-2.079366	-149.058052	-2.079366	-149.058052	-6.921341	-24.412406
9.100000	-7.968532	-112.320629	-2.291392	-153.833112	-2.291392	-153.833112	-6.383755	-26.480893
9.150000	-7.360893	-120.156112	-2.528748	-158.629564	-2.528748	-158.629564	-5.871073	-28.822309
9.200000	-6.784474	-127.707604	-2.792260	-163.433091	-2.792260	-163.433091	-5.386778	-31.399277
9.250000	-6.242515	-134.993080	-3.082716	-168.228568	-3.082716	-168.228568	-4.933309	-34.177822
9.300000	-5.736938	-142.031159	-3.400294	-173.000515	-3.400294	-173.000515	-4.512112	-37.121844
9.350000	-5.268406	-148.837319	-3.744844	-177.733963	-3.744844	-177.733963	-4.123694	-40.197574
9.400000	-4.836855	-155.420763	-4.116109	177.586099	-4.116109	177.586099	-3.768088	-43.375617
9.450000	-4.441459	-161.790571	-4.513415	172.973449	-4.513415	172.973449	-3.444646	-46.628134
9.500000	-4.080692	-167.955990	-4.935820	168.439765	-4.935820	168.439765	-3.152078	-49.930140
9.550000	-3.752918	-173.922207	-5.382304	163.996312	-5.382304	163.996312	-2.889048	-53.260650
9.600000	-3.456214	-179.694475	-5.851649	159.652647	-5.851649	159.652647	-2.653935	-56.601368
9.650000	-3.188206	174.719269	-6.342628	155.414969	-6.342628	155.414969	-2.444654	-59.937059
9.700000	-2.946748	169.313887	-6.853972	151.289236	-6.853972	151.289236	-2.259353	-63.255402
9.750000	-2.729759	164.084658	-7.384320	147.280296	-7.384320	147.280296	-2.096226	-66.546319
9.800000	-2.534821	159.022906	-7.932670	143.388879	-7.932670	143.388879	-1.953111	-69.802689
9.850000	-2.359890	154.122371	-8.497963	139.615964	-8.497963	139.615964	-1.828203	-73.019018
9.900000	-2.203179	149.378135	-9.078979	135.962412	-9.078979	135.962412	-1.719935	-76.190981
9.950000	-2.062732	144.782080	-9.675040	132.425459	-9.675040	132.425459	-1.626554	-79.316543
10.000000	-1.936543	140.323590	-10.286287	128.998999	-10.286287	128.998999	-1.546240	-82.395847
