! freq	dB(S11)	phase(S11)	dB(S12)	phase(S12)	
!     	dB(S21)	phase(S21)	dB(S22)	phase(S22)	
!S-par simulation data
#  GHz  S  DB  R 50
0.000000	-85.962876	0.000000	-0.000437	0.000000	-0.000437	0.000000	-85.962876	0.000000
0.050000	-30.454256	-93.618343	-0.008793	-3.455038	-0.008793	-3.455038	-30.451703	-93.369616
0.100000	-24.469550	-97.333033	-0.026945	-6.864948	-0.026945	-6.864948	-24.466561	-96.836618
0.150000	-21.000662	-100.946134	-0.051325	-10.247942	-0.051325	-10.247942	-20.997127	-100.203378
0.200000	-18.566584	-104.488303	-0.082169	-13.610251	-0.082169	-13.610251	-18.562505	-103.500022
0.250000	-16.702492	-107.978470	-0.119579	-16.949703	-0.119579	-16.949703	-16.697901	-106.744653
0.300000	-15.201407	-111.430266	-0.163320	-20.263031	-0.163320	-20.263031	-15.196322	-109.950003
0.350000	-13.952406	-114.851111	-0.212920	-23.547710	-0.212920	-23.547710	-13.946833	-113.122682
0.400000	-12.889775	-118.242356	-0.267971	-26.800991	-0.267971	-26.800991	-12.883730	-116.263359
0.450000	-11.971811	-121.601164	-0.328098	-30.019551	-0.328098	-30.019551	-11.965330	-119.368664
0.500000	-11.168868	-124.924792	-0.392669	-33.201968	-0.392669	-33.201968	-11.162010	-122.435667
0.550000	-10.460182	-128.210496	-0.461117	-36.346740	-0.461117	-36.346740	-10.453000	-125.461468
0.600000	-9.830497	-131.456431	-0.532875	-39.452574	-0.532875	-39.452574	-9.823025	-128.443992
0.650000	-9.268579	-134.661066	-0.607392	-42.517835	-0.607392	-42.517835	-9.260832	-131.381302
0.700000	-8.765011	-137.824603	-0.684044	-45.542203	-0.684044	-45.542203	-8.756983	-134.273205
0.750000	-8.311990	-140.948045	-0.762226	-48.526053	-0.762226	-48.526053	-8.303670	-137.120310
0.800000	-7.903384	-144.032162	-0.841374	-51.469563	-0.841374	-51.469563	-7.894753	-139.922934
0.850000	-7.534852	-147.076573	-0.920907	-54.371740	-0.920907	-54.371740	-7.525887	-142.679999
0.900000	-7.200973	-150.084424	-1.000310	-57.235324	-1.000310	-57.235324	-7.191654	-145.394444
0.950000	-6.898483	-153.056387	-1.079077	-60.060513	-1.079077	-60.060513	-6.888787	-148.066333
1.000000	-6.624230	-155.994038	-1.156742	-62.848452	-1.156742	-62.848452	-6.614135	-150.696712
1.050000	-6.375496	-158.899113	-1.232873	-65.600466	-1.232873	-65.600466	-6.364977	-153.286763
1.100000	-6.149922	-161.773500	-1.307078	-68.318042	-1.307078	-68.318042	-6.138956	-155.837789
1.150000	-5.945457	-164.619220	-1.379001	-71.002813	-1.379001	-71.002813	-5.934017	-158.351195
1.200000	-5.760305	-167.438415	-1.448319	-73.656546	-1.448319	-73.656546	-5.748364	-160.828466
1.250000	-5.592895	-170.233330	-1.514742	-76.281122	-1.514742	-76.281122	-5.580423	-163.271149
1.300000	-5.442123	-173.005881	-1.577928	-78.877976	-1.577928	-78.877976	-5.429087	-165.680158
1.350000	-5.306472	-175.759013	-1.637721	-81.449798	-1.637721	-81.449798	-5.292837	-168.057865
1.400000	-5.184880	-178.495212	-1.693913	-83.998700	-1.693913	-83.998700	-5.170607	-170.405899
1.450000	-5.076414	178.782982	-1.746323	-86.526830	-1.746323	-86.526830	-5.061461	-172.725889
1.500000	-4.980255	176.072974	-1.794790	-89.036360	-1.794790	-89.036360	-4.964577	-175.019442
1.550000	-4.895690	173.372127	-1.839174	-91.529472	-1.839174	-91.529472	-4.879237	-177.288142
1.600000	-4.822096	170.677757	-1.879355	-94.008354	-1.879355	-94.008354	-4.804812	-179.533533
1.650000	-4.758934	167.987138	-1.915232	-96.475186	-1.915232	-96.475186	-4.740759	178.242890
1.700000	-4.705744	165.297501	-1.946721	-98.932143	-1.946721	-98.932143	-4.686610	176.039685
1.750000	-4.662134	162.606031	-1.973758	-101.381384	-1.973758	-101.381384	-4.641968	173.855478
1.800000	-4.627778	159.909867	-1.996294	-103.825055	-1.996294	-103.825055	-4.606498	171.688968
1.850000	-4.602410	157.206092	-2.014296	-106.265284	-2.014296	-106.265284	-4.579926	169.538934
1.900000	-4.587036	154.489785	-2.027103	-108.704307	-2.027103	-108.704307	-4.563232	167.406264
1.950000	-4.579150	151.761148	-2.035958	-111.144312	-2.035958	-111.144312	-4.553930	165.285908
2.000000	-4.579787	149.015679	-2.040280	-113.587202	-2.040280	-113.587202	-4.553027	163.178956
2.050000	-4.588893	146.250171	-2.040099	-116.035033	-2.040099	-116.035033	-4.560457	161.084619
2.100000	-4.606461	143.461319	-2.035460	-118.489842	-2.035460	-118.489842	-4.576197	159.002248
2.150000	-4.632530	140.645708	-2.026425	-120.953649	-2.026425	-120.953649	-4.600268	156.931344
2.200000	-4.667184	137.799799	-2.013070	-123.428450	-2.013070	-123.428450	-4.632736	154.871579
2.250000	-4.710552	134.919912	-1.995487	-125.916219	-1.995487	-125.916219	-4.673708	152.822816
2.300000	-4.762428	132.004095	-1.973961	-128.418144	-1.973961	-128.418144	-4.722960	150.784628
2.350000	-4.823881	129.044227	-1.948218	-130.937803	-1.948218	-130.937803	-4.781512	148.758438
2.400000	-4.894704	126.038205	-1.918627	-133.476241	-1.918627	-133.476241	-4.849135	146.744240
2.450000	-4.975203	122.981562	-1.885347	-136.035315	-1.885347	-136.035315	-4.926098	144.742942
2.500000	-5.065728	119.869572	-1.848557	-138.616841	-1.848557	-138.616841	-5.012706	142.755806
2.550000	-5.166880	116.695766	-1.808382	-141.223154	-1.808382	-141.223154	-5.109502	140.784886
2.600000	-5.278897	113.455946	-1.765121	-143.855473	-1.765121	-143.855473	-5.216673	138.832033
2.650000	-5.402255	110.144317	-1.719011	-146.515441	-1.719011	-146.515441	-5.334627	136.899930
2.700000	-5.537471	106.754627	-1.670310	-149.204625	-1.670310	-149.204625	-5.463804	134.991867
2.750000	-5.685096	103.280104	-1.619298	-151.924503	-1.619298	-151.924503	-5.604663	133.111823
2.800000	-5.845711	99.713374	-1.566273	-154.676449	-1.566273	-154.676449	-5.757680	131.264564
2.850000	-6.019922	96.046367	-1.511556	-157.461722	-1.511556	-157.461722	-5.923338	129.455753
2.900000	-6.208345	92.270215	-1.455488	-160.281448	-1.455488	-160.281448	-6.102110	127.692075
2.950000	-6.411596	88.375119	-1.398429	-163.136600	-1.398429	-163.136600	-6.294445	125.981368
3.000000	-6.630269	84.350212	-1.340759	-166.027984	-1.340759	-166.027984	-6.500743	124.332775
3.050000	-6.864910	80.183393	-1.282874	-168.956218	-1.282874	-168.956218	-6.721324	122.756899
3.100000	-7.115979	75.861143	-1.225185	-171.921710	-1.225185	-171.921710	-6.956390	121.265959
3.150000	-7.383889	71.366289	-1.168127	-174.925052	-1.168127	-174.925052	-7.206041	119.875203
3.200000	-7.668723	66.681244	-1.112151	-177.966170	-1.112151	-177.966170	-7.470020	118.601136
3.250000	-7.970193	61.788777	-1.057697	178.955685	-1.057697	178.955685	-7.747680	117.460696
3.300000	-8.287699	56.667673	-1.005210	175.841133	-1.005210	175.841133	-8.038023	116.473854
3.350000	-8.620088	51.294570	-0.955136	172.691085	-0.955136	172.691085	-8.339485	115.662359
3.400000	-8.965466	45.644153	-0.907909	169.506746	-0.907909	169.506746	-8.649781	115.049316
3.450000	-9.320977	39.689679	-0.863954	166.289623	-0.863954	166.289623	-8.965742	114.658427
3.500000	-9.682549	33.404029	-0.823677	163.041520	-0.823677	163.041520	-9.283136	114.512742
3.550000	-10.044627	26.761494	-0.787459	159.764533	-0.787459	159.764533	-9.596516	114.632821
3.600000	-10.399934	19.740555	-0.755651	156.461032	-0.755651	156.461032	-9.899130	115.034183
3.650000	-10.739342	12.327806	-0.728569	153.133644	-0.728569	153.133644	-10.182950	115.724099
3.700000	-11.051958	4.522985	-0.706488	149.785227	-0.706488	149.785227	-10.438903	116.697930
3.750000	-11.325558	-3.655390	-0.689636	146.418831	-0.689636	146.418831	-10.657351	117.935562
3.800000	-11.545998	-12.170496	-0.678312	143.037425	-0.678312	143.037425	-10.827610	119.402401
3.850000	-11.702735	-20.943158	-0.672526	139.644734	-0.672526	139.644734	-10.942542	121.034677
3.900000	-11.786839	-29.877611	-0.672342	136.244153	-0.672342	136.244153	-10.996402	122.758725
3.950000	-11.793546	-38.860741	-0.677771	132.839098	-0.677771	132.839098	-10.986640	124.491164
4.000000	-11.723126	-47.773865	-0.688767	129.432950	-0.688767	129.432950	-10.914301	126.146986
4.050000	-11.580809	-56.505970	-0.705228	126.029010	-0.705228	126.029010	-10.783836	127.647984
4.100000	-11.375812	-64.964867	-0.727001	122.630458	-0.727001	122.630458	-10.602409	128.929592
4.150000	-11.119797	-73.083681	-0.753885	119.240305	-0.753885	119.240305	-10.378887	129.944862
4.200000	-10.825254	-80.822090	-0.785636	115.861362	-0.785636	115.861362	-10.122793	130.665291
4.250000	-10.504179	-88.163415	-0.821967	112.496205	-0.821967	112.496205	-9.843411	131.079133
4.300000	-10.167208	-95.109488	-0.862561	109.147155	-0.862561	109.147155	-9.549179	131.188199
4.350000	-9.823212	-101.675006	-0.907072	105.816256	-0.907072	105.816256	-9.247343	131.004175
4.400000	-9.479143	-107.878936	-0.955164	102.505497	-0.955164	102.505497	-8.943773	130.542405
4.450000	-9.140499	-113.748740	-1.006439	99.216380	-1.006439	99.216380	-8.643290	129.825297
4.500000	-8.811254	-119.316024	-1.060468	95.949840	-1.060468	95.949840	-8.349542	128.878840
4.550000	-8.494064	-124.607864	-1.116853	92.706739	-1.116853	92.706739	-8.065094	127.725814
4.600000	-8.190670	-129.649759	-1.175198	89.487665	-1.175198	89.487665	-7.791738	126.387877
4.650000	-7.902106	-134.465154	-1.235110	86.292940	-1.235110	86.292940	-7.530651	124.885046
4.700000	-7.628882	-139.075288	-1.296209	83.122642	-1.296209	83.122642	-7.282531	123.235452
4.750000	-7.371123	-143.499220	-1.358123	79.976619	-1.358123	79.976619	-7.047714	121.455270
4.800000	-7.128678	-147.753957	-1.420499	76.854511	-1.420499	76.854511	-6.826261	119.558764
4.850000	-6.901199	-151.854638	-1.482999	73.755770	-1.482999	73.755770	-6.618035	117.558401
4.900000	-6.688212	-155.814729	-1.545305	70.679677	-1.545305	70.679677	-6.422756	115.464991
4.950000	-6.489156	-159.646216	-1.607120	67.625368	-1.607120	67.625368	-6.240048	113.287847
5.000000	-6.303422	-163.359785	-1.668168	64.591850	-1.668168	64.591850	-6.069467	111.034948
5.050000	-6.131007	-166.957924	-1.728073	61.579330	-1.728073	61.579330	-5.911132	108.708614
5.100000	-5.969818	-170.465725	-1.786870	58.583549	-1.786870	58.583549	-5.763159	106.325054
5.150000	-5.820578	-173.875845	-1.844081	55.606013	-1.844081	55.606013	-5.626333	103.879546
5.200000	-5.681838	-177.203817	-1.899705	52.643777	-1.899705	52.643777	-5.499351	101.381580
5.250000	-5.553328	179.547315	-1.953496	49.696053	-1.953496	49.696053	-5.382032	98.832408
5.300000	-5.434627	176.373337	-2.005265	46.761685	-2.005265	46.761685	-5.274046	96.233783
5.350000	-5.324600	173.263685	-2.055069	43.838295	-2.055069	43.838295	-5.174353	93.591526
5.400000	-5.223732	170.222465	-2.102473	40.925877	-2.102473	40.925877	-5.083501	90.901269
5.450000	-5.130298	167.234762	-2.147824	38.021342	-2.147824	38.021342	-4.999848	88.171953
5.500000	-5.045158	164.307597	-2.190561	35.124746	-2.190561	35.124746	-4.924317	85.396368
5.550000	-4.966734	161.428033	-2.231080	32.233486	-2.231080	32.233486	-4.855388	82.582483
5.600000	-4.895355	158.598580	-2.269044	29.346744	-2.269044	29.346744	-4.793455	79.725978
5.650000	-4.830291	155.813483	-2.304585	26.462903	-2.304585	26.462903	-4.737836	76.829457
5.700000	-4.771189	153.069954	-2.337696	23.580595	-2.337696	23.580595	-4.688229	73.892981
5.750000	-4.718028	150.367768	-2.368236	20.698526	-2.368236	20.698526	-4.644673	70.914109
5.800000	-4.669891	147.700114	-2.396521	17.815462	-2.396521	17.815462	-4.606272	67.897353
5.850000	-4.627339	145.071019	-2.422149	14.929810	-2.422149	14.929810	-4.573679	64.835257
5.900000	-4.589171	142.471841	-2.445641	12.040902	-2.445641	12.040902	-4.545679	61.735407
5.950000	-4.555904	139.906270	-2.466635	9.146845	-2.466635	9.146845	-4.522892	58.590072
6.000000	-4.526701	137.368446	-2.485511	6.247216	-2.485511	6.247216	-4.504471	55.404456
6.050000	-4.501634	134.858970	-2.502172	3.340460	-2.502172	3.340460	-4.490562	52.174717
6.100000	-4.480397	132.375810	-2.516742	0.425701	-2.516742	0.425701	-4.480889	48.901140
6.150000	-4.462623	129.916585	-2.529391	-2.497691	-2.529391	-2.497691	-4.475109	45.584873
6.200000	-4.448427	127.482302	-2.540029	-5.431530	-2.540029	-5.431530	-4.473423	42.221080
6.250000	-4.437100	125.068226	-2.549045	-8.375058	-2.549045	-8.375058	-4.475080	38.816210
6.300000	-4.429076	122.677760	-2.556184	-11.331432	-2.556184	-11.331432	-4.480669	35.360106
6.350000	-4.423542	120.305407	-2.561909	-14.298882	-2.561909	-14.298882	-4.489293	31.862088
6.400000	-4.420712	117.953151	-2.566106	-17.279973	-2.566106	-17.279973	-4.501294	28.314640
6.450000	-4.420152	115.618200	-2.569032	-20.274029	-2.569032	-20.274029	-4.516212	24.721970
6.500000	-4.421758	113.300257	-2.570763	-23.282093	-2.570763	-23.282093	-4.534001	21.082052
6.550000	-4.425377	110.998684	-2.571404	-26.304888	-2.571404	-26.304888	-4.554554	17.393847
6.600000	-4.430677	108.711349	-2.571160	-29.341672	-2.571160	-29.341672	-4.577511	13.660971
6.650000	-4.437696	106.439267	-2.570042	-32.394783	-2.570042	-32.394783	-4.603035	9.877125
6.700000	-4.445991	104.179126	-2.568306	-35.461828	-2.568306	-35.461828	-4.630577	6.050665
6.750000	-4.455629	101.932395	-2.565959	-38.545978	-2.565959	-38.545978	-4.660364	2.172871
6.800000	-4.466235	99.696035	-2.563213	-41.644648	-2.563213	-41.644648	-4.691906	-1.747755
6.850000	-4.477748	97.470292	-2.560140	-44.759716	-2.560140	-44.759716	-4.725234	-5.715989
6.900000	-4.489956	95.253558	-2.556868	-47.890277	-2.556868	-47.890277	-4.760096	-9.728523
6.950000	-4.502702	93.044763	-2.553506	-51.036281	-2.553506	-51.036281	-4.796327	-13.784559
7.000000	-4.515860	90.843224	-2.550152	-54.198534	-2.550152	-54.198534	-4.833832	-17.885696
7.050000	-4.529257	88.647070	-2.546892	-57.375098	-2.546892	-57.375098	-4.872337	-22.025955
7.100000	-4.542790	86.455995	-2.543839	-60.568451	-2.543839	-60.568451	-4.911823	-26.211376
7.150000	-4.556334	84.267993	-2.541029	-63.775446	-2.541029	-63.775446	-4.952007	-30.432874
7.200000	-4.569776	82.082309	-2.538580	-66.998429	-2.538580	-66.998429	-4.992829	-34.695878
7.250000	-4.583050	79.897462	-2.536502	-70.235148	-2.536502	-70.235148	-5.034101	-38.993831
7.300000	-4.596072	77.712222	-2.534873	-73.486436	-2.534873	-73.486436	-5.075709	-43.328032
7.350000	-4.608796	75.525341	-2.533721	-76.751735	-2.533721	-76.751735	-5.117532	-47.696254
7.400000	-4.621203	73.335667	-2.533052	-80.030229	-2.533052	-80.030229	-5.159463	-52.095644
7.450000	-4.633244	71.141627	-2.532928	-83.322951	-2.532928	-83.322951	-5.201395	-56.527640
7.500000	-4.644981	68.942786	-2.533273	-86.627603	-2.533273	-86.627603	-5.243283	-60.986086
7.550000	-4.656368	66.736722	-2.534187	-89.946721	-2.534187	-89.946721	-5.285000	-65.475429
7.600000	-4.667514	64.523805	-2.535543	-93.277386	-2.535543	-93.277386	-5.326573	-69.988460
7.650000	-4.678443	62.301822	-2.537385	-96.621416	-2.537385	-96.621416	-5.367915	-74.527795
7.700000	-4.689255	60.070717	-2.539628	-99.977512	-2.539628	-99.977512	-5.409057	-79.089872
7.750000	-4.700043	57.829296	-2.542237	-103.346131	-2.542237	-103.346131	-5.449996	-83.674529
7.800000	-4.710914	55.577172	-2.545149	-106.726978	-2.545149	-106.726978	-5.490770	-88.280362
7.850000	-4.722011	53.313072	-2.548307	-110.120897	-2.548307	-110.120897	-5.531413	-92.907908
7.900000	-4.733477	51.036920	-2.551625	-113.527652	-2.551625	-113.527652	-5.572010	-97.556015
7.950000	-4.745508	48.747654	-2.555021	-116.948319	-2.555021	-116.948319	-5.612650	-102.225764
8.000000	-4.758191	46.446738	-2.558404	-120.381524	-2.558404	-120.381524	-5.653454	-106.914649
8.050000	-4.771735	44.133384	-2.561689	-123.828530	-2.561689	-123.828530	-5.694538	-111.624396
8.100000	-4.786458	41.806314	-2.564754	-127.291591	-2.564754	-127.291591	-5.736081	-116.358404
8.150000	-4.802410	39.467584	-2.567531	-130.769341	-2.567531	-130.769341	-5.778214	-121.114827
8.200000	-4.819782	37.117570	-2.569932	-134.262541	-2.569932	-134.262541	-5.821095	-125.895221
8.250000	-4.839036	34.755274	-2.571788	-137.774661	-2.571788	-137.774661	-5.865029	-130.705771
8.300000	-4.860229	32.382768	-2.573052	-141.304978	-2.573052	-141.304978	-5.910148	-135.546297
8.350000	-4.883515	30.001329	-2.573659	-144.854037	-2.573659	-144.854037	-5.956623	-140.418779
8.400000	-4.909258	27.611636	-2.573482	-148.424362	-2.573482	-148.424362	-6.004749	-145.328919
8.450000	-4.937762	25.215083	-2.572421	-152.017963	-2.572421	-152.017963	-6.054801	-150.282011
8.500000	-4.969275	22.813625	-2.570403	-155.636483	-2.570403	-155.636483	-6.107027	-155.283160
8.550000	-5.003938	20.409459	-2.567403	-159.280832	-2.567403	-159.280832	-6.161600	-160.336246
8.600000	-5.042192	18.004956	-2.563308	-162.954666	-2.563308	-162.954666	-6.218896	-165.451210
8.650000	-5.084117	15.602929	-2.558135	-166.658784	-2.558135	-166.658784	-6.279044	-170.632475
8.700000	-5.130036	13.206609	-2.551838	-170.396337	-2.551838	-170.396337	-6.342333	-175.889942
8.750000	-5.180192	10.819801	-2.544410	-174.170162	-2.544410	-174.170162	-6.408989	178.766477
8.800000	-5.234654	8.446230	-2.535909	-177.981871	-2.535909	-177.981871	-6.479100	173.329454
8.850000	-5.293824	6.091693	-2.526319	178.163055	-2.526319	178.163055	-6.552980	167.781285
8.900000	-5.357558	3.760419	-2.515782	174.263867	-2.515782	174.263867	-6.630515	162.115787
8.950000	-5.426038	1.459240	-2.504381	170.315513	-2.504381	170.315513	-6.711797	156.314952
9.000000	-5.499163	-0.805180	-2.492287	166.314563	-2.492287	166.314563	-6.796659	150.364327
9.050000	-5.576781	-3.024743	-2.479711	162.256368	-2.479711	162.256368	-6.884827	144.245382
9.100000	-5.658432	-5.193068	-2.466933	158.138806	-2.466933	158.138806	-6.975746	137.946782
9.150000	-5.743699	-7.297944	-2.454315	153.954015	-2.454315	153.954015	-7.068705	131.438973
9.200000	-5.831626	-9.335844	-2.442239	149.703236	-2.442239	149.703236	-7.162636	124.720963
9.250000	-5.921244	-11.288057	-2.431337	145.373389	-2.431337	145.373389	-7.255963	117.745682
9.300000	-6.011033	-13.154077	-2.422107	140.968307	-2.422107	140.968307	-7.346968	110.521298
9.350000	-6.099033	-14.917220	-2.415446	136.477025	-2.415446	136.477025	-7.432891	103.008263
9.400000	-6.182765	-16.570121	-2.412256	131.896112	-2.412256	131.896112	-7.510565	95.193515
9.450000	-6.259181	-18.105932	-2.413617	127.221106	-2.413617	127.221106	-7.576086	87.063496
9.500000	-6.324817	-19.522439	-2.420689	122.449186	-2.420689	122.449186	-7.625134	78.614285
9.550000	-6.375640	-20.820629	-2.434828	117.577170	-2.434828	117.577170	-7.652774	69.846292
9.600000	-6.407036	-22.006697	-2.457615	112.601960	-2.457615	112.601960	-7.653555	60.767634
9.650000	-6.414072	-23.094901	-2.490827	107.521571	-2.490827	107.521571	-7.621962	51.399134
9.700000	-6.392566	-24.110419	-2.536110	102.337844	-2.536110	102.337844	-7.553869	41.781077
9.750000	-6.338599	-25.085798	-2.595341	97.052676	-2.595341	97.052676	-7.445860	31.961498
9.800000	-6.249132	-26.062292	-2.670524	91.669484	-2.670524	91.669484	-7.295982	21.998778
9.850000	-6.122166	-27.089774	-2.763906	86.192888	-2.763906	86.192888	-7.103785	11.959513
9.900000	-5.958948	-28.219841	-2.877077	80.632913	-2.877077	80.632913	-6.872585	1.915388
9.950000	-5.762071	-29.503776	-3.011802	74.999946	-3.011802	74.999946	-6.606837	-8.066480
10.000000	-5.536092	-30.988306	-3.169648	69.306519	-3.169648	69.306519	-6.312556	-17.924881
