! freq	dB(S11)	phase(S11)	dB(S12)	phase(S12)	
!     	dB(S21)	phase(S21)	dB(S22)	phase(S22)	
!S-par simulation data
#  GHz  S  DB  R 50
0.000000	-0.000000	-0.000000	-372.362637	180.000000	-372.362637	180.000000	-0.000000	-0.000000
0.050000	-0.000103	-0.765991	-118.264343	89.356161	-118.264343	89.356161	-0.000103	-0.765997
0.100000	-0.000406	-1.531722	-112.297300	88.717575	-112.297300	88.717575	-0.000406	-1.531734
0.150000	-0.000901	-2.296937	-108.869410	88.094965	-108.869410	88.094965	-0.000901	-2.296954
0.200000	-0.001554	-3.061489	-106.498238	87.501209	-106.498238	87.501209	-0.001555	-3.061510
0.250000	-0.002347	-3.825211	-104.726788	86.954510	-104.726788	86.954510	-0.002348	-3.825236
0.300000	-0.003265	-4.587905	-103.361683	86.483013	-103.361683	86.483013	-0.003266	-4.587934
0.350000	-0.004261	-5.349678	-102.276542	86.097517	-102.276542	86.097517	-0.004263	-5.349711
0.400000	-0.005327	-6.110368	-101.424984	85.839471	-101.424984	85.839471	-0.005328	-6.110403
0.450000	-0.006434	-6.870074	-100.757892	85.732810	-100.757892	85.732810	-0.006435	-6.870112
0.500000	-0.007568	-7.628782	-100.255737	85.827123	-100.255737	85.827123	-0.007569	-7.628822
0.550000	-0.008715	-8.386539	-99.902236	86.179116	-99.902236	86.179116	-0.008716	-8.386582
0.600000	-0.009864	-9.143389	-99.688166	86.866371	-99.688166	86.866371	-0.009865	-9.143436
0.650000	-0.011008	-9.899378	-99.608403	87.995158	-99.608403	87.995158	-0.011009	-9.899428
0.700000	-0.012142	-10.654545	-99.660023	89.713595	-99.660023	89.713595	-0.012142	-10.654599
0.750000	-0.013262	-11.408929	-99.839582	92.230403	-99.839582	92.230403	-0.013262	-11.408987
0.800000	-0.014368	-12.162557	-100.138120	95.838951	-100.138120	95.838951	-0.014368	-12.162619
0.850000	-0.015455	-12.915330	-100.521953	101.348245	-100.521953	101.348245	-0.015455	-12.915397
0.900000	-0.016527	-13.667357	-100.938736	108.939851	-100.938736	108.939851	-0.016527	-13.667429
0.950000	-0.017591	-14.419019	-101.248306	117.765450	-101.248306	117.765450	-0.017591	-14.419096
1.000000	-0.018634	-15.169586	-101.181866	130.293033	-101.181866	130.293033	-0.018634	-15.169667
1.050000	-0.019673	-15.919909	-100.908115	142.828295	-100.908115	142.828295	-0.019673	-15.919995
1.100000	-0.020692	-16.669016	-99.699947	155.401960	-99.699947	155.401960	-0.020692	-16.669107
1.150000	-0.021710	-17.417998	-98.553163	167.564038	-98.553163	167.564038	-0.021709	-17.418094
1.200000	-0.022710	-18.165617	-96.737613	175.198654	-96.737613	175.198654	-0.022710	-18.165718
1.250000	-0.023711	-18.913236	-95.236728	-177.166730	-95.236728	-177.166730	-0.023710	-18.913341
1.300000	-0.024700	-19.659711	-93.575664	-172.697746	-93.575664	-172.697746	-0.024700	-19.659821
1.350000	-0.025684	-20.405437	-91.999706	-169.571513	-91.999706	-169.571513	-0.025684	-20.405551
1.400000	-0.026663	-21.150400	-90.518264	-167.429246	-90.518264	-167.429246	-0.026663	-21.150518
1.450000	-0.027637	-21.894585	-89.129041	-166.013620	-89.129041	-166.013620	-0.027637	-21.894707
1.500000	-0.028608	-22.637978	-87.825257	-165.142311	-87.825257	-165.142311	-0.028608	-22.638104
1.550000	-0.029576	-23.380562	-86.598909	-164.685556	-86.598909	-164.685556	-0.029577	-23.380691
1.600000	-0.030542	-24.122321	-85.442140	-164.549874	-85.442140	-164.549874	-0.030542	-24.122454
1.650000	-0.031506	-24.863240	-84.347768	-164.666887	-84.347768	-164.666887	-0.031506	-24.863377
1.700000	-0.032468	-25.602997	-83.285788	-165.038233	-83.285788	-165.038233	-0.032468	-25.603138
1.750000	-0.033429	-26.342302	-82.308347	-165.500903	-82.308347	-165.500903	-0.033430	-26.342446
1.800000	-0.034390	-27.080518	-81.362007	-166.115474	-81.362007	-166.115474	-0.034390	-27.080664
1.850000	-0.035350	-27.817955	-80.465068	-166.838545	-80.465068	-166.838545	-0.035351	-27.818104
1.900000	-0.036310	-28.554424	-79.602712	-167.651265	-79.602712	-167.651265	-0.036311	-28.554577
1.950000	-0.037271	-29.289925	-78.773374	-168.553633	-78.773374	-168.553633	-0.037272	-29.290081
2.000000	-0.038232	-30.024592	-77.980831	-169.509480	-77.980831	-169.509480	-0.038233	-30.024750
2.050000	-0.039194	-30.758090	-77.209051	-170.540197	-77.209051	-170.540197	-0.039195	-30.758250
2.100000	-0.040157	-31.490898	-76.475475	-171.602525	-76.475475	-171.602525	-0.040158	-31.491061
2.150000	-0.041122	-32.222327	-75.753342	-172.728073	-75.753342	-172.728073	-0.041123	-32.222493
2.200000	-0.042088	-32.953224	-75.070271	-173.871598	-75.070271	-173.871598	-0.042089	-32.953392
2.250000	-0.043058	-33.682521	-74.391463	-175.069052	-74.391463	-175.069052	-0.043059	-33.682691
2.300000	-0.044028	-34.411453	-73.752175	-176.275790	-73.752175	-176.275790	-0.044029	-34.411626
2.350000	-0.045003	-35.138557	-73.111565	-177.528947	-73.111565	-177.528947	-0.045003	-35.138732
2.400000	-0.045978	-35.865474	-72.510637	-178.785765	-72.510637	-178.785765	-0.045979	-35.865651
2.450000	-0.046959	-36.590326	-71.904008	179.917150	-71.904008	179.917150	-0.046960	-36.590505
2.500000	-0.047941	-37.315177	-71.336995	178.620066	-71.336995	178.620066	-0.047942	-37.315359
2.550000	-0.048931	-38.037720	-70.760835	177.287824	-70.760835	177.287824	-0.048932	-38.037903
2.600000	-0.049921	-38.760263	-70.220528	175.955581	-70.220528	175.955581	-0.049921	-38.760448
2.650000	-0.050919	-39.480639	-69.675401	174.597222	-69.675401	174.597222	-0.050920	-39.480826
2.700000	-0.051919	-40.200818	-69.159356	173.236488	-69.159356	173.236488	-0.051919	-40.201007
2.750000	-0.052927	-40.918984	-68.642090	171.856315	-68.642090	171.856315	-0.052928	-40.919174
2.800000	-0.053938	-41.636747	-68.148211	170.472254	-68.148211	170.472254	-0.053938	-41.636939
2.850000	-0.054957	-42.352660	-67.656112	169.073745	-67.656112	169.073745	-0.054958	-42.352855
2.900000	-0.055980	-43.067958	-67.182584	167.670419	-67.182584	167.670419	-0.055981	-43.068154
2.950000	-0.057013	-43.781580	-66.713345	166.256415	-66.713345	166.256415	-0.057013	-43.781778
3.000000	-0.058050	-44.494365	-66.258583	164.837070	-66.258583	164.837070	-0.058050	-44.494564
3.050000	-0.059096	-45.205657	-65.810209	163.409912	-65.810209	163.409912	-0.059096	-45.205858
3.100000	-0.060148	-45.915884	-65.372820	161.977172	-65.372820	161.977172	-0.060149	-45.916087
3.150000	-0.061209	-46.624811	-64.943577	160.538808	-64.943577	160.538808	-0.061210	-46.625015
3.200000	-0.062279	-47.332439	-64.522331	159.094820	-64.522331	159.094820	-0.062280	-47.332644
3.250000	-0.063356	-48.038967	-64.110698	157.646883	-64.110698	157.646883	-0.063357	-48.039173
3.300000	-0.064445	-48.743955	-63.704498	156.193420	-63.704498	156.193420	-0.064446	-48.744163
3.350000	-0.065540	-49.448052	-63.309136	154.737292	-63.309136	154.737292	-0.065541	-49.448261
3.400000	-0.066649	-50.150364	-62.917003	153.275834	-62.917003	153.275834	-0.066649	-50.150575
3.450000	-0.067763	-50.852000	-62.536724	151.812689	-62.536724	151.812689	-0.067764	-50.852211
3.500000	-0.068893	-51.551603	-62.157778	150.344482	-62.157778	150.344482	-0.068894	-51.551816
3.550000	-0.070028	-52.250750	-61.791524	148.875326	-61.791524	148.875326	-0.070029	-52.250963
3.600000	-0.071182	-52.947613	-61.424971	147.401425	-61.424971	147.401425	-0.071183	-52.947827
3.650000	-0.072338	-53.644245	-61.071795	145.927125	-61.071795	145.927125	-0.072339	-53.644460
3.700000	-0.073517	-54.338339	-60.716915	144.448433	-60.716915	144.448433	-0.073518	-54.338555
3.750000	-0.074697	-55.032433	-60.375967	142.969741	-60.375967	142.969741	-0.074697	-55.032649
3.800000	-0.075902	-55.723732	-60.032105	141.487033	-60.032105	141.487033	-0.075903	-55.723950
3.850000	-0.077108	-56.415032	-59.701339	140.004325	-59.701339	140.004325	-0.077109	-56.415250
3.900000	-0.078340	-57.103750	-59.369176	138.518551	-59.369176	138.518551	-0.078341	-57.103968
3.950000	-0.079575	-57.792233	-59.048063	137.032497	-59.048063	137.032497	-0.079576	-57.792452
4.000000	-0.080834	-58.478352	-58.726884	135.544142	-58.726884	135.544142	-0.080835	-58.478572
4.050000	-0.082098	-59.163998	-58.414939	134.055327	-58.414939	134.055327	-0.082099	-59.164219
4.100000	-0.083386	-59.847505	-58.104097	132.564823	-58.104097	132.564823	-0.083387	-59.847726
4.150000	-0.084683	-60.530298	-57.800871	131.073756	-57.800871	131.073756	-0.084683	-60.530519
4.200000	-0.086001	-61.211180	-57.499776	129.581488	-57.499776	129.581488	-0.086002	-61.211402
4.250000	-0.087330	-61.891106	-57.204856	128.088618	-57.204856	128.088618	-0.087331	-61.891328
4.300000	-0.088680	-62.569353	-56.912967	126.594929	-56.912967	126.594929	-0.088681	-62.569575
4.350000	-0.090044	-63.246401	-56.625970	125.100654	-56.625970	125.100654	-0.090045	-63.246623
4.400000	-0.091426	-63.922005	-56.342793	123.605853	-56.342793	123.605853	-0.091428	-63.922227
4.450000	-0.092827	-64.596166	-56.063364	122.110524	-56.063364	122.110524	-0.092828	-64.596389
4.500000	-0.094244	-65.269122	-55.788442	120.614888	-55.788442	120.614888	-0.094245	-65.269345
4.550000	-0.095683	-65.940391	-55.516252	119.118821	-55.516252	119.118821	-0.095684	-65.940614
4.600000	-0.097135	-66.610695	-55.249167	117.622602	-55.249167	117.622602	-0.097137	-66.610917
4.650000	-0.098614	-67.279069	-54.983908	116.126078	-54.983908	116.126078	-0.098616	-67.279291
4.700000	-0.100104	-67.946719	-54.724273	114.629503	-54.724273	114.629503	-0.100105	-67.946941
4.750000	-0.101624	-68.612198	-54.465657	113.132776	-54.465657	113.132776	-0.101626	-68.612420
4.800000	-0.103152	-69.277195	-54.213113	111.636053	-54.213113	111.636053	-0.103154	-69.277417
4.850000	-0.104716	-69.939781	-53.960873	110.139353	-53.960873	110.139353	-0.104717	-69.940003
4.900000	-0.106284	-70.602127	-53.715088	108.642672	-53.715088	108.642672	-0.106285	-70.602348
4.950000	-0.107892	-71.261826	-53.468971	107.146207	-53.468971	107.146207	-0.107894	-71.262048
5.000000	-0.109501	-71.921525	-53.229636	105.649741	-53.229636	105.649741	-0.109503	-71.921747
5.050000	-0.111156	-72.578345	-52.989408	104.153702	-52.989408	104.153702	-0.111158	-72.578566
5.100000	-0.112812	-73.235165	-52.755645	102.657663	-52.755645	102.657663	-0.112813	-73.235386
5.150000	-0.114511	-73.889355	-52.521673	101.162173	-52.521673	101.162173	-0.114513	-73.889576
5.200000	-0.116215	-74.543306	-52.293279	99.666734	-52.293279	99.666734	-0.116217	-74.543527
5.250000	-0.117960	-75.194877	-52.065291	98.171929	-52.065291	98.171929	-0.117962	-75.195097
5.300000	-0.119714	-75.845972	-51.842074	96.677251	-51.842074	96.677251	-0.119716	-75.846192
5.350000	-0.121506	-76.494937	-51.619815	95.183254	-51.619815	95.183254	-0.121508	-76.495156
5.400000	-0.123312	-77.143191	-51.401594	93.689485	-51.401594	93.689485	-0.123313	-77.143410
5.450000	-0.125152	-77.789563	-51.184823	92.196412	-51.184823	92.196412	-0.125154	-77.789782
5.500000	-0.127011	-78.434994	-50.971428	90.703689	-50.971428	90.703689	-0.127013	-78.435213
5.550000	-0.128902	-79.078790	-50.759921	89.211650	-50.759921	89.211650	-0.128904	-79.079008
5.600000	-0.130815	-79.721418	-50.551191	87.720101	-50.551191	87.720101	-0.130817	-79.721636
5.650000	-0.132758	-80.362655	-50.344737	86.229197	-50.344737	86.229197	-0.132759	-80.362874
5.700000	-0.134728	-81.002502	-50.140517	84.738939	-50.140517	84.738939	-0.134730	-81.002721
5.750000	-0.136723	-81.641201	-49.938919	83.249266	-49.938919	83.249266	-0.136725	-81.641419
5.800000	-0.138752	-82.278292	-49.739063	81.760412	-49.739063	81.760412	-0.138754	-82.278510
5.850000	-0.140801	-82.914473	-49.542134	80.272059	-49.542134	80.272059	-0.140803	-82.914691
5.900000	-0.142890	-83.548834	-49.346504	78.784711	-49.346504	78.784711	-0.142892	-83.549052
5.950000	-0.144994	-84.182520	-49.154068	77.297763	-49.154068	77.297763	-0.144997	-84.182738
6.000000	-0.147145	-84.814180	-48.962532	75.812017	-48.962532	75.812017	-0.147147	-84.814398
6.050000	-0.149307	-85.445396	-48.774423	74.326553	-48.774423	74.326553	-0.149309	-85.445614
6.100000	-0.151521	-86.074386	-48.586855	72.842499	-48.586855	72.842499	-0.151523	-86.074604
6.150000	-0.153741	-86.703156	-48.402917	71.358594	-48.402917	71.358594	-0.153744	-86.703374
6.200000	-0.156021	-87.329509	-48.219196	69.876316	-48.219196	69.876316	-0.156023	-87.329727
6.250000	-0.158301	-87.955862	-48.039281	68.394039	-48.039281	68.394039	-0.158303	-87.956081
6.300000	-0.160647	-88.579612	-47.859292	66.913615	-47.859292	66.913615	-0.160650	-88.579831
6.350000	-0.162995	-89.203362	-47.682957	65.433191	-47.682957	65.433191	-0.162997	-89.203582
6.400000	-0.165404	-89.824761	-47.506891	63.954532	-47.506891	63.954532	-0.165406	-89.824980
6.450000	-0.167820	-90.445945	-47.334034	62.476033	-47.334034	62.476033	-0.167822	-90.446165
6.500000	-0.170293	-91.065023	-47.161755	60.999193	-47.161755	60.999193	-0.170296	-91.065243
6.550000	-0.172779	-91.683680	-46.992278	59.522685	-46.992278	59.522685	-0.172782	-91.683901
6.600000	-0.175319	-92.300471	-46.823655	58.047714	-46.823655	58.047714	-0.175321	-92.300692
6.650000	-0.177877	-92.916640	-46.657462	56.573257	-46.657462	56.573257	-0.177879	-92.916862
6.700000	-0.180483	-93.531180	-46.492374	55.100201	-46.492374	55.100201	-0.180486	-93.531402
6.750000	-0.183115	-94.144904	-46.329374	53.627847	-46.329374	53.627847	-0.183118	-94.145127
6.800000	-0.185790	-94.757227	-46.167702	52.156747	-46.167702	52.156747	-0.185793	-94.757451
6.850000	-0.188497	-95.368549	-46.007809	50.686543	-46.007809	50.686543	-0.188500	-95.368774
6.900000	-0.191242	-95.978694	-45.849441	49.217434	-45.849441	49.217434	-0.191245	-95.978920
6.950000	-0.194026	-96.587660	-45.692569	47.749421	-45.692569	47.749421	-0.194029	-96.587887
7.000000	-0.196842	-97.195664	-45.537399	46.282334	-45.537399	46.282334	-0.196845	-97.195892
7.050000	-0.199704	-97.802321	-45.383467	44.816545	-45.383467	44.816545	-0.199708	-97.802549
7.100000	-0.202593	-98.408224	-45.231394	43.351506	-45.231394	43.351506	-0.202597	-98.408454
7.150000	-0.205536	-99.012620	-45.080323	41.887967	-45.080323	41.887967	-0.205539	-99.012851
7.200000	-0.208499	-99.616463	-44.931249	40.424995	-44.931249	40.424995	-0.208502	-99.616695
7.250000	-0.211523	-100.218648	-44.782963	38.963725	-44.782963	38.963725	-0.211526	-100.218882
7.300000	-0.214561	-100.820473	-44.636795	37.502836	-44.636795	37.502836	-0.214565	-100.820708
7.350000	-0.217669	-101.420499	-44.491222	36.043846	-44.491222	36.043846	-0.217672	-101.420735
7.400000	-0.220784	-102.020349	-44.347872	34.585046	-44.347872	34.585046	-0.220788	-102.020587
7.450000	-0.223976	-102.618269	-44.204941	33.128340	-44.204941	33.128340	-0.223980	-102.618508
7.500000	-0.227169	-103.216189	-44.064323	31.671633	-44.064323	31.671633	-0.227173	-103.216429
7.550000	-0.230447	-103.812056	-43.923966	30.217204	-43.923966	30.217204	-0.230451	-103.812298
7.600000	-0.233726	-104.407924	-43.785840	28.762774	-43.785840	28.762774	-0.233731	-104.408168
7.650000	-0.237085	-105.001962	-43.648151	27.310419	-43.648151	27.310419	-0.237090	-105.002207
7.700000	-0.240453	-105.595834	-43.512455	25.858252	-43.512455	25.858252	-0.240457	-105.596081
7.750000	-0.243893	-106.188091	-43.377354	24.407952	-43.377354	24.407952	-0.243898	-106.188339
7.800000	-0.247350	-106.780024	-43.244029	22.958025	-43.244029	22.958025	-0.247354	-106.780273
7.850000	-0.250874	-107.370547	-43.111442	21.509753	-43.111442	21.509753	-0.250878	-107.370798
7.900000	-0.254421	-107.960600	-42.980430	20.062032	-42.980430	20.062032	-0.254426	-107.960853
7.950000	-0.258029	-108.549440	-42.850285	18.615754	-42.850285	18.615754	-0.258034	-108.549694
8.000000	-0.261668	-109.137673	-42.721530	17.170198	-42.721530	17.170198	-0.261673	-109.137929
8.050000	-0.265362	-109.724880	-42.593759	15.725873	-42.593759	15.725873	-0.265367	-109.725138
8.100000	-0.269095	-110.311354	-42.467209	14.282428	-42.467209	14.282428	-0.269099	-110.311614
8.150000	-0.272875	-110.896981	-42.341746	12.840008	-42.341746	12.840008	-0.272880	-110.897242
8.200000	-0.276702	-111.481759	-42.217350	11.398613	-42.217350	11.398613	-0.276707	-111.482022
8.250000	-0.280570	-112.065857	-42.094133	9.958042	-42.094133	9.958042	-0.280575	-112.066121
8.300000	-0.284493	-112.649003	-41.971844	8.518624	-41.971844	8.518624	-0.284498	-112.649269
8.350000	-0.288449	-113.231627	-41.850814	7.079837	-41.850814	7.079837	-0.288454	-113.231895
8.400000	-0.292470	-113.813207	-41.730585	5.642314	-41.730585	5.642314	-0.292475	-113.813475
8.450000	-0.296516	-114.394411	-41.611687	4.205241	-41.611687	4.205241	-0.296521	-114.394681
8.500000	-0.300634	-114.974490	-41.493476	2.769520	-41.493476	2.769520	-0.300640	-114.974762
8.550000	-0.304771	-115.554330	-41.376656	1.334081	-41.376656	1.334081	-0.304776	-115.554603
8.600000	-0.308989	-116.132977	-41.260422	-0.099941	-41.260422	-0.099941	-0.308995	-116.133251
8.650000	-0.313218	-116.711510	-41.145630	-1.533831	-41.145630	-1.533831	-0.313223	-116.711786
8.700000	-0.317536	-117.288794	-41.031336	-2.966266	-41.031336	-2.966266	-0.317541	-117.289070
8.750000	-0.321857	-117.866077	-40.918526	-4.398702	-40.918526	-4.398702	-0.321862	-117.866355
8.800000	-0.326277	-118.442068	-40.806137	-5.829673	-40.806137	-5.829673	-0.326282	-118.442347
8.850000	-0.330699	-119.018059	-40.695183	-7.260644	-40.695183	-7.260644	-0.330704	-119.018339
8.900000	-0.335213	-119.592931	-40.584749	-8.690393	-40.584749	-8.690393	-0.335218	-119.593212
8.950000	-0.339738	-120.167702	-40.475622	-10.120031	-40.475622	-10.120031	-0.339743	-120.167983
9.000000	-0.344347	-120.741516	-40.367102	-11.548675	-40.367102	-11.548675	-0.344352	-120.741797
9.050000	-0.348975	-121.315138	-40.259774	-12.977121	-40.259774	-12.977121	-0.348980	-121.315420
9.100000	-0.353680	-121.887956	-40.153134	-14.404784	-40.153134	-14.404784	-0.353684	-121.888238
9.150000	-0.358412	-122.460506	-40.047582	-15.832185	-40.047582	-15.832185	-0.358416	-122.460788
9.200000	-0.363213	-123.032391	-39.942787	-17.258995	-39.942787	-17.258995	-0.363217	-123.032673
9.250000	-0.368050	-123.603944	-39.838990	-18.685509	-39.838990	-18.685509	-0.368053	-123.604225
9.300000	-0.372947	-124.174960	-39.736012	-20.111600	-39.736012	-20.111600	-0.372951	-124.175241
9.350000	-0.377889	-124.745593	-39.633953	-21.537389	-39.633953	-21.537389	-0.377892	-124.745873
9.400000	-0.382884	-125.315805	-39.532764	-22.962900	-39.532764	-22.962900	-0.382887	-125.316084
9.450000	-0.387932	-125.885597	-39.432430	-24.388133	-39.432430	-24.388133	-0.387934	-125.885875
9.500000	-0.393025	-126.455072	-39.333008	-25.813206	-39.333008	-25.813206	-0.393027	-126.455349
9.550000	-0.398179	-127.024104	-39.234389	-27.238057	-39.234389	-27.238057	-0.398180	-127.024378
9.600000	-0.403370	-127.592909	-39.136714	-28.662840	-39.136714	-28.662840	-0.403371	-127.593181
9.650000	-0.408631	-128.161261	-39.039804	-30.087485	-39.039804	-30.087485	-0.408631	-128.161531
9.700000	-0.413920	-128.729464	-38.943860	-31.512125	-38.943860	-31.512125	-0.413920	-128.729732
9.750000	-0.419288	-129.297220	-38.848658	-32.936745	-38.848658	-32.936745	-0.419287	-129.297485
9.800000	-0.424676	-129.864891	-38.754431	-34.361391	-38.754431	-34.361391	-0.424674	-129.865153
9.850000	-0.430150	-130.432137	-38.660939	-35.786166	-38.660939	-35.786166	-0.430147	-130.432395
9.900000	-0.435637	-130.999346	-38.568421	-37.210968	-38.568421	-37.210968	-0.435633	-130.999601
9.950000	-0.441218	-131.566167	-38.476646	-38.636077	-38.476646	-38.636077	-0.441214	-131.566417
10.000000	-0.446804	-132.132987	-38.385831	-40.061185	-38.385831	-40.061185	-0.446798	-132.133233
