! freq	dB(S11)	phase(S11)	dB(S12)	phase(S12)	
!     	dB(S21)	phase(S21)	dB(S22)	phase(S22)	
!S-par simulation data
#  GHz  S  DB  R 50
0.000000	-0.000000	0.000000	-331.792268	180.000000	-331.792268	180.000000	-0.000000	-0.000000
0.050000	-0.001949	-2.975785	-89.240940	87.648193	-89.240940	87.648193	-0.001160	-1.819872
0.100000	-0.006601	-5.935411	-83.249549	85.316908	-83.249549	85.316908	-0.003964	-3.631099
0.150000	-0.011962	-8.875441	-79.776393	82.992140	-79.776393	82.992140	-0.007250	-5.432189
0.200000	-0.016982	-11.800080	-77.344331	80.681078	-77.344331	80.681078	-0.010372	-7.226135
0.250000	-0.021421	-14.712547	-75.492705	78.389866	-75.492705	78.389866	-0.013160	-9.015645
0.300000	-0.025379	-17.614222	-74.016354	76.124651	-74.016354	76.124651	-0.015658	-10.802402
0.350000	-0.029025	-20.505302	-72.803717	73.890431	-72.803717	73.890431	-0.017968	-12.587157
0.400000	-0.032474	-23.384721	-71.789913	71.693548	-71.789913	71.693548	-0.020159	-14.369987
0.450000	-0.035801	-26.250444	-70.935575	69.542999	-70.935575	69.542999	-0.022282	-16.150602
0.500000	-0.039055	-29.101591	-70.209325	67.444068	-70.209325	67.444068	-0.024371	-17.928787
0.550000	-0.042259	-31.936657	-69.591085	65.404773	-69.591085	65.404773	-0.026445	-19.704180
0.600000	-0.045419	-34.753285	-69.068845	63.437759	-69.068845	63.437759	-0.028514	-21.476236
0.650000	-0.048540	-37.550658	-68.629581	61.551236	-68.629581	61.551236	-0.030585	-23.244676
0.700000	-0.051620	-40.327679	-68.264387	59.756015	-68.264387	59.756015	-0.032659	-25.009174
0.750000	-0.054651	-43.082461	-67.968525	58.068950	-67.968525	58.068950	-0.034736	-26.769243
0.800000	-0.057629	-45.813900	-67.736762	56.506223	-67.736762	56.506223	-0.036817	-28.524548
0.850000	-0.060549	-48.521253	-67.564383	55.085195	-67.564383	55.085195	-0.038901	-30.274825
0.900000	-0.063405	-51.203674	-67.447982	53.827326	-67.447982	53.827326	-0.040985	-32.019792
0.950000	-0.066193	-53.860259	-67.385006	52.758962	-67.385006	52.758962	-0.043067	-33.759152
1.000000	-0.068908	-56.490297	-67.372948	51.910660	-67.372948	51.910660	-0.045147	-35.492644
1.050000	-0.071547	-59.093175	-67.409292	51.318614	-67.409292	51.318614	-0.047221	-37.220027
1.100000	-0.074109	-61.668372	-67.491191	51.025621	-67.491191	51.025621	-0.049289	-38.941073
1.150000	-0.076590	-64.215460	-67.615036	51.081975	-67.615036	51.081975	-0.051348	-40.655575
1.200000	-0.078991	-66.734092	-67.775890	51.545984	-67.775890	51.545984	-0.053396	-42.363338
1.250000	-0.081311	-69.224004	-67.966714	52.483600	-67.966714	52.483600	-0.055433	-44.064180
1.300000	-0.083550	-71.684373	-68.177368	53.979740	-68.177368	53.979740	-0.057456	-45.757778
1.350000	-0.085709	-74.115710	-68.392591	56.095001	-68.392591	56.095001	-0.059464	-47.444128
1.400000	-0.087790	-76.517967	-68.592288	58.888014	-68.592288	58.888014	-0.061457	-49.123088
1.450000	-0.089796	-78.891154	-68.750485	62.386933	-68.750485	62.386933	-0.063433	-50.794530
1.500000	-0.091729	-81.235340	-68.836398	66.565499	-68.836398	66.565499	-0.065391	-52.458333
1.550000	-0.093592	-83.550646	-68.817992	71.320074	-68.817992	71.320074	-0.067332	-54.114390
1.600000	-0.095388	-85.837241	-68.668145	76.460574	-68.668145	76.460574	-0.069254	-55.762601
1.650000	-0.097120	-88.095336	-68.371688	81.728462	-68.371688	81.728462	-0.071158	-57.402878
1.700000	-0.098791	-90.325184	-67.929950	86.842824	-67.929950	86.842824	-0.073043	-59.035141
1.750000	-0.100406	-92.527074	-67.360098	91.556844	-67.360098	91.556844	-0.074910	-60.659319
1.800000	-0.101968	-94.701328	-66.689673	95.698903	-66.689673	95.698903	-0.076758	-62.275349
1.850000	-0.103480	-96.848295	-65.949463	99.184042	-65.949463	99.184042	-0.078589	-63.883179
1.900000	-0.104945	-98.968064	-65.166862	101.993538	-65.166862	101.993538	-0.080402	-65.482671
1.950000	-0.106368	-101.061051	-64.365422	104.166450	-64.365422	104.166450	-0.082198	-67.073786
2.000000	-0.107753	-103.127969	-63.563221	105.773222	-63.563221	105.773222	-0.083978	-68.656583
2.050000	-0.109103	-105.169257	-62.771895	106.884836	-62.771895	106.884836	-0.085743	-70.231039
2.100000	-0.110422	-107.185369	-61.998965	107.570740	-61.998965	107.570740	-0.087493	-71.797137
2.150000	-0.111712	-109.176773	-61.248945	107.894203	-61.248945	107.894203	-0.089230	-73.354869
2.200000	-0.112978	-111.143945	-60.524264	107.910577	-60.524264	107.910577	-0.090955	-74.904230
2.250000	-0.114221	-113.087372	-59.825946	107.667172	-59.825946	107.667172	-0.092668	-76.445223
2.300000	-0.115446	-115.007546	-59.154099	107.203891	-59.154099	107.203891	-0.094371	-77.977859
2.350000	-0.116655	-116.904966	-58.508258	106.554157	-58.508258	106.554157	-0.096065	-79.502151
2.400000	-0.117851	-118.780134	-57.887611	105.745888	-57.887611	105.745888	-0.097751	-81.018121
2.450000	-0.119036	-120.633554	-57.291148	104.802398	-57.291148	104.802398	-0.099430	-82.525795
2.500000	-0.120212	-122.465730	-56.717767	103.743189	-56.717767	103.743189	-0.101103	-84.025204
2.550000	-0.121382	-124.276730	-56.166056	102.582777	-56.166056	102.582777	-0.102772	-85.516207
2.600000	-0.122549	-126.067519	-55.635231	101.337287	-55.635231	101.337287	-0.104438	-86.999026
2.650000	-0.123713	-127.838598	-55.124191	100.018230	-55.124191	100.018230	-0.106102	-88.473707
2.700000	-0.124878	-129.590465	-54.631889	98.635382	-54.631889	98.635382	-0.107765	-89.940301
2.750000	-0.126044	-131.323617	-54.157333	97.197085	-54.157333	97.197085	-0.109429	-91.398864
2.800000	-0.127214	-133.038543	-53.699594	95.710486	-53.699594	95.710486	-0.111094	-92.849455
2.850000	-0.128388	-134.735729	-53.257803	94.181737	-53.257803	94.181737	-0.112762	-94.292139
2.900000	-0.129569	-136.415655	-52.831149	92.616156	-52.831149	92.616156	-0.114433	-95.726982
2.950000	-0.130759	-138.077192	-52.418360	91.015557	-52.418360	91.015557	-0.116111	-97.153302
3.000000	-0.131956	-139.723887	-52.019776	89.389665	-52.019776	89.389665	-0.117794	-98.572607
3.050000	-0.133164	-141.354735	-51.634224	87.739135	-51.634224	87.739135	-0.119484	-99.984298
3.100000	-0.134383	-142.970189	-51.261096	86.067057	-51.261096	86.067057	-0.121182	-101.388457
3.150000	-0.135614	-144.570696	-50.899825	84.376163	-50.899825	84.376163	-0.122890	-102.785167
3.200000	-0.136857	-146.156694	-50.549879	82.668871	-50.549879	82.668871	-0.124608	-104.174516
3.250000	-0.138115	-147.728617	-50.210766	80.947333	-50.210766	80.947333	-0.126337	-105.556595
3.300000	-0.139386	-149.286888	-49.882022	79.213468	-49.882022	79.213468	-0.128078	-106.931496
3.350000	-0.140673	-150.831924	-49.563215	77.468993	-49.563215	77.468993	-0.129833	-108.299314
3.400000	-0.141976	-152.364134	-49.253939	75.715450	-49.253939	75.715450	-0.131601	-109.660146
3.450000	-0.143295	-153.883918	-48.953812	73.954226	-48.953812	73.954226	-0.133384	-111.014093
3.500000	-0.144630	-155.391671	-48.662475	72.186572	-48.662475	72.186572	-0.135183	-112.361255
3.550000	-0.145983	-156.887776	-48.379589	70.413618	-48.379589	70.413618	-0.136998	-113.701737
3.600000	-0.147353	-158.372613	-48.104835	68.636386	-48.104835	68.636386	-0.138830	-115.035644
3.650000	-0.148742	-159.846550	-47.837912	66.855804	-47.837912	66.855804	-0.140680	-116.363084
3.700000	-0.150149	-161.309951	-47.578532	65.072711	-47.578532	65.072711	-0.142549	-117.684164
3.750000	-0.151574	-162.763170	-47.326424	63.287869	-47.326424	63.287869	-0.144437	-118.998995
3.800000	-0.153019	-164.206144	-47.081334	61.501953	-47.081334	61.501953	-0.146346	-120.307427
3.850000	-0.154483	-165.639652	-46.843026	59.715655	-46.843026	59.715655	-0.148276	-121.609844
3.900000	-0.155966	-167.064027	-46.611266	57.929536	-46.611266	57.929536	-0.150227	-122.906362
3.950000	-0.157468	-168.479594	-46.385829	56.144101	-46.385829	56.144101	-0.152199	-124.197094
4.000000	-0.158990	-169.886670	-46.166503	54.359804	-46.166503	54.359804	-0.154195	-125.482157
4.050000	-0.160532	-171.285565	-45.953085	52.577056	-45.953085	52.577056	-0.156213	-126.761669
4.100000	-0.162093	-172.676582	-45.745382	50.796223	-45.745382	50.796223	-0.158254	-128.035746
4.150000	-0.163673	-174.060020	-45.543208	49.017630	-45.543208	49.017630	-0.160320	-129.304507
4.200000	-0.165274	-175.436167	-45.346386	47.241568	-45.346386	47.241568	-0.162410	-130.568071
4.250000	-0.166893	-176.805308	-45.154749	45.468291	-45.154749	45.468291	-0.164525	-131.826558
4.300000	-0.168532	-178.167720	-44.968135	43.698019	-44.968135	43.698019	-0.166665	-133.080088
4.350000	-0.170191	-179.523675	-44.786390	41.930945	-44.786390	41.930945	-0.168830	-134.328782
4.400000	-0.171869	179.126561	-44.609369	40.167231	-44.609369	40.167231	-0.171022	-135.572760
4.450000	-0.173565	177.782730	-44.436930	38.407013	-44.436930	38.407013	-0.173240	-136.812143
4.500000	-0.175281	176.444579	-44.268941	36.650403	-44.268941	36.650403	-0.175484	-138.047054
4.550000	-0.177016	175.111858	-44.105275	34.897487	-44.105275	34.897487	-0.177756	-139.277613
4.600000	-0.178770	173.784326	-43.945810	33.148334	-43.945810	33.148334	-0.180054	-140.503943
4.650000	-0.180542	172.461746	-43.790433	31.402991	-43.790433	31.402991	-0.182381	-141.726165
4.700000	-0.182332	171.143887	-43.639033	29.661486	-43.639033	29.661486	-0.184734	-142.944401
4.750000	-0.184140	169.830521	-43.491509	27.923833	-43.491509	27.923833	-0.187116	-144.158774
4.800000	-0.185966	168.521429	-43.347761	26.190028	-43.347761	26.190028	-0.189526	-145.369404
4.850000	-0.187809	167.216393	-43.207699	24.460057	-43.207699	24.460057	-0.191964	-146.576414
4.900000	-0.189670	165.915203	-43.071234	22.733891	-43.071234	22.733891	-0.194431	-147.779926
4.950000	-0.191547	164.617653	-42.938285	21.011491	-42.938285	21.011491	-0.196927	-148.980060
5.000000	-0.193441	163.323539	-42.808775	19.292812	-42.808775	19.292812	-0.199451	-150.176939
5.050000	-0.195352	162.032797	-42.682699	17.577953	-42.682699	17.577953	-0.202005	-151.370552
5.100000	-0.197278	160.745086	-42.559926	15.866692	-42.559926	15.866692	-0.204588	-152.561163
5.150000	-0.199220	159.460217	-42.440394	14.158962	-42.440394	14.158962	-0.207200	-153.748891
5.200000	-0.201177	158.178008	-42.324046	12.454694	-42.324046	12.454694	-0.209841	-154.933857
5.250000	-0.203149	156.898279	-42.210828	10.753817	-42.210828	10.753817	-0.212512	-156.116181
5.300000	-0.205135	155.620855	-42.100693	9.056259	-42.100693	9.056259	-0.215211	-157.295982
5.350000	-0.207134	154.345566	-41.993594	7.361949	-41.993594	7.361949	-0.217940	-158.473380
5.400000	-0.209147	153.072244	-41.889494	5.670819	-41.889494	5.670819	-0.220698	-159.648493
5.450000	-0.211173	151.800727	-41.788354	3.982803	-41.788354	3.982803	-0.223484	-160.821440
5.500000	-0.213211	150.530856	-41.690142	2.297842	-41.690142	2.297842	-0.226300	-161.992338
5.550000	-0.215261	149.262475	-41.594831	0.615880	-41.594831	0.615880	-0.229145	-163.161306
5.600000	-0.217323	147.995434	-41.502393	-1.063130	-41.502393	-1.063130	-0.232019	-164.328459
5.650000	-0.219395	146.729583	-41.412808	-2.739228	-41.412808	-2.739228	-0.234921	-165.493915
5.700000	-0.221478	145.464780	-41.326057	-4.412445	-41.326057	-4.412445	-0.237853	-166.657790
5.750000	-0.223571	144.200884	-41.242124	-6.082801	-41.242124	-6.082801	-0.240813	-167.820198
5.800000	-0.225673	142.937757	-41.160997	-7.750305	-41.160997	-7.750305	-0.243801	-168.981256
5.850000	-0.227784	141.675266	-41.082664	-9.414956	-41.082664	-9.414956	-0.246817	-170.141077
5.900000	-0.229903	140.413282	-41.007119	-11.076737	-41.007119	-11.076737	-0.249862	-171.299775
5.950000	-0.232030	139.151678	-40.934356	-12.735619	-40.934356	-12.735619	-0.252935	-172.457463
6.000000	-0.234165	137.890331	-40.864372	-14.391560	-40.864372	-14.391560	-0.256035	-173.614255
6.050000	-0.236306	136.629120	-40.797166	-16.044500	-40.797166	-16.044500	-0.259163	-174.770262
6.100000	-0.238454	135.367930	-40.732737	-17.694366	-40.732737	-17.694366	-0.262319	-175.925595
6.150000	-0.240607	134.106648	-40.671088	-19.341069	-40.671088	-19.341069	-0.265501	-177.080366
6.200000	-0.242765	132.845164	-40.612222	-20.984501	-40.612222	-20.984501	-0.268710	-178.234684
6.250000	-0.244928	131.583372	-40.556144	-22.624540	-40.556144	-22.624540	-0.271946	-179.388659
6.300000	-0.247095	130.321145	-40.502965	-24.260885	-40.502965	-24.260885	-0.275209	179.457605
6.350000	-0.249265	129.058398	-40.452588	-25.893524	-40.452588	-25.893524	-0.278499	178.303986
6.400000	-0.251439	127.795034	-40.405018	-27.522279	-40.405018	-27.522279	-0.281814	177.150377
6.450000	-0.253615	126.530961	-40.360261	-29.146958	-40.360261	-29.146958	-0.285154	175.996670
6.500000	-0.255793	125.266088	-40.318324	-30.767350	-40.318324	-30.767350	-0.288519	174.842760
6.550000	-0.257973	124.000330	-40.279211	-32.383228	-40.279211	-32.383228	-0.291909	173.688543
6.600000	-0.260153	122.733603	-40.242929	-33.994347	-40.242929	-33.994347	-0.295323	172.533914
6.650000	-0.262334	121.465827	-40.209482	-35.600449	-40.209482	-35.600449	-0.298762	171.378769
6.700000	-0.264516	120.196924	-40.178874	-37.201259	-40.178874	-37.201259	-0.302224	170.223007
6.750000	-0.266697	118.926823	-40.151108	-38.796487	-40.151108	-38.796487	-0.305709	169.066525
6.800000	-0.268877	117.655451	-40.126186	-40.385831	-40.126186	-40.385831	-0.309217	167.909223
6.850000	-0.271057	116.382743	-40.104108	-41.968973	-40.104108	-41.968973	-0.312747	166.751002
6.900000	-0.273235	115.108633	-40.084873	-43.545584	-40.084873	-43.545584	-0.316299	165.591761
6.950000	-0.275411	113.833062	-40.068480	-45.115324	-40.068480	-45.115324	-0.319873	164.431404
7.000000	-0.277586	112.555972	-40.054924	-46.677842	-40.054924	-46.677842	-0.323468	163.269832
7.050000	-0.279758	111.277309	-40.044199	-48.232776	-40.044199	-48.232776	-0.327084	162.106952
7.100000	-0.281928	109.997022	-40.036298	-49.779757	-40.036298	-49.779757	-0.330720	160.942666
7.150000	-0.284095	108.715064	-40.031212	-51.318408	-40.031212	-51.318408	-0.334375	159.776883
7.200000	-0.286260	107.431391	-40.028929	-52.848344	-40.028929	-52.848344	-0.338050	158.609508
7.250000	-0.288421	106.145961	-40.029437	-54.369177	-40.029437	-54.369177	-0.341744	157.440451
7.300000	-0.290580	104.858737	-40.032720	-55.880510	-40.032720	-55.880510	-0.345456	156.269621
7.350000	-0.292735	103.569686	-40.038761	-57.381948	-40.038761	-57.381948	-0.349186	155.096928
7.400000	-0.294888	102.278776	-40.047543	-58.873088	-40.047543	-58.873088	-0.352933	153.922286
7.450000	-0.297038	100.985980	-40.059045	-60.353527	-40.059045	-60.353527	-0.356697	152.745607
7.500000	-0.299185	99.691273	-40.073245	-61.822862	-40.073245	-61.822862	-0.360477	151.566807
7.550000	-0.301329	98.394552	-40.090233	-63.280168	-40.090233	-63.280168	-0.364274	150.385700
7.600000	-0.303470	97.095882	-40.109867	-64.725523	-40.109867	-64.725523	-0.368085	149.202299
7.650000	-0.305610	95.795250	-40.132121	-66.158523	-40.132121	-66.158523	-0.371912	148.016521
7.700000	-0.307747	94.492647	-40.156968	-67.578764	-40.156968	-67.578764	-0.375752	146.828287
7.750000	-0.309883	93.188066	-40.184378	-68.985843	-40.184378	-68.985843	-0.379606	145.637521
7.800000	-0.312019	91.881505	-40.214323	-70.379359	-40.214323	-70.379359	-0.383473	144.444145
7.850000	-0.314153	90.572964	-40.246774	-71.758911	-40.246774	-71.758911	-0.387353	143.248086
7.900000	-0.316288	89.262448	-40.281701	-73.124097	-40.281701	-73.124097	-0.391244	142.049271
7.950000	-0.318424	87.949965	-40.319074	-74.474516	-40.319074	-74.474516	-0.395147	140.847629
8.000000	-0.320561	86.635526	-40.358865	-75.809765	-40.358865	-75.809765	-0.399061	139.643091
8.050000	-0.322700	85.319146	-40.401044	-77.129438	-40.401044	-77.129438	-0.402985	138.435591
8.100000	-0.324842	84.000844	-40.445585	-78.433126	-40.445585	-78.433126	-0.406919	137.225062
8.150000	-0.326989	82.680641	-40.492462	-79.720413	-40.492462	-79.720413	-0.410862	136.011443
8.200000	-0.329140	81.358564	-40.541649	-80.990876	-40.541649	-80.990876	-0.414814	134.794672
8.250000	-0.331297	80.034640	-40.593125	-82.244079	-40.593125	-82.244079	-0.418774	133.574690
8.300000	-0.333462	78.708903	-40.646869	-83.479576	-40.646869	-83.479576	-0.422742	132.351442
8.350000	-0.335634	77.381388	-40.702866	-84.696899	-40.702866	-84.696899	-0.426717	131.124872
8.400000	-0.337817	76.052136	-40.761102	-85.895563	-40.761102	-85.895563	-0.430698	129.894928
8.450000	-0.340010	74.721190	-40.821567	-87.075053	-40.821567	-87.075053	-0.434686	128.661563
8.500000	-0.342216	73.388594	-40.884258	-88.234824	-40.884258	-88.234824	-0.438680	127.424727
8.550000	-0.344436	72.054401	-40.949176	-89.374289	-40.949176	-89.374289	-0.442678	126.184378
8.600000	-0.346671	70.718662	-41.016327	-90.492817	-41.016327	-90.492817	-0.446682	124.940474
8.650000	-0.348923	69.381436	-41.085726	-91.589719	-41.085726	-91.589719	-0.450690	123.692975
8.700000	-0.351194	68.042780	-41.157395	-92.664239	-41.157395	-92.664239	-0.454701	122.441846
8.750000	-0.353486	66.702760	-41.231364	-93.715540	-41.231364	-93.715540	-0.458716	121.187052
8.800000	-0.355801	65.361389	-41.307750	-94.741591	-41.307750	-94.741591	-0.462735	119.928403
8.850000	-0.358140	64.018795	-41.386533	-95.742338	-41.386533	-95.742338	-0.466756	118.666030
8.900000	-0.360507	62.675053	-41.467782	-96.716575	-41.467782	-96.716575	-0.470779	117.399910
8.950000	-0.362901	61.330239	-41.551580	-97.662928	-41.551580	-97.662928	-0.474804	116.130022
9.000000	-0.365327	59.984433	-41.638029	-98.579821	-41.638029	-98.579821	-0.478831	114.856349
9.050000	-0.367786	58.637716	-41.727250	-99.465431	-41.727250	-99.465431	-0.482859	113.578877
9.100000	-0.370280	57.290176	-41.819391	-100.317642	-41.819391	-100.317642	-0.486888	112.297595
9.150000	-0.372811	55.941900	-41.914624	-101.133974	-41.914624	-101.133974	-0.490918	111.012496
9.200000	-0.375382	54.592979	-42.013154	-101.911509	-42.013154	-101.911509	-0.494949	109.723577
9.250000	-0.377996	53.243507	-42.115223	-102.646783	-42.115223	-102.646783	-0.498980	108.430838
9.300000	-0.380655	51.893581	-42.221117	-103.335655	-42.221117	-103.335655	-0.503011	107.134283
9.350000	-0.383360	50.543299	-42.331172	-103.973140	-42.331172	-103.973140	-0.507043	105.833920
9.400000	-0.386116	49.192763	-42.445783	-104.553186	-42.445783	-104.553186	-0.511074	104.529759
9.450000	-0.388925	47.842078	-42.565414	-105.068375	-42.565414	-105.068375	-0.515106	103.221815
9.500000	-0.391788	46.491348	-42.690609	-105.509535	-42.690609	-105.509535	-0.519137	101.910110
9.550000	-0.394710	45.140683	-42.822004	-105.865199	-42.822004	-105.865199	-0.523168	100.594664
9.600000	-0.397692	43.790192	-42.960340	-106.120872	-42.960340	-106.120872	-0.527200	99.275507
9.650000	-0.400737	42.439989	-43.106468	-106.257991	-43.106468	-106.257991	-0.531231	97.952668
9.700000	-0.403848	41.090186	-43.261355	-106.252463	-43.261355	-106.252463	-0.535263	96.626184
9.750000	-0.407028	39.740901	-43.426061	-106.072536	-43.426061	-106.072536	-0.539295	95.296094
9.800000	-0.410280	38.392250	-43.601677	-105.675671	-43.601677	-105.675671	-0.543327	93.962442
9.850000	-0.413607	37.044353	-43.789171	-105.003844	-43.789171	-105.003844	-0.547360	92.625277
9.900000	-0.417010	35.697331	-43.989036	-103.976404	-43.989036	-103.976404	-0.551395	91.284650
9.950000	-0.420494	34.351304	-44.200520	-102.479043	-44.200520	-102.479043	-0.555430	89.940619
10.000000	-0.424060	33.006396	-44.419966	-100.346706	-44.419966	-100.346706	-0.559468	88.593244
