! freq	dB(S11)	phase(S11)	dB(S12)	phase(S12)	
!     	dB(S21)	phase(S21)	dB(S22)	phase(S22)	
!S-par simulation data
#  GHz  S  DB  R 50
0.000000	-0.000000	0.000000	-366.204550	0.000000	-366.204550	0.000000	-0.000000	0.000000
0.050000	-0.000119	-0.813296	-110.575561	37.331860	-110.575561	37.331860	-0.000118	-0.813104
0.100000	-0.000468	-1.626268	-108.261840	50.718978	-108.261840	50.718978	-0.000467	-1.625885
0.150000	-0.001028	-2.438627	-106.085697	59.510246	-106.085697	59.510246	-0.001027	-2.438055
0.200000	-0.001771	-3.250151	-104.260191	64.907441	-104.260191	64.907441	-0.001768	-3.249391
0.250000	-0.002672	-4.060605	-102.767778	68.267371	-102.767778	68.267371	-0.002669	-4.059659
0.300000	-0.003685	-4.869985	-101.550025	70.589777	-101.550025	70.589777	-0.003680	-4.868854
0.350000	-0.004783	-5.678205	-100.558514	72.245304	-100.558514	72.245304	-0.004778	-5.676891
0.400000	-0.005941	-6.485266	-99.757620	73.513785	-99.757620	73.513785	-0.005935	-6.483770
0.450000	-0.007133	-7.291199	-99.122190	74.578794	-99.122190	74.578794	-0.007127	-7.289521
0.500000	-0.008343	-8.096054	-98.635027	75.575434	-98.635027	75.575434	-0.008336	-8.094195
0.550000	-0.009556	-8.899889	-98.284895	76.617356	-98.284895	76.617356	-0.009549	-8.897849
0.600000	-0.010764	-9.702763	-98.065086	77.814608	-98.065086	77.814608	-0.010756	-9.700543
0.650000	-0.011959	-10.504730	-97.972272	79.288370	-97.972272	79.288370	-0.011952	-10.502329
0.700000	-0.013140	-11.305836	-98.005327	81.186331	-98.005327	81.186331	-0.013132	-11.303254
0.750000	-0.014303	-12.106118	-98.163567	83.701560	-98.163567	83.701560	-0.014295	-12.103356
0.800000	-0.015450	-12.905606	-98.443401	87.096662	-98.443401	87.096662	-0.015442	-12.902662
0.850000	-0.016579	-13.704318	-98.831405	91.730899	-98.831405	91.730899	-0.016571	-13.701193
0.900000	-0.017693	-14.502266	-99.290431	98.072933	-99.290431	98.072933	-0.017685	-14.498960
0.950000	-0.018793	-15.299457	-99.735557	106.641767	-99.735557	106.641767	-0.018784	-15.295970
1.000000	-0.019880	-16.095891	-100.007388	117.760856	-100.007388	117.760856	-0.019871	-16.092223
1.050000	-0.020955	-16.891562	-99.884491	131.064940	-99.884491	131.064940	-0.020947	-16.887713
1.100000	-0.022021	-17.686464	-99.195950	145.111463	-99.195950	145.111463	-0.022013	-17.682434
1.150000	-0.023079	-18.480584	-97.968886	157.914502	-97.968886	157.914502	-0.023070	-18.476374
1.200000	-0.024129	-19.273911	-96.404580	168.212499	-96.404580	168.212499	-0.024120	-19.269521
1.250000	-0.025173	-20.066428	-94.714794	175.880653	-94.714794	175.880653	-0.025163	-20.061858
1.300000	-0.026211	-20.858084	-93.022003	-178.687869	-93.022003	-178.687869	-0.026202	-20.853334
1.350000	-0.027245	-21.648896	-91.403138	-174.842068	-91.403138	-174.842068	-0.027235	-21.643967
1.400000	-0.028276	-22.438846	-89.877639	-172.157390	-89.877639	-172.157390	-0.028265	-22.433739
1.450000	-0.029303	-23.227917	-88.447192	-170.325213	-88.447192	-170.325213	-0.029292	-23.222631
1.500000	-0.030327	-24.016090	-87.106265	-169.126955	-87.106265	-169.126955	-0.030316	-24.010626
1.550000	-0.031350	-24.803346	-85.846957	-168.407997	-85.846957	-168.407997	-0.031338	-24.797705
1.600000	-0.032370	-25.589668	-84.661080	-168.057870	-84.661080	-168.057870	-0.032359	-25.583850
1.650000	-0.033389	-26.375036	-83.540987	-167.996463	-83.540987	-167.996463	-0.033378	-26.369042
1.700000	-0.034407	-27.159087	-82.455324	-168.224147	-82.455324	-168.224147	-0.034395	-27.152917
1.750000	-0.035425	-27.942625	-81.458020	-168.555490	-81.458020	-168.555490	-0.035412	-27.936279
1.800000	-0.036442	-28.724928	-80.493444	-169.058627	-80.493444	-169.058627	-0.036429	-28.718407
1.850000	-0.037458	-29.506349	-79.580363	-169.684473	-79.580363	-169.684473	-0.037445	-29.499653
1.900000	-0.038475	-30.286674	-78.703348	-170.411561	-78.703348	-170.411561	-0.038461	-30.279803
1.950000	-0.039492	-31.065903	-77.860682	-171.239890	-77.860682	-171.239890	-0.039478	-31.058858
2.000000	-0.040510	-31.844187	-77.056147	-172.128697	-77.056147	-172.128697	-0.040495	-31.836970
2.050000	-0.041528	-32.621151	-76.273210	-173.102171	-76.273210	-173.102171	-0.041513	-32.613760
2.100000	-0.042547	-33.397335	-75.529678	-174.111515	-75.529678	-174.111515	-0.042532	-33.389772
2.150000	-0.043568	-34.171962	-74.798108	-175.192598	-74.798108	-175.192598	-0.043553	-34.164227
2.200000	-0.044591	-34.945988	-74.106678	-176.294180	-74.106678	-176.294180	-0.044575	-34.938081
2.250000	-0.045616	-35.718210	-73.419833	-177.457256	-73.419833	-177.457256	-0.045600	-35.710133
2.300000	-0.046642	-36.490021	-72.773473	-178.630981	-72.773473	-178.630981	-0.046625	-36.481774
2.350000	-0.047672	-37.259774	-72.125996	-179.857945	-72.125996	-179.857945	-0.047655	-37.251357
2.400000	-0.048703	-38.029317	-71.519055	178.910867	-71.519055	178.910867	-0.048686	-38.020729
2.450000	-0.049740	-38.796537	-70.906563	177.633208	-70.906563	177.633208	-0.049723	-38.787782
2.500000	-0.050777	-39.563758	-70.334431	176.355549	-70.334431	176.355549	-0.050759	-39.554834
2.550000	-0.051823	-40.328387	-69.753287	175.037059	-69.753287	175.037059	-0.051804	-40.319295
2.600000	-0.052868	-41.093016	-69.208600	173.718570	-69.208600	173.718570	-0.052849	-41.083756
2.650000	-0.053922	-41.855217	-68.659305	172.369573	-68.659305	172.369573	-0.053903	-41.845790
2.700000	-0.054978	-42.617196	-68.139550	171.017802	-68.139550	171.017802	-0.054958	-42.607603
2.750000	-0.056042	-43.376924	-67.618834	169.643207	-67.618834	169.643207	-0.056023	-43.367165
2.800000	-0.057109	-44.136200	-67.121859	168.264048	-67.121859	168.264048	-0.057089	-44.126276
2.850000	-0.058185	-44.893411	-66.626951	166.867859	-66.626951	166.867859	-0.058165	-44.883321
2.900000	-0.059265	-45.649933	-66.150899	165.465994	-66.150899	165.465994	-0.059245	-45.639679
2.950000	-0.060355	-46.404587	-65.679427	164.051512	-65.679427	164.051512	-0.060334	-46.394169
3.000000	-0.061450	-47.158306	-65.222677	162.630722	-65.222677	162.630722	-0.061428	-47.147725
3.050000	-0.062554	-47.910365	-64.772595	161.200696	-64.772595	161.200696	-0.062532	-47.899621
3.100000	-0.063665	-48.661237	-64.333723	159.764074	-64.333723	159.764074	-0.063643	-48.650330
3.150000	-0.064786	-49.410664	-63.903251	158.320818	-63.903251	158.320818	-0.064763	-49.399595
3.200000	-0.065916	-50.158647	-63.480999	156.870927	-63.480999	156.870927	-0.065893	-50.147417
3.250000	-0.067054	-50.905410	-63.068577	155.416402	-63.068577	155.416402	-0.067030	-50.894018
3.300000	-0.068203	-51.650465	-62.661825	153.955389	-62.661825	153.955389	-0.068180	-51.638913
3.350000	-0.069361	-52.394532	-62.266078	152.491272	-62.266078	152.491272	-0.069337	-52.382820
3.400000	-0.070533	-53.136623	-61.873821	151.020948	-61.873821	151.020948	-0.070508	-53.124752
3.450000	-0.071710	-53.877966	-61.493530	149.548683	-61.493530	149.548683	-0.071686	-53.865936
3.500000	-0.072906	-54.617063	-61.114864	148.070591	-61.114864	148.070591	-0.072881	-54.604874
3.550000	-0.074106	-55.355656	-60.748941	146.591426	-60.748941	146.591426	-0.074080	-55.343309
3.600000	-0.075327	-56.091730	-60.383048	145.106888	-60.383048	145.106888	-0.075301	-56.079225
3.650000	-0.076550	-56.827549	-60.030520	143.621908	-60.030520	143.621908	-0.076524	-56.814887
3.700000	-0.077799	-57.560574	-59.676656	142.132062	-59.676656	142.132062	-0.077772	-57.547756
3.750000	-0.079048	-58.293599	-59.336645	140.642215	-59.336645	140.642215	-0.079020	-58.280624
3.800000	-0.080325	-59.023555	-58.994130	139.148043	-58.994130	139.148043	-0.080298	-59.010424
3.850000	-0.081603	-59.753510	-58.664611	137.653870	-58.664611	137.653870	-0.081575	-59.740224
3.900000	-0.082909	-60.480635	-58.334057	136.156513	-58.334057	136.156513	-0.082880	-60.467194
3.950000	-0.084217	-61.207502	-58.014478	134.658865	-58.014478	134.658865	-0.084189	-61.193907
4.000000	-0.085553	-61.931784	-57.695146	133.158937	-57.695146	133.158937	-0.085524	-61.918035
4.050000	-0.086895	-62.655549	-57.384998	131.658553	-57.384998	131.658553	-0.086865	-62.641646
4.100000	-0.088262	-63.376979	-57.076214	130.156598	-57.076214	130.156598	-0.088232	-63.362923
4.150000	-0.089637	-64.097630	-56.775028	128.654118	-56.775028	128.654118	-0.089607	-64.083421
4.200000	-0.091037	-64.816201	-56.476177	127.150612	-56.476177	127.150612	-0.091006	-64.801840
4.250000	-0.092449	-65.533731	-56.183517	125.646593	-56.183517	125.646593	-0.092418	-65.519218
4.300000	-0.093883	-66.249438	-55.894036	124.141957	-55.894036	124.141957	-0.093851	-66.234774
4.350000	-0.095333	-66.963843	-55.609496	122.636880	-55.609496	122.636880	-0.095301	-66.949027
4.400000	-0.096803	-67.676685	-55.328868	121.131482	-55.328868	121.131482	-0.096770	-67.661718
4.450000	-0.098293	-68.387964	-55.052072	119.625764	-55.052072	119.625764	-0.098259	-68.372847
4.500000	-0.099800	-69.097941	-54.779823	118.119928	-54.779823	118.119928	-0.099766	-69.082674
4.550000	-0.101331	-69.806096	-54.510418	116.613928	-54.510418	116.613928	-0.101296	-69.790679
4.600000	-0.102876	-70.513212	-54.246110	115.107937	-54.246110	115.107937	-0.102841	-70.497645
4.650000	-0.104450	-71.218249	-53.983769	113.601965	-53.983769	113.601965	-0.104415	-71.202534
4.700000	-0.106036	-71.922509	-53.726997	112.096065	-53.726997	112.096065	-0.106000	-71.906645
4.750000	-0.107655	-72.624438	-53.471413	110.590384	-53.471413	110.590384	-0.107619	-72.608426
4.800000	-0.109282	-73.325851	-53.221803	109.084790	-53.221803	109.084790	-0.109245	-73.309690
4.850000	-0.110948	-74.024683	-52.972690	107.579628	-52.972690	107.579628	-0.110910	-74.008375
4.900000	-0.112618	-74.723259	-52.729895	106.074526	-52.729895	106.074526	-0.112580	-74.706803
4.950000	-0.114332	-75.419010	-52.486986	104.570075	-52.486986	104.570075	-0.114293	-75.402408
5.000000	-0.116046	-76.114762	-52.250685	103.065625	-52.250685	103.065625	-0.116007	-76.098012
5.050000	-0.117810	-76.807452	-52.013728	101.562050	-52.013728	101.562050	-0.117770	-76.790556
5.100000	-0.119574	-77.500142	-51.783064	100.058476	-51.783064	100.058476	-0.119534	-77.483099
5.150000	-0.121386	-78.190044	-51.552383	98.555832	-51.552383	98.555832	-0.121345	-78.172855
5.200000	-0.123202	-78.879694	-51.327141	97.053273	-51.327141	97.053273	-0.123161	-78.862359
5.250000	-0.125063	-79.566830	-51.102455	95.551660	-51.102455	95.551660	-0.125021	-79.549349
5.300000	-0.126932	-80.253463	-50.882433	94.050237	-50.882433	94.050237	-0.126890	-80.235837
5.350000	-0.128843	-80.937856	-50.663478	92.549742	-50.663478	92.549742	-0.128800	-80.920084
5.400000	-0.130768	-81.621501	-50.448487	91.049557	-50.448487	91.049557	-0.130724	-81.603584
5.450000	-0.132731	-82.303175	-50.235020	89.550257	-50.235020	89.550257	-0.132686	-82.285113
5.500000	-0.134712	-82.983862	-50.024883	88.051401	-50.024883	88.051401	-0.134667	-82.965656
5.550000	-0.136728	-83.662844	-49.816676	86.553367	-49.816676	86.553367	-0.136682	-83.644492
5.600000	-0.138769	-84.340607	-49.611226	85.055919	-49.611226	85.055919	-0.138722	-84.322111
5.650000	-0.140839	-85.016926	-49.408066	83.559214	-49.408066	83.559214	-0.140792	-84.998285
5.700000	-0.142940	-85.691800	-49.207148	82.063250	-49.207148	82.063250	-0.142892	-85.673015
5.750000	-0.145067	-86.365487	-49.008837	80.567934	-49.008837	80.567934	-0.145018	-86.346557
5.800000	-0.147229	-87.037511	-48.812304	79.073524	-48.812304	79.073524	-0.147180	-87.018437
5.850000	-0.149414	-87.708598	-48.618656	77.579655	-48.618656	77.579655	-0.149364	-87.689380
5.900000	-0.151640	-88.377813	-48.426370	76.086868	-48.426370	76.086868	-0.151590	-88.358451
5.950000	-0.153883	-89.046337	-48.237213	74.594504	-48.237213	74.594504	-0.153832	-89.026831
6.000000	-0.156176	-89.712786	-48.049044	73.103411	-48.049044	73.103411	-0.156124	-89.693136
6.050000	-0.158479	-90.378782	-47.864214	71.612612	-47.864214	71.612612	-0.158427	-90.358988
6.100000	-0.160839	-91.042512	-47.680041	70.123286	-47.680041	70.123286	-0.160785	-91.022573
6.150000	-0.163204	-91.706019	-47.499385	68.634114	-47.499385	68.634114	-0.163150	-91.685936
6.200000	-0.165632	-92.367078	-47.319093	67.146634	-47.319093	67.146634	-0.165578	-92.346851
6.250000	-0.168061	-93.028136	-47.142467	65.659154	-47.142467	65.659154	-0.168006	-93.007765
6.300000	-0.170560	-93.686574	-46.965946	64.173607	-46.965946	64.173607	-0.170504	-93.666058
6.350000	-0.173060	-94.345012	-46.792942	62.688059	-46.792942	62.688059	-0.173003	-94.324352
6.400000	-0.175626	-95.001096	-46.620363	61.204368	-46.620363	61.204368	-0.175568	-94.980291
6.450000	-0.178198	-95.656966	-46.450883	59.720846	-46.450883	59.720846	-0.178139	-95.636016
6.500000	-0.180831	-96.310742	-46.282115	58.239097	-46.282115	58.239097	-0.180772	-96.289648
6.550000	-0.183478	-96.964100	-46.116068	56.757703	-46.116068	56.757703	-0.183417	-96.942860
6.600000	-0.186180	-97.615616	-45.950988	55.277988	-45.950988	55.277988	-0.186119	-97.594230
6.650000	-0.188903	-98.266517	-45.788286	53.798833	-45.788286	53.798833	-0.188841	-98.244987
6.700000	-0.191676	-98.915822	-45.626776	52.321253	-45.626776	52.321253	-0.191614	-98.894145
6.750000	-0.194476	-99.564327	-45.467333	50.844459	-45.467333	50.844459	-0.194413	-99.542505
6.800000	-0.197322	-100.211470	-45.309281	49.369120	-45.309281	49.369120	-0.197258	-100.189502
6.850000	-0.200202	-100.857640	-45.153015	47.894819	-45.153015	47.894819	-0.200136	-100.835525
6.900000	-0.203121	-101.502674	-44.998313	46.421835	-44.998313	46.421835	-0.203055	-101.480413
6.950000	-0.206082	-102.146572	-44.845143	44.950167	-44.845143	44.950167	-0.206015	-102.124164
7.000000	-0.209077	-102.789551	-44.693688	43.479659	-44.693688	43.479659	-0.209009	-102.766995
7.050000	-0.212120	-103.431241	-44.543536	42.010774	-44.543536	42.010774	-0.212051	-103.408538
7.100000	-0.215192	-104.072219	-44.395227	40.542870	-44.395227	40.542870	-0.215122	-104.049367
7.150000	-0.218320	-104.711769	-44.248014	39.076925	-44.248014	39.076925	-0.218249	-104.688769
7.200000	-0.221470	-105.350802	-44.102754	37.611757	-44.102754	37.611757	-0.221398	-105.327653
7.250000	-0.224684	-105.988281	-43.958404	36.148917	-43.958404	36.148917	-0.224611	-105.964982
7.300000	-0.227914	-106.625426	-43.816099	34.686623	-43.816099	34.686623	-0.227840	-106.601978
7.350000	-0.231216	-107.260903	-43.674534	33.227056	-43.674534	33.227056	-0.231141	-107.237305
7.400000	-0.234526	-107.896220	-43.535090	31.767776	-43.535090	31.767776	-0.234451	-107.872471
7.450000	-0.237918	-108.529768	-43.396232	30.311656	-43.396232	30.311656	-0.237842	-108.505868
7.500000	-0.241311	-109.163316	-43.259559	28.855535	-43.259559	28.855535	-0.241234	-109.139265
7.550000	-0.244795	-109.795008	-43.123329	27.403033	-43.123329	27.403033	-0.244716	-109.770805
7.600000	-0.248279	-110.426701	-42.989203	25.950532	-42.989203	25.950532	-0.248200	-110.402345
7.650000	-0.251848	-111.056761	-42.855657	24.501507	-42.855657	24.501507	-0.251768	-111.032251
7.700000	-0.255426	-111.686673	-42.724002	23.052797	-42.724002	23.052797	-0.255345	-111.662010
7.750000	-0.259082	-112.315166	-42.593045	21.607389	-42.593045	21.607389	-0.259000	-112.290348
7.800000	-0.262755	-112.943375	-42.463784	20.162641	-42.463784	20.162641	-0.262671	-112.918402
7.850000	-0.266499	-113.570365	-42.335323	18.720986	-42.335323	18.720986	-0.266415	-113.545236
7.900000	-0.270269	-114.196950	-42.208375	17.280361	-42.208375	17.280361	-0.270183	-114.171664
7.950000	-0.274103	-114.822504	-42.082318	15.842589	-42.082318	15.842589	-0.274016	-114.797061
8.000000	-0.277971	-115.447543	-41.957602	14.406243	-41.957602	14.406243	-0.277883	-115.421942
8.050000	-0.281896	-116.071729	-41.833856	12.972475	-41.833856	12.972475	-0.281807	-116.045969
8.100000	-0.285864	-116.695305	-41.711288	11.540549	-41.711288	11.540549	-0.285774	-116.669386
8.150000	-0.289882	-117.318192	-41.589761	10.110897	-41.589761	10.110897	-0.289791	-117.292112
8.200000	-0.293951	-117.940388	-41.469254	8.683518	-41.469254	8.683518	-0.293859	-117.914147
8.250000	-0.298063	-118.562044	-41.349853	7.258080	-41.349853	7.258080	-0.297970	-118.535641
8.300000	-0.302235	-119.182945	-41.231320	5.835359	-41.231320	5.835359	-0.302141	-119.156379
8.350000	-0.306443	-119.803443	-41.113952	4.414220	-41.113952	4.414220	-0.306347	-119.776713
8.400000	-0.310720	-120.423134	-40.997300	2.996245	-40.997300	2.996245	-0.310623	-120.396239
8.450000	-0.315024	-121.042545	-40.881874	1.579472	-40.881874	1.579472	-0.314926	-121.015484
8.500000	-0.319407	-121.661114	-40.767010	0.166308	-40.767010	0.166308	-0.319308	-121.633887
8.550000	-0.323810	-122.279511	-40.653431	-1.246049	-40.653431	-1.246049	-0.323710	-122.252116
8.600000	-0.328301	-122.897048	-40.540259	-2.654365	-40.540259	-2.654365	-0.328199	-122.869484
8.650000	-0.332803	-123.514506	-40.428434	-4.062276	-40.428434	-4.062276	-0.332700	-123.486772
8.700000	-0.337403	-124.131099	-40.316856	-5.465735	-40.316856	-5.465735	-0.337299	-124.103194
8.750000	-0.342006	-124.747693	-40.206693	-6.869194	-40.206693	-6.869194	-0.341900	-124.719617
8.800000	-0.346717	-125.363436	-40.096608	-8.267821	-40.096608	-8.267821	-0.346610	-125.335186
8.850000	-0.351430	-125.979179	-39.987900	-9.666448	-39.987900	-9.666448	-0.351323	-125.950755
8.900000	-0.356245	-126.594227	-39.879319	-11.060701	-39.879319	-11.060701	-0.356136	-126.565628
8.950000	-0.361071	-127.209213	-39.771968	-12.454556	-39.771968	-12.454556	-0.360960	-127.180437
9.000000	-0.365990	-127.823646	-39.664792	-13.844518	-39.664792	-13.844518	-0.365878	-127.794691
9.050000	-0.370929	-128.437968	-39.558697	-15.233701	-39.558697	-15.233701	-0.370816	-128.408835
9.100000	-0.375954	-129.051866	-39.452828	-16.619484	-39.452828	-16.619484	-0.375840	-129.022552
9.150000	-0.381009	-129.665622	-39.347888	-18.004134	-39.347888	-18.004134	-0.380893	-129.636126
9.200000	-0.386140	-130.279065	-39.243230	-19.385886	-39.243230	-19.385886	-0.386023	-130.249386
9.250000	-0.391311	-130.892352	-39.139339	-20.766188	-39.139339	-20.766188	-0.391193	-130.862489
9.300000	-0.396551	-131.505424	-39.035796	-22.144087	-39.035796	-22.144087	-0.396431	-131.475374
9.350000	-0.401840	-132.118341	-38.932852	-23.520270	-38.932852	-23.520270	-0.401719	-132.088103
9.400000	-0.407188	-132.731123	-38.830329	-24.894534	-38.830329	-24.894534	-0.407066	-132.700697
9.450000	-0.412596	-133.343771	-38.728227	-26.266879	-38.728227	-26.266879	-0.412472	-133.313154
9.500000	-0.418054	-133.956349	-38.626630	-27.637761	-38.626630	-27.637761	-0.417929	-133.925540
9.550000	-0.423582	-134.568830	-38.525266	-29.006597	-38.525266	-29.006597	-0.423455	-134.537827
9.600000	-0.429151	-135.181289	-38.424503	-30.374392	-38.424503	-30.374392	-0.429023	-135.150091
9.650000	-0.434800	-135.793706	-38.323772	-31.740103	-38.323772	-31.740103	-0.434671	-135.762311
9.700000	-0.440481	-136.406133	-38.223752	-33.105144	-38.223752	-33.105144	-0.440351	-136.374540
9.750000	-0.446252	-137.018592	-38.123553	-34.468173	-38.123553	-34.468173	-0.446120	-136.986797
9.800000	-0.452046	-137.631075	-38.024187	-35.830837	-38.024187	-35.830837	-0.451913	-137.599079
9.850000	-0.457941	-138.243682	-37.924417	-37.191681	-37.924417	-37.191681	-0.457806	-138.211482
9.900000	-0.463848	-138.856311	-37.825620	-38.552390	-37.825620	-38.552390	-0.463712	-138.823905
9.950000	-0.469866	-139.469174	-37.726181	-39.911610	-37.726181	-39.911610	-0.469729	-139.436560
10.000000	-0.475888	-140.082038	-37.627868	-41.270831	-37.627868	-41.270831	-0.475749	-140.049215
