! freq	dB(S11)	phase(S11)	dB(S12)	phase(S12)	
!     	dB(S21)	phase(S21)	dB(S22)	phase(S22)	
!S-par simulation data
#  GHz  S  DB  R 50
0.000000	-82.633666	0.000000	-0.000641	0.000000	-0.000641	0.000000	-82.633666	0.000000
0.050000	-36.009575	-93.003966	-0.006482	-3.315000	-0.006482	-3.315000	-36.006039	-92.758534
0.100000	-30.041378	-96.588085	-0.016445	-6.585648	-0.016445	-6.585648	-30.038489	-96.107444
0.150000	-26.573977	-100.134646	-0.026888	-9.837775	-0.026888	-9.837775	-26.570966	-99.418767
0.200000	-24.132277	-103.638011	-0.038492	-13.081891	-0.038492	-13.081891	-24.128983	-102.685443
0.250000	-22.257099	-107.096990	-0.051730	-16.318552	-0.051730	-16.318552	-22.253538	-105.906884
0.300000	-20.743321	-110.520057	-0.066634	-19.546993	-0.066634	-19.546993	-20.739548	-109.091823
0.350000	-19.481282	-113.915194	-0.083071	-22.766628	-0.083071	-22.766628	-19.477348	-112.248193
0.400000	-18.407305	-117.287018	-0.100940	-25.976510	-0.100940	-25.976510	-18.403255	-115.380405
0.450000	-17.477919	-120.640376	-0.119996	-29.176760	-0.119996	-29.176760	-17.473785	-118.493135
0.500000	-16.665818	-123.976881	-0.140099	-32.366680	-0.140099	-32.366680	-16.661627	-121.587728
0.550000	-15.950008	-127.298472	-0.161029	-35.546290	-0.161029	-35.546290	-15.945778	-124.665913
0.600000	-15.315346	-130.606234	-0.182585	-38.715520	-0.182585	-38.715520	-15.311088	-127.728556
0.650000	-14.751121	-133.900664	-0.204565	-41.874109	-0.204565	-41.874109	-14.746845	-130.775867
0.700000	-14.248009	-137.182687	-0.226744	-45.022333	-0.226744	-45.022333	-14.243719	-133.808549
0.750000	-13.799260	-140.452909	-0.248898	-48.160347	-0.248898	-48.160347	-13.794962	-136.826922
0.800000	-13.399235	-143.712113	-0.270804	-51.288545	-0.270804	-51.288545	-13.394929	-139.831486
0.850000	-13.043984	-146.960971	-0.292220	-54.407282	-0.292220	-54.407282	-13.039672	-142.822533
0.900000	-12.728688	-150.200869	-0.312950	-57.517622	-0.312950	-57.517622	-12.724370	-145.801242
0.950000	-12.450856	-153.432725	-0.332772	-60.620232	-0.332772	-60.620232	-12.446533	-148.768106
1.000000	-12.208041	-156.657786	-0.351479	-63.716110	-0.351479	-63.716110	-12.203711	-151.723962
1.050000	-11.998262	-159.877443	-0.368876	-66.806406	-0.368876	-66.806406	-11.993925	-154.669745
1.100000	-11.819943	-163.093233	-0.384780	-69.892417	-0.384780	-69.892417	-11.815597	-157.606476
1.150000	-11.671864	-166.306836	-0.399023	-72.975588	-0.399023	-72.975588	-11.667506	-160.535256
1.200000	-11.553129	-169.520075	-0.411453	-76.057500	-0.411453	-76.057500	-11.548756	-163.457246
1.250000	-11.463147	-172.734918	-0.421935	-79.139864	-0.421935	-79.139864	-11.458753	-166.373654
1.300000	-11.402231	-175.953606	-0.430307	-82.224615	-0.430307	-82.224615	-11.397808	-169.285647
1.350000	-11.369781	-179.178367	-0.436520	-85.313705	-0.436520	-85.313705	-11.365319	-172.194576
1.400000	-11.366091	177.588395	-0.440505	-88.409208	-0.440505	-88.409208	-11.361575	-175.101635
1.450000	-11.391766	174.344127	-0.442217	-91.513297	-0.442217	-91.513297	-11.387178	-178.007942
1.500000	-11.447750	171.086124	-0.441636	-94.628239	-0.441636	-94.628239	-11.443062	179.085511
1.550000	-11.535359	167.811517	-0.438771	-97.756387	-0.438771	-97.756387	-11.530537	176.177919
1.600000	-11.656335	164.517261	-0.433659	-100.900167	-0.433659	-100.900167	-11.651330	173.268752
1.650000	-11.812914	161.200114	-0.426369	-104.062072	-0.426369	-104.062072	-11.807664	170.357863
1.700000	-12.007923	157.856601	-0.417001	-107.244648	-0.417001	-107.244648	-12.002341	167.445635
1.750000	-12.244904	154.482971	-0.405692	-110.450481	-0.405692	-110.450481	-12.238872	164.533194
1.800000	-12.527954	151.075451	-0.392625	-113.681946	-0.392625	-113.681946	-12.521311	161.622637
1.850000	-12.863522	147.628640	-0.377978	-116.942291	-0.377978	-116.942291	-12.856039	158.717682
1.900000	-13.258372	144.137556	-0.362021	-120.233952	-0.362021	-120.233952	-13.249726	155.824101
1.950000	-13.721560	140.596003	-0.345055	-123.559551	-0.345055	-123.559551	-13.711279	152.950844
2.000000	-14.264542	136.996766	-0.327430	-126.921435	-0.327430	-126.921435	-14.251925	150.111328
2.050000	-14.902802	133.330288	-0.309534	-130.322030	-0.309534	-130.322030	-14.886775	147.326196
2.100000	-15.657380	129.583577	-0.291804	-133.763639	-0.291804	-133.763639	-15.636227	144.627666
2.150000	-16.557827	125.737704	-0.274726	-137.248402	-0.274726	-137.248402	-16.528671	142.067613
2.200000	-17.647690	121.762294	-0.258840	-140.778383	-0.258840	-140.778383	-17.605384	139.734483
2.250000	-18.994808	117.603113	-0.244750	-144.355540	-0.244750	-144.355540	-18.929283	137.791694
2.300000	-20.711301	113.156477	-0.233081	-147.980878	-0.233081	-147.980878	-20.600571	136.556964
2.350000	-23.008493	108.177734	-0.224513	-151.655411	-0.224513	-151.655411	-22.795376	136.758923
2.400000	-26.359358	101.923699	-0.219769	-155.379739	-0.219769	-155.379739	-25.847509	140.437647
2.450000	-32.231356	90.585507	-0.219605	-159.153995	-0.219605	-159.153995	-30.310422	155.291801
2.500000	-43.836901	-3.077803	-0.224809	-162.977790	-0.224809	-162.977790	-33.769013	-153.099692
2.550000	-30.821921	-69.848531	-0.236263	-166.850669	-0.236263	-166.850669	-28.988636	-109.207664
2.600000	-25.036946	-80.094825	-0.254725	-170.770492	-0.254725	-170.770492	-24.401547	-97.661194
2.650000	-21.465939	-86.352399	-0.281006	-174.735006	-0.281006	-174.735006	-21.137869	-95.106888
2.700000	-18.867312	-91.578048	-0.315900	-178.741288	-0.315900	-178.741288	-18.660770	-95.573443
2.750000	-16.819372	-96.402455	-0.360165	177.214258	-0.360165	177.214258	-16.673451	-97.382755
2.800000	-15.128992	-101.038041	-0.414512	173.135889	-0.414512	173.135889	-15.017927	-99.905626
2.850000	-13.691634	-105.573502	-0.479673	169.028296	-0.479673	169.028296	-13.602605	-102.856608
2.900000	-12.444747	-110.051419	-0.556158	164.897177	-0.556158	164.897177	-12.370646	-106.081315
2.950000	-11.347621	-114.492163	-0.644401	160.748570	-0.644401	160.748570	-11.284167	-109.491167
3.000000	-10.372271	-118.905173	-0.744757	156.588832	-0.744757	156.588832	-10.316720	-113.030045
3.050000	-9.498600	-123.293961	-0.857464	152.424602	-0.857464	152.424602	-9.449107	-116.659294
3.100000	-8.711624	-127.658590	-0.982632	148.262689	-0.982632	148.262689	-8.666900	-120.350649
3.150000	-7.999874	-131.996923	-1.120303	144.110020	-1.120303	144.110020	-7.958988	-124.082542
3.200000	-7.354232	-136.305742	-1.270320	139.973456	-1.270320	139.973456	-7.316495	-127.837458
3.250000	-6.767182	-140.581427	-1.432356	135.859459	-1.432356	135.859459	-6.732074	-131.601126
3.300000	-6.232518	-144.820007	-1.606023	131.774191	-1.606023	131.774191	-6.199639	-135.361847
3.350000	-5.744949	-149.017647	-1.790816	127.723283	-1.790816	127.723283	-5.713986	-139.109836
3.400000	-5.300116	-153.170200	-1.986209	123.712301	-1.986209	123.712301	-5.270820	-142.836585
3.450000	-4.893688	-157.275319	-2.191421	119.744869	-2.191421	119.744869	-4.865861	-146.535708
3.500000	-4.522616	-161.328843	-2.405845	115.825975	-2.405845	115.825975	-4.496097	-150.200666
3.550000	-4.183160	-165.330208	-2.628600	111.956927	-2.628600	111.956927	-4.157820	-153.828058
3.600000	-3.873383	-169.274720	-2.858990	108.142700	-2.858990	108.142700	-3.849113	-157.412026
3.650000	-3.589317	-173.165861	-3.096179	104.380122	-3.096179	104.380122	-3.566032	-160.953544
3.700000	-3.330119	-176.997637	-3.339412	100.674960	-3.339412	100.674960	-3.307745	-164.446388
3.750000	-3.092517	179.226034	-3.588037	97.023241	-3.588037	97.023241	-3.070995	-167.892720
3.800000	-2.874622	175.504928	-3.841495	93.424498	-3.841495	93.424498	-2.853902	-171.291997
3.850000	-2.675315	171.841155	-4.099071	89.880451	-4.099071	89.880451	-2.655357	-174.641803
3.900000	-2.492845	168.233389	-4.360224	86.389536	-4.360224	86.389536	-2.473616	-177.942815
3.950000	-2.325225	164.678072	-4.624707	82.948164	-4.624707	82.948164	-2.306696	178.802152
4.000000	-2.171165	161.173858	-4.892177	79.554923	-4.892177	79.554923	-2.153316	175.592099
4.050000	-2.030213	157.723029	-5.161844	76.211871	-5.161844	76.211871	-2.013025	172.429144
4.100000	-1.900574	154.320453	-5.433782	72.914169	-5.433782	72.914169	-1.884034	169.308784
4.150000	-1.781151	150.963698	-5.707861	69.659566	-5.707861	69.659566	-1.765248	166.228828
4.200000	-1.671187	147.651646	-5.983790	66.447079	-5.983790	66.447079	-1.655913	163.188193
4.250000	-1.570250	144.384723	-6.260981	63.277216	-6.260981	63.277216	-1.555600	160.187087
4.300000	-1.477021	141.157662	-6.539861	60.145114	-6.539861	60.145114	-1.462993	157.220691
4.350000	-1.390852	137.968594	-6.820365	57.049110	-6.820365	57.049110	-1.377443	154.287154
4.400000	-1.311393	134.817251	-7.102109	53.989066	-7.102109	53.989066	-1.298604	151.385958
4.450000	-1.238039	131.701497	-7.385091	50.963069	-7.385091	50.963069	-1.225872	148.514929
4.500000	-1.170047	128.617870	-7.669706	47.967912	-7.669706	47.967912	-1.158504	145.670787
4.550000	-1.106978	125.564634	-7.956032	45.002030	-7.956032	45.002030	-1.096062	142.851725
4.600000	-1.048719	122.542153	-8.243594	42.065883	-8.243594	42.065883	-1.038436	140.057589
4.650000	-0.994627	119.546859	-8.533012	39.156136	-8.533012	39.156136	-0.984981	137.285020
4.700000	-0.944311	116.576726	-8.824597	36.270924	-8.824597	36.270924	-0.935307	134.531959
4.750000	-0.897518	113.630558	-9.118470	33.409190	-9.118470	33.409190	-0.889161	131.796995
4.800000	-0.854145	110.708180	-9.414424	30.570911	-9.414424	30.570911	-0.846442	129.079400
4.850000	-0.813697	107.806335	-9.713359	27.753025	-9.713359	27.753025	-0.806653	126.376221
4.900000	-0.775958	104.923714	-10.015621	24.954391	-10.015621	24.954391	-0.769578	123.685986
4.950000	-0.740823	102.059788	-10.321302	22.174683	-10.321302	22.174683	-0.735113	121.007703
5.000000	-0.708099	99.213251	-10.630842	19.412843	-10.630842	19.412843	-0.703064	118.339825
5.050000	-0.677511	96.382083	-10.945077	16.667080	-10.945077	16.667080	-0.673156	115.680463
5.100000	-0.648913	93.565197	-11.264561	13.936582	-11.264561	13.936582	-0.645240	113.028345
5.150000	-0.622292	90.762436	-11.589486	11.221642	-11.589486	11.221642	-0.619307	110.382567
5.200000	-0.597499	87.972522	-11.920633	8.521465	-11.920633	8.521465	-0.595204	107.741619
5.250000	-0.574262	85.193280	-12.259370	5.834148	-12.259370	5.834148	-0.572658	105.103906
5.300000	-0.552559	82.424334	-12.606308	3.159993	-12.606308	3.159993	-0.551648	102.468452
5.350000	-0.532302	79.664743	-12.962457	0.498755	-12.962457	0.498755	-0.532084	99.834102
5.400000	-0.513407	76.913596	-13.328962	-2.149640	-13.328962	-2.149640	-0.513882	97.199732
5.450000	-0.495804	74.170009	-13.707115	-4.785067	-13.707115	-4.785067	-0.496971	94.564246
5.500000	-0.479428	71.433119	-14.098393	-7.407163	-14.098393	-7.407163	-0.481286	91.926570
5.550000	-0.464225	68.702081	-14.504484	-10.015285	-14.504484	-10.015285	-0.466770	89.285649
5.600000	-0.450180	65.976184	-14.927261	-12.607890	-14.927261	-12.607890	-0.453409	86.640256
5.650000	-0.437221	63.254448	-15.369062	-15.183989	-15.369062	-15.183989	-0.441129	83.989493
5.700000	-0.425299	60.535964	-15.832580	-17.741722	-15.832580	-17.741722	-0.429883	81.332368
5.750000	-0.414449	57.820039	-16.320839	-20.277107	-16.320839	-20.277107	-0.419702	78.667421
5.800000	-0.404534	55.105579	-16.837638	-22.789153	-16.837638	-22.789153	-0.410452	75.994534
5.850000	-0.395716	52.391851	-17.387419	-25.267758	-17.387419	-25.267758	-0.402291	73.311005
5.900000	-0.387798	49.677859	-17.975464	-27.712470	-17.975464	-27.712470	-0.395026	70.617667
5.950000	-0.380956	46.962467	-18.608705	-30.106357	-18.608705	-30.106357	-0.388829	67.911368
6.000000	-0.375065	44.244840	-19.295098	-32.443292	-19.295098	-32.443292	-0.383577	65.192555
6.050000	-0.370222	41.523602	-20.045459	-34.699190	-20.045459	-34.699190	-0.379369	62.458845
6.100000	-0.366438	38.797564	-20.873348	-36.848632	-20.873348	-36.848632	-0.376213	59.709101
6.150000	-0.363708	36.065539	-21.796525	-38.856266	-21.796525	-38.856266	-0.374109	56.942416
6.200000	-0.362193	33.325249	-22.840380	-40.640927	-22.840380	-40.640927	-0.373216	54.155251
6.250000	-0.361777	30.576270	-24.037835	-42.145062	-24.037835	-42.145062	-0.373421	51.348820
6.300000	-0.362813	27.814128	-25.441267	-43.096170	-25.441267	-43.096170	-0.375079	48.515993
6.350000	-0.365130	25.038980	-27.124911	-43.292735	-27.124911	-43.292735	-0.378020	45.659287
6.400000	-0.369096	22.245323	-29.208626	-41.833761	-29.208626	-41.833761	-0.382616	42.771171
6.450000	-0.374749	19.431104	-31.883753	-37.227782	-31.883753	-37.227782	-0.388907	39.850589
6.500000	-0.382435	16.590331	-35.317105	-24.243846	-35.317105	-24.243846	-0.397243	36.890864
6.550000	-0.392610	13.715486	-38.388143	8.571792	-38.388143	8.571792	-0.408083	33.883994
6.600000	-0.405722	10.799774	-37.334238	50.667004	-37.334238	50.667004	-0.421877	30.823899
6.650000	-0.423536	7.820919	-33.690027	71.351333	-33.690027	71.351333	-0.440400	27.686123
6.700000	-0.447803	4.764920	-30.822237	80.049203	-30.822237	80.049203	-0.465404	24.458243
6.750000	-0.485309	1.582648	-28.830926	84.181992	-28.830926	84.181992	-0.503700	21.088813
6.800000	-0.552369	-1.785748	-27.634280	88.974155	-27.634280	88.974155	-0.571683	17.517016
6.850000	-0.707367	-5.361259	-26.755348	102.825771	-26.755348	102.825771	-0.728201	13.718222
6.900000	-1.070673	-8.131386	-22.413983	123.495606	-22.413983	123.495606	-1.095752	10.707113
6.950000	-1.204786	-8.062699	-17.265461	109.756368	-17.265461	109.756368	-1.235414	10.555590
7.000000	-0.970642	-10.072999	-15.700808	92.680112	-15.700808	92.680112	-1.001426	8.307359
7.050000	-0.866493	-13.360447	-14.943533	83.102372	-14.943533	83.102372	-0.897567	4.748440
7.100000	-0.853398	-16.799820	-14.226656	76.914436	-14.226656	76.914436	-0.885699	1.014644
7.150000	-0.883258	-20.247735	-13.478112	72.009820	-13.478112	72.009820	-0.917472	-2.748456
7.200000	-0.939232	-23.716327	-12.710622	67.617033	-12.710622	67.617033	-0.975949	-6.553685
7.250000	-1.016083	-27.227619	-11.937476	63.425230	-11.937476	63.425230	-1.055904	-10.424584
7.300000	-1.113799	-30.804318	-11.163722	59.278940	-11.163722	59.278940	-1.157431	-14.387341
7.350000	-1.234462	-34.466713	-10.392900	55.081658	-10.392900	55.081658	-1.282780	-18.466318
7.400000	-1.380240	-38.225323	-9.630764	50.780377	-9.630764	50.780377	-1.434290	-22.674701
7.450000	-1.555599	-42.092534	-8.878714	46.335823	-8.878714	46.335823	-1.616705	-27.029971
7.500000	-1.769027	-46.087841	-8.134549	41.700300	-8.134549	41.700300	-1.839025	-31.561888
7.550000	-2.027778	-50.214204	-7.402582	36.848143	-7.402582	36.848143	-2.109062	-36.281563
7.600000	-2.339999	-54.467666	-6.687220	31.762506	-6.687220	31.762506	-2.435698	-41.194104
7.650000	-2.722473	-58.850728	-5.988818	26.398875	-5.988818	26.398875	-2.837176	-46.324249
7.700000	-3.193028	-63.339602	-5.312765	20.732282	-5.312765	20.732282	-3.333395	-51.673905
7.750000	-3.771683	-67.883713	-4.666215	14.753546	-4.666215	14.753546	-3.947483	-57.224009
7.800000	-4.488989	-72.393740	-4.056487	8.443973	-4.056487	8.443973	-4.715724	-62.942339
7.850000	-5.379574	-76.712282	-3.492699	1.811399	-3.492699	1.811399	-5.682537	-68.747810
7.900000	-6.490368	-80.557546	-2.984881	-5.128835	-2.984881	-5.128835	-6.914293	-74.488523
7.950000	-7.877532	-83.435542	-2.542932	-12.336733	-2.542932	-12.336733	-8.507838	-79.870479
8.000000	-9.602408	-84.440465	-2.175531	-19.751059	-2.175531	-19.751059	-10.620154	-84.284326
8.050000	-11.691981	-81.778588	-1.889987	-27.293603	-1.889987	-27.293603	-13.535288	-86.175407
8.100000	-13.948533	-72.279569	-1.689046	-34.869187	-1.689046	-34.869187	-17.766860	-80.301351
8.150000	-15.458311	-53.416289	-1.571259	-42.381018	-1.571259	-42.381018	-22.741505	-45.692213
8.200000	-14.975851	-31.798893	-1.531969	-49.738176	-1.531969	-49.738176	-20.302791	6.319770
8.250000	-13.132660	-18.070122	-1.563045	-56.864059	-1.563045	-56.864059	-15.652937	20.671714
8.300000	-11.180320	-12.365451	-1.654242	-63.701804	-1.654242	-63.701804	-12.509328	21.696358
8.350000	-9.530598	-11.207135	-1.794745	-70.212557	-1.794745	-70.212557	-10.326934	19.031466
8.400000	-8.203122	-12.328052	-1.972952	-76.384718	-1.972952	-76.384718	-8.726482	15.101252
8.450000	-7.144084	-14.645331	-2.179495	-82.205258	-2.179495	-82.205258	-7.512714	10.701526
8.500000	-6.288532	-17.535205	-2.404449	-87.707770	-2.404449	-87.707770	-6.560243	6.183589
8.550000	-5.593443	-20.724222	-2.641296	-92.900795	-2.641296	-92.900795	-5.801060	1.691017
8.600000	-5.023724	-24.042538	-2.884206	-97.807208	-2.884206	-97.807208	-5.186749	-2.702235
8.650000	-4.552866	-27.394764	-3.128597	-102.451603	-3.128597	-102.451603	-4.683568	-6.963044
8.700000	-4.160756	-30.727378	-3.370944	-106.858637	-3.370944	-106.858637	-4.267219	-11.079539
8.750000	-3.832002	-34.011133	-3.608589	-111.051989	-3.608589	-111.051989	-3.919758	-15.051160
8.800000	-3.555465	-37.229600	-3.839257	-115.050085	-3.839257	-115.050085	-3.628462	-18.880466
8.850000	-3.320906	-40.377955	-4.061795	-118.877726	-4.061795	-118.877726	-3.381954	-22.579109
8.900000	-3.121104	-43.455194	-4.275204	-122.553158	-4.275204	-122.553158	-3.172289	-26.156761
8.950000	-2.950333	-46.463217	-4.478782	-126.092783	-4.478782	-126.092783	-2.993232	-29.623380
9.000000	-2.804019	-49.405597	-4.672053	-129.511293	-4.672053	-129.511293	-2.839840	-32.988711
9.050000	-2.678480	-52.286825	-4.854706	-132.821822	-4.854706	-132.821822	-2.708163	-36.262028
9.100000	-2.570733	-55.111831	-5.026547	-136.036115	-5.026547	-136.036115	-2.595017	-39.452010
9.150000	-2.478352	-57.885703	-5.187467	-139.164695	-5.187467	-139.164695	-2.497822	-42.566709
9.200000	-2.399155	-60.614242	-5.337651	-142.218207	-5.337651	-142.218207	-2.414271	-45.614631
9.250000	-2.332462	-63.298936	-5.475890	-145.199447	-5.475890	-145.199447	-2.343616	-48.597424
9.300000	-2.275435	-65.950092	-5.604088	-148.125221	-5.604088	-148.125221	-2.282906	-51.529633
9.350000	-2.228094	-68.568348	-5.720764	-150.995940	-5.720764	-150.995940	-2.232127	-54.411007
9.400000	-2.189036	-71.159889	-5.826651	-153.821010	-5.826651	-153.821010	-2.189817	-57.249657
9.450000	-2.157532	-73.728997	-5.921755	-156.606436	-5.921755	-156.606436	-2.155205	-60.050608
9.500000	-2.133409	-76.278646	-6.005365	-159.355725	-6.005365	-159.355725	-2.128089	-62.816532
9.550000	-2.115420	-78.814735	-6.078823	-162.077859	-6.078823	-162.077859	-2.107181	-65.555459
9.600000	-2.104313	-81.339090	-6.140057	-164.773446	-6.140057	-164.773446	-2.093211	-68.267029
9.650000	-2.098643	-83.857302	-6.191229	-167.451712	-6.191229	-167.451712	-2.084702	-70.959754
9.700000	-2.099275	-86.372287	-6.230247	-170.114625	-6.230247	-170.114625	-2.082495	-73.634208
9.750000	-2.105346	-88.887983	-6.258542	-172.768704	-6.258542	-172.768704	-2.085705	-76.296209
9.800000	-2.117306	-91.408245	-6.275077	-175.418264	-6.275077	-175.418264	-2.094755	-78.948443
9.850000	-2.135133	-93.936623	-6.279902	-178.068351	-6.279902	-178.068351	-2.109597	-81.594559
9.900000	-2.158772	-96.476347	-6.273271	179.276013	-6.273271	179.276013	-2.130149	-84.238092
9.950000	-2.189073	-99.032359	-6.253793	176.608538	-6.253793	176.608538	-2.157223	-86.882243
10.000000	-2.225398	-101.605497	-6.223119	173.925785	-6.223119	173.925785	-2.190167	-89.529765
