! freq	dB(S11)	phase(S11)	dB(S12)	phase(S12)	
!     	dB(S21)	phase(S21)	dB(S22)	phase(S22)	
!S-par simulation data
#  GHz  S  DB  R 50
0.000000	-0.000000	-0.000000	-354.225989	180.000000	-354.225989	180.000000	-0.000000	0.000000
0.050000	-0.000514	-0.766258	-112.070418	89.232265	-112.070418	89.232265	-0.000749	-1.200992
0.100000	-0.001678	-1.528411	-106.097787	88.194027	-106.097787	88.194027	-0.002559	-2.396689
0.150000	-0.002940	-2.286353	-102.652882	87.237263	-102.652882	87.237263	-0.004705	-3.586175
0.200000	-0.004057	-3.041738	-100.267497	86.329082	-100.267497	86.329082	-0.006744	-4.771211
0.250000	-0.005043	-3.796050	-98.468369	85.465975	-98.468369	85.465975	-0.008590	-5.954087
0.300000	-0.005938	-4.549831	-97.055675	84.659276	-97.055675	84.659276	-0.010254	-7.135771
0.350000	-0.006793	-5.303355	-95.921108	83.921723	-95.921108	83.921723	-0.011787	-8.316828
0.400000	-0.007643	-6.056718	-95.002151	83.270442	-95.002151	83.270442	-0.013234	-9.497453
0.450000	-0.008514	-6.809931	-94.267636	82.737321	-94.267636	82.737321	-0.014629	-10.677601
0.500000	-0.009415	-7.563001	-93.681602	82.338443	-93.681602	82.338443	-0.015999	-11.857215
0.550000	-0.010350	-8.315915	-93.226735	82.105468	-93.226735	82.105468	-0.017359	-13.036161
0.600000	-0.011315	-9.068648	-92.891567	82.078591	-92.891567	82.078591	-0.018717	-14.214299
0.650000	-0.012303	-9.821167	-92.668740	82.309568	-92.668740	82.309568	-0.020079	-15.391489
0.700000	-0.013304	-10.573423	-92.553808	82.865947	-92.553808	82.865947	-0.021449	-16.567595
0.750000	-0.014309	-11.325324	-92.550567	83.870086	-92.550567	83.870086	-0.022828	-17.742412
0.800000	-0.015307	-12.076777	-92.655853	85.463458	-92.655853	85.463458	-0.024219	-18.915814
0.850000	-0.016294	-12.827693	-92.861843	87.827444	-92.861843	87.827444	-0.025621	-20.087719
0.900000	-0.017268	-13.578030	-93.151984	91.128914	-93.151984	91.128914	-0.027033	-21.258142
0.950000	-0.018229	-14.327678	-93.508530	95.716680	-93.508530	95.716680	-0.028456	-22.426905
1.000000	-0.019178	-15.076574	-93.882631	101.943881	-93.882631	101.943881	-0.029887	-23.593923
1.050000	-0.020119	-15.824668	-94.184404	110.114976	-94.184404	110.114976	-0.031328	-24.759118
1.100000	-0.021055	-16.571928	-94.276211	120.260283	-94.276211	120.260283	-0.032775	-25.922418
1.150000	-0.021989	-17.318333	-94.004184	131.825079	-94.004184	131.825079	-0.034228	-27.083756
1.200000	-0.022923	-18.063870	-93.282273	143.591401	-93.282273	143.591401	-0.035686	-28.243071
1.250000	-0.023859	-18.808531	-92.159549	154.198146	-92.159549	154.198146	-0.037148	-29.400304
1.300000	-0.024797	-19.552273	-90.766089	162.763992	-90.766089	162.763992	-0.038612	-30.555307
1.350000	-0.025739	-20.295133	-89.270857	169.313843	-89.270857	169.313843	-0.040078	-31.708120
1.400000	-0.026684	-21.037106	-87.770325	174.147848	-87.770325	174.147848	-0.041544	-32.858696
1.450000	-0.027633	-21.778191	-86.315280	177.629470	-86.315280	177.629470	-0.043009	-34.006991
1.500000	-0.028584	-22.518383	-84.927704	-179.922765	-84.927704	-179.922765	-0.044474	-35.152964
1.550000	-0.029538	-23.257678	-83.614135	-178.259797	-83.614135	-178.259797	-0.045936	-36.296574
1.600000	-0.030494	-23.996071	-82.373627	-177.195417	-82.373627	-177.195417	-0.047396	-37.437784
1.650000	-0.031453	-24.733555	-81.201965	-176.592357	-81.201965	-176.592357	-0.048854	-38.576559
1.700000	-0.032412	-25.470124	-80.093774	-176.349356	-80.093774	-176.349356	-0.050308	-39.712865
1.750000	-0.033373	-26.205769	-79.043514	-176.391115	-79.043514	-176.391115	-0.051759	-40.846669
1.800000	-0.034335	-26.940482	-78.045930	-176.661008	-78.045930	-176.661008	-0.053207	-41.977941
1.850000	-0.035297	-27.674254	-77.096224	-177.115909	-77.096224	-177.115909	-0.054651	-43.106652
1.900000	-0.036260	-28.407076	-76.190096	-177.722548	-76.190096	-177.722548	-0.056092	-44.232773
1.950000	-0.037224	-29.138938	-75.323730	-178.454939	-75.323730	-178.454939	-0.057531	-45.356279
2.000000	-0.038189	-29.869829	-74.493749	-179.292539	-74.493749	-179.292539	-0.058966	-46.477144
2.050000	-0.039154	-30.599738	-73.697170	179.781072	-73.697170	179.781072	-0.060399	-47.595344
2.100000	-0.040120	-31.328655	-72.931350	178.779160	-72.931350	178.779160	-0.061829	-48.710857
2.150000	-0.041087	-32.056569	-72.193949	177.712545	-72.193949	177.712545	-0.063258	-49.823660
2.200000	-0.042055	-32.783468	-71.482882	176.590132	-71.482882	176.590132	-0.064686	-50.933733
2.250000	-0.043025	-33.509341	-70.796291	175.419312	-70.796291	175.419312	-0.066114	-52.041057
2.300000	-0.043997	-34.234176	-70.132511	174.206269	-70.132511	174.206269	-0.067541	-53.145615
2.350000	-0.044970	-34.957962	-69.490047	172.956211	-69.490047	172.956211	-0.068969	-54.247388
2.400000	-0.045946	-35.680687	-68.867552	171.673556	-68.867552	171.673556	-0.070398	-55.346361
2.450000	-0.046924	-36.402339	-68.263808	170.362075	-68.263808	170.362075	-0.071828	-56.442520
2.500000	-0.047905	-37.122906	-67.677710	169.025005	-67.677710	169.025005	-0.073262	-57.535850
2.550000	-0.048890	-37.842329	-67.107356	167.664265	-67.107356	167.664265	-0.074698	-58.626217
2.600000	-0.049879	-38.560644	-66.552821	166.283344	-66.552821	166.283344	-0.076139	-59.713730
2.650000	-0.050871	-39.277838	-66.013255	164.884321	-66.013255	164.884321	-0.077585	-60.798382
2.700000	-0.051869	-39.993901	-65.487879	163.469019	-65.487879	163.469019	-0.079035	-61.880163
2.750000	-0.052871	-40.708822	-64.975975	162.039043	-64.975975	162.039043	-0.080493	-62.959065
2.800000	-0.053878	-41.422588	-64.476885	160.595814	-64.476885	160.595814	-0.081957	-64.035083
2.850000	-0.054891	-42.135191	-63.989998	159.140592	-63.989998	159.140592	-0.083428	-65.108211
2.900000	-0.055910	-42.846618	-63.514750	157.674501	-63.514750	157.674501	-0.084908	-66.178445
2.950000	-0.056935	-43.556859	-63.050619	156.198545	-63.050619	156.198545	-0.086397	-67.245783
3.000000	-0.057967	-44.265904	-62.597116	154.713624	-62.597116	154.713624	-0.087896	-68.310223
3.050000	-0.059007	-44.973743	-62.153790	153.220550	-62.153790	153.220550	-0.089406	-69.371765
3.100000	-0.060054	-45.680366	-61.720218	151.720053	-61.720218	151.720053	-0.090927	-70.430410
3.150000	-0.061109	-46.385764	-61.296005	150.212797	-61.296005	150.212797	-0.092460	-71.486160
3.200000	-0.062172	-47.089926	-60.880781	148.699381	-60.880781	148.699381	-0.094005	-72.539018
3.250000	-0.063244	-47.792845	-60.474200	147.180354	-60.474200	147.180354	-0.095564	-73.588989
3.300000	-0.064325	-48.494511	-60.075936	145.656216	-60.075936	145.656216	-0.097137	-74.636079
3.350000	-0.065416	-49.194915	-59.685683	144.127423	-59.685683	144.127423	-0.098725	-75.680294
3.400000	-0.066517	-49.894050	-59.303152	142.594396	-59.303152	142.594396	-0.100328	-76.721642
3.450000	-0.067628	-50.591907	-58.928073	141.057520	-58.928073	141.057520	-0.101947	-77.760134
3.500000	-0.068750	-51.288479	-58.560188	139.517153	-58.560188	139.517153	-0.103583	-78.795778
3.550000	-0.069883	-51.983758	-58.199254	137.973622	-58.199254	137.973622	-0.105237	-79.828588
3.600000	-0.071027	-52.677737	-57.845042	136.427235	-57.845042	136.427235	-0.106908	-80.858575
3.650000	-0.072183	-53.370410	-57.497334	134.878272	-57.497334	134.878272	-0.108598	-81.885753
3.700000	-0.073351	-54.061770	-57.155923	133.327000	-57.155923	133.327000	-0.110307	-82.910139
3.750000	-0.074532	-54.751810	-56.820613	131.773663	-56.820613	131.773663	-0.112036	-83.931747
3.800000	-0.075726	-55.440468	-56.490933	130.218421	-56.490933	130.218421	-0.113787	-84.950476
3.850000	-0.076933	-56.127794	-56.167011	128.661578	-56.167011	128.661578	-0.115558	-85.966466
3.900000	-0.078155	-56.813784	-55.848677	127.103333	-55.848677	127.103333	-0.117351	-86.979735
3.950000	-0.079390	-57.498432	-55.535768	125.543875	-55.535768	125.543875	-0.119167	-87.990306
4.000000	-0.080639	-58.181735	-55.228128	123.983381	-55.228128	123.983381	-0.121005	-88.998199
4.050000	-0.081904	-58.863687	-54.925608	122.422018	-54.925608	122.422018	-0.122866	-90.003437
4.100000	-0.083183	-59.544286	-54.628068	120.859943	-54.628068	120.859943	-0.124751	-91.006044
4.150000	-0.084478	-60.223526	-54.335369	119.297306	-54.335369	119.297306	-0.126661	-92.006046
4.200000	-0.085789	-60.901406	-54.047383	117.734247	-54.047383	117.734247	-0.128595	-93.003468
4.250000	-0.087116	-61.577921	-53.763984	116.170900	-53.763984	116.170900	-0.130555	-93.998337
4.300000	-0.088459	-62.253070	-53.485053	114.607392	-53.485053	114.607392	-0.132541	-94.990681
4.350000	-0.089820	-62.926850	-53.210473	113.043843	-53.210473	113.043843	-0.134553	-95.980529
4.400000	-0.091197	-63.599258	-52.940136	111.480367	-52.940136	111.480367	-0.136593	-96.967911
4.450000	-0.092593	-64.270294	-52.673934	109.917072	-52.673934	109.917072	-0.138659	-97.952857
4.500000	-0.094006	-64.939955	-52.411765	108.354063	-52.411765	108.354063	-0.140753	-98.935399
4.550000	-0.095438	-65.608240	-52.153530	106.791436	-52.153530	106.791436	-0.142876	-99.915570
4.600000	-0.096888	-66.275149	-51.899135	105.229285	-51.899135	105.229285	-0.145028	-100.893404
4.650000	-0.098358	-66.940681	-51.648488	103.667698	-51.648488	103.667698	-0.147208	-101.868934
4.700000	-0.099847	-67.604836	-51.401500	102.106761	-51.401500	102.106761	-0.149419	-102.842197
4.750000	-0.101356	-68.267613	-51.158087	100.546553	-51.158087	100.546553	-0.151660	-103.813227
4.800000	-0.102886	-68.929014	-50.918166	98.987150	-50.918166	98.987150	-0.153931	-104.782063
4.850000	-0.104436	-69.589038	-50.681657	97.428626	-50.681657	97.428626	-0.156233	-105.748742
4.900000	-0.106007	-70.247687	-50.448483	95.871048	-50.448483	95.871048	-0.158567	-106.713303
4.950000	-0.107599	-70.904962	-50.218571	94.314483	-50.218571	94.314483	-0.160932	-107.675784
5.000000	-0.109213	-71.560864	-49.991849	92.758993	-49.991849	92.758993	-0.163330	-108.636227
5.050000	-0.110850	-72.215335	-49.768132	91.204688	-49.768132	91.204688	-0.165762	-109.594588
5.100000	-0.112509	-72.868438	-49.547475	89.651577	-49.547475	89.651577	-0.168228	-110.550997
5.150000	-0.114192	-73.520175	-49.329813	88.099713	-49.329813	88.099713	-0.170726	-111.505496
5.200000	-0.115898	-74.170548	-49.115082	86.549146	-49.115082	86.549146	-0.173259	-112.458130
5.250000	-0.117627	-74.819560	-48.903220	84.999922	-48.903220	84.999922	-0.175826	-113.408941
5.300000	-0.119380	-75.467214	-48.694168	83.452087	-48.694168	83.452087	-0.178428	-114.357976
5.350000	-0.121158	-76.113514	-48.487868	81.905681	-48.487868	81.905681	-0.181065	-115.305280
5.400000	-0.122961	-76.758464	-48.284263	80.360746	-48.284263	80.360746	-0.183737	-116.250899
5.450000	-0.124789	-77.402067	-48.083301	78.817317	-48.083301	78.817317	-0.186445	-117.194880
5.500000	-0.126642	-78.044328	-47.884928	77.275431	-47.884928	77.275431	-0.189190	-118.137270
5.550000	-0.128522	-78.685250	-47.689092	75.735121	-47.689092	75.735121	-0.191971	-119.078119
5.600000	-0.130428	-79.324839	-47.495746	74.196417	-47.495746	74.196417	-0.194789	-120.017475
5.650000	-0.132361	-79.963100	-47.304840	72.659350	-47.304840	72.659350	-0.197644	-120.955387
5.700000	-0.134320	-80.600037	-47.116328	71.123947	-47.116328	71.123947	-0.200537	-121.891907
5.750000	-0.136308	-81.235657	-46.930165	69.590234	-46.930165	69.590234	-0.203468	-122.827085
5.800000	-0.138323	-81.869964	-46.746308	68.058235	-46.746308	68.058235	-0.206437	-123.760973
5.850000	-0.140372	-82.502740	-46.564451	66.528283	-46.564451	66.528283	-0.209452	-124.693423
5.900000	-0.142450	-83.134159	-46.384762	65.000168	-46.384762	65.000168	-0.212507	-125.624639
5.950000	-0.144544	-83.764906	-46.207969	63.472989	-46.207969	63.472989	-0.215584	-126.555287
6.000000	-0.146684	-84.393635	-46.032506	61.948621	-46.032506	61.948621	-0.218722	-127.484228
6.050000	-0.148835	-85.021921	-45.860053	60.424890	-45.860053	60.424890	-0.221875	-128.412832
6.100000	-0.151038	-85.647990	-45.688682	58.904347	-45.688682	58.904347	-0.225097	-129.339740
6.150000	-0.153247	-86.273841	-45.520411	57.384129	-45.520411	57.384129	-0.228327	-130.266499
6.200000	-0.155515	-86.897282	-45.353006	55.867486	-45.353006	55.867486	-0.231634	-131.191619
6.250000	-0.157784	-87.520723	-45.188766	54.350843	-45.188766	54.350843	-0.234943	-132.116739
6.300000	-0.160119	-88.141569	-45.025209	52.838166	-45.025209	52.838166	-0.238337	-133.040321
6.350000	-0.162454	-88.762415	-44.864674	51.325490	-44.864674	51.325490	-0.241732	-133.963904
6.400000	-0.164851	-89.380916	-44.705039	49.816510	-44.705039	49.816510	-0.245207	-134.886312
6.450000	-0.167255	-89.999203	-44.548105	48.307865	-44.548105	48.307865	-0.248691	-135.808614
6.500000	-0.169716	-90.615388	-44.392261	46.802634	-44.392261	46.802634	-0.252248	-136.730067
6.550000	-0.172190	-91.231154	-44.238830	45.298085	-44.238830	45.298085	-0.255821	-137.651350
6.600000	-0.174717	-91.845057	-44.086653	43.796658	-44.086653	43.796658	-0.259461	-138.572069
6.650000	-0.177263	-92.458339	-43.936635	42.296271	-43.936635	42.296271	-0.263125	-139.492601
6.700000	-0.179845	-93.070397	-43.788290	40.797992	-43.788290	40.797992	-0.266834	-140.412870
6.750000	-0.182469	-93.681085	-43.641489	39.302101	-43.641489	39.302101	-0.270595	-141.332901
6.800000	-0.185128	-94.290620	-43.496359	37.808263	-43.496359	37.808263	-0.274400	-142.252810
6.850000	-0.187824	-94.899011	-43.352877	36.316498	-43.352877	36.316498	-0.278251	-143.172661
6.900000	-0.190557	-95.506267	-43.211021	34.826823	-43.211021	34.826823	-0.282146	-144.092519
6.950000	-0.193326	-96.112400	-43.070771	33.339256	-43.070771	33.339256	-0.286087	-145.012449
7.000000	-0.196133	-96.717420	-42.932105	31.853819	-42.932105	31.853819	-0.290073	-145.932518
7.050000	-0.198978	-97.321336	-42.795005	30.370531	-42.795005	30.370531	-0.294105	-146.852793
7.100000	-0.201862	-97.924161	-42.659451	28.889414	-42.659451	28.889414	-0.298183	-147.773340
7.150000	-0.204783	-98.525905	-42.525423	27.410493	-42.525423	27.410493	-0.302308	-148.694229
7.200000	-0.207744	-99.126578	-42.392906	25.933790	-42.392906	25.933790	-0.306479	-149.615527
7.250000	-0.210745	-99.726193	-42.261879	24.459331	-42.261879	24.459331	-0.310697	-150.537304
7.300000	-0.213785	-100.324760	-42.132327	22.987142	-42.132327	22.987142	-0.314961	-151.459630
7.350000	-0.216865	-100.922292	-42.004233	21.517253	-42.004233	21.517253	-0.319274	-152.382575
7.400000	-0.219985	-101.518799	-41.877581	20.049690	-41.877581	20.049690	-0.323633	-153.306210
7.450000	-0.223147	-102.114294	-41.752354	18.584486	-41.752354	18.584486	-0.328041	-154.230607
7.500000	-0.226349	-102.708789	-41.628538	17.121671	-41.628538	17.121671	-0.332496	-155.155838
7.550000	-0.229595	-103.302254	-41.506103	15.661387	-41.506103	15.661387	-0.337002	-156.082019
7.600000	-0.232883	-103.894744	-41.385051	14.203563	-41.385051	14.203563	-0.341556	-157.009187
7.650000	-0.236213	-104.486271	-41.265368	12.748237	-41.265368	12.748237	-0.346158	-157.937417
7.700000	-0.239586	-105.076850	-41.147038	11.295444	-41.147038	11.295444	-0.350809	-158.866784
7.750000	-0.243002	-105.666491	-41.030048	9.845225	-41.030048	9.845225	-0.355510	-159.797362
7.800000	-0.246461	-106.255209	-40.914385	8.397620	-40.914385	8.397620	-0.360259	-160.729229
7.850000	-0.249964	-106.843016	-40.800034	6.952670	-40.800034	6.952670	-0.365058	-161.662461
7.900000	-0.253511	-107.429926	-40.686983	5.510417	-40.686983	5.510417	-0.369906	-162.597136
7.950000	-0.257102	-108.015951	-40.575218	4.070907	-40.575218	4.070907	-0.374804	-163.533332
8.000000	-0.260737	-108.601106	-40.464726	2.634183	-40.464726	2.634183	-0.379752	-164.471127
8.050000	-0.264418	-109.185404	-40.355494	1.200293	-40.355494	1.200293	-0.384750	-165.410601
8.100000	-0.268144	-109.768859	-40.247509	-0.230716	-40.247509	-0.230716	-0.389798	-166.351834
8.150000	-0.271915	-110.351485	-40.140759	-1.658795	-40.140759	-1.658795	-0.394896	-167.294906
8.200000	-0.275732	-110.933296	-40.035231	-3.083895	-40.035231	-3.083895	-0.400044	-168.239900
8.250000	-0.279595	-111.514306	-39.930911	-4.505965	-39.930911	-4.505965	-0.405244	-169.186897
8.300000	-0.283504	-112.094529	-39.827787	-5.924954	-39.827787	-5.924954	-0.410494	-170.135980
8.350000	-0.287460	-112.673980	-39.725847	-7.340811	-39.725847	-7.340811	-0.415794	-171.087232
8.400000	-0.291463	-113.252674	-39.625078	-8.753481	-39.625078	-8.753481	-0.421146	-172.040737
8.450000	-0.295513	-113.830626	-39.525466	-10.162912	-39.525466	-10.162912	-0.426549	-172.996580
8.500000	-0.299611	-114.407850	-39.427000	-11.569051	-39.427000	-11.569051	-0.432003	-173.954847
8.550000	-0.303756	-114.984361	-39.329666	-12.971842	-39.329666	-12.971842	-0.437508	-174.915622
8.600000	-0.307949	-115.560175	-39.233450	-14.371231	-39.233450	-14.371231	-0.443064	-175.878993
8.650000	-0.312190	-116.135307	-39.138341	-15.767163	-39.138341	-15.767163	-0.448672	-176.845047
8.700000	-0.316480	-116.709773	-39.044325	-17.159584	-39.044325	-17.159584	-0.454331	-177.813872
8.750000	-0.320818	-117.283588	-38.951388	-18.548438	-38.951388	-18.548438	-0.460041	-178.785556
8.800000	-0.325206	-117.856742	-38.859521	-19.933511	-38.859521	-19.933511	-0.465805	-179.760322
8.850000	-0.329644	-118.429277	-38.768707	-21.314904	-38.768707	-21.314904	-0.471621	179.261867
8.900000	-0.334131	-119.001212	-38.678933	-22.692561	-38.678933	-22.692561	-0.477488	178.280918
8.950000	-0.338667	-119.572561	-38.590185	-24.066429	-38.590185	-24.066429	-0.483406	177.296742
9.000000	-0.343252	-120.143342	-38.502447	-25.436455	-38.502447	-25.436455	-0.489376	176.309246
9.050000	-0.347887	-120.713571	-38.415707	-26.802587	-38.415707	-26.802587	-0.495398	175.318338
9.100000	-0.352572	-121.283264	-38.329950	-28.164772	-38.329950	-28.164772	-0.501471	174.323926
9.150000	-0.357307	-121.852439	-38.245161	-29.522960	-38.245161	-29.522960	-0.507595	173.325917
9.200000	-0.362091	-122.421113	-38.161325	-30.877100	-38.161325	-30.877100	-0.513771	172.324216
9.250000	-0.366926	-122.989302	-38.078428	-32.227144	-38.078428	-32.227144	-0.519998	171.318729
9.300000	-0.371811	-123.557025	-37.996454	-33.573045	-37.996454	-33.573045	-0.526276	170.309362
9.350000	-0.376746	-124.124298	-37.915389	-34.914755	-37.915389	-34.914755	-0.532605	169.296019
9.400000	-0.381732	-124.691140	-37.835217	-36.252231	-37.835217	-36.252231	-0.538986	168.278604
9.450000	-0.386768	-125.257568	-37.755922	-37.585428	-37.755922	-37.585428	-0.545417	167.257023
9.500000	-0.391854	-125.823600	-37.677489	-38.914304	-37.677489	-38.914304	-0.551898	166.231177
9.550000	-0.396991	-126.389254	-37.599902	-40.238820	-37.599902	-40.238820	-0.558430	165.200971
9.600000	-0.402178	-126.954550	-37.523145	-41.558936	-37.523145	-41.558936	-0.565013	164.166307
9.650000	-0.407415	-127.519505	-37.447202	-42.874617	-37.447202	-42.874617	-0.571645	163.127088
9.700000	-0.412703	-128.084138	-37.372057	-44.185828	-37.372057	-44.185828	-0.578327	162.083216
9.750000	-0.418042	-128.648468	-37.297694	-45.492536	-37.297694	-45.492536	-0.585059	161.034594
9.800000	-0.423431	-129.212514	-37.224095	-46.794710	-37.224095	-46.794710	-0.591840	159.981123
9.850000	-0.428870	-129.776295	-37.151246	-48.092323	-37.151246	-48.092323	-0.598670	158.922706
9.900000	-0.434360	-130.339832	-37.079128	-49.385347	-37.079128	-49.385347	-0.605549	157.859243
9.950000	-0.439899	-130.903142	-37.007726	-50.673759	-37.007726	-50.673759	-0.612476	156.790638
10.000000	-0.445489	-131.466247	-36.937023	-51.957538	-36.937023	-51.957538	-0.619451	155.716792
