! freq	dB(S11)	phase(S11)	dB(S12)	phase(S12)	
!     	dB(S21)	phase(S21)	dB(S22)	phase(S22)	
!S-par simulation data
#  GHz  S  DB  R 50
0.000000	-0.000000	0.000000	-326.000256	0.000000	-326.000256	0.000000	-0.000000	0.000000
0.050000	-0.000080	-0.769744	-97.720711	3.419453	-97.720711	3.419453	-0.000051	-0.802764
0.100000	-0.000319	-1.539324	-97.761738	4.521979	-97.761738	4.521979	-0.000203	-1.605457
0.150000	-0.000709	-2.308583	-97.835661	6.113470	-97.835661	6.113470	-0.000455	-2.408006
0.200000	-0.001240	-3.077386	-97.943687	7.801141	-97.943687	7.801141	-0.000805	-3.210346
0.250000	-0.001907	-3.845568	-98.092732	9.500476	-98.092732	9.500476	-0.001255	-4.012390
0.300000	-0.002683	-4.613082	-98.285701	11.180021	-98.285701	11.180021	-0.001795	-4.814097
0.350000	-0.003559	-5.379821	-98.532517	12.827322	-98.532517	12.827322	-0.002425	-5.615393
0.400000	-0.004520	-6.145722	-98.844219	14.438657	-98.844219	14.438657	-0.003140	-6.416213
0.450000	-0.005548	-6.910741	-99.235315	16.018357	-99.235315	16.018357	-0.003938	-7.216498
0.500000	-0.006631	-7.674853	-99.725198	17.579952	-99.725198	17.579952	-0.004813	-8.016190
0.550000	-0.007754	-8.438046	-100.340519	19.150043	-100.340519	19.150043	-0.005759	-8.815235
0.600000	-0.008905	-9.200320	-101.119338	20.776881	-101.119338	20.776881	-0.006772	-9.613583
0.650000	-0.010075	-9.961684	-102.118817	22.549615	-102.118817	22.549615	-0.007845	-10.411185
0.700000	-0.011253	-10.722152	-103.430747	24.646344	-103.430747	24.646344	-0.008973	-11.208001
0.750000	-0.012434	-11.481742	-105.216411	27.477162	-105.216411	27.477162	-0.010148	-12.003991
0.800000	-0.013611	-12.240473	-107.795901	32.254047	-107.795901	32.254047	-0.011364	-12.799122
0.850000	-0.014780	-12.998364	-111.866325	44.896374	-111.866325	44.896374	-0.012615	-13.593364
0.900000	-0.015937	-13.755435	-116.782666	87.972454	-116.782666	87.972454	-0.013895	-14.386694
0.950000	-0.017082	-14.511701	-114.224746	161.486477	-114.224746	161.486477	-0.015197	-15.179090
1.000000	-0.018211	-15.267176	-107.865624	-175.979765	-107.865624	-175.979765	-0.016515	-15.970536
1.050000	-0.019324	-16.021871	-103.668678	-169.692911	-103.668678	-169.692911	-0.017843	-16.761021
1.100000	-0.020422	-16.775793	-100.563302	-166.814507	-100.563302	-166.814507	-0.019178	-17.550534
1.150000	-0.021504	-17.528948	-98.065998	-165.216578	-98.065998	-165.216578	-0.020512	-18.339071
1.200000	-0.022571	-18.281338	-95.953587	-164.263056	-95.953587	-164.263056	-0.021843	-19.126627
1.250000	-0.023623	-19.032962	-94.106830	-163.696627	-94.106830	-163.696627	-0.023166	-19.913202
1.300000	-0.024662	-19.783784	-92.448978	-163.400677	-92.448978	-163.400677	-0.024478	-20.698752
1.350000	-0.025688	-20.533832	-90.941911	-163.294756	-90.941911	-163.294756	-0.025776	-21.483323
1.400000	-0.026702	-21.283098	-89.554438	-163.339463	-89.554438	-163.339463	-0.027058	-22.266916
1.450000	-0.027707	-22.031573	-88.264471	-163.508868	-88.264471	-163.508868	-0.028322	-23.049532
1.500000	-0.028702	-22.779248	-87.055804	-163.784983	-87.055804	-163.784983	-0.029567	-23.831175
1.550000	-0.029690	-23.526109	-85.916193	-164.154744	-85.916193	-164.154744	-0.030792	-24.611845
1.600000	-0.030670	-24.272146	-84.836167	-164.608280	-84.836167	-164.608280	-0.031998	-25.391542
1.650000	-0.031645	-25.017344	-83.808248	-165.137866	-83.808248	-165.137866	-0.033183	-26.170266
1.700000	-0.032613	-25.761384	-82.803505	-165.759135	-82.803505	-165.759135	-0.034343	-26.947673
1.750000	-0.033579	-26.504975	-81.872949	-166.414975	-81.872949	-166.414975	-0.035492	-27.724571
1.800000	-0.034542	-27.247482	-80.964858	-167.142269	-80.964858	-167.142269	-0.036619	-28.500269
1.850000	-0.035502	-27.989216	-80.099106	-167.920603	-80.099106	-167.920603	-0.037730	-29.275109
1.900000	-0.036461	-28.729986	-79.260745	-168.752716	-79.260745	-168.752716	-0.038825	-30.048905
1.950000	-0.037419	-29.469794	-78.449664	-169.638610	-78.449664	-169.638610	-0.039904	-30.821657
2.000000	-0.038377	-30.208770	-77.670123	-170.564272	-77.670123	-170.564272	-0.040971	-31.593519
2.050000	-0.039336	-30.946581	-76.906360	-171.545610	-76.906360	-171.545610	-0.042023	-32.364138
2.100000	-0.040295	-31.683703	-76.177483	-172.555294	-76.177483	-172.555294	-0.043068	-33.134028
2.150000	-0.041256	-32.419447	-75.455532	-173.621669	-75.455532	-173.621669	-0.044099	-33.902460
2.200000	-0.042219	-33.154657	-74.771043	-174.706973	-74.771043	-174.706973	-0.045126	-34.670330
2.250000	-0.043186	-33.888265	-74.086666	-175.849064	-74.086666	-175.849064	-0.046142	-35.436514
2.300000	-0.044153	-34.621505	-73.441607	-177.002340	-73.441607	-177.002340	-0.047156	-36.202312
2.350000	-0.045127	-35.352909	-72.791455	-178.211551	-72.791455	-178.211551	-0.048163	-36.966180
2.400000	-0.046102	-36.084124	-72.181823	-179.425682	-72.181823	-179.425682	-0.049170	-37.729849
2.450000	-0.047084	-36.813258	-71.563169	179.306055	-71.563169	179.306055	-0.050173	-38.491330
2.500000	-0.048067	-37.542392	-70.985664	178.037792	-70.985664	178.037792	-0.051177	-39.252811
2.550000	-0.049060	-38.269194	-70.396228	176.718118	-70.396228	176.718118	-0.052181	-40.011832
2.600000	-0.050053	-38.995996	-69.844263	175.398444	-69.844263	175.398444	-0.053186	-40.770854
2.650000	-0.051056	-39.720604	-69.285894	174.038292	-69.285894	174.038292	-0.054196	-41.527554
2.700000	-0.052061	-40.445013	-68.757898	172.674461	-68.757898	172.674461	-0.055206	-42.284043
2.750000	-0.053077	-41.167380	-68.228047	171.279544	-68.228047	171.279544	-0.056225	-43.038362
2.800000	-0.054094	-41.889339	-67.722617	169.878412	-67.722617	169.878412	-0.057245	-43.792247
2.850000	-0.055123	-42.609421	-67.219035	168.454125	-67.219035	168.454125	-0.058275	-44.544127
2.900000	-0.056155	-43.328876	-66.734883	167.022120	-66.734883	167.022120	-0.059309	-45.295339
2.950000	-0.057198	-44.046627	-66.255552	165.573505	-66.255552	165.573505	-0.060353	-46.044726
3.000000	-0.058245	-44.763528	-65.791468	164.116586	-65.791468	164.116586	-0.061403	-46.793200
3.050000	-0.059303	-45.478910	-65.334562	162.648305	-65.334562	162.648305	-0.062464	-47.540040
3.100000	-0.060367	-46.193207	-64.889392	161.171909	-64.889392	161.171909	-0.063533	-48.285714
3.150000	-0.061440	-46.906182	-64.453242	159.688214	-64.453242	159.688214	-0.064613	-49.029960
3.200000	-0.062523	-47.617833	-64.025871	158.197220	-64.025871	158.197220	-0.065704	-49.772777
3.250000	-0.063613	-48.328364	-63.608942	156.701930	-63.608942	156.701930	-0.066804	-50.514381
3.300000	-0.064715	-49.037327	-63.198287	155.200626	-63.198287	155.200626	-0.067919	-51.254289
3.350000	-0.065823	-49.745382	-62.799163	153.697114	-62.799163	153.697114	-0.069042	-51.993211
3.400000	-0.066945	-50.451619	-62.404175	152.189185	-62.404175	152.189185	-0.070183	-52.730163
3.450000	-0.068072	-51.157167	-62.021546	150.680370	-62.021546	150.680370	-0.071330	-53.466365
3.500000	-0.069216	-51.860645	-61.641207	149.168897	-61.641207	149.168897	-0.072499	-54.200318
3.550000	-0.070363	-52.563657	-61.273860	147.657249	-61.273860	147.657249	-0.073672	-54.933765
3.600000	-0.071530	-53.264344	-60.907192	146.144726	-60.907192	146.144726	-0.074870	-55.664683
3.650000	-0.072698	-53.964796	-60.554002	144.632278	-60.554002	144.632278	-0.076071	-56.395346
3.700000	-0.073889	-54.662663	-60.200072	143.120644	-60.200072	143.120644	-0.077300	-57.123198
3.750000	-0.075080	-55.360531	-59.860001	141.609010	-59.860001	141.609010	-0.078530	-57.851050
3.800000	-0.076297	-56.055554	-59.517924	140.099691	-59.517924	140.099691	-0.079792	-58.575810
3.850000	-0.077513	-56.750578	-59.188810	138.590372	-59.188810	138.590372	-0.081054	-59.300570
3.900000	-0.078755	-57.442975	-58.858960	137.084057	-58.858960	137.084057	-0.082348	-60.022476
3.950000	-0.079999	-58.135133	-58.540062	135.578014	-58.540062	135.578014	-0.083645	-60.744122
4.000000	-0.081267	-58.824887	-58.221527	134.075166	-58.221527	134.075166	-0.084971	-61.463161
4.050000	-0.082539	-59.514161	-57.912154	132.572957	-57.912154	132.572957	-0.086304	-62.181678
4.100000	-0.083835	-60.201260	-57.604111	131.073780	-57.604111	131.073780	-0.087664	-62.897840
4.150000	-0.085138	-60.887634	-57.303624	129.575614	-57.303624	129.575614	-0.089034	-63.613217
4.200000	-0.086462	-61.572066	-57.005330	128.080091	-57.005330	128.080091	-0.090430	-64.326496
4.250000	-0.087797	-62.255528	-56.713145	126.585890	-56.713145	126.585890	-0.091839	-65.038726
4.300000	-0.089151	-62.937285	-56.423933	125.093824	-56.423933	125.093824	-0.093270	-65.749120
4.350000	-0.090519	-63.617825	-56.139523	123.603283	-56.139523	123.603283	-0.094719	-66.458202
4.400000	-0.091906	-64.296900	-55.858797	122.114334	-55.858797	122.114334	-0.096189	-67.165711
4.450000	-0.093309	-64.974510	-55.581693	120.626976	-55.581693	120.626976	-0.097679	-67.871647
4.500000	-0.094729	-65.650899	-55.308922	119.140695	-55.308922	119.140695	-0.099187	-68.576276
4.550000	-0.096170	-66.325577	-55.038710	117.655923	-55.038710	117.655923	-0.100719	-69.279073
4.600000	-0.097624	-66.999277	-54.773425	116.171791	-54.773425	116.171791	-0.102267	-69.980828
4.650000	-0.099103	-67.671020	-54.509744	114.688937	-54.509744	114.688937	-0.103844	-70.680498
4.700000	-0.100594	-68.342031	-54.251531	113.206388	-54.251531	113.206388	-0.105432	-71.379390
4.750000	-0.102114	-69.010841	-53.994071	111.724755	-53.994071	111.724755	-0.107055	-72.075946
4.800000	-0.103642	-69.679164	-53.742567	110.243212	-53.742567	110.243212	-0.108685	-72.771987
4.850000	-0.105205	-70.345046	-53.491066	108.762114	-53.491066	108.762114	-0.110354	-73.465449
4.900000	-0.106773	-71.010684	-53.245954	107.281008	-53.245954	107.281008	-0.112027	-74.158655
4.950000	-0.108380	-71.673643	-53.000194	105.799804	-53.000194	105.799804	-0.113744	-74.849044
5.000000	-0.109989	-72.336603	-52.761197	104.318600	-52.761197	104.318600	-0.115461	-75.539434
5.050000	-0.111643	-72.996649	-52.520999	102.836720	-52.520999	102.836720	-0.117228	-76.226775
5.100000	-0.113298	-73.656695	-52.287265	101.354841	-52.287265	101.354841	-0.118994	-76.914116
5.150000	-0.114997	-74.314081	-52.053097	99.871907	-52.053097	99.871907	-0.120807	-77.598689
5.200000	-0.116700	-74.971225	-51.824496	98.388879	-51.824496	98.388879	-0.122624	-78.283010
5.250000	-0.118445	-75.625962	-51.596166	96.904594	-51.596166	96.904594	-0.124485	-78.964841
5.300000	-0.120199	-76.280218	-51.372595	95.420059	-51.372595	95.420059	-0.126354	-79.646173
5.350000	-0.121992	-76.932320	-51.149936	93.934223	-51.149936	93.934223	-0.128263	-80.325288
5.400000	-0.123799	-77.583704	-50.931315	92.447953	-50.931315	92.447953	-0.130186	-81.003665
5.450000	-0.125642	-78.233186	-50.714179	90.960467	-50.714179	90.960467	-0.132145	-81.680095
5.500000	-0.127503	-78.881716	-50.500445	89.472373	-50.500445	89.472373	-0.134122	-82.355551
5.550000	-0.129397	-79.528593	-50.288700	87.983246	-50.288700	87.983246	-0.136132	-83.029327
5.600000	-0.131315	-80.174290	-50.079802	86.493382	-50.079802	86.493382	-0.138165	-83.701902
5.650000	-0.133262	-80.818582	-49.873329	85.002732	-49.873329	85.002732	-0.140227	-84.373056
5.700000	-0.135238	-81.461469	-49.669225	83.511296	-49.669225	83.511296	-0.142318	-85.042789
5.750000	-0.137240	-82.103194	-49.467909	82.019344	-49.467909	82.019344	-0.144433	-85.711356
5.800000	-0.139277	-82.743295	-49.268558	80.526671	-49.268558	80.526671	-0.146583	-86.378289
5.850000	-0.141335	-83.382476	-49.072292	79.033740	-49.072292	79.033740	-0.148753	-87.044304
5.900000	-0.143434	-84.019818	-48.877650	77.540294	-48.877650	77.540294	-0.150963	-87.708482
5.950000	-0.145550	-84.656477	-48.686326	76.046801	-48.686326	76.046801	-0.153189	-88.371982
6.000000	-0.147715	-85.291089	-48.496342	74.553162	-48.496342	74.553162	-0.155461	-89.033449
6.050000	-0.149890	-85.925251	-48.309849	73.059605	-48.309849	73.059605	-0.157745	-89.694471
6.100000	-0.152121	-86.557163	-48.124462	71.566452	-48.124462	71.566452	-0.160080	-90.353274
6.150000	-0.154358	-87.188853	-47.942686	70.073403	-47.942686	70.073403	-0.162422	-91.011858
6.200000	-0.156657	-87.818099	-47.761818	68.581491	-47.761818	68.581491	-0.164823	-91.668044
6.250000	-0.158956	-88.447345	-47.584640	67.089579	-47.584640	67.089579	-0.167224	-92.324230
6.300000	-0.161326	-89.073959	-47.408196	65.599716	-47.408196	65.599716	-0.169692	-92.977848
6.350000	-0.163695	-89.700573	-47.235265	64.109853	-47.235265	64.109853	-0.172161	-93.631466
6.400000	-0.166131	-90.324808	-47.063349	62.622634	-47.063349	62.622634	-0.174692	-94.282775
6.450000	-0.168572	-90.948826	-46.894559	61.135656	-46.894559	61.135656	-0.177229	-94.933874
6.500000	-0.171075	-91.570714	-46.727001	59.651779	-46.727001	59.651779	-0.179825	-95.582917
6.550000	-0.173591	-92.192175	-46.562224	58.168522	-46.562224	58.168522	-0.182432	-96.231548
6.600000	-0.176162	-92.811750	-46.398841	56.688661	-46.398841	56.688661	-0.185094	-96.878367
6.650000	-0.178753	-93.430694	-46.237926	55.209932	-46.237926	55.209932	-0.187775	-97.524581
6.700000	-0.181395	-94.047990	-46.078523	53.734724	-46.078523	53.734724	-0.190505	-98.169218
6.750000	-0.184062	-94.664460	-45.921297	52.261277	-45.921297	52.261277	-0.193260	-98.813066
6.800000	-0.186775	-95.279512	-45.765667	50.791299	-45.765667	50.791299	-0.196059	-99.455564
6.850000	-0.189521	-95.893552	-45.611935	49.323801	-45.611935	49.323801	-0.198891	-100.097098
6.900000	-0.192307	-96.506399	-45.459860	47.859556	-45.459860	47.859556	-0.201762	-100.737501
6.950000	-0.195132	-97.118054	-45.309404	46.398566	-45.309404	46.398566	-0.204673	-101.376772
7.000000	-0.197991	-97.728735	-45.160656	44.940466	-45.160656	44.940466	-0.207617	-102.015123
7.050000	-0.200897	-98.338053	-45.013239	43.486410	-45.013239	43.486410	-0.210609	-102.652184
7.100000	-0.203831	-98.946608	-44.867582	42.034756	-44.867582	42.034756	-0.213629	-103.288525
7.150000	-0.206819	-99.553637	-44.722950	40.587906	-44.722950	40.587906	-0.216705	-103.923427
7.200000	-0.209828	-100.160108	-44.580139	39.142881	-44.580139	39.142881	-0.219803	-104.557803
7.250000	-0.212899	-100.764902	-44.438024	37.703332	-44.438024	37.703332	-0.222965	-105.190598
7.300000	-0.215984	-101.369332	-44.297810	36.264984	-44.297810	36.264984	-0.226142	-105.823050
7.350000	-0.219139	-101.971943	-44.157929	34.832641	-44.157929	34.832641	-0.229393	-106.453790
7.400000	-0.222301	-102.574376	-44.020060	33.400873	-44.020060	33.400873	-0.232652	-107.084362
7.450000	-0.225539	-103.174859	-43.882123	31.975435	-43.882123	31.975435	-0.235995	-107.713097
7.500000	-0.228779	-103.775343	-43.746343	30.549996	-43.746343	30.549996	-0.239339	-108.341832
7.550000	-0.232102	-104.373756	-43.610054	29.130942	-43.610054	29.130942	-0.242776	-108.968613
7.600000	-0.235427	-104.972168	-43.475871	27.711887	-43.475871	27.711887	-0.246214	-109.595394
7.650000	-0.238828	-105.568738	-43.341168	26.297998	-43.341168	26.297998	-0.249741	-110.220429
7.700000	-0.242238	-106.165140	-43.208293	24.884579	-43.208293	24.884579	-0.253277	-110.845306
7.750000	-0.245717	-106.759918	-43.074914	23.475033	-43.074914	23.475033	-0.256897	-111.468637
7.800000	-0.249211	-107.354370	-42.943059	22.066262	-42.943059	22.066262	-0.260534	-112.091659
7.850000	-0.252769	-107.947409	-42.810750	20.660052	-42.810750	20.660052	-0.264248	-112.713327
7.900000	-0.256348	-108.539976	-42.679630	19.254695	-42.679630	19.254695	-0.267989	-113.334543
7.950000	-0.259984	-109.131330	-42.548147	17.850625	-42.548147	17.850625	-0.271802	-113.954587
8.000000	-0.263648	-109.722077	-42.417486	16.447197	-42.417486	16.447197	-0.275651	-114.574045
8.050000	-0.267360	-110.311803	-42.286598	15.043876	-42.286598	15.043876	-0.279564	-115.192504
8.100000	-0.271108	-110.900799	-42.156130	13.640630	-42.156130	13.640630	-0.283524	-115.810251
8.150000	-0.274898	-111.488955	-42.025619	12.236469	-42.025619	12.236469	-0.287542	-116.427165
8.200000	-0.278729	-112.076270	-41.895095	10.831392	-41.895095	10.831392	-0.291617	-117.043246
8.250000	-0.282594	-112.662916	-41.764761	9.424599	-41.764761	9.424599	-0.295742	-117.658651
8.300000	-0.286507	-113.248625	-41.633950	8.015403	-41.633950	8.015403	-0.299935	-118.273112
8.350000	-0.290447	-113.833823	-41.503613	6.603976	-41.503613	6.603976	-0.304171	-118.887047
8.400000	-0.294441	-114.418000	-41.372310	5.188090	-41.372310	5.188090	-0.308487	-119.499931
8.450000	-0.298455	-115.001814	-41.241812	3.769817	-41.241812	3.769817	-0.312836	-120.112431
8.500000	-0.302527	-115.584540	-41.109842	2.344381	-41.109842	2.344381	-0.317279	-120.723780
8.550000	-0.306613	-116.167036	-40.979050	0.916828	-40.979050	0.916828	-0.321746	-121.334881
8.600000	-0.310762	-116.748391	-40.846274	-0.521313	-40.846274	-0.521313	-0.326320	-121.944737
8.650000	-0.314919	-117.329639	-40.715087	-1.960802	-40.715087	-1.960802	-0.330908	-122.554472
8.700000	-0.319142	-117.909708	-40.581408	-3.415109	-40.581408	-3.415109	-0.335617	-123.162876
8.750000	-0.323367	-118.489778	-40.449756	-4.869417	-40.449756	-4.869417	-0.340330	-123.771279
8.800000	-0.327661	-119.068650	-40.315133	-6.343656	-40.315133	-6.343656	-0.345179	-124.378268
8.850000	-0.331958	-119.647522	-40.182564	-7.817896	-40.182564	-7.817896	-0.350031	-124.985257
8.900000	-0.336315	-120.225381	-40.047436	-9.314140	-40.047436	-9.314140	-0.355014	-125.590983
8.950000	-0.340680	-120.803148	-39.913971	-10.812385	-39.913971	-10.812385	-0.360011	-126.196595
9.000000	-0.345097	-121.380073	-39.778426	-12.334276	-39.778426	-12.334276	-0.365130	-126.801088
9.050000	-0.349526	-121.956830	-39.644157	-13.860898	-39.644157	-13.860898	-0.370276	-127.405358
9.100000	-0.354000	-122.532904	-39.508348	-15.412290	-39.508348	-15.412290	-0.375537	-128.008647
9.150000	-0.358490	-123.108750	-39.373454	-16.971939	-39.373454	-16.971939	-0.380837	-128.611609
9.200000	-0.363016	-123.684058	-39.237609	-18.556872	-39.237609	-18.556872	-0.386243	-129.213722
9.250000	-0.367561	-124.259096	-39.102372	-20.154447	-39.102372	-20.154447	-0.391703	-129.815409
9.300000	-0.372136	-124.833727	-38.966804	-21.777114	-38.966804	-21.777114	-0.397258	-130.416370
9.350000	-0.376733	-125.408065	-38.831629	-23.417705	-38.831629	-23.417705	-0.402882	-131.016814
9.400000	-0.381352	-125.982111	-38.696747	-25.082401	-38.696747	-25.082401	-0.408591	-131.616649
9.450000	-0.385993	-126.555862	-38.562177	-26.771203	-38.562177	-26.771203	-0.414384	-132.215877
9.500000	-0.390651	-127.129417	-38.428496	-28.482251	-38.428496	-28.482251	-0.420251	-132.814610
9.550000	-0.395331	-127.702699	-38.295238	-30.224444	-38.295238	-30.224444	-0.426220	-133.412651
9.600000	-0.400021	-128.275887	-38.163498	-31.981034	-38.163498	-31.981034	-0.432235	-134.010400
9.650000	-0.404731	-128.848850	-38.032569	-33.775282	-38.032569	-33.775282	-0.438366	-134.607398
9.700000	-0.409454	-129.421685	-37.903083	-35.598933	-37.903083	-35.598933	-0.444584	-135.203847
9.750000	-0.414188	-129.994421	-37.775300	-37.452991	-37.775300	-37.452991	-0.450893	-135.799752
9.800000	-0.418931	-130.567088	-37.649507	-39.338382	-37.649507	-39.338382	-0.457291	-136.395118
9.850000	-0.423682	-131.139718	-37.526009	-41.255936	-37.526009	-41.255936	-0.463782	-136.989950
9.900000	-0.428439	-131.712343	-37.405138	-43.206363	-37.405138	-43.206363	-0.470367	-137.584252
9.950000	-0.433199	-132.284995	-37.287246	-45.190238	-37.287246	-45.190238	-0.477046	-138.178030
10.000000	-0.437959	-132.857707	-37.172709	-47.207976	-37.172709	-47.207976	-0.483820	-138.771287
