! freq	dB(S11)	phase(S11)	dB(S12)	phase(S12)	
!     	dB(S21)	phase(S21)	dB(S22)	phase(S22)	
!S-par simulation data
#  GHz  S  DB  R 50
0.000000	-0.000000	0.000000	-333.671690	180.000000	-333.671690	180.000000	-0.000000	0.000000
0.050000	-0.000085	-0.762120	-99.400953	11.710959	-99.400953	11.710959	-0.000098	-0.761857
0.100000	-0.000339	-1.524056	-99.294430	12.281500	-99.294430	12.281500	-0.000383	-1.523850
0.150000	-0.000757	-2.285621	-99.205103	15.126636	-99.205103	15.126636	-0.000839	-2.286075
0.200000	-0.001316	-3.046696	-99.106690	18.340494	-99.106690	18.340494	-0.001426	-3.048524
0.250000	-0.002008	-3.807140	-99.006233	21.539708	-99.006233	21.539708	-0.002123	-3.811154
0.300000	-0.002825	-4.566771	-98.917763	24.560743	-98.917763	24.560743	-0.002911	-4.573863
0.350000	-0.003731	-5.325639	-98.852814	27.384737	-98.852814	27.384737	-0.003759	-5.336515
0.400000	-0.004723	-6.083571	-98.829067	29.975500	-98.829067	29.975500	-0.004662	-6.098973
0.450000	-0.005776	-6.840613	-98.857834	32.371766	-98.857834	32.371766	-0.005606	-6.861128
0.500000	-0.006877	-7.596714	-98.956445	34.602183	-98.956445	34.602183	-0.006586	-7.622863
0.550000	-0.008011	-8.351881	-99.141686	36.723700	-99.141686	36.723700	-0.007596	-8.384089
0.600000	-0.009167	-9.106125	-99.433703	38.812088	-99.433703	38.812088	-0.008632	-9.144732
0.650000	-0.010334	-9.859467	-99.857590	40.973398	-99.857590	40.973398	-0.009690	-9.904731
0.700000	-0.011504	-10.611930	-100.446354	43.365282	-100.446354	43.365282	-0.010766	-10.664037
0.750000	-0.012671	-11.363539	-101.245427	46.242638	-101.245427	46.242638	-0.011857	-11.422614
0.800000	-0.013829	-12.114320	-102.319171	50.061171	-102.319171	50.061171	-0.012961	-12.180431
0.850000	-0.014973	-12.864163	-103.761761	56.841750	-103.761761	56.841750	-0.014075	-12.937324
0.900000	-0.016102	-13.613188	-105.666059	67.790191	-105.666059	67.790191	-0.015196	-13.693380
0.950000	-0.017223	-14.361819	-107.544170	84.264847	-107.544170	84.264847	-0.016318	-14.449007
1.000000	-0.018319	-15.109267	-108.013743	117.318149	-108.013743	117.318149	-0.017443	-15.203343
1.050000	-0.019410	-15.856458	-107.612362	147.807882	-107.612362	147.807882	-0.018567	-15.957388
1.100000	-0.020473	-16.602368	-103.883628	165.479767	-103.883628	165.479767	-0.019687	-16.709968
1.150000	-0.021534	-17.348151	-101.187023	-177.929187	-101.187023	-177.929187	-0.020807	-17.462400
1.200000	-0.022568	-18.092532	-98.338978	-173.227382	-98.338978	-173.227382	-0.021915	-18.213199
1.250000	-0.023602	-18.836914	-96.197764	-168.525578	-96.197764	-168.525578	-0.023024	-18.963998
1.300000	-0.024616	-19.580141	-94.187072	-166.527484	-94.187072	-166.527484	-0.024122	-19.713447
1.350000	-0.025620	-20.322621	-92.405841	-165.327002	-92.405841	-165.327002	-0.025211	-20.462026
1.400000	-0.026615	-21.064345	-90.801912	-164.655048	-90.801912	-164.655048	-0.026292	-21.209731
1.450000	-0.027601	-21.805303	-89.338894	-164.353475	-89.338894	-164.353475	-0.027363	-21.956555
1.500000	-0.028580	-22.545481	-87.990628	-164.323596	-87.990628	-164.323596	-0.028425	-22.702493
1.550000	-0.029553	-23.284869	-86.737765	-164.500623	-86.737765	-164.500623	-0.029478	-23.447537
1.600000	-0.030520	-24.023451	-85.565624	-164.840166	-85.565624	-164.840166	-0.030522	-24.191680
1.650000	-0.031483	-24.761214	-84.462807	-165.310685	-84.462807	-165.310685	-0.031558	-24.934915
1.700000	-0.032442	-25.497844	-83.397253	-165.918539	-83.397253	-165.918539	-0.032582	-25.676909
1.750000	-0.033400	-26.234033	-82.417954	-166.576324	-82.417954	-166.576324	-0.033602	-26.418422
1.800000	-0.034355	-26.969160	-81.471355	-167.322719	-81.471355	-167.322719	-0.034613	-27.158791
1.850000	-0.035309	-27.703529	-80.575001	-168.132406	-80.575001	-168.132406	-0.035618	-27.898343
1.900000	-0.036263	-28.436952	-79.713417	-168.999113	-79.713417	-168.999113	-0.036616	-28.636892
1.950000	-0.037216	-29.169430	-78.884979	-169.922840	-78.884979	-169.922840	-0.037608	-29.374438
2.000000	-0.038171	-29.901092	-78.093048	-170.883741	-78.093048	-170.883741	-0.038597	-30.111128
2.050000	-0.039126	-30.631610	-77.321600	-171.896685	-77.321600	-171.896685	-0.039579	-30.846619
2.100000	-0.040082	-31.361451	-76.588012	-172.933624	-76.588012	-172.933624	-0.040559	-31.581408
2.150000	-0.041041	-32.089940	-75.865330	-174.018551	-75.865330	-174.018551	-0.041534	-32.314793
2.200000	-0.042002	-32.817904	-75.181494	-175.118344	-75.181494	-175.118344	-0.042509	-33.047638
2.250000	-0.042966	-33.544296	-74.501210	-176.262734	-74.501210	-176.262734	-0.043480	-33.778863
2.300000	-0.043932	-34.270328	-73.860430	-177.415459	-73.860430	-177.415459	-0.044452	-34.509719
2.350000	-0.044904	-34.994558	-73.217497	-178.609863	-73.217497	-178.609863	-0.045422	-35.238730
2.400000	-0.045876	-35.718603	-72.614439	-179.807821	-72.614439	-179.807821	-0.046393	-35.967553
2.450000	-0.046856	-36.440609	-72.004778	178.955116	-72.004778	178.955116	-0.047365	-36.694296
2.500000	-0.047836	-37.162614	-71.435117	177.718054	-71.435117	177.718054	-0.048337	-37.421039
2.550000	-0.048826	-37.882335	-70.855373	176.444216	-70.855373	176.444216	-0.049314	-38.145458
2.600000	-0.049816	-38.602056	-70.311915	175.170379	-70.311915	175.170379	-0.050290	-38.869878
2.650000	-0.050815	-39.319631	-69.762919	173.867248	-69.762919	173.867248	-0.051274	-39.592120
2.700000	-0.051816	-40.037010	-69.243359	172.561454	-69.243359	172.561454	-0.052258	-40.314163
2.750000	-0.052827	-40.752392	-68.722071	171.232385	-68.722071	171.232385	-0.053249	-41.034183
2.800000	-0.053840	-41.467375	-68.224448	169.898661	-68.224448	169.898661	-0.054243	-41.753797
2.850000	-0.054863	-42.180522	-67.728291	168.546559	-67.728291	168.546559	-0.055246	-42.471552
2.900000	-0.055890	-42.893057	-67.250912	167.188332	-67.250912	167.188332	-0.056251	-43.188687
2.950000	-0.056926	-43.603929	-66.777677	165.815743	-66.777677	165.815743	-0.057266	-43.904137
3.000000	-0.057967	-44.313968	-66.319072	164.435974	-66.319072	164.435974	-0.058286	-44.618743
3.050000	-0.059017	-45.022525	-65.866847	163.045152	-65.866847	163.045152	-0.059315	-45.331848
3.100000	-0.060074	-45.730023	-65.425725	161.646434	-65.425725	161.646434	-0.060351	-46.043880
3.150000	-0.061140	-46.436229	-64.992844	160.239392	-64.992844	160.239392	-0.061397	-46.754603
3.200000	-0.062214	-47.141143	-64.568059	158.824025	-64.568059	158.824025	-0.062452	-47.464016
3.250000	-0.063296	-47.844965	-64.153055	157.402577	-64.153055	157.402577	-0.063515	-48.172321
3.300000	-0.064389	-48.547256	-63.743585	155.972616	-63.743585	155.972616	-0.064590	-48.879074
3.350000	-0.065488	-49.248660	-63.345162	154.538407	-63.345162	154.538407	-0.065672	-49.584927
3.400000	-0.066600	-49.948292	-62.950086	153.095703	-62.950086	153.095703	-0.066769	-50.288982
3.450000	-0.067718	-50.647250	-62.567086	151.650233	-62.567086	151.650233	-0.067872	-50.992353
3.500000	-0.068852	-51.344189	-62.185570	150.196464	-62.185570	150.196464	-0.068993	-51.693673
3.550000	-0.069989	-52.040674	-61.816957	148.741105	-61.816957	148.741105	-0.070119	-52.394532
3.600000	-0.071146	-52.734889	-61.448237	147.277796	-61.448237	147.277796	-0.071265	-53.093085
3.650000	-0.072304	-53.428874	-61.093076	145.813809	-61.093076	145.813809	-0.072414	-53.791405
3.700000	-0.073485	-54.120338	-60.736453	144.342351	-60.736453	144.342351	-0.073588	-54.487161
3.750000	-0.074665	-54.811802	-60.393897	142.870892	-60.393897	142.870892	-0.074763	-55.182918
3.800000	-0.075872	-55.500490	-60.048724	141.392552	-60.048724	141.392552	-0.075965	-55.875851
3.850000	-0.077078	-56.189177	-59.716745	139.914212	-59.716745	139.914212	-0.077168	-56.568784
3.900000	-0.078309	-56.875300	-59.383677	138.430623	-59.383677	138.430623	-0.078399	-57.259108
3.950000	-0.079543	-57.561190	-59.061746	136.946555	-59.061746	136.946555	-0.079633	-57.949195
4.000000	-0.080801	-58.244732	-58.740048	135.458591	-58.740048	135.458591	-0.080893	-58.636892
4.050000	-0.082064	-58.927804	-58.427667	133.969846	-58.427667	133.969846	-0.082158	-59.324112
4.100000	-0.083349	-59.608751	-58.116664	132.478308	-58.116664	132.478308	-0.083448	-60.009168
4.150000	-0.084642	-60.288990	-57.813366	130.985837	-57.813366	130.985837	-0.084747	-60.693503
4.200000	-0.085957	-60.967331	-57.512436	129.491454	-57.512436	129.491454	-0.086069	-61.375906
4.250000	-0.087282	-61.644723	-57.217782	127.996115	-57.217782	127.996115	-0.087403	-62.057343
4.300000	-0.088628	-62.320447	-56.926349	126.499551	-56.926349	126.499551	-0.088758	-62.737083
4.350000	-0.089987	-62.994980	-56.639922	125.002111	-56.639922	125.002111	-0.090128	-63.415610
4.400000	-0.091364	-63.668081	-56.357454	123.503964	-56.357454	123.503964	-0.091517	-64.092678
4.450000	-0.092759	-64.339748	-56.078861	122.005107	-56.078861	122.005107	-0.092925	-64.768288
4.500000	-0.094170	-65.010218	-55.804863	120.505912	-55.804863	120.505912	-0.094349	-65.442679
4.550000	-0.095603	-65.679013	-55.533731	119.006241	-55.533731	119.006241	-0.095796	-66.115366
4.600000	-0.097048	-66.346850	-55.267744	117.506475	-55.267744	117.506475	-0.097256	-66.787078
4.650000	-0.098520	-67.012770	-55.003719	116.006516	-55.003719	116.006516	-0.098744	-67.456840
4.700000	-0.100002	-67.677971	-54.745315	114.506598	-54.745315	114.506598	-0.100243	-68.125871
4.750000	-0.101515	-68.341015	-54.488062	113.006804	-54.488062	113.006804	-0.101772	-68.792708
4.800000	-0.103035	-69.003581	-54.236842	111.507101	-54.236842	111.507101	-0.103309	-69.459059
4.850000	-0.104590	-69.663752	-53.986043	110.007855	-53.986043	110.007855	-0.104883	-70.122976
4.900000	-0.106150	-70.323684	-53.741635	108.508682	-53.741635	108.508682	-0.106460	-70.786650
4.950000	-0.107750	-70.980986	-53.496990	107.010306	-53.496990	107.010306	-0.108078	-71.447652
5.000000	-0.109350	-71.638289	-53.259048	105.511929	-53.259048	105.511929	-0.109697	-72.108655
5.050000	-0.110996	-72.292729	-53.020273	104.014683	-53.020273	104.014683	-0.111361	-72.766751
5.100000	-0.112643	-72.947170	-52.787887	102.517437	-52.787887	102.517437	-0.113026	-73.424848
5.150000	-0.114333	-73.598996	-52.555300	101.021415	-52.555300	101.021415	-0.114735	-74.080292
5.200000	-0.116028	-74.250585	-52.328225	99.525505	-52.328225	99.525505	-0.116448	-74.735495
5.250000	-0.117764	-74.899806	-52.101518	98.030840	-52.101518	98.030840	-0.118202	-75.388298
5.300000	-0.119509	-75.548554	-51.879523	96.536424	-51.879523	96.536424	-0.119964	-76.040621
5.350000	-0.121292	-76.195182	-51.658410	95.043212	-51.658410	95.043212	-0.121764	-76.690796
5.400000	-0.123089	-76.841104	-51.441276	93.550402	-51.441276	93.550402	-0.123577	-77.340255
5.450000	-0.124921	-77.485153	-51.225494	92.058712	-51.225494	92.058712	-0.125425	-77.987819
5.500000	-0.126771	-78.128265	-51.013018	90.567582	-51.013018	90.567582	-0.127291	-78.634434
5.550000	-0.128653	-78.769750	-50.802320	89.077456	-50.802320	89.077456	-0.129188	-79.279402
5.600000	-0.130558	-79.410071	-50.594314	87.588047	-50.594314	87.588047	-0.131107	-79.923194
5.650000	-0.132492	-80.049007	-50.388473	86.099506	-50.388473	86.099506	-0.133055	-80.565586
5.700000	-0.134454	-80.686559	-50.184761	84.611833	-50.184761	84.611833	-0.135030	-81.206578
5.750000	-0.136441	-81.322966	-49.983568	83.124878	-49.983568	83.124878	-0.137029	-81.846414
5.800000	-0.138462	-81.957771	-49.783988	81.638932	-49.783988	81.638932	-0.139061	-82.484632
5.850000	-0.140503	-82.591669	-49.587249	80.153552	-49.587249	80.153552	-0.141113	-83.121935
5.900000	-0.142584	-83.223752	-49.391654	78.669308	-49.391654	78.669308	-0.143204	-83.757406
5.950000	-0.144682	-83.855162	-49.199191	77.185482	-49.199191	77.185482	-0.145310	-84.392199
6.000000	-0.146825	-84.484552	-49.007448	75.702907	-49.007448	75.702907	-0.147461	-85.024954
6.050000	-0.148980	-85.113497	-48.819098	74.220603	-48.819098	74.220603	-0.149623	-85.657261
6.100000	-0.151188	-85.740223	-48.631084	72.739658	-48.631084	72.739658	-0.151837	-86.287331
6.150000	-0.153401	-86.366729	-48.446697	71.258847	-48.446697	71.258847	-0.154056	-86.917180
6.200000	-0.155674	-86.990821	-48.262305	69.779495	-48.262305	69.779495	-0.156333	-87.544598
6.250000	-0.157948	-87.614914	-48.081746	68.300144	-48.081746	68.300144	-0.158611	-88.172017
6.300000	-0.160288	-88.236408	-47.900880	66.822357	-47.900880	66.822357	-0.160954	-88.796818
6.350000	-0.162629	-88.857901	-47.723703	65.344569	-47.723703	65.344569	-0.163297	-89.421620
6.400000	-0.165032	-89.477045	-47.546601	63.868199	-47.546601	63.868199	-0.165702	-90.044057
6.450000	-0.167442	-90.095975	-47.372729	62.391957	-47.372729	62.391957	-0.168113	-90.666279
6.500000	-0.169910	-90.712800	-47.199284	60.917004	-47.199284	60.917004	-0.170581	-91.286383
6.550000	-0.172390	-91.329205	-47.028649	59.442309	-47.028649	59.442309	-0.173061	-91.906064
6.600000	-0.174923	-91.943744	-46.858766	57.968790	-46.858766	57.968790	-0.175594	-92.523869
6.650000	-0.177475	-92.557662	-46.691313	56.495664	-46.691313	56.495664	-0.178145	-93.141048
6.700000	-0.180076	-93.169950	-46.524906	55.023618	-46.524906	55.023618	-0.180744	-93.756588
6.750000	-0.182701	-93.781423	-46.360588	53.552112	-46.360588	53.552112	-0.183368	-94.371307
6.800000	-0.185370	-94.391495	-46.197582	52.081600	-46.197582	52.081600	-0.186035	-94.984617
6.850000	-0.188070	-95.000566	-46.036360	50.611797	-46.036360	50.611797	-0.188734	-95.596919
6.900000	-0.190808	-95.608460	-45.876688	49.142905	-45.876688	49.142905	-0.191471	-96.208035
6.950000	-0.193585	-96.215175	-45.718534	47.674923	-45.718534	47.674923	-0.194247	-96.817964
7.000000	-0.196394	-96.820927	-45.562135	46.207768	-45.562135	46.207768	-0.197056	-97.426923
7.050000	-0.199248	-97.425333	-45.407027	44.741767	-45.407027	44.741767	-0.199910	-98.034524
7.100000	-0.202128	-98.028985	-45.253850	43.276495	-45.253850	43.276495	-0.202792	-98.641364
7.150000	-0.205061	-98.631131	-45.101773	41.812678	-45.101773	41.812678	-0.205727	-99.246684
7.200000	-0.208015	-99.232723	-44.951770	40.349469	-44.951770	40.349469	-0.208684	-99.851445
7.250000	-0.211028	-99.832659	-44.802714	38.888083	-44.802714	38.888083	-0.211702	-100.454530
7.300000	-0.214056	-100.432235	-44.655845	37.427152	-44.655845	37.427152	-0.214735	-101.057251
7.350000	-0.217151	-101.030014	-44.509805	35.968493	-44.509805	35.968493	-0.217838	-101.658151
7.400000	-0.220254	-101.627617	-44.366033	34.510091	-44.366033	34.510091	-0.220950	-102.258872
7.450000	-0.223431	-102.223293	-44.223009	33.054505	-44.223009	33.054505	-0.224140	-102.857635
7.500000	-0.226610	-102.818969	-44.082301	31.598919	-44.082301	31.598919	-0.227332	-103.456398
7.550000	-0.229872	-103.412599	-43.942292	30.146802	-43.942292	30.146802	-0.230612	-104.053075
7.600000	-0.233135	-104.006228	-43.804504	28.694684	-43.804504	28.694684	-0.233893	-104.649752
7.650000	-0.236474	-104.598035	-43.667628	27.246155	-43.667628	27.246155	-0.237257	-105.244563
7.700000	-0.239822	-105.189677	-43.532764	25.797951	-43.532764	25.797951	-0.240630	-105.839204
7.750000	-0.243241	-105.779711	-43.398992	24.353422	-43.398992	24.353422	-0.244081	-106.432193
7.800000	-0.246675	-106.369424	-43.267057	22.909628	-43.267057	22.909628	-0.247548	-107.024851
7.850000	-0.250173	-106.957737	-43.136359	21.469548	-43.136359	21.469548	-0.251086	-107.616060
7.900000	-0.253694	-107.545583	-43.007356	20.030707	-43.007356	20.030707	-0.254650	-108.206787
7.950000	-0.257274	-108.132228	-42.879704	18.595559	-42.879704	18.595559	-0.258278	-108.796261
8.000000	-0.260883	-108.718271	-42.753635	17.162258	-42.753635	17.162258	-0.261940	-109.385110
8.050000	-0.264543	-109.303301	-42.628997	15.732558	-42.628997	15.732558	-0.265661	-109.972893
8.100000	-0.268241	-109.887608	-42.505861	14.305430	-42.505861	14.305430	-0.269425	-110.559917
8.150000	-0.271984	-110.471079	-42.384206	12.881723	-42.384206	12.881723	-0.273240	-111.146055
8.200000	-0.275772	-111.053715	-42.263996	11.461437	-42.263996	11.461437	-0.277107	-111.731308
8.250000	-0.279597	-111.635685	-42.145290	10.044295	-42.145290	10.044295	-0.281018	-112.315845
8.300000	-0.283475	-112.216721	-42.027996	8.631556	-42.027996	8.631556	-0.284991	-112.899381
8.350000	-0.287384	-112.797247	-41.912201	7.221576	-41.912201	7.221576	-0.289001	-113.482364
8.400000	-0.291353	-113.376754	-41.797807	5.817116	-41.797807	5.817116	-0.293083	-114.064238
8.450000	-0.295346	-113.955897	-41.684884	4.414916	-41.684884	4.414916	-0.297194	-114.645711
8.500000	-0.299407	-114.533948	-41.573366	3.019493	-41.573366	3.019493	-0.301387	-115.225979
8.550000	-0.303484	-115.111769	-41.463270	1.625705	-41.463270	1.625705	-0.305601	-115.805988
8.600000	-0.307637	-115.688440	-41.354599	0.240092	-41.354599	0.240092	-0.309908	-116.384704
8.650000	-0.311800	-116.265003	-41.247283	-1.144637	-41.247283	-1.144637	-0.314227	-116.963296
8.700000	-0.316046	-116.840372	-41.141421	-2.519652	-41.141421	-2.519652	-0.318651	-117.540516
8.750000	-0.320293	-117.415740	-41.036833	-3.894668	-41.036833	-3.894668	-0.323077	-118.117736
8.800000	-0.324632	-117.989886	-40.933734	-5.258297	-40.933734	-5.258297	-0.327620	-118.693516
8.850000	-0.328973	-118.564031	-40.831844	-6.621925	-40.831844	-6.621925	-0.332166	-119.269296
8.900000	-0.333397	-119.137131	-40.731428	-7.974393	-40.731428	-7.974393	-0.336821	-119.843807
8.950000	-0.337832	-119.710136	-40.632186	-9.325847	-40.632186	-9.325847	-0.341489	-120.418203
9.000000	-0.342342	-120.282260	-40.534382	-10.666504	-40.534382	-10.666504	-0.346260	-120.991490
9.050000	-0.346870	-120.854208	-40.437729	-12.005003	-40.437729	-12.005003	-0.351053	-121.564557
9.100000	-0.351467	-121.425429	-40.342459	-13.333210	-40.342459	-13.333210	-0.355941	-122.136668
9.150000	-0.356089	-121.996407	-40.248328	-14.657988	-40.248328	-14.657988	-0.360862	-122.708462
9.200000	-0.360772	-122.566798	-40.155513	-15.973122	-40.155513	-15.973122	-0.365870	-123.279443
9.250000	-0.365487	-123.136894	-40.063830	-17.283433	-40.063830	-17.283433	-0.370922	-123.850019
9.300000	-0.370257	-123.706531	-39.973385	-18.584887	-39.973385	-18.584887	-0.376051	-124.419917
9.350000	-0.375066	-124.275838	-39.884068	-19.880014	-39.884068	-19.880014	-0.381237	-124.989330
9.400000	-0.379921	-124.844798	-39.795903	-21.167205	-39.795903	-21.167205	-0.386492	-125.558191
9.450000	-0.384824	-125.413410	-39.708864	-22.446459	-39.708864	-22.446459	-0.391815	-126.126498
9.500000	-0.389765	-125.981772	-39.622888	-23.718827	-39.622888	-23.718827	-0.397197	-126.694367
9.550000	-0.394761	-126.549785	-39.538031	-24.981556	-39.538031	-24.981556	-0.402659	-127.261623
9.600000	-0.399789	-127.117632	-39.454149	-26.238571	-39.454149	-26.238571	-0.408171	-127.828546
9.650000	-0.404877	-127.685146	-39.371374	-27.484160	-39.371374	-27.484160	-0.413777	-128.394805
9.700000	-0.409990	-128.252561	-39.289487	-28.725322	-39.289487	-28.725322	-0.419421	-128.960829
9.750000	-0.415171	-128.819679	-39.208687	-29.953200	-39.208687	-29.953200	-0.425173	-129.526147
9.800000	-0.420369	-129.386748	-39.128696	-31.178038	-39.128696	-31.178038	-0.430953	-130.091316
9.850000	-0.425641	-129.953575	-39.049759	-32.387677	-39.049759	-32.387677	-0.436854	-130.655746
9.900000	-0.430924	-130.520386	-38.971562	-33.595757	-38.971562	-33.595757	-0.442772	-131.220107
9.950000	-0.436287	-131.087030	-38.894375	-34.786677	-38.894375	-34.786677	-0.448826	-131.783703
10.000000	-0.441653	-131.653674	-38.817868	-35.977596	-38.817868	-35.977596	-0.454884	-132.347300
