! freq	dB(S11)	phase(S11)	dB(S12)	phase(S12)	
!     	dB(S21)	phase(S21)	dB(S22)	phase(S22)	
!S-par simulation data
#  GHz  S  DB  R 50
0.000000	-86.776964	0.000000	-0.000398	0.000000	-0.000398	0.000000	-86.776964	0.000000
0.050000	-31.783882	-93.434609	-0.005955	-3.262235	-0.005955	-3.262235	-31.783834	-93.162390
0.100000	-25.789424	-96.995023	-0.020720	-6.521394	-0.020720	-6.521394	-25.788216	-96.455093
0.150000	-22.307594	-100.476798	-0.042090	-9.765588	-0.042090	-9.765588	-22.305252	-99.674541
0.200000	-19.858620	-103.903906	-0.068521	-12.988293	-0.068521	-12.988293	-19.855604	-102.842468
0.250000	-17.979120	-107.284471	-0.099405	-16.187520	-0.099405	-16.187520	-17.975952	-105.964316
0.300000	-16.462245	-110.626169	-0.134383	-19.363645	-0.134383	-19.363645	-16.459299	-109.045916
0.350000	-15.196584	-113.935965	-0.173108	-22.517993	-0.173108	-22.517993	-15.194018	-112.093692
0.400000	-14.116636	-117.216945	-0.215448	-25.650345	-0.215448	-25.650345	-14.114453	-115.110870
0.450000	-13.181214	-120.469469	-0.261379	-28.759023	-0.261379	-28.759023	-13.179320	-118.098230
0.500000	-12.359967	-123.695358	-0.310525	-31.844247	-0.310525	-31.844247	-12.358227	-121.058199
0.550000	-11.632216	-126.894388	-0.362646	-34.905000	-0.362646	-34.905000	-11.630488	-123.991014
0.600000	-10.983687	-130.064739	-0.417561	-37.939054	-0.417561	-37.939054	-10.981836	-126.895250
0.650000	-10.401704	-133.206836	-0.474852	-40.946451	-0.474852	-40.946451	-10.399621	-129.771636
0.700000	-9.876814	-136.320504	-0.534160	-43.926805	-0.534160	-43.926805	-9.874418	-132.620216
0.750000	-9.402264	-139.404528	-0.595164	-46.878808	-0.595164	-46.878808	-9.399496	-135.439972
0.800000	-8.971911	-142.458856	-0.657474	-49.802302	-0.657474	-49.802302	-8.968741	-138.230987
0.850000	-8.580487	-145.483939	-0.720700	-52.697648	-0.720700	-52.697648	-8.576906	-140.993808
0.900000	-8.223749	-148.480148	-0.784469	-55.565155	-0.784469	-55.565155	-8.219770	-143.728888
0.950000	-7.898217	-151.447858	-0.848419	-58.405159	-0.848419	-58.405159	-7.893869	-146.436684
1.000000	-7.600849	-154.387750	-0.912196	-61.218310	-0.912196	-61.218310	-7.596176	-149.117945
1.050000	-7.329019	-157.300677	-0.975460	-64.005441	-0.975460	-64.005441	-7.324079	-151.773592
1.100000	-7.080451	-160.187643	-1.037885	-66.767554	-1.037885	-66.767554	-7.075309	-154.404705
1.150000	-6.853157	-163.049790	-1.099164	-69.505801	-1.099164	-69.505801	-6.847886	-157.012501
1.200000	-6.645393	-165.888378	-1.159009	-72.221469	-1.159009	-72.221469	-6.640074	-159.598326
1.250000	-6.455628	-168.704767	-1.217149	-74.915961	-1.217149	-74.915961	-6.450342	-162.163640
1.300000	-6.282910	-171.499774	-1.273253	-77.590188	-1.273253	-77.590188	-6.277745	-164.709427
1.350000	-6.125606	-174.275656	-1.327161	-80.246452	-1.327161	-80.246452	-6.120648	-167.238021
1.400000	-5.982660	-177.033996	-1.378663	-82.886431	-1.378663	-82.886431	-5.977994	-169.751147
1.450000	-5.853138	-179.776423	-1.427573	-85.511862	-1.427573	-85.511862	-5.848846	-172.250596
1.500000	-5.736211	177.495401	-1.473719	-88.124538	-1.473719	-88.124538	-5.732374	-174.738218
1.550000	-5.631147	174.779786	-1.516952	-90.726295	-1.516952	-90.726295	-5.627841	-177.215911
1.600000	-5.537298	172.075024	-1.557136	-93.319003	-1.557136	-93.319003	-5.534595	-179.685617
1.650000	-5.454093	169.379395	-1.594157	-95.904566	-1.594157	-95.904566	-5.452060	177.850682
1.700000	-5.381030	166.691176	-1.627915	-98.484910	-1.627915	-98.484910	-5.379730	175.390965
1.750000	-5.317672	164.008642	-1.658328	-101.061982	-1.658328	-101.061982	-5.317160	172.933182
1.800000	-5.263639	161.330076	-1.685329	-103.637745	-1.685329	-103.637745	-5.263965	170.475246
1.850000	-5.218601	158.653767	-1.708865	-106.214176	-1.708865	-106.214176	-5.219809	168.015043
1.900000	-5.182281	155.978020	-1.728901	-108.793262	-1.728901	-108.793262	-5.184410	165.550426
1.950000	-5.154444	153.301157	-1.745414	-111.376998	-1.745414	-111.376998	-5.157525	163.079218
2.000000	-5.134898	150.621521	-1.758397	-113.967389	-1.758397	-113.967389	-5.138959	160.599208
2.050000	-5.123489	147.937479	-1.767855	-116.566442	-1.767855	-116.566442	-5.128551	158.108155
2.100000	-5.120100	145.247426	-1.773809	-119.176172	-1.773809	-119.176172	-5.126180	155.603781
2.150000	-5.124647	142.549788	-1.776293	-121.798594	-1.776293	-121.798594	-5.131757	153.083770
2.200000	-5.137076	139.843028	-1.775355	-124.435728	-1.775355	-124.435728	-5.145227	150.545767
2.250000	-5.157366	137.125647	-1.771055	-127.089595	-1.771055	-127.089595	-5.166563	147.987376
2.300000	-5.185518	134.396190	-1.763468	-129.762216	-1.763468	-129.762216	-5.195767	145.406153
2.350000	-5.221562	131.653251	-1.752684	-132.455609	-1.752684	-132.455609	-5.232869	142.799606
2.400000	-5.265547	128.895476	-1.738805	-135.171794	-1.738805	-135.171794	-5.277919	140.165189
2.450000	-5.317546	126.121572	-1.721947	-137.912784	-1.721947	-137.912784	-5.330992	137.500303
2.500000	-5.377646	123.330309	-1.702242	-140.680585	-1.702242	-140.680585	-5.392181	134.802285
2.550000	-5.446285	120.519673	-1.679721	-143.478544	-1.679721	-143.478544	-5.461931	132.066716
2.600000	-5.523238	117.689349	-1.654671	-146.307481	-1.654671	-146.307481	-5.540027	129.292228
2.650000	-5.608625	114.838350	-1.627267	-149.169369	-1.627267	-149.169369	-5.626598	126.475939
2.700000	-5.702563	111.965780	-1.597701	-152.066164	-1.597701	-152.066164	-5.721779	123.614884
2.750000	-5.805167	109.070839	-1.566176	-154.999800	-1.566176	-154.999800	-5.825699	120.706012
2.800000	-5.916539	106.152821	-1.532910	-157.972191	-1.532910	-157.972191	-5.938480	117.746180
2.850000	-6.036762	103.211125	-1.498138	-160.985224	-1.498138	-160.985224	-6.060227	114.732145
2.900000	-6.165887	100.245242	-1.462102	-164.040757	-1.462102	-164.040757	-6.191016	111.660562
2.950000	-6.303924	97.254759	-1.425064	-167.140620	-1.425064	-167.140620	-6.330883	108.527975
3.000000	-6.450829	94.239340	-1.387292	-170.286613	-1.387292	-170.286613	-6.479811	105.330817
3.050000	-6.606483	91.198709	-1.349068	-173.480505	-1.349068	-173.480505	-6.637712	102.065404
3.100000	-6.770680	88.132619	-1.310683	-176.724042	-1.310683	-176.724042	-6.804406	98.727940
3.150000	-6.943096	85.040806	-1.272437	179.981053	-1.272437	179.981053	-6.979596	95.314520
3.200000	-7.123272	81.922932	-1.234637	176.633070	-1.234637	176.633070	-7.162844	91.821147
3.250000	-7.310578	78.778493	-1.197597	173.230298	-1.197597	173.230298	-7.353532	88.243753
3.300000	-7.504181	75.606718	-1.161632	169.771011	-1.161632	169.771011	-7.550830	84.578241
3.350000	-7.703046	72.407311	-1.127016	166.255203	-1.127016	166.255203	-7.753685	80.823365
3.400000	-7.905788	69.176380	-1.094182	162.676780	-1.094182	162.676780	-7.960679	76.968337
3.450000	-8.110753	65.913055	-1.063367	159.037272	-1.063367	159.037272	-8.170082	73.014946
3.500000	-8.315987	62.613801	-1.034882	155.334696	-1.034882	155.334696	-8.379836	68.959992
3.550000	-8.519148	59.273778	-1.009042	151.566891	-1.009042	151.566891	-8.587444	64.800811
3.600000	-8.716096	55.880361	-0.986524	147.723698	-0.986524	147.723698	-8.788481	60.523688
3.650000	-8.904241	52.428709	-0.967388	143.809148	-0.967388	143.809148	-8.980097	56.138994
3.700000	-9.079856	48.907549	-0.951962	139.820488	-0.951962	139.820488	-9.158216	51.648267
3.750000	-9.238695	45.302506	-0.940614	135.754080	-0.940614	135.754080	-9.318170	47.054095
3.800000	-9.376084	41.596150	-0.933749	131.605728	-0.933749	131.605728	-9.454808	42.361012
3.850000	-9.486988	37.767877	-0.931820	127.370585	-0.931820	127.370585	-9.562589	37.575640
3.900000	-9.564488	33.786521	-0.935618	123.038786	-0.935618	123.038786	-9.633951	32.703540
3.950000	-9.601311	29.616206	-0.946059	118.599768	-0.946059	118.599768	-9.661022	27.754618
4.000000	-9.594589	25.239053	-0.963529	114.052711	-0.963529	114.052711	-9.640848	22.746668
4.050000	-9.539326	20.625468	-0.989007	109.388861	-0.989007	109.388861	-9.568339	17.691287
4.100000	-9.431128	15.746538	-1.023716	104.598353	-1.023716	104.598353	-9.439264	12.598565
4.150000	-9.266484	10.575561	-1.069181	99.670204	-1.069181	99.670204	-9.250566	7.475585
4.200000	-9.043042	5.089563	-1.127317	94.592380	-1.127317	94.592380	-9.000634	2.324952
4.250000	-8.755071	-0.753067	-1.201682	89.339926	-1.201682	89.339926	-8.684545	-2.859037
4.300000	-8.406589	-6.947546	-1.294856	83.906256	-1.294856	83.906256	-8.307704	-8.085933
4.350000	-8.001735	-13.491375	-1.410400	78.280883	-1.410400	78.280883	-7.875507	-13.372059
4.400000	-7.543354	-20.391189	-1.553870	72.445006	-1.553870	72.445006	-7.391914	-18.742334
4.450000	-7.038739	-27.635955	-1.731346	66.387634	-1.731346	66.387634	-6.865192	-24.223513
4.500000	-6.499193	-35.198552	-1.948900	60.108660	-1.948900	60.108660	-6.307271	-29.837816
4.550000	-5.934901	-43.058793	-2.215019	53.605208	-2.215019	53.605208	-5.728678	-35.608324
4.600000	-5.356973	-51.192989	-2.540605	46.878926	-2.540605	46.878926	-5.140649	-41.554878
4.650000	-4.781020	-59.548896	-2.933488	39.959562	-2.933488	39.959562	-4.558461	-47.672092
4.700000	-4.219811	-68.079377	-3.403957	32.878769	-3.403957	32.878769	-3.994484	-53.948685
4.750000	-3.685477	-76.731917	-3.965259	25.677807	-3.965259	25.677807	-3.460482	-60.364113
4.800000	-3.189296	-85.434178	-4.624743	18.422762	-4.624743	18.422762	-2.967074	-66.870353
4.850000	-2.739407	-94.115709	-5.391929	11.183534	-5.391929	11.183534	-2.521911	-73.415532
4.900000	-2.341020	-102.703850	-6.274817	4.038057	-6.274817	4.038057	-2.129742	-79.939864
4.950000	-1.996221	-111.129872	-7.280874	-2.933089	-7.280874	-2.933089	-1.792263	-86.382771
5.000000	-1.704221	-119.333665	-8.418026	-9.649910	-8.418026	-9.649910	-1.508371	-92.688458
5.050000	-1.462622	-127.261722	-9.695298	-16.026196	-9.695298	-16.026196	-1.275434	-98.806299
5.100000	-1.265839	-134.884754	-11.127128	-21.984887	-11.127128	-21.984887	-1.087654	-104.704485
5.150000	-1.108207	-142.183326	-12.736235	-27.430194	-12.736235	-27.430194	-0.939224	-110.361105
5.200000	-0.983845	-149.150292	-14.559278	-32.227347	-14.559278	-32.227347	-0.824159	-115.765580
5.250000	-0.887109	-155.788520	-16.656640	-36.148080	-16.656640	-36.148080	-0.736735	-120.916806
5.300000	-0.812870	-162.108378	-19.130866	-38.735705	-19.130866	-38.735705	-0.671769	-125.820957
5.350000	-0.756652	-168.125367	-22.162622	-38.907161	-22.162622	-38.907161	-0.624749	-130.489347
5.400000	-0.714672	-173.858106	-26.059275	-33.489552	-26.059275	-33.489552	-0.591872	-134.936586
5.450000	-0.683804	-179.326757	-30.860724	-11.619477	-30.860724	-11.619477	-0.570007	-139.179114
5.500000	-0.661520	175.448130	-32.376039	37.258595	-32.376039	37.258595	-0.556629	-143.234117
5.550000	-0.645804	170.446417	-28.626781	67.612735	-28.626781	67.612735	-0.549738	-147.118784
5.600000	-0.635068	165.648882	-25.363764	76.321965	-25.363764	76.321965	-0.547770	-150.849828
5.650000	-0.628463	161.061358	-23.085210	77.917437	-23.085210	77.917437	-0.549912	-154.425999
5.700000	-0.624179	156.618935	-21.395062	77.515908	-21.395062	77.515908	-0.554396	-157.897750
5.750000	-0.621972	152.330667	-20.098150	75.909781	-20.098150	75.909781	-0.561025	-161.261311
5.800000	-0.621292	148.182698	-19.069607	73.708584	-19.069607	73.708584	-0.569308	-164.530029
5.850000	-0.621726	144.162460	-18.232706	71.187903	-18.232706	71.187903	-0.578899	-167.716509
5.900000	-0.622971	140.258589	-17.537673	68.487151	-17.537673	68.487151	-0.589576	-170.832743
5.950000	-0.624810	136.460826	-16.950592	65.682108	-16.950592	65.682108	-0.601214	-173.890264
6.000000	-0.627093	132.759914	-16.447363	62.815681	-16.447363	62.815681	-0.613772	-176.900310
6.050000	-0.629720	129.147506	-16.010257	59.912421	-16.010257	59.912421	-0.627284	-179.874018
6.100000	-0.632636	125.616071	-15.625823	56.985919	-15.625823	56.985919	-0.641852	177.177360
6.150000	-0.635819	122.158806	-15.283576	54.042810	-15.283576	54.042810	-0.657650	174.242211
6.200000	-0.639278	118.769571	-14.975136	51.084992	-14.975136	51.084992	-0.674923	171.308272
6.250000	-0.643045	115.442810	-14.693636	48.110867	-14.693636	48.110867	-0.694006	168.362273
6.300000	-0.647200	112.175790	-14.433686	45.114735	-14.433686	45.114735	-0.715461	165.387538
6.350000	-0.651815	108.961327	-14.189620	42.089858	-14.189620	42.089858	-0.739808	162.367511
6.400000	-0.657006	105.795397	-13.957060	39.026052	-13.957060	39.026052	-0.767835	159.282194
6.450000	-0.662921	102.674408	-13.732001	35.909969	-13.732001	35.909969	-0.800589	156.107604
6.500000	-0.669748	99.595195	-13.510672	32.724345	-13.510672	32.724345	-0.839490	152.814296
6.550000	-0.677727	96.555059	-13.289419	29.446822	-13.289419	29.446822	-0.886487	149.365275
6.600000	-0.687167	93.551843	-13.064619	26.048176	-13.064619	26.048176	-0.944327	145.712963
6.650000	-0.698463	90.584094	-12.832629	22.489664	-12.832629	22.489664	-1.016963	141.794704
6.700000	-0.711850	87.647897	-12.591837	18.745057	-12.591837	18.745057	-1.107707	137.568767
6.750000	-0.728431	84.750553	-12.335402	14.703995	-12.335402	14.703995	-1.228959	132.854425
6.800000	-0.748849	81.892374	-12.061810	10.285707	-12.061810	10.285707	-1.392716	127.517759
6.850000	-0.774124	79.080752	-11.769752	5.351168	-11.769752	5.351168	-1.621091	121.321499
6.900000	-0.805403	76.330849	-11.461810	-0.308141	-11.461810	-0.308141	-1.952867	113.891657
6.950000	-0.843334	73.670354	-11.150945	-6.991429	-11.150945	-6.991429	-2.457162	104.638322
7.000000	-0.886355	71.145322	-10.872648	-15.104299	-10.872648	-15.104299	-3.259832	92.599894
7.050000	-0.926791	68.819725	-10.707168	-25.143212	-10.707168	-25.143212	-4.595465	76.058524
7.100000	-0.943268	66.744117	-10.825922	-37.586843	-10.825922	-37.586843	-6.888148	51.036830
7.150000	-0.902389	64.812028	-11.505656	-52.204657	-11.505656	-52.204657	-10.241976	6.950397
7.200000	-0.793445	62.680318	-13.051085	-67.334000	-13.051085	-67.334000	-10.638588	-62.607147
7.250000	-0.661896	60.076634	-15.596869	-79.916766	-15.596869	-79.916766	-7.215850	-111.325711
7.300000	-0.560022	57.113033	-19.054883	-86.544416	-19.054883	-86.544416	-4.706020	-138.568776
7.350000	-0.498963	54.035361	-23.206284	-82.898138	-23.206284	-82.898138	-3.247286	-156.424547
7.400000	-0.467827	50.980418	-26.939802	-61.979545	-26.939802	-61.979545	-2.392056	-169.220568
7.450000	-0.454388	47.988896	-27.382290	-31.108721	-27.382290	-31.108721	-1.868519	-178.930371
7.500000	-0.450699	45.060058	-25.484815	-13.383065	-25.484815	-13.383065	-1.532772	173.370319
7.550000	-0.452393	42.182468	-23.645100	-6.914051	-23.645100	-6.914051	-1.309218	167.054993
7.600000	-0.457056	39.342265	-22.246370	-5.147948	-22.246370	-5.147948	-1.153743	161.695136
7.650000	-0.463532	36.528512	-21.190300	-5.443802	-21.190300	-5.443802	-1.042415	157.031087
7.700000	-0.471256	33.732219	-20.371634	-6.728381	-20.371634	-6.728381	-0.960790	152.886421
7.750000	-0.480041	30.946177	-19.721721	-8.545234	-19.721721	-8.545234	-0.900685	149.155688
7.800000	-0.489750	28.162927	-19.182717	-10.625198	-19.182717	-10.625198	-0.854430	145.713185
7.850000	-0.500505	25.377020	-18.726672	-12.878017	-18.726672	-12.878017	-0.819130	142.512756
7.900000	-0.512471	22.582618	-18.330645	-15.241841	-18.330645	-15.241841	-0.792157	139.505467
7.950000	-0.525895	19.773705	-17.977925	-17.684186	-17.977925	-17.684186	-0.771701	136.653673
8.000000	-0.541112	16.943757	-17.655810	-20.189354	-17.655810	-20.189354	-0.756513	133.927803
8.050000	-0.558563	14.085386	-17.354177	-22.752131	-17.354177	-22.752131	-0.745743	131.304137
8.100000	-0.578831	11.189919	-17.064509	-25.374691	-17.064509	-25.374691	-0.738844	128.763209
8.150000	-0.602700	8.246845	-16.779200	-28.065310	-16.779200	-28.065310	-0.735513	126.288644
8.200000	-0.631242	5.243079	-16.491004	-30.838277	-16.491004	-30.838277	-0.735675	123.866261
8.250000	-0.665964	2.161918	-16.192555	-33.714850	-16.192555	-33.714850	-0.739488	121.483356
8.300000	-0.709040	-1.018470	-15.875900	-36.725360	-15.875900	-36.725360	-0.747390	119.128102
8.350000	-0.762403	-4.313684	-15.536329	-39.893540	-15.536329	-39.893540	-0.759697	116.788858
8.400000	-0.833157	-7.787191	-15.155560	-43.313970	-15.155560	-43.313970	-0.778630	114.455238
8.450000	-0.927418	-11.476355	-14.726230	-47.050925	-14.726230	-47.050925	-0.805721	112.114686
8.500000	-1.061725	-15.485782	-14.224568	-51.281080	-14.224568	-51.281080	-0.845682	109.753264
8.550000	-1.259402	-19.915524	-13.635769	-56.203093	-13.635769	-56.203093	-0.904428	107.361998
8.600000	-1.562017	-24.899720	-12.944808	-62.121878	-12.944808	-62.121878	-0.991649	104.942454
8.650000	-2.075812	-30.676760	-12.122530	-69.721530	-12.122530	-69.721530	-1.129456	102.532139
8.700000	-3.034129	-37.266945	-11.184567	-80.077900	-11.184567	-80.077900	-1.351667	100.317400
8.750000	-4.972442	-43.134322	-10.268903	-94.769287	-10.268903	-94.769287	-1.685701	98.884104
8.800000	-8.700661	-36.410850	-9.828838	-115.444342	-9.828838	-115.444342	-2.023334	99.468681
8.850000	-8.841721	1.516248	-10.636929	-140.152704	-10.636929	-140.152704	-1.957101	101.617984
8.900000	-4.816395	9.030287	-12.874714	-162.263760	-12.874714	-162.263760	-1.505831	101.750199
8.950000	-2.739834	1.955125	-15.842236	-177.981866	-15.842236	-177.981866	-1.124300	99.644622
9.000000	-1.785291	-5.710274	-18.972750	171.719200	-18.972750	171.719200	-0.904438	96.878627
9.050000	-1.312029	-12.269910	-22.074879	165.102605	-22.074879	165.102605	-0.785523	94.093655
9.100000	-1.060454	-17.843570	-25.096318	161.038506	-25.096318	161.038506	-0.720700	91.422235
9.150000	-0.917582	-22.736498	-28.057310	158.792594	-28.057310	158.792594	-0.684249	88.857429
9.200000	-0.833952	-27.170515	-30.956863	157.832944	-30.956863	157.832944	-0.663812	86.370233
9.250000	-0.785535	-31.293750	-33.751877	157.469517	-33.751877	157.469517	-0.653141	83.934088
9.300000	-0.761970	-35.185816	-36.189499	156.084475	-36.189499	156.084475	-0.649597	81.529794
9.350000	-0.750943	-38.968988	-38.398606	151.644619	-38.398606	151.644619	-0.649844	79.133555
9.400000	-0.750928	-42.668568	-39.940981	142.597326	-39.940981	142.597326	-0.653594	76.736885
9.450000	-0.759691	-46.319473	-40.358205	128.425564	-40.358205	128.425564	-0.660358	74.329980
9.500000	-0.776877	-49.953202	-39.123440	112.097953	-39.123440	112.097953	-0.670351	71.899001
9.550000	-0.801525	-53.606599	-36.830734	99.543490	-36.830734	99.543490	-0.683624	69.431554
9.600000	-0.832664	-57.300571	-34.325260	90.239989	-34.325260	90.239989	-0.700066	66.923224
9.650000	-0.870568	-61.053564	-31.886944	83.367124	-31.886944	83.367124	-0.720072	64.366392
9.700000	-0.915713	-64.883750	-29.608721	77.996560	-29.608721	77.996560	-0.744153	61.753227
9.750000	-0.969514	-68.819275	-27.474907	73.453367	-27.474907	73.453367	-0.773413	59.069307
9.800000	-1.033937	-72.894530	-25.461088	69.255833	-25.461088	69.255833	-0.809463	56.297484
9.850000	-1.109635	-77.119686	-23.584490	65.165387	-23.584490	65.165387	-0.853029	53.434814
9.900000	-1.199686	-81.534479	-21.803034	61.045889	-21.803034	61.045889	-0.906586	50.460591
9.950000	-1.306527	-86.164053	-20.109114	56.802657	-20.109114	56.802657	-0.972314	47.363294
10.000000	-1.432413	-91.026216	-18.500386	52.382785	-18.500386	52.382785	-1.052298	44.135475
