! freq	dB(S11)	phase(S11)	dB(S12)	phase(S12)	
!     	dB(S21)	phase(S21)	dB(S22)	phase(S22)	
!S-par simulation data
#  GHz  S  DB  R 50
0.000000	-84.817205	0.000000	-0.000499	0.000000	-0.000499	0.000000	-84.817205	0.000000
0.050000	-34.916389	-91.454933	-0.010884	-3.083323	-0.010884	-3.083323	-34.866183	-90.535991
0.100000	-28.967912	-94.897200	-0.024791	-6.135899	-0.024791	-6.135899	-28.949745	-93.797389
0.150000	-25.523881	-98.192900	-0.042170	-9.161869	-0.042170	-9.161869	-25.499795	-96.933586
0.200000	-23.096608	-101.535260	-0.061178	-12.174984	-0.061178	-12.174984	-23.055102	-99.961927
0.250000	-21.221664	-104.898846	-0.081536	-15.184000	-0.081536	-15.184000	-21.165942	-102.921387
0.300000	-19.696340	-108.259272	-0.103403	-18.191296	-0.103403	-18.191296	-19.631719	-105.837942
0.350000	-18.413938	-111.605120	-0.126931	-21.196347	-0.126931	-21.196347	-18.344711	-108.726039
0.400000	-17.310982	-114.932875	-0.152180	-24.197647	-0.152180	-24.197647	-17.240012	-111.593240
0.450000	-16.346957	-118.241739	-0.179198	-27.193398	-0.179198	-27.193398	-16.276014	-114.442821
0.500000	-15.493766	-121.532546	-0.207945	-30.182092	-0.207945	-30.182092	-15.423829	-117.276697
0.550000	-14.731466	-124.806086	-0.238375	-33.162401	-0.238375	-33.162401	-14.663005	-120.095608
0.600000	-14.045345	-128.062990	-0.270420	-36.133181	-0.270420	-36.133181	-13.978503	-122.899805
0.650000	-13.423855	-131.304060	-0.303961	-39.093735	-0.303961	-39.093735	-13.358560	-125.689666
0.700000	-12.858320	-134.529511	-0.338900	-42.043306	-0.338900	-42.043306	-12.794370	-128.465133
0.750000	-12.341499	-137.739780	-0.375092	-44.981558	-0.375092	-44.981558	-12.278618	-131.226482
0.800000	-11.867584	-140.935114	-0.412399	-47.908249	-0.412399	-47.908249	-11.805457	-133.973923
0.850000	-11.431966	-144.115517	-0.450682	-50.823118	-0.450682	-50.823118	-11.370265	-136.707539
0.900000	-11.030379	-147.281441	-0.489776	-53.726392	-0.489776	-53.726392	-10.968792	-139.427889
0.950000	-10.659543	-150.432981	-0.529537	-56.618106	-0.529537	-56.618106	-10.597782	-142.135242
1.000000	-10.316593	-153.570362	-0.569812	-59.498463	-0.569812	-59.498463	-10.254406	-144.830012
1.050000	-9.998876	-156.694079	-0.610447	-62.367924	-0.610447	-62.367924	-9.936058	-147.512855
1.100000	-9.704170	-159.804607	-0.651297	-65.226954	-0.651297	-65.226954	-9.640569	-150.184400
1.150000	-9.430519	-162.902515	-0.692221	-68.076107	-0.692221	-68.076107	-9.366035	-152.845352
1.200000	-9.176188	-165.988475	-0.733086	-70.916020	-0.733086	-70.916020	-9.110774	-155.496491
1.250000	-8.939634	-169.063255	-0.773763	-73.747407	-0.773763	-73.747407	-8.873295	-158.138670
1.300000	-8.719583	-172.127609	-0.814128	-76.570978	-0.814128	-76.570978	-8.652371	-160.772739
1.350000	-8.514676	-175.182597	-0.854072	-79.387677	-0.854072	-79.387677	-8.446685	-163.399793
1.400000	-8.323945	-178.229102	-0.893482	-82.198331	-0.893482	-82.198331	-8.255308	-166.020819
1.450000	-8.146121	178.731592	-0.932284	-85.004069	-0.932284	-85.004069	-8.076995	-168.637113
1.500000	-7.980392	175.698481	-0.970390	-87.805840	-0.970390	-87.805840	-7.910956	-171.249811
1.550000	-7.825924	172.670441	-1.007725	-90.604707	-1.007725	-90.604707	-7.756372	-173.860181
1.600000	-7.681955	169.646338	-1.044228	-93.401773	-1.044228	-93.401773	-7.612488	-176.469554
1.650000	-7.547788	166.625031	-1.079845	-96.198182	-1.079845	-96.198182	-7.478608	-179.079327
1.700000	-7.422779	163.605390	-1.114534	-98.995111	-1.114534	-98.995111	-7.354086	178.309038
1.750000	-7.306333	160.586300	-1.148263	-101.793774	-1.148263	-101.793774	-7.238318	175.694016
1.800000	-7.197895	157.566669	-1.181011	-104.595413	-1.181011	-104.595413	-7.130741	173.074015
1.850000	-7.096947	154.545429	-1.212765	-107.401303	-1.212765	-107.401303	-7.030822	170.447377
1.900000	-7.003056	151.521506	-1.243514	-110.212820	-1.243514	-110.212820	-6.938120	167.812261
1.950000	-6.915747	148.493860	-1.273267	-113.031342	-1.273267	-113.031342	-6.852143	165.166805
2.000000	-6.834505	145.461548	-1.302057	-115.858169	-1.302057	-115.858169	-6.772367	162.509223
2.050000	-6.758895	142.423627	-1.329916	-118.694689	-1.329916	-118.694689	-6.698346	159.837559
2.100000	-6.688491	139.379182	-1.356886	-121.542320	-1.356886	-121.542320	-6.629648	157.149777
2.150000	-6.622875	136.327319	-1.383020	-124.402510	-1.383020	-124.402510	-6.565850	154.443757
2.200000	-6.561629	133.267163	-1.408381	-127.276741	-1.408381	-127.276741	-6.506534	151.717290
2.250000	-6.504332	130.197849	-1.433047	-130.166528	-1.433047	-130.166528	-6.451285	148.968072
2.300000	-6.450560	127.118521	-1.457105	-133.073424	-1.457105	-133.073424	-6.399686	146.193700
2.350000	-6.399882	124.028318	-1.480655	-135.999024	-1.480655	-135.999024	-6.351316	143.391670
2.400000	-6.351855	120.926369	-1.503811	-138.944970	-1.503811	-138.944970	-6.305748	140.559365
2.450000	-6.306021	117.811782	-1.526700	-141.912953	-1.526700	-141.912953	-6.262541	137.694056
2.500000	-6.261910	114.683634	-1.549464	-144.904721	-1.549464	-144.904721	-6.221245	134.792893
2.550000	-6.219039	111.540617	-1.572265	-147.922684	-1.572265	-147.922684	-6.181406	131.851984
2.600000	-6.176863	108.381997	-1.595283	-150.968213	-1.595283	-150.968213	-6.142495	128.868994
2.650000	-6.134846	105.206668	-1.618714	-154.043273	-1.618714	-154.043273	-6.104000	125.840674
2.700000	-6.092427	102.013432	-1.642774	-157.149917	-1.642774	-157.149917	-6.065381	122.763640
2.750000	-6.049018	98.800976	-1.667704	-160.290298	-1.667704	-160.290298	-6.026072	119.634369
2.800000	-6.004008	95.567851	-1.693769	-163.466678	-1.693769	-163.466678	-5.985473	116.449199
2.850000	-5.956756	92.312446	-1.721265	-166.681438	-1.721265	-166.681438	-5.942958	113.204330
2.900000	-5.906596	89.032958	-1.750520	-169.937097	-1.750520	-169.937097	-5.897862	109.895830
2.950000	-5.852835	85.727360	-1.781901	-173.236321	-1.781901	-173.236321	-5.849490	106.519641
3.000000	-5.794758	82.393366	-1.815818	-176.581939	-1.815818	-176.581939	-5.797116	103.071585
3.050000	-5.731630	79.028393	-1.852731	-179.976958	-1.852731	-179.976958	-5.739979	99.547378
3.100000	-5.662701	75.629518	-1.893158	176.575421	-1.893158	176.575421	-5.677296	95.942650
3.150000	-5.587122	72.192991	-1.937733	173.071140	-1.937733	173.071140	-5.608173	92.251983
3.200000	-5.504103	68.714931	-1.987140	169.506435	-1.987140	169.506435	-5.531759	88.470734
3.250000	-5.412971	65.191500	-2.042098	165.878032	-2.042098	165.878032	-5.447302	84.595317
3.300000	-5.312999	61.617930	-2.103471	162.181805	-2.103471	162.181805	-5.353989	80.621239
3.350000	-5.203822	57.990588	-2.172032	158.415509	-2.172032	158.415509	-5.251357	76.547030
3.400000	-5.084135	54.300038	-2.249365	154.570039	-2.249365	154.570039	-5.137990	72.361975
3.450000	-4.953789	50.541811	-2.336518	150.643219	-2.336518	150.643219	-5.013623	68.065621
3.500000	-4.812354	46.708831	-2.434986	146.630076	-2.434986	146.630076	-4.877706	63.653960
3.550000	-4.659476	42.793089	-2.546549	142.525131	-2.546549	142.525131	-4.729760	59.122745
3.600000	-4.494794	38.784776	-2.673456	138.321605	-2.673456	138.321605	-4.569295	54.466527
3.650000	-4.318650	34.676801	-2.817811	134.016151	-2.817811	134.016151	-4.396553	49.684493
3.700000	-4.131355	30.460159	-2.982312	129.603884	-2.982312	129.603884	-4.211746	44.774004
3.750000	-3.933490	26.125713	-3.170091	125.080353	-3.170091	125.080353	-4.015376	39.733005
3.800000	-3.725620	21.661319	-3.385357	120.439111	-3.385357	120.439111	-3.807925	34.557125
3.850000	-3.509320	17.061127	-3.631884	115.680137	-3.631884	115.680137	-3.590952	29.249026
3.900000	-3.286177	12.317384	-3.914578	110.802394	-3.914578	110.802394	-3.366034	23.809540
3.950000	-3.058133	7.423625	-4.239127	105.806968	-4.239127	105.806968	-3.135129	18.240963
4.000000	-2.827367	2.372166	-4.612850	100.695690	-4.612850	100.695690	-2.900429	12.545104
4.050000	-2.596713	-2.836894	-5.042972	95.478150	-5.042972	95.478150	-2.664841	6.730386
4.100000	-2.369116	-8.202185	-5.538304	90.167184	-5.538304	90.167184	-2.431390	0.806239
4.150000	-2.147676	-13.719490	-6.109359	84.781036	-6.109359	84.781036	-2.203253	-5.215501
4.200000	-1.935685	-19.382793	-6.769349	79.345040	-6.769349	79.345040	-1.983789	-11.320893
4.250000	-1.736331	-25.178422	-7.533092	73.895957	-7.533092	73.895957	-1.776282	-17.490561
4.300000	-1.552488	-31.088952	-8.419066	68.482590	-8.419066	68.482590	-1.583689	-23.702548
4.350000	-1.386690	-37.094413	-9.451569	63.171636	-9.451569	63.171636	-1.408618	-29.932926
4.400000	-1.241191	-43.172374	-10.663721	58.062179	-10.663721	58.062179	-1.253384	-36.155454
4.450000	-1.117456	-49.296923	-12.101838	53.306373	-12.101838	53.306373	-1.119517	-42.342384
4.500000	-1.015980	-55.441174	-13.836055	49.153416	-13.836055	49.153416	-1.007587	-48.467020
4.550000	-0.936768	-61.579316	-15.981164	46.085995	-15.981164	46.085995	-0.917664	-54.503762
4.600000	-0.879330	-67.686513	-18.737042	45.236524	-18.737042	45.236524	-0.849329	-60.428203
4.650000	-0.842572	-73.739702	-22.449861	50.010439	-22.449861	50.010439	-0.801565	-66.218483
4.700000	-0.824492	-79.720496	-27.203294	72.570174	-27.203294	72.570174	-0.772453	-71.859801
4.750000	-0.823104	-85.613462	-27.951180	124.219010	-27.951180	124.219010	-0.760091	-77.339523
4.800000	-0.836302	-91.406314	-23.628980	151.074157	-23.628980	151.074157	-0.762450	-82.648236
4.850000	-0.861924	-97.089803	-20.160554	157.458461	-20.160554	157.458461	-0.777447	-87.779676
4.900000	-0.897747	-102.658460	-17.698833	157.766699	-17.698833	157.766699	-0.802933	-92.731968
4.950000	-0.941658	-108.110137	-15.865032	155.843560	-15.865032	155.843560	-0.836853	-97.506873
5.000000	-0.991643	-113.447678	-14.436639	152.944567	-14.436639	152.944567	-0.877230	-102.112370
5.050000	-1.046281	-118.666798	-13.292874	149.543009	-13.292874	149.543009	-0.922711	-106.545100
5.100000	-1.103952	-123.774534	-12.353519	145.901778	-12.353519	145.901778	-0.971690	-110.817642
5.150000	-1.163448	-128.774860	-11.568681	142.144505	-11.568681	142.144505	-1.022980	-114.937509
5.200000	-1.223761	-133.672374	-10.904122	138.341259	-10.904122	138.341259	-1.075585	-118.912752
5.250000	-1.284064	-138.472052	-10.335347	134.533323	-10.335347	134.533323	-1.128687	-122.751688
5.300000	-1.343697	-143.179038	-9.844238	130.745488	-9.844238	130.745488	-1.181628	-126.462689
5.350000	-1.402089	-147.796364	-9.417931	126.993781	-9.417931	126.993781	-1.233850	-130.051134
5.400000	-1.458862	-152.330805	-9.044892	123.286441	-9.044892	123.286441	-1.284959	-133.527433
5.450000	-1.513744	-156.787992	-8.716382	119.627702	-8.716382	119.627702	-1.334673	-136.900328
5.500000	-1.566535	-161.172579	-8.425655	116.019658	-8.425655	116.019658	-1.382782	-140.177172
5.550000	-1.617103	-165.488957	-8.167223	112.462791	-8.167223	112.462791	-1.429148	-143.364933
5.600000	-1.665354	-169.740826	-7.936695	108.956869	-7.936695	108.956869	-1.473670	-146.469650
5.650000	-1.711249	-173.931898	-7.730334	105.500754	-7.730334	105.500754	-1.516303	-149.497366
5.700000	-1.754812	-178.066172	-7.544847	102.092386	-7.544847	102.092386	-1.557061	-152.454442
5.750000	-1.796076	177.853047	-7.377572	98.729778	-7.377572	98.729778	-1.595968	-155.346316
5.800000	-1.835095	173.822721	-7.226244	95.410803	-7.226244	95.410803	-1.633074	-158.178064
5.850000	-1.871929	169.840277	-7.088979	92.133462	-7.088979	92.133462	-1.668434	-160.954173
5.900000	-1.906649	165.903333	-6.964139	88.895715	-6.964139	88.895715	-1.702119	-163.678892
5.950000	-1.939366	162.009105	-6.850179	85.695010	-6.850179	85.695010	-1.734232	-166.356859
6.000000	-1.970127	158.156418	-6.746038	82.530067	-6.746038	82.530067	-1.764828	-168.990931
6.050000	-1.999117	154.341575	-6.650271	79.397346	-6.650271	79.397346	-1.794068	-171.586562
6.100000	-2.026381	150.563841	-6.562141	76.295809	-6.562141	76.295809	-1.822009	-174.145984
6.150000	-2.052083	146.820236	-6.480573	73.222466	-6.480573	73.222466	-1.848796	-176.673647
6.200000	-2.076161	143.112649	-6.405365	70.178296	-6.405365	70.178296	-1.874406	-179.169478
6.250000	-2.098946	139.434665	-6.335093	67.157565	-6.335093	67.157565	-1.899103	178.359402
6.300000	-2.120227	135.791869	-6.270119	64.163975	-6.270119	64.163975	-1.922762	175.915807
6.350000	-2.140384	132.176606	-6.209050	61.191007	-6.209050	61.191007	-1.945674	173.492240
6.400000	-2.159311	128.592570	-6.151991	58.240713	-6.151991	58.240713	-1.967789	171.089679
6.450000	-2.177204	125.036106	-6.098209	55.309768	-6.098209	55.309768	-1.989265	168.704107
6.500000	-2.194108	121.507552	-6.047445	52.397691	-6.047445	52.397691	-2.010155	166.334091
6.550000	-2.210087	118.006765	-5.999406	49.503662	-5.999406	49.503662	-2.030522	163.977924
6.600000	-2.225288	114.531082	-5.953616	46.625264	-5.953616	46.625264	-2.050481	161.632756
6.650000	-2.239683	111.083522	-5.910058	43.763599	-5.910058	43.763599	-2.070043	159.298196
6.700000	-2.253467	107.659599	-5.868201	40.915317	-5.868201	40.915317	-2.089337	156.971062
6.750000	-2.266644	104.261546	-5.827983	38.080986	-5.827983	38.080986	-2.108394	154.650550
6.800000	-2.279310	100.888274	-5.789143	35.259293	-5.789143	35.259293	-2.127287	152.334812
6.850000	-2.291541	97.539485	-5.751483	32.449388	-5.751483	32.449388	-2.146080	150.022284
6.900000	-2.303410	94.215188	-5.714827	29.650568	-5.714827	29.650568	-2.164834	147.711454
6.950000	-2.314995	90.915162	-5.679001	26.862029	-5.679001	26.862029	-2.183611	145.400799
7.000000	-2.326375	87.638967	-5.643838	24.082905	-5.643838	24.082905	-2.202472	143.088866
7.050000	-2.337626	84.386460	-5.609188	21.312475	-5.609188	21.312475	-2.221474	140.774250
7.100000	-2.348825	81.157523	-5.574914	18.550040	-5.574914	18.550040	-2.240678	138.455575
7.150000	-2.360047	77.952064	-5.540884	15.794919	-5.540884	15.794919	-2.260140	136.131486
7.200000	-2.371371	74.770012	-5.506974	13.046448	-5.506974	13.046448	-2.279920	133.800647
7.250000	-2.382873	71.611314	-5.473066	10.303974	-5.473066	10.303974	-2.300077	131.461739
7.300000	-2.394634	68.475934	-5.439046	7.566852	-5.439046	7.566852	-2.320670	129.113454
7.350000	-2.406732	65.363847	-5.404809	4.834444	-5.404809	4.834444	-2.341760	126.754492
7.400000	-2.419249	62.275040	-5.370250	2.106114	-5.370250	2.106114	-2.363410	124.383559
7.450000	-2.432266	59.209509	-5.335270	-0.618777	-5.335270	-0.618777	-2.385683	121.999364
7.500000	-2.445865	56.167254	-5.299775	-3.340868	-5.299775	-3.340868	-2.408644	119.600615
7.550000	-2.460149	53.148789	-5.263653	-6.060774	-5.263653	-6.060774	-2.432380	117.185640
7.600000	-2.475190	50.153617	-5.226831	-8.779212	-5.226831	-8.779212	-2.456946	114.753452
7.650000	-2.491075	47.181750	-5.189222	-11.496853	-5.189222	-11.496853	-2.482417	112.302737
7.700000	-2.507894	44.233198	-5.150744	-14.214376	-5.150744	-14.214376	-2.508869	109.832169
7.750000	-2.525738	41.307973	-5.111318	-16.932482	-5.111318	-16.932482	-2.536383	107.340404
7.800000	-2.544701	38.406085	-5.070866	-19.651889	-5.070866	-19.651889	-2.565044	104.826080
7.850000	-2.564876	35.527543	-5.029315	-22.373336	-5.029315	-22.373336	-2.594941	102.287811
7.900000	-2.586363	32.672351	-4.986592	-25.097584	-4.986592	-25.097584	-2.626169	99.724184
7.950000	-2.609261	29.840516	-4.942630	-27.825423	-4.942630	-27.825423	-2.658826	97.133757
8.000000	-2.633675	27.032040	-4.897363	-30.557665	-4.897363	-30.557665	-2.693018	94.515051
8.050000	-2.659712	24.246927	-4.850730	-33.295156	-4.850730	-33.295156	-2.728857	91.866552
8.100000	-2.687483	21.485178	-4.802672	-36.038769	-4.802672	-36.038769	-2.766461	89.186698
8.150000	-2.717123	18.747054	-4.753114	-38.789497	-4.753114	-38.789497	-2.805978	86.473504
8.200000	-2.748755	16.032564	-4.702003	-41.548314	-4.702003	-41.548314	-2.847547	83.725248
8.250000	-2.782487	13.341469	-4.649311	-44.316122	-4.649311	-44.316122	-2.891293	80.940560
8.300000	-2.818450	10.673794	-4.594997	-47.093935	-4.594997	-47.093935	-2.937370	78.117644
8.350000	-2.856848	8.030259	-4.538961	-49.883160	-4.538961	-49.883160	-2.986014	75.253406
8.400000	-2.897584	5.408506	-4.481386	-52.683616	-4.481386	-52.683616	-3.037153	72.350255
8.450000	-2.941189	2.812284	-4.421918	-55.498449	-4.421918	-55.498449	-3.091365	69.399369
8.500000	-2.987484	0.238504	-4.360823	-58.326977	-4.360823	-58.326977	-3.148504	66.404673
8.550000	-3.036844	-2.310851	-4.297919	-61.171573	-4.297919	-61.171573	-3.209004	63.360249
8.600000	-3.089398	-4.836056	-4.233240	-64.033186	-4.233240	-64.033186	-3.273044	60.264653
8.650000	-3.145223	-7.337799	-4.166874	-66.912434	-4.166874	-66.912434	-3.340757	57.117375
8.700000	-3.204827	-9.813404	-4.098608	-69.812512	-4.098608	-69.812512	-3.412749	53.910385
8.750000	-3.267917	-12.266322	-4.028810	-72.731645	-4.028810	-72.731645	-3.488753	50.649783
8.800000	-3.335467	-14.690679	-3.957020	-75.675950	-3.957020	-75.675950	-3.569921	47.319482
8.850000	-3.406959	-17.091330	-3.883759	-78.642037	-3.883759	-78.642037	-3.655739	43.929634
8.900000	-3.483244	-19.463447	-3.808721	-81.635237	-3.808721	-81.635237	-3.747256	40.466340
8.950000	-3.564219	-21.808749	-3.732182	-84.654611	-3.732182	-84.654611	-3.844439	36.932583
9.000000	-3.650343	-24.125042	-3.654126	-87.702864	-3.654126	-87.702864	-3.947922	33.321320
9.050000	-3.741816	-26.411792	-3.574685	-90.780864	-3.574685	-90.780864	-4.058046	29.630222
9.100000	-3.839179	-28.666021	-3.493868	-93.891741	-3.493868	-93.891741	-4.175588	25.850598
9.150000	-3.942674	-30.886557	-3.411840	-97.036522	-3.411840	-97.036522	-4.300986	21.979071
9.200000	-4.052722	-33.070753	-3.328717	-100.217382	-3.328717	-100.217382	-4.434929	18.008742
9.250000	-4.169684	-35.216015	-3.244662	-103.436035	-3.244662	-103.436035	-4.578062	13.933464
9.300000	-4.293924	-37.319300	-3.159856	-106.694196	-3.159856	-106.694196	-4.731082	9.746537
9.350000	-4.425839	-39.376818	-3.074494	-109.993780	-3.074494	-109.993780	-4.894767	5.440022
9.400000	-4.565819	-41.384116	-2.988793	-113.336722	-2.988793	-113.336722	-5.069958	1.005105
9.450000	-4.714278	-43.335585	-2.902996	-116.725280	-2.902996	-116.725280	-5.257604	-3.569005
9.500000	-4.871542	-45.225262	-2.817382	-120.161280	-2.817382	-120.161280	-5.458625	-8.292966
9.550000	-5.037864	-47.046544	-2.732258	-123.646331	-2.732258	-123.646331	-5.673940	-13.178040
9.600000	-5.213461	-48.791387	-2.647958	-127.182329	-2.647958	-127.182329	-5.904557	-18.237958
9.650000	-5.398447	-50.450594	-2.564848	-130.771125	-2.564848	-130.771125	-6.151483	-23.488193
9.700000	-5.592825	-52.012801	-2.483344	-134.414991	-2.483344	-134.414991	-6.415778	-28.948184
9.750000	-5.796399	-53.463908	-2.403929	-138.116655	-2.403929	-138.116655	-6.698476	-34.642530
9.800000	-6.008507	-54.793312	-2.327068	-141.876261	-2.327068	-141.876261	-7.000018	-40.588459
9.850000	-6.228274	-55.986745	-2.253285	-145.695209	-2.253285	-145.695209	-7.320803	-46.811550
9.900000	-6.454387	-57.029011	-2.183148	-149.574699	-2.183148	-149.574699	-7.660785	-53.340585
9.950000	-6.685002	-57.904416	-2.117268	-153.515692	-2.117268	-153.515692	-8.019254	-60.207656
10.000000	-6.917640	-58.597428	-2.056293	-157.518860	-2.056293	-157.518860	-8.394549	-67.447999
