! freq	dB(S11)	phase(S11)	dB(S12)	phase(S12)	
!     	dB(S21)	phase(S21)	dB(S22)	phase(S22)	
!S-par simulation data
#  GHz  S  DB  R 50
0.000000	-0.000000	0.000000	-344.028424	180.000000	-344.028424	180.000000	-0.000000	0.000000
0.050000	-0.010386	-1.466210	-95.918815	90.814966	-95.918815	90.814966	-0.010310	-1.466189
0.100000	-0.014518	-3.000091	-89.867140	88.178106	-89.867140	88.178106	-0.014478	-3.000023
0.150000	-0.015927	-4.527612	-86.372217	86.284361	-86.372217	86.284361	-0.015903	-4.527662
0.200000	-0.016810	-6.050364	-83.920807	84.593485	-83.920807	84.593485	-0.016793	-6.050536
0.250000	-0.017592	-7.569950	-82.048760	83.003674	-82.048760	83.003674	-0.017580	-7.570233
0.300000	-0.018406	-9.087389	-80.545200	81.471467	-80.545200	81.471467	-0.018396	-9.087775
0.350000	-0.019290	-10.602818	-79.301698	79.988583	-79.301698	79.988583	-0.019282	-10.603302
0.400000	-0.020258	-12.116298	-78.252721	78.551273	-78.252721	78.551273	-0.020252	-12.116876
0.450000	-0.021317	-13.627785	-77.356146	77.160150	-77.356146	77.160150	-0.021312	-13.628452
0.500000	-0.022465	-15.137182	-76.583346	75.818302	-76.583346	75.818302	-0.022461	-15.137936
0.550000	-0.023699	-16.644368	-75.914027	74.530492	-75.914027	74.530492	-0.023696	-16.645207
0.600000	-0.025013	-18.149208	-75.333331	73.302839	-75.333331	73.302839	-0.025011	-18.150129
0.650000	-0.026393	-19.651907	-74.824398	72.132788	-74.824398	72.132788	-0.026392	-19.652909
0.700000	-0.027852	-21.151627	-74.390521	71.048427	-74.390521	71.048427	-0.027852	-21.152707
0.750000	-0.029374	-22.648581	-74.018844	70.050382	-74.018844	70.050382	-0.029375	-22.649738
0.800000	-0.030951	-24.142634	-73.704047	69.150355	-73.704047	69.150355	-0.030952	-24.143867
0.850000	-0.032581	-25.633379	-73.445529	68.373219	-73.445529	68.373219	-0.032583	-25.634686
0.900000	-0.034249	-27.121270	-73.231796	67.712128	-73.231796	67.712128	-0.034251	-27.122650
0.950000	-0.035954	-28.605888	-73.064026	67.196347	-73.064026	67.196347	-0.035957	-28.607339
1.000000	-0.037690	-30.087118	-72.939501	66.846964	-72.939501	66.846964	-0.037694	-30.088639
1.050000	-0.039452	-31.564850	-72.855624	66.688427	-72.855624	66.688427	-0.039456	-31.566440
1.100000	-0.041235	-33.038980	-72.809713	66.748992	-72.809713	66.748992	-0.041239	-33.040638
1.150000	-0.043034	-34.509408	-72.798747	67.061113	-72.798747	67.061113	-0.043038	-34.511133
1.200000	-0.044844	-35.976040	-72.819063	67.661659	-72.819063	67.661659	-0.044849	-35.977831
1.250000	-0.046663	-37.438787	-72.865979	68.591770	-72.865979	68.591770	-0.046667	-37.440643
1.300000	-0.048486	-38.897386	-72.933791	69.914479	-72.933791	69.914479	-0.048490	-38.899307
1.350000	-0.050309	-40.351928	-73.012820	71.661301	-73.012820	71.661301	-0.050313	-40.353912
1.400000	-0.052131	-41.802335	-73.091859	73.874640	-73.091859	73.874640	-0.052135	-41.804381
1.450000	-0.053950	-43.248536	-73.156597	76.586510	-73.156597	76.586510	-0.053953	-43.250644
1.500000	-0.055762	-44.690464	-73.189576	79.808739	-73.189576	79.808739	-0.055766	-44.692633
1.550000	-0.057567	-46.128054	-73.170901	83.521286	-73.170901	83.521286	-0.057570	-46.130283
1.600000	-0.059362	-47.561246	-73.080013	87.661603	-73.080013	87.661603	-0.059366	-47.563534
1.650000	-0.061148	-48.989983	-72.898556	92.119851	-72.898556	92.119851	-0.061152	-48.992329
1.700000	-0.062924	-50.414212	-72.613754	96.744796	-72.613754	96.744796	-0.062927	-50.416615
1.750000	-0.064688	-51.833883	-72.221155	101.361765	-72.221155	101.361765	-0.064691	-51.836342
1.800000	-0.066441	-53.248950	-71.725561	105.798229	-71.725561	105.798229	-0.066443	-53.251465
1.850000	-0.068182	-54.659370	-71.139715	109.908419	-71.139715	109.908419	-0.068184	-54.661939
1.900000	-0.069912	-56.065102	-70.481368	113.589113	-70.481368	113.589113	-0.069914	-56.067725
1.950000	-0.071630	-57.466112	-69.769940	116.783551	-69.769940	116.783551	-0.071632	-57.468786
2.000000	-0.073338	-58.862365	-69.023827	119.475680	-69.023827	119.475680	-0.073340	-58.865090
2.050000	-0.075035	-60.253831	-68.258804	121.679482	-68.258804	121.679482	-0.075037	-60.256607
2.100000	-0.076723	-61.640484	-67.487438	123.427724	-67.487438	123.427724	-0.076725	-61.643309
2.150000	-0.078402	-63.022300	-66.719174	124.762676	-66.719174	124.762676	-0.078403	-63.025173
2.200000	-0.080072	-64.399258	-65.960772	125.729566	-65.960772	125.729566	-0.080074	-64.402178
2.250000	-0.081736	-65.771342	-65.216841	126.372524	-65.216841	126.372524	-0.081737	-65.774307
2.300000	-0.083393	-67.138537	-64.490360	126.732399	-64.490360	126.732399	-0.083394	-67.141546
2.350000	-0.085044	-68.500832	-63.783105	126.845809	-63.783105	126.845809	-0.085046	-68.503884
2.400000	-0.086692	-69.858218	-63.095994	126.744931	-63.095994	126.744931	-0.086693	-69.861313
2.450000	-0.088336	-71.210692	-62.429346	126.457698	-62.429346	126.457698	-0.088337	-71.213827
2.500000	-0.089978	-72.558250	-61.783072	126.008188	-61.783072	126.008188	-0.089980	-72.561425
2.550000	-0.091619	-73.900681	-61.155755	125.411753	-61.155755	125.411753	-0.091621	-73.903894
2.600000	-0.093261	-75.238202	-60.548091	124.692809	-60.548091	124.692809	-0.093262	-75.241452
2.650000	-0.094903	-76.570821	-59.959407	123.866275	-59.959407	123.866275	-0.094905	-76.574106
2.700000	-0.096548	-77.898549	-59.388980	122.944986	-59.388980	122.944986	-0.096550	-77.901867
2.750000	-0.098197	-79.221396	-58.836064	121.940013	-58.836064	121.940013	-0.098199	-79.224748
2.800000	-0.099851	-80.539381	-58.299917	120.860929	-58.299917	120.860929	-0.099853	-80.542764
2.850000	-0.101510	-81.852521	-57.779808	119.716037	-57.779808	119.716037	-0.101512	-81.855934
2.900000	-0.103176	-83.160838	-57.275034	118.512560	-57.275034	118.512560	-0.103179	-83.164279
2.950000	-0.104851	-84.464355	-56.784917	117.256804	-56.784917	117.256804	-0.104853	-84.467824
3.000000	-0.106534	-85.763099	-56.308812	115.954292	-56.308812	115.954292	-0.106537	-85.766594
3.050000	-0.108227	-87.057099	-55.846106	114.609879	-55.846106	114.609879	-0.108230	-87.060619
3.100000	-0.109932	-88.346387	-55.396222	113.227848	-55.396222	113.227848	-0.109935	-88.349931
3.150000	-0.111648	-89.630996	-54.958611	111.811986	-54.958611	111.811986	-0.111652	-89.634562
3.200000	-0.113378	-90.910964	-54.532757	110.365657	-54.532757	110.365657	-0.113382	-90.914551
3.250000	-0.115122	-92.186329	-54.118174	108.891858	-54.118174	108.891858	-0.115126	-92.189936
3.300000	-0.116881	-93.457132	-53.714404	107.393265	-53.714404	107.393265	-0.116884	-93.460757
3.350000	-0.118655	-94.723416	-53.321014	105.872279	-53.321014	105.872279	-0.118659	-94.727059
3.400000	-0.120447	-95.985226	-52.937597	104.331057	-52.937597	104.331057	-0.120451	-95.988886
3.450000	-0.122255	-97.242612	-52.563768	102.771541	-52.563768	102.771541	-0.122260	-97.246286
3.500000	-0.124083	-98.495621	-52.199164	101.195490	-52.199164	101.195490	-0.124087	-98.499309
3.550000	-0.125929	-99.744305	-51.843441	99.604494	-51.843441	99.604494	-0.125934	-99.748006
3.600000	-0.127796	-100.988719	-51.496276	97.999999	-51.496276	97.999999	-0.127800	-100.992431
3.650000	-0.129683	-102.228917	-51.157360	96.383320	-51.157360	96.383320	-0.129687	-102.232640
3.700000	-0.131591	-103.464957	-50.826402	94.755657	-50.826402	94.755657	-0.131596	-103.468689
3.750000	-0.133522	-104.696898	-50.503125	93.118103	-50.503125	93.118103	-0.133527	-104.700638
3.800000	-0.135476	-105.924627	-50.187089	91.471318	-50.187089	91.471318	-0.135481	-105.928375
3.850000	-0.137454	-107.148386	-49.878243	89.816637	-49.878243	89.816637	-0.137459	-107.152140
3.900000	-0.139456	-108.368238	-49.576348	88.154890	-49.576348	88.154890	-0.139461	-108.371997
3.950000	-0.141482	-109.584250	-49.281172	86.486841	-49.281172	86.486841	-0.141487	-109.588013
4.000000	-0.143534	-110.796488	-48.992499	84.813188	-48.992499	84.813188	-0.143539	-110.800254
4.050000	-0.145611	-112.005022	-48.710117	83.134575	-48.710117	83.134575	-0.145616	-112.008790
4.100000	-0.147715	-113.209920	-48.433827	81.451591	-48.433827	81.451591	-0.147720	-113.213689
4.150000	-0.149845	-114.411254	-48.163439	79.764778	-48.163439	79.764778	-0.149850	-114.415023
4.200000	-0.152003	-115.609097	-47.898768	78.074632	-47.898768	78.074632	-0.152007	-115.612865
4.250000	-0.154188	-116.803522	-47.639639	76.381606	-47.639639	76.381606	-0.154192	-116.807289
4.300000	-0.156401	-117.994604	-47.385884	74.686116	-47.385884	74.686116	-0.156405	-117.998369
4.350000	-0.158643	-119.182420	-47.137341	72.988540	-47.137341	72.988540	-0.158647	-119.186181
4.400000	-0.160913	-120.367046	-46.893856	71.289224	-46.893856	71.289224	-0.160917	-120.370802
4.450000	-0.163213	-121.548560	-46.655279	69.588480	-46.655279	69.588480	-0.163217	-121.552311
4.500000	-0.165542	-122.727042	-46.421467	67.886590	-46.421467	67.886590	-0.165546	-122.730787
4.550000	-0.167901	-123.902572	-46.192283	66.183809	-46.192283	66.183809	-0.167905	-123.906309
4.600000	-0.170290	-125.075230	-45.967595	64.480364	-45.967595	64.480364	-0.170294	-125.078960
4.650000	-0.172710	-126.245099	-45.747277	62.776459	-45.747277	62.776459	-0.172713	-126.248819
4.700000	-0.175160	-127.412261	-45.531206	61.072273	-45.531206	61.072273	-0.175163	-127.415972
4.750000	-0.177641	-128.576799	-45.319265	59.367964	-45.319265	59.367964	-0.177644	-128.580500
4.800000	-0.180153	-129.738799	-45.111343	57.663666	-45.111343	57.663666	-0.180156	-129.742488
4.850000	-0.182697	-130.898345	-44.907332	55.959498	-44.907332	55.959498	-0.182700	-130.902022
4.900000	-0.185272	-132.055523	-44.707129	54.255557	-44.707129	54.255557	-0.185275	-132.059187
4.950000	-0.187879	-133.210419	-44.510634	52.551926	-44.510634	52.551926	-0.187881	-133.214069
5.000000	-0.190518	-134.363120	-44.317753	50.848668	-44.317753	50.848668	-0.190520	-134.366755
5.050000	-0.193190	-135.513627	-44.128369	49.145855	-44.128369	49.145855	-0.193192	-135.517246
5.100000	-0.195894	-136.662124	-43.942426	47.443504	-43.942426	47.443504	-0.195896	-136.665726
5.150000	-0.198631	-137.808699	-43.759843	45.741638	-43.759843	45.741638	-0.198632	-137.812284
5.200000	-0.201400	-138.953442	-43.580540	44.040267	-43.580540	44.040267	-0.201401	-138.957008
5.250000	-0.204201	-140.096442	-43.404441	42.339390	-43.404441	42.339390	-0.204202	-140.099989
5.300000	-0.207035	-141.237791	-43.231475	40.638999	-43.231475	40.638999	-0.207035	-141.241318
5.350000	-0.209901	-142.377579	-43.061573	38.939075	-43.061573	38.939075	-0.209901	-142.381085
5.400000	-0.212800	-143.515898	-42.894672	37.239594	-42.894672	37.239594	-0.212800	-143.519382
5.450000	-0.215731	-144.652839	-42.730709	35.540522	-42.730709	35.540522	-0.215731	-144.656300
5.500000	-0.218695	-145.788494	-42.569627	33.841824	-42.569627	33.841824	-0.218695	-145.791931
5.550000	-0.221692	-146.922957	-42.411371	32.143457	-42.411371	32.143457	-0.221691	-146.926369
5.600000	-0.224721	-148.056320	-42.255890	30.445376	-42.255890	30.445376	-0.224720	-148.059707
5.650000	-0.227783	-149.188676	-42.103136	28.747533	-42.103136	28.747533	-0.227782	-149.192036
5.700000	-0.230877	-150.320119	-41.953063	27.049879	-41.953063	27.049879	-0.230876	-150.323452
5.750000	-0.234004	-151.450743	-41.805629	25.352364	-41.805629	25.352364	-0.234003	-151.454048
5.800000	-0.237163	-152.580643	-41.660795	23.654938	-41.660795	23.654938	-0.237161	-152.583918
5.850000	-0.240355	-153.709912	-41.518522	21.957553	-41.518522	21.957553	-0.240353	-153.713157
5.900000	-0.243579	-154.838646	-41.378776	20.260161	-41.378776	20.260161	-0.243576	-154.841860
5.950000	-0.246835	-155.966940	-41.241526	18.562719	-41.241526	18.562719	-0.246832	-155.970121
6.000000	-0.250123	-157.094889	-41.106742	16.865185	-41.106742	16.865185	-0.250120	-157.098036
6.050000	-0.253443	-158.222588	-40.974395	15.167525	-40.974395	15.167525	-0.253439	-158.225701
6.100000	-0.256794	-159.350133	-40.844461	13.469707	-40.844461	13.469707	-0.256791	-159.353211
6.150000	-0.260178	-160.477621	-40.716915	11.771704	-40.716915	11.771704	-0.260174	-160.480662
6.200000	-0.263593	-161.605146	-40.591735	10.073499	-40.591735	10.073499	-0.263589	-161.608151
6.250000	-0.267040	-162.732807	-40.468901	8.375079	-40.468901	8.375079	-0.267035	-162.735773
6.300000	-0.270519	-163.860713	-40.348422	6.676430	-40.348422	6.676430	-0.270513	-163.863640
6.350000	-0.274029	-164.988955	-40.230256	4.977564	-40.230256	4.977564	-0.274023	-164.991842
6.400000	-0.277570	-166.117630	-40.114384	3.278494	-40.114384	3.278494	-0.277564	-166.120475
6.450000	-0.281141	-167.246835	-40.000791	1.579241	-40.000791	1.579241	-0.281135	-167.249638
6.500000	-0.284744	-168.376667	-39.889461	-0.120166	-39.889461	-0.120166	-0.284737	-168.379427
6.550000	-0.288376	-169.507222	-39.780378	-1.819689	-39.780378	-1.819689	-0.288369	-169.509938
6.600000	-0.292039	-170.638599	-39.673526	-3.519283	-39.673526	-3.519283	-0.292032	-170.641270
6.650000	-0.295732	-171.770893	-39.568890	-5.218891	-39.568890	-5.218891	-0.295724	-171.773518
6.700000	-0.299455	-172.904202	-39.466455	-6.918451	-39.466455	-6.918451	-0.299446	-172.906780
6.750000	-0.303207	-174.038624	-39.366204	-8.617892	-39.366204	-8.617892	-0.303198	-174.041154
6.800000	-0.306988	-175.174254	-39.268120	-10.317135	-39.268120	-10.317135	-0.306979	-175.176736
6.850000	-0.310799	-176.311191	-39.172185	-12.016095	-39.172185	-12.016095	-0.310789	-176.313623
6.900000	-0.314639	-177.449532	-39.078380	-13.714681	-39.078380	-13.714681	-0.314628	-177.451913
6.950000	-0.318507	-178.589372	-38.986684	-15.412797	-38.986684	-15.412797	-0.318495	-178.591702
7.000000	-0.322404	-179.730810	-38.897076	-17.110342	-38.897076	-17.110342	-0.322392	-179.733088
7.050000	-0.326329	179.126058	-38.809531	-18.807214	-38.809531	-18.807214	-0.326316	179.123832
7.100000	-0.330283	177.981135	-38.724024	-20.503307	-38.724024	-20.503307	-0.330269	177.978963
7.150000	-0.334264	176.834325	-38.640527	-22.198516	-38.640527	-22.198516	-0.334249	176.832207
7.200000	-0.338273	175.685532	-38.559009	-23.892739	-38.559009	-23.892739	-0.338257	175.683469
7.250000	-0.342309	174.534659	-38.479438	-25.585875	-38.479438	-25.585875	-0.342293	174.532651
7.300000	-0.346373	173.381611	-38.401778	-27.277830	-38.401778	-27.277830	-0.346356	173.379658
7.350000	-0.350464	172.226291	-38.325990	-28.968516	-38.325990	-28.968516	-0.350446	172.224395
7.400000	-0.354581	171.068606	-38.252034	-30.657855	-38.252034	-30.657855	-0.354562	171.066766
7.450000	-0.358725	169.908459	-38.179864	-32.345782	-38.179864	-32.345782	-0.358706	169.906676
7.500000	-0.362896	168.745756	-38.109434	-34.032246	-38.109434	-34.032246	-0.362876	168.744030
7.550000	-0.367094	167.580284	-38.040740	-35.717146	-38.040740	-35.717146	-0.367073	167.578615
7.600000	-0.371319	166.412060	-37.973678	-37.400538	-37.973678	-37.400538	-0.371296	166.410447
7.650000	-0.375569	165.240990	-37.908191	-39.082434	-37.908191	-39.082434	-0.375546	165.239434
7.700000	-0.379845	164.066982	-37.844216	-40.762874	-37.844216	-40.762874	-0.379821	164.065483
7.750000	-0.384147	162.889944	-37.781690	-42.441932	-37.781690	-42.441932	-0.384122	162.888502
7.800000	-0.388475	161.709785	-37.720546	-44.119713	-37.720546	-44.119713	-0.388448	161.708399
7.850000	-0.392828	160.526413	-37.660714	-45.796361	-37.660714	-45.796361	-0.392801	160.525083
7.900000	-0.397207	159.339739	-37.602120	-47.472062	-37.602120	-47.472062	-0.397178	159.338464
7.950000	-0.401610	158.149673	-37.544690	-49.147050	-37.544690	-49.147050	-0.401581	158.148453
8.000000	-0.406040	156.956128	-37.488345	-50.821607	-37.488345	-50.821607	-0.406010	156.954961
8.050000	-0.410494	155.759015	-37.433007	-52.496074	-37.433007	-52.496074	-0.410463	155.757900
8.100000	-0.414974	154.558247	-37.378593	-54.170849	-37.378593	-54.170849	-0.414942	154.557184
8.150000	-0.419479	153.353740	-37.325022	-55.846398	-37.325022	-55.846398	-0.419446	153.352727
8.200000	-0.424009	152.145409	-37.272211	-57.523257	-37.272211	-57.523257	-0.423976	152.144444
8.250000	-0.428565	150.933170	-37.220076	-59.202037	-37.220076	-59.202037	-0.428531	150.932251
8.300000	-0.433146	149.716941	-37.168537	-60.883434	-37.168537	-60.883434	-0.433112	149.716067
8.350000	-0.437753	148.496641	-37.117513	-62.568231	-37.117513	-62.568231	-0.437718	148.495811
8.400000	-0.442385	147.272191	-37.066926	-64.257306	-37.066926	-64.257306	-0.442350	147.271401
8.450000	-0.447043	146.043513	-37.016702	-65.951637	-37.016702	-65.951637	-0.447008	146.042761
8.500000	-0.451728	144.810530	-36.966772	-67.652314	-36.966772	-67.652314	-0.451693	144.809814
8.550000	-0.456438	143.573166	-36.917073	-69.360539	-36.917073	-69.360539	-0.456404	143.572483
8.600000	-0.461176	142.331350	-36.867552	-71.077636	-36.867552	-71.077636	-0.461141	142.330697
8.650000	-0.465940	141.085009	-36.818165	-72.805061	-36.818165	-72.805061	-0.465906	141.084382
8.700000	-0.470731	139.834073	-36.768879	-74.544404	-36.768879	-74.544404	-0.470698	139.833469
8.750000	-0.475550	138.578476	-36.719679	-76.297397	-36.719679	-76.297397	-0.475517	138.577891
8.800000	-0.480398	137.317942	-36.670559	-78.066696	-36.670559	-78.066696	-0.480367	137.317372
8.850000	-0.485274	136.052612	-36.621555	-79.853762	-36.621555	-79.853762	-0.485245	136.052052
8.900000	-0.490179	134.782424	-36.572719	-81.660810	-36.572719	-81.660810	-0.490152	134.781870
8.950000	-0.495114	133.507320	-36.524135	-83.490212	-36.524135	-83.490212	-0.495089	133.506767
9.000000	-0.500080	132.227244	-36.475925	-85.344495	-36.475925	-85.344495	-0.500057	132.226687
9.050000	-0.505076	130.942143	-36.428248	-87.226338	-36.428248	-87.226338	-0.505056	130.941576
9.100000	-0.510103	129.651966	-36.381317	-89.138558	-36.381317	-89.138558	-0.510087	129.651383
9.150000	-0.515163	128.356664	-36.335395	-91.084094	-36.335395	-91.084094	-0.515150	128.356060
9.200000	-0.520256	127.056194	-36.290811	-93.065985	-36.290811	-93.065985	-0.520248	127.055561
9.250000	-0.525383	125.750514	-36.247963	-95.087332	-36.247963	-95.087332	-0.525379	125.749845
9.300000	-0.530545	124.439583	-36.207331	-97.151251	-36.207331	-97.151251	-0.530546	124.438873
9.350000	-0.535742	123.123369	-36.169481	-99.260819	-36.169481	-99.260819	-0.535750	123.122609
9.400000	-0.540976	121.801837	-36.135075	-101.418990	-36.135075	-101.418990	-0.540990	121.801020
9.450000	-0.546249	120.474961	-36.104879	-103.628509	-36.104879	-103.628509	-0.546270	120.474078
9.500000	-0.551560	119.142714	-36.079769	-105.891789	-36.079769	-105.891789	-0.551589	119.141758
9.550000	-0.556912	117.805077	-36.060736	-108.210786	-36.060736	-108.210786	-0.556949	117.804038
9.600000	-0.562305	116.462033	-36.048882	-110.586835	-36.048882	-110.586835	-0.562352	116.460901
9.650000	-0.567741	115.113568	-36.045425	-113.020479	-36.045425	-113.020479	-0.567798	115.112334
9.700000	-0.573221	113.759673	-36.051681	-115.511284	-36.051681	-115.511284	-0.573290	113.758328
9.750000	-0.578747	112.400344	-36.069053	-118.057636	-36.069053	-118.057636	-0.578828	112.398877
9.800000	-0.584320	111.035582	-36.099008	-120.656555	-36.099008	-120.656555	-0.584414	111.033982
9.850000	-0.589942	109.665390	-36.143043	-123.303516	-36.143043	-123.303516	-0.590050	109.663646
9.900000	-0.595614	108.289777	-36.202646	-125.992308	-36.202646	-125.992308	-0.595737	108.287878
9.950000	-0.601339	106.908758	-36.279245	-128.714944	-36.279245	-128.714944	-0.601478	106.906691
10.000000	-0.607117	105.522352	-36.374157	-131.461646	-36.374157	-131.461646	-0.607273	105.520105
