! freq	dB(S11)	phase(S11)	dB(S12)	phase(S12)	
!     	dB(S21)	phase(S21)	dB(S22)	phase(S22)	
!S-par simulation data
#  GHz  S  DB  R 50
0.000000	-0.000000	-0.000000	-369.992667	180.000000	-369.992667	180.000000	-0.000000	0.000000
0.050000	-0.000318	-1.402745	-83.855562	89.270101	-83.855562	89.270101	-0.005794	-1.359331
0.100000	-0.001235	-2.804276	-77.859212	87.546162	-77.859212	87.546162	-0.009382	-2.763263
0.150000	-0.002661	-4.203542	-74.348030	86.028218	-74.348030	86.028218	-0.010871	-4.166621
0.200000	-0.004439	-5.600193	-71.859417	84.567929	-71.859417	84.567929	-0.011865	-5.567003
0.250000	-0.006458	-6.993870	-69.933135	83.135781	-69.933135	83.135781	-0.012758	-6.965075
0.300000	-0.008614	-8.384585	-68.363695	81.721162	-68.363695	81.721162	-0.013681	-8.361316
0.350000	-0.010820	-9.772784	-67.040821	80.318676	-67.040821	80.318676	-0.014678	-9.756076
0.400000	-0.013026	-11.158439	-65.899888	78.928346	-65.899888	78.928346	-0.015772	-11.149218
0.450000	-0.015210	-12.542237	-64.897334	77.547768	-64.897334	77.547768	-0.016950	-12.540996
0.500000	-0.017354	-13.924081	-64.005594	76.179143	-64.005594	76.179143	-0.018227	-13.931072
0.550000	-0.019466	-15.304481	-63.202778	74.820953	-63.202778	74.820953	-0.019581	-15.319657
0.600000	-0.021550	-16.683431	-62.474414	73.475102	-62.474414	73.475102	-0.021014	-16.706495
0.650000	-0.023616	-18.061135	-61.808461	72.141555	-61.808461	72.141555	-0.022513	-18.091617
0.700000	-0.025672	-19.437686	-61.195868	70.821035	-61.195868	70.821035	-0.024072	-19.474957
0.750000	-0.027723	-20.813088	-60.629772	69.515092	-60.629772	69.515092	-0.025683	-20.856343
0.800000	-0.029771	-22.187512	-60.103626	68.222821	-60.103626	68.222821	-0.027335	-22.235938
0.850000	-0.031811	-23.560803	-59.613650	66.947654	-59.613650	66.947654	-0.029026	-23.613346
0.900000	-0.033838	-24.933161	-59.154717	65.687299	-59.154717	65.687299	-0.030744	-24.988902
0.950000	-0.035834	-26.304367	-58.724408	64.445420	-58.724408	64.445420	-0.032486	-26.362202
1.000000	-0.037787	-27.674493	-58.319099	63.220417	-58.319099	63.220417	-0.034245	-27.733487
1.050000	-0.039676	-29.043324	-57.936693	62.014411	-57.936693	62.014411	-0.036017	-29.102551
1.100000	-0.041487	-30.410712	-57.574907	60.827742	-57.574907	60.827742	-0.037797	-30.469398
1.150000	-0.043211	-31.776510	-57.231658	59.660319	-57.231658	59.660319	-0.039581	-31.834080
1.200000	-0.044835	-33.140314	-56.905642	58.514740	-56.905642	58.514740	-0.041366	-33.196344
1.250000	-0.046377	-34.502205	-56.594738	57.388370	-56.594738	57.388370	-0.043150	-34.556515
1.300000	-0.047830	-35.861497	-56.298325	56.286340	-56.298325	56.286340	-0.044929	-35.914068
1.350000	-0.049225	-37.218519	-56.014441	55.204508	-56.014441	55.204508	-0.046704	-37.269475
1.400000	-0.050572	-38.572755	-55.742405	54.146791	-55.742405	54.146791	-0.048472	-38.622341
1.450000	-0.051894	-39.924373	-55.480902	53.111380	-55.480902	53.111380	-0.050233	-39.972873
1.500000	-0.053205	-41.273223	-55.229044	52.099506	-55.229044	52.099506	-0.051985	-41.320954
1.550000	-0.054522	-42.619230	-54.985947	51.111893	-54.985947	51.111893	-0.053729	-42.666514
1.600000	-0.055852	-43.962608	-54.750643	50.146890	-54.750643	50.146890	-0.055464	-44.009721
1.650000	-0.057208	-45.302993	-54.522457	49.207845	-54.522457	49.207845	-0.057190	-45.350219
1.700000	-0.058594	-46.640562	-54.300514	48.293381	-54.300514	48.293381	-0.058908	-46.688130
1.750000	-0.060009	-47.975555	-54.084072	47.401442	-54.084072	47.401442	-0.060619	-48.023647
1.800000	-0.061456	-49.307826	-53.872464	46.533238	-53.872464	46.533238	-0.062322	-49.356607
1.850000	-0.062935	-50.637390	-53.665018	45.688475	-53.665018	45.688475	-0.064019	-50.686995
1.900000	-0.064446	-51.964255	-53.461089	44.866748	-53.461089	44.866748	-0.065710	-52.014800
1.950000	-0.065987	-53.288429	-53.260057	44.067524	-53.260057	44.067524	-0.067396	-53.340009
2.000000	-0.067556	-54.609918	-53.061324	43.290149	-53.061324	43.290149	-0.069079	-54.662613
2.050000	-0.069152	-55.928727	-52.864315	42.533833	-52.864315	42.533833	-0.070758	-55.982606
2.100000	-0.070773	-57.244861	-52.668475	41.797652	-52.668475	41.797652	-0.072435	-57.299981
2.150000	-0.072417	-58.558323	-52.473271	41.080543	-52.473271	41.080543	-0.074111	-58.614736
2.200000	-0.074081	-59.869120	-52.278189	40.381302	-52.278189	40.381302	-0.075787	-59.926868
2.250000	-0.075766	-61.177256	-52.082741	39.698587	-52.082741	39.698587	-0.077464	-61.236379
2.300000	-0.077469	-62.482739	-51.886457	39.030915	-51.886457	39.030915	-0.079143	-62.543271
2.350000	-0.079188	-63.785579	-51.688893	38.376670	-51.688893	38.376670	-0.080825	-63.847551
2.400000	-0.080924	-65.085785	-51.489627	37.734104	-51.489627	37.734104	-0.082511	-65.149226
2.450000	-0.082675	-66.383370	-51.288264	37.101346	-51.288264	37.101346	-0.084202	-66.448305
2.500000	-0.084440	-67.678350	-51.084435	36.476414	-51.084435	36.476414	-0.085900	-67.744803
2.550000	-0.086219	-68.970630	-50.877442	35.857364	-50.877442	35.857364	-0.087605	-69.038622
2.600000	-0.088011	-70.260343	-50.667284	35.241667	-50.667284	35.241667	-0.089318	-70.329894
2.650000	-0.089816	-71.547513	-50.453678	34.627059	-50.453678	34.627059	-0.091040	-71.618639
2.700000	-0.091633	-72.832164	-50.236367	34.011219	-50.236367	34.011219	-0.092773	-72.904881
2.750000	-0.093463	-74.114324	-50.015127	33.391784	-50.015127	33.391784	-0.094517	-74.188646
2.800000	-0.095305	-75.394023	-49.789761	32.766369	-49.789761	32.766369	-0.096274	-75.469962
2.850000	-0.097160	-76.671296	-49.560099	32.132581	-49.560099	32.132581	-0.098044	-76.748862
2.900000	-0.099028	-77.946178	-49.326002	31.488041	-49.326002	31.488041	-0.099827	-78.025381
2.950000	-0.100908	-79.218708	-49.087355	30.830397	-49.087355	30.830397	-0.101626	-79.299555
3.000000	-0.102802	-80.488928	-48.844068	30.157344	-48.844068	30.157344	-0.103441	-80.571425
3.050000	-0.104710	-81.756883	-48.596075	29.466638	-48.596075	29.466638	-0.105273	-81.841035
3.100000	-0.106633	-83.022620	-48.343329	28.756111	-48.343329	28.756111	-0.107123	-83.108431
3.150000	-0.108570	-84.286191	-48.085803	28.023681	-48.085803	28.023681	-0.108992	-84.373664
3.200000	-0.110523	-85.547650	-47.823485	27.267366	-47.823485	27.267366	-0.110881	-85.636786
3.250000	-0.112492	-86.807053	-47.556376	26.485294	-47.556376	26.485294	-0.112790	-86.897854
3.300000	-0.114478	-88.064462	-47.284487	25.675705	-47.284487	25.675705	-0.114721	-88.156928
3.350000	-0.116483	-89.319940	-47.007836	24.836960	-47.007836	24.836960	-0.116675	-89.414071
3.400000	-0.118506	-90.573555	-46.726446	23.967541	-46.726446	23.967541	-0.118652	-90.669350
3.450000	-0.120549	-91.825378	-46.440341	23.066057	-46.440341	23.066057	-0.120654	-91.922836
3.500000	-0.122613	-93.075484	-46.149540	22.131239	-46.149540	22.131239	-0.122681	-93.174604
3.550000	-0.124698	-94.323952	-45.854062	21.161938	-45.854062	21.161938	-0.124735	-94.424733
3.600000	-0.126806	-95.570866	-45.553912	20.157125	-45.553912	20.157125	-0.126816	-95.673307
3.650000	-0.128939	-96.816312	-45.249090	19.115882	-45.249090	19.115882	-0.128925	-96.920414
3.700000	-0.131096	-98.060385	-44.939579	18.037398	-44.939579	18.037398	-0.131065	-98.166146
3.750000	-0.133280	-99.303180	-44.625347	16.920962	-44.625347	16.920962	-0.133235	-99.410602
3.800000	-0.135493	-100.544756	-44.305608	15.764253	-44.305608	15.764253	-0.135438	-100.653841
3.850000	-0.137735	-101.785278	-43.980977	14.568395	-43.980977	14.568395	-0.137674	-101.896028
3.900000	-0.140008	-103.024862	-43.651350	13.332939	-43.651350	13.332939	-0.139945	-103.137281
3.950000	-0.142313	-104.263631	-43.316594	12.057495	-43.316594	12.057495	-0.142252	-104.377725
4.000000	-0.144651	-105.501717	-42.976546	10.741734	-42.976546	10.741734	-0.144596	-105.617493
4.050000	-0.147025	-106.739259	-42.631007	9.385366	-42.631007	9.385366	-0.146978	-106.856726
4.100000	-0.149437	-107.976406	-42.279745	7.988140	-42.279745	7.988140	-0.149401	-108.095575
4.150000	-0.151888	-109.213318	-41.922483	6.549831	-41.922483	6.549831	-0.151866	-109.334203
4.200000	-0.154381	-110.450168	-41.558901	5.070230	-41.558901	5.070230	-0.154376	-110.572784
4.250000	-0.156918	-111.687139	-41.188632	3.549131	-41.188632	3.549131	-0.156932	-111.811506
4.300000	-0.159502	-112.924434	-40.811253	1.986326	-40.811253	1.986326	-0.159537	-113.050573
4.350000	-0.162136	-114.162270	-40.426284	0.381589	-40.426284	0.381589	-0.162194	-114.290208
4.400000	-0.164823	-115.400886	-40.033181	-1.265332	-40.033181	-1.265332	-0.164905	-115.530652
4.450000	-0.167566	-116.640545	-39.631326	-2.954734	-39.631326	-2.954734	-0.167676	-116.772173
4.500000	-0.170372	-117.881537	-39.220022	-4.686968	-39.220022	-4.686968	-0.170509	-118.015064
4.550000	-0.173244	-119.124183	-38.798482	-6.462457	-38.798482	-6.462457	-0.173411	-119.259655
4.600000	-0.176188	-120.368844	-38.365816	-8.281718	-38.365816	-8.281718	-0.176386	-120.506312
4.650000	-0.179213	-121.615928	-37.921020	-10.145385	-37.921020	-10.145385	-0.179443	-121.755448
4.700000	-0.182326	-122.865895	-37.462957	-12.054234	-37.462957	-12.054234	-0.182589	-123.007533
4.750000	-0.185538	-124.119274	-36.990337	-14.009225	-36.990337	-14.009225	-0.185835	-124.263104
4.800000	-0.188856	-125.376457	-36.503811	-16.009391	-36.503811	-16.009391	-0.189188	-125.522560
4.850000	-0.192308	-126.638616	-35.997101	-18.060962	-35.997101	-18.060962	-0.192676	-126.787095
4.900000	-0.195908	-127.906362	-35.470691	-20.163175	-35.470691	-20.163175	-0.196314	-128.057330
4.950000	-0.199683	-129.180697	-34.922347	-22.318320	-34.922347	-22.318320	-0.200128	-129.334285
5.000000	-0.203664	-130.462827	-34.349478	-24.529280	-34.349478	-24.529280	-0.204150	-130.619187
5.050000	-0.207902	-131.754469	-33.747414	-26.801108	-33.747414	-26.801108	-0.208432	-131.913783
5.100000	-0.212453	-133.057305	-33.113802	-29.137360	-33.113802	-29.137360	-0.213030	-133.219785
5.150000	-0.217397	-134.373662	-32.444268	-31.544222	-32.444268	-31.544222	-0.218025	-134.539564
5.200000	-0.222848	-135.706524	-31.733536	-34.029829	-31.733536	-34.029829	-0.223533	-135.876156
5.250000	-0.228942	-137.059099	-30.978543	-36.602264	-30.978543	-36.602264	-0.229692	-137.232827
5.300000	-0.235945	-138.437554	-30.165953	-39.280680	-30.165953	-39.280680	-0.236772	-138.615857
5.350000	-0.244206	-139.848792	-29.286755	-42.084804	-29.286755	-42.084804	-0.245127	-140.032278
5.400000	-0.254275	-141.302627	-28.328511	-45.043704	-28.328511	-45.043704	-0.255314	-141.492083
5.450000	-0.267014	-142.812691	-27.276573	-48.198540	-27.276573	-48.198540	-0.268210	-143.009161
5.500000	-0.284004	-144.401361	-26.104568	-51.619170	-26.104568	-51.619170	-0.285417	-144.606310
5.550000	-0.308035	-146.101929	-24.781687	-55.411844	-24.781687	-55.411844	-0.309768	-146.317464
5.600000	-0.344588	-147.969017	-23.263305	-59.757812	-23.263305	-59.757812	-0.346827	-148.198321
5.650000	-0.405777	-150.099080	-21.478930	-64.997112	-21.478930	-64.997112	-0.408893	-150.347319
5.700000	-0.521633	-152.665334	-19.324046	-71.816138	-19.324046	-71.816138	-0.526476	-152.941535
5.750000	-0.781947	-155.967646	-16.639453	-81.815930	-16.639453	-81.815930	-0.790891	-156.288992
5.800000	-1.509876	-160.029664	-13.292368	-99.242724	-13.292368	-99.242724	-1.531827	-160.425871
5.850000	-3.448098	-157.357564	-10.150114	-133.981747	-10.150114	-133.981747	-3.517824	-157.709946
5.900000	-2.773540	-140.540316	-10.897046	-179.952948	-10.897046	-179.952948	-2.822675	-140.440661
5.950000	-1.262168	-141.977691	-14.202694	152.601540	-14.202694	152.601540	-1.278364	-141.931831
6.000000	-0.747624	-145.731699	-17.124615	138.487024	-17.124615	138.487024	-0.755189	-145.749021
6.050000	-0.548022	-148.692759	-19.405500	129.774560	-19.405500	129.774560	-0.552509	-148.747851
6.100000	-0.454664	-151.073104	-21.218753	123.474106	-21.218753	123.474106	-0.457738	-151.152553
6.150000	-0.405279	-153.105664	-22.700145	118.421303	-22.700145	118.421303	-0.407594	-153.202208
6.200000	-0.376811	-154.927364	-23.945954	114.077772	-23.945954	114.077772	-0.378667	-155.036796
6.250000	-0.359882	-156.609745	-25.005167	110.188312	-25.005167	110.188312	-0.361443	-156.729352
6.300000	-0.349419	-158.202447	-25.930245	106.587514	-25.930245	106.587514	-0.350772	-158.330500
6.350000	-0.343195	-159.729756	-26.739094	103.197713	-26.739094	103.197713	-0.344399	-159.865000
6.400000	-0.339651	-161.212092	-27.459243	99.955491	-27.459243	99.955491	-0.340741	-161.353659
6.450000	-0.337977	-162.661172	-28.104377	96.825920	-28.104377	96.825920	-0.338977	-162.808417
6.500000	-0.337723	-164.083932	-28.678247	93.790502	-28.678247	93.790502	-0.338652	-164.236333
6.550000	-0.338424	-165.488739	-29.199112	90.824484	-29.199112	90.824484	-0.339292	-165.645932
6.600000	-0.339856	-166.879911	-29.673354	87.916632	-29.673354	87.916632	-0.340673	-167.041609
6.650000	-0.341860	-168.260794	-30.106361	85.058700	-30.106361	85.058700	-0.342632	-168.426769
6.700000	-0.344341	-169.633686	-30.499734	82.246972	-30.499734	82.246972	-0.345073	-169.803748
6.750000	-0.347180	-171.001253	-30.861463	79.473845	-30.861463	79.473845	-0.347877	-171.175260
6.800000	-0.350324	-172.364985	-31.193205	76.737354	-31.193205	76.737354	-0.350989	-172.542820
6.850000	-0.353724	-173.726299	-31.497871	74.035115	-31.497871	74.035115	-0.354359	-173.907867
6.900000	-0.357340	-175.086371	-31.777969	71.365425	-31.777969	71.365425	-0.357948	-175.271596
6.950000	-0.361142	-176.446188	-32.035683	68.727085	-32.035683	68.727085	-0.361725	-176.635009
7.000000	-0.365105	-177.806592	-32.272925	66.119274	-32.272925	66.119274	-0.365664	-177.998960
7.050000	-0.369210	-179.168309	-32.491388	63.541452	-32.491388	63.541452	-0.369747	-179.364185
7.100000	-0.373441	179.468031	-32.692574	60.993290	-32.692574	60.993290	-0.373957	179.268676
7.150000	-0.377784	178.101870	-32.877828	58.474615	-32.877828	58.474615	-0.378280	177.899060
7.200000	-0.382228	176.732713	-33.048359	55.985363	-33.048359	55.985363	-0.382707	176.526466
7.250000	-0.386765	175.360115	-33.205259	53.525552	-33.205259	53.525552	-0.387226	175.150444
7.300000	-0.391385	173.983675	-33.349519	51.095253	-33.349519	51.095253	-0.391831	173.770588
7.350000	-0.396083	172.603025	-33.482042	48.694572	-33.482042	48.694572	-0.396514	172.386527
7.400000	-0.400852	171.217827	-33.603649	46.323635	-33.603649	46.323635	-0.401270	170.997922
7.450000	-0.405687	169.827771	-33.715095	43.982576	-33.715095	43.982576	-0.406093	169.604457
7.500000	-0.410583	168.432565	-33.817071	41.671529	-33.817071	41.671529	-0.410978	168.205842
7.550000	-0.415538	167.031690	-33.909815	39.391936	-33.909815	39.391936	-0.415923	166.801555
7.600000	-0.420546	165.625118	-33.994370	37.142605	-33.994370	37.142605	-0.420922	165.391566
7.650000	-0.425603	164.212611	-34.071262	34.923633	-34.071262	34.923633	-0.425972	163.975635
7.700000	-0.430706	162.793942	-34.140977	32.735097	-34.140977	32.735097	-0.431069	162.553538
7.750000	-0.435852	161.368898	-34.203963	30.577056	-34.203963	30.577056	-0.436211	161.125058
7.800000	-0.441038	159.937275	-34.260632	28.449546	-34.260632	28.449546	-0.441393	159.689992
7.850000	-0.446262	158.498879	-34.311362	26.352581	-34.311362	26.352581	-0.446614	158.248146
7.900000	-0.451519	157.053524	-34.356502	24.286153	-34.356502	24.286153	-0.451871	156.799335
7.950000	-0.456809	155.601035	-34.396370	22.250228	-34.396370	22.250228	-0.457160	155.343381
8.000000	-0.462129	154.141244	-34.431258	20.244751	-34.431258	20.244751	-0.462481	153.880118
8.050000	-0.467475	152.673988	-34.461431	18.269644	-34.461431	18.269644	-0.467830	152.409384
8.100000	-0.472846	151.199116	-34.487133	16.324801	-34.487133	16.324801	-0.473205	150.931026
8.150000	-0.478240	149.716482	-34.508582	14.410094	-34.508582	14.410094	-0.478604	149.444900
8.200000	-0.483654	148.225946	-34.525976	12.525371	-34.525976	12.525371	-0.484023	147.950868
8.250000	-0.489086	146.727379	-34.539493	10.670452	-34.539493	10.670452	-0.489462	146.448798
8.300000	-0.494533	145.220656	-34.549293	8.845134	-34.549293	8.845134	-0.494917	144.938567
8.350000	-0.499994	143.705661	-34.555517	7.049185	-34.555517	7.049185	-0.500387	143.420060
8.400000	-0.505466	142.182284	-34.558290	5.282348	-34.558290	5.282348	-0.505868	141.893167
8.450000	-0.510947	140.650425	-34.557722	3.544338	-34.557722	3.544338	-0.511360	140.357789
8.500000	-0.516435	139.109989	-34.553907	1.834842	-34.553907	1.834842	-0.516859	138.813830
8.550000	-0.521927	137.560890	-34.546927	0.153519	-34.546927	0.153519	-0.522363	137.261207
8.600000	-0.527422	136.003052	-34.536849	-1.500004	-34.536849	-1.500004	-0.527870	135.699843
8.650000	-0.532917	134.436404	-34.523732	-3.126127	-34.523732	-3.126127	-0.533378	134.129667
8.700000	-0.538410	132.860887	-34.507622	-4.725281	-34.507622	-4.725281	-0.538884	132.550621
8.750000	-0.543900	131.276447	-34.488555	-6.297928	-34.488555	-6.297928	-0.544386	130.962652
8.800000	-0.549382	129.682652	-34.466429	-7.843456	-34.466429	-7.843456	-0.549882	129.365328
8.850000	-0.554857	128.079857	-34.441393	-9.363547	-34.441393	-9.363547	-0.555370	127.759004
8.900000	-0.560321	126.468041	-34.413456	-10.858761	-34.413456	-10.858761	-0.560846	126.143660
8.950000	-0.565773	124.847191	-34.382625	-12.329690	-34.382625	-12.329690	-0.566310	124.519282
9.000000	-0.571210	123.217307	-34.348897	-13.776959	-34.348897	-13.776959	-0.571759	122.885871
9.050000	-0.576631	121.578398	-34.312266	-15.201223	-34.312266	-15.201223	-0.577191	121.243436
9.100000	-0.582033	119.930483	-34.272723	-16.603167	-34.272723	-16.603167	-0.582604	119.591997
9.150000	-0.587416	118.273596	-34.230253	-17.983506	-34.230253	-17.983506	-0.587995	117.931585
9.200000	-0.592777	116.607778	-34.184840	-19.342987	-34.184840	-19.342987	-0.593364	116.262245
9.250000	-0.598113	114.933087	-34.136465	-20.682384	-34.136465	-20.682384	-0.598707	114.584030
9.300000	-0.603425	113.249588	-34.085108	-22.002497	-34.085108	-22.002497	-0.604024	112.897009
9.350000	-0.608710	111.557363	-34.030747	-23.304157	-34.030747	-23.304157	-0.609311	111.201262
9.400000	-0.613966	109.856504	-33.973360	-24.588217	-33.973360	-24.588217	-0.614569	109.496879
9.450000	-0.619193	108.147118	-33.912925	-25.855555	-33.912925	-25.855555	-0.619794	107.783968
9.500000	-0.624388	106.429322	-33.849420	-27.107073	-33.849420	-27.107073	-0.624986	106.062646
9.550000	-0.629551	104.703251	-33.782824	-28.343695	-33.782824	-28.343695	-0.630144	104.333044
9.600000	-0.634684	102.969740	-33.713441	-29.567478	-33.713441	-29.567478	-0.635268	102.595999
9.650000	-0.639778	101.227467	-33.640569	-30.776941	-33.640569	-30.776941	-0.640351	100.850188
9.700000	-0.644838	99.477402	-33.564548	-31.974418	-33.564548	-31.974418	-0.645396	99.096577
9.750000	-0.649861	97.719731	-33.485363	-33.160906	-33.485363	-33.160906	-0.650402	97.335354
9.800000	-0.654847	95.954657	-33.403002	-34.337418	-33.403002	-34.337418	-0.655367	95.566718
9.850000	-0.659797	94.182395	-33.317454	-35.504981	-33.317454	-35.504981	-0.660292	93.790884
9.900000	-0.664708	92.403177	-33.228712	-36.664635	-33.228712	-36.664635	-0.665175	92.008082
9.950000	-0.669582	90.617245	-33.136771	-37.817432	-33.136771	-37.817432	-0.670017	90.218552
10.000000	-0.674419	88.824859	-33.041628	-38.964435	-33.041628	-38.964435	-0.674817	88.422552
