! freq	dB(S11)	phase(S11)	dB(S12)	phase(S12)	
!     	dB(S21)	phase(S21)	dB(S22)	phase(S22)	
!S-par simulation data
#  GHz  S  DB  R 50
0.000000	-0.000000	0.000000	-334.690720	0.000000	-334.690720	0.000000	-0.000000	0.000000
0.050000	-0.001241	-2.055499	-104.332390	88.645397	-104.332390	88.645397	-0.000433	-0.767589
0.100000	-0.004366	-4.102894	-98.345900	87.295551	-98.345900	87.295551	-0.001557	-1.533598
0.150000	-0.008239	-6.140031	-94.881383	85.955915	-94.881383	85.955915	-0.003013	-2.297226
0.200000	-0.012081	-8.169310	-92.461801	84.632408	-92.461801	84.632408	-0.004508	-3.058595
0.250000	-0.015577	-10.193426	-90.627335	83.333106	-90.627335	83.333106	-0.005889	-3.818140
0.300000	-0.018687	-12.214352	-89.173558	82.067487	-89.173558	82.067487	-0.007110	-4.576410
0.350000	-0.021485	-14.233105	-87.989087	80.844335	-87.989087	80.844335	-0.008188	-5.333859
0.400000	-0.024047	-16.249906	-87.009777	79.674866	-87.009777	79.674866	-0.009152	-6.090738
0.450000	-0.026439	-18.264546	-86.197704	78.575111	-86.197704	78.575111	-0.010029	-6.847173
0.500000	-0.028722	-20.276845	-85.521565	77.556421	-85.521565	77.556421	-0.010852	-7.603253
0.550000	-0.030937	-22.286470	-84.962224	76.635320	-84.962224	76.635320	-0.011639	-8.358997
0.600000	-0.033112	-24.292914	-84.509626	75.837933	-84.509626	75.837933	-0.012407	-9.114383
0.650000	-0.035270	-26.295926	-84.151348	75.185114	-84.151348	75.185114	-0.013167	-9.869402
0.700000	-0.037427	-28.295217	-83.879610	74.704743	-83.879610	74.704743	-0.013929	-10.624029
0.750000	-0.039594	-30.290350	-83.691695	74.440371	-83.691695	74.440371	-0.014698	-11.378220
0.800000	-0.041777	-32.281034	-83.583655	74.440038	-83.583655	74.440038	-0.015478	-12.131941
0.850000	-0.043981	-34.267047	-83.551531	74.761034	-83.551531	74.761034	-0.016272	-12.885163
0.900000	-0.046208	-36.248149	-83.592134	75.478295	-83.592134	75.478295	-0.017084	-13.637854
0.950000	-0.048457	-38.224085	-83.701783	76.689383	-83.701783	76.689383	-0.017913	-14.389979
1.000000	-0.050728	-40.194637	-83.873953	78.515463	-83.873953	78.515463	-0.018760	-15.141508
1.050000	-0.053020	-42.159602	-84.097145	81.104871	-84.097145	81.104871	-0.019626	-15.892409
1.100000	-0.055329	-44.118793	-84.351237	84.629295	-84.351237	84.629295	-0.020512	-16.642655
1.150000	-0.057653	-46.072040	-84.602595	89.264752	-84.602595	89.264752	-0.021417	-17.392216
1.200000	-0.059989	-48.019185	-84.799261	95.143682	-84.799261	95.143682	-0.022340	-18.141065
1.250000	-0.062333	-49.960087	-84.870412	102.267582	-84.870412	102.267582	-0.023283	-18.889175
1.300000	-0.064682	-51.894475	-84.731315	110.408656	-84.731315	110.408656	-0.024245	-19.636502
1.350000	-0.067033	-53.822372	-84.326325	118.999635	-84.326325	118.999635	-0.025225	-20.383035
1.400000	-0.069382	-55.743676	-83.646042	127.348522	-83.646042	127.348522	-0.026223	-21.128746
1.450000	-0.071726	-57.658300	-82.734440	134.854123	-82.734440	134.854123	-0.027239	-21.873607
1.500000	-0.074063	-59.566167	-81.665061	141.176296	-81.665061	141.176296	-0.028274	-22.617588
1.550000	-0.076390	-61.467214	-80.511307	146.240456	-80.511307	146.240456	-0.029326	-23.360657
1.600000	-0.078704	-63.361389	-79.329778	150.142349	-79.329778	150.142349	-0.030395	-24.102779
1.650000	-0.081004	-65.248651	-78.157534	153.049036	-78.157534	153.049036	-0.031479	-24.843916
1.700000	-0.083288	-67.128970	-77.016039	155.136718	-77.016039	155.136718	-0.032578	-25.584025
1.750000	-0.085554	-69.002329	-75.916260	156.562662	-75.916260	156.562662	-0.033687	-26.323066
1.800000	-0.087801	-70.868717	-74.862730	157.457121	-74.862730	157.457121	-0.034802	-27.060993
1.850000	-0.090028	-72.728137	-73.856285	157.924259	-73.856285	157.924259	-0.035916	-27.797771
1.900000	-0.092235	-74.580525	-72.895128	158.043114	-72.895128	158.043114	-0.037020	-28.533359
1.950000	-0.094421	-76.425901	-71.977288	157.879751	-71.977288	157.879751	-0.038102	-29.267754
2.000000	-0.096586	-78.264372	-71.100788	157.487734	-71.100788	157.487734	-0.039153	-30.000995
2.050000	-0.098732	-80.095976	-70.262847	156.906506	-70.262847	156.906506	-0.040164	-30.733135
2.100000	-0.100857	-81.920762	-69.460753	156.167495	-69.460753	156.167495	-0.041130	-31.464255
2.150000	-0.102964	-83.738783	-68.691945	155.295937	-68.691945	155.295937	-0.042054	-32.194438
2.200000	-0.105052	-85.550104	-67.954050	154.312252	-67.954050	154.312252	-0.042943	-32.923753
2.250000	-0.107123	-87.354794	-67.244889	153.233088	-67.244889	153.233088	-0.043809	-33.652241
2.300000	-0.109179	-89.152932	-66.562473	152.072125	-66.562473	152.072125	-0.044664	-34.379907
2.350000	-0.111221	-90.944601	-65.904997	150.840683	-65.904997	150.840683	-0.045520	-35.106727
2.400000	-0.113249	-92.729894	-65.270818	149.548197	-65.270818	149.548197	-0.046386	-35.832655
2.450000	-0.115267	-94.508908	-64.658448	148.202579	-64.658448	148.202579	-0.047266	-36.557639
2.500000	-0.117276	-96.281747	-64.066532	146.810509	-64.066532	146.810509	-0.048164	-37.281625
2.550000	-0.119277	-98.048392	-63.493436	145.376885	-63.493436	145.376885	-0.049081	-38.004544
2.600000	-0.121273	-99.809092	-62.938493	143.907509	-62.938493	143.907509	-0.050017	-38.726374
2.650000	-0.123265	-101.563969	-62.400670	142.406496	-62.400670	142.406496	-0.050969	-39.447084
2.700000	-0.125256	-103.313150	-61.879024	140.877399	-61.879024	140.877399	-0.051938	-40.166646
2.750000	-0.127248	-105.056766	-61.372693	139.323301	-61.372693	139.323301	-0.052921	-40.885037
2.800000	-0.129242	-106.794954	-60.880881	137.746885	-60.880881	137.746885	-0.053917	-41.602239
2.850000	-0.131241	-108.527855	-60.402861	136.150500	-60.402861	136.150500	-0.054926	-42.318236
2.900000	-0.133246	-110.255615	-59.937959	134.536206	-59.937959	134.536206	-0.055946	-43.033016
2.950000	-0.135261	-111.977907	-59.484476	132.904385	-59.484476	132.904385	-0.056978	-43.746446
3.000000	-0.137286	-113.695803	-59.043946	131.259518	-59.043946	131.259518	-0.058019	-44.458743
3.050000	-0.139324	-115.409023	-58.614816	129.601605	-58.614816	129.601605	-0.059069	-45.169791
3.100000	-0.141375	-117.117730	-58.196591	127.931912	-58.196591	127.931912	-0.060129	-45.879582
3.150000	-0.143443	-118.822088	-57.788810	126.251572	-57.788810	126.251572	-0.061198	-46.588107
3.200000	-0.145528	-120.522268	-57.391044	124.561599	-57.391044	124.561599	-0.062276	-47.295359
3.250000	-0.147631	-122.218441	-57.002892	122.862904	-57.002892	122.862904	-0.063363	-48.001331
3.300000	-0.149756	-123.910784	-56.623980	121.156311	-56.623980	121.156311	-0.064459	-48.706015
3.350000	-0.151903	-125.599475	-56.253959	119.442562	-56.253959	119.442562	-0.065564	-49.409405
3.400000	-0.154072	-127.284695	-55.892499	117.722329	-55.892499	117.722329	-0.066679	-50.111494
3.450000	-0.156267	-128.966630	-55.539294	115.996225	-55.539294	115.996225	-0.067803	-50.812276
3.500000	-0.158487	-130.645467	-55.194053	114.264807	-55.194053	114.264807	-0.068937	-51.511744
3.550000	-0.160733	-132.321395	-54.856503	112.528584	-54.856503	112.528584	-0.070082	-52.209894
3.600000	-0.163008	-133.994607	-54.526390	110.788021	-54.526390	110.788021	-0.071237	-52.906718
3.650000	-0.165310	-135.665298	-54.203469	109.043546	-54.203469	109.043546	-0.072403	-53.602213
3.700000	-0.167642	-137.333664	-53.887514	107.295551	-53.887514	107.295551	-0.073580	-54.296372
3.750000	-0.170004	-138.999904	-53.578308	105.544399	-53.578308	105.544399	-0.074768	-54.989192
3.800000	-0.172397	-140.664147	-53.275475	103.790315	-53.275475	103.790315	-0.075969	-55.680607
3.850000	-0.174821	-142.326686	-52.979015	102.033743	-52.979015	102.033743	-0.077183	-56.370673
3.900000	-0.177277	-143.987728	-52.688743	100.274967	-52.688743	100.274967	-0.078409	-57.059385
3.950000	-0.179764	-145.647478	-52.404484	98.514250	-52.404484	98.514250	-0.079648	-57.746738
4.000000	-0.182282	-147.306145	-52.126072	96.751839	-52.126072	96.751839	-0.080901	-58.432730
4.050000	-0.184833	-148.963939	-51.853349	94.987963	-51.853349	94.987963	-0.082168	-59.117357
4.100000	-0.187416	-150.621070	-51.586164	93.222835	-51.586164	93.222835	-0.083449	-59.800615
4.150000	-0.190030	-152.277751	-51.324376	91.456658	-51.324376	91.456658	-0.084745	-60.482502
4.200000	-0.192676	-153.934195	-51.067847	89.689618	-51.067847	89.689618	-0.086057	-61.163015
4.250000	-0.195354	-155.590615	-50.816449	87.921892	-50.816449	87.921892	-0.087384	-61.842151
4.300000	-0.198062	-157.247227	-50.570058	86.153648	-50.570058	86.153648	-0.088727	-62.519909
4.350000	-0.200802	-158.904247	-50.328558	84.385041	-50.328558	84.385041	-0.090087	-63.196286
4.400000	-0.203573	-160.561891	-50.091837	82.616221	-50.091837	82.616221	-0.091463	-63.871281
4.450000	-0.206374	-162.220376	-49.859787	80.847327	-49.859787	80.847327	-0.092857	-64.544892
4.500000	-0.209204	-163.879920	-49.632308	79.078494	-49.632308	79.078494	-0.094269	-65.217118
4.550000	-0.212064	-165.540739	-49.409302	77.309847	-49.409302	77.309847	-0.095700	-65.887959
4.600000	-0.214950	-167.202899	-49.190772	75.541469	-49.190772	75.541469	-0.097147	-66.557535
4.650000	-0.217866	-168.866925	-48.976419	73.773551	-48.976419	73.773551	-0.098615	-67.225588
4.700000	-0.220810	-170.532885	-48.766279	72.006171	-48.766279	72.006171	-0.100103	-67.892255
4.750000	-0.223781	-172.200997	-48.560271	70.239436	-48.560271	70.239436	-0.101611	-68.557535
4.800000	-0.226778	-173.871477	-48.358320	68.473452	-48.358320	68.473452	-0.103139	-69.221430
4.850000	-0.229799	-175.544542	-48.160353	66.708319	-48.160353	66.708319	-0.104688	-69.883940
4.900000	-0.232846	-177.220408	-47.966301	64.944136	-47.966301	64.944136	-0.106258	-70.545066
4.950000	-0.235916	-178.899290	-47.776098	63.181002	-47.776098	63.181002	-0.107850	-71.204810
5.000000	-0.239009	179.418598	-47.589681	61.419012	-47.589681	61.419012	-0.109465	-71.863172
5.050000	-0.242124	177.732961	-47.406990	59.658293	-47.406990	59.658293	-0.111102	-72.520126
5.100000	-0.245261	176.043659	-47.227974	57.898915	-47.227974	57.898915	-0.112762	-73.175702
5.150000	-0.248418	174.350480	-47.052581	56.140977	-47.052581	56.140977	-0.114445	-73.829904
5.200000	-0.251595	172.653215	-46.880759	54.384578	-46.880759	54.384578	-0.116153	-74.482734
5.250000	-0.254791	170.951655	-46.712459	52.629818	-46.712459	52.629818	-0.117884	-75.134196
5.300000	-0.258005	169.245594	-46.547637	50.876801	-46.547637	50.876801	-0.119640	-75.784291
5.350000	-0.261236	167.534827	-46.386250	49.125637	-46.386250	49.125637	-0.121421	-76.433024
5.400000	-0.264484	165.819150	-46.228256	47.376435	-46.228256	47.376435	-0.123228	-77.080398
5.450000	-0.267748	164.098362	-46.073618	45.629315	-46.073618	45.629315	-0.125060	-77.726418
5.500000	-0.271027	162.372262	-45.922298	43.884399	-45.922298	43.884399	-0.126919	-78.371086
5.550000	-0.274321	160.640653	-45.774261	42.141816	-45.774261	42.141816	-0.128804	-79.014409
5.600000	-0.277629	158.903337	-45.629476	40.401704	-45.629476	40.401704	-0.130716	-79.656390
5.650000	-0.280952	157.160053	-45.487920	38.664240	-45.487920	38.664240	-0.132656	-80.297020
5.700000	-0.284288	155.410599	-45.349567	36.929584	-45.349567	36.929584	-0.134624	-80.936304
5.750000	-0.287638	153.654849	-45.214378	35.197875	-45.214378	35.197875	-0.136620	-81.574263
5.800000	-0.291001	151.892608	-45.082326	33.469291	-45.082326	33.469291	-0.138645	-82.210901
5.850000	-0.294378	150.123684	-44.953383	31.744023	-44.953383	31.744023	-0.140699	-82.846224
5.900000	-0.297770	148.347886	-44.827522	30.022277	-44.827522	30.022277	-0.142782	-83.480240
5.950000	-0.301177	146.565019	-44.704717	28.304273	-44.704717	28.304273	-0.144895	-84.112954
6.000000	-0.304600	144.774886	-44.584941	26.590249	-44.584941	26.590249	-0.147038	-84.744372
6.050000	-0.308041	142.977288	-44.468166	24.880460	-44.468166	24.880460	-0.149211	-85.374501
6.100000	-0.311502	141.172018	-44.354363	23.175183	-44.354363	23.175183	-0.151416	-86.003349
6.150000	-0.314985	139.358864	-44.243500	21.474714	-44.243500	21.474714	-0.153652	-86.630923
6.200000	-0.318495	137.537602	-44.135545	19.779377	-44.135545	19.779377	-0.155919	-87.257229
6.250000	-0.322035	135.707994	-44.030459	18.089521	-44.030459	18.089521	-0.158219	-87.882277
6.300000	-0.325613	133.869497	-43.928251	16.405727	-43.928251	16.405727	-0.160551	-88.506032
6.350000	-0.329235	132.022096	-43.828823	14.728235	-43.828823	14.728235	-0.162917	-89.128544
6.400000	-0.332911	130.165477	-43.732115	13.057499	-43.732115	13.057499	-0.165316	-89.749822
6.450000	-0.336654	128.299279	-43.638058	11.394017	-43.638058	11.394017	-0.167748	-90.369874
6.500000	-0.340478	126.423085	-43.546568	9.738333	-43.546568	9.738333	-0.170215	-90.988708
6.550000	-0.344404	124.536404	-43.457545	8.091052	-43.457545	8.091052	-0.172715	-91.606334
6.600000	-0.348460	122.638640	-43.370860	6.452844	-43.370860	6.452844	-0.175250	-92.222760
6.650000	-0.352680	120.729067	-43.286357	4.824456	-43.286357	4.824456	-0.177821	-92.837996
6.700000	-0.357082	118.808361	-43.203719	3.205396	-43.203719	3.205396	-0.180422	-93.452187
6.750000	-0.361798	116.871685	-43.122977	1.599708	-43.122977	1.599708	-0.183065	-94.065019
6.800000	-0.366853	114.920773	-43.043575	0.005780	-43.043575	0.005780	-0.185741	-94.676774
6.850000	-0.372424	112.951753	-42.965110	-1.573624	-42.965110	-1.573624	-0.188455	-95.287327
6.900000	-0.378664	110.963002	-42.886959	-3.137936	-42.886959	-3.137936	-0.191206	-95.896754
6.950000	-0.385844	108.950970	-42.808263	-4.685686	-42.808263	-4.685686	-0.193993	-96.505074
7.000000	-0.394418	106.909760	-42.727759	-6.214651	-42.727759	-6.214651	-0.196818	-97.112259
7.050000	-0.405228	104.829710	-42.643234	-7.722353	-42.643234	-7.722353	-0.199682	-97.718286
7.100000	-0.419423	102.700877	-42.551899	-9.209072	-42.551899	-9.209072	-0.202585	-98.323236
7.150000	-0.439199	100.505196	-42.449086	-10.676102	-42.449086	-10.676102	-0.205524	-98.927118
7.200000	-0.469559	98.207363	-42.325395	-12.131736	-42.325395	-12.131736	-0.208504	-99.529890
7.250000	-0.521462	95.752022	-42.164074	-13.613104	-42.164074	-13.613104	-0.211524	-100.131573
7.300000	-0.624221	93.047177	-41.931204	-15.258697	-41.931204	-15.258697	-0.214582	-100.732154
7.350000	-0.872058	90.046844	-41.562917	-17.649053	-41.562917	-17.649053	-0.217674	-101.331591
7.400000	-1.543035	88.259927	-41.100643	-23.187373	-41.100643	-23.187373	-0.220761	-101.929855
7.450000	-1.827901	94.141056	-41.717426	-32.195522	-41.717426	-32.195522	-0.223816	-102.527830
7.500000	-0.958201	94.105340	-42.773964	-31.563969	-42.773964	-31.563969	-0.227068	-103.125075
7.550000	-0.618010	90.787243	-42.962740	-29.553669	-42.962740	-29.553669	-0.230370	-103.720783
7.600000	-0.501520	87.803184	-42.927611	-29.108467	-42.927611	-29.108467	-0.233693	-104.315398
7.650000	-0.453188	85.167058	-42.864871	-29.475475	-42.864871	-29.475475	-0.237047	-104.909033
7.700000	-0.430387	82.738358	-42.807653	-30.229075	-42.807653	-30.229075	-0.240440	-105.501702
7.750000	-0.418453	80.428513	-42.759954	-31.170813	-42.759954	-31.170813	-0.243872	-106.093452
7.800000	-0.412136	78.195103	-42.721230	-32.215922	-42.721230	-32.215922	-0.247345	-106.684279
7.850000	-0.408866	76.011575	-42.690060	-33.316249	-42.690060	-33.316249	-0.250860	-107.274195
7.900000	-0.407375	73.862165	-42.665205	-34.444543	-42.665205	-34.444543	-0.254418	-107.863208
7.950000	-0.406973	71.736820	-42.645645	-35.583913	-42.645645	-35.583913	-0.258020	-108.451327
8.000000	-0.407260	69.628806	-42.630526	-36.723419	-42.630526	-36.723419	-0.261665	-109.038576
8.050000	-0.408006	67.533827	-42.619215	-37.855696	-42.619215	-37.855696	-0.265355	-109.624968
8.100000	-0.409065	65.448937	-42.611193	-38.975407	-42.611193	-38.975407	-0.269088	-110.210519
8.150000	-0.410344	63.372090	-42.606021	-40.078514	-42.606021	-40.078514	-0.272867	-110.795241
8.200000	-0.411782	61.301855	-42.603312	-41.161840	-42.603312	-41.161840	-0.276691	-111.379149
8.250000	-0.413337	59.237237	-42.602716	-42.222798	-42.602716	-42.222798	-0.280560	-111.962257
8.300000	-0.414981	57.177554	-42.603905	-43.259226	-42.603905	-43.259226	-0.284475	-112.544581
8.350000	-0.416696	55.122379	-42.606572	-44.269086	-42.606572	-44.269086	-0.288436	-113.126130
8.400000	-0.418469	53.071402	-42.610394	-45.250932	-42.610394	-45.250932	-0.292443	-113.706925
8.450000	-0.420292	51.024474	-42.615062	-46.203344	-42.615062	-46.203344	-0.296497	-114.286981
8.500000	-0.422160	48.981546	-42.620263	-47.125056	-42.620263	-47.125056	-0.300598	-114.866312
8.550000	-0.424072	46.942645	-42.625672	-48.014942	-42.625672	-48.014942	-0.304746	-115.444935
8.600000	-0.426026	44.907859	-42.630955	-48.872011	-42.630955	-48.872011	-0.308941	-116.022865
8.650000	-0.428025	42.877321	-42.635764	-49.695399	-42.635764	-49.695399	-0.313185	-116.600118
8.700000	-0.430071	40.851205	-42.639732	-50.484380	-42.639732	-50.484380	-0.317476	-117.176709
8.750000	-0.432166	38.829709	-42.642479	-51.238370	-42.642479	-51.238370	-0.321815	-117.752654
8.800000	-0.434316	36.813169	-42.643557	-51.956165	-42.643557	-51.956165	-0.326204	-118.327956
8.850000	-0.436524	34.801725	-42.642571	-52.638285	-42.642571	-52.638285	-0.330642	-118.902645
8.900000	-0.438796	32.795633	-42.639078	-53.284684	-42.639078	-53.284684	-0.335129	-119.476739
8.950000	-0.441138	30.795157	-42.632617	-53.895531	-42.632617	-53.895531	-0.339665	-120.050252
9.000000	-0.443554	28.800566	-42.622708	-54.471241	-42.622708	-54.471241	-0.344251	-120.623202
9.050000	-0.446053	26.812136	-42.608853	-55.012494	-42.608853	-55.012494	-0.348887	-121.195606
9.100000	-0.448639	24.830144	-42.590540	-55.520271	-42.590540	-55.520271	-0.353572	-121.767480
9.150000	-0.451320	22.854864	-42.567245	-55.995879	-42.567245	-55.995879	-0.358309	-122.338842
9.200000	-0.454104	20.886573	-42.538438	-56.440982	-42.538438	-56.440982	-0.363095	-122.909708
9.250000	-0.456997	18.925542	-42.503583	-56.857626	-42.503583	-56.857626	-0.367933	-123.480096
9.300000	-0.460007	16.972040	-42.462151	-57.248267	-42.462151	-57.248267	-0.372821	-124.050024
9.350000	-0.463141	15.026330	-42.413620	-57.615793	-42.413620	-57.615793	-0.377761	-124.619508
9.400000	-0.466410	13.088760	-42.357396	-57.963367	-42.357396	-57.963367	-0.382753	-125.188563
9.450000	-0.469820	11.159587	-42.292984	-58.294929	-42.292984	-58.294929	-0.387797	-125.757206
9.500000	-0.473379	9.238967	-42.220033	-58.614985	-42.220033	-58.614985	-0.392893	-126.325461
9.550000	-0.477095	7.327135	-42.138151	-58.928278	-42.138151	-58.928278	-0.398042	-126.893344
9.600000	-0.480976	5.424316	-42.047007	-59.239988	-42.047007	-59.239988	-0.403242	-127.460876
9.650000	-0.485029	3.530728	-41.946337	-59.555707	-41.946337	-59.555707	-0.408495	-128.028074
9.700000	-0.489265	1.646578	-41.835954	-59.881392	-41.835954	-59.881392	-0.413801	-128.594956
9.750000	-0.493689	-0.227935	-41.715761	-60.223321	-41.715761	-60.223321	-0.419160	-129.161541
9.800000	-0.498312	-2.092623	-41.585759	-60.588026	-41.585759	-60.588026	-0.424572	-129.727848
9.850000	-0.503142	-3.947307	-41.446052	-60.982224	-41.446052	-60.982224	-0.430038	-130.293897
9.900000	-0.508186	-5.791817	-41.296855	-61.412733	-41.296855	-61.412733	-0.435556	-130.859705
9.950000	-0.513453	-7.625996	-41.138499	-61.886390	-41.138499	-61.886390	-0.441129	-131.425293
10.000000	-0.518951	-9.449694	-40.971432	-62.409947	-40.971432	-62.409947	-0.446755	-131.990679
