! freq	dB(S11)	phase(S11)	dB(S12)	phase(S12)	
!     	dB(S21)	phase(S21)	dB(S22)	phase(S22)	
!S-par simulation data
#  GHz  S  DB  R 50
0.000000	-81.675702	0.000000	-0.000716	0.000000	-0.000716	0.000000	-81.675702	0.000000
0.050000	-48.833368	-87.530212	-0.007454	-2.916937	-0.007454	-2.916937	-48.836933	-87.389239
0.100000	-43.157968	-92.526993	-0.011970	-5.791886	-0.011970	-5.791886	-43.158811	-92.471607
0.150000	-39.775518	-96.559244	-0.015945	-8.663450	-0.015945	-8.663450	-39.773639	-96.502010
0.200000	-37.385910	-100.137403	-0.020021	-11.530574	-0.020021	-11.530574	-37.383027	-100.064229
0.250000	-35.563312	-103.488608	-0.024082	-14.393302	-0.024082	-14.393302	-35.560171	-103.395936
0.300000	-34.112776	-106.713807	-0.028017	-17.252766	-0.028017	-17.252766	-34.109699	-106.600233
0.350000	-32.926402	-109.863496	-0.031802	-20.110250	-0.031802	-20.110250	-32.923511	-109.728140
0.400000	-31.941380	-112.961255	-0.035456	-22.966654	-0.035456	-22.966654	-31.938701	-112.803302
0.450000	-31.120280	-116.020230	-0.039008	-25.822650	-0.039008	-25.822650	-31.117784	-115.838739
0.500000	-30.432500	-119.051833	-0.042497	-28.678757	-0.042497	-28.678757	-30.430132	-118.845729
0.550000	-29.859307	-122.062421	-0.045945	-31.535351	-0.045945	-31.535351	-29.856997	-121.830377
0.600000	-29.390981	-125.056268	-0.049362	-34.392811	-0.049362	-34.392811	-29.388654	-124.796537
0.650000	-29.015923	-128.038087	-0.052752	-37.251432	-0.052752	-37.251432	-29.013509	-127.748545
0.700000	-28.727343	-131.011368	-0.056102	-40.111505	-0.056102	-40.111505	-28.724780	-130.689397
0.750000	-28.524032	-133.979037	-0.059392	-42.973383	-0.059392	-42.973383	-28.521264	-133.621277
0.800000	-28.404465	-136.944194	-0.062593	-45.837350	-0.062593	-45.837350	-28.401446	-136.546447
0.850000	-28.368367	-139.909911	-0.065676	-48.703625	-0.065676	-48.703625	-28.365060	-139.466975
0.900000	-28.418304	-142.879375	-0.068617	-51.572401	-0.068617	-51.572401	-28.414679	-142.384697
0.950000	-28.559784	-145.856201	-0.071399	-54.443856	-0.071399	-54.443856	-28.555818	-145.301381
1.000000	-28.800914	-148.844747	-0.074019	-57.318158	-0.074019	-57.318158	-28.796587	-148.218856
1.050000	-29.153609	-151.850606	-0.076490	-60.195499	-0.076490	-60.195499	-29.148907	-151.139111
1.100000	-29.635088	-154.881444	-0.078837	-63.076124	-0.078837	-63.076124	-29.630003	-154.064467
1.150000	-30.270409	-157.948506	-0.081095	-65.960336	-0.081095	-65.960336	-30.264943	-156.997889
1.200000	-31.096953	-161.069555	-0.083308	-68.848496	-0.083308	-68.848496	-31.091138	-159.943583
1.250000	-32.172939	-164.275068	-0.085521	-71.741002	-0.085521	-71.741002	-32.166886	-162.908228
1.300000	-33.599445	-167.628840	-0.087788	-74.638389	-0.087788	-74.638389	-33.593516	-165.905169
1.350000	-35.551775	-171.266081	-0.090162	-77.540984	-0.090162	-77.540984	-35.547168	-168.961847
1.400000	-38.412980	-175.579665	-0.092703	-80.449197	-0.092703	-80.449197	-38.414690	-172.157310
1.450000	-43.277702	177.622476	-0.095474	-83.363412	-0.095474	-83.363412	-43.321685	-175.857458
1.500000	-54.648611	117.926587	-0.098541	-86.283977	-0.098541	-86.283977	-57.542692	114.886361
1.550000	-45.755958	12.936290	-0.101979	-89.211200	-0.101979	-89.211200	-46.002388	2.593185
1.600000	-38.626236	2.361785	-0.105851	-92.145128	-0.105851	-92.145128	-38.685595	-1.942270
1.650000	-34.507347	-2.463372	-0.110272	-95.086425	-0.110272	-95.086425	-34.536957	-5.266693
1.700000	-31.564570	-6.312817	-0.115317	-98.034992	-0.115317	-98.034992	-31.583187	-8.398526
1.750000	-29.251458	-9.797204	-0.121077	-100.990909	-0.121077	-100.990909	-29.264608	-11.462030
1.800000	-27.333720	-13.108156	-0.127650	-103.954186	-0.127650	-103.954186	-27.343677	-14.495891
1.850000	-25.689182	-16.324824	-0.135134	-106.924761	-0.135134	-106.924761	-25.697078	-17.515970
1.900000	-24.245669	-19.485541	-0.143635	-109.902533	-0.143635	-109.902533	-24.252140	-20.529863
1.950000	-22.957473	-22.611379	-0.153254	-112.887278	-0.153254	-112.887278	-22.962910	-23.541598
2.000000	-21.793810	-25.714642	-0.164084	-115.878657	-0.164084	-115.878657	-21.798467	-26.553350
2.050000	-20.732563	-28.802722	-0.176221	-118.876286	-0.176221	-118.876286	-20.736615	-29.566270
2.100000	-19.757466	-31.880304	-0.189757	-121.879698	-0.189757	-121.879698	-19.761036	-32.580902
2.150000	-18.856199	-34.950382	-0.204778	-124.888349	-0.204778	-124.888349	-18.859378	-35.597388
2.200000	-18.019154	-38.014832	-0.221365	-127.901625	-0.221365	-127.901625	-18.022009	-38.615588
2.250000	-17.238707	-41.074771	-0.239599	-130.918838	-0.239599	-130.918838	-17.241290	-41.635152
2.300000	-16.508924	-44.130829	-0.259527	-133.939179	-0.259527	-133.939179	-16.511274	-44.655550
2.350000	-15.824794	-47.183204	-0.281194	-136.961817	-0.281194	-136.961817	-15.826944	-47.676138
2.400000	-15.182163	-50.231807	-0.304637	-139.985863	-0.304637	-139.985863	-15.184136	-50.696176
2.450000	-14.577538	-53.276332	-0.329875	-143.010383	-0.329875	-143.010383	-14.579355	-53.714842
2.500000	-14.007953	-56.316312	-0.356913	-146.034403	-0.356913	-146.034403	-14.009629	-56.731255
2.550000	-13.470852	-59.351089	-0.385759	-149.056898	-0.385759	-149.056898	-13.472400	-59.744443
2.600000	-12.964073	-62.380029	-0.416365	-152.076857	-0.416365	-152.076857	-12.965504	-62.753474
2.650000	-12.485683	-65.402387	-0.448685	-155.093264	-0.448685	-155.093264	-12.487006	-65.757379
2.700000	-12.033977	-68.417384	-0.482657	-158.105109	-0.482657	-158.105109	-12.035200	-68.755189
2.750000	-11.607444	-71.424224	-0.518199	-161.111405	-0.518199	-161.111405	-11.608572	-71.745952
2.800000	-11.204729	-74.422116	-0.555213	-164.111200	-0.555213	-164.111200	-11.205768	-74.728741
2.850000	-10.824663	-77.410205	-0.593592	-167.103516	-0.593592	-167.103516	-10.825617	-77.702591
2.900000	-10.466126	-80.387803	-0.633195	-170.087535	-0.633195	-170.087535	-10.467000	-80.666708
2.950000	-10.128099	-83.354257	-0.673872	-173.062496	-0.673872	-173.062496	-10.128895	-83.620351
3.000000	-9.809662	-86.308953	-0.715458	-176.027702	-0.715458	-176.027702	-9.810384	-86.562830
3.050000	-9.509973	-89.251353	-0.757778	-178.982542	-0.757778	-178.982542	-9.510624	-89.493541
3.100000	-9.228259	-92.181006	-0.800641	178.073497	-0.800641	178.073497	-9.228840	-92.411970
3.150000	-8.963855	-95.097482	-0.843846	175.140884	-0.843846	175.140884	-8.964370	-95.317639
3.200000	-8.716112	-98.000524	-0.887179	172.219915	-0.887179	172.219915	-8.716562	-98.210240
3.250000	-8.484508	-100.889879	-0.930412	169.310862	-0.930412	169.310862	-8.484896	-101.089478
3.300000	-8.268285	-103.765816	-0.973325	166.413513	-0.973325	166.413513	-8.268612	-103.955575
3.350000	-8.066912	-106.628447	-1.015693	163.527771	-1.015693	163.527771	-8.067179	-106.808608
3.400000	-7.879993	-109.477891	-1.057276	160.653509	-1.057276	160.653509	-7.880201	-109.648661
3.450000	-7.707191	-112.314387	-1.097825	157.790469	-1.097825	157.790469	-7.707343	-112.475943
3.500000	-7.548323	-115.138203	-1.137067	154.938337	-1.137067	154.938337	-7.548419	-115.290692
3.550000	-7.402795	-117.950264	-1.174793	152.096206	-1.174793	152.096206	-7.402834	-118.093801
3.600000	-7.270326	-120.751292	-1.210764	149.263320	-1.210764	149.263320	-7.270311	-120.885961
3.650000	-7.150687	-123.542133	-1.244744	146.438784	-1.244744	146.438784	-7.150616	-123.667991
3.700000	-7.043694	-126.323760	-1.276497	143.621564	-1.276497	143.621564	-7.043569	-126.440837
3.750000	-6.949221	-129.097274	-1.305796	140.810485	-1.305796	140.810485	-6.949040	-129.205572
3.800000	-6.867599	-131.863709	-1.332311	138.004346	-1.332311	138.004346	-6.867362	-131.963199
3.850000	-6.798425	-134.624706	-1.355916	135.201464	-1.355916	135.201464	-6.798130	-134.715330
3.900000	-6.741752	-137.381756	-1.376400	132.400215	-1.376400	132.400215	-6.741398	-137.463425
3.950000	-6.697703	-140.136476	-1.393561	129.598824	-1.393561	129.598824	-6.697289	-140.209070
4.000000	-6.666479	-142.890608	-1.407207	126.795361	-1.407207	126.795361	-6.666002	-142.953973
4.050000	-6.648365	-145.646021	-1.417159	123.987737	-1.417159	123.987737	-6.647822	-145.699964
4.100000	-6.644101	-148.404844	-1.423145	121.173470	-1.423145	121.173470	-6.643488	-148.449125
4.150000	-6.653964	-151.169226	-1.425072	118.350141	-1.425072	118.350141	-6.653276	-151.203563
4.200000	-6.678450	-153.941382	-1.422839	115.515186	-1.422839	115.515186	-6.677682	-153.965444
4.250000	-6.718311	-156.723672	-1.416327	112.665799	-1.416327	112.665799	-6.717456	-156.737068
4.300000	-6.774456	-159.518562	-1.405441	109.798980	-1.405441	109.798980	-6.773508	-159.520838
4.350000	-6.847981	-162.328614	-1.390109	106.911528	-1.390109	106.911528	-6.846930	-162.319237
4.400000	-6.940523	-165.156822	-1.370208	103.999552	-1.370208	103.999552	-6.939357	-165.135159
4.450000	-7.053711	-168.006013	-1.345725	101.059233	-1.345725	101.059233	-7.052417	-167.971320
4.500000	-7.189120	-170.878592	-1.316764	98.087110	-1.316764	98.087110	-7.187681	-170.830009
4.550000	-7.349000	-173.777236	-1.283396	95.079068	-1.283396	95.079068	-7.347398	-173.713747
4.600000	-7.536049	-176.704509	-1.245738	92.030759	-1.245738	92.030759	-7.534258	-176.624913
4.650000	-7.753507	-179.662758	-1.203966	88.937597	-1.203966	88.937597	-7.751498	-179.565619
4.700000	-8.005560	177.345749	-1.158285	85.794292	-1.158285	85.794292	-8.003293	177.462175
4.750000	-8.297631	174.319016	-1.108957	82.594655	-1.108957	82.594655	-8.295056	174.456899
4.800000	-8.634899	171.257547	-1.056494	79.334727	-1.056494	79.334727	-8.631952	171.419502
4.850000	-9.023985	168.162986	-1.001441	76.010324	-1.001441	76.010324	-9.020580	168.352206
4.900000	-9.475719	165.037368	-0.944309	72.613120	-0.944309	72.613120	-9.471737	165.258074
4.950000	-10.001044	161.888288	-0.885905	69.139053	-0.885905	69.139053	-9.996320	162.145834
5.000000	-10.615347	158.727970	-0.827106	65.582583	-0.827106	65.582583	-10.609641	159.029435
5.050000	-11.340692	155.578319	-0.768970	61.936182	-0.768970	61.936182	-11.333640	155.933614
5.100000	-12.204310	152.476459	-0.712715	58.196652	-0.712715	58.196652	-12.195336	152.899312
5.150000	-13.246896	149.486625	-0.659714	54.359314	-0.659714	54.359314	-13.235034	149.997203
5.200000	-14.529699	146.725857	-0.611518	50.420057	-0.611518	50.420057	-14.513188	147.355387
5.250000	-16.153252	144.441064	-0.570020	46.373362	-0.570020	46.373362	-16.128464	145.242994
5.300000	-18.288928	143.169821	-0.537102	42.217968	-0.537102	42.217968	-18.247236	144.241498
5.350000	-21.274519	144.360612	-0.514832	37.952160	-0.514832	37.952160	-21.189993	145.898384
5.400000	-25.836874	153.697174	-0.505913	33.570154	-0.505913	33.570154	-25.595153	156.071716
5.450000	-31.438318	-159.551810	-0.514056	29.061141	-0.514056	29.061141	-30.615320	-158.977734
5.500000	-26.889440	-101.162235	-0.550039	24.391775	-0.550039	24.391775	-26.588419	-103.940858
5.550000	-21.677988	-83.792653	-0.665839	19.705993	-0.665839	19.705993	-21.593691	-85.680217
5.600000	-17.111987	-83.423860	-0.725274	15.770438	-0.725274	15.770438	-17.078016	-84.700061
5.650000	-14.579472	-87.963257	-0.761596	11.051718	-0.761596	11.051718	-14.559092	-88.939828
5.700000	-12.667196	-91.736359	-0.856504	6.234156	-0.856504	6.234156	-12.653875	-92.531406
5.750000	-11.094707	-95.633866	-0.985467	1.424432	-0.985467	1.424432	-11.085408	-96.304360
5.800000	-9.771680	-99.716431	-1.143002	-3.365789	-1.143002	-3.365789	-9.764840	-100.295966
5.850000	-8.643419	-103.929219	-1.327292	-8.122725	-1.327292	-8.122725	-8.638175	-104.439211
5.900000	-7.672030	-108.213588	-1.536810	-12.830971	-1.536810	-12.830971	-7.667873	-108.668326
5.950000	-6.830379	-112.523380	-1.770278	-17.474376	-1.770278	-17.474376	-6.826990	-112.933006
6.000000	-6.098216	-116.821724	-2.026180	-22.037248	-2.026180	-22.037248	-6.095387	-117.193701
6.050000	-5.458900	-121.080471	-2.302446	-26.507600	-2.302446	-26.507600	-5.456489	-121.420334
6.100000	-4.899459	-125.277991	-2.597067	-30.874599	-2.597067	-30.874599	-4.897366	-125.590023
6.150000	-4.409551	-129.396881	-2.907927	-35.128524	-2.907927	-35.128524	-4.407703	-129.684487
6.200000	-3.979487	-133.426484	-3.232731	-39.265275	-3.232731	-39.265275	-3.977832	-133.692342
6.250000	-3.601506	-137.358843	-3.569346	-43.281438	-3.569346	-43.281438	-3.600002	-137.605132
6.300000	-3.269421	-141.187230	-3.915619	-47.173520	-3.915619	-47.173520	-3.268038	-141.415770
6.350000	-2.976882	-144.911000	-4.269658	-50.944024	-4.269658	-50.944024	-2.975596	-145.123275
6.400000	-2.719481	-148.527115	-4.629426	-54.591778	-4.629426	-54.591778	-2.718272	-148.724400
6.450000	-2.491781	-152.041334	-4.993742	-58.124925	-4.993742	-58.124925	-2.490633	-152.224663
6.500000	-2.290438	-155.454260	-5.361041	-61.545263	-5.361041	-61.545263	-2.289339	-155.624534
6.550000	-2.112156	-158.769185	-5.730085	-64.857279	-5.730085	-64.857279	-2.111097	-158.927179
6.600000	-1.954461	-161.987698	-6.099389	-68.063330	-6.099389	-68.063330	-1.953432	-162.134096
6.650000	-1.814501	-165.115927	-6.468265	-71.170559	-6.468265	-71.170559	-1.813496	-165.251310
6.700000	-1.689985	-168.159188	-6.836070	-74.185042	-6.836070	-74.185042	-1.688998	-168.284061
6.750000	-1.578962	-171.122681	-7.202293	-77.112599	-7.202293	-77.112599	-1.577988	-171.237481
6.800000	-1.479913	-174.010304	-7.566248	-79.957549	-7.566248	-79.957549	-1.478949	-174.115420
6.850000	-1.391403	-176.826709	-7.927518	-82.724961	-7.927518	-82.724961	-1.390445	-176.922483
6.900000	-1.312263	-179.575744	-8.285582	-85.418972	-8.285582	-85.418972	-1.311308	-179.662480
6.950000	-1.241376	177.738091	-8.640198	-88.044385	-8.640198	-88.044385	-1.240423	177.660124
7.000000	-1.177707	175.109917	-8.991392	-90.606387	-8.991392	-90.606387	-1.176754	175.040484
7.050000	-1.120432	172.535787	-9.339051	-93.109124	-9.339051	-93.109124	-1.119477	172.474680
7.100000	-1.068831	170.011964	-9.683118	-95.556493	-9.683118	-95.556493	-1.067873	169.958998
7.150000	-1.022273	167.534926	-10.023579	-97.952145	-10.023579	-97.952145	-1.021311	167.489937
7.200000	-0.980204	165.101358	-10.360459	-100.299487	-10.360459	-100.299487	-0.979237	165.064202
7.250000	-0.942138	162.708151	-10.693818	-102.601698	-10.693818	-102.601698	-0.941166	162.678697
7.300000	-0.907649	160.352387	-11.023745	-104.861728	-11.023745	-104.861728	-0.906672	160.330523
7.350000	-0.876361	158.031339	-11.350357	-107.082321	-11.350357	-107.082321	-0.875377	158.016962
7.400000	-0.847940	155.742452	-11.673792	-109.266014	-11.673792	-109.266014	-0.846951	155.735474
7.450000	-0.822095	153.483340	-11.994212	-111.415157	-11.994212	-111.415157	-0.821099	153.483679
7.500000	-0.798565	151.251768	-12.311798	-113.531918	-12.311798	-113.531918	-0.797563	151.259356
7.550000	-0.777181	149.046422	-12.626296	-115.617355	-12.626296	-115.617355	-0.776173	149.061194
7.600000	-0.757666	146.864453	-12.938402	-117.674354	-12.938402	-117.674354	-0.756653	146.886355
7.650000	-0.739842	144.704045	-13.248348	-119.704580	-13.248348	-119.704580	-0.738822	144.733029
7.700000	-0.723548	142.563502	-13.556383	-121.709549	-13.556383	-121.709549	-0.722522	142.599524
7.750000	-0.708641	140.441230	-13.862771	-123.690637	-13.862771	-123.690637	-0.707610	140.484253
7.800000	-0.694995	138.335738	-14.167793	-125.649081	-14.167793	-125.649081	-0.693959	138.385727
7.850000	-0.682495	136.245626	-14.471749	-127.585988	-14.471749	-127.585988	-0.681455	136.302548
7.900000	-0.671041	134.169577	-14.774957	-129.502331	-14.774957	-129.502331	-0.669996	134.233404
7.950000	-0.660540	132.106353	-15.077754	-131.398951	-15.077754	-131.398951	-0.659491	132.177057
8.000000	-0.650912	130.054789	-15.380501	-133.276558	-15.380501	-133.276558	-0.649859	130.132343
8.050000	-0.642083	128.013785	-15.683579	-135.135726	-15.683579	-135.135726	-0.641027	128.098162
8.100000	-0.633988	125.982303	-15.987400	-136.976887	-15.987400	-136.976887	-0.632928	126.073476
8.150000	-0.626568	123.959359	-16.292400	-138.800327	-16.292400	-138.800327	-0.625506	124.057299
8.200000	-0.619771	121.944023	-16.599051	-140.606175	-16.599051	-140.606175	-0.618706	122.048696
8.250000	-0.613549	119.935408	-16.907856	-142.394390	-16.907856	-142.394390	-0.612483	120.046779
8.300000	-0.607861	117.932671	-17.219363	-144.164744	-17.219363	-144.164744	-0.606794	118.050699
8.350000	-0.602661	115.934927	-17.534303	-145.917175	-17.534303	-145.917175	-0.601593	116.059567
8.400000	-0.597941	113.941634	-17.852907	-147.649998	-17.852907	-147.649998	-0.596874	114.072828
8.450000	-0.593652	111.951862	-18.176177	-149.362991	-18.176177	-149.362991	-0.592587	112.089544
8.500000	-0.589771	109.964899	-18.504869	-151.054934	-18.504869	-151.054934	-0.588709	110.108994
8.550000	-0.586276	107.980055	-18.839811	-152.724267	-18.839811	-152.724267	-0.585219	108.130471
8.600000	-0.583147	105.996653	-19.181912	-154.369035	-19.181912	-154.369035	-0.582098	106.153283
8.650000	-0.580371	104.014030	-19.532171	-155.986824	-19.532171	-155.986824	-0.579332	104.176743
8.700000	-0.577934	102.031523	-19.891691	-157.574678	-19.891691	-157.574678	-0.576910	102.200163
8.750000	-0.575828	100.048472	-20.261686	-159.129005	-20.261686	-159.129005	-0.574824	100.222851
8.800000	-0.574070	98.064075	-20.643221	-160.642492	-20.643221	-160.642492	-0.573093	98.243945
8.850000	-0.572635	96.077684	-21.038101	-162.112077	-21.038101	-162.112077	-0.571695	96.262758
8.900000	-0.571526	94.088576	-21.447950	-163.531286	-21.447950	-163.531286	-0.570636	94.278500
8.950000	-0.570750	92.095980	-21.874543	-164.892422	-21.874543	-164.892422	-0.569927	92.290314
9.000000	-0.570321	90.099060	-22.319795	-166.186448	-22.319795	-166.186448	-0.569591	90.297250
9.050000	-0.570260	88.096880	-22.785740	-167.402969	-22.785740	-167.402969	-0.569659	88.298221
9.100000	-0.570602	86.088365	-23.274466	-168.530501	-23.274466	-168.530501	-0.570181	86.291944
9.150000	-0.571399	84.072232	-23.788003	-169.557382	-23.788003	-169.557382	-0.571236	84.276850
9.200000	-0.572736	82.046892	-24.328118	-170.474152	-24.328118	-170.474152	-0.572952	82.250938
9.250000	-0.574756	80.010276	-24.895999	-171.279260	-24.895999	-171.279260	-0.575544	80.211545
9.300000	-0.577714	77.959575	-25.491882	-171.992411	-25.491882	-171.992411	-0.579405	78.154977
9.350000	-0.582108	75.890805	-26.115052	-172.685926	-26.115052	-172.685926	-0.585297	76.075944
9.400000	-0.589178	73.797239	-26.766227	-173.583991	-26.766227	-173.583991	-0.595103	73.965642
9.450000	-0.601627	71.672634	-27.467489	-175.242472	-27.467489	-175.242472	-0.612898	71.816545
9.500000	-0.626672	69.523195	-28.360009	-179.043436	-28.360009	-179.043436	-0.649306	69.642203
9.550000	-0.675407	67.442787	-30.071759	173.085088	-30.071759	173.085088	-0.719660	67.588304
9.600000	-0.722057	65.710770	-34.790459	167.388960	-34.790459	167.388960	-0.782355	66.057316
9.650000	-0.701972	63.982930	-40.812998	-150.315517	-40.812998	-150.315517	-0.745285	64.507670
9.700000	-0.672912	61.942526	-37.893207	-107.478629	-37.893207	-107.478629	-0.697517	62.496811
9.750000	-0.660560	59.780292	-34.983145	-93.413002	-34.983145	-93.413002	-0.675140	60.321081
9.800000	-0.658898	57.586000	-32.849740	-85.145092	-32.849740	-85.145092	-0.668172	58.112309
9.850000	-0.663735	55.372581	-31.004003	-79.442918	-31.004003	-79.442918	-0.670037	55.889627
9.900000	-0.672517	53.140943	-29.329315	-75.367535	-29.329315	-75.367535	-0.676883	53.653098
9.950000	-0.684852	50.885890	-27.771736	-72.689527	-27.771736	-72.689527	-0.687927	51.396992
10.000000	-0.700530	48.602650	-26.312285	-71.098722	-26.312285	-71.098722	-0.702675	49.115759
