! freq	dB(S11)	phase(S11)	dB(S12)	phase(S12)	
!     	dB(S21)	phase(S21)	dB(S22)	phase(S22)	
!S-par simulation data
#  GHz  S  DB  R 50
0.000000	-0.000000	0.000000	-366.620017	180.000000	-366.620017	180.000000	-0.000000	-0.000000
0.050000	-0.000095	-0.814653	-113.989542	82.187540	-113.989542	82.187540	-0.000094	-0.814631
0.100000	-0.000376	-1.629092	-108.801859	78.429860	-108.801859	78.429860	-0.000375	-1.629050
0.150000	-0.000834	-2.443117	-105.995405	77.486075	-105.995405	77.486075	-0.000831	-2.443058
0.200000	-0.001453	-3.256559	-104.036910	77.574351	-104.036910	77.574351	-0.001448	-3.256485
0.250000	-0.002223	-4.069221	-102.535060	77.923497	-102.535060	77.923497	-0.002217	-4.069136
0.300000	-0.003112	-4.881055	-101.333161	78.274769	-101.333161	78.274769	-0.003103	-4.880963
0.350000	-0.004104	-5.691946	-100.363005	78.594662	-100.363005	78.594662	-0.004094	-5.691850
0.400000	-0.005179	-6.501837	-99.582708	78.904352	-99.582708	78.904352	-0.005168	-6.501741
0.450000	-0.006318	-7.310699	-98.965979	79.249502	-98.965979	79.249502	-0.006305	-7.310603
0.500000	-0.007503	-8.118522	-98.495872	79.686971	-98.495872	79.686971	-0.007489	-8.118428
0.550000	-0.008718	-8.925312	-98.161744	80.283745	-98.161744	80.283745	-0.008704	-8.925222
0.600000	-0.009951	-9.731089	-97.957509	81.121180	-97.957509	81.121180	-0.009937	-9.731002
0.650000	-0.011191	-10.535878	-97.880420	82.302918	-97.880420	82.302918	-0.011178	-10.535793
0.700000	-0.012430	-11.339708	-97.929865	83.966890	-97.929865	83.966890	-0.012417	-11.339624
0.750000	-0.013662	-12.142608	-98.105542	86.302832	-98.105542	86.302832	-0.013650	-12.142523
0.800000	-0.014882	-12.944605	-98.403926	89.576381	-98.403926	89.576381	-0.014871	-12.944519
0.850000	-0.016088	-13.745725	-98.810845	94.156661	-98.810845	94.156661	-0.016077	-13.745636
0.900000	-0.017276	-14.545988	-99.286522	100.527576	-99.286522	100.527576	-0.017267	-14.545894
0.950000	-0.018448	-15.345410	-99.739796	109.218555	-99.739796	109.218555	-0.018440	-15.345310
1.000000	-0.019601	-16.144004	-100.000903	120.530030	-100.000903	120.530030	-0.019595	-16.143896
1.050000	-0.020738	-16.941778	-99.840219	134.005375	-99.840219	134.005375	-0.020732	-16.941661
1.100000	-0.021858	-17.738735	-99.094546	148.070162	-99.094546	148.070162	-0.021853	-17.738608
1.150000	-0.022962	-18.534874	-97.813908	160.695321	-97.813908	160.695321	-0.022958	-18.534737
1.200000	-0.024052	-19.330194	-96.214871	170.706779	-96.214871	170.706779	-0.024049	-19.330045
1.250000	-0.025129	-20.124687	-94.508590	178.078618	-94.508590	178.078618	-0.025127	-20.124526
1.300000	-0.026194	-20.918308	-92.811284	-176.749367	-92.811284	-176.749367	-0.026192	-20.918135
1.350000	-0.027249	-21.711082	-91.194073	-173.120801	-91.194073	-173.120801	-0.027247	-21.710897
1.400000	-0.028294	-22.502996	-89.673233	-170.616796	-89.673233	-170.616796	-0.028293	-22.502798
1.450000	-0.029332	-23.294036	-88.248772	-168.936111	-88.248772	-168.936111	-0.029331	-23.293826
1.500000	-0.030363	-24.084187	-86.914313	-167.866578	-86.914313	-167.866578	-0.030362	-24.083964
1.550000	-0.031388	-24.873432	-85.661534	-167.258556	-85.661534	-167.258556	-0.031387	-24.873196
1.600000	-0.032408	-25.661754	-84.482048	-167.005293	-84.482048	-167.005293	-0.032408	-25.661506
1.650000	-0.033425	-26.449135	-83.368122	-167.029438	-83.368122	-167.029438	-0.033424	-26.448876
1.700000	-0.034438	-27.235217	-82.288763	-167.330916	-82.288763	-167.330916	-0.034437	-27.234946
1.750000	-0.035450	-28.020792	-81.296929	-167.731792	-81.296929	-167.731792	-0.035449	-28.020510
1.800000	-0.036460	-28.805147	-80.337825	-168.296990	-80.337825	-168.296990	-0.036459	-28.804854
1.850000	-0.037469	-29.588631	-79.429837	-168.979561	-79.429837	-168.979561	-0.037468	-29.588327
1.900000	-0.038479	-30.371029	-78.557762	-169.758615	-78.557762	-169.758615	-0.038477	-30.370714
1.950000	-0.039488	-31.152340	-77.719843	-170.634152	-77.719843	-170.634152	-0.039487	-31.152015
2.000000	-0.040499	-31.932715	-76.919797	-171.567077	-76.919797	-171.567077	-0.040497	-31.932380
2.050000	-0.041510	-32.711776	-76.141296	-172.580347	-76.141296	-172.580347	-0.041508	-32.711431
2.100000	-0.042523	-33.490062	-75.401871	-173.627492	-75.401871	-173.627492	-0.042521	-33.489708
2.150000	-0.043539	-34.266796	-74.674453	-174.742391	-74.674453	-174.742391	-0.043537	-34.266432
2.200000	-0.044557	-35.042930	-73.986798	-175.876550	-73.986798	-175.876550	-0.044554	-35.042557
2.250000	-0.045579	-35.817263	-73.303843	-177.068495	-73.303843	-177.068495	-0.045576	-35.816881
2.300000	-0.046602	-36.591184	-72.660963	-178.270392	-72.660963	-178.270392	-0.046599	-36.590793
2.350000	-0.047631	-37.363045	-72.017128	-179.522056	-72.017128	-179.522056	-0.047628	-37.362645
2.400000	-0.048661	-38.134694	-71.413400	179.222352	-71.413400	179.222352	-0.048658	-38.134285
2.450000	-0.049699	-38.904015	-70.804309	177.923544	-70.804309	177.923544	-0.049696	-38.903598
2.500000	-0.050737	-39.673336	-70.235146	176.624736	-70.235146	176.624736	-0.050734	-39.672910
2.550000	-0.051785	-40.440053	-69.657169	175.288146	-69.657169	175.288146	-0.051782	-40.439618
2.600000	-0.052833	-41.206770	-69.115263	173.951556	-69.115263	173.951556	-0.052830	-41.206327
2.650000	-0.053892	-41.971045	-68.568860	172.586864	-68.568860	172.586864	-0.053889	-41.970593
2.700000	-0.054952	-42.735098	-68.051699	171.219617	-68.051699	171.219617	-0.054949	-42.734637
2.750000	-0.056022	-43.496883	-67.533618	169.831429	-67.533618	169.831429	-0.056019	-43.496413
2.800000	-0.057095	-44.258215	-67.039048	168.439053	-67.039048	168.439053	-0.057092	-44.257736
2.850000	-0.058178	-45.017466	-66.546531	167.031103	-66.546531	167.031103	-0.058175	-45.016978
2.900000	-0.059264	-45.776024	-66.072693	165.617961	-66.072693	165.617961	-0.059262	-45.775527
2.950000	-0.060361	-46.532699	-65.603383	164.193306	-65.603383	164.193306	-0.060359	-46.532193
3.000000	-0.061464	-47.288434	-65.148656	162.762895	-65.148656	162.762895	-0.061461	-47.287918
3.050000	-0.062576	-48.042495	-64.700518	161.324068	-64.700518	161.324068	-0.062574	-48.041969
3.100000	-0.063695	-48.795360	-64.263481	159.879228	-64.263481	159.879228	-0.063693	-48.794825
3.150000	-0.064823	-49.546770	-63.834747	158.428342	-63.834747	158.428342	-0.064822	-49.546225
3.200000	-0.065961	-50.296725	-63.414143	156.971408	-63.414143	156.971408	-0.065959	-50.296169
3.250000	-0.067107	-51.045451	-63.003265	155.510245	-63.003265	155.510245	-0.067106	-51.044885
3.300000	-0.068264	-51.792456	-62.597979	154.043160	-62.597979	154.043160	-0.068263	-51.791880
3.350000	-0.069429	-52.538467	-62.203593	152.573234	-62.203593	152.573234	-0.069428	-52.537881
3.400000	-0.070608	-53.282489	-61.812626	151.097626	-61.812626	151.097626	-0.070608	-53.281892
3.450000	-0.071793	-54.025757	-61.433525	149.620233	-61.433525	149.620233	-0.071793	-54.025150
3.500000	-0.072995	-54.766764	-61.055980	148.137483	-61.055980	148.137483	-0.072995	-54.766147
3.550000	-0.074202	-55.507264	-60.691089	146.653740	-60.691089	146.653740	-0.074202	-55.506636
3.600000	-0.075429	-56.245229	-60.326157	145.165026	-60.326157	145.165026	-0.075429	-56.244590
3.650000	-0.076658	-56.982939	-59.974513	143.675900	-59.974513	143.675900	-0.076658	-56.982289
3.700000	-0.077912	-57.717838	-59.621459	142.182236	-59.621459	142.182236	-0.077912	-57.717178
3.750000	-0.079166	-58.452738	-59.282198	140.688573	-59.282198	140.688573	-0.079166	-58.452066
3.800000	-0.080447	-59.184551	-58.940355	139.190835	-58.940355	139.190835	-0.080448	-59.183868
3.850000	-0.081729	-59.916364	-58.611459	137.693098	-58.611459	137.693098	-0.081730	-59.915671
3.900000	-0.083039	-60.645333	-58.281454	136.192327	-58.281454	136.192327	-0.083039	-60.644629
3.950000	-0.084351	-61.374044	-57.962383	134.691279	-57.962383	134.691279	-0.084351	-61.373328
4.000000	-0.085689	-62.100157	-57.643491	133.188031	-57.643491	133.188031	-0.085689	-62.099431
4.050000	-0.087033	-62.825752	-57.333746	131.684341	-57.333746	131.684341	-0.087033	-62.825014
4.100000	-0.088402	-63.549001	-57.025307	130.179111	-57.025307	130.179111	-0.088402	-63.548253
4.150000	-0.089779	-64.271470	-56.724433	128.673368	-56.724433	128.673368	-0.089779	-64.270710
4.200000	-0.091180	-64.991850	-56.425844	127.166600	-56.425844	127.166600	-0.091180	-64.991080
4.250000	-0.092593	-65.711186	-56.133415	125.659320	-56.133415	125.659320	-0.092593	-65.710405
4.300000	-0.094027	-66.428693	-55.844128	124.151412	-55.844128	124.151412	-0.094027	-66.427901
4.350000	-0.095477	-67.144893	-55.559752	122.643055	-55.559752	122.643055	-0.095477	-67.144091
4.400000	-0.096947	-67.859526	-55.279260	121.134365	-55.279260	121.134365	-0.096947	-67.858714
4.450000	-0.098436	-68.572592	-55.002572	119.625341	-55.002572	119.625341	-0.098436	-68.571769
4.500000	-0.099942	-69.284353	-54.730413	118.116190	-54.730413	118.116190	-0.099942	-69.283519
4.550000	-0.101472	-69.994287	-54.461073	116.606863	-54.461073	116.606863	-0.101472	-69.993443
4.600000	-0.103017	-70.703179	-54.196817	115.097543	-54.196817	115.097543	-0.103017	-70.702325
4.650000	-0.104590	-71.409988	-53.934509	113.588239	-53.934509	113.588239	-0.104589	-71.409124
4.700000	-0.106174	-72.116019	-53.677762	112.079013	-53.677762	112.079013	-0.106174	-72.115145
4.750000	-0.107792	-72.819713	-53.422188	110.570025	-53.422188	110.570025	-0.107791	-72.818830
4.800000	-0.109417	-73.522891	-53.172585	109.061133	-53.172585	109.061133	-0.109417	-73.521998
4.850000	-0.111081	-74.223484	-52.923469	107.552725	-52.923469	107.552725	-0.111081	-74.222581
4.900000	-0.112750	-74.923820	-52.680670	106.044384	-52.680670	106.044384	-0.112749	-74.922908
4.950000	-0.114463	-75.621329	-52.437751	104.536792	-52.437751	104.536792	-0.114462	-75.620407
5.000000	-0.116176	-76.318837	-52.201441	103.029201	-52.201441	103.029201	-0.116175	-76.317906
5.050000	-0.117938	-77.013279	-51.964475	101.522642	-51.964475	101.522642	-0.117937	-77.012339
5.100000	-0.119702	-77.707722	-51.733803	100.016083	-51.733803	100.016083	-0.119700	-77.706773
5.150000	-0.121512	-78.399374	-51.503119	98.510650	-51.503119	98.510650	-0.121511	-78.398417
5.200000	-0.123328	-79.090774	-51.277874	97.005319	-51.277874	97.005319	-0.123326	-79.089807
5.250000	-0.125188	-79.779658	-51.053193	95.501159	-51.053193	95.501159	-0.125186	-79.778683
5.300000	-0.127057	-80.468040	-50.833177	93.997234	-50.833177	93.997234	-0.127056	-80.467056
5.350000	-0.128968	-81.154179	-50.614238	92.494484	-50.614238	92.494484	-0.128966	-81.153187
5.400000	-0.130893	-81.839571	-50.399265	90.992126	-50.399265	90.992126	-0.130892	-81.838571
5.450000	-0.132857	-82.522991	-50.185824	89.490913	-50.185824	89.490913	-0.132855	-82.521983
5.500000	-0.134840	-83.205425	-49.975717	87.990272	-49.975717	87.990272	-0.134838	-83.204409
5.550000	-0.136857	-83.886153	-49.767546	86.490713	-49.767546	86.490713	-0.136855	-83.885129
5.600000	-0.138899	-84.565663	-49.562138	84.991926	-49.562138	84.991926	-0.138897	-84.564631
5.650000	-0.140972	-85.243729	-49.359024	83.494128	-49.359024	83.494128	-0.140970	-85.242689
5.700000	-0.143075	-85.920351	-49.158156	81.997321	-49.158156	81.997321	-0.143073	-85.919304
5.750000	-0.145205	-86.595787	-48.959898	80.501388	-48.959898	80.501388	-0.145202	-86.594732
5.800000	-0.147371	-87.269562	-48.763422	79.006678	-48.763422	79.006678	-0.147369	-87.268499
5.850000	-0.149559	-87.942402	-48.569832	77.512704	-48.569832	77.512704	-0.149557	-87.941332
5.900000	-0.151790	-88.613371	-48.377605	76.020202	-48.377605	76.020202	-0.151788	-88.612293
5.950000	-0.154038	-89.283651	-48.188505	74.528276	-48.188505	74.528276	-0.154036	-89.282565
6.000000	-0.156335	-89.951859	-48.000393	73.038083	-48.000393	73.038083	-0.156333	-89.950767
6.050000	-0.158645	-90.619616	-47.815617	71.548290	-47.815617	71.548290	-0.158643	-90.618516
6.100000	-0.161010	-91.285112	-47.631492	70.060503	-47.631492	70.060503	-0.161008	-91.284005
6.150000	-0.163382	-91.950386	-47.450882	68.572923	-47.450882	68.572923	-0.163380	-91.949272
6.200000	-0.165818	-92.613219	-47.270623	67.087633	-47.270623	67.087633	-0.165816	-92.612097
6.250000	-0.168254	-93.276052	-47.094030	65.602343	-47.094030	65.602343	-0.168252	-93.274923
6.300000	-0.170761	-93.936275	-46.917523	64.119636	-46.917523	64.119636	-0.170760	-93.935138
6.350000	-0.173269	-94.596498	-46.744531	62.636930	-46.744531	62.636930	-0.173268	-94.595354
6.400000	-0.175844	-95.254378	-46.571940	61.156668	-46.571940	61.156668	-0.175842	-95.253227
6.450000	-0.178425	-95.912046	-46.402447	59.676628	-46.402447	59.676628	-0.178424	-95.910887
6.500000	-0.181068	-96.567632	-46.233639	58.198876	-46.233639	58.198876	-0.181067	-96.566465
6.550000	-0.183724	-97.222802	-46.067546	56.721583	-46.067546	56.721583	-0.183723	-97.221628
6.600000	-0.186438	-97.876143	-45.902393	55.246406	-45.902393	55.246406	-0.186437	-97.874961
6.650000	-0.189171	-98.528875	-45.739608	53.771934	-45.739608	53.771934	-0.189170	-98.527685
6.700000	-0.191955	-99.180023	-45.577989	52.299394	-45.577989	52.299394	-0.191955	-99.178826
6.750000	-0.194767	-99.830379	-45.418423	50.827818	-45.418423	50.827818	-0.194766	-99.829174
6.800000	-0.197624	-100.479387	-45.260222	49.357974	-45.260222	49.357974	-0.197624	-100.478174
6.850000	-0.200515	-101.127433	-45.103790	47.889366	-45.103790	47.889366	-0.200515	-101.126211
6.900000	-0.203447	-101.774356	-44.948900	46.422277	-44.948900	46.422277	-0.203447	-101.773126
6.950000	-0.206420	-102.420157	-44.795519	44.956705	-44.795519	44.956705	-0.206420	-102.418919
7.000000	-0.209427	-103.065052	-44.643836	43.492427	-44.643836	43.492427	-0.209428	-103.063805
7.050000	-0.212483	-103.708678	-44.493429	42.029959	-44.493429	42.029959	-0.212484	-103.707423
7.100000	-0.215568	-104.351603	-44.344855	40.568547	-44.344855	40.568547	-0.215568	-104.350339
7.150000	-0.218708	-104.993126	-44.197347	39.109247	-44.197347	39.109247	-0.218709	-104.991853
7.200000	-0.221871	-105.634141	-44.051787	37.650754	-44.051787	37.650754	-0.221872	-105.632859
7.250000	-0.225098	-106.273634	-43.907105	36.194685	-43.907105	36.194685	-0.225099	-106.272343
7.300000	-0.228340	-106.912802	-43.764471	34.739164	-43.764471	34.739164	-0.228341	-106.911501
7.350000	-0.231655	-107.550341	-43.622547	33.286386	-43.622547	33.286386	-0.231656	-107.549030
7.400000	-0.234978	-108.187724	-43.482752	31.833887	-43.482752	31.833887	-0.234979	-108.186403
7.450000	-0.238382	-108.823387	-43.343519	30.384458	-43.343519	30.384458	-0.238383	-108.822057
7.500000	-0.241787	-109.459051	-43.206483	28.935030	-43.206483	28.935030	-0.241789	-109.457710
7.550000	-0.245282	-110.092919	-43.069877	27.489006	-43.069877	27.489006	-0.245284	-110.091568
7.600000	-0.248779	-110.726788	-42.935387	26.042982	-42.935387	26.042982	-0.248780	-110.725426
7.650000	-0.252359	-111.359086	-42.801481	24.600129	-42.801481	24.600129	-0.252360	-111.357713
7.700000	-0.255947	-111.991242	-42.669477	23.157564	-42.669477	23.157564	-0.255949	-111.989858
7.750000	-0.259614	-112.622041	-42.538196	21.717922	-42.538196	21.717922	-0.259615	-112.620645
7.800000	-0.263297	-113.252569	-42.408622	20.278865	-42.408622	20.278865	-0.263298	-113.251162
7.850000	-0.267050	-113.881942	-42.279893	18.842474	-42.279893	18.842474	-0.267052	-113.880522
7.900000	-0.270829	-114.510929	-42.152695	17.406973	-42.152695	17.406973	-0.270830	-114.509497
7.950000	-0.274671	-115.138948	-42.026448	15.973870	-42.026448	15.973870	-0.274672	-115.137504
8.000000	-0.278546	-115.766484	-41.901574	14.541967	-41.901574	14.541967	-0.278548	-115.765027
8.050000	-0.282479	-116.393226	-41.777742	13.112187	-41.777742	13.112187	-0.282480	-116.391756
8.100000	-0.286453	-117.019402	-41.655140	11.683922	-41.655140	11.683922	-0.286454	-117.017918
8.150000	-0.290476	-117.644945	-41.533660	10.257494	-41.533660	10.257494	-0.290477	-117.643447
8.200000	-0.294550	-118.269854	-41.413279	8.832903	-41.413279	8.832903	-0.294551	-118.268343
8.250000	-0.298666	-118.894277	-41.294089	7.409856	-41.294089	7.409856	-0.298667	-118.892751
8.300000	-0.302841	-119.518016	-41.175884	5.988970	-41.175884	5.988970	-0.302842	-119.516476
8.350000	-0.307051	-120.141399	-41.058925	4.569328	-41.058925	4.569328	-0.307051	-120.139843
8.400000	-0.311329	-120.764067	-40.942848	3.152173	-40.942848	3.152173	-0.311329	-120.762495
8.450000	-0.315634	-121.386492	-40.828063	1.735956	-40.828063	1.735956	-0.315633	-121.384905
8.500000	-0.320016	-122.008189	-40.714069	0.322554	-40.714069	0.322554	-0.320015	-122.006586
8.550000	-0.324417	-122.629741	-40.601403	-1.090221	-40.601403	-1.090221	-0.324416	-122.628122
8.600000	-0.328904	-123.250571	-40.489449	-2.499856	-40.489449	-2.499856	-0.328903	-123.248934
8.650000	-0.333402	-123.871336	-40.378851	-3.909175	-40.378851	-3.909175	-0.333401	-123.869683
8.700000	-0.337997	-124.491404	-40.268895	-5.315032	-40.268895	-5.315032	-0.337995	-124.489732
8.750000	-0.342593	-125.111471	-40.160314	-6.720889	-40.160314	-6.720889	-0.342591	-125.109781
8.800000	-0.347296	-125.730884	-40.052315	-8.122963	-40.052315	-8.122963	-0.347293	-125.729175
8.850000	-0.352001	-126.350297	-39.945643	-9.525038	-39.945643	-9.525038	-0.351998	-126.348569
8.900000	-0.356805	-126.969212	-39.839622	-10.923648	-39.839622	-10.923648	-0.356801	-126.967464
8.950000	-0.361619	-127.588082	-39.734822	-12.321943	-39.734822	-12.321943	-0.361616	-127.586314
9.000000	-0.366525	-128.206593	-39.630732	-13.717095	-39.630732	-13.717095	-0.366521	-128.204804
9.050000	-0.371451	-128.825032	-39.527768	-15.111618	-39.527768	-15.111618	-0.371447	-128.823222
9.100000	-0.376460	-129.443235	-39.425564	-16.503325	-39.425564	-16.503325	-0.376455	-129.441404
9.150000	-0.381498	-130.061360	-39.324402	-17.894093	-39.324402	-17.894093	-0.381493	-130.059506
9.200000	-0.386611	-130.679354	-39.224041	-19.282371	-39.224041	-19.282371	-0.386606	-130.677477
9.250000	-0.391763	-131.297283	-39.124648	-20.669404	-39.124648	-20.669404	-0.391758	-131.295383
9.300000	-0.396981	-131.915169	-39.026089	-22.054276	-39.026089	-22.054276	-0.396976	-131.913244
9.350000	-0.402248	-132.533023	-38.928433	-23.437604	-38.928433	-23.437604	-0.402243	-132.531073
9.400000	-0.407573	-133.150902	-38.831638	-24.819097	-38.831638	-24.819097	-0.407568	-133.148927
9.450000	-0.412956	-133.768806	-38.735689	-26.198755	-38.735689	-26.198755	-0.412951	-133.766804
9.500000	-0.418389	-134.386784	-38.640621	-27.576901	-38.640621	-27.576901	-0.418383	-134.384755
9.550000	-0.423890	-135.004864	-38.546351	-28.952931	-38.546351	-28.952931	-0.423884	-135.002807
9.600000	-0.429431	-135.623047	-38.452974	-30.327768	-38.452974	-30.327768	-0.429425	-135.620962
9.650000	-0.435050	-136.241435	-38.360356	-31.700218	-38.360356	-31.700218	-0.435044	-136.239320
9.700000	-0.440701	-136.859933	-38.268638	-33.071788	-38.268638	-33.071788	-0.440695	-136.857787
9.750000	-0.446440	-137.478762	-38.177648	-34.440715	-38.177648	-34.440715	-0.446434	-137.476584
9.800000	-0.452201	-138.097686	-38.087556	-35.809064	-38.087556	-35.809064	-0.452196	-138.095476
9.850000	-0.458061	-138.717092	-37.998170	-37.174528	-37.998170	-37.174528	-0.458056	-138.714848
9.900000	-0.463934	-139.336557	-37.909676	-38.539709	-37.909676	-38.539709	-0.463930	-139.334279
9.950000	-0.469916	-139.956680	-37.821873	-39.901777	-37.821873	-39.901777	-0.469913	-139.954366
10.000000	-0.475902	-140.576803	-37.734949	-41.263846	-37.734949	-41.263846	-0.475899	-140.574452
