! freq	dB(S11)	phase(S11)	dB(S12)	phase(S12)	
!     	dB(S21)	phase(S21)	dB(S22)	phase(S22)	
!S-par simulation data
#  GHz  S  DB  R 50
0.000000	-79.673766	0.000000	-0.000902	0.000000	-0.000902	0.000000	-79.673766	0.000000
0.050000	-62.101422	-59.546731	-0.007257	-3.267898	-0.007257	-3.267898	-60.745235	-61.996900
0.100000	-56.211852	-81.697251	-0.013810	-6.483199	-0.013810	-6.483199	-55.407720	-68.816414
0.150000	-52.999706	-94.917719	-0.018467	-9.689549	-0.018467	-9.689549	-52.131465	-74.127091
0.200000	-50.799786	-105.789307	-0.022646	-12.893832	-0.022646	-12.893832	-49.838373	-77.266530
0.250000	-49.129729	-115.868407	-0.026738	-16.096331	-0.026738	-16.096331	-48.114813	-79.124420
0.300000	-47.799188	-125.621846	-0.030769	-19.297114	-0.030769	-19.297114	-46.768193	-80.040555
0.350000	-46.709133	-135.340570	-0.034698	-22.496511	-0.034698	-22.496511	-45.697034	-80.141802
0.400000	-45.792766	-145.257958	-0.038488	-25.695132	-0.038488	-25.695132	-44.835427	-79.446394
0.450000	-44.989456	-155.472016	-0.042156	-28.893639	-0.042156	-28.893639	-44.115401	-78.081511
0.500000	-44.254550	-166.143790	-0.045693	-32.092555	-0.045693	-32.092555	-43.502522	-75.870008
0.550000	-43.545984	-177.231335	-0.049138	-35.292183	-0.049138	-35.292183	-42.945110	-72.918414
0.600000	-42.815933	171.257917	-0.052509	-38.492934	-0.052509	-38.492934	-42.396542	-69.142724
0.650000	-42.034063	159.464101	-0.055836	-41.694985	-0.055836	-41.694985	-41.812068	-64.663159
0.700000	-41.174284	147.577280	-0.059146	-44.898540	-0.059146	-44.898540	-41.148163	-59.652387
0.750000	-40.215941	135.830964	-0.062465	-48.103871	-0.062465	-48.103871	-40.364963	-54.357478
0.800000	-39.184807	124.419135	-0.065814	-51.310930	-0.065814	-51.310930	-39.471698	-49.108776
0.850000	-38.062506	113.600477	-0.069225	-54.520209	-0.069225	-54.520209	-38.440366	-44.257163
0.900000	-36.910530	103.371174	-0.072711	-57.731451	-0.072711	-57.731451	-37.338573	-39.947843
0.950000	-35.719537	93.882656	-0.076309	-60.945188	-0.076309	-60.945188	-36.161064	-36.417371
1.000000	-34.537757	85.016295	-0.080026	-64.161190	-0.080026	-64.161190	-34.970288	-33.585317
1.050000	-33.362768	76.801108	-0.083901	-67.379878	-0.083901	-67.379878	-33.770430	-31.505365
1.100000	-32.215154	69.137200	-0.087952	-70.601237	-0.087952	-70.601237	-32.590329	-30.067615
1.150000	-31.098433	61.975407	-0.092209	-73.825497	-0.092209	-73.825497	-31.437792	-29.212542
1.200000	-30.019491	55.241742	-0.096697	-77.052738	-0.096697	-77.052738	-30.322906	-28.849290
1.250000	-28.982595	48.869525	-0.101435	-80.283002	-0.101435	-80.283002	-29.251735	-28.896071
1.300000	-27.986856	42.814284	-0.106449	-83.516436	-0.106449	-83.516436	-28.224063	-29.297716
1.350000	-27.031188	37.035112	-0.111766	-86.753149	-0.111766	-86.753149	-27.239079	-30.004406
1.400000	-26.117275	31.483965	-0.117389	-89.993007	-0.117389	-89.993007	-26.298648	-30.960085
1.450000	-25.243447	26.130349	-0.123333	-93.235910	-0.123333	-93.235910	-25.400931	-32.129276
1.500000	-24.405986	20.955446	-0.129634	-96.481747	-0.129634	-96.481747	-24.541902	-33.489867
1.550000	-23.605892	15.926659	-0.136314	-99.729977	-0.136314	-99.729977	-23.722447	-35.005697
1.600000	-22.841358	11.025253	-0.143444	-102.980207	-0.143444	-102.980207	-22.940510	-36.655955
1.650000	-22.109468	6.239595	-0.151148	-106.232271	-0.151148	-106.232271	-22.192902	-38.427577
1.700000	-21.409652	1.552230	-0.159513	-109.486131	-0.159513	-109.486131	-21.478888	-40.301591
1.750000	-20.740813	-3.050130	-0.168592	-112.741922	-0.168592	-112.741922	-20.797202	-42.263558
1.800000	-20.101213	-7.576379	-0.178422	-115.999796	-0.178422	-115.999796	-20.145931	-44.303668
1.850000	-19.489587	-12.035364	-0.189007	-119.259729	-0.189007	-119.259729	-19.523670	-46.412177
1.900000	-18.904621	-16.434126	-0.200351	-122.521552	-0.200351	-122.521552	-18.928978	-48.581190
1.950000	-18.345284	-20.779429	-0.212451	-125.784951	-0.212451	-125.784951	-18.360718	-50.803082
2.000000	-17.810690	-25.077556	-0.225296	-129.049537	-0.225296	-129.049537	-17.817913	-53.070734
2.050000	-17.299868	-29.333410	-0.238884	-132.314903	-0.238884	-132.314903	-17.299510	-55.378407
2.100000	-16.811914	-33.551269	-0.253212	-135.580627	-0.253212	-135.580627	-16.804530	-57.720978
2.150000	-16.345987	-37.734880	-0.268271	-138.846272	-0.268271	-138.846272	-16.332067	-60.093846
2.200000	-15.901301	-41.887546	-0.284046	-142.111402	-0.284046	-142.111402	-15.881278	-62.492858
2.250000	-15.477121	-46.012184	-0.300516	-145.375576	-0.300516	-145.375576	-15.451376	-64.914248
2.300000	-15.072762	-50.111396	-0.317655	-148.638362	-0.317655	-148.638362	-15.041628	-67.354581
2.350000	-14.687580	-54.187513	-0.335426	-151.899334	-0.335426	-151.899334	-14.651350	-69.810718
2.400000	-14.320972	-58.242643	-0.353786	-155.158083	-0.353786	-155.158083	-14.279901	-72.279776
2.450000	-13.972372	-62.278709	-0.372686	-158.414218	-0.372686	-158.414218	-13.926679	-74.759100
2.500000	-13.641245	-66.297486	-0.392065	-161.667373	-0.392065	-161.667373	-13.591120	-77.246241
2.550000	-13.327216	-70.300327	-0.411866	-164.917134	-0.411866	-164.917134	-13.272815	-79.739005
2.600000	-13.029718	-74.289167	-0.432006	-168.163269	-0.432006	-168.163269	-12.971174	-82.235134
2.650000	-12.748299	-78.265499	-0.452407	-171.405521	-0.452407	-171.405521	-12.685723	-84.732689
2.700000	-12.482538	-82.230774	-0.472983	-174.643681	-0.472983	-174.643681	-12.416015	-87.229870
2.750000	-12.232037	-86.186417	-0.493645	-177.877587	-0.493645	-177.877587	-12.161632	-89.725001
2.800000	-11.996420	-90.133846	-0.514300	178.892868	-0.514300	178.892868	-11.922180	-92.216521
2.850000	-11.775339	-94.074485	-0.534851	175.667738	-0.534851	175.667738	-11.697289	-94.702974
2.900000	-11.568465	-98.009781	-0.555198	172.447015	-0.555198	172.447015	-11.486616	-97.182998
2.950000	-11.375494	-101.941215	-0.575241	169.230636	-0.575241	169.230636	-11.289838	-99.655317
3.000000	-11.196143	-105.870311	-0.594877	166.018471	-0.594877	166.018471	-11.106657	-102.118730
3.050000	-11.030152	-109.798652	-0.614005	162.810334	-0.614005	162.810334	-10.936797	-104.572105
3.100000	-10.877283	-113.727882	-0.632524	159.605975	-0.632524	159.605975	-10.780005	-107.014364
3.150000	-10.737437	-117.659772	-0.650327	156.405116	-0.650327	156.405116	-10.636164	-109.444332
3.200000	-10.610429	-121.596190	-0.667314	153.207371	-0.667314	153.207371	-10.505074	-111.860982
3.250000	-10.495974	-125.539008	-0.683401	150.012271	-0.683401	150.012271	-10.386437	-114.263475
3.300000	-10.393926	-129.490228	-0.698501	146.819324	-0.698501	146.819324	-10.280090	-116.650851
3.350000	-10.304161	-133.451959	-0.712531	143.627988	-0.712531	143.627988	-10.185896	-119.022149
3.400000	-10.226582	-137.426426	-0.725414	140.437667	-0.725414	140.437667	-10.103737	-121.376389
3.450000	-10.161115	-141.415980	-0.737080	137.247716	-0.737080	137.247716	-10.033524	-123.712559
3.500000	-10.107713	-145.423108	-0.747465	134.057447	-0.747465	134.057447	-9.975189	-126.029599
3.550000	-10.066354	-149.450440	-0.756515	130.866128	-0.756515	130.866128	-9.928690	-128.326382
3.600000	-10.037044	-153.500765	-0.764183	127.672990	-0.764183	127.672990	-9.894009	-130.601692
3.650000	-10.019815	-157.577040	-0.770430	124.477227	-0.770430	124.477227	-9.871153	-132.854204
3.700000	-10.014727	-161.682410	-0.775228	121.278007	-0.775228	121.278007	-9.860153	-135.082461
3.750000	-10.021867	-165.820218	-0.778558	118.074471	-0.778558	118.074471	-9.861066	-137.284845
3.800000	-10.041621	-169.994900	-0.780379	114.865604	-0.780379	114.865604	-9.874234	-139.458897
3.850000	-10.073866	-174.209582	-0.780727	111.650604	-0.780727	111.650604	-9.899501	-141.603130
3.900000	-10.118773	-178.468363	-0.779615	108.428567	-0.779615	108.428567	-9.936992	-143.715232
3.950000	-10.176540	177.224355	-0.777069	105.198584	-0.777069	105.198584	-9.986852	-145.792584
4.000000	-10.247390	172.863831	-0.773126	101.959749	-0.773126	101.959749	-10.049247	-147.832217
4.050000	-10.331573	168.444947	-0.767834	98.711166	-0.767834	98.711166	-10.124357	-149.830759
4.100000	-10.429359	163.962155	-0.761254	95.451952	-0.761254	95.451952	-10.212373	-151.784378
4.150000	-10.541037	159.409426	-0.753458	92.181250	-0.753458	92.181250	-10.313494	-153.688717
4.200000	-10.666911	154.780182	-0.744530	88.898231	-0.744530	88.898231	-10.427918	-155.538822
4.250000	-10.807291	150.067225	-0.734566	85.602103	-0.734566	85.602103	-10.555836	-157.329068
4.300000	-10.962489	145.262650	-0.723672	82.292120	-0.723672	82.292120	-10.697417	-159.053069
4.350000	-11.132802	140.357749	-0.711965	78.967586	-0.711965	78.967586	-10.852796	-160.703590
4.400000	-11.318620	135.341581	-0.699568	75.627696	-0.699568	75.627696	-11.022164	-162.271456
4.450000	-11.520143	130.203084	-0.686622	72.271864	-0.686622	72.271864	-11.205500	-163.747080
4.500000	-11.737376	124.931531	-0.673283	68.899769	-0.673283	68.899769	-11.402569	-165.120884
4.550000	-11.970333	119.513683	-0.659703	65.511006	-0.659703	65.511006	-11.613099	-166.381168
4.600000	-12.218870	113.934838	-0.646044	62.105258	-0.646044	62.105258	-11.836623	-167.514925
4.650000	-12.482614	108.178715	-0.632472	58.682303	-0.632472	58.682303	-12.072410	-168.507830
4.700000	-12.760894	102.227363	-0.619157	55.242019	-0.619157	55.242019	-12.319397	-169.344279
4.750000	-13.052637	96.061155	-0.606272	51.784389	-0.606272	51.784389	-12.576101	-170.007546
4.800000	-13.356250	89.658900	-0.593990	48.309500	-0.593990	48.309500	-12.840516	-170.480090
4.850000	-13.669474	82.998155	-0.582483	44.817550	-0.582483	44.817550	-13.110007	-170.744072
4.900000	-13.989216	76.055837	-0.571921	41.308848	-0.571921	41.308848	-13.381193	-170.782165
4.950000	-14.311374	68.809266	-0.562467	37.783809	-0.562467	37.783809	-13.649852	-170.578720
5.000000	-14.630661	61.237762	-0.554281	34.242958	-0.554281	34.242958	-13.910847	-170.121348
5.050000	-14.939861	53.317319	-0.547545	30.686607	-0.547545	30.686607	-14.157533	-169.397250
5.100000	-15.231297	45.046686	-0.542372	27.115831	-0.542372	27.115831	-14.383369	-168.413083
5.150000	-15.495800	36.428948	-0.538886	23.531449	-0.538886	23.531449	-14.580935	-167.180224
5.200000	-15.723442	27.482408	-0.537200	19.934362	-0.537200	19.934362	-14.742716	-165.722300
5.250000	-15.904245	18.243666	-0.537412	16.325540	-0.537412	16.325540	-14.861686	-164.076219
5.300000	-16.029172	8.768852	-0.539601	12.706012	-0.539601	12.706012	-14.932006	-162.291648
5.350000	-16.091242	-0.868043	-0.543830	9.076855	-0.543830	9.076855	-14.949698	-160.428579
5.400000	-16.086533	-10.580188	-0.550144	5.439178	-0.550144	5.439178	-14.913154	-158.553097
5.450000	-16.014806	-20.275724	-0.558567	1.794107	-0.558567	1.794107	-14.823355	-156.731973
5.500000	-15.879530	-29.866749	-0.569107	-1.857226	-0.569107	-1.857226	-14.683739	-155.027116
5.550000	-15.687329	-39.277382	-0.581750	-5.513698	-0.581750	-5.513698	-14.499743	-153.490960
5.600000	-15.447001	-48.449192	-0.596464	-9.174212	-0.596464	-9.174212	-14.278164	-152.163542
5.650000	-15.167984	-57.340001	-0.613222	-12.837728	-0.613222	-12.837728	-14.026115	-151.074249
5.700000	-14.860423	-65.929313	-0.631951	-16.503202	-0.631951	-16.503202	-13.751264	-150.237158
5.750000	-14.533964	-74.216230	-0.652547	-20.169658	-0.652547	-20.169658	-13.461003	-149.652258
5.800000	-14.196578	-82.208218	-0.674909	-23.836227	-0.674909	-23.836227	-13.161556	-149.313892
5.850000	-13.854903	-89.920442	-0.698926	-27.502119	-0.698926	-27.502119	-12.858246	-149.210576
5.900000	-13.514251	-97.372637	-0.724472	-31.166635	-0.724472	-31.166635	-12.555469	-149.327101
5.950000	-13.178876	-104.593743	-0.751376	-34.829251	-0.751376	-34.829251	-12.256858	-149.640214
6.000000	-12.851463	-111.590336	-0.779580	-38.489295	-0.779580	-38.489295	-11.964867	-150.145450
6.050000	-12.534553	-118.389590	-0.808902	-42.146371	-0.808902	-42.146371	-11.681860	-150.820420
6.100000	-12.229648	-125.020713	-0.839144	-45.800332	-0.839144	-45.800332	-11.409309	-151.640506
6.150000	-11.937712	-131.497392	-0.870174	-49.450901	-0.870174	-49.450901	-11.148290	-152.594176
6.200000	-11.659329	-137.836797	-0.901831	-53.097979	-0.901831	-53.097979	-10.899539	-153.666681
6.250000	-11.394774	-144.054346	-0.933953	-56.741565	-0.933953	-56.741565	-10.663509	-154.844627
6.300000	-11.144241	-150.161715	-0.966380	-60.381685	-0.966380	-60.381685	-10.440608	-156.117760
6.350000	-10.907477	-156.173640	-0.998944	-64.018606	-0.998944	-64.018606	-10.230770	-157.473137
6.400000	-10.684233	-162.100794	-1.031488	-67.652605	-1.031488	-67.652605	-10.033946	-158.901334
6.450000	-10.474181	-167.952585	-1.063859	-71.284041	-1.063859	-71.284041	-9.849999	-160.394049
6.500000	-10.276952	-173.737284	-1.095907	-74.913345	-1.095907	-74.913345	-9.678739	-161.944009
6.550000	-10.092152	-179.462157	-1.127486	-78.541022	-1.127486	-78.541022	-9.519940	-163.544875
6.600000	-9.919382	174.866427	-1.158457	-82.167638	-1.158457	-82.167638	-9.373359	-165.191149
6.650000	-9.758255	169.242892	-1.188681	-85.793822	-1.188681	-85.793822	-9.238746	-166.878088
6.700000	-9.608403	163.662359	-1.218030	-89.420261	-1.218030	-89.420261	-9.115863	-168.601629
6.750000	-9.469488	158.120567	-1.246374	-93.047691	-1.246374	-93.047691	-9.004484	-170.358315
6.800000	-9.341210	152.613795	-1.273594	-96.676902	-1.273594	-96.676902	-8.904411	-172.145228
6.850000	-9.223314	147.138794	-1.299572	-100.308731	-1.299572	-100.308731	-8.815472	-173.959933
6.900000	-9.115685	141.693015	-1.324176	-103.944111	-1.324176	-103.944111	-8.737649	-175.800687
6.950000	-9.018174	136.273899	-1.347296	-107.584006	-1.347296	-107.584006	-8.670854	-177.665819
7.000000	-8.930593	130.878969	-1.368840	-111.229360	-1.368840	-111.229360	-8.614934	-179.553779
7.050000	-8.852911	125.506303	-1.388707	-114.881208	-1.388707	-114.881208	-8.569900	178.536416
7.100000	-8.785162	120.154182	-1.406798	-118.540633	-1.406798	-118.540633	-8.535820	176.605494
7.150000	-8.727455	114.821037	-1.423019	-122.208779	-1.423019	-122.208779	-8.512825	174.653973
7.200000	-8.679974	109.505411	-1.437276	-125.886847	-1.437276	-125.886847	-8.501117	172.682193
7.250000	-8.642984	104.205915	-1.449482	-129.576109	-1.449482	-129.576109	-8.500975	170.690351
7.300000	-8.616840	98.921189	-1.459553	-133.277907	-1.459553	-133.277907	-8.512763	168.678545
7.350000	-8.601994	93.649862	-1.467409	-136.993664	-1.467409	-136.993664	-8.536935	166.646810
7.400000	-8.599001	88.390514	-1.472976	-140.724891	-1.472976	-140.724891	-8.574055	164.595165
7.450000	-8.608533	83.141639	-1.476188	-144.473194	-1.476188	-144.473194	-8.624801	162.523664
7.500000	-8.631388	77.901611	-1.476985	-148.240281	-1.476985	-148.240281	-8.689984	160.432457
7.550000	-8.668843	72.668754	-1.475264	-152.028463	-1.475264	-152.028463	-8.770902	158.321452
7.600000	-8.721721	67.440885	-1.471043	-155.839280	-1.471043	-155.839280	-8.868391	156.191672
7.650000	-8.791325	62.215787	-1.464302	-159.674801	-1.464302	-159.674801	-8.983782	154.044087
7.700000	-8.879170	56.990976	-1.455038	-163.537225	-1.455038	-163.537225	-9.118640	151.880184
7.750000	-8.987025	51.763672	-1.443273	-167.428883	-1.443273	-167.428883	-9.274789	149.702151
7.800000	-9.116952	46.530754	-1.429053	-171.352237	-1.429053	-171.352237	-9.454366	147.513109
7.850000	-9.271366	41.288719	-1.412454	-175.309881	-1.412454	-175.309881	-9.659875	145.317432
7.900000	-9.453101	36.033628	-1.393590	-179.304527	-1.393590	-179.304527	-9.894254	143.121164
7.950000	-9.664959	30.761476	-1.372652	176.661822	-1.372652	176.661822	-10.160449	140.932206
8.000000	-9.912137	25.466305	-1.349753	172.584421	-1.349753	172.584421	-10.463709	138.762531
8.050000	-10.198765	20.142779	-1.325200	168.461271	-1.325200	168.461271	-10.808289	136.627465
8.100000	-10.530625	14.784215	-1.299309	164.289366	-1.299309	164.289366	-11.200008	134.548316
8.150000	-10.915015	9.382443	-1.272457	160.065419	-1.272457	160.065419	-11.646052	132.555221
8.200000	-11.360791	3.927727	-1.245108	155.786470	-1.245108	155.786470	-12.154891	130.690305
8.250000	-11.879539	-1.592783	-1.217807	151.449228	-1.217807	151.449228	-12.737089	129.015668
8.300000	-12.484597	-7.193537	-1.191174	147.052417	-1.191174	147.052417	-13.404087	127.613603
8.350000	-13.193470	-12.893059	-1.165848	142.595237	-1.165848	142.595237	-14.169694	126.596447
8.400000	-14.035591	-18.730076	-1.142718	138.072041	-1.142718	138.072041	-15.053275	126.185190
8.450000	-15.045690	-24.751344	-1.122612	133.483682	-1.122612	133.483682	-16.070696	126.667807
8.500000	-16.278139	-31.042071	-1.106470	128.829694	-1.106470	128.829694	-17.233369	128.520551
8.550000	-17.819198	-37.762888	-1.095296	124.110452	-1.095296	124.110452	-18.528137	132.493444
8.600000	-19.818170	-45.259568	-1.090139	119.327299	-1.090139	119.327299	-19.867654	139.668125
8.650000	-22.567011	-54.434892	-1.092068	114.482671	-1.092068	114.482671	-20.993202	151.111805
8.700000	-26.740885	-68.529003	-1.102151	109.580194	-1.102151	109.580194	-21.434500	166.388597
8.750000	-33.715089	-107.592603	-1.121414	104.624746	-1.121414	104.624746	-20.857503	-177.978681
8.800000	-31.480416	162.312953	-1.150965	99.621914	-1.150965	99.621914	-19.498666	-166.014013
8.850000	-24.999684	134.068280	-1.191498	94.579915	-1.191498	94.579915	-17.866485	-158.585490
8.900000	-20.994630	121.752047	-1.243602	89.507457	-1.243602	89.507457	-16.260802	-154.693762
8.950000	-18.186208	113.084223	-1.307879	84.413751	-1.307879	84.413751	-14.788902	-153.240095
9.000000	-16.040478	105.758570	-1.384551	79.309194	-1.384551	79.309194	-13.474334	-153.397757
9.050000	-14.315997	99.084392	-1.473500	74.204559	-1.473500	74.204559	-12.309716	-154.630834
9.100000	-12.885439	92.799522	-1.574595	69.110841	-1.574595	69.110841	-11.279173	-156.616629
9.150000	-11.673359	86.772648	-1.687017	64.038288	-1.687017	64.038288	-10.366466	-159.121094
9.200000	-10.632286	80.948554	-1.810188	58.997815	-1.810188	58.997815	-9.557542	-162.008816
9.250000	-9.728454	75.288209	-1.942709	53.997371	-1.942709	53.997371	-8.839272	-165.164813
9.300000	-8.939298	69.779475	-2.083468	49.046508	-2.083468	49.046508	-8.202002	-168.523129
9.350000	-8.246108	64.407854	-2.230754	44.150201	-2.230754	44.150201	-7.635877	-172.023842
9.400000	-7.635788	59.169990	-2.382947	39.314448	-2.382947	39.314448	-7.133797	-175.629761
9.450000	-7.097852	54.063243	-2.538178	34.543409	-2.538178	34.543409	-6.689594	-179.311653
9.500000	-6.622550	49.080605	-2.694542	29.836862	-2.694542	29.836862	-6.296764	176.953693
9.550000	-6.202808	44.219080	-2.850117	25.194806	-2.850117	25.194806	-5.950600	173.180770
9.600000	-5.832695	39.474864	-3.002956	20.615246	-3.002956	20.615246	-5.646983	169.379404
9.650000	-5.507353	34.843925	-3.151112	16.094495	-3.151112	16.094495	-5.382469	165.555327
9.700000	-5.223101	30.323097	-3.292560	11.627607	-3.292560	11.627607	-5.154504	161.710699
9.750000	-4.977294	25.910285	-3.425133	7.208064	-3.425133	7.208064	-4.961414	157.844581
9.800000	-4.766739	21.599680	-3.547165	2.825808	-3.547165	2.825808	-4.800944	153.954581
9.850000	-4.589641	17.389545	-3.656701	-1.529237	-3.656701	-1.529237	-4.672276	150.036096
9.900000	-4.444721	13.279947	-3.751549	-5.867740	-3.751549	-5.867740	-4.575313	146.083410
9.950000	-4.331121	9.273340	-3.828497	-10.195929	-3.828497	-10.195929	-4.510734	142.090362
10.000000	-4.248272	5.375136	-3.880116	-14.451191	-3.880116	-14.451191	-4.480066	138.051184
