! freq	dB(S11)	phase(S11)	dB(S12)	phase(S12)	
!     	dB(S21)	phase(S21)	dB(S22)	phase(S22)	
!S-par simulation data
#  GHz  S  DB  R 50
0.000000	-80.481551	0.000000	-0.000822	0.000000	-0.000822	0.000000	-80.481551	0.000000
0.050000	-48.867974	-78.526185	-0.011594	-3.063947	-0.011594	-3.063947	-48.867607	-78.529173
0.100000	-43.074566	-89.151870	-0.015718	-6.105988	-0.015718	-6.105988	-43.074194	-89.156556
0.150000	-39.655118	-94.923335	-0.020298	-9.136524	-0.020298	-9.136524	-39.654752	-94.929959
0.200000	-37.265692	-99.409691	-0.024544	-12.159615	-0.024544	-12.159615	-37.265335	-99.418279
0.250000	-35.449722	-103.407655	-0.028440	-15.179943	-0.028440	-15.179943	-35.449371	-103.418189
0.300000	-34.008564	-107.117459	-0.032091	-18.199493	-0.032091	-18.199493	-34.008214	-107.129907
0.350000	-32.833270	-110.647028	-0.035635	-21.219352	-0.035635	-21.219352	-32.832915	-110.661358
0.400000	-31.859387	-114.050768	-0.039163	-24.240002	-0.039163	-24.240002	-31.859018	-114.066954
0.450000	-31.050803	-117.355333	-0.042733	-27.261744	-0.042733	-27.261744	-31.050406	-117.373357
0.500000	-30.372049	-120.592086	-0.046361	-30.284564	-0.046361	-30.284564	-30.371614	-120.611945
0.550000	-29.803399	-123.775203	-0.050042	-33.308518	-0.050042	-33.308518	-29.802915	-123.796903
0.600000	-29.330835	-126.915691	-0.053763	-36.333667	-0.053763	-36.333667	-29.330290	-126.939247
0.650000	-28.944358	-130.022427	-0.057502	-39.360089	-0.057502	-39.360089	-28.943740	-130.047863
0.700000	-28.636949	-133.102760	-0.061236	-42.387881	-0.061236	-42.387881	-28.636247	-133.130103
0.750000	-28.408030	-136.161971	-0.064937	-45.417269	-0.064937	-45.417269	-28.407232	-136.191250
0.800000	-28.254634	-139.206126	-0.068577	-48.448420	-0.068577	-48.448420	-28.253730	-139.237369
0.850000	-28.167950	-142.240961	-0.072144	-51.481308	-0.072144	-51.481308	-28.166930	-142.274183
0.900000	-28.156758	-145.269472	-0.075611	-54.516370	-0.075611	-54.516370	-28.155608	-145.304679
0.950000	-28.220647	-148.295509	-0.078967	-57.553771	-0.078967	-57.553771	-28.219356	-148.332689
1.000000	-28.363927	-151.322233	-0.082206	-60.593778	-0.082206	-60.593778	-28.362477	-151.361347
1.050000	-28.593158	-154.352583	-0.085325	-63.636683	-0.085325	-63.636683	-28.591528	-154.393558
1.100000	-28.917766	-157.389430	-0.088329	-66.682798	-0.088329	-66.682798	-28.915928	-157.432148
1.150000	-29.351041	-160.435775	-0.091228	-69.732451	-0.091228	-69.732451	-29.348956	-160.480052
1.200000	-29.911771	-163.495045	-0.094038	-72.785985	-0.094038	-72.785985	-29.909384	-163.540600
1.250000	-30.627003	-166.571595	-0.096782	-75.843749	-0.096782	-75.843749	-30.624230	-166.618004
1.300000	-31.539869	-169.672394	-0.099490	-78.906207	-0.099490	-78.906207	-31.536579	-169.718977
1.350000	-32.711225	-172.807660	-0.102199	-81.973619	-0.102199	-81.973619	-32.707208	-172.853317
1.400000	-34.247210	-175.997634	-0.104948	-85.046328	-0.104948	-85.046328	-34.242092	-176.040409
1.450000	-36.346271	-179.288702	-0.107786	-88.124665	-0.107786	-88.124665	-36.339308	-179.324624
1.500000	-39.449741	177.179250	-0.110763	-91.208940	-0.110763	-91.208940	-39.439110	177.160393
1.550000	-44.929983	172.655913	-0.113936	-94.299438	-0.113936	-94.299438	-44.908867	172.699624
1.600000	-56.490246	92.638303	-0.117364	-97.396411	-0.117364	-97.396411	-56.492974	92.683546
1.650000	-45.121076	-7.610236	-0.121111	-100.500075	-0.121111	-100.500075	-45.148429	-7.815076
1.700000	-38.604586	-12.390270	-0.125243	-103.610605	-0.125243	-103.610605	-38.618365	-12.537139
1.750000	-34.735235	-16.012054	-0.129829	-106.728128	-0.129829	-106.728128	-34.744794	-16.142417
1.800000	-31.936014	-19.388070	-0.134939	-109.852721	-0.134939	-109.852721	-31.943542	-19.511703
1.850000	-29.723788	-22.675320	-0.140642	-112.984407	-0.140642	-112.984407	-29.730136	-22.796081
1.900000	-27.884718	-25.923349	-0.147016	-116.123227	-0.147016	-116.123227	-27.890302	-26.043181
1.950000	-26.306287	-29.153013	-0.154132	-119.269084	-0.154132	-119.269084	-26.311337	-29.273029
2.000000	-24.921994	-32.374170	-0.162049	-122.421745	-0.162049	-122.421745	-24.926650	-32.495079
2.050000	-23.688386	-35.591780	-0.170828	-125.580995	-0.170828	-125.580995	-23.692737	-35.714083
2.100000	-22.575830	-38.808502	-0.180528	-128.746559	-0.180528	-128.746559	-22.579933	-38.932583
2.150000	-21.563193	-42.025719	-0.191200	-131.918107	-0.191200	-131.918107	-21.567088	-42.151889
2.200000	-20.634865	-45.244048	-0.202892	-135.095252	-0.202892	-135.095252	-20.638578	-45.372577
2.250000	-19.778975	-48.463625	-0.215641	-138.277561	-0.215641	-138.277561	-19.782526	-48.594761
2.300000	-18.986278	-51.684273	-0.229478	-141.464551	-0.229478	-141.464551	-18.989678	-51.818252
2.350000	-18.249422	-54.905610	-0.244424	-144.655701	-0.244424	-144.655701	-18.252682	-55.042659
2.400000	-17.562458	-58.127112	-0.260491	-147.850456	-0.260491	-147.850456	-17.565587	-58.267460
2.450000	-16.920499	-61.348170	-0.277678	-151.048234	-0.277678	-151.048234	-16.923502	-61.492045
2.500000	-16.319470	-64.568123	-0.295977	-154.248431	-0.295977	-154.248431	-16.322355	-64.715753
2.550000	-15.755944	-67.786233	-0.315387	-157.450460	-0.315387	-157.450460	-15.758717	-67.937853
2.600000	-15.227054	-71.001841	-0.335851	-160.653649	-0.335851	-160.653649	-15.229723	-71.157681
2.650000	-14.730263	-74.214286	-0.357323	-163.857390	-0.357323	-163.857390	-14.732838	-74.374577
2.700000	-14.263371	-77.422944	-0.379745	-167.061085	-0.379745	-167.061085	-14.265862	-77.587913
2.750000	-13.824450	-80.627242	-0.403049	-170.264162	-0.403049	-170.264162	-13.826867	-80.797115
2.800000	-13.411799	-83.826666	-0.427153	-173.466082	-0.427153	-173.466082	-13.414154	-84.001666
2.850000	-13.023912	-87.020775	-0.451967	-176.666343	-0.451967	-176.666343	-13.026218	-87.201119
2.900000	-12.659446	-90.209201	-0.477390	-179.864494	-0.477390	-179.864494	-12.661715	-90.395104
2.950000	-12.317195	-93.391663	-0.503310	176.939863	-0.503310	176.939863	-12.319442	-93.583334
3.000000	-11.996080	-96.567963	-0.529610	173.747062	-0.529610	173.747062	-11.998316	-96.765609
3.050000	-11.695127	-99.737994	-0.556162	170.557371	-0.556162	170.557371	-11.697365	-99.941820
3.100000	-11.413455	-102.901738	-0.582832	167.370984	-0.582832	167.370984	-11.415707	-103.111950
3.150000	-11.150386	-106.059203	-0.609479	164.188053	-0.609479	164.188053	-11.152662	-106.276010
3.200000	-10.905214	-109.210557	-0.635955	161.008613	-0.635955	161.008613	-10.907524	-109.434176
3.250000	-10.677184	-112.356124	-0.662115	157.832570	-0.662115	157.832570	-10.679536	-112.586775
3.300000	-10.465714	-115.496240	-0.687808	154.659780	-0.687808	154.659780	-10.468115	-115.734157
3.350000	-10.270283	-118.631324	-0.712886	151.490012	-0.712886	151.490012	-10.272738	-118.876755
3.400000	-10.090429	-121.761871	-0.737201	148.322946	-0.737201	148.322946	-10.092942	-122.015084
3.450000	-9.925744	-124.888448	-0.760604	145.158173	-0.760604	145.158173	-9.928319	-125.149731
3.500000	-9.775874	-128.011690	-0.782951	141.995194	-0.782951	141.995194	-9.778512	-128.281359
3.550000	-9.640513	-131.132299	-0.804101	138.833427	-0.804101	138.833427	-9.643215	-131.410696
3.600000	-9.519407	-134.251032	-0.823919	135.672202	-0.823919	135.672202	-9.522174	-134.538533
3.650000	-9.412348	-137.368705	-0.842276	132.510766	-0.842276	132.510766	-9.415182	-137.665719
3.700000	-9.319178	-140.486184	-0.859048	129.348288	-0.859048	129.348288	-9.322079	-140.793157
3.750000	-9.239785	-143.604384	-0.874123	126.183860	-0.874123	126.183860	-9.242755	-143.921801
3.800000	-9.174395	-146.724321	-0.887353	123.016413	-0.887353	123.016413	-9.177438	-147.052722
3.850000	-9.122715	-149.846978	-0.898681	119.844934	-0.898681	119.844934	-9.125833	-150.186937
3.900000	-9.084779	-152.973390	-0.908025	116.668307	-0.908025	116.668307	-9.087979	-153.325528
3.950000	-9.060677	-156.104618	-0.915314	113.485353	-0.915314	113.485353	-9.063965	-156.469607
4.000000	-9.050551	-159.241752	-0.920490	110.294845	-0.920490	110.294845	-9.053934	-159.620318
4.050000	-9.054599	-162.385896	-0.923507	107.095506	-0.923507	107.095506	-9.058088	-162.778826
4.100000	-9.073082	-165.538172	-0.924337	103.886019	-0.924337	103.886019	-9.076689	-165.946315
4.150000	-9.106323	-168.699704	-0.922963	100.665033	-0.922963	100.665033	-9.110061	-169.123984
4.200000	-9.154716	-171.871612	-0.919386	97.431168	-0.919386	97.431168	-9.158599	-172.313033
4.250000	-9.218727	-175.055004	-0.913624	94.183029	-0.913624	94.183029	-9.222774	-175.514660
4.300000	-9.298908	-178.250960	-0.905712	90.919209	-0.905712	90.919209	-9.303136	-178.730051
4.350000	-9.395898	178.539479	-0.895700	87.638299	-0.895700	87.638299	-9.400328	178.039633
4.400000	-9.510614	175.315159	-0.883637	84.338682	-0.883637	84.338682	-9.515269	174.793085
4.450000	-9.643920	172.075147	-0.869615	81.018934	-0.869615	81.018934	-9.648824	171.529204
4.500000	-9.796609	168.818801	-0.853764	77.677907	-0.853764	77.677907	-9.801791	168.247176
4.550000	-9.969792	165.545453	-0.836211	74.314301	-0.836211	74.314301	-9.975283	164.946112
4.600000	-10.164738	162.254597	-0.817100	70.926868	-0.817100	70.926868	-10.170573	161.625246
4.650000	-10.382893	158.945930	-0.796596	67.514434	-0.796596	67.514434	-10.389113	158.283968
4.700000	-10.625911	155.619401	-0.774878	64.075906	-0.774878	64.075906	-10.632564	154.921862
4.750000	-10.895687	152.275267	-0.752145	60.610293	-0.752145	60.610293	-10.902830	151.538746
4.800000	-11.194399	148.914166	-0.728611	57.116713	-0.728611	57.116713	-11.202100	148.134732
4.850000	-11.524562	145.537207	-0.704503	53.594414	-0.704503	53.594414	-11.532905	144.710289
4.900000	-11.889098	142.146089	-0.680063	50.042786	-0.680063	50.042786	-11.898186	141.266327
4.950000	-12.291422	138.743247	-0.655540	46.461373	-0.655540	46.461373	-12.301383	137.804306
5.000000	-12.735559	135.332060	-0.631195	42.849887	-0.631195	42.849887	-12.746558	134.326381
5.050000	-13.226773	131.917191	-0.607308	39.207563	-0.607308	39.207563	-13.239023	130.835408
5.100000	-13.770371	128.505188	-0.584142	35.535149	-0.584142	35.535149	-13.784151	127.336042
5.150000	-14.373395	125.104685	-0.561963	31.832929	-0.561963	31.832929	-14.389078	123.834197
5.200000	-15.044583	121.727513	-0.541031	28.101386	-0.541031	28.101386	-15.062677	120.338032
5.250000	-15.794984	118.390146	-0.521597	24.341203	-0.521597	24.341203	-15.816201	116.858940
5.300000	-16.638875	115.116083	-0.503897	20.553251	-0.503897	20.553251	-16.664247	113.413190
5.350000	-17.595195	111.939932	-0.488152	16.738591	-0.488152	16.738591	-17.626272	110.024744
5.400000	-18.689862	108.914817	-0.474560	12.898451	-0.474560	12.898451	-18.729086	106.730406
5.450000	-19.959703	106.126742	-0.463291	9.034220	-0.463291	9.034220	-20.011159	103.589892
5.500000	-21.459520	103.724771	-0.454490	5.147417	-0.454490	5.147417	-21.530598	100.707288
5.550000	-23.275697	101.991475	-0.448267	1.239673	-0.448267	1.239673	-23.381227	98.282147
5.600000	-25.554359	101.531024	-0.444698	-2.687303	-0.444698	-2.687303	-25.728847	96.750765
5.650000	-28.559813	103.950036	-0.443852	-6.631921	-0.443852	-6.631921	-28.904417	97.330980
5.700000	-32.729188	114.790601	-0.445728	-10.592346	-0.445728	-10.592346	-33.666865	104.889464
5.750000	-37.052322	153.756703	-0.450257	-14.566636	-0.450257	-14.566636	-40.133445	149.981020
5.800000	-34.560034	-156.556658	-0.457360	-18.553101	-0.457360	-18.553101	-35.988884	-145.798189
5.850000	-30.139418	-138.820094	-0.466922	-22.550140	-0.466922	-22.550140	-30.580024	-131.125849
5.900000	-26.939199	-134.357991	-0.478796	-26.556281	-0.478796	-26.556281	-27.135015	-128.999762
5.950000	-24.598403	-134.090957	-0.492798	-30.570208	-0.492798	-30.570208	-24.706789	-130.044837
6.000000	-22.795231	-135.556891	-0.508721	-34.590790	-0.508721	-34.590790	-22.863603	-132.325324
6.050000	-21.352389	-137.893537	-0.526332	-38.617102	-0.526332	-38.617102	-21.399400	-135.213034
6.100000	-20.167595	-140.727464	-0.545377	-42.648447	-0.545377	-42.648447	-20.201966	-138.444174
6.150000	-19.177575	-143.871798	-0.565591	-46.684367	-0.565591	-46.684367	-19.203903	-141.888782
6.200000	-18.340804	-147.223000	-0.586695	-50.724656	-0.586695	-50.724656	-18.361728	-145.475530
6.250000	-17.628721	-150.719273	-0.608410	-54.769360	-0.608410	-54.769360	-17.645861	-149.162153
6.300000	-17.022093	-154.323358	-0.630454	-58.818895	-0.630454	-58.818895	-17.036504	-152.923392
6.350000	-16.504755	-158.007190	-0.652542	-62.873733	-0.652542	-62.873733	-16.517139	-156.740345
6.400000	-16.065495	-161.753814	-0.674410	-66.934678	-0.674410	-66.934678	-16.076341	-160.601793
6.450000	-15.695776	-165.551497	-0.695812	-71.002760	-0.695812	-71.002760	-15.705438	-164.500155
6.500000	-15.389050	-169.392056	-0.716521	-75.079215	-0.716521	-75.079215	-15.397789	-168.430333
6.550000	-15.140288	-173.269788	-0.736333	-79.165465	-0.736333	-79.165465	-15.148301	-172.388985
6.600000	-14.945660	-177.180775	-0.755072	-83.263097	-0.755072	-83.263097	-14.953102	-176.374044
6.650000	-14.802322	178.877602	-0.772590	-87.373832	-0.772590	-87.373832	-14.809315	179.615620
6.700000	-14.707624	174.907378	-0.788793	-91.499280	-0.788793	-91.499280	-14.714267	175.580766
6.750000	-14.663039	170.907880	-0.803514	-95.642361	-0.803514	-95.642361	-14.669418	171.519837
6.800000	-14.664730	166.881440	-0.816810	-99.803928	-0.816810	-99.803928	-14.670917	167.434014
6.850000	-14.712344	162.828334	-0.828682	-103.985602	-0.828682	-103.985602	-14.718400	163.322793
6.900000	-14.811211	158.745659	-0.839019	-108.191652	-0.839019	-108.191652	-14.817198	159.182476
6.950000	-14.956814	154.636523	-0.848062	-112.421122	-0.848062	-112.421122	-14.962784	155.015323
7.000000	-15.154766	150.498497	-0.855804	-116.677672	-0.855804	-116.677672	-15.160774	150.818028
7.050000	-15.407454	146.331547	-0.862402	-120.962926	-0.862402	-120.962926	-15.413553	146.589523
7.100000	-15.715208	142.137565	-0.868083	-125.276315	-0.868083	-125.276315	-15.721450	142.330859
7.150000	-16.089129	137.913049	-0.872939	-129.623190	-0.872939	-129.623190	-16.095577	138.036621
7.200000	-16.529699	133.661829	-0.877279	-134.001129	-0.877279	-134.001129	-16.536413	133.709442
7.250000	-17.045943	129.384242	-0.881312	-138.411673	-0.881312	-138.411673	-17.052997	129.347505
7.300000	-17.651510	125.080426	-0.885299	-142.857783	-0.885299	-142.857783	-17.658990	124.947026
7.350000	-18.354456	120.755645	-0.889492	-147.336153	-0.889492	-147.336153	-18.362467	120.510543
7.400000	-19.177597	116.412074	-0.894181	-151.849933	-0.894181	-151.849933	-19.186278	116.032590
7.450000	-20.143895	112.057223	-0.899622	-156.397519	-0.899622	-156.397519	-20.153433	111.511464
7.500000	-21.286687	107.700437	-0.905993	-160.976596	-0.905993	-160.976596	-21.297354	106.945040
7.550000	-22.667535	103.360755	-0.913695	-165.590990	-0.913695	-165.590990	-22.679765	102.315579
7.600000	-24.366537	99.067695	-0.922751	-170.234859	-0.922751	-170.234859	-24.381065	97.611963
7.650000	-26.542044	94.885609	-0.933390	-174.908572	-0.933390	-174.908572	-26.560321	92.789511
7.700000	-29.513602	91.017231	-0.945810	-179.611499	-0.945810	-179.611499	-29.539177	87.707218
7.750000	-34.119177	88.108038	-0.959930	175.660569	-0.959930	175.660569	-34.164750	81.912248
7.800000	-44.416846	96.705961	-0.975971	170.906780	-0.975971	170.906780	-44.670552	67.523035
7.850000	-41.851631	-116.837989	-0.993786	166.130838	-0.993786	166.130838	-41.854075	-96.293834
7.900000	-33.321668	-113.355080	-1.013269	161.334968	-1.013269	161.334968	-33.305508	-106.632077
7.950000	-29.157835	-116.631247	-1.034468	156.518908	-1.034468	156.518908	-29.147393	-112.241744
8.000000	-26.420479	-120.652175	-1.057005	151.686761	-1.057005	151.686761	-26.413354	-117.339183
8.050000	-24.413101	-124.962329	-1.080758	146.838823	-1.080758	146.838823	-24.408083	-122.239441
8.100000	-22.856863	-129.397869	-1.105443	141.976358	-1.105443	141.976358	-22.853277	-127.052621
8.150000	-21.605261	-133.896247	-1.130721	137.101360	-1.130721	137.101360	-21.602709	-131.818761
8.200000	-20.587956	-138.433460	-1.156305	132.213049	-1.156305	132.213049	-20.586181	-136.550029
8.250000	-19.751083	-142.990099	-1.181819	127.312384	-1.181819	127.312384	-19.749911	-141.256203
8.300000	-19.062492	-147.555712	-1.206911	122.399178	-1.206911	122.399178	-19.061801	-145.940440
8.350000	-18.500413	-152.122649	-1.231232	117.472819	-1.231232	117.472819	-18.500117	-150.603580
8.400000	-18.049897	-156.684604	-1.254445	112.532261	-1.254445	112.532261	-18.049928	-155.244860
8.450000	-17.701507	-161.235533	-1.276224	107.575875	-1.276224	107.575875	-17.701815	-159.861887
8.500000	-17.450211	-165.768631	-1.296250	102.601356	-1.296250	102.601356	-17.450751	-164.450318
8.550000	-17.290290	-170.276753	-1.314336	97.606764	-1.314336	97.606764	-17.291022	-169.005073
8.600000	-17.220777	-174.750406	-1.330314	92.589366	-1.330314	92.589366	-17.221659	-173.517837
8.650000	-17.243225	-179.176812	-1.344083	87.546086	-1.344083	87.546086	-17.244205	-177.976582
8.700000	-17.361863	176.461866	-1.355619	82.473543	-1.355619	82.473543	-17.362870	177.636144
8.750000	-17.584005	172.191259	-1.364991	77.368112	-1.364991	77.368112	-17.584934	173.345945
8.800000	-17.924662	168.055439	-1.372303	72.224588	-1.372303	72.224588	-17.925340	169.197512
8.850000	-18.396728	164.111063	-1.377913	67.040197	-1.377913	67.040197	-18.396882	165.248195
8.900000	-19.023633	160.452896	-1.382219	61.811017	-1.382219	61.811017	-19.022799	161.594393
8.950000	-19.839069	157.237736	-1.385742	56.533226	-1.385742	56.533226	-19.836420	158.395652
9.000000	-20.892045	154.740017	-1.389133	51.203224	-1.389133	51.203224	-20.886013	155.930906
9.050000	-22.254247	153.475685	-1.393169	45.817768	-1.393169	45.817768	-22.241601	154.723172
9.100000	-24.027476	154.618750	-1.398824	40.372565	-1.398824	40.372565	-24.000655	155.956180
9.150000	-26.288423	160.764454	-1.407150	34.866517	-1.407150	34.866517	-26.228557	162.212627
9.200000	-28.718985	177.457302	-1.419288	29.298993	-1.419288	29.298993	-28.587588	178.852041
9.250000	-29.408596	-152.556277	-1.436488	23.669886	-1.436488	23.669886	-29.223024	-151.805684
9.300000	-27.033256	-126.764274	-1.460076	17.980286	-1.460076	17.980286	-26.905125	-126.561135
9.350000	-23.868679	-115.096128	-1.491419	12.232617	-1.491419	12.232617	-23.797256	-114.952241
9.400000	-21.101491	-111.716575	-1.532071	6.429913	-1.532071	6.429913	-21.059012	-111.515540
9.450000	-18.807365	-112.170032	-1.583433	0.577895	-1.583433	0.577895	-18.779806	-111.914435
9.500000	-16.886666	-114.547503	-1.646597	-5.315462	-1.646597	-5.315462	-16.867559	-114.252787
9.550000	-15.249211	-118.027910	-1.722680	-11.241674	-1.722680	-11.241674	-15.235292	-117.707220
9.600000	-13.831909	-122.191242	-1.812619	-17.190967	-1.812619	-17.190967	-13.821375	-121.854414
9.650000	-12.591088	-126.798804	-1.917040	-23.152487	-1.917040	-23.152487	-12.582869	-126.453111
9.700000	-11.495424	-131.712932	-2.036755	-29.114612	-2.036755	-29.114612	-11.488849	-131.364030
9.750000	-10.522656	-136.832406	-2.171835	-35.064766	-2.171835	-35.064766	-10.517295	-136.484658
9.800000	-9.655532	-142.087643	-2.321972	-40.990902	-2.321972	-40.990902	-9.651111	-141.744509
9.850000	-8.880517	-147.429799	-2.486771	-46.881239	-2.486771	-46.881239	-8.876868	-147.094131
9.900000	-8.186987	-152.821173	-2.665661	-52.724036	-2.665661	-52.724036	-8.184020	-152.495373
9.950000	-7.565619	-158.230857	-2.857534	-58.509981	-2.857534	-58.509981	-7.563299	-157.916903
10.000000	-7.008704	-163.634937	-3.061268	-64.230502	-3.061268	-64.230502	-7.007043	-163.334486
