! freq	dB(S11)	phase(S11)	dB(S12)	phase(S12)	
!     	dB(S21)	phase(S21)	dB(S22)	phase(S22)	
!S-par simulation data
#  GHz  S  DB  R 50
0.000000	-83.892240	0.000000	-0.000555	0.000000	-0.000555	0.000000	-83.892240	0.000000
0.050000	-39.703497	-92.608773	-0.004890	-2.834846	-0.004890	-2.834846	-39.670712	-91.585117
0.100000	-33.741276	-96.020129	-0.011987	-5.633955	-0.011987	-5.633955	-33.729426	-94.346111
0.150000	-30.272545	-99.411727	-0.018635	-8.418043	-0.018635	-8.418043	-30.261339	-97.013486
0.200000	-27.824303	-102.770788	-0.025364	-11.197483	-0.025364	-11.197483	-27.811843	-99.589854
0.250000	-25.939328	-106.092268	-0.032642	-13.973820	-0.032642	-13.973820	-25.926017	-102.099632
0.300000	-24.413968	-109.383080	-0.040624	-16.746872	-0.040624	-16.746872	-24.400135	-104.561990
0.350000	-23.138467	-112.652562	-0.049282	-19.516493	-0.049282	-19.516493	-23.124258	-106.990341
0.400000	-22.048018	-115.907577	-0.058568	-22.282528	-0.058568	-22.282528	-22.033503	-109.391401
0.450000	-21.101818	-119.153567	-0.068434	-25.044769	-0.068434	-25.044769	-21.087041	-111.768192
0.500000	-20.270079	-122.395563	-0.078777	-27.803415	-0.078777	-27.803415	-20.255071	-114.123937
0.550000	-19.532510	-125.637115	-0.089524	-30.558501	-0.089524	-30.558501	-19.517291	-116.459335
0.600000	-18.875255	-128.881484	-0.100614	-33.309917	-0.100614	-33.309917	-18.859828	-118.773332
0.650000	-18.286112	-132.131396	-0.111956	-36.057874	-0.111956	-36.057874	-18.270467	-121.066056
0.700000	-17.756058	-135.389307	-0.123469	-38.802516	-0.123469	-38.802516	-17.740172	-123.336806
0.750000	-17.278855	-138.658038	-0.135076	-41.543896	-0.135076	-41.543896	-17.262693	-125.583688
0.800000	-16.848841	-141.940198	-0.146691	-44.282230	-0.146691	-44.282230	-16.832361	-127.805350
0.850000	-16.460519	-145.237775	-0.158234	-47.017887	-0.158234	-47.017887	-16.443671	-130.001366
0.900000	-16.111509	-148.554595	-0.169616	-49.751030	-0.169616	-49.751030	-16.094232	-132.168447
0.950000	-15.798044	-151.893226	-0.180758	-52.482117	-0.180758	-52.482117	-15.780270	-134.305501
1.000000	-15.517528	-155.256933	-0.191581	-55.211597	-0.191581	-55.211597	-15.499179	-136.410498
1.050000	-15.267778	-158.649272	-0.202010	-57.939982	-0.202010	-57.939982	-15.248762	-138.481194
1.100000	-15.046949	-162.074129	-0.211972	-60.667849	-0.211972	-60.667849	-15.027159	-140.515097
1.150000	-14.853481	-165.535770	-0.221402	-63.395840	-0.221402	-63.395840	-14.832791	-142.509423
1.200000	-14.686050	-169.038886	-0.230239	-66.124660	-0.230239	-66.124660	-14.664311	-144.461045
1.250000	-14.543533	-172.588655	-0.238430	-68.855072	-0.238430	-68.855072	-14.520568	-146.366435
1.300000	-14.426453	-176.194797	-0.245880	-71.588121	-0.245880	-71.588121	-14.402038	-148.217884
1.350000	-14.330510	-179.854520	-0.252666	-74.324183	-0.252666	-74.324183	-14.304427	-150.019419
1.400000	-14.258377	176.415561	-0.258645	-77.064746	-0.258645	-77.064746	-14.230324	-151.757054
1.450000	-14.207368	172.614257	-0.263873	-79.810324	-0.263873	-79.810324	-14.177029	-153.430921
1.500000	-14.177784	168.729781	-0.268311	-82.562133	-0.268311	-82.562133	-14.144775	-155.031618
1.550000	-14.168656	164.755032	-0.271980	-85.320977	-0.271980	-85.320977	-14.132546	-156.553777
1.600000	-14.180410	160.674529	-0.274860	-88.088263	-0.274860	-88.088263	-14.140677	-157.984753
1.650000	-14.212068	156.478282	-0.276995	-90.864863	-0.276995	-90.864863	-14.168122	-159.316550
1.700000	-14.263692	152.147790	-0.278407	-93.652195	-0.278407	-93.652195	-14.214827	-160.533767
1.750000	-14.333477	147.676074	-0.279197	-96.450623	-0.279197	-96.450623	-14.278923	-161.630702
1.800000	-14.421162	143.042244	-0.279428	-99.261475	-0.279428	-99.261475	-14.360014	-162.589685
1.850000	-14.525678	138.227322	-0.279206	-102.085798	-0.279206	-102.085798	-14.456899	-163.394597
1.900000	-14.645730	133.207971	-0.278661	-104.924882	-0.278661	-104.924882	-14.568130	-164.025592
1.950000	-14.779316	127.960651	-0.277944	-107.779991	-0.277944	-107.779991	-14.691556	-164.462745
2.000000	-14.923704	122.463217	-0.277206	-110.652265	-0.277206	-110.652265	-14.824319	-164.687629
2.050000	-15.075494	116.690436	-0.276591	-113.542972	-0.276591	-113.542972	-14.962928	-164.679917
2.100000	-15.230273	110.617260	-0.276243	-116.453268	-0.276243	-116.453268	-15.103030	-164.421046
2.150000	-15.382431	104.220510	-0.276318	-119.384157	-0.276318	-119.384157	-15.239698	-163.897862
2.200000	-15.525016	97.481321	-0.276992	-122.336512	-0.276992	-122.336512	-15.370637	-163.101086
2.250000	-15.649693	90.388399	-0.278463	-125.311098	-0.278463	-125.311098	-15.489285	-161.905911
2.300000	-15.747745	82.949285	-0.280920	-128.308084	-0.280920	-128.308084	-15.556522	-160.427569
2.350000	-15.806995	75.162732	-0.284658	-131.329209	-0.284658	-131.329209	-15.590058	-158.758355
2.400000	-15.817719	67.073785	-0.289899	-134.374354	-0.289899	-134.374354	-15.579456	-156.858315
2.450000	-15.770355	58.738760	-0.296908	-137.443925	-0.296908	-137.443925	-15.513839	-154.781824
2.500000	-15.657515	50.233382	-0.305958	-140.538215	-0.305958	-140.538215	-15.386288	-152.603099
2.550000	-15.474263	41.647790	-0.317361	-143.657668	-0.317361	-143.657668	-15.192579	-150.407963
2.600000	-15.221270	33.079519	-0.331385	-146.802053	-0.331385	-146.802053	-14.933745	-148.285788
2.650000	-14.902488	24.619716	-0.348323	-149.971270	-0.348323	-149.971270	-14.613708	-146.319388
2.700000	-14.525230	16.346374	-0.368474	-153.165076	-0.368474	-153.165076	-14.239339	-144.578940
2.750000	-14.097414	8.326438	-0.392234	-156.383726	-0.392234	-156.383726	-13.817907	-143.125867
2.800000	-13.632923	0.585160	-0.419725	-159.625506	-0.419725	-159.625506	-13.362237	-141.979551
2.850000	-13.140881	-6.853245	-0.451311	-162.890264	-0.451311	-162.890264	-12.880667	-141.162378
2.900000	-12.631072	-13.985748	-0.487273	-166.177185	-0.487273	-166.177185	-12.382215	-140.676166
2.950000	-12.112646	-20.826400	-0.527794	-169.484943	-0.527794	-169.484943	-11.875396	-140.505995
3.000000	-11.591195	-27.379347	-0.573334	-172.813365	-0.573334	-172.813365	-11.365400	-140.648721
3.050000	-11.073365	-33.673010	-0.624030	-176.160768	-0.624030	-176.160768	-10.858520	-141.075243
3.100000	-10.563566	-39.730477	-0.680108	-179.525901	-0.680108	-179.525901	-10.358970	-141.762167
3.150000	-10.065046	-45.574035	-0.741808	177.092466	-0.741808	177.092466	-9.869884	-142.686704
3.200000	-9.580284	-51.226508	-0.809323	173.695713	-0.809323	173.695713	-9.393686	-143.825059
3.250000	-9.111061	-56.709996	-0.882796	170.285296	-0.882796	170.285296	-8.932146	-145.153761
3.300000	-8.658491	-62.043695	-0.962379	166.862571	-0.962379	166.862571	-8.486394	-146.652159
3.350000	-8.223237	-67.244761	-1.048216	163.428829	-1.048216	163.428829	-8.057123	-148.301565
3.400000	-7.805631	-72.328045	-1.140474	159.985239	-1.140474	159.985239	-7.644695	-150.085660
3.450000	-7.405781	-77.311065	-1.239069	156.533225	-1.239069	156.533225	-7.249270	-151.984894
3.500000	-7.023522	-82.201453	-1.344383	153.073357	-1.344383	153.073357	-6.870702	-153.991051
3.550000	-6.658568	-87.014874	-1.456247	149.606820	-1.456247	149.606820	-6.508755	-156.086728
3.600000	-6.310517	-91.760117	-1.574847	146.134106	-1.574847	146.134106	-6.163051	-158.262645
3.650000	-5.978926	-96.446576	-1.700305	142.655580	-1.700305	142.655580	-5.833164	-160.509174
3.700000	-5.663106	-101.084927	-1.832545	139.171584	-1.832545	139.171584	-5.518443	-162.815399
3.750000	-5.362710	-105.681238	-1.971972	135.681646	-1.971972	135.681646	-5.218521	-165.176746
3.800000	-5.076853	-110.246089	-2.118438	132.185658	-2.118438	132.185658	-4.932550	-167.583281
3.850000	-4.805027	-114.786499	-2.272271	128.682655	-2.272271	128.682655	-4.660007	-170.030502
3.900000	-4.546560	-119.310835	-2.433677	125.171495	-2.433677	125.171495	-4.400214	-172.512936
3.950000	-4.300659	-123.827343	-2.602831	121.650912	-2.602831	121.650912	-4.152381	-175.025457
4.000000	-4.066941	-128.344425	-2.780343	118.118386	-2.780343	118.118386	-3.916067	-177.565689
4.050000	-3.844453	-132.870653	-2.966404	114.572238	-2.966404	114.572238	-3.690335	179.870932
4.100000	-3.632760	-137.415576	-3.161783	111.009111	-3.161783	111.009111	-3.474685	177.285987
4.150000	-3.431158	-141.988837	-3.367126	107.425899	-3.367126	107.425899	-3.268383	174.681734
4.200000	-3.238994	-146.600184	-3.583256	103.819157	-3.583256	103.819157	-3.070735	172.059683
4.250000	-3.055886	-151.262883	-3.811533	100.183404	-3.811533	100.183404	-2.881256	169.419921
4.300000	-2.881204	-155.988850	-4.053257	96.513977	-4.053257	96.513977	-2.699258	166.762940
4.350000	-2.714219	-160.787217	-4.309701	92.807480	-4.309701	92.807480	-2.523999	164.089274
4.400000	-2.554760	-165.677200	-4.583445	89.055418	-4.583445	89.055418	-2.355129	161.396915
4.450000	-2.402409	-170.675970	-4.877176	85.250601	-4.877176	85.250601	-2.192109	158.684246
4.500000	-2.256632	-175.795698	-5.193573	81.388358	-5.193573	81.388358	-2.034362	155.950108
4.550000	-2.117161	178.945975	-5.536438	77.461619	-5.536438	77.461619	-1.881496	153.191994
4.600000	-1.984122	173.515600	-5.912028	73.456758	-5.912028	73.456758	-1.733325	150.404410
4.650000	-1.857029	167.907432	-6.324761	69.373509	-6.324761	69.373509	-1.589417	147.586274
4.700000	-1.736328	162.079037	-6.784518	65.196784	-6.784518	65.196784	-1.449829	144.729877
4.750000	-1.622003	156.014743	-7.300221	60.925248	-7.300221	60.925248	-1.314497	141.831854
4.800000	-1.514656	149.677036	-7.886274	56.552222	-7.886274	56.552222	-1.183741	138.884789
4.850000	-1.414825	143.041462	-8.559544	52.081664	-8.559544	52.081664	-1.057987	135.883502
4.900000	-1.323598	136.069864	-9.344945	47.522918	-9.344945	47.522918	-0.938100	132.820405
4.950000	-1.242190	128.732506	-10.275643	42.905116	-10.275643	42.905116	-0.825200	129.689816
5.000000	-1.172269	120.996211	-11.400594	38.289558	-11.400594	38.289558	-0.720885	126.486182
5.050000	-1.115887	112.829609	-12.794741	33.806001	-12.794741	33.806001	-0.627232	123.205609
5.100000	-1.075151	104.214234	-14.578896	29.731863	-14.578896	29.731863	-0.546576	119.848504
5.150000	-1.052845	95.126160	-16.975994	26.780709	-16.975994	26.780709	-0.482031	116.417325
5.200000	-1.050934	85.573569	-20.439824	27.051916	-20.439824	27.051916	-0.436253	112.923335
5.250000	-1.071757	75.562995	-25.933936	40.659386	-25.933936	40.659386	-0.412481	109.382155
5.300000	-1.116240	65.133968	-29.104087	106.300517	-29.104087	106.300517	-0.412886	105.818257
5.350000	-1.184598	54.338607	-22.635880	140.760835	-22.635880	140.760835	-0.439247	102.262393
5.400000	-1.274912	43.259658	-18.184451	144.487869	-18.184451	144.487869	-0.491388	98.749835
5.450000	-1.383661	31.995960	-15.233074	141.848751	-15.233074	141.848751	-0.567575	95.316020
5.500000	-1.505946	20.658646	-13.107740	137.143345	-13.107740	137.143345	-0.664686	91.994417
5.550000	-1.635549	9.367335	-11.502379	131.618086	-11.502379	131.618086	-0.777827	88.809350
5.600000	-1.766038	-1.763298	-10.256383	125.768408	-10.256383	125.768408	-0.901312	85.773728
5.650000	-1.891402	-12.626239	-9.275594	119.838427	-9.275594	119.838427	-1.029372	82.891022
5.700000	-2.006718	-23.132082	-8.497153	113.966663	-8.497153	113.966663	-1.156574	80.152586
5.750000	-2.108700	-33.216249	-7.875733	108.231336	-7.875733	108.231336	-1.278506	77.540447
5.800000	-2.195390	-42.829652	-7.378980	102.677613	-7.378980	102.677613	-1.391830	75.033507
5.850000	-2.266213	-51.944042	-6.981811	97.328462	-6.981811	97.328462	-1.494375	72.607954
5.900000	-2.321897	-60.556684	-6.663691	92.188854	-6.663691	92.188854	-1.585239	70.239483
5.950000	-2.363601	-68.670587	-6.409448	87.257763	-6.409448	87.257763	-1.664159	67.907090
6.000000	-2.392844	-76.296813	-6.207137	82.529263	-6.207137	82.529263	-1.731430	65.592391
6.050000	-2.411665	-83.468965	-6.045994	77.987647	-6.045994	77.987647	-1.788130	63.280067
6.100000	-2.421803	-90.215266	-5.918222	73.619558	-5.918222	73.619558	-1.835304	60.958571
6.150000	-2.424870	-96.566025	-5.817551	69.411056	-5.817551	69.411056	-1.874083	58.619149
6.200000	-2.422301	-102.552050	-5.738927	65.348312	-5.738927	65.348312	-1.905598	56.255407
6.250000	-2.415334	-108.203550	-5.678264	61.418045	-5.678264	61.418045	-1.930922	53.862869
6.300000	-2.404928	-113.539776	-5.632657	57.611509	-5.632657	57.611509	-1.950889	51.437409
6.350000	-2.392082	-118.599109	-5.598864	53.912685	-5.598864	53.912685	-1.966584	48.978305
6.400000	-2.377494	-123.406504	-5.574719	50.311029	-5.574719	50.311029	-1.978773	46.484655
6.450000	-2.361727	-127.984870	-5.558448	46.796932	-5.558448	46.796932	-1.988121	43.956161
6.500000	-2.345235	-132.355099	-5.548594	43.361676	-5.548594	43.361676	-1.995201	41.392951
6.550000	-2.328375	-136.536161	-5.543953	39.997375	-5.543953	39.997375	-2.000501	38.795445
6.600000	-2.311434	-140.541180	-5.543621	36.698390	-5.543621	36.698390	-2.004411	36.163397
6.650000	-2.294640	-144.389165	-5.546677	33.456976	-5.546677	33.456976	-2.007317	33.498146
6.700000	-2.278159	-148.095366	-5.552411	30.266872	-5.552411	30.266872	-2.009523	30.800742
6.750000	-2.262117	-151.673126	-5.560251	27.122600	-5.560251	27.122600	-2.011278	28.072203
6.800000	-2.246612	-155.132517	-5.569745	24.019908	-5.569745	24.019908	-2.012789	25.313027
6.850000	-2.231715	-158.483868	-5.580496	20.954504	-5.580496	20.954504	-2.014233	22.524000
6.900000	-2.217571	-161.723809	-5.592258	17.926700	-5.592258	17.926700	-2.015792	19.701858
6.950000	-2.204037	-164.886402	-5.604545	14.924391	-5.604545	14.924391	-2.017552	16.855114
7.000000	-2.191216	-167.966409	-5.617241	11.948734	-5.617241	11.948734	-2.019633	13.980619
7.050000	-2.179122	-170.970747	-5.630147	8.996815	-5.630147	8.996815	-2.022126	11.078962
7.100000	-2.167758	-173.905702	-5.643096	6.065974	-5.643096	6.065974	-2.025110	8.150676
7.150000	-2.157124	-176.776995	-5.655947	3.153777	-5.655947	3.153777	-2.028655	5.196237
7.200000	-2.147214	-179.589840	-5.668578	0.257987	-5.668578	0.257987	-2.032819	2.216057
7.250000	-2.138021	177.651002	-5.680888	-2.623452	-5.680888	-2.623452	-2.037654	-0.789509
7.300000	-2.129533	174.941176	-5.692789	-5.492443	-5.692789	-5.492443	-2.043206	-3.820172
7.350000	-2.121740	172.276695	-5.704206	-8.350747	-5.704206	-8.350747	-2.049517	-6.875703
7.400000	-2.114629	169.653899	-5.715074	-11.200006	-5.715074	-11.200006	-2.056622	-9.955941
7.450000	-2.108187	167.069423	-5.725338	-14.041752	-5.725338	-14.041752	-2.064557	-13.060790
7.500000	-2.102402	164.520173	-5.734949	-16.877425	-5.734949	-16.877425	-2.073353	-16.190224
7.550000	-2.097289	162.004581	-5.743830	-19.708241	-5.743830	-19.708241	-2.083079	-19.345368
7.600000	-2.092810	159.518514	-5.751973	-22.535742	-5.751973	-22.535742	-2.093728	-22.525285
7.650000	-2.088953	157.059567	-5.759342	-25.361152	-5.759342	-25.361152	-2.105327	-25.730191
7.700000	-2.085712	154.625517	-5.765907	-28.185647	-5.765907	-28.185647	-2.117903	-28.960384
7.750000	-2.083077	152.214307	-5.771637	-31.010364	-5.771637	-31.010364	-2.131484	-32.216253
7.800000	-2.081045	149.824030	-5.776504	-33.836411	-5.776504	-33.836411	-2.146098	-35.498285
7.850000	-2.079609	147.452923	-5.780480	-36.664873	-5.780480	-36.664873	-2.161773	-38.807065
7.900000	-2.078769	145.099352	-5.783540	-39.496826	-5.783540	-39.496826	-2.178539	-42.143290
7.950000	-2.078523	142.761805	-5.785657	-42.333335	-5.785657	-42.333335	-2.196425	-45.507772
8.000000	-2.078873	140.438884	-5.786806	-45.175473	-5.786806	-45.175473	-2.215463	-48.901449
8.050000	-2.079822	138.129297	-5.786959	-48.024319	-5.786959	-48.024319	-2.235687	-52.325393
8.100000	-2.081375	135.831855	-5.786092	-50.880971	-5.786092	-50.880971	-2.257131	-55.780818
8.150000	-2.083540	133.545461	-5.784176	-53.746554	-5.784176	-53.746554	-2.279832	-59.269095
8.200000	-2.086327	131.269115	-5.781186	-56.622223	-5.781186	-56.622223	-2.303829	-62.791761
8.250000	-2.089748	129.001901	-5.777093	-59.509179	-5.777093	-59.509179	-2.329165	-66.350536
8.300000	-2.093816	126.742990	-5.771870	-62.408670	-5.771870	-62.408670	-2.355883	-69.947333
8.350000	-2.098489	124.491049	-5.765593	-65.320658	-5.765593	-65.320658	-2.383910	-73.580541
8.400000	-2.103911	122.246708	-5.758016	-68.249267	-5.758016	-68.249267	-2.413551	-77.260244
8.450000	-2.110039	120.008661	-5.749225	-71.194581	-5.749225	-71.194581	-2.444728	-80.985097
8.500000	-2.116895	117.776409	-5.739194	-74.158151	-5.739194	-74.158151	-2.477501	-84.757989
8.550000	-2.124508	115.549537	-5.727896	-77.141629	-5.727896	-77.141629	-2.511933	-88.582108
8.600000	-2.132905	113.327714	-5.715309	-80.146781	-5.715309	-80.146781	-2.548092	-92.460971
8.650000	-2.142118	111.110693	-5.701410	-83.175505	-5.701410	-83.175505	-2.586052	-96.398456
8.700000	-2.152182	108.898318	-5.686181	-86.229841	-5.686181	-86.229841	-2.625893	-100.398841
8.750000	-2.163131	106.690526	-5.669609	-89.311994	-5.669609	-89.311994	-2.667700	-104.466843
8.800000	-2.175026	104.487455	-5.651654	-92.425065	-5.651654	-92.425065	-2.711609	-108.609383
8.850000	-2.187886	102.289155	-5.632347	-95.571051	-5.632347	-95.571051	-2.757684	-112.830783
8.900000	-2.201752	100.095888	-5.611695	-98.752781	-5.611695	-98.752781	-2.806032	-117.137442
8.950000	-2.216668	97.908038	-5.589720	-101.973337	-5.589720	-101.973337	-2.856774	-121.536442
9.000000	-2.232674	95.726126	-5.566454	-105.236084	-5.566454	-105.236084	-2.910038	-126.035628
9.050000	-2.249811	93.550818	-5.541951	-108.544703	-5.541951	-108.544703	-2.965962	-130.643705
9.100000	-2.268116	91.382944	-5.516285	-111.903227	-5.516285	-111.903227	-3.024696	-135.370345
9.150000	-2.287625	89.223516	-5.489557	-115.316083	-5.489557	-115.316083	-3.086402	-140.226309
9.200000	-2.308340	87.073541	-5.461917	-118.786943	-5.461917	-118.786943	-3.151198	-145.220732
9.250000	-2.330387	84.935542	-5.433475	-122.327294	-5.433475	-122.327294	-3.219531	-150.381735
9.300000	-2.353592	82.809452	-5.404562	-125.933139	-5.404562	-125.933139	-3.291169	-155.700492
9.350000	-2.378033	80.698246	-5.375410	-129.616610	-5.375410	-129.616610	-3.366550	-161.207272
9.400000	-2.403669	78.604432	-5.346396	-133.385857	-5.346396	-133.385857	-3.445907	-166.923234
9.450000	-2.430387	76.530384	-5.317998	-137.247378	-5.317998	-137.247378	-3.529375	-172.865973
9.500000	-2.458042	74.479134	-5.290803	-141.209946	-5.290803	-141.209946	-3.617131	-179.059157
9.550000	-2.486417	72.454124	-5.265550	-145.283226	-5.265550	-145.283226	-3.709320	174.470713
9.600000	-2.515197	70.459380	-5.243178	-149.478489	-5.243178	-149.478489	-3.806043	167.692386
9.650000	-2.543932	68.499436	-5.224886	-153.808274	-5.224886	-153.808274	-3.907307	160.570537
9.700000	-2.572006	66.578645	-5.212090	-158.284137	-5.212090	-158.284137	-4.012920	153.071531
9.750000	-2.598595	64.701872	-5.206586	-162.919828	-5.206586	-162.919828	-4.122513	145.155338
9.800000	-2.622603	62.873970	-5.210595	-167.730029	-5.210595	-167.730029	-4.235413	136.778817
9.850000	-2.642604	61.099371	-5.226858	-172.730165	-5.226858	-172.730165	-4.350528	127.896512
9.900000	-2.656779	59.381459	-5.258741	-177.936063	-5.258741	-177.936063	-4.466207	118.462138
9.950000	-2.662868	57.721622	-5.310348	176.636584	-5.310348	176.636584	-4.580091	108.431033
10.000000	-2.658157	56.117950	-5.386644	170.973021	-5.386644	170.973021	-4.688970	97.763870
