! freq	dB(S11)	phase(S11)	dB(S12)	phase(S12)	
!     	dB(S21)	phase(S21)	dB(S22)	phase(S22)	
!S-par simulation data
#  GHz  S  DB  R 50
0.000000	-6153.053111	0.000000	-0.000000	0.000000	-0.000000	0.000000	-163.628297	180.000000
0.050000	-31.658973	-93.436727	-0.004972	-3.374096	-0.004972	-3.374096	-31.683701	-93.441354
0.100000	-25.654506	-96.865499	-0.018873	-6.732010	-0.018873	-6.732010	-25.675057	-96.871721
0.150000	-22.159144	-100.279036	-0.039837	-10.066906	-0.039837	-10.066906	-22.173933	-100.283348
0.200000	-19.696693	-103.671230	-0.066424	-13.379561	-0.066424	-13.379561	-19.705263	-103.672179
0.250000	-17.804271	-107.037224	-0.097960	-16.672499	-0.097960	-16.672499	-17.807048	-107.036149
0.300000	-16.275320	-110.373650	-0.134190	-19.947129	-0.134190	-19.947129	-16.273334	-110.373765
0.350000	-14.998712	-113.679293	-0.174891	-23.203792	-0.174891	-23.203792	-14.993298	-113.684014
0.400000	-13.908594	-116.952927	-0.219987	-26.441243	-0.219987	-26.441243	-13.901165	-116.964676
0.450000	-12.962333	-120.194095	-0.269336	-29.657760	-0.269336	-29.657760	-12.954226	-120.213480
0.500000	-12.130417	-123.403263	-0.322684	-32.851764	-0.322684	-32.851764	-12.122729	-123.428924
0.550000	-11.391702	-126.581107	-0.379739	-36.021772	-0.379739	-36.021772	-11.385191	-126.610184
0.600000	-10.730603	-129.728207	-0.440195	-39.166371	-0.440195	-39.166371	-10.725661	-129.757098
0.650000	-10.135238	-132.845114	-0.503729	-42.284367	-0.503729	-42.284367	-10.131915	-132.870311
0.700000	-9.596326	-135.932310	-0.570000	-45.374805	-0.570000	-45.374805	-9.594411	-135.951090
0.750000	-9.106463	-138.990203	-0.638662	-48.436977	-0.638662	-48.436977	-9.105591	-139.001020
0.800000	-8.659640	-142.019147	-0.709367	-51.470412	-0.709367	-51.470412	-8.659394	-142.021688
0.850000	-8.251047	-145.019199	-0.781777	-54.474597	-0.781777	-54.474597	-8.251047	-145.014193
0.900000	-7.876304	-147.991063	-0.855538	-57.449888	-0.855538	-57.449888	-7.876260	-147.979900
0.950000	-7.532000	-150.934902	-0.930327	-60.396261	-0.930327	-60.396261	-7.531724	-150.919285
1.000000	-7.215188	-153.850975	-1.005823	-63.313912	-1.005823	-63.313912	-7.214592	-153.832620
1.050000	-6.923133	-156.739979	-1.081721	-66.203581	-1.081721	-66.203581	-6.922207	-156.720389
1.100000	-6.653559	-159.602465	-1.157735	-69.065912	-1.157735	-69.065912	-6.652346	-159.582843
1.150000	-6.404595	-162.438793	-1.233584	-71.901393	-1.233584	-71.901393	-6.403171	-162.420020
1.200000	-6.174143	-165.250365	-1.309043	-74.711593	-1.309043	-74.711593	-6.172595	-165.233001
1.250000	-5.960837	-168.037560	-1.383863	-77.497036	-1.383863	-77.497036	-5.959251	-168.021913
1.300000	-5.763498	-170.800764	-1.457789	-80.258264	-1.457789	-80.258264	-5.761955	-170.786934
1.350000	-5.580618	-173.541458	-1.530648	-82.996913	-1.530648	-82.996913	-5.579184	-173.529387
1.400000	-5.411067	-176.260654	-1.602259	-85.714127	-1.602259	-85.714127	-5.409795	-176.250179
1.450000	-5.253827	-178.959415	-1.672455	-88.411088	-1.672455	-88.411088	-5.252754	-178.950312
1.500000	-5.107978	178.361150	-1.741086	-91.089007	-1.741086	-91.089007	-5.107126	178.369141
1.550000	-4.972684	175.699899	-1.808017	-93.749112	-1.808017	-93.749112	-4.972066	175.707046
1.600000	-4.847190	173.055662	-1.873129	-96.392645	-1.873129	-96.392645	-4.846808	173.062230
1.650000	-4.730807	170.427248	-1.936315	-99.020852	-1.936315	-99.020852	-4.730654	170.433484
1.700000	-4.622909	167.813457	-1.997484	-101.634978	-1.997484	-101.634978	-4.622975	167.819586
1.750000	-4.522925	165.213082	-2.056555	-104.236264	-2.056555	-104.236264	-4.523193	165.219298
1.800000	-4.430336	162.624912	-2.113460	-106.825938	-2.113460	-106.825938	-4.430785	162.631385
1.850000	-4.344664	160.047746	-2.168144	-109.405219	-2.168144	-109.405219	-4.345272	160.054615
1.900000	-4.265533	157.480482	-2.220531	-111.975220	-2.220531	-111.975220	-4.266278	157.487859
1.950000	-4.192536	154.921897	-2.270585	-114.537163	-2.270585	-114.537163	-4.193395	154.929870
2.000000	-4.125246	152.370720	-2.318310	-117.092307	-2.318310	-117.092307	-4.126195	152.379353
2.050000	-4.063330	149.825804	-2.363687	-119.641788	-2.363687	-119.641788	-4.064347	149.835142
2.100000	-4.006478	147.286025	-2.406707	-122.186719	-2.406707	-122.186719	-4.007543	147.296093
2.150000	-3.954410	144.750280	-2.447370	-124.728187	-2.447370	-124.728187	-3.955503	144.761089
2.200000	-3.906864	142.217491	-2.485679	-127.267255	-2.485679	-127.267255	-3.907967	142.229040
2.250000	-3.863599	139.686605	-2.521649	-129.804958	-2.521649	-129.804958	-3.864697	139.698884
2.300000	-3.824393	137.156598	-2.555297	-132.342303	-2.555297	-132.342303	-3.825471	137.169587
2.350000	-3.789041	134.626470	-2.586648	-134.880273	-2.586648	-134.880273	-3.790085	134.640144
2.400000	-3.757350	132.095252	-2.615732	-137.419820	-2.615732	-137.419820	-3.758351	132.109581
2.450000	-3.729143	129.562002	-2.642586	-139.961872	-2.642586	-139.961872	-3.730090	129.576954
2.500000	-3.704253	127.025809	-2.667248	-142.507326	-2.667248	-142.507326	-3.705139	127.041349
2.550000	-3.682589	124.485687	-2.689719	-145.057167	-2.689719	-145.057167	-3.683408	124.501779
2.600000	-3.663935	121.940848	-2.710097	-147.612161	-2.710097	-147.612161	-3.664681	121.957457
2.650000	-3.648153	119.390470	-2.728435	-150.173124	-2.728435	-150.173124	-3.648823	119.407564
2.700000	-3.635112	116.833762	-2.744793	-152.740841	-2.744793	-152.740841	-3.635704	116.851311
2.750000	-3.624688	114.269962	-2.759230	-155.316071	-2.759230	-155.316071	-3.625202	114.287936
2.800000	-3.616763	111.698336	-2.771812	-157.899546	-2.771812	-157.899546	-3.617198	111.716712
2.850000	-3.611221	109.118183	-2.782608	-160.491971	-2.782608	-160.491971	-3.611578	109.136939
2.900000	-3.607953	106.528828	-2.791689	-163.094022	-2.791689	-163.094022	-3.608234	106.547948
2.950000	-3.606850	103.929627	-2.799130	-165.706349	-2.799130	-165.706349	-3.607057	103.949099
3.000000	-3.607807	101.319965	-2.805007	-168.329575	-2.805007	-168.329575	-3.607943	101.339781
3.050000	-3.610719	98.699256	-2.809402	-170.964295	-2.809402	-170.964295	-3.610789	98.719412
3.100000	-3.615484	96.066942	-2.812396	-173.611077	-2.812396	-173.611077	-3.615491	96.087441
3.150000	-3.622017	93.422356	-2.814061	-176.270605	-2.814061	-176.270605	-3.621965	93.443203
3.200000	-3.630211	90.764980	-2.814488	-178.943408	-2.814488	-178.943408	-3.630106	90.786188
3.250000	-3.639943	88.094475	-2.813779	178.370167	-2.813779	178.370167	-3.639790	88.116059
3.300000	-3.651109	85.410395	-2.812027	175.669662	-2.812027	175.669662	-3.650912	85.432376
3.350000	-3.663602	82.712324	-2.809325	172.954648	-2.809325	172.954648	-3.663367	82.734724
3.400000	-3.677314	79.999868	-2.805767	170.224725	-2.805767	170.224725	-3.677045	80.022717
3.450000	-3.692133	77.272662	-2.801449	167.479517	-2.801449	167.479517	-3.691835	77.295991
3.500000	-3.707946	74.530365	-2.796471	164.718677	-2.796471	164.718677	-3.707624	74.554209
3.550000	-3.724637	71.772660	-2.790929	161.941887	-2.790929	161.941887	-3.724295	71.797056
3.600000	-3.742086	68.999256	-2.784925	159.148854	-2.784925	159.148854	-3.741728	69.024242
3.650000	-3.760170	66.209881	-2.778559	156.339313	-2.778559	156.339313	-3.759801	66.235499
3.700000	-3.778763	63.404289	-2.771934	153.513026	-2.771934	153.513026	-3.778386	63.430581
3.750000	-3.797737	60.582256	-2.765151	150.669782	-2.765151	150.669782	-3.797354	60.609264
3.800000	-3.816959	57.743210	-2.758314	147.809021	-2.758314	147.809021	-3.816573	57.770978
3.850000	-3.836287	54.887325	-2.751531	144.930955	-2.751531	144.930955	-3.835901	54.915895
3.900000	-3.855581	52.014439	-2.744905	142.035453	-2.744905	142.035453	-3.855196	52.043851
3.950000	-3.874701	49.124407	-2.738539	139.122412	-2.738539	139.122412	-3.874317	49.154699
4.000000	-3.893501	46.217100	-2.732537	136.191750	-2.732537	136.191750	-3.893121	46.248308
4.050000	-3.911837	43.292409	-2.727003	133.243412	-2.727003	133.243412	-3.911460	43.324565
4.100000	-3.929560	40.350238	-2.722038	130.277366	-2.722038	130.277366	-3.929187	40.383372
4.150000	-3.946523	37.390509	-2.717746	127.293604	-2.717746	127.293604	-3.946153	37.424646
4.200000	-3.962577	34.413156	-2.714228	124.292139	-2.714228	124.292139	-3.962209	34.448316
4.250000	-3.977573	31.418130	-2.711585	121.273005	-2.711585	121.273005	-3.977206	31.454327
4.300000	-3.991364	28.405393	-2.709919	118.236257	-2.709919	118.236257	-3.990997	28.442636
4.350000	-4.003805	25.374919	-2.709329	115.181972	-2.709329	115.181972	-4.003436	25.413212
4.400000	-4.014734	22.326503	-2.709928	112.110053	-2.709928	112.110053	-4.014361	22.365843
4.450000	-4.024007	19.260145	-2.711816	109.020618	-2.711816	109.020618	-4.023630	19.300522
4.500000	-4.031506	16.176046	-2.715079	105.913984	-2.715079	105.913984	-4.031122	16.217444
4.550000	-4.037101	13.074229	-2.719811	102.790297	-2.719811	102.790297	-4.036710	13.116626
4.600000	-4.040671	9.954724	-2.726109	99.649715	-2.726109	99.649715	-4.040270	9.998091
4.650000	-4.042097	6.817574	-2.734066	96.492413	-2.734066	96.492413	-4.041686	6.861875
4.700000	-4.041274	3.662828	-2.743775	93.318574	-2.743775	93.318574	-4.040851	3.708024
4.750000	-4.038101	0.490549	-2.755329	90.128396	-2.755329	90.128396	-4.037665	0.536591
4.800000	-4.032490	-2.699195	-2.768820	86.922087	-2.768820	86.922087	-4.032041	-2.652358
4.850000	-4.024362	-5.906322	-2.784337	83.699864	-2.784337	83.699864	-4.023900	-5.858748
4.900000	-4.013651	-9.130744	-2.801973	80.461952	-2.801973	80.461952	-4.013175	-9.082494
4.950000	-4.000301	-12.372362	-2.821815	77.208586	-2.821815	77.208586	-3.999812	-12.323503
5.000000	-3.984269	-15.631067	-2.843953	73.940008	-2.843953	73.940008	-3.983768	-15.581668
5.050000	-3.965466	-18.907108	-2.868530	70.656144	-2.868530	70.656144	-3.964953	-18.857243
5.100000	-3.943935	-22.199984	-2.895584	67.357581	-2.895584	67.357581	-3.943411	-22.149727
5.150000	-3.919672	-25.509556	-2.925204	64.044577	-2.925204	64.044577	-3.919140	-25.458986
5.200000	-3.892690	-28.835676	-2.957480	60.717396	-2.957480	60.717396	-3.892151	-28.784870
5.250000	-3.863014	-32.178185	-2.992501	57.376306	-2.992501	57.376306	-3.862469	-32.127222
5.300000	-3.830681	-35.536913	-3.030355	54.021578	-3.030355	54.021578	-3.830132	-35.485873
5.350000	-3.795742	-38.911681	-3.071135	50.653486	-3.071135	50.653486	-3.795192	-38.860642
5.400000	-3.758262	-42.302297	-3.114930	47.272305	-3.114930	47.272305	-3.757712	-42.251340
5.450000	-3.718315	-45.708561	-3.161835	43.878315	-3.161835	43.878315	-3.717768	-45.657765
5.500000	-3.675989	-49.130262	-3.211941	40.471793	-3.211941	40.471793	-3.675446	-49.079704
5.550000	-3.631381	-52.567178	-3.265346	37.053019	-3.265346	37.053019	-3.630845	-52.516935
5.600000	-3.584599	-56.019078	-3.322148	33.622272	-3.322148	33.622272	-3.584070	-55.969226
5.650000	-3.535734	-59.485879	-3.382483	30.179709	-3.382483	30.179709	-3.535214	-59.436493
5.700000	-3.484912	-62.967321	-3.446456	26.725619	-3.446456	26.725619	-3.484404	-62.918475
5.750000	-3.432292	-66.462987	-3.514144	23.260417	-3.514144	23.260417	-3.431795	-66.414753
5.800000	-3.378007	-69.972609	-3.585662	19.784400	-3.585662	19.784400	-3.377524	-69.925058
5.850000	-3.322200	-73.495916	-3.661132	16.297886	-3.661132	16.297886	-3.321730	-73.449117
5.900000	-3.265013	-77.032629	-3.740682	12.801236	-3.740682	12.801236	-3.264556	-76.986650
5.950000	-3.206592	-80.582466	-3.824446	9.294868	-3.824446	9.294868	-3.206150	-80.537375
6.000000	-3.147084	-84.145141	-3.912557	5.779278	-3.912557	5.779278	-3.146655	-84.101005
6.050000	-3.086635	-87.720367	-4.005147	2.255043	-4.005147	2.255043	-3.086220	-87.677252
6.100000	-3.025390	-91.307858	-4.102331	-1.277206	-4.102331	-1.277206	-3.024990	-91.265828
6.150000	-2.963494	-94.907326	-4.204211	-4.816849	-4.204211	-4.816849	-2.963107	-94.866447
6.200000	-2.901087	-98.518489	-4.310875	-8.363360	-4.310875	-8.363360	-2.900713	-98.478823
6.250000	-2.838305	-102.141067	-4.422406	-11.916357	-4.422406	-11.916357	-2.837943	-102.102677
6.300000	-2.775269	-105.775022	-4.538977	-15.475738	-4.538977	-15.475738	-2.774918	-105.737972
6.350000	-2.712123	-109.419841	-4.660630	-19.041226	-4.660630	-19.041226	-2.711784	-109.384192
6.400000	-2.648990	-113.075264	-4.787509	-22.612703	-4.787509	-22.612703	-2.648661	-113.041077
6.450000	-2.585985	-116.741044	-4.919780	-26.190021	-4.919780	-26.190021	-2.585667	-116.708378
6.500000	-2.523218	-120.416943	-5.057623	-29.772977	-5.057623	-29.772977	-2.522910	-120.385856
6.550000	-2.460791	-124.102732	-5.201235	-33.361319	-5.201235	-33.361319	-2.460493	-124.073283
6.600000	-2.398801	-127.798196	-5.350822	-36.954748	-5.350822	-36.954748	-2.398513	-127.770439
6.650000	-2.337339	-131.503130	-5.506600	-40.552936	-5.506600	-40.552936	-2.337061	-131.477121
6.700000	-2.276486	-135.217333	-5.668796	-44.155531	-5.668796	-44.155531	-2.276218	-135.193123
6.750000	-2.216322	-138.940683	-5.837677	-47.762194	-5.837677	-47.762194	-2.216066	-138.918324
6.800000	-2.156916	-142.672922	-6.013465	-51.372510	-6.013465	-51.372510	-2.156671	-142.652462
6.850000	-2.098332	-146.413887	-6.196438	-54.986096	-6.196438	-54.986096	-2.098098	-146.395373
6.900000	-2.040636	-150.163572	-6.386952	-58.602601	-6.386952	-58.602601	-2.040414	-150.147049
6.950000	-1.983886	-153.921822	-6.585327	-62.221593	-6.585327	-62.221593	-1.983677	-153.907333
7.000000	-1.928120	-157.688348	-6.791850	-65.842592	-6.791850	-65.842592	-1.927925	-157.675934
7.050000	-1.873382	-161.463010	-7.006900	-69.465139	-7.006900	-69.465139	-1.873201	-161.452708
7.100000	-1.819712	-165.245669	-7.230886	-73.088743	-7.230886	-73.088743	-1.819546	-165.237515
7.150000	-1.767145	-169.036182	-7.464259	-76.712870	-7.464259	-76.712870	-1.766994	-169.030210
7.200000	-1.715722	-172.834468	-7.707537	-80.336929	-7.707537	-80.336929	-1.715586	-172.830709
7.250000	-1.665487	-176.640496	-7.961318	-83.960226	-7.961318	-83.960226	-1.665368	-176.638981
7.300000	-1.616448	179.546099	-8.226108	-87.582026	-8.226108	-87.582026	-1.616344	179.545343
7.350000	-1.568629	175.725495	-8.502564	-91.201494	-8.502564	-91.201494	-1.568540	175.722441
7.400000	-1.522052	171.897887	-8.791410	-94.817675	-8.791410	-94.817675	-1.521980	171.892510
7.450000	-1.476741	168.063487	-9.093451	-98.429470	-9.093451	-98.429470	-1.476684	168.055765
7.500000	-1.432716	164.222527	-9.409581	-102.035609	-9.409581	-102.035609	-1.432673	164.212438
7.550000	-1.390035	160.375056	-9.740901	-105.634310	-9.740901	-105.634310	-1.390005	160.362577
7.600000	-1.348680	156.521579	-10.088424	-109.224015	-10.088424	-109.224015	-1.348664	156.506692
7.650000	-1.308671	152.662405	-10.453407	-112.802655	-10.453407	-112.802655	-1.308667	152.645091
7.700000	-1.270026	148.797869	-10.837271	-116.367778	-10.837271	-116.367778	-1.270033	148.778110
7.750000	-1.232763	144.928332	-11.241630	-119.916464	-11.241630	-119.916464	-1.232779	144.906112
7.800000	-1.196899	141.054185	-11.668325	-123.445211	-11.668325	-123.445211	-1.196924	141.029488
7.850000	-1.162487	137.175749	-12.119523	-126.949038	-12.119523	-126.949038	-1.162519	137.148558
7.900000	-1.129524	133.293558	-12.597618	-130.422949	-12.597618	-130.422949	-1.129562	133.263860
7.950000	-1.098015	129.408120	-13.105432	-133.860702	-13.105432	-133.860702	-1.098058	129.375902
8.000000	-1.067978	125.519929	-13.646298	-137.254276	-13.646298	-137.254276	-1.068026	125.485180
8.050000	-1.039430	121.629500	-14.224166	-140.593572	-14.224166	-140.593572	-1.039481	121.592209
8.100000	-1.012388	117.737364	-14.843758	-143.865706	-14.843758	-143.865706	-1.012442	117.697521
8.150000	-0.986893	113.844054	-15.510770	-147.052158	-15.510770	-147.052158	-0.986950	113.801653
8.200000	-0.962962	109.950150	-16.232141	-150.129472	-16.232141	-150.129472	-0.963022	109.905184
8.250000	-0.940585	106.056225	-17.016519	-153.068480	-17.016519	-153.068480	-0.940648	106.008691
8.300000	-0.919777	102.162830	-17.874768	-155.826705	-17.874768	-155.826705	-0.919843	102.112728
8.350000	-0.900550	98.270507	-18.820763	-158.343554	-18.820763	-158.343554	-0.900619	98.217837
8.400000	-0.882917	94.379777	-19.872486	-160.529713	-19.872486	-160.529713	-0.882990	94.324542
8.450000	-0.866903	90.491158	-21.053385	-162.242554	-21.053385	-162.242554	-0.866981	90.433366
8.500000	-0.852545	86.605174	-22.393763	-163.236970	-22.393763	-163.236970	-0.852630	86.544834
8.550000	-0.839814	82.722181	-23.933637	-163.134767	-23.933637	-163.134767	-0.839906	82.659305
8.600000	-0.828715	78.842537	-25.718639	-161.231072	-25.718639	-161.231072	-0.828817	78.777139
8.650000	-0.819258	74.966531	-27.775861	-156.196357	-27.775861	-156.196357	-0.819369	74.898628
8.700000	-0.811448	71.094371	-29.998452	-145.609764	-29.998452	-145.609764	-0.811571	71.023983
8.750000	-0.805292	67.226174	-31.780599	-126.586189	-31.780599	-126.586189	-0.805426	67.153323
8.800000	-0.800851	63.362078	-31.817848	-102.052130	-31.817848	-102.052130	-0.800998	63.286788
8.850000	-0.798075	59.501813	-30.171956	-82.893834	-30.171956	-82.893834	-0.798235	59.424108
8.900000	-0.796970	55.645093	-28.060844	-72.154942	-28.060844	-72.154942	-0.797143	55.565001
8.950000	-0.797541	51.791462	-26.106724	-67.032094	-26.106724	-67.032094	-0.797727	51.709008
9.000000	-0.799799	47.940256	-24.423982	-65.076249	-24.423982	-65.076249	-0.799996	47.855468
9.050000	-0.803755	44.090573	-22.987603	-64.937182	-22.987603	-64.937182	-0.803961	44.003480
9.100000	-0.809469	40.241197	-21.752920	-65.919137	-21.752920	-65.919137	-0.809681	40.151828
9.150000	-0.816936	36.390512	-20.680977	-67.602881	-20.680977	-67.602881	-0.817152	36.298897
9.200000	-0.826176	32.536526	-19.741319	-69.757540	-19.741319	-69.757540	-0.826391	32.442698
9.250000	-0.837236	28.676725	-18.911292	-72.244906	-18.911292	-72.244906	-0.837445	28.580720
9.300000	-0.850190	24.807931	-18.174177	-74.974620	-18.174177	-74.974620	-0.850387	24.709794
9.350000	-0.865145	20.926116	-17.517767	-77.884711	-17.517767	-77.884711	-0.865322	20.825905
9.400000	-0.882303	17.025716	-16.933965	-80.931953	-16.933965	-80.931953	-0.882452	16.923512
9.450000	-0.901936	13.099699	-16.417365	-84.079586	-16.417365	-84.079586	-0.902043	12.995618
9.500000	-0.924419	9.139517	-15.964763	-87.294141	-15.964763	-87.294141	-0.924469	9.033721
9.550000	-0.950426	5.133402	-15.576359	-90.542274	-15.576359	-90.542274	-0.950395	5.026128
9.600000	-0.981082	1.065501	-15.255718	-93.780737	-15.255718	-93.780737	-0.980933	0.957081
9.650000	-1.018324	-3.085788	-15.010571	-96.943107	-15.010571	-96.943107	-1.017998	-3.194900
9.700000	-1.065872	-7.352864	-14.855941	-99.908258	-14.855941	-99.908258	-1.065266	-7.462073
9.750000	-1.130217	-11.775297	-14.810280	-102.452859	-14.810280	-102.452859	-1.129159	-11.883972
9.800000	-1.224315	-16.406110	-14.896121	-104.117041	-14.896121	-104.117041	-1.222525	-16.513918
9.850000	-1.375409	-21.298369	-15.110085	-103.900346	-15.110085	-103.900346	-1.372499	-21.406324
9.900000	-1.632222	-26.410995	-15.290266	-100.161805	-15.290266	-100.161805	-1.628020	-26.523257
9.950000	-2.082251	-31.335952	-14.789073	-91.837934	-14.789073	-91.837934	-2.078130	-31.458442
10.000000	-2.758075	-34.692433	-12.863821	-84.996436	-12.863821	-84.996436	-2.757792	-34.804716
