! freq	dB(S11)	phase(S11)	dB(S12)	phase(S12)	
!     	dB(S21)	phase(S21)	dB(S22)	phase(S22)	
!S-par simulation data
#  GHz  S  DB  R 50
0.000000	-0.000000	-0.000000	-369.547776	180.000000	-369.547776	180.000000	-0.000000	-0.000000
0.050000	-0.000022	-0.769696	-110.887029	42.608272	-110.887029	42.608272	-0.000024	-0.769753
0.100000	-0.000090	-1.539419	-107.420631	59.418671	-107.420631	59.418671	-0.000096	-1.539528
0.150000	-0.000208	-2.309197	-104.647531	67.293263	-104.647531	67.293263	-0.000222	-2.309346
0.200000	-0.000382	-3.079038	-102.507267	71.593285	-102.507267	71.593285	-0.000404	-3.079212
0.250000	-0.000621	-3.848950	-100.812393	74.114310	-100.812393	74.114310	-0.000653	-3.849128
0.300000	-0.000945	-4.618921	-99.444973	75.639874	-99.444973	75.639874	-0.000989	-4.619077
0.350000	-0.001355	-5.388904	-98.316405	76.705898	-98.316405	76.705898	-0.001409	-5.389017
0.400000	-0.001879	-6.158833	-97.383968	77.450919	-97.383968	77.450919	-0.001942	-6.158876
0.450000	-0.002522	-6.928607	-96.606958	78.041030	-96.606958	78.041030	-0.002590	-6.928562
0.500000	-0.003302	-7.698083	-95.964402	78.558759	-95.964402	78.558759	-0.003370	-7.697938
0.550000	-0.004225	-8.467090	-95.438900	79.076248	-95.438900	79.076248	-0.004290	-8.466842
0.600000	-0.005294	-9.235427	-95.018426	79.653707	-95.018426	79.653707	-0.005350	-9.235084
0.650000	-0.006503	-10.002886	-94.694328	80.348473	-94.694328	80.348473	-0.006545	-10.002468
0.700000	-0.007836	-10.769265	-94.460313	81.220505	-94.460313	81.220505	-0.007863	-10.768800
0.750000	-0.009273	-11.534391	-94.311618	82.337192	-94.311618	82.337192	-0.009282	-11.533913
0.800000	-0.010784	-12.298139	-94.244214	83.778177	-94.244214	83.778177	-0.010775	-12.297684
0.850000	-0.012338	-13.060444	-94.253815	85.640509	-94.253815	85.640509	-0.012314	-13.060040
0.900000	-0.013904	-13.821298	-94.334473	88.043955	-94.334473	88.043955	-0.013868	-13.820968
0.950000	-0.015453	-14.580749	-94.476410	91.135266	-94.476410	91.135266	-0.015410	-14.580504
1.000000	-0.016964	-15.338882	-94.662691	95.088097	-94.662691	95.088097	-0.016917	-15.338727
1.050000	-0.018420	-16.095808	-94.864469	100.091304	-94.864469	100.091304	-0.018373	-16.095737
1.100000	-0.019812	-16.851642	-95.035443	106.313004	-95.035443	106.313004	-0.019767	-16.851645
1.150000	-0.021137	-17.606496	-95.108548	113.825744	-95.108548	113.825744	-0.021096	-17.606559
1.200000	-0.022395	-18.360467	-95.001727	122.494234	-95.001727	122.494234	-0.022360	-18.360577
1.250000	-0.023590	-19.113633	-94.640164	131.881083	-94.640164	131.881083	-0.023561	-19.113777
1.300000	-0.024726	-19.866024	-93.975234	141.257402	-93.975234	141.257402	-0.024703	-19.866189
1.350000	-0.025814	-20.617712	-93.050038	149.893517	-93.050038	149.893517	-0.025796	-20.617890
1.400000	-0.026860	-21.368720	-91.938074	157.348474	-91.938074	157.348474	-0.026846	-21.368904
1.450000	-0.027871	-22.119058	-90.720134	163.483444	-90.720134	163.483444	-0.027861	-22.119242
1.500000	-0.028854	-22.868724	-89.461428	168.368141	-89.461428	168.368141	-0.028848	-22.868904
1.550000	-0.029815	-23.617708	-88.205715	172.168298	-88.205715	172.168298	-0.029812	-23.617884
1.600000	-0.030760	-24.365997	-86.978740	175.070317	-86.978740	175.070317	-0.030758	-24.366168
1.650000	-0.031692	-25.113572	-85.793866	177.244879	-85.793866	177.244879	-0.031692	-25.113736
1.700000	-0.032614	-25.860141	-84.624544	178.684789	-84.624544	178.684789	-0.032615	-25.860300
1.750000	-0.033533	-26.606318	-83.551122	179.861206	-83.551122	179.861206	-0.033534	-26.606473
1.800000	-0.034451	-27.351527	-82.506902	-179.389635	-82.506902	-179.389635	-0.034452	-27.351678
1.850000	-0.035366	-28.096043	-81.518238	-178.945658	-81.518238	-178.945658	-0.035368	-28.096193
1.900000	-0.036285	-28.839675	-80.568880	-178.743423	-80.568880	-178.743423	-0.036286	-28.839823
1.950000	-0.037205	-29.582421	-79.657498	-178.782928	-79.657498	-178.782928	-0.037206	-29.582570
2.000000	-0.038130	-30.324385	-78.789740	-178.960583	-78.789740	-178.960583	-0.038131	-30.324536
2.050000	-0.039061	-31.065254	-77.946203	-179.331650	-77.946203	-179.331650	-0.039061	-31.065408
2.100000	-0.039997	-31.805465	-77.148094	-179.781268	-77.148094	-179.781268	-0.039996	-31.805623
2.150000	-0.040941	-32.544356	-76.363590	179.612011	-76.363590	179.612011	-0.040940	-32.544520
2.200000	-0.041889	-33.282731	-75.625116	178.962084	-75.625116	178.962084	-0.041888	-33.282900
2.250000	-0.042849	-34.019552	-74.892068	178.182544	-74.892068	178.182544	-0.042847	-34.019728
2.300000	-0.043811	-34.756014	-74.205026	177.381308	-74.205026	177.381308	-0.043809	-34.756198
2.350000	-0.044787	-35.490680	-73.517096	176.471594	-73.517096	176.471594	-0.044784	-35.490871
2.400000	-0.045764	-36.225159	-72.874789	175.553524	-72.874789	175.553524	-0.045761	-36.225359
2.450000	-0.046756	-36.957589	-72.226707	174.543521	-72.226707	174.543521	-0.046753	-36.957798
2.500000	-0.047749	-37.690020	-71.623642	173.533519	-71.623642	173.533519	-0.047746	-37.690238
2.550000	-0.048758	-38.420144	-71.011017	172.444774	-71.011017	172.444774	-0.048755	-38.420372
2.600000	-0.049767	-39.150268	-70.438768	171.356029	-70.438768	171.356029	-0.049764	-39.150505
2.650000	-0.050791	-39.878218	-69.861803	170.209712	-69.861803	170.209712	-0.050788	-39.878465
2.700000	-0.051817	-40.605970	-69.317370	169.058160	-69.317370	169.058160	-0.051814	-40.606227
2.750000	-0.052857	-41.331696	-68.772169	167.864313	-68.772169	167.864313	-0.052854	-41.331962
2.800000	-0.053899	-42.057016	-68.252990	166.662007	-68.252990	166.662007	-0.053897	-42.057292
2.850000	-0.054954	-42.780471	-67.736278	165.428612	-67.736278	165.428612	-0.054952	-42.780758
2.900000	-0.056013	-43.503306	-67.240150	164.184853	-67.240150	164.184853	-0.056011	-43.503602
2.950000	-0.057083	-44.224449	-66.749148	162.918330	-66.749148	162.918330	-0.057081	-44.224755
3.000000	-0.058159	-44.944748	-66.274162	161.640424	-66.274162	161.640424	-0.058157	-44.945064
3.050000	-0.059244	-45.663542	-65.806490	160.346002	-65.806490	160.346002	-0.059242	-45.663867
3.100000	-0.060336	-46.381261	-65.350981	159.039780	-65.350981	159.039780	-0.060335	-46.381596
3.150000	-0.061437	-47.097670	-64.904583	157.721760	-64.904583	157.721760	-0.061436	-47.098014
3.200000	-0.062546	-47.812768	-64.467086	156.391940	-64.467086	156.391940	-0.062545	-47.813122
3.250000	-0.063662	-48.526760	-64.040175	155.053898	-64.040175	155.053898	-0.063662	-48.527123
3.300000	-0.064789	-49.239203	-63.619395	153.704345	-63.619395	153.704345	-0.064789	-49.239575
3.350000	-0.065922	-49.950749	-63.210405	152.349279	-63.210405	152.349279	-0.065922	-49.951130
3.400000	-0.067067	-50.660503	-62.805189	150.983189	-62.805189	150.983189	-0.067067	-50.660893
3.450000	-0.068216	-51.369578	-62.412739	149.613632	-62.412739	149.613632	-0.068217	-51.369977
3.500000	-0.069380	-52.076616	-62.022053	148.233676	-62.022053	148.233676	-0.069381	-52.077023
3.550000	-0.070547	-52.783196	-61.644919	146.851784	-61.644919	146.851784	-0.070549	-52.783612
3.600000	-0.071731	-53.487492	-61.267833	145.460210	-61.267833	145.460210	-0.071733	-53.487917
3.650000	-0.072916	-54.191557	-60.904925	144.067825	-60.904925	144.067825	-0.072919	-54.191991
3.700000	-0.074121	-54.893090	-60.540597	142.666534	-60.540597	142.666534	-0.074124	-54.893532
3.750000	-0.075326	-55.594622	-60.190937	141.265242	-60.190937	141.265242	-0.075329	-55.595072
3.800000	-0.076554	-56.293372	-59.838602	139.855850	-59.838602	139.855850	-0.076557	-56.293832
3.850000	-0.077782	-56.992123	-59.500004	138.446458	-59.500004	138.446458	-0.077785	-56.992591
3.900000	-0.079031	-57.688309	-59.160272	137.030905	-59.160272	137.030905	-0.079035	-57.688786
3.950000	-0.080283	-58.384263	-58.832119	135.614792	-58.832119	135.614792	-0.080286	-58.384748
4.000000	-0.081556	-59.077875	-58.504173	134.194063	-58.504173	134.194063	-0.081560	-59.078369
4.050000	-0.082833	-59.771018	-58.185898	132.772410	-58.185898	132.772410	-0.082837	-59.771522
4.100000	-0.084131	-60.462048	-57.868999	131.347360	-57.868999	131.347360	-0.084135	-60.462560
4.150000	-0.085436	-61.152372	-57.560081	129.921177	-57.560081	129.921177	-0.085440	-61.152894
4.200000	-0.086761	-61.840813	-57.253555	128.492551	-57.253555	128.492551	-0.086765	-61.841343
4.250000	-0.088095	-62.528312	-56.953511	127.062704	-56.953511	127.062704	-0.088099	-62.528851
4.300000	-0.089448	-63.214159	-56.656746	125.631152	-56.656746	125.631152	-0.089452	-63.214709
4.350000	-0.090814	-63.898827	-56.365130	124.198382	-56.365130	124.198382	-0.090818	-63.899387
4.400000	-0.092197	-64.582080	-56.077564	122.764468	-56.077564	122.764468	-0.092201	-64.582649
4.450000	-0.093597	-65.263917	-55.793963	121.329409	-55.793963	121.329409	-0.093600	-65.264496
4.500000	-0.095011	-65.944574	-55.515082	119.893623	-55.515082	119.893623	-0.095014	-65.945163
4.550000	-0.096446	-66.623580	-55.239113	118.456818	-55.239113	118.456818	-0.096450	-66.624180
4.600000	-0.097894	-67.301643	-54.968444	117.019585	-54.968444	117.019585	-0.097897	-67.302254
4.650000	-0.099368	-67.977822	-54.699751	115.581497	-54.699751	115.581497	-0.099371	-67.978444
4.700000	-0.100851	-68.653295	-54.436861	114.143186	-54.436861	114.143186	-0.100854	-68.653928
4.750000	-0.102365	-69.326653	-54.175114	112.704209	-54.175114	112.704209	-0.102367	-69.327298
4.800000	-0.103885	-69.999542	-53.919603	111.265140	-53.919603	111.265140	-0.103888	-70.000198
4.850000	-0.105441	-70.670087	-53.664492	109.825611	-53.664492	109.825611	-0.105444	-70.670756
4.900000	-0.107002	-71.340399	-53.415991	108.386061	-53.415991	108.386061	-0.107004	-71.341079
4.950000	-0.108602	-72.008142	-53.167233	106.946271	-53.167233	106.946271	-0.108604	-72.008836
5.000000	-0.110204	-72.675886	-52.925401	105.506480	-52.925401	105.506480	-0.110205	-72.676592
5.050000	-0.111852	-73.340841	-52.682729	104.066676	-52.682729	104.066676	-0.111853	-73.341561
5.100000	-0.113500	-74.005797	-52.446653	102.626872	-52.446653	102.626872	-0.113501	-74.006530
5.150000	-0.115194	-74.668212	-52.210418	101.187255	-52.210418	101.187255	-0.115195	-74.668959
5.200000	-0.116892	-75.330396	-51.979872	99.747654	-51.979872	99.747654	-0.116892	-75.331157
5.250000	-0.118632	-75.990285	-51.749779	98.308383	-51.749779	98.308383	-0.118633	-75.991062
5.300000	-0.120382	-76.649716	-51.524552	96.869178	-51.524552	96.869178	-0.120383	-76.650507
5.350000	-0.122172	-77.307098	-51.300328	95.430400	-51.300328	95.430400	-0.122172	-77.307904
5.400000	-0.123976	-77.963797	-51.080224	93.991764	-51.080224	93.991764	-0.123976	-77.964618
5.450000	-0.125816	-78.618691	-50.861615	92.553614	-50.861615	92.553614	-0.125816	-78.619528
5.500000	-0.127676	-79.272682	-50.646451	91.115708	-50.646451	91.115708	-0.127676	-79.273535
5.550000	-0.129569	-79.925109	-50.433222	89.678318	-50.433222	89.678318	-0.129569	-79.925979
5.600000	-0.131487	-80.576418	-50.222827	88.241295	-50.222827	88.241295	-0.131487	-80.577305
5.650000	-0.133435	-81.226402	-50.014760	86.804792	-50.014760	86.804792	-0.133435	-81.227306
5.700000	-0.135413	-81.875061	-49.808975	85.368807	-49.808975	85.368807	-0.135413	-81.875982
5.750000	-0.137417	-82.522628	-49.605866	83.933319	-49.605866	83.933319	-0.137417	-82.523567
5.800000	-0.139457	-83.168667	-49.404542	82.498526	-49.404542	82.498526	-0.139457	-83.169624
5.850000	-0.141518	-83.813845	-49.206200	81.064186	-49.206200	81.064186	-0.141518	-83.814821
5.900000	-0.143622	-84.457300	-49.009198	79.630749	-49.009198	79.630749	-0.143622	-84.458295
5.950000	-0.145743	-85.100120	-48.815446	78.197694	-48.815446	78.197694	-0.145743	-85.101133
6.000000	-0.147912	-85.741030	-48.622634	76.765787	-48.622634	76.765787	-0.147913	-85.742064
6.050000	-0.150093	-86.381524	-48.433304	75.334166	-48.433304	75.334166	-0.150094	-86.382577
6.100000	-0.152330	-87.019932	-48.244558	73.903975	-48.244558	73.903975	-0.152331	-87.021005
6.150000	-0.154573	-87.658134	-48.059493	72.473945	-48.059493	72.473945	-0.154574	-87.659229
6.200000	-0.156879	-88.294085	-47.874694	71.045676	-47.874694	71.045676	-0.156880	-88.295200
6.250000	-0.159185	-88.930035	-47.693746	69.617406	-47.693746	69.617406	-0.159186	-88.931172
6.300000	-0.161560	-89.563577	-47.512781	68.191280	-47.512781	68.191280	-0.161562	-89.564736
6.350000	-0.163936	-90.197119	-47.335510	66.765154	-47.335510	66.765154	-0.163938	-90.198300
6.400000	-0.166377	-90.828502	-47.158568	65.341214	-47.158568	65.341214	-0.166380	-90.829705
6.450000	-0.168825	-91.459688	-46.984872	63.917472	-46.984872	63.917472	-0.168828	-91.460915
6.500000	-0.171332	-92.088959	-46.811813	62.495937	-46.811813	62.495937	-0.171336	-92.090210
6.550000	-0.173853	-92.717847	-46.641592	61.074843	-46.641592	61.074843	-0.173856	-92.719122
6.600000	-0.176427	-93.345056	-46.472283	59.655947	-46.472283	59.655947	-0.176432	-93.346356
6.650000	-0.179021	-93.971707	-46.305439	58.237783	-46.305439	58.237783	-0.179026	-93.973032
6.700000	-0.181664	-94.596909	-46.139749	56.821774	-46.139749	56.821774	-0.181670	-94.598260
6.750000	-0.184332	-95.221387	-45.976184	55.406842	-45.976184	55.406842	-0.184338	-95.222765
6.800000	-0.187044	-95.844640	-45.813986	53.993983	-45.813986	53.993983	-0.187051	-95.846044
6.850000	-0.189788	-96.467016	-45.653601	52.582605	-45.653601	52.582605	-0.189795	-96.468449
6.900000	-0.192569	-97.088380	-45.494770	51.173172	-45.494770	51.173172	-0.192577	-97.089841
6.950000	-0.195389	-97.708730	-45.337463	49.765686	-45.337463	49.765686	-0.195397	-97.710221
7.000000	-0.198240	-98.328269	-45.181877	48.359968	-45.181877	48.359968	-0.198249	-98.329791
7.050000	-0.201136	-98.946674	-45.027545	46.956725	-45.027545	46.956725	-0.201146	-98.948227
7.100000	-0.204058	-99.564458	-44.875080	45.555019	-44.875080	45.555019	-0.204069	-99.566044
7.150000	-0.207032	-100.181003	-44.723617	44.156386	-44.723617	44.156386	-0.207043	-100.182622
7.200000	-0.210025	-100.797106	-44.574151	42.758997	-44.574151	42.758997	-0.210036	-100.798760
7.250000	-0.213076	-101.411884	-44.425445	41.365344	-44.425445	41.365344	-0.213088	-101.413574
7.300000	-0.216141	-102.026383	-44.278855	39.972585	-44.278855	39.972585	-0.216153	-102.028110
7.350000	-0.219270	-102.639492	-44.132789	38.584290	-44.132789	38.584290	-0.219283	-102.641258
7.400000	-0.222406	-103.252470	-43.988950	37.196473	-43.988950	37.196473	-0.222420	-103.254276
7.450000	-0.225614	-103.864016	-43.845402	35.813912	-43.845402	35.813912	-0.225628	-103.865865
7.500000	-0.228822	-104.475561	-43.704189	34.431351	-43.704189	34.431351	-0.228837	-104.477453
7.550000	-0.232109	-105.085656	-43.563030	33.054897	-43.563030	33.054897	-0.232124	-105.087595
7.600000	-0.235396	-105.695751	-43.424129	31.678442	-43.424129	31.678442	-0.235412	-105.697737
7.650000	-0.238755	-106.304627	-43.285407	30.307917	-43.285407	30.307917	-0.238772	-106.306664
7.700000	-0.242122	-106.913391	-43.148687	28.937930	-43.148687	28.937930	-0.242139	-106.915481
7.750000	-0.245555	-107.521155	-43.012260	27.573624	-43.012260	27.573624	-0.245572	-107.523301
7.800000	-0.249002	-108.128718	-42.877583	26.210453	-42.877583	26.210453	-0.249019	-108.130922
7.850000	-0.252508	-108.735484	-42.743302	24.852638	-42.743302	24.852638	-0.252525	-108.737750
7.900000	-0.256035	-109.341984	-42.610521	23.496609	-42.610521	23.496609	-0.256053	-109.344314
7.950000	-0.259616	-109.947872	-42.478236	22.145542	-42.478236	22.145542	-0.259634	-109.950272
8.000000	-0.263225	-110.553456	-42.347196	20.796956	-42.347196	20.796956	-0.263242	-110.555927
8.050000	-0.266881	-111.158596	-42.216753	19.452868	-42.216753	19.452868	-0.266898	-111.161145
8.100000	-0.270571	-111.763421	-42.087290	18.111994	-42.087290	18.111994	-0.270588	-111.766050
8.150000	-0.274303	-112.367950	-41.958530	16.775092	-41.958530	16.775092	-0.274320	-112.370665
8.200000	-0.278076	-112.972185	-41.830471	15.442162	-41.830471	15.442162	-0.278094	-112.974989
8.250000	-0.281885	-113.576248	-41.703232	14.112622	-41.703232	14.112622	-0.281903	-113.579148
8.300000	-0.285743	-114.180073	-41.576394	12.787825	-41.576394	12.787825	-0.285761	-114.183075
8.350000	-0.289631	-114.783825	-41.450509	11.465788	-41.450509	11.465788	-0.289648	-114.786934
8.400000	-0.293575	-115.387433	-41.324700	10.149266	-41.324700	10.149266	-0.293592	-115.390657
8.450000	-0.297543	-115.991038	-41.199997	8.834835	-41.199997	8.834835	-0.297559	-115.994382
8.500000	-0.301576	-116.594637	-41.075017	7.526676	-41.075017	7.526676	-0.301593	-116.598111
8.550000	-0.305626	-117.198271	-40.951321	6.219915	-40.951321	6.219915	-0.305642	-117.201879
8.600000	-0.309751	-117.802082	-40.826957	4.920146	-40.826957	4.920146	-0.309767	-117.805838
8.650000	-0.313885	-118.405931	-40.704088	3.621072	-40.704088	3.621072	-0.313901	-118.409837
8.700000	-0.318105	-119.010192	-40.580118	2.329654	-40.580118	2.329654	-0.318121	-119.014267
8.750000	-0.322327	-119.614454	-40.457892	1.038236	-40.457892	1.038236	-0.322343	-119.618697
8.800000	-0.326647	-120.219422	-40.334083	-0.244939	-40.334083	-0.244939	-0.326663	-120.223855
8.850000	-0.330968	-120.824390	-40.212014	-1.528114	-40.212014	-1.528114	-0.330985	-120.829014
8.900000	-0.335384	-121.430257	-40.088419	-2.803903	-40.088419	-2.803903	-0.335401	-121.435095
8.950000	-0.339811	-122.036205	-39.966271	-4.079021	-39.966271	-4.079021	-0.339828	-122.041260
9.000000	-0.344329	-122.643217	-39.842679	-5.347650	-39.842679	-5.347650	-0.344347	-122.648513
9.050000	-0.348867	-123.250440	-39.720203	-6.614982	-39.720203	-6.614982	-0.348887	-123.255982
9.100000	-0.353493	-123.858859	-39.596397	-7.876743	-39.596397	-7.876743	-0.353515	-123.864671
9.150000	-0.358150	-124.467675	-39.473334	-9.136648	-39.473334	-9.136648	-0.358174	-124.473767
9.200000	-0.362893	-125.077780	-39.349090	-10.391909	-39.349090	-10.391909	-0.362919	-125.084176
9.250000	-0.367679	-125.688530	-39.225168	-11.644846	-39.225168	-11.644846	-0.367708	-125.695243
9.300000	-0.372546	-126.300623	-39.100257	-12.894051	-39.100257	-12.894051	-0.372579	-126.307676
9.350000	-0.377472	-126.913673	-38.975194	-14.140588	-38.975194	-14.140588	-0.377509	-126.921086
9.400000	-0.382474	-127.528073	-38.849380	-15.384266	-38.849380	-15.384266	-0.382517	-127.535868
9.450000	-0.387554	-128.143820	-38.722875	-16.625086	-38.722875	-16.625086	-0.387603	-128.152023
9.500000	-0.392704	-128.760869	-38.595917	-17.863861	-38.595917	-17.863861	-0.392761	-128.769501
9.550000	-0.397953	-129.379740	-38.467657	-19.099775	-38.467657	-19.099775	-0.398018	-129.388832
9.600000	-0.403266	-129.999805	-38.339304	-20.334373	-38.339304	-20.334373	-0.403341	-130.009378
9.650000	-0.408703	-130.622259	-38.208960	-21.566336	-38.208960	-21.566336	-0.408790	-130.632354
9.700000	-0.414195	-131.245734	-38.078956	-22.797589	-38.078956	-22.797589	-0.414294	-131.256366
9.750000	-0.419844	-131.872269	-37.946179	-24.026714	-37.946179	-24.026714	-0.419958	-131.883490
9.800000	-0.425534	-132.499573	-37.814258	-25.255581	-37.814258	-25.255581	-0.425664	-132.511397
9.850000	-0.431420	-133.130725	-37.678682	-26.483158	-37.678682	-26.483158	-0.431570	-133.143215
9.900000	-0.437332	-133.762311	-37.544570	-27.710731	-37.544570	-27.710731	-0.437502	-133.775473
9.950000	-0.443486	-134.398660	-37.405804	-28.938252	-37.405804	-28.938252	-0.443682	-134.412573
10.000000	-0.449646	-135.035010	-37.269220	-30.165773	-37.269220	-30.165773	-0.449867	-135.049674
