! freq	dB(S11)	phase(S11)	dB(S12)	phase(S12)	
!     	dB(S21)	phase(S21)	dB(S22)	phase(S22)	
!S-par simulation data
#  GHz  S  DB  R 50
0.000000	-81.926386	0.000000	-0.000696	0.000000	-0.000696	0.000000	-81.926386	0.000000
0.050000	-43.408692	-90.786031	-0.006454	-3.036508	-0.006454	-3.036508	-43.395919	-89.465807
0.100000	-37.535831	-95.661775	-0.012977	-6.026098	-0.012977	-6.026098	-37.514384	-93.253251
0.150000	-34.068728	-99.870898	-0.018179	-9.006425	-0.018179	-9.006425	-34.043921	-96.275102
0.200000	-31.613251	-103.824225	-0.023283	-11.984046	-0.023283	-11.984046	-31.587310	-99.025353
0.250000	-29.720332	-107.660127	-0.028647	-14.958878	-0.028647	-14.958878	-29.694060	-101.650526
0.300000	-28.187905	-111.430580	-0.034296	-17.930671	-0.034296	-17.930671	-28.161676	-104.202698
0.350000	-26.906577	-115.162139	-0.040175	-20.899679	-0.040175	-20.899679	-26.880609	-106.707329
0.400000	-25.810508	-118.868737	-0.046235	-23.866269	-0.046235	-23.866269	-25.784969	-109.176871
0.450000	-24.857905	-122.558516	-0.052450	-26.830703	-0.052450	-26.830703	-24.832956	-111.617274
0.500000	-24.021325	-126.237471	-0.058807	-29.793134	-0.058807	-29.793134	-23.997143	-114.031130
0.550000	-23.278537	-129.911179	-0.065280	-32.753886	-0.065280	-32.753886	-23.255269	-116.422500
0.600000	-22.614434	-133.583212	-0.071857	-35.713078	-0.071857	-35.713078	-22.592216	-118.792409
0.650000	-22.018592	-137.256857	-0.078525	-38.670736	-0.078525	-38.670736	-21.997558	-121.140304
0.700000	-21.482168	-140.935233	-0.085263	-41.626947	-0.085263	-41.626947	-21.462436	-123.466116
0.750000	-20.997170	-144.620663	-0.092047	-44.581852	-0.092047	-44.581852	-20.978829	-125.770432
0.800000	-20.557993	-148.315403	-0.098852	-47.535532	-0.098852	-47.535532	-20.541119	-128.052660
0.850000	-20.161705	-152.022720	-0.105648	-50.488002	-0.105648	-50.488002	-20.146380	-130.310214
0.900000	-19.803268	-155.744326	-0.112403	-53.439459	-0.112403	-53.439459	-19.789552	-132.543454
0.950000	-19.479193	-159.482166	-0.119088	-56.390054	-0.119088	-56.390054	-19.467139	-134.751727
1.000000	-19.187394	-163.238977	-0.125668	-59.339920	-0.125668	-59.339920	-19.177051	-136.933155
1.050000	-18.925905	-167.017551	-0.132107	-62.289234	-0.132107	-62.289234	-18.917323	-139.085928
1.100000	-18.692119	-170.819699	-0.138377	-65.238202	-0.138377	-65.238202	-18.685339	-141.209426
1.150000	-18.485118	-174.649030	-0.144439	-68.187023	-0.144439	-68.187023	-18.480183	-143.300789
1.200000	-18.303125	-178.508029	-0.150267	-71.135915	-0.150267	-71.135915	-18.300076	-145.358510
1.250000	-18.144434	177.601001	-0.155843	-74.085089	-0.155843	-74.085089	-18.143311	-147.381190
1.300000	-18.008317	173.674253	-0.161141	-77.034774	-0.161141	-77.034774	-18.009163	-149.365744
1.350000	-17.894113	169.707536	-0.166142	-79.985219	-0.166142	-79.985219	-17.896976	-151.308714
1.400000	-17.800178	165.698716	-0.170850	-82.936641	-0.170850	-82.936641	-17.805106	-153.208720
1.450000	-17.725765	161.643908	-0.175262	-85.889294	-0.175262	-85.889294	-17.732809	-155.062507
1.500000	-17.671064	157.536278	-0.179367	-88.843543	-0.179367	-88.843543	-17.680284	-156.863880
1.550000	-17.634364	153.374073	-0.183192	-91.799614	-0.183192	-91.799614	-17.645816	-158.611642
1.600000	-17.615021	149.152674	-0.186748	-94.757817	-0.186748	-94.757817	-17.628760	-160.301684
1.650000	-17.613132	144.864057	-0.190039	-97.718600	-0.190039	-97.718600	-17.629213	-161.926558
1.700000	-17.627595	140.504226	-0.193091	-100.682251	-0.193091	-100.682251	-17.646060	-163.482678
1.750000	-17.657509	136.068544	-0.195924	-103.649055	-0.195924	-103.649055	-17.678387	-164.965765
1.800000	-17.702433	131.549642	-0.198556	-106.619384	-0.198556	-106.619384	-17.725733	-166.368854
1.850000	-17.761642	126.940774	-0.201008	-109.593551	-0.201008	-109.593551	-17.787343	-167.685524
1.900000	-17.834468	122.233658	-0.203301	-112.571898	-0.203301	-112.571898	-17.862513	-168.907826
1.950000	-17.919980	117.420512	-0.205463	-115.554702	-0.205463	-115.554702	-17.950259	-170.028242
2.000000	-18.017017	112.494541	-0.207521	-118.542158	-0.207521	-118.542158	-18.049365	-171.040155
2.050000	-18.124407	107.447663	-0.209506	-121.534481	-0.209506	-121.534481	-18.158586	-171.935688
2.100000	-18.240799	102.271695	-0.211448	-124.531857	-0.211448	-124.531857	-18.276488	-172.706855
2.150000	-18.364628	96.958533	-0.213378	-127.534446	-0.213378	-127.534446	-18.401407	-173.345760
2.200000	-18.494085	91.500392	-0.215331	-130.542378	-0.215331	-130.542378	-18.531421	-173.844868
2.250000	-18.627088	85.890134	-0.217341	-133.555756	-0.217341	-133.555756	-18.664324	-174.197349
2.300000	-18.761266	80.121664	-0.219442	-136.574656	-0.219442	-136.574656	-18.797609	-174.397520
2.350000	-18.893944	74.190423	-0.221669	-139.599128	-0.221669	-139.599128	-18.928457	-174.441367
2.400000	-19.022155	68.093958	-0.224055	-142.629195	-0.224055	-142.629195	-19.053758	-174.327150
2.450000	-19.142672	61.832537	-0.226633	-145.664855	-0.226633	-145.664855	-19.170146	-174.056056
2.500000	-19.252067	55.409795	-0.229436	-148.706081	-0.229436	-148.706081	-19.274078	-173.632849
2.550000	-19.346393	48.830253	-0.232498	-151.752945	-0.232498	-151.752945	-19.361491	-173.063657
2.600000	-19.422433	42.109750	-0.235844	-154.805255	-0.235844	-154.805255	-19.429155	-172.365642
2.650000	-19.476902	35.265241	-0.239497	-157.862921	-0.239497	-157.862921	-19.473807	-171.557372
2.700000	-19.506904	28.318179	-0.243480	-160.925837	-0.243480	-160.925837	-19.492637	-170.661890
2.750000	-19.510113	21.293980	-0.247812	-163.993884	-0.247812	-163.993884	-19.483475	-169.706054
2.800000	-19.484938	14.221106	-0.252509	-167.066929	-0.252509	-167.066929	-19.444948	-168.719477
2.850000	-19.430636	7.129805	-0.257584	-170.144832	-0.257584	-170.144832	-19.376576	-167.733154
2.900000	-19.347363	0.050655	-0.263045	-173.227445	-0.263045	-173.227445	-19.278809	-166.777932
2.950000	-19.236153	-6.986943	-0.268897	-176.314616	-0.268897	-176.314616	-19.152973	-165.882985
3.000000	-19.098831	-13.956129	-0.275142	-179.406195	-0.275142	-179.406195	-19.001168	-165.074493
3.050000	-18.937863	-20.833664	-0.281778	177.497968	-0.281778	177.497968	-18.826093	-164.374645
3.100000	-18.756180	-27.600641	-0.288797	174.398018	-0.288797	174.398018	-18.630866	-163.801056
3.150000	-18.556786	-34.241319	-0.296194	171.294050	-0.296194	171.294050	-18.418622	-163.368192
3.200000	-18.343081	-40.745836	-0.303956	168.186194	-0.303956	168.186194	-18.192841	-163.084452
3.250000	-18.118562	-47.110375	-0.312061	165.074606	-0.312061	165.074606	-17.957046	-162.952184
3.300000	-17.886314	-53.333411	-0.320491	161.959381	-0.320491	161.959381	-17.714317	-162.971752
3.350000	-17.649174	-59.416450	-0.329223	158.840598	-0.329223	158.840598	-17.467457	-163.140689
3.400000	-17.409676	-65.363387	-0.338232	155.718318	-0.338232	155.718318	-17.218951	-163.454341
3.450000	-17.170040	-71.179913	-0.347492	152.592577	-0.347492	152.592577	-16.970958	-163.906466
3.500000	-16.932165	-76.872986	-0.356975	149.463390	-0.356975	149.463390	-16.725313	-164.489744
3.550000	-16.697645	-82.450388	-0.366650	146.330749	-0.366650	146.330749	-16.483548	-165.196208
3.600000	-16.467795	-87.920366	-0.376488	143.194620	-0.376488	143.194620	-16.246918	-166.017576
3.650000	-16.243672	-93.291354	-0.386456	140.054944	-0.386456	140.054944	-16.016425	-166.945515
3.700000	-16.026109	-98.571765	-0.396524	136.911636	-0.396524	136.911636	-15.792854	-167.971833
3.750000	-15.815741	-103.769836	-0.406661	133.764586	-0.406661	133.764586	-15.576798	-169.088612
3.800000	-15.613105	-108.892083	-0.416837	130.613569	-0.416837	130.613569	-15.368762	-170.289942
3.850000	-15.418467	-113.947878	-0.427020	127.458505	-0.427020	127.458505	-15.168980	-171.566765
3.900000	-15.232007	-118.944406	-0.437183	124.299207	-0.437183	124.299207	-14.977611	-172.912456
3.950000	-15.053801	-123.888437	-0.447301	121.135464	-0.447301	121.135464	-14.794715	-174.320866
4.000000	-14.883834	-128.786316	-0.457349	117.967045	-0.457349	117.967045	-14.620263	-175.786322
4.050000	-14.722012	-133.643968	-0.467305	114.793698	-0.467305	114.793698	-14.454158	-177.303622
4.100000	-14.568177	-138.466900	-0.477150	111.615150	-0.477150	111.615150	-14.296237	-178.868019
4.150000	-14.422113	-143.260217	-0.486869	108.431114	-0.486869	108.431114	-14.146290	179.524790
4.200000	-14.283557	-148.028628	-0.496448	105.241285	-0.496448	105.241285	-14.004059	177.878682
4.250000	-14.152203	-152.776458	-0.505878	102.045346	-0.505878	102.045346	-13.869251	176.197129
4.300000	-14.027708	-157.507658	-0.515151	98.842965	-0.515151	98.842965	-13.741539	174.483207
4.350000	-13.909696	-162.225811	-0.524265	95.633804	-0.524265	95.633804	-13.620569	172.739614
4.400000	-13.797812	-166.934069	-0.533219	92.417433	-0.533219	92.417433	-13.506012	170.968409
4.450000	-13.691616	-171.635383	-0.542015	89.193488	-0.542015	89.193488	-13.397461	169.171627
4.500000	-13.590607	-176.332347	-0.550665	85.961687	-0.550665	85.961687	-13.294444	167.351179
4.550000	-13.494314	178.972905	-0.559179	82.721672	-0.559179	82.721672	-13.196530	165.508344
4.600000	-13.402254	174.278596	-0.567570	79.473082	-0.567570	79.473082	-13.103272	163.644072
4.650000	-13.313927	169.583306	-0.575858	76.215559	-0.575858	76.215559	-13.014216	161.758995
4.700000	-13.228827	164.885977	-0.584063	72.948748	-0.584063	72.948748	-12.928900	159.853427
4.750000	-13.146441	160.185912	-0.592209	69.672296	-0.592209	69.672296	-12.846856	157.927369
4.800000	-13.066255	155.482781	-0.600323	66.385857	-0.600323	66.385857	-12.767614	155.980517
4.850000	-12.987752	150.776617	-0.608434	63.089091	-0.608434	63.089091	-12.690703	154.012265
4.900000	-12.910426	146.067818	-0.616573	59.781665	-0.616573	59.781665	-12.615656	152.021711
4.950000	-12.833774	141.357137	-0.624776	56.463253	-0.624776	56.463253	-12.542008	150.007663
5.000000	-12.757312	136.645676	-0.633077	53.133538	-0.633077	53.133538	-12.469306	147.968651
5.050000	-12.680538	131.934926	-0.641519	49.791949	-0.641519	49.791949	-12.397091	145.902309
5.100000	-12.603017	127.226680	-0.650140	46.438430	-0.650140	46.438430	-12.324926	143.807167
5.150000	-12.524330	122.523005	-0.658980	43.072686	-0.658980	43.072686	-12.252397	141.680976
5.200000	-12.444087	117.826229	-0.668082	39.694428	-0.668082	39.694428	-12.179110	139.521273
5.250000	-12.361932	113.138908	-0.677488	36.303373	-0.677488	36.303373	-12.104692	137.325401
5.300000	-12.277546	108.463788	-0.687245	32.899239	-0.687245	32.899239	-12.028796	135.090536
5.350000	-12.190648	103.803761	-0.697396	29.481750	-0.697396	29.481750	-11.951101	132.813720
5.400000	-12.100997	99.161819	-0.707989	26.050626	-0.707989	26.050626	-11.871312	130.491891
5.450000	-12.008391	94.541005	-0.719073	22.605590	-0.719073	22.605590	-11.789167	128.121922
5.500000	-11.912670	89.944362	-0.730700	19.146365	-0.730700	19.146365	-11.704431	125.700655
5.550000	-11.813712	85.374880	-0.742924	15.672684	-0.742924	15.672684	-11.616902	123.224945
5.600000	-11.711433	80.835449	-0.755805	12.184306	-0.755805	12.184306	-11.526406	120.691698
5.650000	-11.605731	76.329191	-0.769409	8.680872	-0.769409	8.680872	-11.432752	118.097223
5.700000	-11.496584	71.858724	-0.783792	5.162234	-0.783792	5.162234	-11.335819	115.438562
5.750000	-11.384055	67.425967	-0.798987	1.628417	-0.798987	1.628417	-11.235562	112.713695
5.800000	-11.268176	63.032916	-0.815023	-1.920790	-0.815023	-1.920790	-11.131917	109.920161
5.850000	-11.149003	58.681245	-0.831934	-5.485705	-0.831934	-5.485705	-11.024841	107.055746
5.900000	-11.026606	54.372283	-0.849760	-9.066712	-0.849760	-9.066712	-10.914309	104.118523
5.950000	-10.901066	50.106989	-0.868557	-12.664205	-0.868557	-12.664205	-10.800313	101.106871
6.000000	-10.772473	45.885934	-0.888387	-16.278553	-0.888387	-16.278553	-10.682860	98.019508
6.050000	-10.640925	41.709285	-0.909315	-19.910100	-0.909315	-19.910100	-10.561967	94.855506
6.100000	-10.506521	37.576803	-0.931410	-23.559176	-0.931410	-23.559176	-10.437663	91.614309
6.150000	-10.369364	33.487833	-0.954741	-27.226106	-0.954741	-27.226106	-10.309984	88.295744
6.200000	-10.229556	29.441313	-0.979378	-30.911215	-0.979378	-30.911215	-10.178975	84.900030
6.250000	-10.087201	25.435776	-1.005396	-34.614828	-1.005396	-34.614828	-10.044685	81.427773
6.300000	-9.942299	21.470159	-1.032901	-38.337691	-1.032901	-38.337691	-9.907055	77.878363
6.350000	-9.795061	17.541304	-1.061944	-42.079728	-1.061944	-42.079728	-9.766267	74.254873
6.400000	-9.645598	13.646590	-1.092608	-45.841267	-1.092608	-45.841267	-9.622392	70.559080
6.450000	-9.494025	9.783056	-1.124978	-49.622628	-1.124978	-49.622628	-9.475516	66.793118
6.500000	-9.340461	5.947434	-1.159145	-53.424127	-1.159145	-53.424127	-9.325733	62.959452
6.550000	-9.185037	2.136175	-1.195201	-57.246066	-1.195201	-57.246066	-9.173149	59.060863
6.600000	-9.027894	-1.654523	-1.233241	-61.088740	-1.233241	-61.088740	-9.017888	55.100413
6.650000	-8.869185	-5.428679	-1.273364	-64.952428	-1.273364	-64.952428	-8.860089	51.081423
6.700000	-8.709151	-9.190624	-1.315634	-68.836999	-1.315634	-68.836999	-8.700003	47.008350
6.750000	-8.547600	-12.944211	-1.360345	-72.744659	-1.360345	-72.744659	-8.537339	42.880477
6.800000	-8.385325	-16.694648	-1.407294	-76.672494	-1.407294	-76.672494	-8.373038	38.708758
6.850000	-8.222076	-20.446299	-1.456841	-80.623237	-1.456841	-80.623237	-8.206734	34.491904
6.900000	-8.058301	-24.203595	-1.508960	-84.595799	-1.508960	-84.595799	-8.038949	30.236422
6.950000	-7.894240	-27.971145	-1.563757	-88.590346	-1.563757	-88.590346	-7.869934	25.946439
7.000000	-7.729956	-31.754330	-1.621478	-92.608329	-1.621478	-92.608329	-7.699709	21.624221
7.050000	-7.566060	-35.555666	-1.681938	-96.647271	-1.681938	-96.647271	-7.529042	17.277183
7.100000	-7.402346	-39.383607	-1.745682	-100.711246	-1.745682	-100.711246	-7.357557	12.905207
7.150000	-7.239573	-43.237595	-1.812307	-104.795977	-1.812307	-104.795977	-7.186270	8.516343
7.200000	-7.077633	-47.127364	-1.882369	-108.905575	-1.882369	-108.905575	-7.014911	4.111554
7.250000	-6.917056	-51.052512	-1.955598	-113.037061	-1.955598	-113.037061	-6.844208	-0.303623
7.300000	-6.757980	-55.020238	-2.032292	-117.192378	-2.032292	-117.192378	-6.674255	-4.726365
7.350000	-6.600681	-59.033798	-2.112483	-121.371251	-2.112483	-121.371251	-6.505401	-9.153166
7.400000	-6.445429	-63.095316	-2.196146	-125.572982	-2.196146	-125.572982	-6.338007	-13.580770
7.450000	-6.292383	-67.213691	-2.283631	-129.800126	-2.283631	-129.800126	-6.172182	-18.006137
7.500000	-6.141788	-71.384059	-2.374582	-134.049264	-2.374582	-134.049264	-6.008381	-22.427140
7.550000	-5.993801	-75.622807	-2.469673	-138.325969	-2.469673	-138.325969	-5.846614	-26.839948
7.600000	-5.848538	-79.920294	-2.568386	-142.625426	-2.568386	-142.625426	-5.687254	-31.244076
7.650000	-5.706161	-84.290186	-2.671236	-146.952060	-2.671236	-146.952060	-5.530388	-35.636048
7.700000	-5.566692	-88.729151	-2.778038	-151.303986	-2.778038	-151.303986	-5.376184	-40.015408
7.750000	-5.430196	-93.243265	-2.888995	-155.682926	-2.888995	-155.682926	-5.224753	-44.380311
7.800000	-5.296651	-97.833648	-3.004144	-160.088962	-3.004144	-160.088962	-5.076161	-48.730146
7.850000	-5.166063	-102.506838	-3.123723	-164.524217	-3.123723	-164.524217	-4.930482	-53.063479
7.900000	-5.038337	-107.263759	-3.247799	-168.988986	-3.247799	-168.988986	-4.787736	-57.380282
7.950000	-4.913368	-112.107883	-3.376553	-173.484623	-3.376553	-173.484623	-4.647931	-61.680303
8.000000	-4.790998	-117.041195	-3.510152	-178.012117	-3.510152	-178.012117	-4.511045	-65.963845
8.050000	-4.671035	-122.065321	-3.648785	177.427512	-3.648785	177.427512	-4.377033	-70.231520
8.100000	-4.553259	-127.181932	-3.792690	172.833070	-3.792690	172.833070	-4.245840	-74.484149
8.150000	-4.437418	-132.392260	-3.942135	168.203360	-3.942135	168.203360	-4.117402	-78.722837
8.200000	-4.323237	-137.697015	-4.097425	163.537216	-4.097425	163.537216	-3.991643	-82.948960
8.250000	-4.210422	-143.096306	-4.258901	158.833539	-4.258901	158.833539	-3.868489	-87.164142
8.300000	-4.098666	-148.589546	-4.426947	154.091338	-4.426947	154.091338	-3.747865	-91.370234
8.350000	-3.987654	-154.175802	-4.602001	149.309584	-4.602001	149.309584	-3.629705	-95.569272
8.400000	-3.877071	-159.853204	-4.784544	144.487444	-4.784544	144.487444	-3.513953	-99.763513
8.450000	-3.766637	-165.617617	-4.975037	139.624938	-4.975037	139.624938	-3.400555	-103.955410
8.500000	-3.656092	-171.464774	-5.174007	134.722017	-5.174007	134.722017	-3.289479	-108.147453
8.550000	-3.545217	-177.389332	-5.382008	129.778995	-5.382008	129.778995	-3.180710	-112.342204
8.600000	-3.433843	176.615156	-5.599613	124.796597	-5.599613	124.796597	-3.074255	-116.542257
8.650000	-3.321861	170.556247	-5.827403	119.776001	-5.827403	119.776001	-2.970139	-120.750198
8.700000	-3.209233	164.442575	-6.065962	114.718865	-6.065962	114.718865	-2.868409	-124.968563
8.750000	-3.095996	158.283793	-6.315859	109.627354	-6.315859	109.627354	-2.769132	-129.199795
8.800000	-2.982240	152.090154	-6.577697	104.503730	-6.577697	104.503730	-2.672415	-133.446463
8.850000	-2.868195	145.873723	-6.851910	99.351687	-6.851910	99.351687	-2.578341	-137.710515
8.900000	-2.754135	139.646537	-7.138945	94.174885	-7.138945	94.174885	-2.487024	-141.993879
8.950000	-2.640403	133.421078	-7.439182	88.977402	-7.439182	88.977402	-2.398586	-146.298242
9.000000	-2.527395	127.210078	-7.752923	83.763672	-7.752923	83.763672	-2.313153	-150.625031
9.050000	-2.415554	121.026309	-8.080385	78.538397	-8.080385	78.538397	-2.230851	-154.975381
9.100000	-2.305345	114.882376	-8.421691	73.306463	-8.421691	73.306463	-2.151797	-159.350134
9.150000	-2.197248	108.790520	-8.776867	68.072837	-8.776867	68.072837	-2.076100	-163.749820
9.200000	-2.091749	102.763155	-9.145816	62.842550	-9.145816	62.842550	-2.003877	-168.174908
9.250000	-1.989300	96.811144	-9.528352	57.620516	-9.528352	57.620516	-1.935186	-172.625192
9.300000	-1.890304	90.944256	-9.924225	52.411344	-9.924225	52.411344	-1.870053	-177.100179
9.350000	-1.795121	85.171603	-10.333102	47.219389	-10.333102	47.219389	-1.808491	178.400768
9.400000	-1.704056	79.501262	-10.754585	42.048679	-10.754585	42.048679	-1.750479	173.878527
9.450000	-1.617375	73.940975	-11.188152	36.903081	-11.188152	36.903081	-1.695985	169.334052
9.500000	-1.535246	68.496337	-11.633319	31.785865	-11.633319	31.785865	-1.644912	164.768699
9.550000	-1.457757	63.171330	-12.089644	26.699808	-12.089644	26.699808	-1.597123	160.184028
9.600000	-1.384959	57.969673	-12.556602	21.647565	-12.556602	21.647565	-1.552473	155.581562
9.650000	-1.316849	52.894107	-13.033660	16.631561	-13.033660	16.631561	-1.510796	150.962913
9.700000	-1.253412	47.947581	-13.520117	11.654399	-13.520117	11.654399	-1.471927	146.329645
9.750000	-1.194624	43.133333	-14.015040	6.719035	-14.015040	6.719035	-1.435701	141.683329
9.800000	-1.140247	38.448239	-14.518329	1.826624	-14.518329	1.826624	-1.401845	137.026089
9.850000	-1.090124	33.891831	-15.029426	-3.020610	-15.029426	-3.020610	-1.370151	132.359694
9.900000	-1.044077	29.463069	-15.547756	-7.820318	-15.547756	-7.820318	-1.340421	127.685929
9.950000	-1.001916	25.160417	-16.072710	-12.569981	-16.072710	-12.569981	-1.312468	123.006593
10.000000	-0.963442	20.981924	-16.603639	-17.266894	-16.603639	-17.266894	-1.286125	118.323504
