! freq	dB(S11)	phase(S11)	dB(S12)	phase(S12)	
!     	dB(S21)	phase(S21)	dB(S22)	phase(S22)	
!S-par simulation data
#  GHz  S  DB  R 50
0.000000	-81.383718	0.000000	-0.000741	0.000000	-0.000741	0.000000	-81.383718	0.000000
0.050000	-37.665278	-86.199891	-0.019519	-3.378314	-0.019519	-3.378314	-37.699451	-87.046779
0.100000	-31.731788	-92.498388	-0.027290	-6.717808	-0.027290	-6.717808	-31.776988	-94.216549
0.150000	-28.256949	-96.645833	-0.035646	-10.043863	-0.035646	-10.043863	-28.300674	-99.239296
0.200000	-25.802874	-100.229965	-0.044656	-13.364121	-0.044656	-13.364121	-25.844148	-103.698472
0.250000	-23.911317	-103.555818	-0.054606	-16.681070	-0.054606	-16.681070	-23.950826	-107.907628
0.300000	-22.378235	-106.731869	-0.065744	-19.995186	-0.065744	-19.995186	-22.416867	-111.983224
0.350000	-21.092301	-109.818314	-0.078026	-23.306760	-0.078026	-23.306760	-21.130592	-115.988344
0.400000	-19.987914	-112.839729	-0.091404	-26.615887	-0.091404	-26.615887	-20.026084	-119.949354
0.450000	-19.023313	-115.809356	-0.105841	-29.922623	-0.105841	-29.922623	-19.061393	-123.881622
0.500000	-18.170800	-118.734117	-0.121324	-33.226985	-0.121324	-33.226985	-18.208746	-127.795829
0.550000	-17.408149	-121.624009	-0.137678	-36.529389	-0.137678	-36.529389	-17.445927	-131.701529
0.600000	-16.722092	-124.478280	-0.154927	-39.829810	-0.154927	-39.829810	-16.759695	-135.604411
0.650000	-16.099767	-127.302013	-0.172926	-43.128653	-0.172926	-43.128653	-16.137230	-139.510064
0.700000	-15.533347	-130.093909	-0.191650	-46.426095	-0.191650	-46.426095	-15.570741	-143.423604
0.750000	-15.014791	-132.856264	-0.210984	-49.722558	-0.210984	-49.722558	-15.052206	-147.348751
0.800000	-14.538554	-135.588510	-0.230865	-53.018422	-0.230865	-53.018422	-14.576098	-151.289496
0.850000	-14.099795	-138.290390	-0.251218	-56.314161	-0.251218	-56.314161	-14.137586	-155.249417
0.900000	-13.694437	-140.961437	-0.271970	-59.610322	-0.271970	-59.610322	-13.732603	-159.231927
0.950000	-13.318999	-143.601044	-0.293054	-62.907526	-0.293054	-62.907526	-13.357672	-163.240336
1.000000	-12.970466	-146.208509	-0.314407	-66.206470	-0.314407	-66.206470	-13.009785	-167.277900
1.050000	-12.646195	-148.783078	-0.335971	-69.507926	-0.335971	-69.507926	-12.686306	-171.347850
1.100000	-12.343841	-151.323978	-0.357697	-72.812740	-0.357697	-72.812740	-12.384897	-175.453409
1.150000	-12.061296	-153.830439	-0.379546	-76.121830	-0.379546	-76.121830	-12.103460	-179.597807
1.200000	-11.796647	-156.301730	-0.401485	-79.436181	-0.401485	-79.436181	-11.840088	176.215726
1.250000	-11.548136	-158.737178	-0.423495	-82.756841	-0.423495	-82.756841	-11.593032	171.983969
1.300000	-11.314130	-161.136201	-0.445568	-86.084920	-0.445568	-86.084920	-11.360670	167.703724
1.350000	-11.093097	-163.498340	-0.467709	-89.421579	-0.467709	-89.421579	-11.141478	163.371844
1.400000	-10.883588	-165.823286	-0.489937	-92.768031	-0.489937	-92.768031	-10.934012	158.985265
1.450000	-10.684215	-168.110927	-0.512285	-96.125531	-0.512285	-96.125531	-10.736892	154.541046
1.500000	-10.493658	-170.361238	-0.534804	-99.495423	-0.534804	-99.495423	-10.548802	150.036166
1.550000	-10.310609	-172.574642	-0.557561	-102.879038	-0.557561	-102.879038	-10.368436	145.468081
1.600000	-10.133792	-174.752054	-0.580637	-106.277652	-0.580637	-106.277652	-10.194513	140.834833
1.650000	-9.961979	-176.894589	-0.604135	-109.692619	-0.604135	-109.692619	-10.025799	136.134526
1.700000	-9.793967	-179.003800	-0.628174	-113.125293	-0.628174	-113.125293	-9.861081	131.365690
1.750000	-9.628600	178.918086	-0.652886	-116.576887	-0.652886	-116.576887	-9.699183	126.527815
1.800000	-9.464740	176.868733	-0.678433	-120.048856	-0.678433	-120.048856	-9.538950	121.620023
1.850000	-9.301288	174.845014	-0.704992	-123.542516	-0.704992	-123.542516	-9.379254	116.642502
1.900000	-9.137136	172.843379	-0.732775	-127.059418	-0.732775	-127.059418	-9.218957	111.595401
1.950000	-8.971249	170.859279	-0.762008	-130.600847	-0.762008	-130.600847	-9.056983	106.480425
2.000000	-8.802743	168.887412	-0.792918	-134.167737	-0.792918	-134.167737	-8.892400	101.300784
2.050000	-8.630774	166.922079	-0.825766	-137.761209	-0.825766	-137.761209	-8.724315	96.059744
2.100000	-8.454600	164.956983	-0.860831	-141.382307	-0.860831	-141.382307	-8.551933	90.761370
2.150000	-8.273591	162.985285	-0.898412	-145.031985	-0.898412	-145.031985	-8.374570	85.410509
2.200000	-8.087247	160.999680	-0.938829	-148.711097	-0.938829	-148.711097	-8.191669	80.012733
2.250000	-7.895206	158.992503	-0.982418	-152.420386	-0.982418	-152.420386	-8.002816	74.574267
2.300000	-7.697256	156.955847	-1.029533	-156.160470	-1.029533	-156.160470	-7.807746	69.101890
2.350000	-7.493339	154.881698	-1.080542	-159.931838	-1.080542	-159.931838	-7.606356	63.602821
2.400000	-7.283554	152.762083	-1.135831	-163.734832	-1.135831	-163.734832	-7.398705	58.084588
2.450000	-7.068154	150.589213	-1.195794	-167.569647	-1.195794	-167.569647	-7.185013	52.554890
2.500000	-6.847536	148.355630	-1.260841	-171.436319	-1.260841	-171.436319	-6.965653	47.021460
2.550000	-6.622017	146.052717	-1.331502	-175.335406	-1.331502	-175.335406	-6.740917	41.492188
2.600000	-6.392494	143.675415	-1.408098	-179.265913	-1.408098	-179.265913	-6.511700	35.974551
2.650000	-6.159729	141.218024	-1.491056	176.772627	-1.491056	176.772627	-6.278765	30.475608
2.700000	-5.924566	138.675579	-1.580802	172.780842	-1.580802	172.780842	-6.042959	25.002008
2.750000	-5.687906	136.043884	-1.677763	168.759517	-1.677763	168.759517	-5.805193	19.559924
2.800000	-5.450685	133.319514	-1.782361	164.709580	-1.782361	164.709580	-5.566417	14.155022
2.850000	-5.213857	130.499793	-1.895014	160.632094	-1.895014	160.632094	-5.327595	8.792436
2.900000	-4.978365	127.582740	-2.016133	156.528233	-2.016133	156.528233	-5.089688	3.476771
2.950000	-4.745133	124.566996	-2.146120	152.399268	-2.146120	152.399268	-4.853629	-1.787891
3.000000	-4.515043	121.451723	-2.285367	148.246533	-2.285367	148.246533	-4.620310	-6.997965
3.050000	-4.288924	118.236494	-2.434254	144.071395	-2.434254	144.071395	-4.390565	-12.150342
3.100000	-4.067542	114.921156	-2.593153	139.875217	-2.593153	139.875217	-4.165157	-17.242354
3.150000	-3.851600	111.504600	-2.762503	135.659112	-2.762503	135.659112	-3.944777	-22.271046
3.200000	-3.641745	107.986769	-2.942652	131.424321	-2.942652	131.424321	-3.730054	-27.234498
3.250000	-3.438512	104.368478	-3.133868	127.172080	-3.133868	127.172080	-3.521504	-32.131906
3.300000	-3.242356	100.649054	-3.336496	122.903157	-3.336496	122.903157	-3.319545	-36.962119
3.350000	-3.053653	96.827220	-3.550892	118.617967	-3.550892	118.617967	-3.124507	-41.724305
3.400000	-2.872711	92.900882	-3.777432	114.316467	-3.777432	114.316467	-2.936630	-46.417938
3.450000	-2.699767	88.866879	-4.016529	109.998013	-4.016529	109.998013	-2.756071	-51.042788
3.500000	-2.535006	84.720712	-4.268658	105.661207	-4.268658	105.661207	-2.582908	-55.598913
3.550000	-2.378563	80.456227	-4.534388	101.303709	-4.534388	101.303709	-2.417144	-60.086661
3.600000	-2.230539	76.065236	-4.814428	96.922033	-4.814428	96.922033	-2.258713	-64.506671
3.650000	-2.091018	71.537071	-5.109692	92.511316	-5.109692	92.511316	-2.107486	-68.859876
3.700000	-1.960078	66.858030	-5.421381	88.065076	-5.421381	88.065076	-1.963276	-73.147515
3.750000	-1.837820	62.010682	-5.751101	83.574968	-5.751101	83.574968	-1.825845	-77.371151
3.800000	-1.724554	56.968218	-6.101185	79.029061	-6.101185	79.029061	-1.695002	-81.531402
3.850000	-1.620362	51.706047	-6.474448	74.415326	-6.474448	74.415326	-1.570318	-85.631992
3.900000	-1.525599	46.188580	-6.874880	69.718197	-6.874880	69.718197	-1.451429	-89.675711
3.950000	-1.440806	40.370897	-7.307893	64.919293	-7.307893	64.919293	-1.337942	-93.665887
4.000000	-1.366789	34.196145	-7.780866	59.997222	-7.780866	59.997222	-1.229448	-97.606513
4.050000	-1.304731	27.592097	-8.303972	54.927514	-8.303972	54.927514	-1.125534	-101.502421
4.100000	-1.256343	20.466609	-8.891457	49.682965	-8.891457	49.682965	-1.025813	-105.359517
4.150000	-1.224066	12.701708	-9.563711	44.235129	-9.563711	44.235129	-0.929969	-109.185087
4.200000	-1.210865	4.165224	-10.349298	38.563377	-10.349298	38.563377	-0.837788	-112.988351
4.250000	-1.222465	-5.376669	-11.296773	32.646313	-11.296773	32.646313	-0.749528	-116.779794
4.300000	-1.264713	-16.150830	-12.477500	26.524751	-12.477500	26.524751	-0.665811	-120.573301
4.350000	-1.345447	-28.462462	-14.013424	20.362654	-14.013424	20.362654	-0.588249	-124.383723
4.400000	-1.473221	-42.683320	-16.126227	14.714862	-16.126227	14.714862	-0.519935	-128.225010
4.450000	-1.653240	-59.198175	-19.254558	11.549639	-19.254558	11.549639	-0.465842	-132.103424
4.500000	-1.879290	-78.276137	-24.253212	19.574322	-24.253212	19.574322	-0.432214	-136.006168
4.550000	-2.124114	-99.980198	-27.770163	73.463106	-27.770163	73.463106	-0.425445	-139.890286
4.600000	-2.331984	-123.799748	-22.046011	105.758197	-22.046011	105.758197	-0.447245	-143.681041
4.650000	-2.438951	-148.564213	-17.918824	105.235305	-17.918824	105.235305	-0.491232	-147.300574
4.700000	-2.412631	-172.719601	-15.476125	97.800626	-15.476125	97.800626	-0.544315	-150.709841
4.750000	-2.273279	165.095399	-14.026121	88.835877	-14.026121	88.835877	-0.592851	-153.929000
4.800000	-2.072929	145.563171	-13.191521	79.935672	-13.191521	79.935672	-0.629010	-157.020394
4.850000	-1.856887	128.760875	-12.747268	71.566291	-12.747268	71.566291	-0.651029	-160.042197
4.900000	-1.650742	114.377391	-12.573058	63.856215	-12.573058	63.856215	-0.659446	-163.040082
4.950000	-1.467202	102.034403	-12.580199	56.822908	-12.580199	56.822908	-0.658028	-166.047105
5.000000	-1.309137	91.354483	-12.711556	50.400734	-12.711556	50.400734	-0.650316	-169.078643
5.050000	-1.175145	82.025126	-12.931349	44.507083	-12.931349	44.507083	-0.638973	-172.141025
5.100000	-1.061721	73.763093	-13.215202	39.048844	-13.215202	39.048844	-0.625904	-175.235600
5.150000	-0.966011	66.388052	-13.549644	33.963219	-13.549644	33.963219	-0.612324	-178.363992
5.200000	-0.883843	59.676989	-13.923417	29.162225	-13.923417	29.162225	-0.598992	178.476369
5.250000	-0.813441	53.542251	-14.332668	24.612093	-14.332668	24.612093	-0.586411	175.283027
5.300000	-0.752958	47.894821	-14.774915	20.276606	-14.774915	20.276606	-0.574913	172.054023
5.350000	-0.700122	42.623344	-15.248510	16.108356	-15.248510	16.108356	-0.564611	168.790233
5.400000	-0.654578	37.714658	-15.754896	12.102928	-15.754896	12.102928	-0.555807	165.483943
5.450000	-0.614245	33.064994	-16.295351	8.214940	-16.295351	8.214940	-0.548336	162.139191
5.500000	-0.579280	28.685119	-16.873559	4.451099	-16.873559	4.451099	-0.542539	158.743738
5.550000	-0.548235	24.501741	-17.493945	0.779891	-17.493945	0.779891	-0.538191	155.301729
5.600000	-0.521032	20.511627	-18.162938	-2.796351	-18.162938	-2.796351	-0.535508	151.802512
5.650000	-0.497039	16.682294	-18.888872	-6.287983	-18.888872	-6.287983	-0.534431	148.244287
5.700000	-0.475904	12.995210	-19.682867	-9.695726	-19.682867	-9.695726	-0.535001	144.621483
5.750000	-0.457495	9.442546	-20.560001	-13.009285	-20.560001	-13.009285	-0.537365	140.923998
5.800000	-0.441297	5.996952	-21.540254	-16.226664	-21.540254	-16.226664	-0.541376	137.154015
5.850000	-0.427507	2.665853	-22.653474	-19.298343	-22.653474	-19.298343	-0.547423	133.289963
5.900000	-0.415567	-0.579905	-23.940416	-22.201891	-23.940416	-22.201891	-0.555229	129.341259
5.950000	-0.405701	-3.733152	-25.468305	-24.789300	-25.468305	-24.789300	-0.565239	125.282652
6.000000	-0.397568	-6.812503	-27.343515	-26.895378	-27.343515	-26.895378	-0.577292	121.119418
6.050000	-0.391244	-9.818600	-29.765154	-27.921317	-29.765154	-27.921317	-0.591696	116.833151
6.100000	-0.386658	-12.758509	-33.148837	-26.278971	-33.148837	-26.278971	-0.608562	112.416026
6.150000	-0.383728	-15.639700	-38.469041	-14.170489	-38.469041	-14.170489	-0.627968	107.862485
6.200000	-0.382627	-18.461003	-42.914868	47.610911	-42.914868	47.610911	-0.650368	103.146708
6.250000	-0.383115	-21.234678	-37.243479	100.815091	-37.243479	100.815091	-0.675525	98.281415
6.300000	-0.385617	-23.953496	-32.097143	108.286116	-32.097143	108.286116	-0.704321	93.217103
6.350000	-0.389810	-26.630632	-28.741139	109.083443	-28.741139	109.083443	-0.736300	87.979377
6.400000	-0.396068	-29.261638	-26.248549	107.384960	-26.248549	107.384960	-0.772226	82.524653
6.450000	-0.404290	-31.852729	-24.266832	104.703534	-24.266832	104.703534	-0.811966	76.859782
6.500000	-0.414651	-34.403997	-22.616919	101.456981	-22.616919	101.456981	-0.855859	70.963062
6.550000	-0.427291	-36.915928	-21.200881	97.831262	-21.200881	97.831262	-0.904131	64.817438
6.600000	-0.442119	-39.392264	-19.961962	93.948644	-19.961962	93.948644	-0.956541	58.430952
6.650000	-0.459513	-41.828327	-18.859403	89.829932	-18.859403	89.829932	-1.013604	51.759001
6.700000	-0.479135	-44.229942	-17.870537	85.540495	-17.870537	85.540495	-1.074543	44.836398
6.750000	-0.501225	-46.592669	-16.976348	81.081936	-16.976348	81.081936	-1.139439	37.630119
6.800000	-0.525608	-48.917315	-16.164941	76.478446	-16.164941	76.478446	-1.207608	30.151563
6.850000	-0.552128	-51.203093	-15.427423	71.745226	-15.427423	71.745226	-1.278282	22.406847
6.900000	-0.580571	-53.448510	-14.757598	66.895671	-14.757598	66.895671	-1.350449	14.404069
6.950000	-0.610593	-55.652900	-14.150899	61.946632	-14.150899	61.946632	-1.422795	6.163372
7.000000	-0.641749	-57.816676	-13.603414	56.917664	-13.603414	56.917664	-1.493849	-2.284183
7.050000	-0.673566	-59.940085	-13.112106	51.827934	-13.112106	51.827934	-1.562024	-10.904791
7.100000	-0.705526	-62.024030	-12.674309	46.697978	-12.674309	46.697978	-1.625693	-19.658093
7.150000	-0.737104	-64.070150	-12.287499	41.549267	-12.287499	41.549267	-1.683307	-28.498282
7.200000	-0.767784	-66.080557	-11.949413	36.403804	-11.949413	36.403804	-1.733436	-37.375608
7.250000	-0.797077	-68.057914	-11.657950	31.284232	-11.657950	31.284232	-1.774849	-46.236342
7.300000	-0.824653	-70.006811	-11.409284	26.210569	-11.409284	26.210569	-1.807108	-55.028859
7.350000	-0.850254	-71.931288	-11.200273	21.201121	-11.200273	21.201121	-1.829989	-63.705289
7.400000	-0.873729	-73.835561	-11.027620	16.271856	-11.027620	16.271856	-1.843673	-72.222558
7.450000	-0.895033	-75.723838	-10.887932	11.436058	-10.887932	11.436058	-1.848694	-80.543813
7.500000	-0.914213	-77.600161	-10.777787	6.704173	-10.777787	6.704173	-1.845863	-88.639289
7.550000	-0.931332	-79.468128	-10.694569	2.087819	-10.694569	2.087819	-1.835975	-96.477533
7.600000	-0.946654	-81.331521	-10.634042	-2.411942	-10.634042	-2.411942	-1.820393	-104.051873
7.650000	-0.960407	-83.193353	-10.593080	-6.792847	-10.593080	-6.792847	-1.800222	-111.354261
7.700000	-0.972844	-85.056270	-10.568761	-11.054735	-10.568761	-11.054735	-1.776518	-118.382309
7.750000	-0.984223	-86.922592	-10.558385	-15.199213	-10.558385	-15.199213	-1.750244	-125.138327
7.800000	-0.994806	-88.794362	-10.559488	-19.229315	-10.559488	-19.229315	-1.722251	-131.628348
7.850000	-1.004835	-90.673629	-10.570027	-23.146470	-10.570027	-23.146470	-1.693255	-137.854840
7.900000	-1.014567	-92.561988	-10.587780	-26.957801	-10.587780	-26.957801	-1.663895	-143.833586
7.950000	-1.024228	-94.460923	-10.610904	-30.669881	-10.610904	-30.669881	-1.634662	-149.579035
8.000000	-1.034036	-96.372505	-10.637955	-34.284886	-10.637955	-34.284886	-1.605963	-155.095034
8.050000	-1.044160	-98.296913	-10.667245	-37.818378	-10.667245	-37.818378	-1.578032	-160.416917
8.100000	-1.054783	-100.236405	-10.697791	-41.270971	-10.697791	-41.270971	-1.551111	-165.544369
8.150000	-1.066102	-102.193246	-10.728485	-44.646660	-10.728485	-44.646660	-1.525406	-170.484445
8.200000	-1.078289	-104.169364	-10.758292	-47.952338	-10.758292	-47.952338	-1.501038	-175.250712
8.250000	-1.091473	-106.166104	-10.786391	-51.196743	-10.786391	-51.196743	-1.478039	-179.861129
8.300000	-1.105805	-108.185583	-10.812048	-54.385945	-10.812048	-54.385945	-1.456449	175.673211
8.350000	-1.121432	-110.230144	-10.834608	-57.525899	-10.834608	-57.525899	-1.436291	171.341890
8.400000	-1.138508	-112.302390	-10.853479	-60.622443	-10.853479	-60.622443	-1.417572	167.135177
8.450000	-1.157190	-114.405226	-10.868123	-63.681318	-10.868123	-63.681318	-1.400289	163.044011
8.500000	-1.177644	-116.541904	-10.878045	-66.708195	-10.878045	-66.708195	-1.384434	159.059988
8.550000	-1.200051	-118.716075	-10.882786	-69.708698	-10.882786	-69.708698	-1.369997	155.175326
8.600000	-1.224605	-120.931848	-10.881912	-72.688452	-10.881912	-72.688452	-1.356968	151.382838
8.650000	-1.251522	-123.193862	-10.875011	-75.653118	-10.875011	-75.653118	-1.345342	147.675889
8.700000	-1.281041	-125.507373	-10.861685	-78.608453	-10.861685	-78.608453	-1.335117	144.048369
8.750000	-1.313433	-127.878351	-10.841545	-81.560361	-10.841545	-81.560361	-1.326300	140.494649
8.800000	-1.349240	-130.318579	-10.813677	-84.515593	-10.813677	-84.515593	-1.319007	137.013958
8.850000	-1.388627	-132.832038	-10.778173	-87.480813	-10.778173	-87.480813	-1.313171	133.596569
8.900000	-1.432014	-135.427945	-10.734652	-90.462908	-10.734652	-90.462908	-1.308836	130.238182
8.950000	-1.479887	-138.116966	-10.682727	-93.469275	-10.682727	-93.469275	-1.306062	126.934855
9.000000	-1.532815	-140.911505	-10.622017	-96.507945	-10.622017	-96.507945	-1.304931	123.682988
9.050000	-1.591473	-143.826069	-10.552141	-99.587733	-10.552141	-99.587733	-1.305548	120.479311
9.100000	-1.656660	-146.877713	-10.472735	-102.718406	-10.472735	-102.718406	-1.308044	117.320875
9.150000	-1.729333	-150.086615	-10.383456	-105.910891	-10.383456	-105.910891	-1.312584	114.205062
9.200000	-1.810642	-153.476802	-10.284004	-109.177513	-10.284004	-109.177513	-1.319373	111.129603
9.250000	-1.901978	-157.077080	-10.174154	-112.532281	-10.174154	-112.532281	-1.328656	108.092616
9.300000	-2.005034	-160.922244	-10.053791	-115.991226	-10.053791	-115.991226	-1.340733	105.092673
9.350000	-2.121881	-165.054655	-9.922985	-119.572785	-9.922985	-119.572785	-1.355957	102.128895
9.400000	-2.255660	-169.540329	-9.781671	-123.304073	-9.781671	-123.304073	-1.374877	99.202363
9.450000	-2.409266	-174.438024	-9.630989	-127.206984	-9.630989	-127.206984	-1.397879	96.312927
9.500000	-2.586807	-179.833923	-9.472501	-131.311375	-9.472501	-131.311375	-1.425469	93.462603
9.550000	-2.793132	174.169648	-9.308958	-135.648397	-9.308958	-135.648397	-1.458062	90.654382
9.600000	-3.034613	167.435925	-9.144781	-140.253922	-9.144781	-140.253922	-1.495952	87.892808
9.650000	-3.319620	159.786681	-8.987339	-145.163505	-8.987339	-145.163505	-1.539091	85.182520
9.700000	-3.661327	150.959069	-8.849615	-150.408319	-8.849615	-150.408319	-1.586985	82.525289
9.750000	-4.081035	140.650955	-8.753408	-155.955936	-8.753408	-155.955936	-1.638903	79.904599
9.800000	-4.631642	128.482462	-8.732715	-161.576869	-8.732715	-161.576869	-1.699182	77.260474
9.850000	-5.459424	114.533646	-8.770536	-166.305052	-8.770536	-166.305052	-1.805841	74.520242
9.900000	-6.540240	101.931032	-8.424336	-169.940576	-8.424336	-169.940576	-2.024373	72.369397
9.950000	-6.777460	90.039221	-7.811055	-178.011273	-7.811055	-178.011273	-2.147059	71.500024
10.000000	-6.498213	72.152196	-7.692663	171.818463	-7.692663	171.818463	-2.111784	70.447656
