! freq	dB(S11)	phase(S11)	dB(S12)	phase(S12)	
!     	dB(S21)	phase(S21)	dB(S22)	phase(S22)	
!S-par simulation data
#  GHz  S  DB  R 50
0.000000	-83.722739	0.000000	-0.000566	0.000000	-0.000566	0.000000	-83.722739	0.000000
0.050000	-45.706674	-91.559590	-0.006819	-2.516582	-0.006819	-2.516582	-45.702807	-91.510439
0.100000	-39.708026	-94.185738	-0.010300	-5.049138	-0.010300	-5.049138	-39.706837	-94.096536
0.150000	-36.233270	-96.562388	-0.014455	-7.570114	-0.014455	-7.570114	-36.234741	-96.457554
0.200000	-33.816085	-98.987349	-0.019122	-10.081923	-0.019122	-10.081923	-33.814633	-98.889238
0.250000	-31.978986	-101.736711	-0.023961	-12.586301	-0.023961	-12.586301	-31.966359	-101.599344
0.300000	-30.458301	-104.796377	-0.028761	-15.085261	-0.028761	-15.085261	-30.441286	-104.542724
0.350000	-29.133682	-107.799519	-0.033455	-17.580672	-0.033455	-17.580672	-29.122914	-107.451869
0.400000	-27.972491	-110.608511	-0.038051	-20.073722	-0.038051	-20.073722	-27.968746	-110.213636
0.450000	-26.952857	-113.276762	-0.042586	-22.565186	-0.042586	-22.565186	-26.953253	-112.852791
0.500000	-26.050103	-115.877447	-0.047112	-25.055669	-0.047112	-25.055669	-26.052567	-115.424863
0.550000	-25.243034	-118.445194	-0.051672	-27.545469	-0.051672	-27.545469	-25.246473	-117.960222
0.600000	-24.515681	-120.996731	-0.056304	-30.034743	-0.056304	-30.034743	-24.519568	-120.474992
0.650000	-23.854937	-123.541010	-0.061033	-32.523605	-0.061033	-32.523605	-23.859051	-122.978800
0.700000	-23.250894	-126.081935	-0.065876	-35.012108	-0.065876	-35.012108	-23.255148	-125.476120
0.750000	-22.696164	-128.621393	-0.070848	-37.500262	-0.070848	-37.500262	-22.700534	-127.969144
0.800000	-22.184535	-131.160395	-0.075954	-39.988076	-0.075954	-39.988076	-22.189026	-130.459153
0.850000	-21.710860	-133.699432	-0.081196	-42.475560	-0.081196	-42.475560	-21.715488	-132.946817
0.900000	-21.270980	-136.238739	-0.086570	-44.962719	-0.086570	-44.962719	-21.275764	-135.432444
0.950000	-20.861479	-138.778432	-0.092073	-47.449563	-0.092073	-47.449563	-20.866438	-137.916158
1.000000	-20.479435	-141.318568	-0.097698	-49.936109	-0.097698	-49.936109	-20.484586	-140.397998
1.050000	-20.122355	-143.859181	-0.103436	-52.422380	-0.103436	-52.422380	-20.127711	-142.877954
1.100000	-19.788087	-146.400298	-0.109278	-54.908409	-0.109278	-54.908409	-19.793659	-145.355993
1.150000	-19.474760	-148.941950	-0.115214	-57.394237	-0.115214	-57.394237	-19.480556	-147.832070
1.200000	-19.180734	-151.484176	-0.121233	-59.879915	-0.121233	-59.879915	-19.186759	-150.306145
1.250000	-18.904561	-154.027028	-0.127323	-62.365501	-0.127323	-62.365501	-18.910818	-152.778177
1.300000	-18.645129	-156.570589	-0.133473	-64.851063	-0.133473	-64.851063	-18.651618	-155.248091
1.350000	-18.401098	-159.114923	-0.139671	-67.336679	-0.139671	-67.336679	-18.407819	-157.715912
1.400000	-18.171430	-161.660124	-0.145904	-69.822434	-0.145904	-69.822434	-18.178381	-160.181630
1.450000	-17.955183	-164.206298	-0.152160	-72.308418	-0.152160	-72.308418	-17.962361	-162.645245
1.500000	-17.751499	-166.753562	-0.158427	-74.794731	-0.158427	-74.794731	-17.758901	-165.106768
1.550000	-17.559593	-169.302045	-0.164693	-77.281473	-0.164693	-77.281473	-17.567214	-167.566219
1.600000	-17.378739	-171.851886	-0.170945	-79.768754	-0.170945	-79.768754	-17.386577	-170.023631
1.650000	-17.208270	-174.403234	-0.177170	-82.256680	-0.177170	-82.256680	-17.216320	-172.479043
1.700000	-17.047562	-176.956246	-0.183354	-84.745359	-0.183354	-84.745359	-17.055820	-174.932504
1.750000	-16.896033	-179.511085	-0.189485	-87.234890	-0.189485	-87.234890	-16.904497	-177.384072
1.800000	-16.753138	177.932079	-0.195548	-89.725364	-0.195548	-89.725364	-16.761805	-179.833812
1.850000	-16.618362	175.373071	-0.201530	-92.216853	-0.201530	-92.216853	-16.627232	177.718204
1.900000	-16.491279	172.811687	-0.207419	-94.709422	-0.207419	-94.709422	-16.500349	175.271911
1.950000	-16.371416	170.247741	-0.213206	-97.203102	-0.213206	-97.203102	-16.380687	172.827222
2.000000	-16.258274	167.681080	-0.218891	-99.697895	-0.218891	-99.697895	-16.267746	170.384024
2.050000	-16.151428	165.111526	-0.224478	-102.193812	-0.224478	-102.193812	-16.161104	167.942220
2.100000	-16.050476	162.538904	-0.229978	-104.690878	-0.229978	-104.690878	-16.060358	165.501705
2.150000	-15.955027	159.963044	-0.235408	-107.189151	-0.235408	-107.189151	-15.965118	163.062371
2.200000	-15.864706	157.383783	-0.240789	-109.688732	-0.240789	-109.688732	-15.875011	160.624105
2.250000	-15.779148	154.800964	-0.246138	-112.189769	-0.246138	-112.189769	-15.789671	158.186788
2.300000	-15.698000	152.214441	-0.251474	-114.692440	-0.251474	-114.692440	-15.708747	155.750300
2.350000	-15.620920	149.624081	-0.256807	-117.196942	-0.256807	-117.196942	-15.631896	153.314513
2.400000	-15.547572	147.029761	-0.262144	-119.703468	-0.262144	-119.703468	-15.558784	150.879300
2.450000	-15.477633	144.431376	-0.267488	-122.212200	-0.267488	-122.212200	-15.489086	148.444526
2.500000	-15.410782	141.828836	-0.272842	-124.723301	-0.272842	-124.723301	-15.422485	146.010056
2.550000	-15.346755	139.221975	-0.278204	-127.236968	-0.278204	-127.236968	-15.358712	143.575749
2.600000	-15.285192	136.610834	-0.283574	-129.753269	-0.283574	-129.753269	-15.297410	141.141456
2.650000	-15.225797	133.995382	-0.288955	-132.272308	-0.288955	-132.272308	-15.238282	138.707029
2.700000	-15.168282	131.375611	-0.294347	-134.794173	-0.294347	-134.794173	-15.181039	136.272319
2.750000	-15.112365	128.751537	-0.299753	-137.318945	-0.299753	-137.318945	-15.125397	133.837170
2.800000	-15.057771	126.123198	-0.305177	-139.846694	-0.305177	-139.846694	-15.071083	131.401427
2.850000	-15.004234	123.490658	-0.310624	-142.377484	-0.310624	-142.377484	-15.017828	128.964928
2.900000	-14.951495	120.854006	-0.316098	-144.911374	-0.316098	-144.911374	-14.965372	126.527509
2.950000	-14.899304	118.213355	-0.321606	-147.448416	-0.321606	-147.448416	-14.913465	124.089002
3.000000	-14.847421	115.568842	-0.327154	-149.988661	-0.327154	-149.988661	-14.861863	121.649237
3.050000	-14.795613	112.920631	-0.332748	-152.532153	-0.332748	-152.532153	-14.810333	119.208039
3.100000	-14.743660	110.268906	-0.338394	-155.078934	-0.338394	-155.078934	-14.758654	116.765229
3.150000	-14.691343	107.613842	-0.344101	-157.629080	-0.344101	-157.629080	-14.706603	114.320605
3.200000	-14.638457	104.955678	-0.349874	-160.182625	-0.349874	-160.182625	-14.653974	111.873976
3.250000	-14.584824	102.294697	-0.355719	-162.739565	-0.355719	-162.739565	-14.600587	109.425174
3.300000	-14.530274	99.631168	-0.361643	-165.299929	-0.361643	-165.299929	-14.546270	106.974011
3.350000	-14.474603	96.965316	-0.367654	-167.863843	-0.367654	-167.863843	-14.490816	104.520215
3.400000	-14.417837	94.297628	-0.373750	-170.430972	-0.373750	-170.430972	-14.434250	102.063880
3.450000	-14.359588	91.628137	-0.379948	-173.001879	-0.379948	-173.001879	-14.376180	99.604363
3.500000	-14.299987	88.957361	-0.386241	-175.576109	-0.386241	-175.576109	-14.316737	97.141881
3.550000	-14.238797	86.285522	-0.392642	-178.153948	-0.392642	-178.153948	-14.255678	94.675991
3.600000	-14.175983	83.612954	-0.399153	179.264659	-0.399153	179.264659	-14.192969	92.206569
3.650000	-14.111552	80.939989	-0.405773	176.679803	-0.405773	176.679803	-14.128613	89.733531
3.700000	-14.045414	78.266921	-0.412508	174.091386	-0.412508	174.091386	-14.062519	87.256602
3.750000	-13.977415	75.594081	-0.419369	171.499181	-0.419369	171.499181	-13.994528	84.775343
3.800000	-13.907736	72.921752	-0.426346	168.903461	-0.426346	168.903461	-13.924821	82.289896
3.850000	-13.836402	70.250201	-0.433442	166.304222	-0.433442	166.304222	-13.853422	79.800100
3.900000	-13.763458	67.579683	-0.440657	163.701461	-0.440657	163.701461	-13.780375	77.305804
3.950000	-13.688967	64.910436	-0.447990	161.095176	-0.447990	161.095176	-13.705739	74.806862
4.000000	-13.613010	62.242681	-0.455439	158.485365	-0.455439	158.485365	-13.629595	72.303140
4.050000	-13.535519	59.576783	-0.463013	155.871723	-0.463013	155.871723	-13.551870	69.794081
4.100000	-13.456740	56.912853	-0.470701	153.254444	-0.470701	153.254444	-13.472811	67.279826
4.150000	-13.376874	54.250996	-0.478495	150.633635	-0.478495	150.633635	-13.392621	64.760425
4.200000	-13.296079	51.591352	-0.486392	148.009294	-0.486392	148.009294	-13.311455	62.235788
4.250000	-13.214527	48.934040	-0.494385	145.381418	-0.494385	145.381418	-13.229487	59.705836
4.300000	-13.132408	46.279159	-0.502465	142.750002	-0.502465	142.750002	-13.146906	57.170499
4.350000	-13.049912	43.626822	-0.510627	140.114992	-0.510627	140.114992	-13.063901	54.629647
4.400000	-12.967222	40.977249	-0.518863	137.476165	-0.518863	137.476165	-12.980652	52.082901
4.450000	-12.884657	38.330291	-0.527156	134.833770	-0.527156	134.833770	-12.897484	49.530629
4.500000	-12.802468	35.685969	-0.535493	132.187791	-0.535493	132.187791	-12.814647	46.972808
4.550000	-12.720922	33.044422	-0.543861	129.538022	-0.543861	129.538022	-12.732408	44.409140
4.600000	-12.640318	30.405522	-0.552240	126.884589	-0.552240	126.884589	-12.651070	41.839856
4.650000	-12.560945	27.769221	-0.560615	124.227484	-0.560615	124.227484	-12.570923	39.264998
4.700000	-12.483143	25.135564	-0.568962	121.566539	-0.568962	121.566539	-12.492307	36.684381
4.750000	-12.407240	22.504470	-0.577259	118.901729	-0.577259	118.901729	-12.415555	34.098062
4.800000	-12.333541	19.875810	-0.585484	116.233081	-0.585484	116.233081	-12.340973	31.506185
4.850000	-12.262626	17.249745	-0.593596	113.560099	-0.593596	113.560099	-12.269141	28.908177
4.900000	-12.194473	14.625773	-0.601590	110.883396	-0.601590	110.883396	-12.200048	26.305034
4.950000	-12.129592	12.003976	-0.609426	108.202568	-0.609426	108.202568	-12.134203	23.696336
5.000000	-12.068359	9.384255	-0.617073	105.517486	-0.617073	105.517486	-12.071985	21.082069
5.050000	-12.011472	6.766649	-0.624478	102.827650	-0.624478	102.827650	-12.014094	18.461777
5.100000	-11.959167	4.150912	-0.631616	100.133136	-0.631616	100.133136	-11.960774	15.835761
5.150000	-11.911894	1.536925	-0.638446	97.433729	-0.638446	97.433729	-11.912477	13.203964
5.200000	-11.870123	-1.075434	-0.644927	94.729186	-0.644927	94.729186	-11.869678	10.566309
5.250000	-11.834348	-3.686286	-0.651017	92.019228	-0.651017	92.019228	-11.832876	7.922700
5.300000	-11.805091	-6.295748	-0.656670	89.303539	-0.656670	89.303539	-11.802600	5.273014
5.350000	-11.782906	-8.903930	-0.661842	86.581761	-0.661842	86.581761	-11.779409	2.617101
5.400000	-11.768383	-11.510930	-0.666484	83.853493	-0.666484	83.853493	-11.763900	-0.045214
5.450000	-11.762153	-14.116828	-0.670549	81.118283	-0.670549	81.118283	-11.756710	-2.714137
5.500000	-11.764898	-16.721679	-0.673991	78.375629	-0.673991	78.375629	-11.758529	-5.389905
5.550000	-11.777354	-19.325502	-0.676761	75.624973	-0.676761	75.624973	-11.770102	-8.072784
5.600000	-11.800322	-21.928270	-0.678813	72.865695	-0.678813	72.865695	-11.792240	-10.763070
5.650000	-11.834813	-24.529878	-0.680093	70.097003	-0.680093	70.097003	-11.825965	-13.461176
5.700000	-11.881825	-27.130141	-0.680558	67.318117	-0.680558	67.318117	-11.872292	-16.167462
5.750000	-11.942311	-29.728777	-0.680176	64.528309	-0.680176	64.528309	-11.932188	-18.882213
5.800000	-12.017471	-32.325345	-0.678911	61.726673	-0.678911	61.726673	-12.006872	-21.605810
5.850000	-12.108650	-34.919212	-0.676735	58.912222	-0.676735	58.912222	-12.097715	-24.338631
5.900000	-12.217368	-37.509492	-0.673622	56.083886	-0.673622	56.083886	-12.206267	-27.081037
5.950000	-12.345353	-40.094974	-0.669559	53.240505	-0.669559	53.240505	-12.334293	-29.833353
6.000000	-12.494582	-42.674014	-0.664537	50.380830	-0.664537	50.380830	-12.483819	-32.595833
6.050000	-12.667335	-45.244404	-0.658561	47.503516	-0.658561	47.503516	-12.657189	-35.368620
6.100000	-12.866260	-47.803186	-0.651650	44.607124	-0.651650	44.607124	-12.857134	-38.151688
6.150000	-13.094174	-50.346638	-0.643844	41.690362	-0.643844	41.690362	-13.086573	-40.944665
6.200000	-13.355442	-52.868899	-0.635168	38.750995	-0.635168	38.750995	-13.350041	-43.747175
6.250000	-13.654050	-55.363050	-0.625708	35.787628	-0.625708	35.787628	-13.651721	-46.557891
6.300000	-13.995644	-57.818778	-0.615548	32.798135	-0.615548	32.798135	-13.997565	-49.374922
6.350000	-14.386373	-60.222852	-0.604816	29.780855	-0.604816	29.780855	-14.394140	-52.195090
6.400000	-14.834221	-62.556438	-0.593657	26.733789	-0.593657	26.733789	-14.850058	-55.013632
6.450000	-15.349210	-64.792865	-0.582251	23.654863	-0.582251	23.654863	-15.376301	-57.823243
6.500000	-15.944136	-66.893549	-0.570811	20.541942	-0.570811	20.541942	-15.987177	-60.612663
6.550000	-16.635642	-68.801165	-0.559592	17.392849	-0.559592	17.392849	-16.701819	-63.364263
6.600000	-17.446313	-70.424235	-0.548898	14.205051	-0.548898	14.205051	-17.547199	-66.048747
6.650000	-18.405906	-71.619475	-0.539075	10.976531	-0.539075	10.976531	-18.561082	-68.617511
6.700000	-19.555688	-72.144186	-0.530520	7.705233	-0.530520	7.705233	-19.800693	-70.983738
6.750000	-20.953100	-71.557661	-0.523682	4.389073	-0.523682	4.389073	-21.358686	-72.977459
6.800000	-22.673687	-68.997656	-0.519072	1.026091	-0.519072	1.026091	-23.398909	-74.221509
6.850000	-24.786081	-62.642371	-0.517258	-2.385504	-0.517258	-2.385504	-26.251448	-73.696156
6.900000	-27.153814	-48.574870	-0.518893	-5.847544	-0.518893	-5.847544	-30.713549	-67.413601
6.950000	-28.634269	-22.293422	-0.524683	-9.361298	-0.524683	-9.361298	-37.878756	-26.464003
7.000000	-27.428238	6.878002	-0.535363	-12.927354	-0.535363	-12.927354	-33.300295	49.044237
7.050000	-24.670140	24.548889	-0.551747	-16.546115	-0.551747	-16.546115	-27.117792	63.172639
7.100000	-21.964142	32.656565	-0.574698	-20.217442	-0.574698	-20.217442	-23.218610	65.176229
7.150000	-19.651503	35.845656	-0.605125	-23.940571	-0.605125	-23.940571	-20.400905	64.190937
7.200000	-17.693916	36.495124	-0.643992	-27.714167	-0.643992	-27.714167	-18.188592	62.023312
7.250000	-16.014029	35.711661	-0.692320	-31.536203	-0.692320	-31.536203	-16.363023	59.255482
7.300000	-14.550539	34.056390	-0.751001	-35.403159	-0.751001	-35.403159	-14.808206	56.135803
7.350000	-13.258492	31.825748	-0.820975	-39.311053	-0.820975	-39.311053	-13.454917	52.785079
7.400000	-12.105811	29.195170	-0.903139	-43.255008	-0.903139	-43.255008	-12.258976	49.272416
7.450000	-11.069243	26.275850	-0.998326	-47.229275	-0.998326	-47.229275	-11.190563	45.641737
7.500000	-10.131558	23.142774	-1.107280	-51.227274	-1.107280	-51.227274	-10.228639	41.923708
7.550000	-9.279691	19.848182	-1.230774	-55.241765	-1.230774	-55.241765	-9.357808	38.141110
7.600000	-8.503604	16.434259	-1.369163	-59.264508	-1.369163	-59.264508	-8.566528	34.313691
7.650000	-7.795201	12.932419	-1.522787	-63.287046	-1.522787	-63.287046	-7.845705	30.457597
7.700000	-7.147876	9.368348	-1.691823	-67.300618	-1.691823	-67.300618	-7.188051	26.587197
7.750000	-6.556110	5.763659	-1.876278	-71.296343	-1.876278	-71.296343	-6.587562	22.715544
7.800000	-6.015180	2.136907	-2.075985	-75.265415	-2.075985	-75.265415	-6.039165	18.854606
7.850000	-5.521092	-1.495717	-2.290685	-79.198939	-2.290685	-79.198939	-5.538605	15.015614
7.900000	-5.070075	-5.119949	-2.519816	-83.088911	-2.519816	-83.088911	-5.081919	11.208557
7.950000	-4.658718	-8.723570	-2.762722	-86.927950	-2.762722	-86.927950	-4.665545	7.442327
8.000000	-4.283924	-12.296019	-3.018655	-90.709310	-3.018655	-90.709310	-4.286269	3.724837
8.050000	-3.942820	-15.828263	-3.286774	-94.427056	-3.286774	-94.427056	-3.941129	0.062952
8.100000	-3.632723	-19.312699	-3.566164	-98.076123	-3.566164	-98.076123	-3.627369	-3.537523
8.150000	-3.351221	-22.742742	-3.855862	-101.651924	-3.855862	-101.651924	-3.342520	-7.071443
8.200000	-3.095951	-26.113306	-4.154855	-105.151126	-4.154855	-105.151126	-3.084173	-10.535003
8.250000	-2.864830	-29.419957	-4.462100	-108.570622	-4.462100	-108.570622	-2.850207	-13.924769
8.300000	-2.655428	-32.661269	-4.776673	-111.910510	-4.776673	-111.910510	-2.638159	-17.240430
8.350000	-2.465968	-35.834860	-5.097613	-115.169262	-5.097613	-115.169262	-2.446229	-20.480293
8.400000	-2.294674	-38.939664	-5.424019	-118.346631	-5.424019	-118.346631	-2.272620	-23.643954
8.450000	-2.139905	-41.975318	-5.755038	-121.442926	-5.755038	-121.442926	-2.115672	-26.731618
8.500000	-2.000147	-44.942052	-6.089872	-124.458938	-6.089872	-124.458938	-1.973857	-29.744013
8.550000	-1.874011	-47.840602	-6.427783	-127.395853	-6.427783	-127.395853	-1.845775	-32.682300
8.600000	-1.760226	-50.672112	-6.768096	-130.255178	-6.768096	-130.255178	-1.730142	-35.547998
8.650000	-1.657631	-53.438057	-7.110194	-133.038675	-7.110194	-133.038675	-1.625790	-38.342909
8.700000	-1.565170	-56.140177	-7.453523	-135.748298	-7.453523	-135.748298	-1.531654	-41.069055
8.750000	-1.481882	-58.780404	-7.797587	-138.386137	-7.797587	-138.386137	-1.446766	-43.728621
8.800000	-1.407048	-61.359569	-8.141647	-140.952910	-8.141647	-140.952910	-1.370403	-46.322561
8.850000	-1.339704	-63.881202	-8.485600	-143.452410	-8.485600	-143.452410	-1.301593	-48.854700
8.900000	-1.279141	-66.347544	-8.829112	-145.886879	-8.829112	-145.886879	-1.239623	-51.327445
8.950000	-1.224723	-68.760863	-9.171893	-148.258549	-9.171893	-148.258549	-1.183851	-53.743213
9.000000	-1.175872	-71.123429	-9.513694	-150.569609	-9.513694	-150.569609	-1.133697	-56.104403
9.050000	-1.132072	-73.437494	-9.854303	-152.822200	-9.854303	-152.822200	-1.088639	-58.413381
9.100000	-1.092856	-75.705274	-10.193543	-155.018389	-10.193543	-155.018389	-1.048207	-60.672465
9.150000	-1.057804	-77.928942	-10.531268	-157.160167	-10.531268	-157.160167	-1.011978	-62.883915
9.200000	-1.026541	-80.110612	-10.867356	-159.249438	-10.867356	-159.249438	-0.979571	-65.049925
9.250000	-0.998726	-82.252339	-11.201715	-161.288011	-11.201715	-161.288011	-0.950644	-67.172618
9.300000	-0.974056	-84.356111	-11.534272	-163.277599	-11.534272	-163.277599	-0.924890	-69.254040
9.350000	-0.952258	-86.423845	-11.864976	-165.219814	-11.864976	-165.219814	-0.902031	-71.296164
9.400000	-0.933420	-88.452821	-12.191778	-167.109898	-12.191778	-167.109898	-0.882155	-73.295866
9.450000	-0.916650	-90.453872	-12.518560	-168.961526	-12.518560	-168.961526	-0.864362	-75.264886
9.500000	-0.902088	-92.424242	-12.843439	-170.770021	-12.843439	-170.770021	-0.848790	-77.200085
9.550000	-0.889556	-94.365566	-13.166422	-172.536588	-13.166422	-172.536588	-0.835259	-79.103129
9.600000	-0.878895	-96.279412	-13.487531	-174.262325	-13.487531	-174.262325	-0.823606	-80.975610
9.650000	-0.869964	-98.167283	-13.806795	-175.948236	-13.806795	-175.948236	-0.813686	-82.819054
9.700000	-0.862636	-100.030616	-14.124253	-177.595223	-14.124253	-177.595223	-0.805367	-84.634919
9.750000	-0.856794	-101.870792	-14.439951	-179.204087	-14.439951	-179.204087	-0.798533	-86.424600
9.800000	-0.852339	-103.689131	-14.753943	179.224464	-14.753943	179.224464	-0.793076	-88.189434
9.850000	-0.849179	-105.486898	-15.066287	177.689822	-15.066287	177.689822	-0.788904	-89.930697
9.900000	-0.847234	-107.265307	-15.377049	176.191478	-15.377049	176.191478	-0.785931	-91.649613
9.950000	-0.846430	-109.025521	-15.686296	174.729019	-15.686296	174.729019	-0.784082	-93.347354
10.000000	-0.846704	-110.768657	-15.994101	173.302130	-15.994101	173.302130	-0.783289	-95.025044
