! freq	dB(S11)	phase(S11)	dB(S12)	phase(S12)	
!     	dB(S21)	phase(S21)	dB(S22)	phase(S22)	
!S-par simulation data
#  GHz  S  DB  R 50
0.000000	-0.000000	0.000000	-339.216951	0.000000	-339.216951	0.000000	-0.000000	0.000000
0.050000	-0.002884	-1.130958	-106.993711	88.741662	-106.993711	88.741662	-0.002910	-1.130313
0.100000	-0.006891	-2.289511	-101.020158	87.496650	-101.020158	87.496650	-0.006925	-2.288461
0.150000	-0.009408	-3.458418	-97.577624	86.278561	-97.577624	86.278561	-0.009431	-3.456893
0.200000	-0.010984	-4.628006	-95.188319	85.099648	-95.188319	85.099648	-0.010998	-4.625946
0.250000	-0.012110	-5.796198	-93.395525	83.976348	-93.395525	83.976348	-0.012116	-5.793580
0.300000	-0.013076	-6.962911	-91.985231	82.916581	-91.985231	82.916581	-0.013077	-6.959730
0.350000	-0.013982	-8.128150	-90.851786	81.935934	-90.851786	81.935934	-0.013979	-8.124407
0.400000	-0.014886	-9.291994	-89.930448	81.048970	-89.930448	81.048970	-0.014880	-9.287690
0.450000	-0.015818	-10.454481	-89.180095	80.272051	-89.180095	80.272051	-0.015810	-10.449620
0.500000	-0.016793	-11.615617	-88.573409	79.624350	-88.573409	79.624350	-0.016783	-11.610202
0.550000	-0.017816	-12.775383	-88.091779	79.129171	-88.091779	79.129171	-0.017805	-12.769418
0.600000	-0.018890	-13.933742	-87.722421	78.815680	-87.722421	78.815680	-0.018876	-13.927230
0.650000	-0.020012	-15.090650	-87.456629	78.721187	-87.456629	78.721187	-0.019998	-15.083594
0.700000	-0.021182	-16.246056	-87.288597	78.894201	-87.288597	78.894201	-0.021166	-16.238459
0.750000	-0.022395	-17.399906	-87.214501	79.398534	-87.214501	79.398534	-0.022377	-17.391772
0.800000	-0.023647	-18.552147	-87.231583	80.318809	-87.231583	80.318809	-0.023629	-18.543480
0.850000	-0.024936	-19.702726	-87.336942	81.767643	-87.336942	81.767643	-0.024916	-19.693528
0.900000	-0.026256	-20.851591	-87.525649	83.894346	-87.525649	83.894346	-0.026235	-20.841865
0.950000	-0.027604	-21.998691	-87.787520	86.893426	-87.787520	86.893426	-0.027582	-21.988441
1.000000	-0.028976	-23.143978	-88.101660	91.007146	-88.101660	91.007146	-0.028953	-23.133207
1.050000	-0.030367	-24.287405	-88.428017	96.507556	-88.428017	96.507556	-0.030343	-24.276117
1.100000	-0.031775	-25.428928	-88.697081	103.629932	-88.697081	103.629932	-0.031750	-25.417126
1.150000	-0.033197	-26.568504	-88.805020	112.424828	-88.805020	112.424828	-0.033171	-26.556191
1.200000	-0.034629	-27.706093	-88.631085	122.545728	-88.631085	122.545728	-0.034602	-27.693273
1.250000	-0.036069	-28.841655	-88.089479	133.142972	-88.089479	133.142972	-0.036041	-28.828331
1.300000	-0.037514	-29.975062	-87.167588	143.059205	-87.167588	143.059205	-0.037485	-29.961238
1.350000	-0.038963	-31.106365	-85.980905	151.510543	-85.980905	151.510543	-0.038933	-31.092044
1.400000	-0.040413	-32.235531	-84.650259	158.251532	-84.650259	158.251532	-0.040382	-32.220715
1.450000	-0.041863	-33.362525	-83.271511	163.393889	-83.271511	163.393889	-0.041831	-33.347219
1.500000	-0.043312	-34.487315	-81.904657	167.193804	-81.904657	167.193804	-0.043279	-34.471522
1.550000	-0.044759	-35.609869	-80.581527	169.922608	-80.581527	169.922608	-0.044725	-35.593593
1.600000	-0.046202	-36.730158	-79.316317	171.814533	-79.316317	171.814533	-0.046168	-36.713401
1.650000	-0.047643	-37.848151	-78.113400	173.055544	-78.113400	173.055544	-0.047607	-37.830918
1.700000	-0.049079	-38.963820	-76.972115	173.788168	-76.972115	173.788168	-0.049043	-38.946113
1.750000	-0.050511	-40.077136	-75.889425	174.120351	-75.889425	174.120351	-0.050474	-40.058960
1.800000	-0.051938	-41.188072	-74.861342	174.133841	-74.861342	174.133841	-0.051900	-41.169430
1.850000	-0.053361	-42.296602	-73.883648	173.890930	-73.883648	173.890930	-0.053323	-42.277498
1.900000	-0.054780	-43.402700	-72.952244	173.439517	-72.952244	173.439517	-0.054741	-43.383138
1.950000	-0.056195	-44.506342	-72.063316	172.816824	-72.063316	172.816824	-0.056155	-44.486323
2.000000	-0.057606	-45.607501	-71.213382	172.052090	-71.213382	172.052090	-0.057565	-45.587032
2.050000	-0.059014	-46.706157	-70.399304	171.168530	-70.399304	171.168530	-0.058972	-46.685239
2.100000	-0.060419	-47.802285	-69.618266	170.184770	-69.618266	170.184770	-0.060377	-47.780923
2.150000	-0.061822	-48.895864	-68.867750	169.115903	-68.867750	169.115903	-0.061779	-48.874062
2.200000	-0.063223	-49.986873	-68.145501	167.974266	-68.145501	167.974266	-0.063179	-49.964635
2.250000	-0.064623	-51.075292	-67.449501	166.770040	-67.449501	166.770040	-0.064578	-51.052622
2.300000	-0.066023	-52.161102	-66.777938	165.511686	-66.777938	165.511686	-0.065977	-52.138003
2.350000	-0.067423	-53.244285	-66.129181	164.206293	-66.129181	164.206293	-0.067377	-53.220761
2.400000	-0.068824	-54.324823	-65.501761	162.859842	-65.501761	162.859842	-0.068777	-54.300879
2.450000	-0.070227	-55.402701	-64.894347	161.477407	-64.894347	161.477407	-0.070179	-55.378339
2.500000	-0.071632	-56.477903	-64.305733	160.063326	-64.305733	160.063326	-0.071584	-56.453128
2.550000	-0.073041	-57.550297	-63.733965	158.620257	-63.733965	158.620257	-0.072992	-57.525114
2.600000	-0.074454	-58.619987	-63.179001	157.152729	-63.179001	157.152729	-0.074404	-58.594399
2.650000	-0.075871	-59.686961	-62.639913	155.663479	-62.639913	155.663479	-0.075821	-59.660972
2.700000	-0.077294	-60.751207	-62.115855	154.154898	-62.115855	154.154898	-0.077243	-60.724822
2.750000	-0.078724	-61.812718	-61.606045	152.629080	-61.606045	152.629080	-0.078672	-61.785940
2.800000	-0.080161	-62.871483	-61.109766	151.087869	-61.109766	151.087869	-0.080108	-62.844317
2.850000	-0.081605	-63.927495	-60.626356	149.532891	-60.626356	149.532891	-0.081552	-63.899945
2.900000	-0.083058	-64.980749	-60.155204	147.965587	-60.155204	147.965587	-0.083004	-64.952819
2.950000	-0.084520	-66.031240	-59.695741	146.387236	-59.695741	146.387236	-0.084466	-66.002933
3.000000	-0.085993	-67.078962	-59.247442	144.798980	-59.247442	144.798980	-0.085938	-67.050284
3.050000	-0.087476	-68.123914	-58.809815	143.201837	-58.809815	143.201837	-0.087421	-68.094868
3.100000	-0.088971	-69.166095	-58.382405	141.596721	-58.382405	141.596721	-0.088915	-69.136685
3.150000	-0.090477	-70.205503	-57.964785	139.984451	-57.964785	139.984451	-0.090421	-70.175733
3.200000	-0.091997	-71.242139	-57.556556	138.365768	-57.556556	138.365768	-0.091940	-71.212015
3.250000	-0.093530	-72.276007	-57.157346	136.741338	-57.157346	136.741338	-0.093473	-72.245531
3.300000	-0.095078	-73.307108	-56.766803	135.111763	-56.766803	135.111763	-0.095019	-73.276285
3.350000	-0.096640	-74.335447	-56.384599	133.477590	-56.384599	133.477590	-0.096581	-74.304281
3.400000	-0.098217	-75.361031	-56.010425	131.839317	-56.010425	131.839317	-0.098158	-75.329525
3.450000	-0.099811	-76.383865	-55.643989	130.197396	-55.643989	130.197396	-0.099752	-76.352024
3.500000	-0.101422	-77.403957	-55.285016	128.552238	-55.285016	128.552238	-0.101362	-77.371786
3.550000	-0.103050	-78.421317	-54.933248	126.904221	-54.933248	126.904221	-0.102989	-78.388819
3.600000	-0.104696	-79.435955	-54.588438	125.253690	-54.588438	125.253690	-0.104635	-79.403134
3.650000	-0.106360	-80.447882	-54.250355	123.600961	-54.250355	123.600961	-0.106298	-80.414742
3.700000	-0.108044	-81.457110	-53.918778	121.946326	-53.918778	121.946326	-0.107982	-81.423656
3.750000	-0.109747	-82.463654	-53.593500	120.290052	-53.593500	120.290052	-0.109684	-82.429888
3.800000	-0.111471	-83.467412	-53.274079	118.632337	-53.274079	118.632337	-0.111408	-83.433340
3.850000	-0.113216	-84.468518	-52.960592	116.973478	-52.960592	116.973478	-0.113153	-84.434142
3.900000	-0.114983	-85.466987	-52.652858	115.313683	-52.652858	115.313683	-0.114919	-85.432313
3.950000	-0.116772	-86.462839	-52.350706	113.653147	-52.350706	113.653147	-0.116707	-86.427870
4.000000	-0.118583	-87.456093	-52.053971	111.992051	-52.053971	111.992051	-0.118518	-87.420832
4.050000	-0.120417	-88.446768	-51.762499	110.330561	-51.762499	110.330561	-0.120352	-88.411219
4.100000	-0.122274	-89.434886	-51.476140	108.668834	-51.476140	108.668834	-0.122209	-89.399053
4.150000	-0.124156	-90.420469	-51.194753	107.007018	-51.194753	107.007018	-0.124090	-90.384355
4.200000	-0.126062	-91.403540	-50.918201	105.345247	-50.918201	105.345247	-0.125996	-91.367150
4.250000	-0.127993	-92.384124	-50.646355	103.683650	-50.646355	103.683650	-0.127926	-92.347460
4.300000	-0.129949	-93.362244	-50.379090	102.022348	-50.379090	102.022348	-0.129882	-93.325311
4.350000	-0.131932	-94.337929	-50.116287	100.361453	-50.116287	100.361453	-0.131864	-94.300729
4.400000	-0.133940	-95.311204	-49.857832	98.701071	-49.857832	98.701071	-0.133873	-95.273742
4.450000	-0.135976	-96.282097	-49.603616	97.041302	-49.603616	97.041302	-0.135908	-96.244376
4.500000	-0.138039	-97.250637	-49.353533	95.382241	-49.353533	95.382241	-0.137971	-97.212660
4.550000	-0.140130	-98.216855	-49.107482	93.723976	-49.107482	93.723976	-0.140061	-98.178625
4.600000	-0.142249	-99.180779	-48.865366	92.066591	-48.865366	92.066591	-0.142180	-99.142300
4.650000	-0.144397	-100.142443	-48.627092	90.410166	-48.627092	90.410166	-0.144327	-100.103718
4.700000	-0.146573	-101.101877	-48.392569	88.754776	-48.392569	88.754776	-0.146504	-101.062909
4.750000	-0.148780	-102.059115	-48.161711	87.100493	-48.161711	87.100493	-0.148710	-102.019908
4.800000	-0.151016	-103.014192	-47.934434	85.447384	-47.934434	85.447384	-0.150946	-102.974748
4.850000	-0.153283	-103.967141	-47.710657	83.795514	-47.710657	83.795514	-0.153212	-103.927464
4.900000	-0.155580	-104.917997	-47.490304	82.144942	-47.490304	82.144942	-0.155509	-104.878090
4.950000	-0.157909	-105.866798	-47.273298	80.495727	-47.273298	80.495727	-0.157838	-105.826664
5.000000	-0.160269	-106.813580	-47.059568	78.847923	-47.059568	78.847923	-0.160198	-106.773221
5.050000	-0.162663	-107.758296	-46.848961	77.201649	-46.848961	77.201649	-0.162591	-107.717716
5.100000	-0.165089	-108.701073	-46.641499	75.556891	-46.641499	75.556891	-0.165017	-108.660274
5.150000	-0.167548	-109.641950	-46.437116	73.913696	-46.437116	73.913696	-0.167476	-109.600935
5.200000	-0.170040	-110.580966	-46.235747	72.272108	-46.235747	72.272108	-0.169968	-110.539739
5.250000	-0.172566	-111.518162	-46.037332	70.632169	-46.037332	70.632169	-0.172494	-111.476725
5.300000	-0.175126	-112.453580	-45.841811	68.993916	-45.841811	68.993916	-0.175054	-112.411935
5.350000	-0.177720	-113.387261	-45.649124	67.357388	-45.649124	67.357388	-0.177648	-113.345411
5.400000	-0.180349	-114.319248	-45.459217	65.722619	-45.459217	65.722619	-0.180277	-114.277196
5.450000	-0.183013	-115.249584	-45.272035	64.089642	-45.272035	64.089642	-0.182941	-115.207332
5.500000	-0.185712	-116.178312	-45.087525	62.458488	-45.087525	62.458488	-0.185640	-116.135863
5.550000	-0.188448	-117.105477	-44.905636	60.829186	-44.905636	60.829186	-0.188375	-117.062834
5.600000	-0.191219	-118.031124	-44.726317	59.201761	-44.726317	59.201761	-0.191147	-117.988289
5.650000	-0.194027	-118.955298	-44.549521	57.576240	-44.549521	57.576240	-0.193955	-118.912273
5.700000	-0.196872	-119.878046	-44.375202	55.952645	-44.375202	55.952645	-0.196800	-119.834834
5.750000	-0.199754	-120.799414	-44.203312	54.330997	-44.203312	54.330997	-0.199682	-120.756017
5.800000	-0.202674	-121.719449	-44.033809	52.711317	-44.033809	52.711317	-0.202602	-121.675870
5.850000	-0.205638	-122.637991	-43.866502	51.093973	-43.866502	51.093973	-0.205567	-122.594232
5.900000	-0.208642	-123.555244	-43.701467	49.478716	-43.701467	49.478716	-0.208571	-123.511308
5.950000	-0.211667	-124.471897	-43.539098	47.864517	-43.539098	47.864517	-0.211596	-124.427785
6.000000	-0.214752	-125.386751	-43.378500	46.253489	-43.378500	46.253489	-0.214681	-125.342466
6.050000	-0.217851	-126.301241	-43.220575	44.643173	-43.220575	44.643173	-0.217780	-126.256784
6.100000	-0.221018	-127.213915	-43.064276	43.036421	-43.064276	43.036421	-0.220948	-127.169290
6.150000	-0.224193	-128.126425	-42.910634	41.430027	-42.910634	41.430027	-0.224123	-128.081632
6.200000	-0.227443	-129.037140	-42.758503	39.827584	-42.758503	39.827584	-0.227374	-128.992184
6.250000	-0.230695	-129.947856	-42.608992	38.225141	-42.608992	38.225141	-0.230626	-129.902736
6.300000	-0.234030	-130.856841	-42.460906	36.627030	-42.460906	36.627030	-0.233962	-130.811562
6.350000	-0.237367	-131.765826	-42.315302	35.028918	-42.315302	35.028918	-0.237299	-131.720388
6.400000	-0.240781	-132.673437	-42.171225	33.434787	-42.171225	33.434787	-0.240714	-132.627844
6.450000	-0.244204	-133.580923	-42.029419	31.841018	-42.029419	31.841018	-0.244137	-133.535176
6.500000	-0.247698	-134.487357	-41.889216	30.250866	-41.889216	30.250866	-0.247632	-134.441459
6.550000	-0.251207	-135.393581	-41.751106	28.661438	-41.751106	28.661438	-0.251143	-135.347533
6.600000	-0.254782	-136.299037	-41.614651	27.075259	-41.614651	27.075259	-0.254718	-136.252843
6.650000	-0.258380	-137.204238	-41.480139	25.490163	-41.480139	25.490163	-0.258317	-137.157898
6.700000	-0.262037	-138.108920	-41.347314	23.907942	-41.347314	23.907942	-0.261975	-138.062437
6.750000	-0.265724	-139.013342	-41.216310	22.327159	-41.216310	22.327159	-0.265663	-138.966718
6.800000	-0.269464	-139.917454	-41.087006	20.748879	-41.087006	20.748879	-0.269404	-139.870692
6.850000	-0.273241	-140.821346	-40.959425	19.172385	-40.959425	19.172385	-0.273182	-140.774447
6.900000	-0.277064	-141.725098	-40.833538	17.598021	-40.833538	17.598021	-0.277006	-141.678064
6.950000	-0.280932	-142.628710	-40.709300	16.025785	-40.709300	16.025785	-0.280876	-142.581545
7.000000	-0.284839	-143.532313	-40.586736	14.455310	-40.586736	14.455310	-0.284784	-143.485018
7.050000	-0.288799	-144.435903	-40.465769	12.887299	-40.465769	12.887299	-0.288746	-144.388480
7.100000	-0.292783	-145.339540	-40.346439	11.320337	-40.346439	11.320337	-0.292731	-145.291992
7.150000	-0.296827	-146.243328	-40.228677	9.756079	-40.228677	9.756079	-0.296776	-146.195657
7.200000	-0.300914	-147.147308	-40.112487	8.193817	-40.112487	8.193817	-0.300866	-147.099517
7.250000	-0.305047	-148.051541	-39.997851	6.633541	-39.997851	6.633541	-0.305000	-148.003632
7.300000	-0.309225	-148.956088	-39.884753	5.075244	-39.884753	5.075244	-0.309180	-148.908064
7.350000	-0.313447	-149.861011	-39.773179	3.518917	-39.773179	3.518917	-0.313404	-149.812874
7.400000	-0.317715	-150.766371	-39.663112	1.964552	-39.663112	1.964552	-0.317673	-150.718124
7.450000	-0.322027	-151.672230	-39.554540	0.412142	-39.554540	0.412142	-0.321988	-151.623876
7.500000	-0.326385	-152.578652	-39.447447	-1.138321	-39.447447	-1.138321	-0.326348	-152.530193
7.550000	-0.330790	-153.485729	-39.341830	-2.686757	-39.341830	-2.686757	-0.330755	-153.437168
7.600000	-0.335241	-154.393500	-39.237671	-4.233258	-39.237671	-4.233258	-0.335208	-154.344841
7.650000	-0.339736	-155.302029	-39.134957	-5.777829	-39.134957	-5.777829	-0.339706	-155.253274
7.700000	-0.344277	-156.211380	-39.033678	-7.320472	-39.033678	-7.320472	-0.344250	-156.162533
7.750000	-0.348864	-157.121618	-38.933823	-8.861191	-38.933823	-8.861191	-0.348839	-157.072681
7.800000	-0.353495	-158.032808	-38.835382	-10.399987	-38.835382	-10.399987	-0.353473	-157.983785
7.850000	-0.358172	-158.945015	-38.738347	-11.936862	-38.738347	-11.936862	-0.358153	-158.895909
7.900000	-0.362894	-159.858304	-38.642707	-13.471813	-38.642707	-13.471813	-0.362878	-159.809119
7.950000	-0.367661	-160.772741	-38.548456	-15.004840	-38.548456	-15.004840	-0.367648	-160.723481
8.000000	-0.372473	-161.688394	-38.455585	-16.535937	-38.455585	-16.535937	-0.372463	-161.639062
8.050000	-0.377330	-162.605328	-38.364087	-18.065101	-38.364087	-18.065101	-0.377323	-162.555928
8.100000	-0.382232	-163.523610	-38.273956	-19.592323	-38.273956	-19.592323	-0.382229	-163.474147
8.150000	-0.387179	-164.443309	-38.185184	-21.117596	-38.185184	-21.117596	-0.387179	-164.393786
8.200000	-0.392170	-165.364492	-38.097768	-22.640909	-38.097768	-22.640909	-0.392173	-165.314913
8.250000	-0.397205	-166.287227	-38.011700	-24.162249	-38.011700	-24.162249	-0.397212	-166.237597
8.300000	-0.402284	-167.211581	-37.926976	-25.681602	-37.926976	-25.681602	-0.402295	-167.161906
8.350000	-0.407406	-168.137625	-37.843592	-27.198952	-37.843592	-27.198952	-0.407421	-168.087908
8.400000	-0.412573	-169.065427	-37.761543	-28.714280	-37.761543	-28.714280	-0.412592	-169.015674
8.450000	-0.417782	-169.995057	-37.680826	-30.227565	-37.680826	-30.227565	-0.417805	-169.945272
8.500000	-0.423034	-170.926584	-37.601436	-31.738785	-37.601436	-31.738785	-0.423062	-170.876773
8.550000	-0.428329	-171.860077	-37.523371	-33.247914	-37.523371	-33.247914	-0.428361	-171.810246
8.600000	-0.433665	-172.795608	-37.446628	-34.754925	-37.446628	-34.754925	-0.433702	-172.745762
8.650000	-0.439043	-173.733247	-37.371204	-36.259788	-37.371204	-36.259788	-0.439086	-173.683393
8.700000	-0.444463	-174.673064	-37.297096	-37.762469	-37.297096	-37.762469	-0.444510	-174.623208
8.750000	-0.449923	-175.615131	-37.224303	-39.262935	-37.224303	-39.262935	-0.449975	-175.565279
8.800000	-0.455425	-176.559623	-37.152853	-40.761048	-37.152853	-40.761048	-0.455482	-176.509782
8.850000	-0.460966	-177.506515	-37.082716	-42.256864	-37.082716	-42.256864	-0.461029	-177.456691
8.900000	-0.466547	-178.455876	-37.013889	-43.750340	-37.013889	-43.750340	-0.466615	-178.406078
8.950000	-0.472165	-179.407781	-36.946370	-45.241431	-36.946370	-45.241431	-0.472240	-179.358015
9.000000	-0.477822	179.637700	-36.880158	-46.730089	-36.880158	-46.730089	-0.477902	179.687425
9.050000	-0.483515	178.680493	-36.815252	-48.216263	-36.815252	-48.216263	-0.483602	178.730170
9.100000	-0.489245	177.720527	-36.751650	-49.699901	-36.751650	-49.699901	-0.489338	177.770147
9.150000	-0.495010	176.757729	-36.689350	-51.180947	-36.689350	-51.180947	-0.495110	176.807284
9.200000	-0.500810	175.792026	-36.628351	-52.659343	-36.628351	-52.659343	-0.500916	175.841506
9.250000	-0.506643	174.823345	-36.568652	-54.135028	-36.568652	-54.135028	-0.506757	174.872741
9.300000	-0.512510	173.851613	-36.510250	-55.607940	-36.510250	-55.607940	-0.512630	173.900916
9.350000	-0.518408	172.876758	-36.453145	-57.078013	-36.453145	-57.078013	-0.518536	172.925957
9.400000	-0.524337	171.898706	-36.397334	-58.545181	-36.397334	-58.545181	-0.524472	171.947791
9.450000	-0.530296	170.917384	-36.342816	-60.009372	-36.342816	-60.009372	-0.530439	170.966345
9.500000	-0.536283	169.932720	-36.289588	-61.470515	-36.289588	-61.470515	-0.536434	169.981545
9.550000	-0.542298	168.944640	-36.237649	-62.928536	-36.237649	-62.928536	-0.542458	168.993317
9.600000	-0.548340	167.953072	-36.186996	-64.383359	-36.186996	-64.383359	-0.548507	168.001590
9.650000	-0.554406	166.957942	-36.137626	-65.834906	-36.137626	-65.834906	-0.554582	167.006288
9.700000	-0.560496	165.959178	-36.089537	-67.283097	-36.089537	-67.283097	-0.560682	166.007340
9.750000	-0.566609	164.956708	-36.042726	-68.727849	-36.042726	-68.727849	-0.566803	165.004672
9.800000	-0.572742	163.950459	-35.997189	-70.169081	-35.997189	-70.169081	-0.572946	163.998212
9.850000	-0.578895	162.940360	-35.952923	-71.606706	-35.952923	-71.606706	-0.579109	162.987887
9.900000	-0.585066	161.926338	-35.909923	-73.040640	-35.909923	-73.040640	-0.585289	161.973626
9.950000	-0.591253	160.908323	-35.868187	-74.470793	-35.868187	-74.470793	-0.591487	160.955355
10.000000	-0.597455	159.886242	-35.827708	-75.897078	-35.827708	-75.897078	-0.597699	159.933003
