! freq	dB(S11)	phase(S11)	dB(S12)	phase(S12)	
!     	dB(S21)	phase(S21)	dB(S22)	phase(S22)	
!S-par simulation data
#  GHz  S  DB  R 50
0.000000	-0.000000	0.000000	-387.799461	180.000000	-387.799461	180.000000	-0.000000	-0.000000
0.050000	-0.000127	-1.056561	-113.406073	85.832826	-113.406073	85.832826	-0.000101	-0.759736
0.100000	-0.000504	-2.112812	-107.804316	83.487795	-107.804316	83.487795	-0.000399	-1.519220
0.150000	-0.001117	-3.168463	-104.675315	82.510582	-104.675315	82.510582	-0.000881	-2.278224
0.200000	-0.001943	-4.223267	-102.506031	82.085659	-102.506031	82.085659	-0.001525	-3.036563
0.250000	-0.002969	-5.276938	-100.868489	81.836751	-100.868489	81.836751	-0.002316	-3.794035
0.300000	-0.004150	-6.329408	-99.575571	81.630309	-99.575571	81.630309	-0.003215	-4.550613
0.350000	-0.005465	-7.380507	-98.541040	81.455514	-98.541040	81.455514	-0.004204	-5.306207
0.400000	-0.006885	-8.430152	-97.712345	81.331322	-97.712345	81.331322	-0.005258	-6.060791
0.450000	-0.008385	-9.478293	-97.056744	81.292913	-97.056744	81.292913	-0.006358	-6.814370
0.500000	-0.009941	-10.524908	-96.553205	81.385395	-96.553205	81.385395	-0.007486	-7.566969
0.550000	-0.011532	-11.569998	-96.188314	81.664362	-96.188314	81.664362	-0.008629	-8.318624
0.600000	-0.013142	-12.613578	-95.953941	82.199880	-95.953941	82.199880	-0.009775	-9.069377
0.650000	-0.014759	-13.655670	-95.845712	83.083306	-95.845712	83.083306	-0.010917	-9.819272
0.700000	-0.016370	-14.696301	-95.861654	84.437528	-95.861654	84.437528	-0.012050	-10.568348
0.750000	-0.017969	-15.735495	-96.000450	86.431828	-96.000450	86.431828	-0.013171	-11.316642
0.800000	-0.019551	-16.773277	-96.258326	89.302264	-96.258326	89.302264	-0.014277	-12.064183
0.850000	-0.021112	-17.809662	-96.622868	93.375336	-96.622868	93.375336	-0.015368	-12.810994
0.900000	-0.022650	-18.844665	-97.060804	99.080453	-97.060804	99.080453	-0.016444	-13.557094
0.950000	-0.024164	-19.878292	-97.496812	106.903774	-97.496812	106.903774	-0.017505	-14.302493
1.000000	-0.025655	-20.910543	-97.788486	117.184881	-97.788486	117.184881	-0.018552	-15.047199
1.050000	-0.027123	-21.941414	-97.730593	129.685371	-97.730593	129.685371	-0.019587	-15.791215
1.100000	-0.028569	-22.970895	-97.145316	143.180499	-97.145316	143.180499	-0.020611	-16.534538
1.150000	-0.029994	-23.998972	-96.024114	155.795393	-96.024114	155.795393	-0.021624	-17.277164
1.200000	-0.031401	-25.025628	-94.538150	166.153002	-94.538150	166.153002	-0.022628	-18.019085
1.250000	-0.032791	-26.050841	-92.895427	173.954420	-92.895427	173.954420	-0.023624	-18.760294
1.300000	-0.034164	-27.074522	-91.227639	179.495544	-91.227639	179.495544	-0.024612	-19.500746
1.350000	-0.035523	-28.096708	-89.621550	-176.596650	-89.621550	-176.596650	-0.025595	-20.240460
1.400000	-0.036871	-29.117371	-88.102531	-173.894345	-88.102531	-173.894345	-0.026572	-20.979423
1.450000	-0.038207	-30.136482	-86.675554	-172.079608	-86.675554	-172.079608	-0.027545	-21.717620
1.500000	-0.039534	-31.154011	-85.336826	-170.924746	-85.336826	-170.924746	-0.028515	-22.455037
1.550000	-0.040853	-32.169928	-84.079342	-170.267829	-84.079342	-170.267829	-0.029481	-23.191658
1.600000	-0.042164	-33.184201	-82.895364	-169.992907	-82.895364	-169.992907	-0.030444	-23.927468
1.650000	-0.043470	-34.196801	-81.777464	-170.015871	-81.777464	-170.015871	-0.031405	-24.662452
1.700000	-0.044770	-35.207695	-80.718904	-170.274762	-80.718904	-170.274762	-0.032365	-25.396594
1.750000	-0.046067	-36.216855	-79.713728	-170.723202	-79.713728	-170.723202	-0.033324	-26.129878
1.800000	-0.047360	-37.224248	-78.756727	-171.325933	-78.756727	-171.325933	-0.034281	-26.862288
1.850000	-0.048651	-38.229847	-77.843366	-172.055750	-77.843366	-172.055750	-0.035239	-27.593809
1.900000	-0.049940	-39.233621	-76.969699	-172.891370	-76.969699	-172.891370	-0.036196	-28.324426
1.950000	-0.051229	-40.235543	-76.132281	-173.815931	-76.132281	-173.815931	-0.037153	-29.054122
2.000000	-0.052516	-41.235584	-75.328100	-174.815912	-75.328100	-174.815912	-0.038111	-29.782884
2.050000	-0.053804	-42.233719	-74.554505	-175.880353	-74.554505	-175.880353	-0.039070	-30.510696
2.100000	-0.055093	-43.229921	-73.809161	-177.000284	-73.809161	-177.000284	-0.040030	-31.237542
2.150000	-0.056384	-44.224164	-73.089998	-178.168291	-73.089998	-178.168291	-0.040992	-31.963409
2.200000	-0.057676	-45.216426	-72.395172	-179.378196	-72.395172	-179.378196	-0.041955	-32.688282
2.250000	-0.058970	-46.206682	-71.723039	179.375190	-71.723039	179.375190	-0.042920	-33.412147
2.300000	-0.060268	-47.194910	-71.072120	178.096260	-71.072120	178.096260	-0.043888	-34.134990
2.350000	-0.061569	-48.181090	-70.441086	176.788752	-70.441086	176.788752	-0.044858	-34.856797
2.400000	-0.062873	-49.165200	-69.828735	175.455875	-69.828735	175.455875	-0.045831	-35.577555
2.450000	-0.064182	-50.147221	-69.233978	174.100393	-69.233978	174.100393	-0.046808	-36.297250
2.500000	-0.065496	-51.127135	-68.655821	172.724705	-68.655821	172.724705	-0.047788	-37.015870
2.550000	-0.066815	-52.104831	-68.092464	171.330199	-68.092464	171.330199	-0.048772	-37.733352
2.600000	-0.068140	-53.080385	-67.544065	169.919553	-67.544065	169.919553	-0.049760	-38.449733
2.650000	-0.069472	-54.053781	-67.009855	168.494349	-67.009855	168.494349	-0.050753	-39.164999
2.700000	-0.070810	-55.025005	-66.489125	167.055990	-66.489125	167.055990	-0.051750	-39.879139
2.750000	-0.072155	-55.994044	-65.981220	165.605723	-65.981220	165.605723	-0.052753	-40.592140
2.800000	-0.073508	-56.960885	-65.485537	164.144655	-65.485537	164.144655	-0.053762	-41.303992
2.850000	-0.074870	-57.925517	-65.001516	162.673782	-65.001516	162.673782	-0.054776	-42.014683
2.900000	-0.076240	-58.887930	-64.528637	161.193994	-64.528637	161.193994	-0.055796	-42.724201
2.950000	-0.077619	-59.848114	-64.066416	159.706092	-64.066416	159.706092	-0.056823	-43.432537
3.000000	-0.079008	-60.806061	-63.614403	158.210802	-63.614403	158.210802	-0.057857	-44.139680
3.050000	-0.080407	-61.761764	-63.172176	156.708780	-63.172176	156.708780	-0.058898	-44.845619
3.100000	-0.081816	-62.715215	-62.739342	155.200619	-62.739342	155.200619	-0.059947	-45.550345
3.150000	-0.083237	-63.666410	-62.315531	153.686862	-62.315531	153.686862	-0.061003	-46.253848
3.200000	-0.084670	-64.615344	-61.900396	152.168002	-61.900396	152.168002	-0.062068	-46.956119
3.250000	-0.086115	-65.562013	-61.493612	150.644490	-61.493612	150.644490	-0.063141	-47.657149
3.300000	-0.087572	-66.506414	-61.094872	149.116740	-61.094872	149.116740	-0.064224	-48.356929
3.350000	-0.089043	-67.448547	-60.703887	147.585132	-60.703887	147.585132	-0.065316	-49.055450
3.400000	-0.090528	-68.388409	-60.320384	146.050013	-60.320384	146.050013	-0.066417	-49.752705
3.450000	-0.092027	-69.326001	-59.944104	144.511705	-59.944104	144.511705	-0.067529	-50.448686
3.500000	-0.093541	-70.261323	-59.574803	142.970506	-59.574803	142.970506	-0.068650	-51.143384
3.550000	-0.095070	-71.194379	-59.212250	141.426688	-59.212250	141.426688	-0.069783	-51.836794
3.600000	-0.096616	-72.125169	-58.856225	139.880505	-58.856225	139.880505	-0.070927	-52.528907
3.650000	-0.098177	-73.053699	-58.506521	138.332192	-58.506521	138.332192	-0.072082	-53.219717
3.700000	-0.099756	-73.979973	-58.162937	136.781968	-58.162937	136.781968	-0.073250	-53.909218
3.750000	-0.101353	-74.903995	-57.825287	135.230035	-57.825287	135.230035	-0.074429	-54.597403
3.800000	-0.102968	-75.825675	-57.493091	133.676524	-57.493091	133.676524	-0.075622	-55.284210
3.850000	-0.104602	-76.745117	-57.166498	132.121684	-57.166498	132.121684	-0.076827	-55.969690
3.900000	-0.106255	-77.662331	-56.845345	130.565677	-56.845345	130.565677	-0.078046	-56.653837
3.950000	-0.107928	-78.577324	-56.529474	129.008655	-56.529474	129.008655	-0.079279	-57.336648
4.000000	-0.109621	-79.490106	-56.218735	127.450760	-56.218735	127.450760	-0.080526	-58.018118
4.050000	-0.111335	-80.400688	-55.912983	125.892124	-55.912983	125.892124	-0.081787	-58.698241
4.100000	-0.113070	-81.309081	-55.612082	124.332872	-55.612082	124.332872	-0.083063	-59.377016
4.150000	-0.114827	-82.215297	-55.315900	122.773120	-55.315900	122.773120	-0.084354	-60.054437
4.200000	-0.116607	-83.119348	-55.024311	121.212979	-55.024311	121.212979	-0.085661	-60.730502
4.250000	-0.118409	-84.021249	-54.737193	119.652551	-54.737193	119.652551	-0.086984	-61.405208
4.300000	-0.120235	-84.921013	-54.454431	118.091932	-54.454431	118.091932	-0.088324	-62.078552
4.350000	-0.122085	-85.818657	-54.175913	116.531213	-54.175913	116.531213	-0.089680	-62.750531
4.400000	-0.123960	-86.714194	-53.901532	114.970481	-53.901532	114.970481	-0.091053	-63.421144
4.450000	-0.125859	-87.607643	-53.631186	113.409815	-53.631186	113.409815	-0.092443	-64.090389
4.500000	-0.127784	-88.499019	-53.364775	111.849291	-53.364775	111.849291	-0.093852	-64.758264
4.550000	-0.129734	-89.388342	-53.102204	110.288981	-53.102204	110.288981	-0.095278	-65.424768
4.600000	-0.131712	-90.275630	-52.843382	108.728953	-52.843382	108.728953	-0.096723	-66.089900
4.650000	-0.133716	-91.160902	-52.588219	107.169270	-52.588219	107.169270	-0.098187	-66.753660
4.700000	-0.135748	-92.044178	-52.336632	105.609993	-52.336632	105.609993	-0.099671	-67.416048
4.750000	-0.137807	-92.925479	-52.088538	104.051179	-52.088538	104.051179	-0.101174	-68.077062
4.800000	-0.139896	-93.804827	-51.843857	102.492881	-51.843857	102.492881	-0.102698	-68.736705
4.850000	-0.142013	-94.682243	-51.602514	100.935151	-51.602514	100.935151	-0.104242	-69.394975
4.900000	-0.144159	-95.557749	-51.364434	99.378037	-51.364434	99.378037	-0.105806	-70.051874
4.950000	-0.146336	-96.431370	-51.129547	97.821585	-51.129547	97.821585	-0.107392	-70.707403
5.000000	-0.148543	-97.303129	-50.897783	96.265839	-50.897783	96.265839	-0.109000	-71.361564
5.050000	-0.150782	-98.172972	-50.668948	94.710875	-50.668948	94.710875	-0.110631	-72.014298
5.100000	-0.153052	-99.041004	-50.443114	93.156699	-50.443114	93.156699	-0.112284	-72.665668
5.150000	-0.155354	-99.907253	-50.220217	91.603351	-50.220217	91.603351	-0.113960	-73.315674
5.200000	-0.157689	-100.771744	-50.000198	90.050864	-50.000198	90.050864	-0.115659	-73.964321
5.250000	-0.160056	-101.634504	-49.782997	88.499273	-49.782997	88.499273	-0.117382	-74.611610
5.300000	-0.162456	-102.495561	-49.568558	86.948609	-49.568558	86.948609	-0.119129	-75.257545
5.350000	-0.164890	-103.354943	-49.356825	85.398904	-49.356825	85.398904	-0.120900	-75.902129
5.400000	-0.167358	-104.212678	-49.147746	83.850185	-49.147746	83.850185	-0.122696	-76.545365
5.450000	-0.169873	-105.068247	-48.940471	82.302848	-48.940471	82.302848	-0.124526	-77.186791
5.500000	-0.172405	-105.922983	-48.736854	80.756049	-48.736854	80.756049	-0.126369	-77.827518
5.550000	-0.174981	-106.775839	-48.535262	79.210560	-48.535262	79.210560	-0.128244	-78.466622
5.600000	-0.177588	-107.627350	-48.336399	77.666008	-48.336399	77.666008	-0.130142	-79.104565
5.650000	-0.180233	-108.477319	-48.139860	76.122631	-48.139860	76.122631	-0.132068	-79.741127
5.700000	-0.182916	-109.325743	-47.945591	74.580428	-47.945591	74.580428	-0.134022	-80.376308
5.750000	-0.185631	-110.172940	-47.753907	73.039243	-47.753907	73.039243	-0.136000	-81.010347
5.800000	-0.188392	-111.018417	-47.564080	71.499482	-47.564080	71.499482	-0.138012	-81.642788
5.850000	-0.191179	-111.862962	-47.377061	69.960563	-47.377061	69.960563	-0.140043	-82.274323
5.900000	-0.194018	-112.705638	-47.191532	68.423329	-47.191532	68.423329	-0.142115	-82.904049
5.950000	-0.196879	-113.547652	-47.009001	66.886747	-47.009001	66.886747	-0.144202	-83.533103
6.000000	-0.199800	-114.387678	-46.827633	65.352118	-46.827633	65.352118	-0.146334	-84.160140
6.050000	-0.202735	-115.227287	-46.649423	63.817936	-46.649423	63.817936	-0.148477	-84.786734
6.100000	-0.205738	-116.064816	-46.472087	62.285984	-46.472087	62.285984	-0.150673	-85.411113
6.150000	-0.208750	-116.902149	-46.298040	60.754261	-46.298040	60.754261	-0.152874	-86.035272
6.200000	-0.211837	-117.737339	-46.124612	59.225052	-46.124612	59.225052	-0.155134	-86.657022
6.250000	-0.214926	-118.572528	-45.954579	57.695843	-45.954579	57.695843	-0.157395	-87.278772
6.300000	-0.218100	-119.405541	-45.784940	56.169437	-45.784940	56.169437	-0.159721	-87.897926
6.350000	-0.221275	-120.238553	-45.618551	54.643031	-45.618551	54.643031	-0.162048	-88.517080
6.400000	-0.224528	-121.069723	-45.452819	53.119245	-45.452819	53.119245	-0.164437	-89.133887
6.450000	-0.227791	-121.900725	-45.289968	51.595698	-45.289968	51.595698	-0.166832	-89.750480
6.500000	-0.231126	-122.730194	-45.128006	50.074574	-45.128006	50.074574	-0.169285	-90.364969
6.550000	-0.234477	-123.559356	-44.968594	48.553935	-44.968594	48.553935	-0.171750	-90.979037
6.600000	-0.237895	-124.387268	-44.810273	47.035511	-44.810273	47.035511	-0.174268	-91.591241
6.650000	-0.241337	-125.214763	-44.654202	45.517825	-44.654202	45.517825	-0.176804	-92.202823
6.700000	-0.244839	-126.041266	-44.499401	44.002136	-44.499401	44.002136	-0.179388	-92.812773
6.750000	-0.248372	-126.867272	-44.346580	42.487444	-44.346580	42.487444	-0.181997	-93.421908
6.800000	-0.251959	-127.692515	-44.195182	40.974519	-44.195182	40.974519	-0.184650	-94.029640
6.850000	-0.255585	-128.517214	-44.045521	39.462857	-44.045521	39.462857	-0.187334	-94.636369
6.900000	-0.259259	-129.341352	-43.897417	37.952725	-43.897417	37.952725	-0.190056	-95.241918
6.950000	-0.262979	-130.164928	-43.750832	36.444122	-43.750832	36.444122	-0.192816	-95.846285
7.000000	-0.266740	-130.988114	-43.605917	34.936805	-43.605917	34.936805	-0.195609	-96.449686
7.050000	-0.270556	-131.810756	-43.462326	33.431288	-43.462326	33.431288	-0.198447	-97.051735
7.100000	-0.274405	-132.633150	-43.320499	31.926806	-43.320499	31.926806	-0.201311	-97.653027
7.150000	-0.278318	-133.455050	-43.179825	30.424393	-43.179825	30.424393	-0.204229	-98.252805
7.200000	-0.282256	-134.276813	-43.040992	28.922761	-43.040992	28.922761	-0.207167	-98.852026
7.250000	-0.286266	-135.098166	-42.903159	27.423469	-42.903159	27.423469	-0.210166	-99.449579
7.300000	-0.290295	-135.919461	-42.767228	25.924697	-42.767228	25.924697	-0.213179	-100.046770
7.350000	-0.294404	-136.740467	-42.632164	24.428533	-42.632164	24.428533	-0.216260	-100.642148
7.400000	-0.298524	-137.561460	-42.499050	22.932630	-42.499050	22.932630	-0.219349	-101.237349
7.450000	-0.302733	-138.382321	-42.366684	21.439597	-42.366684	21.439597	-0.222514	-101.830602
7.500000	-0.306945	-139.203182	-42.236305	19.946563	-42.236305	19.946563	-0.225680	-102.423856
7.550000	-0.311255	-140.024103	-42.106572	18.456658	-42.106572	18.456658	-0.228931	-103.015036
7.600000	-0.315567	-140.845025	-41.978748	16.966752	-41.978748	16.966752	-0.232183	-103.606217
7.650000	-0.319971	-141.666195	-41.851684	15.479704	-41.851684	15.479704	-0.235514	-104.195546
7.700000	-0.324385	-142.487387	-41.726354	13.992916	-41.726354	13.992916	-0.238853	-104.784707
7.750000	-0.328883	-143.308982	-41.601883	12.508712	-41.601883	12.508712	-0.242265	-105.372230
7.800000	-0.333399	-144.130657	-41.478989	11.025025	-41.478989	11.025025	-0.245693	-105.959426
7.850000	-0.337992	-144.952857	-41.357040	9.543646	-41.357040	9.543646	-0.249187	-106.545190
7.900000	-0.342612	-145.775233	-41.236526	8.063036	-41.236526	8.063036	-0.252705	-107.130477
7.950000	-0.347300	-146.598221	-41.117030	6.584457	-41.117030	6.584457	-0.256283	-107.714529
8.000000	-0.352023	-147.421515	-40.998843	5.106893	-40.998843	5.106893	-0.259891	-108.297963
8.050000	-0.356807	-148.245476	-40.881733	3.631084	-40.881733	3.631084	-0.263554	-108.880352
8.100000	-0.361634	-149.069913	-40.765822	2.156529	-40.765822	2.156529	-0.267255	-109.461993
8.150000	-0.366514	-149.895035	-40.651038	0.683455	-40.651038	0.683455	-0.271003	-110.042767
8.200000	-0.371447	-150.720842	-40.537355	-0.788138	-40.537355	-0.788138	-0.274798	-110.622675
8.250000	-0.376423	-151.547314	-40.424835	-2.258518	-40.424835	-2.258518	-0.278633	-111.201885
8.300000	-0.381461	-152.374720	-40.313334	-3.727200	-40.313334	-3.727200	-0.282524	-111.780120
8.350000	-0.386534	-153.202737	-40.203024	-5.194933	-40.203024	-5.194933	-0.286446	-112.357818
8.400000	-0.391676	-154.031975	-40.093661	-6.660766	-40.093661	-6.660766	-0.290432	-112.934442
8.450000	-0.396846	-154.861731	-39.985508	-8.125903	-39.985508	-8.125903	-0.294444	-113.510680
8.500000	-0.402094	-155.693039	-39.878242	-9.588954	-39.878242	-9.588954	-0.298527	-114.085757
8.550000	-0.407361	-156.524732	-39.772196	-11.051554	-39.772196	-11.051554	-0.302629	-114.660588
8.600000	-0.412714	-157.358350	-39.666989	-12.511898	-39.666989	-12.511898	-0.306810	-115.234184
8.650000	-0.418078	-158.192181	-39.563002	-13.972023	-39.563002	-13.972023	-0.311002	-115.807661
8.700000	-0.423535	-159.028353	-39.459819	-15.429741	-39.459819	-15.429741	-0.315283	-116.379841
8.750000	-0.428996	-159.864525	-39.357846	-16.887459	-39.357846	-16.887459	-0.319566	-116.952021
8.800000	-0.434558	-160.703498	-39.256654	-18.342641	-39.256654	-18.342641	-0.323947	-117.522852
8.850000	-0.440123	-161.542470	-39.156626	-19.797822	-39.156626	-19.797822	-0.328330	-118.093683
8.900000	-0.445780	-162.384240	-39.057423	-21.250765	-39.057423	-21.250765	-0.332804	-118.663341
8.950000	-0.451450	-163.226264	-38.959312	-22.703504	-38.959312	-22.703504	-0.337289	-119.232892
9.000000	-0.457202	-164.071043	-38.862061	-24.154292	-38.862061	-24.154292	-0.341856	-119.801436
9.050000	-0.462975	-164.916372	-38.765841	-25.604689	-38.765841	-25.604689	-0.346442	-120.369777
9.100000	-0.468822	-165.764373	-38.670509	-27.053409	-38.670509	-27.053409	-0.351104	-120.937265
9.150000	-0.474696	-166.613265	-38.576156	-28.501570	-38.576156	-28.501570	-0.355793	-121.504468
9.200000	-0.480622	-167.464046	-38.482733	-29.948659	-38.482733	-29.948659	-0.360533	-122.071131
9.250000	-0.486603	-168.317007	-38.390221	-31.394565	-38.390221	-31.394565	-0.365331	-122.637204
9.300000	-0.492633	-169.171902	-38.298631	-32.839495	-38.298631	-32.839495	-0.370178	-123.202794
9.350000	-0.498710	-170.028790	-38.207958	-34.283476	-38.207958	-34.283476	-0.375075	-123.767919
9.400000	-0.504835	-170.887734	-38.118198	-35.726535	-38.118198	-35.726535	-0.380023	-124.332596
9.450000	-0.511007	-171.748793	-38.029346	-37.168699	-38.029346	-37.168699	-0.385020	-124.896843
9.500000	-0.517225	-172.612031	-37.941398	-38.609995	-37.941398	-38.609995	-0.390067	-125.460676
9.550000	-0.523490	-173.477509	-37.854351	-40.050450	-37.854351	-40.050450	-0.395164	-126.024115
9.600000	-0.529800	-174.345290	-37.768202	-41.490090	-37.768202	-41.490090	-0.400312	-126.587176
9.650000	-0.536155	-175.215436	-37.682949	-42.928944	-37.682949	-42.928944	-0.405510	-127.149877
9.700000	-0.542555	-176.088011	-37.598588	-44.367037	-37.598588	-44.367037	-0.410758	-127.712238
9.750000	-0.548998	-176.963077	-37.515119	-45.804398	-37.515119	-45.804398	-0.416056	-128.274276
9.800000	-0.555485	-177.840698	-37.432540	-47.241051	-37.432540	-47.241051	-0.421405	-128.836009
9.850000	-0.562015	-178.720938	-37.350850	-48.677025	-37.350850	-48.677025	-0.426803	-129.397458
9.900000	-0.568587	-179.603861	-37.270049	-50.112344	-37.270049	-50.112344	-0.432252	-129.958639
9.950000	-0.575200	179.510469	-37.190135	-51.547033	-37.190135	-51.547033	-0.437752	-130.519573
10.000000	-0.581854	178.621987	-37.111111	-52.981119	-37.111111	-52.981119	-0.443301	-131.080279
