! freq	dB(S11)	phase(S11)	dB(S12)	phase(S12)	
!     	dB(S21)	phase(S21)	dB(S22)	phase(S22)	
!S-par simulation data
#  GHz  S  DB  R 50
0.000000	0.000000	0.000000	-314.182580	0.000000	-314.182580	0.000000	0.000000	0.000000
0.050000	-0.000922	-1.459372	-106.954408	88.904848	-106.954408	88.904848	-0.000577	-0.858920
0.100000	-0.003135	-2.912059	-100.970795	87.816555	-100.970795	87.816555	-0.001884	-1.713238
0.150000	-0.005734	-4.356968	-97.510910	86.742143	-97.510910	86.742143	-0.003304	-2.562819
0.200000	-0.008183	-5.796307	-95.103616	85.690570	-95.103616	85.690570	-0.004564	-3.409508
0.250000	-0.010395	-7.232870	-93.277339	84.666218	-93.277339	84.666218	-0.005675	-4.254970
0.300000	-0.012388	-8.667781	-91.830748	83.678191	-91.830748	83.678191	-0.006684	-5.099811
0.350000	-0.014230	-10.101668	-90.654841	82.735272	-90.654841	82.735272	-0.007647	-5.944339
0.400000	-0.015979	-11.534712	-89.685975	81.848122	-89.685975	81.848122	-0.008603	-6.788657
0.450000	-0.017672	-12.966779	-88.889897	81.035682	-88.889897	81.035682	-0.009581	-7.632769
0.500000	-0.019344	-14.397789	-88.231194	80.305830	-88.231194	80.305830	-0.010592	-8.476679
0.550000	-0.021007	-15.827543	-87.690659	79.675488	-87.690659	79.675488	-0.011639	-9.320364
0.600000	-0.022671	-17.255828	-87.254485	79.166232	-87.254485	79.166232	-0.012719	-10.163791
0.650000	-0.024340	-18.682433	-86.912579	78.806517	-86.912579	78.806517	-0.013824	-11.006917
0.700000	-0.026017	-20.107154	-86.657641	78.634207	-86.657641	78.634207	-0.014945	-11.849682
0.750000	-0.027703	-21.529657	-86.489460	78.716837	-86.489460	78.716837	-0.016069	-12.691975
0.800000	-0.029398	-22.949749	-86.404694	79.124772	-86.404694	79.124772	-0.017189	-13.533692
0.850000	-0.031102	-24.367301	-86.399546	79.934926	-86.399546	79.934926	-0.018296	-14.374736
0.900000	-0.032812	-25.782344	-86.466338	81.205096	-86.466338	81.205096	-0.019389	-15.215062
0.950000	-0.034528	-27.194584	-86.605386	83.074083	-86.605386	83.074083	-0.020467	-16.054539
1.000000	-0.036250	-28.603880	-86.807887	85.688027	-86.807887	85.688027	-0.021533	-16.893092
1.050000	-0.037974	-30.010102	-87.056995	89.225428	-87.056995	89.225428	-0.022588	-17.730662
1.100000	-0.039701	-31.413128	-87.322742	93.886021	-87.322742	93.886021	-0.023637	-18.567206
1.150000	-0.041428	-32.812848	-87.555795	99.851905	-87.555795	99.851905	-0.024682	-19.402694
1.200000	-0.043154	-34.209155	-87.683453	107.203017	-87.683453	107.203017	-0.025727	-20.237107
1.250000	-0.044879	-35.601953	-87.616114	115.786237	-87.616114	115.786237	-0.026772	-21.070430
1.300000	-0.046600	-36.990989	-87.258457	125.100574	-87.258457	125.100574	-0.027820	-21.902607
1.350000	-0.048317	-38.376333	-86.592609	134.305669	-86.592609	134.305669	-0.028871	-22.733677
1.400000	-0.050029	-39.757905	-85.659303	142.670012	-85.659303	142.670012	-0.029925	-23.563635
1.450000	-0.051735	-41.135632	-84.541005	149.761565	-84.541005	149.761565	-0.030983	-24.392474
1.500000	-0.053435	-42.509445	-83.323488	155.471698	-83.323488	155.471698	-0.032043	-25.220186
1.550000	-0.055128	-43.879279	-82.073125	159.901028	-82.073125	159.901028	-0.033106	-26.046764
1.600000	-0.056814	-45.245074	-80.832783	163.237829	-80.832783	163.237829	-0.034171	-26.872199
1.650000	-0.058492	-46.606772	-79.626685	165.681939	-79.626685	165.681939	-0.035238	-27.696481
1.700000	-0.060162	-47.964322	-78.466743	167.410788	-78.466743	167.410788	-0.036306	-28.519601
1.750000	-0.061825	-49.317674	-77.357522	168.569972	-77.357522	168.569972	-0.037375	-29.341546
1.800000	-0.063480	-50.666782	-76.299495	169.274706	-76.299495	169.274706	-0.038446	-30.162307
1.850000	-0.065127	-52.011603	-75.291001	169.614811	-75.291001	169.614811	-0.039517	-30.981869
1.900000	-0.066768	-53.352098	-74.329366	169.660063	-74.329366	169.660063	-0.040588	-31.800222
1.950000	-0.068402	-54.688230	-73.411523	169.464821	-73.411523	169.464821	-0.041661	-32.617351
2.000000	-0.070029	-56.019965	-72.534351	169.071689	-72.534351	169.071689	-0.042733	-33.433243
2.050000	-0.071651	-57.347274	-71.694841	168.514319	-71.694841	168.514319	-0.043807	-34.247885
2.100000	-0.073267	-58.670128	-70.890180	167.819527	-70.890180	167.819527	-0.044881	-35.061263
2.150000	-0.074879	-59.988502	-70.117782	167.008866	-70.117782	167.008866	-0.045957	-35.873363
2.200000	-0.076487	-61.302375	-69.375287	166.099815	-69.375287	166.099815	-0.047033	-36.684171
2.250000	-0.078092	-62.611726	-68.660558	165.106669	-68.660558	165.106669	-0.048111	-37.493672
2.300000	-0.079695	-63.916539	-67.971659	164.041212	-67.971659	164.041212	-0.049191	-38.301854
2.350000	-0.081295	-65.216799	-67.306841	162.913235	-67.306841	162.913235	-0.050273	-39.108701
2.400000	-0.082895	-66.512496	-66.664520	161.730933	-66.664520	161.730933	-0.051358	-39.914200
2.450000	-0.084495	-67.803620	-66.043261	160.501211	-66.043261	160.501211	-0.052445	-40.718337
2.500000	-0.086096	-69.090165	-65.441763	159.229924	-65.441763	159.229924	-0.053535	-41.521098
2.550000	-0.087699	-70.371928	-64.857952	157.920681	-64.857952	157.920681	-0.054630	-42.322408
2.600000	-0.089304	-71.649107	-64.291746	156.579487	-64.291746	156.579487	-0.055729	-43.122315
2.650000	-0.090913	-72.921703	-63.742146	155.209974	-63.742146	155.209974	-0.056832	-43.920805
2.700000	-0.092526	-74.189721	-63.208239	153.815294	-63.208239	153.815294	-0.057940	-44.717865
2.750000	-0.094144	-75.453166	-62.689188	152.398201	-62.689188	152.398201	-0.059054	-45.513482
2.800000	-0.095769	-76.712048	-62.184223	150.961104	-62.184223	150.961104	-0.060173	-46.307646
2.850000	-0.097401	-77.966378	-61.692636	149.506127	-61.692636	149.506127	-0.061299	-47.100342
2.900000	-0.099040	-79.216170	-61.213772	148.035142	-61.213772	148.035142	-0.062432	-47.891560
2.950000	-0.100688	-80.461439	-60.747027	146.549809	-60.747027	146.549809	-0.063572	-48.681289
3.000000	-0.102346	-81.702203	-60.291839	145.051607	-60.291839	145.051607	-0.064720	-49.469518
3.050000	-0.104015	-82.938483	-59.847688	143.541852	-59.847688	143.541852	-0.065875	-50.256235
3.100000	-0.105694	-84.170301	-59.414089	142.021723	-59.414089	142.021723	-0.067040	-51.041432
3.150000	-0.107386	-85.397682	-58.990589	140.492280	-58.990589	140.492280	-0.068214	-51.825097
3.200000	-0.109090	-86.620653	-58.576768	138.954474	-58.576768	138.954474	-0.069397	-52.607223
3.250000	-0.110809	-87.839243	-58.172229	137.409167	-58.172229	137.409167	-0.070590	-53.387799
3.300000	-0.112541	-89.053483	-57.776604	135.857134	-57.776604	135.857134	-0.071794	-54.166817
3.350000	-0.114289	-90.263406	-57.389545	134.299083	-57.389545	134.299083	-0.073008	-54.944269
3.400000	-0.116053	-91.469047	-57.010727	132.735653	-57.010727	132.735653	-0.074234	-55.720148
3.450000	-0.117834	-92.670442	-56.639841	131.167430	-56.639841	131.167430	-0.075472	-56.494445
3.500000	-0.119632	-93.867631	-56.276600	129.594946	-56.276600	129.594946	-0.076722	-57.267155
3.550000	-0.121448	-95.060655	-55.920730	128.018690	-55.920730	128.018690	-0.077984	-58.038271
3.600000	-0.123283	-96.249555	-55.571973	126.439109	-55.571973	126.439109	-0.079259	-58.807787
3.650000	-0.125138	-97.434376	-55.230086	124.856614	-55.230086	124.856614	-0.080548	-59.575697
3.700000	-0.127013	-98.615165	-54.894837	123.271582	-54.894837	123.271582	-0.081851	-60.341996
3.750000	-0.128909	-99.791968	-54.566009	121.684362	-54.566009	121.684362	-0.083169	-61.106681
3.800000	-0.130828	-100.964666	-54.243143	120.095209	-54.243143	120.095209	-0.084501	-61.869675
3.850000	-0.132768	-102.133485	-53.926313	118.504513	-53.926313	118.504513	-0.085849	-62.631046
3.900000	-0.134732	-103.298476	-53.615330	116.912547	-53.615330	116.912547	-0.087212	-63.390791
3.950000	-0.136719	-104.459694	-53.310015	115.319564	-53.310015	115.319564	-0.088592	-64.148906
4.000000	-0.138731	-105.617194	-53.010195	113.725801	-53.010195	113.725801	-0.089988	-64.905390
4.050000	-0.140767	-106.771034	-52.715707	112.131477	-52.715707	112.131477	-0.091401	-65.660241
4.100000	-0.142828	-107.921272	-52.426395	110.536798	-52.426395	110.536798	-0.092831	-66.413457
4.150000	-0.144915	-109.067969	-52.142110	108.941956	-52.142110	108.941956	-0.094279	-67.165038
4.200000	-0.147029	-110.211185	-51.862710	107.347132	-51.862710	107.347132	-0.095745	-67.914982
4.250000	-0.149169	-111.350983	-51.588060	105.752493	-51.588060	105.752493	-0.097230	-68.663291
4.300000	-0.151337	-112.487427	-51.318027	104.158199	-51.318027	104.158199	-0.098733	-69.409964
4.350000	-0.153533	-113.620582	-51.052489	102.564399	-51.052489	102.564399	-0.100256	-70.155002
4.400000	-0.155758	-114.750515	-50.791324	100.971234	-50.791324	100.971234	-0.101799	-70.898406
4.450000	-0.158011	-115.877292	-50.534420	99.378837	-50.534420	99.378837	-0.103361	-71.640179
4.500000	-0.160294	-117.000983	-50.281664	97.787335	-50.281664	97.787335	-0.104945	-72.380322
4.550000	-0.162607	-118.121656	-50.032952	96.196846	-50.032952	96.196846	-0.106549	-73.118838
4.600000	-0.164951	-119.239384	-49.788181	94.607486	-49.788181	94.607486	-0.108175	-73.855730
4.650000	-0.167325	-120.354238	-49.547254	93.019363	-49.547254	93.019363	-0.109823	-74.591001
4.700000	-0.169731	-121.466290	-49.310078	91.432580	-49.310078	91.432580	-0.111492	-75.324655
4.750000	-0.172169	-122.575615	-49.076560	89.847235	-49.076560	89.847235	-0.113185	-76.056697
4.800000	-0.174638	-123.682288	-48.846614	88.263426	-48.846614	88.263426	-0.114900	-76.787130
4.850000	-0.177141	-124.786385	-48.620156	86.681242	-48.620156	86.681242	-0.116640	-77.515960
4.900000	-0.179677	-125.887982	-48.397104	85.100773	-48.397104	85.100773	-0.118402	-78.243193
4.950000	-0.182246	-126.987157	-48.177380	83.522103	-48.177380	83.522103	-0.120190	-78.968833
5.000000	-0.184849	-128.083990	-47.960908	81.945315	-47.960908	81.945315	-0.122001	-79.692888
5.050000	-0.187488	-129.178465	-47.747526	80.370579	-47.747526	80.370579	-0.123840	-80.415296
5.100000	-0.190162	-130.270766	-47.537259	78.797891	-47.537259	78.797891	-0.125703	-81.136132
5.150000	-0.192871	-131.360973	-47.330038	77.227328	-47.330038	77.227328	-0.127593	-81.855403
5.200000	-0.195615	-132.449170	-47.125797	75.658964	-47.125797	75.658964	-0.129509	-82.573119
5.250000	-0.198396	-133.535439	-46.924471	74.092873	-46.924471	74.092873	-0.131452	-83.289286
5.300000	-0.201213	-134.619866	-46.725997	72.529129	-46.725997	72.529129	-0.133422	-84.003913
5.350000	-0.204066	-135.702535	-46.530315	70.967804	-46.530315	70.967804	-0.135420	-84.717009
5.400000	-0.206957	-136.783533	-46.337365	69.408970	-46.337365	69.408970	-0.137446	-85.428582
5.450000	-0.209885	-137.862946	-46.147090	67.852698	-46.147090	67.852698	-0.139500	-86.138644
5.500000	-0.212851	-138.940864	-45.959435	66.299061	-45.959435	66.299061	-0.141584	-86.847202
5.550000	-0.215855	-140.017374	-45.774346	64.748131	-45.774346	64.748131	-0.143697	-87.554268
5.600000	-0.218897	-141.092567	-45.591769	63.199980	-45.591769	63.199980	-0.145839	-88.259852
5.650000	-0.221979	-142.166534	-45.411653	61.654681	-45.411653	61.654681	-0.148012	-88.963965
5.700000	-0.225099	-143.239365	-45.233949	60.112311	-45.233949	60.112311	-0.150215	-89.666618
5.750000	-0.228260	-144.311155	-45.058607	58.572944	-45.058607	58.572944	-0.152450	-90.367822
5.800000	-0.231461	-145.381996	-44.885580	57.036658	-44.885580	57.036658	-0.154715	-91.067588
5.850000	-0.234702	-146.451985	-44.714822	55.503532	-44.714822	55.503532	-0.157013	-91.765930
5.900000	-0.237984	-147.521216	-44.546285	53.973648	-44.546285	53.973648	-0.159343	-92.462860
5.950000	-0.241307	-148.589787	-44.379927	52.447090	-44.379927	52.447090	-0.161706	-93.158389
6.000000	-0.244672	-149.657796	-44.215702	50.923945	-44.215702	50.923945	-0.164102	-93.852531
6.050000	-0.248079	-150.725344	-44.053568	49.404302	-44.053568	49.404302	-0.166532	-94.545300
6.100000	-0.251530	-151.792529	-43.893481	47.888255	-43.893481	47.888255	-0.168995	-95.236708
6.150000	-0.255023	-152.859456	-43.735402	46.375902	-43.735402	46.375902	-0.171494	-95.926769
6.200000	-0.258560	-153.926228	-43.579287	44.867343	-43.579287	44.867343	-0.174027	-96.615499
6.250000	-0.262141	-154.992949	-43.425096	43.362686	-43.425096	43.362686	-0.176595	-97.302910
6.300000	-0.265769	-156.059734	-43.272753	41.862221	-43.272753	41.862221	-0.179200	-97.988961
6.350000	-0.269442	-157.126695	-43.122257	40.365898	-43.122257	40.365898	-0.181842	-98.673725
6.400000	-0.273161	-158.193942	-42.973564	38.873841	-42.973564	38.873841	-0.184521	-99.357217
6.450000	-0.276928	-159.261587	-42.826636	37.386181	-42.826636	37.386181	-0.187236	-100.039452
6.500000	-0.280742	-160.329746	-42.681432	35.903059	-42.681432	35.903059	-0.189989	-100.720445
6.550000	-0.284605	-161.398535	-42.537911	34.424623	-42.537911	34.424623	-0.192780	-101.400214
6.600000	-0.288517	-162.468075	-42.396032	32.951029	-42.396032	32.951029	-0.195609	-102.078773
6.650000	-0.292479	-163.538487	-42.255754	31.482445	-42.255754	31.482445	-0.198477	-102.756140
6.700000	-0.296493	-164.609897	-42.117035	30.019051	-42.117035	30.019051	-0.201385	-103.432330
6.750000	-0.300560	-165.682434	-41.979831	28.561036	-41.979831	28.561036	-0.204331	-104.107361
6.800000	-0.304682	-166.756229	-41.844098	27.108607	-41.844098	27.108607	-0.207318	-104.781249
6.850000	-0.308858	-167.831418	-41.709791	25.661981	-41.709791	25.661981	-0.210346	-105.454013
6.900000	-0.313093	-168.908142	-41.576863	24.221397	-41.576863	24.221397	-0.213414	-106.125669
6.950000	-0.317386	-169.986546	-41.445266	22.787106	-41.445266	22.787106	-0.216523	-106.796234
7.000000	-0.321741	-171.066779	-41.314949	21.359385	-41.314949	21.359385	-0.219675	-107.465728
7.050000	-0.326159	-172.148997	-41.185857	19.938527	-41.185857	19.938527	-0.222868	-108.134168
7.100000	-0.330644	-173.233362	-41.057935	18.524854	-41.057935	18.524854	-0.226104	-108.801573
7.150000	-0.335197	-174.320044	-40.931123	17.118713	-40.931123	17.118713	-0.229383	-109.467960
7.200000	-0.339824	-175.409220	-40.805357	15.720481	-40.805357	15.720481	-0.232706	-110.133348
7.250000	-0.344527	-176.501075	-40.680568	14.330568	-40.680568	14.330568	-0.236072	-110.797757
7.300000	-0.349310	-177.595807	-40.556682	12.949420	-40.556682	12.949420	-0.239483	-111.461205
7.350000	-0.354180	-178.693622	-40.433618	11.577525	-40.433618	11.577525	-0.242939	-112.123712
7.400000	-0.359141	-179.794742	-40.311288	10.215418	-40.311288	10.215418	-0.246439	-112.785296
7.450000	-0.364200	179.100598	-40.189596	8.863681	-40.189596	8.863681	-0.249986	-113.445978
7.500000	-0.369364	177.992148	-40.068434	7.522958	-40.068434	7.522958	-0.253578	-114.105776
7.550000	-0.374648	176.879444	-39.947622	6.194500	-39.947622	6.194500	-0.257219	-114.764674
7.600000	-0.380058	175.762354	-39.827075	4.878617	-39.827075	4.878617	-0.260907	-115.422730
7.650000	-0.385605	174.640557	-39.706639	3.576179	-39.706639	3.576179	-0.264643	-116.079964
7.700000	-0.391305	173.513697	-39.586141	2.288150	-39.586141	2.288150	-0.268426	-116.736395
7.750000	-0.397173	172.381386	-39.465382	1.015599	-39.465382	1.015599	-0.272258	-117.392044
7.800000	-0.403231	171.243193	-39.344134	-0.240290	-39.344134	-0.240290	-0.276139	-118.046930
7.850000	-0.409501	170.098635	-39.222134	-1.478197	-39.222134	-1.478197	-0.280070	-118.701073
7.900000	-0.416013	168.947174	-39.099075	-2.696655	-39.099075	-2.696655	-0.284050	-119.354492
7.950000	-0.422801	167.788200	-38.974601	-3.894031	-38.974601	-3.894031	-0.288081	-120.007206
8.000000	-0.429908	166.621020	-38.848290	-5.068501	-38.848290	-5.068501	-0.292164	-120.659235
8.050000	-0.437386	165.444837	-38.719641	-6.218038	-38.719641	-6.218038	-0.296298	-121.310597
8.100000	-0.445297	164.258735	-38.588058	-7.340385	-38.588058	-7.340385	-0.300485	-121.961309
8.150000	-0.453723	163.061644	-38.452825	-8.433038	-38.452825	-8.433038	-0.304725	-122.611389
8.200000	-0.462763	161.852309	-38.313071	-9.493236	-38.313071	-9.493236	-0.309019	-123.260852
8.250000	-0.472545	160.629246	-38.167738	-10.517954	-38.167738	-10.517954	-0.313368	-123.909712
8.300000	-0.483233	159.390682	-38.015518	-11.503927	-38.015518	-11.503927	-0.317772	-124.557981
8.350000	-0.494956	158.135691	-37.855626	-12.450406	-37.855626	-12.450406	-0.322231	-125.205702
8.400000	-0.508081	156.860259	-37.685143	-13.350343	-37.685143	-13.350343	-0.326748	-125.852833
8.450000	-0.523132	155.559439	-37.500162	-14.197053	-37.500162	-14.197053	-0.331328	-126.499342
8.500000	-0.540361	154.232658	-37.299901	-14.994540	-37.299901	-14.994540	-0.335966	-127.145298
8.550000	-0.560689	152.872669	-37.078350	-15.737391	-37.078350	-15.737391	-0.340666	-127.790641
8.600000	-0.585078	151.473910	-36.830617	-16.427963	-36.830617	-16.427963	-0.345428	-128.435349
8.650000	-0.614707	150.031072	-36.551823	-17.074912	-36.551823	-17.074912	-0.350248	-129.079407
8.700000	-0.652272	148.530215	-36.229046	-17.689767	-36.229046	-17.689767	-0.355131	-129.722674
8.750000	-0.700978	146.960966	-35.851613	-18.306368	-35.851613	-18.306368	-0.360068	-130.365050
8.800000	-0.766576	145.307850	-35.401981	-18.988528	-35.401981	-18.988528	-0.365047	-131.006322
8.850000	-0.857956	143.558470	-34.860867	-19.852957	-34.860867	-19.852957	-0.370040	-131.646216
8.900000	-0.989609	141.710900	-34.207255	-21.101806	-34.207255	-21.101806	-0.374986	-132.284351
8.950000	-1.189010	139.800763	-33.414237	-23.124392	-33.414237	-23.124392	-0.379753	-132.920173
9.000000	-1.496701	138.001184	-32.483179	-26.530387	-32.483179	-26.530387	-0.384076	-133.553446
9.050000	-1.964659	136.874233	-31.471539	-32.280615	-31.471539	-32.280615	-0.387468	-134.185246
9.100000	-2.562124	137.747974	-30.588138	-41.312836	-30.588138	-41.312836	-0.389435	-134.820928
9.150000	-2.941898	141.746949	-30.212237	-53.282870	-30.212237	-53.282870	-0.390540	-135.470350
9.200000	-2.679921	146.221623	-30.608334	-65.373292	-30.608334	-65.373292	-0.392962	-136.135259
9.250000	-2.084563	147.682440	-31.567867	-74.408917	-31.567867	-74.408917	-0.397800	-136.802657
9.300000	-1.583836	146.759935	-32.673643	-79.688918	-32.673643	-79.688918	-0.404064	-137.463308
9.350000	-1.254573	144.947836	-33.664519	-82.188662	-33.664519	-82.188662	-0.410711	-138.117117
9.400000	-1.047216	142.956515	-34.462158	-83.083260	-34.462158	-83.083260	-0.417311	-138.766627
9.450000	-0.915765	141.010698	-35.068364	-83.165420	-35.068364	-83.165420	-0.423766	-139.413732
9.500000	-0.829073	139.159898	-35.521665	-82.923364	-35.521665	-82.923364	-0.430092	-140.059618
9.550000	-0.770433	137.403383	-35.855382	-82.604840	-35.855382	-82.604840	-0.436321	-140.704901
9.600000	-0.729833	135.727155	-36.098819	-82.336386	-36.098819	-82.336386	-0.442487	-141.349938
9.650000	-0.701222	134.115924	-36.274882	-82.175438	-36.274882	-82.175438	-0.448616	-141.994942
9.700000	-0.680873	132.556706	-36.400458	-82.143658	-36.400458	-82.143658	-0.454726	-142.640053
9.750000	-0.666392	131.039014	-36.488015	-82.244701	-36.488015	-82.244701	-0.460834	-143.285369
9.800000	-0.656019	129.553120	-36.547952	-82.467512	-36.547952	-82.467512	-0.466951	-143.930952
9.850000	-0.648811	128.093457	-36.586106	-82.806281	-36.586106	-82.806281	-0.473086	-144.576876
9.900000	-0.643710	126.652092	-36.609657	-83.236419	-36.609657	-83.236419	-0.479242	-145.223143
9.950000	-0.640388	125.226581	-36.620885	-83.754126	-36.620885	-83.754126	-0.485426	-145.869815
10.000000	-0.638446	123.813526	-36.622659	-84.348692	-36.622659	-84.348692	-0.491641	-146.516931
