! freq	dB(S11)	phase(S11)	dB(S12)	phase(S12)	
!     	dB(S21)	phase(S21)	dB(S22)	phase(S22)	
!S-par simulation data
#  GHz  S  DB  R 50
0.000000	-0.000000	-0.000000	-367.679727	180.000000	-367.679727	180.000000	-0.000000	-0.000000
0.050000	-0.000196	-0.803655	-92.892466	171.035653	-92.892466	171.035653	-0.000082	-0.813279
0.100000	-0.000752	-1.606443	-92.798605	165.464002	-92.798605	165.464002	-0.000327	-1.626392
0.150000	-0.001580	-2.407765	-92.658166	159.402699	-92.658166	159.402699	-0.000727	-2.439180
0.200000	-0.002580	-3.207399	-92.479649	153.478048	-92.479649	153.478048	-0.001272	-3.251505
0.250000	-0.003672	-4.005284	-92.274129	147.880302	-92.274129	147.880302	-0.001959	-4.063196
0.300000	-0.004790	-4.801775	-92.057908	142.651525	-92.057908	142.651525	-0.002760	-4.874202
0.350000	-0.005904	-5.597031	-91.842269	137.836332	-91.842269	137.836332	-0.003667	-5.684407
0.400000	-0.007000	-6.391259	-91.638622	133.446546	-91.638622	133.446546	-0.004664	-6.493742
0.450000	-0.008074	-7.184620	-91.456844	129.483006	-91.456844	129.483006	-0.005736	-7.302153
0.500000	-0.009129	-7.977225	-91.305332	125.942560	-91.305332	125.942560	-0.006867	-8.109607
0.550000	-0.010168	-8.769144	-91.191201	122.823177	-91.191201	122.823177	-0.008045	-8.916084
0.600000	-0.011198	-9.560414	-91.120519	120.127946	-91.120519	120.127946	-0.009255	-9.721577
0.650000	-0.012223	-10.351049	-91.098523	117.868513	-91.098523	117.868513	-0.010489	-10.526086
0.700000	-0.013247	-11.141049	-91.129751	116.068460	-91.129751	116.068460	-0.011735	-11.329622
0.750000	-0.014272	-11.930405	-91.218018	114.767066	-91.218018	114.767066	-0.012986	-12.132197
0.800000	-0.015301	-12.719099	-91.366155	114.023862	-91.366155	114.023862	-0.014235	-12.933827
0.850000	-0.016333	-13.507114	-91.575345	113.924190	-91.575345	113.924190	-0.015478	-13.734529
0.900000	-0.017370	-14.294429	-91.843776	114.585523	-91.843776	114.585523	-0.016710	-14.534319
0.950000	-0.018412	-15.081023	-92.164183	116.162994	-92.164183	116.162994	-0.017929	-15.333212
1.000000	-0.019458	-15.866876	-92.519670	118.849551	-92.519670	118.849551	-0.019133	-16.131221
1.050000	-0.020507	-16.651966	-92.877430	122.860076	-92.877430	122.860076	-0.020321	-16.928356
1.100000	-0.021559	-17.436276	-93.181293	128.380295	-93.181293	128.380295	-0.021491	-17.724624
1.150000	-0.022614	-18.219787	-93.348056	135.458812	-93.348056	135.458812	-0.022644	-18.520032
1.200000	-0.023670	-19.002480	-93.278589	143.851169	-93.278589	143.851169	-0.023781	-19.314580
1.250000	-0.024726	-19.784340	-92.893183	152.918797	-92.893183	152.918797	-0.024901	-20.108269
1.300000	-0.025782	-20.565311	-92.160228	161.717658	-92.160228	161.717658	-0.026006	-20.901057
1.350000	-0.026838	-21.345415	-91.158586	169.468394	-91.158586	169.468394	-0.027096	-21.692977
1.400000	-0.027891	-22.124637	-89.987179	175.812922	-89.987179	175.812922	-0.028173	-22.484020
1.450000	-0.028943	-22.902962	-88.736426	-179.265183	-88.736426	-179.265183	-0.029238	-23.274177
1.500000	-0.029993	-23.680375	-87.470070	-175.599960	-87.470070	-175.599960	-0.030293	-24.063437
1.550000	-0.031039	-24.456862	-86.226189	-172.969989	-86.226189	-172.969989	-0.031338	-24.851788
1.600000	-0.032083	-25.232409	-85.024632	-171.164148	-85.024632	-171.164148	-0.032375	-25.639216
1.650000	-0.033124	-26.007001	-83.874065	-170.005122	-83.874065	-170.005122	-0.033404	-26.425707
1.700000	-0.034161	-26.780281	-82.749389	-169.477946	-82.749389	-169.477946	-0.034426	-27.210905
1.750000	-0.035196	-27.553052	-81.716804	-169.175257	-81.716804	-169.175257	-0.035444	-27.995601
1.800000	-0.036228	-28.324603	-80.718211	-169.223155	-80.718211	-169.223155	-0.036459	-28.779089
1.850000	-0.037258	-29.095282	-79.774172	-169.521473	-79.774172	-169.521473	-0.037470	-29.561713
1.900000	-0.038285	-29.864885	-78.870276	-170.009008	-78.870276	-170.009008	-0.038479	-30.343264
1.950000	-0.039309	-30.633412	-78.004159	-170.685760	-78.004159	-170.685760	-0.039487	-31.123741
2.000000	-0.040332	-31.401017	-77.180201	-171.465224	-77.180201	-171.465224	-0.040494	-31.903292
2.050000	-0.041353	-32.167330	-76.381132	-172.388487	-76.381132	-172.388487	-0.041502	-32.681545
2.100000	-0.042373	-32.932886	-75.624603	-173.366865	-75.624603	-173.366865	-0.042510	-33.459031
2.150000	-0.043391	-33.696925	-74.883090	-174.455473	-74.883090	-174.455473	-0.043520	-34.234984
2.200000	-0.044410	-34.460380	-74.183816	-175.572475	-74.183816	-175.572475	-0.044532	-35.010341
2.250000	-0.045429	-35.222083	-73.491950	-176.774655	-73.491950	-176.774655	-0.045547	-35.783916
2.300000	-0.046448	-35.983387	-72.841728	-177.990083	-72.841728	-177.990083	-0.046564	-36.557083
2.350000	-0.047468	-36.742695	-72.192998	-179.271746	-72.192998	-179.271746	-0.047587	-37.328207
2.400000	-0.048489	-37.501799	-71.585194	179.441888	-71.585194	179.441888	-0.048611	-38.099121
2.450000	-0.049513	-38.258652	-70.974238	178.103795	-70.974238	178.103795	-0.049644	-38.867722
2.500000	-0.050537	-39.015505	-70.403446	176.765702	-70.403446	176.765702	-0.050677	-39.636323
2.550000	-0.051568	-39.769845	-69.825820	175.387117	-69.825820	175.387117	-0.051721	-40.402334
2.600000	-0.052598	-40.524185	-69.284224	174.008532	-69.284224	174.008532	-0.052766	-41.168345
2.650000	-0.053636	-41.276170	-68.739584	172.603107	-68.739584	172.603107	-0.053822	-41.931922
2.700000	-0.054675	-42.027942	-68.224110	171.195242	-68.224110	171.195242	-0.054879	-42.695277
2.750000	-0.055722	-42.777526	-67.708707	169.769639	-67.708707	169.769639	-0.055949	-43.456368
2.800000	-0.056771	-43.526674	-67.216744	168.340488	-67.216744	168.340488	-0.057020	-44.217007
2.850000	-0.057829	-44.273815	-66.727438	166.899690	-66.727438	166.899690	-0.058104	-44.975565
2.900000	-0.058890	-45.020287	-66.256750	165.455009	-66.256750	165.455009	-0.059192	-45.733430
2.950000	-0.059962	-45.764943	-65.790887	164.002754	-65.790887	164.002754	-0.060290	-46.489410
3.000000	-0.061038	-46.508690	-65.339550	162.546711	-65.339550	162.546711	-0.061395	-47.244448
3.050000	-0.062123	-47.250820	-64.894866	161.085805	-64.894866	161.085805	-0.062510	-47.997808
3.100000	-0.063216	-47.991796	-64.461215	159.621426	-64.461215	159.621426	-0.063633	-48.749970
3.150000	-0.064318	-48.731363	-64.035767	158.153974	-64.035767	158.153974	-0.064766	-49.500671
3.200000	-0.065429	-49.469523	-63.618351	156.683450	-63.618351	156.683450	-0.065908	-50.249912
3.250000	-0.066548	-50.206492	-63.210462	155.211024	-63.210462	155.211024	-0.067059	-50.997918
3.300000	-0.067680	-50.941795	-62.808014	153.735933	-62.808014	153.735933	-0.068222	-51.744197
3.350000	-0.068819	-51.676134	-62.416223	152.259696	-62.416223	152.259696	-0.069392	-52.489476
3.400000	-0.069973	-52.408543	-62.027632	150.781165	-62.027632	150.781165	-0.070577	-53.232756
3.450000	-0.071133	-53.140220	-61.650665	149.301970	-61.650665	149.301970	-0.071768	-53.975278
3.500000	-0.072312	-53.869701	-61.274953	147.820786	-61.274953	147.820786	-0.072976	-54.715526
3.550000	-0.073495	-54.598688	-60.911692	146.339249	-60.911692	146.339249	-0.074189	-55.455265
3.600000	-0.074699	-55.325210	-60.547996	144.855950	-60.547996	144.855950	-0.075421	-56.192453
3.650000	-0.075906	-56.051482	-60.197453	143.372505	-60.197453	143.372505	-0.076656	-56.929384
3.700000	-0.077138	-56.775017	-59.845011	141.887447	-59.845011	141.887447	-0.077915	-57.663488
3.750000	-0.078370	-57.498552	-59.506314	140.402390	-59.506314	140.402390	-0.079174	-58.397591
3.800000	-0.079632	-58.219077	-59.164451	138.915797	-59.164451	138.915797	-0.080460	-59.128589
3.850000	-0.080894	-58.939601	-58.835535	137.429204	-58.835535	137.429204	-0.081746	-59.859587
3.900000	-0.082184	-59.657348	-58.504942	135.941325	-58.504942	135.941325	-0.083059	-60.587722
3.950000	-0.083477	-60.374842	-58.185275	134.453328	-58.185275	134.453328	-0.084374	-61.315597
4.000000	-0.084798	-61.089796	-57.865264	132.964220	-57.865264	132.964220	-0.085714	-62.040859
4.050000	-0.086124	-61.804243	-57.554371	131.474889	-57.554371	131.474889	-0.087060	-62.765598
4.100000	-0.087476	-62.516393	-57.244327	129.984583	-57.244327	129.984583	-0.088429	-63.487977
4.150000	-0.088837	-63.227779	-56.941787	128.493951	-56.941787	128.493951	-0.089807	-64.209571
4.200000	-0.090222	-63.937118	-56.641161	127.002462	-56.641161	127.002462	-0.091207	-64.929063
4.250000	-0.091619	-64.645433	-56.346596	125.510545	-56.346596	125.510545	-0.092618	-65.647505
4.300000	-0.093038	-65.351954	-56.054894	124.017887	-56.054894	124.017887	-0.094051	-66.364106
4.350000	-0.094473	-66.057193	-55.767972	122.524699	-55.767972	122.524699	-0.095498	-67.079393
4.400000	-0.095927	-66.760892	-55.484749	121.030888	-55.484749	121.030888	-0.096964	-67.793104
4.450000	-0.097402	-67.463051	-55.205169	119.536455	-55.205169	119.536455	-0.098448	-68.505238
4.500000	-0.098893	-68.163928	-54.930024	118.041523	-54.930024	118.041523	-0.099949	-69.216059
4.550000	-0.100409	-68.863009	-54.657518	116.545891	-54.657518	116.545891	-0.101473	-69.925043
4.600000	-0.101938	-69.561064	-54.390089	115.049885	-54.390089	115.049885	-0.103011	-70.632980
4.650000	-0.103496	-70.257071	-54.124416	113.553131	-54.124416	113.553131	-0.104576	-71.338822
4.700000	-0.105066	-70.952310	-53.864372	112.056123	-53.864372	112.056123	-0.106152	-72.043881
4.750000	-0.106668	-71.645249	-53.605315	110.558354	-53.605315	110.558354	-0.107761	-72.746592
4.800000	-0.108278	-72.337679	-53.352355	109.060442	-53.352355	109.060442	-0.109377	-73.448782
4.850000	-0.109926	-73.027561	-53.099719	107.561808	-53.099719	107.561808	-0.111031	-74.148374
4.900000	-0.111578	-73.717190	-52.853566	106.063117	-52.853566	106.063117	-0.112689	-74.847707
4.950000	-0.113274	-74.404029	-52.607171	104.563806	-52.607171	104.563806	-0.114391	-75.544197
5.000000	-0.114969	-75.090869	-52.367573	103.064495	-52.367573	103.064495	-0.116092	-76.240686
5.050000	-0.116714	-75.774682	-52.127253	101.564737	-52.127253	101.564737	-0.117844	-76.934093
5.100000	-0.118458	-76.458495	-51.893404	100.064979	-51.893404	100.064979	-0.119595	-77.627500
5.150000	-0.120249	-77.139553	-51.659576	98.565059	-51.659576	98.565059	-0.121394	-78.318101
5.200000	-0.122044	-77.820360	-51.431338	97.065126	-51.431338	97.065126	-0.123197	-79.008447
5.250000	-0.123883	-78.498682	-51.203777	95.565304	-51.203777	95.565304	-0.125045	-79.696262
5.300000	-0.125730	-79.176506	-50.981019	94.065505	-50.981019	94.065505	-0.126902	-80.383572
5.350000	-0.127617	-79.852111	-50.759513	92.566068	-50.759513	92.566068	-0.128802	-81.068625
5.400000	-0.129518	-80.526977	-50.542111	91.066751	-50.542111	91.066751	-0.130715	-81.752926
5.450000	-0.131456	-81.199891	-50.326457	89.568007	-50.326457	89.568007	-0.132667	-82.435241
5.500000	-0.133412	-81.871828	-50.114290	88.069551	-50.114290	88.069551	-0.134639	-83.116563
5.550000	-0.135401	-82.542074	-49.904295	86.571834	-49.904295	86.571834	-0.136647	-83.796166
5.600000	-0.137414	-83.211113	-49.697244	85.074644	-49.697244	85.074644	-0.138679	-84.474541
5.650000	-0.139456	-83.878719	-49.492722	83.578302	-49.492722	83.578302	-0.140743	-85.151461
5.700000	-0.141527	-84.544894	-49.290667	82.082806	-49.290667	82.082806	-0.142839	-85.826924
5.750000	-0.143624	-85.209889	-49.091439	80.588200	-49.091439	80.588200	-0.144962	-86.501190
5.800000	-0.145755	-85.873235	-48.894259	79.094839	-48.894259	79.094839	-0.147122	-87.173779
5.850000	-0.147907	-86.535651	-48.700148	77.602339	-48.700148	77.602339	-0.149305	-87.845423
5.900000	-0.150100	-87.196207	-48.507720	76.111561	-48.507720	76.111561	-0.151533	-88.515177
5.950000	-0.152309	-87.856076	-48.318554	74.621539	-48.318554	74.621539	-0.153779	-89.184233
6.000000	-0.154565	-88.513884	-48.130751	73.133788	-48.130751	73.133788	-0.156076	-89.851193
6.050000	-0.156832	-89.171240	-47.946360	71.646615	-47.946360	71.646615	-0.158385	-90.517696
6.100000	-0.159153	-89.826341	-47.763050	70.162328	-47.763050	70.162328	-0.160754	-91.181908
6.150000	-0.161480	-90.481221	-47.583268	68.678364	-47.583268	68.678364	-0.163129	-91.845895
6.200000	-0.163868	-91.133662	-47.404314	67.197957	-47.404314	67.197957	-0.165571	-92.507404
6.250000	-0.166256	-91.786103	-47.228973	65.717551	-47.228973	65.717551	-0.168014	-93.168913
6.300000	-0.168711	-92.435931	-47.054234	64.241413	-47.054234	64.241413	-0.170531	-93.827768
6.350000	-0.171168	-93.085759	-46.882941	62.765275	-46.882941	62.765275	-0.173050	-94.486622
6.400000	-0.173687	-93.733236	-46.712497	61.293375	-46.712497	61.293375	-0.175638	-95.143091
6.450000	-0.176213	-94.380500	-46.545114	59.821859	-46.545114	59.821859	-0.178234	-95.799342
6.500000	-0.178798	-95.025670	-46.378785	58.354452	-46.378785	58.354452	-0.180895	-96.453468
6.550000	-0.181396	-95.670421	-46.215168	56.887866	-46.215168	56.887866	-0.183570	-97.107169
6.600000	-0.184047	-96.313327	-46.052777	55.425170	-46.052777	55.425170	-0.186306	-97.758997
6.650000	-0.186718	-96.955618	-45.892777	53.963769	-45.892777	53.963769	-0.189062	-98.410202
6.700000	-0.189438	-97.596306	-45.734144	52.505956	-45.734144	52.505956	-0.191873	-99.059781
6.750000	-0.192184	-98.236191	-45.577608	51.049935	-45.577608	51.049935	-0.194712	-99.708548
6.800000	-0.194974	-98.874707	-45.422558	49.597127	-45.422558	49.597127	-0.197599	-100.355926
6.850000	-0.197796	-99.512244	-45.269326	48.146613	-45.269326	48.146613	-0.200523	-101.002313
6.900000	-0.200657	-100.148635	-45.117685	46.698880	-45.117685	46.698880	-0.203489	-101.647541
6.950000	-0.203557	-100.783880	-44.967597	45.253927	-44.967597	45.253927	-0.206497	-102.291610
7.000000	-0.206491	-101.418195	-44.819190	43.811279	-44.819190	43.811279	-0.209543	-102.934740
7.050000	-0.209472	-102.051208	-44.672082	42.371859	-44.672082	42.371859	-0.212639	-103.576554
7.100000	-0.212480	-102.683497	-44.526740	40.934246	-44.526740	40.934246	-0.215765	-104.217639
7.150000	-0.215542	-103.314339	-44.382446	39.500248	-44.382446	39.500248	-0.218949	-104.857265
7.200000	-0.218626	-103.944653	-44.240001	38.067556	-44.240001	38.067556	-0.222157	-105.496361
7.250000	-0.221771	-104.573384	-44.098354	36.638779	-44.098354	36.638779	-0.225431	-106.133867
7.300000	-0.224932	-105.201775	-43.958642	35.210824	-43.958642	35.210824	-0.228721	-106.771030
7.350000	-0.228163	-105.828460	-43.819477	33.786974	-43.819477	33.786974	-0.232085	-107.406485
7.400000	-0.231403	-106.454979	-43.682338	32.363503	-43.682338	32.363503	-0.235458	-108.041775
7.450000	-0.234722	-107.079682	-43.545492	30.944191	-43.545492	30.944191	-0.238913	-108.675253
7.500000	-0.238041	-107.704384	-43.410770	29.524879	-43.410770	29.524879	-0.242370	-109.308730
7.550000	-0.241449	-108.327169	-43.276083	28.109616	-43.276083	28.109616	-0.245918	-109.940304
7.600000	-0.244858	-108.949954	-43.143454	26.694353	-43.143454	26.694353	-0.249467	-110.571879
7.650000	-0.248349	-109.571042	-43.010944	25.282261	-43.010944	25.282261	-0.253099	-111.201780
7.700000	-0.251849	-110.191976	-42.880259	23.870458	-42.880259	23.870458	-0.256740	-111.831529
7.750000	-0.255425	-110.811423	-42.749782	22.460962	-42.749782	22.460962	-0.260458	-112.459823
7.800000	-0.259018	-111.430572	-42.620896	21.051927	-42.620896	21.051927	-0.264192	-113.087826
7.850000	-0.262681	-112.048435	-42.492316	19.644373	-42.492316	19.644373	-0.267994	-113.714582
7.900000	-0.266369	-112.665869	-42.365094	18.237313	-42.365094	18.237313	-0.271821	-114.340922
7.950000	-0.270120	-113.282204	-42.238285	16.830972	-42.238285	16.830972	-0.275709	-114.966210
8.000000	-0.273904	-113.897991	-42.112599	15.424989	-42.112599	15.424989	-0.279628	-115.590972
8.050000	-0.277746	-114.512857	-41.987444	14.019053	-41.987444	14.019053	-0.283601	-116.214865
8.100000	-0.281629	-115.127066	-41.863178	12.613148	-41.863178	12.613148	-0.287613	-116.838137
8.150000	-0.285562	-115.740521	-41.739572	11.206731	-41.739572	11.206731	-0.291670	-117.460709
8.200000	-0.289546	-116.353222	-41.616621	9.799802	-41.616621	9.799802	-0.295774	-118.082581
8.250000	-0.293572	-116.965324	-41.494470	8.391944	-41.494470	8.391944	-0.299916	-118.703910
8.300000	-0.297659	-117.576588	-41.372745	6.982787	-41.372745	6.982787	-0.304110	-119.324476
8.350000	-0.301780	-118.187397	-41.251968	5.572453	-41.251968	5.572453	-0.308335	-119.944640
8.400000	-0.305971	-118.797295	-41.131396	4.159766	-41.131396	4.159766	-0.312619	-120.563998
8.450000	-0.310190	-119.406870	-41.011926	2.745847	-41.011926	2.745847	-0.316927	-121.183078
8.500000	-0.314487	-120.015474	-40.892452	1.328232	-40.892452	1.328232	-0.321300	-121.801327
8.550000	-0.318804	-120.623875	-40.774238	-0.090453	-40.774238	-0.090453	-0.325689	-122.419408
8.600000	-0.323211	-121.231257	-40.655829	-1.514486	-40.655829	-1.514486	-0.330149	-123.036652
8.650000	-0.327628	-121.838544	-40.538835	-2.939185	-40.538835	-2.939185	-0.334618	-123.653821
8.700000	-0.332145	-122.444777	-40.421480	-4.371212	-40.421480	-4.371212	-0.339163	-124.270166
8.750000	-0.336664	-123.051010	-40.305689	-5.803238	-40.305689	-5.803238	-0.343711	-124.886512
8.800000	-0.341294	-123.656166	-40.189405	-7.244913	-40.189405	-7.244913	-0.348339	-125.502070
8.850000	-0.345926	-124.261322	-40.074657	-8.686587	-40.074657	-8.686587	-0.352970	-126.117628
8.900000	-0.350662	-124.865558	-39.959652	-10.138685	-39.959652	-10.138685	-0.357672	-126.732570
8.950000	-0.355410	-125.469711	-39.845992	-11.591730	-39.845992	-11.591730	-0.362383	-127.347456
9.000000	-0.360253	-126.073087	-39.732320	-13.055734	-39.732320	-13.055734	-0.367157	-127.961880
9.050000	-0.365118	-126.676309	-39.619825	-14.521930	-39.619825	-14.521930	-0.371946	-128.576212
9.100000	-0.370071	-127.278888	-39.507569	-15.999355	-39.507569	-15.999355	-0.376790	-129.190222
9.150000	-0.375055	-127.881252	-39.396351	-17.480521	-39.396351	-17.480521	-0.381653	-129.804124
9.200000	-0.380119	-128.483094	-39.285621	-18.972895	-39.285621	-18.972895	-0.386563	-130.417824
9.250000	-0.385225	-129.084674	-39.175831	-20.470873	-39.175831	-20.470873	-0.391497	-131.031424
9.300000	-0.390402	-129.685840	-39.066765	-21.979728	-39.066765	-21.979728	-0.396470	-131.644925
9.350000	-0.395631	-130.286709	-38.958597	-23.496352	-38.958597	-23.496352	-0.401471	-132.258355
9.400000	-0.400924	-130.887260	-38.851367	-25.023200	-38.851367	-25.023200	-0.406503	-132.871769
9.450000	-0.406279	-131.487493	-38.745058	-26.560272	-38.745058	-26.560272	-0.411567	-133.485168
9.500000	-0.411689	-132.087490	-38.639869	-28.106584	-38.639869	-28.106584	-0.416655	-134.098612
9.550000	-0.417173	-132.687158	-38.535708	-29.665831	-38.535708	-29.665831	-0.421776	-134.712123
9.600000	-0.422701	-133.286662	-38.432797	-31.233008	-38.432797	-31.233008	-0.426915	-135.325719
9.650000	-0.428315	-133.885840	-38.331121	-32.816044	-38.331121	-32.816044	-0.432089	-135.939490
9.700000	-0.433964	-134.484912	-38.230763	-34.405389	-38.230763	-34.405389	-0.437275	-136.553365
9.750000	-0.439711	-135.083671	-38.131965	-36.013659	-38.131965	-36.013659	-0.442494	-137.167551
9.800000	-0.445483	-135.682373	-38.034469	-37.626339	-38.034469	-37.626339	-0.447723	-137.781834
9.850000	-0.451365	-136.280786	-37.938994	-39.261064	-37.938994	-39.261064	-0.452982	-138.396597
9.900000	-0.457262	-136.879177	-37.844706	-40.898072	-37.844706	-40.898072	-0.458247	-139.011423
9.950000	-0.463281	-137.477318	-37.753052	-42.560183	-37.753052	-42.560183	-0.463539	-139.626932
10.000000	-0.469304	-138.075458	-37.662355	-44.222295	-37.662355	-44.222295	-0.468834	-140.242441
