! freq	dB(S11)	phase(S11)	dB(S12)	phase(S12)	
!     	dB(S21)	phase(S21)	dB(S22)	phase(S22)	
!S-par simulation data
#  GHz  S  DB  R 50
0.000000	-0.000000	-0.000000	-369.563214	180.000000	-369.563214	180.000000	-0.000000	-0.000000
0.050000	-0.005532	-2.055292	-100.721153	87.300572	-100.721153	87.300572	-0.001154	-1.040084
0.100000	-0.009262	-4.067154	-94.765271	86.442936	-94.765271	86.442936	-0.003097	-2.069288
0.150000	-0.011045	-6.077978	-91.305479	85.213233	-91.305479	85.213233	-0.004609	-3.092486
0.200000	-0.012423	-8.090220	-88.882823	83.900390	-88.882823	83.900390	-0.005753	-4.114091
0.250000	-0.013792	-10.102774	-87.042013	82.568445	-87.042013	82.568445	-0.006708	-5.135314
0.300000	-0.015273	-12.114764	-85.575560	81.245017	-85.575560	81.245017	-0.007600	-6.156376
0.350000	-0.016921	-14.125427	-84.380289	79.950315	-84.380289	79.950315	-0.008497	-7.177166
0.400000	-0.018731	-16.134388	-83.386728	78.696069	-83.386728	78.696069	-0.009431	-8.197553
0.450000	-0.020698	-18.141306	-82.553533	77.494388	-82.553533	77.494388	-0.010415	-9.217400
0.500000	-0.022817	-20.145720	-81.857431	76.363444	-81.857431	76.363444	-0.011457	-10.236533
0.550000	-0.025068	-22.147498	-81.275667	75.315260	-81.275667	75.315260	-0.012554	-11.254873
0.600000	-0.027431	-24.146485	-80.793185	74.364943	-80.793185	74.364943	-0.013702	-12.272346
0.650000	-0.029890	-26.142511	-80.399933	73.531680	-80.399933	73.531680	-0.014897	-13.288875
0.700000	-0.032432	-28.135428	-80.088553	72.838329	-80.088553	72.838329	-0.016134	-14.304392
0.750000	-0.035040	-30.125110	-79.853644	72.312452	-79.853644	72.312452	-0.017408	-15.318836
0.800000	-0.037701	-32.111382	-79.692459	71.992007	-79.692459	71.992007	-0.018714	-16.332135
0.850000	-0.040405	-34.093968	-79.605304	71.934994	-79.605304	71.934994	-0.020047	-17.344177
0.900000	-0.043135	-36.073023	-79.584831	72.180737	-79.584831	72.180737	-0.021401	-18.354999
0.950000	-0.045881	-38.048479	-79.628251	72.795304	-79.628251	72.795304	-0.022772	-19.364565
1.000000	-0.048636	-40.019828	-79.738382	73.927303	-79.738382	73.927303	-0.024156	-20.372677
1.050000	-0.051389	-41.987818	-79.896532	75.575206	-79.896532	75.575206	-0.025546	-21.379587
1.100000	-0.054135	-43.952069	-80.098146	77.902640	-80.098146	77.902640	-0.026942	-22.385145
1.150000	-0.056868	-45.912342	-80.326475	81.098845	-80.326475	81.098845	-0.028340	-23.389247
1.200000	-0.059583	-47.868699	-80.550274	85.298333	-80.550274	85.298333	-0.029737	-24.391898
1.250000	-0.062278	-49.821248	-80.726421	90.575995	-80.726421	90.575995	-0.031132	-25.393118
1.300000	-0.064948	-51.769902	-80.795419	96.955056	-80.795419	96.955056	-0.032521	-26.392855
1.350000	-0.067590	-53.714371	-80.674865	104.297315	-80.674865	104.297315	-0.033904	-27.390972
1.400000	-0.070208	-55.655349	-80.349378	112.065222	-80.349378	112.065222	-0.035281	-28.387718
1.450000	-0.072798	-57.592494	-79.784398	119.809542	-79.784398	119.809542	-0.036650	-29.382935
1.500000	-0.075360	-59.525539	-78.983482	126.932817	-78.983482	126.932817	-0.038009	-30.376487
1.550000	-0.077894	-61.454802	-78.023329	133.095723	-78.023329	133.095723	-0.039360	-31.368472
1.600000	-0.080403	-63.380315	-76.966296	138.165666	-76.966296	138.165666	-0.040702	-32.358871
1.650000	-0.082885	-65.301943	-75.858389	142.123853	-75.858389	142.123853	-0.042034	-33.347592
1.700000	-0.085344	-67.219826	-74.744007	145.120715	-74.744007	145.120715	-0.043357	-34.334656
1.750000	-0.087780	-69.134066	-73.649288	147.314958	-73.649288	147.314958	-0.044672	-35.320068
1.800000	-0.090197	-71.044661	-72.586163	148.834549	-72.586163	148.834549	-0.045979	-36.303785
1.850000	-0.092594	-72.951666	-71.561756	149.803169	-71.561756	149.803169	-0.047278	-37.285783
1.900000	-0.094975	-74.855107	-70.578186	150.319232	-70.578186	150.319232	-0.048570	-38.266024
1.950000	-0.097341	-76.755056	-69.636003	150.467542	-69.636003	150.467542	-0.049855	-39.244486
2.000000	-0.099696	-78.651628	-68.734808	150.317935	-68.734808	150.317935	-0.051135	-40.221167
2.050000	-0.102040	-80.544905	-67.872695	149.922232	-67.872695	149.922232	-0.052410	-41.196046
2.100000	-0.104376	-82.434977	-67.047455	149.321850	-67.047455	149.321850	-0.053680	-42.169105
2.150000	-0.106707	-84.321942	-66.256796	148.550042	-66.256796	148.550042	-0.054947	-43.140322
2.200000	-0.109034	-86.205902	-65.498470	147.633666	-65.498470	147.633666	-0.056212	-44.109679
2.250000	-0.111360	-88.086967	-64.770336	146.594556	-64.770336	146.594556	-0.057474	-45.077157
2.300000	-0.113687	-89.965255	-64.070395	145.450585	-64.070395	145.450585	-0.058736	-46.042737
2.350000	-0.116017	-91.840890	-63.396796	144.216486	-63.396796	144.216486	-0.059997	-47.006402
2.400000	-0.118351	-93.714001	-62.747839	142.904487	-62.747839	142.904487	-0.061260	-47.968134
2.450000	-0.120693	-95.584727	-62.121969	141.524799	-62.121969	141.524799	-0.062523	-48.927916
2.500000	-0.123043	-97.453212	-61.517762	140.086010	-61.517762	140.086010	-0.063789	-49.885733
2.550000	-0.125405	-99.319565	-60.933512	138.594396	-60.933512	138.594396	-0.065058	-50.841525
2.600000	-0.127779	-101.183993	-60.368496	137.057351	-60.368496	137.057351	-0.066332	-51.795320
2.650000	-0.130167	-103.046662	-59.821623	135.480103	-59.821623	135.480103	-0.067609	-52.747105
2.700000	-0.132572	-104.907741	-59.291890	133.867150	-59.291890	133.867150	-0.068893	-53.696866
2.750000	-0.134994	-106.767410	-58.778382	132.222378	-58.778382	132.222378	-0.070182	-54.644591
2.800000	-0.137436	-108.625852	-58.280257	130.549159	-58.280257	130.549159	-0.071478	-55.590267
2.850000	-0.139899	-110.483257	-57.796741	128.850435	-57.796741	128.850435	-0.072782	-56.533884
2.900000	-0.142385	-112.339824	-57.327123	127.128776	-57.327123	127.128776	-0.074095	-57.475431
2.950000	-0.144894	-114.195753	-56.870743	125.386441	-56.870743	125.386441	-0.075416	-58.414900
3.000000	-0.147428	-116.051254	-56.426997	123.625418	-56.426997	123.625418	-0.076747	-59.352282
3.050000	-0.149989	-117.906542	-55.995320	121.847465	-55.995320	121.847465	-0.078088	-60.287569
3.100000	-0.152578	-119.761838	-55.575192	120.054138	-55.575192	120.054138	-0.079441	-61.220754
3.150000	-0.155196	-121.617371	-55.166040	118.246685	-55.166040	118.246685	-0.080805	-62.151809
3.200000	-0.157844	-123.473383	-54.767433	116.426375	-54.767433	116.426375	-0.082182	-63.080727
3.250000	-0.160523	-125.330108	-54.379043	114.594453	-54.379043	114.594453	-0.083571	-64.007529
3.300000	-0.163235	-127.187788	-54.000478	112.751897	-54.000478	112.751897	-0.084974	-64.932211
3.350000	-0.165983	-129.046802	-53.630837	110.898816	-53.630837	110.898816	-0.086392	-65.854585
3.400000	-0.168762	-130.907145	-53.270947	109.037686	-53.270947	109.037686	-0.087824	-66.775043
3.450000	-0.171576	-132.769197	-52.919841	107.168276	-52.919841	107.168276	-0.089270	-67.693377
3.500000	-0.174425	-134.633218	-52.577222	105.291230	-52.577222	105.291230	-0.090732	-68.609585
3.550000	-0.177311	-136.499476	-52.242808	103.407126	-52.242808	103.407126	-0.092211	-69.523671
3.600000	-0.180233	-138.368241	-51.916337	101.516488	-51.916337	101.516488	-0.093706	-70.435635
3.650000	-0.183194	-140.239789	-51.597563	99.619791	-51.597563	99.619791	-0.095219	-71.345481
3.700000	-0.186192	-142.114398	-51.286252	97.717463	-51.286252	97.717463	-0.096749	-72.253212
3.750000	-0.189230	-143.992351	-50.982188	95.809892	-50.982188	95.809892	-0.098298	-73.158833
3.800000	-0.192307	-145.874065	-50.685067	93.897283	-50.685067	93.897283	-0.099867	-74.062281
3.850000	-0.195425	-147.759720	-50.394813	91.980124	-50.394813	91.980124	-0.101454	-74.963632
3.900000	-0.198582	-149.649610	-50.111245	90.058699	-50.111245	90.058699	-0.103062	-75.862891
3.950000	-0.201778	-151.544029	-49.834190	88.133272	-49.834190	88.133272	-0.104689	-76.760068
4.000000	-0.205015	-153.443278	-49.563489	86.204078	-49.563489	86.204078	-0.106338	-77.655172
4.050000	-0.208293	-155.347657	-49.298990	84.271335	-49.298990	84.271335	-0.108008	-78.548211
4.100000	-0.211610	-157.257471	-49.040550	82.335240	-49.040550	82.335240	-0.109699	-79.439197
4.150000	-0.214967	-159.173025	-48.788037	80.395971	-48.788037	80.395971	-0.111413	-80.328142
4.200000	-0.218365	-161.094625	-48.541325	78.453693	-48.541325	78.453693	-0.113149	-81.215056
4.250000	-0.221802	-163.022581	-48.300297	76.508555	-48.300297	76.508555	-0.114909	-82.099954
4.300000	-0.225279	-164.957201	-48.064844	74.560695	-48.064844	74.560695	-0.116691	-82.982849
4.350000	-0.228794	-166.898796	-47.834862	72.610239	-47.834862	72.610239	-0.118498	-83.863755
4.400000	-0.232349	-168.847758	-47.610252	70.657278	-47.610252	70.657278	-0.120330	-84.742667
4.450000	-0.235942	-170.804408	-47.390931	68.701922	-47.390931	68.701922	-0.122187	-85.619601
4.500000	-0.239572	-172.768976	-47.176822	66.744300	-47.176822	66.744300	-0.124069	-86.494596
4.550000	-0.243239	-174.741769	-46.967849	64.784505	-46.967849	64.784505	-0.125977	-87.367668
4.600000	-0.246942	-176.723095	-46.763941	62.822626	-46.763941	62.822626	-0.127911	-88.238838
4.650000	-0.250679	-178.713259	-46.565033	60.858749	-46.565033	60.858749	-0.129872	-89.108123
4.700000	-0.254451	179.287438	-46.371066	58.892956	-46.371066	58.892956	-0.131860	-89.975544
4.750000	-0.258255	177.278697	-46.181985	56.925328	-46.181985	56.925328	-0.133875	-90.841120
4.800000	-0.262090	175.260222	-45.997743	54.955944	-45.997743	54.955944	-0.135919	-91.704874
4.850000	-0.265956	173.231722	-45.818296	52.984886	-45.818296	52.984886	-0.137991	-92.566828
4.900000	-0.269850	171.192911	-45.643606	51.012235	-45.643606	51.012235	-0.140091	-93.427003
4.950000	-0.273772	169.143509	-45.473639	49.038076	-45.473639	49.038076	-0.142221	-94.285423
5.000000	-0.277719	167.083241	-45.308368	47.062496	-45.308368	47.062496	-0.144380	-95.142113
5.050000	-0.281691	165.011592	-45.147806	45.085563	-45.147806	45.085563	-0.146571	-95.997060
5.100000	-0.285685	162.928539	-44.991904	43.107405	-44.991904	43.107405	-0.148791	-96.850327
5.150000	-0.289699	160.833831	-44.840648	41.128129	-44.840648	41.128129	-0.151043	-97.701941
5.200000	-0.293731	158.727228	-44.694026	39.147849	-44.694026	39.147849	-0.153326	-98.551929
5.250000	-0.297780	156.608499	-44.552033	37.166688	-44.552033	37.166688	-0.155641	-99.400317
5.300000	-0.301842	154.477425	-44.414669	35.184781	-44.414669	35.184781	-0.157988	-100.247134
5.350000	-0.305916	152.333797	-44.281936	33.202273	-44.281936	33.202273	-0.160367	-101.092408
5.400000	-0.309999	150.177423	-44.153840	31.219323	-44.153840	31.219323	-0.162780	-101.936169
5.450000	-0.314089	148.008119	-44.030394	29.236104	-44.030394	29.236104	-0.165226	-102.778447
5.500000	-0.318184	145.825723	-43.911611	27.252804	-43.911611	27.252804	-0.167706	-103.619272
5.550000	-0.322281	143.630082	-43.797511	25.269627	-43.797511	25.269627	-0.170221	-104.458675
5.600000	-0.326377	141.421065	-43.688116	23.286796	-43.688116	23.286796	-0.172770	-105.296689
5.650000	-0.330470	139.198408	-43.583490	21.304563	-43.583490	21.304563	-0.175355	-106.133332
5.700000	-0.334557	136.962012	-43.483668	19.323197	-43.483668	19.323197	-0.177976	-106.968637
5.750000	-0.338635	134.711950	-43.388645	17.342977	-43.388645	17.342977	-0.180632	-107.802654
5.800000	-0.342702	132.448166	-43.298456	15.364209	-43.298456	15.364209	-0.183326	-108.635417
5.850000	-0.346755	130.170629	-43.213141	13.387222	-43.213141	13.387222	-0.186056	-109.466962
5.900000	-0.350792	127.879329	-43.132740	11.412371	-43.132740	11.412371	-0.188823	-110.297323
5.950000	-0.354810	125.574281	-43.057296	9.440034	-43.057296	9.440034	-0.191628	-111.126538
6.000000	-0.358806	123.255523	-42.986857	7.470614	-42.986857	7.470614	-0.194471	-111.954643
6.050000	-0.362779	120.923120	-42.921470	5.504540	-42.921470	5.504540	-0.197353	-112.781677
6.100000	-0.366726	118.577162	-42.861184	3.542267	-42.861184	3.542267	-0.200273	-113.607678
6.150000	-0.370645	116.217766	-42.806053	1.584275	-42.806053	1.584275	-0.203233	-114.432686
6.200000	-0.374533	113.845077	-42.756129	-0.368931	-42.756129	-0.368931	-0.206232	-115.256739
6.250000	-0.378391	111.459268	-42.711465	-2.316822	-42.711465	-2.316822	-0.209272	-116.079879
6.300000	-0.382214	109.060264	-42.672232	-4.258705	-42.672232	-4.258705	-0.212353	-116.902129
6.350000	-0.386003	106.648583	-42.638375	-6.194124	-42.638375	-6.194124	-0.215475	-117.723552
6.400000	-0.389757	104.224486	-42.609950	-8.122486	-42.609950	-8.122486	-0.218638	-118.544190
6.450000	-0.393475	101.788261	-42.587012	-10.043189	-42.587012	-10.043189	-0.221843	-119.364087
6.500000	-0.397157	99.340228	-42.569618	-11.955619	-42.569618	-11.955619	-0.225090	-120.183288
6.550000	-0.400805	96.880734	-42.557822	-13.859159	-42.557822	-13.859159	-0.228379	-121.001838
6.600000	-0.404417	94.410152	-42.551678	-15.753197	-42.551678	-15.753197	-0.231711	-121.819784
6.650000	-0.407996	91.928886	-42.551240	-17.637137	-42.551240	-17.637137	-0.235086	-122.637174
6.700000	-0.411544	89.437363	-42.556561	-19.510405	-42.556561	-19.510405	-0.238505	-123.454054
6.750000	-0.415064	86.936038	-42.567693	-21.372468	-42.567693	-21.372468	-0.241968	-124.270476
6.800000	-0.418558	84.425387	-42.584686	-23.222853	-42.584686	-23.222853	-0.245475	-125.086490
6.850000	-0.422032	81.905911	-42.607592	-25.061165	-42.607592	-25.061165	-0.249026	-125.902146
6.900000	-0.425490	79.378043	-42.636524	-26.886979	-42.636524	-26.886979	-0.252622	-126.717496
6.950000	-0.428938	76.842341	-42.671534	-28.700156	-42.671534	-28.700156	-0.256264	-127.532596
7.000000	-0.432385	74.299447	-42.712611	-30.500888	-42.712611	-30.500888	-0.259952	-128.347503
7.050000	-0.435840	71.749925	-42.759809	-32.289484	-42.759809	-32.289484	-0.263685	-129.162277
7.100000	-0.439314	69.194346	-42.813192	-34.066572	-42.813192	-34.066572	-0.267464	-129.976975
7.150000	-0.442819	66.633284	-42.872830	-35.833197	-42.872830	-35.833197	-0.271290	-130.791659
7.200000	-0.446371	64.067311	-42.938807	-37.590939	-42.938807	-37.590939	-0.275161	-131.606390
7.250000	-0.449988	61.496986	-43.011228	-39.342074	-43.011228	-39.342074	-0.279080	-132.421234
7.300000	-0.453692	58.922853	-43.090227	-41.089781	-43.090227	-41.089781	-0.283045	-133.236259
7.350000	-0.457510	56.345428	-43.175980	-42.838426	-43.175980	-42.838426	-0.287057	-134.051534
7.400000	-0.461476	53.765186	-43.268720	-44.593946	-43.268720	-44.593946	-0.291117	-134.867133
7.450000	-0.465628	51.182543	-43.368766	-46.364371	-43.368766	-46.364371	-0.295224	-135.683133
7.500000	-0.470021	48.597839	-43.476554	-48.160570	-43.476554	-48.160570	-0.299378	-136.499618
7.550000	-0.474732	46.011251	-43.592936	-49.999324	-43.592936	-49.999324	-0.303581	-137.316695
7.600000	-0.479837	43.422938	-43.718454	-51.899228	-43.718454	-51.899228	-0.307831	-138.134433
7.650000	-0.485452	40.832770	-43.854314	-53.887693	-43.854314	-53.887693	-0.312129	-138.952933
7.700000	-0.491770	38.240228	-44.002722	-56.010319	-44.002722	-56.010319	-0.316476	-139.772349
7.750000	-0.499023	35.644497	-44.166159	-58.323897	-44.166159	-58.323897	-0.320872	-140.592799
7.800000	-0.507547	33.044204	-44.348362	-60.910387	-44.348362	-60.910387	-0.325319	-141.414426
7.850000	-0.517942	30.436848	-44.555951	-63.912009	-44.555951	-63.912009	-0.329821	-142.237466
7.900000	-0.531191	27.818461	-44.799362	-67.559664	-44.799362	-67.559664	-0.334385	-143.062215
7.950000	-0.548827	25.183620	-45.093796	-72.204870	-45.093796	-72.204870	-0.339025	-143.889007
8.000000	-0.573897	22.523701	-45.466480	-78.533608	-45.466480	-78.533608	-0.343777	-144.718444
8.050000	-0.613162	19.826511	-45.965787	-88.049941	-45.965787	-88.049941	-0.348741	-145.551620
8.100000	-0.681767	17.089727	-46.647283	-104.159176	-46.647283	-104.159176	-0.354198	-146.390254
8.150000	-0.818026	14.408819	-47.344025	-135.880047	-47.344025	-135.880047	-0.361103	-147.236610
8.200000	-1.084462	12.595925	-46.066967	160.648879	-46.066967	160.648879	-0.372551	-148.081862
8.250000	-1.127058	13.348305	-42.192730	82.681237	-42.192730	82.681237	-0.385939	-148.858242
8.300000	-0.730849	11.740018	-41.344277	30.296206	-41.344277	30.296206	-0.385564	-149.634436
8.350000	-0.559452	8.528953	-41.827531	4.609113	-41.827531	4.609113	-0.385440	-150.466561
8.400000	-0.507686	5.499804	-42.308746	-8.811277	-42.308746	-8.811277	-0.388021	-151.310651
8.450000	-0.492059	2.695363	-42.659429	-16.743504	-42.659429	-16.743504	-0.391856	-152.157091
8.500000	-0.488592	0.029328	-42.908729	-21.904631	-42.908729	-21.904631	-0.396279	-153.005069
8.550000	-0.490001	-2.548293	-43.084550	-25.457584	-43.084550	-25.457584	-0.401031	-153.854955
8.600000	-0.493577	-5.065620	-43.206019	-28.005440	-43.206019	-28.005440	-0.405989	-154.707203
8.650000	-0.498227	-7.538117	-43.284860	-29.879664	-43.284860	-29.879664	-0.411095	-155.562277
8.700000	-0.503463	-9.975160	-43.328915	-31.285447	-43.328915	-31.285447	-0.416317	-156.420598
8.750000	-0.509026	-12.385863	-43.346820	-32.389907	-43.346820	-32.389907	-0.421626	-157.282115
8.800000	-0.514872	-14.768450	-43.336942	-33.225512	-43.336942	-33.225512	-0.427029	-158.147993
8.850000	-0.520901	-17.130702	-43.307429	-33.903803	-43.307429	-33.903803	-0.432505	-159.017758
8.900000	-0.527121	-19.471306	-43.257825	-34.448951	-43.257825	-34.448951	-0.438060	-159.892439
8.950000	-0.533511	-21.793311	-43.192011	-34.907132	-43.192011	-34.907132	-0.443687	-160.772065
9.000000	-0.540083	-24.096482	-43.111100	-35.301750	-43.111100	-35.301750	-0.449395	-161.657489
9.050000	-0.546843	-26.381953	-43.017668	-35.657613	-43.017668	-35.657613	-0.455184	-162.549230
9.100000	-0.553791	-28.650983	-42.914411	-35.992647	-42.914411	-35.992647	-0.461061	-163.447691
9.150000	-0.560937	-30.904062	-42.803576	-36.319008	-42.803576	-36.319008	-0.467035	-164.353576
9.200000	-0.568308	-33.140341	-42.687306	-36.646273	-42.687306	-36.646273	-0.473131	-165.268520
9.250000	-0.575899	-35.361434	-42.569200	-36.979905	-42.569200	-36.979905	-0.479366	-166.193028
9.300000	-0.583719	-37.567815	-42.452528	-37.320822	-42.452528	-37.320822	-0.485774	-167.128290
9.350000	-0.591783	-39.759501	-42.341235	-37.665622	-42.341235	-37.665622	-0.492410	-168.076163
9.400000	-0.600116	-41.936152	-42.241134	-38.002569	-42.241134	-38.002569	-0.499379	-169.039643
9.450000	-0.608714	-44.099088	-42.158117	-38.310323	-42.158117	-38.310323	-0.506799	-170.020554
9.500000	-0.617587	-46.248586	-42.100035	-38.553117	-42.100035	-38.553117	-0.514875	-171.022417
9.550000	-0.626767	-48.384228	-42.079872	-38.658194	-42.079872	-38.658194	-0.524027	-172.051659
9.600000	-0.636268	-50.506415	-42.114030	-38.491192	-42.114030	-38.491192	-0.534975	-173.115965
9.650000	-0.646099	-52.615840	-42.220101	-37.823549	-42.220101	-37.823549	-0.548914	-174.224403
9.700000	-0.656282	-54.712588	-42.417633	-36.220726	-42.417633	-36.220726	-0.568100	-175.390801
9.750000	-0.666874	-56.795600	-42.707843	-32.561315	-42.707843	-32.561315	-0.598446	-176.641255
9.800000	-0.677889	-58.865045	-42.921866	-25.032451	-42.921866	-25.032451	-0.651076	-177.990564
9.850000	-0.689368	-60.918938	-42.301409	-12.023223	-42.301409	-12.023223	-0.753317	-179.406592
9.900000	-0.701250	-62.953788	-39.778732	-1.000859	-39.778732	-1.000859	-0.945511	179.438978
9.950000	-0.712982	-64.959763	-36.516462	-4.759458	-36.516462	-4.759458	-1.175653	179.472732
10.000000	-0.720639	-66.913632	-34.703838	-18.338137	-34.703838	-18.338137	-1.189692	-179.655998
