! freq	dB(S11)	phase(S11)	dB(S12)	phase(S12)	
!     	dB(S21)	phase(S21)	dB(S22)	phase(S22)	
!S-par simulation data
#  GHz  S  DB  R 50
0.000000	-81.995512	0.000000	-0.000690	0.000000	-0.000690	0.000000	-81.995512	0.000000
0.050000	-40.635786	-92.706167	-0.010412	-3.205858	-0.010412	-3.205858	-40.634845	-92.701105
0.100000	-34.627113	-96.149803	-0.022764	-6.322953	-0.022764	-6.322953	-34.626274	-96.139841
0.150000	-31.126618	-99.410873	-0.030858	-9.414144	-0.030858	-9.414144	-31.125916	-99.396403
0.200000	-28.657367	-102.616928	-0.037141	-12.503680	-0.037141	-12.503680	-28.656795	-102.598270
0.250000	-26.759297	-105.790584	-0.043001	-15.594334	-0.043001	-15.594334	-26.758836	-105.767959
0.300000	-25.227246	-108.941838	-0.049072	-18.685229	-0.049072	-18.685229	-25.226870	-108.915336
0.350000	-23.949561	-112.078065	-0.055575	-21.775198	-0.055575	-21.775198	-23.949244	-112.047670
0.400000	-22.864711	-115.201212	-0.062651	-24.863051	-0.062651	-24.863051	-22.864431	-115.166829
0.450000	-21.925222	-118.315709	-0.070207	-27.948448	-0.070207	-27.948448	-21.924965	-118.277213
0.500000	-21.108118	-121.421535	-0.078296	-31.030263	-0.078296	-31.030263	-21.107872	-121.378747
0.550000	-20.387432	-124.521076	-0.086774	-34.108689	-0.086774	-34.108689	-20.387190	-124.473827
0.600000	-19.751601	-127.614273	-0.095604	-37.183032	-0.095604	-37.183032	-19.751357	-127.562354
0.650000	-19.187275	-130.701940	-0.104681	-40.253368	-0.104681	-40.253368	-19.187026	-130.645142
0.700000	-18.685650	-133.784422	-0.113913	-43.319645	-0.113913	-43.319645	-18.685394	-133.722517
0.750000	-18.241439	-136.861702	-0.123208	-46.381668	-0.123208	-46.381668	-18.241173	-136.794430
0.800000	-17.845617	-139.934604	-0.132472	-49.440029	-0.132472	-49.440029	-17.845340	-139.861713
0.850000	-17.498953	-143.002610	-0.141588	-52.494282	-0.141588	-52.494282	-17.498664	-142.923773
0.900000	-17.192008	-146.066857	-0.150498	-55.545415	-0.150498	-55.545415	-17.191705	-145.981777
0.950000	-16.927121	-149.126998	-0.159065	-58.593236	-0.159065	-58.593236	-16.926802	-149.035285
1.000000	-16.697829	-152.183914	-0.167251	-61.638576	-0.167251	-61.638576	-16.697493	-152.085191
1.050000	-16.504608	-155.237790	-0.174944	-64.681754	-0.174944	-64.681754	-16.504253	-155.131602
1.100000	-16.345364	-158.289161	-0.182084	-67.723373	-0.182084	-67.723373	-16.344987	-158.175013
1.150000	-16.217821	-161.338633	-0.188629	-70.764096	-0.188629	-70.764096	-16.217420	-161.215990
1.200000	-16.124096	-164.386611	-0.194462	-73.804542	-0.194462	-73.804542	-16.123669	-164.254815
1.250000	-16.058958	-167.433845	-0.199646	-76.845386	-0.199646	-76.845386	-16.058502	-167.292264
1.300000	-16.028728	-170.480872	-0.203991	-79.887576	-0.203991	-79.887576	-16.028239	-170.328620
1.350000	-16.026872	-173.528323	-0.207632	-82.931573	-0.207632	-82.931573	-16.026344	-173.364584
1.400000	-16.058564	-176.576951	-0.210439	-85.978520	-0.210439	-85.978520	-16.057995	-176.400632
1.450000	-16.121378	-179.627267	-0.212486	-89.028921	-0.212486	-89.028921	-16.120762	-179.437233
1.500000	-16.217494	177.320021	-0.213754	-92.083737	-0.213754	-92.083737	-16.216823	177.525137
1.550000	-16.348857	174.264256	-0.214251	-95.143869	-0.214251	-95.143869	-16.348125	174.486067
1.600000	-16.514567	171.205131	-0.214069	-98.209673	-0.214069	-98.209673	-16.513765	171.445384
1.650000	-16.721403	168.141620	-0.213160	-101.282802	-0.213160	-101.282802	-16.720520	168.402670
1.700000	-16.966673	165.073954	-0.211686	-104.362916	-0.211686	-104.362916	-16.965695	165.358205
1.750000	-17.257339	162.001366	-0.209651	-107.451482	-0.209651	-107.451482	-17.256250	162.311998
1.800000	-17.596584	158.923813	-0.207154	-110.548958	-0.207154	-110.548958	-17.595363	159.264595
1.850000	-17.989659	155.841313	-0.204286	-113.655964	-0.204286	-113.655964	-17.988277	156.216879
1.900000	-18.443627	152.754097	-0.201146	-116.773180	-0.201146	-116.773180	-18.442050	153.170306
1.950000	-18.966982	149.662830	-0.197848	-119.901120	-0.197848	-119.901120	-18.965160	150.127166
2.000000	-19.570224	146.568743	-0.194513	-123.040094	-0.194513	-123.040094	-19.568088	147.090840
2.050000	-20.267787	143.473793	-0.191266	-126.190446	-0.191266	-126.190446	-20.265240	144.066466
2.100000	-21.079223	140.381153	-0.188239	-129.352431	-0.188239	-129.352431	-21.076118	141.061964
2.150000	-22.031867	137.296015	-0.185568	-132.526219	-0.185568	-132.526219	-22.027973	138.089937
2.200000	-23.165546	134.227176	-0.183390	-135.711880	-0.183390	-135.711880	-23.160477	135.171423
2.250000	-24.541492	131.190477	-0.181847	-138.909390	-0.181847	-138.909390	-24.534543	132.344043
2.300000	-26.261006	128.217240	-0.181079	-142.118623	-0.181079	-142.118623	-26.250743	129.681967
2.350000	-28.510322	125.378981	-0.181226	-145.339352	-0.181226	-145.339352	-28.493276	127.354169
2.400000	-31.693652	122.882420	-0.182423	-148.571248	-0.182423	-148.571248	-31.658698	125.846848
2.450000	-37.006478	121.686829	-0.184801	-151.813881	-0.184801	-151.813881	-36.889809	127.370979
2.500000	-53.700921	144.562028	-0.188485	-155.066722	-0.188485	-155.066722	-50.259334	168.258428
2.550000	-39.239394	-74.978213	-0.193624	-158.329341	-0.193624	-158.329341	-39.052577	-82.974854
2.600000	-32.456392	-74.960419	-0.200294	-161.600798	-0.200294	-161.600798	-32.419650	-78.702043
2.650000	-28.625579	-77.299640	-0.208590	-164.880293	-0.208590	-164.880293	-28.611236	-79.778277
2.700000	-25.934921	-80.128878	-0.218591	-168.166954	-0.218591	-168.166954	-25.927715	-82.002675
2.750000	-23.856449	-83.146020	-0.230363	-171.459844	-0.230363	-171.459844	-23.852343	-84.665552
2.800000	-22.162612	-86.256134	-0.243955	-174.757972	-0.243955	-174.757972	-22.160105	-87.543360
2.850000	-20.734338	-89.419337	-0.259401	-178.060306	-0.259401	-178.060306	-20.732754	-90.542774
2.900000	-19.501438	-92.615578	-0.276718	178.634216	-0.276718	178.634216	-19.500431	-93.617557
2.950000	-18.419030	-95.833403	-0.295902	175.326674	-0.295902	175.326674	-18.418406	-96.741917
3.000000	-17.456654	-99.065579	-0.316933	172.018151	-0.316933	172.018151	-17.456295	-99.900110
3.050000	-16.592668	-102.307160	-0.339775	168.709721	-0.339775	168.709721	-16.592502	-103.081821
3.100000	-15.811135	-105.554532	-0.364369	165.402436	-0.364369	165.402436	-15.811111	-106.279882
3.150000	-15.100043	-108.804925	-0.390659	162.097346	-0.390659	162.097346	-15.100129	-109.489147
3.200000	-14.450026	-112.056060	-0.418550	158.795450	-0.418550	158.795450	-14.450198	-112.705553
3.250000	-13.853529	-115.306101	-0.447916	155.497630	-0.447916	155.497630	-13.853771	-115.925937
3.300000	-13.304500	-118.553542	-0.478636	152.204720	-0.478636	152.204720	-13.304799	-119.147859
3.350000	-12.797967	-121.797115	-0.510574	148.917473	-0.510574	148.917473	-12.798313	-122.369337
3.400000	-12.329787	-125.035751	-0.543581	145.636555	-0.543581	145.636555	-12.330173	-125.588754
3.450000	-11.896468	-128.268564	-0.577499	142.362537	-0.577499	142.362537	-11.896889	-128.804786
3.500000	-11.495035	-131.494827	-0.612162	139.095889	-0.612162	139.095889	-11.495486	-132.016363
3.550000	-11.122925	-134.713968	-0.647392	135.836975	-0.647392	135.836975	-11.123404	-135.222634
3.600000	-10.777917	-137.925562	-0.683010	132.586052	-0.683010	132.586052	-10.778420	-138.422947
3.650000	-10.458070	-141.129318	-0.718831	129.343266	-0.718831	129.343266	-10.458595	-141.616827
3.700000	-10.161676	-144.325082	-0.754666	126.108651	-0.754666	126.108651	-10.162222	-144.803968
3.750000	-9.887225	-147.512826	-0.790327	122.882131	-0.790327	122.882131	-9.887791	-147.984214
3.800000	-9.633652	-150.692479	-0.825609	119.663686	-0.825609	119.663686	-9.634236	-151.157410
3.850000	-9.399489	-153.864438	-0.860333	116.452839	-0.860333	116.452839	-9.400091	-154.323842
3.900000	-9.183670	-157.029037	-0.894315	113.249183	-0.894315	113.249183	-9.184290	-157.483770
3.950000	-8.985243	-160.186716	-0.927375	110.052211	-0.927375	110.052211	-8.985881	-160.637576
4.000000	-8.804024	-163.337693	-0.959267	106.861623	-0.959267	106.861623	-8.804681	-163.785465
4.050000	-8.638051	-166.483237	-0.989943	103.676117	-0.989943	103.676117	-8.638727	-166.928592
4.100000	-8.487186	-169.623787	-1.019191	100.495176	-1.019191	100.495176	-8.487882	-170.067395
4.150000	-8.350830	-172.760154	-1.046860	97.317924	-1.046860	97.317924	-8.351547	-173.202658
4.200000	-8.228458	-175.893224	-1.072806	94.143404	-1.072806	94.143404	-8.229198	-176.335247
4.250000	-8.119610	-179.023953	-1.096893	90.970582	-1.096893	90.970582	-8.120375	-179.466099
4.300000	-8.023893	177.846642	-1.118999	87.798356	-1.118999	87.798356	-8.024685	177.403776
4.350000	-7.940972	174.717485	-1.139010	84.625553	-1.139010	84.625553	-7.941794	174.273311
4.400000	-7.870572	171.587453	-1.156822	81.450943	-1.156822	81.450943	-7.871426	171.141383
4.450000	-7.812476	168.455376	-1.172345	78.273232	-1.172345	78.273232	-7.813366	168.006820
4.500000	-7.766524	165.320050	-1.185498	75.091076	-1.185498	75.091076	-7.767454	164.868411
4.550000	-7.732611	162.180241	-1.196215	71.903080	-1.196215	71.903080	-7.733585	161.724910
4.600000	-7.710690	159.034693	-1.204441	68.707802	-1.204441	68.707802	-7.711713	158.575044
4.650000	-7.700772	155.882132	-1.210134	65.503761	-1.210134	65.503761	-7.701848	155.417519
4.700000	-7.702925	152.721282	-1.213267	62.289434	-1.213267	62.289434	-7.704061	152.251032
4.750000	-7.717280	149.550866	-1.213824	59.063268	-1.213824	59.063268	-7.718483	149.074273
4.800000	-7.744030	146.369617	-1.211805	55.823676	-1.211805	55.823676	-7.745307	145.885938
4.850000	-7.783437	143.176294	-1.207224	52.569049	-1.207224	52.569049	-7.784798	142.684740
4.900000	-7.835832	139.969686	-1.200111	49.297752	-1.200111	49.297752	-7.837287	139.469415
4.950000	-7.901626	136.748630	-1.190510	46.008138	-1.190510	46.008138	-7.903185	136.238738
5.000000	-7.981309	133.512027	-1.178481	42.698545	-1.178481	42.698545	-7.982987	132.991536
5.050000	-8.076072	130.258095	-1.164000	39.366284	-1.164000	39.366284	-8.077883	129.725893
5.100000	-8.186024	126.986608	-1.147271	36.010557	-1.147271	36.010557	-8.187986	126.441526
5.150000	-8.311963	123.696801	-1.128405	32.629702	-1.128405	32.629702	-8.314097	123.137549
5.200000	-8.454808	120.388069	-1.107533	29.222073	-1.107533	29.222073	-8.457139	119.813221
5.250000	-8.615621	117.060011	-1.084802	25.786046	-1.084802	25.786046	-8.618177	116.467979
5.300000	-8.795621	113.712475	-1.060379	22.320028	-1.060379	22.320028	-8.798436	113.101479
5.350000	-8.996206	110.345617	-1.034450	18.822466	-1.034450	18.822466	-8.999322	109.713648
5.400000	-9.218989	106.959970	-1.007216	15.291860	-1.007216	15.291860	-9.222454	106.304748
5.450000	-9.465825	103.556539	-0.978902	11.726769	-0.978902	11.726769	-9.469701	102.875456
5.500000	-9.738860	100.136918	-0.949747	8.125832	-0.949747	8.125832	-9.743221	99.426968
5.550000	-10.040587	96.703442	-0.920011	4.487770	-0.920011	4.487770	-10.045525	95.961133
5.600000	-10.373913	93.259391	-0.889970	0.811409	-0.889970	0.811409	-10.379546	92.480634
5.650000	-10.742258	89.809266	-0.859918	-2.904308	-0.859918	-2.904308	-10.748734	88.989224
5.700000	-11.149670	86.359165	-0.830163	-6.660311	-0.830163	-6.660311	-11.157180	85.492055
5.750000	-11.600988	82.917317	-0.801029	-10.457381	-0.801029	-10.457381	-11.609784	81.996150
5.800000	-12.102062	79.494844	-0.772851	-14.296140	-0.772851	-14.296140	-12.112480	78.511064
5.850000	-12.657833	76.101776	-0.745832	-18.173341	-0.745832	-18.173341	-12.670301	75.045963
5.900000	-13.281839	72.767457	-0.720601	-22.097086	-0.720601	-22.097086	-13.297015	71.625158
5.950000	-13.982904	69.517715	-0.697392	-26.063293	-0.697392	-26.063293	-14.001696	68.271712
6.000000	-14.775487	66.394906	-0.676565	-30.071797	-0.676565	-30.071797	-14.799238	65.022579
6.050000	-15.678620	63.462055	-0.658476	-34.122215	-0.658476	-34.122215	-15.709392	61.932960
6.100000	-16.717993	60.816743	-0.643476	-38.213934	-0.643476	-38.213934	-16.759102	59.088749
6.150000	-17.929241	58.617716	-0.631903	-42.346117	-0.631903	-42.346117	-17.986338	56.630697
6.200000	-19.363157	57.139628	-0.624077	-46.517697	-0.624077	-46.517697	-19.446602	54.805073
6.250000	-21.093440	56.895307	-0.620301	-50.727391	-0.620301	-50.727391	-21.224042	54.080231
6.300000	-23.220778	59.037968	-0.620947	-54.974465	-0.620947	-54.974465	-23.446188	55.545429
6.350000	-25.834909	66.105846	-0.626168	-59.256392	-0.626168	-59.256392	-26.275897	61.791073
6.400000	-28.644861	83.825146	-0.636165	-63.571308	-0.636165	-63.571308	-29.572093	79.762429
6.450000	-29.706964	115.330089	-0.651102	-67.917208	-0.651102	-67.917208	-30.975891	115.967365
6.500000	-27.627547	142.676126	-0.671094	-72.291978	-0.671094	-72.291978	-28.405217	146.633185
6.550000	-24.720804	155.841745	-0.696208	-76.693427	-0.696208	-76.693427	-25.114867	159.611509
6.600000	-22.207998	160.696646	-0.726459	-81.119333	-0.726459	-81.119333	-22.430995	163.757684
6.650000	-20.159598	161.682480	-0.761809	-85.567480	-0.761809	-85.567480	-20.301269	164.177659
6.700000	-18.471317	160.717337	-0.802158	-90.035690	-0.802158	-90.035690	-18.569358	162.801533
6.750000	-17.052446	158.654382	-0.847385	-94.522008	-0.847385	-94.522008	-17.124650	160.437192
6.800000	-15.838954	155.927008	-0.897235	-99.024345	-0.897235	-99.024345	-15.894628	157.482114
6.850000	-14.786350	152.764073	-0.951444	-103.540994	-0.951444	-103.540994	-14.830817	154.142678
6.900000	-13.863750	149.295877	-1.009777	-108.070781	-1.009777	-108.070781	-13.900283	150.535273
6.950000	-13.048480	145.611414	-1.071826	-112.612464	-1.071826	-112.612464	-13.079180	146.738793
7.000000	-12.323070	141.771434	-1.137067	-117.164915	-1.137067	-117.164915	-12.349339	142.806822
7.050000	-11.673181	137.818186	-1.204927	-121.727094	-1.204927	-121.727094	-11.695984	138.776477
7.100000	-11.091281	133.767466	-1.275078	-126.300053	-1.275078	-126.300053	-11.111340	134.661764
7.150000	-10.568548	129.642984	-1.346854	-130.883840	-1.346854	-130.883840	-10.586385	130.483425
7.200000	-10.099014	125.458047	-1.419633	-135.479614	-1.419633	-135.479614	-10.115022	126.253096
7.250000	-9.678223	121.221986	-1.492712	-140.089365	-1.492712	-140.089365	-9.692704	121.978892
7.300000	-9.301662	116.943078	-1.565369	-144.715226	-1.565369	-144.715226	-9.314847	117.667934
7.350000	-8.966335	112.625805	-1.636845	-149.360459	-1.636845	-149.360459	-8.978404	113.323998
7.400000	-8.670018	108.272746	-1.706338	-154.029282	-1.706338	-154.029282	-8.681110	108.949154
7.450000	-8.411673	103.884273	-1.772936	-158.727590	-1.772936	-158.727590	-8.421896	104.543496
7.500000	-8.190130	99.460268	-1.835786	-163.461812	-1.835786	-163.461812	-8.199562	100.106643
7.550000	-8.005515	94.998541	-1.893937	-168.240583	-1.893937	-168.240583	-8.014209	95.636369
7.600000	-7.858727	90.495681	-1.946411	-173.074538	-1.946411	-173.074538	-7.866711	91.129368
7.650000	-7.751733	85.947011	-1.992213	-177.976977	-1.992213	-177.976977	-7.759003	86.581241
7.700000	-7.687862	81.346762	-2.030348	177.035373	-2.030348	177.035373	-7.694380	81.986721
7.750000	-7.672274	76.688469	-2.059868	171.941301	-2.059868	171.941301	-7.677953	77.340140
7.800000	-7.712701	71.965871	-2.079950	166.713622	-2.079950	166.713622	-7.717378	72.636461
7.850000	-7.820634	67.174941	-2.090045	161.317059	-2.090045	161.317059	-7.824029	67.873525
7.900000	-8.013291	62.318443	-2.090145	155.705195	-2.090145	155.705195	-8.014920	63.056981
7.950000	-8.316979	57.416354	-2.081276	149.816077	-2.081276	149.816077	-8.315982	58.211400
8.000000	-8.773069	52.530661	-2.066427	143.565882	-2.066427	143.565882	-8.767832	53.406355
8.050000	-9.449807	47.830121	-2.052373	136.837999	-2.052373	136.837999	-9.437022	48.823884
8.100000	-10.463737	43.781513	-2.053561	129.469501	-2.053561	129.469501	-10.435728	44.954799
8.150000	-12.005836	41.722456	-2.098884	121.252948	-2.098884	121.252948	-11.941953	43.172715
8.200000	-14.301405	45.949929	-2.245863	111.931382	-2.245863	111.931382	-14.136808	47.734889
8.250000	-16.470500	67.891933	-2.604157	101.289852	-2.604157	101.289852	-16.082072	69.049996
8.300000	-14.146876	98.815610	-3.377607	89.428489	-3.377607	89.428489	-13.827495	98.016797
8.350000	-9.730538	104.422730	-4.873251	77.621866	-4.873251	77.621866	-9.581903	103.478858
8.400000	-6.546394	95.186684	-7.367259	69.863323	-7.367259	69.863323	-6.467662	94.482906
8.450000	-4.708368	81.443461	-10.452296	74.276566	-10.452296	74.276566	-4.659652	80.933143
8.500000	-3.836994	67.552267	-11.742323	93.354544	-11.742323	93.354544	-3.803309	67.180254
8.550000	-3.573693	54.982018	-10.261225	106.922903	-10.261225	106.922903	-3.548368	54.712353
8.600000	-3.684199	43.871998	-8.344102	108.650268	-8.344102	108.650268	-3.663769	43.682829
8.650000	-4.056760	33.951007	-6.810365	104.536113	-6.810365	104.536113	-4.039096	33.829742
8.700000	-4.655767	24.899624	-5.626100	97.896200	-5.626100	97.896200	-4.639328	24.840725
8.750000	-5.512822	16.580681	-4.688768	89.849251	-4.688768	89.849251	-5.496058	16.584548
8.800000	-6.719224	9.143580	-3.934753	80.767276	-3.934753	80.767276	-6.699891	9.217870
8.850000	-8.426210	3.290280	-3.334780	70.790141	-3.334780	70.790141	-8.399953	3.451982
8.900000	-10.872473	1.205335	-2.889485	59.973128	-2.889485	59.973128	-10.828176	1.478253
8.950000	-14.161610	9.887270	-2.622110	48.397645	-2.622110	48.397645	-14.067355	10.214390
9.000000	-15.958695	40.841482	-2.561319	36.278804	-2.561319	36.278804	-15.813018	40.638882
9.050000	-13.109196	67.314076	-2.720980	23.958355	-2.720980	23.958355	-13.030702	66.729331
9.100000	-9.697090	72.425789	-3.102514	11.836863	-3.102514	11.836863	-9.660586	71.925253
9.150000	-7.234652	68.951740	-3.675916	0.286687	-3.675916	0.286687	-7.214068	68.548820
9.200000	-5.526816	62.716627	-4.393612	-10.450146	-4.393612	-10.450146	-5.513343	62.382891
9.250000	-4.333514	55.720430	-5.204344	-20.274376	-5.204344	-20.274376	-4.323759	55.435795
9.300000	-3.490361	48.727514	-6.060064	-29.213997	-6.060064	-29.213997	-3.482773	48.479343
9.350000	-2.890409	42.014195	-6.919395	-37.394957	-6.919395	-37.394957	-2.884153	41.794395
9.400000	-2.467745	35.643863	-7.746586	-45.048214	-7.746586	-45.048214	-2.462276	35.447087
9.450000	-2.192684	29.594998	-8.513912	-52.618875	-8.513912	-52.618875	-2.187516	29.417485
9.500000	-2.083473	23.963479	-9.252289	-61.089190	-9.252289	-61.089190	-2.077981	23.801345
9.550000	-2.154803	19.772516	-10.333034	-71.494082	-10.333034	-71.494082	-2.148440	19.617294
9.600000	-2.009237	17.613185	-12.214008	-78.267109	-12.214008	-78.267109	-2.003300	17.455347
9.650000	-1.664562	14.060773	-13.583698	-78.999900	-13.583698	-78.999900	-1.660261	13.907693
9.700000	-1.436750	9.820668	-14.403505	-80.404852	-14.403505	-80.404852	-1.433507	9.676995
9.750000	-1.296472	5.696559	-15.086238	-82.960994	-15.086238	-82.960994	-1.293801	5.561997
9.800000	-1.199890	1.799672	-15.744557	-85.965610	-15.744557	-85.965610	-1.197565	1.673148
9.850000	-1.129286	-1.879599	-16.388234	-89.092720	-16.388234	-89.092720	-1.127186	-1.999073
9.900000	-1.073473	-5.394185	-17.023102	-92.202567	-17.023102	-92.202567	-1.071533	-5.507301
9.950000	-1.029093	-8.754766	-17.642191	-95.242105	-17.642191	-95.242105	-1.027265	-8.862120
10.000000	-0.993085	-11.981563	-18.243269	-98.185397	-18.243269	-98.185397	-0.991333	-12.083629
