! freq	dB(S11)	phase(S11)	dB(S12)	phase(S12)	
!     	dB(S21)	phase(S21)	dB(S22)	phase(S22)	
!S-par simulation data
#  GHz  S  DB  R 50
0.000000	-85.463833	0.000000	-0.000463	0.000000	-0.000463	0.000000	-85.463833	0.000000
0.050000	-45.733038	-88.929827	-0.004323	-2.404565	-0.004323	-2.404565	-45.629035	-90.411582
0.100000	-39.775523	-93.760032	-0.009256	-4.776465	-0.009256	-4.776465	-39.749422	-93.153994
0.150000	-36.306640	-97.137344	-0.013190	-7.139152	-0.013190	-7.139152	-36.299212	-95.772545
0.200000	-33.858657	-100.127474	-0.016895	-9.499274	-0.016895	-9.499274	-33.852582	-98.254859
0.250000	-31.972883	-102.943019	-0.020665	-11.857196	-0.020665	-11.857196	-31.964969	-100.638836
0.300000	-30.444388	-105.680989	-0.024563	-14.213038	-0.024563	-14.213038	-30.435225	-102.959960
0.350000	-29.164007	-108.379951	-0.028575	-16.567092	-0.028575	-16.567092	-29.154477	-105.238056
0.400000	-28.067328	-111.056979	-0.032690	-18.919624	-0.032690	-18.919624	-28.058030	-107.483763
0.450000	-27.114747	-113.720656	-0.036907	-21.270805	-0.036907	-21.270805	-27.106000	-109.702612
0.500000	-26.276342	-116.377113	-0.041213	-23.620954	-0.041213	-23.620954	-26.268225	-111.901653
0.550000	-25.531756	-119.029095	-0.045599	-25.970224	-0.045599	-25.970224	-25.524254	-114.084196
0.600000	-24.866598	-121.678327	-0.050059	-28.318703	-0.050059	-28.318703	-24.859659	-116.252207
0.650000	-24.270723	-124.326099	-0.054580	-30.666430	-0.054580	-30.666430	-24.264301	-118.406804
0.700000	-23.733847	-126.973487	-0.059141	-33.013499	-0.059141	-33.013499	-23.727914	-120.549980
0.750000	-23.249084	-129.621266	-0.063723	-35.359935	-0.063723	-35.359935	-23.243642	-122.682403
0.800000	-22.812098	-132.270268	-0.068303	-37.705723	-0.068303	-37.705723	-22.807181	-124.803968
0.850000	-22.418007	-134.921308	-0.072856	-40.050895	-0.072856	-40.050895	-22.413674	-126.915111
0.900000	-22.062877	-137.575188	-0.077359	-42.395479	-0.077359	-42.395479	-22.059206	-129.015988
0.950000	-21.743868	-140.232833	-0.081789	-44.739505	-0.081789	-44.739505	-21.740952	-131.106404
1.000000	-21.458531	-142.895247	-0.086125	-47.083021	-0.086125	-47.083021	-21.456475	-133.186087
1.050000	-21.204848	-145.563544	-0.090347	-49.426098	-0.090347	-49.426098	-21.203762	-135.254630
1.100000	-20.981160	-148.238968	-0.094437	-51.768827	-0.094437	-51.768827	-20.981158	-137.311502
1.150000	-20.786111	-150.922904	-0.098377	-54.111328	-0.098377	-54.111328	-20.787310	-139.356035
1.200000	-20.618610	-153.616898	-0.102155	-56.453744	-0.102155	-56.453744	-20.621128	-141.387422
1.250000	-20.477796	-156.322673	-0.105757	-58.796245	-0.105757	-58.796245	-20.481753	-143.404701
1.300000	-20.363547	-159.042501	-0.109166	-61.139034	-0.109166	-61.139034	-20.369072	-145.406371
1.350000	-20.274883	-161.778297	-0.112378	-63.482325	-0.112378	-63.482325	-20.282105	-147.391388
1.400000	-20.211520	-164.532488	-0.115384	-65.826350	-0.115384	-65.826350	-20.220581	-149.358162
1.450000	-20.173349	-167.307805	-0.118178	-68.171360	-0.118178	-68.171360	-20.184403	-151.304830
1.500000	-20.160426	-170.107330	-0.120755	-70.517614	-0.120755	-70.517614	-20.173647	-153.229198
1.550000	-20.172981	-172.934559	-0.123114	-72.865387	-0.123114	-72.865387	-20.188567	-155.128678
1.600000	-20.211414	-175.793484	-0.125254	-75.214958	-0.125254	-75.214958	-20.229595	-157.000205
1.650000	-20.276311	-178.688693	-0.127179	-77.566612	-0.127179	-77.566612	-20.297356	-158.840132
1.700000	-20.368456	178.374496	-0.128894	-79.920638	-0.128894	-79.920638	-20.392682	-160.644099
1.750000	-20.488845	175.389866	-0.130407	-82.277327	-0.130407	-82.277327	-20.516631	-162.406865
1.800000	-20.638717	172.350087	-0.131729	-84.636968	-0.131729	-84.636968	-20.670513	-164.122085
1.850000	-20.819575	169.246418	-0.132874	-86.999848	-0.132874	-86.999848	-20.855924	-165.782025
1.900000	-21.033543	166.067386	-0.133859	-89.366289	-0.133859	-89.366289	-21.075107	-167.376346
1.950000	-21.282795	162.799632	-0.134705	-91.736577	-0.134705	-91.736577	-21.330385	-168.892761
2.000000	-21.569588	159.427904	-0.135436	-94.110938	-0.135436	-94.110938	-21.624190	-170.316961
2.050000	-21.896948	155.932108	-0.136081	-96.489629	-0.136081	-96.489629	-21.959791	-171.629896
2.100000	-22.268438	152.286761	-0.136669	-98.872892	-0.136669	-98.872892	-22.341062	-172.807101
2.150000	-22.688232	148.459075	-0.137233	-101.260958	-0.137233	-101.260958	-22.772593	-173.816714
2.200000	-23.161178	144.406217	-0.137809	-103.654039	-0.137809	-103.654039	-23.259793	-174.616624
2.250000	-23.692827	140.071342	-0.138436	-106.052331	-0.138436	-106.052331	-23.808983	-175.150257
2.300000	-24.289365	135.377767	-0.139154	-108.456012	-0.139154	-108.456012	-24.427412	-175.340285
2.350000	-24.957300	130.220396	-0.140007	-110.865235	-0.140007	-110.865235	-25.123068	-175.079106
2.400000	-25.702621	124.453168	-0.141040	-113.280136	-0.141040	-113.280136	-25.904000	-174.214425
2.450000	-26.528802	117.871263	-0.142302	-115.700824	-0.142302	-115.700824	-26.776446	-172.527777
2.500000	-27.432348	110.188261	-0.143840	-118.127384	-0.143840	-118.127384	-27.740296	-169.704626
2.550000	-28.391130	100.971309	-0.145714	-120.560004	-0.145714	-120.560004	-28.776323	-165.253045
2.600000	-29.348716	89.760308	-0.147969	-122.998585	-0.147969	-122.998585	-29.826266	-158.613462
2.650000	-30.186976	76.130633	-0.150657	-125.443130	-0.150657	-125.443130	-30.756041	-149.230645
2.700000	-30.716219	60.115702	-0.153830	-127.893609	-0.153830	-127.893609	-31.336095	-137.093743
2.750000	-30.740654	42.701429	-0.157541	-130.349967	-0.157541	-130.349967	-31.326375	-123.429076
2.800000	-30.201378	25.669849	-0.161842	-132.812115	-0.161842	-132.812115	-30.673297	-110.452572
2.850000	-29.230676	10.554359	-0.166783	-135.279938	-0.166783	-135.279938	-29.564376	-99.899429
2.900000	-28.035870	-2.094934	-0.172414	-137.753290	-0.172414	-137.753290	-28.251518	-92.197771
2.950000	-26.778600	-12.492468	-0.178784	-140.231994	-0.178784	-140.231994	-26.908145	-86.937184
3.000000	-25.548358	-21.113497	-0.185939	-142.715846	-0.185939	-142.715846	-25.618767	-83.516081
3.050000	-24.384284	-28.410810	-0.193922	-145.204615	-0.193922	-145.204615	-24.414568	-81.423991
3.100000	-23.298833	-34.735982	-0.202775	-147.698040	-0.202775	-147.698040	-23.301626	-80.288593
3.150000	-22.291809	-40.337899	-0.212546	-150.195881	-0.212546	-150.195881	-22.275424	-79.855921
3.200000	-21.358659	-45.401704	-0.223270	-152.697818	-0.223270	-152.697818	-21.328579	-79.941953
3.250000	-20.493237	-50.061280	-0.234968	-155.203471	-0.234968	-155.203471	-20.453128	-80.415793
3.300000	-19.688837	-54.407791	-0.247665	-157.712487	-0.247665	-157.712487	-19.641201	-81.189117
3.350000	-18.939248	-58.508069	-0.261383	-160.224497	-0.261383	-160.224497	-18.885828	-82.197522
3.400000	-18.238936	-62.411850	-0.276138	-162.739114	-0.276138	-162.739114	-18.180964	-83.393180
3.450000	-17.583054	-66.156700	-0.291943	-165.255940	-0.291943	-165.255940	-17.521417	-84.739943
3.500000	-16.967386	-69.771390	-0.308804	-167.774567	-0.308804	-167.774567	-16.902732	-86.210029
3.550000	-16.388277	-73.278252	-0.326723	-170.294578	-0.326723	-170.294578	-16.321088	-87.781759
3.600000	-15.842550	-76.694825	-0.345695	-172.815552	-0.345695	-172.815552	-15.773192	-89.437968
3.650000	-15.327440	-80.035042	-0.365710	-175.337069	-0.365710	-175.337069	-15.256196	-91.164883
3.700000	-14.840529	-83.310084	-0.386753	-177.858706	-0.386753	-177.858706	-14.767624	-92.951318
3.750000	-14.379696	-86.529007	-0.408803	179.619951	-0.408803	179.619951	-14.305312	-94.788085
3.800000	-13.943109	-89.698300	-0.431853	177.099335	-0.431853	177.099335	-13.867399	-96.668335
3.850000	-13.529100	-92.825207	-0.455850	174.579837	-0.455850	174.579837	-13.452195	-98.584658
3.900000	-13.136187	-95.914741	-0.480756	172.061841	-0.480756	172.061841	-13.058205	-100.531705
3.950000	-12.763049	-98.971105	-0.506529	169.545714	-0.506529	169.545714	-12.684096	-102.504916
4.000000	-12.408498	-101.997852	-0.533122	167.031803	-0.533122	167.031803	-12.328674	-104.500372
4.050000	-12.071465	-104.998004	-0.560480	164.520436	-0.560480	164.520436	-11.990866	-106.514689
4.100000	-11.750981	-107.974153	-0.588549	162.011915	-0.588549	162.011915	-11.669698	-108.544928
4.150000	-11.446167	-110.928541	-0.617267	159.506517	-0.617267	159.506517	-11.364290	-110.588524
4.200000	-11.156222	-113.863125	-0.646569	157.004492	-0.646569	157.004492	-11.073838	-112.643233
4.250000	-10.880412	-116.779623	-0.676386	154.506060	-0.676386	154.506060	-10.797608	-114.707083
4.300000	-10.618065	-119.679561	-0.706647	152.011410	-0.706647	152.011410	-10.534926	-116.778340
4.350000	-10.368565	-122.564308	-0.737277	149.520697	-0.737277	149.520697	-10.285173	-118.855480
4.400000	-10.131401	-125.434963	-0.768200	147.034091	-0.768200	147.034091	-10.047840	-120.937194
4.450000	-9.906052	-128.292695	-0.799333	144.551682	-0.799333	144.551682	-9.822403	-123.022266
4.500000	-9.691972	-131.138695	-0.830592	142.073475	-0.830592	142.073475	-9.608311	-125.109620
4.550000	-9.488708	-133.973938	-0.861895	139.599487	-0.861895	139.599487	-9.405109	-127.198357
4.600000	-9.295842	-136.799342	-0.893158	137.129695	-0.893158	137.129695	-9.212376	-129.287696
4.650000	-9.112985	-139.615784	-0.924295	134.664043	-0.924295	134.664043	-9.029719	-131.376959
4.700000	-8.939778	-142.424105	-0.955219	132.202436	-0.955219	132.202436	-8.856774	-133.465570
4.750000	-8.775885	-145.225123	-0.985846	129.744743	-0.985846	129.744743	-8.693203	-135.553038
4.800000	-8.620998	-148.019637	-1.016089	127.290797	-1.016089	127.290797	-8.538689	-137.638956
4.850000	-8.474828	-150.808435	-1.045862	124.840394	-1.045862	124.840394	-8.392942	-139.722993
4.900000	-8.337111	-153.592296	-1.075080	122.393295	-1.075080	122.393295	-8.255691	-141.804888
4.950000	-8.207602	-156.371998	-1.103658	119.949226	-1.103658	119.949226	-8.126686	-143.884444
5.000000	-8.086077	-159.148319	-1.131513	117.507874	-1.131513	117.507874	-8.005696	-145.961528
5.050000	-7.972530	-161.921981	-1.158530	115.068962	-1.158530	115.068962	-7.892714	-148.035977
5.100000	-7.866575	-164.693891	-1.184656	112.632014	-1.184656	112.632014	-7.787343	-150.107851
5.150000	-7.768042	-167.464850	-1.209810	110.196614	-1.209810	110.196614	-7.689410	-152.177179
5.200000	-7.676779	-170.235675	-1.233915	107.762308	-1.233915	107.762308	-7.598757	-154.244035
5.250000	-7.592653	-173.007196	-1.256895	105.328611	-1.256895	105.328611	-7.515247	-156.308535
5.300000	-7.515549	-175.780262	-1.278677	102.895004	-1.278677	102.895004	-7.438757	-158.370836
5.350000	-7.445367	-178.555739	-1.299189	100.460935	-1.299189	100.460935	-7.369184	-160.431129
5.400000	-7.382027	178.665482	-1.318362	98.025819	-1.318362	98.025819	-7.306445	-162.489640
5.450000	-7.325466	175.882488	-1.336128	95.589035	-1.336128	95.589035	-7.250470	-164.546626
5.500000	-7.275640	173.094339	-1.352423	93.149932	-1.352423	93.149932	-7.201213	-166.602371
5.550000	-7.232525	170.300067	-1.367185	90.707823	-1.367185	90.707823	-7.158645	-168.657188
5.600000	-7.196114	167.498674	-1.380356	88.261987	-1.380356	88.261987	-7.122756	-170.711407
5.650000	-7.165553	164.690331	-1.392103	85.812357	-1.392103	85.812357	-7.092693	-172.765366
5.700000	-7.142681	161.871596	-1.401911	83.356811	-1.401911	83.356811	-7.070283	-174.819422
5.750000	-7.126627	159.042506	-1.409967	80.895150	-1.409967	80.895150	-7.054658	-176.873994
5.800000	-7.117476	156.201906	-1.416223	78.426507	-1.416223	78.426507	-7.045898	-178.929476
5.850000	-7.115964	153.347360	-1.420471	75.949195	-1.420471	75.949195	-7.044732	179.013578
5.900000	-7.120916	150.480128	-1.423020	73.463854	-1.423020	73.463854	-7.049993	176.955068
5.950000	-7.133190	147.597640	-1.423651	70.968715	-1.423651	70.968715	-7.062529	174.894466
6.000000	-7.152990	144.698520	-1.422333	68.462750	-1.422333	68.462750	-7.082541	172.831388
6.050000	-7.180207	141.782200	-1.419126	65.945471	-1.419126	65.945471	-7.109919	170.765612
6.100000	-7.215896	138.845238	-1.413811	63.414482	-1.413811	63.414482	-7.145707	168.696487
6.150000	-7.259962	135.887029	-1.406479	60.869278	-1.406479	60.869278	-7.189806	166.623873
6.200000	-7.312781	132.905865	-1.397119	58.308636	-1.397119	58.308636	-7.242585	164.547521
6.250000	-7.374786	129.899925	-1.385724	55.731278	-1.385724	55.731278	-7.304467	162.467249
6.300000	-7.446680	126.866640	-1.372252	53.135444	-1.372252	53.135444	-7.376140	160.382870
6.350000	-7.528844	123.804458	-1.356756	50.520096	-1.356756	50.520096	-7.457971	158.294489
6.400000	-7.621929	120.711128	-1.339252	47.883771	-1.339252	47.883771	-7.550589	156.202265
6.450000	-7.726681	117.584220	-1.319768	45.224939	-1.319768	45.224939	-7.654715	154.106537
6.500000	-7.843952	114.421090	-1.298339	42.542001	-1.298339	42.542001	-7.771167	152.007865
6.550000	-7.974720	111.218853	-1.275013	39.833285	-1.275013	39.833285	-7.900879	149.907092
6.600000	-8.120105	107.974337	-1.249851	37.097041	-1.249851	37.097041	-8.044917	147.805415
6.650000	-8.281398	104.684036	-1.222926	34.331445	-1.222926	34.331445	-8.204498	145.704483
6.700000	-8.460026	101.344262	-1.194334	31.534726	-1.194334	31.534726	-8.380960	143.606482
6.750000	-8.657745	97.950507	-1.164178	28.704816	-1.164178	28.704816	-8.575939	141.514348
6.800000	-8.876777	94.496973	-1.132567	25.839170	-1.132567	25.839170	-8.791489	139.432132
6.850000	-9.119560	90.977551	-1.099650	22.935450	-1.099650	22.935450	-9.029834	137.365153
6.900000	-9.388311	87.387626	-1.065643	19.992583	-1.065643	19.992583	-9.292937	135.319570
6.950000	-9.686456	83.718754	-1.030730	17.007879	-1.030730	17.007879	-9.583845	133.304206
7.000000	-10.018720	79.958142	-0.995118	13.977294	-0.995118	13.977294	-9.906713	131.332345
7.050000	-10.388765	76.098450	-0.959114	10.900453	-0.959114	10.900453	-10.264560	129.417343
7.100000	-10.802190	72.125968	-0.923011	7.774946	-0.923011	7.774946	-10.662015	127.578747
7.150000	-11.267482	68.015517	-0.887165	4.595536	-0.887165	4.595536	-11.105947	125.849576
7.200000	-11.792120	63.748828	-0.851971	1.361971	-0.851971	1.361971	-11.601854	124.263080
7.250000	-12.386843	59.295603	-0.817856	-1.927903	-0.817856	-1.927903	-12.157371	122.868443
7.300000	-13.067157	54.602800	-0.785368	-5.278677	-0.785368	-5.278677	-12.782758	121.747206
7.350000	-13.851425	49.605353	-0.755068	-8.692166	-0.755068	-8.692166	-13.488385	121.003644
7.400000	-14.763735	44.211326	-0.727522	-12.169265	-0.727522	-12.169265	-14.285452	120.779183
7.450000	-15.839498	38.252357	-0.703467	-15.713310	-0.703467	-15.713310	-15.186011	121.309529
7.500000	-17.128633	31.424021	-0.683775	-19.327746	-0.683775	-19.327746	-16.196755	122.970121
7.550000	-18.698347	23.239835	-0.669111	-23.011496	-0.669111	-23.011496	-17.308909	126.231047
7.600000	-20.643161	12.679159	-0.660355	-26.765865	-0.660355	-26.765865	-18.474859	131.792834
7.650000	-23.032042	-2.946842	-0.658873	-30.595561	-0.658873	-30.595561	-19.535323	140.643554
7.700000	-25.585036	-28.549112	-0.665327	-34.496721	-0.665327	-34.496721	-20.213596	152.841802
7.750000	-26.612206	-67.308357	-0.680773	-38.468871	-0.680773	-38.468871	-20.186356	166.950243
7.800000	-24.545470	-103.224403	-0.706788	-42.513743	-0.706788	-42.513743	-19.353612	179.912863
7.850000	-21.583267	-125.584640	-0.744300	-46.627228	-0.744300	-46.627228	-18.024202	-170.435485
7.900000	-18.965395	-139.854872	-0.794302	-50.805282	-0.794302	-50.805282	-16.530906	-164.240545
7.950000	-16.788501	-150.184380	-0.858313	-55.045454	-0.858313	-55.045454	-15.056596	-160.850064
8.000000	-14.966526	-158.544176	-0.937604	-59.342781	-0.937604	-59.342781	-13.680692	-159.461857
8.050000	-13.416584	-165.850929	-1.032804	-63.689351	-1.032804	-63.689351	-12.426922	-159.428592
8.100000	-12.075990	-172.513220	-1.145043	-68.078575	-1.145043	-68.078575	-11.291740	-160.368411
8.150000	-10.901447	-178.753169	-1.275587	-72.503123	-1.275587	-72.503123	-10.265344	-162.024649
8.200000	-9.862903	175.288705	-1.424948	-76.953322	-1.424948	-76.953322	-9.337615	-164.196425
8.250000	-8.938096	169.534734	-1.593659	-81.419501	-1.593659	-81.419501	-8.498272	-166.752361
8.300000	-8.110485	163.939782	-1.782289	-85.891576	-1.782289	-85.891576	-7.738303	-169.600466
8.350000	-7.367070	158.473451	-1.990803	-90.359166	-1.990803	-90.359166	-7.049690	-172.665880
8.400000	-6.697830	153.120530	-2.219386	-94.811827	-2.219386	-94.811827	-6.425715	-175.896428
8.450000	-6.094556	147.871699	-2.467848	-99.239167	-2.467848	-99.239167	-5.860480	-179.248531
8.500000	-5.550168	142.721479	-2.735713	-103.631643	-2.735713	-103.631643	-5.348554	177.313300
8.550000	-5.058323	137.666221	-3.022279	-107.981141	-3.022279	-107.981141	-4.884794	173.817874
8.600000	-4.614218	132.707268	-3.327063	-112.278823	-3.327063	-112.278823	-4.465264	170.286998
8.650000	-4.213825	127.847590	-3.649394	-116.515826	-3.649394	-116.515826	-4.086584	166.739578
8.700000	-3.852136	123.084182	-3.988174	-120.688293	-3.988174	-120.688293	-3.744281	163.191672
8.750000	-3.525491	118.417924	-4.342587	-124.791149	-4.342587	-124.791149	-3.435085	159.655369
8.800000	-3.231736	113.855174	-4.711658	-128.815746	-4.711658	-128.815746	-3.157123	156.142189
8.850000	-2.966612	109.390486	-5.094462	-132.763022	-5.094462	-132.763022	-2.906409	152.658968
8.900000	-2.727391	105.023665	-5.490180	-136.630619	-5.490180	-136.630619	-2.680407	149.211682
8.950000	-2.512271	100.758071	-5.897685	-140.413506	-5.897685	-140.413506	-2.477456	145.806705
9.000000	-2.318494	96.590176	-6.316286	-144.112687	-6.316286	-144.112687	-2.294933	142.446516
9.050000	-2.143725	92.516880	-6.745430	-147.729187	-6.745430	-147.729187	-2.130611	139.132613
9.100000	-1.986430	88.538630	-7.184196	-151.261094	-7.184196	-151.261094	-1.983030	135.867533
9.150000	-1.844977	84.654051	-7.631829	-154.708174	-7.631829	-154.708174	-1.850622	132.652380
9.200000	-1.717392	80.857737	-8.088295	-158.073994	-8.088295	-158.073994	-1.731480	129.485555
9.250000	-1.602396	77.147897	-8.553103	-161.358920	-8.553103	-161.358920	-1.624366	126.366988
9.300000	-1.499712	73.530499	-9.024020	-164.555806	-9.024020	-164.555806	-1.529003	123.300762
9.350000	-1.406274	69.986005	-9.504453	-167.682002	-9.504453	-167.682002	-1.442424	120.276187
9.400000	-1.322005	66.519443	-9.992701	-170.731377	-9.992701	-170.731377	-1.364546	117.296334
9.450000	-1.246633	63.134626	-10.486866	-173.698429	-10.486866	-173.698429	-1.295086	114.363503
9.500000	-1.178784	59.823519	-10.988250	-176.589445	-10.988250	-176.589445	-1.232709	111.473050
9.550000	-1.117276	56.578181	-11.498667	-179.410957	-11.498667	-179.410957	-1.176274	108.620313
9.600000	-1.062493	53.408073	-12.014335	177.849343	-12.014335	177.849343	-1.126115	105.810525
9.650000	-1.012782	50.297701	-12.539934	175.176729	-12.539934	175.176729	-1.080656	103.034637
9.700000	-0.968498	47.255901	-13.071660	172.583955	-13.071660	172.583955	-1.040199	100.297387
9.750000	-0.928550	44.271915	-13.613147	170.061279	-13.613147	170.061279	-1.003708	97.592454
9.800000	-0.892852	41.348196	-14.162987	167.615118	-14.162987	167.615118	-0.971077	94.920915
9.850000	-0.860957	38.481519	-14.722160	165.245150	-14.722160	165.245150	-0.941873	92.280698
9.900000	-0.832400	35.667740	-15.292387	162.950076	-15.292387	162.950076	-0.915649	89.669253
9.950000	-0.807193	32.910138	-15.871742	160.739835	-15.871742	160.739835	-0.892391	87.088079
10.000000	-0.784618	30.198916	-16.465371	158.604800	-16.465371	158.604800	-0.871442	84.531665
