! freq	dB(S11)	phase(S11)	dB(S12)	phase(S12)	
!     	dB(S21)	phase(S21)	dB(S22)	phase(S22)	
!S-par simulation data
#  GHz  S  DB  R 50
0.000000	-0.000000	-0.000000	-344.848069	180.000000	-344.848069	180.000000	-0.000000	-0.000000
0.050000	-0.000124	-1.011375	-114.430446	86.415314	-114.430446	86.415314	-0.000091	-0.761214
0.100000	-0.000491	-2.022447	-108.505453	87.040382	-108.505453	87.040382	-0.000360	-1.522222
0.150000	-0.001086	-3.032933	-105.074352	86.778636	-105.074352	86.778636	-0.000799	-2.282833
0.200000	-0.001888	-4.042596	-102.693023	86.314759	-102.693023	86.314759	-0.001390	-3.042885
0.250000	-0.002881	-5.051165	-100.909764	85.800389	-100.909764	85.800389	-0.002125	-3.802193
0.300000	-0.004020	-6.058583	-99.512431	85.301483	-99.512431	85.301483	-0.002972	-4.560714
0.350000	-0.005285	-7.064698	-98.396956	84.853324	-98.396956	84.853324	-0.003915	-5.318344
0.400000	-0.006648	-8.069440	-97.500110	84.487217	-97.500110	84.487217	-0.004934	-6.075036
0.450000	-0.008083	-9.072775	-96.782321	84.234455	-96.782321	84.234455	-0.006012	-6.830767
0.500000	-0.009568	-10.074694	-96.217892	84.130375	-96.217892	84.130375	-0.007130	-7.585535
0.550000	-0.011084	-11.075210	-95.789895	84.217771	-95.789895	84.217771	-0.008275	-8.339352
0.600000	-0.012616	-12.074344	-95.487261	84.550711	-95.487261	84.550711	-0.009435	-9.092243
0.650000	-0.014152	-13.072126	-95.302921	85.199505	-95.302921	85.199505	-0.010599	-9.844235
0.700000	-0.015682	-14.068586	-95.232368	86.257499	-95.232368	86.257499	-0.011761	-10.595362
0.750000	-0.017202	-15.063752	-95.272154	87.850432	-95.272154	87.850432	-0.012914	-11.345654
0.800000	-0.018705	-16.057649	-95.417720	90.148808	-95.417720	90.148808	-0.014056	-12.095140
0.850000	-0.020190	-17.050294	-95.659634	93.382183	-95.659634	93.382183	-0.015183	-12.843847
0.900000	-0.021654	-18.041702	-95.976796	97.849179	-95.976796	97.849179	-0.016295	-13.591795
0.950000	-0.023099	-19.031878	-96.324892	103.903758	-96.324892	103.903758	-0.017389	-14.339002
1.000000	-0.024522	-20.020825	-96.620592	111.873968	-96.620592	111.873968	-0.018468	-15.085480
1.050000	-0.025927	-21.008538	-96.731633	121.855383	-96.731633	121.855383	-0.019530	-15.831238
1.100000	-0.027312	-21.995009	-96.500467	133.400001	-96.500467	133.400001	-0.020578	-16.576281
1.150000	-0.028680	-22.980225	-95.822812	145.372144	-95.822812	145.372144	-0.021612	-17.320609
1.200000	-0.030033	-23.964171	-94.726058	156.371820	-94.726058	156.371820	-0.022632	-18.064220
1.250000	-0.031370	-24.946827	-93.347671	165.477976	-93.347671	165.477976	-0.023642	-18.807110
1.300000	-0.032694	-25.928115	-91.828290	172.424238	-91.828290	172.424238	-0.024640	-19.549238
1.350000	-0.034005	-26.908068	-90.294179	177.579875	-90.294179	177.579875	-0.025630	-20.290626
1.400000	-0.035306	-27.886661	-88.802227	-178.681423	-88.802227	-178.681423	-0.026611	-21.031265
1.450000	-0.036598	-28.863869	-87.377554	-176.026548	-87.377554	-176.026548	-0.027586	-21.771140
1.500000	-0.037881	-29.839666	-86.028097	-174.193663	-86.028097	-174.193663	-0.028556	-22.510239
1.550000	-0.039157	-30.814025	-84.753425	-172.986807	-84.753425	-172.986807	-0.029520	-23.248548
1.600000	-0.040426	-31.786921	-83.549425	-172.261658	-83.549425	-172.261658	-0.030481	-23.986050
1.650000	-0.041690	-32.758324	-82.410641	-171.911943	-82.410641	-171.911943	-0.031439	-24.722732
1.700000	-0.042949	-33.728210	-81.331390	-171.858805	-81.331390	-171.858805	-0.032394	-25.458577
1.750000	-0.044204	-34.696552	-80.306259	-172.043072	-80.306259	-172.043072	-0.033348	-26.193569
1.800000	-0.045456	-35.663322	-79.330296	-172.419772	-79.330296	-172.419772	-0.034300	-26.927692
1.850000	-0.046706	-36.628496	-78.399064	-172.954277	-78.399064	-172.954277	-0.035252	-27.660929
1.900000	-0.047953	-37.592048	-77.508627	-173.619585	-77.508627	-173.619585	-0.036205	-28.393265
1.950000	-0.049200	-38.553953	-76.655505	-174.394377	-76.655505	-174.394377	-0.037157	-29.124682
2.000000	-0.050445	-39.514187	-75.836625	-175.261630	-75.836625	-175.261630	-0.038111	-29.855166
2.050000	-0.051691	-40.472726	-75.049271	-176.207603	-75.049271	-176.207603	-0.039066	-30.584700
2.100000	-0.052937	-41.429547	-74.291035	-177.221093	-74.291035	-177.221093	-0.040023	-31.313269
2.150000	-0.054184	-42.384627	-73.559777	-178.292879	-73.559777	-178.292879	-0.040981	-32.040856
2.200000	-0.055433	-43.337945	-72.853590	-179.415309	-72.853590	-179.415309	-0.041942	-32.767447
2.250000	-0.056684	-44.289480	-72.170768	179.418024	-72.170768	179.418024	-0.042906	-33.493026
2.300000	-0.057937	-45.239212	-71.509779	178.212520	-71.509779	178.212520	-0.043873	-34.217579
2.350000	-0.059194	-46.187120	-70.869243	176.972766	-70.869243	176.972766	-0.044843	-34.941092
2.400000	-0.060454	-47.133187	-70.247912	175.702681	-70.247912	175.702681	-0.045817	-35.663549
2.450000	-0.061718	-48.077395	-69.644657	174.405636	-69.644657	174.405636	-0.046795	-36.384938
2.500000	-0.062987	-49.019725	-69.058447	173.084548	-69.058447	173.084548	-0.047776	-37.105244
2.550000	-0.064261	-49.960079	-68.487425	171.741120	-68.487425	171.741120	-0.048763	-37.824407
2.600000	-0.065541	-50.898523	-67.931748	170.378573	-67.931748	170.378573	-0.049754	-38.542459
2.650000	-0.066828	-51.835042	-67.390618	168.998823	-67.390618	168.998823	-0.050750	-39.259389
2.700000	-0.068120	-52.769623	-66.863301	167.603558	-66.863301	167.603558	-0.051751	-39.975185
2.750000	-0.069420	-53.702251	-66.349121	166.194280	-66.349121	166.194280	-0.052757	-40.689833
2.800000	-0.070728	-54.632915	-65.847453	164.772324	-65.847453	164.772324	-0.053770	-41.403322
2.850000	-0.072044	-55.561604	-65.357718	163.338881	-65.357718	163.338881	-0.054788	-42.115642
2.900000	-0.073368	-56.488306	-64.879380	161.895022	-64.879380	161.895022	-0.055813	-42.826781
2.950000	-0.074702	-57.413013	-64.411939	160.441708	-64.411939	160.441708	-0.056844	-43.536727
3.000000	-0.076045	-58.335714	-63.954929	158.979806	-63.954929	158.979806	-0.057883	-44.245471
3.050000	-0.077398	-59.256402	-63.507915	157.510100	-63.507915	157.510100	-0.058928	-44.953003
3.100000	-0.078762	-60.175070	-63.070491	156.033302	-63.070491	156.033302	-0.059981	-45.659312
3.150000	-0.080138	-61.091710	-62.642277	154.550057	-62.642277	154.550057	-0.061042	-46.364390
3.200000	-0.081525	-62.006317	-62.222913	153.060953	-62.222913	153.060953	-0.062112	-47.068226
3.250000	-0.082924	-62.918887	-61.812065	151.566528	-61.812065	151.566528	-0.063189	-47.770812
3.300000	-0.084335	-63.829415	-61.409414	150.067273	-61.409414	150.067273	-0.064276	-48.472139
3.350000	-0.085760	-64.737897	-61.014664	148.563637	-61.014664	148.563637	-0.065371	-49.172199
3.400000	-0.087199	-65.644333	-60.627532	147.056033	-60.627532	147.056033	-0.066476	-49.870984
3.450000	-0.088652	-66.548718	-60.247751	145.544838	-60.247751	145.544838	-0.067591	-50.568486
3.500000	-0.090119	-67.451054	-59.875070	144.030403	-59.875070	144.030403	-0.068716	-51.264698
3.550000	-0.091602	-68.351340	-59.509249	142.513046	-59.509249	142.513046	-0.069851	-51.959612
3.600000	-0.093100	-69.249576	-59.150062	140.993065	-59.150062	140.993065	-0.070998	-52.653223
3.650000	-0.094615	-70.145764	-58.797294	139.470731	-58.797294	139.470731	-0.072155	-53.345522
3.700000	-0.096146	-71.039907	-58.450739	137.946296	-58.450739	137.946296	-0.073325	-54.036505
3.750000	-0.097694	-71.932008	-58.110203	136.419993	-58.110203	136.419993	-0.074506	-54.726165
3.800000	-0.099261	-72.821981	-57.775195	134.891973	-57.775195	134.891973	-0.075700	-55.414439
3.850000	-0.100847	-73.709921	-57.445865	133.362513	-57.445865	133.362513	-0.076906	-56.101378
3.900000	-0.102451	-74.595833	-57.122044	131.831796	-57.122044	131.831796	-0.078126	-56.786978
3.950000	-0.104074	-75.479723	-56.803568	130.299988	-56.803568	130.299988	-0.079359	-57.471235
4.000000	-0.105717	-76.361599	-56.490283	128.767245	-56.490283	128.767245	-0.080607	-58.154143
4.050000	-0.107380	-77.241468	-56.182040	127.233710	-56.182040	127.233710	-0.081868	-58.835699
4.100000	-0.109064	-78.119338	-55.878697	125.699516	-55.878697	125.699516	-0.083144	-59.515899
4.150000	-0.110769	-78.995220	-55.580118	124.164785	-55.580118	124.164785	-0.084435	-60.194739
4.200000	-0.112496	-79.869121	-55.286173	122.629629	-55.286173	122.629629	-0.085741	-60.872217
4.250000	-0.114246	-80.741055	-54.996738	121.094154	-54.996738	121.094154	-0.087063	-61.548328
4.300000	-0.116018	-81.611031	-54.711693	119.558456	-54.711693	119.558456	-0.088401	-62.223072
4.350000	-0.117813	-82.479061	-54.430923	118.022623	-54.430923	118.022623	-0.089756	-62.896445
4.400000	-0.119632	-83.345159	-54.154318	116.486738	-54.154318	116.486738	-0.091128	-63.568445
4.450000	-0.121475	-84.209338	-53.881773	114.950876	-53.881773	114.950876	-0.092517	-64.239071
4.500000	-0.123343	-85.071612	-53.613187	113.415106	-53.613187	113.415106	-0.093923	-64.908321
4.550000	-0.125237	-85.931995	-53.348461	111.879492	-53.348461	111.879492	-0.095348	-65.576194
4.600000	-0.127156	-86.790504	-53.087502	110.344093	-53.087502	110.344093	-0.096791	-66.242689
4.650000	-0.129101	-87.647153	-52.830220	108.808964	-52.830220	108.808964	-0.098253	-66.907805
4.700000	-0.131073	-88.501960	-52.576529	107.274153	-52.576529	107.274153	-0.099735	-67.571543
4.750000	-0.133072	-89.354943	-52.326346	105.739707	-52.326346	105.739707	-0.101236	-68.233902
4.800000	-0.135099	-90.206118	-52.079589	104.205668	-52.079589	104.205668	-0.102757	-68.894881
4.850000	-0.137155	-91.055504	-51.836182	102.672073	-51.836182	102.672073	-0.104298	-69.554483
4.900000	-0.139239	-91.903122	-51.596051	101.138961	-51.596051	101.138961	-0.105861	-70.212707
4.950000	-0.141352	-92.748989	-51.359123	99.606361	-51.359123	99.606361	-0.107444	-70.869555
5.000000	-0.143495	-93.593127	-51.125331	98.074307	-51.125331	98.074307	-0.109049	-71.525027
5.050000	-0.145669	-94.435484	-50.894475	96.542851	-50.894475	96.542851	-0.110677	-72.179067
5.100000	-0.147874	-95.276155	-50.666632	95.011996	-50.666632	95.011996	-0.112327	-72.831735
5.150000	-0.150110	-96.115163	-50.441740	93.481767	-50.441740	93.481767	-0.114000	-73.483033
5.200000	-0.152379	-96.952532	-50.219739	91.952185	-50.219739	91.952185	-0.115697	-74.132965
5.250000	-0.154679	-97.788283	-50.000571	90.423274	-50.000571	90.423274	-0.117417	-74.781533
5.300000	-0.157012	-98.622441	-49.784180	88.895052	-49.784180	88.895052	-0.119160	-75.428739
5.350000	-0.159378	-99.455030	-49.570514	87.367541	-49.570514	87.367541	-0.120928	-76.074587
5.400000	-0.161777	-100.286075	-49.359519	85.840759	-49.359519	85.840759	-0.122721	-76.719081
5.450000	-0.164223	-101.115085	-49.150326	84.314994	-49.150326	84.314994	-0.124547	-77.361756
5.500000	-0.166687	-101.943312	-48.944846	82.789625	-48.944846	82.789625	-0.126387	-78.003727
5.550000	-0.169193	-102.769767	-48.741401	81.265219	-48.741401	81.265219	-0.128258	-78.644066
5.600000	-0.171731	-103.594956	-48.540718	79.741502	-48.540718	79.741502	-0.130152	-79.283239
5.650000	-0.174306	-104.418685	-48.342388	78.218650	-48.342388	78.218650	-0.132074	-79.921023
5.700000	-0.176919	-105.240955	-48.146353	76.696663	-48.146353	76.696663	-0.134023	-80.557419
5.750000	-0.179564	-106.062061	-47.952943	75.175432	-47.952943	75.175432	-0.135997	-81.192666
5.800000	-0.182255	-106.881536	-47.761416	73.655258	-47.761416	73.655258	-0.138004	-81.826306
5.850000	-0.184972	-107.700123	-47.572747	72.135718	-47.572747	72.135718	-0.140031	-82.459036
5.900000	-0.187743	-108.516931	-47.385594	70.617444	-47.385594	70.617444	-0.142096	-83.089946
5.950000	-0.190534	-109.333106	-47.201495	69.099668	-47.201495	69.099668	-0.144177	-83.720180
6.000000	-0.193386	-110.147379	-47.018591	67.583387	-47.018591	67.583387	-0.146304	-84.348386
6.050000	-0.196252	-110.961253	-46.838903	66.067454	-46.838903	66.067454	-0.148441	-84.976147
6.100000	-0.199187	-111.773127	-46.660129	64.553266	-46.660129	64.553266	-0.150629	-85.601680
6.150000	-0.202130	-112.584814	-46.484702	63.039261	-46.484702	63.039261	-0.152823	-86.226992
6.200000	-0.205151	-113.394430	-46.309945	61.527275	-46.309945	61.527275	-0.155075	-86.849881
6.250000	-0.208173	-114.204046	-46.138636	60.015289	-46.138636	60.015289	-0.157327	-87.472770
6.300000	-0.211281	-115.011548	-45.967788	58.505622	-45.967788	58.505622	-0.159644	-88.093050
6.350000	-0.214390	-115.819050	-45.800236	56.995956	-45.800236	56.995956	-0.161962	-88.713329
6.400000	-0.217580	-116.624750	-45.633419	55.488533	-45.633419	55.488533	-0.164340	-89.331249
6.450000	-0.220778	-117.430286	-45.469528	53.981313	-45.469528	53.981313	-0.166724	-89.948953
6.500000	-0.224052	-118.234310	-45.306608	52.476245	-45.306608	52.476245	-0.169165	-90.564544
6.550000	-0.227341	-119.038031	-45.146283	50.971607	-45.146283	50.971607	-0.171617	-91.179711
6.600000	-0.230699	-119.840509	-44.987134	49.469013	-44.987134	49.469013	-0.174122	-91.793004
6.650000	-0.234081	-120.642572	-44.830284	47.967100	-44.830284	47.967100	-0.176644	-92.405672
6.700000	-0.237525	-121.443635	-44.674784	46.467103	-44.674784	46.467103	-0.179213	-93.016702
6.750000	-0.241002	-122.244199	-44.521317	44.968064	-44.521317	44.968064	-0.181807	-93.626912
6.800000	-0.244534	-123.043983	-44.369350	43.470792	-44.369350	43.470792	-0.184442	-94.235713
6.850000	-0.248106	-123.843210	-44.219177	41.974783	-44.219177	41.974783	-0.187108	-94.843508
6.900000	-0.251727	-124.641853	-44.070627	40.480367	-44.070627	40.480367	-0.189812	-95.450118
6.950000	-0.255397	-125.439910	-43.923660	38.987544	-43.923660	38.987544	-0.192552	-96.055542
7.000000	-0.259108	-126.237552	-43.778416	37.496116	-43.778416	37.496116	-0.195324	-96.659997
7.050000	-0.262877	-127.034610	-43.634565	36.006641	-43.634565	36.006641	-0.198139	-97.263096
7.100000	-0.266680	-127.831393	-43.492518	34.518333	-43.492518	34.518333	-0.200981	-97.865436
7.150000	-0.270549	-128.627627	-43.351695	33.032362	-43.351695	33.032362	-0.203874	-98.466258
7.200000	-0.274444	-129.423698	-43.212739	31.547305	-43.212739	31.547305	-0.206787	-99.066523
7.250000	-0.278415	-130.219283	-43.074852	30.064992	-43.074852	30.064992	-0.209758	-99.665117
7.300000	-0.282404	-131.014790	-42.938882	28.583314	-42.938882	28.583314	-0.212744	-100.263349
7.350000	-0.286477	-131.809909	-42.803840	27.104807	-42.803840	27.104807	-0.215795	-100.859767
7.400000	-0.290561	-132.605004	-42.670753	25.626629	-42.670753	25.626629	-0.218854	-101.456007
7.450000	-0.294738	-133.399841	-42.538462	24.152065	-42.538462	24.152065	-0.221987	-102.050301
7.500000	-0.298918	-134.194677	-42.408156	22.677502	-42.408156	22.677502	-0.225121	-102.644595
7.550000	-0.303200	-134.989420	-42.278521	21.207006	-42.278521	21.207006	-0.228336	-103.236820
7.600000	-0.307484	-135.784164	-42.150793	19.736509	-42.150793	19.736509	-0.231553	-103.829044
7.650000	-0.311864	-136.578997	-42.023819	18.269840	-42.023819	18.269840	-0.234846	-104.419423
7.700000	-0.316254	-137.373839	-41.898576	16.803518	-41.898576	16.803518	-0.238147	-105.009634
7.750000	-0.320731	-138.168927	-41.774156	15.340749	-41.774156	15.340749	-0.241519	-105.598215
7.800000	-0.325228	-138.964064	-41.651303	13.878689	-41.651303	13.878689	-0.244906	-106.186470
7.850000	-0.329804	-139.759571	-41.529330	12.419875	-41.529330	12.419875	-0.248357	-106.773301
7.900000	-0.334407	-140.555202	-41.408771	10.962142	-41.408771	10.962142	-0.251831	-107.359659
7.950000	-0.339082	-141.351298	-41.289139	9.507318	-41.289139	9.507318	-0.255363	-107.944792
8.000000	-0.343793	-142.147627	-41.170776	8.053949	-41.170776	8.053949	-0.258926	-108.529312
8.050000	-0.348567	-142.944483	-41.053380	6.603129	-41.053380	6.603129	-0.262540	-109.112798
8.100000	-0.353386	-143.741717	-40.937110	5.154129	-40.937110	5.154129	-0.266193	-109.695543
8.150000	-0.358259	-144.539509	-40.821845	3.707302	-40.821845	3.707302	-0.269891	-110.277433
8.200000	-0.363185	-145.337859	-40.707566	2.262646	-40.707566	2.262646	-0.273635	-110.858467
8.250000	-0.368158	-146.136764	-40.594329	0.819773	-40.594329	0.819773	-0.277417	-111.438815
8.300000	-0.373192	-146.936445	-40.481937	-0.620604	-40.481937	-0.620604	-0.281254	-112.018203
8.350000	-0.378263	-147.736644	-40.370624	-2.059589	-40.370624	-2.059589	-0.285122	-112.597063
8.400000	-0.383405	-148.537876	-40.260014	-3.495791	-40.260014	-3.495791	-0.289053	-113.174870
8.450000	-0.388575	-149.339553	-40.150522	-4.930986	-40.150522	-4.930986	-0.293008	-113.752298
8.500000	-0.393824	-150.142560	-40.041587	-6.363161	-40.041587	-6.363161	-0.297034	-114.328592
8.550000	-0.399092	-150.945900	-39.933816	-7.794697	-39.933816	-7.794697	-0.301078	-114.904645
8.600000	-0.404447	-151.750909	-39.826449	-9.223039	-39.826449	-9.223039	-0.305201	-115.479495
8.650000	-0.409813	-152.556104	-39.720297	-10.651082	-39.720297	-10.651082	-0.309334	-116.054231
8.700000	-0.415273	-153.363347	-39.614391	-12.075833	-39.614391	-12.075833	-0.313555	-116.627707
8.750000	-0.420736	-154.170590	-39.509761	-13.500585	-39.509761	-13.500585	-0.317779	-117.201184
8.800000	-0.426299	-154.980303	-39.405210	-14.922042	-39.405210	-14.922042	-0.322100	-117.773359
8.850000	-0.431866	-155.790016	-39.301902	-16.343498	-39.301902	-16.343498	-0.326423	-118.345535
8.900000	-0.437523	-156.602215	-39.198702	-17.762254	-39.198702	-17.762254	-0.330837	-118.916584
8.950000	-0.443192	-157.414639	-39.096614	-19.180765	-39.096614	-19.180765	-0.335261	-119.487531
9.000000	-0.448942	-158.229527	-38.994668	-20.597159	-38.994668	-20.597159	-0.339770	-120.057518
9.050000	-0.454711	-159.044908	-38.893698	-22.013130	-38.893698	-22.013130	-0.344297	-120.627311
9.100000	-0.460551	-159.862693	-38.792913	-23.427546	-38.792913	-23.427546	-0.348900	-121.196298
9.150000	-0.466418	-160.681280	-38.692963	-24.841442	-38.692963	-24.841442	-0.353531	-121.765014
9.200000	-0.472348	-161.502174	-38.593248	-26.254307	-38.593248	-26.254307	-0.358231	-122.333065
9.250000	-0.478310	-162.324222	-38.494220	-27.666656	-38.494220	-27.666656	-0.362968	-122.900782
9.300000	-0.484325	-163.148439	-38.395491	-29.078446	-38.395491	-29.078446	-0.367766	-123.467962
9.350000	-0.490380	-163.974207	-38.297293	-30.489836	-38.297293	-30.489836	-0.372609	-124.034759
9.400000	-0.496479	-164.801967	-38.199465	-31.901075	-38.199465	-31.901075	-0.377506	-124.601136
9.450000	-0.502623	-165.631718	-38.102008	-33.312163	-38.102008	-33.312163	-0.382457	-125.167093
9.500000	-0.508802	-166.463242	-38.005006	-34.723426	-38.005006	-34.723426	-0.387454	-125.732734
9.550000	-0.515031	-167.297247	-37.908207	-36.134932	-37.908207	-36.134932	-0.392514	-126.297933
9.600000	-0.521282	-168.132372	-37.812090	-37.546707	-37.812090	-37.546707	-0.397604	-126.862960
9.650000	-0.527584	-168.970418	-37.716035	-38.959254	-37.716035	-38.959254	-0.402764	-127.427550
9.700000	-0.533923	-169.810716	-37.620279	-40.372636	-37.620279	-40.372636	-0.407978	-127.991843
9.750000	-0.540299	-170.653332	-37.524806	-41.787056	-37.524806	-41.787056	-0.413246	-128.555858
9.800000	-0.546710	-171.498329	-37.429602	-43.202723	-37.429602	-43.202723	-0.418569	-129.119614
9.850000	-0.553155	-172.345775	-37.334653	-44.619858	-37.334653	-44.619858	-0.423946	-129.683132
9.900000	-0.559632	-173.195733	-37.239947	-46.038687	-37.239947	-46.038687	-0.429378	-130.246432
9.950000	-0.566140	-174.048271	-37.145471	-47.459444	-37.145471	-47.459444	-0.434865	-130.809535
10.000000	-0.572678	-174.903456	-37.051216	-48.882372	-37.051216	-48.882372	-0.440407	-131.372459
