! freq	dB(S11)	phase(S11)	dB(S12)	phase(S12)	
!     	dB(S21)	phase(S21)	dB(S22)	phase(S22)	
!S-par simulation data
#  GHz  S  DB  R 50
0.000000	-0.000000	0.000000	-323.651706	180.000000	-323.651706	180.000000	-0.000000	0.000000
0.050000	-0.000101	-0.916646	-108.016108	88.687590	-108.016108	88.687590	-0.000138	-1.256740
0.100000	-0.000400	-1.833070	-102.052704	87.418672	-102.052704	87.418672	-0.000549	-2.513157
0.150000	-0.000889	-2.749062	-98.621520	86.223280	-98.621520	86.223280	-0.001221	-3.768944
0.200000	-0.001552	-3.664440	-96.241774	85.113751	-96.241774	85.113751	-0.002132	-5.023831
0.250000	-0.002383	-4.578988	-94.453442	84.097464	-94.453442	84.097464	-0.003273	-6.277497
0.300000	-0.003346	-5.492644	-93.041380	83.163621	-93.041380	83.163621	-0.004598	-7.529844
0.350000	-0.004428	-6.405270	-91.899369	82.314780	-91.899369	82.314780	-0.006088	-8.780657
0.400000	-0.005609	-7.316787	-90.962882	81.553524	-90.962882	81.553524	-0.007714	-10.029806
0.450000	-0.006867	-8.227144	-90.191293	80.887281	-90.191293	80.887281	-0.009449	-11.277198
0.500000	-0.008185	-9.136309	-89.557817	80.328765	-89.557817	80.328765	-0.011267	-12.522769
0.550000	-0.009545	-10.044271	-89.044254	79.896365	-89.044254	79.896365	-0.013144	-13.766483
0.600000	-0.010932	-10.951033	-88.638045	79.614838	-88.638045	79.614838	-0.015059	-15.008323
0.650000	-0.012335	-11.856607	-88.330490	79.516511	-88.330490	79.516511	-0.016995	-16.248288
0.700000	-0.013742	-12.761012	-88.115586	79.643153	-88.115586	79.643153	-0.018937	-17.486386
0.750000	-0.015145	-13.664270	-87.989176	80.048679	-87.989176	80.048679	-0.020873	-18.722631
0.800000	-0.016538	-14.566403	-87.948163	80.802893	-87.948163	80.802893	-0.022795	-19.957038
0.850000	-0.017917	-15.467431	-87.989601	81.996427	-87.989601	81.996427	-0.024695	-21.189622
0.900000	-0.019279	-16.367375	-88.109390	83.746815	-88.109390	83.746815	-0.026569	-22.420398
0.950000	-0.020621	-17.266250	-88.300167	86.204851	-88.300167	86.204851	-0.028414	-23.649373
1.000000	-0.021942	-18.164067	-88.547875	89.558421	-88.547875	89.558421	-0.030228	-24.876555
1.050000	-0.023242	-19.060833	-88.826384	94.026567	-88.826384	94.026567	-0.032010	-26.101942
1.100000	-0.024521	-19.956552	-89.090224	99.828918	-89.090224	99.828918	-0.033761	-27.325530
1.150000	-0.025781	-20.851225	-89.267984	107.107967	-89.267984	107.107967	-0.035482	-28.547312
1.200000	-0.027021	-21.744847	-89.264417	115.790711	-89.264417	115.790711	-0.037174	-29.767274
1.250000	-0.028244	-22.637410	-88.983631	125.438322	-88.983631	125.438322	-0.038839	-30.985399
1.300000	-0.029450	-23.528859	-88.357026	135.211901	-88.357026	135.211901	-0.040477	-32.201587
1.350000	-0.030642	-24.419226	-87.427836	144.205420	-87.427836	144.205420	-0.042093	-33.415895
1.400000	-0.031820	-25.308497	-86.283694	151.869144	-86.283694	151.869144	-0.043688	-34.628296
1.450000	-0.032987	-26.196654	-85.022239	158.041108	-85.022239	158.041108	-0.045264	-35.838766
1.500000	-0.034144	-27.083679	-83.720345	162.819401	-83.720345	162.819401	-0.046824	-37.047275
1.550000	-0.035292	-27.969553	-82.427445	166.411946	-82.427445	166.411946	-0.048369	-38.253796
1.600000	-0.036433	-28.854255	-81.171028	169.042069	-81.171028	169.042069	-0.049902	-39.458299
1.650000	-0.037568	-29.737765	-79.964273	170.907162	-79.964273	170.907162	-0.051425	-40.660754
1.700000	-0.038698	-30.620060	-78.811987	172.167733	-78.811987	172.167733	-0.052939	-41.861134
1.750000	-0.039824	-31.501118	-77.714431	172.949512	-77.714431	172.949512	-0.054446	-43.059407
1.800000	-0.040947	-32.380917	-76.669566	173.349551	-76.669566	173.349551	-0.055947	-44.255548
1.850000	-0.042068	-33.259435	-75.674310	173.442555	-75.674310	173.442555	-0.057445	-45.449527
1.900000	-0.043188	-34.136649	-74.725215	173.286245	-74.725215	173.286245	-0.058940	-46.641319
1.950000	-0.044308	-35.012537	-73.818825	172.925524	-73.818825	172.925524	-0.060434	-47.830898
2.000000	-0.045429	-35.887077	-72.951846	172.395637	-72.951846	172.395637	-0.061928	-49.018241
2.050000	-0.046551	-36.760246	-72.121225	171.724502	-72.121225	171.724502	-0.063422	-50.203325
2.100000	-0.047675	-37.632024	-71.324174	170.934446	-71.324174	170.934446	-0.064919	-51.386128
2.150000	-0.048802	-38.502390	-70.558167	170.043494	-70.558167	170.043494	-0.066419	-52.566631
2.200000	-0.049931	-39.371322	-69.820925	169.066327	-69.820925	169.066327	-0.067923	-53.744817
2.250000	-0.051065	-40.238802	-69.110395	168.015006	-69.110395	168.015006	-0.069432	-54.920668
2.300000	-0.052202	-41.104809	-68.424728	166.899522	-68.424728	166.899522	-0.070946	-56.094171
2.350000	-0.053344	-41.969324	-67.762257	165.728211	-67.762257	165.728211	-0.072466	-57.265314
2.400000	-0.054490	-42.832329	-67.121476	164.508081	-67.121476	164.508081	-0.073994	-58.434084
2.450000	-0.055643	-43.693807	-66.501023	163.245063	-66.501023	163.245063	-0.075529	-59.600474
2.500000	-0.056800	-44.553740	-65.899661	161.944208	-65.899661	161.944208	-0.077072	-60.764476
2.550000	-0.057965	-45.412043	-65.315349	160.608560	-65.315349	160.608560	-0.078625	-61.925981
2.600000	-0.059135	-46.268768	-64.748085	159.243416	-64.748085	159.243416	-0.080187	-63.085090
2.650000	-0.060313	-47.123899	-64.196923	157.851947	-64.196923	157.851947	-0.081759	-64.241802
2.700000	-0.061498	-47.977422	-63.660993	156.436916	-63.660993	156.436916	-0.083342	-65.396118
2.750000	-0.062690	-48.829323	-63.139501	155.000744	-63.139501	155.000744	-0.084937	-66.548041
2.800000	-0.063890	-49.679590	-62.631714	153.545557	-62.631714	153.545557	-0.086542	-67.697575
2.850000	-0.065098	-50.528210	-62.136957	152.073234	-62.136957	152.073234	-0.088160	-68.844727
2.900000	-0.066314	-51.375171	-61.654608	150.585442	-61.654608	150.585442	-0.089791	-69.989506
2.950000	-0.067540	-52.220462	-61.184090	149.083659	-61.184090	149.083659	-0.091435	-71.131922
3.000000	-0.068774	-53.064074	-60.724867	147.569208	-60.724867	147.569208	-0.093093	-72.271987
3.050000	-0.070018	-53.905995	-60.276442	146.043271	-60.276442	146.043271	-0.094765	-73.409717
3.100000	-0.071271	-54.746218	-59.838352	144.506911	-59.838352	144.506911	-0.096452	-74.545127
3.150000	-0.072535	-55.584734	-59.410165	142.961083	-59.410165	142.961083	-0.098154	-75.678235
3.200000	-0.073809	-56.421535	-58.991477	141.406652	-58.991477	141.406652	-0.099871	-76.809062
3.250000	-0.075094	-57.256615	-58.581911	139.844399	-58.581911	139.844399	-0.101605	-77.937627
3.300000	-0.076390	-58.089967	-58.181110	138.275034	-58.181110	138.275034	-0.103356	-79.063956
3.350000	-0.077697	-58.921585	-57.788744	136.699204	-57.788744	136.699204	-0.105124	-80.188074
3.400000	-0.079016	-59.751464	-57.404499	135.117498	-57.404499	135.117498	-0.106910	-81.310007
3.450000	-0.080348	-60.579601	-57.028081	133.530454	-57.028081	133.530454	-0.108715	-82.429784
3.500000	-0.081692	-61.405991	-56.659211	131.938564	-56.659211	131.938564	-0.110539	-83.547436
3.550000	-0.083049	-62.230631	-56.297628	130.342283	-56.297628	130.342283	-0.112382	-84.662995
3.600000	-0.084420	-63.053519	-55.943083	128.742025	-55.943083	128.742025	-0.114245	-85.776495
3.650000	-0.085805	-63.874653	-55.595342	127.138175	-55.595342	127.138175	-0.116129	-86.887971
3.700000	-0.087203	-64.694032	-55.254183	125.531087	-55.254183	125.531087	-0.118034	-87.997462
3.750000	-0.088617	-65.511655	-54.919395	123.921087	-54.919395	123.921087	-0.119962	-89.105006
3.800000	-0.090046	-66.327446	-54.590506	122.308379	-54.590506	122.308379	-0.121912	-90.210562
3.850000	-0.091491	-67.141481	-54.267621	120.693367	-54.267621	120.693367	-0.123886	-91.314258
3.900000	-0.092952	-67.953763	-53.950555	119.076310	-53.950555	119.076310	-0.125884	-92.416138
3.950000	-0.094430	-68.764292	-53.639136	117.457448	-53.639136	117.457448	-0.127906	-93.516247
4.000000	-0.095924	-69.573073	-53.333198	115.837006	-53.333198	115.837006	-0.129954	-94.614633
4.050000	-0.097436	-70.380106	-53.032582	114.215193	-53.032582	114.215193	-0.132027	-95.711344
4.100000	-0.098966	-71.185397	-52.737138	112.592203	-52.737138	112.592203	-0.134127	-96.806430
4.150000	-0.100514	-71.988949	-52.446722	110.968221	-52.446722	110.968221	-0.136253	-97.899944
4.200000	-0.102081	-72.790767	-52.161196	109.343418	-52.161196	109.343418	-0.138407	-98.991939
4.250000	-0.103668	-73.590857	-51.880429	107.717955	-51.880429	107.717955	-0.140590	-100.082470
4.300000	-0.105274	-74.389224	-51.604293	106.091981	-51.604293	106.091981	-0.142802	-101.171593
4.350000	-0.106901	-75.185875	-51.332669	104.465640	-51.332669	104.465640	-0.145043	-102.259365
4.400000	-0.108548	-75.980817	-51.065441	102.839064	-51.065441	102.839064	-0.147315	-103.345847
4.450000	-0.110217	-76.774057	-50.802497	101.212379	-50.802497	101.212379	-0.149618	-104.431099
4.500000	-0.111908	-77.565604	-50.543731	99.585705	-50.543731	99.585705	-0.151952	-105.515183
4.550000	-0.113621	-78.355466	-50.289040	97.959151	-50.289040	97.959151	-0.154319	-106.598163
4.600000	-0.115357	-79.143652	-50.038326	96.332825	-50.038326	96.332825	-0.156719	-107.680104
4.650000	-0.117117	-79.930173	-49.791494	94.706827	-49.791494	94.706827	-0.159153	-108.761073
4.700000	-0.118900	-80.715039	-49.548453	93.081250	-49.548453	93.081250	-0.161621	-109.841138
4.750000	-0.120708	-81.498260	-49.309116	91.456184	-49.309116	91.456184	-0.164125	-110.920369
4.800000	-0.122540	-82.279848	-49.073398	89.831715	-49.073398	89.831715	-0.166664	-111.998836
4.850000	-0.124398	-83.059815	-48.841218	88.207923	-48.841218	88.207923	-0.169239	-113.076613
4.900000	-0.126282	-83.838173	-48.612498	86.584886	-48.612498	86.584886	-0.171852	-114.153772
4.950000	-0.128193	-84.614936	-48.387161	84.962675	-48.387161	84.962675	-0.174502	-115.230390
5.000000	-0.130130	-85.390117	-48.165137	83.341363	-48.165137	83.341363	-0.177190	-116.306543
5.050000	-0.132096	-86.163663	-47.946255	81.721058	-47.946255	81.721058	-0.179919	-117.382297
5.100000	-0.134090	-86.935658	-47.730555	80.101788	-47.730555	80.101788	-0.182688	-118.457751
5.150000	-0.136112	-87.706117	-47.517971	78.483611	-47.517971	78.483611	-0.185497	-119.532988
5.200000	-0.138164	-88.475055	-47.308439	76.866586	-47.308439	76.866586	-0.188347	-120.608090
5.250000	-0.140245	-89.242490	-47.101899	75.250770	-47.101899	75.250770	-0.191238	-121.683142
5.300000	-0.142355	-90.008439	-46.898291	73.636217	-46.898291	73.636217	-0.194172	-122.758230
5.350000	-0.144497	-90.772920	-46.697558	72.022979	-46.697558	72.022979	-0.197148	-123.833442
5.400000	-0.146669	-91.535950	-46.499645	70.411108	-46.499645	70.411108	-0.200167	-124.908866
5.450000	-0.148873	-92.297548	-46.304499	68.800653	-46.304499	68.800653	-0.203230	-125.984593
5.500000	-0.151108	-93.057735	-46.112069	67.191663	-46.112069	67.191663	-0.206337	-127.060716
5.550000	-0.153376	-93.816531	-45.922304	65.584185	-45.922304	65.584185	-0.209489	-128.137328
5.600000	-0.155677	-94.573956	-45.735158	63.978266	-45.735158	63.978266	-0.212686	-129.214525
5.650000	-0.158011	-95.330031	-45.550584	62.373952	-45.550584	62.373952	-0.215929	-130.292404
5.700000	-0.160379	-96.084780	-45.368537	60.771291	-45.368537	60.771291	-0.219218	-131.371063
5.750000	-0.162782	-96.838225	-45.188975	59.170327	-45.188975	59.170327	-0.222555	-132.450603
5.800000	-0.165219	-97.590389	-45.011856	57.571108	-45.011856	57.571108	-0.225938	-133.531126
5.850000	-0.167691	-98.341298	-44.837140	55.973679	-44.837140	55.973679	-0.229369	-134.612737
5.900000	-0.170199	-99.090975	-44.664788	54.378088	-44.664788	54.378088	-0.232847	-135.695539
5.950000	-0.172743	-99.839447	-44.494764	52.784385	-44.494764	52.784385	-0.236375	-136.779641
6.000000	-0.175324	-100.586741	-44.327031	51.192617	-44.327031	51.192617	-0.239951	-137.865152
6.050000	-0.177941	-101.332885	-44.161555	49.602836	-44.161555	49.602836	-0.243576	-138.952182
6.100000	-0.180597	-102.077906	-43.998303	48.015096	-43.998303	48.015096	-0.247251	-140.040845
6.150000	-0.183290	-102.821834	-43.837243	46.429451	-43.837243	46.429451	-0.250976	-141.131255
6.200000	-0.186021	-103.564700	-43.678344	44.845960	-43.678344	44.845960	-0.254751	-142.223529
6.250000	-0.188792	-104.306534	-43.521577	43.264682	-43.521577	43.264682	-0.258576	-143.317784
6.300000	-0.191603	-105.047329	-43.366887	41.685784	-43.366887	41.685784	-0.262454	-144.414239
6.350000	-0.194455	-105.787161	-43.214277	40.109239	-43.214277	40.109239	-0.266384	-145.512930
6.400000	-0.197347	-106.526067	-43.063723	38.535119	-43.063723	38.535119	-0.270365	-146.613982
6.450000	-0.200279	-107.264082	-42.915199	36.963503	-42.915199	36.963503	-0.274397	-147.717521
6.500000	-0.203253	-108.001244	-42.768681	35.394474	-42.768681	35.394474	-0.278481	-148.823677
6.550000	-0.206269	-108.737592	-42.624148	33.828122	-42.624148	33.828122	-0.282617	-149.932581
6.600000	-0.209328	-109.473167	-42.481577	32.264543	-42.481577	32.264543	-0.286805	-151.044365
6.650000	-0.212429	-110.208012	-42.340948	30.703843	-42.340948	30.703843	-0.291045	-152.159165
6.700000	-0.215574	-110.942170	-42.202242	29.146134	-42.202242	29.146134	-0.295338	-153.277119
6.750000	-0.218762	-111.675687	-42.065441	27.591540	-42.065441	27.591540	-0.299683	-154.398366
6.800000	-0.221996	-112.408612	-41.930527	26.040194	-41.930527	26.040194	-0.304081	-155.523049
6.850000	-0.225275	-113.140995	-41.797484	24.492241	-41.797484	24.492241	-0.308532	-156.651312
6.900000	-0.228600	-113.872889	-41.666296	22.947841	-41.666296	22.947841	-0.313036	-157.783302
6.950000	-0.231971	-114.604349	-41.536950	21.407167	-41.536950	21.407167	-0.317592	-158.919168
7.000000	-0.235390	-115.335435	-41.409432	19.870409	-41.409432	19.870409	-0.322202	-160.059062
7.050000	-0.238858	-116.066209	-41.283729	18.337775	-41.283729	18.337775	-0.326864	-161.203137
7.100000	-0.242374	-116.796735	-41.159830	16.809494	-41.159830	16.809494	-0.331580	-162.351551
7.150000	-0.245941	-117.527083	-41.037724	15.285818	-41.037724	15.285818	-0.336349	-163.504463
7.200000	-0.249559	-118.257327	-40.917400	13.767024	-40.917400	13.767024	-0.341171	-164.662034
7.250000	-0.253230	-118.987546	-40.798850	12.253418	-40.798850	12.253418	-0.346046	-165.824429
7.300000	-0.256954	-119.717823	-40.682064	10.745339	-40.682064	10.745339	-0.350975	-166.991813
7.350000	-0.260733	-120.448250	-40.567035	9.243161	-40.567035	9.243161	-0.355956	-168.164357
7.400000	-0.264569	-121.178922	-40.453755	7.747301	-40.453755	7.747301	-0.360991	-169.342233
7.450000	-0.268463	-121.909944	-40.342216	6.258221	-40.342216	6.258221	-0.366079	-170.525615
7.500000	-0.272418	-122.641431	-40.232412	4.776438	-40.232412	4.776438	-0.371221	-171.714681
7.550000	-0.276439	-123.373537	-40.124352	3.302900	-40.124352	3.302900	-0.376418	-172.909874
7.600000	-0.280525	-124.106378	-40.018015	1.837948	-40.018015	1.837948	-0.381668	-174.111131
7.650000	-0.284680	-124.840103	-39.913392	0.382319	-39.913392	0.382319	-0.386972	-175.318636
7.700000	-0.288907	-125.574878	-39.810475	-1.063154	-39.810475	-1.063154	-0.392329	-176.532578
7.750000	-0.293211	-126.310885	-39.709251	-2.497529	-39.709251	-2.497529	-0.397740	-177.753149
7.800000	-0.297597	-127.048327	-39.609707	-3.919738	-39.609707	-3.919738	-0.403205	-178.980541
7.850000	-0.302069	-127.787430	-39.511827	-5.328562	-39.511827	-5.328562	-0.408723	179.785048
7.900000	-0.306636	-128.528449	-39.415590	-6.722609	-39.415590	-6.722609	-0.414296	178.543420
7.950000	-0.311305	-129.271673	-39.320966	-8.100281	-39.320966	-8.100281	-0.419924	177.294374
8.000000	-0.316086	-130.017430	-39.227921	-9.459734	-39.227921	-9.459734	-0.425606	176.037705
8.050000	-0.320992	-130.766093	-39.136407	-10.798832	-39.136407	-10.798832	-0.431344	174.773207
8.100000	-0.326036	-131.518095	-39.046361	-12.115088	-39.046361	-12.115088	-0.437138	173.500673
8.150000	-0.331237	-132.273936	-38.957702	-13.405592	-38.957702	-13.405592	-0.442989	172.219890
8.200000	-0.336618	-133.034201	-38.870318	-14.666918	-38.870318	-14.666918	-0.448896	170.930645
8.250000	-0.342206	-133.799577	-38.784062	-15.895011	-38.784062	-15.895011	-0.454863	169.632725
8.300000	-0.348038	-134.570882	-38.698734	-17.085037	-38.698734	-17.085037	-0.460889	168.325912
8.350000	-0.354159	-135.349092	-38.614064	-18.231201	-38.614064	-18.231201	-0.466977	167.009987
8.400000	-0.360629	-136.135391	-38.529683	-19.326506	-38.529683	-19.326506	-0.473128	165.684732
8.450000	-0.367525	-136.931219	-38.445083	-20.362440	-38.445083	-20.362440	-0.479345	164.349925
8.500000	-0.374953	-137.738358	-38.359555	-21.328583	-38.359555	-21.328583	-0.485630	163.005346
8.550000	-0.383054	-138.559032	-38.272105	-22.212079	-38.272105	-22.212079	-0.491987	161.650776
8.600000	-0.392021	-139.396053	-38.181318	-22.996975	-38.181318	-22.996975	-0.498421	160.285995
8.650000	-0.402128	-140.253025	-38.085151	-23.663357	-38.085151	-23.663357	-0.504938	158.910789
8.700000	-0.413766	-141.134637	-37.980618	-24.186299	-37.980618	-24.186299	-0.511545	157.524948
8.750000	-0.427513	-142.047086	-37.863282	-24.534618	-37.863282	-24.534618	-0.518252	156.128273
8.800000	-0.444395	-143.000460	-37.725243	-24.660690	-37.725243	-24.660690	-0.525077	154.720217
8.850000	-0.465790	-144.005547	-37.555999	-24.522836	-37.555999	-24.522836	-0.532033	153.300986
8.900000	-0.494093	-145.078864	-37.338109	-24.067954	-37.338109	-24.067954	-0.539146	151.870488
8.950000	-0.533455	-146.243652	-37.043549	-23.248224	-37.043549	-23.248224	-0.546446	150.428729
9.000000	-0.590655	-147.527701	-36.632921	-22.062016	-36.632921	-22.062016	-0.553968	148.976197
9.050000	-0.681070	-148.978169	-36.029723	-20.595517	-36.029723	-20.595517	-0.561768	147.512892
9.100000	-0.835024	-150.627306	-35.131676	-19.287226	-35.131676	-19.287226	-0.569865	146.040231
9.150000	-1.116271	-152.393969	-33.829473	-19.304640	-33.829473	-19.304640	-0.578137	144.560778
9.200000	-1.642646	-153.592782	-32.122037	-23.132777	-32.122037	-23.132777	-0.585966	143.078153
9.250000	-2.402974	-151.587906	-30.476662	-33.982746	-30.476662	-33.982746	-0.591621	141.592149
9.300000	-2.566999	-145.097543	-29.936642	-50.333462	-29.936642	-50.333462	-0.593502	140.084915
9.350000	-1.908264	-141.653894	-30.679957	-63.922890	-30.679957	-63.922890	-0.594396	138.534909
9.400000	-1.344958	-142.107238	-31.796809	-71.538847	-31.796809	-71.538847	-0.597958	136.953713
9.450000	-1.028452	-143.593570	-32.759659	-75.284097	-32.759659	-75.284097	-0.603947	135.359080
9.500000	-0.853674	-145.128382	-33.487186	-77.197401	-33.487186	-77.197401	-0.611093	133.755660
9.550000	-0.752965	-146.528083	-34.016860	-78.313411	-34.016860	-78.313411	-0.618707	132.142322
9.600000	-0.691779	-147.789813	-34.402375	-79.123302	-34.402375	-79.123302	-0.626500	130.517343
9.650000	-0.652390	-148.945658	-34.689742	-79.844926	-34.689742	-79.844926	-0.634371	128.880041
9.700000	-0.626919	-150.016992	-34.903106	-80.568903	-34.903106	-80.568903	-0.642289	127.228988
9.750000	-0.610186	-151.025351	-35.063946	-81.335511	-35.063946	-81.335511	-0.650248	125.563711
9.800000	-0.599158	-151.986836	-35.187215	-82.157023	-35.187215	-82.157023	-0.658251	123.884145
9.850000	-0.592424	-152.908975	-35.279974	-83.041098	-35.279974	-83.041098	-0.666309	122.188449
9.900000	-0.588273	-153.805368	-35.353560	-83.974647	-35.353560	-83.974647	-0.674421	120.479036
9.950000	-0.586253	-154.679211	-35.410749	-84.957226	-35.410749	-84.957226	-0.682599	118.754630
10.000000	-0.585851	-155.534971	-35.455195	-85.983527	-35.455195	-85.983527	-0.690848	117.015095
