! freq	dB(S11)	phase(S11)	dB(S12)	phase(S12)	
!     	dB(S21)	phase(S21)	dB(S22)	phase(S22)	
!S-par simulation data
#  GHz  S  DB  R 50
0.000000	-81.690132	0.000000	-0.000715	0.000000	-0.000715	0.000000	-81.690132	0.000000
0.050000	-45.988442	-90.691224	-0.005535	-2.928110	-0.005535	-2.928110	-45.903874	-86.383122
0.100000	-40.166484	-97.572047	-0.011890	-5.815071	-0.011890	-5.815071	-40.074587	-89.296203
0.150000	-36.692061	-103.393679	-0.016883	-8.690277	-0.016883	-8.690277	-36.594888	-91.046597
0.200000	-34.212057	-108.845706	-0.021421	-11.563064	-0.021421	-11.563064	-34.111349	-92.421231
0.250000	-32.282851	-114.111099	-0.025880	-14.434493	-0.025880	-14.434493	-32.179845	-93.615546
0.300000	-30.703328	-119.277991	-0.030383	-17.304903	-0.030383	-17.304903	-30.599499	-94.719542
0.350000	-29.365260	-124.384326	-0.034964	-20.174659	-0.034964	-20.174659	-29.262172	-95.770133
0.400000	-28.203857	-129.450863	-0.039643	-23.044116	-0.039643	-23.044116	-28.103007	-96.786569
0.450000	-27.176796	-134.484151	-0.044471	-25.913577	-0.044471	-25.913577	-27.079939	-97.774963
0.500000	-26.255638	-139.494150	-0.049476	-28.783332	-0.049476	-28.783332	-26.164267	-98.744000
0.550000	-25.420024	-144.485571	-0.054691	-31.653591	-0.054691	-31.653591	-25.335438	-99.697871
0.600000	-24.654945	-149.461534	-0.060149	-34.524532	-0.060149	-34.524532	-24.578240	-100.639494
0.650000	-23.948982	-154.424025	-0.065886	-37.396338	-0.065886	-37.396338	-23.881072	-101.570956
0.700000	-23.293347	-159.374760	-0.071931	-40.269187	-0.071931	-40.269187	-23.234902	-102.494191
0.750000	-22.681118	-164.315078	-0.078313	-43.143286	-0.078313	-43.143286	-22.632560	-103.410856
0.800000	-22.106696	-169.245904	-0.085062	-46.018938	-0.085062	-46.018938	-22.068243	-104.322330
0.850000	-21.565417	-174.167689	-0.092216	-48.896687	-0.092216	-48.896687	-21.537140	-105.229799
0.900000	-21.053627	-179.081506	-0.099751	-51.777086	-0.099751	-51.777086	-21.035364	-106.134711
0.950000	-20.568112	176.012278	-0.107609	-54.660940	-0.107609	-54.660940	-20.559579	-107.038215
1.000000	-20.106189	171.113223	-0.115637	-57.548754	-0.115637	-57.548754	-20.106985	-107.941527
1.050000	-19.665568	166.220972	-0.123634	-60.440165	-0.123634	-60.440165	-19.675194	-108.845861
1.100000	-19.244278	161.335260	-0.131491	-63.333825	-0.131491	-63.333825	-19.262163	-109.752438
1.150000	-18.840610	156.455905	-0.139294	-66.228299	-0.139294	-66.228299	-18.866129	-110.662494
1.200000	-18.453076	151.582812	-0.147241	-69.123066	-0.147241	-69.123066	-18.485565	-111.577277
1.250000	-18.080378	146.715960	-0.155502	-72.018512	-0.155502	-72.018512	-18.119141	-112.498062
1.300000	-17.721345	141.855537	-0.164171	-74.915406	-0.164171	-74.915406	-17.765644	-113.426343
1.350000	-17.375021	137.001510	-0.173260	-77.814378	-0.173260	-77.814378	-17.424066	-114.363314
1.400000	-17.040534	132.154017	-0.182765	-80.715900	-0.182765	-80.715900	-17.093430	-115.310240
1.450000	-16.717125	127.313211	-0.192672	-83.620307	-0.192672	-83.620307	-16.772773	-116.268026
1.500000	-16.404130	122.479243	-0.202970	-86.527842	-0.202970	-86.527842	-16.461115	-117.236344
1.550000	-16.100971	117.652239	-0.213649	-89.438696	-0.213649	-89.438696	-16.157606	-118.212091
1.600000	-15.807149	112.832286	-0.224702	-92.353027	-0.224702	-92.353027	-15.862111	-119.189519
1.650000	-15.522231	108.019411	-0.236124	-95.270980	-0.236124	-95.270980	-15.575540	-120.166578
1.700000	-15.245847	103.213565	-0.247911	-98.192688	-0.247911	-98.192688	-15.298644	-121.150324
1.750000	-14.977679	98.414610	-0.260059	-101.118284	-0.260059	-101.118284	-15.030885	-122.149396
1.800000	-14.717457	93.622304	-0.272565	-104.047901	-0.272565	-104.047901	-14.771207	-123.166654
1.850000	-14.464953	88.836290	-0.285425	-106.981676	-0.285425	-106.981676	-14.518868	-124.201113
1.900000	-14.219981	84.056139	-0.298636	-109.919801	-0.298636	-109.919801	-14.273485	-125.251227
1.950000	-13.982392	79.281204	-0.312192	-112.862434	-0.312192	-112.862434	-14.034867	-126.315559
2.000000	-13.752048	74.510643	-0.326081	-115.809693	-0.326081	-115.809693	-13.802900	-127.392868
2.050000	-13.528840	69.743518	-0.340293	-118.761758	-0.340293	-118.761758	-13.577502	-128.482233
2.100000	-13.312676	64.978728	-0.354815	-121.718827	-0.354815	-121.718827	-13.358605	-129.582766
2.150000	-13.103484	60.214995	-0.369635	-124.681120	-0.369635	-124.681120	-13.146151	-130.693539
2.200000	-12.901201	55.450855	-0.384735	-127.648880	-0.384735	-127.648880	-12.940088	-131.813546
2.250000	-12.705776	50.684652	-0.400099	-130.622382	-0.400099	-130.622382	-12.740368	-132.941676
2.300000	-12.517164	45.914520	-0.415706	-133.601932	-0.415706	-133.601932	-12.546943	-134.076700
2.350000	-12.335325	41.138380	-0.431535	-136.587875	-0.431535	-136.587875	-12.359763	-135.217266
2.400000	-12.160220	36.353921	-0.447564	-139.580597	-0.447564	-139.580597	-12.178776	-136.361889
2.450000	-11.991810	31.558589	-0.463769	-142.580531	-0.463769	-142.580531	-12.003923	-137.508951
2.500000	-11.830052	26.749572	-0.480125	-145.588164	-0.480125	-145.588164	-11.835137	-138.656698
2.550000	-11.674980	21.923343	-0.496608	-148.604232	-0.496608	-148.604232	-11.672403	-139.803163
2.600000	-11.526459	17.076802	-0.513192	-151.629180	-0.513192	-151.629180	-11.515569	-140.946283
2.650000	-11.384414	12.206241	-0.529854	-154.663689	-0.529854	-154.663689	-11.364521	-142.083871
2.700000	-11.248756	7.307626	-0.546570	-157.708514	-0.546570	-157.708514	-11.219126	-143.213595
2.750000	-11.119373	2.376573	-0.563322	-160.764494	-0.563322	-160.764494	-11.079223	-144.332978
2.800000	-10.996129	-2.591670	-0.580095	-163.832554	-0.580095	-163.832554	-10.944624	-145.439399
2.850000	-10.878858	-7.602243	-0.596876	-166.913714	-0.596876	-166.913714	-10.815102	-146.530097
2.900000	-10.767356	-12.660691	-0.613662	-170.009096	-0.613662	-170.009096	-10.690392	-147.602175
2.950000	-10.661374	-17.772985	-0.630454	-173.119929	-0.630454	-173.119929	-10.570181	-148.652610
3.000000	-10.560612	-22.945529	-0.647263	-176.247557	-0.647263	-176.247557	-10.454101	-149.678269
3.050000	-10.464709	-28.185172	-0.664112	-179.393446	-0.664112	-179.393446	-10.341721	-150.675928
3.100000	-10.373229	-33.499206	-0.681036	177.440806	-0.681036	177.440806	-10.232540	-151.642305
3.150000	-10.285679	-38.896339	-0.698086	174.253212	-0.698086	174.253212	-10.125981	-152.573688
3.200000	-10.201417	-44.384993	-0.715334	171.041827	-0.715334	171.041827	-10.021344	-153.466709
3.250000	-10.119668	-49.972786	-0.732870	167.804847	-0.732870	167.804847	-9.917829	-154.318616
3.300000	-10.039557	-55.668510	-0.750808	164.540077	-0.750808	164.540077	-9.814537	-155.126499
3.350000	-9.960097	-61.477494	-0.769272	161.246102	-0.769272	161.246102	-9.710536	-155.889205
3.400000	-9.880063	-67.416220	-0.788475	157.918465	-0.788475	157.918465	-9.604515	-156.601713
3.450000	-9.798087	-73.489735	-0.808614	154.555443	-0.808614	154.555443	-9.495247	-157.264157
3.500000	-9.712610	-79.706451	-0.829947	151.154163	-0.829947	151.154163	-9.381306	-157.876058
3.550000	-9.621880	-86.074063	-0.852778	147.711586	-0.852778	147.711586	-9.261137	-158.438081
3.600000	-9.523956	-92.599185	-0.877471	144.224502	-0.877471	144.224502	-9.133068	-158.952304
3.650000	-9.416723	-99.286941	-0.904451	140.689545	-0.904451	140.689545	-8.995344	-159.422496
3.700000	-9.297929	-106.140515	-0.934216	137.103205	-0.934216	137.103205	-8.846154	-159.854390
3.750000	-9.165241	-113.160704	-0.967345	133.461849	-0.967345	133.461849	-8.683692	-160.255934
3.800000	-9.016002	-120.347791	-1.004575	129.760842	-1.004575	129.760842	-8.505915	-160.637379
3.850000	-8.848191	-127.694008	-1.046635	125.997197	-1.046635	125.997197	-8.311466	-161.012127
3.900000	-8.659775	-135.190614	-1.094417	122.167135	-1.094417	122.167135	-8.098993	-161.395596
3.950000	-8.449076	-142.825464	-1.148937	118.266942	-1.148937	118.266942	-7.867477	-161.805461
4.000000	-8.214901	-150.583216	-1.211345	114.293056	-1.211345	114.293056	-7.616322	-162.261301
4.050000	-7.956667	-158.445776	-1.282946	110.242169	-1.282946	110.242169	-7.345429	-162.784062
4.100000	-7.674501	-166.392954	-1.365198	106.111343	-1.365198	106.111343	-7.055258	-163.395377
4.150000	-7.369295	-174.403279	-1.459730	101.898157	-1.459730	101.898157	-6.746856	-164.116788
4.200000	-7.042413	177.544952	-1.568488	97.600041	-1.568488	97.600041	-6.421596	-164.970357
4.250000	-6.696461	169.473798	-1.693425	93.216518	-1.693425	93.216518	-6.081842	-165.974615
4.300000	-6.334697	161.403709	-1.836640	88.748202	-1.836640	88.748202	-5.730443	-167.145115
4.350000	-5.960747	153.353293	-2.000466	84.196551	-2.000466	84.196551	-5.370517	-168.494860
4.400000	-5.578608	145.339276	-2.187395	79.564465	-2.187395	79.564465	-5.005475	-170.033209
4.450000	-5.192491	137.376494	-2.400059	74.856455	-2.400059	74.856455	-4.638908	-171.765586
4.500000	-4.806660	129.478064	-2.641218	70.078778	-2.641218	70.078778	-4.274459	-173.693375
4.550000	-4.425282	121.655678	-2.913731	65.239524	-2.913731	65.239524	-3.915714	-175.813979
4.600000	-4.052281	113.920413	-3.220660	60.348448	-3.220660	60.348448	-3.566077	-178.121895
4.650000	-3.691325	106.282774	-3.565133	55.417386	-3.565133	55.417386	-3.228761	179.392045
4.700000	-3.345654	98.751245	-3.949955	50.460344	-3.949955	50.460344	-2.906592	176.742455
4.750000	-3.017930	91.334789	-4.378248	45.492300	-4.378248	45.492300	-2.601922	173.944476
4.800000	-2.710278	84.042036	-4.853254	40.529463	-4.853254	40.529463	-2.316633	171.014951
4.850000	-2.424278	76.881199	-5.378419	35.589020	-5.378419	35.589020	-2.052122	167.971776
4.900000	-2.160968	69.859919	-5.957526	30.688921	-5.957526	30.688921	-1.809295	164.833255
4.950000	-1.920879	62.985058	-6.594889	25.847773	-6.594889	25.847773	-1.588595	161.617492
5.000000	-1.704078	56.262479	-7.295635	21.084905	-7.295635	21.084905	-1.390037	158.341858
5.050000	-1.510496	49.699181	-8.066122	16.422503	-8.066122	16.422503	-1.213518	155.022136
5.100000	-1.339191	43.296217	-8.914236	11.881906	-8.914236	11.881906	-1.058096	151.673800
5.150000	-1.189210	37.055410	-9.850602	7.489189	-9.850602	7.489189	-0.922829	148.309700
5.200000	-1.059410	30.977127	-10.889597	3.276956	-10.889597	3.276956	-0.806599	144.940832
5.250000	-0.948523	25.060319	-12.051209	-0.710397	-12.051209	-0.710397	-0.708169	141.576321
5.300000	-0.855217	19.302618	-13.364067	-4.406825	-13.364067	-4.406825	-0.626240	138.223486
5.350000	-0.778141	13.700468	-14.870692	-7.704880	-14.870692	-7.704880	-0.559499	134.887961
5.400000	-0.715967	8.249284	-16.637236	-10.412482	-16.637236	-10.412482	-0.506656	131.573848
5.450000	-0.667538	2.944959	-18.772015	-12.128807	-18.772015	-12.128807	-0.466585	128.284159
5.500000	-0.631571	-2.219492	-21.467965	-11.920693	-21.467965	-11.920693	-0.438043	125.020383
5.550000	-0.606899	-7.251466	-25.084195	-7.047223	-25.084195	-7.047223	-0.419901	121.783000
5.600000	-0.592519	-12.158037	-29.986431	13.216305	-29.986431	13.216305	-0.411189	118.571818
5.650000	-0.587531	-16.946530	-31.849136	67.726598	-31.849136	67.726598	-0.411037	115.386023
5.700000	-0.591294	-21.622456	-27.266008	101.422247	-27.266008	101.422247	-0.418814	112.224740
5.750000	-0.603021	-26.194569	-23.421856	110.435810	-23.421856	110.435810	-0.433766	109.086026
5.800000	-0.621542	-30.678009	-20.692507	112.668310	-20.692507	112.668310	-0.454805	105.966329
5.850000	-0.647572	-35.064429	-18.635420	112.014850	-18.635420	112.014850	-0.482530	102.866875
5.900000	-0.679428	-39.377594	-17.000096	110.338933	-17.000096	110.338933	-0.515419	99.782093
5.950000	-0.717856	-43.611261	-15.655009	108.017258	-15.655009	108.017258	-0.554100	96.712364
6.000000	-0.761820	-47.782038	-14.514059	105.373335	-14.514059	105.373335	-0.597640	93.653691
6.050000	-0.811574	-51.891854	-13.527326	102.514354	-13.527326	102.514354	-0.646244	90.604732
6.100000	-0.866910	-55.948511	-12.659179	99.517628	-12.659179	99.517628	-0.699716	87.563215
6.150000	-0.927581	-59.960422	-11.884314	96.431422	-11.884314	96.431422	-0.757833	84.526908
6.200000	-0.994095	-63.929859	-11.186120	93.275217	-11.186120	93.275217	-0.821030	81.494364
6.250000	-1.065740	-67.868617	-10.549274	90.074863	-10.549274	90.074863	-0.888688	78.463486
6.300000	-1.143720	-71.776509	-9.965537	86.832375	-9.965537	86.832375	-0.961852	75.432899
6.350000	-1.227129	-75.664961	-9.424991	83.562228	-9.424991	83.562228	-1.039738	72.401283
6.400000	-1.316998	-79.536877	-8.922345	80.264116	-8.922345	80.264116	-1.123247	69.367261
6.450000	-1.413092	-83.399369	-8.451878	76.943001	-8.451878	76.943001	-1.212180	66.330158
6.500000	-1.515951	-87.257925	-8.009609	73.599246	-8.009609	73.599246	-1.307012	63.289162
6.550000	-1.626063	-91.118292	-7.592178	70.232844	-7.592178	70.232844	-1.408174	60.243783
6.600000	-1.743393	-94.985810	-7.196530	66.845353	-7.196530	66.845353	-1.515634	57.194235
6.650000	-1.869259	-98.867759	-6.820690	63.433131	-6.820690	63.433131	-1.630552	54.140159
6.700000	-2.003188	-102.767596	-6.462359	59.998941	-6.462359	59.998941	-1.752500	51.082751
6.750000	-2.146427	-106.693044	-6.120167	56.539364	-6.120167	56.539364	-1.882569	48.022596
6.800000	-2.299414	-110.649573	-5.792730	53.053991	-5.792730	53.053991	-2.021123	44.961227
6.850000	-2.462826	-114.643347	-5.478963	49.541706	-5.478963	49.541706	-2.168734	41.900569
6.900000	-2.637483	-118.681279	-5.178004	46.001112	-5.178004	46.001112	-2.326088	38.843181
6.950000	-2.824173	-122.770223	-4.889149	42.431176	-4.889149	42.431176	-2.493831	35.792313
7.000000	-3.023636	-126.916660	-4.611821	38.831330	-4.611821	38.831330	-2.672551	32.751816
7.050000	-3.236744	-131.127944	-4.345590	35.200862	-4.345590	35.200862	-2.862931	29.726379
7.100000	-3.464402	-135.411917	-4.090141	31.539255	-4.090141	31.539255	-3.065667	26.721596
7.150000	-3.707552	-139.777018	-3.845254	27.846219	-3.845254	27.846219	-3.281455	23.744075
7.200000	-3.967153	-144.232421	-3.610794	24.121716	-3.610794	24.121716	-3.510978	20.801558
7.250000	-4.244170	-148.788194	-3.386696	20.365989	-3.386696	20.365989	-3.754885	17.903054
7.300000	-4.539551	-153.455491	-3.172953	16.579587	-3.172953	16.579587	-4.013770	15.058972
7.350000	-4.854199	-158.246779	-2.969607	12.763376	-2.969607	12.763376	-4.288137	12.281272
7.400000	-5.188930	-163.176112	-2.776734	8.918563	-2.776734	8.918563	-4.578362	9.583606
7.450000	-5.544421	-168.259430	-2.594438	5.046696	-2.594438	5.046696	-4.884642	6.981453
7.500000	-5.921133	-173.514902	-2.422836	1.149672	-2.422836	1.149672	-5.206927	4.492232
7.550000	-6.319245	-178.968027	-2.262229	-2.770706	-2.262229	-2.770706	-5.544868	2.138741
7.600000	-6.738279	175.361018	-2.112577	-6.711298	-2.112577	-6.711298	-5.897531	-0.059909
7.650000	-7.177234	169.445121	-1.973977	-10.669199	-1.973977	-10.669199	-6.263535	-2.080349
7.700000	-7.634226	163.253920	-1.846504	-14.641224	-1.846504	-14.641224	-6.640805	-3.897762
7.750000	-8.106179	156.754149	-1.730196	-18.623943	-1.730196	-18.623943	-7.026414	-5.486564
7.800000	-8.588458	149.910651	-1.625055	-22.613725	-1.625055	-22.613725	-7.416416	-6.821508
7.850000	-9.074454	142.688441	-1.531036	-26.606782	-1.531036	-26.606782	-7.805692	-7.879323
7.900000	-9.555173	135.056275	-1.448044	-30.599224	-1.448044	-30.599224	-8.187846	-8.641001
7.950000	-10.018949	126.992147	-1.375933	-34.587118	-1.375933	-34.587118	-8.555197	-9.094737
8.000000	-10.451464	118.490801	-1.314501	-38.566537	-1.314501	-38.566537	-8.898938	-9.239370
8.050000	-10.836315	109.572606	-1.263495	-42.533626	-1.263495	-42.533626	-9.209527	-9.087905
8.100000	-11.156365	100.291880	-1.222607	-46.484646	-1.222607	-46.484646	-9.477348	-8.670386
8.150000	-11.394857	90.739955	-1.191583	-50.415778	-1.191583	-50.415778	-9.692936	-8.033514
8.200000	-11.540105	81.050481	-1.170007	-54.323565	-1.170007	-54.323565	-9.849313	-7.245261
8.250000	-11.588246	71.378497	-1.157330	-58.205138	-1.157330	-58.205138	-9.943182	-6.386283
8.300000	-11.541938	61.877632	-1.153071	-62.057703	-1.153071	-62.057703	-9.974015	-5.539582
8.350000	-11.410651	52.682604	-1.156723	-65.878768	-1.156723	-65.878768	-9.944719	-4.784679
8.400000	-11.208609	43.894710	-1.167757	-69.666167	-1.167757	-69.666167	-9.861139	-4.190312
8.450000	-10.952181	35.576424	-1.185629	-73.418061	-1.185629	-73.418061	-9.731185	-3.809500
8.500000	-10.657562	27.754184	-1.209784	-77.132939	-1.209784	-77.132939	-9.563816	-3.677612
8.550000	-10.339211	20.426033	-1.239665	-80.809615	-1.239665	-80.809615	-9.368117	-3.813114
8.600000	-10.009090	13.570644	-1.274715	-84.447217	-1.274715	-84.447217	-9.152602	-4.220135
8.650000	-9.676536	7.155391	-1.314386	-88.045171	-1.314386	-88.045171	-8.924782	-4.891855
8.700000	-9.348485	1.142495	-1.358137	-91.603187	-1.358137	-91.603187	-8.690976	-5.813936
8.750000	-9.029866	-4.506839	-1.405442	-95.121235	-1.405442	-95.121235	-8.456298	-6.967491
8.800000	-8.724124	-9.823647	-1.455839	-98.598675	-1.455839	-98.598675	-8.224751	-8.335496
8.850000	-8.433386	-14.850159	-1.508766	-102.036821	-1.508766	-102.036821	-7.999470	-9.891302
8.900000	-8.158853	-19.617342	-1.563753	-105.436317	-1.563753	-105.436317	-7.782641	-11.613964
8.950000	-7.901103	-24.152771	-1.620353	-108.797983	-1.620353	-108.797983	-7.575807	-13.483835
9.000000	-7.660833	-28.470368	-1.678167	-112.120827	-1.678167	-112.120827	-7.380405	-15.489304
9.050000	-7.436922	-32.611729	-1.736714	-115.409578	-1.736714	-115.409578	-7.196459	-17.601585
9.100000	-7.229422	-36.586295	-1.795654	-118.663849	-1.795654	-118.663849	-7.024592	-19.812146
9.150000	-7.037854	-40.410648	-1.854628	-121.884980	-1.854628	-121.884980	-6.864966	-22.108250
9.200000	-6.861670	-44.099440	-1.913297	-125.074399	-1.913297	-125.074399	-6.717591	-24.478710
9.250000	-6.700289	-47.665658	-1.971345	-128.233612	-1.971345	-128.233612	-6.582375	-26.913757
9.300000	-6.553116	-51.120852	-2.028472	-131.364196	-2.028472	-131.364196	-6.459159	-29.404882
9.350000	-6.419564	-54.475319	-2.084399	-134.467788	-2.084399	-134.467788	-6.347744	-31.944692
9.400000	-6.299063	-57.738264	-2.138865	-137.546075	-2.138865	-137.546075	-6.247910	-34.526778
9.450000	-6.191069	-60.917930	-2.191626	-140.600795	-2.191626	-140.600795	-6.159434	-37.145587
9.500000	-6.095074	-64.021708	-2.242453	-143.633728	-2.242453	-143.633728	-6.082099	-39.796305
9.550000	-6.010607	-67.056242	-2.291133	-146.646694	-2.291133	-146.646694	-6.015705	-42.474758
9.600000	-5.937240	-70.027512	-2.337468	-149.641555	-2.337468	-149.641555	-5.960071	-45.177319
9.650000	-5.874591	-72.940924	-2.381274	-152.620208	-2.381274	-152.620208	-5.915045	-47.900827
9.700000	-5.822326	-75.801379	-2.422379	-155.584591	-2.422379	-155.584591	-5.880501	-50.642514
9.750000	-5.780157	-78.613341	-2.460624	-158.536681	-2.460624	-158.536681	-5.856346	-53.399941
9.800000	-5.747840	-81.380897	-2.495864	-161.478497	-2.495864	-161.478497	-5.842517	-56.170940
9.850000	-5.725179	-84.107801	-2.527965	-164.412105	-2.527965	-164.412105	-5.838985	-58.953560
9.900000	-5.712019	-86.797516	-2.556806	-167.339618	-2.556806	-167.339618	-5.845753	-61.746027
9.950000	-5.708247	-89.453247	-2.582275	-170.263202	-2.582275	-170.263202	-5.862855	-64.546695
10.000000	-5.713787	-92.077964	-2.604277	-173.185080	-2.604277	-173.185080	-5.890358	-67.354012
