! freq	dB(S11)	phase(S11)	dB(S12)	phase(S12)	
!     	dB(S21)	phase(S21)	dB(S22)	phase(S22)	
!S-par simulation data
#  GHz  S  DB  R 50
0.000000	-80.915190	0.000000	-0.000782	0.000000	-0.000782	0.000000	-80.915190	0.000000
0.050000	-40.943414	-86.862523	-0.014323	-3.184133	-0.014323	-3.184133	-40.952789	-87.097716
0.100000	-35.309635	-92.473591	-0.020730	-6.291223	-0.020730	-6.291223	-35.318649	-93.059256
0.150000	-31.911638	-96.809691	-0.025744	-9.402014	-0.025744	-9.402014	-31.920078	-97.707610
0.200000	-29.489865	-100.558755	-0.031161	-12.512152	-0.031161	-12.512152	-29.498010	-101.761799
0.250000	-27.618001	-104.020001	-0.037119	-15.619722	-0.037119	-15.619722	-27.625851	-105.526561
0.300000	-26.099724	-107.316075	-0.043575	-18.724414	-0.043575	-18.724414	-26.107213	-109.126259
0.350000	-24.827787	-110.513150	-0.050469	-21.826500	-0.050469	-21.826500	-24.834872	-112.627670
0.400000	-23.737815	-113.645439	-0.057763	-24.926216	-0.057763	-24.926216	-23.744480	-116.065124
0.450000	-22.789403	-116.731020	-0.065455	-28.023562	-0.065455	-28.023562	-22.795642	-119.456685
0.500000	-21.952159	-119.786285	-0.073480	-31.118797	-0.073480	-31.118797	-21.957982	-122.818564
0.550000	-21.209611	-122.814719	-0.081867	-34.211480	-0.081867	-34.211480	-21.215010	-126.154244
0.600000	-20.543956	-125.825082	-0.090534	-37.301875	-0.090534	-37.301875	-20.548929	-129.472331
0.650000	-19.944427	-128.820443	-0.099445	-40.389881	-0.099445	-40.389881	-19.948963	-132.775858
0.700000	-19.404421	-131.802000	-0.108575	-43.475195	-0.108575	-43.475195	-19.408494	-136.066056
0.750000	-18.913916	-134.773471	-0.117846	-46.558186	-0.117846	-46.558186	-18.917509	-139.346579
0.800000	-18.469931	-137.734958	-0.127219	-49.638576	-0.127219	-49.638576	-18.473012	-142.617604
0.850000	-18.066874	-140.688067	-0.136634	-52.716558	-0.136634	-52.716558	-18.069415	-145.880734
0.900000	-17.699543	-143.634248	-0.146040	-55.792411	-0.146040	-55.792411	-17.701521	-149.137400
0.950000	-17.368740	-146.572978	-0.155368	-58.865867	-0.155368	-58.865867	-17.370119	-152.387178
1.000000	-17.068638	-149.506079	-0.164574	-61.937473	-0.164574	-61.937473	-17.069398	-155.631787
1.050000	-16.796767	-152.434246	-0.173614	-65.007469	-0.173614	-65.007469	-16.796888	-158.871872
1.100000	-16.551868	-155.357941	-0.182436	-68.076056	-0.182436	-68.076056	-16.551331	-162.107824
1.150000	-16.333716	-158.277575	-0.190970	-71.143470	-0.190970	-71.143470	-16.332500	-165.339932
1.200000	-16.140307	-161.194005	-0.199179	-74.210123	-0.199179	-74.210123	-16.138395	-168.568842
1.250000	-15.969629	-164.108058	-0.207035	-77.276421	-0.207035	-77.276421	-15.967005	-171.795128
1.300000	-15.820667	-167.020415	-0.214502	-80.342750	-0.214502	-80.342750	-15.817314	-175.019169
1.350000	-15.692554	-169.931783	-0.221549	-83.409522	-0.221549	-83.409522	-15.688454	-178.241296
1.400000	-15.584556	-172.842895	-0.228144	-86.477168	-0.228144	-86.477168	-15.579687	178.538205
1.450000	-15.496171	-175.754520	-0.234255	-89.546153	-0.234255	-89.546153	-15.490505	175.319111
1.500000	-15.428785	-178.667692	-0.239797	-92.617187	-0.239797	-92.617187	-15.422281	172.101363
1.550000	-15.379963	178.416815	-0.244786	-95.690573	-0.244786	-95.690573	-15.372577	168.884718
1.600000	-15.349393	175.498109	-0.249177	-98.766709	-0.249177	-98.766709	-15.341071	165.669159
1.650000	-15.336854	172.575247	-0.252914	-101.845802	-0.252914	-101.845802	-15.327526	162.454746
1.700000	-15.343254	169.646860	-0.255909	-104.927797	-0.255909	-104.927797	-15.332831	159.241724
1.750000	-15.367237	166.712206	-0.258276	-108.011844	-0.258276	-108.011844	-15.355618	156.030278
1.800000	-15.409351	163.769930	-0.260221	-111.097884	-0.260221	-111.097884	-15.396412	152.820849
1.850000	-15.469697	160.818719	-0.261989	-114.187219	-0.261989	-114.187219	-15.455293	149.613993
1.900000	-15.548462	157.857139	-0.263631	-117.281929	-0.263631	-117.281929	-15.532419	146.410435
1.950000	-15.645916	154.883608	-0.265033	-120.383439	-0.265033	-120.383439	-15.628033	143.211102
2.000000	-15.762421	151.896374	-0.266071	-123.492180	-0.266071	-123.492180	-15.742465	140.017154
2.050000	-15.898435	148.893473	-0.266701	-126.608170	-0.266701	-126.608170	-15.876134	136.830026
2.100000	-16.053001	145.874503	-0.266963	-129.730783	-0.266963	-129.730783	-16.028064	133.650511
2.150000	-16.230030	142.833315	-0.266821	-132.861485	-0.266821	-132.861485	-16.202073	130.482600
2.200000	-16.428607	139.768778	-0.266359	-135.999756	-0.266359	-135.999756	-16.397213	127.328055
2.250000	-16.649676	136.677515	-0.265623	-139.145814	-0.265623	-139.145814	-16.614364	124.190065
2.300000	-16.894342	133.555569	-0.264660	-142.299886	-0.264660	-142.299886	-16.854551	121.072505
2.350000	-17.163893	130.398267	-0.263517	-145.462192	-0.263517	-145.462192	-17.118971	117.980090
2.400000	-17.459832	127.200034	-0.262243	-148.632938	-0.262243	-148.632938	-17.409013	114.918573
2.450000	-17.783910	123.954155	-0.260884	-151.812309	-0.260884	-151.812309	-17.726288	111.894999
2.500000	-18.138170	120.652465	-0.259488	-155.000471	-0.259488	-155.000471	-18.072662	108.918040
2.550000	-18.525363	117.283208	-0.258102	-158.197760	-0.258102	-158.197760	-18.450649	105.999990
2.600000	-18.947924	113.834907	-0.256776	-161.404102	-0.256776	-161.404102	-18.862403	103.153469
2.650000	-19.409151	110.291568	-0.255553	-164.619591	-0.255553	-164.619591	-19.310847	100.395657
2.700000	-19.912947	106.632757	-0.254479	-167.844296	-0.254479	-167.844296	-19.799377	97.748437
2.750000	-20.464749	102.823093	-0.253609	-171.078772	-0.253609	-171.078772	-20.332681	95.248792
2.800000	-21.068509	98.840822	-0.252966	-174.322139	-0.252966	-174.322139	-20.913895	92.920693
2.850000	-21.731416	94.632760	-0.252597	-177.574805	-0.252597	-177.574805	-21.548863	90.819043
2.900000	-22.461138	90.133864	-0.252541	179.163239	-0.252541	179.163239	-22.243430	89.010280
2.950000	-23.266580	85.253190	-0.252833	175.892019	-0.252833	175.892019	-23.003881	87.585174
3.000000	-24.157680	79.860786	-0.253507	172.611578	-0.253507	172.611578	-23.836374	86.669528
3.050000	-25.144498	73.767048	-0.254593	169.321968	-0.254593	169.321968	-24.745527	86.439572
3.100000	-26.234490	66.691005	-0.256120	166.023256	-0.256120	166.023256	-25.731214	87.142456
3.150000	-27.425377	58.216321	-0.258115	162.715514	-0.258115	162.715514	-26.781730	89.117611
3.200000	-28.688098	47.751435	-0.260598	159.398824	-0.260598	159.398824	-27.860370	92.798637
3.250000	-29.931736	34.576971	-0.263592	156.073271	-0.263592	156.073271	-28.883578	98.636385
3.300000	-30.955686	18.196891	-0.267114	152.738943	-0.267114	152.738943	-29.700518	106.842877
3.350000	-31.505725	-0.884310	-0.271146	149.396426	-0.271146	149.396426	-30.147464	116.955428
3.400000	-31.286045	-20.879752	-0.275745	146.045098	-0.275745	146.045098	-30.030995	127.806383
3.450000	-30.348237	-38.619825	-0.280956	142.684562	-0.280956	142.684562	-29.352308	137.312935
3.500000	-29.093052	-53.205285	-0.286710	139.316048	-0.286710	139.316048	-28.364980	144.610670
3.550000	-27.746088	-64.674192	-0.293056	135.938981	-0.293056	135.938981	-27.232324	149.417842
3.600000	-26.445090	-73.830809	-0.299986	132.553593	-0.299986	132.553593	-26.084632	152.168301
3.650000	-25.241129	-81.407667	-0.307486	129.160184	-0.307486	129.160184	-24.986817	153.392681
3.700000	-24.140575	-87.843074	-0.315570	125.758596	-0.315570	125.758596	-23.959455	153.449678
3.750000	-23.136930	-93.428518	-0.324272	122.348375	-0.324272	122.348375	-23.006420	152.598051
3.800000	-22.222468	-98.452034	-0.333545	118.930191	-0.333545	118.930191	-22.127823	151.124554
3.850000	-21.386000	-103.054477	-0.343386	115.504068	-0.343386	115.504068	-21.317081	149.172992
3.900000	-20.617502	-107.335522	-0.353790	112.070016	-0.353790	112.070016	-20.567204	146.848201
3.950000	-19.908325	-111.367118	-0.364754	108.628039	-0.364754	108.628039	-19.871571	144.227555
4.000000	-19.251119	-115.202251	-0.376272	105.178133	-0.376272	105.178133	-19.224220	141.368994
4.050000	-18.639689	-118.869937	-0.388387	101.719600	-0.388387	101.719600	-18.619821	138.302915
4.100000	-18.068852	-122.411817	-0.401061	98.252854	-0.401061	98.252854	-18.053994	135.076901
4.150000	-17.534094	-125.854846	-0.414275	94.778110	-0.414275	94.778110	-17.522765	131.721796
4.200000	-17.031566	-129.216855	-0.428023	91.295332	-0.428023	91.295332	-17.022658	128.257677
4.250000	-16.557976	-132.512329	-0.442300	87.804481	-0.442300	87.804481	-16.550670	124.700831
4.300000	-16.110495	-135.753219	-0.457102	84.305513	-0.457102	84.305513	-16.104196	121.064644
4.350000	-15.686714	-138.948880	-0.472434	80.798231	-0.472434	80.798231	-15.681004	117.359173
4.400000	-15.284679	-142.105850	-0.488328	77.281923	-0.488328	77.281923	-15.279277	113.590092
4.450000	-14.902367	-145.235335	-0.504731	73.757341	-0.504731	73.757341	-14.897133	109.771517
4.500000	-14.538174	-148.343451	-0.521638	70.224433	-0.521638	70.224433	-14.533059	105.910016
4.550000	-14.190709	-151.435573	-0.539042	66.683147	-0.539042	66.683147	-14.185728	102.011304
4.600000	-13.858756	-154.516458	-0.556938	63.133431	-0.556938	63.133431	-13.853979	98.080389
4.650000	-13.541258	-157.590335	-0.575317	59.575234	-0.575317	59.575234	-13.536790	94.121693
4.700000	-13.237463	-160.660981	-0.594199	56.007924	-0.594199	56.007924	-13.233447	90.137780
4.750000	-12.946540	-163.732236	-0.613563	52.431598	-0.613563	52.431598	-12.943136	86.133043
4.800000	-12.667671	-166.807121	-0.633375	48.846620	-0.633375	48.846620	-12.665040	82.111677
4.850000	-12.400246	-169.888204	-0.653621	45.252934	-0.653621	45.252934	-12.398556	78.076425
4.900000	-12.143735	-172.977759	-0.674282	41.650481	-0.674282	41.650481	-12.143158	74.029761
4.950000	-11.897672	-176.077800	-0.695339	38.039194	-0.695339	38.039194	-11.898388	69.973911
5.000000	-11.661649	-179.190100	-0.716768	34.419000	-0.716768	34.419000	-11.663850	65.910876
5.050000	-11.435589	177.682623	-0.738563	30.789116	-0.738563	30.789116	-11.439506	61.842131
5.100000	-11.218983	174.539709	-0.760673	27.149987	-0.760673	27.149987	-11.224856	57.769758
5.150000	-11.011562	171.379927	-0.783060	23.501494	-0.783060	23.501494	-11.019662	53.695185
5.200000	-10.813090	168.202193	-0.805683	19.843499	-0.805683	19.843499	-10.823729	49.619650
5.250000	-10.623365	165.005550	-0.828498	16.175839	-0.828498	16.175839	-10.636899	45.544203
5.300000	-10.442210	161.789148	-0.851455	12.498324	-0.851455	12.498324	-10.459045	41.469714
5.350000	-10.269477	158.552231	-0.874499	8.810729	-0.874499	8.810729	-10.290076	37.396870
5.400000	-10.105041	155.294120	-0.897571	5.112796	-0.897571	5.112796	-10.129927	33.326182
5.450000	-9.949335	152.012032	-0.920592	1.403152	-0.920592	1.403152	-9.979169	29.258239
5.500000	-9.801312	148.709482	-0.943513	-2.316575	-0.943513	-2.316575	-9.836676	25.192703
5.550000	-9.661373	145.384101	-0.966256	-6.047704	-0.966256	-6.047704	-9.702974	21.129751
5.600000	-9.529495	142.035463	-0.988741	-9.790696	-0.988741	-9.790696	-9.578102	17.069162
5.650000	-9.405683	138.663196	-1.010889	-13.546067	-1.010889	-13.546067	-9.462120	13.010527
5.700000	-9.289963	135.266987	-1.032615	-17.314404	-1.032615	-17.314404	-9.355113	8.953247
5.750000	-9.182391	131.846579	-1.053830	-21.096364	-1.053830	-21.096364	-9.257190	4.896526
5.800000	-9.083049	128.401778	-1.074445	-24.892680	-1.074445	-24.892680	-9.168485	0.839366
5.850000	-8.992048	124.932455	-1.094366	-28.704167	-1.094366	-28.704167	-9.089159	-3.219441
5.900000	-8.909526	121.438550	-1.113499	-32.531726	-1.113499	-32.531726	-9.019398	-7.281315
5.950000	-8.835653	117.920080	-1.131749	-36.376351	-1.131749	-36.376351	-8.959422	-11.347906
6.000000	-8.770629	114.377144	-1.149019	-40.239131	-1.149019	-40.239131	-8.909480	-15.421095
6.050000	-8.714686	110.809928	-1.165216	-44.121257	-1.165216	-44.121257	-8.869859	-19.503011
6.100000	-8.668092	107.218716	-1.180245	-48.024027	-1.180245	-48.024027	-8.840881	-23.596041
6.150000	-8.631149	103.603901	-1.194014	-51.948849	-1.194014	-51.948849	-8.822914	-27.702849
6.200000	-8.604198	99.965990	-1.206438	-55.897245	-1.206438	-55.897245	-8.816371	-31.826390
6.250000	-8.587622	96.305623	-1.217431	-59.870858	-1.217431	-59.870858	-8.821719	-35.969931
6.300000	-8.582337	92.622690	-1.226848	-63.872717	-1.226848	-63.872717	-8.840043	-40.138295
6.350000	-8.588371	88.919148	-1.234684	-67.903636	-1.234684	-67.903636	-8.871420	-44.334635
6.400000	-8.606248	85.196171	-1.240878	-71.965655	-1.240878	-71.965655	-8.916513	-48.563382
6.450000	-8.636549	81.455158	-1.245382	-76.060946	-1.245382	-76.060946	-8.976065	-52.829412
6.500000	-8.679189	77.698597	-1.248256	-80.189796	-1.248256	-80.189796	-9.050081	-57.135573
6.550000	-8.736132	73.926825	-1.249308	-84.358103	-1.249308	-84.358103	-9.140937	-61.491898
6.600000	-8.807595	70.142903	-1.248607	-88.566925	-1.248607	-88.566925	-9.249042	-65.903146
6.650000	-8.894422	66.349579	-1.246167	-92.818952	-1.246167	-92.818952	-9.375560	-70.376542
6.700000	-8.998164	62.549972	-1.241956	-97.118912	-1.241956	-97.118912	-9.522518	-74.923154
6.750000	-9.118044	58.748358	-1.236223	-101.464278	-1.236223	-101.464278	-9.689304	-79.543291
6.800000	-9.256937	54.949128	-1.228865	-105.863579	-1.228865	-105.863579	-9.879597	-84.255953
6.850000	-9.416197	51.158454	-1.219999	-110.320597	-1.219999	-110.320597	-10.095409	-89.074369
6.900000	-9.596077	47.382626	-1.209857	-114.835248	-1.209857	-114.835248	-10.337552	-94.005719
6.950000	-9.797917	43.629332	-1.198609	-119.410644	-1.198609	-119.410644	-10.608213	-99.064420
7.000000	-10.023140	39.907725	-1.186453	-124.049925	-1.186453	-124.049925	-10.909813	-104.267084
7.050000	-10.273239	36.228701	-1.173618	-128.756228	-1.173618	-128.756228	-11.245020	-109.633015
7.100000	-10.549757	32.605219	-1.160365	-133.532666	-1.160365	-133.532666	-11.616754	-115.184853
7.150000	-10.856101	29.061976	-1.146999	-138.390237	-1.146999	-138.390237	-12.030424	-120.974954
7.200000	-11.191094	25.606615	-1.133854	-143.321046	-1.133854	-143.321046	-12.486168	-127.003915
7.250000	-11.557185	22.268348	-1.121300	-148.333301	-1.121300	-148.333301	-12.988746	-133.330485
7.300000	-11.955362	19.076423	-1.109735	-153.430632	-1.109735	-153.430632	-13.541382	-140.010937
7.350000	-12.385730	16.061305	-1.099544	-158.614689	-1.099544	-158.614689	-14.146324	-147.106472
7.400000	-12.847604	13.253813	-1.091077	-163.885858	-1.091077	-163.885858	-14.804748	-154.684793
7.450000	-13.339531	10.696444	-1.084739	-169.247908	-1.084739	-169.247908	-15.515999	-162.850318
7.500000	-13.858058	8.436789	-1.080939	-174.704840	-1.080939	-174.704840	-16.274720	-171.735461
7.550000	-14.398052	6.501852	-1.079889	179.745136	-1.079889	179.745136	-17.070488	178.557673
7.600000	-14.952217	4.922058	-1.081837	174.100152	-1.081837	174.100152	-17.883683	167.899978
7.650000	-15.508586	3.732831	-1.087146	168.353004	-1.087146	168.353004	-18.675556	156.128925
7.700000	-16.056865	2.900793	-1.095739	162.507113	-1.095739	162.507113	-19.403822	143.287677
7.750000	-16.585148	2.377457	-1.107625	156.560138	-1.107625	156.560138	-20.014953	129.514294
7.800000	-17.080873	2.075836	-1.122861	150.504551	-1.122861	150.504551	-20.452896	115.137487
7.850000	-17.541732	1.845096	-1.141184	144.339182	-1.141184	144.339182	-20.704290	100.714845
7.900000	-17.971934	1.489116	-1.162502	138.051087	-1.162502	138.051087	-20.786604	86.881180
7.950000	-18.395860	0.850517	-1.186191	131.648793	-1.186191	131.648793	-20.775907	73.968161
8.000000	-18.842734	-0.246419	-1.212107	125.118359	-1.212107	125.118359	-20.736199	62.266109
8.050000	-19.358806	-1.947542	-1.240023	118.449677	-1.240023	118.449677	-20.739547	51.903353
8.100000	-20.017559	-4.426844	-1.269944	111.620626	-1.269944	111.620626	-20.861622	43.054772
8.150000	-20.908852	-7.775273	-1.301918	104.623090	-1.301918	104.623090	-21.157948	35.808447
8.200000	-22.170473	-12.145019	-1.336364	97.444644	-1.336364	97.444644	-21.677737	30.469355
8.250000	-24.084356	-18.027459	-1.374456	90.052091	-1.374456	90.052091	-22.476541	27.974540
8.300000	-27.236218	-26.769580	-1.417784	82.429679	-1.417784	82.429679	-23.516869	29.837059
8.350000	-33.525687	-47.249701	-1.468946	74.551616	-1.468946	74.551616	-24.488174	38.575962
8.400000	-36.766458	-155.335732	-1.531452	66.396475	-1.531452	66.396475	-24.481733	54.469161
8.450000	-27.077447	161.122908	-1.609232	57.954456	-1.609232	57.954456	-22.856289	70.484948
8.500000	-21.705082	148.105950	-1.708645	49.195902	-1.708645	49.195902	-20.237390	79.295741
8.550000	-18.066912	138.077779	-1.834798	40.130007	-1.834798	40.130007	-17.590839	81.586772
8.600000	-15.304544	128.699584	-1.994089	30.758235	-1.994089	30.758235	-15.216116	79.730362
8.650000	-13.098048	119.355776	-2.192694	21.094093	-2.192694	21.094093	-13.159111	75.458882
8.700000	-11.299068	109.855641	-2.434649	11.167824	-2.434649	11.167824	-11.399889	69.799107
8.750000	-9.827180	100.143544	-2.722150	1.012312	-2.722150	1.012312	-9.904879	63.338964
8.800000	-8.635124	90.216228	-3.054020	-9.338240	-3.054020	-9.338240	-8.642963	56.466187
8.850000	-7.693881	80.081801	-3.426352	-19.862543	-3.426352	-19.862543	-7.585723	49.449380
8.900000	-6.986772	69.738875	-3.832864	-30.561215	-3.832864	-30.561215	-6.706965	42.490452
8.950000	-6.508161	59.160950	-4.266231	-41.466380	-4.266231	-41.466380	-5.981567	35.746128
9.000000	-6.268381	48.281190	-4.720052	-52.652549	-4.720052	-52.652549	-5.385230	29.343634
9.050000	-6.292504	36.995600	-5.191882	-64.229562	-5.191882	-64.229562	-4.890957	23.373345
9.100000	-6.635561	25.158840	-5.686599	-76.339550	-5.686599	-76.339550	-4.470298	17.893069
9.150000	-7.416261	12.563921	-6.220512	-89.161667	-6.220512	-89.161667	-4.092554	12.930177
9.200000	-8.843357	-1.019137	-6.824984	-102.833941	-6.824984	-102.833941	-3.723758	8.419919
9.250000	-11.376194	-15.982857	-7.548149	-117.427327	-7.548149	-117.427327	-3.334443	4.199358
9.300000	-16.272686	-33.713131	-8.445541	-132.825890	-8.445541	-132.825890	-2.913345	0.001570
9.350000	-31.501061	-92.605669	-9.565358	-148.711296	-9.565358	-148.711296	-2.476710	-4.439778
9.400000	-17.988084	133.252117	-10.921562	-164.591846	-10.921562	-164.591846	-2.063469	-9.241600
9.450000	-11.704529	114.755966	-12.484986	-179.980867	-12.484986	-179.980867	-1.710774	-14.322488
9.500000	-8.446238	100.719384	-14.193594	165.439089	-14.193594	165.439089	-1.435383	-19.488562
9.550000	-6.432315	88.741888	-15.974277	151.767600	-15.974277	151.767600	-1.233894	-24.558419
9.600000	-5.092122	78.335213	-17.758250	138.939289	-17.758250	138.939289	-1.092673	-29.418073
9.650000	-4.158892	69.226631	-19.489399	126.804797	-19.489399	126.804797	-0.996199	-34.019698
9.700000	-3.484712	61.184581	-21.129457	115.199577	-21.129457	115.199577	-0.931105	-38.361353
9.750000	-2.983375	54.023219	-22.647340	104.000873	-22.647340	104.000873	-0.887808	-42.459923
9.800000	-2.601115	47.588859	-24.020163	93.141375	-24.020163	93.141375	-0.859612	-46.339757
9.850000	-2.303166	41.756843	-25.232928	82.612081	-25.232928	82.612081	-0.841953	-50.026131
9.900000	-2.066909	36.432940	-26.275332	72.458625	-26.275332	72.458625	-0.831809	-53.540353
9.950000	-1.876537	31.538661	-27.148064	62.755746	-27.148064	62.755746	-0.827074	-56.902275
10.000000	-1.717688	26.970084	-27.886848	53.515525	-27.886848	53.515525	-0.825890	-60.144428
