! freq	dB(S11)	phase(S11)	dB(S12)	phase(S12)	
!     	dB(S21)	phase(S21)	dB(S22)	phase(S22)	
!S-par simulation data
#  GHz  S  DB  R 50
0.000000	-85.816099	0.000000	-0.000445	0.000000	-0.000445	0.000000	-85.816099	0.000000
0.050000	-34.275004	-92.810402	-0.004454	-2.890829	-0.004454	-2.890829	-34.275861	-92.814080
0.100000	-28.268327	-95.843741	-0.015002	-5.765929	-0.015002	-5.765929	-28.268870	-95.851309
0.150000	-24.769166	-98.814258	-0.029541	-8.622585	-0.029541	-8.622585	-24.769280	-98.826049
0.200000	-22.300488	-101.756134	-0.046524	-11.465562	-0.046524	-11.465562	-22.300163	-101.772549
0.250000	-20.399826	-104.672939	-0.065572	-14.298396	-0.065572	-14.298396	-20.399134	-104.694354
0.300000	-18.860651	-107.564823	-0.086731	-17.122599	-0.086731	-17.122599	-18.859722	-107.591456
0.350000	-17.571640	-110.432738	-0.110052	-19.938423	-0.110052	-19.938423	-17.570626	-110.464579
0.400000	-16.466793	-113.276988	-0.135634	-22.745051	-0.135634	-22.745051	-16.465835	-113.313797
0.450000	-15.504147	-116.097378	-0.163604	-25.540947	-0.163604	-25.540947	-15.503361	-116.138705
0.500000	-14.653465	-118.896158	-0.193816	-28.325548	-0.193816	-28.325548	-14.652921	-118.941473
0.550000	-13.893900	-121.674419	-0.226199	-31.097860	-0.226199	-31.097860	-13.893626	-121.723178
0.600000	-13.210770	-124.432329	-0.260737	-33.856310	-0.260737	-33.856310	-13.210760	-124.484023
0.650000	-12.591756	-127.171591	-0.297222	-36.600544	-0.297222	-36.600544	-12.591975	-127.225848
0.700000	-12.027611	-129.893205	-0.335490	-39.330022	-0.335490	-39.330022	-12.028007	-129.949794
0.750000	-11.511553	-132.597317	-0.375424	-42.043682	-0.375424	-42.043682	-11.512066	-132.656147
0.800000	-11.037690	-135.284529	-0.416842	-44.741075	-0.416842	-44.741075	-11.038259	-135.345654
0.850000	-10.601068	-137.955476	-0.459548	-47.422030	-0.459548	-47.422030	-10.601641	-138.019059
0.900000	-10.197688	-140.610521	-0.503359	-50.086330	-0.503359	-50.086330	-10.198222	-140.676809
0.950000	-9.824264	-143.249855	-0.548099	-52.733749	-0.548099	-52.733749	-9.824729	-143.319147
1.000000	-9.477958	-145.873684	-0.593587	-55.364222	-0.593587	-55.364222	-9.478338	-145.946306
1.050000	-9.156333	-148.482191	-0.639645	-57.977773	-0.639645	-57.977773	-9.156623	-148.558466
1.100000	-8.857276	-151.075545	-0.686098	-60.574512	-0.686098	-60.574512	-8.857483	-151.155775
1.150000	-8.578942	-153.653918	-0.732776	-63.154629	-0.732776	-63.154629	-8.579082	-153.738368
1.200000	-8.319705	-156.217493	-0.779514	-65.718385	-0.779514	-65.718385	-8.319801	-156.306381
1.250000	-8.078128	-158.766474	-0.826154	-68.266109	-0.826154	-68.266109	-8.078208	-158.859966
1.300000	-7.853139	-161.300786	-0.872528	-70.797861	-0.872528	-70.797861	-7.853233	-161.398992
1.350000	-7.643364	-163.821008	-0.918501	-73.314439	-0.918501	-73.314439	-7.643501	-163.923986
1.400000	-7.447769	-166.327436	-0.963935	-75.816340	-0.963935	-75.816340	-7.447977	-166.435195
1.450000	-7.265420	-168.820401	-1.008699	-78.304105	-1.008699	-78.304105	-7.265722	-168.932911
1.500000	-7.095470	-171.300269	-1.052673	-80.778312	-1.052673	-80.778312	-7.095886	-171.417470
1.550000	-6.937147	-173.767441	-1.095742	-83.239573	-1.095742	-83.239573	-6.937691	-173.889251
1.600000	-6.789749	-176.222355	-1.137799	-85.688529	-1.137799	-85.688529	-6.790429	-176.348679
1.650000	-6.652631	-178.665480	-1.178745	-88.125844	-1.178745	-88.125844	-6.653450	-178.796221
1.700000	-6.525932	178.903741	-1.218347	-90.551191	-1.218347	-90.551191	-6.526886	178.768682
1.750000	-6.407706	176.482709	-1.256783	-92.967265	-1.256783	-92.967265	-6.408787	176.343402
1.800000	-6.298128	174.071853	-1.293856	-95.373816	-1.293856	-95.373816	-6.299323	173.928353
1.850000	-6.196739	171.670582	-1.329497	-97.771568	-1.329497	-97.771568	-6.198031	171.522922
1.900000	-6.103118	169.278283	-1.363644	-100.161253	-1.363644	-100.161253	-6.104488	169.126467
1.950000	-6.016877	166.894321	-1.396241	-102.543605	-1.396241	-102.543605	-6.018303	166.738319
2.000000	-5.937659	164.518040	-1.427238	-104.919362	-1.427238	-104.919362	-5.939120	164.357793
2.050000	-5.865135	162.148768	-1.456593	-107.289261	-1.456593	-107.289261	-5.866607	161.984182
2.100000	-5.799002	159.785818	-1.484268	-109.654038	-1.484268	-109.654038	-5.800465	159.616769
2.150000	-5.738983	157.428492	-1.510231	-112.014422	-1.510231	-112.014422	-5.740418	157.254827
2.200000	-5.684824	155.076080	-1.534457	-114.371141	-1.534457	-114.371141	-5.686211	154.897620
2.250000	-5.636290	152.727867	-1.556925	-116.724913	-1.556925	-116.724913	-5.637616	152.544410
2.300000	-5.593170	150.383134	-1.577619	-119.076451	-1.577619	-119.076451	-5.594422	150.194460
2.350000	-5.555269	148.041158	-1.596528	-121.426458	-1.596528	-121.426458	-5.556440	147.847032
2.400000	-5.522411	145.701219	-1.613645	-123.775627	-1.613645	-123.775627	-5.523497	145.501396
2.450000	-5.494439	143.362597	-1.628969	-126.124640	-1.628969	-126.124640	-5.495437	143.156827
2.500000	-5.471209	141.024580	-1.642501	-128.474169	-1.642501	-128.474169	-5.472123	140.812612
2.550000	-5.452788	138.686425	-1.654170	-130.824955	-1.654170	-130.824955	-5.453624	138.468000
2.600000	-5.438861	136.347413	-1.664064	-133.177620	-1.664064	-133.177620	-5.439629	136.122289
2.650000	-5.429330	134.006863	-1.672198	-135.532796	-1.672198	-135.532796	-5.430042	133.774807
2.700000	-5.424111	131.664107	-1.678589	-137.891103	-1.678589	-137.891103	-5.424781	131.424898
2.750000	-5.423129	129.318494	-1.683258	-140.253143	-1.683258	-140.253143	-5.423773	129.071926
2.800000	-5.426324	126.969394	-1.686227	-142.619508	-1.686227	-142.619508	-5.426960	126.715272
2.850000	-5.433645	124.616191	-1.687524	-144.990773	-1.687524	-144.990773	-5.434291	124.354339
2.900000	-5.445053	122.258296	-1.687177	-147.367499	-1.687177	-147.367499	-5.445726	121.988551
2.950000	-5.460516	119.895138	-1.685219	-149.750231	-1.685219	-149.750231	-5.461236	119.617351
3.000000	-5.480016	117.526170	-1.681685	-152.139500	-1.681685	-152.139500	-5.480799	117.240208
3.050000	-5.503540	115.150873	-1.676610	-154.535820	-1.676610	-154.535820	-5.504402	114.856612
3.100000	-5.531085	112.768749	-1.670035	-156.939690	-1.670035	-156.939690	-5.532040	112.466077
3.150000	-5.562656	110.379329	-1.662001	-159.351592	-1.662001	-159.351592	-5.563718	110.068139
3.200000	-5.598265	107.982168	-1.652552	-161.771994	-1.652552	-161.771994	-5.599445	107.662361
3.250000	-5.637934	105.576851	-1.641732	-164.201345	-1.641732	-164.201345	-5.639240	105.248327
3.300000	-5.681689	103.162988	-1.629589	-166.640080	-1.629589	-166.640080	-5.683127	102.825649
3.350000	-5.729564	100.740217	-1.616173	-169.088614	-1.616173	-169.088614	-5.731139	100.393960
3.400000	-5.781601	98.308203	-1.601533	-171.547348	-1.601533	-171.547348	-5.783313	97.952920
3.450000	-5.837847	95.866639	-1.585721	-174.016666	-1.585721	-174.016666	-5.839696	95.502212
3.500000	-5.898357	93.415245	-1.568792	-176.496933	-1.568792	-176.496933	-5.900339	93.041544
3.550000	-5.963189	90.953767	-1.550799	-178.988498	-1.550799	-178.988498	-5.965300	90.570649
3.600000	-6.032412	88.481980	-1.531799	178.508307	-1.531799	178.508307	-6.034645	88.089283
3.650000	-6.106099	85.999683	-1.511848	175.993168	-1.511848	175.993168	-6.108445	85.597227
3.700000	-6.184329	83.506701	-1.491004	173.465787	-1.491004	173.465787	-6.186779	83.094288
3.750000	-6.267190	81.002887	-1.469325	170.925884	-1.469325	170.925884	-6.269733	80.580293
3.800000	-6.354944	78.487635	-1.446837	168.372629	-1.446837	168.372629	-6.357570	78.054604
3.850000	-6.447525	75.961320	-1.423638	165.806324	-1.423638	165.806324	-6.450221	75.517581
3.900000	-6.545041	73.423873	-1.399788	163.226743	-1.399788	163.226743	-6.547797	72.969128
3.950000	-6.647610	70.875247	-1.375348	160.633675	-1.375348	160.633675	-6.650415	70.409173
4.000000	-6.755359	68.315418	-1.350377	158.026928	-1.350377	158.026928	-6.758204	67.837667
4.050000	-6.868425	65.744390	-1.324937	155.406325	-1.324937	155.406325	-6.871300	65.254586
4.100000	-6.986954	63.162187	-1.299089	152.771707	-1.299089	152.771707	-6.989854	62.659928
4.150000	-7.111107	60.568861	-1.272891	150.122927	-1.272891	150.122927	-7.114024	60.053717
4.200000	-7.241054	57.964486	-1.246404	147.459855	-1.246404	147.459855	-7.243985	57.436002
4.250000	-7.376982	55.349165	-1.219688	144.782378	-1.219688	144.782378	-7.379925	54.806856
4.300000	-7.519091	52.723024	-1.192800	142.090392	-1.192800	142.090392	-7.522047	52.166380
4.350000	-7.667601	50.086221	-1.165800	139.383811	-1.165800	139.383811	-7.670572	49.514700
4.400000	-7.822749	47.438941	-1.138745	136.662560	-1.138745	136.662560	-7.825739	46.851972
4.450000	-7.984793	44.781403	-1.111691	133.926575	-1.111691	133.926575	-7.987811	44.178383
4.500000	-8.154017	42.113858	-1.084694	131.175805	-1.084694	131.175805	-8.157073	41.494151
4.550000	-8.330730	39.436598	-1.057809	128.410209	-1.057809	128.410209	-8.333835	38.799529
4.600000	-8.515269	36.749954	-1.031089	125.629755	-1.031089	125.629755	-8.518440	36.094809
4.650000	-8.708008	34.054306	-1.004586	122.834420	-1.004586	122.834420	-8.711262	33.380326
4.700000	-8.909355	31.350086	-0.978351	120.024190	-0.978351	120.024190	-8.912713	30.656459
4.750000	-9.119762	28.637785	-0.952436	117.199055	-0.952436	117.199055	-9.123249	27.923643
4.800000	-9.339730	25.917963	-0.926889	114.359014	-0.926889	114.359014	-9.343372	25.182371
4.850000	-9.569812	23.191259	-0.901757	111.504067	-0.901757	111.504067	-9.573639	22.433207
4.900000	-9.810625	20.458406	-0.877087	108.634221	-0.877087	108.634221	-9.814671	19.676791
4.950000	-10.062855	17.720242	-0.852924	105.749485	-0.852924	105.749485	-10.067159	16.913861
5.000000	-10.327271	14.977734	-0.829313	102.849868	-0.829313	102.849868	-10.331875	14.145261
5.050000	-10.604940	12.231925	-0.806321	99.934736	-0.806321	99.934736	-10.609893	11.371817
5.100000	-10.896639	9.484333	-0.783971	97.004745	-0.783971	97.004745	-10.901995	8.594932
5.150000	-11.203467	6.736519	-0.762304	94.059907	-0.762304	94.059907	-11.209288	5.815959
5.200000	-11.526672	3.990322	-0.741359	91.100227	-0.741359	91.100227	-11.533030	3.036491
5.250000	-11.867679	1.247927	-0.721176	88.125710	-0.721176	88.125710	-11.874657	0.258416
5.300000	-12.228117	-1.488050	-0.701796	85.136359	-0.701796	85.136359	-12.235814	-2.516011
5.350000	-12.609866	-4.214456	-0.683256	82.132170	-0.683256	82.132170	-12.618401	-5.284067
5.400000	-13.015104	-6.927445	-0.665596	79.113135	-0.665596	79.113135	-13.024619	-8.042443
5.450000	-13.446373	-9.622290	-0.648855	76.079244	-0.648855	76.079244	-13.457043	-10.787064
5.500000	-13.906660	-12.293107	-0.633070	73.030478	-0.633070	73.030478	-13.918705	-13.512863
5.550000	-14.399506	-14.932484	-0.618281	69.966816	-0.618281	69.966816	-14.413203	-16.213452
5.600000	-14.929146	-17.530955	-0.604527	66.888231	-0.604527	66.888231	-14.944852	-18.880666
5.650000	-15.500696	-20.076232	-0.591849	63.794691	-0.591849	63.794691	-15.518882	-21.503895
5.700000	-16.120411	-22.552088	-0.580286	60.686159	-0.580286	60.686159	-16.141706	-24.069105
5.750000	-16.796036	-24.936651	-0.569881	57.562593	-0.569881	57.562593	-16.821301	-26.557334
5.800000	-17.537301	-27.199745	-0.560677	54.423951	-0.560677	54.423951	-17.567745	-28.942352
5.850000	-18.356625	-29.298597	-0.552717	51.270183	-0.552717	51.270183	-18.393997	-31.186830
5.900000	-19.270153	-31.170614	-0.546047	48.101242	-0.546047	48.101242	-19.317074	-33.235865
5.950000	-20.299275	-32.720698	-0.540713	44.917076	-0.540713	44.917076	-20.359836	-35.005443
6.000000	-21.472874	-33.797716	-0.536764	41.717634	-0.536764	41.717634	-21.553794	-36.360682
6.050000	-22.830524	-34.148226	-0.534250	38.502869	-0.534250	38.502869	-22.943547	-37.071912
6.100000	-24.426249	-33.319411	-0.533222	35.272732	-0.533222	35.272732	-24.593494	-36.718738
6.150000	-26.328640	-30.443823	-0.533734	32.027181	-0.533734	32.027181	-26.595540	-34.462193
6.200000	-28.592682	-23.760431	-0.535840	28.766178	-0.535840	28.766178	-29.059946	-28.471065
6.250000	-31.078949	-9.726840	-0.539598	25.489693	-0.539598	25.489693	-31.958447	-14.529340
6.300000	-32.615661	16.176536	-0.545142	22.197028	-0.545142	22.197028	-33.960506	14.834019
6.350000	-31.625719	44.138754	-0.552460	18.888845	-0.552460	18.888845	-32.680345	47.270278
6.400000	-29.197113	61.681908	-0.561614	15.565144	-0.561614	15.565144	-29.784192	65.627204
6.450000	-26.754328	70.448509	-0.572666	12.225937	-0.572666	12.225937	-27.084529	73.876215
6.500000	-24.656691	74.496751	-0.585570	8.872092	-0.585570	8.872092	-24.858463	77.280694
6.550000	-22.875865	75.740329	-0.600580	5.502135	-0.600580	5.502135	-23.010169	78.011833
6.600000	-21.355475	75.551939	-0.617677	2.116796	-0.617677	2.116796	-21.450509	77.436183
6.650000	-20.036331	74.492022	-0.636924	-1.283850	-0.636924	-1.283850	-20.106712	76.080364
6.700000	-18.874584	72.865234	-0.658385	-4.699712	-0.658385	-4.699712	-18.928526	74.222684
6.750000	-17.838345	70.849174	-0.682123	-8.130681	-0.682123	-8.130681	-17.880785	72.022590
6.800000	-16.904180	68.553647	-0.708197	-11.576631	-0.708197	-11.576631	-16.938253	69.577546
6.850000	-16.054555	66.049940	-0.736669	-15.037420	-0.736669	-15.037420	-16.082343	66.950334
6.900000	-15.276058	63.384905	-0.767622	-18.513047	-0.767622	-18.513047	-15.299001	64.181990
6.950000	-14.558343	60.593080	-0.801110	-22.003330	-0.801110	-22.003330	-14.577465	61.302644
7.000000	-13.893250	57.700039	-0.837160	-25.507922	-0.837160	-25.507922	-13.909301	58.334553
7.050000	-13.274200	54.723481	-0.875820	-29.026626	-0.875820	-29.026626	-13.287744	55.293082
7.100000	-12.695853	51.676820	-0.917131	-32.559234	-0.917131	-32.559234	-12.707322	52.189868
7.150000	-12.153820	48.570418	-0.961132	-36.105535	-0.961132	-36.105535	-12.163553	49.033889
7.200000	-11.644457	45.412410	-1.007857	-39.665315	-1.007857	-39.665315	-11.652723	45.832197
7.250000	-11.164707	42.209277	-1.057332	-43.238363	-1.057332	-43.238363	-11.171724	42.590408
7.300000	-10.711984	38.966248	-1.109579	-46.824476	-1.109579	-46.824476	-10.717932	39.313056
7.350000	-10.284083	35.687589	-1.164613	-50.423462	-1.164613	-50.423462	-10.289109	36.003841
7.400000	-9.879108	32.376808	-1.222441	-54.035147	-1.222441	-54.035147	-9.883335	32.665806
7.450000	-9.495416	29.036813	-1.283065	-57.659380	-1.283065	-57.659380	-9.498948	29.301471
7.500000	-9.131579	25.670020	-1.346479	-61.296042	-1.346479	-61.296042	-9.134503	25.912929
7.550000	-8.786437	22.277937	-1.412715	-64.945313	-1.412715	-64.945313	-8.788828	22.501461
7.600000	-8.458799	18.862793	-1.481703	-68.606886	-1.481703	-68.606886	-8.460719	19.069007
7.650000	-8.147679	15.425939	-1.553411	-72.280774	-1.553411	-72.280774	-8.149181	15.616719
7.700000	-7.852197	11.968467	-1.627803	-75.967050	-1.627803	-75.967050	-7.853324	12.145513
7.750000	-7.571560	8.491232	-1.704833	-79.665851	-1.704833	-79.665851	-7.572348	8.656091
7.800000	-7.305054	4.994872	-1.784449	-83.377392	-1.784449	-83.377392	-7.305533	5.148953
7.850000	-7.052029	1.479820	-1.866591	-87.101969	-1.866591	-87.101969	-7.052222	1.624408
7.900000	-6.811894	-2.053693	-1.951193	-90.839971	-1.951193	-90.839971	-6.811818	-1.917427
7.950000	-6.584104	-5.605628	-2.038182	-94.591886	-2.038182	-94.591886	-6.583772	-5.476620
8.000000	-6.368160	-9.176142	-2.127477	-98.358312	-2.127477	-98.358312	-6.367580	-9.053425
8.050000	-6.163599	-12.765585	-2.218991	-102.139966	-2.218991	-102.139966	-6.162776	-12.648289
8.100000	-5.969994	-16.374508	-2.312633	-105.937695	-2.312633	-105.937695	-5.968927	-16.261852
8.150000	-5.787016	-20.003895	-2.408313	-109.752680	-2.408313	-109.752680	-5.785704	-19.895183
8.200000	-5.614297	-23.654750	-2.505922	-113.586099	-2.505922	-113.586099	-5.612735	-23.549379
8.250000	-5.451420	-27.328056	-2.605338	-117.439076	-2.605338	-117.439076	-5.449601	-27.225517
8.300000	-5.298063	-31.025243	-2.706446	-121.313091	-2.706446	-121.313091	-5.295979	-30.925119
8.350000	-5.153860	-34.747721	-2.809119	-125.209578	-2.809119	-125.209578	-5.151503	-34.649691
8.400000	-5.018579	-38.497556	-2.913235	-129.130532	-2.913235	-129.130532	-5.015941	-38.401395
8.450000	-4.892016	-42.277177	-3.018654	-133.078249	-3.018654	-133.078249	-4.889088	-42.182762
8.500000	-4.774052	-46.089704	-3.125221	-137.055632	-3.125221	-137.055632	-4.770828	-45.997030
8.550000	-4.664303	-49.937167	-3.232778	-141.064581	-3.232778	-141.064581	-4.660780	-49.846354
8.600000	-4.562585	-53.822700	-3.341148	-145.107976	-3.341148	-145.107976	-4.558761	-53.734006
8.650000	-4.468741	-57.749810	-3.450139	-149.189026	-3.450139	-149.189026	-4.464620	-57.663645
8.700000	-4.382646	-61.722412	-3.559530	-153.311314	-3.559530	-153.311314	-4.378237	-61.639367
8.750000	-4.304213	-65.744885	-3.669064	-157.478855	-3.669064	-157.478855	-4.299533	-65.665756
8.800000	-4.233649	-69.824199	-3.778375	-161.698059	-3.778375	-161.698059	-4.228723	-69.750078
8.850000	-4.170740	-73.964191	-3.887137	-165.972558	-3.887137	-165.972558	-4.165606	-73.896445
8.900000	-4.115589	-78.171158	-3.994892	-170.308343	-3.994892	-170.308343	-4.110300	-78.111531
8.950000	-4.068406	-82.452275	-4.101066	-174.712401	-4.101066	-174.712401	-4.063034	-82.402980
9.000000	-4.029548	-86.815792	-4.204926	-179.193040	-4.204926	-179.193040	-4.024193	-86.779647
9.050000	-3.999579	-91.271317	-4.305519	176.239642	-4.305519	176.239642	-3.994377	-91.251921
9.100000	-3.979654	-95.833204	-4.401409	171.570059	-4.401409	171.570059	-3.974802	-95.835355
9.150000	-3.971028	-100.513991	-4.490938	166.782714	-4.490938	166.782714	-3.966802	-100.543902
9.200000	-3.975760	-105.329776	-4.571852	161.855964	-4.571852	161.855964	-3.972560	-105.395650
9.250000	-3.997230	-110.301746	-4.641038	156.758162	-4.641038	156.758162	-3.995658	-110.414702
9.300000	-4.040920	-115.456612	-4.694287	151.442677	-4.694287	151.442677	-4.041925	-115.632080
9.350000	-4.116055	-120.827805	-4.726009	145.837299	-4.726009	145.837299	-4.121211	-121.087812
9.400000	-4.239794	-126.458406	-4.728716	139.816788	-4.728716	139.816788	-4.251958	-126.836045
9.450000	-4.444128	-132.382938	-4.694867	133.166863	-4.694867	133.166863	-4.468921	-132.929322
9.500000	-4.790680	-138.563622	-4.623727	125.512289	-4.623727	125.512289	-4.840260	-139.358013
9.550000	-5.406572	-144.620562	-4.545741	116.144303	-4.545741	116.144303	-5.511386	-145.777598
9.600000	-6.493451	-148.608726	-4.614913	103.914284	-4.614913	103.914284	-6.738410	-150.156109
9.650000	-7.730885	-144.369297	-5.324176	88.284225	-5.324176	88.284225	-8.261006	-145.151204
9.700000	-6.983547	-134.753721	-7.360934	73.957091	-7.360934	73.957091	-7.484400	-132.888509
9.750000	-5.237824	-137.082187	-10.068831	70.176341	-10.068831	70.176341	-5.494874	-134.661089
9.800000	-4.245110	-145.259253	-11.712919	74.800203	-11.712919	74.800203	-4.383471	-143.092962
9.850000	-3.777843	-153.799782	-12.181224	78.337799	-12.181224	78.337799	-3.862966	-151.890104
9.900000	-3.544678	-161.796537	-12.237792	78.158530	-12.237792	78.158530	-3.602785	-160.072039
9.950000	-3.413505	-169.326864	-12.260733	75.425893	-12.260733	75.425893	-3.456136	-167.733410
10.000000	-3.330539	-176.539144	-12.346557	71.185021	-12.346557	71.185021	-3.363569	-175.039560
