! freq	dB(S11)	phase(S11)	dB(S12)	phase(S12)	
!     	dB(S21)	phase(S21)	dB(S22)	phase(S22)	
!S-par simulation data
#  GHz  S  DB  R 50
0.000000	0.000000	0.000000	-317.004710	0.000000	-317.004710	0.000000	0.000000	0.000000
0.050000	-0.000134	-0.767820	-98.968774	89.174515	-98.968774	89.174515	-0.000139	-0.767945
0.100000	-0.000526	-1.535209	-92.954843	88.356758	-92.954843	88.356758	-0.000544	-1.535428
0.150000	-0.001149	-2.301771	-89.443675	87.553188	-89.443675	87.553188	-0.001185	-2.302032
0.200000	-0.001945	-3.067327	-86.957891	86.765951	-86.957891	86.765951	-0.002000	-3.067578
0.250000	-0.002877	-3.831712	-85.034700	85.996688	-85.034700	85.996688	-0.002949	-3.831906
0.300000	-0.003908	-4.594767	-83.468181	85.246840	-83.468181	85.246840	-0.003991	-4.594868
0.350000	-0.004988	-5.356733	-82.146808	84.512482	-82.146808	84.512482	-0.005077	-5.356728
0.400000	-0.006098	-6.117517	-81.005695	83.795121	-81.005695	83.795121	-0.006187	-6.117404
0.450000	-0.007216	-6.877312	-80.001850	83.092596	-80.001850	83.092596	-0.007300	-6.877103
0.500000	-0.008329	-7.636167	-79.106531	82.405248	-79.106531	82.405248	-0.008406	-7.635877
0.550000	-0.009430	-8.394174	-78.299030	81.733000	-78.299030	81.733000	-0.009498	-8.393823
0.600000	-0.010517	-9.151402	-77.564073	81.076223	-77.564073	81.076223	-0.010575	-9.151010
0.650000	-0.011589	-9.907906	-76.890040	80.435539	-76.890040	80.435539	-0.011636	-9.907490
0.700000	-0.012645	-10.663723	-76.267862	79.811757	-76.267862	79.811757	-0.012683	-10.663298
0.750000	-0.013688	-11.418880	-75.690309	79.205819	-75.690309	79.205819	-0.013716	-11.418458
0.800000	-0.014720	-12.173392	-75.151509	78.618753	-75.151509	78.618753	-0.014740	-12.172983
0.850000	-0.015740	-12.927154	-74.646950	78.055441	-74.646950	78.055441	-0.015753	-12.926765
0.900000	-0.016753	-13.680251	-74.172256	77.514134	-74.172256	77.514134	-0.016760	-13.679887
0.950000	-0.017762	-14.433009	-73.722914	76.984818	-73.722914	76.984818	-0.017764	-14.432671
1.000000	-0.018762	-15.184752	-73.297817	76.491476	-73.297817	76.491476	-0.018761	-15.184442
1.050000	-0.019761	-15.936261	-72.892715	76.006862	-72.892715	76.006862	-0.019757	-15.935979
1.100000	-0.020754	-16.686604	-72.506424	75.565893	-72.506424	75.565893	-0.020748	-16.686348
1.150000	-0.021746	-17.436825	-72.136462	75.129597	-72.136462	75.129597	-0.021739	-17.436595
1.200000	-0.022734	-18.185708	-71.780336	74.744703	-71.780336	74.744703	-0.022726	-18.185501
1.250000	-0.023721	-18.934592	-71.438238	74.359809	-71.438238	74.359809	-0.023714	-18.934407
1.300000	-0.024705	-19.682343	-71.106454	74.018714	-71.106454	74.018714	-0.024698	-19.682176
1.350000	-0.025688	-20.429350	-70.784234	73.706166	-70.784234	73.706166	-0.025681	-20.429199
1.400000	-0.026669	-21.175598	-70.470170	73.422332	-70.470170	73.422332	-0.026663	-21.175461
1.450000	-0.027649	-21.921075	-70.162928	73.167168	-70.162928	73.167168	-0.027644	-21.920949
1.500000	-0.028626	-22.665765	-69.861236	72.940393	-69.861236	72.940393	-0.028623	-22.665649
1.550000	-0.029603	-23.409656	-69.563873	72.741466	-69.563873	72.741466	-0.029600	-23.409547
1.600000	-0.030578	-24.152734	-69.269665	72.569567	-69.269665	72.569567	-0.030577	-24.152630
1.650000	-0.031552	-24.894985	-68.977478	72.423570	-68.977478	72.423570	-0.031552	-24.894885
1.700000	-0.032525	-25.636101	-68.682602	72.309674	-68.682602	72.309674	-0.032525	-25.636003
1.750000	-0.033497	-26.376774	-68.392641	72.207935	-68.392641	72.207935	-0.033498	-26.376678
1.800000	-0.034468	-27.116391	-68.098404	72.129951	-68.098404	72.129951	-0.034470	-27.116295
1.850000	-0.035438	-27.855254	-67.804391	72.068933	-67.804391	72.068933	-0.035441	-27.855157
1.900000	-0.036408	-28.593185	-67.505878	72.022116	-67.505878	72.022116	-0.036412	-28.593087
1.950000	-0.037378	-29.330187	-67.203643	71.989499	-67.203643	71.989499	-0.037382	-29.330087
2.000000	-0.038347	-30.066394	-66.897684	71.962293	-66.897684	71.962293	-0.038352	-30.066291
2.050000	-0.039317	-30.801489	-66.583381	71.942660	-66.583381	71.942660	-0.039322	-30.801383
2.100000	-0.040287	-31.535934	-66.267200	71.921321	-66.267200	71.921321	-0.040293	-31.535826
2.150000	-0.041259	-32.269081	-65.937356	71.896572	-65.937356	71.896572	-0.041264	-32.268969
2.200000	-0.042231	-33.001731	-65.608597	71.865519	-65.608597	71.865519	-0.042236	-33.001617
2.250000	-0.043205	-33.732894	-65.260139	71.815554	-65.260139	71.815554	-0.043211	-33.732777
2.300000	-0.044180	-34.463720	-64.916882	71.757851	-64.916882	71.757851	-0.044186	-34.463601
2.350000	-0.045159	-35.192869	-64.547121	71.661459	-64.547121	71.661459	-0.045165	-35.192747
2.400000	-0.046139	-35.921849	-64.187863	71.559417	-64.187863	71.559417	-0.046144	-35.921724
2.450000	-0.047124	-36.648964	-63.794421	71.395239	-63.794421	71.395239	-0.047129	-36.648838
2.500000	-0.048110	-37.376079	-63.418030	71.231061	-63.418030	71.231061	-0.048115	-37.375951
2.550000	-0.049103	-38.101151	-62.998686	70.978490	-62.998686	70.978490	-0.049108	-38.101023
2.600000	-0.050097	-38.826223	-62.598658	70.725919	-62.598658	70.725919	-0.050101	-38.826094
2.650000	-0.051100	-39.549429	-62.156789	70.374761	-62.156789	70.374761	-0.051104	-39.549301
2.700000	-0.052104	-40.272465	-61.731184	70.014641	-61.731184	70.014641	-0.052108	-40.272337
2.750000	-0.053118	-40.993827	-61.265411	69.550478	-61.265411	69.550478	-0.053122	-40.993701
2.800000	-0.054135	-41.714855	-60.811981	69.065506	-60.811981	69.065506	-0.054138	-41.714730
2.850000	-0.055162	-42.434418	-60.320521	68.475351	-60.320521	68.475351	-0.055165	-42.434297
2.900000	-0.056194	-43.153494	-59.836348	67.850135	-59.836348	67.850135	-0.056197	-43.153376
2.950000	-0.057238	-43.871336	-59.316731	67.122247	-59.316731	67.122247	-0.057241	-43.871223
3.000000	-0.058288	-44.588560	-58.797769	66.343023	-58.797769	66.343023	-0.058290	-44.588454
3.050000	-0.059351	-45.304801	-58.246500	65.466517	-58.246500	65.466517	-0.059353	-45.304702
3.100000	-0.060424	-46.020339	-57.686954	64.520524	-57.686954	64.520524	-0.060425	-46.020249
3.150000	-0.061510	-46.735168	-57.099084	63.484770	-57.099084	63.484770	-0.061512	-46.735089
3.200000	-0.062611	-47.449287	-56.490519	62.359253	-56.490519	62.359253	-0.062612	-47.449220
3.250000	-0.063726	-48.162997	-55.859067	61.152987	-55.859067	61.152987	-0.063727	-48.162944
3.300000	-0.064863	-48.876132	-55.189015	59.833669	-55.189015	59.833669	-0.064865	-48.876097
3.350000	-0.066012	-49.589163	-54.525144	58.464280	-54.525144	58.464280	-0.066013	-49.589147
3.400000	-0.067195	-50.302017	-53.793803	56.954558	-53.793803	56.954558	-0.067196	-50.302025
3.450000	-0.068410	-51.015091	-53.020318	55.336177	-53.020318	55.336177	-0.068411	-51.015128
3.500000	-0.069665	-51.728744	-52.197884	53.601881	-52.197884	53.601881	-0.069667	-51.728816
3.550000	-0.070974	-52.443469	-51.317947	51.742253	-51.317947	51.742253	-0.070976	-52.443583
3.600000	-0.072355	-53.159949	-50.369600	49.744640	-50.369600	49.744640	-0.072358	-53.160115
3.650000	-0.073838	-53.879162	-49.338662	47.591390	-49.338662	47.591390	-0.073842	-53.879392
3.700000	-0.075472	-54.602550	-48.206280	45.256841	-48.206280	45.256841	-0.075478	-54.602862
3.750000	-0.077346	-55.332332	-46.946677	42.701875	-46.946677	42.701875	-0.077354	-55.332750
3.800000	-0.079644	-56.072692	-45.504573	39.848025	-45.504573	39.848025	-0.079656	-56.073254
3.850000	-0.082713	-56.829914	-43.833063	36.588009	-43.833063	36.588009	-0.082732	-56.830677
3.900000	-0.087381	-57.616389	-41.837821	32.696470	-41.837821	32.696470	-0.087411	-57.617450
3.950000	-0.096028	-58.459485	-39.337142	27.651934	-39.337142	27.651934	-0.096084	-58.461026
4.000000	-0.117266	-59.425540	-35.994016	20.044378	-35.994016	20.044378	-0.117388	-59.427951
4.050000	-0.199810	-60.679153	-31.045263	4.330389	-31.045263	4.330389	-0.200194	-60.683344
4.100000	-0.598377	-60.448495	-24.930397	-50.678511	-24.930397	-50.678511	-0.600044	-60.449596
4.150000	-0.253553	-58.977881	-29.709581	-116.774401	-29.709581	-116.774401	-0.254063	-58.972182
4.200000	-0.139543	-60.233674	-34.752321	-135.686063	-34.752321	-135.686063	-0.139694	-60.229900
4.250000	-0.113257	-61.214175	-37.997406	-144.423612	-37.997406	-144.423612	-0.113325	-61.211370
4.300000	-0.104287	-62.057371	-40.303395	-150.301242	-40.303395	-150.301242	-0.104325	-62.055087
4.350000	-0.100673	-62.837080	-42.069960	-155.051951	-42.069960	-155.051951	-0.100696	-62.835114
4.400000	-0.099291	-63.582096	-43.473810	-159.253768	-43.473810	-159.253768	-0.099307	-63.580341
4.450000	-0.098996	-64.306161	-44.619671	-163.162106	-44.619671	-163.162106	-0.099007	-64.304554
4.500000	-0.099290	-65.016703	-45.578617	-166.904754	-45.578617	-166.904754	-0.099298	-65.015206
4.550000	-0.099921	-65.718273	-46.406812	-170.551433	-46.406812	-170.551433	-0.099927	-65.716859
4.600000	-0.100813	-66.411898	-47.096360	-174.123853	-47.096360	-174.123853	-0.100817	-66.410548
4.650000	-0.101852	-67.100438	-47.700856	-177.653550	-47.700856	-177.653550	-0.101855	-67.099138
4.700000	-0.103020	-67.784041	-48.211936	178.856846	-48.211936	178.856846	-0.103023	-67.782782
4.750000	-0.104289	-68.463399	-48.640730	175.404068	-48.640730	175.404068	-0.104290	-68.462170
4.800000	-0.105608	-69.140465	-49.031858	171.973446	-49.031858	171.973446	-0.105609	-69.139262
4.850000	-0.106999	-69.814078	-49.353772	168.580583	-49.353772	168.580583	-0.107000	-69.812896
4.900000	-0.108446	-70.484906	-49.623668	165.226840	-49.623668	165.226840	-0.108446	-70.483741
4.950000	-0.109931	-71.153699	-49.857388	161.906424	-49.857388	161.906424	-0.109931	-71.152546
5.000000	-0.111452	-71.820542	-50.055860	158.620814	-50.055860	158.620814	-0.111452	-71.819400
5.050000	-0.113033	-72.484135	-50.197224	155.407702	-50.197224	155.407702	-0.113032	-72.483000
5.100000	-0.114630	-73.146851	-50.326365	152.218234	-50.326365	152.218234	-0.114629	-73.145722
5.150000	-0.116270	-73.807124	-50.416353	149.094718	-50.416353	149.094718	-0.116270	-73.805998
5.200000	-0.117941	-74.465764	-50.483607	146.022520	-50.483607	146.022520	-0.117940	-74.464640
5.250000	-0.119638	-75.122944	-50.530091	142.996239	-50.530091	142.996239	-0.119637	-75.121820
5.300000	-0.121378	-75.777809	-50.547728	140.051005	-50.547728	140.051005	-0.121377	-75.776685
5.350000	-0.123132	-76.431911	-50.556059	137.132937	-50.556059	137.132937	-0.123131	-76.430785
5.400000	-0.124937	-77.083377	-50.535784	134.314105	-50.535784	134.314105	-0.124935	-77.082247
5.450000	-0.126758	-77.733985	-50.507503	131.529024	-50.507503	131.529024	-0.126756	-77.732851
5.500000	-0.128615	-78.382765	-50.462239	128.815845	-50.462239	128.815845	-0.128613	-78.381626
5.550000	-0.130503	-79.030029	-50.404938	126.163652	-50.404938	126.163652	-0.130501	-79.028884
5.600000	-0.132413	-79.676211	-50.339315	123.555020	-50.339315	123.555020	-0.132411	-79.675060
5.650000	-0.134369	-80.320255	-50.259264	121.032999	-50.259264	121.032999	-0.134367	-80.319096
5.700000	-0.136339	-80.963642	-50.175623	118.537610	-50.175623	118.537610	-0.136337	-80.962475
5.750000	-0.138357	-81.604845	-50.079646	116.130344	-50.079646	116.130344	-0.138355	-81.603669
5.800000	-0.140396	-82.245150	-49.980006	113.758953	-49.980006	113.758953	-0.140393	-82.243964
5.850000	-0.142469	-82.883959	-49.873737	111.447356	-49.873737	111.447356	-0.142467	-82.882762
5.900000	-0.144579	-83.521274	-49.761995	109.194636	-49.761995	109.194636	-0.144577	-83.520067
5.950000	-0.146709	-84.157746	-49.647903	106.975195	-49.647903	106.975195	-0.146707	-84.156527
6.000000	-0.148892	-84.792160	-49.527262	104.835992	-49.527262	104.835992	-0.148889	-84.790928
6.050000	-0.151091	-85.425981	-49.406163	102.719775	-49.406163	102.719775	-0.151088	-85.424736
6.100000	-0.153339	-86.057948	-49.280521	100.675285	-49.280521	100.675285	-0.153336	-86.056689
6.150000	-0.155614	-86.688982	-49.153960	98.666939	-49.153960	98.666939	-0.155611	-86.687708
6.200000	-0.157924	-87.318782	-49.025684	96.706394	-49.025684	96.706394	-0.157921	-87.317492
6.250000	-0.160278	-87.947119	-48.895672	94.803278	-48.895672	94.803278	-0.160276	-87.945811
6.300000	-0.162653	-88.574811	-48.766015	92.925431	-48.766015	92.925431	-0.162650	-88.573486
6.350000	-0.165090	-89.200544	-48.634230	91.126684	-48.634230	91.126684	-0.165087	-89.199200
6.400000	-0.167544	-89.825796	-48.503555	89.348090	-48.503555	89.348090	-0.167541	-89.824431
6.450000	-0.170047	-90.449660	-48.372450	87.627994	-48.372450	87.627994	-0.170044	-90.448275
6.500000	-0.172596	-91.072248	-48.241482	85.965079	-48.241482	85.965079	-0.172593	-91.070840
6.550000	-0.175182	-91.693921	-48.111341	84.345292	-48.111341	84.345292	-0.175180	-91.692489
6.600000	-0.177805	-92.314694	-47.982113	82.769298	-47.982113	82.769298	-0.177802	-92.313236
6.650000	-0.180487	-92.934123	-47.853583	81.264336	-47.853583	81.264336	-0.180484	-92.932637
6.700000	-0.183217	-93.552540	-47.726292	79.820263	-47.726292	79.820263	-0.183214	-93.551024
6.750000	-0.185973	-94.170450	-47.600524	78.406635	-47.600524	78.406635	-0.185970	-94.168904
6.800000	-0.188810	-94.786896	-47.476017	77.097888	-47.476017	77.097888	-0.188807	-94.785315
6.850000	-0.191672	-95.402955	-47.353188	75.822151	-47.353188	75.822151	-0.191669	-95.401338
6.900000	-0.194611	-96.017864	-47.231899	74.650740	-47.231899	74.650740	-0.194608	-96.016207
6.950000	-0.197598	-96.632203	-47.112221	73.549540	-47.112221	73.549540	-0.197595	-96.630502
7.000000	-0.200643	-97.245867	-46.994100	72.531317	-46.994100	72.531317	-0.200641	-97.244120
7.050000	-0.203775	-97.858802	-46.877171	71.647878	-46.877171	71.647878	-0.203772	-97.857002
7.100000	-0.206940	-98.471456	-46.761646	70.816278	-46.761646	70.816278	-0.206938	-98.469602
7.150000	-0.210243	-99.083421	-46.645764	70.215612	-46.645764	70.215612	-0.210240	-99.081503
7.200000	-0.213590	-99.695310	-46.530098	69.693836	-46.530098	69.693836	-0.213588	-99.693324
7.250000	-0.217065	-100.306997	-46.412154	69.398974	-46.412154	69.398974	-0.217062	-100.304934
7.300000	-0.220650	-100.918863	-46.289632	69.310559	-46.289632	69.310559	-0.220647	-100.916713
7.350000	-0.224340	-101.530898	-46.163076	69.417432	-46.163076	69.417432	-0.224337	-101.528652
7.400000	-0.228190	-102.143561	-46.025223	69.825247	-46.025223	69.825247	-0.228186	-102.141205
7.450000	-0.232249	-102.757314	-45.867859	70.623615	-45.867859	70.623615	-0.232245	-102.754831
7.500000	-0.236570	-103.372770	-45.678812	71.883867	-45.678812	71.883867	-0.236564	-103.370137
7.550000	-0.241206	-103.990565	-45.443391	73.659809	-45.443391	73.659809	-0.241198	-103.987754
7.600000	-0.246266	-104.611692	-45.137041	76.040502	-45.137041	76.040502	-0.246255	-104.608669
7.650000	-0.251914	-105.237558	-44.723460	79.108612	-44.723460	79.108612	-0.251898	-105.234275
7.700000	-0.258417	-105.870208	-44.150363	82.912258	-44.150363	82.912258	-0.258394	-105.866601
7.750000	-0.266219	-106.512615	-43.348369	87.408125	-43.348369	87.408125	-0.266185	-106.508594
7.800000	-0.276370	-107.170900	-42.184658	92.408162	-42.184658	92.408162	-0.276315	-107.166318
7.850000	-0.290721	-107.852892	-40.543526	97.296869	-40.543526	97.296869	-0.290624	-107.847524
7.900000	-0.313933	-108.571898	-38.255154	100.923745	-38.255154	100.923745	-0.313751	-108.565367
7.950000	-0.358885	-109.337865	-35.118138	101.004870	-35.118138	101.004870	-0.358492	-109.329553
8.000000	-0.464716	-110.036120	-30.959138	91.947718	-30.959138	91.947718	-0.463705	-110.025623
8.050000	-0.631524	-109.547314	-27.016987	60.369410	-27.016987	60.369410	-0.629140	-109.540994
8.100000	-0.460647	-108.758353	-28.025623	19.269805	-28.025623	19.269805	-0.458796	-108.763385
8.150000	-0.331598	-109.641158	-31.006114	1.221147	-31.006114	1.221147	-0.330716	-109.646673
8.200000	-0.295424	-110.545827	-33.222466	-5.328648	-33.222466	-5.328648	-0.294931	-110.549932
8.250000	-0.285235	-111.330959	-34.747421	-8.034505	-34.747421	-8.034505	-0.284914	-111.333951
8.300000	-0.283330	-112.044002	-35.818343	-9.317335	-35.818343	-9.317335	-0.283097	-112.046201
8.350000	-0.284649	-112.714629	-36.582380	-10.043545	-36.582380	-10.043545	-0.284467	-112.716251
8.400000	-0.287320	-113.360795	-37.152861	-10.583333	-37.152861	-10.583333	-0.287171	-113.361974
8.450000	-0.290703	-113.990299	-37.579379	-11.077052	-37.579379	-11.077052	-0.290576	-113.991125
8.500000	-0.294475	-114.608313	-37.901145	-11.593493	-37.901145	-11.593493	-0.294363	-114.608850
8.550000	-0.298485	-115.217787	-38.142232	-12.165069	-38.142232	-12.165069	-0.298384	-115.218081
8.600000	-0.302635	-115.821378	-38.327285	-12.796291	-38.327285	-12.796291	-0.302542	-115.821459
8.650000	-0.306890	-116.420101	-38.465643	-13.492538	-38.465643	-13.492538	-0.306804	-116.419994
8.700000	-0.311225	-117.014944	-38.567213	-14.251530	-38.567213	-14.251530	-0.311143	-117.014667
8.750000	-0.315623	-117.606621	-38.639383	-15.069013	-38.639383	-15.069013	-0.315544	-117.606187
8.800000	-0.320103	-118.194401	-38.676853	-15.967175	-38.676853	-15.967175	-0.320026	-118.193826
8.850000	-0.324585	-118.782182	-38.714484	-16.865337	-38.714484	-16.865337	-0.324511	-118.781465
8.900000	-0.329155	-119.366287	-38.721650	-17.846118	-38.721650	-17.846118	-0.329081	-119.365438
8.950000	-0.333735	-119.950058	-38.726040	-18.834411	-38.726040	-18.834411	-0.333661	-119.949079
9.000000	-0.338389	-120.531267	-38.711373	-19.882811	-38.711373	-19.882811	-0.338315	-120.530162
9.050000	-0.343060	-121.111963	-38.692929	-20.943233	-38.692929	-20.943233	-0.342986	-121.110734
9.100000	-0.347797	-121.690815	-38.662283	-22.047002	-38.662283	-22.047002	-0.347722	-121.689463
9.150000	-0.352559	-122.269052	-38.627683	-23.165221	-38.627683	-23.165221	-0.352483	-122.267576
9.200000	-0.357380	-122.845936	-38.585185	-24.314535	-38.585185	-24.314535	-0.357302	-122.844336
9.250000	-0.362232	-123.422144	-38.538899	-25.479398	-38.538899	-25.479398	-0.362152	-123.420420
9.300000	-0.367137	-123.997356	-38.487514	-26.666434	-38.487514	-26.666434	-0.367055	-123.995505
9.350000	-0.372082	-124.571856	-38.432640	-27.869308	-38.432640	-27.869308	-0.371996	-124.569876
9.400000	-0.377072	-125.145628	-38.374545	-29.087843	-38.374545	-29.087843	-0.376984	-125.143517
9.450000	-0.382109	-125.718671	-38.313296	-30.322038	-38.313296	-30.322038	-0.382017	-125.716426
9.500000	-0.387186	-126.291193	-38.250116	-31.567114	-38.250116	-31.567114	-0.387090	-126.288810
9.550000	-0.392317	-126.862985	-38.184114	-32.827421	-38.184114	-32.827421	-0.392217	-126.860461
9.600000	-0.397481	-127.434418	-38.117086	-34.095073	-38.117086	-34.095073	-0.397376	-127.431750
9.650000	-0.402706	-128.005135	-38.047548	-35.377417	-38.047548	-35.377417	-0.402597	-128.002316
9.700000	-0.407957	-128.575621	-37.977629	-36.664467	-37.977629	-36.664467	-0.407843	-128.572650
9.750000	-0.413278	-129.145416	-37.905489	-37.965640	-37.905489	-37.965640	-0.413158	-129.142285
9.800000	-0.418617	-129.715082	-37.833428	-39.269530	-37.833428	-39.269530	-0.418491	-129.711789
9.850000	-0.424034	-130.284097	-37.759414	-40.586999	-37.759414	-40.586999	-0.423900	-130.280633
9.900000	-0.429461	-130.853058	-37.685811	-41.905659	-37.685811	-41.905659	-0.429320	-130.849421
9.950000	-0.434973	-131.421423	-37.610503	-43.237415	-37.610503	-43.237415	-0.434824	-131.417603
10.000000	-0.440488	-131.989788	-37.535842	-44.569171	-37.535842	-44.569171	-0.440332	-131.985784
