! freq	dB(S11)	phase(S11)	dB(S12)	phase(S12)	
!     	dB(S21)	phase(S21)	dB(S22)	phase(S22)	
!S-par simulation data
#  GHz  S  DB  R 50
0.000000	-0.000000	0.000000	-350.743141	0.000000	-350.743141	0.000000	-0.000000	0.000000
0.050000	-0.002253	-3.687173	-80.744062	86.889811	-80.744062	86.889811	-0.001512	-2.499825
0.100000	-0.007924	-7.357998	-74.743374	83.879002	-74.743374	83.879002	-0.005314	-4.989317
0.150000	-0.014990	-11.006060	-71.262205	80.865191	-71.262205	80.865191	-0.010043	-7.464892
0.200000	-0.021982	-14.634388	-68.819717	77.858232	-68.819717	77.858232	-0.014722	-9.929159
0.250000	-0.028315	-18.245654	-66.954680	74.865784	-66.954680	74.865784	-0.018967	-12.384570
0.300000	-0.033890	-21.841480	-65.461468	71.894009	-65.461468	71.894009	-0.022719	-14.832817
0.350000	-0.038840	-25.422341	-64.228508	68.947321	-64.228508	68.947321	-0.026071	-17.274626
0.400000	-0.043296	-28.986991	-63.190520	66.030723	-63.190520	66.030723	-0.029116	-19.709662
0.450000	-0.047370	-32.532829	-62.307284	63.150901	-62.307284	63.150901	-0.031930	-22.136857
0.500000	-0.051181	-36.058823	-61.547490	60.311167	-61.547490	60.311167	-0.034594	-24.555705
0.550000	-0.054799	-39.563083	-60.890569	57.516578	-60.890569	57.516578	-0.037154	-26.965297
0.600000	-0.058271	-43.042605	-60.323411	54.775029	-60.323411	54.775029	-0.039645	-29.364211
0.650000	-0.061640	-46.496479	-59.832779	52.090490	-59.832779	52.090490	-0.042094	-31.751905
0.700000	-0.064932	-49.923430	-59.409231	49.468207	-59.409231	49.468207	-0.044519	-34.127669
0.750000	-0.068164	-53.321170	-59.046918	46.916589	-59.046918	46.916589	-0.046930	-36.490320
0.800000	-0.071344	-56.688467	-58.739873	44.442436	-58.739873	44.442436	-0.049335	-38.839126
0.850000	-0.074482	-60.025358	-58.481812	42.049926	-58.481812	42.049926	-0.051737	-41.173921
0.900000	-0.077577	-63.329596	-58.270398	39.750319	-58.270398	39.750319	-0.054137	-43.493472
0.950000	-0.080628	-66.599642	-58.102922	37.554669	-58.102922	37.554669	-0.056533	-45.796828
1.000000	-0.083637	-69.836990	-57.973949	35.465443	-57.973949	35.465443	-0.058924	-48.084479
1.050000	-0.086598	-73.040112	-57.882008	33.495647	-57.882008	33.495647	-0.061307	-50.355463
1.100000	-0.089509	-76.208590	-57.824711	31.656246	-57.824711	31.656246	-0.063679	-52.609328
1.150000	-0.092365	-79.342132	-57.799819	29.959257	-57.799819	29.959257	-0.066034	-54.845671
1.200000	-0.095162	-82.440556	-57.805154	28.417858	-57.805154	28.417858	-0.068370	-57.064132
1.250000	-0.097897	-85.503787	-57.838508	27.046470	-57.838508	27.046470	-0.070682	-59.264394
1.300000	-0.100565	-88.531085	-57.898041	25.865248	-57.898041	25.865248	-0.072966	-61.445773
1.350000	-0.103165	-91.523337	-57.980563	24.887583	-57.980563	24.887583	-0.075220	-63.608432
1.400000	-0.105695	-94.480746	-58.083144	24.131677	-58.083144	24.131677	-0.077439	-65.752176
1.450000	-0.108151	-97.403591	-58.202370	23.616517	-58.202370	23.616517	-0.079622	-67.876847
1.500000	-0.110535	-100.292220	-58.334207	23.361296	-58.334207	23.361296	-0.081766	-69.982322
1.550000	-0.112844	-103.147042	-58.473849	23.384463	-58.473849	23.384463	-0.083869	-72.068512
1.600000	-0.115079	-105.968521	-58.615592	23.702343	-58.615592	23.702343	-0.085929	-74.135358
1.650000	-0.117241	-108.757172	-58.752746	24.327221	-58.752746	24.327221	-0.087945	-76.182833
1.700000	-0.119330	-111.513551	-58.877632	25.264907	-58.877632	25.264907	-0.089917	-78.210938
1.750000	-0.121348	-114.238251	-58.981717	26.511907	-58.981717	26.511907	-0.091843	-80.219702
1.800000	-0.123297	-116.931900	-59.055931	28.052523	-59.055931	28.052523	-0.093725	-82.209178
1.850000	-0.125179	-119.595150	-59.091205	29.856456	-59.091205	29.856456	-0.095562	-84.179443
1.900000	-0.126996	-122.228363	-59.078616	31.879346	-59.078616	31.879346	-0.097354	-86.130390
1.950000	-0.128750	-124.832258	-59.011253	34.057813	-59.011253	34.057813	-0.099102	-88.062145
2.000000	-0.130446	-127.407868	-58.885432	36.316652	-58.885432	36.316652	-0.100809	-89.975056
2.050000	-0.132088	-129.955915	-58.699923	38.577803	-58.699923	38.577803	-0.102474	-91.869282
2.100000	-0.133677	-132.477126	-58.456586	40.764836	-58.456586	40.764836	-0.104101	-93.744997
2.150000	-0.135218	-134.972234	-58.160043	42.809442	-58.160043	42.809442	-0.105690	-95.602393
2.200000	-0.136714	-137.441976	-57.817003	44.656242	-57.817003	44.656242	-0.107244	-97.441673
2.250000	-0.138169	-139.887086	-57.435416	46.265239	-57.435416	46.265239	-0.108764	-99.263053
2.300000	-0.139587	-142.308296	-57.023647	47.611925	-57.023647	47.611925	-0.110253	-101.066761
2.350000	-0.140971	-144.706333	-56.589796	48.685616	-56.589796	48.685616	-0.111714	-102.853037
2.400000	-0.142324	-147.081921	-56.141240	49.486796	-56.141240	49.486796	-0.113148	-104.622127
2.450000	-0.143650	-149.435772	-55.684384	50.024180	-55.684384	50.024180	-0.114557	-106.374288
2.500000	-0.144952	-151.768592	-55.224575	50.311982	-55.224575	50.311982	-0.115945	-108.109783
2.550000	-0.146233	-154.080651	-54.765725	50.363040	-54.765725	50.363040	-0.117313	-109.828533
2.600000	-0.147497	-156.373089	-54.311791	50.201777	-54.311791	50.201777	-0.118665	-111.531176
2.650000	-0.148746	-158.646576	-53.865348	49.847367	-53.865348	49.847367	-0.120002	-113.217993
2.700000	-0.149984	-160.901773	-53.428313	49.318406	-53.428313	49.318406	-0.121327	-114.889270
2.750000	-0.151213	-163.139324	-53.002071	48.632446	-53.002071	48.632446	-0.122643	-116.545295
2.800000	-0.152435	-165.359861	-52.587582	47.805750	-52.587582	47.805750	-0.123952	-118.186361
2.850000	-0.153652	-167.564000	-52.185476	46.853194	-52.185476	46.853194	-0.125255	-119.812760
2.900000	-0.154868	-169.752344	-51.796127	45.788264	-51.796127	45.788264	-0.126556	-121.424789
2.950000	-0.156083	-171.925482	-51.419713	44.623114	-51.419713	44.623114	-0.127857	-123.022744
3.000000	-0.157300	-174.083985	-51.056265	43.368649	-51.056265	43.368649	-0.129159	-124.606923
3.050000	-0.158519	-176.228411	-50.705704	42.034638	-50.705704	42.034638	-0.130465	-126.177625
3.100000	-0.159744	-178.359302	-50.367866	40.629811	-50.367866	40.629811	-0.131777	-127.735147
3.150000	-0.160973	179.522951	-50.042540	39.161368	-50.042540	39.161368	-0.133096	-129.279650
3.200000	-0.162210	177.417820	-49.729483	37.636498	-49.729483	37.636498	-0.134424	-130.811441
3.250000	-0.163454	175.324668	-49.428402	36.062077	-49.428402	36.062077	-0.135764	-132.330955
3.300000	-0.164706	173.243016	-49.138984	34.443650	-49.138984	34.443650	-0.137116	-133.838487
3.350000	-0.165967	171.172401	-48.860909	32.786186	-48.860909	32.786186	-0.138483	-135.334329
3.400000	-0.167238	169.112373	-48.593848	31.094143	-48.593848	31.094143	-0.139865	-136.818771
3.450000	-0.168518	167.062499	-48.337475	29.371523	-48.337475	29.371523	-0.141264	-138.292103
3.500000	-0.169807	165.022359	-48.091467	27.621924	-48.091467	27.621924	-0.142680	-139.754611
3.550000	-0.171106	162.991549	-47.855504	25.848580	-47.855504	25.848580	-0.144116	-141.206578
3.600000	-0.172414	160.969681	-47.629276	24.054399	-47.629276	24.054399	-0.145573	-142.648285
3.650000	-0.173731	158.956380	-47.412480	22.242001	-47.412480	22.242001	-0.147050	-144.080011
3.700000	-0.175057	156.951285	-47.204822	20.413740	-47.204822	20.413740	-0.148549	-145.502032
3.750000	-0.176391	154.954050	-47.006018	18.571736	-47.006018	18.571736	-0.150070	-146.914620
3.800000	-0.177733	152.964499	-46.815890	16.717676	-46.815890	16.717676	-0.151616	-148.317851
3.850000	-0.179081	150.982145	-46.634085	14.853559	-46.634085	14.853559	-0.153185	-149.712197
3.900000	-0.180435	149.006684	-46.460352	12.980909	-46.460352	12.980909	-0.154778	-151.097920
3.950000	-0.181795	147.037826	-46.294449	11.101094	-46.294449	11.101094	-0.156395	-152.475280
4.000000	-0.183158	145.075294	-46.136149	9.215335	-46.136149	9.215335	-0.158038	-153.844532
4.050000	-0.184525	143.118826	-45.985232	7.324725	-45.985232	7.324725	-0.159705	-155.205930
4.100000	-0.185894	141.168171	-45.841495	5.430237	-45.841495	5.430237	-0.161396	-156.559722
4.150000	-0.187263	139.223091	-45.704743	3.532735	-45.704743	3.532735	-0.163113	-157.906154
4.200000	-0.188633	137.283362	-45.574794	1.632987	-45.574794	1.632987	-0.164854	-159.245468
4.250000	-0.190001	135.348772	-45.451478	-0.268330	-45.451478	-0.268330	-0.166620	-160.577902
4.300000	-0.191367	133.419120	-45.334635	-2.170618	-45.334635	-2.170618	-0.168410	-161.903691
4.350000	-0.192729	131.494220	-45.224118	-4.073351	-45.224118	-4.073351	-0.170224	-163.223067
4.400000	-0.194085	129.573942	-45.119844	-5.976063	-45.119844	-5.976063	-0.172062	-164.536193
4.450000	-0.195436	127.658117	-45.021691	-7.878337	-45.021691	-7.878337	-0.173923	-165.843299
4.500000	-0.196778	125.746545	-44.929491	-9.779824	-44.929491	-9.779824	-0.175807	-167.144675
4.550000	-0.198112	123.839085	-44.843143	-11.680216	-44.843143	-11.680216	-0.177713	-168.440537
4.600000	-0.199436	121.935607	-44.762558	-13.579243	-44.762558	-13.579243	-0.179641	-169.731099
4.650000	-0.200749	120.035995	-44.687654	-15.476666	-44.687654	-15.476666	-0.181589	-171.016570
4.700000	-0.202049	118.140139	-44.618364	-17.372272	-44.618364	-17.372272	-0.183559	-172.297157
4.750000	-0.203336	116.247945	-44.554629	-19.265867	-44.554629	-19.265867	-0.185547	-173.573064
4.800000	-0.204608	114.359325	-44.496403	-21.157273	-44.496403	-21.157273	-0.187556	-174.844491
4.850000	-0.205865	112.474204	-44.443649	-23.046323	-44.443649	-23.046323	-0.189582	-176.111634
4.900000	-0.207106	110.592516	-44.396339	-24.932851	-44.396339	-24.932851	-0.191627	-177.374688
4.950000	-0.208329	108.714205	-44.354458	-26.816696	-44.354458	-26.816696	-0.193688	-178.633843
5.000000	-0.209534	106.839223	-44.317999	-28.697690	-44.317999	-28.697690	-0.195767	-179.889287
5.050000	-0.210719	104.967606	-44.287080	-30.575587	-44.287080	-30.575587	-0.197862	178.858869
5.100000	-0.211885	103.099252	-44.261601	-32.450259	-44.261601	-32.450259	-0.199972	177.610361
5.150000	-0.213031	101.234144	-44.241583	-34.321499	-44.241583	-34.321499	-0.202097	176.365011
5.200000	-0.214155	99.372271	-44.227057	-36.189077	-44.227057	-36.189077	-0.204236	175.122643
5.250000	-0.215259	97.513632	-44.218062	-38.052740	-44.218062	-38.052740	-0.206389	173.883083
5.300000	-0.216341	95.658235	-44.214646	-39.912204	-44.214646	-39.912204	-0.208555	172.646160
5.350000	-0.217402	93.806092	-44.216865	-41.767155	-44.216865	-41.767155	-0.210734	171.411706
5.400000	-0.218440	91.957227	-44.224783	-43.617240	-44.224783	-43.617240	-0.212925	170.179555
5.450000	-0.219457	90.111669	-44.238471	-45.462069	-44.238471	-45.462069	-0.215127	168.949542
5.500000	-0.220452	88.269455	-44.258008	-47.301207	-44.258008	-47.301207	-0.217341	167.721507
5.550000	-0.221426	86.430628	-44.283481	-49.134175	-44.283481	-49.134175	-0.219566	166.495290
5.600000	-0.222378	84.595238	-44.314984	-50.960441	-44.314984	-50.960441	-0.221802	165.270733
5.650000	-0.223309	82.763379	-44.352681	-52.779339	-44.352681	-52.779339	-0.224048	164.047697
5.700000	-0.224220	80.935117	-44.396683	-54.590207	-44.396683	-54.590207	-0.226303	162.826022
5.750000	-0.225110	79.110482	-44.447036	-56.392422	-44.447036	-56.392422	-0.228568	161.605542
5.800000	-0.225983	77.289546	-44.503860	-58.185220	-44.503860	-58.185220	-0.230842	160.386108
5.850000	-0.226837	75.472388	-44.567282	-59.967774	-44.567282	-59.967774	-0.233125	159.167571
5.900000	-0.227673	73.659092	-44.637433	-61.739183	-44.637433	-61.739183	-0.235416	157.949786
5.950000	-0.228494	71.849744	-44.714452	-63.498476	-44.714452	-63.498476	-0.237715	156.732611
6.000000	-0.229300	70.044435	-44.798483	-65.244604	-44.798483	-65.244604	-0.240022	155.515901
6.050000	-0.230093	68.243262	-44.889677	-66.976435	-44.889677	-66.976435	-0.242336	154.299518
6.100000	-0.230874	66.446322	-44.988194	-68.692751	-44.988194	-68.692751	-0.244657	153.083323
6.150000	-0.231644	64.653716	-45.094197	-70.392241	-45.094197	-70.392241	-0.246985	151.867178
6.200000	-0.232404	62.865549	-45.207859	-72.073496	-45.207859	-72.073496	-0.249318	150.650949
6.250000	-0.233158	61.081927	-45.329359	-73.734997	-45.329359	-73.734997	-0.251658	149.434501
6.300000	-0.233906	59.303114	-45.459089	-75.374364	-45.459089	-75.374364	-0.254003	148.217688
6.350000	-0.234650	57.529072	-45.597039	-76.990457	-45.597039	-76.990457	-0.256353	147.000385
6.400000	-0.235393	55.759914	-45.743414	-78.581364	-45.743414	-78.581364	-0.258707	145.782465
6.450000	-0.236136	53.995751	-45.898431	-80.145017	-45.898431	-80.145017	-0.261065	144.563800
6.500000	-0.236881	52.236697	-46.062314	-81.679177	-46.062314	-81.679177	-0.263426	143.344264
6.550000	-0.237632	50.482866	-46.235303	-83.181412	-46.235303	-83.181412	-0.265790	142.123735
6.600000	-0.238389	48.734371	-46.417647	-84.649077	-46.417647	-84.649077	-0.268157	140.902089
6.650000	-0.239155	46.991326	-46.609611	-86.079282	-46.609611	-86.079282	-0.270525	139.679208
6.700000	-0.239933	45.253843	-46.811473	-87.468859	-46.811473	-87.468859	-0.272894	138.454972
6.750000	-0.240725	43.522035	-47.023526	-88.814327	-47.023526	-88.814327	-0.275264	137.229264
6.800000	-0.241533	41.796012	-47.246079	-90.111841	-47.246079	-90.111841	-0.277633	136.001970
6.850000	-0.242360	40.075883	-47.479453	-91.357141	-47.479453	-91.357141	-0.280002	134.772975
6.900000	-0.243209	38.361756	-47.723987	-92.545488	-47.723987	-92.545488	-0.282368	133.542168
6.950000	-0.244081	36.653736	-47.980032	-93.671585	-47.980032	-93.671585	-0.284733	132.309439
7.000000	-0.244980	34.951926	-48.247949	-94.729493	-48.247949	-94.729493	-0.287095	131.074680
7.050000	-0.245907	33.256426	-48.528107	-95.712522	-48.528107	-95.712522	-0.289452	129.837785
7.100000	-0.246866	31.567334	-48.820873	-96.613110	-48.820873	-96.613110	-0.291806	128.598650
7.150000	-0.247860	29.884744	-49.126606	-97.422678	-49.126606	-97.422678	-0.294154	127.357171
7.200000	-0.248890	28.208746	-49.445644	-98.131465	-49.445644	-98.131465	-0.296496	126.113249
7.250000	-0.249959	26.539430	-49.778279	-98.728330	-49.778279	-98.728330	-0.298832	124.866786
7.300000	-0.251070	24.876877	-50.124737	-99.200537	-50.124737	-99.200537	-0.301160	123.617684
7.350000	-0.252226	23.221168	-50.485134	-99.533502	-50.485134	-99.533502	-0.303480	122.365850
7.400000	-0.253429	21.572377	-50.859427	-99.710526	-50.859427	-99.710526	-0.305790	121.111191
7.450000	-0.254681	19.930576	-51.247343	-99.712513	-51.247343	-99.712513	-0.308092	119.853617
7.500000	-0.255985	18.295831	-51.648277	-99.517694	-51.648277	-99.517694	-0.310383	118.593041
7.550000	-0.257346	16.668514	-52.060730	-99.090453	-52.060730	-99.090453	-0.312662	117.329239
7.600000	-0.258764	15.048375	-52.483135	-98.411266	-52.483135	-98.411266	-0.314930	116.062258
7.650000	-0.260242	13.435464	-52.912835	-97.449255	-52.912835	-97.449255	-0.317185	114.792017
7.700000	-0.261781	11.829826	-53.346015	-96.171404	-53.346015	-96.171404	-0.319427	113.518440
7.750000	-0.263385	10.231500	-53.777383	-94.543936	-53.777383	-94.543936	-0.321656	112.241450
7.800000	-0.265056	8.640519	-54.199833	-92.534751	-54.199833	-92.534751	-0.323871	110.960975
7.850000	-0.266795	7.056911	-54.604156	-90.117252	-54.604156	-90.117252	-0.326072	109.676943
7.900000	-0.268606	5.480698	-54.978921	-87.275758	-54.978921	-87.275758	-0.328257	108.389288
7.950000	-0.270490	3.911895	-55.310679	-84.012282	-55.310679	-84.012282	-0.330428	107.097944
8.000000	-0.272449	2.350511	-55.584691	-80.353680	-55.584691	-80.353680	-0.332582	105.802850
8.050000	-0.274487	0.796549	-55.786283	-76.357233	-55.786283	-76.357233	-0.334721	104.503946
8.100000	-0.276604	-0.749994	-55.902754	-72.112063	-55.902754	-72.112063	-0.336845	103.201177
8.150000	-0.278802	-2.289131	-55.925466	-67.734192	-55.925466	-67.734192	-0.338952	101.894489
8.200000	-0.281085	-3.820877	-55.851471	-63.354925	-55.851471	-63.354925	-0.341043	100.583831
8.250000	-0.283454	-5.345258	-55.684112	-59.104978	-55.684112	-59.104978	-0.343118	99.269159
8.300000	-0.285911	-6.862305	-55.432332	-55.098768	-55.432332	-55.098768	-0.345178	97.950427
8.350000	-0.288455	-8.372268	-55.110974	-51.411564	-55.110974	-51.411564	-0.347222	96.627716
8.400000	-0.291095	-9.874674	-54.729513	-48.126619	-54.729513	-48.126619	-0.349251	95.300694
8.450000	-0.293828	-11.369999	-54.306828	-45.246592	-54.306828	-45.246592	-0.351265	93.969568
8.500000	-0.296655	-12.858302	-53.855719	-42.771590	-53.855719	-42.771590	-0.353265	92.634310
8.550000	-0.299579	-14.339650	-53.387013	-40.685913	-53.387013	-40.685913	-0.355252	91.294894
8.600000	-0.302613	-15.813365	-52.906261	-39.000818	-52.906261	-39.000818	-0.357226	89.950836
8.650000	-0.305748	-17.280257	-52.424211	-37.644462	-52.424211	-37.644462	-0.359188	88.602552
8.700000	-0.308986	-18.740460	-51.945782	-36.582630	-51.945782	-36.582630	-0.361139	87.250055
8.750000	-0.312330	-20.194073	-51.474340	-35.784404	-51.474340	-35.784404	-0.363082	85.893335
8.800000	-0.315780	-21.641204	-51.012203	-35.221002	-51.012203	-35.221002	-0.365016	84.532387
8.850000	-0.319341	-23.081971	-50.560894	-34.866276	-50.560894	-34.866276	-0.366944	83.167208
8.900000	-0.323019	-24.516238	-50.120948	-34.703879	-50.120948	-34.703879	-0.368867	81.797619
8.950000	-0.326820	-25.943972	-49.692787	-34.715612	-49.692787	-34.715612	-0.370786	80.423499
9.000000	-0.330739	-27.365779	-49.277324	-34.870669	-49.277324	-34.870669	-0.372705	79.045169
9.050000	-0.334779	-28.781816	-48.874477	-35.153821	-48.874477	-35.153821	-0.374624	77.662644
9.100000	-0.338943	-30.192249	-48.484030	-35.551798	-48.484030	-35.551798	-0.376546	76.275945
9.150000	-0.343233	-31.597256	-48.105680	-36.053057	-48.105680	-36.053057	-0.378474	74.885095
9.200000	-0.347655	-32.997027	-47.739070	-36.647551	-47.739070	-36.647551	-0.380410	73.490122
9.250000	-0.352223	-34.391318	-47.383531	-37.333596	-47.383531	-37.333596	-0.382357	72.090686
9.300000	-0.356934	-35.780709	-47.038967	-38.097158	-47.038967	-38.097158	-0.384318	70.687104
9.350000	-0.361789	-37.165553	-46.705057	-38.929781	-46.705057	-38.929781	-0.386296	69.279520
9.400000	-0.366792	-38.546091	-46.381407	-39.825851	-46.381407	-39.825851	-0.388293	67.867981
9.450000	-0.371950	-39.922581	-46.067642	-40.780438	-46.067642	-40.780438	-0.390314	66.452537
9.500000	-0.377267	-41.295295	-45.763411	-41.789204	-45.763411	-41.789204	-0.392361	65.033247
9.550000	-0.382755	-42.664443	-45.468363	-42.849464	-45.468363	-42.849464	-0.394439	63.610078
9.600000	-0.388432	-44.030158	-45.182181	-43.960594	-45.182181	-43.960594	-0.396554	62.182856
9.650000	-0.394293	-45.393083	-44.904679	-45.115100	-44.904679	-45.115100	-0.398707	60.751998
9.700000	-0.400344	-46.753565	-44.635602	-46.310357	-44.635602	-46.310357	-0.400903	59.317581
9.750000	-0.406586	-48.112056	-44.374699	-47.542225	-44.374699	-47.542225	-0.403144	57.879853
9.800000	-0.413056	-49.468726	-44.121810	-48.813237	-44.121810	-48.813237	-0.405439	56.438461
9.850000	-0.419754	-50.824121	-43.876750	-50.119151	-43.876750	-50.119151	-0.407791	54.993703
9.900000	-0.426685	-52.178742	-43.639332	-51.456804	-43.639332	-51.456804	-0.410203	53.545806
9.950000	-0.433887	-53.533028	-43.409534	-52.827546	-43.409534	-52.827546	-0.412685	52.094567
10.000000	-0.441336	-54.887500	-43.187021	-54.225104	-43.187021	-54.225104	-0.415232	50.640569
