! freq	dB(S11)	phase(S11)	dB(S12)	phase(S12)	
!     	dB(S21)	phase(S21)	dB(S22)	phase(S22)	
!S-par simulation data
#  GHz  S  DB  R 50
0.000000	-0.000000	0.000000	-346.568345	0.000000	-346.568345	0.000000	-0.000000	0.000000
0.050000	-0.001809	-2.571872	-99.695757	87.113602	-99.695757	87.113602	-0.000515	-0.806133
0.100000	-0.005847	-5.128554	-93.791411	86.605150	-93.791411	86.605150	-0.001733	-1.608494
0.150000	-0.010151	-7.669832	-90.369525	85.138847	-90.369525	85.138847	-0.003120	-2.406749
0.200000	-0.014045	-10.201865	-87.962856	83.532308	-87.962856	83.532308	-0.004417	-3.202572
0.250000	-0.017499	-12.727541	-86.128013	81.918164	-86.128013	81.918164	-0.005564	-3.997091
0.300000	-0.020701	-15.248319	-84.664868	80.334190	-84.664868	80.334190	-0.006598	-4.791077
0.350000	-0.023787	-17.764374	-83.464460	78.792146	-83.464460	78.792146	-0.007562	-5.584803
0.400000	-0.026832	-20.275264	-82.463095	77.300451	-82.463095	77.300451	-0.008486	-6.378324
0.450000	-0.029876	-22.779816	-81.625270	75.872798	-81.625270	75.872798	-0.009394	-7.171588
0.500000	-0.032929	-25.277743	-80.918828	74.514339	-80.918828	74.514339	-0.010302	-7.964541
0.550000	-0.035992	-27.768451	-80.323864	73.234603	-80.323864	73.234603	-0.011220	-8.757113
0.600000	-0.039056	-30.251133	-79.827850	72.047604	-79.827850	72.047604	-0.012154	-9.549226
0.650000	-0.042111	-32.724697	-79.423911	70.974791	-79.423911	70.974791	-0.013110	-10.340781
0.700000	-0.045145	-35.189149	-79.099998	70.027356	-79.099998	70.027356	-0.014090	-11.131758
0.750000	-0.048152	-37.643964	-78.850545	69.226355	-78.850545	69.226355	-0.015098	-11.922107
0.800000	-0.051120	-40.088087	-78.674882	68.608073	-78.674882	68.608073	-0.016137	-12.711752
0.850000	-0.054045	-42.521196	-78.568608	68.205410	-78.568608	68.205410	-0.017214	-13.500670
0.900000	-0.056923	-44.942970	-78.528409	68.058370	-78.528409	68.058370	-0.018337	-14.288860
0.950000	-0.059750	-47.352901	-78.552464	68.222120	-78.552464	68.222120	-0.019521	-15.076343
1.000000	-0.062525	-49.750580	-78.638217	68.763993	-78.638217	68.763993	-0.020786	-15.863245
1.050000	-0.065247	-52.135624	-78.781941	69.767750	-78.781941	69.767750	-0.022155	-16.649911
1.100000	-0.067916	-54.507682	-78.977496	71.336272	-78.977496	71.336272	-0.023604	-17.437075
1.150000	-0.070533	-56.866435	-79.214440	73.592442	-79.214440	73.592442	-0.024953	-18.225565
1.200000	-0.073098	-59.211594	-79.475328	76.675000	-79.475328	76.675000	-0.025860	-19.014439
1.250000	-0.075613	-61.542899	-79.732255	80.723483	-79.732255	80.723483	-0.026329	-19.800505
1.300000	-0.078079	-63.859811	-79.941231	85.867301	-79.941231	85.867301	-0.026795	-20.582815
1.350000	-0.080498	-66.162434	-80.045983	92.086176	-80.045983	92.086176	-0.027452	-21.362955
1.400000	-0.082872	-68.450599	-79.983675	99.204737	-79.983675	99.204737	-0.028267	-22.141940
1.450000	-0.085202	-70.724169	-79.702805	106.836337	-79.702805	106.836337	-0.029176	-22.920109
1.500000	-0.087491	-72.983031	-79.184030	114.447728	-79.184030	114.447728	-0.030139	-23.697518
1.550000	-0.089739	-75.227103	-78.448993	121.515282	-78.448993	121.515282	-0.031131	-24.474141
1.600000	-0.091950	-77.456326	-77.549457	127.673392	-77.549457	127.673392	-0.032139	-25.249935
1.650000	-0.094123	-79.670668	-76.546263	132.765636	-76.546263	132.765636	-0.033155	-26.024859
1.700000	-0.096262	-81.870124	-75.492699	136.803289	-75.492699	136.803289	-0.034176	-26.798877
1.750000	-0.098367	-84.054708	-74.427830	139.891699	-74.427830	139.891699	-0.035199	-27.571959
1.800000	-0.100440	-86.224460	-73.376980	142.170077	-73.376980	142.170077	-0.036222	-28.344079
1.850000	-0.102482	-88.379441	-72.354987	143.776667	-72.354987	143.776667	-0.037245	-29.115214
1.900000	-0.104495	-90.519573	-71.368871	144.828778	-71.368871	144.828778	-0.038267	-29.885331
1.950000	-0.106481	-92.644962	-70.422242	145.431108	-70.422242	145.431108	-0.039288	-30.654411
2.000000	-0.108440	-94.755886	-69.516474	145.671174	-69.516474	145.671174	-0.040307	-31.422446
2.050000	-0.110376	-96.852485	-68.650622	145.614419	-68.650622	145.614419	-0.041327	-32.189421
2.100000	-0.112288	-98.934911	-67.822970	145.313178	-67.822970	145.313178	-0.042345	-32.955318
2.150000	-0.114179	-101.003335	-67.031438	144.809359	-67.031438	144.809359	-0.043364	-33.720121
2.200000	-0.116051	-103.057938	-66.273831	144.136647	-66.273831	144.136647	-0.044382	-34.483816
2.250000	-0.117904	-105.098918	-65.547965	143.322268	-65.547965	143.322268	-0.045401	-35.246386
2.300000	-0.119741	-107.126483	-64.851747	142.388360	-64.851747	142.388360	-0.046421	-36.007818
2.350000	-0.121563	-109.140853	-64.183208	141.353045	-64.183208	141.353045	-0.047442	-36.768097
2.400000	-0.123371	-111.142259	-63.540521	140.231255	-63.540521	140.231255	-0.048465	-37.527209
2.450000	-0.125168	-113.130940	-62.922002	139.035376	-62.922002	139.035376	-0.049490	-38.285139
2.500000	-0.126954	-115.107145	-62.326102	137.775744	-62.326102	137.775744	-0.050519	-39.041875
2.550000	-0.128732	-117.070871	-61.751040	136.460014	-61.751040	136.460014	-0.051550	-39.797375
2.600000	-0.130504	-119.022653	-61.195942	135.096823	-61.195942	135.096823	-0.052585	-40.551653
2.650000	-0.132270	-120.962761	-60.659610	133.692336	-60.659610	133.692336	-0.053624	-41.304697
2.700000	-0.134033	-122.891470	-60.140953	132.251821	-60.140953	132.251821	-0.054668	-42.056492
2.750000	-0.135793	-124.809062	-59.638969	130.779805	-59.638969	130.779805	-0.055717	-42.807027
2.800000	-0.137554	-126.715821	-59.152738	129.280189	-59.152738	129.280189	-0.056771	-43.556291
2.850000	-0.139316	-128.612036	-58.681418	127.756355	-58.681418	127.756355	-0.057831	-44.304270
2.900000	-0.141081	-130.497999	-58.224230	126.211247	-58.224230	126.211247	-0.058898	-45.050954
2.950000	-0.142851	-132.374003	-57.780460	124.647432	-57.780460	124.647432	-0.059972	-45.796332
3.000000	-0.144626	-134.240345	-57.349446	123.067163	-57.349446	123.067163	-0.061053	-46.540392
3.050000	-0.146410	-136.097323	-56.930578	121.472420	-56.930578	121.472420	-0.062142	-47.283124
3.100000	-0.148202	-137.945236	-56.523288	119.864950	-56.523288	119.864950	-0.063239	-48.024519
3.150000	-0.150005	-139.784292	-56.126976	118.246195	-56.126976	118.246195	-0.064345	-48.764550
3.200000	-0.151819	-141.614802	-55.741168	116.617568	-55.741168	116.617568	-0.065460	-49.503210
3.250000	-0.153647	-143.437160	-55.365491	114.980406	-55.365491	114.980406	-0.066585	-50.240502
3.300000	-0.155489	-145.251667	-54.999518	113.335794	-54.999518	113.335794	-0.067720	-50.976419
3.350000	-0.157347	-147.058622	-54.642853	111.684702	-54.642853	111.684702	-0.068864	-51.710951
3.400000	-0.159221	-148.858323	-54.295125	110.028005	-54.295125	110.028005	-0.070020	-52.444092
3.450000	-0.161113	-150.651067	-53.955987	108.366490	-53.955987	108.366490	-0.071187	-53.175833
3.500000	-0.163024	-152.437149	-53.625114	106.700868	-53.625114	106.700868	-0.072365	-53.906167
3.550000	-0.164955	-154.216864	-53.302202	105.031782	-53.302202	105.031782	-0.073556	-54.635087
3.600000	-0.166906	-155.990503	-52.986963	103.359820	-52.986963	103.359820	-0.074758	-55.362586
3.650000	-0.168878	-157.758357	-52.679129	101.685512	-52.679129	101.685512	-0.075974	-56.088660
3.700000	-0.170873	-159.520712	-52.378446	100.009347	-52.378446	100.009347	-0.077202	-56.813300
3.750000	-0.172890	-161.277853	-52.084675	98.331771	-52.084675	98.331771	-0.078444	-57.536503
3.800000	-0.174931	-163.029963	-51.797530	96.653182	-51.797530	96.653182	-0.079700	-58.258232
3.850000	-0.176996	-164.777433	-51.516870	94.973985	-51.516870	94.973985	-0.080971	-58.978513
3.900000	-0.179085	-166.520541	-51.242491	93.294529	-51.242491	93.294529	-0.082256	-59.697343
3.950000	-0.181199	-168.259560	-50.974204	91.615137	-50.974204	91.615137	-0.083556	-60.414717
4.000000	-0.183338	-169.994761	-50.711827	89.936110	-50.711827	89.936110	-0.084872	-61.130631
4.050000	-0.185501	-171.726409	-50.455189	88.257730	-50.455189	88.257730	-0.086203	-61.845084
4.100000	-0.187690	-173.454768	-50.204129	86.580260	-50.204129	86.580260	-0.087551	-62.558071
4.150000	-0.189904	-175.180098	-49.958492	84.903950	-49.958492	84.903950	-0.088915	-63.269591
4.200000	-0.192144	-176.902656	-49.718131	83.229034	-49.718131	83.229034	-0.090297	-63.979642
4.250000	-0.194408	-178.622695	-49.482908	81.555735	-49.482908	81.555735	-0.091695	-64.688222
4.300000	-0.196697	179.659539	-49.252690	79.884267	-49.252690	79.884267	-0.093112	-65.395330
4.350000	-0.199012	177.943798	-49.027351	78.214832	-49.027351	78.214832	-0.094546	-66.100964
4.400000	-0.201350	176.229860	-48.806762	76.547653	-48.806762	76.547653	-0.095999	-66.805110
4.450000	-0.203714	174.517480	-48.590811	74.882923	-48.590811	74.882923	-0.097471	-67.507765
4.500000	-0.206101	172.806407	-48.379401	73.220801	-48.379401	73.220801	-0.098963	-68.208947
4.550000	-0.208511	171.096411	-48.172424	71.561463	-48.172424	71.561463	-0.100474	-68.908656
4.600000	-0.210944	169.387271	-47.969783	69.905083	-47.969783	69.905083	-0.102005	-69.606892
4.650000	-0.213399	167.678767	-47.771380	68.251828	-47.771380	68.251828	-0.103557	-70.303658
4.700000	-0.215876	165.970684	-47.577123	66.601866	-47.577123	66.601866	-0.105129	-70.998955
4.750000	-0.218374	164.262813	-47.386925	64.955361	-47.386925	64.955361	-0.106723	-71.692785
4.800000	-0.220893	162.554949	-47.200701	63.312473	-47.200701	63.312473	-0.108338	-72.385149
4.850000	-0.223431	160.846893	-47.018370	61.673365	-47.018370	61.673365	-0.109975	-73.076051
4.900000	-0.225988	159.138448	-46.839853	60.038197	-46.839853	60.038197	-0.111635	-73.765493
4.950000	-0.228563	157.429425	-46.665077	58.407129	-46.665077	58.407129	-0.113317	-74.453479
5.000000	-0.231155	155.719639	-46.493969	56.780320	-46.493969	56.780320	-0.115023	-75.140013
5.050000	-0.233765	154.008875	-46.326471	55.158081	-46.326471	55.158081	-0.116752	-75.825050
5.100000	-0.236390	152.296984	-46.162509	53.540436	-46.162509	53.540436	-0.118506	-76.508643
5.150000	-0.239030	150.583797	-46.002018	51.927547	-46.002018	51.927547	-0.120284	-77.190796
5.200000	-0.241685	148.869151	-45.844935	50.319579	-45.844935	50.319579	-0.122087	-77.871514
5.250000	-0.244352	147.152892	-45.691200	48.716700	-45.691200	48.716700	-0.123915	-78.550803
5.300000	-0.247032	145.434868	-45.540753	47.119079	-45.540753	47.119079	-0.125769	-79.228667
5.350000	-0.249724	143.714934	-45.393537	45.526887	-45.393537	45.526887	-0.127649	-79.905112
5.400000	-0.252426	141.992954	-45.249496	43.940300	-45.249496	43.940300	-0.129555	-80.580144
5.450000	-0.255138	140.268794	-45.108578	42.359495	-45.108578	42.359495	-0.131487	-81.253770
5.500000	-0.257860	138.542329	-44.970728	40.784655	-44.970728	40.784655	-0.133447	-81.925996
5.550000	-0.260590	136.813440	-44.835895	39.215965	-44.835895	39.215965	-0.135435	-82.596829
5.600000	-0.263327	135.082016	-44.704030	37.653615	-44.704030	37.653615	-0.137451	-83.266275
5.650000	-0.266072	133.347950	-44.575083	36.097798	-44.575083	36.097798	-0.139495	-83.934344
5.700000	-0.268823	131.611145	-44.449005	34.548714	-44.449005	34.548714	-0.141567	-84.601041
5.750000	-0.271579	129.871509	-44.325749	33.006565	-44.325749	33.006565	-0.143669	-85.266376
5.800000	-0.274340	128.128958	-44.205268	31.471560	-44.205268	31.471560	-0.145801	-85.930355
5.850000	-0.277106	126.383416	-44.087514	29.943913	-44.087514	29.943913	-0.147963	-86.592988
5.900000	-0.279876	124.634813	-43.972443	28.423843	-43.972443	28.423843	-0.150155	-87.254284
5.950000	-0.282649	122.883088	-43.860008	26.911575	-43.860008	26.911575	-0.152378	-87.914250
6.000000	-0.285425	121.128187	-43.750164	25.407340	-43.750164	25.407340	-0.154632	-88.572897
6.050000	-0.288203	119.370206	-43.642811	23.911000	-43.642811	23.911000	-0.156917	-89.230291
6.100000	-0.290984	117.608789	-43.538022	22.423631	-43.538022	22.423631	-0.159235	-89.886312
6.150000	-0.293767	115.844082	-43.435685	20.945027	-43.435685	20.945027	-0.161586	-90.541044
6.200000	-0.296552	114.076062	-43.335754	19.475444	-43.335754	19.475444	-0.163970	-91.194495
6.250000	-0.299338	112.304718	-43.238181	18.015143	-43.238181	18.015143	-0.166387	-91.846676
6.300000	-0.302125	110.529972	-43.142943	16.564603	-43.142943	16.564603	-0.168839	-92.497570
6.350000	-0.304915	108.751901	-43.049966	15.123897	-43.049966	15.123897	-0.171324	-93.147216
6.400000	-0.307706	106.970516	-42.959198	13.693301	-42.959198	13.693301	-0.173845	-93.795626
6.450000	-0.310498	105.185841	-42.870586	12.273100	-42.870586	12.273100	-0.176400	-94.442809
6.500000	-0.313293	103.397904	-42.784077	10.863579	-42.784077	10.863579	-0.178990	-95.088779
6.550000	-0.316089	101.606745	-42.699615	9.465032	-42.699615	9.465032	-0.181617	-95.733545
6.600000	-0.318889	99.812410	-42.617144	8.077753	-42.617144	8.077753	-0.184279	-96.377121
6.650000	-0.321691	98.014955	-42.536603	6.702040	-42.536603	6.702040	-0.186978	-97.019519
6.700000	-0.324497	96.214446	-42.457931	5.338191	-42.457931	5.338191	-0.189714	-97.660750
6.750000	-0.327307	94.410954	-42.381063	3.986507	-42.381063	3.986507	-0.192487	-98.300828
6.800000	-0.330122	92.604563	-42.305932	2.647286	-42.305932	2.647286	-0.195298	-98.939765
6.850000	-0.332942	90.795361	-42.232470	1.320826	-42.232470	1.320826	-0.198148	-99.577573
6.900000	-0.335769	88.983420	-42.160612	0.007566	-42.160612	0.007566	-0.201036	-100.214256
6.950000	-0.338604	87.168851	-42.090282	-1.292196	-42.090282	-1.292196	-0.203963	-100.849825
7.000000	-0.341447	85.351800	-42.021389	-2.578321	-42.021389	-2.578321	-0.206930	-101.484306
7.050000	-0.344299	83.532390	-41.953850	-3.850537	-41.953850	-3.850537	-0.209936	-102.117715
7.100000	-0.347163	81.710754	-41.887579	-5.108582	-41.887579	-5.108582	-0.212983	-102.750063
7.150000	-0.350038	79.887032	-41.822486	-6.352209	-41.822486	-6.352209	-0.216070	-103.381367
7.200000	-0.352927	78.061372	-41.758477	-7.581188	-41.758477	-7.581188	-0.219197	-104.011639
7.250000	-0.355831	76.233929	-41.695456	-8.795304	-41.695456	-8.795304	-0.222366	-104.640894
7.300000	-0.358752	74.404866	-41.633321	-9.994367	-41.633321	-9.994367	-0.225576	-105.269148
7.350000	-0.361691	72.574352	-41.571968	-11.178209	-41.571968	-11.178209	-0.228828	-105.896415
7.400000	-0.364649	70.742564	-41.511291	-12.346688	-41.511291	-12.346688	-0.232123	-106.522711
7.450000	-0.367630	68.909686	-41.451177	-13.499693	-41.451177	-13.499693	-0.235460	-107.148050
7.500000	-0.370634	67.075906	-41.391515	-14.637144	-41.391515	-14.637144	-0.238840	-107.772448
7.550000	-0.373664	65.241409	-41.332183	-15.758658	-41.332183	-15.758658	-0.242264	-108.395901
7.600000	-0.376722	63.406418	-41.273062	-16.864570	-41.273062	-16.864570	-0.245732	-109.018445
7.650000	-0.379810	61.571138	-41.214031	-17.954916	-41.214031	-17.954916	-0.249243	-109.640097
7.700000	-0.382930	59.735782	-41.154967	-19.029775	-41.154967	-19.029775	-0.252799	-110.260873
7.750000	-0.386086	57.900582	-41.095713	-20.088442	-41.095713	-20.088442	-0.256402	-110.880742
7.800000	-0.389278	56.065746	-41.036200	-21.132595	-41.036200	-21.132595	-0.260048	-111.499807
7.850000	-0.392509	54.231502	-40.976280	-22.161783	-40.976280	-22.161783	-0.263739	-112.118046
7.900000	-0.395782	52.398079	-40.915833	-23.176276	-40.915833	-23.176276	-0.267476	-112.735477
7.950000	-0.399100	50.565708	-40.854735	-24.176391	-40.854735	-24.176391	-0.271258	-113.352115
8.000000	-0.402464	48.734625	-40.792869	-25.162498	-40.792869	-25.162498	-0.275087	-113.967980
8.050000	-0.405879	46.905066	-40.730118	-26.135011	-40.730118	-26.135011	-0.278962	-114.583089
8.100000	-0.409346	45.077271	-40.666369	-27.094397	-40.666369	-27.094397	-0.282883	-115.197459
8.150000	-0.412869	43.251481	-40.601513	-28.041166	-40.601513	-28.041166	-0.286852	-115.811109
8.200000	-0.416450	41.427937	-40.535447	-28.975874	-40.535447	-28.975874	-0.290868	-116.424056
8.250000	-0.420092	39.606882	-40.468071	-29.899119	-40.468071	-29.899119	-0.294932	-117.036320
8.300000	-0.423799	37.788560	-40.399294	-30.811535	-40.399294	-30.811535	-0.299043	-117.647919
8.350000	-0.427569	35.973024	-40.329155	-31.714332	-40.329155	-31.714332	-0.303199	-118.258908
8.400000	-0.431411	34.160763	-40.257406	-32.607384	-40.257406	-32.607384	-0.307405	-118.869253
8.450000	-0.435333	32.352254	-40.183831	-33.491015	-40.183831	-33.491015	-0.311663	-119.478941
8.500000	-0.439328	30.547257	-40.108676	-34.367115	-40.108676	-34.367115	-0.315968	-120.088073
8.550000	-0.443405	28.746304	-40.031702	-35.235865	-40.031702	-35.235865	-0.320322	-120.696623
8.600000	-0.447565	26.949555	-39.952908	-36.098180	-39.952908	-36.098180	-0.324726	-121.304623
8.650000	-0.451810	25.157078	-39.872354	-36.955079	-39.872354	-36.955079	-0.329178	-121.912113
8.700000	-0.456150	23.369545	-39.789756	-37.806857	-39.789756	-37.806857	-0.333682	-122.519064
8.750000	-0.460575	21.586445	-39.705506	-38.654969	-39.705506	-38.654969	-0.338231	-123.125573
8.800000	-0.465108	19.809073	-39.619005	-39.499454	-39.619005	-39.499454	-0.342837	-123.731560
8.850000	-0.469732	18.036550	-39.530836	-40.341713	-39.530836	-40.341713	-0.347487	-124.337145
8.900000	-0.474466	16.269931	-39.440563	-41.182159	-39.440563	-41.182159	-0.352192	-124.942280
8.950000	-0.479303	14.508885	-39.348468	-42.021662	-39.348468	-42.021662	-0.356944	-125.547028
9.000000	-0.484251	12.753848	-39.254452	-42.860903	-39.254452	-42.860903	-0.361748	-126.151396
9.050000	-0.489316	11.005143	-39.158476	-43.700566	-39.158476	-43.700566	-0.366604	-126.755398
9.100000	-0.494491	9.262483	-39.060791	-44.541243	-39.060791	-44.541243	-0.371507	-127.359084
9.150000	-0.499796	7.526941	-38.961025	-45.383751	-38.961025	-45.383751	-0.376466	-127.962432
9.200000	-0.505215	5.797548	-38.859725	-46.228335	-38.859725	-46.228335	-0.381471	-128.565518
9.250000	-0.510773	4.075814	-38.756351	-47.076055	-38.756351	-47.076055	-0.386532	-129.168312
9.300000	-0.516452	2.360699	-38.651460	-47.926905	-38.651460	-47.926905	-0.391641	-129.770883
9.350000	-0.522271	0.653209	-38.544744	-48.781786	-38.544744	-48.781786	-0.396803	-130.373226
9.400000	-0.528226	-1.046918	-38.436418	-49.640916	-38.436418	-49.640916	-0.402016	-130.975378
9.450000	-0.534319	-2.739521	-38.326523	-50.504717	-38.326523	-50.504717	-0.407279	-131.577364
9.500000	-0.540562	-4.424001	-38.214930	-51.373867	-38.214930	-51.373867	-0.412596	-132.179199
9.550000	-0.546942	-6.101122	-38.102027	-52.248104	-38.102027	-52.248104	-0.417961	-132.780923
9.600000	-0.553487	-7.769346	-37.987336	-53.128753	-37.987336	-53.128753	-0.423382	-133.382543
9.650000	-0.560172	-9.430112	-37.871475	-54.014968	-37.871475	-54.014968	-0.428850	-133.984101
9.700000	-0.567027	-11.081850	-37.753966	-54.908120	-37.753966	-54.908120	-0.434373	-134.585614
9.750000	-0.574034	-12.725574	-37.635250	-55.807586	-37.635250	-55.807586	-0.439946	-135.187111
9.800000	-0.581207	-14.360510	-37.515131	-56.714125	-37.515131	-56.714125	-0.445570	-135.788620
9.850000	-0.588548	-15.986716	-37.393703	-57.627824	-37.393703	-57.627824	-0.451247	-136.390167
9.900000	-0.596053	-17.604426	-37.271113	-58.548607	-37.271113	-58.548607	-0.456973	-136.991777
9.950000	-0.603740	-19.212689	-37.147102	-59.477386	-37.147102	-59.477386	-0.462753	-137.593485
10.000000	-0.611587	-20.812797	-37.022159	-60.413163	-37.022159	-60.413163	-0.468579	-138.195302
