! freq	dB(S11)	phase(S11)	dB(S12)	phase(S12)	
!     	dB(S21)	phase(S21)	dB(S22)	phase(S22)	
!S-par simulation data
#  GHz  S  DB  R 50
0.000000	-0.000000	0.000000	-353.993055	180.000000	-353.993055	180.000000	-0.000000	0.000000
0.050000	-0.000105	-0.802849	-115.804345	89.143114	-115.804345	89.143114	-0.000112	-0.865148
0.100000	-0.000416	-1.605437	-109.838558	88.298394	-109.838558	88.298394	-0.000442	-1.730021
0.150000	-0.000919	-2.407525	-106.408225	87.478277	-106.408225	87.478277	-0.000977	-2.594365
0.200000	-0.001593	-3.208920	-104.037156	86.695434	-104.037156	86.695434	-0.001694	-3.457973
0.250000	-0.002421	-4.009407	-102.270430	85.967797	-102.270430	85.967797	-0.002580	-4.320610
0.300000	-0.003365	-4.808955	-100.894075	85.307029	-100.894075	85.307029	-0.003590	-5.182238
0.350000	-0.004404	-5.607463	-99.804434	84.734353	-99.804434	84.734353	-0.004706	-6.042739
0.400000	-0.005514	-6.404899	-98.938552	84.273021	-98.938552	84.273021	-0.005901	-6.902069
0.450000	-0.006674	-7.201262	-98.257355	83.951779	-98.257355	83.951779	-0.007153	-7.760217
0.500000	-0.007866	-7.996572	-97.735864	83.807040	-97.735864	83.807040	-0.008441	-8.617198
0.550000	-0.009074	-8.790864	-97.358111	83.885986	-97.358111	83.885986	-0.009750	-9.473038
0.600000	-0.010287	-9.584177	-97.114258	84.251093	-97.114258	84.251093	-0.011066	-10.327775
0.650000	-0.011498	-10.376554	-96.998748	84.986767	-96.998748	84.986767	-0.012380	-11.181450
0.700000	-0.012699	-11.168035	-97.008794	86.209152	-97.008794	86.209152	-0.013685	-12.034101
0.750000	-0.013887	-11.958655	-97.142563	88.080415	-97.142563	88.080415	-0.014976	-12.885764
0.800000	-0.015060	-12.748445	-97.396134	90.828507	-97.396134	90.828507	-0.016251	-13.736470
0.850000	-0.016217	-13.537427	-97.757524	94.770467	-97.757524	94.770467	-0.017508	-14.586242
0.900000	-0.017358	-14.325621	-98.194963	100.325971	-98.194963	100.325971	-0.018746	-15.435098
0.950000	-0.018483	-15.113037	-98.636362	107.976700	-98.636362	107.976700	-0.019966	-16.283050
1.000000	-0.019592	-15.899682	-98.944211	118.076556	-98.944211	118.076556	-0.021169	-17.130104
1.050000	-0.020688	-16.685557	-98.916558	130.435062	-98.916558	130.435062	-0.022355	-17.976260
1.100000	-0.021771	-17.470661	-98.370656	143.893342	-98.370656	143.893342	-0.023526	-18.821515
1.150000	-0.022843	-18.254988	-97.285098	156.595200	-97.285098	156.595200	-0.024684	-19.665863
1.200000	-0.023904	-19.038529	-95.822290	167.109440	-95.822290	167.109440	-0.025829	-20.509291
1.250000	-0.024956	-19.821274	-94.190945	175.075127	-94.190945	175.075127	-0.026964	-21.351788
1.300000	-0.026000	-20.603174	-92.527066	-179.240826	-92.527066	-179.240826	-0.028088	-22.193296
1.350000	-0.027037	-21.384250	-90.921251	-175.213710	-90.921251	-175.213710	-0.029205	-23.033838
1.400000	-0.028068	-22.164487	-89.400871	-172.411107	-89.400871	-172.411107	-0.030314	-23.873396
1.450000	-0.029094	-22.943868	-87.971885	-170.509884	-87.971885	-170.509884	-0.031418	-24.711952
1.500000	-0.030116	-23.722377	-86.630952	-169.278173	-86.630952	-169.278173	-0.032516	-25.549484
1.550000	-0.031134	-24.499996	-85.371252	-168.551028	-85.371252	-168.551028	-0.033610	-26.385973
1.600000	-0.032149	-25.276709	-84.185113	-168.210414	-84.185113	-168.210414	-0.034700	-27.221398
1.650000	-0.033161	-26.052498	-83.065117	-168.170799	-83.065117	-168.170799	-0.035787	-28.055737
1.700000	-0.034172	-26.827010	-81.980225	-168.430358	-81.980225	-168.430358	-0.036871	-28.888576
1.750000	-0.035181	-27.601023	-80.983793	-168.796954	-80.983793	-168.796954	-0.037955	-29.720831
1.800000	-0.036190	-28.373839	-80.020714	-169.339148	-80.020714	-169.339148	-0.039037	-30.551679
1.850000	-0.037197	-29.145799	-79.109346	-170.006767	-79.109346	-170.006767	-0.040119	-31.381521
1.900000	-0.038205	-29.916695	-78.234452	-170.776551	-78.234452	-170.776551	-0.041200	-32.210112
1.950000	-0.039213	-30.686526	-77.394173	-171.648499	-77.394173	-171.648499	-0.042282	-33.037453
2.000000	-0.040221	-31.455439	-76.592207	-172.580705	-76.592207	-172.580705	-0.043364	-33.863716
2.050000	-0.041230	-32.223068	-75.812156	-173.597273	-75.812156	-173.597273	-0.044447	-34.688471
2.100000	-0.042240	-32.990131	-75.077827	-174.641557	-75.077827	-174.641557	-0.045530	-35.512561
2.150000	-0.043252	-33.755726	-74.356264	-175.754544	-74.356264	-175.754544	-0.046616	-36.334929
2.200000	-0.044266	-34.520211	-73.658952	-176.909669	-73.658952	-176.909669	-0.047704	-37.155993
2.250000	-0.045282	-35.283569	-72.984243	-178.101747	-72.984243	-178.101747	-0.048794	-37.975737
2.300000	-0.046300	-36.045786	-72.330656	-179.326396	-72.330656	-179.326396	-0.049887	-38.794142
2.350000	-0.047322	-36.806847	-71.696862	179.420112	-71.696862	179.420112	-0.050983	-39.611193
2.400000	-0.048346	-37.566737	-71.081657	178.140968	-71.081657	178.140968	-0.052083	-40.426873
2.450000	-0.049374	-38.325441	-70.483954	176.838922	-70.483954	176.838922	-0.053186	-41.241166
2.500000	-0.050406	-39.082946	-69.902759	175.516357	-69.902759	175.516357	-0.054293	-42.054055
2.550000	-0.051442	-39.839184	-69.336253	174.174629	-69.336253	174.174629	-0.055405	-42.865465
2.600000	-0.052483	-40.594194	-68.784616	172.816413	-68.784616	172.816413	-0.056522	-43.675441
2.650000	-0.053528	-41.347963	-68.247080	171.443278	-68.247080	171.443278	-0.057644	-44.483969
2.700000	-0.054579	-42.100478	-67.722939	170.056611	-67.722939	170.056611	-0.058772	-45.291035
2.750000	-0.055635	-42.851727	-67.211540	168.657645	-67.211540	168.657645	-0.059905	-46.096627
2.800000	-0.056698	-43.601698	-66.712282	167.247477	-66.712282	167.247477	-0.061045	-46.900731
2.850000	-0.057766	-44.350379	-66.224608	165.827088	-66.224608	165.827088	-0.062192	-47.703335
2.900000	-0.058841	-45.097758	-65.748000	164.397358	-65.748000	164.397358	-0.063346	-48.504428
2.950000	-0.059923	-45.843825	-65.281976	162.959081	-65.281976	162.959081	-0.064507	-49.303998
3.000000	-0.061013	-46.588569	-64.826089	161.512971	-64.826089	161.512971	-0.065677	-50.102033
3.050000	-0.062110	-47.331979	-64.379920	160.059677	-64.379920	160.059677	-0.066854	-50.898525
3.100000	-0.063216	-48.074045	-63.943077	158.599786	-63.943077	158.599786	-0.068041	-51.693462
3.150000	-0.064330	-48.814758	-63.515193	157.133833	-63.515193	157.133833	-0.069236	-52.486835
3.200000	-0.065452	-49.554108	-63.095925	155.662307	-63.095925	155.662307	-0.070442	-53.278636
3.250000	-0.066584	-50.292086	-62.684948	154.185654	-62.684948	154.185654	-0.071657	-54.068855
3.300000	-0.067726	-51.028684	-62.281960	152.704284	-62.281960	152.704284	-0.072883	-54.857484
3.350000	-0.068880	-51.763650	-61.884888	151.217921	-61.884888	151.217921	-0.074121	-55.644236
3.400000	-0.070044	-52.497158	-61.494976	149.727401	-61.494976	149.727401	-0.075371	-56.429314
3.450000	-0.071214	-53.229930	-61.116894	148.235081	-61.116894	148.235081	-0.076628	-57.213549
3.500000	-0.072402	-53.960497	-60.740431	146.737365	-60.740431	146.737365	-0.077903	-57.995254
3.550000	-0.073593	-54.690568	-60.376567	145.238645	-60.376567	145.238645	-0.079183	-58.776393
3.600000	-0.074806	-55.418163	-60.012740	143.734901	-60.012740	143.734901	-0.080486	-59.554701
3.650000	-0.076020	-56.145509	-59.662131	142.230738	-59.662131	142.230738	-0.081791	-60.332725
3.700000	-0.077259	-56.870107	-59.310203	140.721968	-59.310203	140.721968	-0.083122	-61.107616
3.750000	-0.078498	-57.594706	-58.971981	139.213198	-58.971981	139.213198	-0.084454	-61.882507
3.800000	-0.079765	-58.316285	-58.631284	137.700267	-58.631284	137.700267	-0.085816	-62.653965
3.850000	-0.081032	-59.037864	-58.303447	136.187335	-58.303447	136.187335	-0.087178	-63.425423
3.900000	-0.082327	-59.756658	-57.974590	134.671277	-57.974590	134.671277	-0.088571	-64.193723
3.950000	-0.083624	-60.475198	-57.656597	133.154935	-57.656597	133.154935	-0.089966	-64.961736
4.000000	-0.084947	-61.191194	-57.338855	131.636299	-57.338855	131.636299	-0.091390	-65.726871
4.050000	-0.086276	-61.906680	-57.030209	130.117204	-57.030209	130.117204	-0.092820	-66.491431
4.100000	-0.087630	-62.619866	-56.722924	128.596477	-56.722924	128.596477	-0.094277	-67.253399
4.150000	-0.088992	-63.332286	-56.423168	127.075207	-56.423168	127.075207	-0.095743	-68.014503
4.200000	-0.090378	-64.042655	-56.125738	125.552827	-56.125738	125.552827	-0.097235	-68.773304
4.250000	-0.091775	-64.751999	-55.834448	124.029892	-55.834448	124.029892	-0.098740	-69.530952
4.300000	-0.093194	-65.459545	-55.546325	122.506250	-55.546325	122.506250	-0.100269	-70.286588
4.350000	-0.094628	-66.165806	-55.263109	120.982104	-55.263109	120.982104	-0.101814	-71.040786
4.400000	-0.096082	-66.870526	-54.983790	119.457554	-54.983790	119.457554	-0.103381	-71.793263
4.450000	-0.097554	-67.573703	-54.708284	117.932601	-54.708284	117.932601	-0.104968	-72.544019
4.500000	-0.099044	-68.275596	-54.437306	116.407462	-54.437306	116.407462	-0.106575	-73.293346
4.550000	-0.100557	-68.975689	-54.169172	114.882064	-54.169172	114.882064	-0.108206	-74.040673
4.600000	-0.102085	-69.674756	-53.906107	113.356625	-53.906107	113.356625	-0.109854	-74.786863
4.650000	-0.103640	-70.371769	-53.645029	111.831106	-53.645029	111.831106	-0.111532	-75.530777
4.700000	-0.105206	-71.068014	-53.389484	110.305631	-53.389484	110.305631	-0.113222	-76.273844
4.750000	-0.106806	-71.761954	-53.135167	108.780284	-53.135167	108.780284	-0.114947	-77.014366
4.800000	-0.108413	-72.455384	-52.886778	107.255011	-52.886778	107.255011	-0.116682	-77.754327
4.850000	-0.110057	-73.146260	-52.638945	105.730101	-52.638945	105.730101	-0.118457	-78.491482
4.900000	-0.111706	-73.836883	-52.397373	104.205247	-52.397373	104.205247	-0.120238	-79.228358
4.950000	-0.113398	-74.524709	-52.155764	102.681013	-52.155764	102.681013	-0.122065	-79.962173
5.000000	-0.115091	-75.212535	-51.920695	101.156779	-51.920695	101.156779	-0.123892	-80.695988
5.050000	-0.116832	-75.897327	-51.685067	99.633438	-51.685067	99.633438	-0.125773	-81.426494
5.100000	-0.118574	-76.582119	-51.455664	98.110097	-51.455664	98.110097	-0.127654	-82.157000
5.150000	-0.120362	-77.264146	-51.226332	96.587754	-51.226332	96.587754	-0.129586	-82.884506
5.200000	-0.122154	-77.945922	-51.002384	95.065503	-51.002384	95.065503	-0.131522	-83.611739
5.250000	-0.123990	-78.625203	-50.779070	93.544309	-50.779070	93.544309	-0.133506	-84.336277
5.300000	-0.125835	-79.303985	-50.560379	92.023327	-50.560379	92.023327	-0.135500	-85.060275
5.350000	-0.127721	-79.980539	-50.342821	90.503419	-50.342821	90.503419	-0.137537	-85.781878
5.400000	-0.129620	-80.656351	-50.129200	88.983868	-50.129200	88.983868	-0.139590	-86.502683
5.450000	-0.131557	-81.330201	-49.917153	87.465371	-49.917153	87.465371	-0.141683	-87.221390
5.500000	-0.133513	-82.003070	-49.708426	85.947401	-49.708426	85.947401	-0.143796	-87.939047
5.550000	-0.135502	-82.674240	-49.501662	84.430430	-49.501662	84.430430	-0.145946	-88.654896
5.600000	-0.137516	-83.344196	-49.297659	82.914175	-49.297659	82.914175	-0.148122	-89.369453
5.650000	-0.139559	-84.012712	-49.095965	81.398837	-49.095965	81.398837	-0.150330	-90.082487
5.700000	-0.141632	-84.679787	-48.896527	79.884419	-48.896527	79.884419	-0.152571	-90.793996
5.750000	-0.143731	-85.345676	-48.699699	78.370812	-48.699699	78.370812	-0.154839	-91.504258
5.800000	-0.145866	-86.009905	-48.504677	76.858340	-48.504677	76.858340	-0.157145	-92.212773
5.850000	-0.148022	-86.673198	-48.312526	75.346552	-48.312526	75.346552	-0.159475	-92.920310
5.900000	-0.150219	-87.334619	-48.121775	73.836129	-48.121775	73.836129	-0.161849	-93.625889
5.950000	-0.152434	-87.995347	-47.934123	72.326240	-47.934123	72.326240	-0.164242	-94.330749
6.000000	-0.154696	-88.653998	-47.747506	70.817954	-47.747506	70.817954	-0.166686	-95.033452
6.050000	-0.156970	-89.312194	-47.564185	69.310039	-47.564185	69.310039	-0.169143	-95.735686
6.100000	-0.159300	-89.968118	-47.381573	67.803972	-47.381573	67.803972	-0.171659	-96.435575
6.150000	-0.161635	-90.623818	-47.202424	66.298096	-47.202424	66.298096	-0.174181	-97.135236
6.200000	-0.164033	-91.277059	-47.023693	64.794320	-47.023693	64.794320	-0.176770	-97.832378
6.250000	-0.166431	-91.930299	-46.848566	63.290544	-46.848566	63.290544	-0.179360	-98.529521
6.300000	-0.168899	-92.580903	-46.673600	61.789121	-46.673600	61.789121	-0.182025	-99.223984
6.350000	-0.171367	-93.231506	-46.502088	60.287699	-46.502088	60.287699	-0.184690	-99.918447
6.400000	-0.173901	-93.879737	-46.331039	58.788486	-46.331039	58.788486	-0.187424	-100.610520
6.450000	-0.176441	-94.527753	-46.163039	57.289473	-46.163039	57.289473	-0.190166	-101.302375
6.500000	-0.179042	-95.173653	-45.995771	55.792509	-45.995771	55.792509	-0.192973	-101.992119
6.550000	-0.181655	-95.819131	-45.831183	54.295954	-45.831183	54.295954	-0.195794	-102.681439
6.600000	-0.184325	-96.462744	-45.667568	52.801273	-45.667568	52.801273	-0.198674	-103.368916
6.650000	-0.187014	-97.105737	-45.506296	51.307217	-45.506296	51.307217	-0.201575	-104.055778
6.700000	-0.189753	-97.747108	-45.346213	49.814850	-45.346213	49.814850	-0.204530	-104.741054
6.750000	-0.192519	-98.387670	-45.188168	48.323326	-45.188168	48.323326	-0.207513	-105.425535
6.800000	-0.195330	-99.026847	-45.031502	46.833296	-45.031502	46.833296	-0.210545	-106.108676
6.850000	-0.198174	-99.665035	-44.876597	45.344332	-44.876597	45.344332	-0.213612	-106.790858
6.900000	-0.201058	-100.302065	-44.723239	43.856659	-44.723239	43.856659	-0.216721	-107.471931
6.950000	-0.203982	-100.937937	-44.571393	42.370277	-44.571393	42.370277	-0.219873	-108.151897
7.000000	-0.206940	-101.572870	-44.421239	40.884976	-44.421239	40.884976	-0.223062	-108.830974
7.050000	-0.209945	-102.206487	-44.272375	39.401190	-44.272375	39.401190	-0.226302	-109.508807
7.100000	-0.212979	-102.839373	-44.125328	37.918272	-44.125328	37.918272	-0.229572	-110.185959
7.150000	-0.216068	-103.470797	-43.979371	36.437092	-43.979371	36.437092	-0.232900	-110.861747
7.200000	-0.219178	-104.101688	-43.835339	34.956563	-43.835339	34.956563	-0.236252	-111.537047
7.250000	-0.222351	-104.730983	-43.692219	33.477992	-43.692219	33.477992	-0.239671	-112.210881
7.300000	-0.225540	-105.359934	-43.551115	31.999855	-43.551115	31.999855	-0.243107	-112.884404
7.350000	-0.228799	-105.987165	-43.410766	30.523892	-43.410766	30.523892	-0.246619	-113.556373
7.400000	-0.232067	-106.614229	-43.272507	29.048146	-43.272507	29.048146	-0.250139	-114.228195
7.450000	-0.235414	-107.239464	-43.134866	27.574785	-43.134866	27.574785	-0.253745	-114.898395
7.500000	-0.238763	-107.864699	-42.999373	26.101424	-42.999373	26.101424	-0.257352	-115.568594
7.550000	-0.242199	-108.488007	-42.864382	24.630655	-42.864382	24.630655	-0.261054	-116.237118
7.600000	-0.245637	-109.111315	-42.731456	23.159886	-42.731456	23.159886	-0.264757	-116.905642
7.650000	-0.249156	-109.732921	-42.599183	21.691478	-42.599183	21.691478	-0.268548	-117.572720
7.700000	-0.252684	-110.354372	-42.468772	20.223286	-42.468772	20.223286	-0.272348	-118.239667
7.750000	-0.256288	-110.974337	-42.339147	18.757226	-42.339147	18.757226	-0.276230	-118.905382
7.800000	-0.259908	-111.594005	-42.211203	17.291592	-42.211203	17.291592	-0.280130	-119.570850
7.850000	-0.263597	-112.212390	-42.084160	15.827860	-42.084160	15.827860	-0.284104	-120.235286
7.900000	-0.267310	-112.830348	-41.958635	14.364762	-41.958635	14.364762	-0.288105	-120.899377
7.950000	-0.271085	-113.447216	-41.834114	12.903339	-41.834114	12.903339	-0.292173	-121.562620
8.000000	-0.274892	-114.063540	-41.710965	11.442753	-41.710965	11.442753	-0.296275	-122.225437
8.050000	-0.278755	-114.678955	-41.588907	9.983616	-41.588907	9.983616	-0.300438	-122.887573
8.100000	-0.282658	-115.293722	-41.468095	8.525514	-41.468095	8.525514	-0.304645	-123.549222
8.150000	-0.286609	-115.907750	-41.348444	7.068639	-41.348444	7.068639	-0.308905	-124.210340
8.200000	-0.290609	-116.521040	-41.229932	5.612992	-41.229932	5.612992	-0.313217	-124.870927
8.250000	-0.294649	-117.133747	-41.112639	4.158354	-41.112639	4.158354	-0.317574	-125.531117
8.300000	-0.298746	-117.745639	-40.996392	2.705131	-40.996392	2.705131	-0.321993	-126.190751
8.350000	-0.302877	-118.357093	-40.881410	1.252705	-40.881410	1.252705	-0.326450	-126.850105
8.400000	-0.307073	-118.967670	-40.767396	-0.198127	-40.767396	-0.198127	-0.330978	-127.508896
8.450000	-0.311295	-119.577939	-40.654680	-1.648369	-40.654680	-1.648369	-0.335534	-128.167506
8.500000	-0.315591	-120.187286	-40.542873	-3.096840	-40.542873	-3.096840	-0.340172	-128.825567
8.550000	-0.319905	-120.796441	-40.432381	-4.544924	-40.432381	-4.544924	-0.344831	-129.483527
8.600000	-0.324301	-121.404642	-40.322755	-5.991069	-40.322755	-5.991069	-0.349580	-130.140973
8.650000	-0.328707	-122.012755	-40.214450	-7.437021	-40.214450	-7.437021	-0.354342	-130.798378
8.700000	-0.333204	-122.619898	-40.106983	-8.880869	-40.106983	-8.880869	-0.359204	-131.455325
8.750000	-0.337704	-123.227041	-40.000829	-10.324716	-40.000829	-10.324716	-0.364070	-132.112271
8.800000	-0.342303	-123.833215	-39.895501	-11.766296	-39.895501	-11.766296	-0.369047	-132.768837
8.850000	-0.346905	-124.439389	-39.791435	-13.207875	-39.791435	-13.207875	-0.374027	-133.425403
8.900000	-0.351599	-125.044758	-39.688261	-14.647401	-39.688261	-14.647401	-0.379111	-134.081729
8.950000	-0.356303	-125.650053	-39.586268	-16.086740	-39.586268	-16.086740	-0.384207	-134.738034
9.000000	-0.361092	-126.254694	-39.485220	-17.524232	-39.485220	-17.524232	-0.389398	-135.394222
9.050000	-0.365899	-126.859204	-39.385286	-18.961354	-39.385286	-18.961354	-0.394611	-136.050387
9.100000	-0.370783	-127.463194	-39.286338	-20.396827	-39.286338	-20.396827	-0.399911	-136.706540
9.150000	-0.375694	-128.067012	-39.188455	-21.831752	-39.188455	-21.831752	-0.405243	-137.362690
9.200000	-0.380674	-128.670433	-39.091584	-23.265221	-39.091584	-23.265221	-0.410653	-138.018913
9.250000	-0.385688	-129.273656	-38.995743	-24.697963	-38.995743	-24.697963	-0.416105	-138.675173
9.300000	-0.390764	-129.876588	-38.900929	-26.129436	-38.900929	-26.129436	-0.421626	-139.331571
9.350000	-0.395882	-130.479312	-38.807126	-27.560004	-38.807126	-27.560004	-0.427198	-139.988069
9.400000	-0.401053	-131.081838	-38.714352	-28.989487	-38.714352	-28.989487	-0.432831	-140.644750
9.450000	-0.406277	-131.684165	-38.622584	-30.417884	-38.622584	-30.417884	-0.438525	-141.301615
9.500000	-0.411543	-132.286369	-38.531832	-31.845374	-38.531832	-31.845374	-0.444271	-141.958688
9.550000	-0.416871	-132.888400	-38.442099	-33.271594	-38.442099	-33.271594	-0.450088	-142.616053
9.600000	-0.422233	-133.490366	-38.353358	-34.697085	-38.353358	-34.697085	-0.455948	-143.273628
9.650000	-0.427664	-134.092205	-38.265662	-36.121115	-38.265662	-36.121115	-0.461889	-143.931625
9.700000	-0.433123	-134.694022	-38.178920	-37.544593	-38.178920	-37.544593	-0.467863	-144.589815
9.750000	-0.438657	-135.295775	-38.093264	-38.966412	-38.093264	-38.966412	-0.473929	-145.248582
9.800000	-0.444211	-135.897531	-38.008512	-40.387856	-38.008512	-40.387856	-0.480019	-145.907499
9.850000	-0.449849	-136.499306	-37.924904	-41.807429	-37.924904	-41.807429	-0.486210	-146.567172
9.900000	-0.455498	-137.101091	-37.842133	-43.226811	-37.842133	-43.226811	-0.492416	-147.226933
9.950000	-0.461238	-137.702997	-37.760580	-44.644095	-37.760580	-44.644095	-0.498733	-147.887653
10.000000	-0.466981	-138.304904	-37.679786	-46.061379	-37.679786	-46.061379	-0.505056	-148.548373
