! freq	dB(S11)	phase(S11)	dB(S12)	phase(S12)	
!     	dB(S21)	phase(S21)	dB(S22)	phase(S22)	
!S-par simulation data
#  GHz  S  DB  R 50
0.000000	-84.442793	0.000000	-0.000521	0.000000	-0.000521	0.000000	-84.442793	0.000000
0.050000	-33.953321	-92.900326	-0.008823	-3.310346	-0.008823	-3.310346	-33.947291	-93.025201
0.100000	-28.007004	-96.287956	-0.019434	-6.568741	-0.019434	-6.568741	-28.008124	-96.634508
0.150000	-24.556144	-99.654184	-0.031848	-9.817933	-0.031848	-9.817933	-24.557654	-100.189285
0.200000	-22.126431	-102.950807	-0.047290	-13.058252	-0.047290	-13.058252	-22.127609	-103.654943
0.250000	-20.258696	-106.181418	-0.065793	-16.287024	-0.065793	-16.287024	-20.259695	-107.054258
0.300000	-18.750212	-109.360797	-0.087178	-19.502171	-0.087178	-19.502171	-18.751182	-110.409188
0.350000	-17.492180	-112.502618	-0.111096	-22.702863	-0.111096	-22.702863	-17.493203	-113.734741
0.400000	-16.419493	-115.614805	-0.137226	-25.888675	-0.137226	-25.888675	-16.420602	-117.038519
0.450000	-15.491106	-118.700767	-0.165345	-29.058682	-0.165345	-29.058682	-15.492309	-120.323759
0.500000	-14.680340	-121.761033	-0.195262	-32.211242	-0.195262	-32.211242	-14.681634	-123.591370
0.550000	-13.964207	-124.798448	-0.226555	-35.347337	-0.226555	-35.347337	-13.965591	-126.843757
0.600000	-13.328991	-127.811888	-0.258999	-38.465746	-0.258999	-38.465746	-13.330474	-130.080725
0.650000	-12.762910	-130.801302	-0.292277	-41.566372	-0.292277	-41.566372	-12.764512	-133.302956
0.700000	-12.256955	-133.766321	-0.326075	-44.649154	-0.326075	-44.649154	-12.258710	-136.511093
0.750000	-11.803949	-136.706580	-0.360075	-47.714229	-0.360075	-47.714229	-11.805907	-139.705960
0.800000	-11.398428	-139.621436	-0.393949	-50.761721	-0.393949	-50.761721	-11.400654	-142.888458
0.850000	-11.035376	-142.510913	-0.427373	-53.792378	-0.427373	-53.792378	-11.037948	-146.060037
0.900000	-10.710764	-145.374978	-0.460037	-56.807039	-0.460037	-56.807039	-10.713779	-149.222307
0.950000	-10.421321	-148.213584	-0.491633	-59.806680	-0.491633	-59.806680	-10.424891	-152.377101
1.000000	-10.164314	-151.026740	-0.521867	-62.792461	-0.521867	-62.792461	-10.168564	-155.526516
1.050000	-9.937457	-153.814488	-0.550454	-65.765710	-0.550454	-65.765710	-9.942525	-158.672920
1.100000	-9.740174	-156.575421	-0.576994	-68.727383	-0.576994	-68.727383	-9.746213	-161.819147
1.150000	-9.568431	-159.312330	-0.601470	-71.680185	-0.601470	-71.680185	-9.575570	-164.967979
1.200000	-9.422107	-162.024037	-0.623553	-74.625332	-0.623553	-74.625332	-9.430466	-168.122658
1.250000	-9.300204	-164.710641	-0.643040	-77.564686	-0.643040	-77.564686	-9.309877	-171.286714
1.300000	-9.201963	-167.372257	-0.659757	-80.500229	-0.659757	-80.500229	-9.213012	-174.464006
1.350000	-9.126837	-170.008990	-0.673562	-83.434069	-0.673562	-83.434069	-9.139299	-177.658746
1.400000	-9.074476	-172.620858	-0.684340	-86.368454	-0.684340	-86.368454	-9.088371	179.124457
1.450000	-9.044711	-175.207674	-0.692009	-89.305776	-0.692009	-89.305776	-9.060067	175.880550
1.500000	-9.037551	-177.768909	-0.696513	-92.248568	-0.696513	-92.248568	-9.054424	172.603958
1.550000	-9.053189	179.696457	-0.697823	-95.199492	-0.697823	-95.199492	-9.071681	169.288486
1.600000	-9.092017	177.190074	-0.695938	-98.161314	-0.695938	-98.161314	-9.112290	165.927162
1.650000	-9.154634	174.714367	-0.690880	-101.136887	-0.690880	-101.136887	-9.176935	162.511991
1.700000	-9.242502	172.273703	-0.682625	-104.129636	-0.682625	-104.129636	-9.267238	159.031670
1.750000	-9.355766	169.871378	-0.671382	-107.141878	-0.671382	-107.141878	-9.383703	155.477528
1.800000	-9.496082	167.513876	-0.657230	-110.176802	-0.657230	-110.176802	-9.528832	151.838087
1.850000	-9.665094	165.209117	-0.640328	-113.237405	-0.640328	-113.237405	-9.704979	148.107824
1.900000	-9.861170	162.957486	-0.621183	-116.322546	-0.621183	-116.322546	-9.909827	144.294866
1.950000	-10.094036	160.790795	-0.599357	-119.443453	-0.599357	-119.443453	-10.151670	140.350030
2.000000	-10.362643	158.717575	-0.575508	-122.599022	-0.575508	-122.599022	-10.429907	136.255825
2.050000	-10.670147	156.760387	-0.549970	-125.792125	-0.549970	-125.792125	-10.748872	131.984515
2.100000	-11.020154	154.948770	-0.523129	-129.025541	-0.523129	-129.025541	-11.113157	127.504311
2.150000	-11.416715	153.321639	-0.495422	-132.301920	-0.495422	-132.301920	-11.527842	122.774537
2.200000	-11.864253	151.930617	-0.467339	-135.623747	-0.467339	-135.623747	-11.998670	117.741881
2.250000	-12.367371	150.844697	-0.439421	-138.993299	-0.439421	-138.993299	-12.532073	112.335446
2.300000	-12.930392	150.156695	-0.412264	-142.412590	-0.412264	-142.412590	-13.134982	106.459416
2.350000	-13.556403	149.991962	-0.386514	-145.883327	-0.386514	-145.883327	-13.814217	99.982181
2.400000	-14.245331	150.519344	-0.362868	-149.406848	-0.362868	-149.406848	-14.574985	92.720656
2.450000	-14.990249	151.962606	-0.342066	-152.984066	-0.342066	-152.984066	-15.417482	84.419227
2.500000	-15.770650	154.605221	-0.324885	-156.615410	-0.324885	-156.615410	-16.329622	74.726959
2.550000	-16.538113	158.808216	-0.312253	-160.301923	-0.312253	-160.301923	-17.269203	63.140099
2.600000	-17.208390	164.800694	-0.304923	-164.041678	-0.304923	-164.041678	-18.144069	49.215612
2.650000	-17.655917	172.547931	-0.303738	-167.833277	-0.303738	-167.833277	-18.789113	32.766677
2.700000	-17.748563	-178.534441	-0.309533	-171.674649	-0.309533	-171.674649	-18.998475	14.408975
2.750000	-17.421226	-169.559231	-0.323122	-175.563025	-0.323122	-175.563025	-18.651343	-4.272807
2.800000	-16.723842	-161.681086	-0.345283	-179.494944	-0.345283	-179.494944	-17.819161	-21.535101
2.850000	-15.784169	-155.572735	-0.376737	176.533729	-0.376737	176.533729	-16.699562	-36.465965
2.900000	-14.732955	-151.339887	-0.418131	172.527754	-0.418131	172.527754	-15.477339	-49.063186
2.950000	-13.662905	-148.756764	-0.470026	168.492450	-0.470026	168.492450	-14.266188	-59.746435
3.000000	-12.626875	-147.500340	-0.532874	164.433592	-0.532874	164.433592	-13.120384	-68.984341
3.050000	-11.650328	-147.269060	-0.607011	160.357299	-0.607011	160.357299	-12.060116	-77.158976
3.100000	-10.743005	-147.818372	-0.692649	156.269895	-0.692649	156.269895	-11.089055	-84.550739
3.150000	-9.906420	-148.965194	-0.789978	152.177786	-0.789978	152.177786	-10.203678	-91.353562
3.200000	-9.138453	-150.564014	-0.898929	148.087466	-0.898929	148.087466	-9.398033	-97.710660
3.250000	-8.435012	-152.503024	-1.019201	144.005003	-1.019201	144.005003	-8.665217	-103.725548
3.300000	-7.791280	-154.701713	-1.150488	139.936015	-1.150488	139.936015	-7.998418	-109.468395
3.350000	-7.202017	-157.093560	-1.292161	135.884925	-1.292161	135.884925	-7.390910	-114.996005
3.400000	-6.663371	-159.640280	-1.444223	131.857499	-1.444223	131.857499	-6.837906	-120.334924
3.450000	-6.170622	-162.297217	-1.605833	127.856874	-1.605833	127.856874	-6.333861	-125.521847
3.500000	-5.719737	-165.034081	-1.776378	123.885995	-1.776378	123.885995	-5.874180	-130.579990
3.550000	-5.307002	-167.826651	-1.955220	119.946987	-1.955220	119.946987	-5.454734	-135.528266
3.600000	-4.929010	-170.655500	-2.141711	116.041134	-2.141711	116.041134	-5.071804	-140.382641
3.650000	-4.582865	-173.505117	-2.335244	112.169353	-2.335244	112.169353	-4.722285	-145.156174
3.700000	-4.265819	-176.362725	-2.535203	108.331524	-2.535203	108.331524	-4.403273	-149.861403
3.750000	-3.973477	-179.218878	-2.740929	104.522758	-2.740929	104.522758	-4.110118	-154.516374
3.800000	-3.706585	177.935658	-2.952072	100.747540	-2.952072	100.747540	-3.843739	-159.122641
3.850000	-3.459858	175.104506	-3.168202	96.996947	-3.168202	96.996947	-3.598554	-163.700197
3.900000	-3.233353	172.294874	-3.388956	93.271434	-3.388956	93.271434	-3.374791	-168.256592
3.950000	-3.023964	169.508063	-3.614253	89.564655	-3.614253	89.564655	-3.169231	-172.805504
4.000000	-2.830426	166.747359	-3.844011	85.872329	-3.844011	85.872329	-2.980697	-177.359680
4.050000	-2.651339	164.014761	-4.078327	82.188990	-4.078327	82.188990	-2.807877	178.066921
4.100000	-2.484489	161.308858	-4.317638	78.507872	-4.317638	78.507872	-2.648526	173.461754
4.150000	-2.329687	158.633539	-4.562304	74.821495	-4.562304	74.821495	-2.502796	168.802915
4.200000	-2.184284	155.983447	-4.813307	71.123450	-4.813307	71.123450	-2.367871	164.083130
4.250000	-2.048440	153.362755	-5.071724	67.401297	-5.071724	67.401297	-2.244489	159.267728
4.300000	-1.919939	150.765343	-5.339032	63.649597	-5.339032	63.649597	-2.130278	154.351566
4.350000	-1.798357	148.191882	-5.617466	59.853187	-5.617466	59.853187	-2.025388	149.296587
4.400000	-1.682427	145.638385	-5.909525	56.002698	-5.909525	56.002698	-1.928725	144.083622
4.450000	-1.571196	143.101468	-6.218713	52.084747	-6.218713	52.084747	-1.839754	138.681349
4.500000	-1.463915	140.577756	-6.550170	48.080067	-6.550170	48.080067	-1.758454	133.041231
4.550000	-1.359491	138.061007	-6.908475	43.983392	-6.908475	43.983392	-1.683819	127.151124
4.600000	-1.257321	135.545759	-7.303334	39.766105	-7.303334	39.766105	-1.616525	120.931627
4.650000	-1.156605	133.023489	-7.745594	35.412494	-7.745594	35.412494	-1.556572	114.331078
4.700000	-1.056763	130.484320	-8.250005	30.907650	-8.250005	30.907650	-1.504360	107.287548
4.750000	-0.957452	127.916059	-8.837570	26.239191	-8.837570	26.239191	-1.460805	99.723116
4.800000	-0.858699	125.303793	-9.538355	21.405670	-9.538355	21.405670	-1.427377	91.546997
4.850000	-0.761104	122.629649	-10.396751	16.430893	-10.396751	16.430893	-1.406292	82.654408
4.900000	-0.666147	119.872969	-11.481050	11.396202	-11.481050	11.396202	-1.400723	72.926549
4.950000	-0.576586	117.011381	-12.902341	6.520075	-12.902341	6.520075	-1.415019	62.232847
5.000000	-0.496925	114.023470	-14.855975	2.384323	-14.855975	2.384323	-1.454825	50.437239
5.050000	-0.434194	110.891840	-17.725909	0.859132	-17.725909	0.859132	-1.527491	37.391503
5.100000	-0.396995	107.619223	-22.238188	9.424919	-22.238188	9.424919	-1.639459	23.024002
5.150000	-0.396016	104.229068	-26.130682	59.043609	-26.130682	59.043609	-1.796861	7.284193
5.200000	-0.441132	100.781029	-20.677490	99.629665	-20.677490	99.629665	-2.001130	-9.760532
5.250000	-0.539091	97.369779	-15.898358	103.546446	-15.898358	103.546446	-2.246862	-27.923761
5.300000	-0.689214	94.109782	-12.725512	98.733529	-12.725512	98.733529	-2.519722	-46.870281
5.350000	-0.883551	91.110786	-10.499552	91.205987	-10.499552	91.205987	-2.799504	-66.178252
5.400000	-1.107250	88.441612	-8.882756	82.743180	-8.882756	82.743180	-3.065923	-85.396953
5.450000	-1.344027	86.125454	-7.687030	74.051904	-7.687030	74.051904	-3.304771	-104.144044
5.500000	-1.579385	84.142781	-6.792393	65.464413	-6.792393	65.464413	-3.510832	-122.156545
5.550000	-1.803601	82.443319	-6.113115	57.117122	-6.113115	57.117122	-3.687782	-139.337378
5.600000	-2.011148	80.979198	-5.591490	49.046825	-5.591490	49.046825	-3.843161	-155.701767
5.650000	-2.200435	79.705105	-5.184067	41.225326	-5.184067	41.225326	-3.986341	-171.383265
5.700000	-2.371406	78.593216	-4.861715	33.597765	-4.861715	33.597765	-4.125000	173.434381
5.750000	-2.524023	77.631756	-4.605419	26.097032	-4.605419	26.097032	-4.264113	158.537601
5.800000	-2.657816	76.816612	-4.402401	18.650964	-4.402401	18.650964	-4.405043	143.699036
5.850000	-2.769966	76.153024	-4.247139	11.192968	-4.247139	11.192968	-4.544743	128.701530
5.900000	-2.855881	75.641089	-4.138038	3.664243	-4.138038	3.664243	-4.675065	113.352526
5.950000	-2.908942	75.269988	-4.077489	-3.980441	-4.077489	-3.980441	-4.782503	97.508061
6.000000	-2.920561	75.010017	-4.071978	-11.772251	-4.071978	-11.772251	-4.847710	81.087020
6.050000	-2.883949	74.800904	-4.128529	-19.716752	-4.128529	-19.716752	-4.850269	64.129288
6.100000	-2.794072	74.557169	-4.256819	-27.798889	-4.256819	-27.798889	-4.771031	46.783380
6.150000	-2.651892	74.175662	-4.465408	-35.975437	-4.465408	-35.975437	-4.601003	29.320519
6.200000	-2.465067	73.559532	-4.760573	-44.180268	-4.760573	-44.180268	-4.345904	12.074054
6.250000	-2.245902	72.629993	-5.147405	-52.328894	-5.147405	-52.328894	-4.023397	-4.610702
6.300000	-2.010938	71.359886	-5.624264	-60.331489	-5.624264	-60.331489	-3.662259	-20.471244
6.350000	-1.775423	69.755663	-6.187505	-68.099919	-6.187505	-68.099919	-3.290138	-35.322242
6.400000	-1.551948	67.859021	-6.829411	-75.559624	-6.829411	-75.559624	-2.930253	-49.076298
6.450000	-1.348634	65.731194	-7.540115	-82.660258	-7.540115	-82.660258	-2.597839	-61.733312
6.500000	-1.170330	63.429964	-8.308664	-89.356668	-8.308664	-89.356668	-2.301744	-73.300253
6.550000	-1.017057	61.018264	-9.125390	-95.653579	-9.125390	-95.653579	-2.043179	-83.892463
6.600000	-0.887665	58.539994	-9.982078	-101.553747	-9.982078	-101.553747	-1.820861	-93.590493
6.650000	-0.780704	56.028420	-10.868968	-107.054364	-10.868968	-107.054364	-1.632831	-102.447754
6.700000	-0.692756	53.509642	-11.781602	-112.187390	-11.781602	-112.187390	-1.474205	-110.575883
6.750000	-0.620737	50.999658	-12.717471	-116.982647	-12.717471	-116.982647	-1.340474	-118.066789
6.800000	-0.562253	48.508690	-13.673280	-121.459955	-13.673280	-121.459955	-1.228112	-124.985123
6.850000	-0.514966	46.042587	-14.648173	-125.643353	-14.648173	-125.643353	-1.133650	-131.398283
6.900000	-0.476960	43.604429	-15.641595	-129.551775	-15.641595	-129.551775	-1.054229	-137.361693
6.950000	-0.446525	41.194924	-16.655201	-133.204178	-16.655201	-133.204178	-0.987268	-142.929302
7.000000	-0.422207	38.813143	-17.692950	-136.617807	-17.692950	-136.617807	-0.930544	-148.151332
7.050000	-0.402903	36.457708	-18.759036	-139.802382	-18.759036	-139.802382	-0.882343	-153.067362
7.100000	-0.387997	34.128749	-19.850234	-142.742476	-19.850234	-142.742476	-0.841744	-157.691358
7.150000	-0.376123	31.820006	-20.992296	-145.476862	-20.992296	-145.476862	-0.806486	-162.099033
7.200000	-0.367074	29.531799	-22.184743	-147.972914	-22.184743	-147.972914	-0.776263	-166.290701
7.250000	-0.360376	27.262091	-23.439512	-150.208197	-23.439512	-150.208197	-0.750286	-170.289445
7.300000	-0.355642	25.008912	-24.772186	-152.143140	-24.772186	-152.143140	-0.727905	-174.115485
7.350000	-0.352565	22.770386	-26.203471	-153.711511	-26.203471	-153.711511	-0.708580	-177.786576
7.400000	-0.350894	20.544745	-27.761489	-154.802950	-27.761489	-154.802950	-0.691866	178.681646
7.450000	-0.350429	18.330325	-29.485368	-155.229178	-29.485368	-155.229178	-0.677394	175.275368
7.500000	-0.351009	16.125565	-31.430709	-154.654666	-31.430709	-154.654666	-0.664855	171.982353
7.550000	-0.352538	13.929285	-33.664193	-152.303608	-33.664193	-152.303608	-0.654053	168.795722
7.600000	-0.354873	11.739683	-36.281050	-146.705764	-36.281050	-146.705764	-0.644693	165.701002
7.650000	-0.357932	9.555442	-39.264789	-134.410941	-39.264789	-134.410941	-0.636598	162.689640
7.700000	-0.361655	7.375296	-41.840740	-109.793981	-41.840740	-109.793981	-0.629618	159.753952
7.750000	-0.365992	5.198017	-41.966281	-78.120222	-41.966281	-78.120222	-0.623625	156.887009
7.800000	-0.370908	3.022401	-39.933902	-55.359539	-39.933902	-55.359539	-0.618511	154.082547
7.850000	-0.376375	0.847258	-37.596096	-43.293292	-37.596096	-43.293292	-0.614186	151.334880
7.900000	-0.382377	-1.328604	-35.608025	-37.525761	-35.608025	-37.525761	-0.610572	148.638834
7.950000	-0.388904	-3.506393	-33.991658	-34.883089	-33.991658	-34.883089	-0.607604	145.989683
8.000000	-0.395953	-5.687341	-32.665592	-33.879549	-32.665592	-33.879549	-0.605227	143.383096
8.050000	-0.403527	-7.872723	-31.557907	-33.815314	-31.557907	-33.815314	-0.603395	140.815089
8.100000	-0.411634	-10.063869	-30.616256	-34.331325	-30.616256	-34.331325	-0.602069	138.281989
8.150000	-0.420290	-12.262181	-29.803386	-35.227743	-29.803386	-35.227743	-0.601219	135.780390
8.200000	-0.429514	-14.469146	-29.092430	-36.385716	-29.092430	-36.385716	-0.600819	133.307129
8.250000	-0.439331	-16.686361	-28.463594	-37.730752	-28.463594	-37.730752	-0.600849	130.859250
8.300000	-0.449773	-18.915545	-27.901962	-39.214200	-27.901962	-39.214200	-0.601295	128.433985
8.350000	-0.460890	-21.158895	-27.396433	-40.804709	-27.396433	-40.804709	-0.602155	126.029047
8.400000	-0.472670	-23.417082	-26.936484	-42.473721	-26.936484	-42.473721	-0.603390	123.640650
8.450000	-0.485183	-25.692676	-26.515963	-44.209760	-26.515963	-44.209760	-0.605017	121.267390
8.500000	-0.498623	-27.991748	-26.131217	-46.009246	-26.131217	-46.009246	-0.607102	118.908864
8.550000	-0.512961	-30.314682	-25.775067	-47.855768	-25.775067	-47.855768	-0.609599	116.560785
8.600000	-0.528260	-32.664012	-25.443361	-49.743890	-25.443361	-49.743890	-0.612513	114.220980
8.650000	-0.544610	-35.043065	-25.132840	-51.670860	-25.132840	-51.670860	-0.615860	111.887599
8.700000	-0.562117	-37.455577	-24.840693	-53.635231	-24.840693	-53.635231	-0.619661	109.558824
8.750000	-0.580904	-39.905754	-24.564460	-55.636724	-24.564460	-55.636724	-0.623943	107.232867
8.800000	-0.601114	-42.398343	-24.301956	-57.676153	-24.301956	-57.676153	-0.628735	104.907954
8.850000	-0.623094	-44.944324	-24.051467	-59.759790	-24.051467	-59.759790	-0.634134	102.582009
8.900000	-0.647109	-47.551949	-23.810722	-61.891879	-23.810722	-61.891879	-0.640194	100.252663
8.950000	-0.673294	-50.225006	-23.577627	-64.074223	-23.577627	-64.074223	-0.646925	97.918189
9.000000	-0.701984	-52.972928	-23.350484	-66.313730	-23.350484	-66.313730	-0.654393	95.576737
9.050000	-0.733586	-55.806812	-23.127604	-68.619164	-23.127604	-68.619164	-0.662675	93.226406
9.100000	-0.768605	-58.739782	-22.907266	-71.001510	-22.907266	-71.001510	-0.671864	90.865235
9.150000	-0.807666	-61.787434	-22.687681	-73.474419	-22.687681	-73.474419	-0.682066	88.491186
9.200000	-0.851747	-64.973760	-22.466637	-76.059241	-22.466637	-76.059241	-0.693451	86.101546
9.250000	-0.902925	-68.349334	-22.240166	-78.801347	-22.240166	-78.801347	-0.706379	83.691273
9.300000	-0.961208	-71.904256	-22.008192	-81.696390	-22.008192	-81.696390	-0.720720	81.262431
9.350000	-1.029566	-75.703685	-21.766292	-84.803391	-21.766292	-84.803391	-0.736919	78.809753
9.400000	-1.111361	-79.810507	-21.509673	-88.176733	-21.509673	-88.176733	-0.755359	76.329750
9.450000	-1.210677	-84.291892	-21.228983	-91.900510	-21.228983	-91.900510	-0.776417	73.819967
9.500000	-1.334071	-89.250321	-20.930099	-96.101051	-20.930099	-96.101051	-0.800662	71.277196
9.550000	-1.490988	-94.818932	-20.601607	-100.850024	-20.601607	-100.850024	-0.828786	68.698765
9.600000	-1.696289	-101.189833	-20.235133	-106.344285	-20.235133	-106.344285	-0.861728	66.082289
9.650000	-1.973068	-108.630760	-19.823857	-112.820194	-19.823857	-112.820194	-0.900662	63.426993
9.700000	-2.362870	-117.591564	-19.359456	-120.643578	-19.359456	-120.643578	-0.947310	60.733808
9.750000	-2.933330	-128.724369	-18.840940	-130.273284	-18.840940	-130.273284	-1.003407	58.011055
9.800000	-3.795154	-143.034574	-18.283251	-142.268343	-18.283251	-142.268343	-1.070111	55.277306
9.850000	-5.125931	-162.280030	-17.732769	-157.278239	-17.732769	-157.278239	-1.146467	52.564212
9.900000	-7.129359	170.181280	-17.289410	-175.739545	-17.289410	-175.739545	-1.225618	49.909889
9.950000	-9.354879	128.182668	-17.095405	162.690025	-17.095405	162.690025	-1.291443	47.326618
10.000000	-9.642888	74.733804	-17.228559	139.648892	-17.228559	139.648892	-1.326518	44.766811
