! freq	dB(S11)	phase(S11)	dB(S12)	phase(S12)	
!     	dB(S21)	phase(S21)	dB(S22)	phase(S22)	
!S-par simulation data
#  GHz  S  DB  R 50
0.000000	-84.324634	0.000000	-0.000528	0.000000	-0.000528	0.000000	-84.324634	0.000000
0.050000	-65.069673	-85.933766	-0.003565	-2.204278	-0.003565	-2.204278	-65.060785	-85.823000
0.100000	-59.094818	-91.308369	-0.009482	-4.380468	-0.009482	-4.380468	-59.085810	-91.077061
0.150000	-55.591768	-94.587479	-0.014615	-6.535023	-0.014615	-6.535023	-55.582682	-94.237500
0.200000	-53.110874	-97.369312	-0.018415	-8.681455	-0.018415	-8.681455	-53.101708	-96.900830
0.250000	-51.193879	-99.945120	-0.021184	-10.825704	-0.021184	-10.825704	-51.184630	-99.357859
0.300000	-49.635896	-102.423365	-0.023326	-12.970082	-0.023326	-12.970082	-49.626571	-101.716796
0.350000	-48.326522	-104.858140	-0.025156	-15.115194	-0.025156	-15.115194	-48.317142	-104.031593
0.400000	-47.202290	-107.269825	-0.026805	-17.261191	-0.026805	-17.261191	-47.192894	-106.322348
0.450000	-46.218694	-109.675455	-0.028394	-19.407835	-0.028394	-19.407835	-46.209334	-108.606095
0.500000	-45.349902	-112.083743	-0.029972	-21.555109	-0.029972	-21.555109	-45.340668	-110.891144
0.550000	-44.572934	-114.500043	-0.031573	-23.702798	-0.031573	-23.702798	-44.563920	-113.182887
0.600000	-43.874596	-116.929759	-0.033221	-25.850850	-0.033221	-25.850850	-43.865941	-115.486359
0.650000	-43.242604	-119.375111	-0.034925	-27.999171	-0.034925	-27.999171	-43.234464	-117.803666
0.700000	-42.668221	-121.838224	-0.036690	-30.147702	-0.036690	-30.147702	-42.660783	-120.136708
0.750000	-42.145401	-124.321621	-0.038524	-32.296415	-0.038524	-32.296415	-42.138901	-122.487643
0.800000	-41.666689	-126.823869	-0.040418	-34.445264	-0.040418	-34.445264	-41.661356	-124.855070
0.850000	-41.230371	-129.348924	-0.042383	-36.594258	-0.042383	-36.594258	-41.226538	-127.242206
0.900000	-40.829418	-131.892766	-0.044403	-38.743365	-0.044403	-38.743365	-40.827369	-129.645321
0.950000	-40.463517	-134.458541	-0.046487	-40.892611	-0.046487	-40.892611	-40.463655	-132.066715
1.000000	-40.127600	-137.042810	-0.048623	-43.041989	-0.048623	-43.041989	-40.130291	-134.503136
1.050000	-39.820527	-139.646013	-0.050810	-45.191524	-0.050810	-45.191524	-39.826213	-136.954447
1.100000	-39.539766	-142.266500	-0.053044	-47.341238	-0.053044	-47.341238	-39.548909	-139.418801
1.150000	-39.282722	-144.902107	-0.055319	-49.491148	-0.055319	-49.491148	-39.295785	-141.893946
1.200000	-39.049033	-147.552496	-0.057635	-51.641308	-0.057635	-51.641308	-39.066574	-144.378864
1.250000	-38.834626	-150.213782	-0.059983	-53.791713	-0.059983	-53.791713	-38.857105	-146.870223
1.300000	-38.640857	-152.886113	-0.062365	-55.942467	-0.062365	-55.942467	-38.668918	-149.366965
1.350000	-38.463127	-155.565323	-0.064771	-58.093541	-0.064771	-58.093541	-38.497251	-151.865921
1.400000	-38.301794	-158.250099	-0.067204	-60.245038	-0.067204	-60.245038	-38.342590	-154.364990
1.450000	-38.154059	-160.937575	-0.069657	-62.396965	-0.069657	-62.396965	-38.202051	-156.861893
1.500000	-38.018683	-163.625275	-0.072129	-64.549390	-0.072129	-64.549390	-38.074411	-159.354173
1.550000	-37.894146	-166.310549	-0.074619	-66.702373	-0.074619	-66.702373	-37.958140	-161.839429
1.600000	-37.778129	-168.991014	-0.077123	-68.855923	-0.077123	-68.855923	-37.850828	-164.316084
1.650000	-37.669715	-171.662996	-0.079643	-71.010180	-0.079643	-71.010180	-37.751598	-166.780627
1.700000	-37.566299	-174.325042	-0.082175	-73.165092	-0.082175	-73.165092	-37.657688	-169.232907
1.750000	-37.466500	-176.973268	-0.084721	-75.320786	-0.084721	-75.320786	-37.567705	-171.669767
1.800000	-37.368328	-179.605082	-0.087279	-77.477297	-0.087279	-77.477297	-37.479554	-174.089889
1.850000	-37.269891	177.782436	-0.089851	-79.634681	-0.089851	-79.634681	-37.391243	-176.491746
1.900000	-37.169226	175.192489	-0.092437	-81.793002	-0.092437	-81.793002	-37.300694	-178.873769
1.950000	-37.064359	172.628081	-0.095039	-83.952318	-0.095039	-83.952318	-37.205805	178.765221
2.000000	-36.953439	170.091818	-0.097657	-86.112673	-0.097657	-86.112673	-37.104586	176.425935
2.050000	-36.834617	167.586446	-0.100293	-88.274119	-0.100293	-88.274119	-36.995046	174.109073
2.100000	-36.706104	165.114564	-0.102951	-90.436710	-0.102951	-90.436710	-36.875248	171.815105
2.150000	-36.566196	162.678560	-0.105630	-92.600498	-0.105630	-92.600498	-36.743344	169.544259
2.200000	-36.413294	160.280551	-0.108336	-94.765534	-0.108336	-94.765534	-36.597596	167.296519
2.250000	-36.245934	157.922320	-0.111069	-96.931867	-0.111069	-96.931867	-36.436410	165.071620
2.300000	-36.062805	155.605249	-0.113833	-99.099547	-0.113833	-99.099547	-36.258363	162.869052
2.350000	-35.862772	153.330265	-0.116632	-101.268622	-0.116632	-101.268622	-36.062230	160.688066
2.400000	-35.644897	151.097793	-0.119467	-103.439139	-0.119467	-103.439139	-35.847005	158.527692
2.450000	-35.408452	148.907720	-0.122344	-105.611147	-0.122344	-105.611147	-35.611924	156.386754
2.500000	-35.152928	146.759385	-0.125264	-107.784691	-0.125264	-107.784691	-35.356471	154.263898
2.550000	-34.877414	144.652417	-0.128233	-109.959852	-0.128233	-109.959852	-35.079730	152.157945
2.600000	-34.582427	142.584140	-0.131253	-112.136643	-0.131253	-112.136643	-34.782300	150.066883
2.650000	-34.268140	140.552311	-0.134329	-114.315110	-0.134329	-114.315110	-34.464435	147.989018
2.700000	-33.934933	138.554277	-0.137463	-116.495299	-0.137463	-116.495299	-34.126618	145.922626
2.750000	-33.583380	136.587046	-0.140659	-118.677255	-0.140659	-118.677255	-33.769546	143.865979
2.800000	-33.214228	134.647371	-0.143922	-120.861027	-0.143922	-120.861027	-33.394097	141.817384
2.850000	-32.828376	132.731842	-0.147255	-123.046661	-0.147255	-123.046661	-33.001310	139.775209
2.900000	-32.426844	130.836963	-0.150663	-125.234207	-0.150663	-125.234207	-32.592345	137.737908
2.950000	-32.010756	128.959240	-0.154150	-127.423714	-0.154150	-127.423714	-32.168464	135.704031
3.000000	-31.581308	127.095246	-0.157720	-129.615234	-0.157720	-129.615234	-31.730988	133.672244
3.050000	-31.139743	125.241690	-0.161378	-131.808820	-0.161378	-131.808820	-31.281282	131.641330
3.100000	-30.687333	123.395458	-0.165128	-134.004528	-0.165128	-134.004528	-30.820721	129.610193
3.150000	-30.224990	121.553673	-0.168978	-136.202437	-0.168978	-136.202437	-30.350301	127.577830
3.200000	-29.753986	119.713602	-0.172932	-138.402610	-0.172932	-138.402610	-29.871374	125.543348
3.250000	-29.275926	117.872816	-0.176997	-140.605083	-0.176997	-140.605083	-29.385615	123.506006
3.300000	-28.792006	116.029199	-0.181178	-142.809920	-0.181178	-142.809920	-28.894271	121.465145
3.350000	-28.303370	114.180886	-0.185482	-145.017186	-0.185482	-145.017186	-28.398521	119.420192
3.400000	-27.811101	112.326260	-0.189918	-147.226948	-0.189918	-147.226948	-27.899477	117.370650
3.450000	-27.316220	110.463937	-0.194494	-149.439276	-0.194494	-149.439276	-27.398176	115.316092
3.500000	-26.819680	108.592743	-0.199218	-151.654240	-0.199218	-151.654240	-26.895578	113.256150
3.550000	-26.322363	106.711704	-0.204102	-153.871914	-0.204102	-153.871914	-26.392570	111.190507
3.600000	-25.825087	104.820022	-0.209156	-156.092370	-0.209156	-156.092370	-25.889964	109.118894
3.650000	-25.328601	102.917055	-0.214392	-158.315683	-0.214392	-158.315683	-25.388502	107.041082
3.700000	-24.833588	101.002304	-0.219823	-160.541929	-0.219823	-160.541929	-24.888858	104.956875
3.750000	-24.340673	99.075388	-0.225464	-162.771181	-0.225464	-162.771181	-24.391641	102.866112
3.800000	-23.849892	97.135764	-0.231335	-165.003585	-0.231335	-165.003585	-23.896870	100.768507
3.850000	-23.362319	95.183522	-0.237449	-167.239147	-0.237449	-167.239147	-23.405608	98.664098
3.900000	-22.878415	93.218570	-0.243823	-169.477938	-0.243823	-169.477938	-22.918297	96.552799
3.950000	-22.398592	91.240882	-0.250478	-171.720027	-0.250478	-171.720027	-22.435333	94.434548
4.000000	-21.923791	89.250835	-0.257426	-173.965387	-0.257426	-173.965387	-21.957641	92.309495
4.050000	-21.453288	87.247891	-0.264704	-176.214244	-0.264704	-176.214244	-21.484477	90.177274
4.100000	-20.987692	85.232354	-0.272333	-178.466609	-0.272333	-178.466609	-21.016436	88.037979
4.150000	-20.527386	83.204459	-0.280337	179.277485	-0.280337	179.277485	-20.553884	85.891665
4.200000	-20.072653	81.164441	-0.288741	177.018006	-0.288741	177.018006	-20.097091	83.738388
4.250000	-19.623697	79.112527	-0.297575	174.754919	-0.297575	174.754919	-19.646246	81.578201
4.300000	-19.180697	77.048970	-0.306869	172.488199	-0.306869	172.488199	-19.201515	79.411179
4.350000	-18.743809	74.974045	-0.316654	170.217831	-0.316654	170.217831	-18.763042	77.237413
4.400000	-18.313092	72.887989	-0.326965	167.943791	-0.326965	167.943791	-18.330873	75.056979
4.450000	-17.888677	70.791122	-0.337838	165.666089	-0.337838	165.666089	-17.905129	72.870007
4.500000	-17.470750	68.683834	-0.349305	163.384766	-0.349305	163.384766	-17.485985	70.676682
4.550000	-17.059399	66.566472	-0.361403	161.099859	-0.361403	161.099859	-17.073521	68.477169
4.600000	-16.654701	64.439395	-0.374169	158.811422	-0.374169	158.811422	-16.667803	66.271653
4.650000	-16.256719	62.302977	-0.387641	156.519522	-0.387641	156.519522	-16.268888	64.060337
4.700000	-15.865478	60.157581	-0.401861	154.224239	-0.401861	154.224239	-15.876793	61.843426
4.750000	-15.480974	58.003566	-0.416872	151.925660	-0.416872	151.925660	-15.491508	59.621132
4.800000	-15.103334	55.841415	-0.432708	149.623939	-0.432708	149.623939	-15.113150	57.393759
4.850000	-14.732583	53.671550	-0.449410	147.319218	-0.449410	147.319218	-14.741743	55.161579
4.900000	-14.368742	51.494405	-0.467017	145.011663	-0.467017	145.011663	-14.377300	52.924882
4.950000	-14.011826	49.310421	-0.485569	142.701461	-0.485569	142.701461	-14.019832	50.683977
5.000000	-13.661843	47.120053	-0.505104	140.388816	-0.505104	140.388816	-13.669341	48.439184
5.050000	-13.318725	44.923705	-0.525671	138.073938	-0.525671	138.073938	-13.325757	46.190810
5.100000	-12.982551	42.721919	-0.547298	135.757102	-0.547298	135.757102	-12.989154	43.939250
5.150000	-12.653314	40.515177	-0.570019	133.438580	-0.570019	133.438580	-12.659523	41.684873
5.200000	-12.331002	38.303969	-0.593868	131.118666	-0.593868	131.118666	-12.336847	39.428063
5.250000	-12.015598	36.088794	-0.618877	128.797672	-0.618877	128.797672	-12.021107	37.169216
5.300000	-11.707083	33.870157	-0.645077	126.475933	-0.645077	126.475933	-11.712283	34.908741
5.350000	-11.405406	31.648553	-0.672503	124.153801	-0.672503	124.153801	-11.410319	32.647053
5.400000	-11.110566	29.424524	-0.701174	121.831655	-0.701174	121.831655	-11.115214	30.384596
5.450000	-10.822542	27.198603	-0.731108	119.509886	-0.731108	119.509886	-10.826945	28.121818
5.500000	-10.541301	24.971320	-0.762324	117.188898	-0.762324	117.188898	-10.545476	25.859169
5.550000	-10.266805	22.743211	-0.794837	114.869111	-0.794837	114.869111	-10.270769	23.597111
5.600000	-9.999012	20.514813	-0.828658	112.550957	-0.828658	112.550957	-10.002780	21.336111
5.650000	-9.737873	18.286671	-0.863801	110.234894	-0.863801	110.234894	-9.741460	19.076654
5.700000	-9.483347	16.059336	-0.900268	107.921383	-0.900268	107.921383	-9.486765	16.819228
5.750000	-9.235392	13.833350	-0.938054	105.610873	-0.938054	105.610873	-9.238652	14.564307
5.800000	-8.993952	11.609254	-0.977152	103.303830	-0.977152	103.303830	-8.997066	12.312378
5.850000	-8.758971	9.387589	-1.017555	101.000723	-1.017555	101.000723	-8.761949	10.063927
5.900000	-8.530391	7.168891	-1.059249	98.702023	-1.059249	98.702023	-8.533243	7.819441
5.950000	-8.308149	4.953705	-1.102218	96.408215	-1.102218	96.408215	-8.310884	5.579420
6.000000	-8.092190	2.742587	-1.146447	94.119800	-1.146447	94.119800	-8.094816	3.344380
6.050000	-7.882439	0.536031	-1.191900	91.837200	-1.191900	91.837200	-7.884964	1.114764
6.100000	-7.678825	-1.665452	-1.238547	89.560869	-1.238547	89.560869	-7.681257	-1.108957
6.150000	-7.481274	-3.861359	-1.286353	87.291252	-1.286353	87.291252	-7.483620	-3.326316
6.200000	-7.289710	-6.051196	-1.335282	85.028783	-1.335282	85.028783	-7.291975	-5.536857
6.250000	-7.104051	-8.234483	-1.385292	82.773883	-1.385292	82.773883	-7.106244	-7.740133
6.300000	-6.924253	-10.410633	-1.436348	80.527097	-1.436348	80.527097	-6.926378	-9.935578
6.350000	-6.750199	-12.579299	-1.488390	78.288693	-1.488390	78.288693	-6.752262	-12.122888
6.400000	-6.581803	-14.740046	-1.541366	76.059047	-1.541366	76.059047	-6.583810	-14.301655
6.450000	-6.418975	-16.892457	-1.595223	73.838519	-1.595223	73.838519	-6.420932	-16.471490
6.500000	-6.261625	-19.036131	-1.649906	71.627450	-1.649906	71.627450	-6.263535	-18.632018
6.550000	-6.109658	-21.170689	-1.705356	69.426167	-1.705356	69.426167	-6.111527	-20.782885
6.600000	-5.962981	-23.295772	-1.761513	67.234979	-1.761513	67.234979	-5.964812	-22.923753
6.650000	-5.821496	-25.411041	-1.818317	65.054183	-1.818317	65.054183	-5.823294	-25.054307
6.700000	-5.685106	-27.516182	-1.875704	62.884059	-1.875704	62.884059	-5.686875	-27.174254
6.750000	-5.553712	-29.610903	-1.933611	60.724879	-1.933611	60.724879	-5.555456	-29.283321
6.800000	-5.427215	-31.694935	-1.991971	58.576902	-1.991971	58.576902	-5.428936	-31.381260
6.850000	-5.305514	-33.768037	-2.050716	56.440382	-2.050716	56.440382	-5.307217	-33.467845
6.900000	-5.188542	-35.829866	-2.109775	54.315692	-2.109775	54.315692	-5.190228	-35.542749
6.950000	-5.076198	-37.880224	-2.169071	52.203080	-2.169071	52.203080	-5.077871	-37.605790
7.000000	-4.968347	-39.919068	-2.228529	50.102646	-2.228529	50.102646	-4.970009	-39.656945
7.050000	-4.864887	-41.946259	-2.288067	48.014608	-2.288067	48.014608	-4.866541	-41.696091
7.100000	-4.765716	-43.961686	-2.347599	45.939162	-2.347599	45.939162	-4.767365	-43.723129
7.150000	-4.670735	-45.965261	-2.407032	43.876478	-2.407032	43.876478	-4.672379	-45.737989
7.200000	-4.579842	-47.956926	-2.466270	41.826688	-2.466270	41.826688	-4.581484	-47.740623
7.250000	-4.492939	-49.936647	-2.525210	39.789872	-2.525210	39.789872	-4.494581	-49.731011
7.300000	-4.409928	-51.904416	-2.583746	37.766053	-2.583746	37.766053	-4.411570	-51.709157
7.350000	-4.330711	-53.860251	-2.641771	35.755182	-2.641771	35.755182	-4.332356	-53.675092
7.400000	-4.255194	-55.804196	-2.699179	33.757141	-2.699179	33.757141	-4.256843	-55.628868
7.450000	-4.183284	-57.736317	-2.755867	31.771743	-2.755867	31.771743	-4.184937	-57.570566
7.500000	-4.114888	-59.656708	-2.811735	29.798738	-2.811735	29.798738	-4.116547	-59.500288
7.550000	-4.049979	-61.565235	-2.866666	27.838083	-2.866666	27.838083	-4.051645	-61.417906
7.600000	-3.988407	-63.462294	-2.920602	25.889171	-2.920602	25.889171	-3.990079	-63.323831
7.650000	-3.930084	-65.348048	-2.973469	23.951645	-2.973469	23.951645	-3.931765	-65.218235
7.700000	-3.874930	-67.222683	-3.025202	22.025140	-3.025202	22.025140	-3.876619	-67.101313
7.750000	-3.822862	-69.086405	-3.075740	20.109294	-3.075740	20.109294	-3.824561	-68.973280
7.800000	-3.773805	-70.939441	-3.125030	18.203751	-3.125030	18.203751	-3.775513	-70.834370
7.850000	-3.727683	-72.782037	-3.173021	16.308169	-3.173021	16.308169	-3.729401	-72.684840
7.900000	-3.684424	-74.614460	-3.219667	14.422215	-3.219667	14.422215	-3.686152	-74.524961
7.950000	-3.643960	-76.436994	-3.264922	12.545567	-3.264922	12.545567	-3.645699	-76.355025
8.000000	-3.606225	-78.249939	-3.308743	10.677911	-3.308743	10.677911	-3.607975	-78.175342
8.050000	-3.571157	-80.053616	-3.351087	8.818939	-3.351087	8.818939	-3.572918	-79.986237
8.100000	-3.538696	-81.848358	-3.391913	6.968344	-3.391913	6.968344	-3.540468	-81.788051
8.150000	-3.508812	-83.634427	-3.431160	5.125902	-3.431160	5.125902	-3.510596	-83.581051
8.200000	-3.481452	-85.412202	-3.468785	3.291291	-3.468785	3.291291	-3.483249	-85.365620
8.250000	-3.456541	-87.182155	-3.504768	1.464108	-3.504768	1.464108	-3.458349	-87.142239
8.300000	-3.434033	-88.944680	-3.539069	-0.355971	-3.539069	-0.355971	-3.435854	-88.911309
8.350000	-3.413952	-90.699994	-3.571593	-2.169092	-3.571593	-2.169092	-3.415785	-90.673046
8.400000	-3.396026	-92.449181	-3.602495	-3.976247	-3.602495	-3.976247	-3.397873	-92.428554
8.450000	-3.380575	-94.191690	-3.631443	-5.776824	-3.631443	-5.776824	-3.382435	-94.177267
8.500000	-3.367262	-95.928775	-3.658658	-7.571985	-3.658658	-7.571985	-3.369136	-95.920459
8.550000	-3.356234	-97.660457	-3.683956	-9.361672	-3.683956	-9.361672	-3.358122	-97.658148
8.600000	-3.347424	-99.387297	-3.707339	-11.146368	-3.707339	-11.146368	-3.349326	-99.390901
8.650000	-3.340730	-101.109940	-3.728852	-12.926649	-3.728852	-12.926649	-3.342646	-101.119371
8.700000	-3.336344	-102.828473	-3.748268	-14.702501	-3.748268	-14.702501	-3.338275	-102.843640
8.750000	-3.333923	-104.543932	-3.765871	-16.474942	-3.765871	-16.474942	-3.335869	-104.564762
8.800000	-3.333917	-106.256167	-3.781196	-18.243666	-3.781196	-18.243666	-3.335878	-106.282570
8.850000	-3.335864	-107.966254	-3.794653	-20.009785	-3.794653	-20.009785	-3.337842	-107.998164
8.900000	-3.340101	-109.674366	-3.805896	-21.773335	-3.805896	-21.773335	-3.342095	-109.711706
8.950000	-3.346422	-111.381175	-3.815103	-23.534994	-3.815103	-23.534994	-3.348433	-111.423881
9.000000	-3.354922	-113.087160	-3.822168	-25.295173	-3.822168	-25.295173	-3.356949	-113.135165
9.050000	-3.365656	-114.792835	-3.827031	-27.054341	-3.827031	-27.054341	-3.367700	-114.846076
9.100000	-3.378474	-116.498731	-3.829839	-28.813055	-3.829839	-28.813055	-3.380535	-116.557150
9.150000	-3.393695	-118.205457	-3.830280	-30.571813	-3.830280	-30.571813	-3.395774	-118.268993
9.200000	-3.410963	-119.913369	-3.828720	-32.331094	-3.828720	-32.331094	-3.413059	-119.981973
9.250000	-3.430741	-121.623326	-3.824720	-34.091623	-3.824720	-34.091623	-3.432854	-121.696939
9.300000	-3.452673	-123.335512	-3.818654	-35.853734	-3.818654	-35.853734	-3.454804	-123.414088
9.350000	-3.477066	-125.050778	-3.810256	-37.618231	-3.810256	-37.618231	-3.479213	-125.134266
9.400000	-3.503830	-126.769486	-3.799649	-39.385568	-3.799649	-39.385568	-3.505994	-126.857840
9.450000	-3.533018	-128.492182	-3.786831	-41.156359	-3.786831	-41.156359	-3.535196	-128.585359
9.500000	-3.564822	-130.219667	-3.771668	-42.931464	-3.771668	-42.931464	-3.567015	-130.317622
9.550000	-3.599021	-131.951919	-3.754428	-44.711012	-3.754428	-44.711012	-3.601228	-132.054613
9.600000	-3.636113	-133.690438	-3.734720	-46.496587	-3.734720	-46.496587	-3.638331	-133.797829
9.650000	-3.675681	-135.434629	-3.712993	-48.287771	-3.712993	-48.287771	-3.677909	-135.546681
9.700000	-3.718247	-137.186167	-3.688864	-50.086417	-3.688864	-50.086417	-3.720483	-137.302841
9.750000	-3.763540	-138.944645	-3.662659	-51.892291	-3.662659	-51.892291	-3.765782	-139.065908
9.800000	-3.811851	-140.711186	-3.634223	-53.706769	-3.634223	-53.706769	-3.814096	-140.837003
9.850000	-3.863220	-142.486166	-3.603626	-55.530466	-3.603626	-55.530466	-3.865463	-142.616504
9.900000	-3.917633	-144.269778	-3.570987	-57.363814	-3.570987	-57.363814	-3.919871	-144.404607
9.950000	-3.975469	-146.063439	-3.536127	-59.208656	-3.536127	-59.208656	-3.977698	-146.202727
10.000000	-4.036383	-147.866153	-3.499429	-61.064086	-3.499429	-61.064086	-4.038597	-148.009875
