! freq	dB(S11)	phase(S11)	dB(S12)	phase(S12)	
!     	dB(S21)	phase(S21)	dB(S22)	phase(S22)	
!S-par simulation data
#  GHz  S  DB  R 50
0.000000	-0.000000	0.000000	-304.007397	0.000000	-304.007397	0.000000	-0.000000	0.000000
0.050000	-0.001195	-1.992750	-93.374116	88.062283	-93.374116	88.062283	-0.001195	-1.992711
0.100000	-0.004223	-3.977794	-87.383766	86.129852	-87.383766	86.129852	-0.004223	-3.977710
0.150000	-0.008008	-5.952883	-83.912384	84.208066	-83.912384	84.208066	-0.008006	-5.952750
0.200000	-0.011758	-7.919639	-81.487778	82.303697	-81.487778	82.303697	-0.011755	-7.919458
0.250000	-0.015200	-9.881404	-79.639994	80.420012	-79.639994	80.420012	-0.015195	-9.881180
0.300000	-0.018272	-11.839510	-78.166587	78.563785	-78.166587	78.563785	-0.018266	-11.839246
0.350000	-0.021020	-13.794778	-76.958097	76.741454	-76.958097	76.741454	-0.021013	-13.794478
0.400000	-0.023514	-15.747374	-75.950155	74.960743	-75.950155	74.960743	-0.023508	-15.747041
0.450000	-0.025815	-17.696850	-75.106391	73.235310	-75.106391	73.235310	-0.025809	-17.696487
0.500000	-0.028003	-19.643355	-74.388619	71.565859	-74.388619	71.565859	-0.027998	-19.642963
0.550000	-0.030111	-21.586176	-73.782540	69.969541	-73.782540	69.969541	-0.030107	-21.585759
0.600000	-0.032170	-23.524795	-73.274010	68.462811	-73.274010	68.462811	-0.032167	-23.524352
0.650000	-0.034207	-25.458922	-72.848054	67.058886	-72.848054	67.058886	-0.034206	-25.458456
0.700000	-0.036238	-27.388209	-72.489415	65.745423	-72.489415	65.745423	-0.036238	-27.387721
0.750000	-0.038274	-29.312110	-72.205802	64.371702	-72.205802	64.371702	-0.038275	-29.311602
0.800000	-0.040323	-31.230262	-72.027739	63.231474	-72.027739	63.231474	-0.040326	-31.229734
0.850000	-0.042390	-33.142385	-71.903882	62.401570	-71.903882	62.401570	-0.042394	-33.141839
0.900000	-0.044477	-35.048171	-71.834307	61.785414	-71.834307	61.785414	-0.044482	-35.047608
0.950000	-0.046584	-36.947289	-71.821932	61.416636	-71.821932	61.416636	-0.046590	-36.946711
1.000000	-0.048711	-38.839450	-71.865871	61.349409	-71.865871	61.349409	-0.048719	-38.838858
1.050000	-0.050856	-40.724383	-71.963641	61.648357	-71.963641	61.648357	-0.050865	-40.723778
1.100000	-0.053017	-42.601833	-72.111136	62.390459	-72.111136	62.390459	-0.053027	-42.601218
1.150000	-0.055191	-44.471564	-72.301719	63.666813	-72.301719	63.666813	-0.055202	-44.470940
1.200000	-0.057375	-46.333356	-72.524709	65.582160	-72.524709	65.582160	-0.057387	-46.332725
1.250000	-0.059565	-48.187004	-72.763294	68.249602	-72.763294	68.249602	-0.059578	-48.186369
1.300000	-0.061758	-50.032134	-72.990927	71.796734	-72.990927	71.796734	-0.061772	-50.031497
1.350000	-0.063950	-51.868751	-73.170807	76.275177	-73.170807	76.275177	-0.063964	-51.868114
1.400000	-0.066138	-53.696699	-73.256557	81.667920	-73.256557	81.667920	-0.066153	-53.696065
1.450000	-0.068319	-55.515835	-73.198218	87.822765	-73.198218	87.822765	-0.068334	-55.515206
1.500000	-0.070488	-57.326031	-72.954837	94.431499	-72.954837	94.431499	-0.070505	-57.325410
1.550000	-0.072645	-59.127174	-72.508860	101.074112	-72.508860	101.074112	-0.072661	-59.126562
1.600000	-0.074785	-60.919162	-71.873141	107.324066	-71.873141	107.324066	-0.074802	-60.918563
1.650000	-0.076906	-62.701909	-71.085131	112.857007	-71.085131	112.857007	-0.076924	-62.701325
1.700000	-0.079007	-64.475339	-70.192825	117.502440	-70.192825	117.502440	-0.079026	-64.474774
1.750000	-0.081086	-66.239392	-69.241693	121.228919	-69.241693	121.228919	-0.081105	-66.238847
1.800000	-0.083141	-67.994017	-68.267751	124.095732	-68.267751	124.095732	-0.083161	-67.993495
1.850000	-0.085170	-69.739174	-67.296265	126.205137	-67.296265	126.205137	-0.085191	-69.738679
1.900000	-0.087174	-71.474734	-66.342596	127.664133	-66.342596	127.664133	-0.087196	-71.474268
1.950000	-0.089151	-73.200679	-65.416585	128.581993	-65.416585	128.581993	-0.089174	-73.200244
2.000000	-0.091102	-74.917106	-64.523965	129.057252	-64.523965	129.057252	-0.091125	-74.916705
2.050000	-0.093026	-76.624018	-63.666679	129.166589	-63.666679	129.166589	-0.093050	-76.623654
2.100000	-0.094923	-78.321430	-62.844935	128.973049	-62.844935	128.973049	-0.094948	-78.321104
2.150000	-0.096795	-80.009362	-62.057927	128.528011	-62.057927	128.528011	-0.096821	-80.009077
2.200000	-0.098643	-81.687844	-61.304288	127.873232	-61.304288	127.873232	-0.098670	-81.687604
2.250000	-0.100466	-83.356916	-60.582374	127.042680	-60.582374	127.042680	-0.100494	-83.356722
2.300000	-0.102267	-85.016624	-59.890433	126.064072	-59.890433	126.064072	-0.102296	-85.016478
2.350000	-0.104046	-86.667020	-59.226712	124.960123	-59.226712	124.960123	-0.104077	-86.666925
2.400000	-0.105806	-88.308165	-58.589511	123.749546	-58.589511	123.749546	-0.105838	-88.308123
2.450000	-0.107548	-89.940127	-57.977217	122.447845	-57.977217	122.447845	-0.107580	-89.940140
2.500000	-0.109273	-91.562978	-57.388320	121.067937	-57.388320	121.067937	-0.109307	-91.563049
2.550000	-0.110984	-93.176505	-56.820923	119.618716	-56.820923	119.618716	-0.111019	-93.176636
2.600000	-0.112682	-94.781093	-56.274304	118.111766	-56.274304	118.111766	-0.112719	-94.781286
2.650000	-0.114370	-96.376830	-55.747248	116.554692	-55.747248	116.554692	-0.114408	-96.377088
2.700000	-0.116050	-97.963814	-55.238640	114.953985	-55.238640	114.953985	-0.116089	-97.964138
2.750000	-0.117724	-99.542145	-54.747453	113.315210	-54.747453	113.315210	-0.117764	-99.542537
2.800000	-0.119394	-101.111928	-54.272742	111.643165	-54.272742	111.643165	-0.119436	-101.112391
2.850000	-0.121062	-102.673271	-53.813639	109.942003	-53.813639	109.942003	-0.121105	-102.673807
2.900000	-0.122730	-104.226290	-53.369341	108.215336	-53.369341	108.215336	-0.122774	-104.226901
2.950000	-0.124401	-105.771100	-52.939109	106.466320	-52.939109	106.466320	-0.124446	-105.771788
3.000000	-0.126076	-107.307822	-52.522260	104.697722	-52.522260	104.697722	-0.126123	-107.308590
3.050000	-0.127757	-108.836581	-52.118161	102.911979	-52.118161	102.911979	-0.127805	-108.837431
3.100000	-0.129447	-110.357504	-51.726227	101.111247	-51.726227	101.111247	-0.129496	-110.358438
3.150000	-0.131147	-111.870722	-51.345912	99.297439	-51.345912	99.297439	-0.131197	-111.871742
3.200000	-0.132858	-113.376368	-50.976710	97.472257	-50.976710	97.472257	-0.132909	-113.377477
3.250000	-0.134583	-114.874578	-50.618150	95.637225	-50.618150	95.637225	-0.134636	-114.875777
3.300000	-0.136324	-116.365490	-50.269789	93.793708	-50.269789	93.793708	-0.136377	-116.366783
3.350000	-0.138081	-117.849246	-49.931216	91.942933	-49.931216	91.942933	-0.138135	-117.850635
3.400000	-0.139857	-119.325988	-49.602044	90.086009	-49.602044	90.086009	-0.139912	-119.327476
3.450000	-0.141652	-120.795863	-49.281912	88.223935	-49.281912	88.223935	-0.141708	-120.797451
3.500000	-0.143468	-122.259018	-48.970478	86.357621	-48.970478	86.357621	-0.143524	-122.260709
3.550000	-0.145306	-123.715602	-48.667420	84.487890	-48.667420	84.487890	-0.145363	-123.717399
3.600000	-0.147167	-125.165767	-48.372437	82.615493	-48.372437	82.615493	-0.147225	-125.167671
3.650000	-0.149052	-126.609664	-48.085241	80.741112	-48.085241	80.741112	-0.149112	-126.611680
3.700000	-0.150963	-128.047450	-47.805561	78.865371	-47.805561	78.865371	-0.151023	-128.049578
3.750000	-0.152900	-129.479278	-47.533142	76.988840	-47.533142	76.988840	-0.152960	-129.481522
3.800000	-0.154864	-130.905062	-47.267691	75.112046	-47.267691	75.112046	-0.154925	-130.907425
3.850000	-0.156856	-132.325220	-47.009040	73.235493	-47.009040	73.235493	-0.156918	-132.327704
3.900000	-0.158876	-133.739912	-46.756967	71.359607	-46.756967	71.359607	-0.158938	-133.742518
3.950000	-0.160924	-135.149297	-46.511261	69.484778	-46.511261	69.484778	-0.160987	-135.152030
4.000000	-0.163001	-136.553539	-46.271720	67.611358	-46.271720	67.611358	-0.163065	-136.556400
4.050000	-0.165108	-137.952800	-46.038151	65.739668	-46.038151	65.739668	-0.165173	-137.955793
4.100000	-0.167244	-139.347243	-45.810370	63.869998	-45.810370	63.869998	-0.167309	-139.350370
4.150000	-0.169410	-140.737034	-45.588203	62.002609	-45.588203	62.002609	-0.169476	-140.740297
4.200000	-0.171606	-142.122338	-45.371480	60.137735	-45.371480	60.137735	-0.171673	-142.125740
4.250000	-0.173832	-143.503320	-45.160042	58.275583	-45.160042	58.275583	-0.173900	-143.506863
4.300000	-0.176089	-144.880146	-44.953735	56.416338	-44.953735	56.416338	-0.176157	-144.883834
4.350000	-0.178375	-146.252985	-44.752411	54.560161	-44.752411	54.560161	-0.178444	-146.256819
4.400000	-0.180692	-147.622003	-44.555931	52.707191	-44.555931	52.707191	-0.180761	-147.625987
4.450000	-0.183039	-148.987368	-44.364159	50.857548	-44.364159	50.857548	-0.183109	-148.991504
4.500000	-0.185416	-150.349249	-44.176967	49.011331	-44.176967	49.011331	-0.185487	-150.353539
4.550000	-0.187822	-151.707814	-43.994232	47.168623	-43.994232	47.168623	-0.187894	-151.712262
4.600000	-0.190259	-153.063232	-43.815836	45.329489	-43.815836	45.329489	-0.190331	-153.067840
4.650000	-0.192725	-154.415673	-43.641668	43.493976	-43.641668	43.493976	-0.192798	-154.420443
4.700000	-0.195220	-155.765306	-43.471620	41.662121	-43.471620	41.662121	-0.195294	-155.770241
4.750000	-0.197744	-157.112300	-43.305592	39.833943	-43.305592	39.833943	-0.197819	-157.117403
4.800000	-0.200297	-158.456826	-43.143485	38.009450	-43.143485	38.009450	-0.200373	-158.462099
4.850000	-0.202878	-159.799053	-42.985208	36.188640	-42.985208	36.188640	-0.202955	-159.804499
4.900000	-0.205488	-161.139152	-42.830675	34.371498	-42.830675	34.371498	-0.205565	-161.144773
4.950000	-0.208125	-162.477291	-42.679802	32.558003	-42.679802	32.558003	-0.208203	-162.483091
5.000000	-0.210790	-163.813642	-42.532512	30.748122	-42.532512	30.748122	-0.210869	-163.819623
5.050000	-0.213483	-165.148313	-42.388780	28.941972	-42.388780	28.941972	-0.213563	-165.154477
5.100000	-0.216203	-166.481550	-42.248492	27.139352	-42.248492	27.139352	-0.216283	-166.487900
5.150000	-0.218949	-167.813524	-42.111584	25.340214	-42.111584	25.340214	-0.219030	-167.820064
5.200000	-0.221722	-169.144405	-41.977996	23.544508	-41.977996	23.544508	-0.221803	-169.151137
5.250000	-0.224520	-170.474363	-41.847671	21.752179	-41.847671	21.752179	-0.224602	-170.481290
5.300000	-0.227343	-171.803568	-41.720556	19.963176	-41.720556	19.963176	-0.227426	-171.810693
5.350000	-0.230192	-173.132189	-41.596605	18.177446	-41.596605	18.177446	-0.230275	-173.139515
5.400000	-0.233064	-174.460396	-41.475771	16.394939	-41.475771	16.394939	-0.233149	-174.467926
5.450000	-0.235962	-175.788360	-41.358015	14.615607	-41.358015	14.615607	-0.236047	-175.796096
5.500000	-0.238883	-177.116248	-41.243300	12.839410	-41.243300	12.839410	-0.238968	-177.124195
5.550000	-0.241828	-178.444232	-41.131591	11.066309	-41.131591	11.066309	-0.241914	-178.452392
5.600000	-0.244796	-179.772479	-41.022860	9.296275	-41.022860	9.296275	-0.244882	-179.780855
5.650000	-0.247787	178.898841	-40.917078	7.529287	-40.917078	7.529287	-0.247873	178.890245
5.700000	-0.250800	177.569559	-40.814221	5.765333	-40.814221	5.765333	-0.250887	177.560739
5.750000	-0.253836	176.239505	-40.714269	4.004411	-40.714269	4.004411	-0.253923	176.230460
5.800000	-0.256893	174.908512	-40.617202	2.246531	-40.617202	2.246531	-0.256981	174.899236
5.850000	-0.259973	173.576410	-40.523006	0.491715	-40.523006	0.491715	-0.260060	173.566901
5.900000	-0.263074	172.243031	-40.431665	-1.260001	-40.431665	-1.260001	-0.263161	172.233284
5.950000	-0.266196	170.908206	-40.343169	-3.008567	-40.343169	-3.008567	-0.266283	170.898218
6.000000	-0.269338	169.571766	-40.257508	-4.753915	-40.257508	-4.753915	-0.269426	169.561533
6.050000	-0.272502	168.233544	-40.174673	-6.495965	-40.174673	-6.495965	-0.272589	168.223061
6.100000	-0.275685	166.893369	-40.094657	-8.234617	-40.094657	-8.234617	-0.275772	166.882633
6.150000	-0.278889	165.551075	-40.017456	-9.969755	-40.017456	-9.969755	-0.278976	165.540081
6.200000	-0.282113	164.206492	-39.943064	-11.701244	-39.943064	-11.701244	-0.282199	164.195235
6.250000	-0.285357	162.859451	-39.871478	-13.428932	-39.871478	-13.428932	-0.285442	162.847928
6.300000	-0.288621	161.509661	-39.802792	-15.152465	-39.802792	-15.152465	-0.288706	161.497866
6.350000	-0.291904	160.157061	-39.736909	-16.871813	-39.736909	-16.871813	-0.291989	160.144990
6.400000	-0.295207	158.801480	-39.673822	-18.586766	-39.673822	-18.586766	-0.295291	158.789128
6.450000	-0.298529	157.442750	-39.613530	-20.297090	-39.613530	-20.297090	-0.298612	157.430111
6.500000	-0.301870	156.080701	-39.556025	-22.002534	-39.556025	-22.002534	-0.301952	156.067770
6.550000	-0.305230	154.715162	-39.501302	-23.702830	-39.501302	-23.702830	-0.305311	154.701934
6.600000	-0.308609	153.345963	-39.449353	-25.397690	-39.449353	-25.397690	-0.308688	153.332431
6.650000	-0.312007	151.972933	-39.400169	-27.086807	-39.400169	-27.086807	-0.312085	151.959092
6.700000	-0.315423	150.595899	-39.353738	-28.769858	-39.353738	-28.769858	-0.315500	150.581743
6.750000	-0.318859	149.214689	-39.310049	-30.446505	-39.310049	-30.446505	-0.318935	149.200211
6.800000	-0.322313	147.829131	-39.269084	-32.116393	-39.269084	-32.116393	-0.322388	147.814325
6.850000	-0.325787	146.439049	-39.230826	-33.779151	-39.230826	-33.779151	-0.325860	146.423908
6.900000	-0.329279	145.044268	-39.195254	-35.434398	-39.195254	-35.434398	-0.329351	145.028785
6.950000	-0.332791	143.644613	-39.162344	-37.081737	-39.162344	-37.081737	-0.332861	143.628780
7.000000	-0.336322	142.239905	-39.132068	-38.720762	-39.132068	-38.720762	-0.336391	142.223714
7.050000	-0.339873	140.829965	-39.104396	-40.351057	-39.104396	-40.351057	-0.339940	140.813408
7.100000	-0.343443	139.414611	-39.079292	-41.972196	-39.079292	-41.972196	-0.343509	139.397681
7.150000	-0.347034	137.993662	-39.056719	-43.583747	-39.056719	-43.583747	-0.347098	137.976348
7.200000	-0.350645	136.566932	-39.036634	-45.185272	-39.036634	-45.185272	-0.350707	136.549226
7.250000	-0.354277	135.134234	-39.018991	-46.776330	-39.018991	-46.776330	-0.354337	135.116126
7.300000	-0.357930	133.695378	-39.003738	-48.356474	-39.003738	-48.356474	-0.357989	133.676857
7.350000	-0.361605	132.250171	-38.990819	-49.925260	-38.990819	-49.925260	-0.361662	132.231227
7.400000	-0.365303	130.798417	-38.980176	-51.482240	-38.980176	-51.482240	-0.365358	130.779038
7.450000	-0.369023	129.339917	-38.971743	-53.026971	-38.971743	-53.026971	-0.369077	129.320091
7.500000	-0.372767	127.874467	-38.965451	-54.559011	-38.965451	-54.559011	-0.372820	127.854181
7.550000	-0.376537	126.401538	-38.961310	-56.077330	-38.961310	-56.077330	-0.376588	126.380778
7.600000	-0.380333	124.921217	-38.959149	-57.582052	-38.959149	-57.582052	-0.380382	124.899969
7.650000	-0.384155	123.433287	-38.958881	-59.072751	-38.958881	-59.072751	-0.384203	123.411535
7.700000	-0.388005	121.937522	-38.960415	-60.549013	-38.960415	-60.549013	-0.388052	121.915249
7.750000	-0.391884	120.433690	-38.963655	-62.010432	-38.963655	-62.010432	-0.391930	120.410878
7.800000	-0.395794	118.921551	-38.968499	-63.456611	-38.968499	-63.456611	-0.395839	118.898181
7.850000	-0.399737	117.400857	-38.974840	-64.887169	-38.974840	-64.887169	-0.399781	117.376910
7.900000	-0.403714	115.871352	-38.982562	-66.301731	-38.982562	-66.301731	-0.403757	115.846805
7.950000	-0.407727	114.332769	-38.991546	-67.699941	-38.991546	-67.699941	-0.407769	114.307598
8.000000	-0.411778	112.784829	-39.001664	-69.081454	-39.001664	-69.081454	-0.411821	112.759009
8.050000	-0.415871	111.227242	-39.012784	-70.445941	-39.012784	-70.445941	-0.415914	111.200745
8.100000	-0.420008	109.659703	-39.024762	-71.793090	-39.024762	-71.793090	-0.420051	109.632499
8.150000	-0.424193	108.081893	-39.037450	-73.122604	-39.037450	-73.122604	-0.424236	108.053950
8.200000	-0.428428	106.493475	-39.050690	-74.434206	-39.050690	-74.434206	-0.428472	106.464758
8.250000	-0.432719	104.894096	-39.064313	-75.727639	-39.064313	-75.727639	-0.432764	104.864565
8.300000	-0.437069	103.283379	-39.078142	-77.002667	-39.078142	-77.002667	-0.437116	103.252992
8.350000	-0.441479	101.661638	-39.092002	-78.260170	-39.092002	-78.260170	-0.441528	101.630352
8.400000	-0.445961	100.027484	-39.105691	-79.498426	-39.105691	-79.498426	-0.446013	99.995246
8.450000	-0.450526	98.379673	-39.118941	-80.716155	-39.118941	-80.716155	-0.450581	98.346424
8.500000	-0.455170	96.719454	-39.131589	-81.915804	-39.131589	-81.915804	-0.455230	96.685137
8.550000	-0.459909	95.045282	-39.143330	-83.095811	-39.143330	-83.095811	-0.459973	95.009825
8.600000	-0.464750	93.356865	-39.153914	-84.256504	-39.153914	-84.256504	-0.464819	93.320194
8.650000	-0.469698	91.654167	-39.163104	-85.398635	-39.163104	-85.398635	-0.469774	91.616202
8.700000	-0.474777	89.935075	-39.170427	-86.520428	-39.170427	-86.520428	-0.474861	89.895718
8.750000	-0.479980	88.201345	-39.175848	-87.624972	-39.175848	-87.624972	-0.480073	88.160503
8.800000	-0.485351	86.448677	-39.178492	-88.708508	-39.178492	-88.708508	-0.485456	86.406224
8.850000	-0.490877	84.679897	-39.178503	-89.775349	-39.178503	-89.775349	-0.490993	84.635716
8.900000	-0.496601	82.891306	-39.174955	-90.823183	-39.174955	-90.823183	-0.496732	82.845249
8.950000	-0.502527	81.083760	-39.167690	-91.854383	-39.167690	-91.854383	-0.502675	81.035672
9.000000	-0.508690	79.255403	-39.155994	-92.869188	-39.155994	-92.869188	-0.508857	79.205106
9.050000	-0.515121	77.404634	-39.139155	-93.868465	-39.139155	-93.868465	-0.515311	77.351925
9.100000	-0.521831	75.531904	-39.116908	-94.854822	-39.116908	-94.854822	-0.522049	75.476570
9.150000	-0.528902	73.632513	-39.087632	-95.828545	-39.087632	-95.828545	-0.529151	73.574282
9.200000	-0.536314	71.709303	-39.051690	-96.793937	-39.051690	-96.793937	-0.536600	71.647915
9.250000	-0.544195	69.755230	-39.006538	-97.752881	-39.006538	-97.752881	-0.544525	69.690330
9.300000	-0.552526	67.773333	-38.952644	-98.710299	-38.952644	-98.710299	-0.552906	67.704580
9.350000	-0.561432	65.757845	-38.887588	-99.671664	-38.887588	-99.671664	-0.561873	65.684803
9.400000	-0.570956	63.708252	-38.810680	-100.643530	-38.810680	-100.643530	-0.571469	63.630454
9.450000	-0.581191	61.621832	-38.720392	-101.634832	-38.720392	-101.634832	-0.581788	61.538742
9.500000	-0.592285	59.493246	-38.614141	-102.658731	-38.614141	-102.658731	-0.592984	59.404214
9.550000	-0.604260	57.323989	-38.492152	-103.725433	-38.492152	-103.725433	-0.605079	57.228352
9.600000	-0.617369	55.105109	-38.350347	-104.859548	-38.350347	-104.859548	-0.618334	55.002015
9.650000	-0.631768	52.833245	-38.187145	-106.086239	-38.187145	-106.086239	-0.632908	52.721727
9.700000	-0.647648	50.504067	-38.000988	-107.437582	-38.000988	-107.437582	-0.649000	50.383019
9.750000	-0.665256	48.111845	-37.790393	-108.956316	-37.790393	-108.956316	-0.666864	47.979978
9.800000	-0.684887	45.650027	-37.554723	-110.697274	-37.554723	-110.697274	-0.686809	45.505837
9.850000	-0.706899	43.111095	-37.294936	-112.729773	-37.294936	-112.729773	-0.709203	42.952821
9.900000	-0.731723	40.486391	-37.014770	-115.139141	-37.014770	-115.139141	-0.734496	40.311962
9.950000	-0.759883	37.765906	-36.722490	-118.025549	-36.722490	-118.025549	-0.763235	37.572874
10.000000	-0.792020	34.938024	-36.433242	-121.496707	-36.433242	-121.496707	-0.796091	34.723486
