! freq	dB(S11)	phase(S11)	dB(S12)	phase(S12)	
!     	dB(S21)	phase(S21)	dB(S22)	phase(S22)	
!S-par simulation data
#  GHz  S  DB  R 50
0.000000	-0.000000	-0.000000	-393.508497	180.000000	-393.508497	180.000000	-0.000000	-0.000000
0.050000	-0.000091	-0.802283	-91.162082	3.238247	-91.162082	3.238247	-0.000091	-0.802191
0.100000	-0.000362	-1.604366	-91.194980	2.500223	-91.194980	2.500223	-0.000360	-1.604185
0.150000	-0.000804	-2.406063	-91.261074	2.627273	-91.261074	2.627273	-0.000800	-2.405795
0.200000	-0.001403	-3.207212	-91.356646	2.952308	-91.356646	2.952308	-0.001395	-3.206863
0.250000	-0.002151	-4.007623	-91.485155	3.337995	-91.485155	3.337995	-0.002140	-4.007199
0.300000	-0.003016	-4.807249	-91.646571	3.727689	-91.646571	3.727689	-0.003001	-4.806755
0.350000	-0.003985	-5.605973	-91.845892	4.096933	-91.845892	4.096933	-0.003967	-5.605416
0.400000	-0.005039	-6.403736	-92.087995	4.427031	-92.087995	4.427031	-0.005018	-6.403120
0.450000	-0.006160	-7.200500	-92.379113	4.702510	-92.379113	4.702510	-0.006136	-7.199831
0.500000	-0.007330	-7.996251	-92.727207	4.908241	-92.727207	4.908241	-0.007303	-7.995532
0.550000	-0.008534	-8.790989	-93.142541	5.027369	-93.142541	5.027369	-0.008506	-8.790222
0.600000	-0.009760	-9.584727	-93.638551	5.039029	-93.638551	5.039029	-0.009730	-9.583913
0.650000	-0.010995	-10.377485	-94.233200	4.915009	-94.233200	4.915009	-0.010965	-10.376626
0.700000	-0.012233	-11.169289	-94.951189	4.613997	-94.951189	4.613997	-0.012202	-11.168384
0.750000	-0.013464	-11.960167	-95.827711	4.070582	-95.827711	4.070582	-0.013435	-11.959215
0.800000	-0.014686	-12.750145	-96.915261	3.171984	-96.915261	3.171984	-0.014657	-12.749145
0.850000	-0.015894	-13.539248	-98.296885	1.702427	-98.296885	1.702427	-0.015866	-13.538198
0.900000	-0.017085	-14.327497	-100.114370	-0.813709	-100.114370	-0.813709	-0.017059	-14.326396
0.950000	-0.018259	-15.114911	-102.633064	-5.678864	-102.633064	-5.678864	-0.018235	-15.113757
1.000000	-0.019415	-15.901504	-106.352586	-17.965878	-106.352586	-17.965878	-0.019393	-15.900295
1.050000	-0.020553	-16.687287	-111.079382	-52.995361	-111.079382	-52.995361	-0.020533	-16.686021
1.100000	-0.021674	-17.472265	-109.758797	-120.319480	-109.758797	-120.319480	-0.021655	-17.470940
1.150000	-0.022778	-18.256441	-103.944825	-146.839953	-103.944825	-146.839953	-0.022761	-18.255056
1.200000	-0.023866	-19.039814	-99.856155	-155.264224	-99.856155	-155.264224	-0.023851	-19.038368
1.250000	-0.024940	-19.822381	-96.831463	-159.321000	-96.831463	-159.321000	-0.024927	-19.820872
1.300000	-0.026001	-20.604099	-94.410011	-161.752741	-94.410011	-161.752741	-0.025989	-20.602527
1.350000	-0.027050	-21.384994	-92.379959	-163.478430	-92.379959	-163.478430	-0.027040	-21.383358
1.400000	-0.028090	-22.165057	-90.619150	-164.823199	-90.619150	-164.823199	-0.028081	-22.163356
1.450000	-0.029120	-22.944273	-89.054850	-165.948981	-89.054850	-165.948981	-0.029112	-22.942506
1.500000	-0.030143	-23.722629	-87.640414	-166.944394	-87.640414	-166.944394	-0.030136	-23.720797
1.550000	-0.031160	-24.500109	-86.344208	-167.861603	-86.344208	-167.861603	-0.031154	-24.498213
1.600000	-0.032171	-25.276699	-85.143818	-168.733082	-85.143818	-168.733082	-0.032166	-25.274737
1.650000	-0.033178	-26.052382	-84.022797	-169.579952	-84.022797	-169.579952	-0.033174	-26.050354
1.700000	-0.034181	-26.826809	-82.946352	-170.417297	-82.946352	-170.417297	-0.034178	-26.824717
1.750000	-0.035183	-27.600747	-81.959536	-171.252847	-81.959536	-171.252847	-0.035180	-27.598591
1.800000	-0.036184	-28.373508	-81.008164	-172.098518	-81.008164	-172.098518	-0.036181	-28.371287
1.850000	-0.037183	-29.145427	-80.108774	-172.951419	-80.108774	-172.951419	-0.037180	-29.143143
1.900000	-0.038182	-29.916296	-79.244642	-173.821143	-79.244642	-173.821143	-0.038180	-29.913949
1.950000	-0.039182	-30.686117	-78.414059	-174.707689	-78.414059	-174.707689	-0.039179	-30.683708
2.000000	-0.040183	-31.455031	-77.619584	-175.611696	-77.619584	-175.611696	-0.040180	-31.452560
2.050000	-0.041185	-32.222675	-76.845051	-176.540149	-76.845051	-176.540149	-0.041183	-32.220143
2.100000	-0.042189	-32.989568	-76.107852	-177.483909	-76.107852	-177.483909	-0.042187	-32.986976
2.150000	-0.043197	-33.754958	-75.380268	-178.458288	-75.380268	-178.458288	-0.043194	-33.752307
2.200000	-0.044206	-34.519767	-74.691294	-179.444554	-74.691294	-179.444554	-0.044203	-34.517057
2.250000	-0.045220	-35.282831	-74.003957	179.533518	-74.003957	179.533518	-0.045216	-35.280063
2.300000	-0.046235	-36.045494	-73.356389	178.503633	-73.356389	178.503633	-0.046231	-36.042669
2.350000	-0.047257	-36.806159	-72.704235	177.433967	-72.704235	177.433967	-0.047253	-36.803278
2.400000	-0.048280	-37.566618	-72.092807	176.360383	-72.092807	176.360383	-0.048275	-37.563681
2.450000	-0.049311	-38.324817	-71.471931	175.243702	-71.471931	175.243702	-0.049306	-38.321825
2.500000	-0.050342	-39.083016	-70.892489	174.127021	-70.892489	174.127021	-0.050338	-39.079969
2.550000	-0.051384	-39.838684	-70.299823	172.964661	-70.299823	172.964661	-0.051379	-39.835585
2.600000	-0.052426	-40.594353	-69.745026	171.802300	-69.745026	171.802300	-0.052421	-40.591200
2.650000	-0.053479	-41.347646	-69.182133	170.599690	-69.182133	170.599690	-0.053473	-41.344442
2.700000	-0.054532	-42.100724	-68.649976	169.393421	-68.649976	169.393421	-0.054526	-42.097468
2.750000	-0.055596	-42.851596	-68.114165	168.152314	-68.114165	168.152314	-0.055590	-42.848289
2.800000	-0.056663	-43.602027	-67.603023	166.904240	-67.603023	166.904240	-0.056656	-43.598669
2.850000	-0.057739	-44.350434	-67.092050	165.626586	-67.092050	165.626586	-0.057732	-44.347025
2.900000	-0.058819	-45.098165	-66.600586	164.339072	-66.600586	164.339072	-0.058812	-45.094707
2.950000	-0.059909	-45.844065	-66.112554	163.026989	-66.112554	163.026989	-0.059902	-45.840557
3.000000	-0.061004	-46.589048	-65.639658	161.702622	-65.639658	161.702622	-0.060997	-46.585492
3.050000	-0.062109	-47.332403	-65.172941	160.358370	-65.172941	160.358370	-0.062101	-47.328798
3.100000	-0.063220	-48.074594	-64.717668	158.999915	-64.717668	158.999915	-0.063213	-48.070940
3.150000	-0.064340	-48.815367	-64.270857	157.625876	-64.270857	157.625876	-0.064332	-48.811666
3.200000	-0.065469	-49.554724	-63.832393	156.236251	-63.832393	156.236251	-0.065461	-49.550975
3.250000	-0.066605	-50.292885	-63.404247	154.834904	-63.404247	154.834904	-0.066598	-50.289088
3.300000	-0.067753	-51.029370	-62.981871	153.417143	-62.981871	153.417143	-0.067745	-51.025526
3.350000	-0.068907	-51.764888	-62.571287	151.991042	-62.571287	151.991042	-0.068899	-51.760996
3.400000	-0.070075	-52.498468	-62.164348	150.548261	-62.164348	150.548261	-0.070067	-52.494530
3.450000	-0.071248	-53.231315	-61.770329	149.100015	-61.770329	149.100015	-0.071240	-53.227329
3.500000	-0.072437	-53.961960	-61.378220	147.635373	-61.378220	147.635373	-0.072430	-53.957927
3.550000	-0.073631	-54.692111	-60.999858	146.167616	-60.999858	146.167616	-0.073624	-54.688032
3.600000	-0.074844	-55.419794	-60.622002	144.684276	-60.622002	144.684276	-0.074837	-55.415667
3.650000	-0.076059	-56.147227	-60.258457	143.199638	-60.258457	143.199638	-0.076052	-56.143054
3.700000	-0.077297	-56.871924	-59.894291	141.700723	-59.894291	141.700723	-0.077290	-56.867704
3.750000	-0.078536	-57.596620	-59.544780	140.201807	-59.544780	140.201807	-0.078529	-57.592353
3.800000	-0.079801	-58.318310	-59.193748	138.690355	-59.193748	138.690355	-0.079794	-58.313996
3.850000	-0.081066	-59.040000	-58.856353	137.178903	-58.856353	137.178903	-0.081059	-59.035639
3.900000	-0.082357	-59.758918	-58.519077	135.658628	-58.519077	135.658628	-0.082350	-59.754509
3.950000	-0.083651	-60.477584	-58.193316	134.137551	-58.193316	134.137551	-0.083645	-60.473128
4.000000	-0.084971	-61.193718	-57.869015	132.610743	-57.869015	132.610743	-0.084964	-61.189214
4.050000	-0.086295	-61.909346	-57.554398	131.082788	-57.554398	131.082788	-0.086289	-61.904794
4.100000	-0.087645	-62.622686	-57.242322	129.551582	-57.242322	129.551582	-0.087638	-62.618087
4.150000	-0.089002	-63.335264	-56.938348	128.019292	-56.938348	128.019292	-0.088995	-63.330617
4.200000	-0.090382	-64.045803	-56.637777	126.485655	-56.637777	126.485655	-0.090376	-64.041108
4.250000	-0.091775	-64.755322	-56.343937	124.951343	-56.343937	124.951343	-0.091768	-64.750579
4.300000	-0.093188	-65.463055	-56.054179	123.417049	-56.054179	123.417049	-0.093181	-65.458263
4.350000	-0.094617	-66.169511	-55.769953	121.882770	-55.769953	121.882770	-0.094610	-66.164671
4.400000	-0.096065	-66.874433	-55.490345	120.349397	-55.490345	120.349397	-0.096058	-66.869545
4.450000	-0.097533	-67.577822	-55.215209	118.816932	-55.215209	118.816932	-0.097525	-67.572885
4.500000	-0.099017	-68.279933	-54.945115	117.285847	-54.945115	117.285847	-0.099010	-68.274947
4.550000	-0.100526	-68.980254	-54.678542	115.756694	-54.678542	115.756694	-0.100518	-68.975220
4.600000	-0.102048	-69.679555	-54.417352	114.229048	-54.417352	114.229048	-0.102040	-69.674472
4.650000	-0.103600	-70.376812	-54.158822	112.704419	-54.158822	112.704419	-0.103591	-70.371680
4.700000	-0.105162	-71.073304	-53.905952	111.181153	-53.905952	111.181153	-0.105153	-71.068124
4.750000	-0.106758	-71.767502	-53.654950	109.661976	-53.654950	109.661976	-0.106749	-71.762272
4.800000	-0.108362	-72.461191	-53.409846	108.143817	-53.409846	108.143817	-0.108352	-72.455913
4.850000	-0.110005	-73.152337	-53.165869	106.630747	-53.165869	106.630747	-0.109995	-73.147010
4.900000	-0.111652	-73.843230	-52.928005	105.118218	-52.928005	105.118218	-0.111641	-73.837853
4.950000	-0.113344	-74.531335	-52.690566	103.611647	-52.690566	103.611647	-0.113333	-74.525909
5.000000	-0.115036	-75.219440	-52.459444	102.105076	-52.459444	102.105076	-0.115024	-75.213965
5.050000	-0.116778	-75.904516	-52.228076	100.605154	-52.228076	100.605154	-0.116766	-75.898993
5.100000	-0.118521	-76.589592	-52.002711	99.105232	-52.002711	99.105232	-0.118508	-76.584021
5.150000	-0.120311	-77.271907	-51.777489	97.611338	-51.777489	97.611338	-0.120297	-77.266287
5.200000	-0.122107	-77.953971	-51.557467	96.117992	-51.557467	96.117992	-0.122092	-77.948302
5.250000	-0.123947	-78.633539	-51.337949	94.629897	-51.337949	94.629897	-0.123931	-78.627821
5.300000	-0.125796	-79.312608	-51.122880	93.142853	-51.122880	93.142853	-0.125780	-79.306842
5.350000	-0.127687	-79.989446	-50.908659	91.660195	-50.908659	91.660195	-0.127670	-79.983632
5.400000	-0.129593	-80.665541	-50.698179	90.179000	-50.698179	90.179000	-0.129575	-80.659679
5.450000	-0.131536	-81.339669	-50.488882	88.701302	-50.488882	88.701302	-0.131518	-81.333759
5.500000	-0.133500	-82.012813	-50.282655	87.225352	-50.282655	87.225352	-0.133481	-82.006856
5.550000	-0.135497	-82.684250	-50.077943	85.752034	-50.077943	85.752034	-0.135477	-82.678246
5.600000	-0.137519	-83.354470	-49.875664	84.280596	-49.875664	84.280596	-0.137499	-83.348418
5.650000	-0.139572	-84.023241	-49.675230	82.810994	-49.675230	82.810994	-0.139551	-84.017142
5.700000	-0.141655	-84.690563	-49.476622	81.343228	-49.476622	81.343228	-0.141633	-84.684418
5.750000	-0.143764	-85.356692	-49.280193	79.876611	-49.280193	79.876611	-0.143742	-85.350501
5.800000	-0.145909	-86.021149	-49.085013	78.411600	-49.085013	78.411600	-0.145886	-86.014912
5.850000	-0.148075	-86.684663	-48.892346	76.947182	-48.892346	76.947182	-0.148052	-86.678379
5.900000	-0.150284	-87.346288	-48.700382	75.483950	-48.700382	75.483950	-0.150260	-87.339959
5.950000	-0.152509	-88.007215	-48.511262	74.020909	-48.511262	74.020909	-0.152485	-88.000840
6.000000	-0.154782	-88.666045	-48.322334	72.558444	-48.322334	72.558444	-0.154758	-88.659625
6.050000	-0.157067	-89.324415	-48.136577	71.095936	-48.136577	71.095936	-0.157042	-89.317950
6.100000	-0.159406	-89.980489	-47.950539	69.633214	-47.950539	69.633214	-0.159381	-89.973979
6.150000	-0.161751	-90.636336	-47.767988	68.170387	-47.767988	68.170387	-0.161727	-90.629782
6.200000	-0.164157	-91.289694	-47.584723	66.706395	-47.584723	66.706395	-0.164133	-91.283096
6.250000	-0.166564	-91.943052	-47.405246	65.242403	-47.405246	65.242403	-0.166540	-91.936409
6.300000	-0.169039	-92.593740	-47.224672	63.776156	-47.224672	63.776156	-0.169015	-92.587053
6.350000	-0.171514	-93.244427	-47.047775	62.309910	-47.047775	62.309910	-0.171491	-93.237696
6.400000	-0.174052	-93.892709	-46.870223	60.840742	-46.870223	60.840742	-0.174029	-93.885935
6.450000	-0.176596	-94.540773	-46.695856	59.371309	-46.695856	59.371309	-0.176574	-94.533954
6.500000	-0.179199	-95.186691	-46.521271	57.898502	-46.521271	57.898502	-0.179178	-95.179829
6.550000	-0.181814	-95.832180	-46.349410	56.425021	-46.349410	56.425021	-0.181793	-95.825274
6.600000	-0.184481	-96.475777	-46.177756	54.947928	-46.177756	54.947928	-0.184462	-96.468828
6.650000	-0.187167	-97.118744	-46.008405	53.469630	-46.008405	53.469630	-0.187150	-97.111751
6.700000	-0.189901	-97.760066	-45.839667	51.987684	-45.839667	51.987684	-0.189885	-97.753029
6.750000	-0.192659	-98.400566	-45.672855	50.503913	-45.672855	50.503913	-0.192645	-98.393485
6.800000	-0.195460	-99.039659	-45.507034	49.016642	-45.507034	49.016642	-0.195447	-99.032535
6.850000	-0.198292	-99.677749	-45.342812	47.526871	-45.342812	47.526871	-0.198281	-99.670581
6.900000	-0.201160	-100.314664	-45.179927	46.033912	-45.179927	46.033912	-0.201152	-100.307451
6.950000	-0.204066	-100.950404	-45.018364	44.537764	-45.018364	44.537764	-0.204060	-100.943147
7.000000	-0.207003	-101.585192	-44.858449	43.038870	-44.858449	43.038870	-0.206999	-101.577889
7.050000	-0.209984	-102.218645	-44.699633	41.536132	-44.699633	41.536132	-0.209983	-102.211298
7.100000	-0.212991	-102.851358	-44.542729	40.031188	-44.542729	40.031188	-0.212992	-102.843965
7.150000	-0.216048	-103.482591	-44.386761	38.521830	-44.386761	38.521830	-0.216053	-103.475152
7.200000	-0.219125	-104.113285	-44.232919	37.010858	-44.232919	37.010858	-0.219133	-104.105799
7.250000	-0.222259	-104.742365	-44.079911	35.495044	-44.079911	35.495044	-0.222271	-104.734832
7.300000	-0.225408	-105.371097	-43.929189	33.978214	-43.929189	33.978214	-0.225423	-105.363517
7.350000	-0.228621	-105.998095	-43.779255	32.456310	-43.779255	32.456310	-0.228640	-105.990466
7.400000	-0.231841	-106.624925	-43.631713	30.933946	-43.631713	30.933946	-0.231864	-106.617248
7.450000	-0.235134	-107.249914	-43.484971	29.406530	-43.484971	29.406530	-0.235161	-107.242187
7.500000	-0.238428	-107.874903	-43.340667	27.879114	-43.340667	27.879114	-0.238460	-107.867126
7.550000	-0.241802	-108.497959	-43.197230	26.346979	-43.197230	26.346979	-0.241838	-108.490131
7.600000	-0.245178	-109.121015	-43.056122	24.814844	-43.056122	24.814844	-0.245218	-109.113136
7.650000	-0.248628	-109.742372	-42.916191	23.279305	-42.916191	23.279305	-0.248673	-109.734440
7.700000	-0.252086	-110.363574	-42.778381	21.743455	-42.778381	21.743455	-0.252136	-110.355589
7.750000	-0.255613	-110.983299	-42.641991	20.205519	-42.641991	20.205519	-0.255668	-110.975258
7.800000	-0.259156	-111.602728	-42.507566	18.667166	-42.507566	18.667166	-0.259215	-111.594633
7.850000	-0.262762	-112.220890	-42.374739	17.127989	-42.374739	17.127989	-0.262827	-112.212738
7.900000	-0.266390	-112.838629	-42.243764	15.588537	-42.243764	15.588537	-0.266460	-112.830421
7.950000	-0.270077	-113.455300	-42.114503	14.049407	-42.114503	14.049407	-0.270152	-113.447033
8.000000	-0.273794	-114.071436	-41.987021	12.510439	-41.987021	12.510439	-0.273874	-114.063110
8.050000	-0.277563	-114.686688	-41.861306	10.972766	-41.861306	10.972766	-0.277649	-114.678301
8.100000	-0.281370	-115.301309	-41.737330	9.436019	-41.737330	9.436019	-0.281461	-115.292861
8.150000	-0.285223	-115.915217	-41.615119	7.901317	-41.615119	7.901317	-0.285320	-115.906707
8.200000	-0.289123	-116.528413	-41.494625	6.368660	-41.494625	6.368660	-0.289225	-116.519840
8.250000	-0.293063	-117.141054	-41.375852	4.838526	-41.375852	4.838526	-0.293170	-117.132417
8.300000	-0.297058	-117.752919	-41.258780	3.311926	-41.258780	3.311926	-0.297170	-117.744216
8.350000	-0.301087	-118.364371	-41.143349	1.788022	-41.143349	1.788022	-0.301204	-118.355602
8.400000	-0.305180	-118.974998	-41.029599	0.269513	-41.029599	0.269513	-0.305302	-118.966162
8.450000	-0.309300	-119.585341	-40.917389	-1.246458	-40.917389	-1.246458	-0.309426	-119.576438
8.500000	-0.313495	-120.194829	-40.806816	-2.754810	-40.806816	-2.754810	-0.313626	-120.185857
8.550000	-0.317709	-120.804144	-40.697675	-4.261126	-40.697675	-4.261126	-0.317844	-120.795103
8.600000	-0.322009	-121.412592	-40.590093	-5.757258	-40.590093	-5.757258	-0.322148	-121.403480
8.650000	-0.326320	-122.020962	-40.483841	-7.252203	-40.483841	-7.252203	-0.326463	-122.011780
8.700000	-0.330729	-122.628471	-40.379018	-8.734087	-40.379018	-8.734087	-0.330875	-122.619217
8.750000	-0.335140	-123.235980	-40.275445	-10.215971	-40.275445	-10.215971	-0.335289	-123.226655
8.800000	-0.339662	-123.842653	-40.173107	-11.681650	-40.173107	-11.681650	-0.339813	-123.833256
8.850000	-0.344186	-124.449326	-40.071961	-13.147328	-40.071961	-13.147328	-0.344340	-124.439858
8.900000	-0.348817	-125.055328	-39.971806	-14.596446	-39.971806	-14.596446	-0.348971	-125.045789
8.950000	-0.353459	-125.661270	-39.872777	-16.044058	-39.872777	-16.044058	-0.353615	-125.651659
9.000000	-0.358201	-126.266691	-39.774493	-17.475166	-39.774493	-17.475166	-0.358358	-126.257010
9.050000	-0.362966	-126.872009	-39.677234	-18.902973	-39.677234	-18.902973	-0.363123	-126.862256
9.100000	-0.367825	-127.476938	-39.580482	-20.314728	-39.580482	-20.314728	-0.367981	-127.467117
9.150000	-0.372718	-128.081739	-39.484607	-21.721134	-39.484607	-21.721134	-0.372873	-128.071848
9.200000	-0.377699	-128.686268	-39.389028	-23.112312	-39.389028	-23.112312	-0.377852	-128.676311
9.250000	-0.382726	-129.290662	-39.294117	-24.495876	-39.294117	-24.495876	-0.382876	-129.280638
9.300000	-0.387834	-129.894883	-39.199329	-25.865375	-39.199329	-25.865375	-0.387980	-129.884795
9.350000	-0.393001	-130.498980	-39.104928	-27.224826	-39.104928	-27.224826	-0.393142	-130.488830
9.400000	-0.398241	-131.102986	-39.010533	-28.571669	-39.010533	-28.571669	-0.398377	-131.092776
9.450000	-0.403555	-131.706899	-38.916155	-29.905905	-38.916155	-29.905905	-0.403684	-131.696632
9.500000	-0.408934	-132.310783	-38.821736	-31.229247	-38.821736	-31.229247	-0.409055	-132.300461
9.550000	-0.414402	-132.914625	-38.726868	-32.537337	-38.726868	-32.537337	-0.414515	-132.904253
9.600000	-0.419925	-133.518482	-38.631990	-33.836458	-38.631990	-33.836458	-0.420028	-133.508062
9.650000	-0.425555	-134.122367	-38.536090	-35.117638	-38.536090	-35.117638	-0.425647	-134.111905
9.700000	-0.431229	-134.726292	-38.440305	-36.391939	-38.440305	-36.391939	-0.431310	-134.715791
9.750000	-0.437030	-135.330334	-38.342800	-37.645603	-38.342800	-37.645603	-0.437096	-135.319802
9.800000	-0.442863	-135.934423	-38.245644	-38.894603	-38.245644	-38.894603	-0.442915	-135.923860
9.850000	-0.448842	-136.538739	-38.145935	-40.120289	-38.145935	-40.120289	-0.448878	-136.528157
9.900000	-0.454841	-137.143087	-38.046929	-41.343616	-38.046929	-41.343616	-0.454859	-137.132487
9.950000	-0.461009	-137.747792	-37.944382	-42.540994	-37.944382	-42.540994	-0.461008	-137.737186
10.000000	-0.467181	-138.352496	-37.843032	-43.738371	-37.843032	-43.738371	-0.467160	-138.341886
