! freq	dB(S11)	phase(S11)	dB(S12)	phase(S12)	
!     	dB(S21)	phase(S21)	dB(S22)	phase(S22)	
!S-par simulation data
#  GHz  S  DB  R 50
0.000000	-81.779106	0.000000	-0.000707	0.000000	-0.000707	0.000000	-81.779101	0.000000
0.050000	-45.434457	-87.752556	-0.006923	-2.876119	-0.006923	-2.876119	-45.582135	-87.938836
0.100000	-39.582021	-92.267328	-0.012246	-5.709279	-0.012246	-5.709279	-39.613848	-94.502964
0.150000	-36.112218	-95.406870	-0.016893	-8.535882	-0.016893	-8.535882	-36.135962	-98.932634
0.200000	-33.647372	-98.145402	-0.021501	-11.357763	-0.021501	-11.357763	-33.671834	-102.846847
0.250000	-31.740075	-100.698339	-0.026051	-14.175669	-0.026051	-14.175669	-31.765383	-106.550542
0.300000	-30.188386	-103.162101	-0.030548	-16.991214	-0.030548	-16.991214	-30.213850	-110.164260
0.350000	-28.883542	-105.575091	-0.035053	-19.805547	-0.035053	-19.805547	-28.908640	-113.731434
0.400000	-27.760197	-107.956516	-0.039634	-22.619381	-0.039634	-22.619381	-27.784559	-117.272402
0.450000	-26.778873	-110.311649	-0.044388	-25.433146	-0.044388	-25.433146	-26.802094	-120.793980
0.500000	-25.908416	-112.650444	-0.049341	-28.247158	-0.049341	-28.247158	-25.930225	-124.305101
0.550000	-25.129591	-114.974646	-0.054548	-31.061714	-0.054548	-31.061714	-25.149669	-127.808136
0.600000	-24.427584	-117.286180	-0.060037	-33.877140	-0.060037	-33.877140	-24.445594	-131.305209
0.650000	-23.789440	-119.587785	-0.065775	-36.693653	-0.065775	-36.693653	-23.805111	-134.798318
0.700000	-23.208394	-121.878838	-0.071765	-39.511830	-0.071765	-39.511830	-23.221338	-138.287830
0.750000	-22.675640	-124.161346	-0.077919	-42.331746	-0.077919	-42.331746	-22.685562	-141.774815
0.800000	-22.185562	-126.435838	-0.084158	-45.153498	-0.084158	-45.153498	-22.192170	-145.259675
0.850000	-21.734552	-128.702157	-0.090406	-47.977123	-0.090406	-47.977123	-21.737518	-148.742545
0.900000	-21.317978	-130.961263	-0.096603	-50.802215	-0.096603	-50.802215	-21.317051	-152.223776
0.950000	-20.932699	-133.213539	-0.102729	-53.628485	-0.102729	-53.628485	-20.927670	-155.703545
1.000000	-20.575973	-135.459430	-0.108794	-56.455745	-0.108794	-56.455745	-20.566694	-159.182057
1.050000	-20.245465	-137.699391	-0.114818	-59.283985	-0.114818	-59.283985	-20.231860	-162.659573
1.100000	-19.939171	-139.933891	-0.120821	-62.113358	-0.120821	-62.113358	-19.921247	-166.136443
1.150000	-19.655365	-142.163425	-0.126816	-64.944125	-0.126816	-64.944125	-19.633211	-169.613129
1.200000	-19.392553	-144.388508	-0.132805	-67.776613	-0.132805	-67.776613	-19.366336	-173.090215
1.250000	-19.149436	-146.609688	-0.138784	-70.611174	-0.138784	-70.611174	-19.119391	-176.568403
1.300000	-18.925152	-148.827482	-0.144741	-73.448232	-0.144741	-73.448232	-18.891563	179.951459
1.350000	-18.718450	-151.042586	-0.150661	-76.288107	-0.150661	-76.288107	-18.681627	176.468554
1.400000	-18.528476	-153.255639	-0.156529	-79.131164	-0.156529	-79.131164	-18.488727	172.982052
1.450000	-18.354491	-155.467314	-0.162329	-81.977768	-0.162329	-81.977768	-18.312099	169.491173
1.500000	-18.195858	-157.678315	-0.168044	-84.828287	-0.168044	-84.828287	-18.151059	165.995237
1.550000	-18.052034	-159.889378	-0.173661	-87.683093	-0.173661	-87.683093	-18.005004	162.493688
1.600000	-17.922562	-162.101267	-0.179164	-90.542564	-0.179164	-90.542564	-17.873403	158.986108
1.650000	-17.807065	-164.314780	-0.184542	-93.407087	-0.184542	-93.407087	-17.755803	155.472223
1.700000	-17.705245	-166.530743	-0.189781	-96.277054	-0.189781	-96.277054	-17.651825	151.951894
1.750000	-17.616876	-168.750011	-0.194872	-99.152871	-0.194872	-99.152871	-17.561169	148.425101
1.800000	-17.541805	-170.973467	-0.199804	-102.034953	-0.199804	-102.034953	-17.483608	144.891931
1.850000	-17.479952	-173.202021	-0.204569	-104.923726	-0.204569	-104.923726	-17.418994	141.352559
1.900000	-17.431451	-175.436684	-0.209157	-107.819713	-0.209157	-107.819713	-17.367392	137.807175
1.950000	-17.396379	-177.678447	-0.213562	-110.723384	-0.213562	-110.723384	-17.328819	134.256103
2.000000	-17.374744	-179.928223	-0.217780	-113.635132	-0.217780	-113.635132	-17.303230	130.699784
2.050000	-17.366778	177.812995	-0.221805	-116.555444	-0.221805	-116.555444	-17.290801	127.138642
2.100000	-17.372803	175.544206	-0.225634	-119.484828	-0.225634	-119.484828	-17.291800	123.573152
2.150000	-17.393236	173.264412	-0.229262	-122.423809	-0.229262	-122.423809	-17.306587	120.003843
2.200000	-17.428605	170.972631	-0.232688	-125.372937	-0.232688	-125.372937	-17.335628	116.431298
2.250000	-17.479554	168.667923	-0.235910	-128.332786	-0.235910	-128.332786	-17.379502	112.856163
2.300000	-17.546863	166.349420	-0.238927	-131.303957	-0.238927	-131.303957	-17.438919	109.279160
2.350000	-17.631462	164.016384	-0.241738	-134.287080	-0.241738	-134.287080	-17.514729	105.701096
2.400000	-17.734448	161.668282	-0.244346	-137.282820	-0.244346	-137.282820	-17.607953	102.122883
2.450000	-17.857105	159.304907	-0.246752	-140.291875	-0.246752	-140.291875	-17.719801	98.545561
2.500000	-18.000906	156.926540	-0.248961	-143.314985	-0.248961	-143.314985	-17.851708	94.970334
2.550000	-18.167962	154.533868	-0.250973	-146.353272	-0.250973	-146.353272	-18.005828	91.398720
2.600000	-18.359617	152.128958	-0.252801	-149.407263	-0.252801	-149.407263	-18.183798	87.832363
2.650000	-18.577590	149.713656	-0.254456	-152.477841	-0.254456	-152.477841	-18.388044	84.273302
2.700000	-18.823391	147.287332	-0.255950	-155.565946	-0.255950	-155.565946	-18.621473	80.724041
2.750000	-19.098570	144.840955	-0.257299	-158.672577	-0.257299	-158.672577	-18.887591	77.187710
2.800000	-19.406270	142.351298	-0.258525	-161.798800	-0.258525	-161.798800	-19.190660	73.668297
2.850000	-19.753832	139.788774	-0.259653	-164.945752	-0.259653	-164.945752	-19.535912	70.170990
2.900000	-20.153010	137.141388	-0.260714	-168.114646	-0.260714	-168.114646	-19.929847	66.702679
2.950000	-20.616591	134.423385	-0.261745	-171.306779	-0.261745	-171.306779	-20.380657	63.272742
3.000000	-21.156720	131.656072	-0.262793	-174.523536	-0.262793	-174.523536	-20.898834	59.894269
3.050000	-21.787254	128.851248	-0.263912	-177.766396	-0.263912	-177.766396	-21.498101	56.586082
3.100000	-22.527280	126.010499	-0.265168	178.963058	-0.265168	178.963058	-22.196834	53.376176
3.150000	-23.405452	123.129348	-0.266641	175.662798	-0.266641	175.662798	-23.021128	50.310232
3.200000	-24.464055	120.200923	-0.268429	172.330952	-0.268429	172.330952	-24.007664	47.463063
3.250000	-25.768385	117.216708	-0.270637	168.965906	-0.270637	168.965906	-25.210446	44.962500
3.300000	-27.429627	114.163265	-0.273397	165.565598	-0.273397	165.565598	-26.716330	43.058476
3.350000	-29.652114	111.018599	-0.276837	162.128932	-0.276837	162.128932	-28.670678	42.239537
3.400000	-32.917535	107.706381	-0.281182	158.651245	-0.281182	158.651245	-31.360280	44.011976
3.450000	-38.745631	103.878003	-0.286613	155.131443	-0.286613	155.131443	-35.318845	53.298208
3.500000	-57.104510	-31.470038	-0.293369	151.566932	-0.293369	151.566932	-40.166451	91.515095
3.550000	-37.768857	-80.094207	-0.301737	147.954789	-0.301737	147.954789	-37.148721	149.285633
3.600000	-31.546660	-84.054756	-0.312075	144.291297	-0.312075	144.291297	-31.831140	166.377627
3.650000	-27.761214	-87.690263	-0.324727	140.574363	-0.324727	140.574363	-28.067914	170.221108
3.700000	-24.983043	-91.300556	-0.340122	136.800862	-0.340122	136.800862	-25.237327	170.108422
3.750000	-22.759182	-94.950592	-0.358755	132.967569	-0.358755	132.967569	-22.960821	168.364360
3.800000	-20.884618	-98.666508	-0.381290	129.069657	-0.381290	129.069657	-21.041680	165.775536
3.850000	-19.254369	-102.459536	-0.408301	125.105165	-0.408301	125.105165	-19.374804	162.700774
3.900000	-17.803789	-106.337726	-0.440524	121.070753	-0.440524	121.070753	-17.893925	159.302732
3.950000	-16.491422	-110.307133	-0.478794	116.963144	-0.478794	116.963144	-16.556192	155.670491
4.000000	-15.288018	-114.374593	-0.524197	112.777677	-0.524197	112.777677	-15.331258	151.853324
4.050000	-14.175144	-118.542837	-0.577708	108.512539	-0.577708	108.512539	-14.199966	147.886437
4.100000	-13.138785	-122.814909	-0.640478	104.165446	-0.640478	104.165446	-13.147723	143.790661
4.150000	-12.168426	-127.193532	-0.713810	99.734278	-0.713810	99.734278	-12.163570	139.579512
4.200000	-11.255647	-131.682353	-0.799324	95.216180	-0.799324	95.216180	-11.238738	135.261003
4.250000	-10.395078	-136.281617	-0.898526	90.611038	-0.898526	90.611038	-10.367603	130.843305
4.300000	-9.582649	-140.990484	-1.013006	85.919703	-1.013006	85.919703	-9.545887	126.333177
4.350000	-8.815084	-145.807756	-1.144544	81.143469	-1.144544	81.143469	-8.770138	121.736182
4.400000	-8.089787	-150.732056	-1.295217	76.283986	-1.295217	76.283986	-8.037608	117.057198
4.450000	-7.405182	-155.759170	-1.466997	71.345396	-1.466997	71.345396	-7.346602	112.302792
4.500000	-6.760259	-160.882143	-1.661649	66.334239	-1.661649	66.334239	-6.696004	107.481199
4.550000	-6.154118	-166.093562	-1.881126	61.257722	-1.881126	61.257722	-6.084822	102.600852
4.600000	-5.586112	-171.384875	-2.127488	56.124317	-2.127488	56.124317	-5.512331	97.671120
4.650000	-5.055835	-176.745580	-2.402704	50.944400	-2.402704	50.944400	-4.978058	92.702958
4.700000	-4.562768	177.837729	-2.708113	45.730722	-2.708113	45.730722	-4.481431	87.709222
4.750000	-4.106317	172.378433	-3.045195	40.496360	-3.045195	40.496360	-4.021811	82.702971
4.800000	-3.685838	166.890725	-3.415298	35.255312	-3.415298	35.255312	-3.598519	77.697999
4.850000	-3.301072	161.389528	-3.819944	30.022967	-3.819944	30.022967	-3.211276	72.709475
4.900000	-2.949926	155.890284	-4.258997	24.813352	-4.258997	24.813352	-2.857966	67.750351
4.950000	-2.631487	150.407160	-4.733486	19.641086	-4.733486	19.641086	-2.537668	62.834590
5.000000	-2.344268	144.953891	-5.243907	14.519990	-5.243907	14.519990	-2.248886	57.974992
5.050000	-2.087327	139.545001	-5.790654	9.465592	-5.790654	9.465592	-1.990686	53.185945
5.100000	-1.858108	134.190644	-6.373791	4.487760	-6.373791	4.487760	-1.760503	48.475679
5.150000	-1.654679	128.900533	-6.993692	-0.403110	-6.993692	-0.403110	-1.556401	43.852870
5.200000	-1.475052	123.682787	-7.650876	-5.197944	-7.650876	-5.197944	-1.376391	39.324576
5.250000	-1.317234	118.543910	-8.346101	-9.888938	-8.346101	-9.888938	-1.218472	34.896231
5.300000	-1.179254	113.488851	-9.080473	-14.469421	-9.080473	-14.469421	-1.080666	30.571699
5.350000	-1.059583	108.523419	-9.854800	-18.930493	-9.854800	-18.930493	-0.961438	26.356155
5.400000	-0.956065	103.648306	-10.671488	-23.268814	-10.671488	-23.268814	-0.858615	22.248822
5.450000	-0.866847	98.863683	-11.533735	-27.480427	-11.533735	-27.480427	-0.770323	18.248604
5.500000	-0.790333	94.169502	-12.445535	-31.560009	-12.445535	-31.560009	-0.694949	14.354348
5.550000	-0.725056	89.564906	-13.412187	-35.501189	-13.412187	-35.501189	-0.631003	10.564100
5.600000	-0.670013	85.051886	-14.438284	-39.289031	-14.438284	-39.289031	-0.577468	6.879256
5.650000	-0.623421	80.622761	-15.536502	-42.921442	-15.536502	-42.921442	-0.532526	3.290237
5.700000	-0.584316	76.276211	-16.718792	-46.378790	-16.718792	-46.378790	-0.495194	-0.205151
5.750000	-0.552120	72.014223	-17.997316	-49.622469	-17.997316	-49.622469	-0.464877	-3.605333
5.800000	-0.525276	67.824636	-19.404922	-52.636680	-19.404922	-52.636680	-0.439983	-6.924564
5.850000	-0.503925	63.717536	-20.958288	-55.297570	-20.958288	-55.297570	-0.420643	-10.152198
5.900000	-0.486497	59.675487	-22.726365	-57.553336	-22.726365	-57.553336	-0.405253	-13.308078
5.950000	-0.473105	55.707387	-24.764183	-59.058665	-24.764183	-59.058665	-0.393909	-16.382898
6.000000	-0.462765	51.800854	-27.217823	-59.427729	-27.217823	-59.427729	-0.385605	-19.390624
6.050000	-0.455273	47.957493	-30.297933	-57.195910	-30.297933	-57.195910	-0.380112	-22.329864
6.100000	-0.450200	44.172800	-34.394696	-48.288734	-34.394696	-48.288734	-0.376978	-25.205764
6.150000	-0.447135	40.441249	-39.366543	-18.630692	-39.366543	-18.630692	-0.375773	-28.024450
6.200000	-0.445985	36.764579	-38.860111	34.811956	-38.860111	34.811956	-0.376371	-30.784098
6.250000	-0.446260	33.131720	-34.710452	61.746134	-34.710452	61.746134	-0.378274	-33.496532
6.300000	-0.448073	29.548892	-31.468355	68.391478	-31.468355	68.391478	-0.381532	-36.154719
6.350000	-0.450983	26.003230	-29.181904	70.418947	-29.181904	70.418947	-0.385710	-38.772140
6.400000	-0.455048	22.497034	-27.493397	70.260942	-27.493397	70.260942	-0.390794	-41.345424
6.450000	-0.460074	19.022821	-26.186730	69.172072	-26.186730	69.172072	-0.396570	-43.881816
6.500000	-0.466037	15.577429	-25.153350	67.567874	-25.153350	67.567874	-0.402948	-46.383261
6.550000	-0.472927	12.156556	-24.326381	65.657893	-24.326381	65.657893	-0.409845	-48.852545
6.600000	-0.480682	8.753262	-23.655387	63.579176	-23.655387	63.579176	-0.417150	-51.295440
6.650000	-0.489479	5.363443	-23.125154	61.383643	-23.125154	61.383643	-0.424862	-53.712167
6.700000	-0.499265	1.978463	-22.703989	59.132568	-22.703989	59.132568	-0.432891	-56.110218
6.750000	-0.510310	-1.409241	-22.390794	56.853067	-22.390794	56.853067	-0.441262	-58.491686
6.800000	-0.522837	-4.809832	-22.178799	54.576518	-22.178799	54.576518	-0.449984	-60.861935
6.850000	-0.537216	-8.235555	-22.069595	52.333760	-22.069595	52.333760	-0.459118	-63.226433
6.900000	-0.554030	-11.702391	-22.072628	50.165221	-22.072628	50.165221	-0.468786	-65.591719
6.950000	-0.574124	-15.230806	-22.205174	48.132017	-22.205174	48.132017	-0.479204	-67.965948
7.000000	-0.598720	-18.846538	-22.495465	46.335097	-22.495465	46.335097	-0.490719	-70.359070
7.050000	-0.629736	-22.584780	-22.993041	44.966052	-22.993041	44.966052	-0.503921	-72.783961
7.100000	-0.670217	-26.494117	-23.782163	44.426248	-23.782163	44.426248	-0.519808	-75.257769
7.150000	-0.725173	-30.643576	-25.008867	45.675434	-25.008867	45.675434	-0.540112	-77.804005
7.200000	-0.802040	-35.118440	-26.898185	51.061548	-26.898185	51.061548	-0.567526	-80.450801
7.250000	-0.918276	-40.099630	-29.527420	69.595885	-29.527420	69.595885	-0.608454	-83.254229
7.300000	-1.103293	-45.814282	-29.543692	113.004895	-29.543692	113.004895	-0.674017	-86.278060
7.350000	-1.420598	-52.646683	-24.192739	142.590328	-24.192739	142.590328	-0.787913	-89.612337
7.400000	-2.013821	-61.188136	-18.654271	148.120512	-18.654271	148.120512	-1.000692	-93.335871
7.450000	-3.265174	-72.247253	-13.869631	141.950556	-13.869631	141.950556	-1.425687	-97.317195
7.500000	-6.266819	-85.304642	-9.858114	127.246954	-9.858114	127.246954	-2.241415	-100.281246
7.550000	-14.570810	-79.480747	-7.073114	105.327717	-7.073114	105.327717	-3.310429	-98.311058
7.600000	-11.482899	2.969927	-5.971061	81.803486	-5.971061	81.803486	-3.537161	-91.477853
7.650000	-5.838596	-1.610889	-6.080018	62.944975	-6.080018	62.944975	-2.902903	-88.136455
7.700000	-3.660343	-11.804869	-6.612920	49.647817	-6.612920	49.647817	-2.299173	-88.770687
7.750000	-2.642372	-20.233285	-7.178325	40.219324	-7.178325	40.219324	-1.908515	-90.844814
7.800000	-2.098048	-26.980374	-7.664160	33.155004	-7.664160	33.155004	-1.666525	-93.271253
7.850000	-1.781224	-32.530037	-8.052827	27.571202	-8.052827	27.571202	-1.514962	-95.726926
7.900000	-1.580004	-37.298729	-8.359824	22.891520	-8.359824	22.891520	-1.415737	-98.130297
7.950000	-1.449990	-41.485619	-8.594184	18.855556	-8.594184	18.855556	-1.351759	-100.464200
8.000000	-1.361545	-45.278161	-8.773271	15.239508	-8.773271	15.239508	-1.309778	-102.738077
8.050000	-1.300672	-48.776505	-8.907306	11.926627	-8.907306	11.926627	-1.283191	-104.961897
8.100000	-1.259566	-52.041577	-9.002911	8.846325	-9.002911	8.846325	-1.268204	-107.143960
8.150000	-1.232064	-55.132502	-9.068139	5.933913	-9.068139	5.933913	-1.261579	-109.294746
8.200000	-1.214765	-58.084435	-9.107903	3.151038	-9.107903	3.151038	-1.261512	-111.421523
8.250000	-1.205344	-60.923992	-9.126134	0.469079	-9.126134	0.469079	-1.266740	-113.530536
8.300000	-1.202426	-63.668134	-9.125289	-2.130546	-9.125289	-2.130546	-1.276545	-115.626603
8.350000	-1.204427	-66.339343	-9.109245	-4.669956	-9.109245	-4.669956	-1.289971	-117.714992
8.400000	-1.210676	-68.948033	-9.079634	-7.160122	-9.079634	-7.160122	-1.306660	-119.799140
8.450000	-1.221028	-71.498032	-9.036628	-9.606798	-9.036628	-9.606798	-1.326649	-121.882453
8.500000	-1.234580	-74.004386	-8.983158	-12.023323	-8.983158	-12.023323	-1.349329	-123.967972
8.550000	-1.251294	-76.470438	-8.919420	-14.414298	-8.919420	-14.414298	-1.374775	-126.058792
8.600000	-1.270911	-78.902594	-8.846482	-16.785984	-8.846482	-16.785984	-1.402856	-128.157446
8.650000	-1.293189	-81.306910	-8.765416	-19.144006	-8.765416	-19.144006	-1.433441	-130.266088
8.700000	-1.318308	-83.685073	-8.675964	-21.491621	-8.675964	-21.491621	-1.466776	-132.388279
8.750000	-1.345832	-86.044259	-8.579933	-23.833864	-8.579933	-23.833864	-1.502513	-134.524182
8.800000	-1.376311	-88.383834	-8.476005	-26.173508	-8.476005	-26.173508	-1.541257	-136.679688
8.850000	-1.409239	-90.710320	-8.366239	-28.514056	-8.366239	-28.514056	-1.582560	-138.853253
8.900000	-1.445296	-93.023761	-8.249134	-30.859464	-8.249134	-30.859464	-1.627176	-141.052422
8.950000	-1.483849	-95.329130	-8.127035	-33.210680	-8.127035	-33.210680	-1.674489	-143.272875
9.000000	-1.525843	-97.627095	-7.997957	-35.573505	-7.997957	-35.573505	-1.725550	-145.525186
9.050000	-1.570551	-99.921524	-7.864436	-37.947108	-7.864436	-37.947108	-1.779621	-147.803055
9.100000	-1.618067	-102.213350	-7.726664	-40.332614	-7.726664	-40.332614	-1.836827	-150.107594
9.150000	-1.670097	-104.504568	-7.581321	-42.740793	-7.581321	-42.740793	-1.899072	-152.457807
9.200000	-1.724848	-106.797036	-7.433204	-45.163035	-7.433204	-45.163035	-1.964423	-154.834468
9.250000	-1.784376	-109.093438	-7.278554	-47.612299	-7.278554	-47.612299	-2.035181	-157.260203
9.300000	-1.847949	-111.394744	-7.119709	-50.084877	-7.119709	-50.084877	-2.110569	-159.726567
9.350000	-1.916368	-113.703350	-6.955943	-52.586409	-6.955943	-52.586409	-2.191512	-162.242019
9.400000	-1.989767	-116.020444	-6.787864	-55.117877	-6.787864	-55.117877	-2.278189	-164.807155
9.450000	-2.068498	-118.347403	-6.615740	-57.681505	-6.615740	-57.681505	-2.371027	-167.424789
9.500000	-2.153349	-120.686346	-6.439272	-60.282250	-6.439272	-60.282250	-2.470944	-170.102272
9.550000	-2.244737	-123.038368	-6.258865	-62.922199	-6.258865	-62.922199	-2.578440	-172.842388
9.600000	-2.342981	-125.404007	-6.075063	-65.602450	-6.075063	-65.602450	-2.693911	-175.646555
9.650000	-2.448950	-127.784769	-5.887822	-68.327553	-5.887822	-68.327553	-2.818376	-178.521834
9.700000	-2.563567	-130.181854	-5.697243	-71.101981	-5.697243	-71.101981	-2.952917	178.524625
9.750000	-2.687186	-132.594757	-5.504076	-73.925930	-5.504076	-73.925930	-3.097982	175.492198
9.800000	-2.820610	-135.023572	-5.308666	-76.802229	-5.308666	-76.802229	-3.254534	172.375817
9.850000	-2.965295	-137.468988	-5.111024	-79.737434	-5.111024	-79.737434	-3.424276	169.163954
9.900000	-3.122005	-139.929621	-4.911843	-82.732974	-4.911843	-82.732974	-3.608147	165.852761
9.950000	-3.291529	-142.403662	-4.711803	-85.789949	-4.711803	-85.789949	-3.807126	162.438484
10.000000	-3.474997	-144.889189	-4.511439	-88.911057	-4.511439	-88.911057	-4.022596	158.914105
