! freq	dB(S11)	phase(S11)	dB(S12)	phase(S12)	
!     	dB(S21)	phase(S21)	dB(S22)	phase(S22)	
!S-par simulation data
#  GHz  S  DB  R 50
0.000000	-0.000000	0.000000	-332.686961	0.000000	-332.686961	0.000000	-0.000000	0.000000
0.050000	-0.000422	-3.730410	-70.730828	71.370163	-70.730828	71.370163	-0.000139	-1.337668
0.100000	-0.001672	-7.459777	-65.227128	76.495151	-65.227128	76.495151	-0.000551	-2.675015
0.150000	-0.003724	-11.187073	-61.814665	76.832064	-61.814665	76.832064	-0.001230	-4.011721
0.200000	-0.006506	-14.911440	-59.361334	75.828599	-59.361334	75.828599	-0.002153	-5.347516
0.250000	-0.009956	-18.632060	-57.451105	74.253005	-57.451105	74.253005	-0.003302	-6.682135
0.300000	-0.013995	-22.348260	-55.889979	72.388784	-55.889979	72.388784	-0.004654	-8.015351
0.350000	-0.018535	-26.059506	-54.572225	70.359274	-54.572225	70.359274	-0.006184	-9.346972
0.400000	-0.023486	-29.765408	-53.434005	68.226695	-53.434005	68.226695	-0.007863	-10.676843
0.450000	-0.028761	-33.465713	-52.433860	66.025884	-52.433860	66.025884	-0.009665	-12.004840
0.500000	-0.034277	-37.160296	-51.543355	63.777931	-51.543355	63.777931	-0.011565	-13.330872
0.550000	-0.039958	-40.849144	-50.742148	61.496426	-50.742148	61.496426	-0.013538	-14.654874
0.600000	-0.045738	-44.532346	-50.015186	59.190594	-50.015186	59.190594	-0.015564	-15.976801
0.650000	-0.051558	-48.210015	-49.351091	56.866839	-49.351091	56.866839	-0.017624	-17.296604
0.700000	-0.057370	-51.882403	-48.740943	54.530119	-48.740943	54.530119	-0.019700	-18.614268
0.750000	-0.063136	-55.549874	-48.177579	52.184266	-48.177579	52.184266	-0.021780	-19.929810
0.800000	-0.068826	-59.212776	-47.655268	49.832171	-47.655268	49.832171	-0.023853	-21.243227
0.850000	-0.074419	-62.871502	-47.169309	47.476187	-47.169309	47.476187	-0.025911	-22.554522
0.900000	-0.079898	-66.526475	-46.715792	45.118282	-46.715792	45.118282	-0.027947	-23.863692
0.950000	-0.085254	-70.178153	-46.291421	42.760126	-46.291421	42.760126	-0.029958	-25.170738
1.000000	-0.090482	-73.827021	-45.893389	40.403161	-45.893389	40.403161	-0.031939	-26.475654
1.050000	-0.095581	-77.473591	-45.519278	38.048643	-45.519278	38.048643	-0.033889	-27.778433
1.100000	-0.100552	-81.118402	-45.166987	35.697668	-45.166987	35.697668	-0.035808	-29.079063
1.150000	-0.105399	-84.762020	-44.834671	33.351192	-44.834671	33.351192	-0.037695	-30.377532
1.200000	-0.110127	-88.405036	-44.520698	31.010041	-44.520698	31.010041	-0.039551	-31.673819
1.250000	-0.114744	-92.048069	-44.223612	28.674919	-44.223612	28.674919	-0.041378	-32.967904
1.300000	-0.119255	-95.691793	-43.942230	26.346567	-43.942230	26.346567	-0.043175	-34.259714
1.350000	-0.123670	-99.336880	-43.675235	24.025312	-43.675235	24.025312	-0.044947	-35.549270
1.400000	-0.127999	-102.984030	-43.421550	21.711495	-43.421550	21.711495	-0.046693	-36.836544
1.450000	-0.132249	-106.633964	-43.180191	19.405338	-43.180191	19.405338	-0.048418	-38.121505
1.500000	-0.136430	-110.287430	-42.950255	17.106946	-42.950255	17.106946	-0.050122	-39.404123
1.550000	-0.140550	-113.945196	-42.730908	14.816303	-42.730908	14.816303	-0.051807	-40.684365
1.600000	-0.144616	-117.608051	-42.521380	12.533279	-42.521380	12.533279	-0.053476	-41.962200
1.650000	-0.148637	-121.276802	-42.320959	10.257623	-42.320959	10.257623	-0.055131	-43.237595
1.700000	-0.152620	-124.952270	-42.128984	7.988973	-42.128984	7.988973	-0.056773	-44.510518
1.750000	-0.156572	-128.635290	-41.944840	5.726856	-41.944840	5.726856	-0.058404	-45.780938
1.800000	-0.160499	-132.326705	-41.767957	3.470690	-41.767957	3.470690	-0.060026	-47.048824
1.850000	-0.164407	-136.027362	-41.597807	1.219792	-41.597807	1.219792	-0.061641	-48.314146
1.900000	-0.168302	-139.738230	-41.433929	-1.026578	-41.433929	-1.026578	-0.063250	-49.576847
1.950000	-0.172189	-143.460182	-41.275863	-3.269322	-41.275863	-3.269322	-0.064855	-50.836900
2.000000	-0.176071	-147.193945	-41.123158	-5.509445	-41.123158	-5.509445	-0.066457	-52.094306
2.050000	-0.179954	-150.940340	-40.975431	-7.747978	-40.975431	-7.747978	-0.068057	-53.349042
2.100000	-0.183840	-154.700169	-40.832330	-9.986017	-40.832330	-9.986017	-0.069657	-54.601085
2.150000	-0.187732	-158.474207	-40.693535	-12.224713	-40.693535	-12.224713	-0.071258	-55.850416
2.200000	-0.191633	-162.263199	-40.558756	-14.465269	-40.558756	-14.465269	-0.072861	-57.097015
2.250000	-0.195544	-166.067850	-40.427731	-16.708924	-40.427731	-16.708924	-0.074466	-58.340867
2.300000	-0.199467	-169.888820	-40.300227	-18.956946	-40.300227	-18.956946	-0.076076	-59.581956
2.350000	-0.203401	-173.726718	-40.176037	-21.210625	-40.176037	-21.210625	-0.077690	-60.820269
2.400000	-0.207347	-177.582092	-40.054981	-23.471262	-40.054981	-23.471262	-0.079310	-62.055798
2.450000	-0.211305	178.544577	-39.936903	-25.740159	-39.936903	-25.740159	-0.080937	-63.288532
2.500000	-0.215274	174.652880	-39.821670	-28.018612	-39.821670	-28.018612	-0.082570	-64.518467
2.550000	-0.219251	170.742080	-39.709199	-30.308169	-39.709199	-30.308169	-0.084213	-65.745536
2.600000	-0.223235	166.812345	-39.599374	-32.609876	-39.599374	-32.609876	-0.085864	-66.969800
2.650000	-0.227223	162.863542	-39.492129	-34.924958	-39.492129	-34.924958	-0.087524	-68.191258
2.700000	-0.231212	158.895641	-39.387414	-37.254598	-39.387414	-37.254598	-0.089195	-69.409913
2.750000	-0.235197	154.908725	-39.285199	-39.599932	-39.285199	-39.599932	-0.090877	-70.625769
2.800000	-0.239175	150.902990	-39.185470	-41.962044	-39.185470	-41.962044	-0.092570	-71.838835
2.850000	-0.243141	146.878757	-39.088226	-44.341955	-39.088226	-44.341955	-0.094276	-73.049117
2.900000	-0.247090	142.836473	-38.993481	-46.740623	-38.993481	-46.740623	-0.095995	-74.256629
2.950000	-0.251017	138.776718	-38.901262	-49.158932	-38.901262	-49.158932	-0.097726	-75.461381
3.000000	-0.254915	134.700204	-38.811604	-51.597691	-38.811604	-51.597691	-0.099472	-76.663391
3.050000	-0.258779	130.607782	-38.724553	-54.057628	-38.724553	-54.057628	-0.101233	-77.862676
3.100000	-0.262604	126.500438	-38.640163	-56.539389	-38.640163	-56.539389	-0.103009	-79.059254
3.150000	-0.266382	122.379162	-38.558514	-59.043778	-38.558514	-59.043778	-0.104802	-80.253119
3.200000	-0.270106	118.245261	-38.479673	-61.571275	-38.479673	-61.571275	-0.106611	-81.444295
3.250000	-0.273772	114.100285	-38.403687	-64.122007	-38.403687	-64.122007	-0.108437	-82.632836
3.300000	-0.277374	109.945762	-38.330621	-66.696250	-38.330621	-66.696250	-0.110282	-83.818772
3.350000	-0.280905	105.783338	-38.260543	-69.294190	-38.260543	-69.294190	-0.112145	-85.002131
3.400000	-0.284362	101.614774	-38.193517	-71.915920	-38.193517	-71.915920	-0.114027	-86.182946
3.450000	-0.287739	97.441931	-38.129603	-74.561442	-38.129603	-74.561442	-0.115929	-87.361250
3.500000	-0.291032	93.266765	-38.068857	-77.230670	-38.068857	-77.230670	-0.117852	-88.537079
3.550000	-0.294237	89.091308	-38.011325	-79.923432	-38.011325	-79.923432	-0.119796	-89.710472
3.600000	-0.297353	84.917663	-37.957050	-82.639476	-37.957050	-82.639476	-0.121762	-90.881467
3.650000	-0.300376	80.747981	-37.906061	-85.378469	-37.906061	-85.378469	-0.123751	-92.050107
3.700000	-0.303306	76.584454	-37.858377	-88.140008	-37.858377	-88.140008	-0.125763	-93.216436
3.750000	-0.306143	72.429295	-37.814007	-90.923621	-37.814007	-90.923621	-0.127799	-94.380498
3.800000	-0.308885	68.285002	-37.773013	-93.729227	-37.773013	-93.729227	-0.129861	-95.542295
3.850000	-0.311536	64.153602	-37.735309	-96.555753	-37.735309	-96.555753	-0.131948	-96.701924
3.900000	-0.314099	60.037274	-37.700858	-99.402556	-37.700858	-99.402556	-0.134060	-97.859438
3.950000	-0.316577	55.938155	-37.669612	-102.268953	-37.669612	-102.268953	-0.136200	-99.014888
4.000000	-0.318975	51.858322	-37.641505	-105.154222	-37.641505	-105.154222	-0.138367	-100.168330
4.050000	-0.321297	47.799782	-37.616455	-108.057613	-37.616455	-108.057613	-0.140562	-101.319820
4.100000	-0.323551	43.764456	-37.594366	-110.978353	-37.594366	-110.978353	-0.142786	-102.469417
4.150000	-0.325742	39.754170	-37.575123	-113.915651	-37.575123	-113.915651	-0.145039	-103.617180
4.200000	-0.327878	35.770640	-37.558598	-116.868704	-37.558598	-116.868704	-0.147321	-104.763171
4.250000	-0.329968	31.815466	-37.544647	-119.836701	-37.544647	-119.836701	-0.149635	-105.907453
4.300000	-0.332020	27.890127	-37.533110	-122.818828	-37.533110	-122.818828	-0.151979	-107.050091
4.350000	-0.334042	23.995966	-37.523816	-125.814271	-37.523816	-125.814271	-0.154355	-108.191151
4.400000	-0.336045	20.134559	-37.516597	-128.822345	-37.516597	-128.822345	-0.156764	-109.330687
4.450000	-0.338038	16.307008	-37.511246	-131.842217	-37.511246	-131.842217	-0.159206	-110.468769
4.500000	-0.340032	12.513881	-37.507531	-134.872948	-37.507531	-134.872948	-0.161682	-111.605487
4.550000	-0.342036	8.755958	-37.505230	-137.913745	-37.505230	-137.913745	-0.164191	-112.740913
4.600000	-0.344060	5.033875	-37.504110	-140.963816	-37.504110	-140.963816	-0.166736	-113.875121
4.650000	-0.346114	1.348133	-37.503933	-144.022375	-37.503933	-144.022375	-0.169315	-115.008189
4.700000	-0.348208	-2.300906	-37.504452	-147.088639	-37.504452	-147.088639	-0.171930	-116.140194
4.750000	-0.350352	-5.913013	-37.505414	-150.161822	-37.505414	-150.161822	-0.174582	-117.271216
4.800000	-0.352556	-9.488087	-37.506563	-153.241136	-37.506563	-153.241136	-0.177270	-118.401335
4.850000	-0.354828	-13.026150	-37.507639	-156.325786	-37.507639	-156.325786	-0.179996	-119.530635
4.900000	-0.357178	-16.527343	-37.508379	-159.414966	-37.508379	-159.414966	-0.182760	-120.659199
4.950000	-0.359614	-19.991919	-37.508522	-162.507857	-37.508522	-162.507857	-0.185563	-121.787115
5.000000	-0.362145	-23.420240	-37.507804	-165.603622	-37.507804	-165.603622	-0.188404	-122.914471
5.050000	-0.364781	-26.811999	-37.505935	-168.701424	-37.505935	-168.701424	-0.191286	-124.041346
5.100000	-0.367529	-30.168549	-37.502676	-171.800316	-37.502676	-171.800316	-0.194209	-125.167846
5.150000	-0.370396	-33.490538	-37.497774	-174.899384	-37.497774	-174.899384	-0.197172	-126.294064
5.200000	-0.373388	-36.778697	-37.490981	-177.997684	-37.490981	-177.997684	-0.200176	-127.420094
5.250000	-0.376513	-40.033835	-37.482055	178.905762	-37.482055	178.905762	-0.203223	-128.546034
5.300000	-0.379777	-43.256829	-37.470761	175.811965	-37.470761	175.811965	-0.206312	-129.671983
5.350000	-0.383187	-46.448622	-37.456874	172.721970	-37.456874	172.721970	-0.209444	-130.798042
5.400000	-0.386749	-49.610217	-37.440174	169.636860	-37.440174	169.636860	-0.212619	-131.924314
5.450000	-0.390467	-52.742672	-37.420455	166.557751	-37.420455	166.557751	-0.215839	-133.050904
5.500000	-0.394349	-55.847096	-37.397518	163.485790	-37.397518	163.485790	-0.219104	-134.177920
5.550000	-0.398398	-58.924646	-37.371174	160.422159	-37.371174	160.422159	-0.222414	-135.305472
5.600000	-0.402620	-61.976522	-37.341248	157.368064	-37.341248	157.368064	-0.225771	-136.433672
5.650000	-0.407022	-65.003710	-37.307528	154.324869	-37.307528	154.324869	-0.229175	-137.562645
5.700000	-0.411609	-68.007533	-37.269853	151.293870	-37.269853	151.293870	-0.232627	-138.692512
5.750000	-0.416382	-70.989569	-37.228121	148.276219	-37.228121	148.276219	-0.236127	-139.823386
5.800000	-0.421347	-73.951162	-37.182197	145.273192	-37.182197	145.273192	-0.239677	-140.955392
5.850000	-0.426508	-76.893687	-37.131956	142.286073	-37.131956	142.286073	-0.243276	-142.088656
5.900000	-0.431868	-79.818547	-37.077283	139.316142	-37.077283	139.316142	-0.246926	-143.223309
5.950000	-0.437432	-82.727172	-37.018070	136.364669	-37.018070	136.364669	-0.250627	-144.359486
6.000000	-0.443204	-85.621017	-36.954215	133.432913	-36.954215	133.432913	-0.254381	-145.497325
6.050000	-0.449187	-88.501565	-36.885624	130.522108	-36.885624	130.522108	-0.258189	-146.636971
6.100000	-0.455386	-91.370321	-36.812205	127.633465	-36.812205	127.633465	-0.262051	-147.778570
6.150000	-0.461804	-94.228817	-36.733869	124.768156	-36.733869	124.768156	-0.265970	-148.922276
6.200000	-0.468444	-97.078608	-36.650529	121.927318	-36.650529	121.927318	-0.269945	-150.068250
6.250000	-0.475311	-99.921274	-36.562095	119.112041	-36.562095	119.112041	-0.273980	-151.216655
6.300000	-0.482413	-102.758340	-36.468336	116.323964	-36.468336	116.323964	-0.278076	-152.367727
6.350000	-0.489749	-105.591595	-36.369283	113.563509	-36.369283	113.563509	-0.282234	-153.521594
6.400000	-0.497322	-108.422700	-36.264827	110.831592	-36.264827	110.831592	-0.286457	-154.678446
6.450000	-0.505136	-111.253344	-36.154850	108.129061	-36.154850	108.129061	-0.290746	-155.838484
6.500000	-0.513194	-114.085245	-36.039218	105.456693	-36.039218	105.456693	-0.295105	-157.001920
6.550000	-0.521501	-116.920152	-35.917782	102.815188	-35.917782	102.815188	-0.299536	-158.168980
6.600000	-0.530059	-119.759844	-35.790368	100.205166	-35.790368	100.205166	-0.304042	-159.339903
6.650000	-0.538872	-122.606134	-35.656782	97.627158	-35.656782	97.627158	-0.308628	-160.514947
6.700000	-0.547938	-125.460675	-35.516965	95.081011	-35.516965	95.081011	-0.313297	-161.694301
6.750000	-0.557285	-128.326382	-35.369812	92.570057	-35.369812	92.570057	-0.318062	-162.878708
6.800000	-0.566878	-131.203498	-35.216384	90.089757	-35.216384	90.089757	-0.322915	-164.067782
6.850000	-0.576750	-134.095499	-35.055191	87.644076	-35.055191	87.644076	-0.327877	-165.262482
6.900000	-0.586891	-137.003516	-34.886445	85.231100	-34.886445	85.231100	-0.332949	-166.462883
6.950000	-0.597302	-139.929588	-34.709677	82.850709	-34.709677	82.850709	-0.338142	-167.669424
7.000000	-0.608003	-142.876940	-34.523653	80.504543	-34.523653	80.504543	-0.343476	-168.882977
7.050000	-0.618966	-145.845188	-34.329268	78.188409	-34.329268	78.188409	-0.348950	-170.103281
7.100000	-0.630242	-148.840685	-34.123315	75.907248	-34.123315	75.907248	-0.354611	-171.332313
7.150000	-0.641782	-151.860704	-33.907894	73.654167	-33.907894	73.654167	-0.360448	-172.569216
7.200000	-0.653638	-154.912420	-33.679068	71.433349	-33.679068	71.433349	-0.366527	-173.816432
7.250000	-0.665778	-157.994086	-33.438153	69.239431	-33.438153	69.239431	-0.372853	-175.073627
7.300000	-0.678229	-161.110607	-33.182155	67.072747	-33.182155	67.072747	-0.379495	-176.342855
7.350000	-0.690996	-164.263751	-32.909865	64.930494	-32.909865	64.930494	-0.386508	-177.625328
7.400000	-0.704077	-167.454546	-32.620257	62.808848	-32.620257	62.808848	-0.393956	-178.922253
7.450000	-0.717518	-170.689464	-32.308054	60.705778	-32.308054	60.705778	-0.401996	179.762604
7.500000	-0.731288	-173.964443	-31.975526	58.614065	-31.975526	58.614065	-0.410673	178.429445
7.550000	-0.745496	-177.291951	-31.610520	56.528482	-31.610520	56.528482	-0.420366	177.069998
7.600000	-0.760104	179.335396	-31.217699	54.439218	-31.217699	54.439218	-0.431148	175.685015
7.650000	-0.775250	175.906873	-30.782832	52.331525	-30.782832	52.331525	-0.443647	174.263629
7.700000	-0.790987	172.424661	-30.304287	50.188799	-30.304287	50.188799	-0.458308	172.801178
7.750000	-0.807502	168.883374	-29.768502	47.980623	-29.768502	47.980623	-0.476204	171.284191
7.800000	-0.825013	165.281278	-29.165579	45.668558	-29.165579	45.668558	-0.498691	169.698739
7.850000	-0.844011	161.611504	-28.469823	43.175101	-28.469823	43.175101	-0.528727	168.015997
7.900000	-0.865200	157.871897	-27.657975	40.387482	-27.657975	40.387482	-0.570903	166.201024
7.950000	-0.890011	154.056913	-26.686625	37.087384	-26.686625	37.087384	-0.634972	164.191115
8.000000	-0.921067	150.164466	-25.502962	32.884845	-25.502962	32.884845	-0.740680	161.894514
8.050000	-0.964194	146.198055	-24.020103	26.928617	-24.020103	26.928617	-0.938052	159.165455
8.100000	-1.031500	142.205072	-22.156148	17.334928	-22.156148	17.334928	-1.362382	155.938596
8.150000	-1.138107	138.436718	-20.033032	-0.284734	-20.033032	-0.284734	-2.385378	153.635835
8.200000	-1.198319	135.451963	-18.999823	-31.360818	-18.999823	-31.360818	-3.789212	161.971339
8.250000	-1.064118	132.032064	-21.185884	-63.659664	-21.185884	-63.659664	-2.582863	172.488324
8.300000	-0.967079	127.562089	-24.926031	-80.813330	-24.926031	-80.813330	-1.422458	170.562520
8.350000	-0.938112	122.944103	-28.491811	-86.538239	-28.491811	-86.538239	-0.957970	167.102679
8.400000	-0.934141	118.343964	-31.575183	-85.364218	-31.575183	-85.364218	-0.758759	164.174298
8.450000	-0.938485	113.740789	-34.116034	-79.199530	-34.116034	-79.199530	-0.661004	161.721201
8.500000	-0.945646	109.110748	-35.962198	-69.313069	-35.962198	-69.313069	-0.608505	159.581155
8.550000	-0.953553	104.439096	-36.964812	-57.752426	-36.964812	-57.752426	-0.578809	157.645439
8.600000	-0.961353	99.721589	-37.234977	-46.936284	-37.234977	-46.936284	-0.561039	155.838249
8.650000	-0.968631	94.952174	-36.976041	-38.472884	-36.976041	-38.472884	-0.550842	154.125056
8.700000	-0.975224	90.133774	-36.469583	-32.457658	-36.469583	-32.457658	-0.545086	152.473446
8.750000	-0.981008	85.266338	-35.867843	-28.552788	-35.867843	-28.552788	-0.542358	150.867347
8.800000	-0.985946	80.353415	-35.253574	-26.209985	-35.253574	-26.209985	-0.541667	149.293561
8.850000	-0.990035	75.399397	-34.661382	-24.990531	-34.661382	-24.990531	-0.542393	147.742877
8.900000	-0.993258	70.407609	-34.103237	-24.617848	-34.103237	-24.617848	-0.544177	146.209416
8.950000	-0.995690	65.385127	-33.581716	-24.838142	-33.581716	-24.838142	-0.546702	144.687538
9.000000	-0.997329	60.335785	-33.095733	-25.536890	-33.095733	-25.536890	-0.549823	143.174190
9.050000	-0.998289	55.267167	-32.642134	-26.581050	-32.642134	-26.581050	-0.553370	141.666031
9.100000	-0.998626	50.184852	-32.218178	-27.908116	-32.218178	-27.908116	-0.557261	140.160993
9.150000	-0.998446	45.095482	-31.820914	-29.457749	-31.820914	-29.457749	-0.561417	138.657218
9.200000	-0.997860	40.005468	-31.447772	-31.186539	-31.447772	-31.186539	-0.565780	137.153255
9.250000	-0.996978	34.921318	-31.096806	-33.067054	-31.096806	-33.067054	-0.570312	135.647871
9.300000	-0.995939	29.849009	-30.765915	-35.068644	-30.765915	-35.068644	-0.574972	134.140127
9.350000	-0.994872	24.794309	-30.453529	-37.171809	-30.453529	-37.171809	-0.579734	132.629219
9.400000	-0.993918	19.763256	-30.158408	-39.361693	-30.158408	-39.361693	-0.584578	131.114376
9.450000	-0.993226	14.761158	-29.879336	-41.623802	-29.879336	-41.623802	-0.589484	129.594997
9.500000	-0.992933	9.792186	-29.615120	-43.945064	-29.615120	-43.945064	-0.594435	128.070665
9.550000	-0.993179	4.860399	-29.364781	-46.315530	-29.364781	-46.315530	-0.599419	126.540969
9.600000	-0.994101	-0.030693	-29.127420	-48.726625	-29.127420	-48.726625	-0.604425	125.005557
9.650000	-0.995832	-4.878150	-28.902200	-51.170930	-28.902200	-51.170930	-0.609441	123.464129
9.700000	-0.998512	-9.679206	-28.688378	-53.642205	-28.688378	-53.642205	-0.614460	121.916374
9.750000	-1.002286	-14.431218	-28.485292	-56.135081	-28.485292	-56.135081	-0.619472	120.361956
9.800000	-1.007249	-19.134241	-28.292073	-58.644192	-28.292073	-58.644192	-0.624471	118.800859
9.850000	-1.013514	-23.787696	-28.108033	-61.165560	-28.108033	-61.165560	-0.629450	117.232934
9.900000	-1.021191	-28.391549	-27.932513	-63.695859	-27.932513	-63.695859	-0.634403	115.658060
9.950000	-1.030384	-32.946281	-27.764884	-66.232359	-27.764884	-66.232359	-0.639323	114.076140
10.000000	-1.041194	-37.452862	-27.604546	-68.772887	-27.604546	-68.772887	-0.644206	112.487103
