! freq	dB(S11)	phase(S11)	dB(S12)	phase(S12)	
!     	dB(S21)	phase(S21)	dB(S22)	phase(S22)	
!S-par simulation data
#  GHz  S  DB  R 50
0.000000	-81.022741	0.000000	-0.000772	0.000000	-0.000772	0.000000	-81.022740	0.000000
0.050000	-37.697367	-92.125498	-0.006540	-3.498954	-0.006540	-3.498954	-37.696511	-92.159413
0.100000	-31.779611	-96.234982	-0.016192	-6.950832	-0.016192	-6.950832	-31.779221	-96.245197
0.150000	-28.326990	-100.025451	-0.025434	-10.382140	-0.025434	-10.382140	-28.327057	-100.033444
0.200000	-25.904675	-103.667458	-0.034894	-13.806209	-0.034894	-13.806209	-25.904849	-103.677187
0.250000	-24.056584	-107.229311	-0.045149	-17.225132	-0.045149	-17.225132	-24.056746	-107.241952
0.300000	-22.577783	-110.740876	-0.056317	-20.638575	-0.056317	-20.638575	-22.577903	-110.756906
0.350000	-21.359750	-114.217262	-0.068323	-24.045988	-0.068323	-24.045988	-21.359826	-114.236903
0.400000	-20.336243	-117.668608	-0.080982	-27.447325	-0.080982	-27.447325	-20.336282	-117.691972
0.450000	-19.467042	-121.100262	-0.094105	-30.842483	-0.094105	-30.842483	-19.467052	-121.127436
0.500000	-18.722199	-124.516777	-0.107468	-34.231965	-0.107468	-34.231965	-18.722187	-124.547854
0.550000	-18.083619	-127.920358	-0.120857	-37.616071	-0.120857	-37.616071	-18.083589	-127.955469
0.600000	-17.535359	-131.313353	-0.134056	-40.995632	-0.134056	-40.995632	-17.535315	-131.352670
0.650000	-17.068082	-134.697084	-0.146844	-44.371404	-0.146844	-44.371404	-17.068029	-134.740841
0.700000	-16.673096	-138.073088	-0.159018	-47.744498	-0.159018	-47.744498	-16.673036	-138.121575
0.750000	-16.345111	-141.442643	-0.170370	-51.116149	-0.170370	-51.116149	-16.345047	-141.496224
0.800000	-16.079858	-144.807154	-0.180713	-54.487831	-0.180713	-54.487831	-16.079791	-144.866268
0.850000	-15.875637	-148.168058	-0.189843	-57.861302	-0.189843	-57.861302	-15.875569	-148.233245
0.900000	-15.728565	-151.527045	-0.197660	-61.238360	-0.197660	-61.238360	-15.728496	-151.598926
0.950000	-15.639032	-154.885678	-0.204013	-64.621122	-0.204013	-64.621122	-15.638964	-154.965006
1.000000	-15.607495	-158.245626	-0.208801	-68.011875	-0.208801	-68.011875	-15.607427	-158.333302
1.050000	-15.635500	-161.608525	-0.211957	-71.413090	-0.211957	-71.413090	-15.635434	-161.705639
1.100000	-15.725805	-164.975888	-0.213450	-74.827407	-0.213450	-74.827407	-15.725742	-165.083771
1.150000	-15.882573	-168.348971	-0.213291	-78.257618	-0.213291	-78.257618	-15.882517	-168.469271
1.200000	-16.111695	-171.728582	-0.211534	-81.706647	-0.211534	-81.706647	-16.111652	-171.863370
1.250000	-16.421273	-175.114797	-0.208285	-85.177517	-0.208285	-85.177517	-16.421251	-175.266722
1.300000	-16.824169	-178.506571	-0.203678	-88.673944	-0.203678	-88.673944	-16.824184	-178.679195
1.350000	-17.334082	178.099425	-0.197969	-92.198594	-0.197969	-92.198594	-17.334159	177.901386
1.400000	-17.970702	174.709474	-0.191447	-95.754046	-0.191447	-95.754046	-17.970881	174.479613
1.450000	-18.767027	171.335776	-0.184439	-99.344234	-0.184439	-99.344234	-18.767379	171.064627
1.500000	-19.767630	168.000986	-0.177368	-102.971802	-0.177368	-102.971802	-19.768285	167.674293
1.550000	-21.044397	164.749186	-0.170719	-106.639561	-0.170719	-106.639561	-21.045619	164.343825
1.600000	-22.721644	161.676483	-0.165063	-110.350458	-0.165063	-110.350458	-22.724042	161.150653
1.650000	-25.035767	159.019316	-0.161032	-114.106558	-0.161032	-114.106558	-25.041051	158.286423
1.700000	-28.540348	157.549112	-0.159322	-117.909614	-0.159322	-117.909614	-28.555329	156.379012
1.750000	-35.132145	162.000567	-0.160700	-121.761018	-0.160700	-121.761018	-35.219024	159.337990
1.800000	-43.407272	-83.293094	-0.165986	-125.661601	-0.165986	-125.661601	-44.209612	-77.809284
1.850000	-30.932168	-50.098459	-0.176055	-129.611540	-0.176055	-129.611540	-30.978629	-48.278188
1.900000	-25.530643	-49.841068	-0.191853	-133.610539	-0.191853	-133.610539	-25.546381	-48.802346
1.950000	-22.062067	-52.265283	-0.214329	-137.657196	-0.214329	-137.657196	-22.070331	-51.529009
2.000000	-19.483378	-55.497886	-0.244387	-141.748983	-0.244387	-141.748983	-19.488654	-54.921722
2.050000	-17.422065	-59.098541	-0.282946	-145.882731	-0.282946	-145.882731	-17.425827	-58.621136
2.100000	-15.702911	-62.905809	-0.330882	-150.054351	-0.330882	-150.054351	-15.705791	-62.495227
2.150000	-14.229603	-66.844330	-0.389008	-154.258855	-0.389008	-154.258855	-14.231918	-66.481843
2.200000	-12.943513	-70.872255	-0.458069	-158.490465	-0.458069	-158.490465	-12.945442	-70.545916
2.250000	-11.806382	-74.962536	-0.538732	-162.742597	-0.538732	-162.742597	-11.808034	-74.664244
2.300000	-10.791967	-79.094865	-0.631369	-167.007789	-0.631369	-167.007789	-10.793413	-78.818930
2.350000	-9.881140	-83.253516	-0.736278	-171.278334	-0.736278	-171.278334	-9.882427	-82.995745
2.400000	-9.059560	-87.425040	-0.853587	-175.546234	-0.853587	-175.546234	-9.060722	-87.182248
2.450000	-8.316105	-91.597491	-0.983244	-179.803398	-0.983244	-179.803398	-8.317166	-91.367196
2.500000	-7.641887	-95.760065	-1.125016	175.958165	-1.125016	175.958165	-7.642865	-95.540291
2.550000	-7.029869	-99.902492	-1.278631	171.746700	-1.278631	171.746700	-7.030777	-99.691614
2.600000	-6.473685	-104.016124	-1.443345	167.569124	-1.443345	167.569124	-6.474534	-103.812822
2.650000	-5.968012	-108.093153	-1.618433	163.432016	-1.618433	163.432016	-5.968809	-107.896321
2.700000	-5.508185	-112.126789	-1.803052	159.341210	-1.803052	159.341210	-5.508937	-111.935483
2.750000	-5.090060	-116.111287	-1.996259	155.301708	-1.996259	155.301708	-5.090772	-115.924689
2.800000	-4.709914	-120.041952	-2.197039	151.317616	-2.197039	151.317616	-4.710589	-119.859348
2.850000	-4.364373	-123.915134	-2.404325	147.392127	-2.404325	147.392127	-4.365014	-123.735887
2.900000	-4.050367	-127.728190	-2.617027	143.527519	-2.617027	143.527519	-4.050977	-127.551730
2.950000	-3.765092	-131.479436	-2.834043	139.725184	-2.834043	139.725184	-3.765673	-131.305240
3.000000	-3.505984	-135.168076	-3.054283	135.985682	-3.054283	135.985682	-3.506538	-134.995661
3.050000	-3.270699	-138.794125	-3.276676	132.308800	-3.276676	132.308800	-3.271226	-138.623040
3.100000	-3.057094	-142.358329	-3.500182	128.693628	-3.500182	128.693628	-3.057596	-142.188144
3.150000	-2.863369	-145.861439	-3.723731	125.139266	-3.723731	125.139266	-2.863846	-145.691736
3.200000	-2.687715	-149.305486	-3.946332	121.643554	-3.946332	121.643554	-2.688168	-149.135858
3.250000	-2.528359	-152.693588	-4.167138	118.203268	-4.167138	118.203268	-2.528787	-152.523635
3.300000	-2.383844	-156.028608	-4.385280	114.815439	-4.385280	114.815439	-2.384247	-155.857929
3.350000	-2.253160	-159.312415	-4.599651	111.478074	-4.599651	111.478074	-2.253538	-159.140590
3.400000	-2.134060	-162.553182	-4.810440	108.182989	-4.810440	108.182989	-2.134412	-162.379823
3.450000	-2.027057	-165.747842	-5.015342	104.933008	-5.015342	104.933008	-2.027382	-165.572475
3.500000	-1.929911	-168.905924	-5.214981	101.718620	-5.214981	101.718620	-1.930207	-168.728115
3.550000	-1.842482	-172.028747	-5.407796	98.538299	-5.407796	98.538299	-1.842747	-171.847994
3.600000	-1.763871	-175.121310	-5.593251	95.386920	-5.593251	95.386920	-1.764103	-174.937085
3.650000	-1.693149	-178.189220	-5.771052	92.258760	-5.771052	92.258760	-1.693344	-178.000969
3.700000	-1.630467	178.764952	-5.939243	89.150881	-5.939243	89.150881	-1.630621	178.957893
3.750000	-1.574308	175.733511	-6.098956	86.055619	-6.098956	86.055619	-1.574416	175.931770
3.800000	-1.525693	172.713791	-6.246531	82.969522	-6.246531	82.969522	-1.525748	172.918234
3.850000	-1.482984	169.698391	-6.383875	79.885296	-6.383875	79.885296	-1.482980	169.909808
3.900000	-1.446956	166.681720	-6.507758	76.796390	-6.507758	76.796390	-1.446882	166.901160
3.950000	-1.416930	163.657664	-6.618429	73.696370	-6.618429	73.696370	-1.416773	163.886214
4.000000	-1.393168	160.618702	-6.713949	70.576717	-6.713949	70.576717	-1.392914	160.857672
4.050000	-1.375947	157.556532	-6.792443	67.427945	-6.792443	67.427945	-1.375577	157.807472
4.100000	-1.365074	154.464415	-6.853563	64.242434	-6.853563	64.242434	-1.364564	154.729009
4.150000	-1.362014	151.326917	-6.892495	61.001789	-6.892495	61.001789	-1.361330	151.607452
4.200000	-1.366207	148.140484	-6.910612	57.701846	-6.910612	57.701846	-1.365313	148.439265
4.250000	-1.380465	144.878699	-6.900185	54.310343	-6.900185	54.310343	-1.379300	145.199135
4.300000	-1.404706	141.537298	-6.862453	50.821493	-6.862453	50.821493	-1.403204	141.882933
4.350000	-1.442608	138.083881	-6.789536	47.194327	-6.789536	47.194327	-1.440666	138.459716
4.400000	-1.496683	134.498441	-6.678465	43.402067	-6.678465	43.402067	-1.494162	134.910482
4.450000	-1.571445	130.749511	-6.523837	39.402060	-6.523837	39.402060	-1.568152	131.205455
4.500000	-1.675751	126.780363	-6.315033	35.116508	-6.315033	35.116508	-1.671379	127.291124
4.550000	-1.820214	122.538300	-6.045126	30.467435	-6.045126	30.467435	-1.814300	123.118440
4.600000	-2.023161	117.944274	-5.703976	25.332931	-5.703976	25.332931	-2.014951	118.614511
4.650000	-2.314566	112.897348	-5.281372	19.542311	-5.281372	19.542311	-2.302762	113.688214
4.700000	-2.752336	107.250287	-4.764398	12.810366	-4.764398	12.810366	-2.734424	108.211329
4.750000	-3.443427	100.868146	-4.150059	4.731899	-4.150059	4.731899	-3.413999	102.084549
4.800000	-4.599651	93.789044	-3.458937	-5.259248	-3.458937	-5.259248	-4.545159	95.419777
4.850000	-6.709932	87.023722	-2.763673	-17.990937	-2.763673	-17.990937	-6.584922	89.413505
4.900000	-10.875697	87.854639	-2.255750	-34.234436	-2.255750	-34.234436	-10.446819	91.599299
4.950000	-14.694339	135.178847	-2.267696	-53.806114	-2.267696	-53.806114	-13.552608	133.645642
5.000000	-8.592393	163.402186	-3.086572	-74.515846	-3.086572	-74.515846	-8.284330	159.906977
5.050000	-4.748635	156.805067	-4.644617	-93.241949	-4.644617	-93.241949	-4.639659	154.478290
5.100000	-2.862714	146.346016	-6.590224	-108.476184	-6.590224	-108.476184	-2.808583	144.638949
5.150000	-1.892950	136.784315	-8.624461	-120.525409	-8.624461	-120.525409	-1.860778	135.429996
5.200000	-1.364990	128.596720	-10.591474	-130.233085	-10.591474	-130.233085	-1.343710	127.464732
5.250000	-1.061625	121.529424	-12.424671	-138.354113	-12.424671	-138.354113	-1.046529	120.548222
5.300000	-0.878708	115.269567	-14.100885	-145.443577	-14.100885	-145.443577	-0.867473	114.396259
5.350000	-0.763318	109.563798	-15.621377	-151.892555	-15.621377	-151.892555	-0.754687	108.771207
5.400000	-0.690591	104.262258	-16.956398	-157.938167	-16.956398	-157.938167	-0.683777	103.530865
5.450000	-0.642746	99.216802	-18.130902	-163.782603	-18.130902	-163.782603	-0.637289	98.533808
5.500000	-0.613079	94.362562	-19.103751	-169.532990	-19.103751	-169.532990	-0.608644	93.717526
5.550000	-0.594991	89.622550	-19.892199	-175.271215	-19.892199	-175.271215	-0.591362	89.008149
5.600000	-0.585430	84.953384	-20.490155	178.968172	-20.490155	178.968172	-0.582452	84.363835
5.650000	-0.582590	80.321300	-20.888906	173.174888	-20.888906	173.174888	-0.580144	79.751797
5.700000	-0.584974	75.695933	-21.099302	167.362329	-21.099302	167.362329	-0.582970	75.142650
5.750000	-0.591472	71.055500	-21.144397	161.553409	-21.144397	161.553409	-0.589846	70.515451
5.800000	-0.601521	66.383427	-21.042533	155.769421	-21.042533	155.769421	-0.600220	65.854128
5.850000	-0.614947	61.661396	-20.807166	150.030862	-20.807166	150.030862	-0.613928	61.140652
5.900000	-0.631281	56.879857	-20.470664	144.343121	-20.470664	144.343121	-0.630507	56.365973
5.950000	-0.650304	52.030856	-20.056787	138.703933	-20.056787	138.703933	-0.649747	51.522452
6.000000	-0.671930	47.106176	-19.584486	133.106463	-19.584486	133.106463	-0.671563	46.602107
6.050000	-0.696207	42.094376	-19.068078	127.539857	-19.068078	127.539857	-0.696004	41.593683
6.100000	-0.722848	36.997728	-18.528336	121.987794	-18.528336	121.987794	-0.722786	36.499739
6.150000	-0.751756	31.813911	-17.977125	116.437803	-17.977125	116.437803	-0.751814	31.318138
6.200000	-0.782899	26.538060	-17.422869	110.877837	-17.422869	110.877837	-0.783055	26.044178
6.250000	-0.816109	21.170345	-16.874332	105.297497	-16.874332	105.297497	-0.816338	20.678218
6.300000	-0.851088	15.717267	-16.339309	99.691179	-16.339309	99.691179	-0.851369	15.226925
6.350000	-0.887597	10.182229	-15.822506	94.055121	-15.822506	94.055121	-0.887906	9.693849
6.400000	-0.925394	4.564739	-15.327586	88.385569	-15.327586	88.385569	-0.925708	4.078667
6.450000	-0.964026	-1.123958	-14.858475	82.685458	-14.858475	82.685458	-0.964321	-1.607249
6.500000	-1.003074	-6.874915	-14.417363	76.958590	-14.417363	76.958590	-1.003328	-7.354846
6.550000	-1.042092	-12.680132	-14.005911	71.209577	-14.005911	71.209577	-1.042285	-13.156013
6.600000	-1.080499	-18.531968	-13.626583	65.444465	-13.626583	65.444465	-1.080609	-19.002959
6.650000	-1.117818	-24.415496	-13.279229	59.672760	-13.279229	59.672760	-1.117829	-24.880750
6.700000	-1.153551	-30.319831	-12.964194	53.902908	-12.964194	53.902908	-1.153446	-30.778448
6.750000	-1.187137	-36.233207	-12.682164	48.144687	-12.682164	48.144687	-1.186906	-36.684240
6.800000	-1.218126	-42.142932	-12.432758	42.408104	-12.432758	42.408104	-1.217758	-42.585436
6.850000	-1.246106	-48.036546	-12.215508	36.703246	-12.215508	36.703246	-1.245595	-48.469601
6.900000	-1.270697	-53.901402	-12.030003	31.040577	-12.030003	31.040577	-1.270042	-54.324121
6.950000	-1.291640	-59.725371	-11.875324	25.429914	-11.875324	25.429914	-1.290839	-60.136939
7.000000	-1.308813	-65.497712	-11.750055	19.879701	-11.750055	19.879701	-1.307871	-65.897407
7.050000	-1.322149	-71.208181	-11.652930	14.398121	-11.652930	14.398121	-1.321071	-71.595381
7.100000	-1.331671	-76.847464	-11.582573	8.992546	-11.582573	8.992546	-1.330465	-77.221656
7.150000	-1.337480	-82.407264	-11.537523	3.669471	-11.537523	3.669471	-1.336156	-82.768051
7.200000	-1.339751	-87.880353	-11.516262	-1.565521	-11.516262	-1.565521	-1.338318	-88.227455
7.250000	-1.338711	-93.260598	-11.517239	-6.707770	-11.517239	-6.707770	-1.337182	-93.593850
7.300000	-1.334637	-98.542958	-11.538888	-11.753520	-11.538888	-11.753520	-1.333023	-98.862304
7.350000	-1.327832	-103.723459	-11.579651	-16.699897	-11.579651	-16.699897	-1.326146	-104.028944
7.400000	-1.318618	-108.799143	-11.637990	-21.544859	-11.637990	-21.544859	-1.316871	-109.090903
7.450000	-1.307321	-113.768008	-11.712401	-26.287146	-11.712401	-26.287146	-1.305527	-114.046260
7.500000	-1.294266	-118.628936	-11.801428	-30.926214	-11.801428	-30.926214	-1.292435	-118.893966
7.550000	-1.279739	-123.379265	-11.903893	-35.459949	-11.903893	-35.459949	-1.277881	-123.631421
7.600000	-1.264068	-128.021787	-12.018155	-39.891331	-12.018155	-39.891331	-1.262194	-128.261458
7.650000	-1.247524	-132.557569	-12.142942	-44.221608	-12.142942	-44.221608	-1.245643	-132.785174
7.700000	-1.230351	-136.988213	-12.277049	-48.452475	-12.277049	-48.452475	-1.228470	-137.204199
7.750000	-1.212767	-141.315781	-12.419340	-52.586014	-12.419340	-52.586014	-1.210893	-141.520606
7.800000	-1.194963	-145.542712	-12.568750	-56.624637	-12.568750	-56.624637	-1.193103	-145.736845
7.850000	-1.177108	-149.671759	-12.724280	-60.571030	-12.724280	-60.571030	-1.175266	-149.855670
7.900000	-1.159345	-153.705922	-12.884993	-64.428107	-12.884993	-64.428107	-1.157525	-153.880077
7.950000	-1.141795	-157.648393	-13.050015	-68.198972	-13.050015	-68.198972	-1.139999	-157.813252
8.000000	-1.124560	-161.502508	-13.218530	-71.886877	-13.218530	-71.886877	-1.122790	-161.658520
8.050000	-1.107725	-165.271699	-13.389773	-75.495194	-13.389773	-75.495194	-1.105982	-165.419300
8.100000	-1.091359	-168.959467	-13.563024	-79.027394	-13.563024	-79.027394	-1.089644	-169.099078
8.150000	-1.075527	-172.568535	-13.737574	-82.486276	-13.737574	-82.486276	-1.073838	-172.700566
8.200000	-1.060275	-176.102566	-13.912757	-85.875581	-13.912757	-85.875581	-1.058610	-176.227409
8.250000	-1.045635	-179.565935	-14.087981	-89.199781	-14.087981	-89.199781	-1.043994	-179.683960
8.300000	-1.031641	177.037851	-14.262648	-92.462621	-14.262648	-92.462621	-1.030019	176.926292
8.350000	-1.018378	173.710504	-14.435710	-95.663328	-14.435710	-95.663328	-1.016773	173.605049
8.400000	-1.005749	170.437300	-14.607503	-98.815925	-14.607503	-98.815925	-1.004158	170.337665
8.450000	-0.993844	167.221020	-14.776955	-101.918888	-14.776955	-101.918888	-0.992264	167.126907
8.500000	-0.982693	164.058292	-14.943427	-104.976448	-14.943427	-104.976448	-0.981118	163.969420
8.550000	-0.972328	160.945760	-15.106231	-107.993082	-15.106231	-107.993082	-0.970755	160.861868
8.600000	-0.962792	157.880076	-15.264612	-110.973593	-15.264612	-110.973593	-0.961216	157.800921
8.650000	-0.954137	154.857867	-15.417720	-113.923240	-15.417720	-113.923240	-0.952553	154.783227
8.700000	-0.946432	151.875712	-15.564580	-116.847898	-15.564580	-116.847898	-0.944836	151.805385
8.750000	-0.939770	148.930094	-15.704047	-119.754282	-15.704047	-119.754282	-0.938155	148.863901
8.800000	-0.934329	146.018591	-15.834219	-122.650274	-15.834219	-122.650274	-0.932689	145.956371
8.850000	-0.930238	143.135676	-15.953815	-125.546439	-15.953815	-125.546439	-0.928565	143.077305
8.900000	-0.927732	140.277056	-16.060724	-128.454950	-16.060724	-128.454950	-0.926018	140.222443
8.950000	-0.927141	137.437929	-16.152291	-131.391402	-16.152291	-131.391402	-0.925372	137.387020
9.000000	-0.928931	134.612769	-16.225131	-134.376349	-16.225131	-134.376349	-0.927092	134.565554
9.050000	-0.933779	131.795028	-16.274875	-137.437677	-16.274875	-137.437677	-0.931848	131.751552
9.100000	-0.942696	128.976714	-16.295810	-140.614369	-16.295810	-140.614369	-0.940640	128.937090
9.150000	-0.957235	126.147811	-16.280378	-143.962690	-16.280378	-143.962690	-0.955008	126.112237
9.200000	-0.979435	123.297031	-16.220801	-147.552455	-16.220801	-147.552455	-0.976970	123.265795
9.250000	-1.013644	120.407358	-16.101683	-151.521044	-16.101683	-151.521044	-1.010831	120.380892
9.300000	-1.066563	117.459849	-15.906844	-156.063486	-15.906844	-156.063486	-1.063227	117.438721
9.350000	-1.150665	114.435455	-15.615259	-161.512654	-15.615259	-161.512654	-1.146510	114.420334
9.400000	-1.292184	111.334407	-15.201854	-168.511381	-15.201854	-168.511381	-1.286666	111.325790
9.450000	-1.540578	108.279976	-14.668647	-178.179116	-14.668647	-178.179116	-1.532704	108.276840
9.500000	-1.975204	105.911204	-14.133493	167.481135	-14.133493	167.481135	-1.963324	105.905819
9.550000	-2.549621	106.283200	-14.107959	145.939846	-14.107959	145.939846	-2.532920	106.248227
9.600000	-2.584625	110.115886	-15.698074	118.613115	-15.698074	118.613115	-2.569109	110.023731
9.650000	-1.931335	110.991391	-19.336754	94.464437	-19.336754	94.464437	-1.922671	110.878099
9.700000	-1.407554	108.400637	-24.250934	78.216324	-24.250934	78.216324	-1.403654	108.296349
9.750000	-1.132901	105.018432	-30.139676	68.052511	-30.139676	68.052511	-1.131363	104.928107
9.800000	-0.990678	101.725595	-38.393591	60.604626	-38.393591	60.604626	-0.990312	101.647703
9.850000	-0.915009	98.635836	-56.015180	-18.453548	-56.015180	-18.453548	-0.915210	98.568443
9.900000	-0.874213	95.721650	-41.610588	-117.531202	-41.610588	-117.531202	-0.874629	95.663324
9.950000	-0.853335	92.939823	-37.202352	-118.776926	-37.202352	-118.776926	-0.853715	92.889611
10.000000	-0.843880	90.245889	-34.946368	-117.841404	-34.946368	-117.841404	-0.844026	90.203217
