! freq	dB(S11)	phase(S11)	dB(S12)	phase(S12)	
!     	dB(S21)	phase(S21)	dB(S22)	phase(S22)	
!S-par simulation data
#  GHz  S  DB  R 50
0.000000	-0.000000	-0.000000	-315.627593	180.000000	-315.627593	180.000000	-0.000000	0.000000
0.050000	-0.000783	-1.332166	-89.058696	87.646639	-89.058696	87.646639	-0.002197	-3.490662
0.100000	-0.002774	-2.659812	-83.064650	85.297890	-83.064650	85.297890	-0.007598	-6.963959
0.150000	-0.005294	-3.981476	-79.588097	82.958654	-79.588097	82.958654	-0.014103	-10.414060
0.200000	-0.007819	-5.298584	-77.150814	80.632995	-77.150814	80.632995	-0.020376	-13.844830
0.250000	-0.010125	-6.612656	-75.292282	78.326119	-75.292282	78.326119	-0.025987	-17.259147
0.300000	-0.012165	-7.924912	-73.807169	76.043341	-73.807169	76.043341	-0.030945	-20.658445
0.350000	-0.013984	-9.236034	-72.583933	73.788863	-72.583933	73.788863	-0.035409	-24.042949
0.400000	-0.015635	-10.546243	-71.557498	71.567990	-71.557498	71.567990	-0.039509	-27.411239
0.450000	-0.017165	-11.855524	-70.688062	69.388158	-70.688062	69.388158	-0.043336	-30.760586
0.500000	-0.018621	-13.163841	-69.944291	67.253271	-69.944291	67.253271	-0.046975	-34.089871
0.550000	-0.020034	-14.471076	-69.305857	65.169415	-69.305857	65.169415	-0.050471	-37.397131
0.600000	-0.021425	-15.777031	-68.760178	63.146239	-68.760178	63.146239	-0.053852	-40.679273
0.650000	-0.022813	-17.081608	-68.294104	61.189330	-68.294104	61.189330	-0.057143	-43.935334
0.700000	-0.024208	-18.384687	-67.898421	59.306224	-67.898421	59.306224	-0.060357	-47.163987
0.750000	-0.025618	-19.686090	-67.567752	57.509073	-67.567752	57.509073	-0.063499	-50.362875
0.800000	-0.027049	-20.985692	-67.296396	55.809366	-67.296396	55.809366	-0.066575	-53.530723
0.850000	-0.028502	-22.283398	-67.079251	54.219682	-67.079251	54.219682	-0.069586	-56.666748
0.900000	-0.029978	-23.579100	-66.912544	52.756051	-66.912544	52.756051	-0.072532	-59.770046
0.950000	-0.031479	-24.872688	-66.793536	51.438272	-66.793536	51.438272	-0.075410	-62.839650
1.000000	-0.033004	-26.164060	-66.719943	50.288508	-66.719943	50.288508	-0.078220	-65.874860
1.050000	-0.034550	-27.453124	-66.689937	49.331089	-66.689937	49.331089	-0.080958	-68.875116
1.100000	-0.036118	-28.739790	-66.701833	48.592262	-66.701833	48.592262	-0.083621	-71.839989
1.150000	-0.037704	-30.023973	-66.753684	48.100903	-66.753684	48.100903	-0.086207	-74.769173
1.200000	-0.039306	-31.305594	-66.842927	47.889973	-66.842927	47.889973	-0.088714	-77.662478
1.250000	-0.040922	-32.584576	-66.966066	47.997864	-66.966066	47.997864	-0.091141	-80.519819
1.300000	-0.042550	-33.860787	-67.118740	48.477943	-67.118740	48.477943	-0.093484	-83.340436
1.350000	-0.044187	-35.134217	-67.293584	49.373085	-67.293584	49.373085	-0.095746	-86.125225
1.400000	-0.045831	-36.404801	-67.481554	50.735558	-67.481554	50.735558	-0.097925	-88.874382
1.450000	-0.047479	-37.672478	-67.670523	52.615239	-67.670523	52.615239	-0.100022	-91.588182
1.500000	-0.049128	-38.937191	-67.844697	55.051522	-67.844697	55.051522	-0.102040	-94.266967
1.550000	-0.050777	-40.198883	-67.984451	58.061542	-67.984451	58.061542	-0.103979	-96.911139
1.600000	-0.052422	-41.457502	-68.067080	61.625606	-68.067080	61.625606	-0.105842	-99.521159
1.650000	-0.054060	-42.712997	-68.068920	65.673286	-68.068920	65.673286	-0.107632	-102.097533
1.700000	-0.055690	-43.965317	-67.968925	70.076548	-67.968925	70.076548	-0.109351	-104.640811
1.750000	-0.057308	-45.214414	-67.752962	74.656824	-67.752962	74.656824	-0.111003	-107.151583
1.800000	-0.058912	-46.460237	-67.417221	79.208522	-67.417221	79.208522	-0.112591	-109.630468
1.850000	-0.060498	-47.702738	-66.969118	83.532865	-66.969118	83.532865	-0.114119	-112.078112
1.900000	-0.062065	-48.941826	-66.423959	87.463866	-66.423959	87.463866	-0.115591	-114.494863
1.950000	-0.063610	-50.177445	-65.803827	90.895347	-65.803827	90.895347	-0.117011	-116.881434
2.000000	-0.065132	-51.409574	-65.132634	93.786922	-65.132634	93.786922	-0.118383	-119.238862
2.050000	-0.066630	-52.638152	-64.430655	96.138348	-64.430655	96.138348	-0.119712	-121.567863
2.100000	-0.068106	-53.863120	-63.714463	97.978817	-63.714463	97.978817	-0.121002	-123.869163
2.150000	-0.069562	-55.084418	-62.996677	99.353604	-62.996677	99.353604	-0.122257	-126.143492
2.200000	-0.071002	-56.301991	-62.286376	100.314268	-62.286376	100.314268	-0.123480	-128.391584
2.250000	-0.072433	-57.515797	-61.589760	100.912437	-61.589760	100.912437	-0.124677	-130.614172
2.300000	-0.073862	-58.725804	-60.910835	101.196380	-60.910835	101.196380	-0.125850	-132.811989
2.350000	-0.075296	-59.932001	-60.252001	101.209437	-60.252001	101.209437	-0.127004	-134.985765
2.400000	-0.076743	-61.134391	-59.614523	100.989582	-59.614523	100.989582	-0.128142	-137.136225
2.450000	-0.078209	-62.332992	-58.998882	100.569597	-58.998882	100.569597	-0.129267	-139.264089
2.500000	-0.079697	-63.527832	-58.405031	99.977532	-58.405031	99.977532	-0.130382	-141.370067
2.550000	-0.081210	-64.718864	-57.832238	99.234534	-57.832238	99.234534	-0.131491	-143.454420
2.600000	-0.082748	-65.906201	-57.280313	98.364437	-57.280313	98.364437	-0.132596	-145.518316
2.650000	-0.084309	-67.089869	-56.748499	97.384333	-56.748499	97.384333	-0.133700	-147.562440
2.700000	-0.085892	-68.269891	-56.235973	96.308782	-56.235973	96.308782	-0.134807	-149.587463
2.750000	-0.087494	-69.446280	-55.741889	95.150215	-55.741889	95.150215	-0.135917	-151.594048
2.800000	-0.089112	-70.619048	-55.265405	93.919271	-55.265405	93.919271	-0.137033	-153.582843
2.850000	-0.090744	-71.788199	-54.805693	92.625082	-54.805693	92.625082	-0.138157	-155.554486
2.900000	-0.092388	-72.953738	-54.361959	91.275511	-54.361959	91.275511	-0.139291	-157.509602
2.950000	-0.094042	-74.115666	-53.933441	89.877349	-53.933441	89.877349	-0.140436	-159.448803
3.000000	-0.095706	-75.273986	-53.519419	88.436485	-53.519419	88.436485	-0.141594	-161.372690
3.050000	-0.097380	-76.428699	-53.119212	86.958035	-53.119212	86.958035	-0.142766	-163.281848
3.100000	-0.099062	-77.579812	-52.732177	85.446465	-52.732177	85.446465	-0.143954	-165.176852
3.150000	-0.100752	-78.727289	-52.357673	83.905403	-52.357673	83.905403	-0.145158	-167.058121
3.200000	-0.102452	-79.871140	-51.995151	82.338381	-51.995151	82.338381	-0.146380	-168.926220
3.250000	-0.104161	-81.011412	-51.644123	80.748710	-51.644123	80.748710	-0.147619	-170.781831
3.300000	-0.105881	-82.148119	-51.304091	79.139038	-51.304091	79.139038	-0.148877	-172.625475
3.350000	-0.107610	-83.281274	-50.974590	77.511708	-50.974590	77.511708	-0.150155	-174.457660
3.400000	-0.109351	-84.410892	-50.655182	75.868806	-50.655182	75.868806	-0.151452	-176.278883
3.450000	-0.111105	-85.536993	-50.345459	74.212188	-50.345459	74.212188	-0.152768	-178.089625
3.500000	-0.112871	-86.659596	-50.045039	72.543515	-50.045039	72.543515	-0.154105	-179.890358
3.550000	-0.114651	-87.778722	-49.753563	70.864273	-49.753563	70.864273	-0.155462	178.318460
3.600000	-0.116446	-88.894396	-49.470694	69.175798	-49.470694	69.175798	-0.156839	176.536382
3.650000	-0.118256	-90.006643	-49.196118	67.479291	-49.196118	67.479291	-0.158237	174.762975
3.700000	-0.120083	-91.115490	-48.929538	65.775838	-48.929538	65.775838	-0.159654	172.997816
3.750000	-0.121927	-92.220966	-48.670675	64.066422	-48.670675	64.066422	-0.161091	171.240493
3.800000	-0.123790	-93.323029	-48.419272	62.351842	-48.419272	62.351842	-0.162549	169.490760
3.850000	-0.125672	-94.421784	-48.175087	60.633033	-48.175087	60.633033	-0.164025	167.748059
3.900000	-0.127573	-95.517265	-47.937887	58.910731	-47.937887	58.910731	-0.165521	166.012012
3.950000	-0.129496	-96.609506	-47.707455	57.185607	-47.707455	57.185607	-0.167035	164.282256
4.000000	-0.131441	-97.698372	-47.483622	55.458179	-47.483622	55.458179	-0.168568	162.558743
4.050000	-0.133408	-98.784212	-47.266134	53.729228	-47.266134	53.729228	-0.170118	160.840550
4.100000	-0.135397	-99.866927	-47.054832	51.999172	-47.054832	51.999172	-0.171685	159.127607
4.150000	-0.137411	-100.946556	-46.849544	50.268492	-46.849544	50.268492	-0.173269	157.419591
4.200000	-0.139448	-102.023141	-46.650106	48.537638	-46.650106	48.537638	-0.174868	155.716188
4.250000	-0.141512	-103.096724	-46.456364	46.807026	-46.456364	46.807026	-0.176483	154.017095
4.300000	-0.143601	-104.167349	-46.268173	45.077049	-46.268173	45.077049	-0.178113	152.322020
4.350000	-0.145716	-105.235062	-46.085396	43.348072	-46.085396	43.348072	-0.179756	150.630678
4.400000	-0.147859	-106.299907	-45.907901	41.620439	-45.907901	41.620439	-0.181413	148.942797
4.450000	-0.150030	-107.361933	-45.735568	39.894479	-45.735568	39.894479	-0.183083	147.258111
4.500000	-0.152229	-108.421187	-45.568280	38.170500	-45.568280	38.170500	-0.184765	145.576365
4.550000	-0.154457	-109.477719	-45.405927	36.448799	-45.405927	36.448799	-0.186458	143.897315
4.600000	-0.156715	-110.531579	-45.248406	34.729660	-45.248406	34.729660	-0.188162	142.220722
4.650000	-0.159003	-111.582818	-45.095620	33.013355	-45.095620	33.013355	-0.189876	140.546360
4.700000	-0.161322	-112.631487	-44.947475	31.300149	-44.947475	31.300149	-0.191599	138.874011
4.750000	-0.163672	-113.677641	-44.803884	29.590301	-44.803884	29.590301	-0.193331	137.203465
4.800000	-0.166053	-114.721333	-44.664766	27.884062	-44.664766	27.884062	-0.195071	135.534520
4.850000	-0.168467	-115.762619	-44.530041	26.181679	-44.530041	26.181679	-0.196817	133.866985
4.900000	-0.170914	-116.801552	-44.399637	24.483398	-44.399637	24.483398	-0.198571	132.200677
4.950000	-0.173394	-117.838191	-44.273484	22.789462	-44.273484	22.789462	-0.200330	130.535421
5.000000	-0.175907	-118.872593	-44.151516	21.100115	-44.151516	21.100115	-0.202095	128.871051
5.050000	-0.178456	-119.904723	-44.033781	19.415820	-44.033781	19.415820	-0.203864	127.207433
5.100000	-0.181039	-120.934738	-43.920116	17.736626	-43.920116	17.736626	-0.205637	125.544381
5.150000	-0.183657	-121.962698	-43.810466	16.062781	-43.810466	16.062781	-0.207414	123.881756
5.200000	-0.186310	-122.988663	-43.704777	14.394538	-43.704777	14.394538	-0.209193	122.219425
5.250000	-0.188999	-124.012695	-43.603001	12.732156	-43.603001	12.732156	-0.210975	120.557266
5.300000	-0.191723	-125.034856	-43.505091	11.075899	-43.505091	11.075899	-0.212759	118.895163
5.350000	-0.194484	-126.055207	-43.411003	9.426040	-43.411003	9.426040	-0.214544	117.233010
5.400000	-0.197281	-127.073813	-43.320694	7.782857	-43.320694	7.782857	-0.216329	115.570708
5.450000	-0.200115	-128.090738	-43.234126	6.146641	-43.234126	6.146641	-0.218115	113.908166
5.500000	-0.202987	-129.106045	-43.151261	4.517690	-43.151261	4.517690	-0.219902	112.245301
5.550000	-0.205895	-130.119801	-43.072063	2.896313	-43.072063	2.896313	-0.221687	110.582039
5.600000	-0.208842	-131.132071	-42.996498	1.282831	-42.996498	1.282831	-0.223473	108.918312
5.650000	-0.211826	-132.142921	-42.924533	-0.322422	-42.924533	-0.322422	-0.225257	107.254063
5.700000	-0.214849	-133.152418	-42.856136	-1.919099	-42.856136	-1.919099	-0.227041	105.589238
5.750000	-0.217910	-134.160631	-42.791278	-3.506839	-42.791278	-3.506839	-0.228823	103.923794
5.800000	-0.221009	-135.167626	-42.729928	-5.085266	-42.729928	-5.085266	-0.230604	102.257696
5.850000	-0.224144	-136.173567	-42.671789	-6.654876	-42.671789	-6.654876	-0.232384	100.590977
5.900000	-0.227322	-137.178318	-42.617402	-8.213411	-42.617402	-8.213411	-0.234163	98.923485
5.950000	-0.230539	-138.182062	-42.566437	-9.761400	-42.566437	-9.761400	-0.235940	97.255275
6.000000	-0.233795	-139.184869	-42.518868	-11.298401	-42.518868	-11.298401	-0.237715	95.586341
6.050000	-0.237091	-140.186810	-42.474663	-12.823953	-42.474663	-12.823953	-0.239490	93.916684
6.100000	-0.240426	-141.187955	-42.433794	-14.337574	-42.433794	-14.337574	-0.241264	92.246313
6.150000	-0.243801	-142.188377	-42.396230	-15.838766	-42.396230	-15.838766	-0.243038	90.575243
6.200000	-0.247216	-143.188148	-42.361939	-17.327009	-42.361939	-17.327009	-0.244811	88.903496
6.250000	-0.250671	-144.187340	-42.330888	-18.801762	-42.330888	-18.801762	-0.246585	87.231103
6.300000	-0.254167	-145.186018	-42.303110	-20.262148	-42.303110	-20.262148	-0.248359	85.558086
6.350000	-0.257704	-146.184269	-42.278499	-21.707877	-42.278499	-21.707877	-0.250135	83.884504
6.400000	-0.261280	-147.182165	-42.257015	-23.138345	-42.257015	-23.138345	-0.251913	82.210405
6.450000	-0.264897	-148.179781	-42.238616	-24.552930	-42.238616	-24.552930	-0.253693	80.535847
6.500000	-0.268554	-149.177194	-42.223256	-25.950985	-42.223256	-25.950985	-0.255477	78.860890
6.550000	-0.272252	-150.174477	-42.210885	-27.331846	-42.210885	-27.331846	-0.257265	77.185603
6.600000	-0.275990	-151.171707	-42.201449	-28.694829	-42.201449	-28.694829	-0.259058	75.510061
6.650000	-0.279769	-152.168961	-42.194892	-30.039228	-42.194892	-30.039228	-0.260858	73.834343
6.700000	-0.283592	-153.166330	-42.191420	-31.362371	-42.191420	-31.362371	-0.262666	72.158532
6.750000	-0.287452	-154.163870	-42.190447	-32.667115	-42.190447	-32.667115	-0.264481	70.482734
6.800000	-0.291353	-155.161667	-42.192145	-33.951036	-42.192145	-33.951036	-0.266307	68.807035
6.850000	-0.295294	-156.159797	-42.196433	-35.213362	-42.196433	-35.213362	-0.268143	67.131536
6.900000	-0.299275	-157.158339	-42.203225	-36.453307	-42.203225	-36.453307	-0.269992	65.456342
6.950000	-0.303297	-158.157371	-42.212426	-37.670075	-42.212426	-37.670075	-0.271855	63.781565
7.000000	-0.307359	-159.156973	-42.223935	-38.862860	-42.223935	-38.862860	-0.273733	62.107318
7.050000	-0.311462	-160.157223	-42.237641	-40.030852	-42.237641	-40.030852	-0.275628	60.433721
7.100000	-0.315604	-161.158201	-42.253425	-41.173237	-42.253425	-41.173237	-0.277542	58.760897
7.150000	-0.319787	-162.159987	-42.271159	-42.289200	-42.271159	-42.289200	-0.279477	57.088972
7.200000	-0.324010	-163.162662	-42.290705	-43.377935	-42.290705	-43.377935	-0.281434	55.418075
7.250000	-0.328272	-164.166304	-42.311916	-44.438640	-42.311916	-44.438640	-0.283415	53.748341
7.300000	-0.332574	-165.170996	-42.334632	-45.470531	-42.334632	-45.470531	-0.285422	52.079906
7.350000	-0.336916	-166.176819	-42.358684	-46.472842	-42.358684	-46.472842	-0.287458	50.412908
7.400000	-0.341297	-167.183853	-42.383891	-47.444833	-42.383891	-47.444833	-0.289524	48.747488
7.450000	-0.345717	-168.192180	-42.410060	-48.385795	-42.410060	-48.385795	-0.291623	47.083792
7.500000	-0.350177	-169.201883	-42.436985	-49.295060	-42.436985	-49.295060	-0.293757	45.421963
7.550000	-0.354676	-170.213110	-42.464460	-50.170575	-42.464460	-50.170575	-0.295929	43.762245
7.600000	-0.359215	-171.225884	-42.492223	-51.013160	-42.492223	-51.013160	-0.298141	42.104705
7.650000	-0.363791	-172.240288	-42.520032	-51.822323	-42.520032	-51.822323	-0.300396	40.449494
7.700000	-0.368406	-173.256404	-42.547632	-52.597648	-42.547632	-52.597648	-0.302694	38.796763
7.750000	-0.373059	-174.274316	-42.574757	-53.338804	-42.574757	-53.338804	-0.305041	37.146664
7.800000	-0.377749	-175.294106	-42.601131	-54.045554	-42.601131	-54.045554	-0.307437	35.499349
7.850000	-0.382476	-176.315857	-42.626465	-54.717767	-42.626465	-54.717767	-0.309885	33.854972
7.900000	-0.387241	-177.339653	-42.650463	-55.355427	-42.650463	-55.355427	-0.312388	32.213684
7.950000	-0.392042	-178.365578	-42.672820	-55.958642	-42.672820	-55.958642	-0.314949	30.575639
8.000000	-0.396879	-179.393715	-42.693225	-56.527658	-42.693225	-56.527658	-0.317571	28.940987
8.050000	-0.401752	179.575853	-42.711361	-57.062862	-42.711361	-57.062862	-0.320256	27.309882
8.100000	-0.406660	178.543041	-42.726907	-57.564795	-42.726907	-57.564795	-0.323007	25.682472
8.150000	-0.411604	177.507767	-42.739543	-58.034156	-42.739543	-58.034156	-0.325827	24.058906
8.200000	-0.416582	176.469945	-42.748947	-58.471811	-42.748947	-58.471811	-0.328719	22.439334
8.250000	-0.421595	175.429494	-42.754803	-58.878793	-42.754803	-58.878793	-0.331685	20.823900
8.300000	-0.426641	174.386329	-42.756801	-59.256307	-42.756801	-59.256307	-0.334729	19.212749
8.350000	-0.431721	173.340366	-42.754639	-59.605731	-42.754639	-59.605731	-0.337854	17.606024
8.400000	-0.436833	172.291522	-42.748027	-59.928610	-42.748027	-59.928610	-0.341062	16.003865
8.450000	-0.441978	171.239715	-42.736689	-60.226654	-42.736689	-60.226654	-0.344356	14.406409
8.500000	-0.447154	170.184860	-42.720368	-60.501730	-42.720368	-60.501730	-0.347740	12.813794
8.550000	-0.452362	169.126875	-42.698827	-60.755853	-42.698827	-60.755853	-0.351216	11.226150
8.600000	-0.457600	168.065678	-42.671851	-60.991171	-42.671851	-60.991171	-0.354787	9.643609
8.650000	-0.462868	167.001186	-42.639250	-61.209951	-42.639250	-61.209951	-0.358456	8.066298
8.700000	-0.468165	165.933317	-42.600864	-61.414562	-42.600864	-61.414562	-0.362226	6.494341
8.750000	-0.473491	164.861990	-42.556559	-61.607457	-42.556559	-61.607457	-0.366100	4.927858
8.800000	-0.478846	163.786965	-42.505952	-61.790870	-42.505952	-61.790870	-0.370086	3.367217
8.850000	-0.484228	162.708313	-42.449241	-61.967868	-42.449241	-61.967868	-0.374181	1.812292
8.900000	-0.489636	161.625953	-42.386388	-62.141020	-42.386388	-62.141020	-0.378390	0.263195
8.950000	-0.495070	160.539805	-42.317387	-62.312886	-42.317387	-62.312886	-0.382714	-1.279969
9.000000	-0.500528	159.449792	-42.242265	-62.485996	-42.242265	-62.485996	-0.387157	-2.817095
9.050000	-0.506011	158.355833	-42.161074	-62.662823	-42.161074	-62.662823	-0.391721	-4.348085
9.100000	-0.511517	157.257853	-42.073897	-62.845773	-42.073897	-62.845773	-0.396409	-5.872843
9.150000	-0.517045	156.155774	-41.980842	-63.037160	-41.980842	-63.037160	-0.401225	-7.391277
9.200000	-0.522594	155.049521	-41.882042	-63.239192	-41.882042	-63.239192	-0.406170	-8.903299
9.250000	-0.528163	153.939018	-41.777650	-63.453961	-41.777650	-63.453961	-0.411247	-10.408826
9.300000	-0.533752	152.824192	-41.667839	-63.683429	-41.667839	-63.683429	-0.416459	-11.907776
9.350000	-0.539359	151.704969	-41.552798	-63.929424	-41.552798	-63.929424	-0.421809	-13.400073
9.400000	-0.544984	150.581278	-41.432728	-64.193630	-41.432728	-64.193630	-0.427299	-14.885646
9.450000	-0.550625	149.453049	-41.307843	-64.477590	-41.307843	-64.477590	-0.432932	-16.364425
9.500000	-0.556281	148.320211	-41.178364	-64.782701	-41.178364	-64.782701	-0.438710	-17.836347
9.550000	-0.561950	147.182698	-41.044516	-65.110215	-41.044516	-65.110215	-0.444636	-19.301349
9.600000	-0.567633	146.040442	-40.906530	-65.461250	-40.906530	-65.461250	-0.450712	-20.759377
9.650000	-0.573328	144.893380	-40.764636	-65.836786	-40.764636	-65.836786	-0.456941	-22.210376
9.700000	-0.579032	143.741446	-40.619064	-66.237678	-40.619064	-66.237678	-0.463325	-23.654297
9.750000	-0.584746	142.584581	-40.470040	-66.664662	-40.470040	-66.664662	-0.469866	-25.091095
9.800000	-0.590468	141.422723	-40.317788	-67.118364	-40.317788	-67.118364	-0.476568	-26.520728
9.850000	-0.596196	140.255816	-40.162524	-67.599307	-40.162524	-67.599307	-0.483431	-27.943158
9.900000	-0.601929	139.083802	-40.004460	-68.107924	-40.004460	-68.107924	-0.490458	-29.358350
9.950000	-0.607666	137.906629	-39.843799	-68.644565	-39.843799	-68.644565	-0.497651	-30.766274
10.000000	-0.613406	136.724244	-39.680736	-69.209510	-39.680736	-69.209510	-0.505013	-32.166902
