! freq	dB(S11)	phase(S11)	dB(S12)	phase(S12)	
!     	dB(S21)	phase(S21)	dB(S22)	phase(S22)	
!S-par simulation data
#  GHz  S  DB  R 50
0.000000	-0.000000	-0.000000	-365.524369	180.000000	-365.524369	180.000000	-0.000000	-0.000000
0.050000	-0.000114	-0.909414	-115.212309	89.181939	-115.212309	89.181939	-0.000105	-0.809222
0.100000	-0.000453	-1.818549	-109.245665	88.378236	-109.245665	88.378236	-0.000415	-1.618186
0.150000	-0.001002	-2.727148	-105.813559	87.602632	-105.813559	87.602632	-0.000916	-2.426655
0.200000	-0.001739	-3.634997	-103.439463	86.867829	-103.439463	86.867829	-0.001588	-3.234437
0.250000	-0.002652	-4.541853	-101.667908	86.190908	-101.667908	86.190908	-0.002416	-4.041316
0.300000	-0.003696	-5.447669	-100.284963	85.581632	-100.284963	85.581632	-0.003360	-4.847259
0.350000	-0.004853	-6.352315	-99.186659	85.059472	-99.186659	85.059472	-0.004401	-5.652162
0.400000	-0.006096	-7.255737	-98.309897	84.645778	-98.309897	84.645778	-0.005514	-6.455990
0.450000	-0.007402	-8.157915	-97.615457	84.367409	-97.615457	84.367409	-0.006679	-7.258738
0.500000	-0.008750	-9.058853	-97.078177	84.258807	-97.078177	84.258807	-0.007876	-8.060424
0.550000	-0.010123	-9.958571	-96.681833	84.364846	-96.681833	84.364846	-0.009092	-8.861079
0.600000	-0.011507	-10.857100	-96.416227	84.744917	-96.416227	84.744917	-0.010313	-9.660743
0.650000	-0.012891	-11.754477	-96.275308	85.478873	-96.275308	85.478873	-0.011531	-10.459455
0.700000	-0.014267	-12.650738	-96.255666	86.675690	-96.255666	86.675690	-0.012741	-11.257256
0.750000	-0.015631	-13.545917	-96.354788	88.485909	-96.354788	88.485909	-0.013938	-12.054181
0.800000	-0.016978	-14.440043	-96.568271	91.118517	-96.568271	91.118517	-0.015119	-12.850261
0.850000	-0.018306	-15.333139	-96.884583	94.860450	-96.884583	94.860450	-0.016283	-13.645520
0.900000	-0.019615	-16.225223	-97.275108	100.087826	-97.275108	100.087826	-0.017431	-14.439975
0.950000	-0.020904	-17.116307	-97.677027	107.234009	-97.677027	107.234009	-0.018563	-15.233640
1.000000	-0.022175	-18.006396	-97.971905	116.639995	-97.971905	116.639995	-0.019678	-16.026522
1.050000	-0.023427	-18.895492	-97.982392	128.216695	-97.982392	128.216695	-0.020779	-16.818622
1.100000	-0.024663	-19.783589	-97.532763	141.056042	-97.532763	141.056042	-0.021867	-17.609938
1.150000	-0.025883	-20.670680	-96.570320	153.532076	-96.570320	153.532076	-0.022943	-18.400466
1.200000	-0.027090	-21.556753	-95.213742	164.190003	-95.213742	164.190003	-0.024007	-19.190197
1.250000	-0.028284	-22.441796	-93.653272	172.477099	-93.653272	172.477099	-0.025063	-19.979121
1.300000	-0.029467	-23.325744	-92.029056	178.505497	-92.029056	178.505497	-0.026110	-20.767187
1.350000	-0.030640	-24.208625	-90.442774	-177.165290	-90.442774	-177.165290	-0.027149	-21.554418
1.400000	-0.031804	-25.090417	-88.930135	-174.115432	-88.930135	-174.115432	-0.028183	-22.340798
1.450000	-0.032962	-25.971101	-87.502321	-172.017550	-87.502321	-172.017550	-0.029211	-23.126310
1.500000	-0.034113	-26.850655	-86.159034	-170.631107	-86.159034	-170.631107	-0.030234	-23.910937
1.550000	-0.035259	-27.729056	-84.895187	-169.782597	-84.895187	-169.782597	-0.031254	-24.694662
1.600000	-0.036400	-28.606282	-83.704084	-169.346825	-83.704084	-169.346825	-0.032271	-25.477467
1.650000	-0.037538	-29.482310	-82.578857	-169.232615	-82.578857	-169.232615	-0.033286	-26.259334
1.700000	-0.038673	-30.357117	-81.513062	-169.372692	-81.513062	-169.372692	-0.034299	-27.040245
1.750000	-0.039806	-31.230680	-80.500890	-169.716686	-80.500890	-169.716686	-0.035310	-27.820181
1.800000	-0.040937	-32.102977	-79.537196	-170.226326	-79.537196	-170.226326	-0.036321	-28.599126
1.850000	-0.042067	-32.973985	-78.617468	-170.872116	-78.617468	-170.872116	-0.037331	-29.377060
1.900000	-0.043197	-33.843682	-77.737753	-171.631019	-77.737753	-171.631019	-0.038341	-30.153966
1.950000	-0.044326	-34.712047	-76.894592	-172.484809	-76.894592	-172.484809	-0.039351	-30.929827
2.000000	-0.045456	-35.579058	-76.084947	-173.418905	-76.084947	-173.418905	-0.040362	-31.704625
2.050000	-0.046587	-36.444694	-75.306145	-174.421507	-75.306145	-174.421507	-0.041374	-32.478344
2.100000	-0.047720	-37.308935	-74.555823	-175.482977	-74.555823	-175.482977	-0.042388	-33.250966
2.150000	-0.048854	-38.171760	-73.831889	-176.595367	-73.831889	-176.595367	-0.043403	-34.022475
2.200000	-0.049990	-39.033151	-73.132476	-177.752065	-73.132476	-177.752065	-0.044420	-34.792855
2.250000	-0.051129	-39.893088	-72.455917	-178.947530	-72.455917	-178.947530	-0.045440	-35.562089
2.300000	-0.052270	-40.751553	-71.800717	179.822916	-71.800717	179.822916	-0.046462	-36.330164
2.350000	-0.053415	-41.608527	-71.165529	178.563251	-71.165529	178.563251	-0.047487	-37.097062
2.400000	-0.054564	-42.463994	-70.549135	177.276878	-70.549135	177.276878	-0.048516	-37.862769
2.450000	-0.055717	-43.317936	-69.950431	175.966726	-69.950431	175.966726	-0.049548	-38.627271
2.500000	-0.056874	-44.170338	-69.368413	174.635330	-69.368413	174.635330	-0.050584	-39.390553
2.550000	-0.058036	-45.021115	-68.801251	173.284156	-68.801251	173.284156	-0.051625	-40.152548
2.600000	-0.059203	-45.870318	-68.249112	171.916018	-68.249112	171.916018	-0.052670	-40.913294
2.650000	-0.060376	-46.717934	-67.711217	170.532582	-67.711217	170.532582	-0.053720	-41.672778
2.700000	-0.061555	-47.563948	-67.186850	169.135316	-67.186850	169.135316	-0.054776	-42.430988
2.750000	-0.062741	-48.408347	-66.675349	167.725521	-66.675349	167.725521	-0.055837	-43.187910
2.800000	-0.063933	-49.251119	-66.176104	166.304358	-66.176104	166.304358	-0.056904	-43.943534
2.850000	-0.065133	-50.092249	-65.688550	164.872859	-65.688550	164.872859	-0.057978	-44.697846
2.900000	-0.066340	-50.931728	-65.212161	163.431951	-65.212161	163.431951	-0.059058	-45.450836
2.950000	-0.067555	-51.769543	-64.746450	161.982465	-64.746450	161.982465	-0.060145	-46.202493
3.000000	-0.068779	-52.605685	-64.290961	160.525153	-64.290961	160.525153	-0.061240	-46.952805
3.050000	-0.070012	-53.440142	-63.845270	159.060690	-63.845270	159.060690	-0.062343	-47.701762
3.100000	-0.071254	-54.272906	-63.408981	157.589690	-63.408981	157.589690	-0.063454	-48.449355
3.150000	-0.072506	-55.103967	-62.981720	156.112710	-62.981720	156.112710	-0.064573	-49.195572
3.200000	-0.073768	-55.933317	-62.563139	154.630258	-62.563139	154.630258	-0.065701	-49.940407
3.250000	-0.075040	-56.760949	-62.152910	153.142795	-62.152910	153.142795	-0.066839	-50.683848
3.300000	-0.076324	-57.586855	-61.750725	151.650746	-61.750725	151.650746	-0.067986	-51.425888
3.350000	-0.077620	-58.411028	-61.356292	150.154496	-61.356292	150.154496	-0.069144	-52.166519
3.400000	-0.078927	-59.233462	-60.969338	148.654403	-60.969338	148.654403	-0.070312	-52.905732
3.450000	-0.080247	-60.054152	-60.589602	147.150794	-60.589602	147.150794	-0.071491	-53.643521
3.500000	-0.081580	-60.873093	-60.216840	145.643969	-60.216840	145.643969	-0.072681	-54.379878
3.550000	-0.082926	-61.690280	-59.850820	144.134207	-59.850820	144.134207	-0.073883	-55.114796
3.600000	-0.084286	-62.505709	-59.491321	142.621766	-59.491321	142.621766	-0.075096	-55.848269
3.650000	-0.085660	-63.319377	-59.138135	141.106882	-59.138135	141.106882	-0.076323	-56.580291
3.700000	-0.087049	-64.131282	-58.791062	139.589779	-58.791062	139.589779	-0.077562	-57.310857
3.750000	-0.088454	-64.941420	-58.449915	138.070659	-58.449915	138.070659	-0.078814	-58.039960
3.800000	-0.089874	-65.749714	-58.114201	136.549645	-58.114201	136.549645	-0.080081	-58.767534
3.850000	-0.091311	-66.556239	-57.784084	135.026998	-57.784084	135.026998	-0.081362	-59.493636
3.900000	-0.092764	-67.360994	-57.459398	133.502883	-57.459398	133.502883	-0.082657	-60.218262
3.950000	-0.094235	-68.163980	-57.139987	131.977454	-57.139987	131.977454	-0.083967	-60.941410
4.000000	-0.095723	-68.965197	-56.825700	130.450854	-56.825700	130.450854	-0.085293	-61.663075
4.050000	-0.097229	-69.764647	-56.516394	128.923217	-56.516394	128.923217	-0.086634	-62.383255
4.100000	-0.098754	-70.562330	-56.211932	127.394670	-56.211932	127.394670	-0.087991	-63.101947
4.150000	-0.100297	-71.358249	-55.912183	125.865331	-55.912183	125.865331	-0.089365	-63.819148
4.200000	-0.101867	-72.151796	-55.615138	124.335124	-55.615138	124.335124	-0.090762	-64.534339
4.250000	-0.103447	-72.944425	-55.325186	122.804597	-55.325186	122.804597	-0.092167	-65.248750
4.300000	-0.105052	-73.734920	-55.038439	121.273535	-55.038439	121.273535	-0.093595	-65.961342
4.350000	-0.106675	-74.523891	-54.756595	119.742091	-54.756595	119.742091	-0.095038	-66.672634
4.400000	-0.108321	-75.311043	-54.478665	118.210379	-54.478665	118.210379	-0.096500	-67.382366
4.450000	-0.109989	-76.096376	-54.204563	116.678400	-54.204563	116.678400	-0.097982	-68.090537
4.500000	-0.111676	-76.880205	-53.934986	115.146340	-53.934986	115.146340	-0.099482	-68.797408
4.550000	-0.113391	-77.661926	-53.668284	113.614167	-53.668284	113.614167	-0.101005	-69.502460
4.600000	-0.115122	-78.442453	-53.406633	112.082031	-53.406633	112.082031	-0.102542	-70.206473
4.650000	-0.116885	-79.220591	-53.147013	110.549970	-53.147013	110.549970	-0.104107	-70.908411
4.700000	-0.118662	-79.997843	-52.892892	109.018004	-52.892892	109.018004	-0.105684	-71.609571
4.750000	-0.120476	-80.772432	-52.640058	107.486326	-52.640058	107.486326	-0.107294	-72.308402
4.800000	-0.122299	-81.546437	-52.393101	105.954753	-52.393101	105.954753	-0.108912	-73.006717
4.850000	-0.124166	-82.317515	-52.146776	104.423704	-52.146776	104.423704	-0.110568	-73.702453
4.900000	-0.126038	-83.088305	-51.906646	102.892726	-51.906646	102.892726	-0.112229	-74.397932
4.950000	-0.127959	-83.855916	-51.666571	101.362529	-51.666571	101.362529	-0.113933	-75.090586
5.000000	-0.129881	-84.623526	-51.432952	99.832331	-51.432952	99.832331	-0.115637	-75.783241
5.050000	-0.131860	-85.387715	-51.198882	98.303187	-51.198882	98.303187	-0.117391	-76.472832
5.100000	-0.133838	-86.151904	-50.970954	96.774042	-50.970954	96.774042	-0.119145	-77.162423
5.150000	-0.135870	-86.913003	-50.743189	95.246030	-50.743189	95.246030	-0.120946	-77.849224
5.200000	-0.137908	-87.673821	-50.520743	93.718121	-50.520743	93.718121	-0.122751	-78.535771
5.250000	-0.139995	-88.431874	-50.299004	92.191381	-50.299004	92.191381	-0.124601	-79.219801
5.300000	-0.142093	-89.189375	-50.081840	90.664875	-50.081840	90.664875	-0.126459	-79.903328
5.350000	-0.144237	-89.944433	-49.865868	89.139537	-49.865868	89.139537	-0.128359	-80.584610
5.400000	-0.146397	-90.698675	-49.653801	87.614588	-49.653801	87.614588	-0.130273	-81.265142
5.450000	-0.148600	-91.450787	-49.443351	86.090770	-49.443351	86.090770	-0.132224	-81.943697
5.500000	-0.150824	-92.201833	-49.236203	84.567519	-49.236203	84.567519	-0.134195	-82.621264
5.550000	-0.153087	-92.951053	-49.031049	83.045333	-49.031049	83.045333	-0.136199	-83.297119
5.600000	-0.155378	-93.698969	-48.828653	81.523909	-48.828653	81.523909	-0.138228	-83.971752
5.650000	-0.157702	-94.445354	-48.628580	80.003458	-48.628580	80.003458	-0.140288	-84.644934
5.700000	-0.160061	-95.190207	-48.430776	78.483981	-48.430776	78.483981	-0.142377	-85.316666
5.750000	-0.162449	-95.933816	-48.235583	76.965361	-48.235583	76.965361	-0.144492	-85.987205
5.800000	-0.164877	-96.675681	-48.042222	75.447941	-48.042222	75.447941	-0.146644	-86.656074
5.850000	-0.167330	-97.416575	-47.851719	73.931241	-47.851719	73.931241	-0.148816	-87.324001
5.900000	-0.169830	-98.155527	-47.662656	72.415980	-47.662656	72.415980	-0.151032	-87.990045
5.950000	-0.172349	-98.893770	-47.476665	70.901283	-47.476665	70.901283	-0.153263	-88.655393
6.000000	-0.174923	-99.629889	-47.291765	69.388275	-47.291765	69.388275	-0.155544	-89.318654
6.050000	-0.177510	-100.365548	-47.110117	67.875656	-47.110117	67.875656	-0.157836	-89.981458
6.100000	-0.180159	-101.098915	-46.929248	66.364987	-46.929248	66.364987	-0.160184	-90.641980
6.150000	-0.182815	-101.832060	-46.751785	64.854520	-46.751785	64.854520	-0.162539	-91.302277
6.200000	-0.185541	-102.562761	-46.574822	63.346268	-46.574822	63.346268	-0.164956	-91.960106
6.250000	-0.188268	-103.293462	-46.401393	61.838017	-46.401393	61.838017	-0.167373	-92.617935
6.300000	-0.191073	-104.021586	-46.228218	60.332255	-46.228218	60.332255	-0.169861	-93.273119
6.350000	-0.193879	-104.749710	-46.058428	58.826493	-46.058428	58.826493	-0.172349	-93.928304
6.400000	-0.196758	-105.475555	-45.889179	57.323072	-45.889179	57.323072	-0.174904	-94.581111
6.450000	-0.199645	-106.201194	-45.722922	55.819864	-45.722922	55.819864	-0.177465	-95.233702
6.500000	-0.202599	-106.924839	-45.557459	54.318833	-45.557459	54.318833	-0.180087	-95.884175
6.550000	-0.205568	-107.648086	-45.394633	52.818236	-45.394633	52.818236	-0.182722	-96.534225
6.600000	-0.208600	-108.369613	-45.232827	51.319637	-45.232827	51.319637	-0.185414	-97.182411
6.650000	-0.211653	-109.090566	-45.073333	49.821703	-45.073333	49.821703	-0.188125	-97.829975
6.700000	-0.214763	-109.810057	-44.915059	48.325573	-44.915059	48.325573	-0.190887	-98.475920
6.750000	-0.217901	-110.528817	-44.758803	46.830345	-44.758803	46.830345	-0.193676	-99.121055
6.800000	-0.221091	-111.246356	-44.603942	45.336717	-44.603942	45.336717	-0.196510	-99.764808
6.850000	-0.224317	-111.963025	-44.450834	43.844231	-44.450834	43.844231	-0.199378	-100.407573
6.900000	-0.227588	-112.678701	-44.299273	42.353130	-44.299273	42.353130	-0.202287	-101.049184
6.950000	-0.230903	-113.393384	-44.149226	40.863415	-44.149226	40.863415	-0.205236	-101.689640
7.000000	-0.234257	-114.107285	-44.000858	39.374863	-44.000858	39.374863	-0.208219	-102.329160
7.050000	-0.237663	-114.820090	-43.853787	37.887940	-43.853787	37.887940	-0.211250	-102.967369
7.100000	-0.241100	-115.532307	-43.708510	36.401952	-43.708510	36.401952	-0.214310	-103.604852
7.150000	-0.244598	-116.243346	-43.564335	34.917834	-43.564335	34.917834	-0.217426	-104.240879
7.200000	-0.248120	-116.953972	-43.422051	33.434419	-43.422051	33.434419	-0.220563	-104.876379
7.250000	-0.251712	-117.663358	-43.280694	31.953112	-43.280694	31.953112	-0.223765	-105.510291
7.300000	-0.255321	-118.372488	-43.141310	30.472273	-43.141310	30.472273	-0.226982	-106.143863
7.350000	-0.259008	-119.080337	-43.002696	28.993773	-43.002696	28.993773	-0.230270	-106.775728
7.400000	-0.262705	-119.788067	-42.866123	27.515507	-42.866123	27.515507	-0.233568	-107.407429
7.450000	-0.266489	-120.494497	-42.730181	26.039803	-42.730181	26.039803	-0.236945	-108.037317
7.500000	-0.270274	-121.200927	-42.596333	24.564099	-42.596333	24.564099	-0.240324	-108.667206
7.550000	-0.274157	-121.906059	-42.462994	23.091170	-42.462994	23.091170	-0.243793	-109.295189
7.600000	-0.278041	-122.611191	-42.331671	21.618242	-42.331671	21.618242	-0.247262	-109.923172
7.650000	-0.282014	-123.315246	-42.200989	20.147831	-42.200989	20.147831	-0.250815	-110.549476
7.700000	-0.285998	-124.019204	-42.072127	18.677649	-42.072127	18.677649	-0.254377	-111.175627
7.750000	-0.290064	-124.722287	-41.944025	17.209723	-41.944025	17.209723	-0.258015	-111.800315
7.800000	-0.294149	-125.425196	-41.817564	15.742249	-41.817564	15.742249	-0.261670	-112.424709
7.850000	-0.298309	-126.127415	-41.691968	14.276770	-41.691968	14.276770	-0.265396	-113.047843
7.900000	-0.302496	-126.829404	-41.567851	12.811956	-41.567851	12.811956	-0.269146	-113.670558
7.950000	-0.306751	-127.530867	-41.444690	11.348877	-41.444690	11.348877	-0.272960	-114.292204
8.000000	-0.311042	-128.232066	-41.322862	9.886667	-41.322862	9.886667	-0.276806	-114.913317
8.050000	-0.315393	-128.932884	-41.202070	8.425936	-41.202070	8.425936	-0.280710	-115.533542
8.100000	-0.319788	-129.633428	-41.082478	6.966263	-41.082478	6.966263	-0.284654	-116.153133
8.150000	-0.324236	-130.333712	-40.963991	5.507821	-40.963991	5.507821	-0.288648	-116.772004
8.200000	-0.328737	-131.033736	-40.846586	4.050610	-40.846586	4.050610	-0.292691	-117.390155
8.250000	-0.333283	-131.733602	-40.730344	2.594390	-40.730344	2.594390	-0.296776	-118.007741
8.300000	-0.337892	-132.433245	-40.615080	1.139557	-40.615080	1.139557	-0.300920	-118.624535
8.350000	-0.342536	-133.132809	-40.501026	-0.314514	-40.501026	-0.314514	-0.305098	-119.240906
8.400000	-0.347252	-133.832212	-40.387859	-1.767063	-40.387859	-1.767063	-0.309343	-119.856428
8.450000	-0.351997	-134.531591	-40.275940	-3.219066	-40.275940	-3.219066	-0.313615	-120.471655
8.500000	-0.356822	-135.230898	-40.164830	-4.669432	-40.164830	-4.669432	-0.317963	-121.085992
8.550000	-0.361667	-135.930214	-40.054995	-6.119452	-40.054995	-6.119452	-0.322330	-121.700147
8.600000	-0.366602	-136.629571	-39.945904	-7.567746	-39.945904	-7.567746	-0.326782	-122.313387
8.650000	-0.371548	-137.328945	-39.838107	-9.015877	-39.838107	-9.015877	-0.331245	-122.926544
8.700000	-0.376593	-138.028501	-39.730999	-10.462216	-39.730999	-10.462216	-0.335802	-123.538777
8.750000	-0.381641	-138.728057	-39.625196	-11.908556	-39.625196	-11.908556	-0.340361	-124.151010
8.800000	-0.386798	-139.427965	-39.520041	-13.353067	-39.520041	-13.353067	-0.345024	-124.762328
8.850000	-0.391957	-140.127872	-39.416144	-14.797578	-39.416144	-14.797578	-0.349690	-125.373646
8.900000	-0.397217	-140.828242	-39.312962	-16.240533	-39.312962	-16.240533	-0.354451	-125.984209
8.950000	-0.402488	-141.528655	-39.210944	-17.683348	-39.210944	-17.683348	-0.359224	-126.594705
9.000000	-0.407851	-142.229620	-39.109698	-19.124863	-39.109698	-19.124863	-0.364084	-127.204593
9.050000	-0.413235	-142.930695	-39.009537	-20.566120	-39.009537	-20.566120	-0.368965	-127.814361
9.100000	-0.418701	-143.632388	-38.910196	-22.006314	-38.910196	-22.006314	-0.373925	-128.423656
9.150000	-0.424198	-144.334286	-38.811872	-23.446155	-38.811872	-23.446155	-0.378915	-129.032792
9.200000	-0.429768	-145.036841	-38.714407	-24.885151	-38.714407	-24.885151	-0.383976	-129.641574
9.250000	-0.435378	-145.739726	-38.617904	-26.323724	-38.617904	-26.323724	-0.389075	-130.250178
9.300000	-0.441052	-146.443282	-38.522289	-27.761646	-38.522289	-27.761646	-0.394237	-130.858530
9.350000	-0.446775	-147.147318	-38.427594	-29.199102	-38.427594	-29.199102	-0.399446	-131.466702
9.400000	-0.452554	-147.852016	-38.333809	-30.636075	-38.333809	-30.636075	-0.404710	-132.074708
9.450000	-0.458390	-148.557373	-38.240914	-32.072566	-38.240914	-32.072566	-0.410030	-132.682550
9.500000	-0.464273	-149.263353	-38.148939	-33.508719	-38.148939	-33.508719	-0.415396	-133.290297
9.550000	-0.470221	-149.970205	-38.057839	-34.944397	-38.057839	-34.944397	-0.420827	-133.897912
9.600000	-0.476208	-150.677612	-37.967659	-36.379856	-37.967659	-36.379856	-0.426296	-134.505486
9.650000	-0.482269	-151.386133	-37.878354	-37.814873	-37.878354	-37.814873	-0.431838	-135.112981
9.700000	-0.488360	-152.095115	-37.789957	-39.249763	-37.789957	-39.249763	-0.437410	-135.720472
9.750000	-0.494533	-152.805483	-37.702450	-40.684269	-37.702450	-40.684269	-0.443064	-136.327953
9.800000	-0.500728	-153.516190	-37.615829	-42.118714	-37.615829	-42.118714	-0.448739	-136.935450
9.850000	-0.507012	-154.228588	-37.530127	-43.552854	-37.530127	-43.552854	-0.454505	-137.543029
9.900000	-0.513309	-154.941170	-37.445275	-44.986974	-37.445275	-44.986974	-0.460284	-138.150624
9.950000	-0.519704	-155.655784	-37.361390	-46.420885	-37.361390	-46.420885	-0.466161	-138.758411
10.000000	-0.526103	-156.370397	-37.278308	-47.854795	-37.278308	-47.854795	-0.472043	-139.366198
