! freq	dB(S11)	phase(S11)	dB(S12)	phase(S12)	
!     	dB(S21)	phase(S21)	dB(S22)	phase(S22)	
!S-par simulation data
#  GHz  S  DB  R 50
0.000000	-0.000000	0.000000	-327.774683	0.000000	-327.774683	0.000000	-0.000000	0.000000
0.050000	-0.000149	-1.704897	-68.610278	-30.045254	-68.610278	-30.045254	-0.000095	-1.083335
0.100000	-0.000593	-3.409518	-67.710884	-15.704553	-67.710884	-15.704553	-0.000378	-2.166482
0.150000	-0.001328	-5.113586	-67.567172	-10.175186	-67.567172	-10.175186	-0.000845	-3.249251
0.200000	-0.002333	-6.816864	-67.565503	-7.146981	-67.565503	-7.146981	-0.001484	-4.331480
0.250000	-0.003596	-8.519113	-67.622305	-5.186470	-67.622305	-5.186470	-0.002288	-5.413003
0.300000	-0.005097	-10.220122	-67.714988	-3.758277	-67.714988	-3.758277	-0.003243	-6.493673
0.350000	-0.006815	-11.919708	-67.836150	-2.626344	-67.836150	-2.626344	-0.004335	-7.573361
0.400000	-0.008726	-13.617713	-67.983128	-1.669000	-67.983128	-1.669000	-0.005551	-8.651952
0.450000	-0.010806	-15.314008	-68.155139	-0.815490	-68.155139	-0.815490	-0.006873	-9.729350
0.500000	-0.013030	-17.008492	-68.352303	-0.020084	-68.352303	-0.020084	-0.008286	-10.805476
0.550000	-0.015374	-18.701089	-68.575277	0.749963	-68.575277	0.749963	-0.009776	-11.880267
0.600000	-0.017816	-20.391747	-68.825101	1.520658	-68.825101	1.520658	-0.011328	-12.953671
0.650000	-0.020334	-22.080410	-69.103357	2.315405	-69.103357	2.315405	-0.012928	-14.025637
0.700000	-0.022910	-23.767066	-69.411707	3.157165	-69.411707	3.157165	-0.014564	-15.096135
0.750000	-0.025524	-25.451736	-69.751907	4.069130	-69.751907	4.069130	-0.016225	-16.165162
0.800000	-0.028162	-27.134433	-70.126248	5.077666	-70.126248	5.077666	-0.017901	-17.232705
0.850000	-0.030810	-28.815011	-70.538902	6.228824	-70.538902	6.228824	-0.019584	-18.298624
0.900000	-0.033457	-30.493856	-70.989355	7.532554	-70.989355	7.532554	-0.021266	-19.363192
0.950000	-0.036096	-32.170810	-71.482595	9.049067	-71.482595	9.049067	-0.022943	-20.426257
1.000000	-0.038717	-33.845909	-72.021851	10.838686	-72.021851	10.838686	-0.024610	-21.487815
1.050000	-0.041318	-35.519268	-72.609875	12.957867	-72.609875	12.957867	-0.026263	-22.547929
1.100000	-0.043890	-37.190752	-73.249572	15.551933	-73.249572	15.551933	-0.027899	-23.606446
1.150000	-0.046432	-38.860499	-73.940173	18.734748	-73.940173	18.734748	-0.029516	-24.663441
1.200000	-0.048942	-40.528551	-74.676874	22.681178	-74.676874	22.681178	-0.031113	-25.718908
1.250000	-0.051419	-42.194947	-75.445969	27.611971	-75.445969	27.611971	-0.032689	-26.772836
1.300000	-0.053861	-43.859693	-76.215250	33.819252	-76.215250	33.819252	-0.034244	-27.825181
1.350000	-0.056270	-45.522866	-76.928802	41.530303	-76.928802	41.530303	-0.035777	-28.875963
1.400000	-0.058646	-47.184507	-77.497019	50.857445	-77.497019	50.857445	-0.037290	-29.925167
1.450000	-0.060991	-48.844657	-77.806891	61.580447	-77.806891	61.580447	-0.038783	-30.972776
1.500000	-0.063306	-50.503358	-77.762856	73.013103	-77.762856	73.013103	-0.040257	-32.018773
1.550000	-0.065592	-52.160653	-77.341913	84.161342	-77.341913	84.161342	-0.041713	-33.063138
1.600000	-0.067853	-53.816587	-76.609086	94.147495	-76.609086	94.147495	-0.043151	-34.105852
1.650000	-0.070090	-55.471206	-75.675098	102.525121	-75.675098	102.525121	-0.044574	-35.146893
1.700000	-0.072302	-57.124440	-74.628418	109.120236	-74.628418	109.120236	-0.045981	-36.186071
1.750000	-0.074498	-58.776572	-73.574662	114.435001	-73.574662	114.435001	-0.047376	-37.223678
1.800000	-0.076676	-60.427545	-72.536855	118.576463	-72.536855	118.576463	-0.048759	-38.259544
1.850000	-0.078840	-62.077416	-71.536203	121.784321	-71.536203	121.784321	-0.050131	-39.293646
1.900000	-0.080991	-63.726246	-70.581544	124.257084	-70.581544	124.257084	-0.051494	-40.325961
1.950000	-0.083132	-65.374100	-69.674978	126.149950	-69.674978	126.149950	-0.052849	-41.356465
2.000000	-0.085265	-67.021046	-68.815198	127.581493	-68.815198	127.581493	-0.054196	-42.385137
2.050000	-0.087393	-68.667157	-67.999327	128.641768	-67.999327	128.641768	-0.055538	-43.411952
2.100000	-0.089518	-70.312509	-67.223902	129.399366	-67.223902	129.399366	-0.056875	-44.436890
2.150000	-0.091641	-71.957185	-66.485369	129.906913	-66.485369	129.906913	-0.058209	-45.459927
2.200000	-0.093766	-73.601270	-65.780330	130.205164	-65.780330	130.205164	-0.059540	-46.481044
2.250000	-0.095893	-75.244856	-65.105644	130.326003	-65.105644	130.326003	-0.060869	-47.500219
2.300000	-0.098026	-76.888050	-64.459405	130.300069	-64.459405	130.300069	-0.062199	-48.517520
2.350000	-0.100166	-78.530926	-63.836920	130.134754	-63.836920	130.134754	-0.063528	-49.532734
2.400000	-0.102315	-80.173609	-63.237150	129.853971	-63.237150	129.853971	-0.064860	-50.545949
2.450000	-0.104475	-81.816214	-62.658070	129.470807	-62.658070	129.470807	-0.066194	-51.557150
2.500000	-0.106649	-83.458857	-62.097880	128.996001	-62.097880	128.996001	-0.067531	-52.566319
2.550000	-0.108837	-85.101669	-61.554615	128.436808	-61.554615	128.436808	-0.068873	-53.573397
2.600000	-0.111042	-86.744780	-61.027254	127.802523	-61.027254	127.802523	-0.070219	-54.578414
2.650000	-0.113266	-88.388325	-60.514533	127.099273	-60.514533	127.099273	-0.071572	-55.581359
2.700000	-0.115509	-90.032446	-60.015331	126.332229	-60.015331	126.332229	-0.072931	-56.582218
2.750000	-0.117774	-91.677291	-59.528647	125.505772	-59.528647	125.505772	-0.074298	-57.580982
2.800000	-0.120063	-93.323013	-59.053592	124.623638	-59.053592	124.623638	-0.075673	-58.577641
2.850000	-0.122376	-94.969773	-58.589372	123.689022	-58.589372	123.689022	-0.077057	-59.572188
2.900000	-0.124716	-96.617737	-58.135280	122.704670	-58.135280	122.704670	-0.078451	-60.564615
2.950000	-0.127084	-98.267076	-57.690687	121.672952	-57.690687	121.672952	-0.079854	-61.554916
3.000000	-0.129482	-99.917969	-57.255032	120.595918	-57.255032	120.595918	-0.081269	-62.543088
3.050000	-0.131910	-101.570602	-56.827817	119.475354	-56.827817	119.475354	-0.082696	-63.529128
3.100000	-0.134371	-103.225165	-56.408600	118.312817	-56.408600	118.312817	-0.084134	-64.513032
3.150000	-0.136867	-104.881881	-55.996861	117.109248	-55.996861	117.109248	-0.085586	-65.494778
3.200000	-0.139397	-106.540960	-55.592267	115.865890	-55.592267	115.865890	-0.087051	-66.474366
3.250000	-0.141965	-108.202592	-55.194650	114.584251	-55.194650	114.584251	-0.088531	-67.451822
3.300000	-0.144571	-109.866992	-54.803748	113.265286	-54.803748	113.265286	-0.090026	-68.427148
3.350000	-0.147219	-111.534667	-54.418422	111.906772	-54.418422	111.906772	-0.091537	-69.400165
3.400000	-0.149904	-113.205265	-54.040442	110.516125	-54.040442	110.516125	-0.093063	-70.371271
3.450000	-0.152631	-114.879316	-53.668583	109.090528	-53.668583	109.090528	-0.094605	-71.340265
3.500000	-0.155400	-116.557064	-53.302708	107.630678	-53.302708	107.630678	-0.096165	-72.307155
3.550000	-0.158214	-118.238758	-52.942707	106.137242	-52.942707	106.137242	-0.097742	-73.271952
3.600000	-0.161074	-119.924652	-52.588490	104.610867	-52.588490	104.610867	-0.099337	-74.234666
3.650000	-0.163979	-121.615011	-52.239992	103.052193	-52.239992	103.052193	-0.100952	-75.195309
3.700000	-0.166933	-123.310102	-51.897165	101.461862	-51.897165	101.461862	-0.102586	-76.153896
3.750000	-0.169935	-125.010201	-51.559980	99.840528	-51.559980	99.840528	-0.104240	-77.110441
3.800000	-0.172988	-126.715832	-51.228126	98.187580	-51.228126	98.187580	-0.105915	-78.064873
3.850000	-0.176093	-128.427068	-50.901939	96.505073	-50.901939	96.505073	-0.107612	-79.017299
3.900000	-0.179249	-130.144203	-50.581431	94.793747	-50.581431	94.793747	-0.109331	-79.967738
3.950000	-0.182458	-131.867540	-50.266626	93.054385	-50.266626	93.054385	-0.111072	-80.916211
4.000000	-0.185720	-133.597386	-49.957553	91.287813	-49.957553	91.287813	-0.112836	-81.862740
4.050000	-0.189036	-135.334055	-49.654252	89.494908	-49.654252	89.494908	-0.114623	-82.807348
4.100000	-0.192408	-137.077869	-49.356765	87.676598	-49.356765	87.676598	-0.116435	-83.750061
4.150000	-0.195835	-138.829153	-49.065136	85.833864	-49.065136	85.833864	-0.118271	-84.690905
4.200000	-0.199319	-140.588241	-48.779411	83.967738	-48.779411	83.967738	-0.120132	-85.629908
4.250000	-0.202859	-142.355469	-48.499636	82.079307	-48.499636	82.079307	-0.122020	-86.567099
4.300000	-0.206458	-144.131183	-48.225852	80.169703	-48.225852	80.169703	-0.123934	-87.502510
4.350000	-0.210114	-145.915732	-47.958099	78.240109	-47.958099	78.240109	-0.125875	-88.436173
4.400000	-0.213829	-147.709471	-47.696408	76.291744	-47.696408	76.291744	-0.127843	-89.368124
4.450000	-0.217603	-149.512760	-47.440804	74.325864	-47.440804	74.325864	-0.129840	-90.298398
4.500000	-0.221437	-151.325963	-47.191303	72.343750	-47.191303	72.343750	-0.131866	-91.227035
4.550000	-0.225329	-153.149452	-46.947911	70.346701	-46.947911	70.346701	-0.133921	-92.154075
4.600000	-0.229277	-154.982633	-46.710637	68.337071	-46.710637	68.337071	-0.136004	-93.079690
4.650000	-0.233289	-156.827908	-46.479410	66.313833	-46.479410	66.313833	-0.138121	-94.003645
4.700000	-0.237361	-158.684611	-46.254249	64.279588	-46.254249	64.279588	-0.140269	-94.926138
4.750000	-0.241493	-160.553128	-46.035108	62.235593	-46.035108	62.235593	-0.142450	-95.847221
4.800000	-0.245683	-162.433847	-45.821932	60.183062	-45.821932	60.183062	-0.144663	-96.766944
4.850000	-0.249932	-164.327159	-45.614649	58.123155	-45.614649	58.123155	-0.146911	-97.685366
4.900000	-0.254240	-166.233458	-45.413175	56.056957	-45.413175	56.056957	-0.149193	-98.602544
4.950000	-0.258605	-168.153138	-45.217413	53.985467	-45.217413	53.985467	-0.151511	-99.518543
5.000000	-0.263028	-170.086594	-45.027254	51.909583	-45.027254	51.909583	-0.153866	-100.433430
5.050000	-0.267507	-172.034540	-44.842609	49.830020	-44.842609	49.830020	-0.156258	-101.347255
5.100000	-0.272041	-173.997070	-44.663318	47.747510	-44.663318	47.747510	-0.158689	-102.260121
5.150000	-0.276629	-175.974580	-44.489237	45.662539	-44.489237	45.662539	-0.161160	-103.172110
5.200000	-0.281270	-177.967459	-44.320216	43.575423	-44.320216	43.575423	-0.163672	-104.083314
5.250000	-0.285961	-179.976096	-44.156098	41.486292	-44.156098	41.486292	-0.166226	-104.993829
5.300000	-0.290702	177.999124	-43.996720	39.395074	-43.996720	39.395074	-0.168824	-105.903762
5.350000	-0.295490	175.957823	-43.841915	37.301469	-43.841915	37.301469	-0.171467	-106.813230
5.400000	-0.300324	173.899628	-43.691515	35.204932	-43.691515	35.204932	-0.174158	-107.722360
5.450000	-0.305200	171.824173	-43.545350	33.104639	-43.545350	33.104639	-0.176898	-108.631294
5.500000	-0.310118	169.731103	-43.403251	30.999463	-43.403251	30.999463	-0.179690	-109.540191
5.550000	-0.315073	167.620071	-43.265052	28.887933	-43.265052	28.887933	-0.182538	-110.449227
5.600000	-0.320064	165.490741	-43.130589	26.768188	-43.130589	26.768188	-0.185444	-111.358602
5.650000	-0.325087	163.342586	-42.999720	24.637776	-42.999720	24.637776	-0.188414	-112.268554
5.700000	-0.330140	161.175288	-42.872291	22.493753	-42.872291	22.493753	-0.191452	-113.179353
5.750000	-0.335218	158.988760	-42.748136	20.332746	-42.748136	20.332746	-0.194564	-114.091300
5.800000	-0.340318	156.782729	-42.627118	18.150522	-42.627118	18.150522	-0.197758	-115.004753
5.850000	-0.345436	154.556942	-42.509101	15.941940	-42.509101	15.941940	-0.201044	-115.920134
5.900000	-0.350568	152.311168	-42.393960	13.700731	-42.393960	13.700731	-0.204433	-116.837952
5.950000	-0.355710	150.045198	-42.281571	11.419205	-42.281571	11.419205	-0.207941	-117.758817
6.000000	-0.360857	147.758849	-42.171812	9.087843	-42.171812	9.087843	-0.211589	-118.683481
6.050000	-0.366006	145.451964	-42.064555	6.694738	-42.064555	6.694738	-0.215405	-119.612878
6.100000	-0.371152	143.124412	-41.959661	4.224793	-41.959661	4.224793	-0.219425	-120.548185
6.150000	-0.376290	140.776093	-41.856958	1.658562	-41.856958	1.658562	-0.223702	-121.490915
6.200000	-0.381417	138.406935	-41.756224	-1.029459	-41.756224	-1.029459	-0.228310	-122.443047
6.250000	-0.386529	136.016895	-41.657139	-3.873425	-41.657139	-3.873425	-0.233354	-123.407224
6.300000	-0.391622	133.605504	-41.559197	-6.926137	-41.559197	-6.926137	-0.239015	-124.387518
6.350000	-0.396696	131.173227	-41.461567	-10.252304	-41.461567	-10.252304	-0.245543	-125.388898
6.400000	-0.401751	128.720089	-41.362837	-13.952016	-41.362837	-13.952016	-0.253365	-126.419010
6.450000	-0.406793	126.246114	-41.260464	-18.178700	-41.260464	-18.178700	-0.263220	-127.489487
6.500000	-0.411838	123.751293	-41.149579	-23.179718	-41.149579	-23.179718	-0.276474	-128.618885
6.550000	-0.416920	121.235520	-41.020168	-29.379557	-41.020168	-29.379557	-0.295890	-129.838532
6.600000	-0.422115	118.699115	-40.852490	-37.462435	-40.852490	-37.462435	-0.326914	-131.197510
6.650000	-0.427651	116.139830	-40.587067	-49.179236	-40.587067	-49.179236	-0.386492	-132.815744
6.700000	-0.434188	113.556793	-40.068582	-68.058163	-40.068582	-68.058163	-0.524374	-134.895752
6.750000	-0.444424	110.950219	-38.823959	-103.683747	-38.823959	-103.683747	-0.953371	-137.584186
6.800000	-0.463874	108.398365	-36.704551	-176.570467	-36.704551	-176.570467	-2.195465	-135.063383
6.850000	-0.455716	105.892147	-37.650796	98.725349	-37.650796	98.725349	-1.376536	-126.306473
6.900000	-0.451058	103.228059	-39.131715	54.967482	-39.131715	54.967482	-0.665830	-128.554297
6.950000	-0.452870	100.552452	-39.771290	33.040691	-39.771290	33.040691	-0.461142	-130.863128
7.000000	-0.456089	97.870311	-40.052813	20.019731	-40.052813	20.019731	-0.385027	-132.619195
7.050000	-0.459658	95.178260	-40.188786	11.265906	-40.188786	11.265906	-0.351251	-134.058858
7.100000	-0.463286	92.475061	-40.260793	4.803439	-40.260793	4.803439	-0.334653	-135.321593
7.150000	-0.466878	89.761125	-40.303177	-0.338787	-40.303177	-0.338787	-0.326054	-136.481704
7.200000	-0.470391	87.036398	-40.330128	-4.583961	-40.330128	-4.583961	-0.322015	-137.572634
7.250000	-0.473806	84.301714	-40.349967	-8.223111	-40.349967	-8.223111	-0.320608	-138.617734
7.300000	-0.477115	81.558172	-40.367120	-11.433940	-40.367120	-11.433940	-0.320822	-139.631418
7.350000	-0.480313	78.806598	-40.383995	-14.314275	-40.383995	-14.314275	-0.322139	-140.621877
7.400000	-0.483394	76.047910	-40.402083	-16.929583	-40.402083	-16.929583	-0.324241	-141.594778
7.450000	-0.486364	73.283507	-40.422124	-19.337971	-40.422124	-19.337971	-0.326887	-142.554959
7.500000	-0.489222	70.514507	-40.444486	-21.571517	-40.444486	-21.571517	-0.329948	-143.505301
7.550000	-0.491968	67.741943	-40.469382	-23.646896	-40.469382	-23.646896	-0.333344	-144.447664
7.600000	-0.494606	64.967201	-40.496624	-25.587052	-40.496624	-25.587052	-0.337000	-145.384048
7.650000	-0.497143	62.191534	-40.525945	-27.404904	-40.525945	-27.404904	-0.340868	-146.315754
7.700000	-0.499582	59.416212	-40.556958	-29.110350	-40.556958	-29.110350	-0.344916	-147.243818
7.750000	-0.501930	56.642511	-40.589188	-30.711194	-40.589188	-30.711194	-0.349119	-148.169071
7.800000	-0.504193	53.871712	-40.622090	-32.213811	-40.622090	-32.213811	-0.353457	-149.092198
7.850000	-0.506379	51.105093	-40.655067	-33.623616	-40.655067	-33.623616	-0.357916	-150.013765
7.900000	-0.508495	48.343922	-40.687492	-34.945414	-40.687492	-34.945414	-0.362484	-150.934253
7.950000	-0.510550	45.589456	-40.718716	-36.183644	-40.718716	-36.183644	-0.367154	-151.854071
8.000000	-0.512553	42.842931	-40.748089	-37.342560	-40.748089	-37.342560	-0.371917	-152.773573
8.050000	-0.514512	40.105561	-40.774968	-38.426352	-40.774968	-38.426352	-0.376769	-153.693071
8.100000	-0.516438	37.378532	-40.798731	-39.439225	-40.798731	-39.439225	-0.381704	-154.612841
8.150000	-0.518341	34.663134	-40.818741	-40.384772	-40.818741	-40.384772	-0.386720	-155.533137
8.200000	-0.520230	31.960523	-40.834429	-41.267498	-40.834429	-41.267498	-0.391813	-156.454192
8.250000	-0.522116	29.271646	-40.845334	-42.092570	-40.845334	-42.092570	-0.396981	-157.376203
8.300000	-0.524011	26.597535	-40.851006	-42.864501	-40.851006	-42.864501	-0.402221	-158.299358
8.350000	-0.525923	23.938692	-40.851224	-43.589136	-40.851224	-43.589136	-0.407530	-159.223791
8.400000	-0.527864	21.297053	-40.845293	-44.268207	-40.845293	-44.268207	-0.412910	-160.149753
8.450000	-0.529845	18.672992	-40.833117	-44.907872	-40.833117	-44.907872	-0.418358	-161.077357
8.500000	-0.531876	16.067341	-40.814478	-45.512641	-40.814478	-45.512641	-0.423873	-162.006752
8.550000	-0.533966	13.480877	-40.789211	-46.086936	-40.789211	-46.086936	-0.429453	-162.938080
8.600000	-0.536126	10.914324	-40.757205	-46.635063	-40.757205	-46.635063	-0.435100	-163.871478
8.650000	-0.538365	8.368347	-40.718398	-47.161184	-40.718398	-47.161184	-0.440810	-164.807079
8.700000	-0.540692	5.843559	-40.672774	-47.669293	-40.672774	-47.669293	-0.446585	-165.745012
8.750000	-0.543117	3.340516	-40.620356	-48.163197	-40.620356	-48.163197	-0.452424	-166.685403
8.800000	-0.545656	0.861255	-40.560722	-48.646033	-40.560722	-48.646033	-0.458330	-167.628560
8.850000	-0.548299	-1.597383	-40.495094	-49.122445	-40.495094	-49.122445	-0.464294	-168.574176
8.900000	-0.551072	-4.031479	-40.422490	-49.594685	-40.422490	-49.594685	-0.470323	-169.522797
8.950000	-0.553970	-6.442937	-40.343732	-50.065994	-40.343732	-50.065994	-0.476414	-170.474265
9.000000	-0.557006	-8.830560	-40.258698	-50.539139	-40.258698	-50.539139	-0.482566	-171.428812
9.050000	-0.560189	-11.193649	-40.167419	-51.016755	-40.167419	-51.016755	-0.488782	-172.386616
9.100000	-0.563513	-13.533872	-40.070604	-51.500774	-40.070604	-51.500774	-0.495057	-173.347543
9.150000	-0.567005	-15.847808	-39.967502	-51.994497	-39.967502	-51.994497	-0.501398	-174.312165
9.200000	-0.570643	-18.139586	-39.859485	-52.498225	-39.859485	-52.498225	-0.507795	-175.279994
9.250000	-0.574463	-20.404429	-39.745421	-53.016194	-39.745421	-53.016194	-0.514260	-176.251841
9.300000	-0.578442	-22.646571	-39.626669	-53.547809	-39.626669	-53.547809	-0.520781	-177.227183
9.350000	-0.582602	-24.863193	-39.502625	-54.096486	-39.502625	-54.096486	-0.527366	-178.206576
9.400000	-0.586937	-27.055766	-39.373854	-54.662787	-39.373854	-54.662787	-0.534011	-179.189910
9.450000	-0.591451	-29.224375	-39.240521	-55.248171	-39.240521	-55.248171	-0.540716	179.822698
9.500000	-0.596158	-31.367732	-39.102409	-55.855201	-39.102409	-55.855201	-0.547484	178.830887
9.550000	-0.601038	-33.488777	-38.960440	-56.482719	-38.960440	-56.482719	-0.554309	177.835039
9.600000	-0.606127	-35.583518	-38.813620	-57.136019	-38.813620	-57.136019	-0.561200	176.834264
9.650000	-0.611390	-37.656752	-38.663370	-57.811759	-38.663370	-57.811759	-0.568146	175.829315
9.700000	-0.616863	-39.704598	-38.508686	-58.515613	-38.508686	-58.515613	-0.575157	174.819263
9.750000	-0.622521	-41.730458	-38.350600	-59.245274	-38.350600	-59.245274	-0.582226	173.804630
9.800000	-0.628381	-43.732803	-38.188735	-60.004174	-38.188735	-60.004174	-0.589356	172.784917
9.850000	-0.634439	-45.712350	-38.023356	-60.793061	-38.023356	-60.793061	-0.596546	171.760096
9.900000	-0.640690	-47.670259	-37.854847	-61.612093	-37.854847	-61.612093	-0.603794	170.730244
9.950000	-0.647152	-49.604689	-37.682713	-62.465750	-37.682713	-62.465750	-0.611106	169.694725
10.000000	-0.653798	-51.519338	-37.508099	-63.350289	-37.508099	-63.350289	-0.618472	168.654249
