! freq	dB(S11)	phase(S11)	dB(S12)	phase(S12)	
!     	dB(S21)	phase(S21)	dB(S22)	phase(S22)	
!S-par simulation data
#  GHz  S  DB  R 50
0.000000	-0.000000	0.000000	-309.919846	0.000000	-309.919846	0.000000	-0.000000	0.000000
0.050000	-0.000074	-0.845894	-111.806973	91.420553	-111.806973	91.420553	-0.000099	-0.828533
0.100000	-0.000294	-1.691651	-105.603535	92.103569	-105.603535	92.103569	-0.000392	-1.656837
0.150000	-0.000656	-2.537142	-101.901744	91.970279	-101.901744	91.970279	-0.000869	-2.484701
0.200000	-0.001152	-3.382247	-99.278999	91.317010	-99.278999	91.317010	-0.001512	-3.311944
0.250000	-0.001782	-4.226820	-97.283431	90.409154	-97.283431	90.409154	-0.002311	-4.138361
0.300000	-0.002524	-5.070805	-95.699994	89.436712	-95.699994	89.436712	-0.003230	-4.963905
0.350000	-0.003374	-5.914093	-94.409889	88.475678	-94.409889	88.475678	-0.004253	-5.788459
0.400000	-0.004319	-6.756606	-93.340190	87.571503	-93.340190	87.571503	-0.005359	-6.611970
0.450000	-0.005348	-7.598279	-92.443463	86.748478	-92.443463	86.748478	-0.006526	-7.434411
0.500000	-0.006448	-8.439062	-91.687533	86.022069	-91.687533	86.022069	-0.007737	-8.255778
0.550000	-0.007608	-9.278913	-91.049855	85.405106	-91.049855	85.405106	-0.008975	-9.076083
0.600000	-0.008817	-10.117805	-90.514220	84.910950	-90.514220	84.910950	-0.010229	-9.895351
0.650000	-0.010065	-10.955716	-90.068729	84.555272	-90.068729	84.555272	-0.011486	-10.713611
0.700000	-0.011341	-11.792634	-89.704485	84.357270	-89.704485	84.357270	-0.012739	-11.530896
0.750000	-0.012638	-12.628555	-89.414701	84.340735	-89.414701	84.340735	-0.013983	-12.347238
0.800000	-0.013947	-13.463476	-89.194038	84.535172	-89.194038	84.535172	-0.015213	-13.162666
0.850000	-0.015263	-14.297400	-89.038061	84.977071	-89.038061	84.977071	-0.016426	-13.977206
0.900000	-0.016579	-15.130332	-88.942721	85.711371	-88.942721	85.711371	-0.017622	-14.790879
0.950000	-0.017892	-15.962278	-88.903768	86.793058	-88.903768	86.793058	-0.018799	-15.603702
1.000000	-0.019197	-16.793245	-88.916022	88.288647	-88.916022	88.288647	-0.019957	-16.415685
1.050000	-0.020491	-17.623239	-88.972390	90.277056	-88.972390	90.277056	-0.021098	-17.226837
1.100000	-0.021773	-18.452265	-89.062526	92.848755	-89.062526	92.848755	-0.022223	-18.037158
1.150000	-0.023041	-19.280329	-89.171109	96.101267	-89.171109	96.101267	-0.023332	-18.846649
1.200000	-0.024293	-20.107432	-89.275856	100.127937	-89.275856	100.127937	-0.024427	-19.655304
1.250000	-0.025530	-20.933578	-89.345869	104.996116	-89.345869	104.996116	-0.025509	-20.463115
1.300000	-0.026749	-21.758723	-89.336260	110.743932	-89.336260	110.743932	-0.026579	-21.270035
1.350000	-0.027953	-22.582909	-89.203974	117.219511	-89.203974	117.219511	-0.027640	-22.076088
1.400000	-0.029141	-23.406130	-88.910046	124.174247	-88.910046	124.174247	-0.028692	-22.881260
1.450000	-0.030313	-24.228382	-88.433215	131.253136	-88.433215	131.253136	-0.029737	-23.685536
1.500000	-0.031472	-25.049659	-87.777547	138.074299	-87.777547	138.074299	-0.030775	-24.488899
1.550000	-0.032617	-25.869952	-86.970253	144.321227	-86.970253	144.321227	-0.031809	-25.291331
1.600000	-0.033749	-26.689252	-86.051463	149.798186	-86.051463	149.798186	-0.032838	-26.092815
1.650000	-0.034869	-27.507549	-85.062736	154.432953	-85.062736	154.432953	-0.033864	-26.893332
1.700000	-0.035976	-28.324473	-83.995140	157.995740	-83.995140	157.995740	-0.034887	-27.692512
1.750000	-0.037078	-29.140865	-82.983641	161.152484	-82.983641	161.152484	-0.035909	-28.491171
1.800000	-0.038169	-29.955985	-81.958397	163.559472	-81.958397	163.559472	-0.036930	-29.288576
1.850000	-0.039254	-30.770196	-80.965641	165.430919	-80.965641	165.430919	-0.037950	-30.085083
1.900000	-0.040333	-31.583289	-79.997153	166.850856	-79.997153	166.850856	-0.038971	-30.880475
1.950000	-0.041405	-32.395262	-79.056257	167.819282	-79.056257	167.819282	-0.039992	-31.674749
2.000000	-0.042474	-33.206276	-78.156174	168.527969	-78.156174	168.527969	-0.041015	-32.468060
2.050000	-0.043539	-34.015947	-77.275821	168.873019	-77.275821	168.873019	-0.042039	-33.260021
2.100000	-0.044602	-34.825030	-76.451388	169.103196	-76.451388	169.103196	-0.043064	-34.051388
2.150000	-0.045663	-35.632587	-75.639115	169.050546	-75.639115	169.050546	-0.044093	-34.841211
2.200000	-0.046723	-36.438992	-74.855952	168.830391	-74.855952	168.830391	-0.045123	-35.629867
2.250000	-0.047783	-37.244231	-74.100350	168.467006	-74.100350	168.467006	-0.046158	-36.417338
2.300000	-0.048844	-38.048290	-73.370757	167.980460	-73.370757	167.980460	-0.047195	-37.203607
2.350000	-0.049907	-38.851156	-72.665665	167.387424	-72.665665	167.387424	-0.048236	-37.988660
2.400000	-0.050972	-39.652816	-71.983639	166.701819	-71.983639	166.701819	-0.049281	-38.772481
2.450000	-0.052041	-40.453257	-71.323325	165.935329	-71.323325	165.935329	-0.050331	-39.555054
2.500000	-0.053113	-41.252467	-70.683458	165.097812	-70.683458	165.097812	-0.051385	-40.336366
2.550000	-0.054190	-42.050380	-70.061782	164.195237	-70.061782	164.195237	-0.052444	-41.116345
2.600000	-0.055272	-42.847039	-69.458410	163.237666	-69.458410	163.237666	-0.053509	-41.895034
2.650000	-0.056359	-43.642434	-68.872317	162.231079	-68.872317	162.231079	-0.054579	-42.672419
2.700000	-0.057453	-44.436556	-68.302554	161.180629	-68.302554	161.180629	-0.055654	-43.448487
2.750000	-0.058554	-45.229397	-67.748245	160.090772	-67.748245	160.090772	-0.056736	-44.223226
2.800000	-0.059663	-46.020949	-67.208579	158.965376	-67.208579	158.965376	-0.057825	-44.996624
2.850000	-0.060779	-46.811207	-66.682806	157.807805	-66.682806	157.807805	-0.058920	-45.768671
2.900000	-0.061903	-47.600164	-66.170231	156.620998	-66.170231	156.620998	-0.060022	-46.539355
2.950000	-0.063037	-48.387818	-65.670208	155.407524	-65.670208	155.407524	-0.061132	-47.308665
3.000000	-0.064180	-49.174166	-65.182137	154.169634	-65.182137	154.169634	-0.062250	-48.076592
3.050000	-0.065333	-49.959206	-64.705460	152.909303	-64.705460	152.909303	-0.063375	-48.843126
3.100000	-0.066496	-50.742939	-64.239656	151.628263	-64.239656	151.628263	-0.064509	-49.608259
3.150000	-0.067671	-51.525367	-63.784240	150.328032	-63.784240	150.328032	-0.065652	-50.371981
3.200000	-0.068856	-52.306494	-63.338756	149.009941	-63.338756	149.009941	-0.066804	-51.134284
3.250000	-0.070054	-53.086327	-62.902779	147.675147	-62.902779	147.675147	-0.067965	-51.895160
3.300000	-0.071264	-53.864873	-62.475909	146.324656	-62.475909	146.324656	-0.069137	-52.654603
3.350000	-0.072489	-54.641927	-62.055784	144.956960	-62.055784	144.956960	-0.070320	-53.412353
3.400000	-0.073729	-55.417665	-61.643746	143.574573	-61.643746	143.574573	-0.071515	-54.168593
3.450000	-0.074976	-56.192762	-61.244904	142.185340	-61.244904	142.185340	-0.072715	-54.924073
3.500000	-0.076245	-56.965937	-60.847895	140.775574	-60.847895	140.775574	-0.073934	-55.677272
3.550000	-0.077521	-57.738705	-60.464855	139.361491	-60.464855	139.361491	-0.075156	-56.429961
3.600000	-0.078824	-58.509434	-60.081777	137.925830	-60.081777	137.925830	-0.076400	-57.180098
3.650000	-0.080130	-59.279974	-59.713303	136.488044	-59.713303	136.488044	-0.077646	-57.929978
3.700000	-0.081470	-60.048425	-59.343150	135.026900	-59.343150	135.026900	-0.078917	-58.677035
3.750000	-0.082810	-60.816876	-58.988128	133.565755	-58.988128	133.565755	-0.080188	-59.424092
3.800000	-0.084191	-61.583288	-58.629957	132.078347	-58.629957	132.078347	-0.081488	-60.168056
3.850000	-0.085573	-62.349699	-58.285972	130.590938	-58.285972	130.590938	-0.082788	-60.912020
3.900000	-0.086998	-63.114554	-57.940284	129.077384	-57.940284	129.077384	-0.084116	-61.653141
3.950000	-0.088427	-63.879267	-57.606535	127.561453	-57.606535	127.561453	-0.085447	-62.394003
4.000000	-0.089903	-64.642976	-57.272310	126.018198	-57.272310	126.018198	-0.086805	-63.132276
4.050000	-0.091389	-65.406485	-56.948000	124.469479	-56.948000	124.469479	-0.088169	-63.870032
4.100000	-0.092928	-66.169641	-56.624242	122.890735	-56.624242	122.890735	-0.089558	-64.605456
4.150000	-0.094484	-66.932680	-56.308544	121.301983	-56.308544	121.301983	-0.090956	-65.340104
4.200000	-0.096102	-67.696161	-55.994236	119.678532	-55.994236	119.678532	-0.092379	-66.072683
4.250000	-0.097752	-68.459863	-55.686233	118.037732	-55.686233	118.037732	-0.093814	-66.804228
4.300000	-0.099481	-69.225021	-55.380269	116.354736	-55.380269	116.354736	-0.095271	-67.533967
4.350000	-0.101266	-69.991217	-55.078849	114.641601	-55.078849	114.641601	-0.096744	-68.262416
4.400000	-0.103161	-70.760240	-54.779922	112.874347	-54.779922	112.874347	-0.098237	-68.989325
4.450000	-0.105165	-71.532090	-54.483581	111.052973	-54.483581	111.052973	-0.099750	-69.714694
4.500000	-0.107338	-72.308772	-54.189961	109.157879	-54.189961	109.157879	-0.101281	-70.438788
4.550000	-0.109749	-73.092218	-53.896391	107.159577	-53.896391	107.159577	-0.102836	-71.161097
4.600000	-0.112348	-73.880871	-53.607533	105.090077	-53.607533	105.090077	-0.104402	-71.882648
4.650000	-0.115524	-74.684960	-53.315046	102.813253	-53.315046	102.813253	-0.105996	-72.602244
4.700000	-0.119475	-75.507858	-53.020315	100.295563	-53.020315	100.295563	-0.107611	-73.320404
4.750000	-0.124767	-76.359506	-52.720936	97.417856	-52.720936	97.417856	-0.109248	-74.037146
4.800000	-0.132308	-77.253298	-52.414565	94.017764	-52.414565	94.017764	-0.110907	-74.752554
4.850000	-0.145236	-78.228766	-52.093766	89.600420	-52.093766	89.600420	-0.112590	-75.466542
4.900000	-0.170808	-79.349652	-51.754730	83.311087	-51.754730	83.311087	-0.114301	-76.179293
4.950000	-0.238226	-80.785536	-51.411399	72.475384	-51.411399	72.475384	-0.116060	-76.891021
5.000000	-0.509414	-82.774297	-51.392210	46.567711	-51.392210	46.567711	-0.118015	-77.602338
5.050000	-1.250864	-79.171616	-57.296805	-58.144809	-57.296805	-58.144809	-0.120723	-78.308194
5.100000	-0.461531	-77.228180	-54.718051	153.293788	-54.718051	153.293788	-0.121996	-79.010154
5.150000	-0.245464	-79.079546	-52.627968	125.495811	-52.627968	125.495811	-0.123545	-79.715773
5.200000	-0.188001	-80.423145	-51.816761	114.488897	-51.816761	114.488897	-0.125306	-80.420029
5.250000	-0.166179	-81.499972	-51.318618	108.105141	-51.318618	108.105141	-0.127148	-81.122787
5.300000	-0.157004	-82.435615	-50.945795	103.776323	-50.945795	103.776323	-0.129041	-81.823954
5.350000	-0.152215	-83.307560	-50.625010	100.303477	-50.625010	100.303477	-0.130968	-82.523861
5.400000	-0.150037	-84.134455	-50.337922	97.410111	-50.337922	97.410111	-0.132928	-83.222419
5.450000	-0.149306	-84.931842	-50.072210	94.881309	-50.072210	94.881309	-0.134919	-83.919651
5.500000	-0.149497	-85.707399	-49.821594	92.612082	-49.821594	92.612082	-0.136944	-84.615459
5.550000	-0.150231	-86.468383	-49.581584	90.509656	-49.581584	90.509656	-0.138999	-85.309949
5.600000	-0.151328	-87.218561	-49.349808	88.526480	-49.349808	88.526480	-0.141085	-86.003171
5.650000	-0.152729	-87.958801	-49.124728	86.648136	-49.124728	86.648136	-0.143209	-86.694869
5.700000	-0.154269	-88.694275	-48.905425	84.818877	-48.905425	84.818877	-0.145353	-87.385745
5.750000	-0.156010	-89.422362	-48.690780	83.061265	-48.690780	83.061265	-0.147539	-88.074980
5.800000	-0.157817	-90.147962	-48.481039	81.327619	-48.481039	81.327619	-0.149740	-88.763649
5.850000	-0.159804	-90.866456	-48.274519	79.657667	-48.274519	79.657667	-0.151995	-89.450283
5.900000	-0.161833	-91.583258	-48.072147	78.001703	-48.072147	78.001703	-0.154267	-90.136322
5.950000	-0.163964	-92.295951	-47.872842	76.379711	-47.872842	76.379711	-0.156580	-90.820916
6.000000	-0.166161	-93.005988	-47.676665	74.778011	-47.676665	74.778011	-0.158925	-91.504411
6.050000	-0.168410	-93.713901	-47.483771	73.192544	-47.483771	73.192544	-0.161297	-92.187025
6.100000	-0.170744	-94.418488	-47.293028	71.630672	-47.293028	71.630672	-0.163718	-92.868069
6.150000	-0.173105	-95.122049	-47.105731	70.075951	-47.105731	70.075951	-0.166155	-93.548612
6.200000	-0.175551	-95.822382	-46.920103	68.542689	-46.920103	68.542689	-0.168648	-94.227459
6.250000	-0.178029	-96.521635	-46.737488	67.016224	-46.737488	67.016224	-0.171164	-94.905688
6.300000	-0.180565	-97.218859	-46.557030	65.502539	-46.557030	65.502539	-0.173720	-95.582755
6.350000	-0.183153	-97.914385	-46.378747	63.999120	-46.378747	63.999120	-0.176316	-96.258781
6.400000	-0.185773	-98.608830	-46.203117	62.502234	-46.203117	62.502234	-0.178937	-96.934143
6.450000	-0.188466	-99.301083	-46.028886	61.018269	-46.028886	61.018269	-0.181616	-97.608085
6.500000	-0.191182	-99.992709	-45.857464	59.537992	-45.857464	59.537992	-0.184313	-98.281611
6.550000	-0.193967	-100.682380	-45.687376	58.069142	-45.687376	58.069142	-0.187068	-98.953813
6.600000	-0.196785	-101.371221	-45.519641	56.605195	-45.519641	56.605195	-0.189851	-99.625433
6.650000	-0.199652	-102.058830	-45.353754	55.148516	-45.353754	55.148516	-0.192675	-100.296191
6.700000	-0.202579	-102.745076	-45.189365	53.700148	-45.189365	53.700148	-0.195552	-100.965968
6.750000	-0.205535	-103.430639	-45.027240	52.255937	-45.027240	52.255937	-0.198455	-101.635255
6.800000	-0.208549	-104.115040	-44.866595	50.819235	-44.866595	50.819235	-0.201410	-102.303692
6.850000	-0.211605	-104.798610	-44.707823	49.387899	-44.707823	49.387899	-0.204402	-102.971523
6.900000	-0.214710	-105.481306	-44.550659	47.962765	-44.550659	47.962765	-0.207439	-103.638713
6.950000	-0.217865	-106.163126	-44.395069	46.543832	-44.395069	46.543832	-0.210522	-104.305262
7.000000	-0.221063	-106.844316	-44.241205	45.129973	-44.241205	45.129973	-0.213645	-104.971357
7.050000	-0.224319	-107.524624	-44.088627	43.723219	-44.088627	43.723219	-0.216823	-105.636816
7.100000	-0.227611	-108.204509	-43.937886	42.320517	-43.937886	42.320517	-0.220034	-106.301984
7.150000	-0.230971	-108.883547	-43.788149	40.925922	-43.788149	40.925922	-0.223311	-106.966569
7.200000	-0.234357	-109.562330	-43.640357	39.534405	-43.640357	39.534405	-0.226614	-107.630997
7.250000	-0.237823	-110.240348	-43.493285	38.152125	-43.493285	38.152125	-0.229993	-108.294953
7.300000	-0.241307	-110.918240	-43.348265	36.771950	-43.348265	36.771950	-0.233392	-108.958851
7.350000	-0.244881	-111.595501	-43.203669	35.402303	-43.203669	35.402303	-0.236880	-109.622456
7.400000	-0.248465	-112.272724	-43.061239	34.033748	-43.061239	34.033748	-0.240378	-110.286059
7.450000	-0.252150	-112.949515	-42.918915	32.677201	-42.918915	32.677201	-0.243980	-110.949635
7.500000	-0.255837	-113.626306	-42.778886	31.320653	-42.778886	31.320653	-0.247584	-111.613211
7.550000	-0.259637	-114.302940	-42.638602	29.977820	-42.638602	29.977820	-0.251308	-112.277135
7.600000	-0.263438	-114.979573	-42.500548	28.634987	-42.500548	28.634987	-0.255033	-112.941058
7.650000	-0.267347	-115.656384	-42.362260	27.305419	-42.362260	27.305419	-0.258877	-113.605710
7.700000	-0.271268	-116.333210	-42.225924	25.977057	-42.225924	25.977057	-0.262733	-114.270428
7.750000	-0.275290	-117.010529	-42.089350	24.661504	-42.089350	24.661504	-0.266707	-114.936255
7.800000	-0.279335	-117.687947	-41.954427	23.348512	-41.954427	23.348512	-0.270706	-115.602305
7.850000	-0.283476	-118.366153	-41.819238	22.047823	-41.819238	22.047823	-0.274823	-116.269849
7.900000	-0.287650	-119.044623	-41.685355	20.751235	-41.685355	20.751235	-0.278980	-116.937890
7.950000	-0.291916	-119.724154	-41.551157	19.466345	-41.551157	19.466345	-0.283255	-117.607808
8.000000	-0.296228	-120.404217	-41.417844	18.187303	-41.417844	18.187303	-0.287590	-118.278665
8.050000	-0.300627	-121.085587	-41.284154	16.919196	-41.284154	16.919196	-0.292046	-118.951779
8.100000	-0.305087	-121.767890	-41.150807	15.658900	-41.150807	15.658900	-0.296588	-119.626504
8.150000	-0.309628	-122.451707	-41.017016	14.408546	-41.017016	14.408546	-0.301254	-120.303851
8.200000	-0.314249	-123.137038	-40.882833	13.168135	-40.882833	13.168135	-0.306044	-120.983820
8.250000	-0.318945	-123.824038	-40.748157	11.936361	-40.748157	11.936361	-0.310962	-121.666744
8.300000	-0.323745	-124.513373	-40.612046	10.716677	-40.612046	10.716677	-0.316060	-122.353804
8.350000	-0.328599	-125.204032	-40.476083	9.502493	-40.476083	9.502493	-0.321259	-123.043285
8.400000	-0.333574	-125.897790	-40.337707	8.300805	-40.337707	8.300805	-0.326693	-123.738460
8.450000	-0.338660	-126.594618	-40.197027	7.109345	-40.197027	7.109345	-0.332366	-124.439450
8.500000	-0.343877	-127.295227	-40.052998	5.927906	-40.052998	5.927906	-0.338344	-125.147870
8.550000	-0.349219	-127.999584	-39.905660	4.753933	-39.905660	4.753933	-0.344642	-125.863949
8.600000	-0.354699	-128.708159	-39.754281	3.585857	-39.754281	3.585857	-0.351322	-126.588977
8.650000	-0.360332	-129.421476	-39.598006	2.421451	-39.598006	2.421451	-0.358463	-127.324491
8.700000	-0.366135	-130.140127	-39.435845	1.257667	-39.435845	1.257667	-0.366164	-128.072319
8.750000	-0.372160	-130.865747	-39.264896	0.088606	-39.264896	0.088606	-0.374678	-128.837192
8.800000	-0.378451	-131.599560	-39.082580	-1.096641	-39.082580	-1.096641	-0.384302	-129.623747
8.850000	-0.384975	-132.340320	-38.891001	-2.303294	-38.891001	-2.303294	-0.395006	-130.429989
8.900000	-0.391880	-133.092159	-38.681830	-3.557816	-38.681830	-3.557816	-0.407692	-131.270002
8.950000	-0.399221	-133.855880	-38.452480	-4.887657	-38.452480	-4.887657	-0.423018	-132.150414
9.000000	-0.407080	-134.632725	-38.199460	-6.329243	-38.199460	-6.329243	-0.441950	-133.080459
9.050000	-0.415659	-135.426304	-37.913002	-7.962415	-37.913002	-7.962415	-0.466792	-134.082324
9.100000	-0.425122	-136.238222	-37.587355	-9.880730	-37.587355	-9.880730	-0.500389	-135.175619
9.150000	-0.435852	-137.073252	-37.207114	-12.293075	-37.207114	-12.293075	-0.549652	-136.405546
9.200000	-0.448283	-137.934898	-36.759278	-15.527951	-36.759278	-15.527951	-0.626993	-137.828055
9.250000	-0.462987	-138.826900	-36.233457	-20.180925	-36.233457	-20.180925	-0.758521	-139.518300
9.300000	-0.480741	-139.754178	-35.639600	-27.524390	-35.639600	-27.524390	-1.009850	-141.541034
9.350000	-0.502222	-140.721079	-35.120569	-40.121218	-35.120569	-40.121218	-1.538310	-143.554967
9.400000	-0.527929	-141.735071	-35.393817	-62.572944	-35.393817	-62.572944	-2.563105	-142.673315
9.450000	-0.558420	-142.811197	-38.657516	-96.632849	-38.657516	-96.632849	-3.078576	-133.434116
9.500000	-0.595310	-143.975839	-48.151369	-142.045829	-48.151369	-142.045829	-2.090190	-128.003456
9.550000	-0.642533	-145.266872	-49.788943	86.242912	-49.788943	86.242912	-1.334968	-128.949046
9.600000	-0.707518	-146.733371	-42.811023	58.624090	-42.811023	58.624090	-0.973804	-130.913373
9.650000	-0.803761	-148.441803	-39.285375	49.689590	-39.285375	49.689590	-0.796180	-132.684181
9.700000	-0.958111	-150.485660	-36.632386	44.486632	-36.632386	44.486632	-0.701972	-134.174222
9.750000	-1.221296	-152.948966	-34.177178	39.733608	-34.177178	39.733608	-0.648206	-135.451028
9.800000	-1.715271	-155.806213	-31.655418	33.256538	-31.655418	33.256538	-0.617173	-136.562337
9.850000	-2.687309	-158.074219	-29.080930	22.568556	-29.080930	22.568556	-0.597878	-137.539881
9.900000	-4.309396	-154.684362	-26.882902	5.165090	-26.882902	5.165090	-0.579155	-138.405485
9.950000	-4.896029	-139.895319	-25.968363	-17.374771	-25.968363	-17.374771	-0.551002	-139.262366
10.000000	-3.447822	-131.287295	-26.563366	-37.261647	-26.563366	-37.261647	-0.530739	-140.199526
