! freq	dB(S11)	phase(S11)	dB(S12)	phase(S12)	
!     	dB(S21)	phase(S21)	dB(S22)	phase(S22)	
!S-par simulation data
#  GHz  S  DB  R 50
0.000000	-0.000000	-0.000000	-292.061877	180.000000	-292.061877	180.000000	0.000000	-0.000000
0.050000	-0.000844	-1.420488	-81.480681	88.516476	-81.480681	88.516476	-0.000845	-1.421067
0.100000	-0.002960	-2.835685	-75.469401	87.061947	-75.469401	87.061947	-0.002962	-2.836816
0.150000	-0.005594	-4.244177	-71.958360	85.638584	-71.958360	85.638584	-0.005595	-4.245836
0.200000	-0.008194	-5.647320	-69.470296	84.235771	-69.470296	84.235771	-0.008192	-5.649502
0.250000	-0.010578	-7.047533	-67.541957	82.842916	-67.541957	82.842916	-0.010572	-7.050240
0.300000	-0.012708	-8.445874	-65.967988	81.456409	-65.967988	81.456409	-0.012700	-8.449111
0.350000	-0.014622	-9.843011	-64.638826	80.074548	-64.638826	80.074548	-0.014611	-9.846782
0.400000	-0.016370	-11.239171	-63.489147	78.697112	-63.489147	78.697112	-0.016360	-11.243479
0.450000	-0.017997	-12.634252	-62.477050	77.324990	-62.477050	77.324990	-0.017987	-12.639097
0.500000	-0.019554	-14.028216	-61.573384	75.958407	-61.573384	75.958407	-0.019546	-14.033599
0.550000	-0.021069	-15.420894	-60.757566	74.598115	-60.757566	74.598115	-0.021063	-15.426811
0.600000	-0.022564	-16.812105	-60.014368	73.244879	-60.014368	73.244879	-0.022560	-16.818551
0.650000	-0.024052	-18.201670	-59.332197	71.899452	-59.332197	71.899452	-0.024052	-18.208640
0.700000	-0.025546	-19.589417	-58.702015	70.562567	-58.702015	70.562567	-0.025548	-19.596906
0.750000	-0.027052	-20.975053	-58.116757	69.235539	-58.116757	69.235539	-0.027057	-20.983053
0.800000	-0.028577	-22.358417	-57.570553	67.919087	-57.570553	67.919087	-0.028584	-22.366919
0.850000	-0.030123	-23.739406	-57.058531	66.613672	-57.058531	66.613672	-0.030132	-23.748401
0.900000	-0.031689	-25.118061	-56.576566	65.319085	-56.576566	65.319085	-0.031700	-25.127542
0.950000	-0.033277	-26.494117	-56.121384	64.036559	-56.121384	64.036559	-0.033290	-26.504074
1.000000	-0.034886	-27.867452	-55.690092	62.766658	-55.690092	62.766658	-0.034900	-27.877874
1.050000	-0.036514	-29.237948	-55.280192	61.509908	-55.280192	61.509908	-0.036530	-29.248826
1.100000	-0.038161	-30.605496	-54.889504	60.266795	-54.889504	60.266795	-0.038177	-30.616820
1.150000	-0.039824	-31.969995	-54.516110	59.037760	-54.516110	59.037760	-0.039840	-31.981754
1.200000	-0.041500	-33.331347	-54.158310	57.823195	-54.158310	57.823195	-0.041517	-33.343530
1.250000	-0.043188	-34.689460	-53.814581	56.623443	-53.814581	56.623443	-0.043205	-34.702057
1.300000	-0.044885	-36.044100	-53.483518	55.439462	-53.483518	55.439462	-0.044901	-36.057099
1.350000	-0.046588	-37.395329	-53.163878	54.270829	-53.163878	54.270829	-0.046604	-37.408719
1.400000	-0.048297	-38.743071	-52.854521	53.117705	-52.854521	53.117705	-0.048312	-38.756840
1.450000	-0.050007	-40.087255	-52.554401	51.980186	-52.554401	51.980186	-0.050021	-40.101393
1.500000	-0.051717	-41.427817	-52.262549	50.858297	-52.262549	50.858297	-0.051730	-41.442312
1.550000	-0.053426	-42.764695	-51.978064	49.751992	-51.978064	49.751992	-0.053438	-42.779536
1.600000	-0.055132	-44.097833	-51.700106	48.661149	-51.700106	48.661149	-0.055142	-44.113007
1.650000	-0.056834	-45.427177	-51.427885	47.585565	-51.427885	47.585565	-0.056841	-45.442672
1.700000	-0.058529	-46.752679	-51.160659	46.524960	-51.160659	46.524960	-0.058535	-46.768484
1.750000	-0.060218	-48.074294	-50.897725	45.478965	-50.897725	45.478965	-0.060221	-48.090397
1.800000	-0.061898	-49.391983	-50.638417	44.447130	-50.638417	44.447130	-0.061900	-49.408371
1.850000	-0.063571	-50.705707	-50.382102	43.428916	-50.382102	43.428916	-0.063570	-50.722369
1.900000	-0.065234	-52.015435	-50.128178	42.423697	-50.128178	42.423697	-0.065231	-52.032357
1.950000	-0.066888	-53.321136	-49.876070	41.430758	-49.876070	41.430758	-0.066882	-53.338307
2.000000	-0.068532	-54.622785	-49.625227	40.449301	-49.625227	40.449301	-0.068524	-54.640191
2.050000	-0.070168	-55.920360	-49.375125	39.478440	-49.375125	39.478440	-0.070157	-55.937989
2.100000	-0.071794	-57.213842	-49.125260	38.517205	-49.125260	38.517205	-0.071781	-57.231680
2.150000	-0.073411	-58.503217	-48.875150	37.564549	-48.875150	37.564549	-0.073396	-58.521250
2.200000	-0.075020	-59.788472	-48.624334	36.619345	-48.624334	36.619345	-0.075003	-59.806688
2.250000	-0.076621	-61.069600	-48.372371	35.680396	-48.372371	35.680396	-0.076603	-61.087986
2.300000	-0.078216	-62.346597	-48.118836	34.746439	-48.118836	34.746439	-0.078195	-62.365139
2.350000	-0.079804	-63.619463	-47.863324	33.816148	-47.863324	33.816148	-0.079782	-63.638146
2.400000	-0.081387	-64.888200	-47.605446	32.888144	-47.605446	32.888144	-0.081363	-64.907011
2.450000	-0.082966	-66.152815	-47.344829	31.961000	-47.344829	31.961000	-0.082941	-66.171741
2.500000	-0.084542	-67.413320	-47.081114	31.033251	-47.081114	31.033251	-0.084516	-67.432346
2.550000	-0.086117	-68.669553	-46.813428	30.103234	-46.813428	30.103234	-0.086089	-68.688663
2.600000	-0.087691	-69.921711	-46.541914	29.169450	-46.541914	29.169450	-0.087662	-69.940892
2.650000	-0.089266	-71.169819	-46.266251	28.230358	-46.266251	28.230358	-0.089236	-71.189057
2.700000	-0.090844	-72.413905	-45.986123	27.284413	-45.986123	27.284413	-0.090813	-72.433185
2.750000	-0.092426	-73.654004	-45.701225	26.330069	-45.701225	26.330069	-0.092395	-73.673312
2.800000	-0.094013	-74.890154	-45.411255	25.365786	-45.411255	25.365786	-0.093981	-74.909475
2.850000	-0.095607	-76.122399	-45.115914	24.390042	-45.115914	24.390042	-0.095575	-76.141718
2.900000	-0.097210	-77.350789	-44.814905	23.401333	-44.814905	23.401333	-0.097178	-77.370092
2.950000	-0.098824	-78.575380	-44.507927	22.398181	-44.507927	22.398181	-0.098792	-78.594654
3.000000	-0.100449	-79.796236	-44.194673	21.379140	-44.194673	21.379140	-0.100417	-79.815465
3.050000	-0.102088	-81.013428	-43.874831	20.342794	-43.874831	20.342794	-0.102057	-81.032598
3.100000	-0.103743	-82.227033	-43.548072	19.287765	-43.548072	19.287765	-0.103712	-82.246130
3.150000	-0.105416	-83.437140	-43.214052	18.212711	-43.214052	18.212711	-0.105385	-83.456150
3.200000	-0.107109	-84.643847	-42.872409	17.116327	-42.872409	17.116327	-0.107078	-84.662757
3.250000	-0.108823	-85.847263	-42.522751	15.997343	-42.522751	15.997343	-0.108793	-85.866059
3.300000	-0.110561	-87.047511	-42.164657	14.854522	-42.164657	14.854522	-0.110532	-87.066179
3.350000	-0.112326	-88.244807	-41.798425	13.687425	-41.798425	13.687425	-0.112297	-88.263336
3.400000	-0.114120	-89.439099	-41.421757	12.493005	-41.421757	12.493005	-0.114092	-89.457475
3.450000	-0.115946	-90.630727	-41.035547	11.271596	-41.035547	11.271596	-0.115919	-90.648939
3.500000	-0.117807	-91.819876	-40.639242	10.022081	-40.639242	10.022081	-0.117780	-91.837911
3.550000	-0.119707	-93.006756	-40.232229	8.743335	-40.232229	8.743335	-0.119680	-93.024603
3.600000	-0.121654	-94.191407	-39.810192	7.430729	-39.810192	7.430729	-0.121628	-94.209055
3.650000	-0.123649	-95.374344	-39.375418	6.086123	-39.375418	6.086123	-0.123624	-95.391785
3.700000	-0.125698	-96.555900	-38.927192	4.708444	-38.927192	4.708444	-0.125673	-96.573124
3.750000	-0.127808	-97.736443	-38.464495	3.296341	-38.464495	3.296341	-0.127783	-97.753442
3.800000	-0.129987	-98.916399	-37.986170	1.848339	-37.986170	1.848339	-0.129962	-98.933167
3.850000	-0.132244	-100.096268	-37.490908	0.362797	-37.490908	0.362797	-0.132219	-100.112800
3.900000	-0.134596	-101.276689	-36.974972	-1.163936	-36.974972	-1.163936	-0.134572	-101.292981
3.950000	-0.137065	-102.458515	-36.434445	-2.735644	-36.434445	-2.735644	-0.137041	-102.474565
4.000000	-0.139666	-103.642582	-35.870792	-4.352054	-35.870792	-4.352054	-0.139641	-103.658391
4.050000	-0.142406	-104.829530	-35.288091	-6.011524	-35.288091	-6.011524	-0.142381	-104.845102
4.100000	-0.145360	-106.021565	-34.668691	-7.728838	-34.668691	-7.728838	-0.145336	-106.036908
4.150000	-0.148557	-107.219923	-34.017045	-9.502994	-34.017045	-9.502994	-0.148533	-107.235049
4.200000	-0.152061	-108.426687	-33.329015	-11.340194	-33.329015	-11.340194	-0.152038	-108.441613
4.250000	-0.155988	-109.645186	-32.594484	-13.252152	-32.594484	-13.252152	-0.155966	-109.659939
4.300000	-0.160466	-110.878834	-31.809794	-15.247890	-31.809794	-15.247890	-0.160445	-110.893449
4.350000	-0.165686	-112.132324	-30.968298	-17.341226	-30.968298	-17.341226	-0.165668	-112.146850
4.400000	-0.171978	-113.413005	-30.056230	-19.555525	-30.056230	-19.555525	-0.171965	-113.427512
4.450000	-0.179844	-114.730849	-29.059148	-21.921728	-29.059148	-21.921728	-0.179839	-114.745432
4.500000	-0.190142	-116.100889	-27.956471	-24.487207	-27.956471	-24.487207	-0.190149	-116.115685
4.550000	-0.204289	-117.544529	-26.726088	-27.319838	-26.726088	-27.319838	-0.204316	-117.559734
4.600000	-0.225120	-119.098996	-25.326437	-30.541594	-25.326437	-30.541594	-0.225180	-119.114913
4.650000	-0.258332	-120.825426	-23.703761	-34.358802	-23.703761	-34.358802	-0.258452	-120.842531
4.700000	-0.317148	-122.835682	-21.772479	-39.171212	-21.772479	-39.171212	-0.317384	-122.854780
4.750000	-0.437472	-125.346378	-19.393612	-45.847922	-19.393612	-45.847922	-0.437966	-125.368951
4.800000	-0.740167	-128.752069	-16.350205	-56.598500	-16.350205	-56.598500	-0.741358	-128.781068
4.850000	-1.731392	-132.699320	-12.512505	-78.027957	-12.512505	-78.027957	-1.735204	-132.738962
4.900000	-3.638899	-121.998518	-9.962850	-123.088880	-9.962850	-123.088880	-3.649616	-122.003216
4.950000	-1.731116	-112.236344	-12.635685	-166.340458	-12.635685	-166.340458	-1.735269	-112.206333
5.000000	-0.797852	-115.898997	-16.244903	173.441360	-16.244903	173.441360	-0.799398	-115.877511
5.050000	-0.500073	-119.099249	-19.042215	163.051226	-19.042215	163.051226	-0.500836	-119.083307
5.100000	-0.377968	-121.500511	-21.197569	156.415934	-21.197569	156.415934	-0.378406	-121.487606
5.150000	-0.318057	-123.439520	-22.918895	151.505501	-22.918895	151.505501	-0.318328	-123.428313
5.200000	-0.285119	-125.108299	-24.336731	147.509842	-24.336731	147.509842	-0.285292	-125.098031
5.250000	-0.265593	-126.609974	-25.535433	144.047065	-25.535433	144.047065	-0.265702	-126.600177
5.300000	-0.253452	-128.002451	-26.571253	140.916683	-26.571253	140.916683	-0.253515	-127.992820
5.350000	-0.245805	-129.318217	-27.476576	138.009954	-27.476576	138.009954	-0.245834	-129.308537
5.400000	-0.240997	-130.579087	-28.278750	135.256443	-28.278750	135.256443	-0.240999	-130.569201
5.450000	-0.238111	-131.798488	-28.994506	132.613527	-28.994506	132.613527	-0.238092	-131.788276
5.500000	-0.236516	-132.987277	-29.643163	130.048585	-29.643163	130.048585	-0.236478	-132.976647
5.550000	-0.235885	-134.151215	-30.231911	127.544076	-30.231911	127.544076	-0.235831	-134.140092
5.600000	-0.235970	-135.295194	-30.769203	125.085868	-30.769203	125.085868	-0.235901	-135.283515
5.650000	-0.236661	-136.420960	-31.252688	122.667894	-31.252688	122.667894	-0.236580	-136.408664
5.700000	-0.237711	-137.535261	-31.706628	120.274284	-31.706628	120.274284	-0.237618	-137.522309
5.750000	-0.239103	-138.638133	-32.125726	117.904400	-32.125726	117.904400	-0.238999	-138.624485
5.800000	-0.240773	-139.731282	-32.513716	115.554359	-32.513716	115.554359	-0.240659	-139.716900
5.850000	-0.242674	-140.816074	-32.873733	113.221355	-32.873733	113.221355	-0.242551	-140.800924
5.900000	-0.244768	-141.893623	-33.208436	110.903394	-33.208436	110.903394	-0.244636	-141.877675
5.950000	-0.247027	-142.964848	-33.520100	108.599103	-33.520100	108.599103	-0.246886	-142.948073
6.000000	-0.249429	-144.030517	-33.810685	106.307589	-33.810685	106.307589	-0.249280	-144.012887
6.050000	-0.251957	-145.091280	-34.081897	104.028333	-34.081897	104.028333	-0.251800	-145.072769
6.100000	-0.254596	-146.147692	-34.335229	101.761113	-34.335229	101.761113	-0.254431	-146.128276
6.150000	-0.257335	-147.200236	-34.571996	99.505939	-34.571996	99.505939	-0.257163	-147.179890
6.200000	-0.260165	-148.249329	-34.793365	97.263007	-34.793365	97.263007	-0.259985	-148.228030
6.250000	-0.263078	-149.295343	-35.000377	95.032662	-35.000377	95.032662	-0.262892	-149.273069
6.300000	-0.266071	-150.338501	-35.193248	92.815956	-35.193248	92.815956	-0.265878	-150.315228
6.350000	-0.269136	-151.379229	-35.373653	90.612906	-35.373653	90.612906	-0.268937	-151.354934
6.400000	-0.272268	-152.417790	-35.542338	88.424144	-35.542338	88.424144	-0.272063	-152.392451
6.450000	-0.275464	-153.454426	-35.699981	86.250355	-35.699981	86.250355	-0.275253	-153.428022
6.500000	-0.278721	-154.489358	-35.847208	84.092261	-35.847208	84.092261	-0.278505	-154.461867
6.550000	-0.282037	-155.522793	-35.984592	81.950617	-35.984592	81.950617	-0.281815	-155.494193
6.600000	-0.285409	-156.554920	-36.112663	79.826194	-36.112663	79.826194	-0.285181	-156.525190
6.650000	-0.288835	-157.585920	-36.231914	77.719776	-36.231914	77.719776	-0.288603	-157.555038
6.700000	-0.292315	-158.615962	-36.342801	75.632156	-36.342801	75.632156	-0.292078	-158.583906
6.750000	-0.295846	-159.645206	-36.445748	73.564125	-36.445748	73.564125	-0.295604	-159.611953
6.800000	-0.299428	-160.673804	-36.541154	71.516474	-36.541154	71.516474	-0.299182	-160.639333
6.850000	-0.303061	-161.701901	-36.629390	69.489988	-36.629390	69.489988	-0.302810	-161.666191
6.900000	-0.306742	-162.729639	-36.710803	67.485442	-36.710803	67.485442	-0.306486	-162.692666
6.950000	-0.310471	-163.757152	-36.785721	65.503606	-36.785721	65.503606	-0.310212	-163.718894
7.000000	-0.314249	-164.784570	-36.854447	63.545238	-36.854447	63.545238	-0.313985	-164.745005
7.050000	-0.318073	-165.812020	-36.917271	61.611086	-36.917271	61.611086	-0.317806	-165.771124
7.100000	-0.321945	-166.839626	-36.974459	59.701889	-36.974459	59.701889	-0.321673	-166.797377
7.150000	-0.325863	-167.867508	-37.026266	57.818375	-37.026266	57.818375	-0.325588	-167.823881
7.200000	-0.329828	-168.895783	-37.072926	55.961267	-37.072926	55.961267	-0.329548	-168.850757
7.250000	-0.333838	-169.924569	-37.114659	54.131280	-37.114659	54.131280	-0.333555	-169.878118
7.300000	-0.337895	-170.953978	-37.151671	52.329122	-37.151671	52.329122	-0.337608	-170.906080
7.350000	-0.341997	-171.984123	-37.184150	50.555501	-37.184150	50.555501	-0.341706	-171.934753
7.400000	-0.346144	-173.015116	-37.212272	48.811123	-37.212272	48.811123	-0.345850	-172.964250
7.450000	-0.350337	-174.047066	-37.236198	47.096695	-37.236198	47.096695	-0.350039	-173.994679
7.500000	-0.354575	-175.080082	-37.256072	45.412927	-37.256072	45.412927	-0.354272	-175.026150
7.550000	-0.358859	-176.114330	-37.271860	43.761935	-37.271860	43.761935	-0.358553	-176.058827
7.600000	-0.363189	-177.149870	-37.283852	42.143112	-37.283852	42.143112	-0.362878	-177.092771
7.650000	-0.367563	-178.186810	-37.292148	40.557195	-37.292148	40.557195	-0.367248	-178.128091
7.700000	-0.371982	-179.225258	-37.296828	39.004935	-37.296828	39.004935	-0.371663	-179.164893
7.750000	-0.376445	179.734678	-37.297957	37.487094	-37.297957	37.487094	-0.376121	179.796715
7.800000	-0.380952	178.692891	-37.295585	36.004453	-37.295585	36.004453	-0.380624	178.756625
7.850000	-0.385503	177.649273	-37.289742	34.557808	-37.289742	34.557808	-0.385170	177.714729
7.900000	-0.390099	176.603715	-37.280440	33.147970	-37.280440	33.147970	-0.389761	176.670919
7.950000	-0.394738	175.556107	-37.267670	31.775767	-37.267670	31.775767	-0.394395	175.625086
8.000000	-0.399421	174.506340	-37.251406	30.442042	-37.251406	30.442042	-0.399073	174.577118
8.050000	-0.404148	173.454302	-37.231596	29.147646	-37.231596	29.147646	-0.403794	173.526906
8.100000	-0.408918	172.399882	-37.208167	27.893442	-37.208167	27.893442	-0.408558	172.474338
8.150000	-0.413732	171.342965	-37.181021	26.680290	-37.181021	26.680290	-0.413366	171.419299
8.200000	-0.418589	170.283437	-37.150035	25.509049	-37.150035	25.509049	-0.418216	170.361675
8.250000	-0.423489	169.221181	-37.115056	24.380562	-37.115056	24.380562	-0.423110	169.301349
8.300000	-0.428433	168.156080	-37.075906	23.295645	-37.075906	23.295645	-0.428047	168.238204
8.350000	-0.433418	167.088103	-37.032517	22.253765	-37.032517	22.253765	-0.433026	167.172210
8.400000	-0.438449	166.016909	-36.984306	21.258854	-36.984306	21.258854	-0.438050	166.103026
8.450000	-0.443523	164.942552	-36.931277	20.308958	-36.931277	20.308958	-0.443117	165.030704
8.500000	-0.448641	163.864910	-36.873138	19.404608	-36.873138	19.404608	-0.448227	163.955124
8.550000	-0.453802	162.783858	-36.809566	18.546220	-36.809566	18.546220	-0.453381	162.876160
8.600000	-0.459012	161.698866	-36.739462	17.739200	-36.739462	17.739200	-0.458584	161.793286
8.650000	-0.464266	160.610160	-36.663044	16.978817	-36.663044	16.978817	-0.463831	160.706724
8.700000	-0.469567	159.517627	-36.579930	16.264655	-36.579930	16.264655	-0.469125	159.616363
8.750000	-0.474914	158.421132	-36.489672	15.596352	-36.489672	15.596352	-0.474465	158.522067
8.800000	-0.480309	157.320536	-36.391798	14.973281	-36.391798	14.973281	-0.479853	157.423696
8.850000	-0.485753	156.215693	-36.285819	14.394526	-36.285819	14.394526	-0.485290	156.321108
8.900000	-0.491251	155.106262	-36.170767	13.860627	-36.170767	13.860627	-0.490781	155.213960
8.950000	-0.496805	153.991929	-36.045691	13.370989	-36.045691	13.370989	-0.496329	154.101942
9.000000	-0.502415	152.872863	-35.910821	12.920403	-35.910821	12.920403	-0.501933	152.985221
9.050000	-0.508084	151.748901	-35.765650	12.506433	-35.765650	12.506433	-0.507596	151.863635
9.100000	-0.513814	150.619879	-35.609691	12.126257	-35.609691	12.126257	-0.513322	150.737019
9.150000	-0.519610	149.485625	-35.442485	11.776680	-35.442485	11.776680	-0.519114	149.605204
9.200000	-0.525476	148.345961	-35.263614	11.454154	-35.263614	11.454154	-0.524976	148.468013
9.250000	-0.531424	147.200175	-35.071158	11.156551	-35.071158	11.156551	-0.530921	147.324738
9.300000	-0.537456	146.048433	-34.865796	10.877635	-34.865796	10.877635	-0.536950	146.175544
9.350000	-0.543575	144.890677	-34.647688	10.612452	-34.647688	10.612452	-0.543068	145.020374
9.400000	-0.549791	143.726705	-34.416671	10.356491	-34.416671	10.356491	-0.549282	143.859029
9.450000	-0.556110	142.556310	-34.172663	10.105217	-34.172663	10.105217	-0.555601	142.691303
9.500000	-0.562543	141.379276	-33.915659	9.854163	-33.915659	9.854163	-0.562034	141.516984
9.550000	-0.569103	140.195208	-33.645200	9.598823	-33.645200	9.598823	-0.568595	140.335679
9.600000	-0.575812	139.003368	-33.359904	9.334137	-33.359904	9.334137	-0.575305	139.146657
9.650000	-0.582674	137.804153	-33.061946	9.057011	-33.061946	9.057011	-0.582168	137.950315
9.700000	-0.589703	136.597319	-32.751607	8.764392	-32.751607	8.764392	-0.589199	136.746411
9.750000	-0.596945	135.381405	-32.425611	8.450806	-32.425611	8.450806	-0.596442	135.533499
9.800000	-0.604340	134.159417	-32.094032	8.122462	-32.094032	8.122462	-0.603838	134.314562
9.850000	-0.611995	132.927570	-31.746894	7.769509	-31.746894	7.769509	-0.611493	133.085848
9.900000	-0.619928	131.686087	-31.385967	7.393074	-31.385967	7.393074	-0.619424	131.847581
9.950000	-0.628103	130.436805	-31.017768	6.998817	-31.017768	6.998817	-0.627595	130.601587
10.000000	-0.636532	129.179598	-30.643103	6.587096	-30.643103	6.587096	-0.636018	129.347740
