! freq	dB(S11)	phase(S11)	dB(S12)	phase(S12)	
!     	dB(S21)	phase(S21)	dB(S22)	phase(S22)	
!S-par simulation data
#  GHz  S  DB  R 50
0.000000	-0.000000	0.000000	-351.324610	0.000000	-351.324610	0.000000	-0.000000	0.000000
0.050000	-0.001933	-2.803274	-87.532062	87.192613	-87.532062	87.192613	-0.001928	-2.803166
0.100000	-0.006352	-5.589864	-81.548033	84.497699	-81.548033	84.497699	-0.006345	-5.589733
0.150000	-0.011177	-8.358071	-78.085795	81.791849	-78.085795	81.791849	-0.011181	-8.357919
0.200000	-0.015538	-11.113184	-75.668569	79.098085	-75.668569	79.098085	-0.015558	-11.112960
0.250000	-0.019358	-13.858469	-73.836222	76.426898	-73.836222	76.426898	-0.019395	-13.858130
0.300000	-0.022814	-16.595008	-72.383856	73.787013	-72.383856	73.787013	-0.022860	-16.594536
0.350000	-0.026081	-19.322768	-71.199630	71.185244	-71.199630	71.185244	-0.026133	-19.322166
0.400000	-0.029265	-22.040729	-70.218917	68.629928	-70.218917	68.629928	-0.029319	-22.040012
0.450000	-0.032428	-24.747122	-69.403115	66.132798	-69.403115	66.132798	-0.032480	-24.746308
0.500000	-0.035598	-27.441200	-68.720444	63.701058	-68.720444	63.701058	-0.035646	-27.440309
0.550000	-0.038782	-30.121718	-68.151106	61.345530	-68.151106	61.345530	-0.038824	-30.120767
0.600000	-0.041977	-32.786721	-67.683988	59.083311	-67.683988	59.083311	-0.042011	-32.785724
0.650000	-0.045169	-35.435548	-67.305972	56.926185	-67.305972	56.926185	-0.045196	-35.434514
0.700000	-0.048344	-38.067292	-67.008429	54.889758	-67.008429	54.889758	-0.048363	-38.066227
0.750000	-0.051487	-40.680375	-66.787411	52.998367	-66.787411	52.998367	-0.051499	-40.679280
0.800000	-0.054582	-43.273860	-66.638087	51.276467	-66.638087	51.276467	-0.054586	-43.272732
0.850000	-0.057617	-45.847099	-66.556026	49.751294	-66.556026	49.751294	-0.057614	-45.845932
0.900000	-0.060579	-48.399347	-66.538152	48.457228	-66.538152	48.457228	-0.060570	-48.398132
0.950000	-0.063460	-50.929798	-66.582159	47.437513	-66.582159	47.437513	-0.063446	-50.928524
1.000000	-0.066253	-53.437796	-66.685404	46.743975	-66.685404	46.743975	-0.066235	-53.436449
1.050000	-0.068953	-55.922762	-66.844637	46.439682	-66.844637	46.439682	-0.068932	-55.921328
1.100000	-0.071557	-58.384184	-67.055228	46.600840	-67.055228	46.600840	-0.071533	-58.382648
1.150000	-0.074064	-60.821624	-67.310060	47.317926	-67.310060	47.317926	-0.074038	-60.819970
1.200000	-0.076474	-63.234707	-67.597945	48.694656	-67.597945	48.694656	-0.076447	-63.232921
1.250000	-0.078788	-65.623126	-67.901535	50.842139	-67.901535	50.842139	-0.078762	-65.621194
1.300000	-0.081009	-67.986087	-68.193687	53.884597	-68.193687	53.884597	-0.080983	-67.983994
1.350000	-0.083140	-70.323942	-68.437437	57.867561	-68.437437	57.867561	-0.083115	-70.321675
1.400000	-0.085186	-72.636562	-68.586637	62.766917	-68.586637	62.766917	-0.085163	-72.634110
1.450000	-0.087153	-74.923871	-68.592251	68.424179	-68.592251	68.424179	-0.087132	-74.921222
1.500000	-0.089044	-77.185842	-68.414831	74.529253	-68.414831	74.529253	-0.089026	-77.182987
1.550000	-0.090866	-79.422492	-68.038319	80.667051	-68.038319	80.667051	-0.090850	-79.419423
1.600000	-0.092622	-81.633885	-67.476314	86.421247	-67.476314	86.421247	-0.092609	-81.630594
1.650000	-0.094319	-83.820122	-66.765977	91.478282	-66.765977	91.478282	-0.094308	-83.816603
1.700000	-0.095962	-85.981343	-65.954309	95.674949	-65.954309	95.674949	-0.095953	-85.977591
1.750000	-0.097554	-88.117722	-65.085615	98.982525	-65.085615	98.982525	-0.097549	-88.113732
1.800000	-0.099102	-90.229464	-64.194935	101.459669	-64.194935	101.459669	-0.099099	-90.225233
1.850000	-0.100609	-92.316803	-63.306853	103.206364	-63.306853	103.206364	-0.100608	-92.312328
1.900000	-0.102080	-94.379741	-62.436486	104.327118	-62.436486	104.327118	-0.102081	-94.375018
1.950000	-0.103518	-96.418571	-61.593407	104.928564	-61.593407	104.928564	-0.103521	-96.413600
2.000000	-0.104928	-98.433863	-60.783019	105.106798	-60.783019	105.106798	-0.104932	-98.428642
2.050000	-0.106314	-100.425943	-60.007196	104.936698	-60.007196	104.936698	-0.106319	-100.420471
2.100000	-0.107678	-102.395154	-59.266113	104.479821	-59.266113	104.479821	-0.107683	-102.389430
2.150000	-0.109023	-104.341853	-58.558949	103.786310	-58.558949	103.786310	-0.109029	-104.335877
2.200000	-0.110352	-106.266411	-57.884334	102.896875	-57.884334	102.896875	-0.110359	-106.260182
2.250000	-0.111668	-108.169210	-57.240624	101.844581	-57.240624	101.844581	-0.111675	-108.162727
2.300000	-0.112973	-110.049736	-56.625476	100.651717	-56.625476	100.651717	-0.112979	-110.042999
2.350000	-0.114269	-111.910439	-56.038547	99.351289	-56.038547	99.351289	-0.114274	-111.903447
2.400000	-0.115559	-113.750570	-55.477290	97.954564	-55.477290	97.954564	-0.115563	-113.743323
2.450000	-0.116843	-115.570542	-54.940113	96.476570	-54.940113	96.476570	-0.116846	-115.563038
2.500000	-0.118124	-117.370769	-54.425520	94.929772	-54.425520	94.929772	-0.118125	-117.363008
2.550000	-0.119403	-119.150850	-53.931821	93.322428	-53.931821	93.322428	-0.119402	-119.142831
2.600000	-0.120681	-120.912064	-53.458115	91.666034	-53.458115	91.666034	-0.120678	-120.903786
2.650000	-0.121960	-122.654833	-53.003204	89.967777	-53.003204	89.967777	-0.121955	-122.646293
2.700000	-0.123240	-124.379578	-52.565989	88.233756	-52.565989	88.233756	-0.123233	-124.370776
2.750000	-0.124524	-126.086722	-52.145460	86.469178	-52.145460	86.469178	-0.124514	-126.077655
2.800000	-0.125811	-127.776683	-51.740688	84.678503	-51.740688	84.678503	-0.125799	-127.767349
2.850000	-0.127103	-129.449879	-51.350822	82.865577	-51.350822	82.865577	-0.127089	-129.440277
2.900000	-0.128401	-131.106726	-50.975077	81.033722	-50.975077	81.033722	-0.128384	-131.096852
2.950000	-0.129705	-132.747636	-50.612731	79.185831	-50.612731	79.185831	-0.129685	-132.737487
3.000000	-0.131016	-134.373016	-50.263117	77.324424	-50.263117	77.324424	-0.130993	-134.362591
3.050000	-0.132335	-135.983273	-49.925619	75.451714	-49.925619	75.451714	-0.132309	-135.972567
3.100000	-0.133662	-137.578805	-49.599667	73.569646	-49.599667	73.569646	-0.133634	-137.567816
3.150000	-0.134998	-139.160010	-49.284730	71.679939	-49.284730	71.679939	-0.134967	-139.148734
3.200000	-0.136344	-140.727278	-48.980317	69.784116	-48.980317	69.784116	-0.136310	-140.715711
3.250000	-0.137699	-142.280994	-48.685969	67.883535	-48.685969	67.883535	-0.137663	-142.269132
3.300000	-0.139066	-143.821539	-48.401258	65.979403	-48.401258	65.979403	-0.139027	-143.809379
3.350000	-0.140443	-145.349288	-48.125782	64.072803	-48.125782	64.072803	-0.140402	-145.336826
3.400000	-0.141832	-146.864611	-47.859168	62.164704	-47.859168	62.164704	-0.141789	-146.851842
3.450000	-0.143233	-148.367871	-47.601062	60.255979	-47.601062	60.255979	-0.143187	-148.354791
3.500000	-0.144647	-149.859427	-47.351132	58.347409	-47.351132	58.347409	-0.144599	-149.846032
3.550000	-0.146073	-151.339629	-47.109067	56.439699	-47.109067	56.439699	-0.146023	-151.325915
3.600000	-0.147512	-152.808826	-46.874569	54.533484	-46.874569	54.533484	-0.147460	-152.794787
3.650000	-0.148965	-154.267356	-46.647360	52.629333	-46.647360	52.629333	-0.148912	-154.252988
3.700000	-0.150433	-155.715554	-46.427175	50.727759	-46.427175	50.727759	-0.150377	-155.700853
3.750000	-0.151914	-157.153748	-46.213762	48.829219	-46.213762	48.829219	-0.151857	-157.138709
3.800000	-0.153411	-158.581855	-46.006951	46.934290	-46.006951	46.934290	-0.153352	-158.566473
3.850000	-0.154922	-160.000626	-45.806453	45.043198	-45.806453	45.043198	-0.154862	-159.984896
3.900000	-0.156449	-161.410369	-45.612051	43.156259	-45.612051	43.156259	-0.156388	-161.394287
3.950000	-0.157992	-162.811390	-45.423540	41.273749	-45.423540	41.273749	-0.157929	-162.794951
4.000000	-0.159550	-164.203986	-45.240721	39.395908	-45.240721	39.395908	-0.159486	-164.187185
4.050000	-0.161124	-165.588450	-45.063407	37.522944	-45.063407	37.522944	-0.161060	-165.571282
4.100000	-0.162715	-166.965069	-44.891419	35.655028	-44.891419	35.655028	-0.162649	-166.947530
4.150000	-0.164322	-168.334124	-44.724587	33.792305	-44.724587	33.792305	-0.164256	-168.316209
4.200000	-0.165945	-169.695891	-44.562748	31.934888	-44.562748	31.934888	-0.165879	-169.677595
4.250000	-0.167586	-171.050641	-44.405748	30.082866	-44.405748	30.082866	-0.167519	-171.031960
4.300000	-0.169243	-172.398638	-44.253438	28.236299	-44.253438	28.236299	-0.169176	-172.379567
4.350000	-0.170918	-173.740143	-44.105679	26.395227	-44.105679	26.395227	-0.170850	-173.720677
4.400000	-0.172609	-175.075410	-43.962337	24.559665	-43.962337	24.559665	-0.172541	-175.055545
4.450000	-0.174318	-176.404689	-43.823286	22.729608	-43.823286	22.729608	-0.174250	-176.384421
4.500000	-0.176044	-177.728225	-43.688406	20.905032	-43.688406	20.905032	-0.175976	-177.707550
4.550000	-0.177788	-179.046258	-43.557583	19.085896	-43.557583	19.085896	-0.177719	-179.025171
4.600000	-0.179548	179.640977	-43.430710	17.272141	-43.430710	17.272141	-0.179480	179.662481
4.650000	-0.181327	178.333250	-43.307687	15.463695	-43.307687	15.463695	-0.181258	178.355174
4.700000	-0.183122	177.030334	-43.188418	13.660472	-43.188418	13.660472	-0.183054	177.052683
4.750000	-0.184935	175.732010	-43.072814	11.862374	-43.072814	11.862374	-0.184867	175.754786
4.800000	-0.186764	174.438058	-42.960792	10.069292	-42.960792	10.069292	-0.186697	174.461267
4.850000	-0.188611	173.148268	-42.852274	8.281111	-42.852274	8.281111	-0.188543	173.171913
4.900000	-0.190475	171.862430	-42.747188	6.497707	-42.747188	6.497707	-0.190407	171.886516
4.950000	-0.192355	170.580342	-42.645468	4.718950	-42.645468	4.718950	-0.192288	170.604871
5.000000	-0.194252	169.301801	-42.547054	2.944706	-42.547054	2.944706	-0.194185	169.326778
5.050000	-0.196165	168.026750	-42.451983	1.175023	-42.451983	1.175023	-0.196099	168.052178
5.100000	-0.198095	166.754843	-42.360113	-0.590433	-42.360113	-0.590433	-0.198028	166.780724
5.150000	-0.200040	165.485891	-42.271398	-2.351799	-42.271398	-2.351799	-0.199974	165.512230
5.200000	-0.202001	164.219711	-42.185797	-4.109211	-42.185797	-4.109211	-0.201935	164.246512
5.250000	-0.203976	162.956123	-42.103275	-5.862798	-42.103275	-5.862798	-0.203911	162.983388
5.300000	-0.205967	161.694950	-42.023800	-7.612688	-42.023800	-7.612688	-0.205901	161.722682
5.350000	-0.207971	160.436019	-41.947347	-9.359002	-41.947347	-9.359002	-0.207906	160.464221
5.400000	-0.209990	159.179161	-41.873892	-11.101850	-41.873892	-11.101850	-0.209925	159.207836
5.450000	-0.212021	157.924209	-41.803419	-12.841339	-41.803419	-12.841339	-0.211957	157.953360
5.500000	-0.214066	156.671001	-41.735912	-14.577559	-41.735912	-14.577559	-0.214001	156.700631
5.550000	-0.216123	155.419377	-41.671362	-16.310594	-41.671362	-16.310594	-0.216059	155.449489
5.600000	-0.218192	154.169182	-41.609762	-18.040513	-41.609762	-18.040513	-0.218128	154.199778
5.650000	-0.220273	152.920263	-41.551110	-19.767370	-41.551110	-19.767370	-0.220208	152.951346
5.700000	-0.222364	151.672470	-41.495405	-21.491207	-41.495405	-21.491207	-0.222299	151.704043
5.750000	-0.224465	150.425657	-41.442650	-23.212048	-41.442650	-23.212048	-0.224401	150.457721
5.800000	-0.226576	149.179680	-41.392853	-24.929900	-41.392853	-24.929900	-0.226512	149.212238
5.850000	-0.228696	147.934399	-41.346021	-26.644754	-41.346021	-26.644754	-0.228631	147.967454
5.900000	-0.230824	146.689676	-41.302167	-28.356582	-41.302167	-28.356582	-0.230759	146.723230
5.950000	-0.232959	145.445379	-41.261303	-30.065337	-41.261303	-30.065337	-0.232895	145.479434
6.000000	-0.235102	144.201374	-41.223446	-31.770951	-41.223446	-31.770951	-0.235037	144.235932
6.050000	-0.237250	142.957534	-41.188611	-33.473337	-41.188611	-33.473337	-0.237185	142.992598
6.100000	-0.239404	141.713733	-41.156819	-35.172388	-41.156819	-35.172388	-0.239339	141.749305
6.150000	-0.241563	140.469849	-41.128089	-36.867975	-41.128089	-36.867975	-0.241497	140.505931
6.200000	-0.243725	139.225763	-41.102443	-38.559949	-41.102443	-38.559949	-0.243660	139.262356
6.250000	-0.245890	137.981356	-41.079901	-40.248140	-41.079901	-40.248140	-0.245825	138.018463
6.300000	-0.248058	136.736491	-41.060623	-41.932172	-41.060623	-41.932172	-0.247992	136.774114
6.350000	-0.250227	135.491072	-41.044498	-43.611996	-41.044498	-43.611996	-0.250161	135.529213
6.400000	-0.252397	134.244990	-41.031550	-45.287375	-41.031550	-45.287375	-0.252331	134.283651
6.450000	-0.254566	132.998140	-41.021801	-46.958055	-41.021801	-46.958055	-0.254500	133.037323
6.500000	-0.256734	131.750420	-41.015274	-48.623759	-41.015274	-48.623759	-0.256668	131.790126
6.550000	-0.258900	130.501730	-41.011990	-50.284195	-41.011990	-50.284195	-0.258834	130.541962
6.600000	-0.261064	129.251974	-41.011970	-51.939049	-41.011970	-51.939049	-0.260997	129.292734
6.650000	-0.263224	128.001057	-41.015235	-53.587992	-41.015235	-53.587992	-0.263157	128.042347
6.700000	-0.265379	126.748888	-41.021805	-55.230678	-41.021805	-55.230678	-0.265313	126.790710
6.750000	-0.267529	125.495380	-41.031698	-56.866746	-41.031698	-56.866746	-0.267463	125.537736
6.800000	-0.269673	124.240446	-41.044931	-58.495818	-41.044931	-58.495818	-0.269607	124.283339
6.850000	-0.271810	122.984004	-41.061522	-60.117507	-41.061522	-60.117507	-0.271744	123.027436
6.900000	-0.273939	121.725975	-41.081484	-61.731408	-41.081484	-61.731408	-0.273873	121.769947
6.950000	-0.276060	120.466281	-41.104831	-63.337109	-41.104831	-63.337109	-0.275994	120.510796
7.000000	-0.278171	119.204848	-41.131577	-64.934185	-41.131577	-64.934185	-0.278106	119.249909
7.050000	-0.280272	117.941606	-41.161733	-66.522203	-41.161733	-66.522203	-0.280208	117.987215
7.100000	-0.282363	116.676485	-41.195310	-68.100722	-41.195310	-68.100722	-0.282299	116.722645
7.150000	-0.284442	115.409422	-41.232315	-69.669292	-41.232315	-69.669292	-0.284378	115.456134
7.200000	-0.286508	114.140353	-41.272759	-71.227458	-41.272759	-71.227458	-0.286446	114.187621
7.250000	-0.288562	112.869219	-41.316650	-72.774757	-41.316650	-72.774757	-0.288501	112.917046
7.300000	-0.290602	111.595964	-41.363993	-74.310722	-41.363993	-74.310722	-0.290542	111.644353
7.350000	-0.292629	110.320535	-41.414797	-75.834882	-41.414797	-75.834882	-0.292569	110.369488
7.400000	-0.294640	109.042882	-41.469068	-77.346760	-41.469068	-77.346760	-0.294582	109.092403
7.450000	-0.296637	107.762957	-41.526814	-78.845874	-41.526814	-78.845874	-0.296580	107.813049
7.500000	-0.298617	106.480717	-41.588043	-80.331737	-41.588043	-80.331737	-0.298562	106.531384
7.550000	-0.300582	105.196017	-41.652892	-81.803237	-41.652892	-81.803237	-0.300528	105.247262
7.600000	-0.302529	103.908921	-41.721238	-83.260451	-41.721238	-83.260451	-0.302478	103.960747
7.650000	-0.304460	102.619394	-41.793093	-84.702872	-41.793093	-84.702872	-0.304411	102.671806
7.700000	-0.306374	101.327407	-41.868470	-86.129984	-41.868470	-86.129984	-0.306327	101.380408
7.750000	-0.308271	100.032931	-41.947385	-87.541261	-41.947385	-87.541261	-0.308226	100.086526
7.800000	-0.310151	98.735943	-42.029857	-88.936161	-42.029857	-88.936161	-0.310108	98.790136
7.850000	-0.312013	97.436423	-42.115911	-90.314128	-42.115911	-90.314128	-0.311972	97.491218
7.900000	-0.313858	96.134353	-42.205572	-91.674582	-42.205572	-91.674582	-0.313820	96.189755
7.950000	-0.315686	94.829719	-42.298873	-93.016922	-42.298873	-93.016922	-0.315650	94.885734
8.000000	-0.317496	93.522512	-42.395851	-94.340515	-42.395851	-94.340515	-0.317464	93.579144
8.050000	-0.319290	92.212725	-42.496550	-95.644694	-42.496550	-95.644694	-0.319261	92.269979
8.100000	-0.321068	90.900354	-42.601019	-96.928748	-42.601019	-96.928748	-0.321041	90.958235
8.150000	-0.322829	89.585399	-42.709315	-98.191917	-42.709315	-98.191917	-0.322805	89.643914
8.200000	-0.324574	88.267865	-42.821503	-99.433380	-42.821503	-99.433380	-0.324554	88.327019
8.250000	-0.326305	86.947759	-42.937658	-100.652247	-42.937658	-100.652247	-0.326288	87.007558
8.300000	-0.328021	85.625092	-43.057863	-101.847545	-43.057863	-101.847545	-0.328008	85.685542
8.350000	-0.329723	84.299879	-43.182210	-103.018203	-43.182210	-103.018203	-0.329714	84.360986
8.400000	-0.331413	82.972138	-43.310804	-104.163038	-43.310804	-104.163038	-0.331407	83.033909
8.450000	-0.333091	81.641891	-43.443760	-105.280732	-43.443760	-105.280732	-0.333088	81.704334
8.500000	-0.334758	80.309165	-43.581205	-106.369815	-43.581205	-106.369815	-0.334759	80.372285
8.550000	-0.336416	78.973988	-43.723279	-107.428633	-43.723279	-107.428633	-0.336420	79.037793
8.600000	-0.338065	77.636393	-43.870134	-108.455323	-43.870134	-108.455323	-0.338073	77.700891
8.650000	-0.339708	76.296418	-44.021934	-109.447774	-44.021934	-109.447774	-0.339719	76.361616
8.700000	-0.341344	74.954103	-44.178857	-110.403588	-44.178857	-110.403588	-0.341359	75.020009
8.750000	-0.342977	73.609493	-44.341092	-111.320034	-44.341092	-111.320034	-0.342996	73.676115
8.800000	-0.344608	72.262539	-44.508938	-112.191966	-44.508938	-112.191966	-0.344630	72.329887
8.850000	-0.346239	70.913395	-44.682498	-113.017444	-44.682498	-113.017444	-0.346263	70.981476
8.900000	-0.347871	69.562117	-44.861977	-113.792265	-44.861977	-113.792265	-0.347898	69.630939
8.950000	-0.349506	68.208763	-45.047578	-114.511582	-45.047578	-114.511582	-0.349537	68.278336
9.000000	-0.351148	66.853398	-45.239493	-115.169804	-45.239493	-115.169804	-0.351181	66.923731
9.050000	-0.352798	65.496088	-45.437888	-115.760468	-45.437888	-115.760468	-0.352833	65.567190
9.100000	-0.354458	64.136903	-45.642887	-116.276098	-45.642887	-116.276098	-0.354496	64.208784
9.150000	-0.356131	62.775918	-45.854553	-116.708056	-45.854553	-116.708056	-0.356170	62.848587
9.200000	-0.357819	61.413211	-46.072850	-117.046362	-46.072850	-117.046362	-0.357860	61.486678
9.250000	-0.359525	60.048863	-46.297605	-117.279518	-46.297605	-117.279518	-0.359568	60.123137
9.300000	-0.361252	58.682957	-46.528451	-117.394328	-46.528451	-117.394328	-0.361295	58.758049
9.350000	-0.363003	57.315583	-46.764748	-117.375738	-46.764748	-117.375738	-0.363047	57.391503
9.400000	-0.364781	55.946831	-47.005489	-117.206735	-47.005489	-117.206735	-0.364824	56.023589
9.450000	-0.366588	54.576795	-47.249169	-116.868352	-47.249169	-116.868352	-0.366630	54.654403
9.500000	-0.368428	53.205575	-47.493627	-116.339864	-47.493627	-116.339864	-0.368469	53.284041
9.550000	-0.370304	51.833270	-47.735856	-115.599299	-47.735856	-115.599299	-0.370343	51.912606
9.600000	-0.372219	50.459985	-47.971778	-114.624414	-47.971778	-114.624414	-0.372255	50.540202
9.650000	-0.374177	49.085826	-48.196015	-113.394351	-48.196015	-113.394351	-0.374210	49.166934
9.700000	-0.376181	47.710904	-48.401689	-111.892181	-48.401689	-111.892181	-0.376210	47.792914
9.750000	-0.378234	46.335330	-48.580306	-110.108487	-48.580306	-110.108487	-0.378259	46.418254
9.800000	-0.380341	44.959221	-48.721845	-108.045962	-48.721845	-108.045962	-0.380360	45.043069
9.850000	-0.382505	43.582694	-48.815147	-105.724638	-48.815147	-105.724638	-0.382517	43.667477
9.900000	-0.384729	42.205869	-48.848729	-103.186793	-48.848729	-103.186793	-0.384734	42.291598
9.950000	-0.387017	40.828869	-48.812029	-100.500032	-48.812029	-100.500032	-0.387014	40.915556
10.000000	-0.389374	39.451821	-48.696957	-97.756718	-48.696957	-97.756718	-0.389362	39.539475
