! freq	dB(S11)	phase(S11)	dB(S12)	phase(S12)	
!     	dB(S21)	phase(S21)	dB(S22)	phase(S22)	
!S-par simulation data
#  GHz  S  DB  R 50
0.000000	-83.149884	0.000000	-0.000604	0.000000	-0.000604	0.000000	-83.149884	0.000000
0.050000	-37.599241	-92.337543	-0.006191	-2.961047	-0.006191	-2.961047	-37.596526	-92.052694
0.100000	-31.648424	-95.716082	-0.014403	-5.878940	-0.014403	-5.878940	-31.645798	-95.155341
0.150000	-28.173134	-99.007911	-0.022520	-8.783461	-0.022520	-8.783461	-28.170237	-98.169688
0.200000	-25.718069	-102.216504	-0.031483	-11.682050	-0.031483	-11.682050	-25.714928	-101.100245
0.250000	-23.826101	-105.368663	-0.041616	-14.574884	-0.041616	-14.574884	-23.822790	-103.973990
0.300000	-22.293467	-108.481332	-0.052965	-17.461356	-0.052965	-17.461356	-22.290054	-106.807643
0.350000	-21.010363	-111.566654	-0.065436	-20.341373	-0.065436	-20.341373	-21.006902	-109.613142
0.400000	-19.911586	-114.631491	-0.078955	-23.214800	-0.078955	-23.214800	-19.908115	-112.397172
0.450000	-18.955112	-117.680142	-0.093446	-26.081501	-0.093446	-26.081501	-18.951658	-115.163887
0.500000	-18.113105	-120.714779	-0.108860	-28.941014	-0.108860	-28.941014	-18.109688	-117.915265
0.550000	-17.363653	-123.737912	-0.125052	-31.793638	-0.125052	-31.793638	-17.360289	-120.653771
0.600000	-16.693047	-126.749722	-0.141972	-34.638665	-0.141972	-34.638665	-16.689748	-123.379335
0.650000	-16.089074	-129.751223	-0.159489	-37.476150	-0.159489	-37.476150	-16.085851	-126.092858
0.700000	-15.542614	-132.742919	-0.177484	-40.305996	-0.177484	-40.305996	-15.539477	-128.794694
0.750000	-15.047182	-135.724838	-0.195851	-43.127824	-0.195851	-43.127824	-15.044140	-131.484617
0.800000	-14.596985	-138.697318	-0.214460	-45.941561	-0.214460	-45.941561	-14.594046	-134.162760
0.850000	-14.187099	-141.660796	-0.233181	-48.747274	-0.233181	-48.747274	-14.184270	-136.829372
0.900000	-13.813594	-144.615653	-0.251891	-51.545017	-0.251891	-51.545017	-13.810881	-139.484617
0.950000	-13.473291	-147.562261	-0.270468	-54.334858	-0.270468	-54.334858	-13.470700	-142.128622
1.000000	-13.163443	-150.501088	-0.288792	-57.116967	-0.288792	-57.116967	-13.160979	-144.761611
1.050000	-12.881710	-153.432659	-0.306749	-59.891590	-0.306749	-59.891590	-12.879377	-147.383857
1.100000	-12.626087	-156.357561	-0.324229	-62.659044	-0.324229	-62.659044	-12.623889	-149.995685
1.150000	-12.394852	-159.276433	-0.341128	-65.419715	-0.341128	-65.419715	-12.392792	-152.597466
1.200000	-12.186514	-162.189969	-0.357348	-68.174060	-0.357348	-68.174060	-12.184597	-155.189612
1.250000	-11.999788	-165.098908	-0.372797	-70.922595	-0.372797	-70.922595	-11.998016	-157.772574
1.300000	-11.833922	-168.003973	-0.387368	-73.665798	-0.387368	-73.665798	-11.832299	-160.346658
1.350000	-11.687585	-170.906093	-0.401002	-76.404424	-0.401002	-76.404424	-11.686113	-162.912573
1.400000	-11.559949	-173.806133	-0.413627	-79.139151	-0.413627	-79.139151	-11.558631	-165.470851
1.450000	-11.450308	-176.704991	-0.425183	-81.870691	-0.425183	-81.870691	-11.449146	-168.022034
1.500000	-11.358061	-179.603598	-0.435612	-84.599794	-0.435612	-84.599794	-11.357059	-170.566673
1.550000	-11.282710	177.497092	-0.444870	-87.327236	-0.444870	-87.327236	-11.281869	-173.105319
1.600000	-11.223845	174.596095	-0.452918	-90.053814	-0.452918	-90.053814	-11.223167	-175.638520
1.650000	-11.181141	171.692408	-0.459727	-92.780344	-0.459727	-92.780344	-11.180631	-178.166807
1.700000	-11.154072	168.785096	-0.465300	-95.507618	-0.465300	-95.507618	-11.153731	179.309234
1.750000	-11.143892	165.872631	-0.469508	-98.236657	-0.469508	-98.236657	-11.143723	176.789447
1.800000	-11.148238	162.954739	-0.472535	-100.967983	-0.472535	-100.967983	-11.148244	174.272856
1.850000	-11.168906	160.029614	-0.474240	-103.702750	-0.474240	-103.702750	-11.169090	171.759435
1.900000	-11.205046	157.096587	-0.474711	-106.441570	-0.474711	-106.441570	-11.205412	169.248659
1.950000	-11.256785	154.154545	-0.473974	-109.185252	-0.473974	-109.185252	-11.257337	166.740234
2.000000	-11.325233	151.201787	-0.471992	-111.934901	-0.471992	-111.934901	-11.325974	164.234072
2.050000	-11.408854	148.238435	-0.468942	-114.690572	-0.468942	-114.690572	-11.409789	161.729796
2.100000	-11.510736	145.261191	-0.464679	-117.454223	-0.464679	-117.454223	-11.511868	159.227726
2.150000	-11.628289	142.271389	-0.459472	-120.225114	-0.459472	-120.225114	-11.629623	156.727551
2.200000	-11.764787	139.265278	-0.453210	-123.005368	-0.453210	-123.005368	-11.766325	154.229884
2.250000	-11.918734	136.243687	-0.446096	-125.794425	-0.446096	-125.794425	-11.920476	151.734776
2.300000	-12.092090	133.203981	-0.438143	-128.593623	-0.438143	-128.593623	-12.094035	149.243030
2.350000	-12.285423	130.145115	-0.429454	-131.403321	-0.429454	-131.403321	-12.287567	146.755371
2.400000	-12.499095	127.066383	-0.420148	-134.223614	-0.420148	-134.223614	-12.501429	144.272665
2.450000	-12.735834	123.964114	-0.410269	-137.056046	-0.410269	-137.056046	-12.738340	141.796855
2.500000	-12.994442	120.840177	-0.399994	-139.899221	-0.399994	-139.899221	-12.997098	139.328480
2.550000	-13.279928	117.687295	-0.389355	-142.756067	-0.389355	-142.756067	-13.282687	136.871791
2.600000	-13.590578	114.508954	-0.378532	-145.624284	-0.378532	-145.624284	-13.593389	134.427097
2.650000	-13.930976	111.298186	-0.367625	-148.506088	-0.367625	-148.506088	-13.933750	132.000063
2.700000	-14.301941	108.055145	-0.356784	-151.400436	-0.356784	-151.400436	-14.304561	129.593174
2.750000	-14.706888	104.775010	-0.346192	-154.307835	-0.346192	-154.307835	-14.709187	127.212665
2.800000	-15.149485	101.452780	-0.336071	-157.227939	-0.336071	-157.227939	-15.151223	124.865869
2.850000	-15.632373	98.086638	-0.326495	-160.158164	-0.326495	-160.158164	-15.633233	122.558363
2.900000	-16.162559	94.663031	-0.317278	-163.098485	-0.317278	-163.098485	-16.162041	120.307769
2.950000	-16.742984	91.183364	-0.308130	-166.048926	-0.308130	-166.048926	-16.740463	118.117909
3.000000	-17.383899	87.622693	-0.299362	-169.014027	-0.299362	-169.014027	-17.378338	116.023250
3.050000	-18.091546	83.979103	-0.291246	-171.991294	-0.291246	-171.991294	-18.081572	114.032967
3.100000	-18.879115	80.218883	-0.284047	-174.981148	-0.284047	-174.981148	-18.862510	112.198182
3.150000	-19.760753	76.317318	-0.277804	-177.982004	-0.277804	-177.982004	-19.734190	110.560551
3.200000	-20.756405	72.226424	-0.272575	179.006866	-0.272575	179.006866	-20.714532	109.196277
3.250000	-21.894354	67.856660	-0.268472	175.985530	-0.268472	175.985530	-21.827915	108.243612
3.300000	-23.212890	63.124657	-0.265408	172.955705	-0.265408	172.955705	-23.106377	107.830706
3.350000	-24.771435	57.740170	-0.263583	169.916729	-0.263583	169.916729	-24.593410	108.383911
3.400000	-26.660429	51.303486	-0.262917	166.870041	-0.262917	166.870041	-26.346784	110.446774
3.450000	-29.026731	42.819000	-0.263447	163.816132	-0.263447	163.816132	-28.427667	115.235800
3.500000	-32.092303	29.688411	-0.265177	160.755646	-0.265177	160.755646	-30.822375	125.207912
3.550000	-35.878035	4.193502	-0.268098	157.689225	-0.268098	157.689225	-33.074751	144.368268
3.600000	-37.789936	-43.774988	-0.272194	154.617497	-0.272194	154.617497	-33.712918	172.452706
3.650000	-34.767890	-85.720341	-0.277434	151.541073	-0.277434	151.541073	-32.073006	-163.136949
3.700000	-31.194926	-105.798630	-0.283779	148.460530	-0.283779	148.460530	-29.691024	-149.340504
3.750000	-28.442295	-116.941683	-0.291178	145.376416	-0.291178	145.376416	-27.510412	-142.569073
3.800000	-26.316491	-124.609900	-0.299590	142.289175	-0.299590	142.289175	-25.674258	-139.495251
3.850000	-24.615550	-130.710859	-0.308923	139.199335	-0.308923	139.199335	-24.137377	-138.356401
3.900000	-23.212266	-135.962643	-0.319097	136.107289	-0.319097	136.107289	-22.835660	-138.351986
3.950000	-22.027706	-140.708960	-0.330027	133.013369	-0.330027	133.013369	-21.718467	-139.057408
4.000000	-21.010548	-145.133027	-0.341620	129.917841	-0.341620	129.917841	-20.748456	-140.231407
4.050000	-20.125873	-149.340978	-0.353777	126.820900	-0.353777	126.820900	-19.898206	-141.728255
4.100000	-19.348967	-153.398466	-0.366397	123.722668	-0.366397	123.722668	-19.147315	-143.455263
4.150000	-18.661762	-157.348336	-0.379373	120.623190	-0.379373	120.623190	-18.480331	-145.350902
4.200000	-18.050682	-161.219838	-0.392595	117.522434	-0.392595	117.522434	-17.885341	-147.372902
4.250000	-17.505292	-165.033743	-0.405954	114.420287	-0.405954	114.420287	-17.352996	-149.491558
4.300000	-17.017420	-168.805338	-0.419340	111.316556	-0.419340	111.316556	-16.875799	-151.686114
4.350000	-16.580567	-172.546254	-0.432642	108.210969	-0.432642	108.210969	-16.447321	-153.943774
4.400000	-16.189776	-176.265480	-0.445750	105.103144	-0.445750	105.103144	-16.059230	-156.254681
4.450000	-15.840779	-179.970638	-0.458555	101.992631	-0.458555	101.992631	-15.711813	-158.515711
4.500000	-15.529801	176.331905	-0.470957	98.878939	-0.470957	98.878939	-15.411602	-160.849020
4.550000	-15.253970	172.636836	-0.482860	95.761478	-0.482860	95.761478	-15.142536	-163.221506
4.600000	-15.010913	168.939420	-0.494173	92.639584	-0.494173	92.639584	-14.904406	-165.607428
4.650000	-14.798680	165.235316	-0.504811	89.512523	-0.504811	89.512523	-14.696135	-168.001840
4.700000	-14.615671	161.520430	-0.514696	86.379492	-0.514696	86.379492	-14.516410	-170.401262
4.750000	-14.460594	157.790810	-0.523759	83.239622	-0.523759	83.239622	-14.364064	-172.802470
4.800000	-14.332428	154.042550	-0.531937	80.091985	-0.531937	80.091985	-14.238135	-175.202380
4.850000	-14.230389	150.271706	-0.539179	76.935591	-0.539179	76.935591	-14.137870	-177.597978
4.900000	-14.153922	146.474227	-0.545441	73.769394	-0.545441	73.769394	-14.062717	-179.986232
4.950000	-14.102675	142.645877	-0.550690	70.592300	-0.550690	70.592300	-14.012315	177.636011
5.000000	-14.076503	138.782163	-0.554906	67.403161	-0.554906	67.403161	-13.986487	175.272125
5.050000	-14.076009	134.877251	-0.558055	64.200470	-0.558055	64.200470	-13.985773	172.926305
5.100000	-14.100907	130.926594	-0.560161	60.983255	-0.560161	60.983255	-14.009826	170.602490
5.150000	-14.151661	126.924312	-0.561240	57.750242	-0.561240	57.750242	-14.059011	168.305568
5.200000	-14.228956	122.863818	-0.561318	54.500125	-0.561318	54.500125	-14.133879	166.041274
5.250000	-14.333709	118.737638	-0.560436	51.231569	-0.560436	51.231569	-14.235175	163.816427
5.300000	-14.467099	114.537179	-0.558648	47.943212	-0.558648	47.943212	-14.363845	161.639221
5.350000	-14.630592	110.252435	-0.556023	44.633671	-0.556023	44.633671	-14.521053	159.519603
5.400000	-14.825979	105.871600	-0.552642	41.301545	-0.552642	41.301545	-14.708189	157.469745
5.450000	-15.055420	101.380540	-0.548603	37.945421	-0.548603	37.945421	-14.926882	155.504665
5.500000	-15.321504	96.762098	-0.544020	34.563877	-0.544020	34.563877	-15.179006	153.643028
5.550000	-15.627312	91.995126	-0.539019	31.155487	-0.539019	31.155487	-15.466679	151.908214
5.600000	-15.976492	87.053147	-0.533745	27.718825	-0.533745	27.718825	-15.792235	150.329718
5.650000	-16.373696	81.899710	-0.528359	24.252137	-0.528359	24.252137	-16.158437	148.947672
5.700000	-16.823957	76.489211	-0.523045	20.753967	-0.523045	20.753967	-16.567718	147.812172
5.750000	-17.332700	70.765103	-0.517998	17.223252	-0.517998	17.223252	-17.021937	146.984072
5.800000	-17.906389	64.648145	-0.513430	13.658627	-0.513430	13.658627	-17.522412	146.544781
5.850000	-18.551150	58.048115	-0.509544	10.059819	-0.509544	10.059819	-18.068493	146.581460
5.900000	-19.275150	50.779728	-0.506635	6.423315	-0.506635	6.423315	-18.656977	147.261680
5.950000	-20.081279	42.645232	-0.504947	2.749008	-0.504947	2.749008	-19.277106	148.736232
6.000000	-20.966109	33.344045	-0.504759	-0.964307	-0.504759	-0.964307	-19.907866	151.198747
6.050000	-21.908848	22.466122	-0.506372	-4.717775	-0.506372	-4.717775	-20.511479	154.844541
6.100000	-22.852077	9.506491	-0.510100	-8.512481	-0.510100	-8.512481	-21.027834	159.806030
6.150000	-23.673662	-5.988002	-0.516279	-12.349437	-0.516279	-12.349437	-21.375554	166.038662
6.200000	-24.174453	-24.002598	-0.525256	-16.229580	-0.525256	-16.229580	-21.469319	173.196591
6.250000	-24.147198	-43.504589	-0.537400	-20.153760	-0.537400	-20.153760	-21.254852	-179.382734
6.300000	-23.526052	-62.545164	-0.553151	-24.123397	-0.553151	-24.123397	-20.735154	-172.501745
6.350000	-22.471888	-79.525294	-0.572862	-28.138511	-0.572862	-28.138511	-19.980594	-166.761652
6.400000	-21.204914	-93.973246	-0.596949	-32.199657	-0.596949	-32.199657	-19.078714	-162.426737
6.450000	-19.887851	-106.179368	-0.625840	-36.307279	-0.625840	-36.307279	-18.106865	-159.485553
6.500000	-18.607008	-116.654287	-0.659979	-40.461705	-0.659979	-40.461705	-17.119636	-157.781431
6.550000	-17.398464	-125.861101	-0.699823	-44.663147	-0.699823	-44.663147	-16.150287	-157.115111
6.600000	-16.272652	-134.151788	-0.745843	-48.911688	-0.745843	-48.911688	-15.216831	-157.297917
6.650000	-15.228569	-141.778378	-0.798520	-53.207287	-0.798520	-53.207287	-14.327736	-158.170738
6.700000	-14.260453	-148.915217	-0.858418	-57.550221	-0.858418	-57.550221	-13.485669	-159.610681
6.750000	-13.361844	-155.692031	-0.926019	-61.939945	-0.926019	-61.939945	-12.690884	-161.514083
6.800000	-12.526133	-162.200013	-1.001804	-66.375784	-1.001804	-66.375784	-11.941908	-163.801841
6.850000	-11.747113	-168.503775	-1.086299	-70.857150	-1.086299	-70.857150	-11.236407	-166.414595
6.900000	-11.019314	-174.650903	-1.180042	-75.383316	-1.180042	-75.383316	-10.571824	-169.306012
6.950000	-10.337993	179.323147	-1.283579	-79.953415	-1.283579	-79.953415	-9.945612	-172.439671
7.000000	-9.699058	173.391714	-1.397466	-84.566436	-1.397466	-84.566436	-9.355352	-175.786717
7.050000	-9.098989	167.534607	-1.522270	-89.221225	-1.522270	-89.221225	-8.798805	-179.324094
7.100000	-8.534745	161.736706	-1.658617	-93.916673	-1.658617	-93.916673	-8.273928	176.966033
7.150000	-8.003730	155.986394	-1.807147	-98.651485	-1.807147	-98.651485	-7.778905	173.098270
7.200000	-7.503689	150.274377	-1.968369	-103.423666	-1.968369	-103.423666	-7.312077	169.086570
7.250000	-7.032630	144.594110	-2.142896	-108.231451	-2.142896	-108.231451	-6.871929	164.941122
7.300000	-6.588804	138.940773	-2.331356	-113.072917	-2.331356	-113.072917	-6.457098	160.670443
7.350000	-6.170668	133.310924	-2.534395	-117.945970	-2.534395	-117.945970	-6.066346	156.281728
7.400000	-5.776854	127.702231	-2.752675	-122.848337	-2.752675	-122.848337	-5.698551	151.781115
7.450000	-5.406139	122.113267	-2.986879	-127.777557	-2.986879	-127.777557	-5.352685	147.173905
7.500000	-5.057420	116.543339	-3.237712	-132.730968	-3.237712	-132.730968	-5.027808	142.464744
7.550000	-4.729825	110.992638	-3.506040	-137.705946	-3.506040	-137.705946	-4.723184	137.656402
7.600000	-4.422334	105.461314	-3.792473	-142.699007	-3.792473	-142.699007	-4.437883	132.754089
7.650000	-4.134104	99.950190	-4.097795	-147.706757	-4.097795	-147.706757	-4.171143	127.761261
7.700000	-3.864352	94.460412	-4.422826	-152.725509	-4.422826	-152.725509	-3.922243	122.681195
7.750000	-3.612344	88.993385	-4.768422	-157.751258	-4.768422	-157.751258	-3.690498	117.517066
7.800000	-3.377389	83.550717	-5.135483	-162.779639	-5.135483	-162.779639	-3.475247	112.272025
7.850000	-3.158828	78.134169	-5.524956	-167.805884	-5.524956	-167.805884	-3.275853	106.949266
7.900000	-2.956028	72.745613	-5.937842	-172.824773	-5.937842	-172.824773	-3.091692	101.552082
7.950000	-2.768481	67.387299	-6.375221	-177.830379	-6.375221	-177.830379	-2.922255	96.083276
8.000000	-2.595538	62.061094	-6.838170	177.183703	-6.838170	177.183703	-2.766873	90.546925
8.050000	-2.436558	56.768825	-7.327866	172.224446	-7.327866	172.224446	-2.624881	84.947285
8.100000	-2.290961	51.512427	-7.845589	167.299672	-7.845589	167.299672	-2.495659	79.288553
8.150000	-2.158168	46.293766	-8.392717	162.418125	-8.392717	162.418125	-2.378584	73.575231
8.200000	-2.037604	41.114611	-8.970741	157.589638	-8.970741	157.589638	-2.273022	67.812150
8.250000	-1.928691	35.976604	-9.581282	152.825337	-9.581282	152.825337	-2.178332	62.004474
8.300000	-1.830850	30.881230	-10.226114	148.137916	-10.226114	148.137916	-2.093861	56.157702
8.350000	-1.743805	25.831308	-10.906579	143.545632	-10.906579	143.545632	-2.019230	50.276734
8.400000	-1.666433	20.825406	-11.625656	139.060295	-11.625656	139.060295	-1.953273	44.369548
8.450000	-1.598359	15.865359	-12.385393	134.704100	-12.385393	134.704100	-1.895520	38.441772
8.500000	-1.538992	10.951727	-13.188427	130.501070	-13.188427	130.501070	-1.845299	32.500038
8.550000	-1.487739	6.084778	-14.037692	126.480272	-14.037692	126.480272	-1.801940	26.551163
8.600000	-1.444010	1.264470	-14.936435	122.677417	-14.936435	122.677417	-1.764784	20.602085
8.650000	-1.407226	-3.509565	-15.888210	119.137084	-15.888210	119.137084	-1.733186	14.659803
8.700000	-1.376815	-8.238025	-16.896810	115.915806	-16.896810	115.915806	-1.706521	8.731312
8.750000	-1.352225	-12.921936	-17.966065	113.086393	-17.966065	113.086393	-1.684190	2.823532
8.800000	-1.333026	-17.561747	-19.097441	110.757378	-19.097441	110.757378	-1.665693	-3.056015
8.850000	-1.318587	-22.160099	-20.294159	109.048315	-20.294159	109.048315	-1.650405	-8.901232
8.900000	-1.308434	-26.718942	-21.554720	108.128633	-21.554720	108.128633	-1.637835	-14.705861
8.950000	-1.302124	-31.240467	-22.870647	108.219272	-22.870647	108.219272	-1.627532	-20.463990
9.000000	-1.299252	-35.727077	-24.219990	109.594894	-24.219990	109.594894	-1.619089	-26.170097
9.050000	-1.299447	-40.181338	-25.557120	112.557762	-25.557120	112.557762	-1.612145	-31.819101
9.100000	-1.302375	-44.605947	-26.800896	117.343804	-26.800896	117.343804	-1.606380	-37.406397
9.150000	-1.307737	-49.003688	-27.832514	123.924675	-27.832514	123.924675	-1.601519	-42.927873
9.200000	-1.315224	-53.377876	-28.535254	131.771415	-28.535254	131.771415	-1.597317	-48.381607
9.250000	-1.324708	-57.730144	-28.814375	139.873530	-28.814375	139.873530	-1.593604	-53.760420
9.300000	-1.335906	-62.064151	-28.725701	147.063151	-28.725701	147.063151	-1.590198	-59.064128
9.350000	-1.348631	-66.382710	-28.387462	152.659506	-28.387462	152.659506	-1.586968	-64.290698
9.400000	-1.362711	-70.688589	-27.925155	156.525421	-27.925155	156.525421	-1.583812	-69.438585
9.450000	-1.377990	-74.984490	-27.430342	158.853455	-27.430342	158.853455	-1.580651	-74.506711
9.500000	-1.394321	-79.273046	-26.956695	159.941813	-26.956695	159.941813	-1.577426	-79.494432
9.550000	-1.411565	-83.556806	-26.530977	160.075653	-26.530977	160.075653	-1.574095	-84.401512
9.600000	-1.429624	-87.838245	-26.167251	159.455098	-26.167251	159.455098	-1.570618	-89.223057
9.650000	-1.448264	-92.119781	-25.860435	158.348782	-25.860435	158.348782	-1.566998	-93.972317
9.700000	-1.467448	-96.403893	-25.617926	156.805051	-25.617926	156.805051	-1.563195	-98.635840
9.750000	-1.486982	-100.692331	-25.429644	154.975666	-25.429644	154.975666	-1.559223	-103.225326
9.800000	-1.506747	-104.987584	-25.295864	152.916760	-25.295864	152.916760	-1.555063	-107.736043
9.850000	-1.526596	-109.291475	-25.211893	150.692309	-25.211893	150.692309	-1.550712	-112.170930
9.900000	-1.546379	-113.605469	-25.172486	148.355108	-25.172486	148.355108	-1.546174	-116.534490
9.950000	-1.565924	-117.932387	-25.178732	145.934584	-25.178732	145.934584	-1.541420	-120.821456
10.000000	-1.585126	-122.271768	-25.221458	143.472082	-25.221458	143.472082	-1.536474	-125.044647
