! freq	dB(S11)	phase(S11)	dB(S12)	phase(S12)	
!     	dB(S21)	phase(S21)	dB(S22)	phase(S22)	
!S-par simulation data
#  GHz  S  DB  R 50
0.000000	-0.000000	0.000000	-316.356493	0.000000	-316.356493	0.000000	-0.000000	0.000000
0.050000	-0.000868	-1.386109	-95.001658	88.310588	-95.001658	88.310588	-0.001362	-2.189633
0.100000	-0.002974	-2.765945	-89.007967	86.561059	-89.007967	86.561059	-0.004711	-4.369319
0.150000	-0.005459	-4.138467	-85.531083	84.834473	-85.531083	84.834473	-0.008728	-6.536764
0.200000	-0.007832	-5.505965	-83.094022	83.124143	-83.094022	83.124143	-0.012612	-8.694912
0.250000	-0.009958	-6.870578	-81.236098	81.433087	-81.236098	81.433087	-0.016103	-10.846611
0.300000	-0.011867	-8.233699	-79.752231	79.766139	-79.752231	79.766139	-0.019217	-12.993655
0.350000	-0.013629	-9.595991	-78.531122	78.127774	-78.531122	78.127774	-0.022054	-15.136811
0.400000	-0.015299	-10.957627	-77.508017	76.524103	-77.508017	76.524103	-0.024698	-17.275968
0.450000	-0.016914	-12.318539	-76.643605	74.964062	-76.643605	74.964062	-0.027208	-19.410471
0.500000	-0.018503	-13.678622	-75.906841	73.453397	-75.906841	73.453397	-0.029637	-21.539944
0.550000	-0.020081	-15.037702	-75.277834	72.000712	-75.277834	72.000712	-0.032014	-23.663753
0.600000	-0.021657	-16.395528	-74.744727	70.619540	-74.744727	70.619540	-0.034357	-25.780932
0.650000	-0.023238	-17.751947	-74.294789	69.319431	-74.294789	69.319431	-0.036682	-27.891059
0.700000	-0.024826	-19.106794	-73.919355	68.112866	-73.919355	68.112866	-0.038997	-29.993616
0.750000	-0.026424	-20.459844	-73.613931	67.019064	-73.613931	67.019064	-0.041307	-32.087783
0.800000	-0.028033	-21.810935	-73.373551	66.057212	-73.373551	66.057212	-0.043614	-34.173027
0.850000	-0.029651	-23.159939	-73.193745	65.248400	-73.193745	65.248400	-0.045920	-36.248948
0.900000	-0.031279	-24.506725	-73.071316	64.618882	-73.071316	64.618882	-0.048224	-38.315106
0.950000	-0.032916	-25.851157	-73.003863	64.201211	-73.003863	64.201211	-0.050524	-40.371026
1.000000	-0.034561	-27.193116	-72.988908	64.033785	-72.988908	64.033785	-0.052818	-42.416303
1.050000	-0.036212	-28.532493	-73.023754	64.162662	-73.023754	64.162662	-0.055104	-44.450562
1.100000	-0.037868	-29.869187	-73.105017	64.642865	-73.105017	64.642865	-0.057378	-46.473457
1.150000	-0.039528	-31.203104	-73.227977	65.539430	-73.227977	65.539430	-0.059638	-48.484668
1.200000	-0.041190	-32.534156	-73.385689	66.927605	-73.385689	66.927605	-0.061880	-50.483905
1.250000	-0.042853	-33.862261	-73.567778	68.891106	-73.567778	68.891106	-0.064103	-52.470901
1.300000	-0.044517	-35.187277	-73.758548	71.532780	-73.758548	71.532780	-0.066302	-54.445140
1.350000	-0.046179	-36.509196	-73.935276	74.915973	-73.935276	74.915973	-0.068476	-56.406673
1.400000	-0.047839	-37.827953	-74.068198	79.083203	-74.068198	79.083203	-0.070623	-58.355308
1.450000	-0.049495	-39.143485	-74.121039	84.012234	-74.121039	84.012234	-0.072740	-60.290875
1.500000	-0.051148	-40.455735	-74.055412	89.584245	-74.055412	89.584245	-0.074827	-62.213227
1.550000	-0.052796	-41.764648	-73.839004	95.570440	-73.839004	95.570440	-0.076883	-64.122235
1.600000	-0.054439	-43.070174	-73.455027	101.657031	-73.455027	101.657031	-0.078906	-66.017794
1.650000	-0.056077	-44.372263	-72.907885	107.509300	-72.907885	107.509300	-0.080895	-67.899813
1.700000	-0.057709	-45.670873	-72.221295	112.846346	-72.221295	112.846346	-0.082852	-69.768225
1.750000	-0.059335	-46.965960	-71.430162	117.489122	-71.430162	117.489122	-0.084775	-71.622976
1.800000	-0.060955	-48.257485	-70.571181	121.366097	-70.571181	121.366097	-0.086665	-73.464031
1.850000	-0.062569	-49.545412	-69.676317	124.488608	-69.676317	124.488608	-0.088523	-75.291371
1.900000	-0.064178	-50.829667	-68.769191	126.910825	-68.769191	126.910825	-0.090348	-77.104843
1.950000	-0.065781	-52.110218	-67.867506	128.718068	-67.867506	128.718068	-0.092142	-78.904459
2.000000	-0.067379	-53.387074	-66.983461	130.003578	-66.983461	130.003578	-0.093907	-80.690393
2.050000	-0.068973	-54.660209	-66.123721	130.846866	-66.123721	130.846866	-0.095643	-82.462686
2.100000	-0.070562	-55.929599	-65.291910	131.317744	-65.291910	131.317744	-0.097352	-84.221389
2.150000	-0.072148	-57.195222	-64.489640	131.475662	-64.489640	131.475662	-0.099035	-85.966565
2.200000	-0.073731	-58.457056	-63.717237	131.370387	-63.717237	131.370387	-0.100695	-87.698289
2.250000	-0.075312	-59.715086	-62.974230	131.043227	-62.974230	131.043227	-0.102333	-89.416647
2.300000	-0.076892	-60.969294	-62.259682	130.528347	-62.259682	130.528347	-0.103949	-91.121734
2.350000	-0.078470	-62.219667	-61.572397	129.854005	-61.572397	129.854005	-0.105548	-92.813656
2.400000	-0.080049	-63.466195	-60.911062	129.043611	-60.911062	129.043611	-0.107129	-94.492526
2.450000	-0.081628	-64.708867	-60.274324	128.116628	-60.274324	128.116628	-0.108695	-96.158466
2.500000	-0.083209	-65.947676	-59.660851	127.089299	-59.660851	127.089299	-0.110248	-97.811605
2.550000	-0.084792	-67.182491	-59.068764	125.972755	-59.068764	125.972755	-0.111790	-99.451674
2.600000	-0.086379	-68.413436	-58.497531	124.781631	-58.497531	124.781631	-0.113322	-101.079233
2.650000	-0.087970	-69.640508	-57.945987	123.525488	-57.945987	123.525488	-0.114846	-102.694434
2.700000	-0.089566	-70.863709	-57.413043	122.212475	-57.413043	122.212475	-0.116365	-104.297432
2.750000	-0.091168	-72.083043	-56.897689	120.849572	-56.897689	120.849572	-0.117880	-105.888390
2.800000	-0.092776	-73.298515	-56.398986	119.442785	-56.398986	119.442785	-0.119392	-107.467472
2.850000	-0.094393	-74.510132	-55.916065	117.997308	-55.916065	117.997308	-0.120904	-109.034851
2.900000	-0.096017	-75.717902	-55.448123	116.517652	-55.448123	116.517652	-0.122417	-110.590699
2.950000	-0.097652	-76.921838	-54.994412	115.007750	-54.994412	115.007750	-0.123933	-112.135196
3.000000	-0.099296	-78.121952	-54.554243	113.471049	-54.554243	113.471049	-0.125452	-113.668522
3.050000	-0.100951	-79.318259	-54.126975	111.910584	-54.126975	111.910584	-0.126978	-115.190862
3.100000	-0.102619	-80.510776	-53.712013	110.329032	-53.712013	110.329032	-0.128510	-116.702402
3.150000	-0.104298	-81.699522	-53.308804	108.728772	-53.308804	108.728772	-0.130051	-118.203330
3.200000	-0.105992	-82.884517	-52.916833	107.111919	-52.916833	107.111919	-0.131601	-119.693839
3.250000	-0.107700	-84.065784	-52.535620	105.480364	-52.535620	105.480364	-0.133163	-121.174120
3.300000	-0.109422	-85.243347	-52.164716	103.835803	-52.164716	103.835803	-0.134736	-122.644366
3.350000	-0.111161	-86.417232	-51.803703	102.179762	-51.803703	102.179762	-0.136323	-124.104774
3.400000	-0.112916	-87.587466	-51.452186	100.513619	-51.452186	100.513619	-0.137925	-125.555538
3.450000	-0.114689	-88.754080	-51.109798	98.838622	-51.109798	98.838622	-0.139542	-126.996855
3.500000	-0.116479	-89.917104	-50.776191	97.155904	-50.776191	97.155904	-0.141175	-128.428923
3.550000	-0.118289	-91.076571	-50.451038	95.466495	-50.451038	95.466495	-0.142826	-129.851938
3.600000	-0.120118	-92.232516	-50.134033	93.771336	-50.134033	93.771336	-0.144494	-131.266098
3.650000	-0.121967	-93.384975	-49.824882	92.071289	-49.824882	92.071289	-0.146182	-132.671600
3.700000	-0.123838	-94.533986	-49.523311	90.367140	-49.523311	90.367140	-0.147890	-134.068642
3.750000	-0.125730	-95.679587	-49.229059	88.659613	-49.229059	88.659613	-0.149618	-135.457419
3.800000	-0.127645	-96.821676	-48.941772	86.949282	-48.941772	86.949282	-0.151368	-136.837787
3.850000	-0.129583	-97.960442	-48.661339	85.236898	-48.661339	85.236898	-0.153140	-138.210300
3.900000	-0.131544	-99.095931	-48.387532	83.523016	-48.387532	83.523016	-0.154935	-139.575153
3.950000	-0.133530	-100.228187	-48.120136	81.808146	-48.120136	81.808146	-0.156752	-140.932540
4.000000	-0.135541	-101.357257	-47.858945	80.092758	-47.858945	80.092758	-0.158593	-142.282654
4.050000	-0.137577	-102.483189	-47.603762	78.377284	-47.603762	78.377284	-0.160457	-143.625686
4.100000	-0.139639	-103.606033	-47.354399	76.662120	-47.354399	76.662120	-0.162346	-144.961828
4.150000	-0.141727	-104.725840	-47.110675	74.947630	-47.110675	74.947630	-0.164259	-146.291268
4.200000	-0.143843	-105.842662	-46.872418	73.234145	-46.872418	73.234145	-0.166198	-147.614195
4.250000	-0.145987	-106.956552	-46.639461	71.521971	-46.639461	71.521971	-0.168161	-148.930795
4.300000	-0.148158	-108.067565	-46.411646	69.811381	-46.411646	69.811381	-0.170150	-150.241254
4.350000	-0.150359	-109.175756	-46.188819	68.102625	-46.188819	68.102625	-0.172165	-151.545757
4.400000	-0.152588	-110.281183	-45.970834	66.395929	-45.970834	66.395929	-0.174205	-152.844485
4.450000	-0.154848	-111.383905	-45.757549	64.691494	-45.757549	64.691494	-0.176272	-154.137620
4.500000	-0.157138	-112.483979	-45.548829	62.989499	-45.548829	62.989499	-0.178365	-155.425341
4.550000	-0.159458	-113.581467	-45.344542	61.290102	-45.344542	61.290102	-0.180484	-156.707826
4.600000	-0.161810	-114.676430	-45.144564	59.593440	-45.144564	59.593440	-0.182629	-157.985252
4.650000	-0.164193	-115.768930	-44.948773	57.899632	-44.948773	57.899632	-0.184801	-159.257793
4.700000	-0.166609	-116.859032	-44.757052	56.208777	-44.757052	56.208777	-0.186999	-160.525622
4.750000	-0.169057	-117.946799	-44.569291	54.520958	-44.569291	54.520958	-0.189223	-161.788911
4.800000	-0.171538	-119.032297	-44.385382	52.836240	-44.385382	52.836240	-0.191474	-163.047830
4.850000	-0.174052	-120.115593	-44.205221	51.154674	-44.205221	51.154674	-0.193751	-164.302546
4.900000	-0.176601	-121.196754	-44.028709	49.476293	-44.028709	49.476293	-0.196055	-165.553226
4.950000	-0.179183	-122.275848	-43.855751	47.801118	-43.855751	47.801118	-0.198385	-166.800036
5.000000	-0.181801	-123.352945	-43.686257	46.129157	-43.686257	46.129157	-0.200740	-168.043137
5.050000	-0.184454	-124.428035	-43.520146	44.460542	-43.520146	44.460542	-0.203123	-169.282545
5.100000	-0.187144	-125.501274	-43.357331	42.795115	-43.357331	42.795115	-0.205532	-170.518580
5.150000	-0.189869	-126.572736	-43.197731	41.132845	-43.197731	41.132845	-0.207966	-171.751401
5.200000	-0.192630	-127.642493	-43.041271	39.473693	-43.041271	39.473693	-0.210426	-172.981163
5.250000	-0.195428	-128.710618	-42.887877	37.817609	-42.887877	37.817609	-0.212911	-174.208022
5.300000	-0.198263	-129.777186	-42.737480	36.164534	-42.737480	36.164534	-0.215422	-175.432129
5.350000	-0.201135	-130.842272	-42.590014	34.514404	-42.590014	34.514404	-0.217957	-176.653636
5.400000	-0.204045	-131.905952	-42.445417	32.867144	-42.445417	32.867144	-0.220517	-177.872692
5.450000	-0.206992	-132.968302	-42.303630	31.222677	-42.303630	31.222677	-0.223101	-179.089446
5.500000	-0.209978	-134.029401	-42.164597	29.580918	-42.164597	29.580918	-0.225710	179.695957
5.550000	-0.213002	-135.089325	-42.028265	27.941776	-42.028265	27.941776	-0.228342	178.483371
5.600000	-0.216065	-136.148154	-41.894585	26.305161	-41.894585	26.305161	-0.230999	177.272654
5.650000	-0.219167	-137.205967	-41.763511	24.670975	-41.763511	24.670975	-0.233679	176.063665
5.700000	-0.222308	-138.262845	-41.634999	23.039121	-41.634999	23.039121	-0.236382	174.856263
5.750000	-0.225489	-139.318868	-41.509009	21.409499	-41.509009	21.409499	-0.239108	173.650311
5.800000	-0.228710	-140.374117	-41.385505	19.782009	-41.385505	19.782009	-0.241857	172.445671
5.850000	-0.231970	-141.428676	-41.264450	18.156552	-41.264450	18.156552	-0.244629	171.242210
5.900000	-0.235271	-142.482626	-41.145815	16.533028	-41.145815	16.533028	-0.247422	170.039792
5.950000	-0.238613	-143.536051	-41.029568	14.911340	-41.029568	14.911340	-0.250238	168.838288
6.000000	-0.241996	-144.589036	-40.915685	13.291394	-40.915685	13.291394	-0.253075	167.637566
6.050000	-0.245419	-145.641665	-40.804141	11.673099	-40.804141	11.673099	-0.255933	166.437497
6.100000	-0.248884	-146.694023	-40.694914	10.056369	-40.694914	10.056369	-0.258813	165.237955
6.150000	-0.252390	-147.746196	-40.587984	8.441121	-40.587984	8.441121	-0.261713	164.038815
6.200000	-0.255938	-148.798270	-40.483336	6.827280	-40.483336	6.827280	-0.264634	162.839951
6.250000	-0.259527	-149.850333	-40.380952	5.214776	-40.380952	5.214776	-0.267576	161.641243
6.300000	-0.263160	-150.902481	-40.280870	3.603601	-40.280870	3.603601	-0.270538	160.442564
6.350000	-0.266835	-151.954800	-40.183032	1.993644	-40.183032	1.993644	-0.273520	159.243790
6.400000	-0.270553	-153.007382	-40.087428	0.384862	-40.087428	0.384862	-0.276522	158.044802
6.450000	-0.274313	-154.060314	-39.994050	-1.222779	-39.994050	-1.222779	-0.279543	156.845486
6.500000	-0.278115	-155.113687	-39.902890	-2.829302	-39.902890	-2.829302	-0.282584	155.645727
6.550000	-0.281960	-156.167592	-39.813943	-4.434718	-39.813943	-4.434718	-0.285643	154.445412
6.600000	-0.285848	-157.222119	-39.727202	-6.039026	-39.727202	-6.039026	-0.288722	153.244431
6.650000	-0.289779	-158.277361	-39.642664	-7.642213	-39.642664	-7.642213	-0.291818	152.042675
6.700000	-0.293753	-159.333408	-39.560323	-9.244249	-39.560323	-9.244249	-0.294934	150.840035
6.750000	-0.297769	-160.390355	-39.480174	-10.845094	-39.480174	-10.845094	-0.298068	149.636407
6.800000	-0.301829	-161.448293	-39.402214	-12.444687	-39.402214	-12.444687	-0.301220	148.431686
6.850000	-0.305932	-162.507317	-39.326436	-14.042954	-39.326436	-14.042954	-0.304390	147.225769
6.900000	-0.310078	-163.567521	-39.252835	-15.639801	-39.252835	-15.639801	-0.307579	146.018556
6.950000	-0.314267	-164.628999	-39.181403	-17.235114	-39.181403	-17.235114	-0.310786	144.809949
7.000000	-0.318500	-165.691846	-39.112130	-18.828760	-39.112130	-18.828760	-0.314010	143.599849
7.050000	-0.322776	-166.756158	-39.045006	-20.420580	-39.045006	-20.420580	-0.317253	142.388163
7.100000	-0.327095	-167.822031	-38.980015	-22.010390	-38.980015	-22.010390	-0.320514	141.174796
7.150000	-0.331457	-168.889561	-38.917141	-23.597979	-38.917141	-23.597979	-0.323793	139.959656
7.200000	-0.335863	-169.958844	-38.856361	-25.183099	-38.856361	-25.183099	-0.327091	138.742656
7.250000	-0.340312	-171.029979	-38.797650	-26.765469	-38.797650	-26.765469	-0.330406	137.523706
7.300000	-0.344804	-172.103063	-38.740974	-28.344758	-38.740974	-28.344758	-0.333741	136.302721
7.350000	-0.349339	-173.178193	-38.686298	-29.920587	-38.686298	-29.920587	-0.337094	135.079619
7.400000	-0.353917	-174.255469	-38.633574	-31.492507	-38.633574	-31.492507	-0.340466	133.854317
7.450000	-0.358538	-175.334988	-38.582751	-33.059995	-38.582751	-33.059995	-0.343858	132.626735
7.500000	-0.363202	-176.416850	-38.533765	-34.622425	-38.533765	-34.622425	-0.347268	131.396798
7.550000	-0.367910	-177.501265	-38.486607	-36.178752	-38.486607	-36.178752	-0.350700	130.164321
7.600000	-0.372661	-178.588231	-38.441127	-37.728259	-38.441127	-37.728259	-0.354152	128.929334
7.650000	-0.377454	-179.677847	-38.397232	-39.269795	-38.397232	-39.269795	-0.357625	127.691766
7.700000	-0.382290	179.229786	-38.354825	-40.801925	-38.354825	-40.801925	-0.361119	126.451552
7.750000	-0.387168	178.134567	-38.313805	-42.322856	-38.313805	-42.322856	-0.364635	125.208624
7.800000	-0.392087	177.036397	-38.274083	-43.830321	-38.274083	-43.830321	-0.368173	123.962921
7.850000	-0.397048	175.935175	-38.235597	-45.321462	-38.235597	-45.321462	-0.371734	122.714382
7.900000	-0.402051	174.830799	-38.198344	-46.792679	-38.198344	-46.792679	-0.375319	121.462951
7.950000	-0.407095	173.723169	-38.162430	-48.239511	-38.162430	-48.239511	-0.378928	120.208571
8.000000	-0.412179	172.612185	-38.128151	-49.656577	-38.128151	-49.656577	-0.382562	118.951191
8.050000	-0.417305	171.497744	-38.096103	-51.037733	-38.096103	-51.037733	-0.386222	117.690762
8.100000	-0.422470	170.379747	-38.067328	-52.376645	-38.067328	-52.376645	-0.389909	116.427236
8.150000	-0.427676	169.258091	-38.043462	-53.668114	-38.043462	-53.668114	-0.393623	115.160571
8.200000	-0.432922	168.132677	-38.026805	-54.910426	-38.026805	-54.910426	-0.397367	113.890726
8.250000	-0.438207	167.003404	-38.020164	-56.108628	-38.020164	-56.108628	-0.401140	112.617663
8.300000	-0.443531	165.870172	-38.026310	-57.277651	-38.026310	-57.277651	-0.404944	111.341347
8.350000	-0.448893	164.732880	-38.047012	-58.442982	-38.047012	-58.442982	-0.408780	110.061747
8.400000	-0.454294	163.591429	-38.082007	-59.636452	-38.082007	-59.636452	-0.412650	108.778836
8.450000	-0.459732	162.445718	-38.128521	-60.887121	-38.128521	-60.887121	-0.416554	107.492588
8.500000	-0.465208	161.295650	-38.181901	-62.211483	-38.181901	-62.211483	-0.420494	106.202982
8.550000	-0.470721	160.141125	-38.237109	-63.608973	-38.237109	-63.608973	-0.424472	104.909999
8.600000	-0.476270	158.982046	-38.290196	-65.065161	-38.290196	-65.065161	-0.428488	103.613626
8.650000	-0.481854	157.818315	-38.338974	-66.559335	-38.338974	-66.559335	-0.432544	102.313851
8.700000	-0.487474	156.649836	-38.382845	-68.071389	-38.382845	-68.071389	-0.436643	101.010668
8.750000	-0.493129	155.476512	-38.422240	-69.585477	-38.422240	-69.585477	-0.440785	99.704071
8.800000	-0.498819	154.298030	-38.457949	-71.090065	-38.457949	-71.090065	-0.444975	98.393913
8.850000	-0.504543	153.114507	-38.491182	-72.578915	-38.491182	-72.578915	-0.449211	97.080347
8.900000	-0.510299	151.925849	-38.522839	-74.048694	-38.522839	-74.048694	-0.453497	95.763381
8.950000	-0.516088	150.731965	-38.553667	-75.497889	-38.553667	-75.497889	-0.457834	94.443028
9.000000	-0.521908	149.532764	-38.584251	-76.926080	-38.584251	-76.926080	-0.462223	93.119302
9.050000	-0.527759	148.328158	-38.615033	-78.333464	-38.615033	-78.333464	-0.466668	91.792225
9.100000	-0.533640	147.118058	-38.646344	-79.720553	-38.646344	-79.720553	-0.471170	90.461821
9.150000	-0.539550	145.902379	-38.678420	-81.087994	-38.678420	-81.087994	-0.475731	89.128117
9.200000	-0.545489	144.681037	-38.711429	-82.436468	-38.711429	-82.436468	-0.480353	87.791147
9.250000	-0.551455	143.453948	-38.745486	-83.766634	-38.745486	-83.766634	-0.485038	86.450946
9.300000	-0.557448	142.221031	-38.780664	-85.079106	-38.780664	-85.079106	-0.489790	85.107556
9.350000	-0.563468	140.982209	-38.817008	-86.374438	-38.817008	-86.374438	-0.494609	83.761021
9.400000	-0.569512	139.737405	-38.854539	-87.653126	-38.854539	-87.653126	-0.499499	82.411392
9.450000	-0.575581	138.486544	-38.893262	-88.915612	-38.893262	-88.915612	-0.504462	81.058720
9.500000	-0.581672	137.229554	-38.933170	-90.162288	-38.933170	-90.162288	-0.509500	79.703065
9.550000	-0.587787	135.966367	-38.974244	-91.393502	-38.974244	-91.393502	-0.514616	78.344488
9.600000	-0.593922	134.696916	-39.016460	-92.609566	-39.016460	-92.609566	-0.519812	76.983056
9.650000	-0.600078	133.421138	-39.059789	-93.810758	-39.059789	-93.810758	-0.525091	75.618839
9.700000	-0.606254	132.138971	-39.104198	-94.997334	-39.104198	-94.997334	-0.530456	74.251913
9.750000	-0.612447	130.850358	-39.149650	-96.169525	-39.149650	-96.169525	-0.535908	72.882356
9.800000	-0.618658	129.555245	-39.196108	-97.327547	-39.196108	-97.327547	-0.541451	71.510251
9.850000	-0.624885	128.253582	-39.243533	-98.471599	-39.243533	-98.471599	-0.547086	70.135688
9.900000	-0.631127	126.945322	-39.291885	-99.601869	-39.291885	-99.601869	-0.552818	68.758757
9.950000	-0.637382	125.630421	-39.341124	-100.718538	-39.341124	-100.718538	-0.558647	67.379555
10.000000	-0.643651	124.308840	-39.391209	-101.821776	-39.391209	-101.821776	-0.564578	65.998181
