! freq	dB(S11)	phase(S11)	dB(S12)	phase(S12)	
!     	dB(S21)	phase(S21)	dB(S22)	phase(S22)	
!S-par simulation data
#  GHz  S  DB  R 50
0.000000	-0.000000	0.000000	-358.676694	0.000000	-358.676694	0.000000	-0.000000	0.000000
0.050000	-0.000093	-0.760996	-108.620645	69.744678	-108.620645	69.744678	-0.000129	-1.259590
0.100000	-0.000367	-1.521779	-102.941738	78.229324	-102.941738	78.229324	-0.000513	-2.518900
0.150000	-0.000813	-2.282150	-99.537154	80.569214	-99.537154	80.569214	-0.001142	-3.777662
0.200000	-0.001413	-3.041943	-97.139802	81.316363	-97.139802	81.316363	-0.001999	-5.035640
0.250000	-0.002157	-3.800969	-95.318681	81.409011	-95.318681	81.409011	-0.003077	-6.292546
0.300000	-0.003012	-4.559191	-93.869481	81.234527	-93.869481	81.234527	-0.004335	-7.548285
0.350000	-0.003962	-5.316506	-92.687886	80.915687	-92.687886	80.915687	-0.005759	-8.802660
0.400000	-0.004986	-6.072871	-91.710252	80.536001	-91.710252	80.536001	-0.007323	-10.055543
0.450000	-0.006066	-6.828269	-90.895872	80.148282	-90.895872	80.148282	-0.009003	-11.306837
0.500000	-0.007184	-7.582702	-90.217414	79.791448	-90.217414	79.791448	-0.010776	-12.556473
0.550000	-0.008326	-8.336190	-89.655907	79.498512	-89.655907	79.498512	-0.012619	-13.804407
0.600000	-0.009481	-9.088759	-89.197893	79.301047	-89.197893	79.301047	-0.014513	-15.050611
0.650000	-0.010639	-9.840441	-88.833701	79.232204	-88.833701	79.232204	-0.016441	-16.295077
0.700000	-0.011793	-10.591269	-88.556330	79.329198	-88.556330	79.329198	-0.018387	-17.537805
0.750000	-0.012939	-11.341276	-88.360646	79.635764	-88.360646	79.635764	-0.020340	-18.778804
0.800000	-0.014073	-12.090489	-88.242725	80.204893	-88.242725	80.204893	-0.022288	-20.018087
0.850000	-0.015192	-12.838934	-88.199201	81.102035	-88.199201	81.102035	-0.024225	-21.255668
0.900000	-0.016296	-13.586632	-88.226463	82.408849	-88.226463	82.408849	-0.026143	-22.491564
0.950000	-0.017385	-14.333598	-88.319514	84.227259	-88.319514	84.227259	-0.028039	-23.725787
1.000000	-0.018458	-15.079842	-88.470248	86.682925	-88.470248	86.682925	-0.029910	-24.958349
1.050000	-0.019516	-15.825371	-88.664816	89.925750	-88.664816	89.925750	-0.031753	-26.189257
1.100000	-0.020561	-16.570190	-88.879850	94.122330	-88.879850	94.122330	-0.033568	-27.418516
1.150000	-0.021593	-17.314295	-89.077832	99.431171	-89.077832	99.431171	-0.035355	-28.646126
1.200000	-0.022613	-18.057685	-89.203436	105.948446	-89.203436	105.948446	-0.037114	-29.872084
1.250000	-0.023622	-18.800354	-89.185533	113.618883	-89.185533	113.618883	-0.038847	-31.096384
1.300000	-0.024622	-19.542260	-88.939062	122.150043	-88.939062	122.150043	-0.040553	-32.318945
1.350000	-0.025614	-20.283425	-88.426967	130.908202	-88.426967	130.908202	-0.042235	-33.539825
1.400000	-0.026598	-21.023837	-87.656611	139.237912	-87.656611	139.237912	-0.043896	-34.759012
1.450000	-0.027576	-21.763483	-86.680845	146.634872	-86.680845	146.634872	-0.045536	-35.976489
1.500000	-0.028549	-22.502350	-85.571727	152.853222	-85.571727	152.853222	-0.047159	-37.192237
1.550000	-0.029518	-23.240424	-84.395614	157.871272	-84.395614	157.871272	-0.048765	-38.406240
1.600000	-0.030482	-23.977689	-83.201731	161.798854	-83.201731	161.798854	-0.050357	-39.618477
1.650000	-0.031444	-24.714131	-82.021726	164.796358	-82.021726	164.796358	-0.051936	-40.828928
1.700000	-0.032404	-25.449732	-80.873755	167.026598	-80.873755	167.026598	-0.053505	-42.037574
1.750000	-0.033361	-26.184479	-79.766987	168.633560	-79.766987	168.633560	-0.055064	-43.244394
1.800000	-0.034318	-26.918354	-78.705088	169.736579	-78.705088	169.736579	-0.056617	-44.449369
1.850000	-0.035273	-27.651343	-77.688547	170.431511	-77.688547	170.431511	-0.058163	-45.652479
1.900000	-0.036229	-28.383429	-76.716119	170.794314	-76.716119	170.794314	-0.059706	-46.853706
1.950000	-0.037185	-29.114595	-75.785686	170.884946	-75.785686	170.884946	-0.061245	-48.053033
2.000000	-0.038141	-29.844828	-74.894756	170.750822	-74.894756	170.750822	-0.062782	-49.250442
2.050000	-0.039098	-30.574111	-74.040736	170.429617	-74.040736	170.429617	-0.064320	-50.445918
2.100000	-0.040057	-31.302428	-73.221093	169.951466	-73.221093	169.951466	-0.065858	-51.639446
2.150000	-0.041017	-32.029765	-72.433422	169.340647	-72.433422	169.340647	-0.067398	-52.831014
2.200000	-0.041980	-32.756107	-71.675489	168.616877	-71.675489	168.616877	-0.068941	-54.020610
2.250000	-0.042945	-33.481439	-70.945236	167.796287	-70.945236	167.796287	-0.070487	-55.208224
2.300000	-0.043912	-34.205746	-70.240779	166.892179	-70.240779	166.892179	-0.072039	-56.393847
2.350000	-0.044882	-34.929014	-69.560402	165.915600	-69.560402	165.915600	-0.073597	-57.577473
2.400000	-0.045856	-35.651230	-68.902541	164.875786	-68.902541	164.875786	-0.075161	-58.759095
2.450000	-0.046833	-36.372379	-68.265775	163.780517	-68.265775	163.780517	-0.076732	-59.938711
2.500000	-0.047814	-37.092448	-67.648807	162.636380	-67.648807	162.636380	-0.078312	-61.116318
2.550000	-0.048800	-37.811376	-67.049478	161.447334	-67.049478	161.447334	-0.079901	-62.291829
2.600000	-0.049790	-38.529197	-66.467797	160.220215	-66.467797	160.220215	-0.081500	-63.465333
2.650000	-0.050785	-39.245899	-65.902763	158.959089	-65.902763	158.959089	-0.083109	-64.636833
2.700000	-0.051785	-39.961468	-65.353460	157.667482	-65.353460	157.667482	-0.084730	-65.806337
2.750000	-0.052790	-40.675893	-64.819046	156.348466	-64.819046	156.348466	-0.086362	-66.973849
2.800000	-0.053801	-41.389163	-64.298748	155.004727	-64.298748	155.004727	-0.088007	-68.139380
2.850000	-0.054818	-42.101265	-63.791854	153.638622	-63.791854	153.638622	-0.089665	-69.302941
2.900000	-0.055841	-42.812189	-63.297704	152.252228	-63.297704	152.252228	-0.091336	-70.464545
2.950000	-0.056871	-43.521924	-62.815690	150.847381	-62.815690	150.847381	-0.093022	-71.624205
3.000000	-0.057908	-44.230460	-62.345247	149.425708	-62.345247	149.425708	-0.094723	-72.781940
3.050000	-0.058953	-44.937785	-61.885853	147.988658	-61.885853	147.988658	-0.096439	-73.937766
3.100000	-0.060004	-45.643890	-61.437017	146.537519	-61.437017	146.537519	-0.098172	-75.091705
3.150000	-0.061064	-46.348766	-60.998287	145.073443	-60.998287	145.073443	-0.099921	-76.243777
3.200000	-0.062132	-47.052403	-60.569236	143.597462	-60.569236	143.597462	-0.101688	-77.394009
3.250000	-0.063209	-47.754792	-60.149469	142.110499	-60.149469	142.110499	-0.103473	-78.542424
3.300000	-0.064294	-48.455924	-59.738613	140.613385	-59.738613	140.613385	-0.105276	-79.689051
3.350000	-0.065389	-49.155791	-59.336319	139.106864	-59.336319	139.106864	-0.107099	-80.833919
3.400000	-0.066493	-49.854385	-58.942259	137.591606	-58.942259	137.591606	-0.108941	-81.977059
3.450000	-0.067608	-50.551698	-58.556123	136.068212	-58.556123	136.068212	-0.110805	-83.118505
3.500000	-0.068732	-51.247722	-58.177622	134.537222	-58.177622	134.537222	-0.112689	-84.258292
3.550000	-0.069868	-51.942450	-57.806479	132.999120	-57.806479	132.999120	-0.114595	-85.396456
3.600000	-0.071014	-52.635876	-57.442435	131.454335	-57.442435	131.454335	-0.116524	-86.533037
3.650000	-0.072171	-53.327992	-57.085243	129.903253	-57.085243	129.903253	-0.118476	-87.668074
3.700000	-0.073340	-54.018793	-56.734671	128.346210	-56.734671	128.346210	-0.120452	-88.801611
3.750000	-0.074522	-54.708272	-56.390497	126.783504	-56.390497	126.783504	-0.122452	-89.933693
3.800000	-0.075716	-55.396366	-56.052209	125.215164	-56.052209	125.215164	-0.124479	-91.064306
3.850000	-0.076923	-56.083127	-55.719931	123.641646	-55.719931	123.641646	-0.126531	-92.193563
3.900000	-0.078143	-56.768550	-55.393468	122.063119	-55.393468	122.063119	-0.128610	-93.321514
3.950000	-0.079377	-57.452630	-55.072636	120.479715	-55.072636	120.479715	-0.130717	-94.448213
4.000000	-0.080624	-58.135364	-54.757259	118.891523	-54.757259	118.891523	-0.132852	-95.573715
4.050000	-0.081886	-58.816747	-54.447167	117.298591	-54.447167	117.298591	-0.135015	-96.698077
4.100000	-0.083162	-59.496775	-54.142198	115.700920	-54.142198	115.700920	-0.137208	-97.821360
4.150000	-0.084454	-60.175445	-53.842195	114.098462	-53.842195	114.098462	-0.139432	-98.943625
4.200000	-0.085761	-60.852754	-53.547005	112.491112	-53.547005	112.491112	-0.141687	-100.064938
4.250000	-0.087083	-61.528700	-53.256482	110.878705	-53.256482	110.878705	-0.143973	-101.185367
4.300000	-0.088421	-62.203280	-52.970483	109.261002	-52.970483	109.261002	-0.146292	-102.304984
4.350000	-0.089776	-62.876492	-52.688869	107.637680	-52.688869	107.637680	-0.148645	-103.423865
4.400000	-0.091148	-63.548334	-52.411500	106.008312	-52.411500	106.008312	-0.151033	-104.542087
4.450000	-0.092537	-64.218805	-52.138243	104.372351	-52.138243	104.372351	-0.153456	-105.659737
4.500000	-0.093943	-64.887904	-51.868962	102.729097	-51.868962	102.729097	-0.155915	-106.776904
4.550000	-0.095367	-65.555632	-51.603520	101.077661	-51.603520	101.077661	-0.158412	-107.893685
4.600000	-0.096809	-66.221987	-51.341781	99.416912	-51.341781	99.416912	-0.160949	-109.010184
4.650000	-0.098270	-66.886970	-51.083602	97.745409	-51.083602	97.745409	-0.163525	-110.126518
4.700000	-0.099750	-67.550582	-50.828837	96.061302	-50.828837	96.061302	-0.166144	-111.242814
4.750000	-0.101249	-68.212826	-50.577328	94.362193	-50.577328	94.362193	-0.168807	-112.359220
4.800000	-0.102767	-68.873703	-50.328908	92.644941	-50.328908	92.644941	-0.171517	-113.475902
4.850000	-0.104306	-69.533217	-50.083393	90.905366	-50.083393	90.905366	-0.174278	-114.593061
4.900000	-0.105864	-70.191372	-49.840574	89.137807	-49.840574	89.137807	-0.177095	-115.710941
4.950000	-0.107442	-70.848176	-49.600217	87.334435	-49.600217	87.334435	-0.179976	-116.829847
5.000000	-0.109041	-71.503637	-49.362050	85.484144	-49.362050	85.484144	-0.182932	-117.950181
5.050000	-0.110661	-72.157710	-49.125545	83.566721	-49.125545	83.566721	-0.185987	-119.072612
5.100000	-0.112302	-72.810475	-48.890538	81.557660	-48.890538	81.557660	-0.189173	-120.197911
5.150000	-0.113963	-73.461964	-48.656704	79.413663	-48.656704	79.413663	-0.192552	-121.327367
5.200000	-0.115645	-74.112231	-48.424009	77.059114	-48.424009	77.059114	-0.196255	-122.463128
5.250000	-0.117347	-74.761435	-48.193816	74.376382	-48.193816	74.376382	-0.200530	-123.608336
5.300000	-0.119079	-75.409674	-47.971948	71.037183	-47.971948	71.037183	-0.206180	-124.771398
5.350000	-0.120863	-76.057486	-47.785804	66.398929	-47.785804	66.398929	-0.215336	-125.966498
5.400000	-0.122887	-76.706254	-47.835187	58.029483	-47.835187	58.029483	-0.239057	-127.230304
5.450000	-0.126583	-77.355383	-50.371634	39.944474	-50.371634	39.944474	-0.332318	-128.375689
5.500000	-0.129339	-77.975207	-52.251182	91.424813	-52.251182	91.424813	-0.312802	-128.526108
5.550000	-0.129625	-78.613121	-48.635510	84.643769	-48.635510	84.643769	-0.247576	-129.741257
5.600000	-0.130993	-79.253476	-47.726237	78.631501	-47.726237	78.631501	-0.234128	-130.979607
5.650000	-0.132691	-79.892144	-47.262444	74.684368	-47.262444	74.684368	-0.231535	-132.168941
5.700000	-0.134524	-80.529145	-46.936603	71.682314	-46.936603	71.682314	-0.232242	-133.333562
5.750000	-0.136432	-81.164609	-46.668749	69.160079	-46.668749	69.160079	-0.234254	-134.485860
5.800000	-0.138395	-81.798569	-46.431926	66.923117	-46.431926	66.923117	-0.236931	-135.631447
5.850000	-0.140400	-82.431117	-46.212854	64.855184	-46.212854	64.855184	-0.239964	-136.773753
5.900000	-0.142441	-83.062381	-46.005355	62.894262	-46.005355	62.894262	-0.243214	-137.914572
5.950000	-0.144517	-83.692304	-45.806612	61.014340	-45.806612	61.014340	-0.246631	-139.054877
6.000000	-0.146627	-84.320905	-45.614569	59.193054	-45.614569	59.193054	-0.250173	-140.195440
6.050000	-0.148769	-84.948198	-45.427930	57.415665	-45.427930	57.415665	-0.253818	-141.336812
6.100000	-0.150945	-85.574194	-45.245835	55.672075	-45.245835	55.672075	-0.257550	-142.479405
6.150000	-0.153153	-86.198906	-45.067687	53.955132	-45.067687	53.955132	-0.261359	-143.623548
6.200000	-0.155393	-86.822344	-44.893057	52.259635	-44.893057	52.259635	-0.265239	-144.769512
6.250000	-0.157667	-87.444516	-44.721627	50.581714	-44.721627	50.581714	-0.269185	-145.917530
6.300000	-0.159974	-88.065379	-44.553132	48.918957	-44.553132	48.918957	-0.273198	-147.067915
6.350000	-0.162315	-88.684996	-44.387399	47.268407	-44.387399	47.268407	-0.277271	-148.220764
6.400000	-0.164689	-89.303377	-44.224276	45.628332	-44.224276	45.628332	-0.281403	-149.376250
6.450000	-0.167096	-89.920530	-44.063641	43.997350	-44.063641	43.997350	-0.285594	-150.534537
6.500000	-0.169538	-90.536466	-43.905391	42.374346	-43.905391	42.374346	-0.289841	-151.695785
6.550000	-0.172014	-91.151192	-43.749439	40.758414	-43.749439	40.758414	-0.294145	-152.860146
6.600000	-0.174524	-91.764720	-43.595709	39.148806	-43.595709	39.148806	-0.298505	-154.027771
6.650000	-0.177070	-92.377057	-43.444137	37.544906	-43.444137	37.544906	-0.302920	-155.198806
6.700000	-0.179651	-92.988213	-43.294665	35.946200	-43.294665	35.946200	-0.307389	-156.373398
6.750000	-0.182268	-93.598200	-43.147243	34.352256	-43.147243	34.352256	-0.311914	-157.551692
6.800000	-0.184921	-94.207025	-43.001824	32.762712	-43.001824	32.762712	-0.316492	-158.733832
6.850000	-0.187610	-94.814699	-42.858367	31.177263	-42.858367	31.177263	-0.321125	-159.919964
6.900000	-0.190336	-95.421232	-42.716835	29.595647	-42.716835	29.595647	-0.325811	-161.110230
6.950000	-0.193099	-96.026635	-42.577192	28.017644	-42.577192	28.017644	-0.330551	-162.304775
7.000000	-0.195899	-96.630918	-42.439408	26.443068	-42.439408	26.443068	-0.335344	-163.503745
7.050000	-0.198738	-97.234091	-42.303453	24.871758	-42.303453	24.871758	-0.340190	-164.707285
7.100000	-0.201614	-97.836166	-42.169299	23.303579	-42.169299	23.303579	-0.345089	-165.915541
7.150000	-0.204529	-98.437152	-42.036921	21.738418	-42.036921	21.738418	-0.350040	-167.128660
7.200000	-0.207483	-99.037062	-41.906295	20.176178	-41.906295	20.176178	-0.355044	-168.346789
7.250000	-0.210477	-99.635906	-41.777400	18.616779	-41.777400	18.616779	-0.360098	-169.570077
7.300000	-0.213509	-100.233695	-41.650212	17.060156	-41.650212	17.060156	-0.365205	-170.798672
7.350000	-0.216582	-100.830441	-41.524714	15.506256	-41.524714	15.506256	-0.370362	-172.032725
7.400000	-0.219695	-101.426155	-41.400885	13.955038	-41.400885	13.955038	-0.375569	-173.272384
7.450000	-0.222849	-102.020849	-41.278709	12.406469	-41.278709	12.406469	-0.380827	-174.517803
7.500000	-0.226044	-102.614536	-41.158167	10.860530	-41.158167	10.860530	-0.386134	-175.769132
7.550000	-0.229282	-103.207183	-41.039243	9.317320	-41.039243	9.317320	-0.391491	-177.026795
7.600000	-0.232561	-103.798848	-40.921925	7.776722	-40.921925	7.776722	-0.396897	-178.290687
7.650000	-0.235883	-104.389542	-40.806197	6.238741	-40.806197	6.238741	-0.402350	-179.560962
7.700000	-0.239247	-104.979277	-40.692046	4.703387	-40.692046	4.703387	-0.407850	179.162226
7.750000	-0.242654	-105.568067	-40.579457	3.170679	-40.579457	3.170679	-0.413396	177.878723
7.800000	-0.246104	-106.155924	-40.468416	1.640643	-40.468416	1.640643	-0.418987	176.588376
7.850000	-0.249598	-106.742861	-40.358911	0.113309	-40.358911	0.113309	-0.424623	175.291030
7.900000	-0.253135	-107.328890	-40.250930	-1.411283	-40.250930	-1.411283	-0.430302	173.986532
7.950000	-0.256716	-107.914025	-40.144459	-2.933092	-40.144459	-2.933092	-0.436024	172.674726
8.000000	-0.260342	-108.498279	-40.039487	-4.452065	-40.039487	-4.452065	-0.441787	171.355460
8.050000	-0.264013	-109.081665	-39.936002	-5.968147	-39.936002	-5.968147	-0.447590	170.028581
8.100000	-0.267729	-109.664197	-39.833992	-7.481275	-39.833992	-7.481275	-0.453433	168.693937
8.150000	-0.271491	-110.245888	-39.733446	-8.991381	-39.733446	-8.991381	-0.459314	167.351375
8.200000	-0.275299	-110.826752	-39.634353	-10.498390	-39.634353	-10.498390	-0.465232	166.000747
8.250000	-0.279153	-111.406803	-39.536701	-12.002222	-39.536701	-12.002222	-0.471186	164.641901
8.300000	-0.283053	-111.986055	-39.440479	-13.502789	-39.440479	-13.502789	-0.477174	163.274691
8.350000	-0.287001	-112.564522	-39.345676	-14.999998	-39.345676	-14.999998	-0.483196	161.898971
8.400000	-0.290996	-113.142219	-39.252281	-16.493748	-39.252281	-16.493748	-0.489248	160.514596
8.450000	-0.295039	-113.719160	-39.160283	-17.983932	-39.160283	-17.983932	-0.495331	159.121424
8.500000	-0.299131	-114.295359	-39.069671	-19.470436	-39.069671	-19.470436	-0.501443	157.719315
8.550000	-0.303270	-114.870833	-38.980432	-20.953139	-38.980432	-20.953139	-0.507581	156.308133
8.600000	-0.307459	-115.445596	-38.892556	-22.431913	-38.892556	-22.431913	-0.513744	154.887743
8.650000	-0.311698	-116.019662	-38.806032	-23.906620	-38.806032	-23.906620	-0.519931	153.458014
8.700000	-0.315986	-116.593048	-38.720847	-25.377117	-38.720847	-25.377117	-0.526140	152.018819
8.750000	-0.320324	-117.165770	-38.636990	-26.843249	-38.636990	-26.843249	-0.532369	150.570035
8.800000	-0.324715	-117.737815	-38.554473	-28.304651	-38.554473	-28.304651	-0.538616	149.111114
8.850000	-0.329156	-118.309229	-38.473261	-29.761340	-38.473261	-29.761340	-0.544879	147.642360
8.900000	-0.333650	-118.880029	-38.393343	-31.213133	-38.393343	-31.213133	-0.551156	146.163663
8.950000	-0.338195	-119.450230	-38.314706	-32.659837	-38.314706	-32.659837	-0.557444	144.674920
9.000000	-0.342792	-120.019849	-38.237338	-34.101250	-38.237338	-34.101250	-0.563742	143.176032
9.050000	-0.347441	-120.588904	-38.161228	-35.537155	-38.161228	-35.537155	-0.570048	141.666908
9.100000	-0.352144	-121.157412	-38.086363	-36.967327	-38.086363	-36.967327	-0.576359	140.147462
9.150000	-0.356900	-121.725391	-38.012734	-38.391525	-38.012734	-38.391525	-0.582674	138.617616
9.200000	-0.361710	-122.292857	-37.940327	-39.809495	-37.940327	-39.809495	-0.588989	137.077300
9.250000	-0.366573	-122.859830	-37.869134	-41.220970	-37.869134	-41.220970	-0.595302	135.526449
9.300000	-0.371491	-123.426327	-37.799144	-42.625668	-37.799144	-42.625668	-0.601611	133.965010
9.350000	-0.376464	-123.992367	-37.730348	-44.023290	-37.730348	-44.023290	-0.607914	132.392936
9.400000	-0.381491	-124.557969	-37.662740	-45.413521	-37.662740	-45.413521	-0.614209	130.810189
9.450000	-0.386574	-125.123151	-37.596312	-46.796029	-37.596312	-46.796029	-0.620492	129.216744
9.500000	-0.391713	-125.687932	-37.531062	-48.170466	-37.531062	-48.170466	-0.626761	127.612583
9.550000	-0.396907	-126.252333	-37.466987	-49.536462	-37.466987	-49.536462	-0.633015	125.997700
9.600000	-0.402158	-126.816373	-37.404087	-50.893631	-37.404087	-50.893631	-0.639249	124.372098
9.650000	-0.407465	-127.380072	-37.342368	-52.241568	-37.342368	-52.241568	-0.645463	122.735795
9.700000	-0.412829	-127.943449	-37.281836	-53.579848	-37.281836	-53.579848	-0.651653	121.088818
9.750000	-0.418249	-128.506526	-37.222504	-54.908029	-37.222504	-54.908029	-0.657817	119.431208
9.800000	-0.423727	-129.069322	-37.164389	-56.225652	-37.164389	-56.225652	-0.663952	117.763019
9.850000	-0.429262	-129.631859	-37.107515	-57.532242	-37.107515	-57.532242	-0.670057	116.084316
9.900000	-0.434854	-130.194157	-37.051912	-58.827311	-37.051912	-58.827311	-0.676128	114.395181
9.950000	-0.440504	-130.756238	-36.997618	-60.110361	-36.997618	-60.110361	-0.682164	112.695709
10.000000	-0.446212	-131.318123	-36.944681	-61.380892	-36.944681	-61.380892	-0.688162	110.986008
