! freq	dB(S11)	phase(S11)	dB(S12)	phase(S12)	
!     	dB(S21)	phase(S21)	dB(S22)	phase(S22)	
!S-par simulation data
#  GHz  S  DB  R 50
0.000000	-0.000000	0.000000	-368.906456	0.000000	-368.906456	0.000000	-0.000000	0.000000
0.050000	-0.001751	-1.312534	-106.024915	87.932441	-106.024915	87.932441	-0.001228	-0.868995
0.100000	-0.003965	-2.639465	-100.055899	87.416460	-100.055899	87.416460	-0.002940	-1.726459
0.150000	-0.005598	-3.968846	-96.589744	86.578662	-96.589744	86.578662	-0.004086	-2.579575
0.200000	-0.007063	-5.296774	-94.160815	85.674123	-94.160815	85.674123	-0.004919	-3.432081
0.250000	-0.008548	-6.622549	-92.312458	84.757804	-92.312458	84.757804	-0.005631	-4.284605
0.300000	-0.010110	-7.946002	-90.842563	83.856001	-90.842563	83.856001	-0.006325	-5.137099
0.350000	-0.011740	-9.267464	-89.634642	82.981622	-89.634642	82.981622	-0.007044	-5.989419
0.400000	-0.013424	-10.586904	-88.626722	82.147354	-88.626722	82.147354	-0.007806	-6.841425
0.450000	-0.015142	-11.904411	-87.777298	81.364580	-87.777298	81.364580	-0.008620	-7.692999
0.500000	-0.016878	-13.219910	-87.063930	80.652216	-87.063930	80.652216	-0.009490	-8.543992
0.550000	-0.018616	-14.533617	-86.462956	80.020883	-86.462956	80.020883	-0.010411	-9.394354
0.600000	-0.020347	-15.845646	-85.958844	79.484420	-85.958844	79.484420	-0.011379	-10.244036
0.650000	-0.022065	-17.156053	-85.541291	79.060830	-85.541291	79.060830	-0.012387	-11.092987
0.700000	-0.023770	-18.464878	-85.202647	78.771400	-85.202647	78.771400	-0.013432	-11.941163
0.750000	-0.025458	-19.772148	-84.937160	78.641571	-84.937160	78.641571	-0.014509	-12.788528
0.800000	-0.027132	-21.077838	-84.741964	78.707659	-84.741964	78.707659	-0.015613	-13.635029
0.850000	-0.028790	-22.381843	-84.617620	79.028208	-84.617620	79.028208	-0.016741	-14.480577
0.900000	-0.030436	-23.684297	-84.555135	79.633166	-84.555135	79.633166	-0.017886	-15.325230
0.950000	-0.032073	-24.985180	-84.551147	80.581186	-84.551147	80.581186	-0.019044	-16.168967
1.000000	-0.033701	-26.284470	-84.601440	81.943560	-84.601440	81.943560	-0.020212	-17.011773
1.050000	-0.035322	-27.582139	-84.699979	83.805841	-84.699979	83.805841	-0.021386	-17.853633
1.100000	-0.036939	-28.878158	-84.837524	86.268091	-84.837524	86.268091	-0.022565	-18.694533
1.150000	-0.038550	-30.172366	-84.999654	89.502931	-84.999654	89.502931	-0.023744	-19.534389
1.200000	-0.040159	-31.464776	-85.159259	93.614470	-85.159259	93.614470	-0.024923	-20.373217
1.250000	-0.041766	-32.755429	-85.281112	98.651672	-85.281112	98.651672	-0.026099	-21.211048
1.300000	-0.043371	-34.044288	-85.320567	104.623231	-85.320567	104.623231	-0.027271	-22.047870
1.350000	-0.044976	-35.331320	-85.227305	111.417223	-85.227305	111.417223	-0.028438	-22.883673
1.400000	-0.046580	-36.616494	-84.956224	118.769339	-84.956224	118.769339	-0.029600	-23.718446
1.450000	-0.048184	-37.899765	-84.480441	126.280918	-84.480441	126.280918	-0.030755	-24.552171
1.500000	-0.049788	-39.180900	-83.780015	133.432912	-83.780015	133.432912	-0.031902	-25.384725
1.550000	-0.051393	-40.460080	-82.917724	139.875512	-82.917724	139.875512	-0.033043	-26.216211
1.600000	-0.052998	-41.737278	-81.943121	145.418881	-81.943121	145.418881	-0.034176	-27.046616
1.650000	-0.054603	-43.012469	-80.903977	150.014756	-80.903977	150.014756	-0.035303	-27.875929
1.700000	-0.056210	-44.285510	-79.830966	153.664534	-79.830966	153.664534	-0.036422	-28.704070
1.750000	-0.057817	-45.556524	-78.762651	156.536658	-78.762651	156.536658	-0.037535	-29.531105
1.800000	-0.059426	-46.825434	-77.712290	158.720663	-77.712290	158.720663	-0.038642	-30.356987
1.850000	-0.061035	-48.092219	-76.690360	160.328417	-76.690360	160.328417	-0.039743	-31.181702
1.900000	-0.062646	-49.356865	-75.702345	161.458229	-75.702345	161.458229	-0.040839	-32.005234
1.950000	-0.064259	-50.619356	-74.750545	162.192753	-74.750545	162.192753	-0.041931	-32.827569
2.000000	-0.065874	-51.879680	-73.835311	162.599912	-73.835311	162.599912	-0.043018	-33.648691
2.050000	-0.067492	-53.137827	-72.955863	162.734931	-72.955863	162.734931	-0.044102	-34.468585
2.100000	-0.069112	-54.393788	-72.110794	162.642545	-72.110794	162.642545	-0.045184	-35.287235
2.150000	-0.070735	-55.647557	-71.298393	162.359025	-71.298393	162.359025	-0.046263	-36.104626
2.200000	-0.072362	-56.899130	-70.516828	161.913869	-70.516828	161.913869	-0.047341	-36.920742
2.250000	-0.073992	-58.148503	-69.764263	161.331186	-69.764263	161.331186	-0.048419	-37.735568
2.300000	-0.075628	-59.395677	-69.038918	160.630788	-69.038918	160.630788	-0.049496	-38.549089
2.350000	-0.077268	-60.640653	-68.339107	159.829057	-68.339107	159.829057	-0.050574	-39.361290
2.400000	-0.078914	-61.883434	-67.663248	158.939623	-67.663248	158.939623	-0.051653	-40.172155
2.450000	-0.080567	-63.124024	-67.009873	157.973892	-67.009873	157.973892	-0.052734	-40.981669
2.500000	-0.082226	-64.362432	-66.377625	156.941473	-66.377625	156.941473	-0.053817	-41.789819
2.550000	-0.083894	-65.598572	-65.764247	155.848280	-65.764247	155.848280	-0.054904	-42.596529
2.600000	-0.085569	-66.832551	-65.169715	154.703997	-65.169715	154.703997	-0.055995	-43.401846
2.650000	-0.087254	-68.064380	-64.592952	153.514446	-64.592952	153.514446	-0.057090	-44.205754
2.700000	-0.088949	-69.294076	-64.032968	152.284647	-64.032968	152.284647	-0.058190	-45.008241
2.750000	-0.090654	-70.521654	-63.488852	151.018953	-63.488852	151.018953	-0.059296	-45.809295
2.800000	-0.092371	-71.747134	-62.959764	149.721149	-62.959764	149.721149	-0.060408	-46.608903
2.850000	-0.094100	-72.970537	-62.444930	148.394546	-62.444930	148.394546	-0.061527	-47.407053
2.900000	-0.095841	-74.191883	-61.943634	147.042046	-61.943634	147.042046	-0.062653	-48.203733
2.950000	-0.097597	-75.411199	-61.455214	145.666207	-61.455214	145.666207	-0.063787	-48.998933
3.000000	-0.099367	-76.628509	-60.979055	144.269288	-60.979055	144.269288	-0.064929	-49.792642
3.050000	-0.101152	-77.843842	-60.514587	142.853295	-60.514587	142.853295	-0.066079	-50.584849
3.100000	-0.102953	-79.057228	-60.061281	141.420010	-60.061281	141.420010	-0.067240	-51.375546
3.150000	-0.104771	-80.268698	-59.618643	139.971024	-59.618643	139.971024	-0.068409	-52.164723
3.200000	-0.106607	-81.478286	-59.186212	138.507761	-59.186212	138.507761	-0.069590	-52.952371
3.250000	-0.108461	-82.686026	-58.763557	137.031498	-58.763557	137.031498	-0.070781	-53.738484
3.300000	-0.110335	-83.891957	-58.350277	135.543384	-58.350277	135.543384	-0.071983	-54.523052
3.350000	-0.112229	-85.096116	-57.945993	134.044455	-57.945993	134.044455	-0.073196	-55.306070
3.400000	-0.114143	-86.298545	-57.550352	132.535649	-57.550352	132.535649	-0.074422	-56.087531
3.450000	-0.116080	-87.499287	-57.163021	131.017812	-57.163021	131.017812	-0.075660	-56.867429
3.500000	-0.118039	-88.698384	-56.783687	129.491717	-56.783687	129.491717	-0.076912	-57.645760
3.550000	-0.120021	-89.895884	-56.412056	127.958062	-56.412056	127.958062	-0.078176	-58.422518
3.600000	-0.122027	-91.091834	-56.047848	126.417487	-56.047848	126.417487	-0.079455	-59.197700
3.650000	-0.124058	-92.286284	-55.690801	124.870574	-55.690801	124.870574	-0.080747	-59.971302
3.700000	-0.126115	-93.479286	-55.340668	123.317856	-55.340668	123.317856	-0.082054	-60.743322
3.750000	-0.128198	-94.670892	-54.997213	121.759823	-54.997213	121.759823	-0.083376	-61.513758
3.800000	-0.130309	-95.861101	-54.659927	120.196729	-54.659927	120.196729	-0.084715	-62.282539
3.850000	-0.132448	-97.050031	-54.328909	118.629215	-54.328909	118.629215	-0.086069	-63.049734
3.900000	-0.134616	-98.237741	-54.003956	117.057654	-54.003956	117.057654	-0.087440	-63.815341
3.950000	-0.136813	-99.424291	-53.684877	115.482395	-53.684877	115.482395	-0.088827	-64.579363
4.000000	-0.139040	-100.609744	-53.371489	113.903757	-53.371489	113.903757	-0.090231	-65.341801
4.050000	-0.141298	-101.794161	-53.063618	112.322038	-53.063618	112.322038	-0.091653	-66.102655
4.100000	-0.143587	-102.977610	-52.761099	110.737512	-52.761099	110.737512	-0.093092	-66.861930
4.150000	-0.145908	-104.160157	-52.463773	109.150436	-52.463773	109.150436	-0.094550	-67.619629
4.200000	-0.148262	-105.341871	-52.171490	107.561047	-52.171490	107.561047	-0.096027	-68.375756
4.250000	-0.150649	-106.522822	-51.884105	105.969568	-51.884105	105.969568	-0.097523	-69.130315
4.300000	-0.153071	-107.703083	-51.601482	104.376207	-51.601482	104.376207	-0.099038	-69.883314
4.350000	-0.155527	-108.882727	-51.323488	102.781156	-51.323488	102.781156	-0.100573	-70.634757
4.400000	-0.158018	-110.061830	-51.049997	101.184600	-51.049997	101.184600	-0.102129	-71.384654
4.450000	-0.160545	-111.240469	-50.780888	99.586709	-50.780888	99.586709	-0.103705	-72.133012
4.500000	-0.163108	-112.418722	-50.516044	97.987644	-50.516044	97.987644	-0.105303	-72.879840
4.550000	-0.165709	-113.596670	-50.255355	96.387559	-50.255355	96.387559	-0.106922	-73.625149
4.600000	-0.168347	-114.774395	-49.998712	94.786597	-49.998712	94.786597	-0.108563	-74.368950
4.650000	-0.171023	-115.951980	-49.746012	93.184896	-49.746012	93.184896	-0.110227	-75.111255
4.700000	-0.173738	-117.129511	-49.497155	91.582586	-49.497155	91.582586	-0.111914	-75.852078
4.750000	-0.176492	-118.307075	-49.252046	89.979792	-49.252046	89.979792	-0.113624	-76.591433
4.800000	-0.179286	-119.484760	-49.010590	88.376634	-49.010590	88.376634	-0.115358	-77.329336
4.850000	-0.182120	-120.662655	-48.772699	86.773227	-48.772699	86.773227	-0.117116	-78.065804
4.900000	-0.184995	-121.840854	-48.538284	85.169682	-48.538284	85.169682	-0.118900	-78.800856
4.950000	-0.187911	-123.019449	-48.307261	83.566106	-48.307261	83.566106	-0.120709	-79.534512
5.000000	-0.190869	-124.198534	-48.079547	81.962604	-48.079547	81.962604	-0.122544	-80.266794
5.050000	-0.193870	-125.378238	-47.854951	80.359291	-47.854951	80.359291	-0.124407	-80.997668
5.100000	-0.196914	-126.558635	-47.633513	78.756264	-47.633513	78.756264	-0.126297	-81.727219
5.150000	-0.200001	-127.739827	-47.415154	77.153622	-47.415154	77.153622	-0.128215	-82.455477
5.200000	-0.203132	-128.921915	-47.199800	75.551463	-47.199800	75.551463	-0.130161	-83.182471
5.250000	-0.206306	-130.105001	-46.987374	73.949885	-46.987374	73.949885	-0.132137	-83.908236
5.300000	-0.209524	-131.289191	-46.777803	72.348987	-46.777803	72.348987	-0.134142	-84.632807
5.350000	-0.212787	-132.474590	-46.571014	70.748869	-46.571014	70.748869	-0.136179	-85.356225
5.400000	-0.216095	-133.661306	-46.366931	69.149631	-46.366931	69.149631	-0.138247	-86.078535
5.450000	-0.219448	-134.849448	-46.165483	67.551378	-46.165483	67.551378	-0.140348	-86.799783
5.500000	-0.222846	-136.039127	-45.966595	65.954216	-45.966595	65.954216	-0.142482	-87.520024
5.550000	-0.226290	-137.230456	-45.770191	64.358256	-45.770191	64.358256	-0.144652	-88.239318
5.600000	-0.229780	-138.423547	-45.576195	62.763614	-45.576195	62.763614	-0.146858	-88.957729
5.650000	-0.233316	-139.618517	-45.384528	61.170412	-45.384528	61.170412	-0.149101	-89.675333
5.700000	-0.236898	-140.815483	-45.195108	59.578780	-45.195108	59.578780	-0.151384	-90.392211
5.750000	-0.240527	-142.014561	-45.007850	57.988856	-45.007850	57.988856	-0.153709	-91.108458
5.800000	-0.244203	-143.215874	-44.822661	56.400788	-44.822661	56.400788	-0.156077	-91.824180
5.850000	-0.247926	-144.419541	-44.639446	54.814740	-44.639446	54.814740	-0.158492	-92.539498
5.900000	-0.251696	-145.625685	-44.458100	53.230887	-44.458100	53.230887	-0.160956	-93.254551
5.950000	-0.255513	-146.834431	-44.278508	51.649425	-44.278508	51.649425	-0.163474	-93.969502
6.000000	-0.259377	-148.045905	-44.100543	50.070568	-44.100543	50.070568	-0.166051	-94.684537
6.050000	-0.263289	-149.260233	-43.924062	48.494557	-43.924062	48.494557	-0.168691	-95.399878
6.100000	-0.267248	-150.477544	-43.748902	46.921662	-43.748902	46.921662	-0.171403	-96.115785
6.150000	-0.271254	-151.697968	-43.574875	45.352186	-43.574875	45.352186	-0.174196	-96.832569
6.200000	-0.275308	-152.921635	-43.401761	43.786473	-43.401761	43.786473	-0.177081	-97.550606
6.250000	-0.279408	-154.148679	-43.229296	42.224914	-43.229296	42.224914	-0.180074	-98.270353
6.300000	-0.283558	-155.379391	-43.057011	40.668174	-43.057011	40.668174	-0.183201	-98.992505
6.350000	-0.287755	-156.613760	-42.884618	39.116586	-42.884618	39.116586	-0.186486	-99.717714
6.400000	-0.291998	-157.851921	-42.711607	37.570722	-42.711607	37.570722	-0.189967	-100.446905
6.450000	-0.296288	-159.094012	-42.537317	36.031215	-42.537317	36.031215	-0.193700	-101.181270
6.500000	-0.300624	-160.340171	-42.360883	34.498726	-42.360883	34.498726	-0.197762	-101.922381
6.550000	-0.305005	-161.590534	-42.181142	32.973891	-42.181142	32.973891	-0.202269	-102.672344
6.600000	-0.309432	-162.845241	-41.996491	31.457160	-41.996491	31.457160	-0.207399	-103.434057
6.650000	-0.313903	-164.104430	-41.804650	29.948460	-41.804650	29.948460	-0.213432	-104.211607
6.700000	-0.318412	-165.367748	-41.604244	28.445974	-41.604244	28.445974	-0.220638	-105.008009
6.750000	-0.322968	-166.636251	-41.387426	26.947150	-41.387426	26.947150	-0.230052	-105.836230
6.800000	-0.327563	-167.909779	-41.146485	25.439376	-41.146485	25.439376	-0.243173	-106.709719
6.850000	-0.332191	-169.188207	-40.869993	23.893715	-40.869993	23.893715	-0.262735	-107.647991
6.900000	-0.336844	-170.471614	-40.538313	22.241779	-40.538313	22.241779	-0.294434	-108.683272
6.950000	-0.341502	-171.760479	-40.105142	20.250728	-40.105142	20.250728	-0.355519	-109.882368
7.000000	-0.346120	-173.054714	-39.513190	17.252784	-39.513190	17.252784	-0.489620	-111.289112
7.050000	-0.350602	-174.355170	-38.766935	10.941653	-38.766935	10.941653	-0.831293	-112.499494
7.100000	-0.355036	-175.664244	-38.800263	-1.989806	-38.800263	-1.989806	-1.344152	-110.171209
7.150000	-0.360128	-176.980930	-40.642086	-7.854252	-40.642086	-7.854252	-0.986185	-106.637706
7.200000	-0.365507	-178.300423	-41.566784	-3.299099	-41.566784	-3.299099	-0.591547	-107.342568
7.250000	-0.370733	-179.624836	-41.603989	-0.023760	-41.603989	-0.023760	-0.429790	-108.672247
7.300000	-0.375874	179.044316	-41.429470	1.171042	-41.429470	1.171042	-0.359867	-109.851603
7.350000	-0.380997	177.706846	-41.227193	1.257577	-41.227193	1.257577	-0.325108	-110.882510
7.400000	-0.386129	176.362429	-41.033736	0.741582	-41.033736	0.741582	-0.306697	-111.810233
7.450000	-0.391282	175.010869	-40.855023	-0.112907	-40.855023	-0.112907	-0.296585	-112.669537
7.500000	-0.396458	173.652866	-40.688861	-1.152216	-40.688861	-1.152216	-0.290707	-113.486783
7.550000	-0.401664	172.286758	-40.534991	-2.336566	-40.534991	-2.336566	-0.287977	-114.267527
7.600000	-0.406896	170.913954	-40.389775	-3.598323	-40.389775	-3.598323	-0.286858	-115.026914
7.650000	-0.412157	169.533168	-40.252612	-4.923609	-40.252612	-4.923609	-0.287028	-115.767376
7.700000	-0.417443	168.144989	-40.121788	-6.290256	-40.121788	-6.290256	-0.288023	-116.494550
7.750000	-0.422754	166.748978	-39.996532	-7.688388	-39.996532	-7.688388	-0.289647	-117.210823
7.800000	-0.428090	165.344842	-39.876185	-9.110590	-39.876185	-9.110590	-0.291755	-117.918119
7.850000	-0.433447	163.933063	-39.759967	-10.549601	-39.759967	-10.549601	-0.294210	-118.618623
7.900000	-0.438826	162.512397	-39.647772	-12.003316	-39.647772	-12.003316	-0.296984	-119.312660
7.950000	-0.444223	161.084151	-39.538868	-13.466484	-39.538868	-13.466484	-0.299975	-120.002124
8.000000	-0.449639	159.646560	-39.433353	-14.938447	-39.433353	-14.938447	-0.303186	-120.686855
8.050000	-0.455069	158.200978	-39.330685	-16.416035	-39.330685	-16.416035	-0.306555	-121.368154
8.100000	-0.460513	156.746271	-39.230873	-17.898387	-39.230873	-17.898387	-0.310079	-122.046087
8.150000	-0.465968	155.282826	-39.133674	-19.384037	-39.133674	-19.384037	-0.313731	-122.721225
8.200000	-0.471433	153.810521	-39.038959	-20.871977	-39.038959	-20.871977	-0.317498	-123.393895
8.250000	-0.476904	152.328714	-38.946703	-22.361462	-38.946703	-22.361462	-0.321375	-124.064237
8.300000	-0.482380	150.838355	-38.856657	-23.851644	-38.856657	-23.851644	-0.325344	-124.732727
8.350000	-0.487859	149.337172	-38.769048	-25.341927	-38.769048	-25.341927	-0.329416	-125.399154
8.400000	-0.493337	147.827641	-38.683449	-26.831782	-38.683449	-26.831782	-0.333563	-126.064167
8.450000	-0.498813	146.308580	-38.599954	-28.320727	-38.599954	-28.320727	-0.337790	-126.727718
8.500000	-0.504284	144.779897	-38.518511	-29.808319	-38.518511	-29.808319	-0.342092	-127.389942
8.550000	-0.509747	143.241506	-38.439075	-31.294157	-38.439075	-31.294157	-0.346468	-128.050963
8.600000	-0.515200	141.693326	-38.361606	-32.777869	-38.361606	-32.777869	-0.350914	-128.710891
8.650000	-0.520640	140.135283	-38.286067	-34.259109	-38.286067	-34.259109	-0.355427	-129.369826
8.700000	-0.526064	138.567313	-38.212426	-35.737553	-38.212426	-35.737553	-0.360006	-130.027861
8.750000	-0.531469	136.989356	-38.140652	-37.212892	-38.140652	-37.212892	-0.364649	-130.685080
8.800000	-0.536852	135.400925	-38.070773	-38.684671	-38.070773	-38.684671	-0.369357	-131.341534
8.850000	-0.542209	133.802412	-38.002709	-40.152741	-38.002709	-40.152741	-0.374126	-131.997331
8.900000	-0.547540	132.193786	-37.936434	-41.616829	-37.936434	-41.616829	-0.378955	-132.652541
8.950000	-0.552840	130.575025	-37.871927	-43.076668	-37.871927	-43.076668	-0.383843	-133.307230
9.000000	-0.558106	128.946116	-37.809164	-44.531999	-37.809164	-44.531999	-0.388790	-133.961460
9.050000	-0.563335	127.307059	-37.748123	-45.982564	-37.748123	-45.982564	-0.393794	-134.615292
9.100000	-0.568526	125.657860	-37.688785	-47.428113	-37.688785	-47.428113	-0.398855	-135.268784
9.150000	-0.573673	123.998541	-37.631127	-48.868398	-37.631127	-48.868398	-0.403973	-135.921994
9.200000	-0.578776	122.329132	-37.575130	-50.303174	-37.575130	-50.303174	-0.409147	-136.574977
9.250000	-0.583829	120.649678	-37.520772	-51.732198	-37.520772	-51.732198	-0.414376	-137.227787
9.300000	-0.588832	118.960233	-37.468033	-53.155230	-37.468033	-53.155230	-0.419662	-137.880478
9.350000	-0.593780	117.260866	-37.416892	-54.572034	-37.416892	-54.572034	-0.425002	-138.533103
9.400000	-0.598671	115.551659	-37.367328	-55.982374	-37.367328	-55.982374	-0.430397	-139.185716
9.450000	-0.603503	113.832708	-37.319319	-57.386016	-37.319319	-57.386016	-0.435848	-139.838367
9.500000	-0.608272	112.104120	-37.272844	-58.782731	-37.272844	-58.782731	-0.441353	-140.491110
9.550000	-0.612976	110.366019	-37.227881	-60.172288	-37.227881	-60.172288	-0.446914	-141.143996
9.600000	-0.617619	108.619341	-37.184297	-61.555128	-37.184297	-61.555128	-0.452526	-141.797057
9.650000	-0.622186	106.862527	-37.142303	-62.929630	-37.142303	-62.929630	-0.458198	-142.450387
9.700000	-0.626680	105.096659	-37.101750	-64.296299	-37.101750	-64.296299	-0.463927	-143.104022
9.750000	-0.631100	103.321920	-37.062614	-65.654916	-37.062614	-65.654916	-0.469712	-143.758014
9.800000	-0.635443	101.538507	-37.024871	-67.005267	-37.024871	-67.005267	-0.475554	-144.412418
9.850000	-0.639709	99.746634	-36.988495	-68.347137	-36.988495	-68.347137	-0.481453	-145.067289
9.900000	-0.643895	97.946529	-36.953460	-69.680320	-36.953460	-69.680320	-0.487412	-145.722682
9.950000	-0.648000	96.138437	-36.919740	-71.004608	-36.919740	-71.004608	-0.493430	-146.378655
10.000000	-0.652022	94.322616	-36.887307	-72.319801	-36.887307	-72.319801	-0.499509	-147.035264
