! freq	dB(S11)	phase(S11)	dB(S12)	phase(S12)	
!     	dB(S21)	phase(S21)	dB(S22)	phase(S22)	
!S-par simulation data
#  GHz  S  DB  R 50
0.000000	-0.000000	0.000000	-329.885111	0.000000	-329.885111	0.000000	-0.000000	0.000000
0.050000	-0.000232	-0.748444	-97.974276	80.890216	-97.974276	80.890216	-0.042045	-3.739350
0.100000	-0.000891	-1.497781	-92.231528	81.863860	-92.231528	81.863860	-0.044427	-7.577733
0.150000	-0.001880	-2.248646	-88.826148	80.864130	-88.826148	80.864130	-0.045484	-11.387209
0.200000	-0.003080	-3.001317	-86.440754	79.301841	-86.440754	79.301841	-0.046544	-15.179258
0.250000	-0.004371	-3.755696	-84.634912	77.530016	-84.634912	77.530016	-0.047775	-18.953722
0.300000	-0.005660	-4.511424	-83.208602	75.677710	-83.208602	75.677710	-0.049209	-22.708253
0.350000	-0.006889	-5.268018	-82.055138	73.807480	-82.055138	73.807480	-0.050846	-26.439759
0.400000	-0.008034	-6.024980	-81.110065	71.957255	-81.110065	71.957255	-0.052675	-30.145358
0.450000	-0.009094	-6.781891	-80.332168	70.154135	-80.332168	70.154135	-0.054679	-33.822224
0.500000	-0.010080	-7.538431	-79.693864	68.421184	-79.693864	68.421184	-0.056839	-37.467624
0.550000	-0.011009	-8.294378	-79.175950	66.780548	-79.175950	66.780548	-0.059135	-41.079013
0.600000	-0.011900	-9.049584	-78.764764	65.255428	-78.764764	65.255428	-0.061546	-44.654058
0.650000	-0.012768	-9.803957	-78.450919	63.872575	-78.450919	63.872575	-0.064052	-48.190435
0.700000	-0.013626	-10.557446	-78.227315	62.662588	-78.227315	62.662588	-0.066631	-51.686240
0.750000	-0.014483	-11.310033	-78.088399	61.660859	-78.088399	61.660859	-0.069263	-55.140050
0.800000	-0.015346	-12.061711	-78.030476	60.911699	-78.030476	60.911699	-0.071930	-58.550467
0.850000	-0.016218	-12.812479	-78.050744	60.470304	-78.050744	60.470304	-0.074612	-61.916318
0.900000	-0.017103	-13.562343	-78.146700	60.406208	-78.146700	60.406208	-0.077293	-65.236653
0.950000	-0.018000	-14.311307	-78.315509	60.809095	-78.315509	60.809095	-0.079957	-68.510606
1.000000	-0.018909	-15.059372	-78.552591	61.795571	-78.552591	61.795571	-0.082591	-71.737380
1.050000	-0.019831	-15.806533	-78.849321	63.521618	-78.849321	63.521618	-0.085182	-74.915981
1.100000	-0.020763	-16.552838	-79.187996	66.114494	-79.187996	66.114494	-0.087721	-78.048560
1.150000	-0.021704	-17.298266	-79.542801	69.778863	-79.542801	69.778863	-0.090199	-81.133829
1.200000	-0.022654	-18.042821	-79.869501	74.683569	-79.869501	74.683569	-0.092607	-84.171931
1.250000	-0.023610	-18.786503	-80.103195	80.909061	-80.103195	80.909061	-0.094942	-87.163149
1.300000	-0.024572	-19.529294	-80.157617	88.352713	-80.157617	88.352713	-0.097195	-90.106889
1.350000	-0.025537	-20.271210	-79.960630	96.550775	-79.960630	96.550775	-0.099367	-93.004691
1.400000	-0.026506	-21.012249	-79.477861	104.825434	-79.477861	104.825434	-0.101455	-95.857175
1.450000	-0.027477	-21.752408	-78.733159	112.482298	-78.733159	112.482298	-0.103458	-98.665046
1.500000	-0.028449	-22.491683	-77.794250	119.046257	-77.794250	119.046257	-0.105378	-101.429081
1.550000	-0.029421	-23.230068	-76.740408	124.338226	-76.740408	124.338226	-0.107215	-104.150121
1.600000	-0.030394	-23.967557	-75.638098	128.402762	-75.638098	128.402762	-0.108971	-106.829063
1.650000	-0.031366	-24.704143	-74.533073	131.395476	-74.533073	131.395476	-0.110649	-109.466847
1.700000	-0.032337	-25.439820	-73.452801	133.500744	-73.452801	133.500744	-0.112252	-112.064448
1.750000	-0.033308	-26.174578	-72.411867	134.890244	-72.411867	134.890244	-0.113784	-114.622874
1.800000	-0.034277	-26.908409	-71.416791	135.708533	-71.416791	135.708533	-0.115249	-117.143153
1.850000	-0.035245	-27.641304	-70.469406	136.071773	-70.469406	136.071773	-0.116651	-119.626328
1.900000	-0.036213	-28.373242	-69.568494	136.068244	-69.568494	136.068244	-0.117993	-122.073075
1.950000	-0.037179	-29.104214	-68.712190	135.771231	-68.712190	135.771231	-0.119282	-124.484490
2.000000	-0.038145	-29.834220	-67.898318	135.239608	-67.898318	135.239608	-0.120521	-126.862029
2.050000	-0.039111	-30.563247	-67.123978	134.516570	-67.123978	134.516570	-0.121716	-129.206749
2.100000	-0.040076	-31.291286	-66.386313	133.636296	-66.386313	133.636296	-0.122872	-131.519705
2.150000	-0.041041	-32.018325	-65.682611	132.626018	-65.682611	132.626018	-0.123993	-133.801940
2.200000	-0.042007	-32.744353	-65.010351	131.507603	-65.010351	131.507603	-0.125084	-136.054488
2.250000	-0.042973	-33.469358	-64.367222	130.298737	-64.367222	130.298737	-0.126149	-138.278368
2.300000	-0.043941	-34.193328	-63.751115	129.013833	-63.751115	129.013833	-0.127192	-140.474587
2.350000	-0.044910	-34.916252	-63.160119	127.664721	-63.160119	127.664721	-0.128218	-142.644131
2.400000	-0.045881	-35.638118	-62.592499	126.261172	-62.592499	126.261172	-0.129231	-144.787971
2.450000	-0.046854	-36.358914	-62.046685	124.811311	-62.046685	124.811311	-0.130233	-146.907060
2.500000	-0.047830	-37.078627	-61.521252	123.321935	-61.521252	123.321935	-0.131230	-149.002329
2.550000	-0.048809	-37.797224	-61.014681	121.798136	-61.014681	121.798136	-0.132224	-151.074215
2.600000	-0.049792	-38.514714	-60.526065	120.245551	-60.526065	120.245551	-0.133218	-153.124125
2.650000	-0.050778	-39.231087	-60.054330	118.668246	-60.054330	118.668246	-0.134216	-155.152930
2.700000	-0.051769	-39.946330	-59.598497	117.069691	-59.598497	117.069691	-0.135219	-157.161479
2.750000	-0.052765	-40.660434	-59.157672	115.452865	-59.157672	115.452865	-0.136232	-159.150600
2.800000	-0.053766	-41.373386	-58.731037	113.820334	-58.731037	113.820334	-0.137255	-161.121102
2.850000	-0.054773	-42.085176	-58.317842	112.174317	-58.317842	112.174317	-0.138292	-163.073770
2.900000	-0.055786	-42.795792	-57.917397	110.516738	-57.917397	110.516738	-0.139344	-165.009372
2.950000	-0.056805	-43.505224	-57.529070	108.849274	-57.529070	108.849274	-0.140412	-166.928654
3.000000	-0.057832	-44.213462	-57.152274	107.173388	-57.152274	107.173388	-0.141499	-168.832342
3.050000	-0.058865	-44.920496	-56.786470	105.490364	-56.786470	105.490364	-0.142606	-170.721144
3.100000	-0.059906	-45.626315	-56.431159	103.801329	-56.431159	103.801329	-0.143734	-172.595748
3.150000	-0.060956	-46.330896	-56.085837	102.107232	-56.085837	102.107232	-0.144885	-174.456684
3.200000	-0.062014	-47.034230	-55.750086	100.408979	-55.750086	100.408979	-0.146059	-176.304623
3.250000	-0.063080	-47.736321	-55.423549	98.707398	-55.423549	98.707398	-0.147257	-178.140345
3.300000	-0.064157	-48.437160	-55.105854	97.003175	-55.105854	97.003175	-0.148479	-179.964465
3.350000	-0.065242	-49.136738	-54.796652	95.296926	-54.796652	95.296926	-0.149728	178.222420
3.400000	-0.066338	-49.835047	-54.495621	93.589201	-54.495621	93.589201	-0.151002	176.419729
3.450000	-0.067444	-50.532080	-54.202456	91.880493	-54.202456	91.880493	-0.152302	174.626897
3.500000	-0.068561	-51.227827	-53.916876	90.171248	-53.916876	90.171248	-0.153628	172.843374
3.550000	-0.069689	-51.922283	-53.638614	88.461867	-53.638614	88.461867	-0.154981	171.068627
3.600000	-0.070829	-52.615439	-53.367423	86.752715	-53.367423	86.752715	-0.156360	169.302135
3.650000	-0.071980	-53.307289	-53.103069	85.044125	-53.103069	85.044125	-0.157766	167.543395
3.700000	-0.073144	-53.997826	-52.845333	83.336401	-52.845333	83.336401	-0.159198	165.791914
3.750000	-0.074320	-54.687045	-52.594010	81.629822	-52.594010	81.629822	-0.160656	164.047216
3.800000	-0.075510	-55.374910	-52.348891	79.924681	-52.348891	79.924681	-0.162140	162.308963
3.850000	-0.076713	-56.061445	-52.109816	78.221190	-52.109816	78.221190	-0.163651	160.576556
3.900000	-0.077930	-56.746644	-51.876614	76.519572	-51.876614	76.519572	-0.165186	158.849558
3.950000	-0.079161	-57.430502	-51.649121	74.820033	-51.649121	74.820033	-0.166746	157.127542
4.000000	-0.080407	-58.112942	-51.427178	73.122899	-51.427178	73.122899	-0.168331	155.410327
4.050000	-0.081667	-58.794091	-51.210663	71.428134	-51.210663	71.428134	-0.169939	153.697065
4.100000	-0.082942	-59.473886	-50.999429	69.736009	-50.999429	69.736009	-0.171571	151.987567
4.150000	-0.084233	-60.152324	-50.793347	68.046695	-50.793347	68.046695	-0.173224	150.281455
4.200000	-0.085540	-60.829402	-50.592294	66.360355	-50.592294	66.360355	-0.174900	148.578358
4.250000	-0.086864	-61.505116	-50.396158	64.677150	-50.396158	64.677150	-0.176597	146.877916
4.300000	-0.088203	-62.179463	-50.204829	62.997236	-50.204829	62.997236	-0.178314	145.179781
4.350000	-0.089560	-62.852442	-50.018205	61.320767	-50.018205	61.320767	-0.180052	143.483612
4.400000	-0.090934	-63.524050	-49.836189	59.647897	-49.836189	59.647897	-0.181809	141.789080
4.450000	-0.092326	-64.194286	-49.658691	57.978778	-49.658691	57.978778	-0.183584	140.095864
4.500000	-0.093736	-64.863148	-49.485624	56.313565	-49.485624	56.313565	-0.185377	138.403654
4.550000	-0.095165	-65.530634	-49.316907	54.652412	-49.316907	54.652412	-0.187187	136.712146
4.600000	-0.096612	-66.196744	-49.152461	52.995477	-49.152461	52.995477	-0.189014	135.021047
4.650000	-0.098078	-66.861477	-48.992216	51.342921	-48.992216	51.342921	-0.190857	133.330075
4.700000	-0.099564	-67.524833	-48.836101	49.694909	-48.836101	49.694909	-0.192714	131.638951
4.750000	-0.101070	-68.186812	-48.684052	48.051610	-48.684052	48.051610	-0.194586	129.947409
4.800000	-0.102597	-68.847414	-48.536007	46.413200	-48.536007	46.413200	-0.196472	128.255191
4.850000	-0.104144	-69.506640	-48.391909	44.779860	-48.391909	44.779860	-0.198371	126.562045
4.900000	-0.105712	-70.164491	-48.251703	43.151778	-48.251703	43.151778	-0.200283	124.867728
4.950000	-0.107301	-70.820967	-48.115337	41.529152	-48.115337	41.529152	-0.202206	123.172006
5.000000	-0.108912	-71.476070	-47.982761	39.912186	-47.982761	39.912186	-0.204141	121.474652
5.050000	-0.110547	-72.129742	-47.854011	38.301362	-47.854011	38.301362	-0.206088	119.775358
5.100000	-0.112204	-72.782046	-47.728969	36.696659	-47.728969	36.696659	-0.208045	118.073984
5.150000	-0.113884	-73.432982	-47.607591	35.098314	-47.607591	35.098314	-0.210013	116.370327
5.200000	-0.115587	-74.082555	-47.489840	33.506579	-47.489840	33.506579	-0.211991	114.664194
5.250000	-0.117313	-74.730839	-47.375564	31.921332	-47.375564	31.921332	-0.213977	112.955548
5.300000	-0.119064	-75.377706	-47.264926	30.343518	-47.264926	30.343518	-0.215974	111.243950
5.350000	-0.120839	-76.023217	-47.157805	28.773135	-47.157805	28.773135	-0.217979	109.529340
5.400000	-0.122640	-76.667377	-47.054169	27.210487	-47.054169	27.210487	-0.219995	107.811554
5.450000	-0.124466	-77.310189	-46.953985	25.655895	-46.953985	25.655895	-0.222019	106.090434
5.500000	-0.126317	-77.951657	-46.857222	24.109699	-46.857222	24.109699	-0.224052	104.365829
5.550000	-0.128194	-78.591785	-46.763852	22.572253	-46.763852	22.572253	-0.226096	102.637598
5.600000	-0.130098	-79.230578	-46.673844	21.043933	-46.673844	21.043933	-0.228149	100.905605
5.650000	-0.132029	-79.868026	-46.587197	19.525242	-46.587197	19.525242	-0.230212	99.169677
5.700000	-0.133987	-80.504135	-46.503882	18.016607	-46.503882	18.016607	-0.232285	97.429690
5.750000	-0.135974	-81.138923	-46.423844	16.518365	-46.423844	16.518365	-0.234370	95.685572
5.800000	-0.137988	-81.772398	-46.347054	15.030972	-46.347054	15.030972	-0.236467	93.937218
5.850000	-0.140030	-82.404563	-46.273479	13.554912	-46.273479	13.554912	-0.238576	92.184528
5.900000	-0.142102	-83.035426	-46.203088	12.090689	-46.203088	12.090689	-0.240699	90.427409
5.950000	-0.144202	-83.664993	-46.135848	10.638831	-46.135848	10.638831	-0.242836	88.665776
6.000000	-0.146332	-84.293269	-46.071723	9.199893	-46.071723	9.199893	-0.244989	86.899551
6.050000	-0.148492	-84.920261	-46.010676	7.774452	-46.010676	7.774452	-0.247158	85.128662
6.100000	-0.150683	-85.545976	-45.952667	6.363112	-45.952667	6.363112	-0.249346	83.353042
6.150000	-0.152904	-86.170422	-45.897652	4.966500	-45.897652	4.966500	-0.251553	81.572635
6.200000	-0.155156	-86.793604	-45.845584	3.585272	-45.845584	3.585272	-0.253781	79.787387
6.250000	-0.157440	-87.415532	-45.796414	2.220106	-45.796414	2.220106	-0.256033	77.997254
6.300000	-0.159756	-88.036185	-45.750139	0.872089	-45.750139	0.872089	-0.258310	76.202087
6.350000	-0.162105	-88.655598	-45.706644	-0.458398	-45.706644	-0.458398	-0.260615	74.401960
6.400000	-0.164486	-89.273780	-45.665862	-1.770600	-45.665862	-1.770600	-0.262949	72.596847
6.450000	-0.166901	-89.890739	-45.627719	-3.063741	-45.627719	-3.063741	-0.265315	70.786726
6.500000	-0.169349	-90.506483	-45.592135	-4.337024	-45.592135	-4.337024	-0.267715	68.971583
6.550000	-0.171831	-91.121020	-45.559023	-5.589630	-45.559023	-5.589630	-0.270153	67.151406
6.600000	-0.174347	-91.734360	-45.528288	-6.820727	-45.528288	-6.820727	-0.272630	65.326191
6.650000	-0.176897	-92.346512	-45.499825	-8.029465	-45.499825	-8.029465	-0.275151	63.495940
6.700000	-0.179483	-92.957485	-45.473519	-9.214986	-45.473519	-9.214986	-0.277718	61.660657
6.750000	-0.182104	-93.567287	-45.449246	-10.376424	-45.449246	-10.376424	-0.280335	59.820352
6.800000	-0.184761	-94.175929	-45.426872	-11.512908	-45.426872	-11.512908	-0.283005	57.975039
6.850000	-0.187453	-94.783420	-45.406247	-12.623571	-45.406247	-12.623571	-0.285733	56.124737
6.900000	-0.190183	-95.389758	-45.387229	-13.707255	-45.387229	-13.707255	-0.288522	54.269413
6.950000	-0.192950	-95.994954	-45.369639	-14.763086	-45.369639	-14.763086	-0.291377	52.409095
7.000000	-0.195754	-96.599029	-45.353271	-15.790533	-45.353271	-15.790533	-0.294301	50.543865
7.050000	-0.198596	-97.201994	-45.337926	-16.788806	-45.337926	-16.788806	-0.297300	48.673754
7.100000	-0.201479	-97.803766	-45.323431	-17.754480	-45.323431	-17.754480	-0.300384	46.798378
7.150000	-0.204396	-98.404557	-45.309442	-18.692488	-45.309442	-18.692488	-0.303545	44.918664
7.200000	-0.207352	-99.004270	-45.295787	-19.599249	-45.295787	-19.599249	-0.306794	43.034176
7.250000	-0.210348	-99.602916	-45.282205	-20.474196	-45.282205	-20.474196	-0.310136	41.144951
7.300000	-0.213381	-100.200552	-45.268448	-21.318270	-45.268448	-21.318270	-0.313573	39.251230
7.350000	-0.216455	-100.797087	-45.254174	-22.127878	-45.254174	-22.127878	-0.317121	37.352598
7.400000	-0.219570	-101.392590	-45.239097	-22.904513	-45.239097	-22.904513	-0.320779	35.449347
7.450000	-0.222725	-101.987072	-45.222897	-23.648025	-45.222897	-23.648025	-0.324553	33.541516
7.500000	-0.225921	-102.580546	-45.205245	-24.358406	-45.205245	-24.358406	-0.328450	31.629142
7.550000	-0.229159	-103.173002	-45.185751	-25.035089	-45.185751	-25.035089	-0.332480	29.712161
7.600000	-0.232438	-103.764474	-45.164097	-25.679119	-45.164097	-25.679119	-0.336645	27.790706
7.650000	-0.235759	-104.354974	-45.139925	-26.291001	-45.139925	-26.291001	-0.340953	25.864804
7.700000	-0.239123	-104.944516	-45.112876	-26.871430	-45.112876	-26.871430	-0.345410	23.934483
7.750000	-0.242528	-105.533111	-45.082586	-27.421305	-45.082586	-27.421305	-0.350024	21.999762
7.800000	-0.245976	-106.120773	-45.048697	-27.941732	-45.048697	-27.941732	-0.354803	20.060657
7.850000	-0.249468	-106.707514	-45.010853	-28.434034	-45.010853	-28.434034	-0.359753	18.117180
7.900000	-0.253002	-107.293348	-44.968709	-28.899748	-44.968709	-28.899748	-0.364882	16.169335
7.950000	-0.256580	-107.878288	-44.921933	-29.340629	-44.921933	-29.340629	-0.370199	14.217119
8.000000	-0.260203	-108.462348	-44.870210	-29.758642	-44.870210	-29.758642	-0.375712	12.260521
8.050000	-0.263869	-109.045540	-44.813246	-30.155952	-44.813246	-30.155952	-0.381428	10.299522
8.100000	-0.267580	-109.627879	-44.750771	-30.534918	-44.750771	-30.534918	-0.387358	8.334095
8.150000	-0.271337	-110.209370	-44.682474	-30.897930	-44.682474	-30.897930	-0.393511	6.364151
8.200000	-0.275139	-110.790027	-44.608134	-31.247771	-44.608134	-31.247771	-0.399899	4.389641
8.250000	-0.278986	-111.369874	-44.527647	-31.587437	-44.527647	-31.587437	-0.406526	2.410550
8.300000	-0.282879	-111.948925	-44.440877	-31.919856	-44.440877	-31.919856	-0.413405	0.426806
8.350000	-0.286820	-112.527172	-44.347507	-32.248000	-44.347507	-32.248000	-0.420551	-1.561819
8.400000	-0.290803	-113.104708	-44.248257	-32.574966	-44.248257	-32.574966	-0.427948	-3.554928
8.450000	-0.294837	-113.681431	-44.141919	-32.903956	-44.141919	-32.903956	-0.435650	-5.553405
8.500000	-0.298915	-114.257456	-44.029565	-33.237607	-44.029565	-33.237607	-0.443628	-7.556704
8.550000	-0.303042	-114.832741	-43.910645	-33.579386	-43.910645	-33.579386	-0.451917	-9.565373
8.600000	-0.307215	-115.407317	-43.785417	-33.932043	-43.785417	-33.932043	-0.460523	-11.579479
8.650000	-0.311435	-115.981225	-43.654319	-34.297912	-43.654319	-34.297912	-0.469445	-13.598995
8.700000	-0.315706	-116.554415	-43.516745	-34.681168	-43.516745	-34.681168	-0.478728	-15.624683
8.750000	-0.320020	-117.127006	-43.374132	-35.081585	-43.374132	-35.081585	-0.488332	-17.655848
8.800000	-0.324389	-117.698876	-43.224998	-35.505919	-43.224998	-35.505919	-0.498345	-19.694063
8.850000	-0.328801	-118.270176	-43.071286	-35.951701	-43.071286	-35.951701	-0.508704	-21.738246
8.900000	-0.333266	-118.840827	-42.912033	-36.424720	-42.912033	-36.424720	-0.519482	-23.789729
8.950000	-0.337777	-119.410903	-42.748278	-36.924286	-42.748278	-36.924286	-0.530656	-25.848162
9.000000	-0.342338	-119.980399	-42.580007	-37.453154	-42.580007	-37.453154	-0.542257	-27.914182
9.050000	-0.346950	-120.549319	-42.407375	-38.013391	-42.407375	-38.013391	-0.554309	-29.988323
9.100000	-0.351609	-121.117725	-42.231256	-38.603877	-42.231256	-38.603877	-0.566796	-32.070364
9.150000	-0.356322	-121.685560	-42.050970	-39.230164	-42.050970	-39.230164	-0.579796	-34.161915
9.200000	-0.361080	-122.252931	-41.868064	-39.887390	-41.868064	-39.887390	-0.593247	-36.261881
9.250000	-0.365894	-122.819761	-41.681490	-40.583051	-41.681490	-40.583051	-0.607260	-38.372626
9.300000	-0.370754	-123.386150	-41.492737	-41.311720	-41.492737	-41.311720	-0.621770	-40.492963
9.350000	-0.375667	-123.952063	-41.301319	-42.078099	-41.301319	-42.078099	-0.636856	-42.624702
9.400000	-0.380630	-124.517542	-41.107899	-42.880524	-41.107899	-42.880524	-0.652511	-44.767824
9.450000	-0.385644	-125.082608	-40.912747	-43.719336	-40.912747	-43.719336	-0.668756	-46.922995
9.500000	-0.390711	-125.647253	-40.715783	-44.596932	-40.715783	-44.596932	-0.685650	-49.091660
9.550000	-0.395825	-126.211542	-40.517939	-45.509169	-40.517939	-45.509169	-0.703146	-51.273023
9.600000	-0.400997	-126.775428	-40.318483	-46.462660	-40.318483	-46.462660	-0.721380	-53.470364
9.650000	-0.406215	-127.339000	-40.118719	-47.450218	-40.118719	-47.450218	-0.740256	-55.681669
9.700000	-0.411489	-127.902217	-39.917957	-48.478373	-39.917957	-48.478373	-0.759917	-57.910601
9.750000	-0.416812	-128.465143	-39.717116	-49.542023	-39.717116	-49.542023	-0.780302	-60.155873
9.800000	-0.422189	-129.027774	-39.516030	-50.644004	-39.516030	-50.644004	-0.801495	-62.419874
9.850000	-0.427619	-129.590133	-39.315005	-51.783509	-39.315005	-51.783509	-0.823517	-64.703331
9.900000	-0.433099	-130.152253	-39.114414	-52.958998	-39.114414	-52.958998	-0.846371	-67.006612
9.950000	-0.438634	-130.714128	-38.914052	-54.173948	-38.914052	-54.173948	-0.870172	-69.332987
10.000000	-0.444218	-131.275813	-38.714731	-55.422506	-38.714731	-55.422506	-0.894825	-71.680249
