! freq	dB(S11)	phase(S11)	dB(S12)	phase(S12)	
!     	dB(S21)	phase(S21)	dB(S22)	phase(S22)	
!S-par simulation data
#  GHz  S  DB  R 50
0.000000	-82.137774	0.000000	-0.000679	0.000000	-0.000679	0.000000	-82.137774	0.000000
0.050000	-50.021856	-86.060547	-0.004579	-2.766309	-0.004579	-2.766309	-50.030096	-84.122512
0.100000	-44.342713	-92.928966	-0.010703	-5.497514	-0.010703	-5.497514	-44.306123	-89.867612
0.150000	-40.939412	-97.846501	-0.015504	-8.212960	-0.015504	-8.212960	-40.890624	-93.304847
0.200000	-38.533092	-102.155837	-0.019442	-10.925287	-0.019442	-10.925287	-38.480778	-96.076715
0.250000	-36.695845	-106.189057	-0.023039	-13.637256	-0.023039	-13.637256	-36.643254	-98.530955
0.300000	-35.229600	-110.099633	-0.026583	-16.349134	-0.026583	-16.349134	-35.178247	-100.816527
0.350000	-34.025518	-113.952749	-0.030151	-19.060712	-0.030151	-19.060712	-33.976242	-102.990775
0.400000	-33.019764	-117.782211	-0.033744	-21.771833	-0.033744	-21.771833	-32.973132	-105.076393
0.450000	-32.176521	-121.612742	-0.037333	-24.482420	-0.037333	-24.482420	-32.133041	-107.077044
0.500000	-31.463667	-125.463384	-0.040882	-27.192611	-0.040882	-27.192611	-31.423698	-109.000841
0.550000	-30.861258	-129.349076	-0.044361	-29.902594	-0.044361	-29.902594	-30.825135	-110.845697
0.600000	-30.356697	-133.285940	-0.047742	-32.612615	-0.047742	-32.612615	-30.324790	-112.603783
0.650000	-29.943031	-137.294940	-0.050999	-35.323015	-0.050999	-35.323015	-29.915805	-114.260208
0.700000	-29.608424	-141.389951	-0.054131	-38.034104	-0.054131	-38.034104	-29.586369	-115.808534
0.750000	-29.347426	-145.590727	-0.057134	-40.746205	-0.057134	-40.746205	-29.331149	-117.233148
0.800000	-29.159518	-149.928659	-0.060005	-43.459731	-0.060005	-43.459731	-29.149844	-118.505666
0.850000	-29.040729	-154.433143	-0.062754	-46.175025	-0.062754	-46.175025	-29.038686	-119.600448
0.900000	-28.988347	-159.139054	-0.065395	-48.892403	-0.065395	-48.892403	-28.995229	-120.485518
0.950000	-29.001492	-164.093695	-0.067945	-51.612211	-0.067945	-51.612211	-29.018971	-121.115787
1.000000	-29.079085	-169.355011	-0.070423	-54.334779	-0.070423	-54.334779	-29.109309	-121.434899
1.050000	-29.219695	-174.995887	-0.072851	-57.060424	-0.072851	-57.060424	-29.265422	-121.370537
1.100000	-29.420704	178.891972	-0.075257	-59.789457	-0.075257	-59.789457	-29.485453	-120.829933
1.150000	-29.676966	172.194132	-0.077668	-62.522180	-0.077668	-62.522180	-29.765160	-119.694967
1.200000	-29.978676	164.771062	-0.080116	-65.258887	-0.080116	-65.258887	-30.095691	-117.818268
1.250000	-30.308141	156.461002	-0.082635	-67.999861	-0.082635	-67.999861	-30.460060	-115.024093
1.300000	-30.634033	147.069398	-0.085267	-70.745483	-0.085267	-70.745483	-30.826750	-111.094252
1.350000	-30.908136	136.486940	-0.088049	-73.495925	-0.088049	-73.495925	-31.144994	-105.891491
1.400000	-31.064908	124.704640	-0.091026	-76.251443	-0.091026	-76.251443	-31.343201	-99.382596
1.450000	-31.030632	111.930713	-0.094246	-79.012277	-0.094246	-79.012277	-31.338141	-91.777856
1.500000	-30.746632	98.634748	-0.097759	-81.778658	-0.097759	-81.778658	-31.061961	-83.594766
1.550000	-30.195974	85.454220	-0.101621	-84.550799	-0.101621	-84.550799	-30.494985	-75.553156
1.600000	-29.412072	72.985049	-0.105890	-87.328893	-0.105890	-87.328893	-29.676491	-68.321768
1.650000	-28.461001	61.603876	-0.110631	-90.113113	-0.110631	-90.113113	-28.682567	-62.306232
1.700000	-27.413927	51.431684	-0.115911	-92.903607	-0.115911	-92.903607	-27.592785	-57.616044
1.750000	-26.328783	42.407507	-0.121802	-95.700492	-0.121802	-95.700492	-26.469640	-54.161465
1.800000	-25.245243	34.383614	-0.128380	-98.503851	-0.128380	-98.503851	-25.354264	-51.766648
1.850000	-24.187346	27.192024	-0.135726	-101.313727	-0.135726	-101.313727	-24.270482	-50.242764
1.900000	-23.167379	20.683404	-0.143935	-104.130186	-0.143935	-104.130186	-23.229725	-49.427102
1.950000	-22.191824	14.723208	-0.153099	-106.953172	-0.153099	-106.953172	-22.237519	-49.176721
2.000000	-21.263381	9.199737	-0.163298	-109.782498	-0.163298	-109.782498	-21.295698	-49.374932
2.050000	-20.381583	4.030177	-0.174625	-112.617984	-0.174625	-112.617984	-20.403085	-49.936089
2.100000	-19.544788	-0.850762	-0.187176	-115.459383	-0.187176	-115.459383	-19.557481	-50.793111
2.150000	-18.750800	-5.494532	-0.201042	-118.306377	-0.201042	-118.306377	-18.756260	-51.893287
2.200000	-17.997223	-9.941808	-0.216317	-121.158570	-0.216317	-121.158570	-17.996696	-53.194915
2.250000	-17.281658	-14.224894	-0.233088	-124.015491	-0.233088	-124.015491	-17.276137	-54.664724
2.300000	-16.601805	-18.369590	-0.251441	-126.876590	-0.251441	-126.876590	-16.592085	-56.275910
2.350000	-15.955508	-22.396620	-0.271453	-129.741245	-0.271453	-129.741245	-15.942232	-58.006660
2.400000	-15.340776	-26.322721	-0.293194	-132.608757	-0.293194	-132.608757	-15.324469	-59.839037
2.450000	-14.755786	-30.161481	-0.316725	-135.478362	-0.316725	-135.478362	-14.736877	-61.758139
2.500000	-14.198871	-33.923982	-0.342098	-138.349235	-0.342098	-138.349235	-14.177715	-63.751457
2.550000	-13.668390	-37.618010	-0.369388	-141.220482	-0.369388	-141.220482	-13.645283	-65.809562
2.600000	-13.163150	-41.252578	-0.398582	-144.091151	-0.398582	-144.091151	-13.138335	-67.921857
2.650000	-12.681871	-44.833755	-0.429691	-146.960279	-0.429691	-146.960279	-12.655553	-70.080579
2.700000	-12.223382	-48.366558	-0.462709	-149.826883	-0.462709	-149.826883	-12.195733	-72.278959
2.750000	-11.786606	-51.855145	-0.497618	-152.689965	-0.497618	-152.689965	-11.757768	-74.511056
2.800000	-11.370549	-55.302968	-0.534383	-155.548528	-0.534383	-155.548528	-11.340644	-76.771614
2.850000	-10.974293	-58.712901	-0.572955	-158.401582	-0.572955	-158.401582	-10.943419	-79.055963
2.900000	-10.596981	-62.087342	-0.613269	-161.248155	-0.613269	-161.248155	-10.565222	-81.359929
2.950000	-10.237817	-65.428301	-0.655245	-164.087306	-0.655245	-164.087306	-10.205241	-83.679768
3.000000	-9.896051	-68.737472	-0.698793	-166.918131	-0.698793	-166.918131	-9.862714	-86.012111
3.050000	-9.570983	-72.016290	-0.743805	-169.739774	-0.743805	-169.739774	-9.536930	-88.353923
3.100000	-9.261949	-75.265988	-0.790162	-172.551431	-0.790162	-172.551431	-9.227215	-90.702464
3.150000	-8.968383	-78.487341	-0.837745	-175.352238	-0.837745	-175.352238	-8.932995	-93.055285
3.200000	-8.689704	-81.681325	-0.886407	-178.141500	-0.886407	-178.141500	-8.653680	-95.410090
3.250000	-8.425290	-84.849091	-0.935988	179.081264	-0.935988	179.081264	-8.388644	-97.764849
3.300000	-8.174603	-87.991422	-0.986328	176.316572	-0.986328	176.316572	-8.137341	-100.117780
3.350000	-7.937130	-91.109058	-1.037262	173.564867	-1.037262	173.564867	-7.899254	-102.467298
3.400000	-7.712382	-94.202716	-1.088618	170.826503	-1.088618	170.826503	-7.673889	-104.811997
3.450000	-7.499896	-97.273107	-1.140219	168.101755	-1.140219	168.101755	-7.460779	-107.150641
3.500000	-7.299229	-100.320946	-1.191884	165.390810	-1.191884	165.390810	-7.259477	-109.482156
3.550000	-7.109961	-103.346966	-1.243429	162.693769	-1.243429	162.693769	-7.069561	-111.805619
3.600000	-6.931693	-106.351928	-1.294667	160.010647	-1.294667	160.010647	-6.890627	-114.120250
3.650000	-6.764048	-109.336626	-1.345412	157.341374	-1.345412	157.341374	-6.722295	-116.425404
3.700000	-6.606669	-112.301895	-1.395475	154.685794	-1.395475	154.685794	-6.564207	-118.720566
3.750000	-6.459220	-115.248618	-1.444668	152.043669	-1.444668	152.043669	-6.416022	-121.005339
3.800000	-6.321542	-118.177367	-1.492774	149.414953	-1.492774	149.414953	-6.277580	-123.279208
3.850000	-6.193185	-121.089535	-1.539633	146.798947	-1.539633	146.798947	-6.148427	-125.542229
3.900000	-6.073872	-123.986169	-1.585063	144.195163	-1.585063	144.195163	-6.028286	-127.794339
3.950000	-5.963352	-126.868376	-1.628886	141.603039	-1.628886	141.603039	-5.916902	-130.035563
4.000000	-5.861394	-129.737323	-1.670927	139.021934	-1.670927	139.021934	-5.814040	-132.266017
4.050000	-5.767789	-132.594241	-1.711016	136.451138	-1.711016	136.451138	-5.719489	-134.485898
4.100000	-5.682351	-135.440425	-1.748985	133.889866	-1.748985	133.889866	-5.633060	-136.695478
4.150000	-5.604916	-138.277237	-1.784675	131.337262	-1.784675	131.337262	-5.554586	-138.895100
4.200000	-5.536053	-141.105456	-1.817666	128.793078	-1.817666	128.793078	-5.484625	-141.084277
4.250000	-5.474313	-143.927988	-1.848289	126.254927	-1.848289	126.254927	-5.421735	-143.265223
4.300000	-5.420235	-146.745697	-1.876180	123.722436	-1.876180	123.722436	-5.366445	-145.437622
4.350000	-5.373756	-149.560232	-1.901199	121.194476	-1.901199	121.194476	-5.318687	-147.602041
4.400000	-5.334841	-152.373324	-1.923216	118.669852	-1.923216	118.669852	-5.278421	-149.759090
4.450000	-5.303486	-155.186783	-1.942106	116.147302	-1.942106	116.147302	-5.245633	-151.909413
4.500000	-5.279714	-158.002507	-1.957753	113.625499	-1.957753	113.625499	-5.220341	-154.053684
4.550000	-5.263583	-160.822485	-1.970046	111.103047	-1.970046	111.103047	-5.202593	-156.192600
4.600000	-5.254500	-163.648025	-1.979196	108.578826	-1.979196	108.578826	-5.191795	-158.327200
4.650000	-5.254038	-166.482787	-1.984456	106.050701	-1.984456	106.050701	-5.189487	-160.457448
4.700000	-5.261609	-169.328426	-1.986084	103.517298	-1.986084	103.517298	-5.195080	-162.584505
4.750000	-5.277427	-172.187368	-1.984008	100.976938	-1.984008	100.976938	-5.208770	-164.709073
4.800000	-5.301753	-175.062168	-1.978165	98.427871	-1.978165	98.427871	-5.230800	-166.831832
4.850000	-5.334900	-177.955527	-1.968503	95.868272	-1.968503	95.868272	-5.261460	-168.953418
4.900000	-5.377236	179.129699	-1.954983	93.296239	-1.954983	93.296239	-5.301097	-171.074412
4.950000	-5.429194	176.190482	-1.937580	90.709795	-1.937580	90.709795	-5.350111	-173.195313
5.000000	-5.491277	173.223602	-1.916282	88.106885	-1.916282	88.106885	-5.408971	-175.316519
5.050000	-5.564299	170.224865	-1.891005	85.484924	-1.891005	85.484924	-5.478441	-177.438305
5.100000	-5.648719	167.191181	-1.861858	82.842067	-1.861858	82.842067	-5.558939	-179.560737
5.150000	-5.745309	164.118589	-1.828880	80.176047	-1.828880	80.176047	-5.651177	178.316338
5.200000	-5.854956	161.002818	-1.792137	77.484540	-1.792137	77.484540	-5.755967	176.193358
5.250000	-5.978671	157.839241	-1.751721	74.765164	-1.751721	74.765164	-5.874237	174.071122
5.300000	-6.117615	154.622821	-1.707755	72.015470	-1.707755	72.015470	-6.007039	171.950880
5.350000	-6.273117	151.348040	-1.660397	69.232923	-1.660397	69.232923	-6.155572	169.834452
5.400000	-6.446701	148.008813	-1.609840	66.414892	-1.609840	66.414892	-6.321199	167.724377
5.450000	-6.640119	144.598371	-1.556310	63.558667	-1.556310	63.558667	-6.505470	165.624099
5.500000	-6.855389	141.109122	-1.500067	60.661486	-1.500067	60.661486	-6.710146	163.538212
5.550000	-7.094842	137.532451	-1.441409	57.720575	-1.441409	57.720575	-6.937235	161.472765
5.600000	-7.361178	133.858468	-1.380677	54.733186	-1.380677	54.733186	-7.189019	159.435676
5.650000	-7.657787	130.074323	-1.318240	51.696061	-1.318240	51.696061	-7.468322	157.437826
5.700000	-7.988401	126.165825	-1.254554	48.606512	-1.254554	48.606512	-7.778141	155.493235
5.750000	-8.357123	122.117487	-1.190141	45.462610	-1.190141	45.462610	-8.121633	153.619314
5.800000	-8.769077	117.908755	-1.125561	42.262062	-1.125561	42.262062	-8.502606	151.839383
5.850000	-9.230360	113.513699	-1.061430	39.002806	-1.061430	39.002806	-8.925348	150.184084
5.900000	-9.748283	108.898788	-0.998425	35.683068	-0.998425	35.683068	-9.394628	148.693918
5.950000	-10.331671	104.019477	-0.937282	32.301432	-0.937282	32.301432	-9.915638	147.422806
6.000000	-10.991242	98.814861	-0.878793	28.856915	-0.878793	28.856915	-10.493806	146.443082
6.050000	-11.740046	93.199051	-0.823800	25.349043	-0.823800	25.349043	-11.134331	145.852484
6.100000	-12.593894	87.046893	-0.773188	21.777931	-0.773188	21.777931	-11.841193	145.783697
6.150000	-13.571501	80.169677	-0.727876	18.144360	-0.727876	18.144360	-12.615119	146.416571
6.200000	-14.693438	72.273056	-0.688803	14.449849	-0.688803	14.449849	-13.449577	147.991195
6.250000	-15.977215	62.884512	-0.656913	10.696715	-0.656913	10.696715	-14.323364	150.814073
6.300000	-17.416825	51.161086	-0.633331	6.887005	-0.633331	6.887005	-15.184425	155.276504
6.350000	-18.932822	35.928038	-0.618796	3.026084	-0.618796	3.026084	-15.941379	161.625730
6.400000	-20.254307	15.876222	-0.614137	-0.881101	-0.614137	-0.881101	-16.457517	169.804979
6.450000	-20.846318	-8.637910	-0.620101	-4.828783	-0.620101	-4.828783	-16.592879	179.140008
6.500000	-20.315687	-33.664485	-0.637328	-8.810441	-0.637328	-8.810441	-16.288163	-171.597200
6.550000	-18.949512	-54.806149	-0.666330	-12.818906	-0.666330	-12.818906	-15.610688	-163.607167
6.600000	-17.304395	-71.092581	-0.707471	-16.846497	-0.707471	-16.846497	-14.702834	-157.517204
6.650000	-15.703924	-83.668434	-0.760957	-20.885179	-0.760957	-20.885179	-13.699926	-153.357890
6.700000	-14.255365	-93.794355	-0.826822	-24.926745	-0.826822	-24.926745	-12.692579	-150.847990
6.750000	-12.973932	-102.331003	-0.904929	-28.963003	-0.904929	-28.963003	-11.729702	-149.636133
6.800000	-11.846117	-109.808469	-0.994966	-32.985967	-0.994966	-32.985967	-10.833201	-149.409995
6.850000	-10.852328	-116.551182	-1.096462	-36.988038	-1.096462	-36.988038	-10.010143	-149.922961
6.900000	-9.974019	-122.759079	-1.208862	-40.961883	-1.208862	-40.961883	-9.260266	-150.992040
6.950000	-9.195126	-128.565213	-1.331382	-44.900998	-1.331382	-44.900998	-8.579939	-152.475929
7.000000	-8.502282	-134.055917	-1.463159	-48.799495	-1.463159	-48.799495	-7.964154	-154.271352
7.050000	-7.883719	-139.296679	-1.603070	-52.653602	-1.603070	-52.653602	-7.407006	-156.294965
7.100000	-7.330238	-144.326513	-1.750154	-56.459276	-1.750154	-56.459276	-6.903213	-158.491227
7.150000	-6.833966	-149.175863	-1.903342	-60.213705	-1.903342	-60.213705	-6.447723	-160.815593
7.200000	-6.388233	-153.867664	-2.061542	-63.914979	-2.061542	-63.914979	-6.035907	-163.233762
7.250000	-5.987342	-158.419754	-2.223657	-67.562051	-2.223657	-67.562051	-5.663567	-165.719222
7.300000	-5.626392	-162.846461	-2.388596	-71.154679	-2.388596	-71.154679	-5.326918	-168.251471
7.350000	-5.301138	-167.159680	-2.555290	-74.693369	-2.555290	-74.693369	-5.022562	-170.814694
7.400000	-5.007887	-171.369594	-2.722695	-78.179303	-2.722695	-78.179303	-4.747457	-173.396774
7.450000	-4.743414	-175.485172	-2.889802	-81.614270	-2.889802	-81.614270	-4.498883	-175.988542
7.500000	-4.504897	-179.514515	-3.055641	-85.000604	-3.055641	-85.000604	-4.274415	-178.583195
7.550000	-4.290222	176.536448	-3.219140	-88.340201	-3.219140	-88.340201	-4.072236	178.824280
7.600000	-4.096819	172.658840	-3.379503	-91.637393	-3.379503	-91.637393	-3.890051	176.237176
7.650000	-3.922801	168.845975	-3.535864	-94.895843	-3.535864	-94.895843	-3.726174	173.657469
7.700000	-3.766522	165.091389	-3.687390	-98.119567	-3.687390	-98.119567	-3.579123	171.086085
7.750000	-3.626559	161.388758	-3.833262	-101.312918	-3.833262	-101.312918	-3.447610	168.523074
7.800000	-3.501687	157.731837	-3.972680	-104.480583	-3.972680	-104.480583	-3.330519	165.967735
7.850000	-3.390872	154.114389	-4.104847	-107.627588	-4.104847	-107.627588	-3.226905	163.418715
7.900000	-3.293252	150.530128	-4.228963	-110.759325	-4.228963	-110.759325	-3.135980	160.874079
7.950000	-3.208140	146.972648	-4.344215	-113.881590	-4.344215	-113.881590	-3.057113	158.331355
8.000000	-3.135014	143.435343	-4.449769	-117.000638	-4.449769	-117.000638	-2.989830	155.787563
8.050000	-3.073524	139.911321	-4.544753	-120.123269	-4.544753	-120.123269	-2.933811	153.239215
8.100000	-3.023498	136.393299	-4.628252	-123.256928	-4.628252	-123.256928	-2.888910	150.682305
8.150000	-2.985087	132.873360	-4.699140	-126.410157	-4.699140	-126.410157	-2.855281	148.112072
8.200000	-2.958552	129.342710	-4.756336	-129.592496	-4.756336	-129.592496	-2.833182	145.523149
8.250000	-2.944287	125.791959	-4.798841	-132.814205	-4.798841	-132.814205	-2.822992	142.909779
8.300000	-2.943118	122.210578	-4.825412	-136.087250	-4.825412	-136.087250	-2.825497	140.265282
8.350000	-2.956727	118.584965	-4.834139	-139.427861	-4.834139	-139.427861	-2.842298	137.580691
8.400000	-2.985139	114.907522	-4.825501	-142.843466	-4.825501	-142.843466	-2.873384	134.852475
8.450000	-3.033456	111.151726	-4.794763	-146.368065	-4.794763	-146.368065	-2.923602	132.062428
8.500000	-3.101704	107.312153	-4.743618	-150.006340	-4.743618	-150.006340	-2.992898	129.209689
8.550000	-3.196963	103.354966	-4.667443	-153.801706	-4.667443	-153.801706	-3.087906	126.273414
8.600000	-3.324454	99.257413	-4.565274	-157.782964	-4.565274	-157.782964	-3.213389	123.243138
8.650000	-3.492792	94.987350	-4.435200	-161.992544	-4.435200	-161.992544	-3.377185	120.104920
8.700000	-3.714235	90.506342	-4.275526	-166.483455	-4.275526	-166.483455	-3.590304	116.845984
8.750000	-4.006596	85.769125	-4.085113	-171.322348	-4.085113	-171.322348	-3.868475	113.458494
8.800000	-4.398098	80.719203	-3.863459	-176.601138	-3.863459	-176.601138	-4.236058	109.946678
8.850000	-4.929257	75.308276	-3.613371	177.578402	-3.613371	177.578402	-4.726602	106.352635
8.900000	-5.666364	69.500911	-3.341165	171.084194	-3.341165	171.084194	-5.391993	102.795977
8.950000	-6.720957	63.328441	-3.059933	163.758845	-3.059933	163.758845	-6.310981	99.584495
9.000000	-8.288987	57.034360	-2.792966	155.443442	-2.792966	155.443442	-7.596011	97.453169
9.050000	-10.788518	51.645213	-2.580384	145.947200	-2.580384	145.947200	-9.390393	98.391263
9.100000	-15.189683	52.011912	-2.480438	135.204909	-2.480438	135.204909	-11.608367	107.110142
9.150000	-22.142158	95.036536	-2.566259	123.311389	-2.566259	123.311389	-12.837739	129.203177
9.200000	-15.731811	153.670851	-2.909786	110.622008	-2.909786	110.622008	-11.054494	151.216654
9.250000	-10.202136	154.945913	-3.549414	97.742628	-3.549414	97.742628	-8.240655	158.540103
9.300000	-7.030395	147.473006	-4.471560	85.331729	-4.471560	85.331729	-5.988728	156.970204
9.350000	-5.058970	138.532300	-5.619548	73.878114	-5.619548	73.878114	-4.412539	151.992554
9.400000	-3.786112	129.827826	-6.919544	63.604042	-6.919544	63.604042	-3.344072	146.034329
9.450000	-2.945362	121.862542	-8.303236	54.508579	-8.303236	54.508579	-2.623791	140.077436
9.500000	-2.372841	114.696808	-9.727987	46.426507	-9.727987	46.426507	-2.130120	134.460336
9.550000	-1.976179	108.278203	-11.162186	39.196306	-11.162186	39.196306	-1.788825	129.272211
9.600000	-1.695640	102.503040	-12.587854	32.646128	-12.587854	32.646128	-1.549553	124.498627
9.650000	-1.493129	97.264256	-13.995684	26.622449	-13.995684	26.622449	-1.379364	120.088717
9.700000	-1.343547	92.461830	-15.385131	20.990860	-15.385131	20.990860	-1.256229	115.980641
9.750000	-1.231707	88.025592	-16.750148	15.650534	-16.750148	15.650534	-1.166737	112.126182
9.800000	-1.145579	83.877539	-18.102894	10.500864	-18.102894	10.500864	-1.100180	108.468763
9.850000	-1.078908	79.977336	-19.437588	5.475778	-19.437588	5.475778	-1.051011	104.976955
9.900000	-1.026045	76.276332	-20.765191	0.507890	-20.765191	0.507890	-1.014191	101.613526
9.950000	-0.984599	72.760705	-22.064101	-4.455771	-22.064101	-4.455771	-0.987614	98.363931
10.000000	-0.950623	69.380176	-23.366764	-9.459287	-23.366764	-9.459287	-0.967743	95.192233
