! freq	dB(S11)	phase(S11)	dB(S12)	phase(S12)	
!     	dB(S21)	phase(S21)	dB(S22)	phase(S22)	
!S-par simulation data
#  GHz  S  DB  R 50
0.000000	-83.889498	0.000000	-0.000555	0.000000	-0.000555	0.000000	-83.889498	0.000000
0.050000	-35.415025	-93.022783	-0.005706	-3.037780	-0.005706	-3.037780	-35.452809	-92.384725
0.100000	-29.399631	-96.381236	-0.015654	-6.038865	-0.015654	-6.038865	-29.394843	-95.396128
0.150000	-25.885484	-99.705350	-0.026774	-9.021220	-0.026774	-9.021220	-25.886033	-98.541957
0.200000	-23.407427	-103.123841	-0.039398	-11.995887	-0.039398	-11.995887	-23.430492	-101.490208
0.250000	-21.533806	-106.468360	-0.054019	-14.964836	-0.054019	-14.964836	-21.535644	-104.320948
0.300000	-20.006306	-109.555708	-0.070790	-17.927547	-0.070790	-17.927547	-19.994635	-107.115156
0.350000	-18.709709	-112.666039	-0.089734	-20.883027	-0.089734	-20.883027	-18.700375	-109.895383
0.400000	-17.594528	-115.810040	-0.110723	-23.830651	-0.110723	-23.830651	-17.588449	-112.666972
0.450000	-16.622215	-118.962960	-0.133729	-26.769384	-0.133729	-26.769384	-16.618003	-115.429895
0.500000	-15.762528	-122.113166	-0.158466	-29.699498	-0.158466	-29.699498	-15.759029	-118.184149
0.550000	-14.996219	-125.255092	-0.184970	-32.619650	-0.184970	-32.619650	-14.992560	-120.927817
0.600000	-14.306893	-128.386444	-0.213026	-35.529926	-0.213026	-35.529926	-14.302548	-123.660454
0.650000	-13.683100	-131.505554	-0.242536	-38.429722	-0.242536	-38.429722	-13.677745	-126.380970
0.700000	-13.115327	-134.611873	-0.273342	-41.318913	-0.273342	-41.318913	-13.108802	-129.088920
0.750000	-12.596351	-137.704922	-0.305320	-44.197158	-0.305320	-44.197158	-12.588608	-131.783701
0.800000	-12.120167	-140.784636	-0.338328	-47.064303	-0.338328	-47.064303	-12.111240	-134.465008
0.850000	-11.682137	-143.850857	-0.372239	-49.920007	-0.372239	-49.920007	-11.672118	-137.132372
0.900000	-11.277607	-146.904388	-0.406882	-52.764703	-0.406882	-52.764703	-11.266630	-139.786309
0.950000	-10.903390	-149.945355	-0.442134	-55.598220	-0.442134	-55.598220	-10.891610	-142.426633
1.000000	-10.556557	-152.974222	-0.477857	-58.420665	-0.477857	-58.420665	-10.544143	-145.053520
1.050000	-10.234596	-155.991524	-0.513914	-61.232217	-0.513914	-61.232217	-10.221721	-147.667248
1.100000	-9.935336	-158.997852	-0.550173	-64.033122	-0.550173	-64.033122	-9.922166	-150.268184
1.150000	-9.656889	-161.993837	-0.586504	-66.823691	-0.586504	-66.823691	-9.643579	-152.856776
1.200000	-9.397598	-164.980140	-0.622782	-69.604299	-0.622782	-69.604299	-9.384290	-155.433545
1.250000	-9.156007	-167.957439	-0.658888	-72.375375	-0.658888	-72.375375	-9.142821	-157.999076
1.300000	-8.931039	-170.926261	-0.694695	-75.137221	-0.694695	-75.137221	-8.918077	-160.553797
1.350000	-8.721317	-173.887495	-0.730101	-77.890583	-0.730101	-77.890583	-8.708658	-163.098648
1.400000	-8.525816	-176.841833	-0.765005	-80.636044	-0.765005	-80.636044	-8.513513	-165.634367
1.450000	-8.343614	-179.789960	-0.799310	-83.374228	-0.799310	-83.374228	-8.331701	-168.161728
1.500000	-8.173877	177.267450	-0.832929	-86.105797	-0.832929	-86.105797	-8.162367	-170.681538
1.550000	-8.015853	174.329731	-0.865780	-88.831445	-0.865780	-88.831445	-8.004741	-173.194628
1.600000	-7.868854	171.396235	-0.897787	-91.551896	-0.897787	-91.551896	-7.858119	-175.701856
1.650000	-7.732252	168.466327	-0.928884	-94.267898	-0.928884	-94.267898	-7.721861	-178.204097
1.700000	-7.605471	165.539386	-0.959010	-96.980222	-0.959010	-96.980222	-7.595380	179.297754
1.750000	-7.487978	162.614808	-0.988112	-99.689658	-0.988112	-99.689658	-7.478135	176.802788
1.800000	-7.379281	159.692003	-1.016144	-102.397009	-1.016144	-102.397009	-7.369632	174.310082
1.850000	-7.278922	156.770397	-1.043066	-105.103095	-1.043066	-105.103095	-7.269408	171.818701
1.900000	-7.186543	153.849432	-1.068832	-107.808746	-1.068832	-107.808746	-7.177110	169.327688
1.950000	-7.101734	150.928544	-1.093418	-110.514828	-1.093418	-110.514828	-7.092331	166.836048
2.000000	-7.024044	148.007195	-1.116819	-113.222183	-1.116819	-113.222183	-7.014625	164.342803
2.050000	-6.953112	145.084872	-1.139022	-115.931656	-1.139022	-115.931656	-6.943641	161.846962
2.100000	-6.889086	142.160894	-1.159914	-118.644433	-1.159914	-118.644433	-6.879539	159.347102
2.150000	-6.830584	139.235116	-1.179728	-121.360694	-1.179728	-121.360694	-6.820948	156.843007
2.200000	-6.777868	136.306915	-1.198347	-124.081577	-1.198347	-124.081577	-6.768143	154.333271
2.250000	-6.730636	133.375836	-1.215786	-126.807918	-1.215786	-126.807918	-6.720835	151.816834
2.300000	-6.688597	130.441440	-1.232063	-129.540548	-1.232063	-129.540548	-6.678749	149.292613
2.350000	-6.651471	127.503306	-1.247201	-132.280288	-1.247201	-132.280288	-6.641615	146.759499
2.400000	-6.618981	124.561035	-1.261231	-135.027955	-1.261231	-135.027955	-6.609175	144.216357
2.450000	-6.590858	121.614249	-1.274188	-137.784352	-1.274188	-137.784352	-6.581171	141.662024
2.500000	-6.566838	118.662592	-1.286112	-140.550277	-1.286112	-140.550277	-6.557352	139.095303
2.550000	-6.546812	115.705497	-1.297007	-143.327001	-1.297007	-143.327001	-6.537626	136.514311
2.600000	-6.530346	112.742880	-1.306970	-146.114881	-1.306970	-146.114881	-6.521567	133.918317
2.650000	-6.517180	109.774476	-1.316054	-148.914679	-1.316054	-148.914679	-6.508924	131.306010
2.700000	-6.507058	106.800054	-1.324320	-151.727144	-1.324320	-151.727144	-6.499448	128.676043
2.750000	-6.499719	103.819421	-1.331831	-154.553014	-1.331831	-154.553014	-6.492886	126.027026
2.800000	-6.494901	100.832419	-1.338655	-157.393013	-1.338655	-157.393013	-6.488980	123.357527
2.850000	-6.492342	97.838932	-1.344864	-160.247855	-1.344864	-160.247855	-6.487470	120.666075
2.900000	-6.491771	94.838885	-1.350534	-163.118241	-1.350534	-163.118241	-6.488089	117.951156
2.950000	-6.492916	91.832246	-1.355743	-166.004861	-1.355743	-166.004861	-6.490562	115.211216
3.000000	-6.495496	88.819023	-1.360575	-168.908395	-1.360575	-168.908395	-6.494608	112.444661
3.050000	-6.499224	85.799269	-1.365117	-171.829510	-1.365117	-171.829510	-6.499938	109.649862
3.100000	-6.503806	82.773075	-1.369458	-174.768869	-1.369458	-174.768869	-6.506252	106.825159
3.150000	-6.508938	79.740571	-1.373692	-177.727122	-1.373692	-177.727122	-6.513241	103.968860
3.200000	-6.514306	76.701921	-1.377917	179.295086	-1.377917	179.295086	-6.520585	101.079252
3.250000	-6.519586	73.657314	-1.382232	176.297116	-1.382232	176.297116	-6.527953	98.154607
3.300000	-6.524444	70.606963	-1.386744	173.278333	-1.386744	173.278333	-6.535003	95.193187
3.350000	-6.528532	67.551090	-1.391558	170.238107	-1.391558	170.238107	-6.541380	92.193254
3.400000	-6.531493	64.489918	-1.396787	167.175806	-1.396787	167.175806	-6.546717	89.153084
3.450000	-6.532957	61.423660	-1.402548	164.090799	-1.402548	164.090799	-6.550638	86.070975
3.500000	-6.532545	58.352498	-1.408959	160.982454	-1.408959	160.982454	-6.552754	82.945260
3.550000	-6.529864	55.276572	-1.416147	157.850132	-1.416147	157.850132	-6.552665	79.774325
3.600000	-6.524515	52.195958	-1.424239	154.693191	-1.424239	154.693191	-6.549964	76.556620
3.650000	-6.516093	49.110648	-1.433372	151.510976	-1.433372	151.510976	-6.544236	73.290678
3.700000	-6.504183	46.020530	-1.443685	148.302825	-1.443685	148.302825	-6.535063	69.975131
3.750000	-6.488375	42.925362	-1.455325	145.068061	-1.455325	145.068061	-6.522022	66.608727
3.800000	-6.468096	39.824549	-1.468499	141.805072	-1.468499	141.805072	-6.504535	63.188611
3.850000	-6.443072	36.717668	-1.483324	138.514016	-1.483324	138.514016	-6.482319	59.715491
3.900000	-6.412912	33.603930	-1.499969	135.194154	-1.499969	135.194154	-6.454970	56.188574
3.950000	-6.377244	30.482327	-1.518610	131.844721	-1.518610	131.844721	-6.422106	52.607234
4.000000	-6.335722	27.351613	-1.539430	128.464914	-1.539430	128.464914	-6.383367	48.971022
4.050000	-6.288035	24.210288	-1.562623	125.053887	-1.562623	125.053887	-6.338428	45.279657
4.100000	-6.233919	21.056593	-1.588387	121.610731	-1.588387	121.610731	-6.287007	41.533016
4.150000	-6.173167	17.888498	-1.616931	118.134453	-1.616931	118.134453	-6.228878	37.731104
4.200000	-6.105777	14.704062	-1.648407	114.624588	-1.648407	114.624588	-6.164025	33.875003
4.250000	-6.031029	11.498829	-1.683317	111.076550	-1.683317	111.076550	-6.091702	29.959808
4.300000	-5.950074	8.273008	-1.721405	107.494046	-1.721405	107.494046	-6.013061	25.993454
4.350000	-5.862286	5.020759	-1.763247	103.870582	-1.763247	103.870582	-5.927473	21.969107
4.400000	-5.768536	1.740236	-1.808801	100.205593	-1.808801	100.205593	-5.835844	17.888893
4.450000	-5.669611	-1.572209	-1.858152	96.494622	-1.858152	96.494622	-5.739060	13.750323
4.500000	-5.566572	-4.922437	-1.911449	92.727178	-1.911449	92.727178	-5.638435	9.544719
4.550000	-5.462290	-8.309641	-1.967964	88.897127	-1.967964	88.897127	-5.537344	5.270520
4.600000	-5.361314	-11.740049	-2.027275	84.970887	-2.027275	84.970887	-5.441983	0.900385
4.650000	-5.275923	-15.200216	-2.089020	80.882440	-2.089020	80.882440	-5.370035	-3.600759
4.700000	-5.240052	-18.577586	-2.160367	76.415859	-2.160367	76.415859	-5.379351	-8.252315
4.750000	-5.331265	-20.668813	-2.371252	70.813963	-2.371252	70.813963	-5.722197	-11.873511
4.800000	-4.618714	-21.341059	-3.045159	69.269534	-3.045159	69.269534	-5.133792	-9.284397
4.850000	-4.314882	-27.437215	-2.842500	67.034774	-2.842500	67.034774	-4.498716	-16.353000
4.900000	-4.200429	-31.881371	-2.837901	62.989662	-2.837901	62.989662	-4.314384	-21.959551
4.950000	-4.070626	-35.911275	-2.914222	58.867470	-2.914222	58.867470	-4.159695	-26.888799
5.000000	-3.927627	-39.844533	-3.025062	54.747179	-3.025062	54.747179	-4.003581	-31.578362
5.050000	-3.776198	-43.768782	-3.158669	50.622791	-3.158669	50.622791	-3.843374	-36.158732
5.100000	-3.620975	-47.712605	-3.308077	46.489052	-3.308077	46.489052	-3.680979	-40.691277
5.150000	-3.463124	-51.692983	-3.473932	42.340678	-3.473932	42.340678	-3.516808	-45.190710
5.200000	-3.304666	-55.712666	-3.654593	38.177650	-3.654593	38.177650	-3.352401	-49.670189
5.250000	-3.146705	-59.776115	-3.850612	33.999438	-3.850612	33.999438	-3.188643	-54.133781
5.300000	-2.990243	-63.882852	-4.062057	29.807417	-4.062057	29.807417	-3.026429	-58.583890
5.350000	-2.836132	-68.036764	-4.290460	25.602115	-4.290460	25.602115	-2.866511	-63.019914
5.400000	-2.685165	-72.233972	-4.535811	21.386515	-4.535811	21.386515	-2.709649	-67.442513
5.450000	-2.537965	-76.473489	-4.799016	17.162881	-4.799016	17.162881	-2.556436	-71.851042
5.500000	-2.395192	-80.755961	-5.081594	12.933565	-5.081594	12.933565	-2.407495	-76.244009
5.550000	-2.257290	-85.078651	-5.384402	8.701598	-5.384402	8.701598	-2.263276	-80.621112
5.600000	-2.124637	-89.439821	-5.708710	4.469894	-5.708710	4.469894	-2.124167	-84.981875
5.650000	-1.997693	-93.839432	-6.056452	0.241646	-6.056452	0.241646	-1.990636	-89.325291
5.700000	-1.876776	-98.276569	-6.429575	-3.979686	-6.429575	-3.979686	-1.863028	-93.651047
5.750000	-1.762005	-102.749659	-6.830129	-8.190711	-6.830129	-8.190711	-1.741496	-97.959625
5.800000	-1.653630	-107.259106	-7.261096	-12.387306	-7.261096	-12.387306	-1.626311	-102.251151
5.850000	-1.551996	-111.806731	-7.726399	-16.563993	-7.726399	-16.563993	-1.517821	-106.525917
5.900000	-1.457000	-116.392189	-8.230010	-20.715811	-8.230010	-20.715811	-1.415929	-110.786068
5.950000	-1.368755	-121.017632	-8.777588	-24.835522	-8.777588	-24.835522	-1.320729	-115.033653
6.000000	-1.287719	-125.688763	-9.377263	-28.910431	-9.377263	-28.910431	-1.232628	-119.271201
6.050000	-1.213757	-130.408214	-10.038176	-32.927471	-10.038176	-32.927471	-1.151445	-123.503322
6.100000	-1.147043	-135.181870	-10.773324	-36.865120	-10.773324	-36.865120	-1.077283	-127.735206
6.150000	-1.088149	-140.020289	-11.601683	-40.683645	-11.601683	-40.683645	-1.010600	-131.973911
6.200000	-1.037442	-144.933599	-12.548934	-44.323633	-12.548934	-44.323633	-0.951642	-136.228265
6.250000	-0.995426	-149.933832	-13.652330	-47.686571	-13.652330	-47.686571	-0.900769	-140.508646
6.300000	-0.963280	-155.040470	-14.970771	-50.571949	-14.970771	-50.571949	-0.858936	-144.829208
6.350000	-0.942754	-160.279280	-16.599414	-52.549701	-16.599414	-52.549701	-0.827580	-149.208559
6.400000	-0.935648	-165.674618	-18.693639	-52.719295	-18.693639	-52.719295	-0.808149	-153.665903
6.450000	-0.945220	-171.263595	-21.515768	-48.611949	-21.515768	-48.611949	-0.803350	-158.227538
6.500000	-0.977723	-177.108893	-25.135623	-31.001873	-25.135623	-31.001873	-0.818432	-162.935124
6.550000	-1.039811	176.737661	-26.439545	11.630257	-26.439545	11.630257	-0.858902	-167.824157
6.600000	-1.143016	170.196268	-22.430700	43.771239	-22.430700	43.771239	-0.934329	-172.944582
6.650000	-1.309021	163.136480	-18.128606	52.016988	-18.128606	52.016988	-1.062639	-178.371584
6.700000	-1.568373	155.429808	-14.706945	51.345058	-14.706945	51.345058	-1.268551	175.833698
6.750000	-1.976676	146.895544	-11.880019	46.522068	-11.880019	46.522068	-1.596032	169.611566
6.800000	-2.626874	137.363552	-9.458720	38.965832	-9.458720	38.965832	-2.114803	162.984899
6.850000	-3.683881	126.752223	-7.363609	29.040353	-7.363609	29.040353	-2.936840	156.210863
6.900000	-5.448522	115.369526	-5.602444	16.844509	-5.602444	16.844509	-4.224000	150.197373
6.950000	-8.497410	104.907205	-4.247112	2.653528	-4.247112	2.653528	-6.121434	147.418705
7.000000	-14.121609	103.413396	-3.376835	-12.789968	-3.376835	-12.789968	-8.384511	152.845830
7.050000	-19.999141	163.010760	-3.012198	-28.353744	-3.012198	-28.353744	-9.521137	169.041661
7.100000	-13.001676	-161.938656	-3.066169	-42.981389	-3.066169	-42.981389	-8.497242	-176.666316
7.150000	-8.956656	-165.377292	-3.396518	-56.142579	-3.396518	-56.142579	-6.854941	-172.194153
7.200000	-6.776080	-173.499657	-3.864188	-67.876386	-3.864188	-67.876386	-5.555221	-173.504336
7.250000	-5.517978	177.816444	-4.368030	-78.556499	-4.368030	-78.556499	-4.681531	-177.206683
7.300000	-4.816011	169.298768	-4.840424	-88.755482	-4.840424	-88.755482	-4.159957	178.170211
7.350000	-4.549361	161.011454	-5.238583	-99.298151	-5.238583	-99.298151	-3.956347	173.248122
7.400000	-4.786681	153.103030	-5.560718	-111.560990	-5.560718	-111.560990	-4.130679	168.598734
7.450000	-5.887372	147.662306	-5.970638	-128.162396	-5.970638	-128.162396	-4.873166	166.359079
7.500000	-7.601732	157.540511	-7.390895	-152.793448	-7.390895	-152.793448	-5.667123	174.460551
7.550000	-5.062833	172.692429	-12.183134	-178.189806	-12.183134	-178.189806	-3.775497	-176.678322
7.600000	-2.666422	164.207400	-20.102131	-169.227647	-20.102131	-169.227647	-2.051472	176.935252
7.650000	-1.791442	153.926652	-21.289258	-126.527825	-21.289258	-126.527825	-1.407675	169.161675
7.700000	-1.434229	145.659045	-19.286267	-115.316977	-19.286267	-115.316977	-1.150023	162.893269
7.750000	-1.254897	138.851159	-18.346480	-115.509132	-18.346480	-115.509132	-1.024084	157.734662
7.800000	-1.144966	132.921288	-18.038959	-118.119137	-18.038959	-118.119137	-0.948388	153.238281
7.850000	-1.069099	127.573813	-18.074440	-121.343285	-18.074440	-121.343285	-0.896885	149.174392
7.900000	-1.011919	122.627505	-18.308333	-124.662854	-18.308333	-124.662854	-0.858522	145.402591
7.950000	-0.966319	117.975610	-18.668751	-127.911485	-18.668751	-127.911485	-0.828319	141.840308
8.000000	-0.928456	113.546971	-19.115658	-131.031073	-19.115658	-131.031073	-0.803634	138.432856
8.050000	-0.896157	109.294996	-19.626879	-134.000033	-19.626879	-134.000033	-0.782983	135.144474
8.100000	-0.868193	105.192289	-20.189815	-136.801784	-20.189815	-136.801784	-0.765535	131.953450
8.150000	-0.843446	101.207785	-20.796616	-139.439291	-20.796616	-139.439291	-0.750501	128.836897
8.200000	-0.821370	97.327672	-21.443535	-141.899621	-21.443535	-141.899621	-0.737498	125.783652
8.250000	-0.801641	93.544975	-22.127967	-144.158426	-22.127967	-144.158426	-0.726295	122.787063
8.300000	-0.783674	89.839693	-22.851383	-146.221018	-22.851383	-146.221018	-0.716450	119.833478
8.350000	-0.767452	86.215779	-23.611185	-148.030073	-23.611185	-148.030073	-0.707953	116.922978
8.400000	-0.752603	82.659882	-24.410746	-149.571420	-24.410746	-149.571420	-0.700511	114.046552
8.450000	-0.738984	79.168404	-25.251407	-150.795225	-25.251407	-150.795225	-0.694009	111.200727
8.500000	-0.726454	75.737239	-26.135046	-151.640976	-26.135046	-151.640976	-0.688331	108.381970
8.550000	-0.714934	72.365277	-27.060415	-152.002417	-27.060415	-152.002417	-0.683409	105.588195
8.600000	-0.704245	69.044379	-28.032999	-151.828632	-28.032999	-151.828632	-0.679103	102.814761
8.650000	-0.694360	65.775125	-29.046957	-150.957784	-29.046957	-150.957784	-0.675386	100.060722
8.700000	-0.685213	62.555412	-30.093283	-149.218198	-30.093283	-149.218198	-0.672207	97.324178
8.750000	-0.676753	59.383416	-31.152371	-146.402995	-31.152371	-146.402995	-0.669526	94.603474
8.800000	-0.668963	56.259484	-32.178338	-142.224593	-32.178338	-142.224593	-0.667335	91.897742
8.850000	-0.661780	53.180160	-33.112468	-136.568914	-33.112468	-136.568914	-0.665591	89.205063
8.900000	-0.655179	50.144210	-33.866021	-129.470814	-33.866021	-129.470814	-0.664286	86.524364
8.950000	-0.649139	47.150523	-34.344477	-121.309940	-34.344477	-121.309940	-0.663416	83.854712
9.000000	-0.643645	44.198089	-34.488154	-112.818349	-34.488154	-112.818349	-0.662986	81.195296
9.050000	-0.638687	41.285984	-34.306347	-104.838963	-34.306347	-104.838963	-0.663007	78.545417
9.100000	-0.634259	38.413355	-33.870578	-98.002280	-33.870578	-98.002280	-0.663497	75.904478
9.150000	-0.630358	35.579410	-33.275332	-92.581693	-33.275332	-92.581693	-0.664476	73.271977
9.200000	-0.626983	32.783405	-32.603064	-88.558250	-32.603064	-88.558250	-0.665975	70.647495
9.250000	-0.624137	30.024641	-31.910952	-85.760105	-31.910952	-85.760105	-0.668025	68.030696
9.300000	-0.621824	27.302453	-31.233015	-83.972510	-31.233015	-83.972510	-0.670662	65.421318
9.350000	-0.620050	24.616212	-30.587059	-82.994669	-30.587059	-82.994669	-0.673929	62.819171
9.400000	-0.618823	21.965310	-29.980975	-82.659342	-29.980975	-82.659342	-0.677869	60.224130
9.450000	-0.618152	19.349168	-29.417076	-82.834357	-29.417076	-82.834357	-0.682529	57.636136
9.500000	-0.618045	16.767225	-28.894737	-83.417629	-28.894737	-83.417629	-0.687960	55.055189
9.550000	-0.618515	14.218939	-28.411910	-84.330920	-28.411910	-84.330920	-0.694212	52.481346
9.600000	-0.619572	11.703785	-27.965962	-85.514267	-27.965962	-85.514267	-0.701340	49.914721
9.650000	-0.621227	9.221251	-27.554125	-86.921522	-27.554125	-86.921522	-0.709398	47.355479
9.700000	-0.623491	6.770841	-27.173725	-88.516944	-27.173725	-88.516944	-0.718443	44.803834
9.750000	-0.626377	4.352070	-26.822295	-90.272659	-26.822295	-90.272659	-0.728530	42.260048
9.800000	-0.629896	1.964466	-26.497620	-92.166757	-26.497620	-92.166757	-0.739715	39.724427
9.850000	-0.634059	-0.392435	-26.197747	-94.181886	-26.197747	-94.181886	-0.752054	37.197321
9.900000	-0.638878	-2.719083	-25.920981	-96.304184	-25.920981	-96.304184	-0.765600	34.679117
9.950000	-0.644362	-5.015921	-25.665867	-98.522478	-25.665867	-98.522478	-0.780406	32.170238
10.000000	-0.650521	-7.283382	-25.431170	-100.827664	-25.431170	-100.827664	-0.796525	29.671144
