! freq	dB(S11)	phase(S11)	dB(S12)	phase(S12)	
!     	dB(S21)	phase(S21)	dB(S22)	phase(S22)	
!S-par simulation data
#  GHz  S  DB  R 50
0.000000	-0.000000	0.000000	-370.917458	0.000000	-370.917458	0.000000	-0.000000	0.000000
0.050000	-0.000112	-0.843258	-88.793877	1.613868	-88.793877	1.613868	-0.000109	-1.031532
0.100000	-0.000443	-1.686238	-88.838745	1.971433	-88.838745	1.971433	-0.000433	-2.062823
0.150000	-0.000978	-2.528686	-88.915293	2.613017	-88.915293	2.613017	-0.000964	-3.093644
0.200000	-0.001696	-3.370391	-89.023934	3.331832	-89.023934	3.331832	-0.001685	-4.123793
0.250000	-0.002581	-4.211120	-89.168544	4.091525	-89.168544	4.091525	-0.002591	-5.153027
0.300000	-0.003590	-5.050834	-89.348622	4.879100	-89.348622	4.879100	-0.003646	-6.181268
0.350000	-0.004701	-5.889415	-89.568893	5.695861	-89.568893	5.695861	-0.004837	-7.208351
0.400000	-0.005890	-6.726825	-89.833744	6.546294	-89.833744	6.546294	-0.006141	-8.234174
0.450000	-0.007132	-7.563054	-90.148807	7.438968	-90.148807	7.438968	-0.007539	-9.258660
0.500000	-0.008407	-8.398121	-90.521322	8.387056	-90.521322	8.387056	-0.009009	-10.281757
0.550000	-0.009699	-9.232059	-90.960654	9.409929	-90.960654	9.409929	-0.010533	-11.303434
0.600000	-0.010994	-10.064910	-91.479072	10.536104	-91.479072	10.536104	-0.012095	-12.323674
0.650000	-0.012282	-10.896720	-92.092915	11.808412	-92.092915	11.808412	-0.013679	-13.342474
0.700000	-0.013556	-11.727533	-92.824422	13.293359	-92.824422	13.293359	-0.015275	-14.359839
0.750000	-0.014813	-12.557391	-93.704676	15.099003	-93.704676	15.099003	-0.016871	-15.375779
0.800000	-0.016049	-13.386328	-94.778487	17.411764	-94.778487	17.411764	-0.018461	-16.390308
0.850000	-0.017263	-14.214374	-96.112602	20.579704	-96.112602	20.579704	-0.020037	-17.403440
0.900000	-0.018455	-15.041550	-97.808462	25.324363	-97.808462	25.324363	-0.021595	-18.415186
0.950000	-0.019626	-15.867871	-100.010545	33.350042	-100.010545	33.350042	-0.023132	-19.425558
1.000000	-0.020777	-16.693346	-102.797696	48.994064	-102.797696	48.994064	-0.024646	-20.434561
1.050000	-0.021910	-17.517979	-105.320290	79.421768	-105.320290	79.421768	-0.026136	-21.442201
1.100000	-0.023026	-18.341769	-104.496436	121.694620	-104.496436	121.694620	-0.027601	-22.448476
1.150000	-0.024127	-19.164709	-100.876435	148.393672	-100.876435	148.393672	-0.029043	-23.453384
1.200000	-0.025215	-19.986791	-97.490840	160.646351	-97.490840	160.646351	-0.030461	-24.456916
1.250000	-0.026291	-20.808002	-94.733563	167.025622	-94.733563	167.025622	-0.031857	-25.459062
1.300000	-0.027358	-21.628288	-92.438376	170.756715	-92.438376	170.756715	-0.033232	-26.459748
1.350000	-0.028416	-22.447671	-90.477120	173.195694	-90.477120	173.195694	-0.034587	-27.459015
1.400000	-0.029468	-23.266132	-88.756333	174.862325	-88.756333	174.862325	-0.035925	-28.456846
1.450000	-0.030515	-24.083652	-87.215413	176.026647	-87.215413	176.026647	-0.037247	-29.453220
1.500000	-0.031558	-24.900211	-85.813532	176.840720	-85.813532	176.840720	-0.038555	-30.448113
1.550000	-0.032597	-25.715787	-84.522144	177.395986	-84.522144	177.395986	-0.039851	-31.441502
1.600000	-0.033635	-26.530360	-83.320626	177.750444	-83.320626	177.750444	-0.041135	-32.433361
1.650000	-0.034671	-27.343908	-82.193659	177.942525	-82.193659	177.942525	-0.042411	-33.423666
1.700000	-0.035706	-28.156410	-81.129595	177.998643	-81.129595	177.998643	-0.043678	-34.412388
1.750000	-0.036741	-28.967844	-80.119399	177.937532	-80.119399	177.937532	-0.044939	-35.399503
1.800000	-0.037777	-29.778190	-79.155943	177.772848	-79.155943	177.772848	-0.046196	-36.384981
1.850000	-0.038814	-30.587424	-78.233528	177.514805	-78.233528	177.514805	-0.047448	-37.368797
1.900000	-0.039853	-31.395528	-77.347537	177.171227	-77.347537	177.171227	-0.048697	-38.350923
1.950000	-0.040893	-32.202481	-76.494193	176.748250	-76.494193	176.748250	-0.049946	-39.331332
2.000000	-0.041935	-33.008262	-75.670379	176.250808	-75.670379	176.250808	-0.051193	-40.309998
2.050000	-0.042980	-33.812852	-74.873502	175.682965	-74.873502	175.682965	-0.052441	-41.286896
2.100000	-0.044028	-34.616231	-74.101392	175.048161	-74.101392	175.048161	-0.053691	-42.261998
2.150000	-0.045079	-35.418382	-73.352224	174.349387	-73.352224	174.349387	-0.054942	-43.235282
2.200000	-0.046133	-36.219285	-72.624451	173.589313	-72.624451	173.589313	-0.056197	-44.206722
2.250000	-0.047191	-37.018922	-71.916760	172.770387	-71.916760	172.770387	-0.057455	-45.176295
2.300000	-0.048252	-37.817278	-71.228028	171.894910	-71.228028	171.894910	-0.058717	-46.143979
2.350000	-0.049318	-38.614334	-70.557293	170.965090	-70.557293	170.965090	-0.059984	-47.109751
2.400000	-0.050388	-39.410074	-69.903726	169.983085	-69.903726	169.983085	-0.061257	-48.073590
2.450000	-0.051462	-40.204484	-69.266608	168.951034	-69.266608	168.951034	-0.062536	-49.035478
2.500000	-0.052540	-40.997546	-68.645312	167.871083	-68.645312	167.871083	-0.063822	-49.995394
2.550000	-0.053624	-41.789188	-68.038136	166.743514	-68.038136	166.743514	-0.065115	-50.953232
2.600000	-0.054713	-42.579453	-67.445877	165.572613	-67.445877	165.572613	-0.066416	-51.909062
2.650000	-0.055807	-43.368327	-66.868090	164.360621	-66.868090	164.360621	-0.067724	-52.862868
2.700000	-0.056907	-44.155798	-66.304371	163.109820	-66.304371	163.109820	-0.069042	-53.814633
2.750000	-0.058013	-44.941852	-65.754347	161.822525	-65.754347	161.822525	-0.070368	-54.764344
2.800000	-0.059125	-45.726478	-65.217671	160.501083	-65.217671	160.501083	-0.071703	-55.711989
2.850000	-0.060243	-46.509663	-64.694011	159.147860	-64.694011	159.147860	-0.073048	-56.657553
2.900000	-0.061368	-47.291396	-64.183052	157.765237	-64.183052	157.765237	-0.074403	-57.601028
2.950000	-0.062501	-48.071667	-63.684482	156.355593	-63.684482	156.355593	-0.075768	-58.542401
3.000000	-0.063640	-48.850465	-63.197999	154.921293	-63.197999	154.921293	-0.077144	-59.481664
3.050000	-0.064788	-49.627780	-62.723298	153.464676	-62.723298	153.464676	-0.078531	-60.418809
3.100000	-0.065943	-50.403603	-62.260076	151.988039	-62.260076	151.988039	-0.079929	-61.353829
3.150000	-0.067107	-51.177924	-61.808028	150.493626	-61.808028	150.493626	-0.081339	-62.286717
3.200000	-0.068280	-51.950735	-61.366844	148.983611	-61.366844	148.983611	-0.082762	-63.217468
3.250000	-0.069462	-52.722028	-60.936211	147.460089	-60.936211	147.460089	-0.084197	-64.146078
3.300000	-0.070654	-53.491794	-60.515813	145.925060	-60.515813	145.925060	-0.085644	-65.072544
3.350000	-0.071855	-54.260028	-60.105329	144.380425	-60.105329	144.380425	-0.087105	-65.996863
3.400000	-0.073067	-55.026721	-59.704435	142.827969	-59.704435	142.827969	-0.088579	-66.919033
3.450000	-0.074290	-55.791867	-59.312806	141.269363	-59.312806	141.269363	-0.090068	-67.839055
3.500000	-0.075525	-56.555461	-58.930115	139.706149	-58.930115	139.706149	-0.091570	-68.756928
3.550000	-0.076771	-57.317496	-58.556034	138.139744	-58.556034	138.139744	-0.093088	-69.672654
3.600000	-0.078029	-58.077967	-58.190237	136.571434	-58.190237	136.571434	-0.094620	-70.586236
3.650000	-0.079300	-58.836869	-57.832400	135.002371	-57.832400	135.002371	-0.096168	-71.497675
3.700000	-0.080583	-59.594199	-57.482204	133.433581	-57.482204	133.433581	-0.097731	-72.406978
3.750000	-0.081881	-60.349951	-57.139332	131.865958	-57.139332	131.865958	-0.099312	-73.314147
3.800000	-0.083193	-61.104053	-56.803214	130.300388	-56.803214	130.300388	-0.100909	-74.219097
3.850000	-0.084519	-61.856570	-56.473827	128.737455	-56.473827	128.737455	-0.102524	-75.121927
3.900000	-0.085860	-62.607501	-56.150875	127.177679	-56.150875	127.177679	-0.104156	-76.022645
3.950000	-0.087217	-63.356841	-55.834071	125.621473	-55.834071	125.621473	-0.105806	-76.921259
4.000000	-0.088589	-64.104590	-55.523139	124.069148	-55.523139	124.069148	-0.107475	-77.817777
4.050000	-0.089978	-64.850745	-55.217813	122.520925	-55.217813	122.520925	-0.109163	-78.712211
4.100000	-0.091384	-65.595306	-54.917840	120.976935	-54.917840	120.976935	-0.110871	-79.604570
4.150000	-0.092807	-66.338270	-54.622977	119.437233	-54.622977	119.437233	-0.112598	-80.494866
4.200000	-0.094247	-67.079639	-54.332997	117.901802	-54.332997	117.901802	-0.114346	-81.383111
4.250000	-0.095706	-67.819411	-54.047681	116.370562	-54.047681	116.370562	-0.116115	-82.269317
4.300000	-0.097183	-68.557587	-53.766827	114.843374	-53.766827	114.843374	-0.117905	-83.153499
4.350000	-0.098679	-69.294167	-53.490241	113.320054	-53.490241	113.320054	-0.119717	-84.035671
4.400000	-0.100195	-70.029153	-53.217745	111.800373	-53.217745	111.800373	-0.121552	-84.915848
4.450000	-0.101731	-70.762546	-52.949172	110.284065	-52.949172	110.284065	-0.123410	-85.794044
4.500000	-0.103287	-71.494347	-52.684366	108.770837	-52.684366	108.770837	-0.125291	-86.670278
4.550000	-0.104863	-72.224559	-52.423186	107.260371	-52.423186	107.260371	-0.127197	-87.544565
4.600000	-0.106461	-72.953185	-52.165498	105.752330	-52.165498	105.752330	-0.129127	-88.416923
4.650000	-0.108081	-73.680227	-51.911184	104.246364	-51.911184	104.246364	-0.131083	-89.287370
4.700000	-0.109722	-74.405688	-51.660132	102.742114	-51.660132	102.742114	-0.133064	-90.155926
4.750000	-0.111387	-75.129572	-51.412244	101.239220	-51.412244	101.239220	-0.135072	-91.022610
4.800000	-0.113074	-75.851883	-51.167430	99.737319	-51.167430	99.737319	-0.137107	-91.887441
4.850000	-0.114784	-76.572626	-50.925609	98.236053	-50.925609	98.236053	-0.139169	-92.750441
4.900000	-0.116518	-77.291805	-50.686711	96.735071	-50.686711	96.735071	-0.141259	-93.611631
4.950000	-0.118276	-78.009425	-50.450674	95.234034	-50.450674	95.234034	-0.143378	-94.471032
5.000000	-0.120058	-78.725492	-50.217441	93.732615	-50.217441	93.732615	-0.145527	-95.328668
5.050000	-0.121866	-79.439945	-49.986823	92.230462	-49.986823	92.230462	-0.147706	-96.184485
5.100000	-0.123700	-80.152858	-49.758932	90.727301	-49.758932	90.727301	-0.149916	-97.038585
5.150000	-0.125559	-80.864236	-49.533735	89.222866	-49.533735	89.222866	-0.152157	-97.890991
5.200000	-0.127444	-81.574088	-49.311206	87.716913	-49.311206	87.716913	-0.154430	-98.741728
5.250000	-0.129355	-82.282420	-49.091321	86.209223	-49.091321	86.209223	-0.156735	-99.590822
5.300000	-0.131293	-82.989240	-48.874066	84.699601	-48.874066	84.699601	-0.159073	-100.438297
5.350000	-0.133259	-83.694557	-48.659427	83.187882	-48.659427	83.187882	-0.161445	-101.284180
5.400000	-0.135251	-84.398378	-48.447396	81.673928	-48.447396	81.673928	-0.163851	-102.128497
5.450000	-0.137281	-85.100200	-48.237146	80.156777	-48.237146	80.156777	-0.166303	-102.970755
5.500000	-0.139326	-85.801249	-48.030639	78.638374	-48.030639	78.638374	-0.168774	-103.812219
5.550000	-0.141406	-86.500516	-47.826275	77.116951	-47.826275	77.116951	-0.171288	-104.651892
5.600000	-0.143510	-87.198510	-47.624758	75.593371	-47.624758	75.593371	-0.173834	-105.490285
5.650000	-0.145645	-87.894999	-47.425800	74.067221	-47.425800	74.067221	-0.176419	-106.327207
5.700000	-0.147811	-88.589982	-47.229333	72.538502	-47.229333	72.538502	-0.179043	-107.162657
5.750000	-0.150003	-89.283730	-47.035756	71.007771	-47.035756	71.007771	-0.181700	-107.996935
5.800000	-0.152231	-89.975748	-46.844406	69.474222	-46.844406	69.474222	-0.184403	-108.829571
5.850000	-0.154481	-90.666796	-46.656189	67.939251	-46.656189	67.939251	-0.187135	-109.661315
5.900000	-0.156774	-91.355902	-46.470022	66.401436	-46.470022	66.401436	-0.189921	-110.491273
5.950000	-0.159084	-92.044292	-46.287141	64.862756	-46.287141	64.862756	-0.192728	-111.320596
6.000000	-0.161442	-92.730536	-46.106212	63.321478	-46.106212	63.321478	-0.195599	-112.148015
6.050000	-0.163812	-93.416314	-45.928639	61.779791	-45.928639	61.779791	-0.198485	-112.975034
6.100000	-0.166238	-94.099754	-45.752986	60.236061	-45.752986	60.236061	-0.201442	-113.800056
6.150000	-0.168670	-94.782965	-45.580683	58.692225	-45.580683	58.692225	-0.204408	-114.624890
6.200000	-0.171165	-95.463659	-45.410319	57.147229	-45.410319	57.147229	-0.207454	-115.447663
6.250000	-0.173661	-96.144354	-45.243233	55.602234	-45.243233	55.602234	-0.210502	-116.270435
6.300000	-0.176226	-96.822364	-45.078146	54.057296	-45.078146	54.057296	-0.213640	-117.091109
6.350000	-0.178793	-97.500375	-44.916138	52.512359	-44.916138	52.512359	-0.216778	-117.911783
6.400000	-0.181425	-98.175983	-44.756348	50.968773	-44.756348	50.968773	-0.220001	-118.730677
6.450000	-0.184064	-98.851374	-44.599378	49.425311	-44.599378	49.425311	-0.223233	-119.549408
6.500000	-0.186764	-99.524636	-44.444754	47.884299	-44.444754	47.884299	-0.226543	-120.366653
6.550000	-0.189477	-100.197473	-44.292747	46.343777	-44.292747	46.343777	-0.229869	-121.183601
6.600000	-0.192247	-100.868447	-44.143131	44.806559	-44.143131	44.806559	-0.233267	-121.999334
6.650000	-0.195036	-101.538801	-43.995975	43.270442	-43.995975	43.270442	-0.236690	-122.814662
6.700000	-0.197878	-102.207545	-43.851189	41.738208	-43.851189	41.738208	-0.240178	-123.629022
6.750000	-0.200745	-102.875486	-43.708737	40.207915	-43.708737	40.207915	-0.243699	-124.442899
6.800000	-0.203660	-103.542062	-43.568580	38.681795	-43.568580	38.681795	-0.247277	-125.256029
6.850000	-0.206608	-104.207664	-43.430646	37.158654	-43.430646	37.158654	-0.250897	-126.068626
6.900000	-0.209597	-104.872135	-43.294896	35.639689	-43.294896	35.639689	-0.254568	-126.880673
6.950000	-0.212628	-105.535474	-43.161263	34.124899	-43.161263	34.124899	-0.258288	-127.692168
7.000000	-0.215695	-106.197903	-43.029682	32.614016	-43.029682	32.614016	-0.262052	-128.503280
7.050000	-0.218811	-106.859058	-42.900101	31.108604	-42.900101	31.108604	-0.265874	-129.313855
7.100000	-0.221956	-107.519511	-42.772433	29.606595	-42.772433	29.606595	-0.269731	-130.124186
7.150000	-0.225160	-108.178561	-42.646631	28.111393	-42.646631	28.111393	-0.273656	-130.934027
7.200000	-0.228387	-108.837105	-42.522609	26.618894	-42.522609	26.618894	-0.277608	-131.743733
7.250000	-0.231681	-109.494132	-42.400288	25.134507	-42.400288	25.134507	-0.281636	-132.553033
7.300000	-0.234992	-110.150836	-42.279636	23.651983	-42.279636	23.651983	-0.285683	-133.362275
7.350000	-0.238380	-110.805924	-42.160484	22.178775	-42.160484	22.178775	-0.289815	-134.171229
7.400000	-0.241776	-111.460857	-42.042917	20.706507	-42.042917	20.706507	-0.293957	-134.980172
7.450000	-0.245261	-112.114091	-41.926611	19.244585	-41.926611	19.244585	-0.298194	-135.788983
7.500000	-0.248746	-112.767325	-41.811842	17.782663	-41.811842	17.782663	-0.302432	-136.597795
7.550000	-0.252331	-113.418792	-41.698053	16.331869	-41.698053	16.331869	-0.306773	-137.406671
7.600000	-0.255916	-114.070259	-41.585735	14.881075	-41.585735	14.881075	-0.311116	-138.215548
7.650000	-0.259595	-114.720186	-41.474193	13.440092	-41.474193	13.440092	-0.315553	-139.024680
7.700000	-0.263285	-115.369973	-41.364006	12.000001	-41.364006	12.000001	-0.320000	-139.833836
7.750000	-0.267062	-116.018436	-41.254422	10.568252	-41.254422	10.568252	-0.324533	-140.643407
7.800000	-0.270859	-116.666633	-41.146049	9.138171	-41.146049	9.138171	-0.329085	-141.453062
7.850000	-0.274738	-117.313706	-41.038145	7.714881	-41.038145	7.714881	-0.333713	-142.263260
7.900000	-0.278646	-117.960404	-40.931279	6.293855	-40.931279	6.293855	-0.338369	-143.073640
7.950000	-0.282630	-118.606164	-40.824792	4.878055	-40.824792	4.878055	-0.343093	-143.884660
8.000000	-0.286654	-119.251454	-40.719138	3.464870	-40.719138	3.464870	-0.347852	-144.695999
8.050000	-0.290747	-119.895976	-40.613820	2.055404	-40.613820	2.055404	-0.352671	-145.508038
8.100000	-0.294891	-120.539950	-40.509102	0.648595	-40.509102	0.648595	-0.357533	-146.320577
8.150000	-0.299097	-121.183314	-40.404723	-0.755877	-40.404723	-0.755877	-0.362445	-147.133839
8.200000	-0.303366	-121.826065	-40.300686	-2.158013	-40.300686	-2.158013	-0.367408	-147.947825
8.250000	-0.307689	-122.468347	-40.197040	-3.559009	-40.197040	-3.559009	-0.372414	-148.762521
8.300000	-0.312088	-123.109969	-40.093452	-4.958410	-40.093452	-4.958410	-0.377478	-149.578211
8.350000	-0.316533	-123.751247	-39.990353	-6.357618	-39.990353	-6.357618	-0.382575	-150.394557
8.400000	-0.321067	-124.391835	-39.887016	-7.756442	-39.887016	-7.756442	-0.387738	-151.212214
8.450000	-0.325638	-125.032188	-39.784305	-9.155714	-39.784305	-9.155714	-0.392927	-152.030431
8.500000	-0.330313	-125.671836	-39.681049	-10.556332	-39.681049	-10.556332	-0.398187	-152.850329
8.550000	-0.335015	-126.311343	-39.578594	-11.957678	-39.578594	-11.957678	-0.403465	-153.670648
8.600000	-0.339837	-126.950145	-39.475292	-13.362663	-39.475292	-13.362663	-0.408820	-154.493068
8.650000	-0.344674	-127.588885	-39.372989	-14.768242	-39.372989	-14.768242	-0.414186	-155.315723
8.700000	-0.349650	-128.226936	-39.269552	-16.180356	-39.269552	-16.180356	-0.419635	-156.140958
8.750000	-0.354629	-128.864988	-39.167333	-17.592470	-39.167333	-17.592470	-0.425088	-156.966193
8.800000	-0.359765	-129.502383	-39.063721	-19.014652	-39.063721	-19.014652	-0.430628	-157.794544
8.850000	-0.364904	-130.139778	-38.961331	-20.436833	-38.961331	-20.436833	-0.436171	-158.622895
8.900000	-0.370193	-130.776658	-38.857775	-21.871085	-38.857775	-21.871085	-0.441794	-159.454389
8.950000	-0.375499	-131.413491	-38.755227	-23.306433	-38.755227	-23.306433	-0.447426	-160.286169
9.000000	-0.380948	-132.049935	-38.651787	-24.755451	-38.651787	-24.755451	-0.453128	-161.121075
9.050000	-0.386428	-132.686300	-38.549152	-26.207204	-38.549152	-26.207204	-0.458847	-161.956607
9.100000	-0.392043	-133.322385	-38.445938	-27.673773	-38.445938	-27.673773	-0.464626	-162.795205
9.150000	-0.397705	-133.958376	-38.343350	-29.145281	-38.343350	-29.145281	-0.470429	-163.634825
9.200000	-0.403461	-134.594219	-38.240864	-30.628092	-38.240864	-30.628092	-0.476271	-164.476632
9.250000	-0.409325	-135.229914	-38.138401	-32.124340	-38.138401	-32.124340	-0.482158	-165.320976
9.300000	-0.415283	-135.865509	-38.036216	-33.633031	-38.036216	-33.633031	-0.488083	-166.167583
9.350000	-0.421337	-136.501026	-37.934387	-35.154958	-37.934387	-35.154958	-0.494044	-167.016538
9.400000	-0.427489	-137.136486	-37.832997	-36.690909	-37.832997	-36.690909	-0.500041	-167.867927
9.450000	-0.433742	-137.771908	-37.732145	-38.241662	-37.732145	-38.241662	-0.506073	-168.721837
9.500000	-0.440097	-138.407314	-37.631934	-39.807984	-37.631934	-39.807984	-0.512139	-169.578357
9.550000	-0.446556	-139.042724	-37.532482	-41.390623	-37.532482	-41.390623	-0.518238	-170.437579
9.600000	-0.453122	-139.678158	-37.433917	-42.990305	-37.433917	-42.990305	-0.524371	-171.299593
9.650000	-0.459796	-140.313637	-37.336377	-44.607724	-37.336377	-44.607724	-0.530535	-172.164494
9.700000	-0.466581	-140.949181	-37.240014	-46.243540	-37.240014	-46.243540	-0.536729	-173.032377
9.750000	-0.473480	-141.584809	-37.144990	-47.898373	-37.144990	-47.898373	-0.542954	-173.903341
9.800000	-0.480494	-142.220540	-37.051479	-49.572788	-37.051479	-49.572788	-0.549208	-174.777484
9.850000	-0.487626	-142.856395	-36.959666	-51.267296	-36.959666	-51.267296	-0.555489	-175.654907
9.900000	-0.494878	-143.492392	-36.869749	-52.982338	-36.869749	-52.982338	-0.561798	-176.535713
9.950000	-0.502252	-144.128551	-36.781936	-54.718283	-36.781936	-54.718283	-0.568133	-177.420008
10.000000	-0.509751	-144.764890	-36.696448	-56.475412	-36.696448	-56.475412	-0.574493	-178.307897
