! freq	dB(S11)	phase(S11)	dB(S12)	phase(S12)	
!     	dB(S21)	phase(S21)	dB(S22)	phase(S22)	
!S-par simulation data
#  GHz  S  DB  R 50
0.000000	-0.000000	0.000000	-345.818644	180.000000	-345.818644	180.000000	-0.000000	0.000000
0.050000	-0.000106	-1.701289	-85.903267	4.369006	-85.903267	4.369006	-0.000107	-0.839712
0.100000	-0.000423	-3.402347	-85.873855	7.119515	-85.873855	7.119515	-0.000423	-1.679164
0.150000	-0.000951	-5.102939	-85.828840	10.159892	-85.828840	10.159892	-0.000938	-2.518109
0.200000	-0.001681	-6.802852	-85.771303	13.197143	-85.771303	13.197143	-0.001628	-3.356350
0.250000	-0.002612	-8.501860	-85.705429	16.160959	-85.705429	16.160959	-0.002472	-4.193716
0.300000	-0.003738	-10.199745	-85.636370	19.021950	-85.636370	19.021950	-0.003444	-5.030084
0.350000	-0.005052	-11.896296	-85.569743	21.768942	-85.569743	21.768942	-0.004518	-5.865375
0.400000	-0.006547	-13.591304	-85.511399	24.402544	-85.511399	24.402544	-0.005670	-6.699546
0.450000	-0.008213	-15.284569	-85.467250	26.932795	-85.467250	26.932795	-0.006877	-7.532587
0.500000	-0.010042	-16.975898	-85.443165	29.378103	-85.443165	29.378103	-0.008120	-8.364511
0.550000	-0.012022	-18.665105	-85.444918	31.764852	-85.444918	31.764852	-0.009383	-9.195345
0.600000	-0.014142	-20.352015	-85.478178	34.127608	-85.478178	34.127608	-0.010653	-10.025125
0.650000	-0.016391	-22.036432	-85.548954	36.510840	-85.548954	36.510840	-0.011923	-10.853881
0.700000	-0.018756	-23.718195	-85.662808	38.971361	-85.662808	38.971361	-0.013183	-11.681652
0.750000	-0.021223	-25.397186	-85.824462	41.578310	-85.824462	41.578310	-0.014431	-12.508483
0.800000	-0.023779	-27.073270	-86.038496	44.419461	-86.038496	44.419461	-0.015663	-13.334404
0.850000	-0.026414	-28.746050	-86.312303	47.652191	-86.312303	47.652191	-0.016876	-14.159364
0.900000	-0.029104	-30.415994	-86.637686	51.341159	-86.637686	51.341159	-0.018074	-14.983539
0.950000	-0.031842	-32.082703	-87.015528	55.706698	-87.015528	55.706698	-0.019254	-15.806857
1.000000	-0.034614	-33.746092	-87.432817	60.979520	-87.432817	60.979520	-0.020418	-16.629322
1.050000	-0.037408	-35.406236	-87.864220	67.360579	-87.864220	67.360579	-0.021567	-17.450975
1.100000	-0.040212	-37.062734	-88.249641	75.259184	-88.249641	75.259184	-0.022701	-18.271728
1.150000	-0.043012	-38.715722	-88.500820	84.745665	-88.500820	84.745665	-0.023822	-19.091622
1.200000	-0.045799	-40.365159	-88.502150	95.634487	-88.502150	95.634487	-0.024931	-19.910647
1.250000	-0.048561	-42.011017	-88.152141	107.254108	-88.152141	107.254108	-0.026030	-20.728792
1.300000	-0.051289	-43.653199	-87.413579	118.546255	-87.413579	118.546255	-0.027120	-21.546022
1.350000	-0.053974	-45.291772	-86.363547	128.584770	-86.363547	128.584770	-0.028201	-22.362341
1.400000	-0.056611	-46.926738	-85.118228	136.928613	-85.118228	136.928613	-0.029276	-23.177732
1.450000	-0.059193	-48.558103	-83.784448	143.568157	-83.784448	143.568157	-0.030344	-23.992178
1.500000	-0.061715	-50.185881	-82.435616	148.718828	-82.435616	148.718828	-0.031408	-24.805660
1.550000	-0.064175	-51.810091	-81.113751	152.654454	-81.113751	152.654454	-0.032467	-25.618158
1.600000	-0.066570	-53.430759	-79.839536	155.626683	-79.839536	155.626683	-0.033523	-26.429655
1.650000	-0.068900	-55.047912	-78.621194	157.840721	-78.621194	157.840721	-0.034576	-27.240129
1.700000	-0.071159	-56.661243	-77.451312	159.407879	-77.451312	159.407879	-0.035626	-28.049457
1.750000	-0.073359	-58.271427	-76.346271	160.550625	-76.346271	160.550625	-0.036675	-28.857815
1.800000	-0.075499	-59.878197	-75.293725	161.307037	-75.293725	161.307037	-0.037723	-29.665090
1.850000	-0.077582	-61.481585	-74.289964	161.747514	-74.289964	161.747514	-0.038769	-30.471266
1.900000	-0.079611	-63.081628	-73.331240	161.926348	-73.331240	161.926348	-0.039816	-31.276321
1.950000	-0.081591	-64.678358	-72.413991	161.885860	-72.413991	161.885860	-0.040863	-32.080237
2.000000	-0.083529	-66.271810	-71.534942	161.659427	-71.534942	161.659427	-0.041910	-32.882996
2.050000	-0.085430	-67.862015	-70.691130	161.273683	-70.691130	161.273683	-0.042958	-33.684579
2.100000	-0.087300	-69.449005	-69.879896	160.750137	-69.879896	160.750137	-0.044008	-34.484968
2.150000	-0.089146	-71.032807	-69.098868	160.106353	-69.098868	160.106353	-0.045059	-35.284145
2.200000	-0.090973	-72.613452	-68.345930	159.356839	-68.345930	159.356839	-0.046112	-36.082093
2.250000	-0.092789	-74.190967	-67.619194	158.513701	-67.619194	158.513701	-0.047168	-36.878794
2.300000	-0.094599	-75.765380	-66.916975	157.587147	-66.916975	157.587147	-0.048226	-37.674233
2.350000	-0.096409	-77.336716	-66.237764	156.585870	-66.237764	156.585870	-0.049287	-38.468393
2.400000	-0.098224	-78.905004	-65.580206	155.517340	-65.580206	155.517340	-0.050351	-39.261257
2.450000	-0.100050	-80.470272	-64.943082	154.388034	-64.943082	154.388034	-0.051420	-40.052811
2.500000	-0.101891	-82.032550	-64.325291	153.203618	-64.325291	153.203618	-0.052492	-40.843040
2.550000	-0.103752	-83.591742	-63.724846	151.967116	-63.724846	151.967116	-0.053569	-41.631868
2.600000	-0.105636	-85.148013	-63.141952	150.685292	-63.141952	150.685292	-0.054650	-42.419341
2.650000	-0.107546	-86.701400	-62.575769	149.362062	-62.575769	149.362062	-0.055737	-43.205444
2.700000	-0.109485	-88.251945	-62.025524	148.000960	-62.025524	148.000960	-0.056829	-43.990163
2.750000	-0.111455	-89.799691	-61.490509	146.605191	-61.490509	146.605191	-0.057927	-44.773486
2.800000	-0.113456	-91.344690	-60.970067	145.177682	-60.970067	145.177682	-0.059032	-45.555399
2.850000	-0.115491	-92.886993	-60.463593	143.721115	-60.463593	143.721115	-0.060142	-46.335892
2.900000	-0.117559	-94.426660	-59.970520	142.237960	-59.970520	142.237960	-0.061260	-47.114951
2.950000	-0.119662	-95.963754	-59.490322	140.730500	-59.490322	140.730500	-0.062386	-47.892565
3.000000	-0.121799	-97.498345	-59.022505	139.200853	-59.022505	139.200853	-0.063518	-48.668724
3.050000	-0.123969	-99.030506	-58.566602	137.650984	-58.566602	137.650984	-0.064659	-49.443416
3.100000	-0.126173	-100.560318	-58.122176	136.082729	-58.122176	136.082729	-0.065809	-50.216633
3.150000	-0.128410	-102.087866	-57.688811	134.497795	-57.688811	134.497795	-0.066967	-50.988363
3.200000	-0.130679	-103.613240	-57.266113	132.897780	-57.266113	132.897780	-0.068135	-51.758598
3.250000	-0.132979	-105.136536	-56.853705	131.284177	-56.853705	131.284177	-0.069312	-52.527329
3.300000	-0.135309	-106.657854	-56.451230	129.658379	-56.451230	129.658379	-0.070500	-53.294547
3.350000	-0.137667	-108.177302	-56.058343	128.021689	-56.058343	128.021689	-0.071698	-54.060245
3.400000	-0.140054	-109.694991	-55.674717	126.375322	-55.674717	126.375322	-0.072907	-54.824414
3.450000	-0.142468	-111.211036	-55.300035	124.720412	-55.300035	124.720412	-0.074127	-55.587049
3.500000	-0.144908	-112.725558	-54.933994	123.058013	-54.933994	123.058013	-0.075358	-56.348141
3.550000	-0.147374	-114.238683	-54.576300	121.389104	-54.576300	121.389104	-0.076602	-57.107685
3.600000	-0.149863	-115.750539	-54.226672	119.714594	-54.226672	119.714594	-0.077859	-57.865675
3.650000	-0.152377	-117.261260	-53.884837	118.035319	-53.884837	118.035319	-0.079128	-58.622105
3.700000	-0.154914	-118.770983	-53.550534	116.352053	-53.550534	116.352053	-0.080411	-59.376971
3.750000	-0.157473	-120.279849	-53.223507	114.665503	-53.223507	114.665503	-0.081707	-60.130267
3.800000	-0.160056	-121.787980	-52.903308	112.976229	-52.903308	112.976229	-0.083018	-60.881922
3.850000	-0.162661	-123.295559	-52.589926	111.284953	-52.589926	111.284953	-0.084344	-61.632000
3.900000	-0.165289	-124.802739	-52.283133	109.592200	-52.283133	109.592200	-0.085685	-62.380497
3.950000	-0.167939	-126.309673	-51.982705	107.898440	-51.982705	107.898440	-0.087041	-63.127412
4.000000	-0.170612	-127.816519	-51.688429	106.204092	-51.688429	106.204092	-0.088413	-63.872740
4.050000	-0.173307	-129.323435	-51.400098	104.509528	-51.400098	104.509528	-0.089802	-64.616482
4.100000	-0.176026	-130.830585	-51.117514	102.815073	-51.117514	102.815073	-0.091207	-65.358634
4.150000	-0.178769	-132.338130	-50.840486	101.121008	-50.840486	101.121008	-0.092629	-66.099196
4.200000	-0.181536	-133.846239	-50.568832	99.427574	-50.568832	99.427574	-0.094069	-66.838168
4.250000	-0.184328	-135.355078	-50.302377	97.734973	-50.302377	97.734973	-0.095527	-67.575549
4.300000	-0.187147	-136.864819	-50.040952	96.043370	-50.040952	96.043370	-0.097003	-68.311339
4.350000	-0.189993	-138.375632	-49.784398	94.352900	-49.784398	94.352900	-0.098498	-69.045538
4.400000	-0.192867	-139.887691	-49.532560	92.663662	-49.532560	92.663662	-0.100012	-69.778149
4.450000	-0.195769	-141.401170	-49.285294	90.975731	-49.285294	90.975731	-0.101546	-70.509171
4.500000	-0.198702	-142.916247	-49.042460	89.289154	-49.042460	89.289154	-0.103100	-71.238608
4.550000	-0.201666	-144.433098	-48.803927	87.603954	-48.803927	87.603954	-0.104675	-71.966460
4.600000	-0.204662	-145.951902	-48.569569	85.920134	-48.569569	85.920134	-0.106270	-72.692731
4.650000	-0.207692	-147.472838	-48.339268	84.237678	-48.339268	84.237678	-0.107887	-73.417424
4.700000	-0.210756	-148.996088	-48.112914	82.556553	-48.112914	82.556553	-0.109526	-74.140541
4.750000	-0.213856	-150.521833	-47.890401	80.876713	-47.890401	80.876713	-0.111187	-74.862087
4.800000	-0.216992	-152.050256	-47.671631	79.198098	-47.671631	79.198098	-0.112870	-75.582066
4.850000	-0.220166	-153.581540	-47.456511	77.520641	-47.456511	77.520641	-0.114577	-76.300483
4.900000	-0.223379	-155.115868	-47.244955	75.844265	-47.244955	75.844265	-0.116307	-77.017341
4.950000	-0.226632	-156.653425	-47.036882	74.168890	-47.036882	74.168890	-0.118060	-77.732646
5.000000	-0.229926	-158.194396	-46.832220	72.494429	-46.832220	72.494429	-0.119839	-78.446405
5.050000	-0.233263	-159.739131	-46.630840	70.820829	-46.630840	70.820829	-0.121643	-79.158555
5.100000	-0.236643	-161.287668	-46.432746	69.147963	-46.432746	69.147963	-0.123472	-79.869172
5.150000	-0.240066	-162.840191	-46.237879	67.475749	-46.237879	67.475749	-0.125327	-80.578261
5.200000	-0.243533	-164.396887	-46.046185	65.804106	-46.046185	65.804106	-0.127208	-81.285829
5.250000	-0.247044	-165.957941	-45.857616	64.132962	-45.857616	64.132962	-0.129115	-81.991885
5.300000	-0.250601	-167.523538	-45.672127	62.462249	-45.672127	62.462249	-0.131050	-82.696435
5.350000	-0.254203	-169.093863	-45.489681	60.791911	-45.489681	60.791911	-0.133011	-83.399488
5.400000	-0.257851	-170.669101	-45.310240	59.121901	-45.310240	59.121901	-0.135001	-84.101052
5.450000	-0.261544	-172.249436	-45.133774	57.452183	-45.133774	57.452183	-0.137018	-84.801136
5.500000	-0.265284	-173.835051	-44.960254	55.782735	-44.960254	55.782735	-0.139065	-85.499749
5.550000	-0.269069	-175.426128	-44.789655	54.113547	-44.789655	54.113547	-0.141140	-86.196901
5.600000	-0.272900	-177.022849	-44.621957	52.444627	-44.621957	52.444627	-0.143244	-86.892601
5.650000	-0.276777	-178.625393	-44.457139	50.775995	-44.457139	50.775995	-0.145379	-87.586859
5.700000	-0.280698	179.766060	-44.295187	49.107692	-44.295187	49.107692	-0.147544	-88.279685
5.750000	-0.284665	178.151335	-44.136085	47.439772	-44.136085	47.439772	-0.149739	-88.971091
5.800000	-0.288674	176.530255	-43.979821	45.772312	-43.979821	45.772312	-0.151966	-89.661087
5.850000	-0.292727	174.902647	-43.826385	44.105402	-43.826385	44.105402	-0.154224	-90.349684
5.900000	-0.296822	173.268341	-43.675768	42.439156	-43.675768	42.439156	-0.156514	-91.036895
5.950000	-0.300958	171.627168	-43.527961	40.773703	-43.527961	40.773703	-0.158836	-91.722729
6.000000	-0.305134	169.978963	-43.382958	39.109194	-43.382958	39.109194	-0.161191	-92.407201
6.050000	-0.309346	168.323884	-43.240728	37.445738	-43.240728	37.445738	-0.163578	-93.090380
6.100000	-0.313598	166.661052	-43.101314	35.783650	-43.101314	35.783650	-0.166000	-93.772148
6.150000	-0.317885	164.990706	-42.964684	34.123075	-42.964684	34.123075	-0.168456	-94.452592
6.200000	-0.322206	163.312693	-42.830833	32.464238	-42.830833	32.464238	-0.170946	-95.131724
6.250000	-0.326559	161.626866	-42.699751	30.807382	-42.699751	30.807382	-0.173472	-95.809557
6.300000	-0.330943	159.932905	-42.571449	29.152824	-42.571449	29.152824	-0.176033	-96.486079
6.350000	-0.335354	158.230842	-42.445902	27.500798	-42.445902	27.500798	-0.178630	-97.161332
6.400000	-0.339791	156.520544	-42.323096	25.851596	-42.323096	25.851596	-0.181263	-97.835329
6.450000	-0.344251	154.801884	-42.203020	24.205527	-42.203020	24.205527	-0.183932	-98.508086
6.500000	-0.348733	153.074740	-42.085656	22.562910	-42.085656	22.562910	-0.186638	-99.179617
6.550000	-0.353233	151.338999	-41.970988	20.924075	-41.970988	20.924075	-0.189381	-99.849938
6.600000	-0.357750	149.594551	-41.858996	19.289365	-41.858996	19.289365	-0.192162	-100.519063
6.650000	-0.362280	147.841297	-41.749657	17.659128	-41.749657	17.659128	-0.194981	-101.187008
6.700000	-0.366820	146.079142	-41.642947	16.033722	-41.642947	16.033722	-0.197838	-101.853790
6.750000	-0.371369	144.308003	-41.538837	14.413507	-41.538837	14.413507	-0.200734	-102.519424
6.800000	-0.375924	142.527802	-41.437296	12.798851	-41.437296	12.798851	-0.203668	-103.183927
6.850000	-0.380481	140.738471	-41.338292	11.190119	-41.338292	11.190119	-0.206643	-103.847316
6.900000	-0.385037	138.938649	-41.241986	9.588620	-41.241986	9.588620	-0.209663	-104.509454
6.950000	-0.389590	137.130790	-41.147955	7.992963	-41.147955	7.992963	-0.212717	-105.170654
7.000000	-0.394137	135.313659	-41.056338	6.404328	-41.056338	6.404328	-0.215813	-105.830792
7.050000	-0.398676	133.487231	-40.967088	4.823067	-40.967088	4.823067	-0.218949	-106.489884
7.100000	-0.403203	131.651489	-40.880154	3.249524	-40.880154	3.249524	-0.222127	-107.147949
7.150000	-0.407716	129.806430	-40.795483	1.684030	-40.795483	1.684030	-0.225346	-107.805005
7.200000	-0.412213	127.952065	-40.713016	0.126904	-40.713016	0.126904	-0.228607	-108.461069
7.250000	-0.416690	126.088414	-40.632693	-1.421553	-40.632693	-1.421553	-0.231911	-109.116160
7.300000	-0.421147	124.215912	-40.554391	-2.961464	-40.554391	-2.961464	-0.235255	-109.770338
7.350000	-0.425578	122.333707	-40.478174	-4.491669	-40.478174	-4.491669	-0.238644	-110.423530
7.400000	-0.429983	120.442366	-40.403895	-6.012429	-40.403895	-6.012429	-0.242077	-111.075807
7.450000	-0.434359	118.541964	-40.331479	-7.523550	-40.331479	-7.523550	-0.245553	-111.727189
7.500000	-0.438706	116.632597	-40.260846	-9.024873	-40.260846	-9.024873	-0.249074	-112.377695
7.550000	-0.443020	114.714181	-40.191938	-10.516071	-40.191938	-10.516071	-0.252639	-113.027327
7.600000	-0.447300	112.787037	-40.124642	-11.997307	-40.124642	-11.997307	-0.256249	-113.676125
7.650000	-0.451547	110.851306	-40.058869	-13.468597	-40.058869	-13.468597	-0.259903	-114.324109
7.700000	-0.455758	108.907144	-39.994528	-14.930045	-39.994528	-14.930045	-0.263603	-114.971301
7.750000	-0.459933	106.954725	-39.931527	-16.381855	-39.931527	-16.381855	-0.267348	-115.617721
7.800000	-0.464072	104.994239	-39.869777	-17.824359	-39.869777	-17.824359	-0.271138	-116.263391
7.850000	-0.468175	103.025893	-39.809195	-19.258037	-39.809195	-19.258037	-0.274974	-116.908333
7.900000	-0.472242	101.049911	-39.749710	-20.683550	-39.749710	-20.683550	-0.278856	-117.552569
7.950000	-0.476275	99.066533	-39.691275	-22.101759	-39.691275	-22.101759	-0.282785	-118.196122
8.000000	-0.480273	97.076016	-39.633884	-23.513728	-39.633884	-23.513728	-0.286759	-118.839015
8.050000	-0.484240	95.078636	-39.577584	-24.920689	-39.577584	-24.920689	-0.290781	-119.481271
8.100000	-0.488177	93.074684	-39.522508	-26.323931	-39.522508	-26.323931	-0.294849	-120.122914
8.150000	-0.492085	91.064402	-39.468910	-27.724550	-39.468910	-27.724550	-0.298964	-120.763962
8.200000	-0.495970	89.048126	-39.417152	-29.123103	-39.417152	-29.123103	-0.303127	-121.404441
8.250000	-0.499833	87.026265	-39.367655	-30.519058	-39.367655	-30.519058	-0.307337	-122.044383
8.300000	-0.503681	84.999177	-39.320840	-31.910381	-39.320840	-31.910381	-0.311595	-122.683814
8.350000	-0.507516	82.967233	-39.276980	-33.293561	-39.276980	-33.293561	-0.315899	-123.322763
8.400000	-0.511346	80.930818	-39.236058	-34.664265	-39.236058	-34.664265	-0.320251	-123.961256
8.450000	-0.515176	78.890332	-39.197720	-36.018554	-39.197720	-36.018554	-0.324650	-124.599323
8.500000	-0.519014	76.846190	-39.161350	-37.354140	-39.161350	-37.354140	-0.329097	-125.236995
8.550000	-0.522867	74.798815	-39.126242	-38.671042	-39.126242	-38.671042	-0.333590	-125.874305
8.600000	-0.526744	72.748644	-39.091786	-39.971447	-39.091786	-39.971447	-0.338131	-126.511286
8.650000	-0.530657	70.696125	-39.057576	-41.259027	-39.057576	-41.259027	-0.342718	-127.147975
8.700000	-0.534615	68.641714	-39.023441	-42.538199	-39.023441	-42.538199	-0.347353	-127.784414
8.750000	-0.538634	66.585875	-38.989416	-43.813637	-38.989416	-43.813637	-0.352033	-128.420646
8.800000	-0.542729	64.529070	-38.955710	-45.090247	-38.955710	-45.090247	-0.356761	-129.056719
8.850000	-0.546919	62.471809	-38.922669	-46.373118	-38.922669	-46.373118	-0.361535	-129.692695
8.900000	-0.551225	60.414573	-38.890772	-47.667800	-38.890772	-47.667800	-0.366354	-130.328642
8.950000	-0.555673	58.357850	-38.860670	-48.980843	-38.860670	-48.980843	-0.371220	-130.964641
9.000000	-0.560298	56.302132	-38.833256	-50.320418	-38.833256	-50.320418	-0.376132	-131.600793
9.050000	-0.565140	54.247920	-38.809807	-51.697166	-38.809807	-51.697166	-0.381091	-132.237229
9.100000	-0.570257	52.195734	-38.792228	-53.125433	-38.792228	-53.125433	-0.386102	-132.874120
9.150000	-0.575726	50.146131	-38.783486	-54.625099	-38.783486	-54.625099	-0.391171	-133.511707
9.200000	-0.581654	48.099735	-38.788330	-56.223603	-38.788330	-56.223603	-0.396312	-134.150323
9.250000	-0.588212	46.057439	-38.815295	-57.962679	-38.815295	-57.962679	-0.401558	-134.790490
9.300000	-0.595697	44.020809	-38.881914	-59.908255	-38.881914	-59.908255	-0.406988	-135.433100
9.350000	-0.604493	41.992313	-39.018460	-62.125467	-39.018460	-62.125467	-0.412766	-136.079271
9.400000	-0.615202	39.977638	-39.287654	-64.665167	-39.287654	-64.665167	-0.419268	-136.730586
9.450000	-0.628723	37.995696	-39.868095	-67.303854	-39.868095	-67.303854	-0.427676	-137.388732
9.500000	-0.642474	36.092888	-41.087692	-67.641404	-41.087692	-67.641404	-0.440449	-138.044923
9.550000	-0.635714	34.293705	-42.419813	-56.294820	-42.419813	-56.294820	-0.457983	-138.653638
9.600000	-0.600417	32.318086	-40.940588	-42.949658	-40.940588	-42.949658	-0.467515	-139.198719
9.650000	-0.586702	30.183684	-39.299553	-44.082144	-39.299553	-44.082144	-0.467415	-139.777407
9.700000	-0.588333	28.097042	-38.543768	-48.017382	-38.543768	-48.017382	-0.467510	-140.396645
9.750000	-0.593118	26.064731	-38.181488	-51.355964	-38.181488	-51.355964	-0.469650	-141.030293
9.800000	-0.598222	24.068364	-37.972973	-53.995953	-37.972973	-53.995953	-0.473188	-141.667949
9.850000	-0.603411	22.098416	-37.832433	-56.132002	-37.832433	-56.132002	-0.477600	-142.306856
9.900000	-0.608883	20.148440	-37.723535	-57.933314	-37.723535	-57.933314	-0.482523	-142.946580
9.950000	-0.614776	18.214874	-37.630885	-59.498514	-37.630885	-59.498514	-0.487635	-143.587180
10.000000	-0.621052	16.293663	-37.545968	-60.912809	-37.545968	-60.912809	-0.492667	-144.227295
