! freq	dB(S11)	phase(S11)	dB(S12)	phase(S12)	
!     	dB(S21)	phase(S21)	dB(S22)	phase(S22)	
!S-par simulation data
#  GHz  S  DB  R 50
0.000000	-0.000000	0.000000	-405.116719	0.000000	-405.116719	0.000000	-0.000000	0.000000
0.050000	-0.000519	-0.764814	-112.565790	89.410138	-112.565790	89.410138	-0.000728	-1.157277
0.100000	-0.001683	-1.525448	-106.601885	88.289807	-106.601885	88.289807	-0.002471	-2.309275
0.150000	-0.002932	-2.281856	-103.158219	87.302364	-103.158219	87.302364	-0.004510	-3.455205
0.200000	-0.004031	-3.035744	-100.772856	86.383802	-100.772856	86.383802	-0.006425	-4.596895
0.250000	-0.004997	-3.788582	-98.973580	85.520940	-98.973580	85.520940	-0.008154	-5.736568
0.300000	-0.005874	-4.540898	-97.560902	84.723160	-97.560902	84.723160	-0.009715	-6.875143
0.350000	-0.006714	-5.292950	-96.426732	84.001995	-96.426732	84.001995	-0.011162	-8.013144
0.400000	-0.007552	-6.044826	-95.508715	83.374033	-95.508715	83.374033	-0.012540	-9.150748
0.450000	-0.008417	-6.796532	-94.775896	82.871454	-94.775896	82.871454	-0.013881	-10.287912
0.500000	-0.009317	-7.548081	-94.192307	82.509686	-94.192307	82.509686	-0.015208	-11.424581
0.550000	-0.010256	-8.299469	-93.740679	82.320767	-93.740679	82.320767	-0.016533	-12.560634
0.600000	-0.011230	-9.050682	-93.409573	82.345690	-93.409573	82.345690	-0.017861	-13.695935
0.650000	-0.012231	-9.801701	-93.191627	82.637566	-93.191627	82.637566	-0.019196	-14.830353
0.700000	-0.013248	-10.552484	-93.082358	83.266022	-93.082358	83.266022	-0.020538	-15.963757
0.750000	-0.014268	-11.302942	-93.085462	84.357604	-93.085462	84.357604	-0.021890	-17.095950
0.800000	-0.015280	-12.052979	-93.197395	86.058897	-93.197395	86.058897	-0.023251	-18.226810
0.850000	-0.016276	-12.802492	-93.409534	88.557764	-93.409534	88.557764	-0.024621	-19.356254
0.900000	-0.017255	-13.551429	-93.704072	92.026149	-93.704072	92.026149	-0.025997	-20.484294
0.950000	-0.018217	-14.299670	-94.060643	96.821055	-94.060643	96.821055	-0.027380	-21.610760
1.000000	-0.019165	-15.047145	-94.426045	103.294787	-94.426045	103.294787	-0.028768	-22.735569
1.050000	-0.020103	-15.793804	-94.704537	111.729766	-94.704537	111.729766	-0.030162	-23.858647
1.100000	-0.021036	-16.539614	-94.754236	122.097536	-94.754236	122.097536	-0.031560	-24.979926
1.150000	-0.021965	-17.284556	-94.425399	133.757191	-94.425399	133.757191	-0.032961	-26.099343
1.200000	-0.022896	-18.028621	-93.647276	145.441505	-93.647276	145.441505	-0.034364	-27.216840
1.250000	-0.023828	-18.771805	-92.484566	155.836367	-92.484566	155.836367	-0.035769	-28.332365
1.300000	-0.024764	-19.514067	-91.071743	164.157299	-91.071743	164.157299	-0.037176	-29.445778
1.350000	-0.025704	-20.255446	-89.571763	170.493641	-89.571763	170.493641	-0.038582	-30.557119
1.400000	-0.026648	-20.995941	-88.074503	175.162124	-88.074503	175.162124	-0.039988	-31.666348
1.450000	-0.027595	-21.735549	-86.626282	178.522560	-86.626282	178.522560	-0.041393	-32.773422
1.500000	-0.028546	-22.474268	-85.246629	-179.115832	-85.246629	-179.115832	-0.042797	-33.878306
1.550000	-0.029499	-23.212093	-83.940890	-177.513020	-83.940890	-177.513020	-0.044199	-34.980963
1.600000	-0.030455	-23.949021	-82.707595	-176.489937	-82.707595	-176.489937	-0.045600	-36.081359
1.650000	-0.031413	-24.685045	-81.542344	-175.914571	-81.542344	-175.914571	-0.046997	-37.179462
1.700000	-0.032372	-25.420157	-80.439734	-175.689418	-80.439734	-175.689418	-0.048393	-38.275241
1.750000	-0.033332	-26.154351	-79.394266	-175.741854	-79.394266	-175.741854	-0.049786	-39.368665
1.800000	-0.034293	-26.887617	-78.400753	-176.017164	-78.400753	-176.017164	-0.051177	-40.459707
1.850000	-0.035255	-27.619947	-77.454471	-176.473600	-77.454471	-176.473600	-0.052565	-41.548339
1.900000	-0.036218	-28.351331	-76.551193	-177.078898	-76.551193	-177.078898	-0.053951	-42.634534
1.950000	-0.037181	-29.081758	-75.687168	-177.807814	-75.687168	-177.807814	-0.055335	-43.718266
2.000000	-0.038144	-29.811220	-74.859080	-178.640357	-74.859080	-178.640357	-0.056717	-44.799512
2.050000	-0.039108	-30.539704	-74.063997	-179.560523	-74.063997	-179.560523	-0.058098	-45.878246
2.100000	-0.040073	-31.267199	-73.299324	179.444639	-73.299324	179.444639	-0.059478	-46.954447
2.150000	-0.041039	-31.993696	-72.562759	178.385706	-72.562759	178.385706	-0.060857	-48.028091
2.200000	-0.042006	-32.719181	-71.852255	177.271402	-71.852255	177.271402	-0.062236	-49.099159
2.250000	-0.042975	-33.443644	-71.165984	176.108974	-71.165984	176.108974	-0.063614	-50.167630
2.300000	-0.043945	-34.167072	-70.502310	174.904500	-70.502310	174.904500	-0.064994	-51.233485
2.350000	-0.044917	-34.889455	-69.859762	173.663104	-69.859762	173.663104	-0.066375	-52.296704
2.400000	-0.045891	-35.610780	-69.237015	172.389146	-69.237015	172.389146	-0.067757	-53.357272
2.450000	-0.046868	-36.331036	-68.632870	171.086352	-68.632870	171.086352	-0.069142	-54.415171
2.500000	-0.047848	-37.050211	-68.046240	169.757927	-68.046240	169.757927	-0.070530	-55.470385
2.550000	-0.048831	-37.768245	-67.475230	168.405765	-67.475230	168.405765	-0.071922	-56.522783
2.600000	-0.049818	-38.485173	-66.919937	167.033350	-66.919937	167.033350	-0.073318	-57.572467
2.650000	-0.050809	-39.200984	-66.379523	165.642753	-66.379523	165.642753	-0.074719	-58.619426
2.700000	-0.051804	-39.915667	-65.853221	164.235801	-65.853221	164.235801	-0.076126	-59.663647
2.750000	-0.052805	-40.629210	-65.340324	162.814106	-65.340324	162.814106	-0.077538	-60.705121
2.800000	-0.053810	-41.341602	-64.840181	161.379097	-64.840181	161.379097	-0.078958	-61.743838
2.850000	-0.054821	-42.052833	-64.352189	159.932048	-64.352189	159.932048	-0.080385	-62.779791
2.900000	-0.055839	-42.762891	-63.875792	158.474098	-63.875792	158.474098	-0.081820	-63.812972
2.950000	-0.056862	-43.471766	-63.410471	157.006268	-63.410471	157.006268	-0.083264	-64.843375
3.000000	-0.057893	-44.179447	-62.955747	155.529478	-62.955747	155.529478	-0.084718	-65.870995
3.050000	-0.058930	-44.885925	-62.511169	154.044556	-62.511169	154.044556	-0.086182	-66.895830
3.100000	-0.059975	-45.591190	-62.076320	152.552254	-62.076320	152.552254	-0.087656	-67.917875
3.150000	-0.061028	-46.295232	-61.650808	151.053255	-61.650808	151.053255	-0.089143	-68.937131
3.200000	-0.062090	-46.998041	-61.234265	149.548180	-61.234265	149.548180	-0.090641	-69.953595
3.250000	-0.063160	-47.699608	-60.826348	148.037596	-60.826348	148.037596	-0.092152	-70.967270
3.300000	-0.064240	-48.399925	-60.426733	146.522023	-60.426733	146.522023	-0.093676	-71.978158
3.350000	-0.065329	-49.098983	-60.035114	145.001936	-60.035114	145.001936	-0.095214	-72.986260
3.400000	-0.066427	-49.796774	-59.651204	143.477774	-59.651204	143.477774	-0.096767	-73.991582
3.450000	-0.067537	-50.493289	-59.274733	141.949941	-59.274733	141.949941	-0.098335	-74.994129
3.500000	-0.068656	-51.188520	-58.905443	140.418808	-58.905443	140.418808	-0.099919	-75.993907
3.550000	-0.069787	-51.882462	-58.543093	138.884722	-58.543093	138.884722	-0.101520	-76.990924
3.600000	-0.070929	-52.575105	-58.187451	137.348001	-58.187451	137.348001	-0.103137	-77.985189
3.650000	-0.072083	-53.266444	-57.838300	135.808942	-57.838300	135.808942	-0.104772	-78.976711
3.700000	-0.073249	-53.956472	-57.495433	134.267822	-57.495433	134.267822	-0.106425	-79.965501
3.750000	-0.074428	-54.645182	-57.158653	132.724897	-57.158653	132.724897	-0.108098	-80.951571
3.800000	-0.075620	-55.332511	-56.827482	131.180350	-56.827482	131.180350	-0.109790	-81.934818
3.850000	-0.076825	-56.018511	-56.502053	129.634481	-56.502053	129.634481	-0.111502	-82.915373
3.900000	-0.078043	-56.703176	-56.182195	128.087499	-56.182195	128.087499	-0.113235	-83.893253
3.950000	-0.079276	-57.386501	-55.867743	126.539599	-55.867743	126.539599	-0.114989	-84.868473
4.000000	-0.080523	-58.068482	-55.558542	124.990964	-55.558542	124.990964	-0.116764	-85.841052
4.050000	-0.081785	-58.749115	-55.254441	123.441765	-55.254441	123.441765	-0.118562	-86.811007
4.100000	-0.083062	-59.428394	-54.955298	121.892166	-54.955298	121.892166	-0.120382	-87.778358
4.150000	-0.084354	-60.106318	-54.660975	120.342320	-54.660975	120.342320	-0.122226	-88.743126
4.200000	-0.085662	-60.782882	-54.371341	118.792370	-54.371341	118.792370	-0.124093	-89.705332
4.250000	-0.086987	-61.458083	-54.086271	117.242453	-54.086271	117.242453	-0.125984	-90.664998
4.300000	-0.088327	-62.131919	-53.805644	115.692698	-53.805644	115.692698	-0.127900	-91.622149
4.350000	-0.089685	-62.804386	-53.529343	114.143228	-53.529343	114.143228	-0.129842	-92.576808
4.400000	-0.091060	-63.475484	-53.257259	112.594160	-53.257259	112.594160	-0.131809	-93.529002
4.450000	-0.092452	-64.145209	-52.989283	111.045604	-52.989283	111.045604	-0.133802	-94.478756
4.500000	-0.093862	-64.813561	-52.725314	109.497666	-52.725314	109.497666	-0.135822	-95.426097
4.550000	-0.095291	-65.480539	-52.465252	107.950447	-52.465252	107.950447	-0.137869	-96.371055
4.600000	-0.096738	-66.146140	-52.209003	106.404043	-52.209003	106.404043	-0.139944	-97.313658
4.650000	-0.098205	-66.810366	-51.956474	104.858546	-51.956474	104.858546	-0.142047	-98.253936
4.700000	-0.099691	-67.473214	-51.707578	103.314046	-51.707578	103.314046	-0.144178	-99.191921
4.750000	-0.101196	-68.134687	-51.462229	101.770628	-51.462229	101.770628	-0.146339	-100.127643
4.800000	-0.102722	-68.794782	-51.220346	100.228374	-51.220346	100.228374	-0.148529	-101.061137
4.850000	-0.104268	-69.453502	-50.981849	98.687366	-50.981849	98.687366	-0.150748	-101.992435
4.900000	-0.105835	-70.110847	-50.746662	97.147679	-50.746662	97.147679	-0.152999	-102.921572
4.950000	-0.107424	-70.766818	-50.514712	95.609391	-50.514712	95.609391	-0.155280	-103.848584
5.000000	-0.109034	-71.421416	-50.285926	94.072574	-50.285926	94.072574	-0.157593	-104.773507
5.050000	-0.110667	-72.074584	-50.060118	92.537373	-50.060118	92.537373	-0.159938	-105.696291
5.100000	-0.112323	-72.726383	-49.837346	91.003793	-49.837346	91.003793	-0.162316	-106.617064
5.150000	-0.114001	-73.376816	-49.617548	89.471906	-49.617548	89.471906	-0.164726	-107.535866
5.200000	-0.115703	-74.025884	-49.400661	87.941782	-49.400661	87.941782	-0.167170	-108.452736
5.250000	-0.117428	-74.673592	-49.186623	86.413488	-49.186623	86.413488	-0.169647	-109.367715
5.300000	-0.119177	-75.319941	-48.975377	84.887096	-48.975377	84.887096	-0.172158	-110.280846
5.350000	-0.120951	-75.964936	-48.766866	83.362674	-48.766866	83.362674	-0.174704	-111.192170
5.400000	-0.122749	-76.608579	-48.561034	81.840292	-48.561034	81.840292	-0.177284	-112.101731
5.450000	-0.124573	-77.250875	-48.357829	80.320022	-48.357829	80.320022	-0.179899	-113.009573
5.500000	-0.126422	-77.891828	-48.157200	78.801935	-48.157200	78.801935	-0.182550	-113.915741
5.550000	-0.128297	-78.531441	-47.959095	77.286105	-47.959095	77.286105	-0.185238	-114.820282
5.600000	-0.130198	-79.169720	-47.763466	75.772606	-47.763466	75.772606	-0.187962	-115.723243
5.650000	-0.132126	-79.806670	-47.570267	74.261515	-47.570267	74.261515	-0.190722	-116.624672
5.700000	-0.134081	-80.442294	-47.379452	72.752912	-47.379452	72.752912	-0.193521	-117.524617
5.750000	-0.136064	-81.076599	-47.190977	71.246878	-47.190977	71.246878	-0.196357	-118.423129
5.800000	-0.138075	-81.709591	-47.004798	69.743498	-47.004798	69.743498	-0.199231	-119.320259
5.850000	-0.140119	-82.341048	-46.820591	68.243366	-46.820591	68.243366	-0.202151	-120.215843
5.900000	-0.142193	-82.971147	-46.638540	66.746195	-46.638540	66.746195	-0.205111	-121.110098
5.950000	-0.144282	-83.600572	-46.459426	65.250593	-46.459426	65.250593	-0.208093	-122.003737
6.000000	-0.146418	-84.227976	-46.281575	63.759702	-46.281575	63.759702	-0.211137	-122.895530
6.050000	-0.148564	-84.854936	-46.106792	62.269935	-46.106792	62.269935	-0.214196	-123.786955
6.100000	-0.150762	-85.479675	-45.933005	60.785796	-45.933005	60.785796	-0.217326	-124.676538
6.150000	-0.152967	-86.104194	-45.762393	59.302264	-45.762393	59.302264	-0.220464	-125.565958
6.200000	-0.155230	-86.726298	-45.592540	57.825407	-45.592540	57.825407	-0.223681	-126.453592
6.250000	-0.157495	-87.348403	-45.425945	56.348551	-45.425945	56.348551	-0.226900	-127.341227
6.300000	-0.159825	-87.967905	-45.259900	54.879577	-45.259900	54.879577	-0.230207	-128.227190
6.350000	-0.162156	-88.587408	-45.096970	53.410603	-45.096970	53.410603	-0.233516	-129.113153
6.400000	-0.164549	-89.204558	-44.934816	51.949486	-44.934816	51.949486	-0.236908	-129.997853
6.450000	-0.166949	-89.821494	-44.775436	50.489082	-44.775436	50.489082	-0.240309	-130.882438
6.500000	-0.169407	-90.436320	-44.617029	49.036482	-44.617029	49.036482	-0.243789	-131.766135
6.550000	-0.171877	-91.050726	-44.461087	47.585442	-44.461087	47.585442	-0.247286	-132.649653
6.600000	-0.174401	-91.663261	-44.306286	46.142118	-44.306286	46.142118	-0.250856	-133.532622
6.650000	-0.176944	-92.275174	-44.153669	44.701366	-44.153669	44.701366	-0.254452	-134.415407
6.700000	-0.179535	-92.885451	-44.002338	43.268197	-44.002338	43.268197	-0.258115	-135.297944
6.750000	-0.182152	-93.494910	-43.852934	41.838818	-43.852934	41.838818	-0.261813	-136.180356
6.800000	-0.184813	-94.102962	-43.704936	40.416825	-43.704936	40.416825	-0.265574	-137.062778
6.850000	-0.187506	-94.710010	-43.558629	39.000107	-43.558629	39.000107	-0.269378	-137.945208
6.900000	-0.190238	-95.315872	-43.413827	37.590490	-43.413827	37.590490	-0.273239	-138.827862
6.950000	-0.193008	-95.920550	-43.270496	36.187973	-43.270496	36.187973	-0.277156	-139.710739
7.000000	-0.195813	-96.524259	-43.128752	34.792151	-43.128752	34.792151	-0.281123	-140.594002
7.050000	-0.198663	-97.126611	-42.988265	33.405700	-42.988265	33.405700	-0.285159	-141.477806
7.100000	-0.201542	-97.728204	-42.849433	32.025362	-42.849433	32.025362	-0.289237	-142.362097
7.150000	-0.204474	-98.328276	-42.711643	30.657253	-42.711643	30.657253	-0.293400	-143.247366
7.200000	-0.207429	-98.927789	-42.575567	29.294433	-42.575567	29.294433	-0.297598	-144.133156
7.250000	-0.210445	-99.525628	-42.440302	27.947480	-42.440302	27.947480	-0.301898	-145.020509
7.300000	-0.213477	-100.123101	-42.306812	26.604639	-42.306812	26.604639	-0.306224	-145.908329
7.350000	-0.216580	-100.718753	-42.173866	25.282365	-42.173866	25.282365	-0.310676	-146.798488
7.400000	-0.219691	-101.314227	-42.042764	23.962519	-42.042764	23.962519	-0.315144	-147.688952
7.450000	-0.222882	-101.907740	-41.911876	22.669391	-41.911876	22.669391	-0.319766	-148.582777
7.500000	-0.226075	-102.501254	-41.782931	21.376263	-41.782931	21.376263	-0.324391	-149.476602
7.550000	-0.229335	-103.093194	-41.654331	20.108467	-41.654331	20.108467	-0.329158	-150.373814
7.600000	-0.232639	-103.684145	-41.526519	18.859009	-41.526519	18.859009	-0.334028	-151.273572
7.650000	-0.235988	-104.274118	-41.399380	17.629724	-41.399380	17.629724	-0.339010	-152.176193
7.700000	-0.239382	-104.863124	-41.272774	16.422712	-41.272774	16.422712	-0.344116	-153.082034
7.750000	-0.242823	-105.451174	-41.146534	15.240393	-41.146534	15.240393	-0.349358	-153.991501
7.800000	-0.246311	-106.038279	-41.020461	14.085563	-41.020461	14.085563	-0.354754	-154.905058
7.850000	-0.249847	-106.624450	-40.894309	12.961472	-40.894309	12.961472	-0.360324	-155.823240
7.900000	-0.253432	-107.209698	-40.767775	11.871913	-40.767775	11.871913	-0.366093	-156.746668
7.950000	-0.257067	-107.794032	-40.640483	10.821335	-40.640483	10.821335	-0.372095	-157.676071
8.000000	-0.260753	-108.377461	-40.511956	9.814983	-40.511956	9.814983	-0.378368	-158.612311
8.050000	-0.264492	-108.959995	-40.381591	8.859068	-40.381591	8.859068	-0.384964	-159.556416
8.100000	-0.268285	-109.541640	-40.248604	7.960988	-40.248604	7.960988	-0.391951	-160.509629
8.150000	-0.272135	-110.122403	-40.111976	7.129586	-40.111976	7.129586	-0.399416	-161.473464
8.200000	-0.276042	-110.702287	-39.970361	6.375477	-39.970361	6.375477	-0.407475	-162.449792
8.250000	-0.280011	-111.281293	-39.821953	5.711440	-39.821953	5.711440	-0.416287	-163.440953
8.300000	-0.284045	-111.859415	-39.664302	5.152862	-39.664302	5.152862	-0.426070	-164.449909
8.350000	-0.288143	-112.436698	-39.495325	4.709436	-39.495325	4.709436	-0.437026	-165.478863
8.400000	-0.292317	-113.013047	-39.309189	4.413217	-39.309189	4.413217	-0.449683	-166.534453
8.450000	-0.296577	-113.588369	-39.096627	4.303252	-39.096627	4.303252	-0.464907	-167.626035
8.500000	-0.300923	-114.162735	-38.852437	4.383686	-38.852437	4.383686	-0.483322	-168.757600
8.550000	-0.305372	-114.735963	-38.558509	4.700155	-38.558509	4.700155	-0.506839	-169.945302
8.600000	-0.309938	-115.307907	-38.194841	5.270174	-38.194841	5.270174	-0.537981	-171.205394
8.650000	-0.314630	-115.878369	-37.736313	6.078197	-37.736313	6.078197	-0.580597	-172.557037
8.700000	-0.319478	-116.446704	-37.124930	7.076774	-37.124930	7.076774	-0.644078	-174.042950
8.750000	-0.324481	-117.012036	-36.296497	8.024602	-36.296497	8.024602	-0.744367	-175.703001
8.800000	-0.329572	-117.572514	-35.154430	8.304070	-35.154430	8.304070	-0.917290	-177.571172
8.850000	-0.334386	-118.124992	-33.619610	6.518266	-33.619610	6.518266	-1.238716	-179.526486
8.900000	-0.337591	-118.666582	-31.766265	-0.018041	-31.766265	-0.018041	-1.842650	179.356953
8.950000	-0.336480	-119.209951	-30.216062	-14.340754	-30.216062	-14.340754	-2.634795	-177.591018
9.000000	-0.333315	-119.793345	-30.101069	-33.022151	-30.101069	-33.022151	-2.549671	-170.596160
9.050000	-0.335220	-120.400142	-31.272408	-46.646159	-31.272408	-46.646159	-1.771726	-168.419972
9.100000	-0.340622	-120.994639	-32.646545	-53.426761	-32.646545	-53.426761	-1.238766	-169.701528
9.150000	-0.346706	-121.576217	-33.757867	-56.274679	-33.757867	-56.274679	-0.958233	-171.596230
9.200000	-0.352675	-122.150606	-34.567896	-57.341003	-34.567896	-57.341003	-0.808187	-173.393761
9.250000	-0.358436	-122.721220	-35.145901	-57.709166	-35.145901	-57.709166	-0.722076	-175.012153
9.300000	-0.364029	-123.289610	-35.552756	-57.851217	-35.552756	-57.851217	-0.670399	-176.477316
9.350000	-0.369508	-123.856563	-35.837345	-57.983280	-35.837345	-57.983280	-0.638283	-177.826383
9.400000	-0.374921	-124.422561	-36.040776	-58.186158	-36.040776	-58.186158	-0.617254	-179.095471
9.450000	-0.380294	-124.987798	-36.182735	-58.489437	-36.182735	-58.489437	-0.603638	179.697104
9.500000	-0.385647	-125.552367	-36.276465	-58.908667	-36.276465	-58.908667	-0.595259	178.539142
9.550000	-0.390999	-126.116381	-36.336086	-59.435531	-36.336086	-59.435531	-0.590298	177.417017
9.600000	-0.396359	-126.679989	-36.373776	-60.043199	-36.373776	-60.043199	-0.587430	176.318240
9.650000	-0.401736	-127.243148	-36.390640	-60.739311	-36.390640	-60.739311	-0.586459	175.241852
9.700000	-0.407138	-127.805885	-36.391213	-61.515760	-36.391213	-61.515760	-0.586914	174.183126
9.750000	-0.412567	-128.368278	-36.380567	-62.354438	-36.380567	-62.354438	-0.588328	173.136537
9.800000	-0.418028	-128.930351	-36.360864	-63.248155	-36.360864	-63.248155	-0.590505	172.099645
9.850000	-0.423523	-129.492128	-36.333833	-64.190561	-36.333833	-64.190561	-0.593295	171.070454
9.900000	-0.429052	-130.053631	-36.300855	-65.176076	-36.300855	-65.176076	-0.596583	170.047319
9.950000	-0.434620	-130.614881	-36.263039	-66.199824	-36.263039	-66.199824	-0.600280	169.028878
10.000000	-0.440225	-131.175897	-36.221279	-67.257552	-36.221279	-67.257552	-0.604313	168.013993
