! freq	dB(S11)	phase(S11)	dB(S12)	phase(S12)	
!     	dB(S21)	phase(S21)	dB(S22)	phase(S22)	
!S-par simulation data
#  GHz  S  DB  R 50
0.000000	-81.312909	0.000000	-0.000747	0.000000	-0.000747	0.000000	-81.312909	0.000000
0.050000	-49.411573	79.471112	-0.004984	-2.424060	-0.004984	-2.424060	-49.343931	80.115830
0.100000	-43.810896	80.703614	-0.010259	-4.810793	-0.010259	-4.810793	-43.785232	79.945978
0.150000	-40.381806	80.084860	-0.014024	-7.187958	-0.014024	-7.187958	-40.386125	78.751603
0.200000	-37.909501	78.757030	-0.017260	-9.564043	-0.017260	-9.564043	-37.925058	76.964728
0.250000	-35.975895	77.121483	-0.020425	-11.939677	-0.020425	-11.939677	-35.993522	74.893507
0.300000	-34.385467	75.306716	-0.023644	-14.314485	-0.023644	-14.314485	-34.397093	72.661240
0.350000	-33.033455	73.396775	-0.026918	-16.688345	-0.026918	-16.688345	-33.033798	70.388443
0.400000	-31.856347	71.425096	-0.030222	-19.061310	-0.030222	-19.061310	-31.851063	68.120805
0.450000	-30.812892	69.411706	-0.033532	-21.433524	-0.033532	-21.433524	-30.812035	65.789309
0.500000	-29.876653	67.382304	-0.036837	-23.805268	-0.036837	-23.805268	-29.877994	63.380115
0.550000	-29.024017	65.448525	-0.040142	-26.176800	-0.040142	-26.176800	-29.025245	60.932337
0.600000	-28.200814	63.325361	-0.043463	-28.548362	-0.043463	-28.548362	-28.239156	58.467598
0.650000	-27.475035	61.111862	-0.046822	-30.920131	-0.046822	-30.920131	-27.509892	55.995357
0.700000	-26.797839	58.968154	-0.050245	-33.292245	-0.050245	-33.292245	-26.829021	53.519483
0.750000	-26.160416	56.826549	-0.053765	-35.664816	-0.053765	-35.664816	-26.189412	51.042173
0.800000	-25.559270	54.678123	-0.057396	-38.037836	-0.057396	-38.037836	-25.586610	48.565049
0.850000	-24.988854	52.520167	-0.061186	-40.411405	-0.061186	-40.411405	-25.014809	46.089402
0.900000	-24.447116	50.354217	-0.065127	-42.785414	-0.065127	-42.785414	-24.471850	43.615776
0.950000	-23.929733	48.178874	-0.069266	-45.159914	-0.069266	-45.159914	-23.953381	41.145286
1.000000	-23.435140	45.995443	-0.073592	-47.534803	-0.073592	-47.534803	-23.457830	38.678044
1.050000	-22.960622	43.803379	-0.078133	-49.910063	-0.078133	-49.910063	-22.982487	36.214744
1.100000	-22.504480	41.602919	-0.082894	-52.285635	-0.082894	-52.285635	-22.525658	33.755634
1.150000	-22.065371	39.394430	-0.087873	-54.661459	-0.087873	-54.661459	-22.086002	31.300795
1.200000	-21.641366	37.177127	-0.093097	-57.037506	-0.093097	-57.037506	-21.661604	28.850849
1.250000	-21.232189	34.952295	-0.098533	-59.413702	-0.098533	-59.413702	-21.252173	26.405204
1.300000	-20.835675	32.718164	-0.104234	-61.790033	-0.104234	-61.790033	-20.855571	23.964966
1.350000	-20.452079	30.476488	-0.110151	-64.166434	-0.110151	-64.166434	-20.472021	21.529157
1.400000	-20.080049	28.226300	-0.116314	-66.542877	-0.116314	-66.542877	-20.100184	19.098360
1.450000	-19.718996	25.967680	-0.122721	-68.919322	-0.122721	-68.919322	-19.739460	16.672523
1.500000	-19.368424	23.700764	-0.129368	-71.295732	-0.129368	-71.295732	-19.389341	14.251552
1.550000	-19.027842	21.425582	-0.136257	-73.672069	-0.136257	-73.672069	-19.049325	11.835407
1.600000	-18.696825	19.142183	-0.143387	-76.048295	-0.143387	-76.048295	-18.718972	9.424037
1.650000	-18.375003	16.850637	-0.150758	-78.424371	-0.150758	-78.424371	-18.397897	7.017384
1.700000	-18.061981	14.550780	-0.158378	-80.800245	-0.158378	-80.800245	-18.085689	4.615538
1.750000	-17.757638	12.243225	-0.166231	-83.175885	-0.166231	-83.175885	-17.782203	2.218152
1.800000	-17.461656	9.927882	-0.174324	-85.551237	-0.174324	-85.551237	-17.487106	-0.174700
1.850000	-17.173829	7.604924	-0.182654	-87.926248	-0.182654	-87.926248	-17.200170	-2.563074
1.900000	-16.893968	5.274471	-0.191223	-90.300857	-0.191223	-90.300857	-16.921188	-4.946972
1.950000	-16.621931	2.936756	-0.200028	-92.675002	-0.200028	-92.675002	-16.649995	-7.326437
2.000000	-16.357599	0.592112	-0.209061	-95.048623	-0.209061	-95.048623	-16.386454	-9.701548
2.050000	-16.100857	-1.759184	-0.218320	-97.421654	-0.218320	-97.421654	-16.130431	-12.072326
2.100000	-15.851608	-4.116832	-0.227797	-99.794024	-0.227797	-99.794024	-15.881811	-14.438781
2.150000	-15.609765	-6.480511	-0.237487	-102.165662	-0.237487	-102.165662	-15.640490	-16.800910
2.200000	-15.375255	-8.849881	-0.247382	-104.536493	-0.247382	-104.536493	-15.406382	-19.158698
2.250000	-15.148013	-11.224588	-0.257472	-106.906442	-0.257472	-106.906442	-15.179408	-21.512117
2.300000	-14.927984	-13.604261	-0.267747	-109.275434	-0.267747	-109.275434	-14.959502	-23.861126
2.350000	-14.715116	-15.988524	-0.278194	-111.643394	-0.278194	-111.643394	-14.746604	-26.205674
2.400000	-14.509366	-18.376991	-0.288802	-114.010248	-0.288802	-114.010248	-14.540665	-28.545696
2.450000	-14.310693	-20.769276	-0.299554	-116.375925	-0.299554	-116.375925	-14.341641	-30.881118
2.500000	-14.119063	-23.164992	-0.310434	-118.740356	-0.310434	-118.740356	-14.149492	-33.211856
2.550000	-13.934510	-25.563818	-0.321427	-121.103447	-0.321427	-121.103447	-13.964254	-35.537709
2.600000	-13.756946	-27.965308	-0.332510	-123.465165	-0.332510	-123.465165	-13.785843	-37.858678
2.650000	-13.586342	-30.369104	-0.343663	-125.825459	-0.343663	-125.825459	-13.614235	-40.174656
2.700000	-13.422669	-32.774870	-0.354864	-128.184281	-0.354864	-128.184281	-13.449410	-42.485531
2.750000	-13.265901	-35.182285	-0.366088	-130.541594	-0.366088	-130.541594	-13.291351	-44.791188
2.800000	-13.116014	-37.591058	-0.377312	-132.897367	-0.377312	-132.897367	-13.140045	-47.091508
2.850000	-12.972986	-40.000924	-0.388509	-135.251581	-0.388509	-135.251581	-12.995481	-49.386376
2.900000	-12.836795	-42.411651	-0.399652	-137.604226	-0.399652	-137.604226	-12.857652	-51.675673
2.950000	-12.707424	-44.823039	-0.410714	-139.955302	-0.410714	-139.955302	-12.726555	-53.959286
3.000000	-12.584857	-47.234928	-0.421666	-142.304824	-0.421666	-142.304824	-12.602188	-56.237105
3.050000	-12.469082	-49.647196	-0.432477	-144.652815	-0.432477	-144.652815	-12.484554	-58.509023
3.100000	-12.360090	-52.059763	-0.443119	-146.999315	-0.443119	-146.999315	-12.373661	-60.774942
3.150000	-12.257940	-54.472595	-0.453558	-149.344360	-0.453558	-149.344360	-12.269579	-63.034702
3.200000	-12.162637	-56.885702	-0.463761	-151.688019	-0.463761	-151.688019	-12.172330	-65.288215
3.250000	-12.074128	-59.299138	-0.473700	-154.030388	-0.473700	-154.030388	-12.081874	-67.535470
3.300000	-11.992426	-61.713004	-0.483344	-156.371563	-0.483344	-156.371563	-11.998235	-69.776398
3.350000	-11.917551	-64.127452	-0.492663	-158.711655	-0.492663	-158.711655	-11.921444	-72.010941
3.400000	-11.849531	-66.542677	-0.501624	-161.050789	-0.501624	-161.050789	-11.851539	-74.239045
3.450000	-11.788404	-68.958922	-0.510199	-163.389105	-0.510199	-163.389105	-11.788561	-76.460666
3.500000	-11.734216	-71.376479	-0.518358	-165.726760	-0.518358	-165.726760	-11.732564	-78.675766
3.550000	-11.687026	-73.795682	-0.526073	-168.063924	-0.526073	-168.063924	-11.683607	-80.884312
3.600000	-11.646901	-76.216912	-0.533315	-170.400782	-0.533315	-170.400782	-11.641759	-83.086273
3.650000	-11.613925	-78.640597	-0.540060	-172.737535	-0.540060	-172.737535	-11.607099	-85.281623
3.700000	-11.588191	-81.067206	-0.546280	-175.074397	-0.546280	-175.074397	-11.579718	-87.470333
3.750000	-11.569811	-83.497253	-0.551955	-177.411597	-0.551955	-177.411597	-11.559716	-89.652370
3.800000	-11.559074	-85.931396	-0.557047	-179.749396	-0.557047	-179.749396	-11.547376	-91.827550
3.850000	-11.555965	-88.370162	-0.561551	177.911959	-0.561551	177.911959	-11.542668	-93.995966
3.900000	-11.560645	-90.814197	-0.565449	175.572199	-0.565449	175.572199	-11.545735	-96.157551
3.950000	-11.573291	-93.264188	-0.568724	173.231044	-0.568724	173.231044	-11.556738	-98.312219
4.000000	-11.594105	-95.720866	-0.571364	170.888204	-0.571364	170.888204	-11.575858	-100.459856
4.050000	-11.623308	-98.185006	-0.573360	168.543378	-0.573360	168.543378	-11.603293	-102.600314
4.100000	-11.661146	-100.657429	-0.574702	166.196258	-0.574702	166.196258	-11.639262	-104.733406
4.150000	-11.707889	-103.139006	-0.575386	163.846525	-0.575386	163.846525	-11.684009	-106.858893
4.200000	-11.763836	-105.630657	-0.575410	161.493856	-0.575410	161.493856	-11.737800	-108.976478
4.250000	-11.829315	-108.133363	-0.574776	159.137921	-0.574776	159.137921	-11.800931	-111.085793
4.300000	-11.904685	-110.648162	-0.573487	156.778386	-0.573487	156.778386	-11.873726	-113.186387
4.350000	-11.990342	-113.176166	-0.571552	154.414913	-0.571552	154.414913	-11.956541	-115.277709
4.400000	-12.086825	-115.718735	-0.568975	152.047115	-0.568975	152.047115	-12.049873	-117.358977
4.450000	-12.194618	-118.277194	-0.565772	149.674641	-0.565772	149.674641	-12.154160	-119.429357
4.500000	-12.314135	-120.852779	-0.561968	147.297202	-0.561968	147.297202	-12.269769	-121.487984
4.550000	-12.445946	-123.447007	-0.557585	144.914464	-0.557585	144.914464	-12.397220	-123.533697
4.600000	-12.590680	-126.061538	-0.552649	142.526100	-0.552649	142.526100	-12.537082	-125.565115
4.650000	-12.749025	-128.698207	-0.547191	140.131789	-0.547191	140.131789	-12.689981	-127.580597
4.700000	-12.921744	-131.359054	-0.541243	137.731222	-0.541243	137.731222	-12.856606	-129.578198
4.750000	-13.109676	-134.046367	-0.534844	135.324099	-0.534844	135.324099	-13.037715	-131.555611
4.800000	-13.313753	-136.762733	-0.528033	132.910133	-0.528033	132.910133	-13.234144	-133.510102
4.850000	-13.535008	-139.511100	-0.520856	130.489054	-0.520856	130.489054	-13.446815	-135.438431
4.900000	-13.774594	-142.294859	-0.513361	128.060610	-0.513361	128.060610	-13.676750	-137.336749
4.950000	-14.033798	-145.117945	-0.505598	125.624568	-0.505598	125.624568	-13.925079	-139.200477
5.000000	-14.314069	-147.984963	-0.497624	123.180717	-0.497624	123.180717	-14.193056	-141.024150
5.050000	-14.617320	-150.902579	-0.489493	120.728694	-0.489493	120.728694	-14.482340	-142.800031
5.100000	-14.945121	-153.876421	-0.481271	118.268510	-0.481271	118.268510	-14.794220	-144.521013
5.150000	-15.299571	-156.914430	-0.473020	115.800037	-0.473020	115.800037	-15.130423	-146.177448
5.200000	-15.683068	-160.026294	-0.464808	113.323178	-0.464808	113.323178	-15.492874	-147.757593
5.250000	-16.098369	-163.223961	-0.456700	110.837866	-0.456700	110.837866	-15.883718	-149.247068
5.300000	-16.548656	-166.522341	-0.448765	108.344073	-0.448765	108.344073	-16.305348	-150.628126
5.350000	-17.037621	-169.940279	-0.441074	105.841803	-0.441074	105.841803	-16.760412	-151.878698
5.400000	-17.569564	-173.501917	-0.433696	103.331101	-0.433696	103.331101	-17.251827	-152.971098
5.450000	-18.149511	-177.238636	-0.426703	100.812047	-0.426703	100.812047	-17.782756	-153.870285
5.500000	-18.783334	178.808120	-0.420163	98.284764	-0.420163	98.284764	-18.356537	-154.531495
5.550000	-19.477870	174.582686	-0.414146	95.749414	-0.414146	95.749414	-18.976525	-154.897043
5.600000	-20.240979	170.008931	-0.408719	93.206197	-0.408719	93.206197	-19.645748	-154.892028
5.650000	-21.081387	164.974156	-0.403955	90.655277	-0.403955	90.655277	-20.366109	-154.412176
5.700000	-22.007790	159.320267	-0.399919	88.096947	-0.399919	88.096947	-21.136969	-153.324250
5.750000	-23.027313	152.828385	-0.396662	85.531611	-0.396662	85.531611	-21.953224	-151.465700
5.800000	-24.140782	145.172692	-0.394239	82.959631	-0.394239	82.959631	-22.800952	-148.627835
5.850000	-25.331767	135.888549	-0.392700	80.381400	-0.392700	80.381400	-23.651022	-144.571636
5.900000	-26.543541	124.368705	-0.392088	77.797346	-0.392088	77.797346	-24.450770	-139.073608
5.950000	-27.640896	110.017224	-0.392443	75.207926	-0.392443	75.207926	-25.118201	-132.034323
6.000000	-28.385457	92.777949	-0.393798	72.613624	-0.393798	72.613624	-25.550305	-123.646461
6.050000	-28.520206	73.889052	-0.396176	70.014946	-0.396176	70.014946	-25.657639	-114.515263
6.100000	-27.983232	55.694051	-0.399596	67.412416	-0.399596	67.412416	-25.412781	-105.543752
6.150000	-26.974885	40.053040	-0.404068	64.806574	-0.404068	64.806574	-24.868478	-97.572522
6.200000	-25.763597	27.391928	-0.409594	62.197966	-0.409594	62.197966	-24.124647	-91.071544
6.250000	-24.529571	17.241091	-0.416167	59.587145	-0.416167	59.587145	-23.280225	-86.115283
6.300000	-23.356426	8.983091	-0.423794	56.974637	-0.423794	56.974637	-22.406080	-82.566926
6.350000	-22.276107	2.041639	-0.432429	54.361033	-0.432429	54.361033	-21.548875	-80.151336
6.400000	-21.292429	-3.955423	-0.442037	51.746862	-0.442037	51.746862	-20.731152	-78.638053
6.450000	-20.399879	-9.265021	-0.452577	49.132633	-0.452577	49.132633	-19.963016	-77.834164
6.500000	-19.590034	-14.064282	-0.464000	46.518833	-0.464000	46.518833	-19.247605	-77.587115
6.550000	-18.854187	-18.476786	-0.476246	43.905916	-0.476246	43.905916	-18.584396	-77.779027
6.600000	-18.184323	-22.590235	-0.489250	41.294301	-0.489250	41.294301	-17.971047	-78.319372
6.650000	-17.573413	-26.468025	-0.502937	38.684364	-0.502937	38.684364	-17.404364	-79.138544
6.700000	-17.015416	-30.156823	-0.517228	36.076437	-0.517228	36.076437	-16.880719	-80.183327
6.750000	-16.505188	-33.691581	-0.532035	33.470799	-0.532035	33.470799	-16.396250	-81.415345
6.800000	-16.038363	-37.098894	-0.547265	30.867675	-0.547265	30.867675	-15.947530	-82.812963
6.850000	-15.611234	-40.399308	-0.562821	28.267227	-0.562821	28.267227	-15.533650	-84.366766
6.900000	-15.220847	-43.608068	-0.578599	25.669587	-0.578599	25.669587	-15.156570	-86.052708
6.950000	-14.864541	-46.738276	-0.594492	23.074786	-0.594492	23.074786	-14.814912	-87.826660
7.000000	-14.539843	-49.801018	-0.610386	20.482750	-0.610386	20.482750	-14.504198	-89.664103
7.050000	-14.244816	-52.804509	-0.626172	17.893364	-0.626172	17.893364	-14.221342	-91.558335
7.100000	-13.977816	-55.755496	-0.641737	15.306438	-0.641737	15.306438	-13.964598	-93.505609
7.150000	-13.737458	-58.659575	-0.656969	12.721704	-0.656969	12.721704	-13.732835	-95.501743
7.200000	-13.522583	-61.521422	-0.671757	10.138814	-0.671757	10.138814	-13.525196	-97.542369
7.250000	-13.332239	-64.344973	-0.685989	7.557344	-0.685989	7.557344	-13.340990	-99.623398
7.300000	-13.165661	-67.133561	-0.699561	4.976788	-0.699561	4.976788	-13.179663	-101.741244
7.350000	-13.022258	-69.890011	-0.712366	2.396559	-0.712366	2.396559	-13.040798	-103.892877
7.400000	-12.901602	-72.616719	-0.724308	-0.184010	-0.724308	-0.184010	-12.924111	-106.075811
7.450000	-12.803426	-75.315700	-0.735291	-2.765665	-0.735291	-2.765665	-12.829457	-108.288059
7.500000	-12.727621	-77.988627	-0.745230	-5.349236	-0.745230	-5.349236	-12.756831	-110.528087
7.550000	-12.674725	-80.636331	-0.754018	-7.935711	-0.754018	-7.935711	-12.706860	-112.795331
7.600000	-12.644488	-83.260380	-0.761608	-10.526039	-0.761608	-10.526039	-12.679385	-115.088454
7.650000	-12.637301	-85.861434	-0.767939	-13.121286	-0.767939	-13.121286	-12.674877	-117.407060
7.700000	-12.653740	-88.439788	-0.772962	-15.722592	-0.772962	-15.722592	-12.693991	-119.751064
7.750000	-12.694583	-90.995322	-0.776640	-18.331170	-0.776640	-18.331170	-12.737586	-122.120676
7.800000	-12.760834	-93.527430	-0.778948	-20.948301	-0.778948	-20.948301	-12.806752	-124.516389
7.850000	-12.853752	-96.034926	-0.779876	-23.575333	-0.779876	-23.575333	-12.902844	-126.938977
7.900000	-12.974888	-98.515907	-0.779430	-26.213677	-0.779430	-26.213677	-13.027527	-129.389502
7.950000	-13.126131	-100.967573	-0.777632	-28.864802	-0.777632	-28.864802	-13.182826	-131.869326
8.000000	-13.309776	-103.385984	-0.774525	-31.530228	-0.774525	-31.530228	-13.371207	-134.380140
8.050000	-13.528332	-105.766108	-0.770178	-34.211378	-0.770178	-34.211378	-13.595396	-136.923714
8.100000	-13.785854	-108.099572	-0.764649	-36.910241	-0.764649	-36.910241	-13.859762	-139.503330
8.150000	-14.086198	-110.376508	-0.758057	-39.628351	-0.758057	-39.628351	-14.168566	-142.121825
8.200000	-14.434378	-112.582992	-0.750533	-42.367393	-0.750533	-42.367393	-14.527401	-144.783050
8.250000	-14.836339	-114.700505	-0.742242	-45.128930	-0.742242	-45.128930	-14.943030	-147.491555
8.300000	-15.299670	-116.702996	-0.733368	-47.914623	-0.733368	-47.914623	-15.424264	-150.253458
8.350000	-15.833871	-118.553840	-0.724128	-50.726113	-0.724128	-50.726113	-15.982466	-153.076862
8.400000	-16.450961	-120.200496	-0.714764	-53.565000	-0.714764	-53.565000	-16.632601	-155.972909
8.450000	-17.166452	-121.564578	-0.705557	-56.432907	-0.705557	-56.432907	-17.395063	-158.957926
8.500000	-18.000480	-122.524006	-0.696822	-59.331477	-0.696822	-59.331477	-18.298539	-162.057365
8.550000	-18.978273	-122.892600	-0.688904	-62.261821	-0.688904	-62.261821	-19.383793	-165.310635
8.600000	-20.132252	-122.358633	-0.682180	-65.225146	-0.682180	-65.225146	-20.714181	-168.788563
8.650000	-21.499915	-120.380759	-0.677063	-68.222493	-0.677063	-68.222493	-22.394513	-172.630276
8.700000	-23.109473	-115.978647	-0.673997	-71.254699	-0.673997	-71.254699	-24.617166	-177.153167
8.750000	-24.915563	-107.385442	-0.673458	-74.322369	-0.673458	-74.322369	-27.796048	176.730692
8.800000	-26.567291	-91.941865	-0.675989	-77.426222	-0.675989	-77.426222	-33.091445	164.720423
8.850000	-27.131046	-69.619935	-0.682096	-80.565883	-0.682096	-80.565883	-42.242234	96.044200
8.900000	-25.970061	-47.995635	-0.692329	-83.741018	-0.692329	-83.741018	-33.323838	18.054930
8.950000	-23.872969	-33.682227	-0.707258	-86.950914	-0.707258	-86.950914	-27.362477	4.705369
9.000000	-21.701045	-25.891979	-0.727460	-90.194447	-0.727460	-90.194447	-23.687865	-1.858028
9.050000	-19.740969	-22.102480	-0.753513	-93.470060	-0.753513	-93.470060	-21.025392	-6.728304
9.100000	-18.023393	-20.659003	-0.786045	-96.775965	-0.786045	-96.775965	-18.930827	-10.939550
9.150000	-16.519244	-20.626633	-0.825584	-100.109481	-0.825584	-100.109481	-17.202137	-14.839224
9.200000	-15.192163	-21.494940	-0.872609	-103.467490	-0.872609	-103.467490	-15.730531	-18.571555
9.250000	-14.010672	-22.977574	-0.927712	-106.846861	-0.927712	-106.846861	-14.450451	-22.204914
9.300000	-12.950887	-24.886174	-0.991264	-110.243523	-0.991264	-110.243523	-13.320150	-25.777158
9.350000	-11.994022	-27.103619	-1.063646	-113.653244	-1.063646	-113.653244	-12.310936	-29.308167
9.400000	-11.125526	-29.550041	-1.145171	-117.071450	-1.145171	-117.071450	-11.402371	-32.808667
9.450000	-10.333984	-32.168635	-1.236074	-120.493281	-1.236074	-120.493281	-10.579368	-36.283917
9.500000	-9.610304	-34.917402	-1.336505	-123.913664	-1.336505	-123.913664	-9.830440	-39.735747
9.550000	-8.947119	-37.764192	-1.446528	-127.327377	-1.446528	-127.327377	-9.146608	-43.163764
9.600000	-8.338412	-40.683870	-1.566147	-130.729046	-1.566147	-130.729046	-8.520727	-46.565979
9.650000	-7.779180	-43.655761	-1.695260	-134.113192	-1.695260	-134.113192	-7.946988	-49.939385
9.700000	-7.264993	-46.662242	-1.833558	-137.474703	-1.833558	-137.474703	-7.420360	-53.280828
9.750000	-6.792079	-49.689031	-1.980705	-140.808456	-1.980705	-140.808456	-6.936620	-56.586605
9.800000	-6.357123	-52.723930	-2.136260	-144.109421	-2.136260	-144.109421	-6.492109	-59.852909
9.850000	-5.957169	-55.756440	-2.299651	-147.372580	-2.299651	-147.372580	-6.083597	-63.075988
9.900000	-5.589553	-58.777497	-2.470142	-150.592664	-2.470142	-150.592664	-5.708202	-66.252257
9.950000	-5.251847	-61.779267	-2.646728	-153.763450	-2.646728	-153.763450	-5.363322	-69.378392
10.000000	-4.941823	-64.755006	-2.827883	-156.875743	-2.827883	-156.875743	-5.046582	-72.451392
