! freq	dB(S11)	phase(S11)	dB(S12)	phase(S12)	
!     	dB(S21)	phase(S21)	dB(S22)	phase(S22)	
!S-par simulation data
#  GHz  S  DB  R 50
0.000000	-0.000000	0.000000	-321.010888	0.000000	-321.010888	0.000000	-0.000000	0.000000
0.050000	-0.001781	-2.392322	-104.340058	88.456779	-104.340058	88.456779	-0.000617	-0.823784
0.100000	-0.005500	-4.769012	-98.367269	86.917376	-98.367269	86.917376	-0.001875	-1.642348
0.150000	-0.009244	-7.131901	-94.926372	85.387200	-94.926372	85.387200	-0.003122	-2.456821
0.200000	-0.012605	-9.487070	-92.534521	83.872460	-92.534521	83.872460	-0.004247	-3.269447
0.250000	-0.015667	-11.836471	-90.736502	82.385110	-90.736502	82.385110	-0.005286	-4.081085
0.300000	-0.018596	-14.180710	-89.325274	80.939789	-89.325274	80.939789	-0.006293	-4.892102
0.350000	-0.021474	-16.519651	-88.188262	79.551440	-88.188262	79.551440	-0.007291	-5.702610
0.400000	-0.024338	-18.852784	-87.261185	78.237821	-87.261185	78.237821	-0.008291	-6.512638
0.450000	-0.027197	-21.178945	-86.511370	77.028664	-86.511370	77.028664	-0.009295	-7.322165
0.500000	-0.030051	-23.497997	-85.905735	75.940992	-85.905735	75.940992	-0.010305	-8.131234
0.550000	-0.032895	-25.809444	-85.425700	74.999052	-85.425700	74.999052	-0.011318	-8.939853
0.600000	-0.035721	-28.112547	-85.061271	74.237124	-85.061271	74.237124	-0.012336	-9.748005
0.650000	-0.038522	-30.406257	-84.809281	73.708633	-84.809281	73.708633	-0.013355	-10.555656
0.700000	-0.041294	-32.690621	-84.657766	73.450800	-84.657766	73.450800	-0.014377	-11.362816
0.750000	-0.044033	-34.965116	-84.603392	73.527032	-84.603392	73.527032	-0.015399	-12.169460
0.800000	-0.046732	-37.228654	-84.648906	74.047616	-84.648906	74.047616	-0.016421	-12.975530
0.850000	-0.049390	-39.480884	-84.789587	75.132093	-84.789587	75.132093	-0.017442	-13.780997
0.900000	-0.052003	-41.721445	-85.019272	76.935164	-85.019272	76.935164	-0.018463	-14.585833
0.950000	-0.054571	-43.949781	-85.327547	79.674801	-85.327547	79.674801	-0.019481	-15.389995
1.000000	-0.057092	-46.165429	-85.691093	83.620447	-85.691093	83.620447	-0.020498	-16.193444
1.050000	-0.059565	-48.367955	-86.064172	89.074093	-86.064172	89.074093	-0.021514	-16.996141
1.100000	-0.061990	-50.556957	-86.366585	96.284656	-86.366585	96.284656	-0.022527	-17.798051
1.150000	-0.064368	-52.732068	-86.479915	105.258865	-86.479915	105.258865	-0.023539	-18.599138
1.200000	-0.066699	-54.892953	-86.273910	115.516903	-86.273910	115.516903	-0.024550	-19.399370
1.250000	-0.068984	-57.039311	-85.671525	126.044769	-85.671525	126.044769	-0.025559	-20.198717
1.300000	-0.071223	-59.170548	-84.694051	135.649911	-84.694051	135.649911	-0.026568	-20.997130
1.350000	-0.073418	-61.286748	-83.467740	143.612553	-83.467740	143.612553	-0.027577	-21.794603
1.400000	-0.075570	-63.387713	-82.119685	149.775245	-82.119685	149.775245	-0.028586	-22.591112
1.450000	-0.077680	-65.473272	-80.743259	154.321913	-80.743259	154.321913	-0.029595	-23.386635
1.500000	-0.079751	-67.543289	-79.393177	157.549704	-79.393177	157.549704	-0.030604	-24.181152
1.550000	-0.081782	-69.597653	-78.096458	159.746270	-78.096458	159.746270	-0.031614	-24.974642
1.600000	-0.083777	-71.636281	-76.863810	161.148549	-76.863810	161.148549	-0.032626	-25.767089
1.650000	-0.085735	-73.659116	-75.697311	161.939395	-75.697311	161.939395	-0.033638	-26.558475
1.700000	-0.087658	-75.666127	-74.594844	162.256467	-74.594844	162.256467	-0.034652	-27.348784
1.750000	-0.089547	-77.657305	-73.552466	162.202827	-73.552466	162.202827	-0.035667	-28.138000
1.800000	-0.091404	-79.632662	-72.565618	161.855932	-72.565618	161.855932	-0.036684	-28.926110
1.850000	-0.093230	-81.592232	-71.629723	161.274499	-71.629723	161.274499	-0.037702	-29.713098
1.900000	-0.095027	-83.535897	-70.739977	160.501855	-70.739977	160.501855	-0.038722	-30.498937
1.950000	-0.096794	-85.463733	-69.892558	159.573772	-69.892558	159.573772	-0.039744	-31.283615
2.000000	-0.098535	-87.375998	-69.084381	158.519217	-69.084381	158.519217	-0.040768	-32.067128
2.050000	-0.100250	-89.272798	-68.312208	157.359569	-68.312208	157.359569	-0.041794	-32.849466
2.100000	-0.101942	-91.154253	-67.573158	156.111979	-67.573158	156.111979	-0.042822	-33.630614
2.150000	-0.103611	-93.020495	-66.864662	154.790345	-66.864662	154.790345	-0.043853	-34.410559
2.200000	-0.105259	-94.871670	-66.184431	153.406020	-66.184431	153.406020	-0.044885	-35.189290
2.250000	-0.106887	-96.707937	-65.530418	151.968364	-65.530418	151.968364	-0.045921	-35.966794
2.300000	-0.108498	-98.529464	-64.900792	150.485144	-64.900792	150.485144	-0.046960	-36.743058
2.350000	-0.110093	-100.336429	-64.293906	148.962859	-64.293906	148.962859	-0.048001	-37.518071
2.400000	-0.111673	-102.129020	-63.708277	147.406976	-63.708277	147.406976	-0.049046	-38.291821
2.450000	-0.113240	-103.907433	-63.142564	145.822125	-63.142564	145.822125	-0.050095	-39.064297
2.500000	-0.114796	-105.671873	-62.595554	144.212249	-62.595554	144.212249	-0.051147	-39.835486
2.550000	-0.116342	-107.422107	-62.065664	142.580101	-62.065664	142.580101	-0.052204	-40.605336
2.600000	-0.117880	-109.158812	-61.552429	140.929373	-61.552429	140.929373	-0.053265	-41.373878
2.650000	-0.119412	-110.882209	-61.054924	139.262536	-61.054924	139.262536	-0.054331	-42.141102
2.700000	-0.120939	-112.592529	-60.572297	137.581731	-60.572297	137.581731	-0.055403	-42.907000
2.750000	-0.122463	-114.290005	-60.103769	135.888825	-60.103769	135.888825	-0.056481	-43.671563
2.800000	-0.123986	-115.974874	-59.648620	134.185449	-59.648620	134.185449	-0.057565	-44.434786
2.850000	-0.125508	-117.647377	-59.206189	132.473034	-59.206189	132.473034	-0.058657	-45.196665
2.900000	-0.127032	-119.307758	-58.775863	130.752835	-58.775863	130.752835	-0.059758	-45.957201
2.950000	-0.128558	-120.956263	-58.357075	129.025959	-58.357075	129.025959	-0.060869	-46.716405
3.000000	-0.130089	-122.593143	-57.949296	127.293384	-57.949296	127.293384	-0.061996	-47.474308
3.050000	-0.131625	-124.218647	-57.552038	125.555974	-57.552038	125.555974	-0.063147	-48.230995
3.100000	-0.133168	-125.833029	-57.164844	123.814494	-57.164844	123.814494	-0.064360	-48.986728
3.150000	-0.134719	-127.436542	-56.787289	122.069626	-56.787289	122.069626	-0.065931	-49.742513
3.200000	-0.136279	-129.029440	-56.418973	120.321974	-56.418973	120.321974	-0.067230	-50.487738
3.250000	-0.137849	-130.611980	-56.059525	118.572077	-56.059525	118.572077	-0.067822	-51.230346
3.300000	-0.139430	-132.184416	-55.708596	116.820415	-55.708596	116.820415	-0.068621	-51.984740
3.350000	-0.141023	-133.747558	-55.366164	115.067465	-55.366164	115.067465	-0.069790	-52.733846
3.400000	-0.142629	-135.300855	-55.031459	113.313511	-55.031459	113.313511	-0.070977	-53.480639
3.450000	-0.144250	-136.844058	-54.703942	111.558906	-54.703942	111.558906	-0.072173	-54.225558
3.500000	-0.145885	-138.378669	-54.384007	109.804022	-54.384007	109.804022	-0.073377	-54.968960
3.550000	-0.147536	-139.904251	-54.071034	108.049114	-54.071034	108.049114	-0.074592	-55.710770
3.600000	-0.149203	-141.421226	-53.764869	106.294428	-53.764869	106.294428	-0.075817	-56.451039
3.650000	-0.150886	-142.930171	-53.465435	104.540166	-53.465435	104.540166	-0.077053	-57.189835
3.700000	-0.152587	-144.430550	-53.172147	102.786580	-53.172147	102.786580	-0.078302	-57.927015
3.750000	-0.154304	-145.923836	-52.885353	101.033730	-52.885353	101.033730	-0.079562	-58.662814
3.800000	-0.156042	-147.408653	-52.604142	99.281967	-52.604142	99.281967	-0.080838	-59.396907
3.850000	-0.157796	-148.886837	-52.329016	97.531217	-52.329016	97.531217	-0.082126	-60.129618
3.900000	-0.159569	-150.357521	-52.059329	95.781783	-52.059329	95.781783	-0.083429	-60.860707
3.950000	-0.161361	-151.821621	-51.795192	94.033657	-51.795192	94.033657	-0.084747	-61.590321
4.000000	-0.163172	-153.279121	-51.536338	92.286992	-51.536338	92.286992	-0.086079	-62.318398
4.050000	-0.165003	-154.730138	-51.282573	90.541908	-51.282573	90.541908	-0.087428	-63.044907
4.100000	-0.166852	-156.175391	-51.033931	88.798364	-51.033931	88.798364	-0.088792	-63.769965
4.150000	-0.168722	-157.614315	-50.789982	87.056659	-50.789982	87.056659	-0.090174	-64.493362
4.200000	-0.170609	-159.048141	-50.550951	85.316557	-50.550951	85.316557	-0.091571	-65.215364
4.250000	-0.172518	-160.476048	-50.316348	83.578463	-50.316348	83.578463	-0.092988	-65.935674
4.300000	-0.174444	-161.899187	-50.086367	81.842110	-50.086367	81.842110	-0.094421	-66.654559
4.350000	-0.176390	-163.317204	-49.860701	80.107762	-49.860701	80.107762	-0.095873	-67.371839
4.400000	-0.178355	-164.730606	-49.639332	78.375350	-49.639332	78.375350	-0.097344	-68.087605
4.450000	-0.180338	-166.139620	-49.422157	76.644910	-49.422157	76.644910	-0.098834	-68.801856
4.500000	-0.182341	-167.544219	-49.209002	74.916592	-49.209002	74.916592	-0.100344	-69.514504
4.550000	-0.184360	-168.945102	-48.999911	73.190188	-48.999911	73.190188	-0.101872	-70.225729
4.600000	-0.186400	-170.341816	-48.794606	71.466086	-48.794606	71.466086	-0.103423	-70.935265
4.650000	-0.188455	-171.735294	-48.593195	69.743903	-48.593195	69.743903	-0.104994	-71.643411
4.700000	-0.190529	-173.125152	-48.395439	68.024028	-48.395439	68.024028	-0.106587	-72.349902
4.750000	-0.192619	-174.512046	-48.201372	66.306192	-48.201372	66.306192	-0.108201	-73.054947
4.800000	-0.194726	-175.895953	-48.010859	64.590576	-48.010859	64.590576	-0.109837	-73.758432
4.850000	-0.196849	-177.277139	-47.823844	62.877154	-47.823844	62.877154	-0.111496	-74.460388
4.900000	-0.198987	-178.655911	-47.640277	61.165854	-47.640277	61.165854	-0.113178	-75.160880
4.950000	-0.201142	179.967752	-47.460048	59.456900	-47.460048	59.456900	-0.114884	-75.859763
5.000000	-0.203310	178.593312	-47.283153	57.749960	-47.283153	57.749960	-0.116612	-76.557276
5.050000	-0.205494	177.220919	-47.109474	56.045430	-47.109474	56.045430	-0.118366	-77.253161
5.100000	-0.207692	175.850198	-46.938984	54.343137	-46.938984	54.343137	-0.120145	-77.947547
5.150000	-0.209903	174.480952	-46.771625	52.643088	-46.771625	52.643088	-0.121949	-78.640439
5.200000	-0.212127	173.112985	-46.607347	50.945291	-46.607347	50.945291	-0.123778	-79.331844
5.250000	-0.214363	171.746101	-46.446098	49.249752	-46.446098	49.249752	-0.125634	-80.021766
5.300000	-0.216612	170.380111	-46.287830	47.556479	-46.287830	47.556479	-0.127516	-80.710212
5.350000	-0.218871	169.014822	-46.132497	45.865479	-46.132497	45.865479	-0.129424	-81.397189
5.400000	-0.221142	167.650049	-45.980055	44.176759	-45.980055	44.176759	-0.131360	-82.082703
5.450000	-0.223423	166.285604	-45.830462	42.490326	-45.830462	42.490326	-0.133324	-82.766763
5.500000	-0.225713	164.921304	-45.683677	40.806187	-45.683677	40.806187	-0.135315	-83.449374
5.550000	-0.228013	163.556969	-45.539664	39.124352	-45.539664	39.124352	-0.137335	-84.130545
5.600000	-0.230321	162.192417	-45.398385	37.444829	-45.398385	37.444829	-0.139383	-84.810284
5.650000	-0.232638	160.827473	-45.259806	35.767629	-45.259806	35.767629	-0.141461	-85.488600
5.700000	-0.234962	159.461961	-45.123895	34.092764	-45.123895	34.092764	-0.143569	-86.165500
5.750000	-0.237292	158.095707	-44.990621	32.420244	-44.990621	32.420244	-0.145706	-86.840995
5.800000	-0.239629	156.728543	-44.859954	30.750085	-44.859954	30.750085	-0.147874	-87.515093
5.850000	-0.241972	155.360298	-44.731868	29.082303	-44.731868	29.082303	-0.150073	-88.187804
5.900000	-0.244320	153.990807	-44.606335	27.416916	-44.606335	27.416916	-0.152303	-88.859138
5.950000	-0.246672	152.619907	-44.483331	25.753942	-44.483331	25.753942	-0.154565	-89.529104
6.000000	-0.249028	151.247435	-44.362835	24.093405	-44.362835	24.093405	-0.156859	-90.197714
6.050000	-0.251387	149.873232	-44.244823	22.435330	-44.244823	22.435330	-0.159185	-90.864978
6.100000	-0.253749	148.497143	-44.129277	20.779745	-44.129277	20.779745	-0.161545	-91.530906
6.150000	-0.256112	147.119012	-44.016178	19.126679	-44.016178	19.126679	-0.163937	-92.195510
6.200000	-0.258477	145.738688	-43.905508	17.476168	-43.905508	17.476168	-0.166363	-92.858801
6.250000	-0.260843	144.356022	-43.797251	15.828250	-43.797251	15.828250	-0.168823	-93.520792
6.300000	-0.263208	142.970752	-43.691443	14.183083	-43.691443	14.183083	-0.171319	-94.181438
6.350000	-0.265573	141.582837	-43.588025	12.540602	-43.588025	12.540602	-0.173850	-94.840808
6.400000	-0.267935	140.192136	-43.486984	10.900858	-43.486984	10.900858	-0.176417	-95.498915
6.450000	-0.270296	138.798511	-43.388311	9.263907	-43.388311	9.263907	-0.179019	-96.155772
6.500000	-0.272653	137.401826	-43.291995	7.629811	-43.291995	7.629811	-0.181657	-96.811391
6.550000	-0.275007	136.001951	-43.198028	5.998637	-43.198028	5.998637	-0.184331	-97.465787
6.600000	-0.277356	134.598754	-43.106402	4.370458	-43.106402	4.370458	-0.187042	-98.118971
6.650000	-0.279699	133.192110	-43.017111	2.745355	-43.017111	2.745355	-0.189790	-98.770959
6.700000	-0.282036	131.781896	-42.930149	1.123412	-42.930149	1.123412	-0.192576	-99.421763
6.750000	-0.284366	130.367992	-42.845512	-0.495277	-42.845512	-0.495277	-0.195400	-100.071398
6.800000	-0.286688	128.950280	-42.763196	-2.110613	-42.763196	-2.110613	-0.198263	-100.719879
6.850000	-0.289001	127.528647	-42.683199	-3.722486	-42.683199	-3.722486	-0.201163	-101.367221
6.900000	-0.291304	126.102984	-42.605519	-5.330783	-42.605519	-5.330783	-0.204103	-102.013437
6.950000	-0.293596	124.673182	-42.530153	-6.935377	-42.530153	-6.935377	-0.207083	-102.658543
7.000000	-0.295877	123.239139	-42.457103	-8.536137	-42.457103	-8.536137	-0.210102	-103.302554
7.050000	-0.298144	121.800755	-42.386367	-10.132921	-42.386367	-10.132921	-0.213161	-103.945487
7.100000	-0.300398	120.357933	-42.317947	-11.725577	-42.317947	-11.725577	-0.216261	-104.587356
7.150000	-0.302637	118.910582	-42.251843	-13.313946	-42.251843	-13.313946	-0.219402	-105.228178
7.200000	-0.304859	117.458611	-42.188057	-14.897855	-42.188057	-14.897855	-0.222584	-105.867968
7.250000	-0.307065	116.001936	-42.126591	-16.477124	-42.126591	-16.477124	-0.225808	-106.506744
7.300000	-0.309252	114.540476	-42.067447	-18.051561	-42.067447	-18.051561	-0.229073	-107.144522
7.350000	-0.311420	113.074153	-42.010627	-19.620963	-42.010627	-19.620963	-0.232381	-107.781318
7.400000	-0.313567	111.602894	-41.956135	-21.185117	-41.956135	-21.185117	-0.235731	-108.417150
7.450000	-0.315692	110.126629	-41.903972	-22.743798	-41.903972	-22.743798	-0.239125	-109.052034
7.500000	-0.317795	108.645293	-41.854140	-24.296768	-41.854140	-24.296768	-0.242562	-109.685989
7.550000	-0.319872	107.158599	-41.806735	-25.843506	-41.806735	-25.843506	-0.246044	-110.318994
7.600000	-0.321924	105.666710	-41.761668	-27.383999	-41.761668	-27.383999	-0.249570	-110.951105
7.650000	-0.323949	104.169575	-41.718941	-28.917971	-41.718941	-28.917971	-0.253140	-111.582342
7.700000	-0.325946	102.667144	-41.678557	-30.445133	-41.678557	-30.445133	-0.256755	-112.212724
7.750000	-0.327915	101.159374	-41.640516	-31.965185	-41.640516	-31.965185	-0.260415	-112.842267
7.800000	-0.329853	99.646225	-41.604818	-33.477812	-41.604818	-33.477812	-0.264121	-113.470992
7.850000	-0.331761	98.127661	-41.571462	-34.982687	-41.571462	-34.982687	-0.267871	-114.098916
7.900000	-0.333637	96.603652	-41.540449	-36.479470	-41.540449	-36.479470	-0.271668	-114.726060
7.950000	-0.335481	95.074169	-41.511776	-37.967805	-41.511776	-37.967805	-0.275511	-115.352442
8.000000	-0.337291	93.539191	-41.485440	-39.447325	-41.485440	-39.447325	-0.279400	-115.978082
8.050000	-0.339068	91.998698	-41.461438	-40.917646	-41.461438	-40.917646	-0.283336	-116.603000
8.100000	-0.340810	90.452677	-41.439765	-42.378373	-41.439765	-42.378373	-0.287319	-117.227216
8.150000	-0.342518	88.901119	-41.420416	-43.829094	-41.420416	-43.829094	-0.291349	-117.850750
8.200000	-0.344191	87.344016	-41.403384	-45.269383	-41.403384	-45.269383	-0.295427	-118.473621
8.250000	-0.345831	85.781369	-41.388661	-46.698799	-41.388661	-46.698799	-0.299553	-119.095852
8.300000	-0.347436	84.213180	-41.376237	-48.116885	-41.376237	-48.116885	-0.303726	-119.717462
8.350000	-0.349009	82.639457	-41.366101	-49.523171	-41.366101	-49.523171	-0.307948	-120.338472
8.400000	-0.350550	81.060211	-41.358242	-50.917168	-41.358242	-50.917168	-0.312219	-120.958904
8.450000	-0.352061	79.475458	-41.352646	-52.298371	-41.352646	-52.298371	-0.316538	-121.578779
8.500000	-0.353544	77.885219	-41.349298	-53.666259	-41.349298	-53.666259	-0.320906	-122.198119
8.550000	-0.355001	76.289518	-41.348181	-55.020292	-41.348181	-55.020292	-0.325324	-122.816946
8.600000	-0.356435	74.688384	-41.349277	-56.359913	-41.349277	-56.359913	-0.329791	-123.435281
8.650000	-0.357851	73.081850	-41.352565	-57.684545	-41.352565	-57.684545	-0.334308	-124.053146
8.700000	-0.359251	71.469956	-41.358023	-58.993590	-41.358023	-58.993590	-0.338874	-124.670566
8.750000	-0.360641	69.852742	-41.365629	-60.286429	-41.365629	-60.286429	-0.343491	-125.287561
8.800000	-0.362026	68.230030	-41.375447	-61.561659	-41.375447	-61.561659	-0.348160	-125.904138
8.850000	-0.363414	66.602103	-41.387356	-62.819315	-41.387356	-62.819315	-0.352880	-126.520340
8.900000	-0.364811	64.969018	-41.401326	-64.058703	-41.401326	-64.058703	-0.357650	-127.136190
8.950000	-0.366227	63.330840	-41.417325	-65.279101	-41.417325	-65.279101	-0.362471	-127.751711
9.000000	-0.367669	61.687634	-41.435320	-66.479756	-41.435320	-66.479756	-0.367342	-128.366927
9.050000	-0.369148	60.039475	-41.455274	-67.659886	-41.455274	-67.659886	-0.372265	-128.981862
9.100000	-0.370676	58.386442	-41.477148	-68.818670	-41.477148	-68.818670	-0.377239	-129.596540
9.150000	-0.372264	56.728620	-41.500901	-69.955253	-41.500901	-69.955253	-0.382265	-130.210987
9.200000	-0.373927	55.066100	-41.526491	-71.068734	-41.526491	-71.068734	-0.387341	-130.825226
9.250000	-0.375679	53.398981	-41.553870	-72.158171	-41.553870	-72.158171	-0.392470	-131.439284
9.300000	-0.377535	51.727369	-41.582989	-73.222569	-41.582989	-73.222569	-0.397650	-132.053185
9.350000	-0.379515	50.051375	-41.613796	-74.260882	-41.613796	-74.260882	-0.402881	-132.666955
9.400000	-0.381634	48.371122	-41.646235	-75.272000	-41.646235	-75.272000	-0.408164	-133.280619
9.450000	-0.383915	46.686739	-41.680247	-76.254750	-41.680247	-76.254750	-0.413500	-133.894204
9.500000	-0.386379	44.998365	-41.715768	-77.207884	-41.715768	-77.207884	-0.418887	-134.507736
9.550000	-0.389047	43.306147	-41.752729	-78.130074	-41.752729	-78.130074	-0.424325	-135.121242
9.600000	-0.391944	41.610245	-41.791058	-79.019904	-41.791058	-79.019904	-0.429816	-135.734748
9.650000	-0.395096	39.910827	-41.830675	-79.875856	-41.830675	-79.875856	-0.435359	-136.348283
9.700000	-0.398528	38.208075	-41.871494	-80.696306	-41.871494	-80.696306	-0.440953	-136.961872
9.750000	-0.402270	36.502183	-41.913424	-81.479505	-41.913424	-81.479505	-0.446600	-137.575544
9.800000	-0.406351	34.793354	-41.956364	-82.223568	-41.956364	-82.223568	-0.452298	-138.189327
9.850000	-0.410800	33.081810	-42.000202	-82.926462	-42.000202	-82.926462	-0.458048	-138.803249
9.900000	-0.415649	31.367782	-42.044818	-83.585981	-42.044818	-83.585981	-0.463850	-139.417339
9.950000	-0.420930	29.651520	-42.090077	-84.199736	-42.090077	-84.199736	-0.469703	-140.031625
10.000000	-0.426676	27.933285	-42.135832	-84.765125	-42.135832	-84.765125	-0.475608	-140.646137
