! freq	dB(S11)	phase(S11)	dB(S12)	phase(S12)	
!     	dB(S21)	phase(S21)	dB(S22)	phase(S22)	
!S-par simulation data
#  GHz  S  DB  R 50
0.000000	-0.000000	0.000000	-349.376843	180.000000	-349.376843	180.000000	-0.000000	0.000000
0.050000	-0.000092	-0.804475	-100.607890	11.835983	-100.607890	11.835983	-0.000095	-0.804612
0.100000	-0.000366	-1.608746	-100.429418	15.346111	-100.429418	15.346111	-0.000375	-1.609012
0.150000	-0.000812	-2.412623	-100.197831	20.232887	-100.197831	20.232887	-0.000832	-2.413001
0.200000	-0.001417	-3.215942	-99.920301	25.048554	-99.920301	25.048554	-0.001450	-3.216411
0.250000	-0.002171	-4.018512	-99.621239	29.453879	-99.621239	29.453879	-0.002219	-4.019043
0.300000	-0.003042	-4.820283	-99.329364	33.412111	-99.329364	33.412111	-0.003107	-4.820851
0.350000	-0.004018	-5.621140	-99.065534	36.919536	-99.065534	36.919536	-0.004098	-5.621719
0.400000	-0.005079	-6.421024	-98.848687	40.029628	-98.848687	40.029628	-0.005173	-6.421589
0.450000	-0.006205	-7.219899	-98.694911	42.817719	-98.694911	42.817719	-0.006311	-7.220431
0.500000	-0.007379	-8.017750	-98.618577	45.372123	-98.618577	45.372123	-0.007495	-8.018236
0.550000	-0.008587	-8.814582	-98.633619	47.792776	-98.633619	47.792776	-0.008709	-8.815009
0.600000	-0.009814	-9.610406	-98.754819	50.195933	-98.754819	50.195933	-0.009941	-9.610771
0.650000	-0.011050	-10.405247	-98.999104	52.725632	-98.999104	52.725632	-0.011179	-10.405546
0.700000	-0.012287	-11.199131	-99.386785	55.575336	-99.386785	55.575336	-0.012415	-11.199366
0.750000	-0.013518	-11.992085	-99.942328	59.027721	-99.942328	59.027721	-0.013642	-11.992260
0.800000	-0.014737	-12.784137	-100.693052	63.528901	-100.693052	63.528901	-0.014857	-12.784259
0.850000	-0.015942	-13.575313	-101.659869	69.824720	-101.659869	69.824720	-0.016056	-13.575388
0.900000	-0.017130	-14.365634	-102.820624	79.167755	-102.820624	79.167755	-0.017237	-14.365671
0.950000	-0.018300	-15.155118	-103.996949	93.347006	-103.996949	93.347006	-0.018399	-15.155125
1.000000	-0.019452	-15.943781	-104.655266	113.484582	-104.655266	113.484582	-0.019541	-15.943765
1.050000	-0.020585	-16.731630	-104.047425	136.944766	-104.047425	136.944766	-0.020666	-16.731601
1.100000	-0.021701	-17.518674	-102.164634	157.067787	-102.164634	157.067787	-0.021773	-17.518637
1.150000	-0.022799	-18.304913	-99.786956	170.661172	-99.786956	170.661172	-0.022863	-18.304875
1.200000	-0.023883	-19.090346	-97.450085	179.174548	-97.450085	179.174548	-0.023938	-19.090314
1.250000	-0.024952	-19.874971	-95.312178	-175.458322	-95.312178	-175.458322	-0.024998	-19.874948
1.300000	-0.026007	-20.658743	-93.375389	-172.057994	-93.375389	-172.057994	-0.026046	-20.658735
1.350000	-0.027051	-21.441689	-91.626147	-169.836752	-91.626147	-169.836752	-0.027084	-21.441698
1.400000	-0.028086	-22.223797	-90.033386	-168.410148	-90.033386	-168.410148	-0.028111	-22.223826
1.450000	-0.029111	-23.005055	-88.570866	-167.541905	-88.570866	-167.541905	-0.029131	-23.005106
1.500000	-0.030129	-23.785449	-87.217589	-167.080763	-87.217589	-167.080763	-0.030143	-23.785522
1.550000	-0.031141	-24.564962	-85.956952	-166.926088	-85.956952	-166.926088	-0.031150	-24.565059
1.600000	-0.032148	-25.343580	-84.775781	-167.008556	-84.775781	-167.008556	-0.032153	-25.343700
1.650000	-0.033150	-26.121284	-83.663526	-167.278915	-83.663526	-167.278915	-0.033152	-26.121428
1.700000	-0.034149	-26.897726	-82.587988	-167.741634	-82.587988	-167.741634	-0.034147	-26.897893
1.750000	-0.035146	-27.673677	-81.599949	-168.273806	-81.599949	-168.273806	-0.035142	-27.673866
1.800000	-0.036143	-28.448442	-80.644787	-168.925330	-80.644787	-168.925330	-0.036136	-28.448653
1.850000	-0.037138	-29.222361	-79.740545	-169.662106	-79.740545	-169.662106	-0.037129	-29.222592
1.900000	-0.038133	-29.995225	-78.871633	-170.472752	-78.871633	-170.472752	-0.038123	-29.995474
1.950000	-0.039129	-30.767033	-78.036395	-171.357267	-78.036395	-171.357267	-0.039118	-30.767299
2.000000	-0.040127	-31.537929	-77.238339	-172.288204	-77.238339	-172.288204	-0.040114	-31.538210
2.050000	-0.041126	-32.307548	-76.461189	-173.284129	-76.461189	-173.284129	-0.041113	-32.307842
2.100000	-0.042127	-33.076411	-75.722567	-174.309013	-75.722567	-174.309013	-0.042113	-33.076718
2.150000	-0.043131	-33.843764	-74.995210	-175.391814	-74.995210	-175.391814	-0.043118	-33.844080
2.200000	-0.044137	-34.610532	-74.307299	-176.492002	-74.307299	-176.492002	-0.044124	-34.610856
2.250000	-0.045149	-35.375544	-73.623272	-177.644348	-73.623272	-177.644348	-0.045136	-35.375875
2.300000	-0.046162	-36.140154	-72.979249	-178.806166	-72.979249	-178.806166	-0.046149	-36.140490
2.350000	-0.047182	-36.902754	-72.333404	179.984662	-72.333404	179.984662	-0.047170	-36.903093
2.400000	-0.048203	-37.665147	-71.727823	178.771557	-71.727823	178.771557	-0.048192	-37.665489
2.450000	-0.049233	-38.425267	-71.115985	177.515196	-71.115985	177.515196	-0.049222	-38.425609
2.500000	-0.050264	-39.185387	-70.544422	176.258835	-70.544422	176.258835	-0.050253	-39.185729
2.550000	-0.051305	-39.942962	-69.963148	174.962797	-69.963148	174.962797	-0.051295	-39.943302
2.600000	-0.052346	-40.700537	-69.418346	173.666758	-69.418346	173.666758	-0.052338	-40.700875
2.650000	-0.053399	-41.455724	-68.868367	172.339846	-68.868367	172.339846	-0.053391	-41.456058
2.700000	-0.054453	-42.210694	-68.347957	171.010127	-68.347957	171.010127	-0.054446	-42.211024
2.750000	-0.055518	-42.963446	-67.826152	169.656419	-67.826152	169.656419	-0.055511	-42.963770
2.800000	-0.056585	-43.715754	-67.328115	168.297912	-67.328115	168.297912	-0.056579	-43.716072
2.850000	-0.057663	-44.466025	-66.831837	166.920866	-66.831837	166.920866	-0.057658	-44.466337
2.900000	-0.058745	-45.215618	-66.354429	165.537640	-66.354429	165.537640	-0.058741	-45.215923
2.950000	-0.059837	-45.963368	-65.881410	164.140225	-65.881410	164.140225	-0.059834	-45.963665
3.000000	-0.060935	-46.710196	-65.423112	162.735716	-65.423112	162.735716	-0.060932	-46.710486
3.050000	-0.062043	-47.455385	-64.971387	161.320510	-64.971387	161.320510	-0.062040	-47.455668
3.100000	-0.063157	-48.199403	-64.530864	159.897665	-64.530864	159.897665	-0.063156	-48.199679
3.150000	-0.064281	-48.941996	-64.098721	158.466928	-64.098721	158.466928	-0.064280	-48.942264
3.200000	-0.065414	-49.683163	-63.674789	157.028301	-63.674789	157.028301	-0.065413	-49.683423
3.250000	-0.066555	-50.423126	-63.260722	155.584030	-63.260722	155.584030	-0.066554	-50.423379
3.300000	-0.067707	-51.161403	-62.852320	154.131858	-62.852320	154.131858	-0.067707	-51.161649
3.350000	-0.068866	-51.898705	-62.454999	152.675830	-62.454999	152.675830	-0.068867	-51.898945
3.400000	-0.070039	-52.634059	-62.061173	151.212090	-62.061173	151.212090	-0.070040	-52.634292
3.450000	-0.071218	-53.368673	-61.679410	149.745895	-61.679410	149.745895	-0.071219	-53.368900
3.500000	-0.072414	-54.101072	-61.299295	148.272339	-61.299295	148.272339	-0.072415	-54.101293
3.550000	-0.073613	-54.832974	-60.932027	146.797408	-60.932027	146.797408	-0.073615	-54.833189
3.600000	-0.074833	-55.562390	-60.564832	145.315599	-60.564832	145.315599	-0.074834	-55.562601
3.650000	-0.076055	-56.291556	-60.211102	143.833218	-60.211102	143.833218	-0.076056	-56.291763
3.700000	-0.077299	-57.017967	-59.856102	142.344552	-59.856102	142.344552	-0.077301	-57.018170
3.750000	-0.078544	-57.744377	-59.515044	140.855885	-59.515044	140.855885	-0.078546	-57.744577
3.800000	-0.079816	-58.467762	-59.171570	139.361609	-59.171570	139.361609	-0.079818	-58.467959
3.850000	-0.081088	-59.191146	-58.841163	137.867333	-58.841163	137.867333	-0.081090	-59.191340
3.900000	-0.082387	-59.911740	-58.509826	136.368935	-58.509826	136.368935	-0.082388	-59.911933
3.950000	-0.083687	-60.632080	-58.189524	134.870162	-58.189524	134.870162	-0.083689	-60.632271
4.000000	-0.085014	-61.349872	-57.869575	133.368469	-57.869575	133.368469	-0.085015	-61.350063
4.050000	-0.086345	-62.067155	-57.558866	131.866192	-57.558866	131.866192	-0.086346	-62.067345
4.100000	-0.087701	-62.782136	-57.249620	130.361947	-57.249620	130.361947	-0.087702	-62.782326
4.150000	-0.089064	-63.496350	-56.948024	128.857045	-56.948024	128.857045	-0.089065	-63.496541
4.200000	-0.090451	-64.208514	-56.648850	127.350912	-56.648850	127.350912	-0.090452	-64.208705
4.250000	-0.091849	-64.919651	-56.355917	125.844162	-56.355917	125.844162	-0.091849	-64.919844
4.300000	-0.093268	-65.628992	-56.066235	124.336732	-56.066235	124.336732	-0.093268	-65.629186
4.350000	-0.094701	-66.337049	-55.781542	122.828816	-55.781542	122.828816	-0.094702	-66.337245
4.400000	-0.096154	-67.043565	-55.500814	121.320613	-55.500814	121.320613	-0.096155	-67.043762
4.450000	-0.097626	-67.748539	-55.223964	119.812123	-55.223964	119.812123	-0.097627	-67.748739
4.500000	-0.099115	-68.452230	-54.951694	118.303606	-54.951694	118.303606	-0.099115	-68.452432
4.550000	-0.100627	-69.154123	-54.682310	116.795052	-54.682310	116.795052	-0.100627	-69.154328
4.600000	-0.102153	-69.854991	-54.418039	115.286621	-54.418039	115.286621	-0.102153	-69.855198
4.650000	-0.103706	-70.553808	-54.155767	113.778438	-54.155767	113.778438	-0.103707	-70.554018
4.700000	-0.105271	-71.251857	-53.899068	112.270439	-53.899068	112.270439	-0.105271	-71.252070
4.750000	-0.106869	-71.947604	-53.643575	110.762992	-53.643575	110.762992	-0.106869	-71.947820
4.800000	-0.108474	-72.642841	-53.394051	109.255718	-53.394051	109.255718	-0.108474	-72.643060
4.850000	-0.110117	-73.335529	-53.145023	107.749309	-53.145023	107.749309	-0.110117	-73.335750
4.900000	-0.111765	-74.027963	-52.902306	106.243007	-52.902306	106.243007	-0.111765	-74.028187
4.950000	-0.113455	-74.717604	-52.659448	104.737883	-52.659448	104.737883	-0.113455	-74.717830
5.000000	-0.115147	-75.407246	-52.423197	103.232759	-52.423197	103.232759	-0.115147	-75.407474
5.050000	-0.116887	-76.093857	-52.186232	101.729114	-52.186232	101.729114	-0.116887	-76.094087
5.100000	-0.118628	-76.780468	-51.955561	100.225468	-51.955561	100.225468	-0.118628	-76.780700
5.150000	-0.120416	-77.464318	-51.724797	98.723318	-51.724797	98.723318	-0.120416	-77.464551
5.200000	-0.122208	-78.147917	-51.499468	97.221303	-51.499468	97.221303	-0.122208	-78.148152
5.250000	-0.124045	-78.829024	-51.274604	95.720742	-51.274604	95.720742	-0.124045	-78.829259
5.300000	-0.125891	-79.509632	-51.054395	94.220471	-51.054395	94.220471	-0.125891	-79.509869
5.350000	-0.127778	-80.188016	-50.835153	92.721570	-50.835153	92.721570	-0.127778	-80.188252
5.400000	-0.129679	-80.865658	-50.619855	91.223125	-50.619855	91.223125	-0.129679	-80.865895
5.450000	-0.131619	-81.541341	-50.405979	89.725937	-50.405979	89.725937	-0.131619	-81.541576
5.500000	-0.133577	-82.216043	-50.195397	88.229376	-50.195397	88.229376	-0.133577	-82.216278
5.550000	-0.135570	-82.889049	-49.986649	86.733937	-49.986649	86.733937	-0.135570	-82.889282
5.600000	-0.137588	-83.560842	-49.780603	85.239299	-49.780603	85.239299	-0.137588	-83.561073
5.650000	-0.139636	-84.231196	-49.576763	83.745635	-49.576763	83.745635	-0.139636	-84.231425
5.700000	-0.141714	-84.900112	-49.375088	82.252947	-49.375088	82.252947	-0.141714	-84.900338
5.750000	-0.143819	-85.567843	-49.175953	80.761080	-49.175953	80.761080	-0.143819	-85.568066
5.800000	-0.145960	-86.233916	-48.978495	79.270362	-48.978495	79.270362	-0.145960	-86.234135
5.850000	-0.148123	-86.899054	-48.783878	77.780308	-48.783878	77.780308	-0.148123	-86.899269
5.900000	-0.150329	-87.562323	-48.590496	76.291582	-48.590496	76.291582	-0.150329	-87.562533
5.950000	-0.152551	-88.224900	-48.400223	74.803360	-48.400223	74.803360	-0.152551	-88.225105
6.000000	-0.154823	-88.885405	-48.210789	73.316652	-48.210789	73.316652	-0.154823	-88.885604
6.050000	-0.157107	-89.545456	-48.024700	71.830286	-48.024700	71.830286	-0.157107	-89.545649
6.100000	-0.159446	-90.203239	-47.839097	70.345633	-47.839097	70.345633	-0.159446	-90.203426
6.150000	-0.161792	-90.860800	-47.657046	68.861156	-47.657046	68.861156	-0.161792	-90.860980
6.200000	-0.164202	-91.515908	-47.475167	67.378614	-47.475167	67.378614	-0.164202	-91.516081
6.250000	-0.166612	-92.171017	-47.297018	65.896071	-47.297018	65.896071	-0.166612	-92.171182
6.300000	-0.169092	-92.823499	-47.118766	64.415714	-47.118766	64.415714	-0.169092	-92.823656
6.350000	-0.171574	-93.475981	-46.944099	62.935357	-46.944099	62.935357	-0.171573	-93.476129
6.400000	-0.174121	-94.126102	-46.769683	61.457098	-46.769683	61.457098	-0.174120	-94.126242
6.450000	-0.176675	-94.776009	-46.598416	59.979028	-46.598416	59.979028	-0.176674	-94.776140
6.500000	-0.179291	-95.423815	-46.427722	58.502975	-46.427722	58.502975	-0.179290	-95.423936
6.550000	-0.181920	-96.071201	-46.259781	57.027325	-46.259781	57.027325	-0.181918	-96.071313
6.600000	-0.184605	-96.716739	-46.092705	55.553613	-46.092705	55.553613	-0.184603	-96.716840
6.650000	-0.187310	-97.361660	-45.928024	54.080548	-45.928024	54.080548	-0.187308	-97.361752
6.700000	-0.190066	-98.004979	-45.764469	52.609340	-45.764469	52.609340	-0.190064	-98.005060
6.750000	-0.192848	-98.647496	-45.602986	51.139060	-45.602986	51.139060	-0.192846	-98.647567
6.800000	-0.195677	-99.288647	-45.442861	49.670547	-45.442861	49.670547	-0.195674	-99.288707
6.850000	-0.198538	-99.928821	-45.284520	48.203296	-45.284520	48.203296	-0.198535	-99.928871
6.900000	-0.201440	-100.567858	-45.127740	46.737699	-45.127740	46.737699	-0.201437	-100.567896
6.950000	-0.204382	-101.205756	-44.972490	45.273757	-44.972490	45.273757	-0.204379	-101.205783
7.000000	-0.207359	-101.842733	-44.818975	43.811329	-44.818975	43.811329	-0.207355	-101.842750
7.050000	-0.210384	-102.478422	-44.666765	42.351021	-44.666765	42.351021	-0.210379	-102.478428
7.100000	-0.213436	-103.113398	-44.516439	40.892047	-44.516439	40.892047	-0.213432	-103.113393
7.150000	-0.216545	-103.746950	-44.367222	39.435740	-44.367222	39.435740	-0.216540	-103.746933
7.200000	-0.219675	-104.379985	-44.220011	37.980536	-44.220011	37.980536	-0.219669	-104.379957
7.250000	-0.222868	-105.011472	-44.073740	36.528641	-44.073740	36.528641	-0.222863	-105.011434
7.300000	-0.226077	-105.642628	-43.929574	35.077556	-43.929574	35.077556	-0.226071	-105.642579
7.350000	-0.229357	-106.272128	-43.786201	33.630524	-43.786201	33.630524	-0.229351	-106.272068
7.400000	-0.232646	-106.901469	-43.645010	32.183938	-43.645010	32.183938	-0.232640	-106.901399
7.450000	-0.236015	-107.529062	-43.504487	30.742260	-43.504487	30.742260	-0.236008	-107.528981
7.500000	-0.239385	-108.156655	-43.366202	29.300583	-43.366202	29.300583	-0.239378	-108.156564
7.550000	-0.242844	-108.782424	-43.228478	27.864790	-43.228478	27.864790	-0.242836	-108.782323
7.600000	-0.246304	-109.408194	-43.092903	26.428998	-43.092903	26.428998	-0.246296	-109.408082
7.650000	-0.249846	-110.032370	-42.958049	24.999119	-42.958049	24.999119	-0.249839	-110.032248
7.700000	-0.253398	-110.656401	-42.825134	23.569777	-42.825134	23.569777	-0.253390	-110.656269
7.750000	-0.257027	-111.279059	-42.693073	22.146308	-42.693073	22.146308	-0.257018	-111.278918
7.800000	-0.260671	-111.901443	-42.562763	20.724013	-42.562763	20.724013	-0.260663	-111.901291
7.850000	-0.264387	-112.522660	-42.433414	19.307472	-42.433414	19.307472	-0.264378	-112.522498
7.900000	-0.268127	-113.143488	-42.305648	17.892850	-42.305648	17.892850	-0.268118	-113.143317
7.950000	-0.271930	-113.763343	-42.178931	16.483774	-42.178931	16.483774	-0.271921	-113.763162
8.000000	-0.275767	-114.382712	-42.053642	15.077471	-42.053642	15.077471	-0.275758	-114.382522
8.050000	-0.279661	-115.001288	-41.929472	13.676410	-41.929472	13.676410	-0.279652	-115.001088
8.100000	-0.283596	-115.619297	-41.806587	12.279094	-41.806587	12.279094	-0.283587	-115.619088
8.150000	-0.287581	-116.236679	-41.684876	10.886610	-41.684876	10.886610	-0.287572	-116.236459
8.200000	-0.291617	-116.853432	-41.564314	9.498959	-41.564314	9.498959	-0.291607	-116.853203
8.250000	-0.295695	-117.469707	-41.444970	8.115623	-41.444970	8.115623	-0.295685	-117.469467
8.300000	-0.299833	-118.085311	-41.326646	6.738325	-41.326646	6.738325	-0.299823	-118.085061
8.350000	-0.304006	-118.700570	-41.209573	5.364708	-41.209573	5.364708	-0.303996	-118.700309
8.400000	-0.308248	-119.315136	-41.093390	3.998454	-41.093390	3.998454	-0.308239	-119.314864
8.450000	-0.312518	-119.929472	-40.978489	2.635132	-40.978489	2.635132	-0.312508	-119.929187
8.500000	-0.316867	-120.543115	-40.864345	1.280608	-40.864345	1.280608	-0.316857	-120.542818
8.550000	-0.321235	-121.156625	-40.751512	-0.071848	-40.751512	-0.071848	-0.321225	-121.156314
8.600000	-0.325693	-121.769464	-40.639295	-1.413962	-40.639295	-1.413962	-0.325683	-121.769138
8.650000	-0.330161	-122.382246	-40.528423	-2.754986	-40.528423	-2.754986	-0.330152	-122.381905
8.700000	-0.334730	-122.994404	-40.418013	-4.084024	-40.418013	-4.084024	-0.334720	-122.994046
8.750000	-0.339302	-123.606562	-40.308989	-5.413061	-40.308989	-5.413061	-0.339291	-123.606187
8.800000	-0.343984	-124.218166	-40.200261	-6.728373	-40.200261	-6.728373	-0.343974	-124.217771
8.850000	-0.348669	-124.829770	-40.092876	-8.043685	-40.092876	-8.043685	-0.348659	-124.829355
8.900000	-0.353459	-125.440989	-39.985787	-9.345840	-39.985787	-9.345840	-0.353449	-125.440550
8.950000	-0.358261	-126.052172	-39.879911	-10.646799	-39.879911	-10.646799	-0.358250	-126.051709
9.000000	-0.363161	-126.663118	-39.774329	-11.935294	-39.774329	-11.935294	-0.363149	-126.662627
9.050000	-0.368083	-127.274017	-39.669822	-13.221297	-39.669822	-13.221297	-0.368070	-127.273498
9.100000	-0.373095	-127.884809	-39.565614	-14.495653	-39.565614	-14.495653	-0.373082	-127.884257
9.150000	-0.378139	-128.495565	-39.462330	-15.766126	-39.462330	-15.766126	-0.378125	-128.494979
9.200000	-0.383267	-129.106324	-39.359357	-17.025883	-39.359357	-17.025883	-0.383251	-129.105700
9.250000	-0.388437	-129.717085	-39.257144	-18.280283	-39.257144	-18.280283	-0.388421	-129.716420
9.300000	-0.393683	-130.327938	-39.155264	-19.525008	-39.155264	-19.525008	-0.393665	-130.327227
9.350000	-0.398983	-130.938856	-39.053962	-20.762824	-39.053962	-20.762824	-0.398963	-130.938096
9.400000	-0.404350	-131.549931	-38.953032	-21.992108	-38.953032	-21.992108	-0.404328	-131.549118
9.450000	-0.409784	-132.161164	-38.852475	-23.212862	-38.852475	-23.212862	-0.409760	-132.160292
9.500000	-0.415276	-132.772596	-38.752348	-24.426323	-38.752348	-24.426323	-0.415249	-132.771662
9.550000	-0.420848	-133.384308	-38.652364	-25.629573	-38.652364	-25.629573	-0.420818	-133.383306
9.600000	-0.426469	-133.996237	-38.552891	-26.826853	-38.552891	-26.826853	-0.426435	-133.995161
9.650000	-0.432183	-134.608597	-38.453303	-28.012191	-38.453303	-28.012191	-0.432145	-134.607441
9.700000	-0.437935	-135.221165	-38.354332	-29.192958	-38.354332	-29.192958	-0.437894	-135.219923
9.750000	-0.443797	-135.834351	-38.254957	-30.360010	-38.254957	-30.360010	-0.443750	-135.833014
9.800000	-0.449686	-136.447706	-38.156334	-31.523958	-38.156334	-31.523958	-0.449634	-136.446271
9.850000	-0.455700	-137.061901	-38.056984	-32.672382	-38.056984	-32.672382	-0.455642	-137.060355
9.900000	-0.461730	-137.676197	-37.958555	-33.819227	-37.958555	-33.819227	-0.461665	-137.674537
9.950000	-0.467902	-138.291591	-37.859036	-34.948713	-37.859036	-34.948713	-0.467829	-138.289801
10.000000	-0.474079	-138.906986	-37.760644	-36.078198	-37.760644	-36.078198	-0.473998	-138.905066
