! freq	dB(S11)	phase(S11)	dB(S12)	phase(S12)	
!     	dB(S21)	phase(S21)	dB(S22)	phase(S22)	
!S-par simulation data
#  GHz  S  DB  R 50
0.000000	-0.000000	0.000000	-312.056306	0.000000	-312.056306	0.000000	-0.000000	0.000000
0.050000	-0.000121	-1.054703	-98.877612	127.967239	-98.877612	127.967239	-0.000138	-1.055326
0.100000	-0.000480	-2.109120	-94.142152	109.315213	-94.142152	109.315213	-0.000546	-2.110292
0.150000	-0.001066	-3.162984	-90.930104	101.358533	-90.930104	101.358533	-0.001205	-3.164566
0.200000	-0.001858	-4.216063	-88.571428	96.687305	-88.571428	96.687305	-0.002088	-4.217876
0.250000	-0.002846	-5.268084	-86.729384	93.489307	-86.729384	93.489307	-0.003175	-5.269921
0.300000	-0.003989	-6.318973	-85.229571	90.968366	-85.229571	90.968366	-0.004412	-6.320649
0.350000	-0.005268	-7.368558	-83.974163	88.888782	-83.974163	88.888782	-0.005775	-7.369906
0.400000	-0.006657	-8.416746	-82.902605	87.097033	-82.902605	87.097033	-0.007231	-8.417634
0.450000	-0.008132	-9.463473	-81.975058	85.509383	-81.975058	85.509383	-0.008752	-9.463816
0.500000	-0.009670	-10.508706	-81.163988	84.077348	-81.163988	84.077348	-0.010315	-10.508458
0.550000	-0.011251	-11.552431	-80.449604	82.771908	-80.449604	82.771908	-0.011900	-11.551590
0.600000	-0.012859	-12.594650	-79.817223	81.575612	-79.817223	81.575612	-0.013492	-12.593245
0.650000	-0.014478	-13.635376	-79.255657	80.478333	-79.255657	80.478333	-0.015081	-13.633461
0.700000	-0.016098	-14.674629	-78.756190	79.474880	-78.756190	79.474880	-0.016658	-14.672274
0.750000	-0.017711	-15.712428	-78.311888	78.563586	-78.311888	78.563586	-0.018218	-15.709714
0.800000	-0.019309	-16.748794	-77.917134	77.745463	-77.917134	77.745463	-0.019759	-16.745803
0.850000	-0.020888	-17.783743	-77.567290	77.023684	-77.567290	77.023684	-0.021279	-17.780556
0.900000	-0.022445	-18.817289	-77.258445	76.403274	-77.258445	76.403274	-0.022777	-18.813981
0.950000	-0.023978	-19.849441	-76.987233	75.890926	-76.987233	75.890926	-0.024254	-19.846078
1.000000	-0.025488	-20.880202	-76.750671	75.494901	-76.750671	75.494901	-0.025710	-20.876841
1.050000	-0.026974	-21.909570	-76.546032	75.224974	-76.546032	75.224974	-0.027148	-21.906259
1.100000	-0.028436	-22.937540	-76.370728	75.092396	-76.370728	75.092396	-0.028567	-22.934315
1.150000	-0.029876	-23.964101	-76.222199	75.109860	-76.222199	75.109860	-0.029971	-23.960990
1.200000	-0.031296	-24.989239	-76.097805	75.291419	-76.097805	75.291419	-0.031359	-24.986260
1.250000	-0.032696	-26.012936	-75.994704	75.652339	-75.994704	75.652339	-0.032735	-26.010101
1.300000	-0.034078	-27.035107	-75.910329	76.218133	-75.910329	76.218133	-0.034097	-27.032419
1.350000	-0.035444	-28.055790	-75.840123	76.997727	-75.840123	76.997727	-0.035449	-28.053248
1.400000	-0.036796	-29.074962	-75.779801	78.007483	-75.779801	78.007483	-0.036791	-29.072558
1.450000	-0.038136	-30.092593	-75.724375	79.262315	-75.724375	79.262315	-0.038125	-30.090319
1.500000	-0.039464	-31.108658	-75.668066	80.774200	-75.668066	80.774200	-0.039451	-31.106500
1.550000	-0.040783	-32.123127	-75.604281	82.550288	-75.604281	82.550288	-0.040770	-32.121070
1.600000	-0.042093	-33.135969	-75.525681	84.590671	-75.525681	84.590671	-0.042084	-33.133998
1.650000	-0.043397	-34.147157	-75.424391	86.886045	-75.424391	86.886045	-0.043392	-34.145255
1.700000	-0.044695	-35.156659	-75.292360	89.415622	-75.292360	89.415622	-0.044696	-35.154810
1.750000	-0.045988	-36.164447	-75.121898	92.145817	-75.121898	92.145817	-0.045996	-36.162633
1.800000	-0.047277	-37.170489	-74.906319	95.030291	-74.906319	95.030291	-0.047293	-37.168696
1.850000	-0.048563	-38.174758	-74.640612	98.011721	-74.640612	98.011721	-0.048588	-38.172970
1.900000	-0.049848	-39.177224	-74.321992	101.025369	-74.321992	101.025369	-0.049880	-39.175428
1.950000	-0.051131	-40.177860	-73.950206	104.003981	-73.950206	104.003981	-0.051171	-40.176042
2.000000	-0.052414	-41.176638	-73.527517	106.883171	-73.527517	106.883171	-0.052461	-41.174787
2.050000	-0.053698	-42.173531	-73.058354	109.606258	-73.058354	109.606258	-0.053751	-42.171636
2.100000	-0.054982	-43.168514	-72.548738	112.127718	-72.548738	112.127718	-0.055041	-43.166567
2.150000	-0.056268	-44.161562	-72.005603	114.414843	-72.005603	114.414843	-0.056332	-44.159554
2.200000	-0.057556	-45.152650	-71.436153	116.447670	-71.436153	116.447670	-0.057624	-45.150575
2.250000	-0.058847	-46.141755	-70.847337	118.217613	-70.847337	118.217613	-0.058918	-46.139608
2.300000	-0.060141	-47.128856	-70.245494	119.725342	-70.245494	119.725342	-0.060214	-47.126633
2.350000	-0.061439	-48.113930	-69.636154	120.978448	-69.636154	120.978448	-0.061513	-48.111629
2.400000	-0.062741	-49.096959	-69.023967	121.989239	-69.023967	121.989239	-0.062815	-49.094576
2.450000	-0.064048	-50.077923	-68.412726	122.772884	-68.412726	122.772884	-0.064121	-50.075458
2.500000	-0.065360	-51.056803	-67.805438	123.345960	-67.805438	123.345960	-0.065432	-51.054255
2.550000	-0.066677	-52.033492	-67.202992	123.717769	-67.202992	123.717769	-0.066747	-52.030862
2.600000	-0.068001	-53.008063	-66.608783	123.913946	-66.608783	123.913946	-0.068068	-53.005351
2.650000	-0.069332	-53.980502	-66.024051	123.950099	-66.024051	123.950099	-0.069395	-53.977711
2.700000	-0.070670	-54.950795	-65.449655	123.840744	-65.449655	123.840744	-0.070729	-54.947926
2.750000	-0.072015	-55.918930	-64.886158	123.599204	-64.886158	123.599204	-0.072069	-55.915985
2.800000	-0.073368	-56.884895	-64.333888	123.237590	-64.333888	123.237590	-0.073418	-56.881877
2.850000	-0.074729	-57.848681	-63.792993	122.766834	-63.792993	122.766834	-0.074774	-57.845592
2.900000	-0.076099	-58.810277	-63.263482	122.196752	-63.263482	122.196752	-0.076139	-58.807121
2.950000	-0.077479	-59.769675	-62.745263	121.536125	-62.745263	121.536125	-0.077513	-59.766454
3.000000	-0.078868	-60.726869	-62.238164	120.792789	-62.238164	120.792789	-0.078896	-60.723586
3.050000	-0.080268	-61.681853	-61.741957	119.973717	-61.741957	119.973717	-0.080290	-61.678510
3.100000	-0.081678	-62.634621	-61.256374	119.085105	-61.256374	119.085105	-0.081695	-62.631222
3.150000	-0.083100	-63.585170	-60.781119	118.132452	-60.781119	118.132452	-0.083111	-63.581716
3.200000	-0.084533	-64.533497	-60.315877	117.120630	-60.315877	117.120630	-0.084539	-64.529992
3.250000	-0.085978	-65.479601	-59.860321	116.053947	-59.860321	116.053947	-0.085980	-65.476046
3.300000	-0.087436	-66.423480	-59.414119	114.936207	-59.414119	114.936207	-0.087433	-66.419878
3.350000	-0.088907	-67.365137	-58.976937	113.770760	-58.976937	113.770760	-0.088900	-67.361489
3.400000	-0.090392	-68.304573	-58.548440	112.560542	-58.548440	112.560542	-0.090380	-68.300880
3.450000	-0.091891	-69.241790	-58.128297	111.308120	-58.128297	111.308120	-0.091876	-69.238055
3.500000	-0.093405	-70.176794	-57.716179	110.015719	-57.716179	110.015719	-0.093386	-70.173016
3.550000	-0.094934	-71.109589	-57.311764	108.685254	-57.311764	108.685254	-0.094912	-71.105770
3.600000	-0.096479	-72.040182	-56.914730	107.318352	-56.914730	107.318352	-0.096454	-72.036323
3.650000	-0.098040	-72.968581	-56.524764	105.916369	-56.524764	105.916369	-0.098013	-72.964683
3.700000	-0.099618	-73.894796	-56.141554	104.480408	-56.141554	104.480408	-0.099589	-73.890858
3.750000	-0.101213	-74.818837	-55.764791	103.011330	-55.764791	103.011330	-0.101183	-74.814859
3.800000	-0.102828	-75.740622	-55.393745	101.508367	-55.393745	101.508367	-0.102796	-75.736604
3.850000	-0.104460	-76.660261	-55.028546	99.973320	-55.028546	99.973320	-0.104428	-76.656202
3.900000	-0.106112	-77.577769	-54.668882	98.406325	-54.668882	98.406325	-0.106079	-77.573669
3.950000	-0.107784	-78.493162	-54.314437	96.807280	-54.314437	96.807280	-0.107750	-78.489020
4.000000	-0.109475	-79.406460	-53.964889	95.175846	-53.964889	95.175846	-0.109442	-79.402275
4.050000	-0.111188	-80.317683	-53.619908	93.511427	-53.619908	93.511427	-0.111155	-80.313454
4.100000	-0.112922	-81.226855	-53.279150	91.813161	-53.279150	91.813161	-0.112890	-81.222581
4.150000	-0.114679	-82.134001	-52.942257	90.079891	-52.942257	90.079891	-0.114647	-82.129681
4.200000	-0.116458	-83.039149	-52.608850	88.310139	-52.608850	88.310139	-0.116427	-83.034782
4.250000	-0.118260	-83.942331	-52.278522	86.502074	-52.278522	86.502074	-0.118230	-83.937915
4.300000	-0.120087	-84.843581	-51.950835	84.653457	-51.950835	84.653457	-0.120058	-84.839115
4.350000	-0.121938	-85.742938	-51.625307	82.761596	-51.625307	82.761596	-0.121911	-85.738420
4.400000	-0.123816	-86.640445	-51.301404	80.823268	-51.301404	80.823268	-0.123789	-86.635874
4.450000	-0.125719	-87.536151	-50.978527	78.834635	-50.978527	78.834635	-0.125694	-87.531525
4.500000	-0.127650	-88.430110	-50.655994	76.791140	-50.655994	76.791140	-0.127627	-88.425429
4.550000	-0.129610	-89.322386	-50.333022	74.687368	-50.333022	74.687368	-0.129588	-89.317647
4.600000	-0.131600	-90.213051	-50.008694	72.516882	-50.008694	72.516882	-0.131579	-90.208254
4.650000	-0.133620	-91.102190	-49.681932	70.272009	-49.681932	70.272009	-0.133601	-91.097332
4.700000	-0.135674	-91.989901	-49.351444	67.943573	-49.351444	67.943573	-0.135656	-91.984982
4.750000	-0.137763	-92.876302	-49.015666	65.520552	-49.015666	65.520552	-0.137746	-92.871320
4.800000	-0.139890	-93.761536	-48.672682	62.989634	-48.672682	62.989634	-0.139874	-93.756489
4.850000	-0.142058	-94.645777	-48.320109	60.334642	-48.320109	60.334642	-0.142044	-94.640664
4.900000	-0.144273	-95.529241	-47.954946	57.535771	-47.954946	57.535771	-0.144259	-95.524060
4.950000	-0.146541	-96.412202	-47.573363	54.568580	-47.573363	54.568580	-0.146527	-96.406952
5.000000	-0.148871	-97.295016	-47.170397	51.402623	-47.170397	51.402623	-0.148858	-97.289694
5.050000	-0.151287	-98.178241	-46.734348	47.975282	-46.734348	47.975282	-0.151273	-98.172844
5.100000	-0.153793	-99.062398	-46.265968	44.283806	-46.265968	44.283806	-0.153778	-99.056923
5.150000	-0.156443	-99.948642	-45.741768	40.213583	-45.741768	40.213583	-0.156428	-99.943085
5.200000	-0.159281	-100.838084	-45.152695	35.715859	-45.152695	35.715859	-0.159264	-100.832439
5.250000	-0.162422	-101.732970	-44.467628	30.653153	-44.467628	30.653153	-0.162403	-101.727229
5.300000	-0.166039	-102.636199	-43.656450	24.886066	-43.656450	24.886066	-0.166016	-102.630351
5.350000	-0.170565	-103.553900	-42.648292	18.128727	-42.648292	18.128727	-0.170536	-103.547927
5.400000	-0.176911	-104.496029	-41.353585	10.003104	-41.353585	10.003104	-0.176872	-104.489903
5.450000	-0.187616	-105.483360	-39.604053	-0.247680	-39.604053	-0.247680	-0.187561	-105.477031
5.500000	-0.211142	-106.558791	-37.109431	-14.329921	-37.109431	-14.329921	-0.211051	-106.552174
5.550000	-0.285904	-107.772825	-33.372057	-37.712045	-33.372057	-37.712045	-0.285716	-107.765812
5.600000	-0.520836	-108.050785	-29.240079	-90.352181	-29.240079	-90.352181	-0.520348	-108.044442
5.650000	-0.372646	-107.178977	-32.147038	-156.309233	-32.147038	-156.309233	-0.372386	-107.175215
5.700000	-0.253986	-108.269352	-36.645198	172.141066	-36.645198	172.141066	-0.253914	-108.264980
5.750000	-0.221172	-109.353041	-39.623649	153.104964	-39.623649	153.104964	-0.221142	-109.348190
5.800000	-0.209994	-110.342258	-41.541453	138.561801	-41.541453	138.561801	-0.209977	-110.337123
5.850000	-0.205985	-111.278215	-42.770924	126.548989	-42.770924	126.548989	-0.205971	-111.272891
5.900000	-0.205021	-112.183232	-43.537503	116.428661	-43.537503	116.428661	-0.205007	-112.177775
5.950000	-0.205479	-113.070205	-44.018092	107.737400	-44.018092	107.737400	-0.205465	-113.064645
6.000000	-0.206769	-113.944796	-44.299985	100.228616	-44.299985	100.228616	-0.206754	-113.939153
6.050000	-0.208589	-114.810280	-44.443025	93.720762	-44.443025	93.720762	-0.208572	-114.804570
6.100000	-0.210758	-115.668999	-44.493248	88.026630	-44.493248	88.026630	-0.210740	-115.663234
6.150000	-0.213198	-116.521910	-44.474885	83.062060	-44.474885	83.062060	-0.213177	-116.516103
6.200000	-0.215767	-117.371844	-44.426813	78.473128	-44.426813	78.473128	-0.215744	-117.366003
6.250000	-0.218468	-118.218673	-44.350017	74.275567	-44.350017	74.275567	-0.218443	-118.212807
6.300000	-0.221331	-119.061501	-44.244281	70.563760	-44.244281	70.563760	-0.221303	-119.055636
6.350000	-0.224272	-119.902311	-44.128076	67.080326	-44.128076	67.080326	-0.224242	-119.896486
6.400000	-0.227277	-120.741147	-44.003168	63.807072	-44.003168	63.807072	-0.227256	-120.735474
6.450000	-0.230332	-121.577575	-43.870134	60.760791	-43.870134	60.760791	-0.230354	-121.572351
6.500000	-0.233501	-122.413362	-43.731753	57.907222	-43.731753	57.907222	-0.233533	-122.407296
6.550000	-0.236747	-123.247571	-43.591300	55.174786	-43.591300	55.174786	-0.236767	-123.240959
6.600000	-0.240066	-124.079878	-43.449387	52.553992	-43.449387	52.553992	-0.240055	-124.073405
6.650000	-0.243438	-124.910623	-43.305480	50.076078	-43.305480	50.076078	-0.243420	-124.904183
6.700000	-0.246872	-125.740117	-43.161208	47.699072	-43.161208	47.699072	-0.246850	-125.733688
6.750000	-0.250338	-126.568986	-43.017959	45.372520	-43.017959	45.372520	-0.250313	-126.562556
6.800000	-0.253867	-127.396725	-42.875052	43.129589	-42.875052	43.129589	-0.253841	-127.390287
6.850000	-0.257444	-128.223658	-42.733066	40.946387	-42.733066	40.946387	-0.257416	-128.217207
6.900000	-0.261074	-129.049787	-42.592201	38.819103	-42.592201	38.819103	-0.261045	-129.043319
6.950000	-0.264758	-129.875110	-42.452439	36.747737	-42.452439	36.747737	-0.264729	-129.868622
7.000000	-0.268487	-130.699886	-42.314215	34.713454	-42.314215	34.713454	-0.268457	-130.693376
7.050000	-0.272278	-131.523893	-42.177225	32.731087	-42.177225	32.731087	-0.272248	-131.517360
7.100000	-0.276104	-132.347553	-42.041985	30.772753	-42.041985	30.772753	-0.276074	-132.340994
7.150000	-0.280001	-133.170517	-41.908077	28.862483	-41.908077	28.862483	-0.279971	-133.163930
7.200000	-0.283924	-133.993284	-41.776011	26.967052	-41.776011	26.967052	-0.283894	-133.986667
7.250000	-0.287926	-134.815460	-41.645357	25.116135	-41.645357	25.116135	-0.287896	-134.808810
7.300000	-0.291946	-135.637545	-41.516558	23.273483	-41.516558	23.273483	-0.291917	-135.630861
7.350000	-0.296053	-136.459180	-41.389248	21.472152	-41.389248	21.472152	-0.296025	-136.452457
7.400000	-0.300170	-137.280790	-41.263756	19.674322	-41.263756	19.674322	-0.300143	-137.274028
7.450000	-0.304383	-138.102124	-41.139830	17.914988	-41.139830	17.914988	-0.304356	-138.095318
7.500000	-0.308598	-138.923459	-41.017648	16.155654	-41.017648	16.155654	-0.308571	-138.916608
7.550000	-0.312916	-139.744730	-40.897122	14.432348	-40.897122	14.432348	-0.312891	-139.737827
7.600000	-0.317237	-140.566001	-40.778246	12.709042	-40.778246	12.709042	-0.317212	-140.559047
7.650000	-0.321654	-141.387429	-40.661106	11.014415	-40.661106	11.014415	-0.321630	-141.380417
7.700000	-0.326082	-142.208872	-40.545537	9.322395	-40.545537	9.322395	-0.326058	-142.201801
7.750000	-0.330597	-143.030654	-40.431747	7.653283	-40.431747	7.653283	-0.330574	-143.023518
7.800000	-0.335132	-143.852504	-40.319480	5.988753	-40.319480	5.988753	-0.335109	-143.845301
7.850000	-0.339747	-144.674835	-40.209001	4.342547	-40.209001	4.342547	-0.339724	-144.667560
7.900000	-0.344390	-145.497327	-40.100027	2.702449	-40.100027	2.702449	-0.344367	-145.489977
7.950000	-0.349105	-146.320405	-39.992824	1.076990	-39.992824	1.076990	-0.349082	-146.312975
8.000000	-0.353857	-147.143776	-39.887135	-0.541148	-39.887135	-0.541148	-0.353833	-147.136262
8.050000	-0.358672	-147.967798	-39.783174	-2.147643	-39.783174	-2.147643	-0.358648	-147.960197
8.100000	-0.363534	-148.792285	-39.680764	-3.745821	-39.680764	-3.745821	-0.363509	-148.784593
8.150000	-0.368450	-149.617452	-39.580013	-5.334827	-39.580013	-5.334827	-0.368424	-149.609664
8.200000	-0.373422	-150.443296	-39.480878	-6.914661	-39.480878	-6.914661	-0.373394	-150.435410
8.250000	-0.378440	-151.269808	-39.383311	-8.487393	-39.383311	-8.487393	-0.378410	-151.261819
8.300000	-0.383522	-152.097253	-39.287450	-10.050182	-39.287450	-10.050182	-0.383491	-152.089157
8.350000	-0.388643	-152.925314	-39.193043	-11.607634	-39.193043	-11.607634	-0.388609	-152.917108
8.400000	-0.393837	-153.754604	-39.100458	-13.154412	-39.100458	-13.154412	-0.393799	-153.746286
8.450000	-0.399060	-154.584419	-39.009190	-14.697389	-39.009190	-14.697389	-0.399020	-154.575985
8.500000	-0.404366	-155.415804	-38.919885	-16.228964	-38.919885	-16.228964	-0.404322	-155.407251
8.550000	-0.409692	-156.247580	-38.831740	-17.758109	-38.831740	-17.758109	-0.409644	-156.238907
8.600000	-0.415110	-157.081312	-38.745721	-19.275101	-38.745721	-19.275101	-0.415058	-157.072515
8.650000	-0.420541	-157.915260	-38.660683	-20.790916	-38.660683	-20.790916	-0.420484	-157.906339
8.700000	-0.426072	-158.751592	-38.577960	-22.293779	-38.577960	-22.293779	-0.426010	-158.742544
8.750000	-0.431606	-159.587924	-38.496016	-23.796643	-38.496016	-23.796643	-0.431539	-159.578750
8.800000	-0.437250	-160.427114	-38.416595	-25.285690	-38.416595	-25.285690	-0.437178	-160.417813
8.850000	-0.442898	-161.266305	-38.337894	-26.774737	-38.337894	-26.774737	-0.442820	-161.256877
8.900000	-0.448647	-162.108356	-38.261626	-28.251291	-38.261626	-28.251291	-0.448563	-162.098802
8.950000	-0.454409	-162.950667	-38.186178	-29.726710	-38.186178	-29.726710	-0.454318	-162.940987
9.000000	-0.460262	-163.795799	-38.113050	-31.190839	-38.113050	-31.190839	-0.460166	-163.785996
9.050000	-0.466138	-164.641495	-38.040865	-32.652711	-38.040865	-32.652711	-0.466035	-164.631570
9.100000	-0.472096	-165.489931	-37.970864	-34.104413	-37.970864	-34.104413	-0.471987	-165.479890
9.150000	-0.478085	-166.339281	-37.901950	-35.552724	-37.901950	-35.552724	-0.477970	-166.329125
9.200000	-0.484131	-167.190570	-37.834680	-36.994220	-37.834680	-36.994220	-0.484010	-167.180304
9.250000	-0.490241	-168.044098	-37.769188	-38.428018	-37.769188	-38.428018	-0.490114	-168.033728
9.300000	-0.496405	-168.899613	-37.705289	-39.855214	-37.705289	-39.855214	-0.496273	-168.889146
9.350000	-0.502624	-169.757177	-37.642983	-41.275761	-37.642983	-41.275761	-0.502487	-169.746620
9.400000	-0.508897	-170.616856	-37.582267	-42.689606	-37.582267	-42.689606	-0.508756	-170.606217
9.450000	-0.515224	-171.478712	-37.523138	-44.096694	-37.523138	-44.096694	-0.515081	-171.468000
9.500000	-0.521606	-172.342811	-37.465593	-45.496960	-37.465593	-45.496960	-0.521461	-172.332036
9.550000	-0.528042	-173.209217	-37.409629	-46.890337	-37.409629	-46.890337	-0.527896	-173.198390
9.600000	-0.534532	-174.077996	-37.355243	-48.276752	-37.355243	-48.276752	-0.534387	-174.067129
9.650000	-0.541076	-174.949213	-37.302428	-49.656130	-37.302428	-49.656130	-0.540933	-174.938319
9.700000	-0.547674	-175.822934	-37.251182	-51.028392	-37.251182	-51.028392	-0.547535	-175.812028
9.750000	-0.554325	-176.699225	-37.201497	-52.393455	-37.201497	-52.393455	-0.554192	-176.688322
9.800000	-0.561029	-177.578152	-37.153369	-53.751234	-37.153369	-53.751234	-0.560905	-177.567269
9.850000	-0.567787	-178.459784	-37.106790	-55.101642	-37.106790	-55.101642	-0.567674	-178.448937
9.900000	-0.574597	-179.344186	-37.061753	-56.444590	-37.061753	-56.444590	-0.574499	-179.333396
9.950000	-0.581459	179.768574	-37.018251	-57.779989	-37.018251	-57.779989	-0.581379	179.779288
10.000000	-0.588374	178.878428	-36.976276	-59.107745	-36.976276	-59.107745	-0.588315	178.889044
