! freq	dB(S11)	phase(S11)	dB(S12)	phase(S12)	
!     	dB(S21)	phase(S21)	dB(S22)	phase(S22)	
!S-par simulation data
#  GHz  S  DB  R 50
0.000000	0.000000	0.000000	-333.591675	180.000000	-333.591675	180.000000	-0.000000	-0.000000
0.050000	-0.000098	-0.765324	-100.602779	163.960203	-100.602779	163.960203	-0.000068	-0.963087
0.100000	-0.000388	-1.530412	-99.953726	151.427649	-99.953726	151.427649	-0.000271	-1.926058
0.150000	-0.000857	-2.295047	-99.076448	140.615041	-99.076448	140.615041	-0.000607	-2.888801
0.200000	-0.001486	-3.059050	-98.126032	131.805637	-98.126032	131.805637	-0.001070	-3.851209
0.250000	-0.002262	-3.822222	-97.194960	124.824305	-97.194960	124.824305	-0.001663	-4.813148
0.300000	-0.003149	-4.584532	-96.338940	119.143941	-96.338940	119.143941	-0.002370	-5.774560
0.350000	-0.004128	-5.345881	-95.574640	114.536867	-95.574640	114.536867	-0.003189	-6.735335
0.400000	-0.005177	-6.106236	-94.908749	110.772119	-94.908749	110.772119	-0.004113	-7.695382
0.450000	-0.006277	-6.865591	-94.341455	107.686365	-94.341455	107.686365	-0.005134	-8.654622
0.500000	-0.007408	-7.623961	-93.870456	105.169768	-93.870456	105.169768	-0.006243	-9.612979
0.550000	-0.008558	-8.381375	-93.492880	103.153823	-93.492880	103.153823	-0.007432	-10.570387
0.600000	-0.009715	-9.137870	-93.206152	101.602973	-93.206152	101.602973	-0.008693	-11.526786
0.650000	-0.010871	-9.893484	-93.008291	100.509829	-93.008291	100.509829	-0.010016	-12.482122
0.700000	-0.012018	-10.648257	-92.897869	99.893495	-92.897869	99.893495	-0.011393	-13.436348
0.750000	-0.013155	-11.402223	-92.873672	99.800641	-92.873672	99.800641	-0.012817	-14.389425
0.800000	-0.014276	-12.155413	-92.933966	100.309082	-92.933966	100.309082	-0.014278	-15.341317
0.850000	-0.015383	-12.907851	-93.075115	101.533456	-93.075115	101.533456	-0.015770	-16.291993
0.900000	-0.016473	-13.659557	-93.289091	103.631588	-93.289091	103.631588	-0.017285	-17.241429
0.950000	-0.017548	-14.410545	-93.559181	106.807292	-93.559181	106.807292	-0.018817	-18.189600
1.000000	-0.018608	-15.160825	-93.853181	111.298954	-93.853181	111.298954	-0.020361	-19.136490
1.050000	-0.019653	-15.910399	-94.114518	117.332691	-94.114518	117.332691	-0.021910	-20.082080
1.100000	-0.020686	-16.659270	-94.255814	125.011800	-94.255814	125.011800	-0.023461	-21.026357
1.150000	-0.021707	-17.407433	-94.167044	134.140059	-94.167044	134.140059	-0.025009	-21.969308
1.200000	-0.022718	-18.154883	-93.752191	144.078113	-93.752191	144.078113	-0.026550	-22.910920
1.250000	-0.023719	-18.901613	-92.982554	153.849337	-92.982554	153.849337	-0.028082	-23.851182
1.300000	-0.024712	-19.647579	-91.901692	162.481166	-91.901692	162.481166	-0.029601	-24.790024
1.350000	-0.025698	-20.392801	-90.637703	169.561431	-90.637703	169.561431	-0.031105	-25.727493
1.400000	-0.026679	-21.137266	-89.292239	175.076492	-89.292239	175.076492	-0.032593	-26.663580
1.450000	-0.027653	-21.880960	-87.935573	179.221382	-87.935573	179.221382	-0.034064	-27.598271
1.500000	-0.028624	-22.623869	-86.608359	-177.751999	-86.608359	-177.751999	-0.035517	-28.531557
1.550000	-0.029591	-23.365976	-85.330846	-175.608871	-85.330846	-175.608871	-0.036950	-29.463424
1.600000	-0.030556	-24.107267	-84.111163	-174.155535	-84.111163	-174.155535	-0.038364	-30.393859
1.650000	-0.031518	-24.847726	-82.950858	-173.240481	-82.950858	-173.240481	-0.039759	-31.322849
1.700000	-0.032478	-25.587336	-81.848153	-172.747772	-81.848153	-172.747772	-0.041135	-32.250380
1.750000	-0.033437	-26.326081	-80.799753	-172.589228	-80.799753	-172.589228	-0.042492	-33.176437
1.800000	-0.034395	-27.063946	-79.801805	-172.697623	-79.801805	-172.697623	-0.043830	-34.101004
1.850000	-0.035353	-27.800914	-78.850391	-173.021367	-78.850391	-173.021367	-0.045151	-35.024066
1.900000	-0.036312	-28.536969	-77.941766	-173.520515	-77.941766	-173.520515	-0.046455	-35.945605
1.950000	-0.037270	-29.272096	-77.072461	-174.163843	-77.072461	-174.163843	-0.047742	-36.865605
2.000000	-0.038229	-30.006278	-76.239317	-174.926696	-76.239317	-174.926696	-0.049015	-37.784047
2.050000	-0.039190	-30.739501	-75.439482	-175.789419	-75.439482	-175.789419	-0.050274	-38.700914
2.100000	-0.040152	-31.471749	-74.670395	-176.736193	-74.670395	-176.736193	-0.051519	-39.616188
2.150000	-0.041115	-32.203007	-73.929756	-177.754178	-73.929756	-177.754178	-0.052753	-40.529850
2.200000	-0.042081	-32.933261	-73.215503	-178.832858	-73.215503	-178.832858	-0.053977	-41.441882
2.250000	-0.043049	-33.662495	-72.525781	-179.963558	-72.525781	-179.963558	-0.055191	-42.352265
2.300000	-0.044020	-34.390696	-71.858923	178.860932	-71.858923	178.860932	-0.056397	-43.260979
2.350000	-0.044993	-35.117849	-71.213425	177.646645	-71.213425	177.646645	-0.057596	-44.168007
2.400000	-0.045970	-35.843941	-70.587926	176.398661	-70.587926	176.398661	-0.058789	-45.073330
2.450000	-0.046950	-36.568957	-69.981191	175.121284	-69.981191	175.121284	-0.059978	-45.976929
2.500000	-0.047934	-37.292886	-69.392101	173.818177	-69.392101	173.818177	-0.061164	-46.878786
2.550000	-0.048922	-38.015665	-68.818719	172.491619	-68.818719	172.491619	-0.062348	-47.778806
2.600000	-0.049915	-38.737328	-68.261121	171.145372	-68.261121	171.145372	-0.063531	-48.677047
2.650000	-0.050913	-39.457865	-67.718440	169.781720	-67.718440	169.781720	-0.064715	-49.573493
2.700000	-0.051915	-40.177261	-67.189882	168.402649	-67.189882	168.402649	-0.065900	-50.468125
2.750000	-0.052923	-40.895507	-66.674718	167.009888	-66.674718	167.009888	-0.067088	-51.360929
2.800000	-0.053937	-41.612589	-66.172272	165.604951	-66.172272	165.604951	-0.068281	-52.251889
2.850000	-0.054956	-42.328497	-65.681923	164.189164	-65.681923	164.189164	-0.069478	-53.140989
2.900000	-0.055982	-43.043220	-65.203096	162.763696	-65.203096	162.763696	-0.070682	-54.028215
2.950000	-0.057014	-43.756747	-64.735257	161.329575	-64.735257	161.329575	-0.071893	-54.913554
3.000000	-0.058054	-44.469068	-64.277909	159.887712	-64.277909	159.887712	-0.073112	-55.796992
3.050000	-0.059100	-45.180172	-63.830591	158.438914	-63.830591	158.438914	-0.074341	-56.678516
3.100000	-0.060155	-45.890050	-63.392873	156.983898	-63.392873	156.983898	-0.075579	-57.558116
3.150000	-0.061217	-46.598692	-62.964352	155.523301	-62.964352	155.523301	-0.076829	-58.435780
3.200000	-0.062288	-47.306089	-62.544653	154.057693	-62.544653	154.057693	-0.078091	-59.311498
3.250000	-0.063367	-48.012232	-62.133424	152.587581	-62.133424	152.587581	-0.079366	-60.185260
3.300000	-0.064455	-48.717113	-61.730335	151.113421	-61.730335	151.113421	-0.080654	-61.057058
3.350000	-0.065553	-49.420722	-61.335076	149.635620	-61.335076	149.635620	-0.081957	-61.926885
3.400000	-0.066660	-50.123053	-60.947355	148.154545	-60.947355	148.154545	-0.083275	-62.794732
3.450000	-0.067778	-50.824098	-60.566898	146.670526	-60.566898	146.670526	-0.084610	-63.660595
3.500000	-0.068906	-51.523848	-60.193447	145.183859	-60.193447	145.183859	-0.085961	-64.524467
3.550000	-0.070044	-52.222297	-59.826759	143.694812	-59.826759	143.694812	-0.087329	-65.386345
3.600000	-0.071194	-52.919438	-59.466603	142.203628	-59.466603	142.203628	-0.088716	-66.246225
3.650000	-0.072356	-53.615265	-59.112762	140.710527	-59.112762	140.710527	-0.090121	-67.104103
3.700000	-0.073529	-54.309772	-58.765030	139.215708	-58.765030	139.215708	-0.091546	-67.959979
3.750000	-0.074715	-55.002952	-58.423212	137.719353	-58.423212	137.719353	-0.092991	-68.813851
3.800000	-0.075914	-55.694742	-58.086809	136.221574	-58.086809	136.221574	-0.094457	-69.665632
3.850000	-0.077125	-56.385194	-57.755983	134.722589	-57.755983	134.722589	-0.095944	-70.515410
3.900000	-0.078351	-57.074304	-57.430567	133.222535	-57.430567	133.222535	-0.097453	-71.363186
3.950000	-0.079590	-57.762067	-57.110400	131.721538	-57.110400	131.721538	-0.098984	-72.208965
4.000000	-0.080843	-58.448478	-56.795333	130.219715	-56.795333	130.219715	-0.100537	-73.052747
4.050000	-0.082111	-59.133534	-56.485221	128.717174	-56.485221	128.717174	-0.102113	-73.894539
4.100000	-0.083394	-59.817232	-56.179928	127.214017	-56.179928	127.214017	-0.103712	-74.734346
4.150000	-0.084692	-60.499567	-55.879324	125.710339	-55.879324	125.710339	-0.105335	-75.572172
4.200000	-0.086005	-61.180537	-55.583285	124.206227	-55.583285	124.206227	-0.106982	-76.408025
4.250000	-0.087335	-61.860139	-55.291691	122.701767	-55.291691	122.701767	-0.108654	-77.241913
4.300000	-0.088681	-62.538370	-55.004432	121.197037	-55.004432	121.197037	-0.110350	-78.073845
4.350000	-0.090044	-63.215230	-54.721397	119.692114	-54.721397	119.692114	-0.112071	-78.903828
4.400000	-0.091425	-63.890715	-54.442486	118.187071	-54.442486	118.187071	-0.113817	-79.731874
4.450000	-0.092822	-64.564824	-54.167598	116.681979	-54.167598	116.681979	-0.115589	-80.557993
4.500000	-0.094238	-65.237556	-53.896641	115.176905	-53.896641	115.176905	-0.117387	-81.382197
4.550000	-0.095672	-65.908910	-53.629523	113.671916	-53.629523	113.671916	-0.119211	-82.204498
4.600000	-0.097125	-66.578887	-53.366158	112.167079	-53.366158	112.167079	-0.121062	-83.024909
4.650000	-0.098597	-67.247484	-53.106463	110.662457	-53.106463	110.662457	-0.122939	-83.843444
4.700000	-0.100089	-67.914703	-52.850359	109.158114	-52.850359	109.158114	-0.124843	-84.660118
4.750000	-0.101600	-68.580543	-52.597769	107.654114	-52.597769	107.654114	-0.126773	-85.474946
4.800000	-0.103132	-69.245006	-52.348619	106.150520	-52.348619	106.150520	-0.128732	-86.287944
4.850000	-0.104684	-69.908091	-52.102839	104.647395	-52.102839	104.647395	-0.130717	-87.099129
4.900000	-0.106258	-70.569801	-51.860360	103.144803	-51.860360	103.144803	-0.132731	-87.908518
4.950000	-0.107853	-71.230137	-51.621118	101.642808	-51.621118	101.642808	-0.134772	-88.716129
5.000000	-0.109469	-71.889100	-51.385048	100.141475	-51.385048	100.141475	-0.136841	-89.521981
5.050000	-0.111121	-72.545919	-51.150331	98.641319	-51.150331	98.641319	-0.138955	-90.325123
5.100000	-0.112772	-73.202738	-50.921791	97.141164	-50.921791	97.141164	-0.141068	-91.128265
5.150000	-0.114468	-73.856946	-50.693504	95.642671	-50.693504	95.642671	-0.143237	-91.928162
5.200000	-0.116168	-74.510916	-50.470568	94.144329	-50.470568	94.144329	-0.145410	-92.727764
5.250000	-0.117909	-75.162523	-50.248449	92.647749	-50.248449	92.647749	-0.147634	-93.524496
5.300000	-0.119659	-75.813657	-50.030939	91.151520	-50.030939	91.151520	-0.149869	-94.320654
5.350000	-0.121447	-76.462676	-49.814740	89.657108	-49.814740	89.657108	-0.152149	-95.114303
5.400000	-0.123248	-77.110990	-49.602489	88.163301	-49.602489	88.163301	-0.154446	-95.907116
5.450000	-0.125084	-77.757436	-49.391978	86.671321	-49.391978	86.671321	-0.156783	-96.697770
5.500000	-0.126938	-78.402948	-49.184825	85.180254	-49.184825	85.180254	-0.159142	-97.487345
5.550000	-0.128824	-79.046837	-48.979783	83.690977	-48.979783	83.690977	-0.161538	-98.275094
5.600000	-0.130733	-79.689567	-48.777575	82.202978	-48.777575	82.202978	-0.163960	-99.061541
5.650000	-0.132671	-80.330918	-48.577794	80.716681	-48.577794	80.716681	-0.166415	-99.846480
5.700000	-0.134636	-80.970889	-48.380381	79.232086	-48.380381	79.232086	-0.168903	-100.629914
5.750000	-0.136626	-81.609721	-48.185666	77.749054	-48.185666	77.749054	-0.171418	-101.412142
5.800000	-0.138650	-82.246958	-47.992905	76.268208	-47.992905	76.268208	-0.173972	-102.192684
5.850000	-0.140694	-82.883293	-47.803066	74.788730	-47.803066	74.788730	-0.176548	-102.972303
5.900000	-0.142777	-83.517824	-47.614817	73.311986	-47.614817	73.311986	-0.179170	-103.750078
5.950000	-0.144877	-84.151685	-47.429677	71.836357	-47.429677	71.836357	-0.181809	-104.527194
6.000000	-0.147022	-84.783537	-47.245801	70.364074	-47.245801	70.364074	-0.184500	-105.302333
6.050000	-0.149178	-85.414949	-47.065187	68.892594	-47.065187	68.892594	-0.187203	-106.077056
6.100000	-0.151387	-86.044156	-46.885551	67.425134	-46.885551	67.425134	-0.189965	-106.849694
6.150000	-0.153601	-86.673145	-46.709297	65.958107	-46.709297	65.958107	-0.192733	-107.622136
6.200000	-0.155874	-87.299739	-46.533767	64.495839	-46.533767	64.495839	-0.195568	-108.392414
6.250000	-0.158149	-87.926333	-46.361714	63.033571	-46.361714	63.033571	-0.198404	-109.162692
6.300000	-0.160489	-88.550349	-46.190159	61.576867	-46.190159	61.576867	-0.201315	-109.930755
6.350000	-0.162829	-89.174366	-46.021926	60.120163	-46.021926	60.120163	-0.204226	-110.698819
6.400000	-0.165232	-89.796054	-45.854441	58.668905	-45.854441	58.668905	-0.207208	-111.464992
6.450000	-0.167641	-90.417531	-45.689906	57.218141	-45.689906	57.218141	-0.210198	-112.230992
6.500000	-0.170108	-91.036924	-45.526335	55.772645	-45.526335	55.772645	-0.213254	-112.995405
6.550000	-0.172587	-91.655899	-45.365376	54.328202	-45.365376	54.328202	-0.216324	-113.759499
6.600000	-0.175119	-92.273031	-45.205568	52.888788	-45.205568	52.888788	-0.219456	-114.522288
6.650000	-0.177670	-92.889547	-45.048064	51.451051	-45.048064	51.451051	-0.222610	-115.284641
6.700000	-0.180269	-93.504452	-44.891870	50.018047	-44.891870	50.018047	-0.225822	-116.045946
6.750000	-0.182893	-94.118552	-44.737701	48.587410	-44.737701	48.587410	-0.229063	-116.806728
6.800000	-0.185561	-94.731267	-44.584980	47.161149	-44.584980	47.161149	-0.232357	-117.566699
6.850000	-0.188259	-95.342995	-44.434025	45.738016	-44.434025	45.738016	-0.235689	-118.326089
6.900000	-0.190997	-95.953559	-44.284636	44.318845	-44.284636	44.318845	-0.239068	-119.084878
6.950000	-0.193772	-96.562961	-44.136778	42.903636	-44.136778	42.903636	-0.242495	-119.843065
7.000000	-0.196580	-97.171413	-43.990587	41.491913	-43.990587	41.491913	-0.245963	-120.600835
7.050000	-0.199434	-97.778537	-43.845706	40.085073	-43.845706	40.085073	-0.249489	-121.358018
7.100000	-0.202314	-98.384918	-43.702583	38.681180	-43.702583	38.681180	-0.253050	-122.114938
7.150000	-0.205247	-98.989814	-43.560562	37.283184	-43.560562	37.283184	-0.256680	-122.871330
7.200000	-0.208201	-99.594165	-43.420380	35.887529	-43.420380	35.887529	-0.260339	-123.627580
7.250000	-0.211216	-100.196883	-43.281105	34.498898	-43.281105	34.498898	-0.264078	-124.383406
7.300000	-0.214245	-100.799248	-43.143740	33.111925	-43.143740	33.111925	-0.267838	-125.139179
7.350000	-0.217343	-101.399842	-43.007097	31.733241	-43.007097	31.733241	-0.271694	-125.894685
7.400000	-0.220449	-102.000263	-42.872430	30.355442	-42.872430	30.355442	-0.275561	-126.650186
7.450000	-0.223631	-102.598787	-42.738308	28.987370	-42.738308	28.987370	-0.279538	-127.405636
7.500000	-0.226814	-103.197311	-42.606224	27.619298	-42.606224	27.619298	-0.283517	-128.161087
7.550000	-0.230082	-103.793820	-42.474512	26.262613	-42.474512	26.262613	-0.287623	-128.916774
7.600000	-0.233352	-104.390329	-42.344768	24.905927	-42.344768	24.905927	-0.291732	-129.672462
7.650000	-0.236701	-104.985043	-42.215491	23.560521	-42.215491	23.560521	-0.295965	-130.428665
7.700000	-0.240058	-105.579594	-42.087982	22.216141	-42.087982	22.216141	-0.300211	-131.184914
7.750000	-0.243489	-106.172563	-41.961029	20.882942	-41.961029	20.882942	-0.304578	-131.941934
7.800000	-0.246935	-106.765214	-41.835652	19.551979	-41.835652	19.551979	-0.308971	-132.699109
7.850000	-0.250449	-107.356486	-41.710914	18.232103	-41.710914	18.232103	-0.313481	-133.457289
7.900000	-0.253987	-107.947297	-41.587566	16.915922	-41.587566	16.915922	-0.318031	-134.215803
7.950000	-0.257585	-108.536922	-41.464934	15.610727	-41.464934	15.610727	-0.322694	-134.975529
8.000000	-0.261215	-109.125953	-41.343509	14.311025	-41.343509	14.311025	-0.327414	-135.735860
8.050000	-0.264900	-109.713982	-41.222870	13.022181	-41.222870	13.022181	-0.332242	-136.497578
8.100000	-0.268624	-110.301295	-41.103257	11.741094	-41.103257	11.741094	-0.337147	-137.260284
8.150000	-0.272396	-110.887780	-40.984494	10.470672	-40.984494	10.470672	-0.342153	-138.024510
8.200000	-0.276215	-111.473437	-40.866568	9.210917	-40.866568	9.210917	-0.347261	-138.790255
8.250000	-0.280076	-112.058430	-40.749551	7.961503	-40.749551	7.961503	-0.352462	-139.557598
8.300000	-0.283992	-112.642494	-40.633163	6.726569	-40.633163	6.726569	-0.357795	-140.327179
8.350000	-0.287940	-113.226088	-40.517793	5.500509	-40.517793	5.500509	-0.363205	-141.098214
8.400000	-0.291948	-113.808746	-40.402907	4.292197	-40.402907	4.292197	-0.368769	-141.872153
8.450000	-0.296006	-114.390667	-40.288598	3.100866	-40.288598	3.100866	-0.374473	-142.648983
8.500000	-0.300099	-114.972093	-40.175159	1.920987	-40.175159	1.920987	-0.380275	-143.427763
8.550000	-0.304263	-115.552494	-40.061694	0.769938	-40.061694	0.769938	-0.386306	-144.211585
8.600000	-0.308452	-116.132588	-39.949200	-0.371477	-39.949200	-0.371477	-0.392416	-144.997108
8.650000	-0.312715	-116.711678	-39.836386	-1.477995	-39.836386	-1.477995	-0.398799	-145.788851
8.700000	-0.317014	-117.290338	-39.724055	-2.565825	-39.724055	-2.565825	-0.405327	-146.583969
8.750000	-0.321366	-117.868322	-39.611665	-3.624287	-39.611665	-3.624287	-0.412082	-147.384392
8.800000	-0.325777	-118.445610	-39.498653	-4.644511	-39.498653	-4.644511	-0.419131	-148.191789
8.850000	-0.330220	-119.022526	-39.386013	-5.644397	-39.386013	-5.644397	-0.426341	-149.002896
8.900000	-0.334745	-119.598496	-39.270972	-6.578102	-39.270972	-6.578102	-0.434069	-149.826182
8.950000	-0.339297	-120.174197	-39.156025	-7.489552	-39.156025	-7.489552	-0.441980	-150.653595
9.000000	-0.343925	-120.749076	-39.037812	-8.327299	-39.037812	-8.327299	-0.450495	-151.494714
9.050000	-0.348585	-121.323625	-38.918558	-9.128851	-38.918558	-9.128851	-0.459327	-152.342645
9.100000	-0.353314	-121.897480	-38.794738	-9.848626	-38.794738	-9.848626	-0.468884	-153.206060
9.150000	-0.358099	-122.470781	-38.666101	-10.490964	-38.666101	-10.490964	-0.479180	-154.084386
9.200000	-0.362940	-123.043525	-38.531056	-11.044791	-38.531056	-11.044791	-0.490379	-154.980080
9.250000	-0.367845	-123.615653	-38.386250	-11.486745	-38.386250	-11.486745	-0.502830	-155.898356
9.300000	-0.372811	-124.187187	-38.229117	-11.807254	-38.229117	-11.807254	-0.516804	-156.842117
9.350000	-0.377837	-124.758116	-38.055930	-11.992439	-38.055930	-11.992439	-0.532712	-157.815728
9.400000	-0.382924	-125.328403	-37.861343	-12.024893	-37.861343	-12.024893	-0.551161	-158.825320
9.450000	-0.388074	-125.897995	-37.638198	-11.887436	-37.638198	-11.887436	-0.573019	-159.878674
9.500000	-0.393284	-126.466813	-37.376927	-11.565565	-37.376927	-11.565565	-0.599540	-160.985742
9.550000	-0.398555	-127.034729	-37.063352	-11.048558	-37.063352	-11.048558	-0.632745	-162.160834
9.600000	-0.403882	-127.601509	-36.674194	-10.338042	-36.674194	-10.338042	-0.676299	-163.426540
9.650000	-0.409248	-128.166970	-36.190419	-9.493309	-36.190419	-9.493309	-0.734637	-164.800423
9.700000	-0.414624	-128.730760	-35.583400	-8.619325	-35.583400	-8.619325	-0.815738	-166.309589
9.750000	-0.419947	-129.292270	-34.809732	-7.937941	-34.809732	-7.937941	-0.935240	-167.990815
9.800000	-0.425087	-129.850852	-33.839665	-7.838221	-33.839665	-7.838221	-1.117988	-169.855669
9.850000	-0.429775	-130.405754	-32.653335	-8.957806	-32.653335	-8.957806	-1.409563	-171.845669
9.900000	-0.433468	-130.956920	-31.275783	-12.257817	-31.275783	-12.257817	-1.886370	-173.626917
9.950000	-0.435296	-131.507778	-29.846393	-18.849717	-29.846393	-18.849717	-2.621956	-174.068086
10.000000	-0.434716	-132.070110	-28.671497	-29.290424	-28.671497	-29.290424	-3.464243	-170.870483
