! freq	dB(S11)	phase(S11)	dB(S12)	phase(S12)	
!     	dB(S21)	phase(S21)	dB(S22)	phase(S22)	
!S-par simulation data
#  GHz  S  DB  R 50
0.000000	-82.037313	0.000000	-0.000687	0.000000	-0.000687	0.000000	-82.037313	0.000000
0.050000	-46.229718	-89.300871	-0.005679	-2.815677	-0.005679	-2.815677	-46.225340	-88.962127
0.100000	-40.418553	-93.705750	-0.011443	-5.589909	-0.011443	-5.589909	-40.413108	-93.127338
0.150000	-36.957289	-97.425991	-0.015934	-8.354876	-0.015934	-8.354876	-36.950768	-96.570320
0.200000	-34.487496	-100.842720	-0.020173	-11.117140	-0.020173	-11.117140	-34.480652	-99.704186
0.250000	-32.569441	-104.097033	-0.024441	-13.877017	-0.024441	-13.877017	-32.562638	-102.674512
0.300000	-31.003409	-107.265333	-0.028783	-16.635018	-0.028783	-16.635018	-30.996825	-105.558778
0.350000	-29.681757	-110.377071	-0.033200	-19.391699	-0.033200	-19.391699	-29.675494	-108.386681
0.400000	-28.539707	-113.449519	-0.037704	-22.147663	-0.037704	-22.147663	-28.533829	-111.175549
0.450000	-27.535443	-116.491840	-0.042315	-24.903403	-0.042315	-24.903403	-27.529995	-113.934532
0.500000	-26.640091	-119.511179	-0.047055	-27.659313	-0.047055	-27.659313	-26.635107	-116.670712
0.550000	-25.833048	-122.512158	-0.051940	-30.415669	-0.051940	-30.415669	-25.828556	-119.388637
0.600000	-25.099081	-125.498239	-0.056983	-33.172677	-0.056983	-33.172677	-25.095107	-122.091687
0.650000	-24.426673	-128.472056	-0.062193	-35.930505	-0.062193	-35.930505	-24.423245	-124.782411
0.700000	-23.806752	-131.436102	-0.067568	-38.689263	-0.067568	-38.689263	-23.803898	-127.463229
0.750000	-23.232075	-134.392483	-0.073103	-41.449016	-0.073103	-41.449016	-23.229823	-130.136193
0.800000	-22.696836	-137.342859	-0.078789	-44.209815	-0.078789	-44.209815	-22.695211	-132.802936
0.850000	-22.196398	-140.288517	-0.084625	-46.971734	-0.084625	-46.971734	-22.195428	-135.464733
0.900000	-21.726601	-143.230879	-0.090595	-49.734740	-0.090595	-49.734740	-21.726306	-138.123051
0.950000	-21.284170	-146.170846	-0.096696	-52.498873	-0.096696	-52.498873	-21.284568	-140.778854
1.000000	-20.866251	-149.109223	-0.102926	-55.264156	-0.102926	-55.264156	-20.867358	-143.433046
1.050000	-20.470386	-152.046650	-0.109283	-58.030628	-0.109283	-58.030628	-20.472215	-146.086404
1.100000	-20.094436	-154.983623	-0.115769	-60.798344	-0.115769	-60.798344	-20.096997	-148.739590
1.150000	-19.736522	-157.920507	-0.122389	-63.567386	-0.122389	-63.567386	-19.739820	-151.393173
1.200000	-19.394975	-160.857560	-0.129147	-66.337856	-0.129147	-66.337856	-19.399017	-154.047641
1.250000	-19.068306	-163.794947	-0.136050	-69.109881	-0.136050	-69.109881	-19.073096	-156.703420
1.300000	-18.755203	-166.732765	-0.143109	-71.883651	-0.143109	-71.883651	-18.760743	-159.360928
1.350000	-18.454400	-169.671029	-0.150327	-74.659299	-0.150327	-74.659299	-18.460693	-162.020473
1.400000	-18.164781	-172.609713	-0.157711	-77.437006	-0.157711	-77.437006	-18.171829	-164.682367
1.450000	-17.885320	-175.548756	-0.165269	-80.216965	-0.165269	-80.216965	-17.893125	-167.346912
1.500000	-17.615068	-178.488072	-0.173009	-82.999377	-0.173009	-82.999377	-17.623630	-170.014402
1.550000	-17.353143	178.572441	-0.180938	-85.784447	-0.180938	-85.784447	-17.362462	-172.685141
1.600000	-17.098724	175.632891	-0.189065	-88.572387	-0.189065	-88.572387	-17.108800	-175.359445
1.650000	-16.851043	172.693387	-0.197402	-91.363410	-0.197402	-91.363410	-16.861872	-178.037647
1.700000	-16.609380	169.754035	-0.205957	-94.157730	-0.205957	-94.157730	-16.620958	179.279897
1.750000	-16.373058	166.814928	-0.214744	-96.955562	-0.214744	-96.955562	-16.385377	176.592803
1.800000	-16.141445	163.876149	-0.223776	-99.757120	-0.223776	-99.757120	-16.154494	173.900663
1.850000	-15.913943	160.937767	-0.233069	-102.562616	-0.233069	-102.562616	-15.927709	171.203042
1.900000	-15.689965	157.999837	-0.242642	-105.372311	-0.242642	-105.372311	-15.704430	168.499407
1.950000	-15.468975	155.062393	-0.252515	-108.186419	-0.252515	-108.186419	-15.484118	165.789260
2.000000	-15.250509	152.125447	-0.262705	-111.005104	-0.262705	-111.005104	-15.266306	163.072161
2.050000	-15.034113	149.188996	-0.273234	-113.828568	-0.273234	-113.828568	-15.050535	160.347597
2.100000	-14.819364	146.253024	-0.284127	-116.657012	-0.284127	-116.657012	-14.836380	157.615047
2.150000	-14.605872	143.317499	-0.295411	-119.490632	-0.295411	-119.490632	-14.623449	154.873989
2.200000	-14.393280	140.382374	-0.307114	-122.329619	-0.307114	-122.329619	-14.411382	152.123910
2.250000	-14.181261	137.447592	-0.319266	-125.174161	-0.319266	-125.174161	-14.199852	149.364309
2.300000	-13.969520	134.513083	-0.331899	-128.024438	-0.331899	-128.024438	-13.988562	146.594707
2.350000	-13.757794	131.578769	-0.345050	-130.880627	-0.345050	-130.880627	-13.777250	143.814651
2.400000	-13.545848	128.644563	-0.358753	-133.742896	-0.358753	-133.742896	-13.565680	141.023723
2.450000	-13.333480	125.710369	-0.373049	-136.611407	-0.373049	-136.611407	-13.353652	138.221543
2.500000	-13.120515	122.776088	-0.387979	-139.486314	-0.387979	-139.486314	-13.140991	135.407774
2.550000	-12.906675	119.841606	-0.403603	-142.367906	-0.403603	-142.367906	-12.927419	132.581862
2.600000	-12.691970	116.906813	-0.419952	-145.256181	-0.419952	-145.256181	-12.712949	129.743825
2.650000	-12.476315	113.971596	-0.437075	-148.151260	-0.437075	-148.151260	-12.497495	126.893479
2.700000	-12.259647	111.035834	-0.455025	-151.053257	-0.455025	-151.053257	-12.280996	124.030697
2.750000	-12.041934	108.099407	-0.473854	-153.962272	-0.473854	-153.962272	-12.063420	121.155404
2.800000	-11.823165	105.162192	-0.493618	-156.878388	-0.493618	-156.878388	-11.844757	118.267581
2.850000	-11.603356	102.224065	-0.514376	-159.801675	-0.514376	-159.801675	-11.625022	115.367261
2.900000	-11.382544	99.284902	-0.536188	-162.732187	-0.536188	-162.732187	-11.404253	112.454531
2.950000	-11.160789	96.344580	-0.559119	-165.669957	-0.559119	-165.669957	-11.182509	109.529527
3.000000	-10.938171	93.402979	-0.583234	-168.614998	-0.583234	-168.614998	-10.959869	106.592436
3.050000	-10.714791	90.459981	-0.608602	-171.567302	-0.608602	-171.567302	-10.736433	103.643489
3.100000	-10.490765	87.515476	-0.635293	-174.526837	-0.635293	-174.526837	-10.512318	100.682965
3.150000	-10.266161	84.569342	-0.663394	-177.493620	-0.663394	-177.493620	-10.287589	97.711063
3.200000	-10.041135	81.621484	-0.692983	179.532438	-0.692983	179.532438	-10.062401	94.728159
3.250000	-9.815921	78.671840	-0.724122	176.551535	-0.724122	176.551535	-9.836989	91.734777
3.300000	-9.590698	75.720346	-0.756889	173.563822	-0.756889	173.563822	-9.611531	88.731356
3.350000	-9.365813	72.767014	-0.791316	170.569671	-0.791316	170.569671	-9.386376	85.718634
3.400000	-9.141125	69.811704	-0.827583	167.568901	-0.827583	167.568901	-9.161380	82.696548
3.450000	-8.917027	66.854479	-0.865720	164.561989	-0.865720	164.561989	-8.936938	79.665956
3.500000	-8.693735	63.895372	-0.905807	161.549236	-0.905807	161.549236	-8.713266	76.627435
3.550000	-8.471470	60.934445	-0.947927	158.530985	-0.947927	158.530985	-8.490587	73.581599
3.600000	-8.250456	57.971797	-0.992159	155.507620	-0.992159	155.507620	-8.269128	70.529091
3.650000	-8.030922	55.007565	-1.038583	152.479571	-1.038583	152.479571	-8.049119	67.470589
3.700000	-7.813098	52.041924	-1.087276	149.447311	-1.087276	149.447311	-7.830790	64.406805
3.750000	-7.597212	49.075094	-1.138312	146.411360	-1.138312	146.411360	-7.614374	61.338482
3.800000	-7.383450	46.107332	-1.191794	143.372245	-1.191794	143.372245	-7.400059	58.266355
3.850000	-7.172089	43.138966	-1.247761	140.330630	-1.247761	140.330630	-7.188123	55.191301
3.900000	-6.963348	40.170358	-1.306275	137.287171	-1.306275	137.287171	-6.978789	52.114159
3.950000	-6.757443	37.201915	-1.367394	134.242564	-1.367394	134.242564	-6.772275	49.035803
4.000000	-6.554580	34.234091	-1.431171	131.197544	-1.431171	131.197544	-6.568790	45.957132
4.050000	-6.354958	31.267388	-1.497652	128.152886	-1.497652	128.152886	-6.368536	42.879074
4.100000	-6.158768	28.302349	-1.566874	125.109397	-1.566874	125.109397	-6.171705	39.802580
4.150000	-5.966189	25.339562	-1.638869	122.067917	-1.638869	122.067917	-5.978477	36.728623
4.200000	-5.777387	22.379686	-1.713680	119.029347	-1.713680	119.029347	-5.789022	33.658236
4.250000	-5.592527	19.423380	-1.791310	115.994579	-1.791310	115.994579	-5.603504	30.592427
4.300000	-5.411752	16.471320	-1.871751	112.964504	-1.871751	112.964504	-5.422068	27.532192
4.350000	-5.235190	13.524223	-1.955000	109.940038	-1.955000	109.940038	-5.244844	24.478549
4.400000	-5.062954	10.582820	-2.041039	106.922101	-2.041039	106.922101	-5.071945	21.432514
4.450000	-4.895143	7.647859	-2.129845	103.911615	-2.129845	103.911615	-4.903469	18.395094
4.500000	-4.731839	4.720091	-2.221383	100.909494	-2.221383	100.909494	-4.739500	15.367288
4.550000	-4.573112	1.800269	-2.315606	97.916638	-2.315606	97.916638	-4.580107	12.350071
4.600000	-4.419141	-1.110271	-2.412552	94.934623	-2.412552	94.934623	-4.425467	9.345182
4.650000	-4.269646	-4.012284	-2.511921	91.962571	-2.511921	91.962571	-4.275304	6.351575
4.700000	-4.125026	-6.903319	-2.613887	89.003343	-2.613887	89.003343	-4.130012	3.372437
4.750000	-3.984981	-9.784102	-2.718196	86.056085	-2.718196	86.056085	-3.989294	0.406760
4.800000	-3.849694	-12.653131	-2.824844	83.122545	-2.824844	83.122545	-3.853331	-2.543539
4.850000	-3.719096	-15.510025	-2.933713	80.203158	-2.933713	80.203158	-3.722051	-5.478012
4.900000	-3.593050	-18.354704	-3.044667	77.298015	-3.044667	77.298015	-3.595321	-8.396596
4.950000	-3.471784	-21.185407	-3.157653	74.409166	-3.157653	74.409166	-3.473364	-11.297042
5.000000	-3.354797	-24.003756	-3.272485	71.534726	-3.272485	71.534726	-3.355684	-14.181477
5.050000	-3.242503	-26.807116	-3.389096	68.677778	-3.389096	68.677778	-3.242688	-17.046508
5.100000	-3.134621	-29.596124	-3.507332	65.837599	-3.507332	65.837599	-3.134098	-19.892964
5.150000	-3.031067	-32.370512	-3.627062	63.014530	-3.627062	63.014530	-3.029831	-22.720487
5.200000	-2.931754	-35.130077	-3.748156	60.208849	-3.748156	60.208849	-2.929797	-25.528792
5.250000	-2.836585	-37.874684	-3.870480	57.420764	-3.870480	57.420764	-2.833901	-28.317661
5.300000	-2.745462	-40.604265	-3.993901	54.650415	-3.993901	54.650415	-2.742042	-31.086947
5.350000	-2.658278	-43.318820	-4.118285	51.897877	-4.118285	51.897877	-2.654118	-33.836575
5.400000	-2.574928	-46.018419	-4.243500	49.163157	-4.243500	49.163157	-2.570018	-36.566534
5.450000	-2.495299	-48.703196	-4.369416	46.446198	-4.369416	46.446198	-2.489633	-39.276883
5.500000	-2.419281	-51.373353	-4.495904	43.746878	-4.495904	43.746878	-2.412851	-41.967746
5.550000	-2.346760	-54.029157	-4.622839	41.065009	-4.622839	41.065009	-2.339559	-44.639308
5.600000	-2.277622	-56.670937	-4.750101	38.400348	-4.750101	38.400348	-2.269643	-47.291818
5.650000	-2.211783	-59.298944	-4.877554	35.752766	-4.877554	35.752766	-2.203017	-49.925383
5.700000	-2.149129	-61.913645	-5.005082	33.121887	-5.005082	33.121887	-2.139567	-52.540378
5.750000	-2.089517	-64.515704	-5.132598	30.507105	-5.132598	30.507105	-2.079151	-55.137429
5.800000	-2.032837	-67.105690	-5.260002	27.907943	-5.260002	27.907943	-2.021658	-57.717007
5.850000	-1.978981	-69.684229	-5.387202	25.323877	-5.387202	25.323877	-1.966979	-60.279633
5.900000	-1.927843	-72.251997	-5.514113	22.754330	-5.514113	22.754330	-1.915006	-62.825875
5.950000	-1.879318	-74.809724	-5.640655	20.198681	-5.640655	20.198681	-1.865636	-65.356343
6.000000	-1.833305	-77.358187	-5.766758	17.656262	-5.766758	17.656262	-1.818765	-67.871695
6.050000	-1.789706	-79.898213	-5.892360	15.126362	-5.892360	15.126362	-1.774295	-70.372624
6.100000	-1.748426	-82.430676	-6.017408	12.608229	-6.017408	12.608229	-1.732127	-72.859867
6.150000	-1.709369	-84.956497	-6.141858	10.101071	-6.141858	10.101071	-1.692167	-75.334196
6.200000	-1.672448	-87.476642	-6.265675	7.604055	-6.265675	7.604055	-1.654324	-77.796422
6.250000	-1.637573	-89.992124	-6.388836	5.116313	-6.388836	5.116313	-1.618508	-80.247390
6.300000	-1.604698	-92.503948	-6.511273	2.637099	-6.511273	2.637099	-1.584670	-82.687778
6.350000	-1.573701	-95.013324	-6.633038	0.165267	-6.633038	0.165267	-1.552686	-85.118750
6.400000	-1.544501	-97.521408	-6.754142	-2.300162	-6.754142	-2.300162	-1.522474	-87.541260
6.450000	-1.517022	-100.029400	-6.874607	-4.760202	-6.874607	-4.760202	-1.493955	-89.956298
6.500000	-1.491189	-102.538553	-6.994469	-7.215899	-6.994469	-7.215899	-1.467053	-92.364889
6.550000	-1.466929	-105.050169	-7.113779	-9.668336	-7.113779	-9.668336	-1.441693	-94.768096
6.600000	-1.444174	-107.565602	-7.232601	-12.118625	-7.232601	-12.118625	-1.417802	-97.167017
6.650000	-1.422854	-110.086262	-7.351017	-14.567916	-7.351017	-14.567916	-1.395311	-99.562793
6.700000	-1.402903	-112.613616	-7.469127	-17.017389	-7.469127	-17.017389	-1.374150	-101.956603
6.750000	-1.384258	-115.149191	-7.587049	-19.468259	-7.587049	-19.468259	-1.354254	-104.349673
6.800000	-1.366854	-117.694578	-7.704920	-21.921773	-7.704920	-21.921773	-1.335556	-106.743270
6.850000	-1.350630	-120.251435	-7.822901	-24.379212	-7.822901	-24.379212	-1.317993	-109.138713
6.900000	-1.335538	-122.821657	-7.941165	-26.841961	-7.941165	-26.841961	-1.301513	-111.537422
6.950000	-1.321517	-125.407112	-8.059933	-29.311414	-8.059933	-29.311414	-1.286054	-113.940872
7.000000	-1.308498	-128.009549	-8.179460	-31.788893	-8.179460	-31.788893	-1.271545	-116.350518
7.050000	-1.296424	-130.630946	-8.300022	-34.275806	-8.300022	-34.275806	-1.257928	-118.767910
7.100000	-1.285240	-133.273370	-8.421932	-36.773592	-8.421932	-36.773592	-1.245145	-121.194668
7.150000	-1.274892	-135.938989	-8.545543	-39.283713	-8.545543	-39.283713	-1.233141	-123.632487
7.200000	-1.265328	-138.630069	-8.671251	-41.807653	-8.671251	-41.807653	-1.221862	-126.083139
7.250000	-1.256496	-141.348989	-8.799505	-44.346910	-8.799505	-44.346910	-1.211255	-128.548482
7.300000	-1.248345	-144.098241	-8.930813	-46.902995	-8.930813	-46.902995	-1.201269	-131.030466
7.350000	-1.240827	-146.880439	-9.065743	-49.477414	-9.065743	-49.477414	-1.191854	-133.531138
7.400000	-1.233895	-149.698329	-9.204942	-52.071664	-9.204942	-52.071664	-1.182963	-136.052652
7.450000	-1.227506	-152.554787	-9.349137	-54.687209	-9.349137	-54.687209	-1.174553	-138.597275
7.500000	-1.221616	-155.452835	-9.499152	-57.325465	-9.499152	-57.325465	-1.166581	-141.167396
7.550000	-1.216197	-158.396690	-9.656029	-59.988319	-9.656029	-59.988319	-1.159019	-143.766206
7.600000	-1.211203	-161.388784	-9.820763	-62.676489	-9.820763	-62.676489	-1.151823	-146.395819
7.650000	-1.206605	-164.432609	-9.994572	-65.391018	-9.994572	-65.391018	-1.144967	-149.059053
7.700000	-1.202379	-167.531819	-10.178846	-68.132717	-10.178846	-68.132717	-1.138431	-151.758886
7.750000	-1.198510	-170.690234	-10.375180	-70.902081	-10.375180	-70.902081	-1.132202	-154.498458
7.800000	-1.194989	-173.911838	-10.585406	-73.699174	-10.585406	-73.699174	-1.126279	-157.281091
7.850000	-1.191820	-177.200779	-10.811645	-76.523486	-10.811645	-76.523486	-1.120671	-160.110287
7.900000	-1.189017	179.438638	-11.056356	-79.373729	-11.056356	-79.373729	-1.115403	-162.989741
7.950000	-1.186612	176.001960	-11.322411	-82.247564	-11.322411	-82.247564	-1.110515	-165.923342
8.000000	-1.184654	172.484599	-11.613179	-85.141237	-11.613179	-85.141237	-1.106069	-168.915181
8.050000	-1.183213	168.881857	-11.932643	-88.049057	-11.932643	-88.049057	-1.102149	-171.969547
8.100000	-1.182383	165.188946	-12.285545	-90.962671	-12.285545	-90.962671	-1.098871	-175.090922
8.150000	-1.182298	161.399948	-12.677860	-93.869758	-12.677860	-93.869758	-1.096390	-178.284811
8.200000	-1.183125	157.509865	-13.116600	-96.752157	-13.116600	-96.752157	-1.094899	178.443779
8.250000	-1.185054	153.514964	-13.609977	-99.584341	-13.609977	-99.584341	-1.094621	175.090641
8.300000	-1.188331	149.410625	-14.168463	-102.329108	-14.168463	-102.329108	-1.095839	171.650683
8.350000	-1.193195	145.195873	-14.803965	-104.937839	-14.803965	-104.937839	-1.098829	168.121574
8.400000	-1.200106	140.859517	-15.535484	-107.317943	-15.535484	-107.317943	-1.104116	164.492362
8.450000	-1.209426	136.401704	-16.382918	-109.346201	-16.382918	-109.346201	-1.112114	160.761012
8.500000	-1.221632	131.819520	-17.373075	-110.818274	-17.373075	-110.818274	-1.123370	156.922717
8.550000	-1.237268	127.110866	-18.538927	-111.393210	-18.538927	-111.393210	-1.138506	152.973016
8.600000	-1.256949	122.274658	-19.916103	-110.476811	-19.916103	-110.476811	-1.158223	148.907946
8.650000	-1.281353	117.311037	-21.522795	-107.000655	-21.522795	-107.000655	-1.183292	144.724214
8.700000	-1.311216	112.221601	-23.279151	-99.109269	-23.279151	-99.109269	-1.214553	140.419399
8.750000	-1.347321	107.009634	-24.769875	-84.466491	-24.769875	-84.466491	-1.252896	135.992155
8.800000	-1.390588	101.678738	-25.031627	-63.997523	-25.031627	-63.997523	-1.299363	131.440668
8.850000	-1.441738	96.238096	-23.694738	-45.756945	-23.694738	-45.756945	-1.354772	126.768214
8.900000	-1.501548	90.697369	-21.618636	-34.773307	-21.618636	-34.773307	-1.419999	121.977950
8.950000	-1.570719	85.068550	-19.533569	-29.772871	-19.533569	-29.772871	-1.495836	117.074804
9.000000	-1.649835	79.365939	-17.667453	-28.465850	-17.667453	-28.465850	-1.582942	112.065503
9.050000	-1.739311	73.605991	-16.042308	-29.366895	-16.042308	-29.366895	-1.681797	106.958519
9.100000	-1.839352	67.807029	-14.630244	-31.639233	-14.630244	-31.639233	-1.792651	101.763897
9.150000	-1.949913	61.988804	-13.398137	-34.804536	-13.398137	-34.804536	-1.915498	96.492987
9.200000	-2.070753	56.172150	-12.317624	-38.578702	-12.317624	-38.578702	-2.050133	91.157580
9.250000	-2.201219	50.378254	-11.366015	-42.772953	-11.366015	-42.772953	-2.195923	85.771020
9.300000	-2.340430	44.627287	-10.525000	-47.262546	-10.525000	-47.262546	-2.352001	80.346400
9.350000	-2.487367	38.938135	-9.779811	-51.961611	-9.779811	-51.961611	-2.517369	74.896063
9.400000	-2.640925	33.327823	-9.118277	-56.807888	-9.118277	-56.807888	-2.690932	69.431549
9.450000	-2.800005	27.810460	-8.529956	-61.755243	-8.529956	-61.755243	-2.871592	63.963332
9.500000	-2.963687	22.399970	-8.006452	-66.771384	-8.006452	-66.771384	-3.058435	58.500885
9.550000	-3.131268	17.109308	-7.540618	-71.832907	-7.540618	-71.832907	-3.250777	53.053319
9.600000	-3.302404	11.940965	-7.124282	-76.923014	-7.124282	-76.923014	-3.448298	47.627643
9.650000	-3.477208	6.905284	-6.752252	-82.034892	-6.752252	-82.034892	-3.651283	42.232147
9.700000	-3.656255	2.011507	-6.419779	-87.167412	-6.419779	-87.167412	-3.860639	36.876229
9.750000	-3.840648	-2.728090	-6.123169	-92.325817	-6.123169	-92.325817	-4.078093	31.572530
9.800000	-4.031871	-7.304929	-5.858741	-97.519544	-5.858741	-97.519544	-4.306043	26.335502
9.850000	-4.231792	-11.702176	-5.624591	-102.762708	-5.624591	-102.762708	-4.547700	21.186880
9.900000	-4.442494	-15.896072	-5.420122	-108.072337	-5.420122	-108.072337	-4.806960	16.157601
9.950000	-4.666001	-19.852860	-5.246219	-113.466548	-5.246219	-113.466548	-5.088157	11.291678
10.000000	-4.903724	-23.524810	-5.105412	-118.961955	-5.105412	-118.961955	-5.395528	6.651140
