! freq	dB(S11)	phase(S11)	dB(S12)	phase(S12)	
!     	dB(S21)	phase(S21)	dB(S22)	phase(S22)	
!S-par simulation data
#  GHz  S  DB  R 50
0.000000	-0.000000	0.000000	-369.382019	180.000000	-369.382019	180.000000	-0.000000	-0.000000
0.050000	-0.000105	-0.806185	-116.439560	88.440563	-116.439560	88.440563	-0.000105	-0.806203
0.100000	-0.000416	-1.612111	-110.557593	87.229576	-110.557593	87.229576	-0.000414	-1.612148
0.150000	-0.000919	-2.417539	-107.209614	86.372240	-107.209614	86.372240	-0.000915	-2.417599
0.200000	-0.001592	-3.222276	-104.901786	85.732288	-104.901786	85.732288	-0.001586	-3.222365
0.250000	-0.002421	-4.026106	-103.180054	85.223144	-103.180054	85.223144	-0.002413	-4.026229
0.300000	-0.003366	-4.828999	-101.834908	84.797704	-101.834908	84.797704	-0.003356	-4.829160
0.350000	-0.004408	-5.630849	-100.767434	84.459375	-100.767434	84.459375	-0.004395	-5.631053
0.400000	-0.005521	-6.431624	-99.917870	84.224484	-99.917870	84.224484	-0.005507	-6.431874
0.450000	-0.006685	-7.231322	-99.249370	84.121619	-99.249370	84.121619	-0.006670	-7.231618
0.500000	-0.007881	-8.029960	-98.738508	84.190230	-98.738508	84.190230	-0.007866	-8.030304
0.550000	-0.009094	-8.827571	-98.370424	84.482462	-98.370424	84.482462	-0.009079	-8.827963
0.600000	-0.010313	-9.624196	-98.136061	85.067501	-98.136061	85.067501	-0.010298	-9.624634
0.650000	-0.011529	-10.419875	-98.030351	86.038651	-98.030351	86.038651	-0.011515	-10.420359
0.700000	-0.012735	-11.214650	-98.050616	87.524044	-98.050616	87.524044	-0.012723	-11.215176
0.750000	-0.013928	-12.008556	-98.194487	89.702151	-98.194487	89.702151	-0.013918	-12.009123
0.800000	-0.015106	-12.801623	-98.456248	92.822568	-98.456248	92.822568	-0.015097	-12.802228
0.850000	-0.016268	-13.593876	-98.819641	97.228128	-98.819641	97.228128	-0.016260	-13.594518
0.900000	-0.017412	-14.385333	-99.244104	103.358995	-99.244104	103.358995	-0.017406	-14.386009
0.950000	-0.018540	-15.176006	-99.642342	111.681954	-99.642342	111.681954	-0.018535	-15.176715
1.000000	-0.019653	-15.965902	-99.858483	122.443546	-99.858483	122.443546	-0.019649	-15.966642
1.050000	-0.020751	-16.755023	-99.686613	135.219686	-99.686613	135.219686	-0.020749	-16.755794
1.100000	-0.021837	-17.543367	-98.977685	148.615354	-98.977685	148.615354	-0.021835	-17.544167
1.150000	-0.022910	-18.330928	-97.765074	160.803531	-97.765074	160.803531	-0.022909	-18.331758
1.200000	-0.023972	-19.117699	-96.235279	170.638760	-96.235279	170.638760	-0.023972	-19.118558
1.250000	-0.025026	-19.903669	-94.583511	177.995932	-94.583511	177.995932	-0.025026	-19.904556
1.300000	-0.026070	-20.688789	-92.924599	-176.778158	-92.924599	-176.778158	-0.026072	-20.689705
1.350000	-0.027108	-21.473079	-91.333404	-173.080009	-91.333404	-173.080009	-0.027110	-21.474024
1.400000	-0.028140	-22.256525	-89.830164	-170.509754	-89.830164	-170.509754	-0.028142	-22.257498
1.450000	-0.029166	-23.039110	-88.417756	-168.772500	-88.417756	-168.772500	-0.029168	-23.040112
1.500000	-0.030189	-23.820817	-87.091699	-167.657106	-87.091699	-167.657106	-0.030191	-23.821848
1.550000	-0.031207	-24.601629	-85.844897	-167.012983	-85.844897	-167.012983	-0.031209	-24.602689
1.600000	-0.032223	-25.381528	-84.669753	-166.731871	-84.669753	-166.731871	-0.032225	-25.382618
1.650000	-0.033236	-26.160496	-83.559051	-166.734908	-83.559051	-166.734908	-0.033238	-26.161616
1.700000	-0.034247	-26.938177	-82.482132	-167.022050	-82.482132	-167.022050	-0.034249	-26.939328
1.750000	-0.035257	-27.715357	-81.492199	-167.411011	-81.492199	-167.411011	-0.035259	-27.716538
1.800000	-0.036267	-28.491330	-80.534619	-167.968072	-80.534619	-167.968072	-0.036268	-28.492542
1.850000	-0.037276	-29.266440	-79.627857	-168.645203	-79.627857	-168.645203	-0.037277	-29.267683
1.900000	-0.038285	-30.040478	-78.756813	-169.420760	-78.756813	-169.420760	-0.038286	-30.041752
1.950000	-0.039294	-30.813442	-77.919766	-170.294742	-77.919766	-170.294742	-0.039295	-30.814748
2.000000	-0.040303	-31.585482	-77.120482	-171.227057	-77.120482	-171.227057	-0.040305	-31.586819
2.050000	-0.041314	-32.356225	-76.342660	-172.241038	-76.342660	-172.241038	-0.041315	-32.357594
2.100000	-0.042326	-33.126205	-75.603839	-173.289311	-75.603839	-173.289311	-0.042327	-33.127606
2.150000	-0.043340	-33.894656	-74.876991	-174.406168	-74.876991	-174.406168	-0.043341	-33.896089
2.200000	-0.044356	-34.662516	-74.189845	-175.542436	-74.189845	-175.542436	-0.044357	-34.663981
2.250000	-0.045375	-35.428605	-73.507391	-176.736940	-73.507391	-176.736940	-0.045375	-35.430101
2.300000	-0.046394	-36.194288	-72.864957	-177.941428	-72.864957	-177.941428	-0.046395	-36.195817
2.350000	-0.047419	-36.957947	-72.221575	-179.195842	-72.221575	-179.195842	-0.047420	-36.959508
2.400000	-0.048445	-37.721398	-71.618247	179.545822	-71.618247	179.545822	-0.048446	-37.722991
2.450000	-0.049477	-38.482563	-71.009571	178.244334	-71.009571	178.244334	-0.049478	-38.484188
2.500000	-0.050509	-39.243728	-70.440769	176.942845	-70.440769	176.942845	-0.050510	-39.245385
2.550000	-0.051551	-40.002339	-69.863170	175.603803	-69.863170	175.603803	-0.051552	-40.004027
2.600000	-0.052592	-40.760950	-69.321597	174.264761	-69.321597	174.264761	-0.052593	-40.762670
2.650000	-0.053642	-41.517165	-68.775531	172.897910	-68.775531	172.897910	-0.053644	-41.518917
2.700000	-0.054694	-42.273164	-68.258672	171.528532	-68.258672	171.528532	-0.054695	-42.274947
2.750000	-0.055755	-43.026939	-67.740885	170.138519	-67.740885	170.138519	-0.055757	-43.028753
2.800000	-0.056819	-43.780269	-67.246584	168.744379	-67.246584	168.744379	-0.056820	-43.782115
2.850000	-0.057892	-44.531560	-66.754320	167.334953	-66.754320	167.334953	-0.057894	-44.533437
2.900000	-0.058969	-45.282171	-66.280713	165.920431	-66.280713	165.920431	-0.058971	-45.284078
2.950000	-0.060055	-46.030936	-65.811613	164.494649	-65.811613	164.494649	-0.060058	-46.032875
3.000000	-0.061147	-46.778779	-65.357077	163.063236	-65.357077	163.063236	-0.061149	-46.780748
3.050000	-0.062248	-47.524981	-64.909105	161.623615	-64.909105	161.623615	-0.062251	-47.526980
3.100000	-0.063357	-48.270010	-64.472215	160.178130	-64.472215	160.178130	-0.063359	-48.272040
3.150000	-0.064474	-49.013611	-64.043604	158.726762	-64.043604	158.726762	-0.064477	-49.015671
3.200000	-0.065600	-49.755784	-63.623101	157.269509	-63.623101	157.269509	-0.065603	-49.757875
3.250000	-0.066735	-50.496752	-63.212300	155.808147	-63.212300	155.808147	-0.066738	-50.498872
3.300000	-0.067881	-51.236030	-62.807066	154.341029	-62.807066	154.341029	-0.067884	-51.238181
3.350000	-0.069034	-51.974332	-62.412713	152.871152	-62.412713	152.871152	-0.069038	-51.976513
3.400000	-0.070202	-52.710681	-62.021748	151.395757	-62.021748	151.395757	-0.070206	-52.712891
3.450000	-0.071376	-53.446288	-61.642637	149.918625	-61.642637	149.918625	-0.071379	-53.448528
3.500000	-0.072567	-54.179674	-61.265043	148.436286	-61.265043	148.436286	-0.072570	-54.181943
3.550000	-0.073762	-54.912562	-60.900097	146.952978	-60.900097	146.952978	-0.073766	-54.914860
3.600000	-0.074978	-55.642956	-60.535066	145.464826	-60.535066	145.464826	-0.074982	-55.645284
3.650000	-0.076196	-56.373099	-60.183325	143.976270	-60.183325	143.976270	-0.076200	-56.375456
3.700000	-0.077438	-57.100477	-59.830123	142.483271	-59.830123	142.483271	-0.077442	-57.102862
3.750000	-0.078681	-57.827854	-59.490723	140.990272	-59.490723	140.990272	-0.078685	-57.830269
3.800000	-0.079952	-58.552193	-59.148683	139.493257	-59.148683	139.493257	-0.079956	-58.554637
3.850000	-0.081222	-59.276531	-58.819603	137.996241	-58.819603	137.996241	-0.081227	-59.279004
3.900000	-0.082521	-59.998067	-58.489360	136.496202	-58.489360	136.496202	-0.082525	-60.000569
3.950000	-0.083822	-60.719348	-58.170061	134.995888	-58.170061	134.995888	-0.083826	-60.721878
4.000000	-0.085149	-61.438068	-57.850892	133.493344	-57.850892	133.493344	-0.085154	-61.440627
4.050000	-0.086482	-62.156276	-57.540878	131.990355	-57.540878	131.990355	-0.086487	-62.158864
4.100000	-0.087840	-62.872170	-57.232127	130.485769	-57.232127	130.485769	-0.087845	-62.874786
4.150000	-0.089207	-63.587293	-56.930943	128.980650	-56.930943	128.980650	-0.089212	-63.589938
4.200000	-0.090597	-64.300353	-56.632012	127.474431	-56.632012	127.474431	-0.090602	-64.303027
4.250000	-0.091999	-65.012382	-56.339236	125.967662	-56.339236	125.967662	-0.092004	-65.015085
4.300000	-0.093422	-65.722604	-56.049577	124.460178	-56.049577	124.460178	-0.093427	-65.725335
4.350000	-0.094861	-66.431534	-55.764821	122.952182	-55.764821	122.952182	-0.094866	-66.434293
4.400000	-0.096320	-67.138914	-55.483933	121.443760	-55.483933	121.443760	-0.096325	-67.141702
4.450000	-0.097798	-67.844743	-55.206835	119.934911	-55.206835	119.934911	-0.097802	-67.847559
4.500000	-0.099292	-68.549281	-54.934257	118.425847	-54.934257	118.425847	-0.099297	-68.552126
4.550000	-0.100811	-69.252010	-54.664480	116.916481	-54.664480	116.916481	-0.100816	-69.254884
4.600000	-0.102344	-69.953708	-54.399788	115.407041	-54.399788	115.407041	-0.102348	-69.956610
4.650000	-0.103905	-70.653342	-54.137019	113.897454	-54.137019	113.897454	-0.103909	-70.656272
4.700000	-0.105477	-71.352204	-53.879821	112.387880	-53.879821	112.387880	-0.105481	-71.355163
4.750000	-0.107082	-72.048751	-53.623768	110.878341	-53.623768	110.878341	-0.107086	-72.051738
4.800000	-0.108694	-72.744784	-53.373701	109.368852	-53.373701	109.368852	-0.108699	-72.747800
4.850000	-0.110345	-73.438254	-53.124090	107.859603	-53.124090	107.859603	-0.110350	-73.441297
4.900000	-0.112000	-74.131467	-52.880819	106.350397	-52.880819	106.350397	-0.112005	-74.134540
4.950000	-0.113699	-74.821873	-52.637394	104.841657	-52.637394	104.841657	-0.113704	-74.824974
5.000000	-0.115398	-75.512279	-52.400606	103.332917	-52.400606	103.332917	-0.115403	-75.515408
5.050000	-0.117146	-76.199638	-52.163127	101.824885	-52.163127	101.824885	-0.117151	-76.202795
5.100000	-0.118894	-76.886997	-51.931968	100.316852	-51.931968	100.316852	-0.118899	-76.890183
5.150000	-0.120689	-77.571581	-51.700772	98.809634	-51.700772	98.809634	-0.120694	-77.574795
5.200000	-0.122489	-78.255913	-51.475036	97.302490	-51.475036	97.302490	-0.122493	-78.259156
5.250000	-0.124332	-78.937741	-51.249844	95.796224	-51.249844	95.796224	-0.124337	-78.941012
5.300000	-0.126185	-79.619068	-51.029336	94.290134	-51.029336	94.290134	-0.126189	-79.622368
5.350000	-0.128078	-80.298161	-50.809892	92.784949	-50.809892	92.784949	-0.128083	-80.301489
5.400000	-0.129985	-80.976509	-50.594427	91.280066	-50.594427	91.280066	-0.129990	-80.979865
5.450000	-0.131930	-81.652889	-50.380488	89.776081	-50.380488	89.776081	-0.131934	-81.656274
5.500000	-0.133893	-82.328286	-50.169892	88.272546	-50.169892	88.272546	-0.133898	-82.331699
5.550000	-0.135891	-83.001979	-49.961232	86.769871	-49.961232	86.769871	-0.135896	-83.005420
5.600000	-0.137913	-83.674455	-49.755340	85.267813	-49.755340	85.267813	-0.137918	-83.677924
5.650000	-0.139965	-84.345487	-49.551746	83.766553	-49.551746	83.766553	-0.139970	-84.348985
5.700000	-0.142046	-85.015075	-49.350402	82.266091	-49.350402	82.266091	-0.142051	-85.018602
5.750000	-0.144154	-85.683476	-49.151674	80.766342	-49.151674	80.766342	-0.144159	-85.687031
5.800000	-0.146298	-86.350213	-48.954729	79.267590	-48.954729	79.267590	-0.146303	-86.353796
5.850000	-0.148462	-87.016013	-48.760679	77.769443	-48.760679	77.769443	-0.148468	-87.019624
5.900000	-0.150669	-87.679937	-48.567992	76.272504	-48.567992	76.272504	-0.150675	-87.683577
5.950000	-0.152893	-88.343168	-48.378443	74.776042	-48.378443	74.776042	-0.152898	-88.346836
6.000000	-0.155165	-89.004319	-48.189879	73.281014	-48.189879	73.281014	-0.155170	-89.008016
6.050000	-0.157449	-89.665016	-48.004664	71.786318	-48.004664	71.786318	-0.157454	-89.668741
6.100000	-0.159788	-90.323439	-47.820095	70.293289	-47.820095	70.293289	-0.159793	-90.327192
6.150000	-0.162133	-90.981638	-47.639056	68.800434	-47.639056	68.800434	-0.162139	-90.985420
6.200000	-0.164541	-91.637376	-47.458361	67.309490	-47.458361	67.309490	-0.164547	-91.641187
6.250000	-0.166949	-92.293115	-47.281348	65.818545	-47.281348	65.818545	-0.166955	-92.296954
6.300000	-0.169427	-92.946218	-47.104408	64.329762	-47.104408	64.329762	-0.169433	-92.950086
6.350000	-0.171906	-93.599321	-46.931001	62.840978	-46.931001	62.840978	-0.171912	-93.603217
6.400000	-0.174450	-94.250053	-46.757984	61.354243	-46.757984	61.354243	-0.174456	-94.253977
6.450000	-0.177001	-94.900569	-46.588079	59.867693	-46.588079	59.867693	-0.177007	-94.904522
6.500000	-0.179613	-95.548973	-46.418848	58.383060	-46.418848	58.383060	-0.179619	-95.552956
6.550000	-0.182237	-96.196956	-46.252344	56.898810	-46.252344	56.898810	-0.182243	-96.200967
6.600000	-0.184918	-96.843078	-46.086769	55.416330	-46.086769	55.416330	-0.184924	-96.847117
6.650000	-0.187618	-97.488580	-45.923571	53.934440	-45.923571	53.934440	-0.187624	-97.492648
6.700000	-0.190369	-98.132466	-45.761527	52.454160	-45.761527	52.454160	-0.190376	-98.136563
6.750000	-0.193146	-98.775543	-45.601542	50.974685	-45.601542	50.974685	-0.193153	-98.779670
6.800000	-0.195969	-99.417241	-45.442913	49.496646	-45.442913	49.496646	-0.195976	-99.421397
6.850000	-0.198825	-100.057953	-45.286052	48.019634	-45.286052	48.019634	-0.198831	-100.062138
6.900000	-0.201721	-100.697512	-45.130726	46.543875	-45.130726	46.543875	-0.201728	-100.701726
6.950000	-0.204657	-101.335918	-44.976903	45.069368	-44.976903	45.069368	-0.204664	-101.340161
7.000000	-0.207627	-101.973389	-44.824772	43.595921	-44.824772	43.595921	-0.207634	-101.977661
7.050000	-0.210646	-102.609550	-44.673905	42.123956	-44.673905	42.123956	-0.210653	-102.613852
7.100000	-0.213692	-103.244985	-44.524868	40.652848	-44.524868	40.652848	-0.213699	-103.249317
7.150000	-0.216794	-103.878967	-44.376878	39.183455	-44.376878	39.183455	-0.216801	-103.883328
7.200000	-0.219917	-104.512419	-44.230837	37.714711	-44.230837	37.714711	-0.219924	-104.516811
7.250000	-0.223104	-105.144286	-44.085647	36.247912	-44.085647	36.247912	-0.223111	-105.148708
7.300000	-0.226306	-105.775811	-43.942509	34.781548	-43.942509	34.781548	-0.226313	-105.780263
7.350000	-0.229579	-106.405630	-43.800045	33.317359	-43.800045	33.317359	-0.229587	-106.410113
7.400000	-0.232861	-107.035285	-43.659722	31.853389	-43.659722	31.853389	-0.232868	-107.039798
7.450000	-0.236222	-107.663126	-43.519913	30.391818	-43.519913	30.391818	-0.236230	-107.667669
7.500000	-0.239585	-108.290967	-43.382319	28.930248	-43.382319	28.930248	-0.239593	-108.295541
7.550000	-0.243036	-108.916900	-43.245096	27.471296	-43.245096	27.471296	-0.243044	-108.921506
7.600000	-0.246489	-109.542834	-43.110007	26.012345	-43.110007	26.012345	-0.246497	-109.547471
7.650000	-0.250024	-110.167085	-42.975447	24.555788	-42.975447	24.555788	-0.250031	-110.171754
7.700000	-0.253567	-110.791184	-42.842801	23.099448	-42.842801	23.099448	-0.253575	-110.795885
7.750000	-0.257187	-111.413815	-42.710824	21.645271	-42.710824	21.645271	-0.257195	-111.418549
7.800000	-0.260823	-112.036153	-42.580560	20.191527	-42.580560	20.191527	-0.260831	-112.040919
7.850000	-0.264529	-112.657228	-42.451091	18.739711	-42.451091	18.739711	-0.264537	-112.662027
7.900000	-0.268259	-113.277881	-42.323152	17.288539	-42.323152	17.288539	-0.268267	-113.282713
7.950000	-0.272052	-113.897463	-42.196119	15.839058	-42.196119	15.839058	-0.272060	-113.902329
8.000000	-0.275877	-114.516510	-42.070447	14.390423	-42.070447	14.390423	-0.275885	-114.521409
8.050000	-0.279758	-115.134665	-41.945781	12.943244	-41.945781	12.943244	-0.279766	-115.139599
8.100000	-0.283680	-115.752183	-41.822324	11.497105	-41.822324	11.497105	-0.283688	-115.757152
8.150000	-0.287651	-116.368978	-41.699960	10.052188	-41.699960	10.052188	-0.287658	-116.373982
8.200000	-0.291670	-116.985050	-41.578666	8.608493	-41.578666	8.608493	-0.291678	-116.990090
8.250000	-0.295731	-117.600553	-41.458540	7.165791	-41.458540	7.165791	-0.295739	-117.605629
8.300000	-0.299849	-118.215261	-41.339360	5.724479	-41.339360	5.724479	-0.299857	-118.220373
8.350000	-0.304002	-118.829541	-41.221414	4.283938	-41.221414	4.283938	-0.304010	-118.834690
8.400000	-0.308220	-119.442969	-41.104301	2.844938	-41.104301	2.844938	-0.308228	-119.448155
8.450000	-0.312465	-120.056098	-40.988478	1.406497	-40.988478	1.406497	-0.312473	-120.061322
8.500000	-0.316784	-120.668331	-40.873388	-0.030271	-40.873388	-0.030271	-0.316792	-120.673594
8.550000	-0.321122	-121.280379	-40.759635	-1.466682	-40.759635	-1.466682	-0.321130	-121.285682
8.600000	-0.325544	-121.891506	-40.646525	-2.901307	-40.646525	-2.901307	-0.325552	-121.896849
8.650000	-0.329976	-122.502548	-40.534791	-4.335762	-40.534791	-4.335762	-0.329984	-122.507931
8.700000	-0.334501	-123.112657	-40.423623	-5.768344	-40.423623	-5.768344	-0.334509	-123.118081
8.750000	-0.339028	-123.722766	-40.313860	-7.200926	-40.313860	-7.200926	-0.339036	-123.728232
8.800000	-0.343657	-124.331949	-40.204597	-8.631574	-40.204597	-8.631574	-0.343665	-124.337458
8.850000	-0.348288	-124.941131	-40.096692	-10.062221	-40.096692	-10.062221	-0.348296	-124.946684
8.900000	-0.353013	-125.549550	-39.989369	-11.491202	-39.989369	-11.491202	-0.353021	-125.555147
8.950000	-0.357749	-126.157899	-39.883289	-12.920032	-39.883289	-12.920032	-0.357758	-126.163540
9.000000	-0.362571	-126.765632	-39.777866	-14.347452	-39.777866	-14.347452	-0.362580	-126.771319
9.050000	-0.367413	-127.373241	-39.673583	-15.774591	-39.673583	-15.774591	-0.367422	-127.378976
9.100000	-0.372332	-127.980369	-39.570021	-17.200561	-39.570021	-17.200561	-0.372342	-127.986151
9.150000	-0.377280	-128.587335	-39.467509	-18.626142	-39.467509	-18.626142	-0.377290	-128.593166
9.200000	-0.382298	-129.193938	-39.365773	-20.050779	-39.365773	-20.050779	-0.382308	-129.199819
9.250000	-0.387353	-129.800360	-39.265009	-21.474944	-39.265009	-21.474944	-0.387363	-129.806291
9.300000	-0.392469	-130.406522	-39.165069	-22.898370	-39.165069	-22.898370	-0.392480	-130.412504
9.350000	-0.397631	-131.012498	-39.066032	-24.321268	-39.066032	-24.321268	-0.397642	-131.018533
9.400000	-0.402847	-131.618303	-38.967858	-25.743609	-38.967858	-25.743609	-0.402858	-131.624392
9.450000	-0.408116	-132.223936	-38.870533	-27.165395	-38.870533	-27.165395	-0.408128	-132.230080
9.500000	-0.413431	-132.829469	-38.774101	-28.586783	-38.774101	-28.586783	-0.413443	-132.835669
9.550000	-0.418808	-133.434862	-38.678473	-30.007615	-38.678473	-30.007615	-0.418821	-133.441120
9.600000	-0.424222	-134.040211	-38.583762	-31.428184	-38.583762	-31.428184	-0.424235	-134.046527
9.650000	-0.429708	-134.645470	-38.489823	-32.848227	-38.489823	-32.848227	-0.429721	-134.651847
9.700000	-0.435221	-135.250723	-38.396812	-34.268115	-38.396812	-34.268115	-0.435236	-135.257161
9.750000	-0.440815	-135.855956	-38.304556	-35.687536	-38.304556	-35.687536	-0.440830	-135.862457
9.800000	-0.446428	-136.461203	-38.213230	-37.106881	-38.213230	-37.106881	-0.446444	-136.467768
9.850000	-0.452129	-137.066520	-38.122656	-38.525848	-38.122656	-38.525848	-0.452146	-137.073151
9.900000	-0.457842	-137.671853	-38.033003	-39.944791	-38.033003	-39.944791	-0.457861	-137.678550
9.950000	-0.463651	-138.277365	-37.944113	-41.363472	-37.944113	-41.363472	-0.463670	-138.284132
10.000000	-0.469464	-138.882878	-37.856123	-42.782153	-37.856123	-42.782153	-0.469484	-138.889714
