! freq	dB(S11)	phase(S11)	dB(S12)	phase(S12)	
!     	dB(S21)	phase(S21)	dB(S22)	phase(S22)	
!S-par simulation data
#  GHz  S  DB  R 50
0.000000	-0.000000	0.000000	-338.049454	0.000000	-338.049454	0.000000	-0.000000	0.000000
0.050000	-0.000536	-0.956631	-81.359392	87.422900	-81.359392	87.422900	-0.002664	-4.262614
0.100000	-0.001939	-1.910911	-75.356837	84.847713	-75.356837	84.847713	-0.009211	-8.518066
0.150000	-0.003789	-2.861818	-71.865048	82.281169	-71.865048	82.281169	-0.017347	-12.754628
0.200000	-0.005710	-3.809596	-69.408518	79.727550	-69.408518	79.727550	-0.025574	-16.963201
0.250000	-0.007492	-4.755102	-67.524281	77.190626	-67.524281	77.190626	-0.033172	-21.140251
0.300000	-0.009067	-5.699100	-66.006417	74.674272	-66.006417	74.674272	-0.039887	-25.283916
0.350000	-0.010450	-6.642158	-64.743499	72.181017	-64.743499	72.181017	-0.045756	-29.394169
0.400000	-0.011669	-7.584549	-63.671171	69.715182	-63.671171	69.715182	-0.050852	-33.467699
0.450000	-0.012767	-8.526437	-62.746690	67.279878	-62.746690	67.279878	-0.055322	-37.502315
0.500000	-0.013783	-9.467886	-61.940493	64.877715	-61.940493	64.877715	-0.059306	-41.495949
0.550000	-0.014746	-10.408896	-61.231777	62.511589	-61.231777	62.511589	-0.062913	-45.445933
0.600000	-0.015680	-11.349431	-60.605289	60.184535	-60.605289	60.184535	-0.066229	-49.349390
0.650000	-0.016602	-12.289450	-60.048791	57.898619	-60.048791	57.898619	-0.069324	-53.204645
0.700000	-0.017526	-13.228887	-59.553414	55.656915	-59.553414	55.656915	-0.072246	-57.008980
0.750000	-0.018461	-14.167677	-59.111697	53.461817	-59.111697	53.461817	-0.075033	-60.760656
0.800000	-0.019416	-15.105756	-58.717534	51.315554	-58.717534	51.315554	-0.077711	-64.458327
0.850000	-0.020393	-16.043082	-58.365153	49.218792	-58.365153	49.218792	-0.080304	-68.102522
0.900000	-0.021399	-16.979558	-58.051449	47.175791	-58.051449	47.175791	-0.082820	-71.690139
0.950000	-0.022433	-17.915129	-57.772543	45.188082	-57.772543	45.188082	-0.085270	-75.221274
1.000000	-0.023498	-18.849726	-57.525507	43.258124	-57.525507	43.258124	-0.087661	-78.695302
1.050000	-0.024593	-19.783297	-57.307500	41.387584	-57.307500	41.387584	-0.089996	-82.112621
1.100000	-0.025717	-20.715784	-57.116213	39.578593	-57.116213	39.578593	-0.092279	-85.473397
1.150000	-0.026868	-21.647119	-56.949818	37.834038	-56.949818	37.834038	-0.094510	-88.777394
1.200000	-0.028044	-22.577285	-56.805946	36.154347	-56.805946	36.154347	-0.096690	-92.026679
1.250000	-0.029244	-23.506216	-56.683296	34.542852	-56.683296	34.542852	-0.098820	-95.221051
1.300000	-0.030463	-24.433839	-56.580750	33.003522	-56.580750	33.003522	-0.100898	-98.360218
1.350000	-0.031699	-25.360142	-56.496520	31.537365	-56.496520	31.537365	-0.102925	-101.446371
1.400000	-0.032949	-26.285090	-56.429327	30.146988	-56.429327	30.146988	-0.104900	-104.480613
1.450000	-0.034209	-27.208651	-56.377972	28.835129	-56.377972	28.835129	-0.106823	-107.464139
1.500000	-0.035477	-28.130798	-56.341307	27.604660	-56.341307	27.604660	-0.108694	-110.398220
1.550000	-0.036749	-29.051505	-56.318224	26.458592	-56.318224	26.458592	-0.110513	-113.284191
1.600000	-0.038023	-29.970753	-56.307634	25.400066	-56.307634	25.400066	-0.112280	-116.123439
1.650000	-0.039296	-30.888520	-56.308451	24.432343	-56.308451	24.432343	-0.113995	-118.917388
1.700000	-0.040567	-31.804792	-56.319578	23.558783	-56.319578	23.558783	-0.115660	-121.667492
1.750000	-0.041833	-32.719554	-56.339889	22.782807	-56.339889	22.782807	-0.117275	-124.375226
1.800000	-0.043094	-33.632792	-56.368213	22.107849	-56.368213	22.107849	-0.118841	-127.042077
1.850000	-0.044348	-34.544494	-56.403321	21.537296	-56.403321	21.537296	-0.120359	-129.669537
1.900000	-0.045594	-35.454632	-56.443955	21.075600	-56.443955	21.075600	-0.121831	-132.258704
1.950000	-0.046832	-36.363195	-56.488674	20.725858	-56.488674	20.725858	-0.123258	-134.811113
2.000000	-0.048062	-37.270189	-56.535934	20.489499	-56.535934	20.489499	-0.124642	-137.328650
2.050000	-0.049284	-38.175603	-56.584144	20.368580	-56.584144	20.368580	-0.125987	-139.812777
2.100000	-0.050499	-39.079427	-56.631608	20.364433	-56.631608	20.364433	-0.127293	-142.264936
2.150000	-0.051706	-39.981649	-56.676527	20.477463	-56.676527	20.477463	-0.128565	-144.686548
2.200000	-0.052907	-40.882258	-56.717012	20.706934	-56.717012	20.706934	-0.129804	-147.079016
2.250000	-0.054103	-41.781243	-56.751100	21.050749	-56.751100	21.050749	-0.131013	-149.443714
2.300000	-0.055293	-42.678590	-56.776784	21.505238	-56.776784	21.505238	-0.132196	-151.781994
2.350000	-0.056481	-43.574288	-56.792052	22.064976	-56.792052	22.064976	-0.133356	-154.095182
2.400000	-0.057665	-44.468323	-56.794932	22.722651	-56.794932	22.722651	-0.134496	-156.384575
2.450000	-0.058849	-45.360683	-56.783555	23.468997	-56.783555	23.468997	-0.135620	-158.651447
2.500000	-0.060032	-46.251355	-56.756210	24.292821	-56.756210	24.292821	-0.136731	-160.897040
2.550000	-0.061215	-47.140286	-56.710998	25.182199	-56.710998	25.182199	-0.137833	-163.122163
2.600000	-0.062401	-48.027502	-56.647082	26.120810	-56.647082	26.120810	-0.138931	-165.328469
2.650000	-0.063590	-48.912989	-56.563620	27.092867	-56.563620	27.092867	-0.140028	-167.517117
2.700000	-0.064782	-49.796732	-56.460145	28.081882	-56.460145	28.081882	-0.141128	-169.689245
2.750000	-0.065980	-50.678720	-56.336585	29.071168	-56.336585	29.071168	-0.142237	-171.845962
2.800000	-0.067184	-51.558939	-56.193261	30.044365	-56.193261	30.044365	-0.143357	-173.988352
2.850000	-0.068394	-52.437378	-56.030860	30.985937	-56.030860	30.985937	-0.144494	-176.117478
2.900000	-0.069613	-53.314023	-55.850401	31.881608	-55.850401	31.881608	-0.145652	-178.234377
2.950000	-0.070840	-54.188864	-55.653177	32.718714	-55.653177	32.718714	-0.146835	179.659937
3.000000	-0.072077	-55.061890	-55.440696	33.486439	-55.440696	33.486439	-0.148047	177.564470
3.050000	-0.073323	-55.933089	-55.214610	34.175940	-55.214610	34.175940	-0.149295	175.478249
3.100000	-0.074581	-56.802452	-54.976658	34.780375	-54.976658	34.780375	-0.150580	173.400321
3.150000	-0.075851	-57.669949	-54.728434	35.293818	-54.728434	35.293818	-0.151910	171.329823
3.200000	-0.077133	-58.535571	-54.471721	35.713100	-54.471721	35.713100	-0.153289	169.265809
3.250000	-0.078428	-59.399331	-54.208379	36.037785	-54.208379	36.037785	-0.154720	167.207300
3.300000	-0.079736	-60.261220	-53.939992	36.267830	-53.939992	36.267830	-0.156209	165.153415
3.350000	-0.081059	-61.121232	-53.668029	36.404339	-53.668029	36.404339	-0.157759	163.103288
3.400000	-0.082396	-61.979362	-53.393830	36.449354	-53.393830	36.449354	-0.159375	161.056068
3.450000	-0.083749	-62.835603	-53.118608	36.405646	-53.118608	36.405646	-0.161062	159.010915
3.500000	-0.085117	-63.689951	-52.843443	36.276545	-52.843443	36.276545	-0.162823	156.967004
3.550000	-0.086502	-64.542403	-52.569288	36.065779	-52.569288	36.065779	-0.164664	154.923519
3.600000	-0.087903	-65.392954	-52.296979	35.777344	-52.296979	35.777344	-0.166588	152.879658
3.650000	-0.089321	-66.241604	-52.027238	35.415395	-52.027238	35.415395	-0.168599	150.834625
3.700000	-0.090756	-67.088349	-51.760689	34.984163	-51.760689	34.984163	-0.170702	148.787637
3.750000	-0.092210	-67.933190	-51.497862	34.487880	-51.497862	34.487880	-0.172900	146.737917
3.800000	-0.093682	-68.776083	-51.239142	33.929504	-51.239142	33.929504	-0.175201	144.684601
3.850000	-0.095173	-69.617072	-50.984996	33.314543	-50.984996	33.314543	-0.177604	142.626988
3.900000	-0.096683	-70.456158	-50.735734	32.646972	-50.735734	32.646972	-0.180116	140.564321
3.950000	-0.098213	-71.293342	-50.491610	31.930635	-50.491610	31.930635	-0.182738	138.495850
4.000000	-0.099762	-72.128626	-50.252828	31.169230	-50.252828	31.169230	-0.185475	136.420829
4.050000	-0.101332	-72.962015	-50.019551	30.366307	-50.019551	30.366307	-0.188330	134.338518
4.100000	-0.102923	-73.793512	-49.791905	29.525266	-49.791905	29.525266	-0.191308	132.248178
4.150000	-0.104534	-74.623122	-49.569983	28.649360	-49.569983	28.649360	-0.194411	130.149074
4.200000	-0.106168	-75.450850	-49.353853	27.741698	-49.353853	27.741698	-0.197643	128.040474
4.250000	-0.107823	-76.276701	-49.143557	26.805249	-49.143557	26.805249	-0.201007	125.921648
4.300000	-0.109500	-77.100683	-48.939115	25.842855	-48.939115	25.842855	-0.204508	123.791867
4.350000	-0.111199	-77.922803	-48.740532	24.857233	-48.740532	24.857233	-0.208148	121.650404
4.400000	-0.112922	-78.743048	-48.547814	23.850790	-48.547814	23.850790	-0.211932	119.496390
4.450000	-0.114669	-79.561427	-48.360941	22.826102	-48.360941	22.826102	-0.215865	117.329075
4.500000	-0.116439	-80.377970	-48.179859	21.785786	-48.179859	21.785786	-0.219947	115.147869
4.550000	-0.118233	-81.192685	-48.004516	20.732140	-48.004516	20.732140	-0.224183	112.952049
4.600000	-0.120052	-82.005583	-47.834852	19.667384	-47.834852	19.667384	-0.228577	110.740890
4.650000	-0.121896	-82.816676	-47.670798	18.593661	-47.670798	18.593661	-0.233131	108.513670
4.700000	-0.123765	-83.625973	-47.512275	17.513046	-47.512275	17.513046	-0.237850	106.269666
4.750000	-0.125660	-84.433488	-47.359198	16.427553	-47.359198	16.427553	-0.242739	104.008156
4.800000	-0.127580	-85.239232	-47.211473	15.339140	-47.211473	15.339140	-0.247800	101.728420
4.850000	-0.129528	-86.043219	-47.069000	14.249716	-47.069000	14.249716	-0.253038	99.429738
4.900000	-0.131502	-86.845462	-46.931672	13.161146	-46.931672	13.161146	-0.258458	97.111393
4.950000	-0.133503	-87.645975	-46.799372	12.075255	-46.799372	12.075255	-0.264064	94.772669
5.000000	-0.135532	-88.444772	-46.671977	10.993832	-46.671977	10.993832	-0.269862	92.412854
5.050000	-0.137590	-89.241832	-46.549422	9.918813	-46.549422	9.918813	-0.275860	90.030750
5.100000	-0.139677	-90.037208	-46.431501	8.851832	-46.431501	8.851832	-0.282059	87.626111
5.150000	-0.141792	-90.830916	-46.318065	7.794595	-46.318065	7.794595	-0.288467	85.198240
5.200000	-0.143937	-91.622972	-46.208955	6.748784	-46.208955	6.748784	-0.295087	82.746445
5.250000	-0.146112	-92.413392	-46.104001	5.716062	-46.104001	5.716062	-0.301927	80.270044
5.300000	-0.148317	-93.202196	-46.003023	4.698074	-46.003023	4.698074	-0.308992	77.768364
5.350000	-0.150552	-93.989399	-45.905828	3.696442	-45.905828	3.696442	-0.316290	75.240741
5.400000	-0.152819	-94.775021	-45.812209	2.712770	-45.812209	2.712770	-0.323828	72.686527
5.450000	-0.155118	-95.559080	-45.721947	1.748636	-45.721947	1.748636	-0.331613	70.105087
5.500000	-0.157448	-96.341595	-45.634804	0.805595	-45.634804	0.805595	-0.339653	67.495802
5.550000	-0.159811	-97.122586	-45.550527	-0.114831	-45.550527	-0.114831	-0.347955	64.858073
5.600000	-0.162207	-97.902073	-45.468844	-1.011159	-45.468844	-1.011159	-0.356528	62.191321
5.650000	-0.164636	-98.680060	-45.389477	-1.881658	-45.389477	-1.881658	-0.365384	59.494663
5.700000	-0.167100	-99.456568	-45.312101	-2.724902	-45.312101	-2.724902	-0.374532	56.767553
5.750000	-0.169597	-100.231635	-45.236362	-3.539864	-45.236362	-3.539864	-0.383977	54.009814
5.800000	-0.172130	-101.005283	-45.161895	-4.325326	-45.161895	-4.325326	-0.393729	51.220979
5.850000	-0.174697	-101.777532	-45.088312	-5.080179	-45.088312	-5.080179	-0.403797	48.400617
5.900000	-0.177301	-102.548406	-45.015197	-5.803438	-45.015197	-5.803438	-0.414191	45.548334
5.950000	-0.179940	-103.317927	-44.942109	-6.494273	-44.942109	-6.494273	-0.424920	42.663778
6.000000	-0.182616	-104.086118	-44.868575	-7.152035	-44.868575	-7.152035	-0.435992	39.746640
6.050000	-0.185328	-104.853002	-44.794099	-7.776286	-44.794099	-7.776286	-0.447418	36.796660
6.100000	-0.188079	-105.618603	-44.718156	-8.366834	-44.718156	-8.366834	-0.459207	33.813628
6.150000	-0.190866	-106.382946	-44.640198	-8.923769	-44.640198	-8.923769	-0.471366	30.797390
6.200000	-0.193693	-107.146054	-44.559654	-9.447501	-44.559654	-9.447501	-0.483904	27.747847
6.250000	-0.196558	-107.907952	-44.475936	-9.938799	-44.475936	-9.938799	-0.496828	24.664963
6.300000	-0.199462	-108.668640	-44.388326	-10.398184	-44.388326	-10.398184	-0.510154	21.548044
6.350000	-0.202407	-109.428170	-44.296299	-10.827993	-44.296299	-10.827993	-0.523880	18.397913
6.400000	-0.205391	-110.186567	-44.199250	-11.230323	-44.199250	-11.230323	-0.538009	15.214739
6.450000	-0.208417	-110.943859	-44.096579	-11.607763	-44.096579	-11.607763	-0.552548	11.998764
6.500000	-0.211482	-111.700070	-43.987712	-11.963413	-43.987712	-11.963413	-0.567497	8.750304
6.550000	-0.214590	-112.455228	-43.872107	-12.300888	-43.872107	-12.300888	-0.582858	5.469751
6.600000	-0.217739	-113.209360	-43.749264	-12.624312	-43.749264	-12.624312	-0.598630	2.157575
6.650000	-0.220930	-113.962493	-43.618745	-12.938296	-43.618745	-12.938296	-0.614812	-1.185675
6.700000	-0.224163	-114.714673	-43.480384	-13.247870	-43.480384	-13.247870	-0.631391	-4.558807
6.750000	-0.227440	-115.465887	-43.333432	-13.558489	-43.333432	-13.558489	-0.648379	-7.962414
6.800000	-0.230761	-116.216186	-43.177946	-13.876046	-43.177946	-13.876046	-0.665756	-11.394965
6.850000	-0.234125	-116.965599	-43.013835	-14.206583	-43.013835	-14.206583	-0.683514	-14.855595
6.900000	-0.237534	-117.714151	-42.841053	-14.556423	-42.841053	-14.556423	-0.701640	-18.343506
6.950000	-0.240988	-118.461872	-42.659731	-14.931897	-42.659731	-14.931897	-0.720118	-21.857666
7.000000	-0.244487	-119.208795	-42.470186	-15.339050	-42.470186	-15.339050	-0.738928	-25.396840
7.050000	-0.248031	-119.954951	-42.272785	-15.783837	-42.272785	-15.783837	-0.758051	-28.959877
7.100000	-0.251622	-120.700352	-42.067713	-16.273094	-42.067713	-16.273094	-0.777467	-32.546089
7.150000	-0.255259	-121.445061	-41.856072	-16.810126	-41.856072	-16.810126	-0.797140	-36.153228
7.200000	-0.258942	-122.189095	-41.638299	-17.400489	-41.638299	-17.400489	-0.817048	-39.780407
7.250000	-0.262671	-122.932485	-41.415141	-18.048356	-41.415141	-18.048356	-0.837157	-43.426258
7.300000	-0.266449	-123.675262	-41.187408	-18.757263	-41.187408	-18.757263	-0.857437	-47.089374
7.350000	-0.270273	-124.417459	-40.955958	-19.530073	-40.955958	-19.530073	-0.877850	-50.768317
7.400000	-0.274145	-125.159112	-40.721770	-20.368206	-40.721770	-20.368206	-0.898359	-54.461487
7.450000	-0.278066	-125.900241	-40.485525	-21.274947	-40.485525	-21.274947	-0.918926	-58.167756
7.500000	-0.282036	-126.640887	-40.248283	-22.249946	-40.248283	-22.249946	-0.939507	-61.885403
7.550000	-0.286055	-127.381078	-40.010882	-23.293991	-40.010882	-23.293991	-0.960060	-65.613026
7.600000	-0.290123	-128.120855	-39.774278	-24.405725	-39.774278	-24.405725	-0.980540	-69.349016
7.650000	-0.294241	-128.860249	-39.539313	-25.583935	-39.539313	-25.583935	-1.000903	-73.091899
7.700000	-0.298409	-129.599296	-39.306778	-26.826866	-39.306778	-26.826866	-1.021102	-76.840224
7.750000	-0.302626	-130.338030	-39.077414	-28.132280	-39.077414	-28.132280	-1.041093	-80.592567
7.800000	-0.306894	-131.076487	-38.851900	-29.497518	-38.851900	-29.497518	-1.060828	-84.347535
7.850000	-0.311213	-131.814698	-38.630844	-30.920001	-38.630844	-30.920001	-1.080258	-88.103776
7.900000	-0.315582	-132.552703	-38.414810	-32.396069	-38.414810	-32.396069	-1.099340	-91.859960
7.950000	-0.320003	-133.290537	-38.204275	-33.922035	-38.204275	-33.922035	-1.118028	-95.614828
8.000000	-0.324475	-134.028238	-37.999639	-35.494215	-37.999639	-35.494215	-1.136278	-99.367180
8.050000	-0.328998	-134.765840	-37.801237	-37.108823	-37.801237	-37.108823	-1.154049	-103.115874
8.100000	-0.333573	-135.503383	-37.609333	-38.762037	-37.609333	-38.762037	-1.171296	-106.859828
8.150000	-0.338200	-136.240903	-37.424143	-40.450209	-37.424143	-40.450209	-1.187978	-110.597986
8.200000	-0.342879	-136.978439	-37.245812	-42.169519	-37.245812	-42.169519	-1.204055	-114.329379
8.250000	-0.347612	-137.716030	-37.074454	-43.916451	-37.074454	-43.916451	-1.219484	-118.053040
8.300000	-0.352396	-138.453714	-36.910022	-45.686888	-36.910022	-45.686888	-1.234246	-121.768314
8.350000	-0.357231	-139.191525	-36.752401	-47.477196	-36.752401	-47.477196	-1.248324	-125.474671
8.400000	-0.362120	-139.929513	-36.601781	-49.285349	-36.601781	-49.285349	-1.261643	-129.170831
8.450000	-0.367062	-140.667713	-36.457932	-51.107706	-36.457932	-51.107706	-1.274200	-132.856465
8.500000	-0.372056	-141.406166	-36.320723	-52.941513	-36.320723	-52.941513	-1.285968	-136.531009
8.550000	-0.377104	-142.144912	-36.189998	-54.784240	-36.189998	-54.784240	-1.296925	-140.193954
8.600000	-0.382204	-142.883992	-36.065578	-56.633583	-36.065578	-56.633583	-1.307052	-143.844849
8.650000	-0.387358	-143.623449	-35.947268	-58.487461	-35.947268	-58.487461	-1.316331	-147.483294
8.700000	-0.392564	-144.363323	-35.834864	-60.344017	-35.834864	-60.344017	-1.324748	-151.108938
8.750000	-0.397823	-145.103659	-35.728149	-62.201608	-35.728149	-62.201608	-1.332291	-154.721476
8.800000	-0.403136	-145.844507	-35.626965	-64.058770	-35.626965	-64.058770	-1.338937	-158.320446
8.850000	-0.408502	-146.585904	-35.531028	-65.914255	-35.531028	-65.914255	-1.344693	-161.905812
8.900000	-0.413920	-147.327893	-35.440118	-67.767011	-35.440118	-67.767011	-1.349555	-165.477382
8.950000	-0.419392	-148.070521	-35.354020	-69.616156	-35.354020	-69.616156	-1.353523	-169.034990
9.000000	-0.424916	-148.813831	-35.272524	-71.460965	-35.272524	-71.460965	-1.356598	-172.578499
9.050000	-0.430493	-149.557869	-35.195428	-73.300853	-35.195428	-73.300853	-1.358785	-176.107788
9.100000	-0.436123	-150.302682	-35.122537	-75.135366	-35.122537	-75.135366	-1.360092	-179.622757
9.150000	-0.441805	-151.048316	-35.053668	-76.964163	-35.053668	-76.964163	-1.360528	176.876686
9.200000	-0.447540	-151.794827	-34.988678	-78.786948	-34.988678	-78.786948	-1.360097	173.390761
9.250000	-0.453327	-152.542260	-34.927388	-80.603601	-34.927388	-80.603601	-1.358821	169.919476
9.300000	-0.459166	-153.290659	-34.869631	-82.414081	-34.869631	-82.414081	-1.356722	166.462833
9.350000	-0.465056	-154.040073	-34.815270	-84.218387	-34.815270	-84.218387	-1.353819	163.020910
9.400000	-0.470999	-154.790552	-34.764176	-86.016573	-34.764176	-86.016573	-1.350137	159.593784
9.450000	-0.476992	-155.542145	-34.716235	-87.808734	-34.716235	-87.808734	-1.345702	156.181544
9.500000	-0.483036	-156.294904	-34.671344	-89.595007	-34.671344	-89.595007	-1.340542	152.784286
9.550000	-0.489131	-157.048880	-34.629409	-91.375552	-34.629409	-91.375552	-1.334687	149.402118
9.600000	-0.495277	-157.804132	-34.590363	-93.150526	-34.590363	-93.150526	-1.328168	146.035238
9.650000	-0.501472	-158.560718	-34.554145	-94.920101	-34.554145	-94.920101	-1.321019	142.683862
9.700000	-0.507718	-159.318682	-34.520669	-96.684534	-34.520669	-96.684534	-1.313283	139.347998
9.750000	-0.514012	-160.078077	-34.489882	-98.444026	-34.489882	-98.444026	-1.304999	136.027820
9.800000	-0.520355	-160.838956	-34.461742	-100.198775	-34.461742	-100.198775	-1.296210	132.723524
9.850000	-0.526747	-161.601377	-34.436215	-101.948970	-34.436215	-101.948970	-1.286960	129.435323
9.900000	-0.533186	-162.365395	-34.413271	-103.694786	-34.413271	-103.694786	-1.277292	126.163450
9.950000	-0.539672	-163.131068	-34.392893	-105.436382	-34.392893	-105.436382	-1.267253	122.908160
10.000000	-0.546205	-163.898451	-34.375065	-107.173896	-34.375065	-107.173896	-1.256892	119.669727
